!Created with skrf (http://scikit-rf.org).
# Hz S RI R 50.0 
!freq ReS11 ImS11 ReS21 ImS21 ReS12 ImS12 ReS22 ImS22
300000.0 -0.7709064316 -0.179260209 -1.78869e-05 -0.0004565936 0.0007757004 0.0007066575 -0.0441730924 -0.0754107792
5299970.0 -0.7861965221 -0.0090201808 0.000147408 0.0001392915 0.0001015507 -0.0002743033 -0.0477813951 0.0138671407
10299940.0 -0.7894589145 -0.0055523615 -2.09502e-05 -3.38778e-05 3.20386e-05 -0.0001892022 -0.0421429844 0.0315333899
15299910.0 -0.7943981172 -0.0034029824 6.014e-05 -7.80976e-05 -0.0001139098 -0.0001009825 -0.0339496176 0.045813889
20299880.0 -0.8007553324 0.0005227335 -6.7938e-06 0.0001689705 0.0001331858 -0.0001078818 -0.0244682805 0.0570133322
25299850.0 -0.8075488496 0.0064088286 8.1617e-05 0.0002046369 -3.22645e-05 0.0001833506 -0.0136902355 0.0661590184
30299820.0 -0.8142955702 0.0141321259 2.5713e-05 -6.8176e-06 -3.57962e-05 8.63833e-05 -0.0020648113 0.0726996294
35299790.0 -0.8184684228 0.0230516928 -9.55698e-05 9.20664e-05 0.0001491852 3.52009e-05 0.0090160557 0.0774667854
40299760.0 -0.8235948973 0.0323018696 -7.604e-06 -0.000181551 9.99749e-05 -0.0001376453 0.0199101363 0.0803567393
45299730.0 -0.8264309664 0.0422888965 0.0001036619 -9.79279e-05 6.48307e-05 0.000122503 0.0306830191 0.0816578783
50299700.0 -0.8289747159 0.0518884897 -0.0002010334 -0.000174627 -1.01861e-05 -5.90468e-05 0.0403938635 0.0814905017
55299670.0 -0.8313243371 0.0613925632 1.38781e-05 6.30323e-05 1.26409e-05 1.53271e-05 0.0491698342 0.080279517
60299640.0 -0.8324794379 0.0720314199 -0.0001958447 0.0001212405 1.54159e-05 0.0001083574 0.057280823 0.0784033998
65299610.0 -0.8330770444 0.0816771594 -5.2739e-06 0.0002153863 5.75166e-05 6.29646e-05 0.0653986403 0.0761199353
70299580.0 -0.8337518006 0.0915119822 -0.0001023484 6.8601e-06 3.26237e-05 -3.9705e-05 0.0718786804 0.0729950825
75299550.0 -0.8342649364 0.1016846527 -0.0002128432 2.1152e-06 6.17756e-05 0.0001256242 0.0784590369 0.0700786148
80299520.0 -0.8339751773 0.1124981539 0.0001558439 -4.71385e-05 3.99014e-05 -8.40989e-05 0.083997688 0.0662628972
85299490.0 -0.8331215126 0.1209717199 -4.45624e-05 4.53005e-05 3.54165e-05 5.02243e-05 0.0887891357 0.062374173
90299460.0 -0.8326855224 0.1316428488 0.000229986 0.0001162228 0.0001482939 -0.0001055134 0.0933251824 0.058624787
95299430.0 -0.8318853428 0.1408864642 4.8177e-05 -6.47283e-05 9.66354e-05 8.98944e-05 0.0973345491 0.0548455601
100299400.0 -0.8304094947 0.1498492244 0.0001620921 -2.99633e-05 -3.8119e-06 0.0001469789 0.1010545005 0.0510831934
105299370.0 -0.8288634306 0.1587613313 -0.0001524345 0.0001614323 5.81171e-05 0.0001029083 0.1038640363 0.046933212
110299340.0 -0.8275126735 0.1683534095 5.29385e-05 -1.21474e-05 -4.32025e-05 0.00014538 0.1066977758 0.0427946541
115299310.0 -0.8257858566 0.1777253218 3.43115e-05 -9.50032e-05 8.64053e-05 -0.0001295251 0.1090593075 0.0390632519
120299280.0 -0.8246637331 0.1866911943 2.29071e-05 0.000152127 -5.477e-07 -0.0001625387 0.1110094136 0.0350233463
125299250.0 -0.8217320232 0.1957547251 0.0001511714 0.0001752794 9.03725e-05 -0.0002121512 0.1131674564 0.0310504705
130299220.0 -0.8206023393 0.2049496816 -7.07484e-05 0.0001192931 0.0001918668 0.0001046551 0.1147656868 0.0275374359
135299190.0 -0.8189011707 0.2146345179 -8.06765e-05 0.0001439352 -7.0483e-06 0.0001234848 0.1164143435 0.0234929485
140299160.0 -0.8172800535 0.2232900088 0.0003420717 0.0001018043 1.9805e-05 -4.78408e-05 0.1170590571 0.0199840858
145299130.0 -0.8144297037 0.2323107017 -0.000123633 -0.0001169767 9.51136e-05 0.0001085722 0.1185191936 0.0166267463
150299100.0 -0.8122790396 0.2409786042 2.37511e-05 0.000126998 0.0002659184 1.15992e-05 0.1190189352 0.0132633829
155299070.0 -0.8099460087 0.2502971772 0.0002521087 0.0001573123 -0.0001928911 0.0001497833 0.1198253478 0.0101945982
160299040.0 -0.8077311148 0.2588825769 9.31933e-05 -6.32703e-05 0.0001265615 0.0001974721 0.1203991997 0.0066691639
165299010.0 -0.8048738475 0.2675597294 -0.0001454505 -3.09097e-05 7.25561e-05 8.9731e-06 0.121104813 0.0031555554
170298980.0 -0.8018098744 0.276210004 -0.0001721861 -2.3739e-06 0.0001168161 -4.01418e-05 0.1210166827 0.0002399298
175298950.0 -0.7994538924 0.2841790005 6.86938e-05 -0.0001407497 8.78206e-05 -2.98824e-05 0.1212035094 -0.0024566474
180298920.0 -0.7957870018 0.2933795193 6.55402e-05 -9.95744e-05 1.8572e-06 -4.27576e-05 0.1215044473 -0.0057565108
185298890.0 -0.7925661745 0.3023226106 -6.64468e-05 3.2499e-06 0.00013846 0.0001195637 0.1216746578 -0.0089534948
190298860.0 -0.7895135215 0.3112208297 0.0001957694 -2.31455e-05 0.0001613126 5.5245e-05 0.1214984139 -0.0116133733
195298830.0 -0.7865605174 0.3193566248 -7.30972e-05 -2.17945e-05 -0.00010729 0.0001214016 0.1208271911 -0.0144606668
200298800.0 -0.7826472401 0.3275903423 4.23067e-05 -9.59328e-05 0.0001546445 -0.0001683552 0.1207881919 -0.0172867634
205298770.0 -0.7791084469 0.3361994691 4.12296e-05 4.10815e-05 -7.43882e-05 3.26929e-05 0.1204052511 -0.0198906747
210298740.0 -0.7763168136 0.3443593982 3.56851e-05 -0.0001745759 3.42001e-05 4.97173e-05 0.1201932306 -0.0225345201
215298710.0 -0.7720225952 0.3532085001 -6.57348e-05 -2.96252e-05 1.2997e-05 0.0002274443 0.1199072305 -0.0250322832
220298680.0 -0.7688017984 0.3609139043 0.0003537027 5.98344e-05 -0.0001827856 0.0002526184 0.1191164185 -0.0272491289
225298650.0 -0.7650136552 0.3692554383 -1.47172e-05 -4.3138e-05 -5.53795e-05 1.82462e-05 0.1185393877 -0.0299705391
230298620.0 -0.7609893921 0.3776424782 -9.82928e-05 3.3767e-06 0.0001926616 2.52696e-05 0.1178550793 -0.0324575198
235298590.0 -0.757665623 0.3855170836 0.000262894 3.18627e-05 0.0002404948 9.59587e-05 0.1171988505 -0.0347887412
240298560.0 -0.7526737271 0.3935955633 0.0001705949 0.0002163067 -4.4553e-05 7.63235e-05 0.1167821934 -0.037192678
245298530.0 -0.7488614739 0.401826233 -0.0001628154 0.0001479808 9.5554e-05 4.51775e-05 0.1158118444 -0.0393006373
250298500.0 -0.7444991929 0.4090918331 -0.0001184405 1.30204e-05 -8.97662e-05 7.27945e-05 0.1149912382 -0.0412802938
255298470.0 -0.7408069966 0.4173754691 1.53728e-05 0.0001143146 0.0002344995 7.09631e-05 0.1144115674 -0.0436102356
260298440.0 -0.7363892114 0.4248198434 0.0001128432 0.0001093032 8.39187e-05 0.0001781616 0.113352145 -0.0456018652
265298410.0 -0.7316787239 0.4327205582 0.00014044 -8.61221e-05 -2.45375e-05 -6.20576e-05 0.1129229444 -0.0480989043
270298380.0 -0.727312269 0.4404048304 4.50479e-05 -0.000165015 0.0003054633 0.0001266149 0.1117847573 -0.0498920845
275298350.0 -0.7227441532 0.4483908831 9.18767e-05 2.99756e-05 0.0002096559 -5.24174e-05 0.110932954 -0.0520793958
280298320.0 -0.7184155403 0.4559611053 -0.0001134655 -5.18153e-05 0.000128407 0.0001609674 0.1097328319 -0.0538810112
285298290.0 -0.7135361759 0.4630026708 -6.1867e-06 0.0001530129 0.0001773862 0.0001139401 0.1089678428 -0.0555890556
290298260.0 -0.7088245427 0.4706674818 4.38541e-05 -6.73054e-05 0.0001012198 9.24057e-05 0.1079152974 -0.0575679888
295298230.0 -0.7037309449 0.4775890708 9.20615e-05 -0.0001559752 -1.0156e-06 6.2787e-05 0.106987092 -0.059491545
300298200.0 -0.6993391428 0.4857393605 8.24969e-05 4.64366e-05 5.1899e-06 -0.0001529757 0.1059918335 -0.0614941606
305298170.0 -0.6944271956 0.4924048201 9.69763e-05 0.0001023669 -6.14225e-05 5.30193e-05 0.1052398956 -0.0629693217
310298140.0 -0.6887849451 0.499477343 0.0001157676 8.47449e-05 0.0001519929 0.0001276759 0.1041452101 -0.0649597795
315298110.0 -0.6845523473 0.5071703667 -4.2677e-06 0.000130705 -0.0001161353 9.19761e-05 0.1027910055 -0.0667105511
320298080.0 -0.6787883626 0.5138578159 -5.32024e-05 -3.52668e-05 4.82419e-05 0.0001669561 0.1014196431 -0.068664625
325298050.0 -0.6732142066 0.5210543925 3.139e-07 -6.65419e-05 8.51559e-05 -2.2218e-05 0.1004758389 -0.0706740674
330298020.0 -0.667712424 0.5279290431 1.78405e-05 3.91379e-05 -5.82303e-05 9.88632e-05 0.0989512498 -0.0724465554
335297990.0 -0.6629973082 0.5351076022 -2.59187e-05 4.00549e-05 0.0001402516 0.0002723085 0.0974184875 -0.0741259521
340297960.0 -0.6576926298 0.5416878045 3.30839e-05 -4.13202e-05 -4.95935e-05 1.12757e-05 0.0963828686 -0.0752702119
345297930.0 -0.6521358279 0.5483140827 0.0001338829 -9.89408e-05 3.30451e-05 -0.0001539292 0.0944721459 -0.0767935924
350297900.0 -0.6461413796 0.5550061303 -8.43051e-05 0.0001480708 0.0001877134 -8.33748e-05 0.093100902 -0.0784830433
355297870.0 -0.640661492 0.5611366852 0.0002699735 -4.72155e-05 -0.0001332389 0.0001406871 0.0919725745 -0.079592657
360297840.0 -0.6345631918 0.5680128295 0.000231691 -0.0001747055 -0.0001023785 9.82905e-05 0.0906817358 -0.0808564915
365297810.0 -0.629235929 0.5744379974 0.0001774619 3.70017e-05 2.7471e-06 0.0001475228 0.0889042105 -0.0824467814
370297780.0 -0.6231970103 0.5808178794 8.5005e-06 0.0001630559 -2.87523e-05 0.0001735143 0.0871610211 -0.0836957161
375297750.0 -0.6177515185 0.5867427033 3.5719e-05 1.70357e-05 0.0001180625 2.21543e-05 0.0860451026 -0.0848430486
380297720.0 -0.6119251951 0.5930218105 1.4399e-05 0.0001502721 -2.13778e-05 -0.0002032089 0.0847493073 -0.0859662832
385297690.0 -0.6061133828 0.5997695017 -5.50764e-05 -0.0001205665 0.0002130411 0.000111339 0.0833342683 -0.0871456215
390297660.0 -0.5983793357 0.6051907165 0.000271526 2.07209e-05 0.0002955211 0.0002539006 0.0818360664 -0.0882256099
395297630.0 -0.5927452317 0.6123710415 2.19998e-05 -0.0001903861 7.05945e-05 -7.98781e-05 0.0803155308 -0.0897709854
400297600.0 -0.5865473709 0.6182661992 2.59519e-05 -0.00017601 3.15591e-05 -0.000103122 0.078803081 -0.0907035639
405297570.0 -0.5804555753 0.6235601289 -1.677e-07 0.0001153239 0.0001145225 0.0001615933 0.0777500434 -0.091942419
410297540.0 -0.5737277846 0.6296779629 3.34597e-05 -6.8686e-06 5.49048e-05 5.56599e-05 0.075885167 -0.092713126
415297510.0 -0.5681873041 0.6354494864 7.01868e-05 0.0002622419 0.0001615224 -9.4996e-05 0.0745937968 -0.0937814933
420297480.0 -0.5605341098 0.6412130841 2.45748e-05 7.74639e-05 0.0001154238 -0.0001627598 0.073300192 -0.0948250535
425297450.0 -0.5543448043 0.6467243469 0.0001476313 0.0002313411 -6.88248e-05 -0.0001753967 0.0715136531 -0.09626242
430297420.0 -0.5475723736 0.6519656959 0.0001817878 5.7426e-06 3.61589e-05 -9.15774e-05 0.0700923024 -0.0967998046
435297390.0 -0.5407031611 0.6574008085 0.0001707257 -3.51336e-05 0.0002552683 0.0001676919 0.0680745987 -0.0977082623
440297360.0 -0.5338639163 0.6623221781 0.0001780146 -9.98058e-05 0.0002473773 -1.22286e-05 0.0669682042 -0.0989097239
445297330.0 -0.5268847913 0.6680402021 5.39928e-05 9.2529e-06 0.0001030333 1.85266e-05 0.0658039652 -0.0996472998
450297300.0 -0.519889306 0.6735463074 4.67184e-05 0.0001688035 0.0002877348 4.32924e-05 0.0642252223 -0.1006930824
455297270.0 -0.5136360264 0.6785563549 0.0001648237 -0.0001261043 0.0002178472 -0.0001334622 0.0626375004 -0.1012870255
460297240.0 -0.5057876851 0.6842946042 0.000156839 3.34293e-05 0.0001561507 -3.93528e-05 0.0609635066 -0.1021191716
465297210.0 -0.4991206719 0.6891201426 6.8545e-05 -4.04908e-05 0.00012277 5.39899e-05 0.0593724085 -0.1026155211
470297180.0 -0.491444013 0.6940458181 4.09101e-05 0.0002034567 8.54935e-05 -6.9348e-06 0.0577085522 -0.1036080454
475297150.0 -0.4840848076 0.698958622 0.0002532161 0.000136085 0.0001126169 0.0001390111 0.0565033712 -0.1043188361
480297120.0 -0.4765125657 0.7034710154 0.0002920214 3.68051e-05 -2.00188e-05 -2.2207e-06 0.0543681644 -0.1050707202
485297090.0 -0.4701266241 0.7084517877 7.4592e-05 9.66204e-05 7.66239e-05 0.0002249272 0.0529445972 -0.1060781429
490297060.0 -0.4623588818 0.7137060432 -4.564e-05 9.00458e-05 6.48822e-05 -9.11603e-05 0.0513288871 -0.1065178617
495297030.0 -0.454143456 0.718018157 0.0001021711 4.91653e-05 9.93157e-05 -3.05788e-05 0.0498992957 -0.1074795386
500297000.0 -0.4468462163 0.7219179506 5.76475e-05 -8.47809e-05 -1.99029e-05 0.0001036384 0.0483112542 -0.107907556
505296970.0 -0.4391054609 0.7266698552 0.0002210582 -6.2436e-06 9.39838e-05 0.0002202018 0.0464600796 -0.1082932389
510296940.0 -0.4316881387 0.7310029531 9.52805e-05 2.40386e-05 0.000213224 -0.0001732283 0.0449179531 -0.108822866
515296910.0 -0.4239580715 0.7357525807 0.0001826421 2.63887e-05 0.0001620785 2.00426e-05 0.0433797308 -0.1094405437
520296880.0 -0.4161129441 0.7401958898 0.0002481665 6.4208e-06 -7.408e-06 -5.42606e-05 0.0420274275 -0.1101951195
525296850.0 -0.4086533451 0.7440237291 -9.14887e-05 -5.15696e-05 0.0001226112 -5.24401e-05 0.0399705727 -0.110690803
530296820.0 -0.401301391 0.7482364108 0.000101329 2.84239e-05 0.0001036653 -0.0001282417 0.0384529062 -0.1112577744
535296790.0 -0.3928913491 0.7516620969 0.0001058421 1.55958e-05 1.81004e-05 6.55953e-05 0.0372769173 -0.1114142352
540296760.0 -0.3844153277 0.7557772229 9.2081e-05 6.30249e-05 -4.22836e-05 0.0002356892 0.0350445271 -0.1119921781
545296730.0 -0.3770042372 0.7601618634 -0.0002183342 0.000191317 0.0001754098 -9.1583e-05 0.0336394246 -0.1121299031
550296700.0 -0.3689969412 0.7636530239 0.0001843427 -4.85023e-05 -6.84706e-05 0.0001699957 0.0316451349 -0.1129416532
555296670.0 -0.3612244365 0.7672858598 0.0001707509 -2.60096e-05 0.0001323078 3.84405e-05 0.0300031941 -0.1130638041
560296640.0 -0.3527268584 0.7703178268 0.0001834303 8.84391e-05 6.54059e-05 6.08825e-05 0.0284268115 -0.1134309867
565296610.0 -0.3456711595 0.7742237853 -4.85059e-05 -0.0001161901 6.38865e-05 6.23709e-05 0.0269088665 -0.1135925511
570296580.0 -0.3368969288 0.7778796189 9.0599e-05 -0.0001201159 -5.1628e-06 0.0001371896 0.0247816681 -0.1139626254
575296550.0 -0.3281242974 0.7811687239 0.0001229045 6.76602e-05 -3.74629e-05 0.0001770561 0.0232808856 -0.1144011499
580296520.0 -0.3205593358 0.7842744365 8.84432e-05 0.0001098538 2.7312e-06 0.0001317433 0.0217694772 -0.1144800457
585296490.0 -0.3123216655 0.7875630874 0.0002818116 0.0002709936 0.0002445994 0.0001060821 0.0202782252 -0.1144345708
590296460.0 -0.303880196 0.7906343137 0.0002669161 -5.63974e-05 0.000341059 0.0001952993 0.0180662442 -0.114685195
595296430.0 -0.2959276336 0.7939375519 0.0001231794 5.71947e-05 8.08434e-05 -0.000132248 0.0167443194 -0.1150076621
600296400.0 -0.288010159 0.7963601055 0.0002965216 -9.18786e-05 0.0002276099 -3.11728e-05 0.0151675606 -0.1151875975
605296370.0 -0.2794342171 0.798706417 0.0001345349 -0.0003100695 0.000320822 -7.03316e-05 0.0134132632 -0.1152155147
610296340.0 -0.2713559597 0.8027068664 0.0001159287 -5.30523e-05 5.65528e-05 -8.2231e-05 0.0114724983 -0.1152562813
615296310.0 -0.2626443626 0.8057839714 2.9317e-06 -0.0001162454 0.0001378818 -8.85882e-05 0.010206035 -0.1155903999
620296280.0 -0.2549866463 0.8083191514 0.0002648119 -0.0001175365 0.0001292545 -8.66108e-05 0.008139197 -0.1148937548
625296250.0 -0.2468986183 0.8101471417 0.0003131283 -9.36318e-05 0.0001488186 4.7948e-06 0.0065726433 -0.1156587832
630296220.0 -0.2389043947 0.8130368194 -9.72953e-05 -0.0002850658 0.0005182739 0.0001447907 0.0049686401 -0.1155124302
635296190.0 -0.2302416845 0.8153358967 2.99698e-05 -7.6932e-05 0.0001413062 -0.000156722 0.0029390008 -0.1153960875
640296160.0 -0.2216217919 0.8175709373 6.9137e-05 -3.8044e-06 7.05326e-05 -0.00012699 0.0014601119 -0.1152733205
645296130.0 -0.2133595825 0.8206384393 0.0001343354 -9.70385e-05 0.0002420554 -0.0001769903 -0.0002656243 -0.1152043085
650296100.0 -0.2052182479 0.8222630068 0.0001429451 -0.0002060545 3.00747e-05 0.00014899 -0.0016479972 -0.1149067911
655296070.0 -0.1975286822 0.8237625227 -7.57781e-05 -6.08515e-05 0.0002535181 6.8217e-05 -0.0038111494 -0.1149252833
660296040.0 -0.1890429203 0.8261871674 0.0001033144 -3.156e-06 0.000214287 -0.0001172326 -0.0048676164 -0.1150042296
665296010.0 -0.1804640111 0.8282979136 0.0003106855 0.0001103963 -9.19922e-05 0.0001637162 -0.0070025295 -0.1146333905
670295980.0 -0.1726961636 0.830501094 4.77606e-05 -0.0001386678 0.0001044199 -4.03295e-05 -0.0086246301 -0.114631648
675295950.0 -0.1635470182 0.8318594927 -4.7678e-06 -1.27497e-05 9.8305e-06 -5.6597e-05 -0.0102447045 -0.11430796
680295920.0 -0.1563099803 0.8333709361 0.0002551512 -4.48275e-05 0.0001025685 -8.14155e-05 -0.0118728357 -0.114170697
685295890.0 -0.1477048851 0.8357579236 -3.8573e-05 4.91648e-05 0.0001567695 -4.48538e-05 -0.0136256071 -0.1135978795
690295860.0 -0.1392361299 0.8365765877 5.08554e-05 -7.66926e-05 0.0001583918 -7.81339e-05 -0.0152127928 -0.1134356346
695295830.0 -0.130742145 0.8388348771 0.0002588946 -0.0003709788 0.0001031556 -0.0001726507 -0.0170084316 -0.1127114476
700295800.0 -0.1223209823 0.8398692935 0.0001220567 0.0001321417 0.0003070669 -7.38969e-05 -0.0181951686 -0.1127773712
705295770.0 -0.1143014692 0.8413290794 -0.000221107 -2.1821e-05 0.000170262 0.0001145706 -0.0203119959 -0.1117929296
710295740.0 -0.1068894302 0.8422493592 0.0002436427 -0.0001436671 9.11444e-05 3.79834e-05 -0.0215132619 -0.1121964332
715295710.0 -0.0978541157 0.8433627794 0.0001005646 4.81495e-05 -5.2753e-06 -0.0001495356 -0.0229884246 -0.1120206848
720295680.0 -0.0893016636 0.8436973664 0.0001618039 0.0001254241 6.812e-05 0.0001531714 -0.0250381171 -0.1112431629
725295650.0 -0.0811770641 0.8455347112 0.0002606246 -0.0001270337 0.0001814527 1.60547e-05 -0.0263122586 -0.1105523115
730295620.0 -0.0736053573 0.8465843247 0.0002256047 -6.42952e-05 0.000170975 0.0001280479 -0.0281824311 -0.1100076403
735295590.0 -0.0654340252 0.8471476439 0.0002767022 -8.2796e-05 0.0003361632 -2.03622e-05 -0.0296800672 -0.1097657894
740295560.0 -0.0572883956 0.8477428414 0.0001447498 -8.95077e-05 0.0002652339 -0.0001299504 -0.0312571483 -0.1095136468
745295530.0 -0.0488984264 0.848500357 0.0002343617 -0.0002381278 0.0003051828 -0.0002357945 -0.0330541509 -0.1084561447
750295500.0 -0.0410102407 0.849097224 0.0002470648 -0.0001304871 0.0001566411 -1.85566e-05 -0.0347088631 -0.1083456757
755295470.0 -0.0321146532 0.8497687702 0.0002073349 -6.78389e-05 0.0002929023 0.0002344681 -0.0361376359 -0.1073057036
760295440.0 -0.0244700569 0.8503884977 0.0002186434 5.1342e-06 6.2935e-05 -3.52279e-05 -0.0375256173 -0.1071174235
765295410.0 -0.0160924891 0.8504167277 0.000160995 -0.0001699206 0.0002111032 -8.84943e-05 -0.0392509251 -0.1065674276
770295380.0 -0.008334542 0.8509200752 0.0002305226 6.9045e-05 6.70393e-05 -0.000229116 -0.0410940714 -0.1054714675
775295350.0 0.000302013 0.8508614122 0.0002793039 -0.0002055081 -0.0001025696 -9.53591e-05 -0.0418801931 -0.1050071032
780295320.0 0.0090736701 0.8509774143 0.0002391328 -0.0001922419 0.0002049166 -3.473e-05 -0.0436822949 -0.1045535942
785295290.0 0.0168446385 0.8509302742 0.0002054832 -0.0001393534 0.0001870312 1.295e-06 -0.0454056904 -0.1036743463
790295260.0 0.0252656635 0.8508207917 0.0001356141 7.15856e-05 0.0001747136 -1.41271e-05 -0.0466746298 -0.102642728
795295230.0 0.033175168 0.8501461043 0.0001265284 -6.6099e-05 6.06081e-05 5.3565e-05 -0.0486653346 -0.102594255
800295200.0 0.0413952223 0.8505708419 0.0003658769 -2.25193e-05 -5.6618e-05 8.4949e-06 -0.0499111816 -0.1015887366
805295170.0 0.0491711199 0.8506045886 0.0001020149 -0.000102778 9.83691e-05 -0.0001042954 -0.0510974014 -0.1011525122
810295140.0 0.0580360396 0.8504295523 0.0002295048 -3.33757e-05 0.0001965847 -3.12342e-05 -0.0526559073 -0.099836456
815295110.0 0.0656061161 0.8493451446 0.0002774595 -0.000132075 7.58269e-05 2.61574e-05 -0.0544119719 -0.0989919716
820295080.0 0.0736619543 0.8484847892 0.0003179208 0.0001066731 8.72301e-05 6.76036e-05 -0.056239035 -0.0977787842
825295050.0 0.0821791086 0.8476980093 -8.16583e-05 -0.0001447424 0.0001274792 4.94527e-05 -0.0568604268 -0.0974632348
830295020.0 0.090934488 0.8474331869 0.0002412351 3.65021e-05 -6.18852e-05 1.52154e-05 -0.0586603446 -0.0962926842
835294990.0 0.0980983001 0.8468008495 0.0001802229 -0.0001718925 0.0001419533 -1.71765e-05 -0.0600767611 -0.0954174113
840294960.0 0.1067092276 0.8450958832 0.000109057 -6.69468e-05 0.0002907727 -4.28417e-05 -0.0613430711 -0.0944589931
845294930.0 0.1146338183 0.8443987428 -1.4384e-05 -0.0003058164 0.0001171691 -9.48291e-05 -0.0627383071 -0.0935434285
850294900.0 0.12435816 0.8427596191 0.0001395702 -0.0001247807 0.0003098625 4.82018e-05 -0.0642184938 -0.0928149953
