!Created with skrf (http://scikit-rf.org).
# Hz S RI R 50.0 
!freq ReS11 ImS11 ReS21 ImS21 ReS12 ImS12 ReS22 ImS22
300000.0 -0.2414553413 -0.0772867069 0.4729705539 0.0523681281 0.4688797255 0.0514664157 -0.2408531516 -0.0920447215
5299970.0 -0.2442731629 0.0072043935 0.4734440247 0.0046013788 0.4735426314 0.0048945475 -0.2441287007 0.0074803149
10299940.0 -0.2409681193 0.0189377135 0.4755269209 0.0061087407 0.4756221221 0.00616483 -0.2406592923 0.0203831538
15299910.0 -0.2366828461 0.0282754637 0.4791151393 0.0075046586 0.479331361 0.0076022967 -0.2358591274 0.029629853
20299880.0 -0.2320935957 0.0356858218 0.4837721859 0.0084326349 0.4840320792 0.0080508816 -0.2307025257 0.0377033448
25299850.0 -0.2270535784 0.041995441 0.489422923 0.0072186227 0.4891891647 0.0074367971 -0.224643599 0.0439443542
30299820.0 -0.2214535931 0.0471364337 0.4944052946 0.0054920397 0.4947688195 0.0049672982 -0.2191770956 0.0494142065
35299790.0 -0.2163645075 0.0516065999 0.4997970884 0.0019439428 0.4997410121 0.0018711494 -0.2133837412 0.0535173565
40299760.0 -0.211347588 0.0549956208 0.505123404 -0.0018432261 0.5050463629 -0.0020213927 -0.2080498853 0.0561621999
45299730.0 -0.2066728447 0.0579182496 0.5097414757 -0.0065395554 0.5100678031 -0.0066989476 -0.203375699 0.0589860047
50299700.0 -0.2022739574 0.0597983411 0.5141763667 -0.0120616676 0.5140363731 -0.0121083189 -0.1984636545 0.0606376419
55299670.0 -0.198459091 0.061843121 0.5180709013 -0.0183300678 0.5180300833 -0.0178593485 -0.194608965 0.0621506961
60299640.0 -0.1943273223 0.0635329146 0.5211924758 -0.0248277185 0.5213232311 -0.0239873166 -0.1902907277 0.0631890746
65299610.0 -0.1910162366 0.0647011544 0.5241828604 -0.030739488 0.523962883 -0.0306929212 -0.1869245761 0.064221744
70299580.0 -0.1879404313 0.0662875831 0.5268506659 -0.0376548888 0.5263839664 -0.0371103212 -0.183859683 0.0647745661
75299550.0 -0.1849154266 0.0673605125 0.5282153872 -0.0439223958 0.5283708757 -0.0444727714 -0.1811653041 0.065371475
80299520.0 -0.1825641757 0.0683498908 0.5302897303 -0.0510399585 0.5305877682 -0.0513010319 -0.1786397161 0.066061401
85299490.0 -0.1801595705 0.068888916 0.5316108336 -0.0580055937 0.5317642382 -0.0577672542 -0.1762586909 0.0658515122
90299460.0 -0.1782535329 0.070052749 0.5326626027 -0.0653079477 0.5329655418 -0.0647595741 -0.1736718023 0.0671308895
95299430.0 -0.1755204645 0.0703767323 0.5341273388 -0.0716920911 0.53354021 -0.0723324441 -0.1715323207 0.0675784207
100299400.0 -0.1739078566 0.0715449215 0.5334993353 -0.0786688177 0.5337937157 -0.0787944051 -0.169720104 0.0672694892
105299370.0 -0.1722407835 0.0723651181 0.5346808544 -0.0858009274 0.5345382454 -0.0860823299 -0.1677591319 0.0682780355
110299340.0 -0.1704306888 0.0732167681 0.5345868391 -0.0922100176 0.5344608458 -0.0924881557 -0.1665964772 0.0682825112
115299310.0 -0.1686212648 0.0741424584 0.5342530566 -0.0990890621 0.5342958667 -0.0991266059 -0.1648720477 0.068892711
120299280.0 -0.1673687919 0.0746634889 0.5340351908 -0.105783875 0.5341705927 -0.1061837046 -0.1633413318 0.0693160309
125299250.0 -0.1659926325 0.0754783928 0.5339122603 -0.1122680349 0.5340689141 -0.112492259 -0.1623720376 0.069812069
130299220.0 -0.1649533988 0.0768266177 0.533095478 -0.1199618363 0.5331742031 -0.1198590295 -0.1610049227 0.0703711938
135299190.0 -0.1635633228 0.0778462582 0.53256033 -0.1263483182 0.53257807 -0.126179634 -0.1600197728 0.0707222002
140299160.0 -0.1627516679 0.079028056 0.5316662327 -0.1329209956 0.5316641787 -0.1329419628 -0.158682339 0.0721880787
145299130.0 -0.1615041164 0.0801075037 0.5310855434 -0.1396230392 0.5304943151 -0.1394766787 -0.157744155 0.0726979418
150299100.0 -0.1601894718 0.0813520713 0.5298088839 -0.1456881423 0.5294936994 -0.1455113666 -0.1568053959 0.0736727164
155299070.0 -0.1592780773 0.0818843671 0.5284742277 -0.1527093101 0.528477538 -0.1525917753 -0.1557670699 0.0746461108
160299040.0 -0.1581835739 0.0834681794 0.5271850236 -0.1589496455 0.5267261538 -0.1594035984 -0.1552839752 0.0754576008
165299010.0 -0.1572082893 0.0846258399 0.5253347327 -0.1657959547 0.5258995651 -0.1656668285 -0.1539930342 0.0765698535
170298980.0 -0.1563898122 0.0855956989 0.5243189188 -0.1718546162 0.5241441495 -0.1718083663 -0.1533579298 0.0775859853
175298950.0 -0.1555274223 0.0868904493 0.5229269836 -0.1780258175 0.5223846462 -0.1781837166 -0.1525524993 0.0786723173
180298920.0 -0.1547161854 0.0880981949 0.5206246121 -0.1842822139 0.5207697899 -0.1842981255 -0.1519727517 0.0795020413
185298890.0 -0.1533326924 0.0894906052 0.5189226948 -0.1902252272 0.5186182526 -0.1903589404 -0.1511249575 0.0812742991
190298860.0 -0.1526619237 0.0908220919 0.5173059696 -0.1968534299 0.5176388767 -0.1966588328 -0.1504478356 0.081798473
195298830.0 -0.1517653736 0.0919934934 0.515003064 -0.2029695521 0.5150902163 -0.2029135261 -0.1495237781 0.0830987496
200298800.0 -0.1506938595 0.0936249042 0.512934906 -0.2092381554 0.5131417719 -0.2089402697 -0.1496799974 0.0840635443
205298770.0 -0.1497888912 0.0950312257 0.5105385898 -0.2150677858 0.5106937522 -0.2152146144 -0.1485577131 0.0847583413
210298740.0 -0.1489495629 0.0962399949 0.5083194174 -0.2206145737 0.5082888973 -0.2205296572 -0.1475731867 0.0866887121
215298710.0 -0.1481576342 0.0977237628 0.506049803 -0.2269752556 0.5061306155 -0.227206564 -0.1470957375 0.0876686973
220298680.0 -0.1471437779 0.0987929587 0.5035975372 -0.2325104526 0.5035600529 -0.2329383489 -0.1467989927 0.0887905429
225298650.0 -0.1461106616 0.1006146356 0.5013262729 -0.2390167474 0.5014925775 -0.238794081 -0.1463402027 0.0898288259
230298620.0 -0.1450944953 0.1019982593 0.4988335832 -0.2443641175 0.499194925 -0.2448725075 -0.1455323346 0.0909028033
235298590.0 -0.1440325164 0.1037159528 0.4965645073 -0.2504430362 0.496052546 -0.2499487765 -0.1446155151 0.0922772298
240298560.0 -0.1432315302 0.1050103057 0.4936640206 -0.2563610493 0.4935298692 -0.2564088723 -0.1439810529 0.0937780297
245298530.0 -0.1421075537 0.106513347 0.4912350916 -0.26184175 0.4905489784 -0.2618106748 -0.1431346754 0.0942671811
250298500.0 -0.140885433 0.1080247542 0.4874952972 -0.2673982386 0.4873666096 -0.2670125255 -0.1426011596 0.0957222949
255298470.0 -0.1400105367 0.1093857838 0.484429864 -0.2725144287 0.4846256876 -0.2728184202 -0.1417980944 0.0969787734
260298440.0 -0.1389662753 0.1105821827 0.4815672089 -0.2788151857 0.4819194142 -0.2784391631 -0.1406675236 0.0981779468
265298410.0 -0.1378546231 0.1126534777 0.4790298091 -0.2843587187 0.4789403624 -0.2841115225 -0.1398999622 0.0996045425
270298380.0 -0.1367000047 0.1135849345 0.4759724214 -0.289231995 0.4757272698 -0.289309735 -0.1391153184 0.1008044308
275298350.0 -0.1352786939 0.1152087197 0.472431789 -0.295166893 0.4727361887 -0.2949395861 -0.1381116815 0.101894549
280298320.0 -0.133969478 0.1171047572 0.4697740305 -0.3004190626 0.4692955072 -0.3002517423 -0.1369211251 0.1031978049
285298290.0 -0.1325989544 0.1181400481 0.4662735027 -0.3056020336 0.4659893217 -0.3059494448 -0.1360044492 0.1042724401
290298260.0 -0.1313531875 0.1196848432 0.4627344502 -0.3106053428 0.4630752126 -0.3113760789 -0.1350125063 0.1057558326
295298230.0 -0.130201042 0.1208943262 0.459571126 -0.3161248312 0.4594614955 -0.316204263 -0.1337097995 0.1065912007
300298200.0 -0.1292178824 0.1223791279 0.4563413948 -0.3212882257 0.4563545 -0.3216724823 -0.1327466253 0.1079878642
305298170.0 -0.1275855647 0.1233820022 0.4520835236 -0.3269425819 0.4525307522 -0.3266186523 -0.131193333 0.1087743832
310298140.0 -0.1264454655 0.1252072365 0.4492332155 -0.3316867383 0.4494328309 -0.3316364724 -0.1307135062 0.1104109828
315298110.0 -0.1252841532 0.126216832 0.4451777046 -0.3367881175 0.4454391332 -0.336748131 -0.1296261004 0.1115832804
320298080.0 -0.1236716406 0.1275256926 0.4413383264 -0.3425286038 0.4414710757 -0.3420518595 -0.128556825 0.1127666016
325298050.0 -0.1225498568 0.1286246408 0.4378130354 -0.3473256715 0.4373917254 -0.3471106247 -0.1277881438 0.1137093718
330298020.0 -0.1213492297 0.1298691726 0.433420144 -0.3519250475 0.4337203502 -0.3522321685 -0.1268805788 0.1149832622
335297990.0 -0.1201095516 0.1310649949 0.4296299133 -0.3570412381 0.4294252144 -0.3572392291 -0.1264066633 0.1167595984
340297960.0 -0.1192861289 0.1328921915 0.4255585251 -0.3616384189 0.4252793626 -0.3620900581 -0.1246860411 0.1183017085
345297930.0 -0.1178063957 0.134629883 0.4212355581 -0.3666173927 0.4212665429 -0.3666644168 -0.1241437718 0.1190237008
350297900.0 -0.1164661246 0.1353892693 0.4167506493 -0.3712543162 0.4169983411 -0.3710260089 -0.123644241 0.1209157959
355297870.0 -0.1150740196 0.1375439743 0.4126926906 -0.3760245437 0.4130901855 -0.3754833617 -0.1223565163 0.1220110407
360297840.0 -0.1139404035 0.1386453898 0.4093690337 -0.3797348429 0.4093784805 -0.3800370679 -0.1213680893 0.1238238471
365297810.0 -0.1125581187 0.1402607165 0.4047978788 -0.3848300103 0.4046792023 -0.3847954768 -0.1201467835 0.1246478128
370297780.0 -0.1109616953 0.1410027825 0.399918339 -0.3887695915 0.4006322778 -0.3885168035 -0.1188477756 0.1263998257
375297750.0 -0.1092464873 0.1427651342 0.3960737779 -0.393392352 0.3965467655 -0.3936053437 -0.1177577755 0.1274437133
380297720.0 -0.1075782798 0.1442063547 0.391399761 -0.3980107527 0.3917288641 -0.3973475733 -0.1169798996 0.1285921545
385297690.0 -0.1066789833 0.1452468906 0.3871217744 -0.4020680861 0.3870336053 -0.4021681986 -0.1158497535 0.1302259353
390297660.0 -0.1049617699 0.1469372058 0.3829769966 -0.4066871727 0.3827745215 -0.4061775694 -0.1146893518 0.1312445163
395297630.0 -0.1031821003 0.148253851 0.3786720897 -0.4105752478 0.378323945 -0.4108442326 -0.1132357494 0.1329162356
400297600.0 -0.1017606163 0.1495461724 0.3738640822 -0.4153075671 0.3739972768 -0.4149391317 -0.1120154132 0.1340648033
405297570.0 -0.1003165755 0.1506455685 0.3696154496 -0.4185909885 0.3693549308 -0.4186556153 -0.1113687133 0.1355018667
410297540.0 -0.0980912644 0.1518806831 0.36516607 -0.4228261771 0.3653250803 -0.4229538974 -0.109996428 0.136424386
415297510.0 -0.0968386336 0.1530708508 0.3602132874 -0.427164213 0.3599786022 -0.4271024006 -0.1087029215 0.1376598635
420297480.0 -0.0950949227 0.1546178855 0.355123392 -0.4306474022 0.3554432807 -0.4310841872 -0.1076078395 0.1386531484
425297450.0 -0.0935034161 0.1551570405 0.3509269435 -0.4347963785 0.3511638828 -0.4345542811 -0.1066791712 0.1399130094
430297420.0 -0.0916673279 0.1566457882 0.3457840551 -0.4379981932 0.3455458556 -0.4379654343 -0.1052857475 0.1407396078
435297390.0 -0.0900644907 0.1578010612 0.3403549374 -0.4419164999 0.3409457299 -0.4419327271 -0.1034407961 0.1419679865
440297360.0 -0.0882461433 0.1590151834 0.3358872822 -0.4457232388 0.3359654918 -0.4461219466 -0.1026707073 0.1428118435
445297330.0 -0.086655546 0.1598755024 0.3317107425 -0.4493844128 0.3312614706 -0.448984734 -0.1007239707 0.1434880874
450297300.0 -0.0846176955 0.1610184045 0.3261612581 -0.453110364 0.3262518828 -0.4531100163 -0.099544387 0.1446220587
455297270.0 -0.0831577603 0.1618510741 0.3211972655 -0.4564630579 0.3211922777 -0.4566801396 -0.0983690812 0.1458065658
460297240.0 -0.0814710566 0.1631402815 0.3159261113 -0.4600523307 0.3164012223 -0.4600199623 -0.0966250208 0.1473381238
465297210.0 -0.0794735062 0.164129373 0.3114559539 -0.4631889485 0.3111173706 -0.4638873368 -0.0951490505 0.1478487127
470297180.0 -0.07766427 0.1649262885 0.3057213671 -0.4666967799 0.3060330404 -0.4667623059 -0.0936160409 0.1491492876
475297150.0 -0.0760705282 0.1659382375 0.3006624058 -0.4695676332 0.301090217 -0.4698549925 -0.0919149375 0.1498525417
480297120.0 -0.0741649571 0.1673519032 0.2958522286 -0.4734021506 0.2954423876 -0.4736709045 -0.0905296352 0.1510001451
485297090.0 -0.0723254221 0.1680193913 0.2904267972 -0.4761860123 0.2908850458 -0.4761923208 -0.0890579421 0.151812971
490297060.0 -0.0709349328 0.168974646 0.2858768771 -0.4800096334 0.2853765883 -0.4790901976 -0.0875338104 0.1534389731
495297030.0 -0.0687493411 0.1696609524 0.2801344638 -0.4825374102 0.2804196423 -0.4826532035 -0.0862823503 0.1542919163
500297000.0 -0.0668602931 0.1705367181 0.274907835 -0.485495299 0.2744375178 -0.4852390751 -0.0843853713 0.1555162836
505296970.0 -0.0650175878 0.1716086735 0.269691157 -0.4883800951 0.2693030666 -0.4887556456 -0.0831936356 0.1563158935
510296940.0 -0.0632029604 0.1724317274 0.264267447 -0.4916275641 0.2639849007 -0.4915347005 -0.0813706486 0.1575041894
515296910.0 -0.0610948692 0.1731867843 0.2586222168 -0.4944824741 0.2586671505 -0.4942957195 -0.0798253656 0.1584337577
520296880.0 -0.0594474736 0.1739855099 0.2534838546 -0.4972583237 0.2532856328 -0.4967531444 -0.0786995866 0.1591579601
525296850.0 -0.0574192664 0.1744259151 0.2478950135 -0.4998023007 0.2482664491 -0.4998312467 -0.0771483594 0.1603574273
530296820.0 -0.0556588272 0.1758224392 0.2427753051 -0.5028212812 0.2425141249 -0.502522846 -0.0753446804 0.1613799064
535296790.0 -0.0537644315 0.1762515387 0.2374874346 -0.5050208096 0.2372276008 -0.5044693555 -0.0740163009 0.1618372532
540296760.0 -0.0516788209 0.1773430195 0.231653089 -0.5078604266 0.2316778534 -0.5076127202 -0.0730498154 0.1633573564
545296730.0 -0.0497284413 0.1778219554 0.2253687108 -0.5099088995 0.2260538559 -0.5099101965 -0.0710928249 0.1636830116
550296700.0 -0.0473317536 0.1787778716 0.2201127067 -0.5122162123 0.2205066945 -0.5127956517 -0.0697666838 0.1651020255
555296670.0 -0.0456800569 0.1790022624 0.215043903 -0.5147480548 0.2151430218 -0.5147722435 -0.0681093094 0.1660997635
560296640.0 -0.0434678286 0.1802886482 0.2088740661 -0.5175365829 0.2091994883 -0.5171624211 -0.0665439488 0.1668264111
565296610.0 -0.0421655077 0.1806437072 0.2035338414 -0.5194654073 0.2034882621 -0.5194240435 -0.0650257797 0.1672775543
570296580.0 -0.0403766719 0.1811322332 0.1982443462 -0.5219638624 0.1971588257 -0.5214225089 -0.0636218162 0.1687625634
575296550.0 -0.0380401168 0.1821008392 0.1923373573 -0.5239002482 0.1919291871 -0.5237222088 -0.0616092867 0.1690478318
580296520.0 -0.0356731847 0.1823909751 0.1865319264 -0.5259879324 0.1866186339 -0.5257600376 -0.0600419722 0.1696137884
585296490.0 -0.033927872 0.1826659804 0.1806297703 -0.5272291537 0.1810776233 -0.5276131302 -0.0588162324 0.1703804711
590296460.0 -0.0317658526 0.1833268993 0.1751531911 -0.5288872067 0.1751103477 -0.5293107803 -0.057472633 0.1711259589
595296430.0 -0.0296266047 0.1838624375 0.1689749127 -0.5316418543 0.1692029798 -0.5312771915 -0.0555291794 0.1713068547
600296400.0 -0.0280266963 0.1842142431 0.1635596836 -0.5331603792 0.1633280778 -0.5329738675 -0.0543117094 0.1723044643
605296370.0 -0.0258025243 0.184653079 0.1578184647 -0.5346924979 0.1578020544 -0.5345990345 -0.0519978065 0.172897206
610296340.0 -0.0238914957 0.1854151669 0.151785189 -0.5365163635 0.1520915134 -0.5365236577 -0.0507016233 0.173455936
615296310.0 -0.0214942478 0.1853594204 0.1456470719 -0.5380312046 0.1457410308 -0.5384516189 -0.0484110282 0.1739710305
620296280.0 -0.0195908199 0.1855526359 0.1401536807 -0.5392909261 0.1399902536 -0.5390835554 -0.0471806624 0.1746617457
625296250.0 -0.0178188368 0.1856729094 0.1349688426 -0.5410967802 0.1345447783 -0.541357161 -0.0450710212 0.1750166261
630296220.0 -0.014692022 0.186346007 0.1278596112 -0.5421944902 0.1282900227 -0.5418953422 -0.0434781416 0.175734959
635296190.0 -0.0138010841 0.1866364409 0.1225352651 -0.5434201313 0.1225171754 -0.5436111508 -0.0418303533 0.1764147582
640296160.0 -0.0118693356 0.1868086594 0.1169772285 -0.5446969711 0.1166741597 -0.5446979646 -0.039821439 0.1766949497
645296130.0 -0.0093561957 0.1874269707 0.1107043743 -0.5459222408 0.1111208143 -0.5460735088 -0.0381338686 0.1772975899
650296100.0 -0.0071555483 0.1873728043 0.1049119818 -0.5469665555 0.1050780558 -0.5472510026 -0.0360452538 0.1770912846
655296070.0 -0.0055678175 0.1872469188 0.0988435668 -0.5482718334 0.0990369152 -0.5482104257 -0.0341822997 0.1781321563
660296040.0 -0.0035754807 0.1872571647 0.0932105507 -0.5492034361 0.0934166179 -0.5495248619 -0.0325633917 0.1789214879
665296010.0 -0.001063853 0.1877334253 0.0870315654 -0.5503815212 0.0869947583 -0.5504005255 -0.0309000231 0.1793290342
670295980.0 0.0003573943 0.1882392509 0.0810579514 -0.5510078505 0.0810856582 -0.5508395718 -0.0293810717 0.1799241429
675295950.0 0.0027486478 0.1884138955 0.075265363 -0.5517933809 0.075396042 -0.5513083264 -0.0275047513 0.1800502439
680295920.0 0.0048719551 0.1881693719 0.0690394584 -0.552493546 0.0685246899 -0.5528691991 -0.0256671097 0.1811608126
685295890.0 0.0070691554 0.1887640876 0.0631748824 -0.5535189916 0.0630519147 -0.5535882582 -0.0237782188 0.1814914683
690295860.0 0.009070582 0.1885456561 0.0572334043 -0.55305661 0.0571335265 -0.5539342965 -0.0222576067 0.1824677625
695295830.0 0.0110800809 0.188405725 0.0515955788 -0.554494328 0.0511481009 -0.5544776525 -0.0203862697 0.182538576
700295800.0 0.0131090701 0.1881565116 0.0453695154 -0.5545923806 0.0448791207 -0.5544663345 -0.0186126344 0.1829825824
705295770.0 0.0150181956 0.1889540651 0.0390276373 -0.5552689111 0.0393806748 -0.555534948 -0.0169575712 0.1837256623
710295740.0 0.0177072488 0.1889935331 0.0335315964 -0.5562531499 0.0333977534 -0.5560328364 -0.0148871323 0.183326016
715295710.0 0.0191192373 0.188552808 0.0278863609 -0.556111208 0.0269958128 -0.5560654684 -0.0131070288 0.1838451246
720295680.0 0.021502255 0.1882012928 0.0211692874 -0.5568051354 0.0214016645 -0.5559824063 -0.011523061 0.1847215963
725295650.0 0.0238720148 0.1885019467 0.0153305121 -0.5563609918 0.0153466413 -0.5564442406 -0.0101592201 0.1850087875
730295620.0 0.0257673436 0.1885309574 0.0096423392 -0.556354318 0.009282906 -0.5569191304 -0.0083086917 0.185045528
735295590.0 0.0278647311 0.1883725467 0.0035009258 -0.5570721329 0.0029865334 -0.5566467265 -0.0066738575 0.1848442843
740295560.0 0.0298473205 0.1880716051 -0.0025223657 -0.5568543079 -0.0028850379 -0.5567019748 -0.0044867468 0.1855945492
745295530.0 0.0319209556 0.1879109269 -0.0086507727 -0.5563108164 -0.0092942195 -0.5564019881 -0.0027693649 0.1853231204
750295500.0 0.0340165524 0.1876282057 -0.0144079895 -0.5559852064 -0.0147457266 -0.5566536225 -0.0012684751 0.1859527609
755295470.0 0.0359453416 0.1871522404 -0.0204967989 -0.5555589871 -0.0208774088 -0.555999782 0.0007830083 0.1855374989
760295440.0 0.0380976157 0.1871596544 -0.026581288 -0.5564940474 -0.0269396777 -0.555954374 0.002546219 0.1858374463
765295410.0 0.0400454598 0.1869412013 -0.0330801876 -0.5554140559 -0.0329726113 -0.555623299 0.0041795877 0.1862063433
770295380.0 0.0421183497 0.1865556614 -0.0388082696 -0.5552419811 -0.0390905345 -0.5545269509 0.0056247638 0.1856504874
775295350.0 0.043883427 0.1858388015 -0.0451178392 -0.5542902269 -0.0445143809 -0.5541975317 0.0070302642 0.1862187786
780295320.0 0.0463380847 0.1856474666 -0.0507557355 -0.5533811395 -0.0501184858 -0.5537327522 0.0093773287 0.1856783485
785295290.0 0.0479399527 0.1847450418 -0.0569969132 -0.5530069788 -0.0564743701 -0.553132905 0.0118266198 0.1859873495
790295260.0 0.0506585652 0.1851513073 -0.0621806368 -0.5527627882 -0.0618199164 -0.5525285831 0.0133388567 0.1859213567
795295230.0 0.0521740171 0.1841851795 -0.0685651061 -0.5517396265 -0.0683294011 -0.5519084026 0.015112368 0.186285551
800295200.0 0.0540407336 0.1842675607 -0.0749701577 -0.5505351921 -0.0746574278 -0.5509497965 0.0171661314 0.1858110644
805295170.0 0.0563382091 0.1833878249 -0.0801812728 -0.5501132123 -0.0806104149 -0.5504655723 0.0187006678 0.1860193059
810295140.0 0.0581731775 0.182586174 -0.0858911151 -0.5489028872 -0.086199044 -0.5493585006 0.0212117376 0.1858638076
815295110.0 0.0600010518 0.1819182305 -0.0919688186 -0.5480041707 -0.0919651326 -0.5480190851 0.0223541639 0.1859010431
820295080.0 0.0619602845 0.1822095276 -0.0977906576 -0.5472689047 -0.0976534038 -0.5468581272 0.024554646 0.185769351
825295050.0 0.0643732823 0.1813039823 -0.103441783 -0.5459924476 -0.103804699 -0.5459391055 0.0268737977 0.1856643917
830295020.0 0.0661946023 0.1807721495 -0.1097529505 -0.5442043803 -0.1096772629 -0.5446571484 0.0290080599 0.1856188958
