!Created with skrf (http://scikit-rf.org).
# Hz S RI R 50.0 
!freq ReS11 ImS11 ReS21 ImS21 ReS12 ImS12 ReS22 ImS22
300000.0 -0.3175268407 -0.1035384482 0.373044088 0.0525448344 0.3746544695 0.0578658803 -0.3170593202 -0.1157561926
5299970.0 -0.3238471902 0.0047200128 0.3783489475 0.0027460258 0.378325768 0.0031886434 -0.3263121693 0.0029651092
10299940.0 -0.321295675 0.0154428912 0.379919889 0.002236011 0.3798040879 0.002336411 -0.3241812457 0.0128644356
15299910.0 -0.3182508694 0.0234977065 0.3819702012 0.0022734894 0.3820220899 0.0024190872 -0.3215528863 0.019625328
20299880.0 -0.3142771903 0.029982427 0.3848355461 0.0014484649 0.3850960018 0.0017986347 -0.3188730328 0.0261553967
25299850.0 -0.3106383475 0.0357939866 0.3885260232 -6.12514e-05 0.3885787556 6.51453e-05 -0.3158270943 0.0309830302
30299820.0 -0.3064379456 0.0405012802 0.3920071484 -0.0020613687 0.3917503552 -0.0022305444 -0.3131819528 0.0353623867
35299790.0 -0.302864738 0.0446819699 0.3950612853 -0.0053600547 0.395170751 -0.0052399404 -0.3098756088 0.0394236108
40299760.0 -0.2996568169 0.0481303014 0.3982850174 -0.0083982095 0.3984261841 -0.0087991463 -0.3074040926 0.0429916285
45299730.0 -0.2966916785 0.0515942783 0.4016000887 -0.0131203802 0.4013375226 -0.0126880452 -0.3051150647 0.0461653815
50299700.0 -0.2930707168 0.0542242542 0.4034525779 -0.017288694 0.4037522693 -0.017321507 -0.3021196591 0.0491784214
55299670.0 -0.2908554626 0.0567624408 0.405564084 -0.0221417001 0.4057082948 -0.0218302174 -0.3003627837 0.0515910748
60299640.0 -0.2880867328 0.0590161182 0.4073536021 -0.0269053997 0.4077475173 -0.0269886323 -0.2980678537 0.0547314575
65299610.0 -0.2861156915 0.061824453 0.409415315 -0.0316945074 0.4097843485 -0.0317033881 -0.2964742516 0.0572331777
70299580.0 -0.2840649657 0.0635263014 0.410458265 -0.0366166814 0.4107524989 -0.036866958 -0.2948109398 0.0596913719
75299550.0 -0.2818694314 0.0657477138 0.4115211713 -0.0417729337 0.4116002694 -0.0421851831 -0.2933922339 0.0617087821
80299520.0 -0.280432577 0.0680161061 0.4126950808 -0.0473351164 0.4127703258 -0.0472891865 -0.2917032041 0.0642189028
85299490.0 -0.2784712918 0.0698536319 0.4131846662 -0.0526305016 0.4131922307 -0.0526874987 -0.290449266 0.0663291843
90299460.0 -0.2770616953 0.0722768882 0.4133934586 -0.0577822863 0.4138665588 -0.0578797071 -0.2886020417 0.0687639798
95299430.0 -0.2754679601 0.0743256728 0.4141813688 -0.0633064169 0.4140766484 -0.0632160057 -0.2875310664 0.0712261753
100299400.0 -0.2744390628 0.0767663761 0.413704742 -0.0682684947 0.4136199291 -0.0680697555 -0.2867284272 0.073200425
105299370.0 -0.2729488994 0.0784747177 0.4134869605 -0.0735653302 0.4138396185 -0.0734344801 -0.2852768701 0.0756782428
110299340.0 -0.271872936 0.0803097706 0.4133469403 -0.078446314 0.4134873805 -0.0790866382 -0.2844761441 0.0781553602
115299310.0 -0.2707335342 0.0825325665 0.4130398482 -0.0833857313 0.4133994112 -0.0835305386 -0.2831729535 0.0803608415
120299280.0 -0.2699250141 0.0847657837 0.4129019422 -0.0885974891 0.4129305416 -0.0890767997 -0.2824535923 0.0826842762
125299250.0 -0.268733138 0.0867891468 0.4123767942 -0.0938121415 0.4125664093 -0.0938937116 -0.2813658646 0.084767963
130299220.0 -0.2676998841 0.0890476468 0.4114777622 -0.0986472503 0.4113573331 -0.0994390953 -0.2806311522 0.0873264836
135299190.0 -0.2669414863 0.091040655 0.410976313 -0.1036491558 0.4106551255 -0.1040806479 -0.279549914 0.0898530645
140299160.0 -0.2658082372 0.0937219634 0.410175038 -0.1089109608 0.4105025864 -0.1092259747 -0.2788296877 0.0920554938
145299130.0 -0.2649923923 0.0957582337 0.4093008462 -0.1140526409 0.4091707156 -0.1137043357 -0.2780309058 0.0944493909
150299100.0 -0.2639255242 0.0981826333 0.4081016125 -0.1190252335 0.4082338348 -0.1186977571 -0.2768360852 0.0968026241
155299070.0 -0.2631379677 0.100950968 0.4071125124 -0.1240712062 0.4070666376 -0.1241430177 -0.2760819374 0.0995563557
160299040.0 -0.2621543471 0.1032767831 0.4058595582 -0.1285096628 0.4060402616 -0.1285830533 -0.2751095567 0.1023397025
165299010.0 -0.2611657989 0.1054392723 0.4049025829 -0.1336564177 0.404750324 -0.1336998056 -0.2742152944 0.1047964823
170298980.0 -0.2604258351 0.1079834567 0.4028084515 -0.1386526354 0.4032174785 -0.1384397305 -0.273353293 0.1071375811
175298950.0 -0.2591102779 0.1103312499 0.4022936206 -0.14308986 0.4022461824 -0.1431979829 -0.2722813286 0.1095586394
180298920.0 -0.2577854086 0.1126300537 0.4004856477 -0.1481100255 0.4003323996 -0.1478470617 -0.2709995376 0.1126069949
185298890.0 -0.2569754815 0.1152533766 0.3988654736 -0.1526170938 0.3988553061 -0.1525020001 -0.2700526968 0.1149688328
190298860.0 -0.2558464087 0.1175882931 0.3974968031 -0.1572738828 0.3974418642 -0.1575700496 -0.2686299983 0.1178444485
195298830.0 -0.254661757 0.1197440978 0.3956710862 -0.1614851194 0.3959729826 -0.162105473 -0.2679084701 0.1201119103
200298800.0 -0.2538245197 0.1228939587 0.394285744 -0.1659422369 0.3939221166 -0.1663623414 -0.2665222331 0.1230354043
205298770.0 -0.2527000978 0.1251395887 0.3924679972 -0.1708025856 0.3926434515 -0.1710616172 -0.265871141 0.1253349633
210298740.0 -0.251649587 0.1276428825 0.3906267601 -0.1755336061 0.3905928883 -0.1759862427 -0.26464706 0.1284653863
215298710.0 -0.2503101079 0.1302383292 0.388513605 -0.1799204719 0.3884579172 -0.1802237684 -0.2638034224 0.1309837191
220298680.0 -0.2495063522 0.133051536 0.3865045895 -0.1848470064 0.3867690582 -0.1846941181 -0.2623092382 0.1338496742
225298650.0 -0.2476150622 0.1356159982 0.3844685091 -0.188945315 0.3843889602 -0.18901997 -0.2611941225 0.1366324997
230298620.0 -0.2469073507 0.1380220696 0.3827946928 -0.1936250366 0.3829352407 -0.1933488852 -0.259536659 0.1390405444
235298590.0 -0.2454489461 0.1405851772 0.380351182 -0.1976051337 0.3804794588 -0.1981360114 -0.2583625347 0.1415457022
240298560.0 -0.2443381648 0.1434090273 0.3782279408 -0.20190782 0.378396788 -0.2019242814 -0.2571884679 0.144408984
245298530.0 -0.2427027856 0.1457039823 0.3755829747 -0.2064639544 0.3759010214 -0.2065189554 -0.2557356358 0.1471634231
250298500.0 -0.2417706086 0.1482474788 0.3739271566 -0.2104293083 0.3740911216 -0.210111917 -0.2540042478 0.1497438483
255298470.0 -0.2402045229 0.1509684786 0.3714992718 -0.2150550176 0.3718182786 -0.2150940195 -0.2525458181 0.1523189523
260298440.0 -0.2385985693 0.1535124767 0.3693793519 -0.2191486354 0.3690990922 -0.2193333341 -0.2510639873 0.154998295
265298410.0 -0.2373027129 0.1562138559 0.3668414716 -0.2236588489 0.3666488302 -0.2234893215 -0.2496618408 0.1578929878
270298380.0 -0.2355085967 0.1588110983 0.3639525346 -0.2275915669 0.3644294529 -0.227572471 -0.2479380064 0.1606236437
275298350.0 -0.2338849511 0.1610386494 0.3614972024 -0.231857104 0.3618911025 -0.2319796509 -0.2464973846 0.1633784234
280298320.0 -0.2326860503 0.1636067344 0.3592148743 -0.2352997058 0.3590844985 -0.2360780815 -0.2450053797 0.1659015761
285298290.0 -0.2311191155 0.1665167934 0.3564562269 -0.2396370018 0.3565594794 -0.2399962642 -0.2433084833 0.1686076332
290298260.0 -0.2291714297 0.168729783 0.354081523 -0.2435213595 0.354242555 -0.2437925662 -0.2413895715 0.171432735
295298230.0 -0.2276386598 0.1713232667 0.3515185722 -0.2479769742 0.3509124588 -0.2479519464 -0.2396224998 0.1742780621
300298200.0 -0.2255821925 0.1737310538 0.3484350323 -0.2520516316 0.3487115823 -0.2520641604 -0.2380280505 0.1765486078
305298170.0 -0.2238228345 0.1764131119 0.3458266713 -0.2559422255 0.3460317118 -0.2559689353 -0.2358806674 0.1792885151
310298140.0 -0.2222960876 0.1782869349 0.3429593249 -0.2601011204 0.3431782184 -0.2602878561 -0.2341554729 0.1821856473
315298110.0 -0.2205938736 0.1810189436 0.3401178624 -0.2637694857 0.3401121081 -0.2639463839 -0.2320490998 0.184211855
320298080.0 -0.2185564696 0.1832769999 0.3369890912 -0.2677208141 0.3370415024 -0.2679773529 -0.2299849235 0.186819534
325298050.0 -0.2171157411 0.1854904842 0.3345042561 -0.2712346726 0.3341554563 -0.2717583674 -0.2283805612 0.1892869576
330298020.0 -0.215327251 0.1882420306 0.330802104 -0.2753074892 0.3307999984 -0.2752300849 -0.2266490184 0.191721602
335297990.0 -0.2133743067 0.1906331255 0.3278216666 -0.2794285747 0.327778612 -0.2790466282 -0.2250582377 0.1944471102
340297960.0 -0.211777945 0.1928306481 0.3242605001 -0.2827121224 0.3248747209 -0.2827678123 -0.2228160354 0.1971498131
345297930.0 -0.2100573358 0.1952468261 0.3210877411 -0.2861284413 0.3211375101 -0.2859163255 -0.2210426752 0.1994654919
350297900.0 -0.2077529665 0.1975453928 0.3180613828 -0.2891573066 0.3182922413 -0.290008739 -0.2187775165 0.2024318205
355297870.0 -0.2059925491 0.2000152173 0.3146220463 -0.2930446574 0.3150803122 -0.2933322397 -0.216852586 0.2047839087
360297840.0 -0.2041460404 0.2021027972 0.3114883016 -0.2965277562 0.3115855432 -0.2967093067 -0.214773646 0.2073489151
365297810.0 -0.2019407502 0.2047453064 0.3080191295 -0.2996994779 0.3079536509 -0.3004408586 -0.2123280837 0.2101918553
370297780.0 -0.199543924 0.2068199192 0.3047930695 -0.3031281551 0.304727494 -0.303786747 -0.2102613048 0.2121080277
375297750.0 -0.197948576 0.2092889619 0.3018434311 -0.3069604175 0.3017063867 -0.3069110346 -0.2082978317 0.2150466223
380297720.0 -0.1954445463 0.2114649945 0.2982947008 -0.309990778 0.2980443677 -0.309892006 -0.2058292419 0.2177565785
385297690.0 -0.1931176819 0.2137488494 0.2943874484 -0.3126756391 0.2946442919 -0.3134616899 -0.2035874745 0.2201129046
390297660.0 -0.1910778142 0.2159699785 0.2910065337 -0.3166385066 0.2910309522 -0.316974626 -0.2013106407 0.2219866024
395297630.0 -0.1888655651 0.2179826567 0.2877480769 -0.3194897717 0.2877802691 -0.319773725 -0.1993938807 0.2244275254
400297600.0 -0.1866058944 0.2204825502 0.2841282356 -0.3227401195 0.2846488362 -0.3228496049 -0.1974254181 0.2263347319
405297570.0 -0.1841615713 0.2224244919 0.2805522544 -0.3257514189 0.2804884462 -0.3257501475 -0.194810624 0.2290458354
410297540.0 -0.1817972372 0.2244538314 0.276495364 -0.3288444623 0.2767990219 -0.3288481878 -0.192636916 0.2315208899
415297510.0 -0.1797491161 0.2267068739 0.2733248 -0.3320006368 0.2730919756 -0.3319353103 -0.1900060714 0.2342273184
420297480.0 -0.1771107458 0.2285196637 0.2691400715 -0.3349633506 0.2695193047 -0.3346353956 -0.1872828249 0.2354995634
425297450.0 -0.1746257022 0.2308193064 0.2654301934 -0.3377692714 0.2660561491 -0.3376246667 -0.1849440201 0.2379607257
430297420.0 -0.1724383298 0.2327682299 0.2618815434 -0.3409727391 0.262076382 -0.3408358521 -0.1827407679 0.240322516
435297390.0 -0.1697951511 0.2346698326 0.2582202249 -0.343541433 0.2585609473 -0.3431221589 -0.1802564984 0.2425548062
440297360.0 -0.167560969 0.2366406011 0.254258147 -0.346352669 0.2543836426 -0.3460606274 -0.1775120779 0.2443897664
445297330.0 -0.1649356867 0.238424057 0.2502690957 -0.3492206157 0.2505355299 -0.3490488771 -0.1753979395 0.2468135166
450297300.0 -0.1624154598 0.2402247514 0.2464814411 -0.3518269815 0.2467590334 -0.3518218058 -0.1727206347 0.2487374043
455297270.0 -0.1600012166 0.2424633552 0.2430894745 -0.3545399162 0.2431091883 -0.3543207874 -0.1698775099 0.2506437838
460297240.0 -0.1575183138 0.2441072598 0.2390846883 -0.3567285939 0.238842907 -0.3570209844 -0.1674421783 0.2531413367
465297210.0 -0.1545305426 0.2459951693 0.2348629345 -0.3595594566 0.2352144752 -0.3595494985 -0.1649328974 0.2546454157
470297180.0 -0.152073568 0.2474588225 0.2309500087 -0.3617618967 0.2312935152 -0.3619295777 -0.16263629 0.2568650562
475297150.0 -0.1498564909 0.2489802955 0.2270518719 -0.3640344201 0.2272592832 -0.3639249859 -0.159525202 0.2586789199
480297120.0 -0.1468684074 0.2510716328 0.2225918379 -0.3668240212 0.2230235667 -0.366586468 -0.1568898991 0.2609625555
485297090.0 -0.1442925187 0.2526856444 0.2190047092 -0.3692810847 0.2190373005 -0.36913917 -0.1545934176 0.2624520967
490297060.0 -0.1413749659 0.2542855174 0.2146524975 -0.37156698 0.2151238068 -0.3717071846 -0.1518655941 0.2644772232
495297030.0 -0.1391329724 0.2563257731 0.2106919143 -0.3741958006 0.2107757493 -0.3741479311 -0.1492231882 0.2658508486
500297000.0 -0.13613255 0.2575631865 0.2065933619 -0.3763165599 0.2067213019 -0.3761038906 -0.146578774 0.2679149123
505296970.0 -0.1336550291 0.2591518689 0.2024538573 -0.3776443566 0.2024761228 -0.3781284835 -0.1440203358 0.2697199556
510296940.0 -0.1307877357 0.2608100458 0.1983118335 -0.3807726244 0.1986458864 -0.3805332473 -0.1408096002 0.2714463393
515296910.0 -0.1285059042 0.2624875582 0.1940321163 -0.382356348 0.1944128355 -0.3826132799 -0.1381942976 0.2731006968
520296880.0 -0.1253138007 0.2639544835 0.1900169653 -0.3844710721 0.1902666972 -0.3846082459 -0.13531883 0.2746077302
525296850.0 -0.1226349285 0.2653953222 0.1855822424 -0.3865298246 0.1860704633 -0.3869522496 -0.1321767824 0.276311687
530296820.0 -0.1200110533 0.2666909436 0.1817215782 -0.3881873161 0.181786379 -0.3883167041 -0.1300497144 0.2773832376
535296790.0 -0.1171685786 0.2683127383 0.1773472991 -0.3904066066 0.1774702043 -0.3900891111 -0.1268158614 0.2787295632
540296760.0 -0.1140019284 0.2691553295 0.1729741047 -0.3924319072 0.1732243792 -0.3922691857 -0.1240374094 0.2810290406
545296730.0 -0.111244488 0.2706889662 0.168289391 -0.3938671348 0.1688880889 -0.3941704169 -0.1215208598 0.2818383642
550296700.0 -0.1087277048 0.2721355619 0.1644670357 -0.3956495797 0.1650293244 -0.3961784593 -0.1185982283 0.2837478652
555296670.0 -0.1053847868 0.2733154301 0.159869944 -0.3973683978 0.160110758 -0.3975640904 -0.1156863827 0.2849744169
560296640.0 -0.102610573 0.2744522813 0.1556075546 -0.3987374412 0.1561613665 -0.3990314171 -0.112566564 0.2862933045
565296610.0 -0.1002715479 0.2755962444 0.1516284523 -0.4005084903 0.1514338577 -0.4007539516 -0.1096789385 0.2874940493
570296580.0 -0.0969369701 0.2770767995 0.1468158479 -0.4020395485 0.1471934003 -0.4026538678 -0.1067967967 0.2896144012
575296550.0 -0.093848809 0.2782493278 0.1427636102 -0.4036374079 0.1429662579 -0.4037945803 -0.1035390434 0.2903382875
580296520.0 -0.0912361186 0.2795485936 0.1385206896 -0.4055208742 0.1383292135 -0.4055615873 -0.1006725552 0.2917341155
585296490.0 -0.0880357971 0.2803945881 0.1336341516 -0.4066078487 0.1335789442 -0.4068289675 -0.0978203577 0.2924976024
590296460.0 -0.0855072777 0.2813670938 0.1296593482 -0.407809337 0.1292584382 -0.4086307672 -0.0945608377 0.2938633757
595296430.0 -0.0823220161 0.2826973679 0.1251773173 -0.4098938646 0.1247073513 -0.40987841 -0.0915374431 0.2948333997
600296400.0 -0.0792644766 0.2836521277 0.1205432409 -0.4109188403 0.1205682421 -0.411007427 -0.0886412158 0.2962660349
605296370.0 -0.0762328294 0.2845613644 0.1157782754 -0.4124227702 0.1161463261 -0.4120143121 -0.0857650421 0.2972828797
610296340.0 -0.0735543042 0.2855436894 0.111935481 -0.413189651 0.1117745622 -0.4135502933 -0.0825029478 0.2986361857
615296310.0 -0.0703651134 0.2865826366 0.1071142874 -0.4143007826 0.1071026008 -0.4145221701 -0.0795205987 0.2992419531
620296280.0 -0.0672354935 0.2871459448 0.1026331359 -0.4152367163 0.1026808935 -0.4154985979 -0.0764677253 0.3000250633
625296250.0 -0.0639257973 0.2882234433 0.0974904414 -0.4168558676 0.0981259399 -0.4167423501 -0.073469241 0.3011828096
630296220.0 -0.0610577627 0.2890802047 0.0931500816 -0.4175044259 0.0939154409 -0.4175447264 -0.0702934072 0.30234154
635296190.0 -0.0580842836 0.2898377104 0.0888567139 -0.4183106303 0.0889748507 -0.4183761969 -0.0672903601 0.3029760856
640296160.0 -0.0550590888 0.2905016934 0.0845095827 -0.4193458199 0.0845828046 -0.4196302005 -0.0636845641 0.3037526104
645296130.0 -0.0521174777 0.2915024327 0.0798233748 -0.4203370885 0.0801826009 -0.4203995948 -0.0610322417 0.3044903145
650296100.0 -0.049001596 0.2925566394 0.0755838416 -0.4211020118 0.0758004692 -0.4210054356 -0.0581885545 0.3055444893
655296070.0 -0.0459882461 0.292820789 0.0705502845 -0.4216010565 0.0703067336 -0.421766488 -0.0542432752 0.3063935327
660296040.0 -0.0430067149 0.2936446307 0.0662315065 -0.4222571664 0.0662798665 -0.422403003 -0.0513167416 0.3068519667
665296010.0 -0.0394510128 0.2938122897 0.0615904503 -0.42290994 0.062238929 -0.4235310924 -0.0484722806 0.3081972787
670295980.0 -0.0363556875 0.2948145643 0.0571474855 -0.4239293413 0.0577372188 -0.4238466069 -0.0453690504 0.3082089096
675295950.0 -0.0333432215 0.2946746324 0.0524031544 -0.4242385794 0.0525947553 -0.4244032983 -0.0418979988 0.3088029673
680295920.0 -0.0304558193 0.2958568734 0.0476470871 -0.4249309846 0.0475902178 -0.42505344 -0.0384809529 0.3092602711
685295890.0 -0.0273027397 0.2960801928 0.0434609942 -0.4252006626 0.0428716999 -0.4256197386 -0.0354689071 0.310228294
690295860.0 -0.0239854663 0.2965249465 0.0385498961 -0.4254321627 0.0384729218 -0.4255724946 -0.0321135639 0.3106313228
695295830.0 -0.0206079401 0.2968311145 0.0333141591 -0.4261724887 0.0340672921 -0.4262765084 -0.029268522 0.3109093239
700295800.0 -0.0173719912 0.2970438428 0.029065351 -0.4261707021 0.0294546312 -0.4264053989 -0.0258763218 0.31102496
705295770.0 -0.0144526739 0.2977039217 0.0248949743 -0.4264852651 0.0249430402 -0.4265252388 -0.0230373882 0.3115467998
710295740.0 -0.0111998542 0.2980266633 0.0202640114 -0.4265961987 0.020256065 -0.4268298591 -0.0197735202 0.312489269
715295710.0 -0.0085402031 0.2981736192 0.0153848766 -0.4269889332 0.0156718738 -0.4270721241 -0.0162671891 0.3124548639
720295680.0 -0.0053342443 0.2982387523 0.0110239258 -0.4270236098 0.0112143271 -0.4273564149 -0.0126367231 0.312799682
725295650.0 -0.0015695338 0.2983822606 0.0061501507 -0.4268176302 0.0063140446 -0.4271063571 -0.0096877879 0.3134054989
730295620.0 0.0008786967 0.2987308291 0.0017032223 -0.4269187832 0.0014925368 -0.4271846243 -0.0062023889 0.3131258015
735295590.0 0.0048927622 0.29895522 -0.0027613672 -0.4274034781 -0.0026651127 -0.4272437392 -0.0030403018 0.3133365479
740295560.0 0.0075730558 0.2993129971 -0.0075687901 -0.4265797912 -0.00760946 -0.4268687231 0.0003141305 0.3135846805
745295530.0 0.0108248643 0.2989975044 -0.0121810169 -0.4267582488 -0.0120711212 -0.427294076 0.0031214358 0.3138456289
750295500.0 0.0138249038 0.2990048627 -0.0166420247 -0.4262829668 -0.0166082405 -0.4266521888 0.0067245951 0.3135686793
755295470.0 0.0176318806 0.2990084564 -0.0216469604 -0.4262390593 -0.0210644916 -0.4264894536 0.0097116377 0.3142138547
760295440.0 0.0204990427 0.2989249693 -0.0260762504 -0.4259860988 -0.0258423589 -0.4262617273 0.0126758926 0.314043783
765295410.0 0.0237240056 0.2988077722 -0.030361241 -0.4251868031 -0.0304523026 -0.4259849511 0.0166327526 0.3142902854
770295380.0 0.0268100426 0.2989715065 -0.0353276386 -0.4249305758 -0.0352910976 -0.4255684504 0.0198982855 0.3138803953
775295350.0 0.0297300444 0.2986504954 -0.0398179769 -0.4246156532 -0.0397830391 -0.4247690575 0.0226308537 0.3135589772
780295320.0 0.033158091 0.2985840613 -0.0443618872 -0.4244027361 -0.044394134 -0.4244941518 0.0260486862 0.3139062181
785295290.0 0.0362019966 0.2984458574 -0.0488218213 -0.4231967051 -0.0489928358 -0.4239725308 0.0288452356 0.3138376618
790295260.0 0.0392473637 0.2981058746 -0.0534893692 -0.4230656074 -0.0534574909 -0.4234948491 0.0328401242 0.31326687
795295230.0 0.0426989489 0.29830992 -0.0579482603 -0.4222539819 -0.0577881685 -0.4226830551 0.0357679184 0.3136928721
800295200.0 0.0459674996 0.2977091675 -0.0631399948 -0.4220087537 -0.0628417286 -0.422185474 0.0392702978 0.3131986496
805295170.0 0.0486660407 0.2971423181 -0.06685919 -0.4207058259 -0.0670543775 -0.4208779061 0.0420322027 0.3125113242
810295140.0 0.0519807044 0.2968488214 -0.0713531456 -0.4199835782 -0.071345664 -0.4208707285 0.0454996918 0.3129853679
815295110.0 0.0551667316 0.2965475047 -0.0764129126 -0.4192362484 -0.0763156536 -0.4197385278 0.0488462415 0.3123036921
820295080.0 0.0583743128 0.295650394 -0.0807143714 -0.4183894824 -0.0806354099 -0.4189709027 0.0518528068 0.3119287195
825295050.0 0.0617752471 0.2956829031 -0.085602102 -0.4170647901 -0.0850513466 -0.4178846497 0.0552436938 0.3116721831
830295020.0 0.0643302576 0.2953214966 -0.0897766428 -0.4165735029 -0.0900782093 -0.4170689747 0.0582518012 0.3109943091
