!Created with skrf (http://scikit-rf.org).
# Hz S RI R 50.0 
!freq ReS11 ImS11 ReS21 ImS21 ReS12 ImS12 ReS22 ImS22
300000.0 -0.2332269722 -0.1291202072 0.4664656671 0.0835860565 0.4675998795 0.0837492244 -0.2368988239 -0.1288669433
5299970.0 -0.2419627144 0.0053209009 0.475017456 0.0059145962 0.4753976256 0.0060033856 -0.2446379314 0.0046911069
10299940.0 -0.2387156002 0.018899721 0.4775226384 0.0069328765 0.4771059976 0.0068301689 -0.2409594565 0.0173414638
15299910.0 -0.233823999 0.0289059084 0.4806243554 0.0082029527 0.4811391611 0.0081721112 -0.2369661419 0.0265084527
20299880.0 -0.2286899565 0.0368471328 0.4852628667 0.0080576862 0.4855851541 0.0082501424 -0.2322222861 0.0340256734
25299850.0 -0.2227096812 0.0434867883 0.490452698 0.0078783364 0.4910751684 0.0070022052 -0.2269685133 0.0402824604
30299820.0 -0.217100863 0.0487059489 0.4960210118 0.0051055607 0.4960282565 0.0049556516 -0.2215981663 0.0449378542
35299790.0 -0.2112371957 0.0529323 0.5010227852 0.0020043446 0.5015071616 0.001994161 -0.2170135606 0.0491343807
40299760.0 -0.206347446 0.0559538182 0.5063642276 -0.0021361711 0.5067392638 -0.0021230084 -0.2118511284 0.0519858852
45299730.0 -0.201166612 0.0590582165 0.5108662092 -0.0067972659 0.5113328762 -0.0068271791 -0.2070985736 0.0548747019
50299700.0 -0.1957370629 0.0608665493 0.5151268574 -0.0121726174 0.5153444763 -0.0126590951 -0.2026131185 0.0569884179
55299670.0 -0.1919705049 0.0625281535 0.5191356879 -0.0179164248 0.5188392336 -0.0183561937 -0.1991553765 0.0586482352
60299640.0 -0.1875961927 0.0641517017 0.5224155701 -0.0251350842 0.5223953715 -0.0249679261 -0.1953762947 0.0597829267
65299610.0 -0.184377388 0.0650020493 0.5256485052 -0.0306460815 0.5253306275 -0.0311325873 -0.1921294218 0.0609661163
70299580.0 -0.1809766875 0.0658533859 0.5275366502 -0.0374045427 0.5278063905 -0.0372438632 -0.1891156296 0.0618911554
75299550.0 -0.1779517973 0.0667943241 0.5296292344 -0.0446941148 0.5295399692 -0.044271868 -0.1862330206 0.0628907605
80299520.0 -0.1755443328 0.0678304886 0.5314970858 -0.0511108481 0.5317484636 -0.0513028099 -0.1838894985 0.0636302654
85299490.0 -0.1726261342 0.068239583 0.532787635 -0.0583805677 0.5329858123 -0.0579042784 -0.1816407128 0.0641120532
90299460.0 -0.1703539681 0.0690562876 0.5338258143 -0.0649425821 0.5333880033 -0.0646954637 -0.1794151041 0.0649922945
95299430.0 -0.1680061218 0.0693637426 0.534369521 -0.0719731614 0.5345934717 -0.0722223808 -0.1775472533 0.0657718355
100299400.0 -0.1659689206 0.0701789994 0.5349887006 -0.0784508056 0.5352629767 -0.0789045362 -0.1756997419 0.0664134542
105299370.0 -0.164172996 0.0708379117 0.5352286432 -0.0853137285 0.5359183643 -0.0857633447 -0.1741182124 0.066736649
110299340.0 -0.1623151507 0.0715090953 0.5354866123 -0.0920480441 0.5355757101 -0.0923800381 -0.1728755287 0.0673678701
115299310.0 -0.1609533953 0.0723599611 0.5354394757 -0.099384069 0.5356142283 -0.0990895842 -0.1715795443 0.0684218301
120299280.0 -0.1594061032 0.0730282231 0.5355246618 -0.106436797 0.5352400288 -0.1065974219 -0.17009087 0.0686742202
125299250.0 -0.1579842624 0.0738174733 0.5347448624 -0.1129613128 0.534982823 -0.1127565347 -0.16914153 0.0697755675
130299220.0 -0.1566732032 0.0746738407 0.5341846331 -0.1197965839 0.534289132 -0.1200723768 -0.167515001 0.0705122437
135299190.0 -0.1557751804 0.0757819649 0.5338439279 -0.1260906984 0.5340529444 -0.1265364934 -0.1666481414 0.0713798482
140299160.0 -0.1540622644 0.0767907029 0.5331146988 -0.1331739065 0.5327819577 -0.1325891922 -0.1663072895 0.0716502758
145299130.0 -0.1536132528 0.0776800564 0.5316911459 -0.1393718785 0.5321841244 -0.1394205091 -0.1649845893 0.072849862
150299100.0 -0.1520112692 0.0789304967 0.5307079575 -0.1461599039 0.530718138 -0.1464102124 -0.1643187638 0.0742272893
155299070.0 -0.1509070539 0.079822413 0.5289524178 -0.1525212579 0.5295919127 -0.1527330549 -0.1632937523 0.074785719
160299040.0 -0.1499867786 0.0813039201 0.5281765672 -0.158903791 0.5280629059 -0.1593039563 -0.1628190793 0.0760125045
165299010.0 -0.1489719889 0.0824001355 0.5270018357 -0.165446201 0.5265118739 -0.1652633981 -0.1615878664 0.0765956207
170298980.0 -0.1479456584 0.0833688803 0.5249861328 -0.1714033922 0.524958332 -0.1721467795 -0.1609390235 0.0777880016
175298950.0 -0.1468522823 0.084631831 0.5237876035 -0.1779654117 0.5237107735 -0.1783016374 -0.1601226222 0.0791310893
180298920.0 -0.1461129899 0.0859691553 0.5217124822 -0.1842646579 0.5218846003 -0.1848039738 -0.159169913 0.0801838085
185298890.0 -0.1453911017 0.0872631312 0.5204363561 -0.1901588094 0.51991115 -0.190484873 -0.158262666 0.0809438488
190298860.0 -0.1438987318 0.0887947118 0.5177476894 -0.1965766177 0.5182553389 -0.1967733454 -0.1580976617 0.0824339118
195298830.0 -0.1430664538 0.090072729 0.5164830143 -0.2027738808 0.5162570314 -0.2028248302 -0.157412642 0.0835979529
200298800.0 -0.1419402538 0.0909094274 0.5141609174 -0.209176625 0.514190466 -0.2089411915 -0.156538004 0.0845889853
205298770.0 -0.1413507115 0.0925250097 0.5115169881 -0.2148323498 0.5117273488 -0.2148914425 -0.1552483929 0.0858075288
210298740.0 -0.1402402069 0.0940961865 0.5096440968 -0.2205595398 0.5094546272 -0.2211632611 -0.1554018814 0.087003619
215298710.0 -0.1393167601 0.0955931005 0.5072221142 -0.2266811269 0.5069941799 -0.2271453802 -0.154111077 0.0881178484
220298680.0 -0.138074106 0.0969313718 0.504452635 -0.2327994277 0.5048182525 -0.2327375539 -0.1535794949 0.0895937231
225298650.0 -0.1374637735 0.0982341779 0.5022890675 -0.2380976356 0.5024104397 -0.238388694 -0.1528017202 0.090657629
230298620.0 -0.1362424813 0.0999715538 0.4995877982 -0.2443666841 0.4999434939 -0.2445494413 -0.1520764347 0.0916823873
235298590.0 -0.1354649834 0.1013380357 0.4967998805 -0.2502909796 0.497411037 -0.2501848761 -0.1513658823 0.0932955874
240298560.0 -0.1340806593 0.1030559153 0.4944625294 -0.2559234101 0.4948234393 -0.2557901044 -0.1503824118 0.0944014329
245298530.0 -0.1333880094 0.1039850736 0.491783687 -0.2617994014 0.4918655342 -0.2617585487 -0.1497918196 0.0960854566
250298500.0 -0.1325024634 0.1055178399 0.4890014305 -0.2667197701 0.4889710411 -0.2669991335 -0.1489409757 0.097238011
255298470.0 -0.1314515267 0.1071203673 0.4862968525 -0.2724218086 0.486819038 -0.2729462055 -0.147716359 0.0988226071
260298440.0 -0.1302823498 0.1085992479 0.4831580038 -0.277735664 0.4833148109 -0.2780099176 -0.147404637 0.0996091683
265298410.0 -0.1293202911 0.1100353819 0.4796965768 -0.2838956133 0.4799225035 -0.2838776629 -0.1460343384 0.1010606107
270298380.0 -0.12836567 0.1113504168 0.4769817656 -0.2889622088 0.4772463319 -0.2891120634 -0.1452490298 0.102682545
275298350.0 -0.1272074823 0.1130161814 0.4731393546 -0.2944645905 0.4734741452 -0.2944478628 -0.1444275956 0.1042311035
280298320.0 -0.1263344342 0.1141996049 0.4709601426 -0.2996967221 0.4709445608 -0.3000387427 -0.1435606562 0.1053076006
285298290.0 -0.1249830779 0.1157946024 0.4675418822 -0.3048822143 0.4677669088 -0.3047839177 -0.1427295294 0.1067953895
290298260.0 -0.1237904114 0.1174647194 0.4644251135 -0.3103928428 0.4644314062 -0.3104421858 -0.1418584032 0.1077339812
295298230.0 -0.1226206094 0.1186326706 0.4606727478 -0.3160029964 0.4609791543 -0.3160237879 -0.1406547485 0.1092873051
300298200.0 -0.1213450735 0.1203342302 0.4575826205 -0.3208160439 0.4575825124 -0.3210414463 -0.1398426974 0.1109321661
305298170.0 -0.1199890294 0.121131942 0.4539014328 -0.3262408642 0.4541889668 -0.3265846385 -0.1389175311 0.1117529573
310298140.0 -0.1184481956 0.1224699604 0.4508326733 -0.331156678 0.4510296903 -0.3312375585 -0.1374595423 0.1130495931
315298110.0 -0.1178243674 0.1236071361 0.4473067678 -0.3368281564 0.4469427548 -0.3366495295 -0.1367075874 0.1140632162
320298080.0 -0.1162923871 0.1251845077 0.4424833235 -0.3420560158 0.4433586564 -0.3419040803 -0.1358958874 0.1155107348
325298050.0 -0.1156079197 0.1261434142 0.4391367162 -0.3464879322 0.4397753752 -0.3466322679 -0.1345537863 0.1165697486
330298020.0 -0.1149712079 0.127647741 0.4351316948 -0.351683828 0.4357852948 -0.3518883756 -0.134098574 0.1178760548
335297990.0 -0.1135123917 0.1289065745 0.4313000838 -0.3562710952 0.431609246 -0.3568768217 -0.1328925002 0.1192450874
340297960.0 -0.1125283625 0.1304559594 0.4270589601 -0.3615298521 0.4272358086 -0.3615501366 -0.1320021646 0.120752265
345297930.0 -0.1109258756 0.131546251 0.4231328432 -0.3664586174 0.4232225123 -0.3662462299 -0.1308139891 0.1220678248
350297900.0 -0.1101148282 0.1329607646 0.4191739018 -0.3702892 0.4197138372 -0.3705520779 -0.1299479422 0.1231474509
355297870.0 -0.1088475099 0.1343071201 0.4150437582 -0.3746691687 0.4150331923 -0.3750341704 -0.1288144464 0.1249925848
360297840.0 -0.1075462794 0.1356828421 0.4105515429 -0.3799232612 0.4114190864 -0.3802797051 -0.12807935 0.1264369859
365297810.0 -0.1061656411 0.1370137855 0.4068677948 -0.3840056401 0.4066828924 -0.3842463255 -0.1268841916 0.1272963948
370297780.0 -0.1048262531 0.13839477 0.4020317761 -0.3887296055 0.4026120486 -0.3885833526 -0.1258384977 0.1285634447
375297750.0 -0.1035688259 0.1395057372 0.3985820866 -0.3928709106 0.3984897141 -0.3933568713 -0.124572162 0.1299789381
380297720.0 -0.1022551155 0.1409956599 0.3942273024 -0.3977432507 0.3937349439 -0.3976053128 -0.1231929238 0.1315539365
385297690.0 -0.1009254649 0.1421910176 0.3893769251 -0.4017043463 0.389684639 -0.4023553477 -0.1219083957 0.1331942017
390297660.0 -0.0990398061 0.1431130343 0.3850456056 -0.4053575708 0.385062218 -0.4060841214 -0.120500712 0.1340188967
395297630.0 -0.0974521434 0.1446597681 0.3809426152 -0.4097435502 0.3806464444 -0.4096639205 -0.1197117983 0.1353026475
400297600.0 -0.0962147332 0.1456734056 0.3762894685 -0.414516035 0.3764239081 -0.4145973374 -0.1182057954 0.1368697854
405297570.0 -0.0945204254 0.1466219585 0.3717599924 -0.418123157 0.3718979297 -0.4185714976 -0.116807313 0.1382906233
410297540.0 -0.0933029197 0.1481904095 0.3672405449 -0.4224945072 0.3671907458 -0.422323395 -0.1157741906 0.1394520831
415297510.0 -0.0919159854 0.1492348883 0.3624087138 -0.4264208782 0.3624920477 -0.426924956 -0.113860569 0.1408496751
420297480.0 -0.0902493709 0.150087417 0.3576893503 -0.4304690179 0.3581704124 -0.430838157 -0.1126696402 0.1422436381
425297450.0 -0.0881189458 0.1512242569 0.3531563659 -0.4339895615 0.3531216802 -0.4346516601 -0.1115154704 0.1430423243
430297420.0 -0.0869569598 0.152486551 0.3490628335 -0.4383944583 0.3485905052 -0.4381028377 -0.1097274013 0.1444772842
435297390.0 -0.0850909047 0.1533300478 0.3431105842 -0.4423027913 0.3435911089 -0.4418456744 -0.1091588486 0.1457761429
440297360.0 -0.0832460099 0.1542910608 0.3385688429 -0.4457694364 0.3386174867 -0.4456177776 -0.1074719016 0.1469879279
445297330.0 -0.0818514863 0.155038477 0.3339981473 -0.4490062157 0.3340091498 -0.4497256482 -0.105746165 0.1481319048
450297300.0 -0.0799409001 0.1562699593 0.3290125786 -0.4528392604 0.329041373 -0.4528640388 -0.1041474705 0.1494596191
455297270.0 -0.0788867667 0.1572687266 0.3241544028 -0.4562660952 0.3240208626 -0.4566332918 -0.1028747131 0.150495029
460297240.0 -0.076683837 0.1581498912 0.3189617415 -0.4605001531 0.3189611145 -0.460325781 -0.1014398092 0.1514565086
465297210.0 -0.0749490726 0.1590755696 0.3136170621 -0.4631217347 0.3135788426 -0.4642110775 -0.1000985742 0.1532607423
470297180.0 -0.0731575783 0.1601155644 0.3088493822 -0.4666018751 0.3087775074 -0.4670351046 -0.0982986124 0.1537515883
475297150.0 -0.071880926 0.161305523 0.3038842717 -0.4703181764 0.3037963724 -0.4700287396 -0.0966816605 0.1549317136
480297120.0 -0.0692009946 0.1624417125 0.2983207168 -0.4734496279 0.2987336571 -0.473477824 -0.0959212626 0.1560124459
485297090.0 -0.0678234012 0.1625858648 0.2934326262 -0.4766697218 0.2933096712 -0.4767397522 -0.093809512 0.1573135534
490297060.0 -0.0652217891 0.1639082067 0.287822642 -0.480176277 0.2878312632 -0.4800382129 -0.0924355359 0.15807753
495297030.0 -0.0639397301 0.1643660028 0.2830292194 -0.483082937 0.2825500475 -0.4829811774 -0.0904273825 0.159330262
500297000.0 -0.0621348756 0.1652388863 0.2774946595 -0.4858131911 0.2775025698 -0.4862217725 -0.0889702673 0.1602798551
505296970.0 -0.0595573548 0.1663351504 0.2723769086 -0.4893931636 0.2723607773 -0.4885065737 -0.0874055155 0.160331309
510296940.0 -0.0581970118 0.1670004495 0.2671434486 -0.4924457853 0.2673661405 -0.4922511803 -0.0855974698 0.1624340086
515296910.0 -0.0564096701 0.1677932821 0.2610759194 -0.4944648028 0.2612237724 -0.4949229722 -0.0845663162 0.1626869092
520296880.0 -0.0544461213 0.168528622 0.2560600887 -0.4977720995 0.2555405453 -0.4972501881 -0.0821983636 0.1642377635
525296850.0 -0.0523856499 0.1694012704 0.2507750799 -0.5003021889 0.250100255 -0.500476565 -0.080742798 0.1651474475
530296820.0 -0.0509037768 0.1696937569 0.2448799002 -0.5029815983 0.245035178 -0.502580155 -0.079069913 0.165323184
535296790.0 -0.0479364991 0.1706217219 0.2396108247 -0.5054307248 0.2396653065 -0.5056688738 -0.0773420913 0.1669367206
540296760.0 -0.046285023 0.1715879075 0.2339194063 -0.5081340702 0.2339081957 -0.5079889428 -0.0758858778 0.1675728668
545296730.0 -0.0447057452 0.1720874982 0.228312824 -0.5102132332 0.2283292397 -0.5104726444 -0.0739714836 0.1685664154
550296700.0 -0.0421628632 0.1726625325 0.2228720158 -0.5129741352 0.2224596815 -0.5130342585 -0.0723768882 0.1693020949
555296670.0 -0.0404186116 0.1736511009 0.2174846844 -0.5158960509 0.2173990468 -0.5155144296 -0.0711430785 0.1697351884
560296640.0 -0.0380432716 0.1740253313 0.2113734845 -0.5174520433 0.2121129754 -0.5178937448 -0.0691505826 0.1710714049
565296610.0 -0.036400155 0.1747743631 0.2063698425 -0.5202525832 0.206366961 -0.519544055 -0.0671956465 0.171823934
570296580.0 -0.0346325056 0.1752718745 0.2002278212 -0.5220305364 0.2001656435 -0.5224147761 -0.0658453313 0.1724388281
575296550.0 -0.032162506 0.1756740481 0.1947949918 -0.524689557 0.1949749447 -0.5241546961 -0.0638446098 0.1730651158
580296520.0 -0.0302071275 0.1764974072 0.1887862524 -0.5260482303 0.1887312909 -0.5262575288 -0.0623056769 0.173971764
585296490.0 -0.0280689966 0.1770915316 0.1836399193 -0.5280763779 0.1829463956 -0.5279686245 -0.0601236814 0.1749076254
590296460.0 -0.0254671205 0.1775359777 0.1776613056 -0.5302217307 0.1777795719 -0.5304840631 -0.0590633187 0.1757000836
595296430.0 -0.0234836078 0.1779574394 0.1714268023 -0.5318474638 0.1715266702 -0.5321504317 -0.0569783718 0.1760800997
600296400.0 -0.0217034077 0.1785801132 0.1657553572 -0.533616889 0.1659516989 -0.5337852199 -0.0552570698 0.1765284526
605296370.0 -0.0200402855 0.1787827994 0.1605124166 -0.535145999 0.1599849597 -0.535765954 -0.053631746 0.1774648096
610296340.0 -0.0175238551 0.1796097982 0.1547519674 -0.5368456361 0.1546334039 -0.5370519843 -0.0521352827 0.1783252783
615296310.0 -0.0150647601 0.1799283642 0.1488334894 -0.53894007 0.1483355248 -0.5390794588 -0.0497320815 0.1790689971
620296280.0 -0.0135579494 0.1805154601 0.1424480455 -0.5406166879 0.1425763733 -0.5405037887 -0.0486708241 0.1799278139
625296250.0 -0.0115241207 0.1806574496 0.1368321843 -0.5421285359 0.1369937114 -0.5421829865 -0.0470281538 0.179925439
630296220.0 -0.0091317894 0.181221693 0.1306925863 -0.5432478393 0.1311417274 -0.5429847038 -0.0450789841 0.1804146235
635296190.0 -0.0077045371 0.1817584339 0.1250434455 -0.54473245 0.1250350896 -0.5443895954 -0.0431500065 0.1811129943
640296160.0 -0.0053381297 0.1819619055 0.1189674724 -0.5458850468 0.1192204832 -0.545918744 -0.0414414329 0.1815101657
645296130.0 -0.0029037411 0.1825987686 0.1131743785 -0.5470423606 0.1132834833 -0.5467057972 -0.0398641887 0.1818160398
650296100.0 -0.0010520215 0.1823063346 0.1075632679 -0.5482124227 0.1069305617 -0.5486266572 -0.0371964272 0.1827531929
655296070.0 0.0007630596 0.1827120415 0.1013358168 -0.5495252173 0.1010500968 -0.5493327768 -0.0362259557 0.1830660327
660296040.0 0.0029392425 0.1833769763 0.0954611233 -0.5503953892 0.0949286786 -0.5506650458 -0.0341930541 0.183660878
665296010.0 0.0052087079 0.1834397684 0.0889930305 -0.5506606145 0.0892113784 -0.5514796478 -0.0325187596 0.1842210791
670295980.0 0.0069978785 0.1838935437 0.0836830678 -0.5518423262 0.0832250017 -0.5516067112 -0.0310674926 0.1844709933
675295950.0 0.0090312661 0.1839566272 0.0775873569 -0.5528781078 0.0774950933 -0.5528980904 -0.0289426721 0.1851421783
680295920.0 0.0107947455 0.1839460898 0.071561497 -0.553480726 0.0716379958 -0.5532996875 -0.0269421765 0.1851786216
685295890.0 0.0135083493 0.1845016215 0.0654573069 -0.5548018056 0.0653865138 -0.5545981723 -0.0250356876 0.1859911212
690295860.0 0.0148482485 0.1842618064 0.0596430365 -0.5552122404 0.0591833547 -0.5554713001 -0.0235548654 0.1862496233
695295830.0 0.0172423329 0.184340958 0.0540244428 -0.5558508555 0.0532610866 -0.5556242961 -0.0213748582 0.1868829832
700295800.0 0.0195821369 0.1848099483 0.0479283315 -0.5564039025 0.0477828711 -0.5562021536 -0.019769174 0.1869664636
705295770.0 0.0208990604 0.1847415815 0.04219568 -0.5568922789 0.0416095657 -0.5567324903 -0.0180958321 0.18775581
710295740.0 0.0231108416 0.1846051998 0.0354968583 -0.5573204452 0.0356631385 -0.557141655 -0.0161824689 0.1878386545
715295710.0 0.0253008148 0.1849112065 0.0297241786 -0.5577584081 0.0294572563 -0.5578883123 -0.0143348733 0.1881067089
720295680.0 0.027598089 0.1845782937 0.0237811855 -0.5575059538 0.0234848063 -0.5578679713 -0.0125712412 0.1881418734
725295650.0 0.029203439 0.1849302957 0.0176225657 -0.5576453713 0.0179830319 -0.5581103995 -0.0111024815 0.1889852082
730295620.0 0.0305615813 0.1847639422 0.0117507968 -0.558010114 0.0114235605 -0.5578911749 -0.009115176 0.1897074474
735295590.0 0.0329545766 0.1846991437 0.0058462898 -0.5583119893 0.0055119939 -0.5582506152 -0.0072259549 0.1889713577
740295560.0 0.0348345356 0.1842125466 -0.0002978113 -0.5581146222 -2.3833e-06 -0.5583336504 -0.0056593918 0.1896207736
745295530.0 0.0369646563 0.1842238968 -0.0064004134 -0.557601807 -0.005667243 -0.5576181892 -0.004122564 0.1896393802
750295500.0 0.0385434813 0.1844672192 -0.0118805568 -0.5580325981 -0.0124256854 -0.5581975175 -0.0017714657 0.189908507
755295470.0 0.0406759163 0.1839733709 -0.0177635777 -0.5579779219 -0.0180573014 -0.5580057344 8.8736e-05 0.1903812489
760295440.0 0.0426233924 0.1840374431 -0.0245215203 -0.5574818667 -0.0241635918 -0.5569057156 0.0019306371 0.1898666077
765295410.0 0.0447081119 0.183375402 -0.0303798687 -0.5568185972 -0.0296879374 -0.5571761997 0.003834375 0.1905219716
770295380.0 0.0463877674 0.18347748 -0.0358576739 -0.5564091814 -0.0363912026 -0.5574561829 0.0050230974 0.1905306296
775295350.0 0.0481161112 0.1830694509 -0.041642203 -0.5563012204 -0.0421281509 -0.5564440688 0.0072644192 0.1907592448
780295320.0 0.050205034 0.1829912743 -0.047582431 -0.5554060971 -0.0483450994 -0.5559177145 0.0095985417 0.1909297662
785295290.0 0.0522674766 0.1822978186 -0.05384281 -0.5554330616 -0.0537810755 -0.5552103505 0.0107568106 0.1913283715
790295260.0 0.0544576567 0.181707138 -0.0599755748 -0.5544101049 -0.0600214038 -0.5551565916 0.0125701078 0.1914375329
795295230.0 0.0559063011 0.1813435083 -0.0656293701 -0.5537806161 -0.0657765118 -0.5540748731 0.0146441033 0.190647552
800295200.0 0.0577205396 0.1813958641 -0.0711078042 -0.5528432405 -0.071688606 -0.5534370612 0.0163010063 0.1910058573
805295170.0 0.0595334938 0.1808033544 -0.0773858216 -0.5522599094 -0.0775971461 -0.5527257989 0.0189692472 0.1910072269
810295140.0 0.0619210491 0.1805373036 -0.0833898132 -0.5515290309 -0.0838083476 -0.5513355621 0.0206763545 0.1907535552
815295110.0 0.0634314826 0.1800752941 -0.0894868826 -0.5506928892 -0.0890876206 -0.5508832954 0.0220852349 0.1909751701
820295080.0 0.0653144652 0.1796723328 -0.0946867418 -0.5492829406 -0.0948280736 -0.5500211163 0.02307007 0.1916002788
825295050.0 0.067290188 0.178789547 -0.1010731594 -0.5484862578 -0.101097072 -0.5487511172 0.025936843 0.1912207066
830295020.0 0.0692558301 0.1783898115 -0.1068481174 -0.5470473068 -0.1070937046 -0.547592626 0.0276332404 0.1906897951
