!Created with skrf (http://scikit-rf.org).
# Hz S RI R 50.0 
!freq ReS11 ImS11 ReS21 ImS21 ReS12 ImS12 ReS22 ImS22
300000.0 -0.2375838295 -0.1259086587 0.4671592942 0.0843832573 0.4650195941 0.0848782497 -0.233283486 -0.1334153585
5299970.0 -0.2450935211 0.0051231074 0.4736334038 0.0061877583 0.4740676563 0.0061204213 -0.2436909963 0.0050712073
10299940.0 -0.2418456613 0.0184184613 0.4759899859 0.0069223367 0.4756541492 0.0071658051 -0.2398866011 0.018071799
15299910.0 -0.2369990926 0.0281284614 0.4793967787 0.0084091468 0.4796064361 0.0084853227 -0.2358971974 0.0275538096
20299880.0 -0.2314520725 0.0361199632 0.4840204825 0.0084152873 0.48431863 0.0085934614 -0.2310060042 0.0351579694
25299850.0 -0.2256257846 0.0429125202 0.4894379277 0.0080232647 0.4899623966 0.0077104993 -0.2259423307 0.0415162826
30299820.0 -0.2201826395 0.0475417311 0.4950349282 0.0056670172 0.4954241565 0.0054368058 -0.2204654309 0.0469896733
35299790.0 -0.2144201641 0.0517730915 0.4999251208 0.002519783 0.5004388426 0.0023667265 -0.2155358233 0.0514487231
40299760.0 -0.2092268976 0.0546288038 0.5054678189 -0.0014094655 0.5058242534 -0.0020098148 -0.2105801555 0.0547394368
45299730.0 -0.2040043039 0.057205941 0.510165749 -0.0062482276 0.5105394584 -0.0063767015 -0.2051582983 0.0576723692
50299700.0 -0.1991056622 0.0589651556 0.5146036375 -0.0118222077 0.5145775469 -0.0122443045 -0.2008015945 0.0601240333
55299670.0 -0.1948823803 0.060513844 0.518122296 -0.0176213195 0.5183763625 -0.0176463676 -0.1975052575 0.0618293926
60299640.0 -0.1906290128 0.0618622245 0.5216372388 -0.0240361766 0.521729947 -0.0239623108 -0.1934100688 0.0634457036
65299610.0 -0.1871094709 0.0627890002 0.5248755029 -0.0302970239 0.5247362062 -0.0305901137 -0.1897636103 0.0648061365
70299580.0 -0.1840626248 0.0629981252 0.5270544607 -0.0366546978 0.5272733108 -0.0368021071 -0.1868868103 0.0658977382
75299550.0 -0.1811103107 0.0637984219 0.5286996495 -0.0441687816 0.5292065664 -0.0440759618 -0.1836230473 0.066932985
80299520.0 -0.178188915 0.0647630354 0.5309616193 -0.0509702789 0.5310486505 -0.0512115617 -0.1811537861 0.0680973449
85299490.0 -0.1757375688 0.0647321199 0.5321975177 -0.0575921776 0.5327589424 -0.0576301157 -0.1791431934 0.0687124208
90299460.0 -0.1734333738 0.0653555542 0.5329710782 -0.0647151256 0.5330075166 -0.0644370828 -0.1765282523 0.0699712129
95299430.0 -0.1713756598 0.0658197746 0.5340043863 -0.0716790864 0.5346878424 -0.0719683128 -0.1744437419 0.0709345423
100299400.0 -0.1691992086 0.0662774426 0.5345039094 -0.0783104486 0.5346648996 -0.0787135829 -0.1729629232 0.0718921951
105299370.0 -0.1675716912 0.0667959748 0.5350425416 -0.0856912454 0.5351174966 -0.0851827246 -0.1707814132 0.0720083554
110299340.0 -0.1656010565 0.0670628779 0.5349206284 -0.091948625 0.5351422796 -0.0919899768 -0.1694991734 0.0730043712
115299310.0 -0.1645155641 0.0675056384 0.5352516249 -0.098665251 0.5350991242 -0.0987963674 -0.168091825 0.0745511897
120299280.0 -0.1634062921 0.0680218416 0.5353349182 -0.105968263 0.5351483001 -0.1062512874 -0.1664389481 0.0746791246
125299250.0 -0.1618967162 0.0686653731 0.5345315674 -0.1121968907 0.5347625209 -0.1123362587 -0.1649037442 0.0760592367
130299220.0 -0.160760631 0.0691256512 0.5341518586 -0.1193132291 0.5339195256 -0.119652666 -0.163575173 0.0769810204
135299190.0 -0.1597218588 0.0701841188 0.5335968438 -0.1256302003 0.5337906381 -0.1262706683 -0.1626275984 0.0778095599
140299160.0 -0.1585305643 0.0709964345 0.5331040766 -0.1326925154 0.5326065067 -0.1323539029 -0.1619289607 0.0788410985
145299130.0 -0.1577016023 0.0718037657 0.5315387149 -0.1390444839 0.5317239951 -0.1392620883 -0.1605626587 0.0800188784
150299100.0 -0.1565914653 0.0724568608 0.530431812 -0.1458579918 0.5305286943 -0.1458217203 -0.1596490751 0.081390928
155299070.0 -0.1557281758 0.073355113 0.5291369004 -0.1519989282 0.5295613282 -0.1524442893 -0.1584903099 0.0824151427
160299040.0 -0.1547904739 0.0744827184 0.5280403157 -0.1584770514 0.5279193262 -0.1589113336 -0.1577701184 0.0839811281
165299010.0 -0.1539215318 0.0751398224 0.5267962017 -0.1648450411 0.5266804239 -0.1653215132 -0.1565863522 0.0846221342
170298980.0 -0.1531966731 0.0763258237 0.5245833393 -0.1710616183 0.5249446245 -0.1714559348 -0.1556929844 0.0859368176
175298950.0 -0.1520217731 0.0773476511 0.5237177517 -0.1774618508 0.5238741908 -0.1781368368 -0.1547603531 0.087602107
180298920.0 -0.1516475522 0.0784987458 0.5216767056 -0.1842701506 0.5219754386 -0.1843850016 -0.1538199169 0.0887419149
185298890.0 -0.150797132 0.0794612164 0.5202148903 -0.1902036679 0.5199052203 -0.1903714076 -0.1528096064 0.0897094032
190298860.0 -0.1494903528 0.0809092349 0.5170897849 -0.1964322153 0.5180178544 -0.1966640541 -0.1516985566 0.0912298912
195298830.0 -0.1492365803 0.0817608544 0.5161936628 -0.2023852338 0.5162744409 -0.2029089606 -0.1511924685 0.0925526315
200298800.0 -0.1480985754 0.0826210138 0.5141013522 -0.2093467758 0.5139951114 -0.2091996789 -0.1498576916 0.0935918428
205298770.0 -0.1480576568 0.0840282656 0.5115573163 -0.2147693869 0.5116772862 -0.2147088211 -0.1490740821 0.0949583092
210298740.0 -0.1469250977 0.0852243599 0.5094157184 -0.2205635545 0.5093538342 -0.2208911986 -0.1483943139 0.0963168293
215298710.0 -0.1460706474 0.086535327 0.5069036923 -0.2265550433 0.5070407265 -0.2270515374 -0.1471828013 0.0978880219
220298680.0 -0.1451814725 0.0877961517 0.5044453979 -0.2324102095 0.5043216501 -0.232702959 -0.146111543 0.099084112
225298650.0 -0.1445467987 0.0889396254 0.5019144686 -0.2383832254 0.5022849103 -0.2378454829 -0.1453727127 0.1003102977
230298620.0 -0.1437406117 0.0905707323 0.4994808936 -0.2443585582 0.4998743759 -0.2443108164 -0.1444300716 0.1017599914
235298590.0 -0.143446117 0.0919504944 0.4970481055 -0.2506815871 0.4971622652 -0.2500638091 -0.1433168144 0.1034799197
240298560.0 -0.1418809015 0.0933432984 0.4940242754 -0.2558036488 0.494303614 -0.2558309413 -0.142549658 0.1047430058
245298530.0 -0.1413992176 0.0939713717 0.491406924 -0.2617277878 0.491435201 -0.2615132024 -0.1412799389 0.1063097033
250298500.0 -0.1409567557 0.0954620057 0.4887940616 -0.2668050694 0.4886878319 -0.2669156288 -0.1403807417 0.1078360627
255298470.0 -0.1399148236 0.0971653244 0.48637141 -0.2725612169 0.4861865546 -0.2727872442 -0.1391260188 0.109157827
260298440.0 -0.1391674924 0.0980559586 0.4830208947 -0.2778412487 0.4830580302 -0.2780973742 -0.1382832245 0.1105036142
265298410.0 -0.1384204153 0.0996400497 0.4797245109 -0.2840545017 0.4798739735 -0.2841307181 -0.1366253006 0.1120979383
270298380.0 -0.1374874137 0.1008477233 0.4764965291 -0.2891545906 0.4769292774 -0.2890446586 -0.135852274 0.1137545657
275298350.0 -0.136882333 0.1024218281 0.4733061404 -0.2941349951 0.4734447891 -0.2945026188 -0.1344631766 0.115060127
280298320.0 -0.1362281666 0.1037464128 0.4703972311 -0.2996888029 0.4710070836 -0.299934438 -0.1332943228 0.1163614756
285298290.0 -0.134804851 0.1051964917 0.4671171055 -0.3051490176 0.4676249247 -0.3051385412 -0.1325741599 0.118088414
290298260.0 -0.1342461511 0.1063691424 0.4646451105 -0.3104291554 0.4639818741 -0.3103831866 -0.1308624897 0.1193434198
295298230.0 -0.1333981742 0.1075660935 0.4606699462 -0.3161739143 0.4611495141 -0.3160782817 -0.1299482945 0.1206058658
300298200.0 -0.1324423218 0.1090115483 0.4572453517 -0.3209132584 0.4573524933 -0.3210781329 -0.1284235261 0.1221691979
305298170.0 -0.1314195667 0.1100551898 0.453964572 -0.3262564135 0.4545274034 -0.3265955564 -0.127160168 0.1233705534
310298140.0 -0.130334286 0.1114518823 0.4507730285 -0.3315769466 0.4501842856 -0.3309882132 -0.1259530217 0.1245142134
315298110.0 -0.1295360026 0.1124957534 0.4468870506 -0.3372691059 0.4470971442 -0.3369218034 -0.1246515656 0.1262211517
320298080.0 -0.1287991492 0.1136299628 0.442591899 -0.3418138016 0.4433762926 -0.3419638355 -0.1236194258 0.1272214618
325298050.0 -0.1279941525 0.1143751354 0.4385268851 -0.3468171704 0.4393287728 -0.3471322385 -0.1219596599 0.1284200739
330298020.0 -0.1277185775 0.116133075 0.4350523007 -0.3517982993 0.4355628564 -0.3518506145 -0.1212086007 0.1297350313
335297990.0 -0.1265249603 0.1173940949 0.4311467896 -0.3564799114 0.4315687422 -0.3569174126 -0.1200367077 0.1312959917
340297960.0 -0.1257062252 0.1184626021 0.4270522535 -0.361847705 0.4272060349 -0.3615832427 -0.1186551163 0.1328430633
345297930.0 -0.1250017855 0.1199152804 0.4227763638 -0.366287521 0.4227776753 -0.366526167 -0.1171144556 0.1340684955
350297900.0 -0.1242452896 0.1211795692 0.419120777 -0.3708471925 0.4188779624 -0.371010491 -0.1158059783 0.1352587432
355297870.0 -0.123208536 0.1225054222 0.414957381 -0.3747434319 0.4149443357 -0.3751733966 -0.1145151209 0.1369900867
360297840.0 -0.1220568068 0.1239899431 0.4104170126 -0.3800044382 0.4108672255 -0.3804307062 -0.1133982443 0.1385313248
365297810.0 -0.1212157603 0.1251788268 0.4063904632 -0.3848728379 0.4064755155 -0.3843923201 -0.1122019707 0.139424983
370297780.0 -0.119993125 0.1264522636 0.401700438 -0.3890423795 0.4022039852 -0.3888586223 -0.1105122152 0.1410960793
375297750.0 -0.1191468164 0.1278390481 0.3979514628 -0.3932008922 0.3979787333 -0.3935596836 -0.1088631887 0.1422880898
380297720.0 -0.1183106421 0.1292625315 0.393630667 -0.3979853184 0.3935872292 -0.3976152774 -0.107548075 0.1436573793
385297690.0 -0.1168587937 0.1301969489 0.3887923231 -0.4014975752 0.389390891 -0.4023103012 -0.1059966334 0.1454571364
390297660.0 -0.1157448896 0.1312237943 0.3848072476 -0.406100325 0.3846927134 -0.406411153 -0.1038808011 0.146246227
395297630.0 -0.1143151078 0.1326362729 0.3802400913 -0.409743753 0.3801315601 -0.4101345728 -0.1027917394 0.1477849631
400297600.0 -0.1134344057 0.1340453741 0.3758809131 -0.4147875227 0.3761250272 -0.4145270522 -0.1009913067 0.1492301647
405297570.0 -0.1122975189 0.1346044561 0.3712018074 -0.4184645231 0.3715362329 -0.4184130917 -0.0996833959 0.150270277
410297540.0 -0.111139546 0.1362578442 0.3668862492 -0.4227950256 0.3670323438 -0.422594559 -0.0977856201 0.1518609585
415297510.0 -0.11016315 0.1375391428 0.3618810873 -0.4266696864 0.3624513719 -0.4271605222 -0.0959804379 0.1530667004
420297480.0 -0.1085922504 0.138290306 0.357454143 -0.4306220297 0.3578147263 -0.4307608342 -0.0941958122 0.1541849651
425297450.0 -0.1069780229 0.1393817693 0.3525191245 -0.4344892347 0.3526037832 -0.434544006 -0.0928242011 0.1548611096
430297420.0 -0.1064773325 0.1409374564 0.3482812556 -0.4388172284 0.3482238026 -0.4380894126 -0.0909113396 0.1564740976
435297390.0 -0.1048205314 0.1417203211 0.3429021819 -0.4423171815 0.3430228213 -0.4421429198 -0.0896905728 0.1578282151
440297360.0 -0.1035177327 0.1427236324 0.3381864921 -0.4460071972 0.3383082148 -0.4461953677 -0.087938306 0.1591545829
445297330.0 -0.1021015868 0.1433603315 0.3334948586 -0.448851266 0.3334329308 -0.4498196949 -0.0857721422 0.160001423
450297300.0 -0.1006085507 0.1446384762 0.3284002406 -0.4528280925 0.3286073005 -0.4528111286 -0.0837520907 0.1608463372
455297270.0 -0.099376499 0.1457406907 0.3236025588 -0.4566523355 0.3236405468 -0.4568201069 -0.0822464272 0.1621470789
460297240.0 -0.0978597667 0.1470877165 0.3186447122 -0.4608420512 0.318262301 -0.4602378922 -0.0804208105 0.1628956626
465297210.0 -0.0962610937 0.1479006667 0.3130036562 -0.4636965728 0.3126201818 -0.4640209523 -0.078340647 0.1647031308
470297180.0 -0.094880897 0.1490516018 0.3079683651 -0.4669012372 0.3083867455 -0.4671131675 -0.0766265028 0.1652361077
475297150.0 -0.0940131493 0.1503226092 0.3030366434 -0.4705209967 0.3032746463 -0.4707143107 -0.0748805287 0.1660667735
480297120.0 -0.0918622683 0.1514541824 0.2978108287 -0.4742500703 0.2978890454 -0.4734491397 -0.0732736442 0.1671118505
485297090.0 -0.0906025286 0.1518197153 0.2926038731 -0.4767616345 0.2928620868 -0.4770613375 -0.0715902138 0.1683104408
490297060.0 -0.088593382 0.1529731843 0.2871988104 -0.4801215066 0.287422179 -0.4803101879 -0.0695273844 0.1689557751
495297030.0 -0.0876481325 0.153563213 0.2824867972 -0.4832821072 0.2820894959 -0.483439946 -0.0671092875 0.1697313472
500297000.0 -0.0864229864 0.1548023685 0.2773030169 -0.4858352602 0.2768732408 -0.4862377925 -0.0655428578 0.1709863579
505296970.0 -0.0842140483 0.1556313528 0.2718605129 -0.4893827497 0.2720527302 -0.4889144267 -0.0636868141 0.171209211
510296940.0 -0.0827641705 0.1566397109 0.2664791663 -0.4924876707 0.2666323689 -0.4927451479 -0.0614787861 0.1727287438
515296910.0 -0.0815073425 0.1580210969 0.2606853977 -0.4949441046 0.2605105775 -0.4947143894 -0.059741495 0.172885405
520296880.0 -0.0797253494 0.1586441154 0.2556982643 -0.4971753462 0.2553739748 -0.4978158358 -0.057558547 0.1746223999
525296850.0 -0.0780166559 0.1595138943 0.2501370862 -0.5004653702 0.2495495788 -0.5003936879 -0.055674797 0.175018334
530296820.0 -0.0767690493 0.1601635429 0.244193479 -0.503052546 0.2443153658 -0.5028355735 -0.0536211499 0.1753185719
535296790.0 -0.0742783366 0.1611456225 0.2388557812 -0.5054794337 0.2392929635 -0.5059950373 -0.0515816868 0.1763761848
540296760.0 -0.0730316646 0.1622028604 0.2334039502 -0.5080755413 0.2331352381 -0.5080396715 -0.0496947038 0.1767101461
545296730.0 -0.0718496828 0.1633724895 0.2280343321 -0.5108258376 0.2275214721 -0.5107359192 -0.047574024 0.1775506382
550296700.0 -0.0694452177 0.1640777604 0.2221475915 -0.5130005549 0.2219122657 -0.5133995104 -0.0455647039 0.1781233847
555296670.0 -0.0680092958 0.164857737 0.217032449 -0.516010846 0.2166120725 -0.5152993107 -0.043755565 0.1784494675
560296640.0 -0.0657868943 0.1655017632 0.2106486861 -0.5177103084 0.2111349971 -0.5181690371 -0.0417569501 0.1797775921
565296610.0 -0.0648837844 0.1666226972 0.205800914 -0.5200408964 0.2054741844 -0.5196811742 -0.0394104824 0.1800557628
570296580.0 -0.0629278697 0.1673304773 0.199549344 -0.5222541882 0.1997238879 -0.5224561674 -0.0375946678 0.1804675897
575296550.0 -0.0610168944 0.1678674966 0.1945302146 -0.5245834028 0.1941846416 -0.5243730532 -0.0354293198 0.1807782803
580296520.0 -0.0593921162 0.1691017664 0.188318642 -0.5264185069 0.1882730378 -0.5266751462 -0.0338779417 0.1815991686
585296490.0 -0.0575553266 0.1697041058 0.1827997351 -0.5282969571 0.1824711505 -0.5281278321 -0.0312276676 0.1821883603
590296460.0 -0.0553418235 0.1703640926 0.1769786769 -0.5302552183 0.1767645733 -0.5304444589 -0.0299954751 0.1829675406
595296430.0 -0.0540263128 0.1713548955 0.1705903872 -0.5321910699 0.1707594797 -0.5321282956 -0.0275780835 0.1828963898
600296400.0 -0.0520300594 0.1722099177 0.1647030411 -0.5340609154 0.1649971332 -0.5338965358 -0.0251903861 0.1831324967
605296370.0 -0.0507463998 0.1726609995 0.1598772319 -0.5354305164 0.1587964723 -0.5358635361 -0.0230791765 0.1840902382
610296340.0 -0.0486433428 0.1736528244 0.1535062313 -0.5371116934 0.1540035009 -0.5372667343 -0.0215104179 0.1845480739
615296310.0 -0.0468062282 0.174071096 0.1483701577 -0.5389844973 0.1474870552 -0.5389690836 -0.0189306275 0.1847076357
620296280.0 -0.0452311874 0.1753353263 0.1416862915 -0.5405817527 0.1414914958 -0.5404187295 -0.0171862753 0.1853522077
625296250.0 -0.0436921046 0.1753590094 0.136443795 -0.5418271784 0.1358277184 -0.5420496024 -0.015438033 0.1852975631
630296220.0 -0.0416992467 0.1765434922 0.1300579057 -0.5434917029 0.1300857679 -0.5431087215 -0.0133201049 0.185714714
635296190.0 -0.0401343882 0.1774244914 0.124418262 -0.544834541 0.1242758137 -0.54451417 -0.0109912111 0.185969376
640296160.0 -0.0382895055 0.17774821 0.1181169529 -0.5462791186 0.1182852687 -0.5461201074 -0.0091210158 0.1861271369
645296130.0 -0.0364768448 0.1787813199 0.1123961695 -0.5471253703 0.1124425043 -0.5471721744 -0.0071076144 0.1861496566
650296100.0 -0.0345650856 0.1788135051 0.1067135763 -0.5486683268 0.1063369217 -0.5486109132 -0.0041600164 0.1866917351
655296070.0 -0.0328816031 0.1795926719 0.1003082005 -0.5492391883 0.1003493903 -0.549157669 -0.0033161468 0.1869062619
660296040.0 -0.0309358081 0.1804912409 0.094491748 -0.5506643969 0.0944177961 -0.5504275955 -0.0006402422 0.1866639738
665296010.0 -0.0293182058 0.1807827048 0.0883426836 -0.5511095055 0.0882496528 -0.5512473002 0.0013531423 0.1869515838
670295980.0 -0.0273985486 0.1813412528 0.0825609601 -0.5521055183 0.0823918639 -0.5517164447 0.0028846033 0.1871746987
675295950.0 -0.0257012014 0.1818539158 0.0763603587 -0.5528642814 0.0765284821 -0.5527930159 0.0051440743 0.1873556829
680295920.0 -0.0243112191 0.1827027397 0.0709338253 -0.5539069801 0.070549196 -0.5536752968 0.0077153103 0.1871577841
685295890.0 -0.0222650978 0.1832297813 0.0643531356 -0.55469468 0.0642294211 -0.5545662805 0.0098112857 0.1876139697
690295860.0 -0.0207406919 0.1835664531 0.0586695365 -0.5552400081 0.0584014441 -0.5553041403 0.0117736169 0.187425578
695295830.0 -0.0187330596 0.1839993239 0.0531516289 -0.555923701 0.0524238157 -0.555894699 0.0136339359 0.1877096332
700295800.0 -0.0170593332 0.1846345972 0.0471978073 -0.5562863182 0.0466624211 -0.5562391747 0.0157450356 0.1877141134
705295770.0 -0.0155316449 0.1849511914 0.0408188087 -0.556799464 0.0406162953 -0.5568029374 0.0175354724 0.1878014849
710295740.0 -0.013441808 0.1852530287 0.0347723635 -0.557044506 0.0343871346 -0.5573923713 0.0199245937 0.1877032243
715295710.0 -0.0119589451 0.185722745 0.0289536084 -0.5572779026 0.0283442379 -0.5575545811 0.0218608137 0.1875630351
720295680.0 -0.0096405533 0.1860506098 0.0223660795 -0.5575256025 0.022504082 -0.5579077905 0.0239726814 0.1873533037
725295650.0 -0.0086936171 0.1866019598 0.01708902 -0.5579310127 0.0167933398 -0.5576735887 0.0259047264 0.1876896628
730295620.0 -0.0070681376 0.1865010853 0.0108762512 -0.5574203096 0.0105869778 -0.5575630198 0.0278220192 0.1878438492
735295590.0 -0.0048610895 0.1873669869 0.0045860363 -0.5582868189 0.0044750428 -0.5577564747 0.0298933177 0.1868067334
740295560.0 -0.0033125372 0.1871112184 -0.0012042913 -0.5580468233 -0.0010537239 -0.5582699039 0.0318047857 0.1870495387
745295530.0 -0.0015889995 0.1877290532 -0.0069966415 -0.5568635593 -0.0064755896 -0.557635438 0.0339081143 0.1867617857
750295500.0 -4.88097e-05 0.1880770258 -0.0127448456 -0.5575739929 -0.0134877037 -0.5575664257 0.0360163081 0.1862919768
755295470.0 0.0017947084 0.1879412221 -0.0185325703 -0.5574650768 -0.0190934566 -0.5578389433 0.0381613577 0.186707392
760295440.0 0.0035498847 0.1888121007 -0.0251414002 -0.5573944556 -0.025570467 -0.5570096396 0.0403621893 0.185506835
765295410.0 0.0055620455 0.1883999163 -0.0310953785 -0.5568343855 -0.030894543 -0.5569768931 0.0421309611 0.1856463408
770295380.0 0.0069827602 0.1888969637 -0.0366364697 -0.5560919104 -0.0369554948 -0.5568796321 0.0440162155 0.1853669851
775295350.0 0.008566797 0.1890155245 -0.0428417473 -0.5564249022 -0.0431734802 -0.5559225507 0.0465152111 0.1853993996
780295320.0 0.0104392719 0.1894676732 -0.0489724893 -0.5553060815 -0.0486784024 -0.5553290645 0.0485420401 0.184713862
785295290.0 0.0120772959 0.1894363025 -0.0544903515 -0.5550452074 -0.0546271782 -0.5551910981 0.0498093999 0.1849960556
790295260.0 0.0140440768 0.1887137007 -0.060508401 -0.554146801 -0.060369652 -0.5549131235 0.0520049091 0.1846479747
795295230.0 0.0154999046 0.1890000853 -0.0665756392 -0.5536881264 -0.0668508025 -0.5541510993 0.0540188622 0.1833553575
800295200.0 0.0171754912 0.1894390914 -0.0719259498 -0.5524743397 -0.0726067552 -0.5530496548 0.0559627098 0.1830750442
805295170.0 0.0187489227 0.1894490673 -0.0778772899 -0.5521830021 -0.0782506584 -0.5523623957 0.0584319507 0.18267686
810295140.0 0.0208080708 0.1897374041 -0.0846234761 -0.5509373786 -0.0844306174 -0.5510550025 0.0606272077 0.1821312548
815295110.0 0.0223843077 0.1895392651 -0.0904039247 -0.5503333439 -0.090297514 -0.5501728051 0.062100114 0.1817501674
820295080.0 0.0240551653 0.1896753658 -0.0957029745 -0.5490698107 -0.0960835385 -0.5497227641 0.0636399462 0.181602876
825295050.0 0.0257583467 0.1894627869 -0.1019870717 -0.5483175885 -0.1023578259 -0.5480128005 0.0666307219 0.1811564793
830295020.0 0.0275714653 0.1892744984 -0.1077585497 -0.5471599232 -0.1080895766 -0.5469044538 0.0683099636 0.1799717267
