!Created with skrf (http://scikit-rf.org).
# Hz S RI R 50.0 
!freq ReS11 ImS11 ReS21 ImS21 ReS12 ImS12 ReS22 ImS22
300000.0 -0.7724855884 -0.1741451042 -0.0013179777 -0.0004499155 -0.0004116657 0.000101349 0.8595142749 -0.0027498603
5299970.0 -0.7862561407 -0.0092665556 2.68498e-05 6.17703e-05 -0.0001365854 -5.51264e-05 0.8593026858 -0.009948382
10299940.0 -0.7892618538 -0.005749474 -1.06737e-05 -2.15601e-05 5.43208e-05 -1.0311e-05 0.8583275347 -0.0187648132
15299910.0 -0.7942364798 -0.0032167904 -0.0002541236 -0.0002433185 8.90497e-05 8.46177e-05 0.8571312857 -0.0280393677
20299880.0 -0.8010234624 0.0009166506 1.22668e-05 0.0001154758 -0.0001002575 -9.68764e-05 0.8564179509 -0.0359455199
25299850.0 -0.8076785009 0.0068660534 1.7749e-05 2.14544e-05 1.70716e-05 -1.0686e-05 0.8554373944 -0.0443411838
30299820.0 -0.8138410483 0.0139773333 -5.03596e-05 0.0002402106 -4.41792e-05 -2.62624e-05 0.8552330039 -0.0527206118
35299790.0 -0.8187215048 0.0231071495 0.0001244354 7.64013e-05 3.15702e-05 0.0001488801 0.8548872429 -0.0609539418
40299760.0 -0.8239062071 0.0317481861 -2.65706e-05 2.91044e-05 -6.42009e-05 -0.0001460811 0.8538018115 -0.0690600192
45299730.0 -0.8267836146 0.0420430106 -1.93621e-05 -0.0001172836 -7.91481e-05 -0.0001048757 0.852394011 -0.0773731384
50299700.0 -0.8290193524 0.0514661792 4.10634e-05 -7.07781e-05 -8.05941e-05 0.0002392157 0.8522215601 -0.0856882752
55299670.0 -0.8314328558 0.0615011024 -0.0002008094 2.12526e-05 1.0985e-06 4.99644e-05 0.85084968 -0.0934794819
60299640.0 -0.8323247339 0.071990135 0.0001697134 3.3918e-05 -0.0002097671 -5.81994e-05 0.8501514547 -0.1023014419
65299610.0 -0.8334280173 0.081789335 -4.13671e-05 9.46564e-05 0.0001180255 -0.0001179316 0.8488354177 -0.1102683059
70299580.0 -0.8338446619 0.0916130001 -0.0001190434 -4.28564e-05 4.52631e-05 2.64251e-05 0.8476392524 -0.118711589
75299550.0 -0.8340010342 0.1015333966 0.0001027876 -5.67702e-05 3.51457e-05 8.71937e-05 0.8462915299 -0.1270124419
80299520.0 -0.834077637 0.112099221 -0.0002142182 -8.30785e-05 -5.91336e-05 -0.0001060745 0.8449501685 -0.1358090453
85299490.0 -0.8327256732 0.1213020321 -0.0001419225 -7.6867e-05 -4.10846e-05 0.0001674176 0.8435628463 -0.1435216349
90299460.0 -0.8323749586 0.1315328822 -0.0001187823 5.38521e-05 -8.99837e-05 6.1878e-06 0.8425581373 -0.1513729173
95299430.0 -0.8315691873 0.1405254112 -3.97709e-05 -8.11619e-05 3.92354e-05 1.75557e-05 0.8407009634 -0.159972828
100299400.0 -0.8302347667 0.150258487 1.23325e-05 4.84717e-05 -0.0001187921 -5.65852e-05 0.8387818629 -0.1680757497
105299370.0 -0.8291725423 0.1591177685 2.76036e-05 -0.0002012932 3.60592e-05 -9.16693e-05 0.8376391339 -0.1760803124
110299340.0 -0.8276262983 0.1682695407 0.0001384491 -0.0001277051 -6.0597e-06 -0.0001708736 0.8353172413 -0.1848697912
115299310.0 -0.8261498404 0.1777922046 -6.73394e-05 -7.98356e-05 1.58218e-05 0.0002481985 0.8330396728 -0.192250316
120299280.0 -0.8248118959 0.1866490835 9.90021e-05 0.0001780329 3.74167e-05 -0.0001276617 0.8313120247 -0.2008339685
125299250.0 -0.8228737098 0.195611651 4.8648e-06 -0.0001131264 -0.0002438892 -3.13564e-05 0.8295088608 -0.2091176837
130299220.0 -0.8208025273 0.2049591263 0.0001719391 8.16376e-05 0.0001052849 8.51908e-05 0.8274112219 -0.2164811678
135299190.0 -0.8185224116 0.2138676779 -0.0001667552 -3.0199e-05 6.13055e-05 -8.44965e-05 0.8252133263 -0.2251782813
140299160.0 -0.8173293186 0.2232228911 -0.0001008375 -7.26561e-05 -3.11669e-05 -9.56139e-05 0.8228760916 -0.2332529167
145299130.0 -0.8151416991 0.232569678 -0.0001378541 7.37409e-05 9.8468e-06 -4.79128e-05 0.8207888148 -0.2415142117
150299100.0 -0.8115959138 0.2413822975 -6.74425e-05 -8.14654e-05 -3.14707e-05 9.08545e-05 0.8182470012 -0.2496818494
155299070.0 -0.8098826212 0.2501261789 9.61362e-05 4.13899e-05 -1.53259e-05 6.34197e-05 0.8160211812 -0.257748107
160299040.0 -0.8076576017 0.2595016092 -0.0001505704 3.09258e-05 -7.65837e-05 0.0001136861 0.813027433 -0.2650914731
165299010.0 -0.8045562443 0.2676071391 -0.000135705 -0.0002222807 7.14599e-05 -6.23924e-05 0.8110487744 -0.2735107791
170298980.0 -0.8015693298 0.276069619 -0.0001259146 -1.81541e-05 1.94251e-05 1.83979e-05 0.8072072683 -0.2813258832
175298950.0 -0.7989433928 0.2847285175 -9.09089e-05 3.45299e-05 -2.65442e-05 3.49534e-05 0.8045214326 -0.2891161127
180298920.0 -0.7959665136 0.2934027306 9.55838e-05 -3.9607e-06 0.0001609709 -9.847e-07 0.802262341 -0.2966950143
185298890.0 -0.7931622757 0.3021348793 0.0001463769 4.61414e-05 -1.57652e-05 0.0001544382 0.799012019 -0.3044391722
190298860.0 -0.7896932519 0.3113351436 0.000171066 1.63849e-05 -3.55671e-05 -6.79875e-05 0.7956033061 -0.3127624215
195298830.0 -0.7866515161 0.3196434036 -1.448e-07 0.000120742 -5.61929e-05 -3.4305e-05 0.7931195877 -0.3207114257
200298800.0 -0.782687348 0.3281232271 3.20272e-05 -6.21602e-05 -0.0001020197 -7.55173e-05 0.7893374841 -0.3278684194
205298770.0 -0.7790556237 0.3363967836 0.0001019048 -9.20111e-05 -4.366e-07 9.13495e-05 0.7866612216 -0.3360933078
210298740.0 -0.7760894644 0.3448340417 -8.52075e-05 -0.0001106661 0.0001125277 3.82007e-05 0.7831574532 -0.3434793404
215298710.0 -0.7721926849 0.3531712194 7.61243e-05 4.0807e-05 -6.14693e-05 -0.0001640458 0.7795902227 -0.351671902
220298680.0 -0.7687308025 0.3606749967 6.57848e-05 -4.31282e-05 -7.1006e-05 0.0001586275 0.7759565396 -0.3580798283
225298650.0 -0.7645527444 0.369364846 0.0001053382 -8.03277e-05 -0.0002449764 -7.051e-06 0.7722052009 -0.3664884359
230298620.0 -0.7612778173 0.377986775 2.3805e-06 -6.32187e-05 -0.0001448103 0.0001515025 0.7691512684 -0.3737960965
235298590.0 -0.7574732031 0.3858929245 -7.02902e-05 5.84694e-05 0.0002533014 -3.70626e-05 0.7647358747 -0.3809204934
240298560.0 -0.7528604856 0.3936478576 -1.9088e-05 -6.64525e-05 -1.75386e-05 1.15866e-05 0.7614678869 -0.3886912815
245298530.0 -0.7487535693 0.4017883634 -7.27884e-05 0.0002043905 2.10541e-05 5.40254e-05 0.7571702456 -0.3960023905
250298500.0 -0.7446785785 0.4095438904 -0.000128589 -0.0001676712 0.0001399516 9.88596e-05 0.7533274692 -0.4033149468
255298470.0 -0.7404935758 0.4173326602 -2.11719e-05 -5.47102e-05 3.21467e-05 -5.03857e-05 0.7494782125 -0.4108241966
260298440.0 -0.7364337725 0.4250322175 -0.0001150724 -0.0002358203 -2.41929e-05 8.90674e-05 0.7453344813 -0.4181884473
265298410.0 -0.7318947479 0.4328823601 8.2969e-05 1.4049e-06 -2.27186e-05 6.6816e-05 0.7412736256 -0.4255597259
270298380.0 -0.7275388658 0.4403668563 1.82347e-05 1.02669e-05 0.0001073874 -9.72979e-05 0.7374867728 -0.4326158489
275298350.0 -0.7232588126 0.4481447376 -4.34201e-05 5.53428e-05 -0.0001199847 -0.000120051 0.7326777639 -0.4399676929
280298320.0 -0.7182635104 0.4556398364 5.24757e-05 -0.0001229816 -3.8274e-05 0.0002119559 0.7288964984 -0.4469144612
285298290.0 -0.7132363587 0.463218751 2.75262e-05 9.13672e-05 -0.0002421241 -5.18544e-05 0.7244297572 -0.4537360826
290298260.0 -0.7090346453 0.4713600181 -0.0002267215 9.25244e-05 -7.85371e-05 0.0001548523 0.7196887767 -0.4611553546
295298230.0 -0.7043708422 0.4782934449 1.44991e-05 -5.63573e-05 0.0001279109 0.0001712372 0.7160277566 -0.4683049022
300298200.0 -0.6993858118 0.4857016034 0.0001174106 0.0001130213 7.8365e-05 -3.18931e-05 0.7113140216 -0.475393615
305298170.0 -0.6945041355 0.4927033988 -5.18927e-05 -9.10516e-05 -8.883e-06 9.52773e-05 0.7064447448 -0.4824187179
310298140.0 -0.6890590034 0.4995837518 -7.30555e-05 -9.14594e-05 -3.65081e-05 -4.21214e-05 0.7025954824 -0.4899299157
315298110.0 -0.6845596061 0.5072431093 7.8301e-06 0.000220243 -0.0002233233 3.9949e-05 0.6975000083 -0.4969963606
320298080.0 -0.6791110292 0.5143927728 -0.0001296532 0.0001816124 -1.02381e-05 9.9605e-05 0.6920030183 -0.504803889
325298050.0 -0.6735555934 0.5209100201 0.0003316282 1.95477e-05 -0.0001394645 0.0001187281 0.6874996889 -0.5118040573
330298020.0 -0.6681119171 0.5283820148 5.617e-07 -8.4365e-05 0.0001710945 -0.0002292873 0.6818544566 -0.5197409939
335297990.0 -0.6629754817 0.5349415768 -9.2957e-06 -2.10138e-05 -4.35751e-05 5.63477e-05 0.6759025652 -0.526525485
340297960.0 -0.6576144246 0.5411579385 0.0002476288 -5.03587e-05 5.46743e-05 2.3221e-05 0.6698798109 -0.5325363509
345297930.0 -0.652016034 0.5483579359 -1.7153e-05 -8.446e-07 2.26434e-05 -4.49868e-05 0.6643188786 -0.5390941845
350297900.0 -0.646453273 0.5549395859 -0.0002035173 0.0001730957 1.7025e-06 -0.0001115648 0.6582188904 -0.5456883394
355297870.0 -0.6408180874 0.5614105309 -0.0003283736 -4.85555e-05 1.5257e-06 0.0001877202 0.6528865583 -0.5518123469
360297840.0 -0.6346167671 0.5681522512 -0.0001418004 0.0002407154 -0.00013805 1.57993e-05 0.6473158339 -0.5571125447
365297810.0 -0.629308149 0.5748103747 0.0001065173 -7.40503e-05 0.0001063114 7.35253e-05 0.6411855263 -0.5639004413
370297780.0 -0.6231652569 0.5807867335 -4.42187e-05 7.06952e-05 0.0001074249 1.43963e-05 0.6355940237 -0.5695993387
375297750.0 -0.6179321407 0.5872686721 -0.0001387248 -2.26328e-05 2.00979e-05 2.18607e-05 0.6302785924 -0.5762004239
380297720.0 -0.6116683095 0.593267344 0.0001240249 -3.19815e-05 6.23328e-05 -1.85138e-05 0.6245578305 -0.581589837
385297690.0 -0.6055899207 0.5998965093 -0.0002347247 2.05948e-05 0.0001757546 0.0001452709 0.6178620025 -0.5878136652
390297660.0 -0.5984466721 0.6055723376 4.04219e-05 6.45771e-05 -0.0001381916 0.0001362961 0.6127951215 -0.5935169155
395297630.0 -0.5927418389 0.6118144358 -4.21704e-05 -4.9901e-05 8.74337e-05 3.27707e-05 0.6063395723 -0.6000776391
400297600.0 -0.5863298122 0.618291298 0.0002394175 -0.0001224876 0.0001247878 -6.3026e-06 0.6008091776 -0.6052475248
405297570.0 -0.5802259702 0.6232338831 -0.000137958 5.62124e-05 -0.0002252277 0.0001726368 0.5942999177 -0.6110360067
410297540.0 -0.5735687569 0.6296103821 0.0002099912 0.0002756317 -1.72314e-05 1.51352e-05 0.5883612263 -0.6170427063
415297510.0 -0.5680378404 0.6353445066 2.26221e-05 -1.33681e-05 1.75992e-05 0.0001282017 0.5816761261 -0.6226845578
420297480.0 -0.5613161612 0.6416184279 0.0002429881 -1.58931e-05 -4.69256e-05 -5.23597e-05 0.5761176206 -0.6279194827
425297450.0 -0.5542877194 0.6467940383 -3.35727e-05 0.0001389648 0.0002061599 -1.37288e-05 0.5698363624 -0.633992821
430297420.0 -0.5479646881 0.6520549162 -0.0001690777 -6.84961e-05 5.59995e-05 -8.8417e-06 0.5634921653 -0.6391903528
435297390.0 -0.5410126013 0.6573992732 -4.2566e-05 -9.55041e-05 9.75976e-05 0.0001522574 0.556823531 -0.645174117
440297360.0 -0.5340553058 0.6625914453 -0.0002725386 8.09458e-05 2.428e-06 -1.58502e-05 0.5506311098 -0.6500031048
445297330.0 -0.5271709393 0.6678874133 -1.41203e-05 -0.0001845387 -1.41923e-05 -8.79184e-05 0.543506981 -0.6544167165
450297300.0 -0.5200029539 0.6740689492 0.0001290779 8.31741e-05 -8.65246e-05 -0.0001689955 0.5378102903 -0.6601992987
455297270.0 -0.5137195125 0.678135773 0.0002742606 2.55189e-05 -1.65482e-05 1.88639e-05 0.5310391442 -0.6654413682
460297240.0 -0.506080732 0.6839349188 8.06947e-05 0.0002301028 0.0001195606 0.0001581465 0.5238246763 -0.6712209899
465297210.0 -0.4992759437 0.689040026 0.00012468 -0.0001053782 -0.0001589709 -3.02118e-05 0.5177198585 -0.6752203993
470297180.0 -0.4918066331 0.6940468926 -1.18499e-05 -0.0002002287 -0.0001527282 0.0001523158 0.5110362826 -0.6807017971
475297150.0 -0.484941962 0.6991578462 8.90011e-05 4.68731e-05 2.41274e-05 -0.000124677 0.5045332884 -0.6855283645
480297120.0 -0.4768185744 0.7041554271 1.94018e-05 0.0001195934 -1.9099e-06 -2.94292e-05 0.4970113101 -0.6901026617
485297090.0 -0.470042709 0.7081241041 -2.66505e-05 0.000130944 -6.16053e-05 -0.0001086891 0.4905639866 -0.6956785604
490297060.0 -0.4617385007 0.7138147723 -0.0001334096 1.11706e-05 -1.49372e-05 -5.64957e-05 0.4835379026 -0.7000134078
495297030.0 -0.4548870074 0.7180687522 -3.07233e-05 -0.0003025606 -6.82411e-05 4.82267e-05 0.4761817571 -0.7046198778
500297000.0 -0.4478121869 0.7219840943 -3.26682e-05 -0.0001447391 -2.00166e-05 5.0597e-05 0.470022533 -0.7091181647
505296970.0 -0.4392445645 0.7273107519 0.0001269709 0.0001740375 -5.68519e-05 1.38123e-05 0.462155 -0.7135017155
510296940.0 -0.4321566859 0.7317265918 0.0001054393 -7.03699e-05 0.000215657 -2.88721e-05 0.4545638769 -0.7180824486
515296910.0 -0.4241877984 0.7356870673 2.30946e-05 0.0002417926 1.32121e-05 -0.0001214206 0.4480874201 -0.7227524022
520296880.0 -0.4160746114 0.7401058601 -8.898e-06 9.96035e-05 -1.88236e-05 4.81995e-05 0.4412335337 -0.7269727806
525296850.0 -0.409123552 0.7443759134 0.0001037995 -0.0001043964 -9.0152e-06 0.0001016916 0.4337710487 -0.7310885729
530296820.0 -0.4015447541 0.7481301724 2.06014e-05 2.00424e-05 -7.55054e-05 -3.03973e-05 0.4265342377 -0.7354948971
535296790.0 -0.3929066882 0.7518631119 5.64607e-05 9.13793e-05 -1.18296e-05 0.0001733611 0.4200090241 -0.7387913395
540296760.0 -0.3848787974 0.756192654 -0.0001919608 -5.9497e-05 8.69779e-05 0.0001098265 0.411891459 -0.7433198734
545296730.0 -0.3775333847 0.7602810786 0.0001736314 5.30595e-05 -0.0001057127 6.4258e-05 0.4040150882 -0.7473946102
550296700.0 -0.3694050833 0.7635509822 -3.61675e-05 -0.0001336397 -1.2734e-05 -0.0001066593 0.3966381358 -0.7509003109
555296670.0 -0.3615638687 0.7672949138 -0.0001384875 -0.0001500726 0.0001171771 6.25319e-05 0.3891586473 -0.7550537155
560296640.0 -0.3533224353 0.7705027877 -0.0003395102 -7.74386e-05 -0.0001299816 4.9665e-05 0.3818415964 -0.7586770503
565296610.0 -0.3456175251 0.7743475751 1.02309e-05 -6.53414e-05 2.52378e-05 4.6228e-05 0.3744255326 -0.7623254547
570296580.0 -0.3368056396 0.7776089425 1.78321e-05 -6.92546e-05 -0.0001645623 2.81241e-05 0.3669577536 -0.7665750769
575296550.0 -0.3281115223 0.7812336027 0.0001183748 4.11434e-05 0.0001019636 5.70088e-05 0.3594527721 -0.7696462701
580296520.0 -0.3210566304 0.784746313 2.4197e-06 0.000172346 -7.65098e-05 -3.51011e-05 0.3508252774 -0.7727971449
585296490.0 -0.3122675278 0.7876024598 -8.42333e-05 -8.72667e-05 -0.0001181352 -7.94349e-05 0.3436596827 -0.7760154474
590296460.0 -0.3038828762 0.7910532424 0.0002534332 -4.84053e-05 -5.37014e-05 0.0001951116 0.3351939671 -0.7794193658
595296430.0 -0.2959175767 0.7940998523 1.85917e-05 9.09925e-05 3.1731e-06 -6.46553e-05 0.328578252 -0.782383739
600296400.0 -0.2880989152 0.7971104983 -8.18472e-05 1.8795e-05 -5.70583e-05 7.907e-07 0.3202875833 -0.7853356969
605296370.0 -0.2790730577 0.8002183423 0.0002435747 -0.0002307838 0.0001210193 9.1626e-05 0.3124717465 -0.788338787
610296340.0 -0.2716414217 0.8032338178 5.19343e-05 -0.0001397271 -5.4955e-05 1.43494e-05 0.3036761382 -0.7912623152
615296310.0 -0.2625860016 0.8059606889 4.0175e-05 -9.18827e-05 -8.35773e-05 9.06558e-05 0.2967527486 -0.7946446473
620296280.0 -0.2548937647 0.8082524487 -9.71168e-05 -7.79283e-05 -0.000281391 0.000106573 0.2891017405 -0.7968015008
625296250.0 -0.2475870627 0.8099488968 -0.0001129336 -7.03149e-05 9.41704e-05 -0.0001307439 0.2806679048 -0.7999444481
630296220.0 -0.2393501195 0.8131723302 -0.0003174363 4.4529e-05 1.67517e-05 5.7843e-06 0.2728175946 -0.8024719961
635296190.0 -0.2303471762 0.8157818844 -0.0001258474 8.58642e-05 -0.0001802357 -5.55894e-05 0.2645487799 -0.8047485512
640296160.0 -0.2213378392 0.81766103 -1.20738e-05 0.0001120121 -0.0002111745 6.03353e-05 0.2560789822 -0.8069146774
645296130.0 -0.2134936714 0.8206067827 -6.066e-07 3.85307e-05 -1.77724e-05 -7.25155e-05 0.2483864286 -0.8100810036
650296100.0 -0.2050850737 0.821593336 -9.533e-07 4.11447e-05 3.64899e-05 -9.57498e-05 0.2403676977 -0.8123773301
655296070.0 -0.1974325287 0.8242723439 -9.874e-07 0.0004091882 -0.0001585812 -0.0001128531 0.2324882328 -0.8149152372
660296040.0 -0.188830593 0.8259142148 -1.00904e-05 8.72713e-05 -0.0001624269 6.02276e-05 0.2244932202 -0.8170022089
665296010.0 -0.18083425 0.8284420703 5.83942e-05 3.41838e-05 3.40051e-05 -5.34266e-05 0.2166194425 -0.8183895532
670295980.0 -0.1726582767 0.8311586254 -1.109e-06 -6.1144e-05 -5.86808e-05 -4.9592e-06 0.207473888 -0.8207411641
675295950.0 -0.1639898245 0.832013789 -0.0002780841 6.66489e-05 -0.0002041722 2.06547e-05 0.1988328918 -0.821921582
680295920.0 -0.1567088963 0.8344123969 0.0001024491 -0.0002222258 0.0002166097 -0.0001368239 0.1914149786 -0.8242499749
685295890.0 -0.1474203154 0.8355754777 5.15826e-05 -0.0001336368 3.07839e-05 -6.40409e-05 0.1831707075 -0.8255729922
690295860.0 -0.1394636025 0.8366092011 0.0001514236 -2.9155e-05 -9.28052e-05 1.05593e-05 0.1752005879 -0.8278231741
695295830.0 -0.1306489504 0.8386972559 5.45249e-05 0.0001321942 0.0001654707 -0.0001669823 0.1672419025 -0.8288960921
700295800.0 -0.1225366428 0.8403224999 -0.0002637114 -2.08204e-05 -0.0001890258 4.6923e-06 0.1584441266 -0.8305162726
705295770.0 -0.1148052889 0.8415042491 -1.8933e-05 -5.36957e-05 0.0003055805 -9.00243e-05 0.1498234562 -0.8313852774
710295740.0 -0.1064837328 0.8423388119 -8.4049e-06 2.54938e-05 -5.45316e-05 -3.612e-07 0.142830572 -0.8330071309
715295710.0 -0.0974382588 0.8435128687 -8.25825e-05 0.0001429117 -0.0002670351 5.2014e-06 0.134328602 -0.8345067847
720295680.0 -0.0888803855 0.8440573913 7.32921e-05 4.47165e-05 -4.27973e-05 0.0002394299 0.1254549139 -0.8359389247
725295650.0 -0.0813540989 0.8458336302 -0.0001503225 -0.0002245102 -2.54943e-05 -0.0001878535 0.1172755673 -0.8366234403
730295620.0 -0.0736253098 0.8468304943 9.14028e-05 -0.0001013759 -5.66749e-05 -0.000358327 0.1086670445 -0.8376246213
735295590.0 -0.0651996476 0.8476775746 0.00016783 0.0001332608 8.88676e-05 -0.0001321881 0.1009515187 -0.8384138344
740295560.0 -0.0571780442 0.8475516071 9.75428e-05 0.000377142 0.0001757024 -6.4158e-06 0.0920993101 -0.8389924736
745295530.0 -0.0485874889 0.8486939313 -6.1892e-06 -9.42712e-05 3.55161e-05 -1.6227e-05 0.0831992877 -0.8402499431
750295500.0 -0.040844063 0.8487804667 5.10555e-05 -0.0001277516 -9.6998e-06 -0.0001650473 0.0753211017 -0.8407360967
755295470.0 -0.0320151558 0.8504743296 -9.82023e-05 -0.0001540987 0.0002239507 -1.1351e-05 0.0665041388 -0.8408657458
760295440.0 -0.0242630514 0.8511484202 7.05447e-05 -2.74861e-05 0.0001181204 -0.0002393013 0.0590959903 -0.8412569046
765295410.0 -0.0157080864 0.8503960084 -0.0001445113 -4.72748e-05 -8.78248e-05 -0.0001694703 0.0502649056 -0.8414249712
770295380.0 -0.0084702292 0.8514196658 -0.0001062285 -0.0002308303 0.0001105061 4.3476e-06 0.0420810889 -0.8421766305
775295350.0 0.0001754413 0.8512394 -0.0001005491 0.0002601926 0.0001482631 -6.37946e-05 0.033621931 -0.8431526279
780295320.0 0.0084459549 0.8516016304 0.0001204246 -6.72627e-05 -0.0001921297 0.0001103941 0.0252109735 -0.8427878963
785295290.0 0.0167359597 0.8507289354 -0.0001748312 -6.0584e-06 -0.0002667251 0.0001207526 0.0160088854 -0.8426160007
790295260.0 0.0252133424 0.8510452636 0.0001159054 -0.0001135098 -0.0001079707 -4.23995e-05 0.008209277 -0.8422621252
795295230.0 0.0328600424 0.8503153056 0.0001926569 0.000235864 4.22238e-05 -0.0001278154 -0.0009423393 -0.8431966913
800295200.0 0.0416519025 0.850321605 -6.20795e-05 0.0001151908 4.62497e-05 -2.89101e-05 -0.0089292046 -0.8420160249
805295170.0 0.049526346 0.8503735969 -3.21022e-05 -0.0002290652 0.0001667932 6.18563e-05 -0.0160330229 -0.8423472837
810295140.0 0.0579460618 0.8503846939 -0.0001246747 -5.24746e-05 0.0001450863 0.0001204045 -0.025633296 -0.8413910724
815295110.0 0.0652474727 0.8496743847 -6.96146e-05 0.0001233035 0.0001201423 -7.00665e-05 -0.0344318323 -0.8415566058
820295080.0 0.0735827802 0.8490014405 -5.46286e-05 8.2002e-05 1.387e-06 5.30652e-05 -0.0427363529 -0.8406085296
825295050.0 0.0820072231 0.8482579815 -2.55264e-05 -9.64041e-05 6.52566e-05 -2.32e-06 -0.0504274648 -0.8399454506
830295020.0 0.0905695776 0.8476285551 -0.0001132878 -0.000259617 -1.6361e-06 -6.4443e-06 -0.0589801669 -0.8393371831
835294990.0 0.0984285547 0.8469328166 5.95322e-05 6.19474e-05 -8.85234e-05 -0.0001058662 -0.0675071561 -0.8380887332
840294960.0 0.1071480719 0.8455262288 -8.51401e-05 0.0001095781 -5.16548e-05 4.00582e-05 -0.0755654054 -0.837329
845294930.0 0.1141236176 0.8443398962 1.0371e-06 1.956e-06 8.03465e-05 -0.0001057148 -0.0842704 -0.8362832021
850294900.0 0.1239882209 0.8432955607 -0.0001248082 -9.775e-07 9.72146e-05 -3.6602e-06 -0.0924432837 -0.8360515026
