!Created with skrf (http://scikit-rf.org).
# Hz S RI R 50.0 
!freq ReS11 ImS11 ReS21 ImS21 ReS12 ImS12 ReS22 ImS22
300000.0 -0.7760600027 -0.1775001968 -0.0029170198 0.0002379492 7.12468e-05 0.0023125934 -0.7637223886 -0.1854032219
5299970.0 -0.7859741194 -0.0090267761 -1.05249e-05 -7.38723e-05 0.0001454561 1.00622e-05 -0.7849739174 -0.0095153067
10299940.0 -0.7895977649 -0.0060070894 -7.21427e-05 2.79329e-05 -3.50722e-05 -1.42903e-05 -0.7879071561 -0.0051168373
15299910.0 -0.7942040037 -0.0033622966 -1.21665e-05 1.76225e-05 0.0001713455 8.33327e-05 -0.7929244662 -0.0027838137
20299880.0 -0.8009836158 0.0008511021 0.0003310492 -2.94569e-05 1.9421e-06 -7.89505e-05 -0.7996939141 0.0018059646
25299850.0 -0.8075562015 0.0067829766 0.0002202798 -3.6017e-05 -2.763e-05 -7.84e-07 -0.8063808373 0.0078076161
30299820.0 -0.8139703409 0.0138459196 2.22686e-05 0.0002163867 -0.0001064737 3.42531e-05 -0.811849511 0.016258808
35299790.0 -0.8183344332 0.023051879 -0.0001397122 -0.000106602 1.12532e-05 0.0001471372 -0.8169804057 0.0245781843
40299760.0 -0.8235201591 0.0320786417 -5.98414e-05 -0.0002393454 0.0001356402 0.0001670613 -0.8209960066 0.0342344567
45299730.0 -0.8271620352 0.0419447016 -0.0002382015 -1.67363e-05 -5.33664e-05 7.01451e-05 -0.8241772636 0.04378494
50299700.0 -0.8292282623 0.0517679653 8.9478e-05 9.46853e-05 -1.76064e-05 3.30364e-05 -0.8264744415 0.0540156581
55299670.0 -0.831097424 0.0613602359 -5.35634e-05 2.39949e-05 0.0001941094 9.06993e-05 -0.8284692655 0.0637324055
60299640.0 -0.8327002199 0.0718216329 -4.24384e-05 7.43756e-05 1.44588e-05 -0.0001013225 -0.8296005028 0.0742400072
65299610.0 -0.8337342994 0.0816685323 -7.42951e-05 4.45536e-05 6.11735e-05 -7.64816e-05 -0.8302332677 0.0839914262
70299580.0 -0.8336780651 0.0919676937 0.0001288669 0.0001331331 -0.000163518 2.53268e-05 -0.8310562248 0.0938713499
75299550.0 -0.8338180776 0.1013977934 -0.0001231518 -4.91092e-05 -0.0001025537 0.0001022515 -0.8308706134 0.1041902011
80299520.0 -0.8336977907 0.1120693896 -5.76484e-05 -0.0001876835 -0.0001065816 -8.17414e-05 -0.830766356 0.1140231011
85299490.0 -0.8326564232 0.1209170101 0.0001110873 3.34489e-05 -0.0001396461 -0.0001119988 -0.8301250726 0.1235240069
90299460.0 -0.8322306437 0.131266398 1.67177e-05 0.0001833189 -2.00982e-05 -4.54076e-05 -0.8292016548 0.1328852292
95299430.0 -0.8316894691 0.140544295 2.33001e-05 -0.0002298345 6.04316e-05 0.0001960072 -0.8282579104 0.1425513656
100299400.0 -0.8310677928 0.1497931088 3.15221e-05 -3.37189e-05 -1.832e-05 -1.6115e-05 -0.8271603936 0.152009674
105299370.0 -0.8286954972 0.1595754909 1.3366e-05 0.0001364266 3.64918e-05 0.0002241543 -0.8258412861 0.1607651559
110299340.0 -0.8277328498 0.168674537 -9.63421e-05 0.0002154239 5.12519e-05 -1.52901e-05 -0.8242757709 0.1695251767
115299310.0 -0.8260866585 0.1775940098 -0.0002336749 -0.0002378843 8.37133e-05 0.0001689704 -0.822937783 0.1790119519
120299280.0 -0.8243070521 0.1868928414 -7.73339e-05 0.0003090161 -0.0003181104 -2.06913e-05 -0.8211749015 0.1878704945
125299250.0 -0.8221709108 0.195605427 6.83946e-05 0.0003196489 0.0001019459 -9.1339e-05 -0.8195798055 0.1971324625
130299220.0 -0.8206953021 0.2054921947 1.56671e-05 6.21126e-05 -3.70277e-05 -0.0002642869 -0.8176496311 0.2058357639
135299190.0 -0.8187922023 0.2139966439 2.28235e-05 -0.0001172062 6.1618e-05 -0.0002215311 -0.8155389866 0.2148014031
140299160.0 -0.8174020787 0.2235844583 -0.0001501137 4.68768e-05 -0.0001094962 0.0001365206 -0.8140099461 0.223426226
145299130.0 -0.8154540903 0.232395445 -5.26838e-05 -0.0002805369 0.0002392819 -3.1953e-05 -0.8116700671 0.2323793612
150299100.0 -0.8119481904 0.241127619 7.51467e-05 2.48283e-05 -0.0001616896 -6.0887e-05 -0.8092554421 0.241031449
155299070.0 -0.8103883846 0.2503985447 9.38624e-05 0.0002301184 -0.000128153 -3.77e-07 -0.8070787919 0.2505822461
160299040.0 -0.8072980987 0.2590344692 -5.27559e-05 0.0002210864 7.25599e-05 0.0002678883 -0.8045977722 0.2589741816
165299010.0 -0.8046044282 0.2668364334 -0.0001323874 0.0001854845 4.72233e-05 -5.58522e-05 -0.8017021009 0.2671338246
170298980.0 -0.8014287256 0.2761646015 -0.0002841743 8.13143e-05 5.6406e-06 5.3552e-05 -0.7995295095 0.2759525674
175298950.0 -0.7994639654 0.2844243402 -0.0002615615 -6.01459e-05 2.63228e-05 2.33035e-05 -0.7968472367 0.2845612845
180298920.0 -0.7959054302 0.2931571782 -6.55381e-05 3.02324e-05 0.0001325063 -0.0001357022 -0.7927692448 0.2932061079
185298890.0 -0.7924903315 0.3018946981 -9.5025e-06 0.0001901813 8.74687e-05 -0.0001207162 -0.7907093012 0.3015137564
190298860.0 -0.7893776512 0.311370589 0.0001549658 -3.5516e-06 0.000132326 -3.3617e-05 -0.7869939761 0.309787689
195298830.0 -0.7862550292 0.3193179604 0.0001042451 -0.0001485576 0.0001482282 6.98239e-05 -0.7842097233 0.317820828
200298800.0 -0.7827851359 0.3279144413 -0.0003054886 -6.6879e-05 4.50852e-05 -4.01375e-05 -0.7811074699 0.3266236359
205298770.0 -0.779102038 0.3361337149 -8.80106e-05 -4.85399e-05 6.7887e-06 5.77019e-05 -0.7775134271 0.3353493359
210298740.0 -0.7760564446 0.3443854818 6.8448e-05 -0.000163401 -0.0001291942 2.71303e-05 -0.7742421745 0.3430234913
215298710.0 -0.7717970083 0.3531934664 -0.0001564957 -6.9756e-05 -4.29707e-05 0.0001920417 -0.7703391729 0.351504065
220298680.0 -0.7686483621 0.3607788654 4.72427e-05 0.0001967582 0.0001059262 -2.43117e-05 -0.7665791419 0.3596470268
225298650.0 -0.7645212419 0.3697237179 -0.0002199106 9.51755e-05 -0.0001708202 7.97464e-05 -0.7630041009 0.3676375366
230298620.0 -0.7614921053 0.3781805851 -0.0002486214 -4.11103e-05 6.74514e-05 8.0124e-06 -0.758805194 0.375204555
235298590.0 -0.7571948299 0.3858782299 1.72245e-05 -4.36913e-05 8.1373e-05 6.18953e-05 -0.7549092843 0.3833480403
240298560.0 -0.7525969553 0.3934670835 -9.74163e-05 0.0001577822 -9.02091e-05 -0.0001384373 -0.7512467474 0.3911340162
245298530.0 -0.7486553344 0.4016987743 0.0001167057 -0.0001823355 -0.0001585462 3.8688e-06 -0.7473697007 0.3991553208
250298500.0 -0.7444931681 0.4092065773 0.0001974144 1.39065e-05 5.57602e-05 0.000351997 -0.7424673963 0.4074937893
255298470.0 -0.7404725612 0.4175550463 9.58289e-05 -1.07776e-05 -0.0001905926 -3.1487e-05 -0.7391447666 0.4146815713
260298440.0 -0.7365069868 0.4248107084 -1.77564e-05 -1.0435e-06 -2.32495e-05 -0.0001556377 -0.733959803 0.4228227083
265298410.0 -0.7321438582 0.4329300726 1.9964e-06 4.93603e-05 -8.41516e-05 -6.91179e-05 -0.729815692 0.430255009
270298380.0 -0.7273770627 0.4406356587 -0.0002126389 5.02589e-05 0.0001751242 -0.0002630696 -0.7246432163 0.4380775894
275298350.0 -0.7228454085 0.4480908075 2.87335e-05 -0.0001000846 -2.18639e-05 7.63796e-05 -0.7205620143 0.4455421434
280298320.0 -0.718430053 0.4552985646 4.53403e-05 9.641e-07 6.14138e-05 0.0001231853 -0.7162148755 0.4526272167
285298290.0 -0.7131861905 0.4630876307 1.615e-05 -0.0001272171 0.0001415728 -0.0001669764 -0.7116652811 0.4609967241
290298260.0 -0.708861268 0.4710916891 -8.95338e-05 9.64371e-05 -0.0001902573 -7.45521e-05 -0.7063044967 0.4674561282
295298230.0 -0.704257021 0.4781309483 2.44164e-05 0.0001488525 6.25746e-05 9.08829e-05 -0.7017072664 0.4748113656
300298200.0 -0.6994101222 0.4858493084 6.81562e-05 0.000262236 -3.26409e-05 -4.47979e-05 -0.6968029696 0.4818251129
305298170.0 -0.6941889365 0.4921921185 -0.000152668 0.0001163027 2.22791e-05 -0.0001167963 -0.691397734 0.4893581505
310298140.0 -0.6889158364 0.4995343415 0.0001523142 -6.48295e-05 0.0001253692 2.12459e-05 -0.6858953786 0.4975613036
315298110.0 -0.6846186314 0.5074347122 -5.1358e-05 0.0001830226 4.15554e-05 -8.35067e-05 -0.6814255096 0.5037393169
320298080.0 -0.6790029255 0.5143185281 -8.38899e-05 -0.0002014301 -9.63779e-05 -9.33746e-05 -0.6760164538 0.510279127
325298050.0 -0.6731059783 0.5207982322 0.000219398 4.75867e-05 -5.96061e-05 -0.0001736317 -0.6705341819 0.5178253139
330298020.0 -0.6683519653 0.527840332 -5.24398e-05 -7.30804e-05 0.0001350841 5.52873e-05 -0.664969977 0.5243457088
335297990.0 -0.6626214383 0.5344094527 0.0001110675 -0.00021356 0.0001235198 -5.50544e-05 -0.6593634724 0.5316927394
340297960.0 -0.657883661 0.5415777726 -3.86734e-05 5.29925e-05 6.8808e-05 -0.0001271492 -0.6542343183 0.5384833013
345297930.0 -0.6520911918 0.5480289044 9.74212e-05 1.21322e-05 6.5912e-05 9.65166e-05 -0.648655972 0.544631224
350297900.0 -0.6461498355 0.5548839144 -4.14984e-05 -6.45955e-05 0.000172662 -4.14716e-05 -0.6431115323 0.5511440086
355297870.0 -0.6406374059 0.5612602396 -1.6674e-06 -0.0001878243 0.0001850957 8.69587e-05 -0.6369484019 0.5585837585
360297840.0 -0.6345525467 0.5681175464 9.91721e-05 0.0001983206 -3.68971e-05 -1.95058e-05 -0.6308187171 0.5651191001
365297810.0 -0.6293636228 0.574639924 0.000219508 -0.0001341691 0.0003211667 6.49246e-05 -0.6261720289 0.570410042
370297780.0 -0.623499476 0.5803783043 -5.54351e-05 7.811e-05 -0.0001366203 0.0001816611 -0.6199753732 0.578171339
375297750.0 -0.6179715352 0.5872687736 4.95677e-05 -2.61763e-05 0.0001054077 -0.0001256194 -0.6128717902 0.5839461186
380297720.0 -0.6121845925 0.5937103299 7.8085e-06 -0.0002256048 9.6191e-06 2.26504e-05 -0.6064361814 0.5906874896
385297690.0 -0.6054323478 0.5995409205 5.76154e-05 7.46114e-05 0.000141276 5.20939e-05 -0.60116932 0.5966505728
390297660.0 -0.5984783915 0.6057970304 2.0465e-05 -3.296e-06 6.33306e-05 -4.73638e-05 -0.5945242437 0.602076843
395297630.0 -0.5931488077 0.6115456504 -7.10629e-05 -0.0003505821 2.78151e-05 -0.0002020177 -0.5876748563 0.6081712042
400297600.0 -0.587460249 0.6185671734 -1.63039e-05 -8.06222e-05 -3.74948e-05 -7.99993e-05 -0.5824072362 0.6141274492
405297570.0 -0.5801850472 0.6231235021 0.0002377654 0.0002425618 0.0001620046 -1.92201e-05 -0.5751819204 0.620294209
410297540.0 -0.5739458052 0.6298825181 7.25249e-05 -0.0001489817 4.451e-06 1.06705e-05 -0.5691315491 0.6257555177
415297510.0 -0.5676242539 0.6356599042 7.6839e-05 0.0001787847 0.0001230309 -2.14512e-05 -0.5625987426 0.6314017702
420297480.0 -0.5613437617 0.641202575 -5.79505e-05 -4.22873e-05 5.91688e-05 -7.44097e-05 -0.5561796736 0.6379020741
425297450.0 -0.5544525 0.6469390211 -4.99416e-05 8.12343e-05 0.0001624026 -7.50182e-05 -0.5494659065 0.6426861842
430297420.0 -0.5473728159 0.6517257307 -1.19591e-05 -3.67803e-05 6.54573e-05 -8.07047e-05 -0.5430854651 0.6484945604
435297390.0 -0.5406855851 0.6573125108 -8.03733e-05 -8.4742e-05 -9.17817e-05 -0.0001161083 -0.537011889 0.654634431
440297360.0 -0.5337554564 0.6626209099 0.0001188301 -0.0002130306 0.000146382 0.0001661954 -0.5305021776 0.6590226575
445297330.0 -0.5272152291 0.6681574974 5.16497e-05 0.0001639838 4.78769e-05 -0.000108762 -0.5223084713 0.6651225596
450297300.0 -0.5198065647 0.6736724006 4.31376e-05 -4.27043e-05 -7.2923e-06 4.60654e-05 -0.5160148833 0.6695954904
455297270.0 -0.5134649143 0.6780761637 -0.000107867 4.27934e-05 -5.92718e-05 -0.0001687348 -0.5089929187 0.6752360512
460297240.0 -0.5059291779 0.684480632 -4.51902e-05 -0.0001014039 2.7375e-05 -4.00303e-05 -0.502214236 0.6801558815
465297210.0 -0.4991862139 0.6893313805 7.99718e-05 -6.9534e-05 6.17452e-05 0.000126715 -0.4945183917 0.6858104881
470297180.0 -0.4917496664 0.6939170472 -0.0002210315 -3.72004e-05 2.8453e-05 3.89686e-05 -0.4881424427 0.6905187302
475297150.0 -0.484200948 0.6990873549 9.56223e-05 4.8363e-05 -0.0001097073 -2.35227e-05 -0.4811895425 0.6952651776
480297120.0 -0.4770438503 0.704230994 -7.47313e-05 -1.68507e-05 -0.0002085881 8.50569e-05 -0.4750311678 0.7002149711
485297090.0 -0.4700635001 0.7086345384 -5.34044e-05 -0.0001612378 0.0001761209 -6.36892e-05 -0.4669686419 0.7047726585
490297060.0 -0.4619588444 0.7140991688 -6.24399e-05 7.988e-07 -7.24954e-05 -0.0001680629 -0.4596868442 0.7093362224
495297030.0 -0.4550288031 0.7180140707 -8.745e-07 -0.0001244327 5.44691e-05 1.40985e-05 -0.452756933 0.7139076365
500297000.0 -0.4472964362 0.7221917135 1.56134e-05 5.65005e-05 8.63113e-05 -8.20421e-05 -0.4450267181 0.7185789947
505296970.0 -0.4391861227 0.7277131698 -5.40175e-05 -9.35722e-05 0.0001962404 -2.43162e-05 -0.4371505789 0.7229854509
510296940.0 -0.4319936533 0.7314318926 0.000195508 -0.0001398856 -3.42614e-05 8.24828e-05 -0.4297152749 0.7276943151
515296910.0 -0.4244911942 0.7355562161 -1.60502e-05 4.57669e-05 -0.0001074775 -6.66476e-05 -0.4226626886 0.7311300838
520296880.0 -0.4161277858 0.739824659 0.0001259088 -0.0001410978 0.0001434522 -0.0001335325 -0.4150715805 0.7360138278
525296850.0 -0.4084823061 0.7441396822 5.9486e-06 -0.0001895409 7.03097e-05 0.0001283869 -0.4083415139 0.7396587192
530296820.0 -0.4012215321 0.7478206369 4.15001e-05 -0.0001019284 -6.64658e-05 3.04034e-05 -0.4005102438 0.7433154997
535296790.0 -0.3923383994 0.7518370748 9.0312e-06 -0.0001301491 -3.57384e-05 -3.80784e-05 -0.3930346371 0.748456964
540296760.0 -0.384819849 0.7556772045 -0.0001267459 -3.90802e-05 0.0002294788 0.0003162724 -0.385081523 0.7513604454
545296730.0 -0.3773772731 0.7603964981 7.97411e-05 -8.26428e-05 3.43761e-05 0.0001251835 -0.3779737724 0.7560272046
550296700.0 -0.3691632433 0.7633900326 0.0001540619 -7.31089e-05 -6.65501e-05 9.87496e-05 -0.370021465 0.7592765059
555296670.0 -0.361771585 0.7672557884 4.6218e-06 -5.79578e-05 0.0002590535 0.000132997 -0.3626826345 0.7620681155
560296640.0 -0.35345605 0.7704679259 -4.47718e-05 0.000141147 -0.0001859176 -6.30528e-05 -0.3542015599 0.7663434028
565296610.0 -0.3456255607 0.7742550372 -8.41791e-05 2.92868e-05 -0.0001686212 1.97514e-05 -0.34653574 0.7699952274
570296580.0 -0.3372423817 0.7781704783 -0.0001253915 -1.62736e-05 8.9343e-06 -2.37436e-05 -0.3391607345 0.7729966051
575296550.0 -0.3279290981 0.7818591588 3.8099e-05 -0.0001221971 -6.32251e-05 -5.65867e-05 -0.3307942649 0.7762527113
580296520.0 -0.3212900651 0.7845278815 -0.0002049367 -0.000155639 7.05329e-05 -0.0001576103 -0.323931687 0.7793850628
585296490.0 -0.3124258989 0.7873671953 -0.0001602469 -1.86046e-05 2.02537e-05 -0.0001266966 -0.315082916 0.783204199
590296460.0 -0.3037753479 0.7908390614 0.0001346021 -3.43969e-05 -9.85711e-05 -4.65493e-05 -0.3075211752 0.785827998
595296430.0 -0.2960842507 0.7939124958 9.75002e-05 -3.99586e-05 -0.0001283722 -0.0001019336 -0.2996108904 0.7885922824
600296400.0 -0.2883156655 0.7964230739 8.66482e-05 -3.21521e-05 -8.08697e-05 1.52003e-05 -0.2922417297 0.7917552658
605296370.0 -0.280167564 0.7999156787 0.0001336685 7.06078e-05 -9.36557e-05 -0.0001115795 -0.283779829 0.7948147573
610296340.0 -0.2718179441 0.8030418311 0.0001373125 9.33989e-05 4.51253e-05 0.0001045062 -0.2756245962 0.7980899375
615296310.0 -0.2629760552 0.8056756208 -0.00010516 0.0001153718 -0.0001070238 -0.0001171107 -0.2676928159 0.8007227044
620296280.0 -0.2551583037 0.8085546334 4.6586e-05 9.71405e-05 -0.0001197893 -1.45686e-05 -0.2594163259 0.8028831361
625296250.0 -0.2474730743 0.8098118422 -9.48936e-05 -0.0001457413 0.0001302007 -0.0001637491 -0.2514336809 0.8050093306
630296220.0 -0.2385643779 0.8130806163 0.000258024 6.53162e-05 -2.10892e-05 4.81142e-05 -0.243356783 0.8081886286
635296190.0 -0.2300467718 0.815685516 -2.40072e-05 -0.0002383234 3.85404e-05 3.93073e-05 -0.2355434809 0.8101514567
640296160.0 -0.2213869201 0.8174896635 -5.09377e-05 -3.69192e-05 8.54986e-05 -0.0002214436 -0.2273704228 0.8126320319
645296130.0 -0.2137632125 0.820262505 -1.7956e-06 7.13833e-05 -8.2387e-06 0.000104025 -0.2193548137 0.814505285
650296100.0 -0.2053783276 0.8222607406 1.551e-07 1.8712e-05 -0.0001015126 2.22459e-05 -0.2109678599 0.8169976308
655296070.0 -0.1976226298 0.8243919654 -5.63464e-05 -8.62922e-05 -1.88081e-05 -0.0003671156 -0.2032255278 0.8191723655
660296040.0 -0.1892212411 0.8262850829 -9.81693e-05 1.88637e-05 0.0001618368 1.21774e-05 -0.1940400237 0.8208581953
665296010.0 -0.181114934 0.8287238222 6.66368e-05 -0.0001860074 3.43387e-05 1.84795e-05 -0.1861524778 0.8223711408
670295980.0 -0.1724238492 0.8306302598 8.6005e-05 -0.0001397261 -3.57644e-05 5.1484e-05 -0.1784275171 0.8245310813
675295950.0 -0.163979098 0.83194131 -9.45484e-05 -5.37881e-05 0.0001628169 8.96149e-05 -0.1695369964 0.8262264377
680295920.0 -0.1561556109 0.8338177539 0.0002643688 -8.1983e-05 3.85368e-05 2.1182e-05 -0.1609439857 0.8278587091
685295890.0 -0.1472633405 0.8352329259 -6.97523e-05 3.55357e-05 -5.4243e-05 0.0001024885 -0.1534800172 0.8293076146
690295860.0 -0.1392067655 0.8368659544 2.12331e-05 -0.0001394889 0.0001125018 -6.42298e-05 -0.1450725503 0.831115995
695295830.0 -0.1309060295 0.8387960804 7.64884e-05 -1.15339e-05 -0.0001447639 -0.0002115657 -0.1368268758 0.8327018447
700295800.0 -0.1228337849 0.8400926114 -5.10736e-05 7.00829e-05 -6.89798e-05 0.0001597477 -0.1283637285 0.8333752222
705295770.0 -0.1144665892 0.8415280193 1.6087e-06 -7.08416e-05 -0.0001384433 5.66391e-05 -0.120086558 0.8350983437
710295740.0 -0.1071012786 0.8418362058 0.0002564412 3.68692e-05 -5.9815e-06 -9.1844e-06 -0.1113416619 0.8362243112
715295710.0 -0.0974083607 0.8436554319 6.2192e-06 -0.0001607796 1.75272e-05 -6.73141e-05 -0.1030935073 0.836197987
720295680.0 -0.0886746392 0.8444346697 -3.00978e-05 -2.5493e-06 8.224e-06 -0.0002135909 -0.0947497847 0.8377693826
725295650.0 -0.0817725973 0.8457694193 1.35919e-05 -0.0002516474 -8.42783e-05 0.0002408506 -0.0864872987 0.8393568064
730295620.0 -0.0736606085 0.8466725279 2.41674e-05 6.44835e-05 0.0001971485 -0.0001227413 -0.0786559252 0.8402865471
735295590.0 -0.0651968991 0.8474410508 -6.0645e-05 0.0001416535 -3.91962e-05 -9.26024e-05 -0.0692837747 0.8403724136
740295560.0 -0.057633725 0.8476329426 -0.0001649242 -5.4867e-06 -3.96708e-05 8.65113e-05 -0.0612233185 0.8417037202
745295530.0 -0.0486647086 0.848570479 -0.0001414904 4.3e-09 3.51906e-05 0.0001016499 -0.0529753027 0.8415602793
750295500.0 -0.0409818046 0.8488251121 9.95812e-05 0.0001506368 9.8716e-05 7.92907e-05 -0.0448447847 0.8419414967
755295470.0 -0.0321097981 0.8499269281 -1.27976e-05 0.0001360465 0.0001174578 -9.0224e-05 -0.0367317019 0.8426783827
760295440.0 -0.0240108595 0.851221801 -1.85666e-05 -0.0001472798 -9.63717e-05 -1.3644e-05 -0.0277201269 0.8425812976
765295410.0 -0.016257972 0.8501299628 -3.37504e-05 -5.02026e-05 -2.39286e-05 -1.72752e-05 -0.0194655927 0.8431667427
770295380.0 -0.0084401529 0.8511462101 -0.0002732201 1.70824e-05 -3.57179e-05 5.88013e-05 -0.0112404645 0.8433501907
775295350.0 0.0002254229 0.8511241604 6.40725e-05 -0.0002169981 -0.0001266887 -0.0001396711 -0.0031320579 0.8431993208
780295320.0 0.0084813471 0.8516039634 -3.81601e-05 -2.77309e-05 -3.6452e-06 1.78866e-05 0.0054136153 0.8436605477
785295290.0 0.0171489243 0.8508512341 0.0001645399 4.8775e-05 0.0001706957 1.09e-07 0.0133290303 0.84344426
790295260.0 0.0249565684 0.8511757467 -9.55852e-05 -0.0001524551 2.55988e-05 0.000149019 0.0222125735 0.8433064461
795295230.0 0.0334065657 0.8507184945 -5.74823e-05 5.04548e-05 1.78725e-05 3.09885e-05 0.029850331 0.8426345353
800295200.0 0.0406662615 0.8511653129 -9.87507e-05 0.0001724805 -9.69085e-05 1.89061e-05 0.0384822355 0.8421635755
805295170.0 0.0493881277 0.8509741262 3.8543e-06 -6.27899e-05 -0.0002430581 -1.11212e-05 0.0472786914 0.8416485823
810295140.0 0.0575961185 0.8506231625 4.20316e-05 0.0001588936 -5.27381e-05 0.0001720115 0.0561277442 0.8410852648
815295110.0 0.0655693471 0.8495250069 -0.0001303173 0.0001770831 1.12656e-05 -1.99781e-05 0.0638018299 0.8409328615
820295080.0 0.0737603364 0.8493926629 6.75882e-05 2.3042e-06 3.46889e-05 -1.38045e-05 0.0716334875 0.840265154
825295050.0 0.0816392213 0.8480940277 1.33153e-05 -0.000144971 0.000197228 1.63804e-05 0.0804614626 0.8393558613
830295020.0 0.0906740442 0.847395833 0.0001845508 -0.0001254839 -0.0002292468 -8.96943e-05 0.0881440834 0.8382820033
835294990.0 0.0980645346 0.8465457405 -0.0001354538 -0.0001111318 -0.0001831167 0.0001430699 0.0970389728 0.8382347555
840294960.0 0.1067275045 0.8452199878 -8.12266e-05 4.36172e-05 -1.37708e-05 3.33568e-05 0.1055015083 0.8364756618
845294930.0 0.1152367155 0.8446845389 -3.0013e-05 -7.02808e-05 8.12757e-05 5.2226e-06 0.1138156308 0.8355449422
850294900.0 0.1245611579 0.8434244209 2.46038e-05 -1.70688e-05 7.16845e-05 -0.000132177 0.1214405356 0.8343994547
