!Created with skrf (http://scikit-rf.org).
# Hz S RI R 50.0 
!freq ReS11 ImS11 ReS21 ImS21 ReS12 ImS12 ReS22 ImS22
300000.0 -0.2401271194 -0.0997629097 0.4672854774 0.0653322032 0.4687835955 0.0706812412 -0.2340394019 -0.1093361099
5299970.0 -0.2439100118 0.0072642542 0.4739279864 0.0049111919 0.4737397061 0.0059300384 -0.2438773696 0.0059076514
10299940.0 -0.2404214325 0.0196643852 0.4759414753 0.0064645739 0.4757540142 0.0066559135 -0.2409911246 0.0182343795
15299910.0 -0.2361263409 0.0293037612 0.4792565942 0.0076291477 0.4795064696 0.007935379 -0.2366644806 0.0275904405
20299880.0 -0.2306369266 0.0373546983 0.4843076131 0.0081513949 0.4843676728 0.0082392071 -0.2320172272 0.0356097691
25299850.0 -0.2248658636 0.043565204 0.489438522 0.0070803735 0.4897863764 0.0073698176 -0.2271060677 0.0417105505
30299820.0 -0.2186088918 0.0484628595 0.4951794639 0.0056358887 0.4946357022 0.0054843299 -0.2215348887 0.0467948798
35299790.0 -0.2131800134 0.0529518507 0.5005182345 0.0021015139 0.5002709477 0.0022842806 -0.2161942694 0.0509771471
40299760.0 -0.2076484951 0.0558375492 0.505348981 -0.0013889137 0.5058498123 -0.0018292766 -0.2115660774 0.0547494655
45299730.0 -0.2025249987 0.0586281305 0.5102781623 -0.0068759893 0.5105163725 -0.0065096621 -0.2065273223 0.05753272
50299700.0 -0.1976974434 0.0600854572 0.5142552942 -0.012408846 0.514785707 -0.012428953 -0.2020318794 0.0599072355
55299670.0 -0.1938561587 0.0618086566 0.517852477 -0.0180958011 0.5182657392 -0.0176370785 -0.1986189076 0.0612841237
60299640.0 -0.1894995298 0.0626973215 0.5211765189 -0.0244951908 0.521406731 -0.0241041918 -0.1944709403 0.063078522
65299610.0 -0.1861771314 0.0638744081 0.5243635168 -0.0304710761 0.5248884928 -0.0305640449 -0.1911035045 0.0644419927
70299580.0 -0.1826981364 0.0642887461 0.5265437291 -0.0367256486 0.5264657886 -0.0369277568 -0.1881198632 0.0655153459
75299550.0 -0.1795763127 0.0649402346 0.5284289581 -0.0439339667 0.5290772974 -0.0438976188 -0.1853075656 0.0668770286
80299520.0 -0.1771325142 0.0656319484 0.5306031369 -0.050849651 0.5309766625 -0.0508483125 -0.182860479 0.0676992208
85299490.0 -0.1746778003 0.0658395767 0.5318774346 -0.057577703 0.531785228 -0.0578338164 -0.1802508321 0.0684777232
90299460.0 -0.172779359 0.0665410196 0.5333378677 -0.0643430104 0.5332414277 -0.0647731457 -0.1779476737 0.0693070594
95299430.0 -0.1705366793 0.067262917 0.5343306965 -0.0720936509 0.5341826315 -0.0716776786 -0.176058973 0.0702749216
100299400.0 -0.1688714661 0.0677978127 0.5345951137 -0.0786103465 0.5342311019 -0.0787728087 -0.1742036833 0.0706670206
105299370.0 -0.1666816202 0.0681192394 0.5343238061 -0.0853010449 0.5347677763 -0.0857680913 -0.1722079993 0.0720179367
110299340.0 -0.1655182341 0.0684241051 0.5346419155 -0.0919557959 0.5350102433 -0.0925313028 -0.17080988 0.0727716192
115299310.0 -0.1638799025 0.0688471706 0.5345613805 -0.0989202536 0.5350648015 -0.0989970598 -0.1689689286 0.07288576
120299280.0 -0.1630843681 0.069341738 0.5348201058 -0.1058943466 0.5347886625 -0.1060308382 -0.1678132424 0.0741958013
125299250.0 -0.1617056885 0.0698481248 0.5343085217 -0.112660892 0.5346581923 -0.1129083889 -0.1665118138 0.0746749566
130299220.0 -0.1604553 0.0705930925 0.5336482952 -0.1187822027 0.5336779448 -0.1195239987 -0.1653131347 0.0759202362
135299190.0 -0.1591321191 0.0710491355 0.5332855184 -0.1258373301 0.5329477065 -0.1261485862 -0.1642081802 0.0771753893
140299160.0 -0.1587168298 0.072173322 0.5325468029 -0.1325285787 0.5323644611 -0.1326331717 -0.1628496146 0.0779869524
145299130.0 -0.1574138996 0.0726274871 0.5315716027 -0.139217714 0.5315485604 -0.1387549415 -0.1621985143 0.078638311
150299100.0 -0.1566011247 0.0734343428 0.5302630114 -0.1461048933 0.5305205445 -0.1458667387 -0.1610481275 0.0796891514
155299070.0 -0.1560776845 0.0748303852 0.5292220914 -0.1525240853 0.529014582 -0.152776156 -0.1600218771 0.0811618977
160299040.0 -0.154955901 0.0751960569 0.5273900881 -0.1581943111 0.5279995434 -0.1586703618 -0.1589602274 0.0823556269
165299010.0 -0.1543298767 0.076316914 0.5264566561 -0.1651611819 0.5262510566 -0.1654848256 -0.1579415402 0.0834576082
170298980.0 -0.1538063266 0.0771095507 0.5240232645 -0.1712638606 0.5245276508 -0.171655865 -0.1569875272 0.0844915901
175298950.0 -0.1526953321 0.0782342833 0.5235738052 -0.1777993085 0.5232216311 -0.1779187529 -0.1559481613 0.0855723417
180298920.0 -0.1518808873 0.0791027732 0.5214687882 -0.1839744019 0.5215110139 -0.184027705 -0.1547835847 0.0870982463
185298890.0 -0.1509864713 0.0799520372 0.5191573344 -0.1902162633 0.5196333628 -0.1902842789 -0.1541090594 0.0880987499
190298860.0 -0.1503929558 0.0810891847 0.5176907238 -0.1968909295 0.5179672089 -0.1969277096 -0.1527048299 0.0895801437
195298830.0 -0.1495647955 0.0821536324 0.5157261278 -0.2024396235 0.515743793 -0.2028406948 -0.1521038588 0.0906135879
200298800.0 -0.1487380502 0.0834932742 0.5135726147 -0.2084178728 0.5136748221 -0.2087039203 -0.1509630782 0.0922423905
205298770.0 -0.1482663719 0.0846694784 0.5117704474 -0.2147659671 0.5113876183 -0.2150900324 -0.1501419813 0.0933766372
210298740.0 -0.1476756357 0.0854898343 0.5092344337 -0.2207344157 0.5092810162 -0.2211640288 -0.149084526 0.0948525279
215298710.0 -0.146745621 0.086907559 0.5071410047 -0.2268370657 0.5069589958 -0.2264832372 -0.1484847908 0.0961878007
220298680.0 -0.1460389855 0.0880364864 0.504501198 -0.232689017 0.5047267952 -0.2329700412 -0.1469623896 0.0978213995
225298650.0 -0.1448628709 0.0891667094 0.5016357935 -0.2382031873 0.5021545685 -0.2383420254 -0.146222174 0.0989871163
230298620.0 -0.1442824093 0.0905414765 0.4997232386 -0.2444264787 0.4996987951 -0.2440057281 -0.1450730514 0.100301169
235298590.0 -0.1435824891 0.0915709671 0.4970463992 -0.2499056843 0.4969045576 -0.2501049747 -0.1443224453 0.1013369002
240298560.0 -0.143231277 0.0925906177 0.4943814301 -0.2551973099 0.4943116974 -0.2553638467 -0.1427935141 0.1032790603
245298530.0 -0.1419059523 0.0942119827 0.49053679 -0.2614891077 0.4910045377 -0.2613202464 -0.141937301 0.1046679089
250298500.0 -0.1414080444 0.0954541747 0.4886889289 -0.2672893604 0.4888293745 -0.2667492541 -0.1405390877 0.1058579887
255298470.0 -0.1408090277 0.0967598854 0.4854127806 -0.2731252286 0.4854951849 -0.2729529862 -0.1394434579 0.1073322955
260298440.0 -0.1396880625 0.0978664848 0.4829498376 -0.2781538349 0.4825083605 -0.2784500624 -0.1379555701 0.1091262644
265298410.0 -0.1388032878 0.0992541646 0.4798477742 -0.2839456962 0.4796780927 -0.2837616102 -0.1373732287 0.1100553309
270298380.0 -0.1376986716 0.1006582322 0.4761221168 -0.2894531203 0.4768344296 -0.2895365473 -0.1361703748 0.1118537486
275298350.0 -0.1372773409 0.1018118024 0.47340725 -0.2948646999 0.4737851357 -0.2950972359 -0.1347863282 0.1134133532
280298320.0 -0.1362615992 0.10351193 0.4701661532 -0.299871179 0.4699120994 -0.3002581886 -0.1334490602 0.1150696739
285298290.0 -0.1351552562 0.1048933034 0.4669298545 -0.3051848222 0.4670023441 -0.3054255956 -0.132541425 0.1164173737
290298260.0 -0.1343308877 0.1059348977 0.4639511016 -0.3105986519 0.4638790008 -0.3107637354 -0.1306366727 0.1178956663
295298230.0 -0.1333569957 0.1071326702 0.4607110722 -0.3160184691 0.4600846193 -0.3158948826 -0.1296317256 0.1191380356
300298200.0 -0.1320015759 0.1083254307 0.4567327841 -0.3211789584 0.4569417665 -0.3214154995 -0.1284612985 0.1210123385
305298170.0 -0.1310340143 0.1095071203 0.4533772038 -0.32654333 0.4538580235 -0.3265530882 -0.1268459213 0.1225637599
310298140.0 -0.129790041 0.110690002 0.4500132584 -0.3319743635 0.4499264462 -0.332137689 -0.1252572624 0.1240824886
315298110.0 -0.1292674699 0.111870755 0.4462384441 -0.3368762916 0.4461977298 -0.3372623386 -0.1237171522 0.1248750067
320298080.0 -0.1283969288 0.1132283277 0.4423565514 -0.3420597705 0.4424755336 -0.3422221763 -0.1226592211 0.1260971187
325298050.0 -0.1272144522 0.1141721672 0.438580389 -0.3473494413 0.4387434389 -0.3474291914 -0.1212684455 0.1275603721
330298020.0 -0.1263385678 0.1156157805 0.4342174014 -0.352024042 0.4344322714 -0.3524508239 -0.12040749 0.1288463954
335297990.0 -0.12539947 0.116747114 0.4302136879 -0.3571875253 0.4305980277 -0.3569975179 -0.1190841462 0.130216295
340297960.0 -0.1249159378 0.1181023496 0.4260774714 -0.3619165981 0.4263227572 -0.3617364724 -0.1178730147 0.1320548515
345297930.0 -0.1237803915 0.1197005911 0.422404905 -0.3662252768 0.4220932001 -0.3662277299 -0.1162742415 0.1331481866
350297900.0 -0.1223375397 0.1207679026 0.4178597213 -0.3703742125 0.418251797 -0.3711270558 -0.1151293017 0.1350545645
355297870.0 -0.1214355415 0.1219630954 0.4137434583 -0.3753741114 0.4141523966 -0.3756819312 -0.1139411449 0.1363180511
360297840.0 -0.1202779927 0.1234318907 0.4096942023 -0.3801888309 0.4098531943 -0.3805139758 -0.1123148048 0.1380443105
365297810.0 -0.1191167687 0.1246521252 0.4052434227 -0.3847085286 0.4056002231 -0.3847308911 -0.1111911598 0.1394964615
370297780.0 -0.1177918805 0.1257109346 0.4014347646 -0.388987035 0.401347315 -0.3890264725 -0.1092991105 0.1406239783
375297750.0 -0.1167921353 0.1274482943 0.3974968582 -0.3933576294 0.3968883256 -0.3940178124 -0.1074963244 0.1424603117
380297720.0 -0.1157211307 0.128351622 0.3926267065 -0.3977273348 0.3925750581 -0.3982596681 -0.1060707336 0.1441410469
385297690.0 -0.1141984316 0.1298996166 0.3882058442 -0.401811807 0.3881577373 -0.4020050546 -0.1045616578 0.1452494632
390297660.0 -0.1131301391 0.1308320201 0.3835626475 -0.4067466055 0.3835800266 -0.406984293 -0.1029881634 0.1463855663
395297630.0 -0.1120181197 0.1322175773 0.3795758555 -0.4105703657 0.378981932 -0.4110024881 -0.1013077957 0.1482310048
400297600.0 -0.1109415223 0.1336844065 0.3746709164 -0.4149808862 0.3749382772 -0.4148661108 -0.1003480734 0.148770713
405297570.0 -0.1093284274 0.1349633439 0.3701909055 -0.4191418037 0.3702195101 -0.4190296126 -0.0983600034 0.1504917109
410297540.0 -0.1079056246 0.1357728644 0.364969096 -0.4229280982 0.3650736506 -0.422999682 -0.0969467559 0.1518420917
415297510.0 -0.1068272635 0.1374640981 0.3610056514 -0.4265884921 0.3613373768 -0.4270824791 -0.0951887981 0.1533589393
420297480.0 -0.1053835458 0.1380793524 0.3559101965 -0.4308998008 0.3559521018 -0.4307137535 -0.0933737405 0.1539074695
425297450.0 -0.1036782279 0.1391681144 0.3511976512 -0.4347063665 0.3519921913 -0.4345757239 -0.0918994918 0.1558887959
430297420.0 -0.1028800874 0.1403224327 0.3468236414 -0.438755101 0.3467877042 -0.4384929614 -0.0902426984 0.156676463
435297390.0 -0.101223646 0.1415833984 0.3421048713 -0.4424483493 0.3418357856 -0.4422309593 -0.0885933294 0.1582184223
440297360.0 -0.0997551926 0.142630991 0.3365132533 -0.4459554459 0.3366718971 -0.4456885272 -0.0869152677 0.1586907757
445297330.0 -0.0980909848 0.1437405887 0.3316232885 -0.4500790069 0.331784254 -0.4496638307 -0.0849356149 0.1602852703
450297300.0 -0.0969494554 0.1445566269 0.3269830861 -0.4531526935 0.327241126 -0.4532878918 -0.0835336613 0.1615259196
455297270.0 -0.0956238174 0.1456044334 0.3220648611 -0.4565673699 0.3223707022 -0.4566480074 -0.0813445154 0.1629068469
460297240.0 -0.0945882162 0.1469177248 0.3170042974 -0.4600312704 0.3167488196 -0.4602359942 -0.0798790222 0.1639606109
465297210.0 -0.0926528659 0.1477307376 0.3119171499 -0.4636133343 0.3122384654 -0.4636162273 -0.0781043957 0.1646594479
470297180.0 -0.0913198548 0.1489089664 0.3069853707 -0.4666917846 0.3073702255 -0.467066966 -0.0770349919 0.1661643502
475297150.0 -0.0904564359 0.1496104847 0.3017986892 -0.4698140618 0.302007882 -0.470096032 -0.0747146504 0.167030251
480297120.0 -0.0883841358 0.1505521066 0.2964472247 -0.4730833481 0.2970043891 -0.4734020831 -0.0730135075 0.1686248047
485297090.0 -0.0869652022 0.1516564166 0.2921301523 -0.4764494689 0.291502776 -0.4769286053 -0.0713716749 0.1691302075
490297060.0 -0.0851903735 0.1525209898 0.2861088729 -0.4798842217 0.2864391228 -0.4792801848 -0.0692077 0.1699940884
495297030.0 -0.0842481391 0.1535647976 0.2812152652 -0.4826978953 0.2806783487 -0.4831394238 -0.0674402146 0.1707355062
500297000.0 -0.0823554016 0.1542984505 0.2754816464 -0.4858865043 0.2758252295 -0.4857126716 -0.0658454021 0.1719178354
505296970.0 -0.0813822673 0.1554435743 0.270472058 -0.4884509086 0.270228153 -0.4885338597 -0.0643791121 0.1730750633
510296940.0 -0.0793323631 0.1566503408 0.2647857678 -0.4918397372 0.2652191519 -0.4917590704 -0.0619625906 0.1740625495
515296910.0 -0.078212985 0.1574560714 0.2594647024 -0.4941794187 0.2594517132 -0.4945681152 -0.0601596012 0.1748089555
520296880.0 -0.076801728 0.158058137 0.2544773563 -0.4972027668 0.2546474722 -0.4973836543 -0.0582629568 0.1752562992
525296850.0 -0.075159442 0.1588870162 0.2487117142 -0.5002129411 0.2489001434 -0.5001199709 -0.0561856897 0.1763974594
530296820.0 -0.073448653 0.159634463 0.2437520378 -0.5020837717 0.2433246439 -0.5026616752 -0.0547932375 0.1770353128
535296790.0 -0.0720003043 0.160467876 0.2377280091 -0.5045660275 0.2382649319 -0.5045002475 -0.0526977026 0.1774007013
540296760.0 -0.070606639 0.1611210545 0.2323657638 -0.5080921895 0.2322862987 -0.5079629098 -0.051143679 0.1787597614
545296730.0 -0.0687184741 0.1623279466 0.2265523871 -0.509880901 0.2269095869 -0.5102288486 -0.0490527928 0.179006932
550296700.0 -0.0676001064 0.1630455585 0.2214295127 -0.5127053217 0.2215839403 -0.5126630556 -0.047039773 0.1800838186
555296670.0 -0.0657426593 0.163591886 0.2158582191 -0.5147683125 0.2158742656 -0.5149741327 -0.0452199196 0.180794651
560296640.0 -0.0640405436 0.1643109934 0.2101250733 -0.5168994153 0.2103785645 -0.5169409159 -0.0429971501 0.1814676292
565296610.0 -0.0630172748 0.165218152 0.2047032173 -0.5188646089 0.2043406371 -0.5192782174 -0.0414105802 0.1821511243
570296580.0 -0.0606802831 0.1658430254 0.1986456225 -0.5212132461 0.1990671129 -0.5217546816 -0.0392643391 0.1830978714
575296550.0 -0.0592127577 0.1670210857 0.1932522415 -0.5234914925 0.193654466 -0.5233259961 -0.0372036731 0.1833772131
580296520.0 -0.0578997764 0.1675009126 0.1877717997 -0.525623579 0.1875463182 -0.5256569078 -0.0355070946 0.1839555784
585296490.0 -0.0559456144 0.1675441279 0.1817774223 -0.5274787869 0.1818855125 -0.5273970645 -0.0335668067 0.1840689616
590296460.0 -0.0547131734 0.1683506087 0.176067655 -0.529305198 0.1757789058 -0.5298530666 -0.0311992502 0.1847628813
595296430.0 -0.0528733998 0.1693839009 0.1704779458 -0.5315515106 0.1704149002 -0.5317005098 -0.029484374 0.1854299237
600296400.0 -0.0513421378 0.1701728863 0.1647695635 -0.5331471765 0.164806057 -0.5333738686 -0.0273083561 0.1860007635
605296370.0 -0.0494263785 0.1708519222 0.1588378438 -0.5349836992 0.1590934073 -0.5348995984 -0.0252918942 0.1864699696
610296340.0 -0.0479543193 0.1713467314 0.1538686399 -0.5366513136 0.1532507479 -0.5366168661 -0.0232730829 0.1869940848
615296310.0 -0.0462719533 0.1722859693 0.1475751242 -0.5382557279 0.1472015039 -0.5384339097 -0.0214013058 0.1871536196
620296280.0 -0.0445939971 0.1724742527 0.1416591122 -0.5397091513 0.1412811292 -0.5396964512 -0.0190093918 0.1871805417
625296250.0 -0.0428548688 0.1732560112 0.1352109696 -0.5409973802 0.1355833706 -0.5411428447 -0.0171163666 0.1876925025
630296220.0 -0.0411805932 0.1736792223 0.1294703903 -0.5426927763 0.129845054 -0.5429102603 -0.0153477572 0.1883376162
635296190.0 -0.039374151 0.1744057538 0.12381188 -0.5436398682 0.1236094547 -0.5435325817 -0.0134005714 0.188611775
640296160.0 -0.0378300077 0.1742872963 0.1182532666 -0.5450488067 0.1181389814 -0.5452213213 -0.0107098504 0.1888023459
645296130.0 -0.0364162476 0.1753081936 0.1120415863 -0.5465360899 0.1122421407 -0.5462454074 -0.0098074422 0.1886572753
650296100.0 -0.0344730568 0.1760514418 0.106687871 -0.5471756107 0.1062018122 -0.5472213443 -0.0073107842 0.1891283243
655296070.0 -0.0329870503 0.1763936308 0.1005119897 -0.5483397154 0.100451156 -0.5483344649 -0.0050893335 0.1895364425
660296040.0 -0.0314211328 0.1771241585 0.09451392 -0.5492717244 0.0944931939 -0.5491763818 -0.0030131988 0.189551207
665296010.0 -0.0293350771 0.177040185 0.0884277525 -0.550262716 0.0886891811 -0.5505780648 -0.0009838342 0.1900069625
670295980.0 -0.0272629595 0.1777236128 0.0825250981 -0.5514536924 0.082927962 -0.5513144871 0.0004615801 0.1901415325
675295950.0 -0.025662463 0.1780307044 0.0767039672 -0.5518864495 0.0768862296 -0.5524633655 0.0029991217 0.1901723814
680295920.0 -0.0242950025 0.1787536287 0.070429948 -0.5528109389 0.0702667577 -0.5529236399 0.00526236 0.1903437366
685295890.0 -0.0224875743 0.1790908196 0.0648382438 -0.5536107996 0.0646049341 -0.5537974904 0.0072166675 0.1901532882
690295860.0 -0.0203654961 0.1793700819 0.0584771053 -0.5538436978 0.0586079021 -0.5543828496 0.0093998937 0.1907875026
695295830.0 -0.0183684465 0.1795178788 0.0518593968 -0.5546327221 0.0522902823 -0.5549486567 0.0111628939 0.1907741363
700295800.0 -0.0169817567 0.1799775464 0.0465257941 -0.5550623929 0.0463608591 -0.5555350726 0.0134485407 0.1901831773
705295770.0 -0.0151133228 0.1804277771 0.0408418784 -0.5556100891 0.0408496658 -0.5556757931 0.0151860488 0.1904765954
710295740.0 -0.0131258998 0.1810672087 0.034423453 -0.5557671646 0.0349708557 -0.5557809086 0.0167743248 0.1909076068
715295710.0 -0.0117965454 0.1810376457 0.0287363838 -0.5565516319 0.0287634519 -0.5565069338 0.0194594679 0.1903384288
720295680.0 -0.0099987003 0.1809637702 0.0225095438 -0.556289457 0.02257217 -0.5572095411 0.0220652434 0.1905821529
725295650.0 -0.0080514241 0.1814220029 0.0161758287 -0.5569774676 0.0165166813 -0.556633657 0.0237997781 0.1903567746
730295620.0 -0.0066164037 0.1814631498 0.0104632193 -0.5567762397 0.0103817125 -0.5569844079 0.0261030395 0.1899669752
735295590.0 -0.0042291316 0.1819753634 0.0047609485 -0.5571331803 0.0049045632 -0.5571710286 0.0278187528 0.1899736198
740295560.0 -0.0025945139 0.1821367094 -0.0015709993 -0.5566854947 -0.0015340679 -0.5568611954 0.0299337663 0.1898055143
745295530.0 -0.0008201255 0.1818298964 -0.0074937631 -0.5564582088 -0.0073163262 -0.55715495 0.0318378462 0.1895375081
750295500.0 0.0008672956 0.1824899148 -0.013309929 -0.5563661375 -0.0134466777 -0.5565009776 0.0344026017 0.188830331
755295470.0 0.0031463187 0.1827519889 -0.0192793716 -0.5563471163 -0.0192160654 -0.5567304403 0.0355322184 0.1892993625
760295440.0 0.0047026105 0.1827187687 -0.0258101096 -0.5560296322 -0.0251471628 -0.556226094 0.0376503325 0.1890194539
765295410.0 0.0062999011 0.1828023101 -0.0310456774 -0.5558430116 -0.0314517292 -0.5562062201 0.0405781188 0.1892040251
770295380.0 0.0082456722 0.182926037 -0.037453803 -0.5553539806 -0.0372673869 -0.5556720773 0.0428392036 0.1887965861
775295350.0 0.0101259628 0.1831857962 -0.0434416597 -0.5548272918 -0.0431719986 -0.5550952408 0.0442388022 0.1878423569
780295320.0 0.0120737556 0.1828075571 -0.0494927225 -0.554372883 -0.0488535906 -0.5548051631 0.0462858908 0.1878992126
785295290.0 0.0134857441 0.1833350048 -0.0550244392 -0.5538530746 -0.0552946459 -0.5541183194 0.0481291772 0.1872159905
790295260.0 0.0153609357 0.183248594 -0.0612865749 -0.5531741004 -0.061326116 -0.553458913 0.0505131329 0.1870744398
795295230.0 0.0169684673 0.1833438645 -0.0668632029 -0.5521145981 -0.0669481919 -0.5525447285 0.0525611842 0.1871260373
800295200.0 0.0189103246 0.1830749683 -0.073316411 -0.5518999511 -0.0734750199 -0.5518781153 0.0548672985 0.1862258092
805295170.0 0.0206335046 0.1830890467 -0.0785590969 -0.5504502596 -0.078849249 -0.5508228901 0.0563333926 0.1856459702
810295140.0 0.0223252194 0.183022596 -0.0842739576 -0.5499949235 -0.084800009 -0.5504906018 0.0586697658 0.1855677229
815295110.0 0.0244049866 0.1831034647 -0.0910267915 -0.5487071508 -0.0915955266 -0.5491334498 0.0603523109 0.1850546771
820295080.0 0.0261501676 0.1827519667 -0.0963371549 -0.547985307 -0.0967336791 -0.5485129738 0.0625054278 0.184272485
825295050.0 0.0281577523 0.1826713587 -0.1026074611 -0.5460533517 -0.1023920688 -0.5469936504 0.0647466979 0.1837920414
830295020.0 0.0298304409 0.1828874287 -0.1085478703 -0.5455366562 -0.108832318 -0.5459300225 0.0664051455 0.1833661985
