!Created with skrf (http://scikit-rf.org).
# Hz S RI R 50.0 
!freq ReS11 ImS11 ReS21 ImS21 ReS12 ImS12 ReS22 ImS22
300000.0 -0.7747253567 -0.089363165 0.0003115323 0.0020683167 0.0007352358 0.0022104041 -0.778109163 -0.114393642
5299970.0 -0.7849373373 -0.0053518309 0.0001642164 6.38656e-05 0.0002037135 7.16071e-05 -0.7851902355 -0.0070301802
10299940.0 -0.7877289363 -0.0039024242 8.32609e-05 -7.93952e-05 3.02217e-05 7.27669e-05 -0.7880223031 -0.0035234784
15299910.0 -0.7933105956 -0.0023851255 -8.946e-06 -9.38039e-05 -0.000118238 -6.156e-06 -0.7936968083 -0.0014989395
20299880.0 -0.8003568018 0.0022091004 -0.0002538563 1.98232e-05 -0.0001126689 -6.35586e-05 -0.8004900435 0.0022282202
25299850.0 -0.8066177776 0.0075646368 0.0001460115 -3.4807e-05 -3.5831e-05 5.44302e-05 -0.8063351135 0.0082906718
30299820.0 -0.8125269476 0.0154204922 -2.50321e-05 -6.97156e-05 1.6582e-06 -9.36348e-05 -0.8125898006 0.0159309921
35299790.0 -0.8173403936 0.0246470008 1.03654e-05 -9.96073e-05 6.2938e-05 6.74085e-05 -0.8174149879 0.0247898241
40299760.0 -0.8212403582 0.0338379822 -1.65472e-05 -2.01887e-05 7.08938e-05 -7.08005e-05 -0.8217862697 0.0343256857
45299730.0 -0.824779374 0.0427077051 6.97271e-05 -4.26387e-05 -3.5228e-06 -0.0001058961 -0.8254663849 0.0438005176
50299700.0 -0.8274503098 0.0528561646 -6.11796e-05 -0.0001310469 -9.84938e-05 -0.0001339576 -0.8273781652 0.0541116873
55299670.0 -0.8287706254 0.0626608646 -7.8e-08 2.3049e-05 -5.82676e-05 -0.0001314322 -0.8293818923 0.064155201
60299640.0 -0.8300349419 0.0728486312 3.93877e-05 9.66065e-05 -1.5336e-06 1.28731e-05 -0.8307228372 0.0738425708
65299610.0 -0.8312409883 0.083326759 0.0001380424 0.0001074347 7.34023e-05 -3.17725e-05 -0.8318807225 0.0838607746
70299580.0 -0.8318991027 0.0932773616 -4.59241e-05 4.89618e-05 3.09512e-05 -0.0001071375 -0.8316955909 0.0942851582
75299550.0 -0.8323360741 0.1034357287 -2.65777e-05 0.0001396893 -0.000132453 -3.62341e-05 -0.8320396171 0.1041403116
80299520.0 -0.8317928539 0.1129329307 -0.0001132912 -1.421e-05 -8.22543e-05 -2.76959e-05 -0.8323145592 0.1134514514
85299490.0 -0.8312256891 0.1222322742 -0.0001157164 0.0002154428 1.1614e-06 -5.927e-05 -0.8315899256 0.1236396467
90299460.0 -0.8298693177 0.1320932824 -4.4875e-05 -0.0001718808 0.0001930452 -4.11352e-05 -0.8306527439 0.1329425198
95299430.0 -0.8290516168 0.1412579553 9.33658e-05 2.21951e-05 -1.55796e-05 3.39892e-05 -0.8294414027 0.1428301477
100299400.0 -0.8281393127 0.1507166191 -0.0002025502 8.46179e-05 2.79403e-05 0.0001371717 -0.8284797828 0.1525073794
105299370.0 -0.8267874367 0.1601518687 -1.64921e-05 0.0001321157 -4.40775e-05 9.70578e-05 -0.8266959122 0.1608550759
110299340.0 -0.8251597212 0.1697074259 6.47401e-05 -0.0001041483 8.79332e-05 9.07115e-05 -0.8258083622 0.1708935662
115299310.0 -0.8237091255 0.1782888777 6.3711e-06 6.53536e-05 -6.11874e-05 4.28552e-05 -0.8246438408 0.1800373932
120299280.0 -0.8220646352 0.186688553 0.0001460205 -5.35459e-05 -0.0001119273 -6.93182e-05 -0.8227029893 0.1892061349
125299250.0 -0.8200788849 0.1957528536 0.00025394 -0.0001653999 -2.96687e-05 0.0001568761 -0.8214419036 0.1976666066
130299220.0 -0.8189598645 0.2049101047 -5.67639e-05 0.0001018098 -0.0001242412 -3.0992e-05 -0.8191644486 0.2066298486
135299190.0 -0.8167237957 0.2142397366 -0.0001894707 -0.0002592095 0.0001482209 0.0001079103 -0.816443338 0.2160979061
140299160.0 -0.8150363159 0.2232326039 -3.2481e-06 -7.44355e-05 -0.0001773741 1.96122e-05 -0.8151499147 0.2248059351
145299130.0 -0.8128280621 0.2323525884 -5.94936e-05 -0.0002047235 -1.30162e-05 3.60347e-05 -0.812615695 0.2342068114
150299100.0 -0.8100893339 0.2410523961 5.68431e-05 -0.0001807307 -0.0001736766 2.56591e-05 -0.8111460932 0.2433699536
155299070.0 -0.8078367325 0.2492254192 8.94663e-05 5.49483e-05 -1.43352e-05 -0.0001231765 -0.8082081391 0.2517539454
160299040.0 -0.8052902156 0.257735544 -1.14042e-05 5.98884e-05 -9.89485e-05 9.26836e-05 -0.8060387802 0.2606683138
165299010.0 -0.8028745681 0.2663238438 1.63078e-05 2.6828e-06 -7.8828e-06 5.35542e-05 -0.8033768732 0.2695733788
170298980.0 -0.8001075992 0.2745602626 -0.0001067392 1.42774e-05 -5.31457e-05 -7.10017e-05 -0.8001253599 0.2782357487
175298950.0 -0.7974727544 0.2838303967 0.000150593 -7.0016e-06 -5.2056e-05 -4.71712e-05 -0.7977916584 0.2866252163
180298920.0 -0.7944683433 0.2925916009 0.0001193115 8.53294e-05 -0.0001315059 -0.0001746043 -0.7942970078 0.2950410516
185298890.0 -0.7910847288 0.3003835085 0.000225505 7.99977e-05 -7.96062e-05 5.69185e-05 -0.7911028057 0.3036070705
190298860.0 -0.7889456028 0.3095008934 0.0001111701 0.0001458615 9.41751e-05 -6.44187e-05 -0.78865324 0.3119803106
195298830.0 -0.7852076142 0.3172174285 -4.0725e-06 0.0001736732 -3.15918e-05 -1.85142e-05 -0.785222178 0.3207790587
200298800.0 -0.7813651352 0.3259507706 1.74441e-05 8.36426e-05 0.0001635526 0.0001842538 -0.7820654639 0.3288672312
205298770.0 -0.7785530884 0.333813935 -8.47812e-05 8.75371e-05 -0.0002335825 -0.0001202883 -0.7779820323 0.3369733553
210298740.0 -0.7746496237 0.3422273506 0.0002693468 -8.37668e-05 -7.4492e-05 7.19211e-05 -0.7750703877 0.3458719075
215298710.0 -0.7712940222 0.3498842371 2.50891e-05 -3.53676e-05 0.0001159549 0.0001161685 -0.7713648829 0.3534327011
220298680.0 -0.767450017 0.3586579584 5.87322e-05 0.0001146203 -3.83609e-05 4.38664e-05 -0.7675976486 0.3615358928
225298650.0 -0.7644143723 0.3660827905 -8.45476e-05 0.0002857751 -3.2595e-06 0.0001149975 -0.7642616844 0.3701773486
230298620.0 -0.759840586 0.3742305709 0.000116554 -5.01852e-05 0.0002136042 -2.92747e-05 -0.7598530958 0.3782123513
235298590.0 -0.7566985733 0.3830974154 -7.22668e-05 4.5516e-05 -3.2981e-05 1.77243e-05 -0.756068249 0.3862434249
240298560.0 -0.7526645594 0.3905911043 -4.74672e-05 0.0001259001 -0.0001868439 2.36143e-05 -0.7520952212 0.3944284489
245298530.0 -0.7486035824 0.3983502429 4.58671e-05 4.92148e-05 0.000108278 2.11163e-05 -0.747697381 0.4017390792
250298500.0 -0.7440641537 0.4068151313 -7.25123e-05 -6.26312e-05 -2.68105e-05 3.77322e-05 -0.7433178959 0.4095648866
255298470.0 -0.739744408 0.4135497345 4.79848e-05 -0.0001548941 -2.64791e-05 -3.57245e-05 -0.7388323859 0.4176357425
260298440.0 -0.7356376154 0.4209652638 -0.000162308 -0.0001375859 -0.0001696211 -5.41049e-05 -0.7345879531 0.4262101251
265298410.0 -0.7315311501 0.4295234658 -7.40263e-05 -8.553e-05 9.89993e-05 8.0557e-06 -0.7302011565 0.4336904451
270298380.0 -0.7267811632 0.437089948 2.8037e-05 7.7992e-06 0.000119532 -2.15912e-05 -0.7254625585 0.4405215824
275298350.0 -0.722674675 0.4442826388 0.0001513889 -1.87212e-05 1.28078e-05 3.25566e-05 -0.7209218481 0.4480493579
280298320.0 -0.7174235208 0.4519278561 -5.48176e-05 0.0001443826 -1.65644e-05 0.0001567 -0.7161450208 0.4562701107
285298290.0 -0.7131096027 0.4597816927 2.9468e-05 -3.01583e-05 1.3391e-06 -0.0001147111 -0.7110718961 0.4631938434
290298260.0 -0.7080359995 0.4674034805 -8.4016e-05 -0.0001987686 0.0001210168 0.0002071079 -0.7065897986 0.4710115199
295298230.0 -0.7029415371 0.4738839071 7.9282e-05 0.0001519747 1.68189e-05 4.05641e-05 -0.701737263 0.477919935
300298200.0 -0.6980003524 0.481438882 0.000120072 -0.0001258655 -4.04429e-05 0.0001650196 -0.6967175506 0.4854084845
305298170.0 -0.6924754128 0.4883732859 6.15471e-05 -4.86431e-05 3.03053e-05 -3.61813e-05 -0.6907136606 0.4931183878
310298140.0 -0.6875139358 0.4962110023 0.0002981688 -0.0001043092 -2.22402e-05 -0.0001754701 -0.6864520176 0.5001859604
315298110.0 -0.6828640105 0.503150904 -9.06108e-05 0.0001990137 0.0001105734 0.0001511158 -0.6803621752 0.5070888043
320298080.0 -0.6779013595 0.51020304 -0.0001759952 3.34868e-05 4.36766e-05 -5.64268e-05 -0.6752587429 0.5145426442
325298050.0 -0.6718960772 0.5173166991 -0.0001953914 0.0002114394 0.0001682522 9.1899e-06 -0.6698858162 0.5216108375
330298020.0 -0.6665864923 0.5234007453 9.45117e-05 -8.37486e-05 -7.95826e-05 9.2173e-05 -0.6646011012 0.5287889506
335297990.0 -0.661108152 0.5309172997 3.61637e-05 6.6874e-06 -5.25889e-05 4.27132e-05 -0.6589845594 0.5352704458
340297960.0 -0.6565339903 0.5374502316 -0.0001855965 -0.0001807759 0.0001321841 -6.82059e-05 -0.6532589943 0.5426105677
345297930.0 -0.6498721128 0.5441967152 -0.000139071 5.96797e-05 6.64804e-05 -1.23004e-05 -0.6475448482 0.5489819503
350297900.0 -0.6443157773 0.5506508528 7.44392e-05 8.17135e-05 -0.0001578349 0.0001768864 -0.6422751939 0.555729528
355297870.0 -0.6380405583 0.558143963 -3.4973e-06 9.53513e-05 8.64106e-05 0.0002864379 -0.6360164291 0.5622408986
360297840.0 -0.632998708 0.5633886389 1.55665e-05 -3.06117e-05 7.6707e-05 -8.1727e-05 -0.6300547547 0.5686848803
365297810.0 -0.6274651717 0.5703510631 0.0001023019 2.15039e-05 9.04404e-05 -0.0002119919 -0.6237818292 0.5751035695
370297780.0 -0.6210809946 0.5762679758 -4.43603e-05 -0.0002346781 -8.48114e-05 -0.0001270858 -0.617949992 0.5812755789
375297750.0 -0.6148909751 0.582785036 5.2266e-05 9.64584e-05 -6.94156e-05 -0.0002273148 -0.611789037 0.5876275753
380297720.0 -0.6090059498 0.5886578372 6.20155e-05 -1.1254e-06 0.0001575024 0.0002103378 -0.6062154057 0.5938026765
385297690.0 -0.6036853973 0.5955608792 0.0001505806 3.39865e-05 -0.0001399753 8.42852e-05 -0.5994097373 0.6004786618
390297660.0 -0.5971877574 0.6005952473 0.0002121805 -0.0001633554 -1.00554e-05 7.30046e-05 -0.5936527221 0.6063535694
395297630.0 -0.5902526272 0.6079437296 0.0001784412 -4.66338e-05 -5.17253e-05 0.0001609726 -0.5866103852 0.6130512285
400297600.0 -0.5840237971 0.6139521915 6.51546e-05 -3.67743e-05 0.0001510072 4.50273e-05 -0.581204042 0.6181642353
405297570.0 -0.5783745296 0.6189628671 -0.0001220523 6.05131e-05 -6.27053e-05 2.94641e-05 -0.5742809791 0.6247437019
410297540.0 -0.571306752 0.6247854048 -7.1849e-06 -0.0001314354 1.23848e-05 1.24539e-05 -0.5677073212 0.6303297804
415297510.0 -0.564740085 0.6308670624 -0.0001478235 7.69492e-05 3.01854e-05 0.0001392641 -0.5612116577 0.636187475
420297480.0 -0.5593156078 0.6368516496 -3.27471e-05 4.42904e-05 -5.17338e-05 -7.53397e-05 -0.5542475208 0.6420817893
425297450.0 -0.5516246615 0.6420958912 -9.47764e-05 -1.23303e-05 -0.0001270256 1.22869e-05 -0.5482940992 0.6476469787
430297420.0 -0.5457822729 0.6480587836 -3.6234e-05 0.0001090802 0.0001932448 2.16231e-05 -0.5416601502 0.6531845424
435297390.0 -0.5393009866 0.6530695742 -8.3263e-05 4.77024e-05 -3.5506e-05 2.05588e-05 -0.5343078213 0.6584439582
440297360.0 -0.5320615168 0.6587288357 -0.0002277131 7.72336e-05 -0.0002161424 0.0001985126 -0.5273097409 0.6637790543
445297330.0 -0.5248720991 0.6639734247 -3.84788e-05 -7.80629e-05 5.09196e-05 3.28295e-05 -0.5207169576 0.6683332609
450297300.0 -0.5182330114 0.6689689086 8.10632e-05 0.0001469142 -3.398e-07 0.0001164991 -0.5136183317 0.6741773399
455297270.0 -0.5116746389 0.6744559144 0.00014988 0.0001487027 7.54406e-05 -2.99764e-05 -0.5068974066 0.6788464035
460297240.0 -0.5054667829 0.6794502937 -1.85344e-05 2.84933e-05 2.6257e-05 6.99796e-05 -0.5001186376 0.6842915567
465297210.0 -0.4977644839 0.6847461834 -0.0001812373 -0.0001593167 -0.0002461471 7.4829e-06 -0.4925484404 0.6892060506
470297180.0 -0.4909168568 0.6895565581 8.18055e-05 -0.0001214645 7.653e-07 6.88116e-05 -0.4853791271 0.6950284955
475297150.0 -0.4840577669 0.6940666729 9.45437e-05 0.000135345 -4.24685e-05 -3.55541e-05 -0.4781760771 0.6993477847
480297120.0 -0.4766622799 0.6995473207 0.0001848679 -6.93427e-05 -0.00026571 8.59657e-05 -0.4707610327 0.7039186454
485297090.0 -0.46909282 0.7039957639 4.02586e-05 -0.0001582114 0.0001146932 4.44206e-05 -0.4636589633 0.7085858279
490297060.0 -0.4627100723 0.7086225304 5.75452e-05 4.81323e-05 -3.5149e-05 7.95652e-05 -0.4566424174 0.7131989987
495297030.0 -0.4550232286 0.7130351493 -0.0003238755 -0.0001737551 -9.91739e-05 6.8552e-06 -0.4495043658 0.7181004781
500297000.0 -0.4481228942 0.7179629306 3.86174e-05 9.22483e-05 7.85759e-05 -0.0001167417 -0.4409589024 0.7228765395
505296970.0 -0.4401887003 0.7225198418 8.06918e-05 -0.0001242333 -0.0002449113 9.44601e-05 -0.4343176836 0.7271517196
510296940.0 -0.4331197682 0.7268508236 -0.0002114267 4.84058e-05 -7.13565e-05 -4.42499e-05 -0.4264308055 0.7307411787
515296910.0 -0.4249380461 0.7302489745 8.57393e-05 -0.0001242088 3.0406e-05 -2.29771e-05 -0.4191739524 0.7357834167
520296880.0 -0.418756241 0.7352972827 6.44569e-05 1.53303e-05 9.49226e-05 -0.0001571592 -0.4116831557 0.7397765565
525296850.0 -0.4106931691 0.738593726 0.0001204187 1.8868e-05 4.30728e-05 -7.264e-07 -0.4045058247 0.7440413457
530296820.0 -0.4028174507 0.7432002637 -0.0001220188 -2.48607e-05 0.0001580254 9.8981e-06 -0.3973898275 0.7475989177
535296790.0 -0.3962715225 0.7464677233 3.83233e-05 -0.0001420395 9.11566e-05 4.00001e-05 -0.389794221 0.7521317265
540296760.0 -0.3885068068 0.750570037 -0.0001551894 1.32203e-05 1.6379e-05 0.0001136461 -0.3819120488 0.75554178
545296730.0 -0.3810208366 0.7546442773 -1.70743e-05 0.0001840899 0.0001009742 3.8722e-06 -0.3743238908 0.7590795135
550296700.0 -0.3732032494 0.7590661564 -0.0001171896 -0.0002075312 -4.76691e-05 -0.0001765814 -0.366029026 0.7631022878
555296670.0 -0.3649592415 0.7617484173 0.0001106302 -0.000148981 0.0001277376 -6.96773e-05 -0.3584004463 0.7666462975
560296640.0 -0.3578842842 0.7657612189 0.0001450785 -3.30234e-05 -9.9899e-06 8.47725e-05 -0.3502482579 0.7704584083
565296610.0 -0.3499564926 0.7693958886 -0.0001571587 -6.9152e-06 0.0001617818 -3.65724e-05 -0.343160608 0.773436153
570296580.0 -0.3424984762 0.7721933644 -0.0001234247 -0.0002260116 -5.24751e-05 -0.0001084672 -0.3350844618 0.7774637507
575296550.0 -0.334981421 0.7765343521 -0.0001371715 0.0002014872 -0.0002001636 -0.0002507417 -0.3273091759 0.7806723224
580296520.0 -0.3261826408 0.779558208 0.0001951942 0.000120997 -8.01388e-05 2.7859e-05 -0.3185917544 0.7835545351
585296490.0 -0.3186155585 0.7823995709 0.0002802851 0.0001926606 -6.09547e-05 0.0001385182 -0.310544225 0.7872019939
590296460.0 -0.3107062124 0.7856712525 4.65532e-05 -7.81155e-05 0.0001823968 -6.78377e-05 -0.3033205974 0.7898620432
595296430.0 -0.3032439772 0.788254955 7.60849e-05 0.0001338517 -0.0001958651 -9.96272e-05 -0.2949411733 0.792941986
600296400.0 -0.2952137818 0.791423593 0.0001315512 4.93166e-05 3.09729e-05 7.89128e-05 -0.2866461896 0.7953085481
605296370.0 -0.2882561474 0.7944919068 0.0002373703 4.52387e-05 -4.30737e-05 0.0001066555 -0.2783743515 0.7985960949
610296340.0 -0.2795775353 0.797264372 -0.0001292893 4.15256e-05 -2.35538e-05 7.5371e-06 -0.2706375288 0.8010586492
615296310.0 -0.2707031201 0.8000190726 0.0003360251 6.141e-06 9.95855e-05 -4.58436e-05 -0.2620477621 0.8036235687
620296280.0 -0.2627352301 0.8018127793 -0.000111168 -5.64101e-05 4.32699e-05 -6.8383e-06 -0.2545933821 0.8064232001
625296250.0 -0.2549880298 0.8050770949 -0.000105646 -7.71985e-05 -2.98649e-05 2.4886e-05 -0.2456721941 0.808782197
630296220.0 -0.2464194794 0.8080073836 -0.000108108 7.04365e-05 0.0001095488 0.0001315925 -0.2381591364 0.8114446904
635296190.0 -0.2391923231 0.8098448973 8.0198e-05 -0.0002640129 -0.0002993246 5.02819e-05 -0.2300660453 0.8131472647
640296160.0 -0.2310955502 0.8125140728 -0.0001285167 -0.0001522213 -8.896e-06 -2.26723e-05 -0.2216333601 0.8162292464
645296130.0 -0.2228544871 0.815107853 2.50796e-05 3.55944e-05 -4.02273e-05 3.18712e-05 -0.2132819757 0.8182124569
650296100.0 -0.2149183535 0.816668583 6.0612e-05 -4.49949e-05 -3.90923e-05 6.10797e-05 -0.205326007 0.819130032
655296070.0 -0.2065925724 0.8189999568 0.0003507168 8.22031e-05 -0.0001876346 -0.000145154 -0.196825492 0.8218245087
660296040.0 -0.1981745841 0.8203127201 -0.0001115293 -0.0001173854 -6.08488e-05 3.96947e-05 -0.1882832777 0.8240745892
665296010.0 -0.1903767196 0.8220896315 -8.90647e-05 -0.0001644662 3.9816e-05 -1.35825e-05 -0.1793547965 0.8260959938
670295980.0 -0.1821788378 0.8244120068 -5.586e-06 -9.18032e-05 -0.0001945027 7.30438e-05 -0.1723331994 0.8271038127
675295950.0 -0.1737280486 0.8263660173 1.68557e-05 -0.0003527821 -4.89246e-05 -4.65016e-05 -0.1641618209 0.8293369748
680295920.0 -0.1654507541 0.8283335084 -1.72852e-05 0.0002519205 -1.53929e-05 -3.80167e-05 -0.1555779568 0.8314156911
685295890.0 -0.1568927488 0.8299887087 0.0001900739 -6.2014e-06 6.22143e-05 0.0001004155 -0.147177941 0.8319249667
690295860.0 -0.1488884147 0.8305951431 0.0001229325 -0.0002142052 0.0002344345 -7.46219e-05 -0.1386991653 0.8338719264
695295830.0 -0.1411584836 0.8319388727 6.53186e-05 -5.62813e-05 0.0001996272 -0.00015653 -0.1299003932 0.8348064177
700295800.0 -0.1317488591 0.8337354443 -6.03737e-05 -0.0001561238 6.30327e-05 1.92339e-05 -0.122084541 0.8365247788
705295770.0 -0.1244064259 0.8358007919 -3.83891e-05 9.20515e-05 0.0001143171 -1.26239e-05 -0.1139975309 0.8381400185
710295740.0 -0.115665271 0.8366928731 4.9078e-05 -0.0001266361 -8.91704e-05 -9.88826e-05 -0.1054346101 0.8386025568
715295710.0 -0.1077697136 0.8375900731 -0.0002768842 -1.86218e-05 0.0001851104 -3.97415e-05 -0.0967948321 0.8393889139
720295680.0 -0.0989661921 0.8383083005 -0.0001414388 -5.69528e-05 -5.25579e-05 8.32784e-05 -0.0884628731 0.8408385766
725295650.0 -0.0908492355 0.8397594146 1.13808e-05 -0.0002052466 -0.0001073438 2.34279e-05 -0.0803837255 0.841562504
730295620.0 -0.0824808517 0.8399323467 9.8378e-06 -5.07252e-05 -0.000169306 7.92411e-05 -0.0718302423 0.8418445481
735295590.0 -0.07481521 0.8411437278 0.0001706064 -0.0001511235 -0.0001339241 5.97168e-05 -0.063799262 0.8427062135
740295560.0 -0.0657911171 0.8421715731 -0.0001221019 6.55503e-05 0.000188214 4.40522e-05 -0.054384485 0.8438049401
745295530.0 -0.0580064107 0.8425007586 3.11971e-05 0.000228984 0.0001544355 8.4763e-05 -0.0464143479 0.8438963687
750295500.0 -0.0489951358 0.8429427433 -0.0001820672 -5.1972e-06 0.0004250039 -6.91456e-05 -0.0380830414 0.8441577823
755295470.0 -0.0410701042 0.8429822099 -6.04207e-05 -2.58524e-05 -9.9731e-05 0.0002034146 -0.0296221055 0.8439828814
760295440.0 -0.0332715285 0.8434442891 -0.0001105843 -3.35422e-05 4.87839e-05 -5.14945e-05 -0.0211151892 0.844405961
765295410.0 -0.0245757034 0.8439206518 -0.0001391589 -1.53814e-05 5.82633e-05 1.73332e-05 -0.0127689993 0.8450132511
770295380.0 -0.016412375 0.8442013813 -0.0001942862 4.9389e-05 0.0002062347 2.48602e-05 -0.0040537373 0.8447131495
775295350.0 -0.0077165263 0.8438655895 -3.34845e-05 0.0002287906 -4.63259e-05 5.78896e-05 0.0034717667 0.8448186938
780295320.0 0.0006673549 0.8444521372 -6.3288e-05 -4.98566e-05 -2.94378e-05 5.05009e-05 0.0121642631 0.8448719723
785295290.0 0.0085956009 0.8438055282 -5.0053e-05 -6.43669e-05 -0.0001435706 0.0002502427 0.0208401126 0.8445859367
790295260.0 0.0176504733 0.8441128346 9.62817e-05 -0.0001044311 -4.16689e-05 0.0001763575 0.0301302977 0.8445640202
795295230.0 0.0255797911 0.8437657774 -8.7273e-05 -0.0001605232 -0.0001031834 0.0001618345 0.0386514427 0.8430944847
800295200.0 0.0335552266 0.8432365461 8.45021e-05 1.51836e-05 -6.34652e-05 -6.95475e-05 0.0466153318 0.843465531
805295170.0 0.0427180907 0.8427925949 0.0001577346 -2.00501e-05 -9.56058e-05 -0.0002023413 0.0544525082 0.8434412312
810295140.0 0.0505697852 0.8426082032 -5.60294e-05 -3.66992e-05 0.0001612289 2.5557e-06 0.0631560863 0.8419993448
815295110.0 0.0589714698 0.8418074251 0.0001309765 1.2472e-05 1.91089e-05 -4.58395e-05 0.0713938909 0.8418283604
820295080.0 0.0670688626 0.8412458256 6.31706e-05 -0.0002586229 5.91849e-05 -2.22247e-05 0.0800057298 0.8413666528
825295050.0 0.0763901718 0.840633593 0.0002692767 -0.0001177269 0.0001292818 -0.0001907681 0.0885182512 0.840559317
830295020.0 0.0839666796 0.8400269499 0.0001457352 -1.0338e-06 -0.0001297256 9.5916e-06 0.0980213119 0.8389798993
835294990.0 0.0919428428 0.8392254199 0.0001482173 3.5332e-05 -0.0001775904 -7.46662e-05 0.1045596581 0.83852406
840294960.0 0.100286624 0.8382718163 -0.0001465834 -7.1318e-05 0.0002392179 5.205e-06 0.1134848014 0.8366627711
845294930.0 0.1086192339 0.837048426 -0.0003535548 0.0001867685 -0.0001039445 1.5167e-06 0.1209641617 0.8360236294
850294900.0 0.1165384059 0.8364478253 -8.2009e-06 -7.4889e-06 -0.0001597896 0.0001832137 0.1296056359 0.8347233002
