!Created with skrf (http://scikit-rf.org).
# Hz S RI R 50.0 
!freq ReS11 ImS11 ReS21 ImS21 ReS12 ImS12 ReS22 ImS22
300000.0 0.859531772 -0.002697989 -0.0006668857 -0.0006242409 -0.0002762949 0.0007167773 -0.7748572153 -0.1262518203
5299970.0 0.8591120497 -0.0105019671 -4.03229e-05 0.0001663406 -7.66897e-05 -5.68899e-05 -0.7836214019 -0.0066598688
10299940.0 0.8579508412 -0.0187403067 -8.39295e-05 2.52399e-05 6.54397e-05 -8.77106e-05 -0.7873790701 -0.0032439824
15299910.0 0.857138979 -0.027629531 0.0001094316 -0.0002046528 6.80084e-05 -8.96272e-05 -0.7927486395 -0.0010993298
20299880.0 0.856466306 -0.0358835938 -4.43117e-05 0.0001632703 8.2418e-06 8.78208e-05 -0.7996102237 0.0021852142
25299850.0 0.8552554464 -0.04395739 2.60144e-05 -0.0001090931 -3.60903e-05 -0.0001766903 -0.8061005142 0.0084451279
30299820.0 0.8545998302 -0.052652387 -0.0001178967 -0.0001164338 1.31223e-05 -6.0798e-06 -0.8121132986 0.0160858002
35299790.0 0.8543602242 -0.0609205881 0.0001256546 -1.29892e-05 0.0001523703 4.03508e-05 -0.8166795193 0.0252997008
40299760.0 0.8530601866 -0.0697521133 0.0003828556 1.90442e-05 7.17585e-05 1.5917e-06 -0.8209503278 0.0345024927
45299730.0 0.852523647 -0.0777208967 0.0003356961 3.54881e-05 1.58166e-05 -0.0001039875 -0.8252107073 0.0442673845
50299700.0 0.8519546687 -0.0854479629 0.0002311518 -0.0001796643 -0.0001680104 0.0001387953 -0.8276229951 0.0541398725
55299670.0 0.850852395 -0.0936856667 9.9652e-06 2.91334e-05 -4.83875e-05 -4.4897e-05 -0.8298102782 0.0646183906
60299640.0 0.8493732659 -0.10197208 -6.0052e-05 -8.73275e-05 0.0002172454 -1.89856e-05 -0.830728189 0.0743621365
65299610.0 0.848391938 -0.1106834521 0.0002216427 -1.39506e-05 -2.8883e-06 8.52958e-05 -0.8319011399 0.0846651299
70299580.0 0.8467910383 -0.1192038416 -6.5937e-06 5.73136e-05 -7.59922e-05 -0.0001227985 -0.8320336917 0.0948535065
75299550.0 0.8463912729 -0.1267986135 -9.01345e-05 1.92672e-05 -1.40289e-05 -7.14195e-05 -0.8327250101 0.1045328011
80299520.0 0.843922246 -0.1355224832 -7.05605e-05 4.88501e-05 2.46997e-05 0.0001849963 -0.8327178583 0.1141535408
85299490.0 0.8434227406 -0.1435180242 5.62983e-05 0.0001514287 -3.03805e-05 -7.92904e-05 -0.8319016303 0.1237520097
90299460.0 0.8419268543 -0.151477449 0.0002059947 7.82478e-05 -4.65341e-05 -0.0001269893 -0.8311565909 0.1336159672
95299430.0 0.8400425804 -0.1599973386 -0.0001895675 -8.79514e-05 0.0001232608 7.91437e-05 -0.8293921298 0.1432745471
100299400.0 0.8383507443 -0.1683389982 -7.01e-06 -8.67297e-05 9.18917e-05 3.32142e-05 -0.828542791 0.152440715
105299370.0 0.8377517577 -0.1762027152 -0.000187685 -6.75429e-05 0.0001311594 -0.0001789721 -0.8269841211 0.1612001865
110299340.0 0.8354980142 -0.1847190154 2.03071e-05 -0.0002184934 9.1314e-06 -8.49314e-05 -0.8259230945 0.1710087558
115299310.0 0.8333129273 -0.1927237254 0.0001092702 0.0001423996 7.87446e-05 3.34296e-05 -0.8241771661 0.1804580415
120299280.0 0.8315996449 -0.2007105186 7.39012e-05 2.66974e-05 -0.0001239271 8.66121e-05 -0.8227707163 0.18901357
125299250.0 0.8289677115 -0.2096304887 0.00015553 9.32094e-05 4.36596e-05 -4.36284e-05 -0.8209773814 0.1982900781
130299220.0 0.8273371873 -0.2172937982 0.0001984393 1.58857e-05 5.03182e-05 7.75601e-05 -0.8189824787 0.206575407
135299190.0 0.8249279859 -0.2247241772 1.53787e-05 -5.81923e-05 5.245e-05 0.0001173932 -0.8165281679 0.2158312796
140299160.0 0.8226236923 -0.2330702027 2.38772e-05 3.43939e-05 -4.02687e-05 -1.12139e-05 -0.8140544154 0.2250386419
145299130.0 0.8205364867 -0.2410982551 5.7502e-05 -3.44472e-05 -0.0002013028 2.91784e-05 -0.8120646589 0.2343450715
150299100.0 0.8182079474 -0.2491872031 7.51834e-05 0.0001537343 -0.0001638665 -5.0204e-05 -0.8103954212 0.2431843105
155299070.0 0.8161292888 -0.2573662208 -0.000210372 -5.92177e-05 1.34742e-05 5.1327e-05 -0.8073928956 0.2520268457
160299040.0 0.8127022816 -0.2649325093 0.000277597 -0.0001323647 4.64675e-05 -7.43613e-05 -0.8052012736 0.2608134688
165299010.0 0.810479575 -0.2732471285 3.0715e-06 4.6469e-06 -9.95018e-05 2.55069e-05 -0.8025088989 0.2694176931
170298980.0 0.8073982677 -0.2806534835 -0.000128671 -1.20657e-05 -1.3667e-06 3.11984e-05 -0.799348425 0.2783156958
175298950.0 0.8041956223 -0.2891695702 -0.0001584819 2.02442e-05 -0.0001683534 0.0001335396 -0.7960349221 0.2871287262
180298920.0 0.8023498947 -0.2973310788 3.04377e-05 -0.0001807246 3.98495e-05 -0.0001462201 -0.793399121 0.2956713713
185298890.0 0.7985802317 -0.3046657254 -0.0001727102 1.59808e-05 -0.0001174127 -5.90866e-05 -0.7902577807 0.3039889969
190298860.0 0.7958888441 -0.3124129234 0.0001383604 -0.0001095492 4.5771e-06 8.12456e-05 -0.7876744538 0.3125169281
195298830.0 0.7922643493 -0.3199868377 2.97072e-05 -8.44237e-05 7.4207e-06 5.17168e-05 -0.7839666577 0.3213006213
200298800.0 0.7885974913 -0.3270238181 1.67835e-05 3.38188e-05 -4.53356e-05 6.2272e-06 -0.7813729452 0.3295014346
205298770.0 0.7855766508 -0.3351581069 -3.31055e-05 -2.46594e-05 4.10036e-05 0.0001420408 -0.7773495803 0.3376382149
210298740.0 0.7824881029 -0.3427099661 -0.0001079987 -0.000154239 -5.7343e-05 3.4882e-06 -0.7743996828 0.3459225739
215298710.0 0.7791761343 -0.3511703153 4.07087e-05 3.29943e-05 -0.0001412323 -5.30232e-05 -0.7709041677 0.3539621965
220298680.0 0.7754999425 -0.3579880542 0.0001390364 -2.65364e-05 -0.0001130911 -0.0002023728 -0.7673358565 0.3622206451
225298650.0 0.7718709676 -0.3661770791 0.0001164592 0.0001689394 -0.0001173815 -0.0001200612 -0.7636625542 0.3708162916
230298620.0 0.767948317 -0.3731910855 6.87084e-05 -0.0001446884 8.88029e-05 -4.24867e-05 -0.7600430498 0.3790575134
235298590.0 0.7643765811 -0.3801789342 -5.15795e-05 -1.00143e-05 8.22343e-05 0.0001645295 -0.7562372869 0.3874752889
240298560.0 0.7607020323 -0.3880718876 2.49894e-05 -4.2237e-05 8.97352e-05 0.0001006984 -0.7520876965 0.3954877039
245298530.0 0.756914521 -0.3955751487 3.30932e-05 0.0002906323 -3.87331e-05 -0.0002518122 -0.7477003871 0.4027541539
250298500.0 0.7527959592 -0.4029002983 -9.40211e-05 0.0001595918 -0.0001070755 5.54708e-05 -0.7436866419 0.4102345634
255298470.0 0.7486904026 -0.4102829222 2.87507e-05 -4.44921e-05 -7.42372e-05 -2.38398e-05 -0.7387234033 0.4184952404
260298440.0 0.74474098 -0.4178706401 0.0002072084 -0.0001157972 0.0001377507 -8.8966e-06 -0.7346558643 0.4269008214
265298410.0 0.740993565 -0.4246711743 2.91671e-05 -0.0001850473 -7.99694e-05 0.0002121971 -0.7303256343 0.4336409069
270298380.0 0.7364351084 -0.4320120188 0.0001233738 1.8012e-06 -7.16392e-05 -9.57152e-05 -0.7254819768 0.4412237767
275298350.0 0.7324903516 -0.4395693301 -0.0002734419 0.0001437203 -0.0001552132 -0.0001418153 -0.720862638 0.4486976093
280298320.0 0.7277657949 -0.4465578476 0.0001368491 -0.0002236409 -0.0001280103 -1.53307e-05 -0.715665576 0.4565958239
285298290.0 0.7236779699 -0.4540192572 -0.0002508301 0.0001607322 2.96653e-05 9.7498e-06 -0.710874261 0.4639580821
290298260.0 0.7193113167 -0.46041054 -8.95299e-05 0.0002414929 -0.0001222406 -4.07679e-05 -0.7057730893 0.471333748
295298230.0 0.7154605896 -0.4676199852 0.000159472 -4.97436e-05 -0.0001310806 9.18097e-05 -0.7008790144 0.4780560758
300298200.0 0.7111674075 -0.4750503381 -0.0001871122 0.0001162232 -8.7797e-05 -4.55864e-05 -0.6960365766 0.4858146012
305298170.0 0.7062188577 -0.4812505006 -0.0002884714 -0.0001408213 1.11014e-05 1.58273e-05 -0.6896215332 0.4932491237
310298140.0 0.701963917 -0.4889270497 -8.40586e-05 -9.39862e-05 -2.95929e-05 0.0002372213 -0.6856717772 0.4999922508
315298110.0 0.6975803865 -0.4970334689 9.85312e-05 -0.000147286 -9.0045e-06 5.39912e-05 -0.6796396997 0.5068196996
320298080.0 0.6925941746 -0.5042043318 8.84851e-05 1.57641e-05 -5.27485e-05 -4.92948e-05 -0.6744742405 0.514261537
325298050.0 0.6871533944 -0.5110663504 -2.90173e-05 7.63514e-05 -2.33058e-05 -0.00011816 -0.6687786742 0.5208440051
330298020.0 0.6808559376 -0.5189527181 3.94106e-05 3.69431e-05 2.17466e-05 0.000152332 -0.663059601 0.5284725179
335297990.0 0.6745430675 -0.5259974201 -0.0001643095 -0.0001914351 1.11438e-05 -8.38427e-05 -0.6582861948 0.5356959413
340297960.0 0.6693209011 -0.5321798476 -8.83497e-05 2.97976e-05 -5.83572e-05 -7.923e-06 -0.6522164577 0.5427505623
345297930.0 0.6634871782 -0.5385240467 -2.39019e-05 5.76288e-05 -0.000196691 3.45963e-05 -0.6463133297 0.5485948871
350297900.0 0.6576055087 -0.5446391168 0.0002565455 -0.0002639417 5.5238e-06 2.87262e-05 -0.6409732243 0.5553712329
355297870.0 0.65218517 -0.5510603102 -2.33112e-05 -6.87832e-05 3.62804e-05 -0.0002104461 -0.6354997229 0.5623079383
360297840.0 0.6464775308 -0.5569419193 0.0002313273 4.50131e-05 -0.0001437169 3.84883e-05 -0.6290963427 0.5692627565
365297810.0 0.6401187158 -0.5634191079 0.0001465347 1.435e-05 5.08365e-05 -0.0001508056 -0.6228740665 0.5754321537
370297780.0 0.6354458502 -0.5690328963 -0.0002720576 -0.0001492235 6.76896e-05 0.0001032945 -0.6171569891 0.5821788642
375297750.0 0.6289160968 -0.5751721629 0.0001767719 -0.0001552887 8.1116e-06 -0.0002432346 -0.6110545571 0.5879991975
380297720.0 0.6234314118 -0.5814046431 9.7132e-06 7.30697e-05 -9.32203e-05 0.0001876397 -0.605178195 0.5942972082
385297690.0 0.6172159543 -0.5873258118 -6.45024e-05 1.5345e-06 -9.19655e-05 0.0001312737 -0.5991316269 0.6014127367
390297660.0 0.6114949602 -0.5928066624 3.01257e-05 -0.0001188887 2.4775e-05 0.0001435584 -0.5928921594 0.6074434084
395297630.0 0.6059635231 -0.5986081579 -6.59735e-05 0.0001314151 2.2365e-05 5.8525e-05 -0.5863666739 0.6136675796
400297600.0 0.6001390546 -0.6046578067 -7.324e-06 -1.81635e-05 1.84327e-05 -0.0001876687 -0.5803309743 0.6194015981
405297570.0 0.5938297935 -0.6096881213 -0.0001247124 -6.9886e-05 0.0002179641 -4.8142e-06 -0.5731530645 0.6252296365
410297540.0 0.5875654913 -0.615962705 -8.01203e-05 -0.0001440592 4.51451e-05 -0.0001673281 -0.5670882189 0.6309860502
415297510.0 0.5818537618 -0.6219083468 0.0001442997 0.0002064278 -1.79507e-05 -0.0002770739 -0.5609608605 0.6368756464
420297480.0 0.5755551723 -0.6270704041 -3.3353e-06 -4.06506e-05 0.0001338382 -0.0001455217 -0.554127153 0.6426602805
425297450.0 0.568714584 -0.6326472735 -0.0001483363 0.0001607891 -7.81546e-05 -2.88796e-05 -0.5477411566 0.6480909895
430297420.0 0.5627410322 -0.6380289807 -0.0002226325 3.87319e-05 -9.75921e-05 9.0165e-06 -0.541088917 0.6535383869
435297390.0 0.5567087327 -0.6433828172 0.0002940189 -8.75e-05 -2.51316e-05 0.0001403407 -0.5339435118 0.6590626288
440297360.0 0.5496106142 -0.6493541388 -0.0001665542 -0.0001773879 -0.000131734 -0.0001238432 -0.5274999531 0.6642026659
445297330.0 0.5435080955 -0.654389245 -3.23034e-05 -1.92891e-05 -0.0001828622 2.33416e-05 -0.5201965492 0.6688383017
450297300.0 0.5374956799 -0.6591883352 -7.4719e-06 -6.83641e-05 4.06727e-05 4.1302e-06 -0.5130605807 0.674403294
455297270.0 0.5306755913 -0.6649534564 0.0001455198 2.47382e-05 9.47021e-05 -7.75275e-05 -0.5061157113 0.6789425841
460297240.0 0.5247438914 -0.6702612249 4.0949e-05 -0.0001199787 4.14753e-05 0.0001371103 -0.4990256857 0.6843907512
465297210.0 0.5167867567 -0.6758408491 0.0002162708 -0.0002563355 0.0001858171 0.0001116783 -0.4918745401 0.6891147773
470297180.0 0.5101783404 -0.6794839952 -7.03748e-05 4.2063e-06 -1.39716e-05 2.6476e-05 -0.4842840437 0.6947640608
475297150.0 0.5038934432 -0.6854920408 -0.0002475209 6.68872e-05 -1.30298e-05 0.0001877458 -0.4771897302 0.6989506376
480297120.0 0.496489818 -0.6897123794 -1.93611e-05 0.0001338916 0.0001093149 1.62955e-05 -0.4697090937 0.7034596187
485297090.0 0.4895767136 -0.6945019114 2.14248e-05 0.0003194178 -6.19234e-05 8.60834e-05 -0.4623056754 0.7084323106
490297060.0 0.4821551689 -0.6991633198 5.32521e-05 -0.0002008376 -0.0002394367 6.99682e-05 -0.4554716652 0.7132847073
495297030.0 0.475699151 -0.7038447729 6.45984e-05 -0.0001499032 -3.262e-06 0.0001994586 -0.44822145 0.7180278357
500297000.0 0.4685580334 -0.7090241841 -0.0001041593 -8.50214e-05 3.91673e-05 7.96079e-05 -0.4402960532 0.7228251268
505296970.0 0.4617790976 -0.7131811658 -2.96474e-05 1.57542e-05 -6.87981e-05 0.0001387866 -0.4336196019 0.7266457356
510296940.0 0.4541713858 -0.7180347523 -6.6025e-05 3.38341e-05 8.74385e-05 0.0002113019 -0.4259426847 0.7304887497
515296910.0 0.4477141628 -0.7215004426 0.0001023318 -0.0001924415 4.7119e-06 -0.0001278058 -0.4182621572 0.7354531278
520296880.0 0.439637657 -0.7261442016 -0.0001123787 0.0001246575 0.0001442409 -3.00201e-05 -0.4104493615 0.738879595
525296850.0 0.4334036461 -0.7303819525 -8.0479e-06 3.00006e-05 -0.0001790341 5.01083e-05 -0.4039396912 0.7436799435
530296820.0 0.4255248009 -0.7341350323 -1.45063e-05 0.0001464232 -7.6707e-06 -0.0001247259 -0.3958456305 0.7480160517
535296790.0 0.418454919 -0.7387381937 -9.8045e-05 -0.0001465419 0.000195234 -1.57143e-05 -0.3886362408 0.7515259516
540296760.0 0.4112029526 -0.742338037 -8.73323e-05 3.16339e-05 -7.2593e-05 -3.08763e-05 -0.3806496244 0.7558054686
545296730.0 0.4036218686 -0.7465923283 9.44117e-05 -0.0001104327 -4.413e-06 -0.0001064749 -0.372967452 0.7598528052
550296700.0 0.3966318262 -0.7497196193 5.54905e-05 8.5493e-05 0.0002618736 7.38345e-05 -0.3652142465 0.7633528948
555296670.0 0.3884167641 -0.7539557678 -7.73851e-05 1.93939e-05 2.70631e-05 -4.45761e-05 -0.357393563 0.7674497147
560296640.0 0.3811204302 -0.7571539513 -0.0001504648 -0.0001465463 -8.83997e-05 -5.36685e-05 -0.3493581658 0.7712630418
565296610.0 0.3735186687 -0.7606746919 0.0002012865 6.32095e-05 -0.0002258221 0.000455318 -0.3418490147 0.7741502717
570296580.0 0.3655873574 -0.7649771197 0.0001567097 -8.8149e-05 0.0001793266 -0.0001460374 -0.3341428048 0.7779375749
575296550.0 0.3585900865 -0.7675911824 6.21494e-05 0.0001372287 3.21066e-05 -8.1733e-05 -0.3259690696 0.7809396918
580296520.0 0.3507738371 -0.7717426097 0.0001359865 -0.0001433304 3.34955e-05 -0.0001594582 -0.3178708971 0.7836584385
585296490.0 0.3422525807 -0.775462298 -3.61889e-05 -0.0001835325 -0.0002667428 2.86727e-05 -0.3100427233 0.7873629448
590296460.0 0.3354465484 -0.7776838179 -8.4654e-05 -3.51589e-05 0.0001608735 0.0001823177 -0.3026777645 0.7909358179
595296430.0 0.3274542342 -0.7811495735 4.63878e-05 5.03981e-05 5.30419e-05 0.0001246463 -0.2942037996 0.7930959493
600296400.0 0.3191305925 -0.7844796391 0.0001385473 -0.0001512309 4.63566e-05 -8.12242e-05 -0.2861761555 0.795653778
605296370.0 0.3116445904 -0.7870723059 -9.78109e-05 0.0001164367 -3.46653e-05 -3.70595e-05 -0.2779174898 0.7986576157
610296340.0 0.3040081896 -0.7909521308 0.000264527 3.47398e-05 -5.13146e-05 0.0001190791 -0.2700024021 0.8012521217
615296310.0 0.2961238764 -0.793596768 5.57607e-05 -7.8092e-05 -8.4901e-05 -0.0001272243 -0.261114874 0.8035211065
620296280.0 0.2879713446 -0.7960959432 -4.71011e-05 9.27338e-05 9.84672e-05 -0.0002258389 -0.253776107 0.8064165952
625296250.0 0.2802831977 -0.7988273875 0.0001875578 0.0002479249 -0.0001157419 -4.45613e-05 -0.2450455507 0.8083789712
630296220.0 0.2724159767 -0.8015944582 -0.0002376017 9.99584e-05 2.967e-07 -0.0001342756 -0.2373285183 0.8108618197
635296190.0 0.2638216162 -0.8040435439 -4.32738e-05 -0.0001083624 -0.0002101039 0.0001118449 -0.2295983127 0.8129796829
640296160.0 0.2563130015 -0.8071848198 0.0002921794 -4.35997e-05 -0.0001109743 9.8424e-05 -0.2210697805 0.8154405659
645296130.0 0.247886943 -0.8085267595 0.000207006 3.22799e-05 -6.70753e-05 -5.34381e-05 -0.2128468084 0.8174718407
650296100.0 0.2398746522 -0.8106659725 1.8604e-06 -6.18168e-05 -9.07868e-05 4.53745e-05 -0.2045473642 0.8190195217
655296070.0 0.2315713661 -0.8135460754 -9.84154e-05 5.36387e-05 0.0001417863 0.0001714638 -0.1958405088 0.8206664045
660296040.0 0.2238452811 -0.8156841698 0.0001514726 0.0001684696 -1.23411e-05 4.98369e-05 -0.1874144433 0.823067448
665296010.0 0.215617088 -0.817979979 0.0001911488 -0.000110027 -8.64381e-05 0.0002195112 -0.1787312433 0.8253788433
670295980.0 0.2069028894 -0.819512025 -0.0001785498 -2.42184e-05 -0.0001239968 -4.51134e-05 -0.1713076062 0.826367633
675295950.0 0.199156847 -0.8213924625 -0.0002177125 5.32343e-05 -0.0001288803 0.0001398409 -0.1632067767 0.8282585502
680295920.0 0.1909360742 -0.8230699526 -0.0001979689 5.61209e-05 -0.0003748426 0.0001011523 -0.1543995573 0.8305368276
685295890.0 0.1829722366 -0.8244212188 -0.000220833 -7.35704e-05 -0.0001136423 -6.11745e-05 -0.1455818564 0.8313631636
690295860.0 0.174862936 -0.8266189095 0.0001629375 8.13619e-05 -0.0001224037 0.0002078951 -0.137605777 0.8336945204
695295830.0 0.1664662569 -0.8281910135 8.32999e-05 0.0001227823 -7.5077e-05 -0.0001919483 -0.1289576579 0.8341684139
700295800.0 0.1582513699 -0.8296018121 -1.43024e-05 -0.0001779766 3.0829e-06 0.0002457347 -0.1215722625 0.8363440464
705295770.0 0.1492125833 -0.8307716122 0.0001680695 -8.66661e-05 -1.0776e-06 1.21387e-05 -0.1129443573 0.8380792602
710295740.0 0.1410913588 -0.8320926224 -0.0002067485 8.63688e-05 -9.23877e-05 5.52438e-05 -0.10421607 0.8382276523
715295710.0 0.1329501357 -0.8340806367 0.0001205605 -2.59614e-05 -0.0001407625 7.379e-07 -0.0956132516 0.8396869139
720295680.0 0.1245884383 -0.8349991569 4.56329e-05 -6.55693e-05 -3.54462e-05 -1.49509e-05 -0.086971193 0.8409594964
725295650.0 0.1161052853 -0.8353907628 8.46811e-05 -0.0001586938 -4.12702e-05 2.76846e-05 -0.0792626784 0.8418967561
730295620.0 0.10796361 -0.8366721194 0.0001373791 9.1946e-06 0.0001739948 0.0003594559 -0.0714642872 0.8424282968
735295590.0 0.0993187103 -0.8366084734 5.50086e-05 0.0002744364 -7.83721e-05 5.60373e-05 -0.0627578692 0.8424597595
740295560.0 0.0913148079 -0.8379909766 -4.27645e-05 2.29734e-05 0.0002728718 -6.19124e-05 -0.0540979906 0.8440768678
745295530.0 0.0829542058 -0.8389214768 5.88562e-05 2.97133e-05 6.5782e-06 4.41066e-05 -0.0450477902 0.8439030949
750295500.0 0.0739475793 -0.8394770848 8.23264e-05 0.0001291978 5.50997e-05 -5.38958e-05 -0.0373973338 0.8447026554
755295470.0 0.0659339024 -0.8398575039 -5.20677e-05 1.63033e-05 5.08394e-05 9.43581e-05 -0.028456211 0.8438165394
760295440.0 0.0574481864 -0.8406025483 6.37766e-05 2.86488e-05 -1.27294e-05 8.63678e-05 -0.0202241729 0.8445585001
765295410.0 0.0490972716 -0.8408620925 0.0001320671 -2.2579e-06 6.31815e-05 2.95318e-05 -0.011823511 0.8451097548
770295380.0 0.0405344655 -0.8409809021 4.91686e-05 -8.80923e-05 6.48397e-05 0.0002776738 -0.0039811163 0.8447899108
775295350.0 0.0318833979 -0.8420345594 3.81231e-05 0.0002303686 -1.89902e-05 -8.87379e-05 0.0043599697 0.8444357927
780295320.0 0.0240433084 -0.8412018855 0.0003258559 -3.24094e-05 -0.000269207 -6.4285e-06 0.0124973124 0.8440782317
785295290.0 0.0148300704 -0.8425685102 -0.0002352109 -4.07266e-05 2.98605e-05 1.13988e-05 0.0219729293 0.8438806762
790295260.0 0.0071765286 -0.8412204257 0.0001881377 3.15581e-05 2.9582e-05 9.8607e-06 0.0304353896 0.8441037313
795295230.0 -0.0016809294 -0.8413090664 -0.0001062048 4.73518e-05 -6.87517e-05 7.75553e-05 0.038928537 0.8428103843
800295200.0 -0.0102365465 -0.8411280633 0.00021607 -2.82694e-05 0.0001769808 6.0535e-05 0.0474380385 0.8424054289
805295170.0 -0.0182744091 -0.8411036297 -0.0001914659 7.12748e-05 -0.0002077365 -4.19991e-05 0.0555025025 0.8420961758
810295140.0 -0.0267759187 -0.840505139 -4.83558e-05 0.0001625721 7.8282e-06 -1.78186e-05 0.0639607405 0.841379738
815295110.0 -0.0345055032 -0.8404701537 -7.08558e-05 -8.19611e-05 -4.727e-06 0.0001782463 0.0721200897 0.8408215584
820295080.0 -0.0432550737 -0.8393262272 0.0002424001 8.61618e-05 6.19941e-05 0.000143774 0.081149342 0.8400007908
825295050.0 -0.0516108773 -0.8389728095 1.53917e-05 0.0001014713 0.0001519438 2.38351e-05 0.0891985572 0.8393519431
830295020.0 -0.0603057337 -0.8384952127 -4.23369e-05 -0.0002305367 -0.000328447 -7.6506e-06 0.0983597015 0.8379329384
835294990.0 -0.0683726215 -0.8372065287 4.03114e-05 -0.0001864904 9.76142e-05 -7.33794e-05 0.1058103732 0.8371404761
840294960.0 -0.0768638383 -0.8362509479 -7.06796e-05 0.0001593306 -8.04853e-05 0.0001063023 0.1142831477 0.836547834
845294930.0 -0.0849805435 -0.835447188 0.000115813 -0.0002462531 -6.50334e-05 2.18027e-05 0.1226203576 0.8346444608
850294900.0 -0.0926230253 -0.834618798 4.38314e-05 -0.0001900696 8.10181e-05 -3.25772e-05 0.1306104906 0.8337008303
