!Created with skrf (http://scikit-rf.org).
# Hz S RI R 50.0 
!freq ReS11 ImS11 ReS21 ImS21 ReS12 ImS12 ReS22 ImS22
300000.0 -0.2381966728 -0.1104348862 0.4686842 0.0706461684 0.4721588145 0.0732132315 -0.2390587397 -0.1111185508
5299970.0 -0.2407883583 0.0070196994 0.4752973147 0.0053318434 0.4752560207 0.0055283321 -0.2448762735 0.0054032817
10299940.0 -0.2372350904 0.0199603781 0.4772863474 0.0064143331 0.4769453046 0.0064301236 -0.2418019245 0.0175485985
15299910.0 -0.2328668411 0.0298023451 0.4804471716 0.0073488735 0.4805252971 0.007674043 -0.2376700086 0.0265926726
20299880.0 -0.2275370803 0.0377289621 0.4851423463 0.0080308377 0.485450804 0.0080374584 -0.2329275005 0.0342601489
25299850.0 -0.2218346663 0.0443061874 0.4907071491 0.0067470197 0.4907019126 0.0069269248 -0.2278003957 0.0401438265
30299820.0 -0.215858686 0.0496800049 0.4961915062 0.0050153504 0.4960013575 0.0048561663 -0.2226676252 0.0447523995
35299790.0 -0.2099990422 0.0541005356 0.5010486344 0.0016294321 0.5014810409 0.0016979033 -0.2173204483 0.0486932159
40299760.0 -0.2044611141 0.0572327036 0.5062249434 -0.0020892277 0.5060483796 -0.0024166835 -0.2128055339 0.0520271471
45299730.0 -0.1995536615 0.0599726911 0.5110010292 -0.0070658596 0.5110627446 -0.0070590519 -0.2081004691 0.0545838627
50299700.0 -0.1946460798 0.0618856871 0.5148208354 -0.0123975863 0.5150456457 -0.01266616 -0.2034308753 0.0565424576
55299670.0 -0.1908168707 0.0638265028 0.5185464973 -0.0187135915 0.518749984 -0.018573017 -0.1999581745 0.0581249447
60299640.0 -0.1865540424 0.0650908087 0.5219277635 -0.0249976568 0.5219296036 -0.0247326982 -0.1963714921 0.0598294067
65299610.0 -0.18294323 0.0665155142 0.5252069464 -0.0308655035 0.5253233251 -0.0311425898 -0.193169726 0.0607581871
70299580.0 -0.1796057255 0.0670615248 0.5269362228 -0.0371433021 0.5270269546 -0.037661558 -0.1899954443 0.0615595727
75299550.0 -0.176400841 0.0682313174 0.5291655207 -0.0443712619 0.5291794189 -0.0447319256 -0.1873595468 0.0624243545
80299520.0 -0.1741840278 0.0690097068 0.5311832228 -0.0515379153 0.5312481839 -0.0512689819 -0.1849038963 0.062920858
85299490.0 -0.17153507 0.0695171675 0.5322906716 -0.0585737028 0.5323235115 -0.0582605867 -0.1824871215 0.0636950247
90299460.0 -0.1694095701 0.0702301159 0.5335583319 -0.0651707468 0.5338552274 -0.0648741123 -0.1804326375 0.0644135487
95299430.0 -0.1671858412 0.0711836676 0.5344168491 -0.0722275987 0.5344894171 -0.07183311 -0.178511699 0.0647306495
100299400.0 -0.1653644971 0.0718402015 0.5349247443 -0.0792560719 0.5345857412 -0.07926398 -0.1769884422 0.0653861171
105299370.0 -0.1633433605 0.0725847837 0.5351640357 -0.0859126972 0.5348080475 -0.086048625 -0.1749450274 0.0663781758
110299340.0 -0.1619062266 0.0729869449 0.5349211621 -0.092436548 0.5349411862 -0.0928422506 -0.1735039883 0.0666849981
115299310.0 -0.1602569705 0.0738305584 0.5348397706 -0.0995554548 0.5350023589 -0.0992323214 -0.1723687773 0.067118873
120299280.0 -0.1591523066 0.0744557004 0.5349809647 -0.1064391257 0.534878163 -0.1063229425 -0.1713518126 0.0680605316
125299250.0 -0.1577583883 0.075177774 0.5343484059 -0.1130353048 0.5346934819 -0.1133986172 -0.1698896968 0.0687340169
130299220.0 -0.1564268352 0.0761829853 0.5338784979 -0.1192746359 0.5340022802 -0.1198122468 -0.1687648173 0.0693804551
135299190.0 -0.15533895 0.0766594927 0.533205294 -0.1261937915 0.5330845917 -0.1265250135 -0.1679978953 0.0705488011
140299160.0 -0.1542476951 0.0781099891 0.5323990713 -0.1327279993 0.5327713413 -0.1332035699 -0.1669840677 0.0710512842
145299130.0 -0.1531667707 0.0787955741 0.5318769667 -0.1397429208 0.5312935902 -0.1394853722 -0.1661222895 0.0716652335
150299100.0 -0.1521867309 0.0797555159 0.5303844885 -0.146057615 0.5301144833 -0.146144575 -0.1650534694 0.0727495949
155299070.0 -0.1510225144 0.0814076586 0.5295708171 -0.152942472 0.52898799 -0.1528843514 -0.1644228852 0.0733804417
160299040.0 -0.1501071871 0.0817604563 0.5275976219 -0.1583435278 0.5275517285 -0.1593126559 -0.1633815266 0.0749714093
165299010.0 -0.1494895595 0.0831964358 0.5270493209 -0.1657175717 0.5264731595 -0.1658418877 -0.1626318635 0.0755331984
170298980.0 -0.148381578 0.0842310778 0.5243298691 -0.1717214714 0.5247826511 -0.1720056164 -0.1616677553 0.0764465804
175298950.0 -0.1472870171 0.0856290692 0.5236729443 -0.1777846411 0.5234491224 -0.1784474024 -0.1610408415 0.0775712695
180298920.0 -0.1463308244 0.086670244 0.5212678337 -0.1845987467 0.5216218135 -0.1844077625 -0.1602618182 0.0788859374
185298890.0 -0.1452114235 0.0877949821 0.5191026714 -0.1907783881 0.5197172397 -0.1904252442 -0.1599413316 0.0794908876
190298860.0 -0.1443272444 0.0890755108 0.5173535537 -0.1967840932 0.5177430235 -0.1967313897 -0.1583713985 0.0806968555
195298830.0 -0.1434977192 0.0901289325 0.5157575168 -0.2026742222 0.5158206339 -0.2030942057 -0.1575979849 0.0819095716
200298800.0 -0.1425896176 0.0915918114 0.513997933 -0.2085425265 0.5138979776 -0.2088299736 -0.1569643352 0.0831183761
205298770.0 -0.1418069704 0.0930639545 0.5118950784 -0.2149208739 0.5114193898 -0.2148158547 -0.1561714491 0.0841682229
210298740.0 -0.1410691556 0.0941158886 0.509820249 -0.2212081576 0.5094549075 -0.2213087915 -0.1555671337 0.085453583
215298710.0 -0.1399295892 0.0955574876 0.5072577504 -0.2267499777 0.5070026855 -0.2266010714 -0.1552563322 0.0868796888
220298680.0 -0.1389341702 0.0970454196 0.5047170793 -0.2329014521 0.5046916256 -0.2331260474 -0.1540868607 0.0882877922
225298650.0 -0.1376473071 0.0985209135 0.5017125901 -0.2384118203 0.5019801309 -0.2383165634 -0.1535664503 0.0893435091
230298620.0 -0.1370193914 0.0998591814 0.5000518525 -0.2442995585 0.4996556123 -0.2443154395 -0.1526979496 0.0908217388
235298590.0 -0.1357993137 0.100975879 0.4970371299 -0.2500233618 0.4971095174 -0.2504858899 -0.1519492949 0.0916237626
240298560.0 -0.1350159262 0.1024473319 0.4945859857 -0.2553097963 0.4942968976 -0.2554110277 -0.1510413997 0.0931488607
245298530.0 -0.1337355322 0.1039329434 0.4909911433 -0.2612360234 0.4912900447 -0.2616979164 -0.1500259769 0.094295702
250298500.0 -0.1331129816 0.1051983492 0.4884374934 -0.2664339241 0.4886126279 -0.2666263453 -0.1488099146 0.095860341
255298470.0 -0.1320734985 0.1067179248 0.4856232699 -0.2727533824 0.4856902263 -0.2728242642 -0.1485102782 0.0968632026
260298440.0 -0.1308974378 0.1080793067 0.4827508892 -0.2778419598 0.4828948133 -0.2781860261 -0.1467732579 0.0984720424
265298410.0 -0.129471566 0.1099920128 0.4796289487 -0.284331327 0.4794113188 -0.2838110849 -0.1467568074 0.0995747181
270298380.0 -0.1281311351 0.1111166043 0.476272094 -0.2893232824 0.4768816333 -0.2898697094 -0.145335701 0.1011688054
275298350.0 -0.1272372291 0.112441654 0.4736927644 -0.2946149763 0.4739677345 -0.2949033963 -0.144296044 0.102560604
280298320.0 -0.1260174237 0.1139768211 0.4699184574 -0.299699216 0.4702297747 -0.3001096136 -0.1433194632 0.1037262911
285298290.0 -0.1248393614 0.1155306462 0.4669891979 -0.30478726 0.4667532942 -0.3056331213 -0.1425925996 0.1049216324
290298260.0 -0.1237012794 0.1166498136 0.4637466325 -0.3105573457 0.4633988092 -0.3108590847 -0.1413750397 0.1067804859
295298230.0 -0.1223726992 0.1181068698 0.4605750271 -0.3161091521 0.4600244496 -0.3161157239 -0.1403762772 0.1079021244
300298200.0 -0.1208796816 0.1197220883 0.4570052437 -0.3213658314 0.4571821116 -0.3211510132 -0.1393410656 0.1094828748
305298170.0 -0.1198150674 0.1208013008 0.4535059698 -0.3265099664 0.453772042 -0.3267402206 -0.1377776582 0.1110035945
310298140.0 -0.1181900524 0.1217088531 0.4500669937 -0.3315154731 0.4501171855 -0.3319031564 -0.1369401296 0.1124081494
315298110.0 -0.1171479699 0.1230137519 0.4459097554 -0.3368544163 0.4461879432 -0.3370626681 -0.1356592221 0.1133523192
320298080.0 -0.1159298126 0.1247548981 0.4427126961 -0.3420412699 0.4428654705 -0.3418398516 -0.1349380286 0.1143847001
325298050.0 -0.1146720496 0.1256913392 0.4388917416 -0.347330333 0.4392588414 -0.3473093358 -0.1337932982 0.1157521433
330298020.0 -0.1134459963 0.127025892 0.4346268582 -0.3521179334 0.4347041591 -0.3525426636 -0.1329989611 0.1171109802
335297990.0 -0.1121018313 0.1281614414 0.4306991336 -0.3570123478 0.4309334315 -0.3571025375 -0.1321078646 0.1185755609
340297960.0 -0.1113226046 0.129809309 0.4264714014 -0.3615919536 0.4264872135 -0.361623826 -0.1312312942 0.1200244358
345297930.0 -0.1101521038 0.1311275237 0.4226663548 -0.3660840787 0.4221429298 -0.3662263085 -0.1297836796 0.121383233
350297900.0 -0.1083404504 0.1324680471 0.4182383541 -0.3705695573 0.4185753968 -0.371071785 -0.1289598028 0.1227539287
355297870.0 -0.1070974565 0.1335154049 0.4141883661 -0.3752163256 0.4141109445 -0.3758383386 -0.128170467 0.1244538733
360297840.0 -0.1056058491 0.1350188517 0.4099516636 -0.3803552183 0.4101320134 -0.3801602845 -0.1263925036 0.1257343073
365297810.0 -0.1041157047 0.1362316108 0.405647311 -0.3845000564 0.405998903 -0.3848042579 -0.1257269813 0.1275752282
370297780.0 -0.1024270859 0.1375217842 0.4013125594 -0.3889768861 0.4017680567 -0.3894726571 -0.1244378506 0.128631674
375297750.0 -0.1010850736 0.1393064648 0.3975541085 -0.3934179473 0.3972748543 -0.3936408534 -0.123056611 0.1301955317
380297720.0 -0.0996858817 0.1400403813 0.3930332876 -0.3978863666 0.3932316419 -0.3976574734 -0.1218935174 0.1317585736
385297690.0 -0.0982754291 0.1417082636 0.389000015 -0.4018638437 0.3883072236 -0.4020749645 -0.1206111506 0.1331840919
390297660.0 -0.0966817262 0.1427125149 0.3841535143 -0.4066356159 0.3841155741 -0.4064719392 -0.1193813515 0.1337920244
395297630.0 -0.0949081866 0.1439771595 0.3798964022 -0.410278354 0.3795608231 -0.4106449781 -0.1179047949 0.1362373434
400297600.0 -0.0935168912 0.1454222553 0.3746623865 -0.4149518885 0.3754961738 -0.4148098636 -0.1171647487 0.1368272176
405297570.0 -0.0917065797 0.1466161362 0.3705238375 -0.4187403451 0.3708281758 -0.418865588 -0.115730232 0.1384433713
410297540.0 -0.0900790343 0.1474584611 0.3656187166 -0.4226007234 0.3657585962 -0.4228574486 -0.1146104263 0.1397796754
415297510.0 -0.0883754169 0.149065425 0.3613437581 -0.4266345916 0.3613868999 -0.4266112366 -0.1131430637 0.1413814707
420297480.0 -0.0868164419 0.1498051042 0.3564161771 -0.4307640381 0.3565745086 -0.4304290076 -0.1113548424 0.14196184
425297450.0 -0.0848734957 0.1507353895 0.3517307581 -0.4344964062 0.3518983202 -0.4344571251 -0.1102840311 0.1441442009
430297420.0 -0.0835506893 0.1522458558 0.3468873271 -0.4386503663 0.34723647 -0.4384659301 -0.1089283112 0.1448391033
435297390.0 -0.0816566657 0.1529483323 0.3422290167 -0.4419150118 0.3420032101 -0.4418397827 -0.1075037199 0.1465919956
440297360.0 -0.0799562783 0.1538826232 0.337386559 -0.445630586 0.337173853 -0.4456889903 -0.1062486061 0.147094139
445297330.0 -0.0780237054 0.1549779782 0.3321305536 -0.4498568478 0.3322106971 -0.44966406 -0.1049863594 0.1484398953
450297300.0 -0.0764064911 0.1561833797 0.3273327788 -0.4531310504 0.3272897943 -0.4532193995 -0.1035546767 0.1497730459
455297270.0 -0.0749439124 0.1569223439 0.3226221953 -0.4567281317 0.3227313642 -0.4564924828 -0.1018011419 0.1508330467
460297240.0 -0.0731271856 0.1581393992 0.3176187927 -0.4601357378 0.3172466404 -0.4599620222 -0.1004111703 0.152534123
465297210.0 -0.0711232662 0.1587598442 0.312248255 -0.4635011949 0.312874258 -0.4634273269 -0.0996871009 0.1535075034
470297180.0 -0.0696442852 0.1598283443 0.3074078572 -0.4668125798 0.3077721691 -0.466642154 -0.0981923522 0.1547853315
475297150.0 -0.0679162271 0.1603531687 0.301992013 -0.4698730524 0.3023808574 -0.4696197318 -0.0962571257 0.1557314597
480297120.0 -0.065885935 0.1612164713 0.2970274861 -0.4730131002 0.2973452653 -0.4734581123 -0.0952482793 0.1572226921
485297090.0 -0.0640581593 0.1622425588 0.2920672685 -0.4765097671 0.2922389244 -0.4765189544 -0.093831705 0.1578334087
490297060.0 -0.0619961165 0.1629782044 0.286750877 -0.4796586732 0.2869839495 -0.4797086113 -0.0921689898 0.1593770608
495297030.0 -0.0605158787 0.164059214 0.2813808633 -0.4827889543 0.2812571332 -0.4826713409 -0.0906320511 0.160191005
500297000.0 -0.0582801904 0.1646300356 0.2759201205 -0.4856153253 0.2760742004 -0.4858324793 -0.0894126299 0.161505796
505296970.0 -0.0568911963 0.1653092454 0.2705191243 -0.4879519346 0.2705264567 -0.488625627 -0.0883835484 0.1626125872
510296940.0 -0.0548657855 0.166459387 0.2652058873 -0.4918884513 0.2655696925 -0.4915950018 -0.0859907115 0.163716394
515296910.0 -0.0532673406 0.1671219275 0.2601248462 -0.4942144563 0.2601941505 -0.4943739845 -0.0849400005 0.1642755187
520296880.0 -0.0513262503 0.1676869124 0.2545267925 -0.4970752668 0.2550555533 -0.4969342896 -0.0831848728 0.1653167393
525296850.0 -0.0494457986 0.1682211275 0.2493013697 -0.4999915047 0.2494793261 -0.499884487 -0.081380619 0.1664165047
530296820.0 -0.0474600396 0.168962839 0.2439907898 -0.5019587489 0.2440625184 -0.5020482765 -0.0804903025 0.1670784347
535296790.0 -0.0457291987 0.1697484643 0.2386889092 -0.5049528187 0.238785097 -0.5048716359 -0.0786962863 0.1682572904
540296760.0 -0.043962673 0.1700529829 0.2331018799 -0.5074044487 0.2327476478 -0.5074047402 -0.077073064 0.1694263305
545296730.0 -0.0418740226 0.1710544357 0.2272389444 -0.5099384653 0.227339457 -0.5099409756 -0.0753326762 0.1697614091
550296700.0 -0.0401261936 0.1714746494 0.2223751801 -0.5121578469 0.2224630469 -0.5126662929 -0.0740839575 0.1714230131
555296670.0 -0.0377261556 0.1718349785 0.2161691593 -0.5146848485 0.2163372841 -0.5147978436 -0.0723139407 0.1721041043
560296640.0 -0.0359850235 0.1724606772 0.2110102363 -0.5172100628 0.2109259756 -0.516740207 -0.070627937 0.1727659487
565296610.0 -0.0344748705 0.1729344274 0.2050516156 -0.5192531016 0.2049962575 -0.5191462732 -0.0691980088 0.1735316943
570296580.0 -0.0321317997 0.173655372 0.1990014004 -0.5211138119 0.1998128753 -0.5216592533 -0.0674066 0.1751926724
575296550.0 -0.0302762958 0.1742232497 0.1937476056 -0.5229967285 0.1939990662 -0.5233325465 -0.0654905501 0.1752453903
580296520.0 -0.0284055809 0.1746043799 0.1886545144 -0.52529487 0.1878710753 -0.5257389871 -0.0639470177 0.1761496841
585296490.0 -0.0264705683 0.1749041831 0.1829081097 -0.5276763285 0.1825561959 -0.527392778 -0.0626076383 0.1766622075
590296460.0 -0.0250523066 0.1751941232 0.1767315037 -0.5295668079 0.17679584 -0.5292064107 -0.0606293703 0.1778104698
595296430.0 -0.0227537331 0.1760509072 0.1709086153 -0.5316418448 0.17085359 -0.5315821407 -0.0588519297 0.1780758477
600296400.0 -0.0206584497 0.1763270207 0.1655891026 -0.5330207844 0.1654740805 -0.5332776059 -0.0573330636 0.1792260283
605296370.0 -0.0186595019 0.1766680578 0.1593573169 -0.5349526112 0.1596175887 -0.5347962858 -0.055713565 0.1798819283
610296340.0 -0.0168067721 0.1770130555 0.1544067418 -0.5364226608 0.1540583068 -0.5369958905 -0.0539239457 0.1811671111
615296310.0 -0.0149208944 0.1774001243 0.1473895962 -0.5377550145 0.1477676122 -0.5381460187 -0.0522864756 0.1812897912
620296280.0 -0.0128154285 0.1777694963 0.142279496 -0.5394686894 0.1422339365 -0.5392031342 -0.0507127819 0.1813006503
625296250.0 -0.0106336562 0.1779600722 0.135921546 -0.541129513 0.1361198122 -0.5412853937 -0.0487792009 0.1825586191
630296220.0 -0.0088255272 0.1783058919 0.1300904153 -0.5427518648 0.1306689469 -0.5426549686 -0.0474643194 0.1831722738
635296190.0 -0.0068366477 0.1785488445 0.1245134117 -0.5432812782 0.1246270672 -0.5433306009 -0.0457757995 0.1832832237
640296160.0 -0.0048672731 0.1788357858 0.1189257274 -0.545009613 0.1186899418 -0.5451232747 -0.0435652437 0.1840803118
645296130.0 -0.0031535686 0.179161302 0.1126469192 -0.5464888016 0.1126620662 -0.5464519123 -0.0422791151 0.1844497812
650296100.0 -0.0012214904 0.1793798465 0.1072168018 -0.5471583965 0.10710008 -0.5474840071 -0.0402613494 0.1854040174
655296070.0 0.0010317501 0.1793169767 0.100897591 -0.5485515194 0.1007884591 -0.5482972579 -0.0378994988 0.1858014264
660296040.0 0.002648562 0.1798993131 0.0953994338 -0.5491288228 0.0952751725 -0.5492823882 -0.0367092358 0.1861256375
665296010.0 0.0050207716 0.1796147741 0.0891194757 -0.5501428578 0.0895763204 -0.5503453352 -0.0350475083 0.1870026776
670295980.0 0.007273967 0.1799837734 0.0833162611 -0.5515743938 0.0838721634 -0.551062552 -0.033588648 0.1872190976
675295950.0 0.0092536558 0.1798732284 0.0771244434 -0.5522252803 0.0776621996 -0.5527144965 -0.0313990371 0.1878910202
680295920.0 0.0109097668 0.1799376145 0.0712797446 -0.5526527468 0.0712052941 -0.5533081792 -0.0294588475 0.1883573502
685295890.0 0.013162992 0.1799522482 0.0658744532 -0.5537294045 0.064938861 -0.5540633748 -0.0275435777 0.1888628237
690295860.0 0.0153038817 0.1799714014 0.0597996992 -0.554068113 0.0592468413 -0.5540529583 -0.0257001083 0.1891859651
695295830.0 0.0173587062 0.1797757107 0.0529079973 -0.5549473107 0.053326663 -0.5545547691 -0.0243000763 0.1896903727
700295800.0 0.0196132803 0.179749868 0.0470393432 -0.5553570038 0.0472973839 -0.5556703967 -0.0221458976 0.1896890998
705295770.0 0.0216635712 0.179826992 0.0413518941 -0.5557086683 0.0415184445 -0.5556935249 -0.0204032308 0.1900167079
710295740.0 0.0235144118 0.1796638264 0.0353810275 -0.5559381423 0.0352401862 -0.5560489539 -0.0194906642 0.1905955146
715295710.0 0.0249693805 0.1795010054 0.0292485995 -0.5564363306 0.0296829751 -0.5568120138 -0.016887162 0.190736967
720295680.0 0.0272834997 0.1793107218 0.0229286961 -0.5566604841 0.023400645 -0.5568077046 -0.0149175234 0.1911707313
725295650.0 0.0295675269 0.1792815071 0.0168161596 -0.5568680471 0.0171981618 -0.5569277905 -0.0132150654 0.1918561257
730295620.0 0.0312198405 0.1787210492 0.0110375206 -0.5571972583 0.0113779402 -0.5571974351 -0.0112716567 0.1915453207
735295590.0 0.033661183 0.1787218441 0.0056309115 -0.5569264919 0.0055631496 -0.557096649 -0.0094866205 0.1920878435
740295560.0 0.0355272037 0.178917456 -0.0005742848 -0.5567734063 -0.0006826464 -0.5572226694 -0.0073271218 0.1920994637
745295530.0 0.0374400229 0.178321444 -0.0065562975 -0.5569187552 -0.0065466548 -0.5575350683 -0.0061385125 0.192897398
750295500.0 0.0393024799 0.1778667868 -0.0124388252 -0.5564556184 -0.0125863819 -0.5566684506 -0.003887098 0.1922341712
755295470.0 0.041878557 0.1780415785 -0.0184167103 -0.5564745182 -0.0181572064 -0.5568637951 -0.0024835911 0.1928942007
760295440.0 0.0435004552 0.177780324 -0.0245468367 -0.556332066 -0.0243783891 -0.5563971574 -0.0006033229 0.1927108922
765295410.0 0.045226405 0.1771597753 -0.030362419 -0.5557311817 -0.0303595456 -0.5562184392 0.0020047306 0.1936106582
770295380.0 0.0477226656 0.1769831787 -0.0365856934 -0.5552810223 -0.0366743464 -0.5559931956 0.0039358295 0.1935091119
775295350.0 0.0494208017 0.1766666872 -0.0421809272 -0.5546166462 -0.0422746191 -0.5552957247 0.0050223019 0.1930425532
780295320.0 0.0515872727 0.1760056286 -0.0484376604 -0.5550440039 -0.0482941938 -0.5546740748 0.0072829348 0.1939307604
785295290.0 0.0532740328 0.1759284281 -0.0545005564 -0.5534631084 -0.0539990698 -0.5542517062 0.0087374495 0.1933995763
790295260.0 0.0552760302 0.1754803065 -0.0603972636 -0.5533375919 -0.0605535613 -0.5536021649 0.0109093881 0.1936033323
795295230.0 0.0573414099 0.1750729702 -0.0658574346 -0.5523565228 -0.0661033841 -0.5527820123 0.0127060622 0.194286273
800295200.0 0.0594653162 0.1747356984 -0.0723388125 -0.5522865267 -0.0727499901 -0.5521880525 0.0146629921 0.193783234
805295170.0 0.061141701 0.1739941804 -0.077762862 -0.5504388059 -0.0784298552 -0.5510776451 0.0162195509 0.1935560297
810295140.0 0.063410163 0.1736650921 -0.0842069052 -0.5500438469 -0.0840437794 -0.5504367138 0.0182659413 0.1940819928
815295110.0 0.065129998 0.1729351653 -0.0902859123 -0.549049994 -0.0901230898 -0.5493452792 0.0198044524 0.193567573
820295080.0 0.0672284347 0.172101651 -0.0959697737 -0.5481229275 -0.0959437317 -0.5485203502 0.0217940238 0.1936331987
825295050.0 0.0690418771 0.1717764949 -0.1013580409 -0.546802351 -0.1018347905 -0.5473802378 0.0238817214 0.1939885357
830295020.0 0.07093403 0.1712485262 -0.1075697977 -0.5456306638 -0.107966005 -0.5460711649 0.0255282622 0.1934601922
