!Created with skrf (http://scikit-rf.org).
# Hz S RI R 50.0 
!freq ReS11 ImS11 ReS21 ImS21 ReS12 ImS12 ReS22 ImS22
300000.0 -0.3188066774 -0.1061121392 0.372882162 0.0539170971 0.3723554876 0.0578196887 -0.3143820012 -0.1171522833
5299970.0 -0.323983836 0.0044483304 0.3787243357 0.0029881704 0.3785840418 0.0032297789 -0.3259782452 0.0027325529
10299940.0 -0.3210520863 0.0154806898 0.3798189797 0.0023685173 0.3797507719 0.0023466093 -0.3240541078 0.0125623203
15299910.0 -0.3180365477 0.0235968353 0.382024183 0.0023259724 0.3817367543 0.0022436557 -0.32123369 0.020146151
20299880.0 -0.3145675106 0.0303404252 0.3849052932 0.0015399971 0.3852547264 0.0016482935 -0.3185296833 0.0260930474
25299850.0 -0.310728798 0.0356353689 0.3884782828 -0.0002081818 0.3886063995 0.000161104 -0.3156058465 0.0312210805
30299820.0 -0.3067947744 0.0404524655 0.3921920159 -0.0021667411 0.3917126233 -0.0019082957 -0.312911581 0.0355409741
35299790.0 -0.3028582263 0.0448849296 0.3950739852 -0.0053569173 0.3952985435 -0.0053349097 -0.3094488377 0.0398795768
40299760.0 -0.2993720246 0.0481285216 0.3981158841 -0.0085355407 0.3984312796 -0.0087207487 -0.3070100499 0.0432098665
45299730.0 -0.2964494425 0.0514538723 0.4012225219 -0.012844128 0.4012930231 -0.0127274812 -0.3045702021 0.046226838
50299700.0 -0.2932151199 0.0539532642 0.4033321616 -0.0171942975 0.4035544514 -0.0172109773 -0.3019283058 0.0493175711
55299670.0 -0.2906802383 0.0569475551 0.4050943337 -0.0222507968 0.4059827107 -0.0222041026 -0.3002591579 0.052074398
60299640.0 -0.2882105427 0.0587994439 0.407639146 -0.0269816269 0.4076843332 -0.0269177381 -0.2980618453 0.0544749968
65299610.0 -0.2860378938 0.0614364689 0.4096489443 -0.031602226 0.4095394032 -0.0317022063 -0.2961552101 0.0572689577
70299580.0 -0.2838975106 0.0634014437 0.4104362446 -0.0367899924 0.41042614 -0.0366685331 -0.2943395795 0.05951166
75299550.0 -0.2819312753 0.0661378059 0.4115823026 -0.0419830326 0.4119138741 -0.0423355389 -0.2928958704 0.0622662538
80299520.0 -0.280294028 0.0680013572 0.412809122 -0.0472667141 0.4127476 -0.0474201475 -0.2916386865 0.0641627542
85299490.0 -0.2786714435 0.069839771 0.4132128525 -0.0526524223 0.4130030828 -0.052551957 -0.2902751534 0.0666837635
90299460.0 -0.2770610502 0.0720207907 0.4135850646 -0.0575158159 0.4133782939 -0.0579124517 -0.2887340086 0.0687499392
95299430.0 -0.2755399373 0.0744880326 0.4140531054 -0.0634850809 0.4141741512 -0.0633564787 -0.2875296647 0.0714119761
100299400.0 -0.2744987705 0.0765357535 0.4138375032 -0.0685305579 0.4135643548 -0.068691602 -0.2864601817 0.0733176201
105299370.0 -0.2728992845 0.0784318362 0.4133816122 -0.0733934609 0.4137415221 -0.0734352133 -0.2849747202 0.0759180144
110299340.0 -0.2719666711 0.0805286134 0.4135564811 -0.0784864287 0.4133530954 -0.0788353565 -0.2841711252 0.07819938
115299310.0 -0.2707074614 0.082523518 0.4129196038 -0.0833188378 0.4135213173 -0.0836492616 -0.2832513401 0.0804085753
120299280.0 -0.2700583467 0.0848307667 0.4131617516 -0.0887901505 0.4129730939 -0.0886694417 -0.282690212 0.0824913146
125299250.0 -0.2687690499 0.0866106629 0.4121377818 -0.0940426433 0.4122567788 -0.0939567281 -0.2812488839 0.0848205226
130299220.0 -0.2675446326 0.0891488567 0.4114940739 -0.0988924178 0.411363999 -0.0990591429 -0.2807017736 0.0876804056
135299190.0 -0.2666404777 0.0911630117 0.4106853885 -0.1036049662 0.4108433665 -0.1040763971 -0.2800399322 0.0898215921
140299160.0 -0.2660736787 0.0937359095 0.4101010545 -0.1089952933 0.4102840243 -0.1091965889 -0.2789396808 0.0923015915
145299130.0 -0.2647824776 0.0959607944 0.4095700493 -0.1139840854 0.4091596056 -0.1138614237 -0.2780401026 0.0946245421
150299100.0 -0.2637367377 0.098110247 0.4082864964 -0.119208525 0.4084220638 -0.1191385643 -0.2773579453 0.0970245607
155299070.0 -0.2627678597 0.1011542225 0.4069159644 -0.124226525 0.4074020929 -0.1241784456 -0.2768170221 0.0995483
160299040.0 -0.2617016081 0.1029831156 0.4057602049 -0.1284414579 0.4058196392 -0.1289864983 -0.2751617945 0.102338194
165299010.0 -0.2612793522 0.1055956187 0.4049480328 -0.1335908383 0.4048004716 -0.1338695041 -0.2743905702 0.1046117473
170298980.0 -0.2603197339 0.1079783699 0.4028332785 -0.1385233019 0.4032730235 -0.1384454741 -0.2733688519 0.1072668751
175298950.0 -0.2589325787 0.1104697948 0.4020440361 -0.1432379711 0.4020630911 -0.1431465164 -0.2722240929 0.1092867485
180298920.0 -0.2578018795 0.1126339931 0.4006271337 -0.1481186301 0.400591025 -0.1477198744 -0.2711014469 0.1124580295
185298890.0 -0.2569952999 0.1154227906 0.3985848109 -0.152728737 0.3990080677 -0.1524298272 -0.2706010721 0.1146642027
190298860.0 -0.2558836519 0.1178686476 0.3971426009 -0.1572440702 0.3973513246 -0.157711658 -0.2687625439 0.1176211808
195298830.0 -0.2545433021 0.1199271536 0.3957269861 -0.1614303907 0.3956620999 -0.1623529411 -0.2680646409 0.1200185779
200298800.0 -0.2536824396 0.1228904092 0.39425216 -0.1663153132 0.3938079656 -0.1663691572 -0.2667010163 0.1229257196
205298770.0 -0.2527321221 0.1251239739 0.3923447639 -0.1710797223 0.3923138843 -0.1708999436 -0.2655011704 0.1251514961
210298740.0 -0.2513910487 0.127899961 0.390558586 -0.1756332404 0.3905978934 -0.1757233985 -0.2642357133 0.1278528331
215298710.0 -0.2502750131 0.1304412351 0.3886066942 -0.1802263829 0.3884731696 -0.1802636227 -0.2637284517 0.1306610188
220298680.0 -0.249319936 0.133032647 0.3864465577 -0.1847637496 0.3867977591 -0.1845422269 -0.2620819283 0.1335253245
225298650.0 -0.2478935563 0.1357610399 0.3842776124 -0.1890238983 0.3842891024 -0.1890097302 -0.2610626528 0.1361120293
230298620.0 -0.246606647 0.1383088976 0.3825819842 -0.193293028 0.3827066894 -0.1936645817 -0.259782832 0.1386930793
235298590.0 -0.2451268309 0.1406329074 0.379889881 -0.1976192224 0.3805455391 -0.1978859752 -0.2583475785 0.1412698536
240298560.0 -0.2442345833 0.1433275396 0.3787912768 -0.20189726 0.37822034 -0.2019859638 -0.2569665029 0.1443098964
245298530.0 -0.2423833403 0.1457677202 0.3751172085 -0.2064895338 0.3761337779 -0.2067035349 -0.2556785914 0.1469282158
250298500.0 -0.2415158976 0.1483439637 0.373250408 -0.2103088144 0.3737565659 -0.2103592631 -0.2537554913 0.1496987219
255298470.0 -0.2399566858 0.1510164584 0.3713980341 -0.2151341706 0.3715359674 -0.2149873615 -0.2527569723 0.1521492922
260298440.0 -0.238536945 0.1536036344 0.3691194194 -0.2193018842 0.3689145423 -0.21935605 -0.250938943 0.1549397394
265298410.0 -0.2370855396 0.1560871275 0.3664150827 -0.2236021507 0.3664679128 -0.2234925556 -0.2498724693 0.1575730555
270298380.0 -0.2353235151 0.15851712 0.3635480807 -0.2273134517 0.3643855823 -0.2276638231 -0.2477293683 0.1604097638
275298350.0 -0.234158614 0.1613779521 0.3615238481 -0.2318592388 0.3616459301 -0.2318046251 -0.2461106298 0.1631505839
280298320.0 -0.2325925826 0.1636738823 0.359194185 -0.2357423103 0.3588710731 -0.2359053529 -0.2444581495 0.1658651981
285298290.0 -0.2308335475 0.1666966268 0.3563013088 -0.2398915023 0.3564602758 -0.2399236053 -0.2430555308 0.1683992034
290298260.0 -0.2291888575 0.1688060811 0.3540096847 -0.2436883596 0.3539022893 -0.243979706 -0.2410201077 0.1713755658
295298230.0 -0.2274194158 0.1715334441 0.3513791964 -0.2481155277 0.3507743103 -0.2482570014 -0.2392613213 0.1737987064
300298200.0 -0.2256057914 0.1739425238 0.3481594299 -0.2519130868 0.3483899488 -0.2522145982 -0.2377703993 0.176765365
305298170.0 -0.2237850819 0.1761635979 0.3459797333 -0.2561741564 0.3461227969 -0.2557113103 -0.2358011904 0.1792254906
310298140.0 -0.2220762552 0.1786696274 0.3427742052 -0.2598547156 0.3427869444 -0.26020749 -0.2338836752 0.1821287875
315298110.0 -0.2204892341 0.1812023469 0.3399295712 -0.2638663235 0.3404070545 -0.2640998798 -0.2315860447 0.1842659488
320298080.0 -0.2186230793 0.183317264 0.3371610509 -0.2676081194 0.3371281919 -0.2678488503 -0.2301843685 0.1867877228
325298050.0 -0.2169236042 0.1854959911 0.3339834355 -0.2718094649 0.3340558578 -0.271755785 -0.2279228813 0.1894113224
330298020.0 -0.2154456394 0.1881322715 0.3306904892 -0.2751802317 0.3307306002 -0.2753299834 -0.2262653731 0.1920184173
335297990.0 -0.2134848532 0.1903849908 0.3277062418 -0.2790677966 0.3277278801 -0.2788944274 -0.2245075385 0.1943072161
340297960.0 -0.2116158366 0.1927830652 0.3242438312 -0.2825887113 0.3246292266 -0.2827182622 -0.222371663 0.1970299201
345297930.0 -0.210212921 0.195334744 0.3212804605 -0.286034172 0.3211793916 -0.2860355439 -0.2203763614 0.1995344553
350297900.0 -0.2077820795 0.1977875096 0.3178363216 -0.2895367425 0.3181311895 -0.2896488581 -0.2186744221 0.2022743354
355297870.0 -0.2059401036 0.2002969844 0.3149601538 -0.2934089678 0.3149245603 -0.2932448848 -0.2165772815 0.2047583916
360297840.0 -0.2037968632 0.2026251878 0.3114569133 -0.2969890168 0.3112879451 -0.2965910586 -0.2145249179 0.2071004148
365297810.0 -0.2018232752 0.2045008618 0.3078798104 -0.3000342844 0.3081260613 -0.3000329766 -0.212502139 0.2101257061
370297780.0 -0.1996004345 0.2068504654 0.3047152764 -0.3033400768 0.3047726552 -0.3039177636 -0.2103404455 0.2123120883
375297750.0 -0.1976176042 0.2094870117 0.3014381806 -0.3067485149 0.3014328147 -0.3069788755 -0.2080388558 0.2149671264
380297720.0 -0.1952019672 0.211347944 0.2978956793 -0.3096714064 0.2980308378 -0.3099081407 -0.2056820541 0.2176952495
385297690.0 -0.1927903356 0.213908366 0.2940670398 -0.3131076608 0.2946498867 -0.3133792918 -0.2036461915 0.2202333864
390297660.0 -0.1909516615 0.2157895951 0.2908653453 -0.3167627198 0.2908634647 -0.316769062 -0.2014101253 0.2216646427
395297630.0 -0.1887242434 0.2180648479 0.2875412487 -0.3194986585 0.2874287502 -0.3196905429 -0.1989123854 0.2247237788
400297600.0 -0.1864519649 0.2202883781 0.2839878127 -0.3228796952 0.2839689996 -0.322735719 -0.1974149363 0.226807503
405297570.0 -0.1841456486 0.2225987159 0.2803749202 -0.3259709605 0.2804948251 -0.326236853 -0.1945946491 0.2293113954
410297540.0 -0.1814999066 0.2245687656 0.2761165473 -0.3290096613 0.2765113894 -0.3289738087 -0.1921082361 0.2314418031
415297510.0 -0.1793754748 0.2269504128 0.2731718695 -0.332236426 0.2733461826 -0.3318724895 -0.1901907987 0.234187924
420297480.0 -0.1773197108 0.2287533766 0.2692577055 -0.3353876824 0.2692656945 -0.3347881681 -0.1875378534 0.2356365439
425297450.0 -0.1743814638 0.2306427608 0.265204707 -0.3380890068 0.2658781706 -0.3380595766 -0.1852016321 0.238542555
430297420.0 -0.1724381433 0.2327181114 0.2616117109 -0.3409192297 0.2619565184 -0.3404913505 -0.1825699487 0.2402594308
435297390.0 -0.1695745526 0.2348643478 0.2580637838 -0.3435458753 0.2583144281 -0.3432942921 -0.1803473623 0.2425681109
440297360.0 -0.1675829866 0.2368396236 0.2544885492 -0.3464479905 0.2540858984 -0.3463355391 -0.1776664211 0.2444039327
445297330.0 -0.1647678435 0.2386375923 0.2499542237 -0.3493613505 0.2504203916 -0.3489780922 -0.1751990675 0.2465586996
450297300.0 -0.162425852 0.2400866827 0.246189873 -0.3516012517 0.2468360205 -0.3520383201 -0.1729253578 0.2487361872
455297270.0 -0.159897462 0.2422316263 0.2429372 -0.3544899723 0.2429407783 -0.3544001952 -0.1699867056 0.2507416223
460297240.0 -0.1575321848 0.2440478042 0.2389425594 -0.3568004315 0.2384173745 -0.3572745412 -0.1672950105 0.2532732375
465297210.0 -0.1544840699 0.2459456906 0.2347999894 -0.3595468424 0.2350588234 -0.3595872519 -0.1651927606 0.2546327468
470297180.0 -0.1520958684 0.2477458985 0.231119138 -0.3620263078 0.2314995934 -0.3619516384 -0.1629913192 0.2566469476
475297150.0 -0.1494020983 0.2493625384 0.2268458794 -0.364280394 0.2270445606 -0.36403172 -0.1597106837 0.2583234892
480297120.0 -0.146844143 0.2510290966 0.2227532327 -0.3670373779 0.2231292005 -0.3667734643 -0.1572240237 0.2606594849
485297090.0 -0.1443906679 0.2527827452 0.2191553864 -0.3690928083 0.2189964218 -0.3692226618 -0.1548117809 0.2621924989
490297060.0 -0.1415074909 0.2542340103 0.2146843059 -0.3716019591 0.2148282969 -0.3715853971 -0.1517507741 0.2639970813
495297030.0 -0.1392043904 0.2562493504 0.2109061328 -0.3740640107 0.2104826527 -0.3741279007 -0.1492751673 0.2656315137
500297000.0 -0.1360991569 0.2574473348 0.2063245586 -0.3762625629 0.2068142795 -0.3761095217 -0.1467720205 0.2675765319
505296970.0 -0.1335795315 0.2592448877 0.2019518448 -0.378100176 0.2025872468 -0.3781413489 -0.1442824329 0.2692110795
510296940.0 -0.1306774551 0.2608784613 0.1982935057 -0.3806048952 0.1984004205 -0.3805438059 -0.1407788579 0.2713066489
515296910.0 -0.1284477136 0.2624073907 0.1936236837 -0.3822135876 0.1941131586 -0.3827095469 -0.1379017309 0.2729661498
520296880.0 -0.1252658394 0.2639607622 0.1900508699 -0.3847568139 0.1898012456 -0.3845182042 -0.1353948885 0.2743247225
525296850.0 -0.1227767552 0.2653162801 0.1856609073 -0.3865371946 0.1858220781 -0.3866430247 -0.1322850078 0.2759431475
530296820.0 -0.119813905 0.2665873225 0.1818018772 -0.3880758695 0.1814294606 -0.3884968961 -0.1299806579 0.2772797022
535296790.0 -0.1167153206 0.2681840582 0.1767963073 -0.390170701 0.1772218036 -0.3902351036 -0.1271057147 0.2787547725
540296760.0 -0.1143562821 0.2691644826 0.1729736008 -0.3924039945 0.1727437607 -0.3925393364 -0.124224324 0.2807533518
545296730.0 -0.1113062773 0.2707995724 0.1682684924 -0.3940315086 0.1688142899 -0.3940167456 -0.1212633718 0.2814536258
550296700.0 -0.1088094985 0.2722174061 0.1644338159 -0.3957911532 0.1647520339 -0.3962303821 -0.1184045539 0.2832678665
555296670.0 -0.1053422224 0.2734901157 0.159958536 -0.3977525934 0.1599657639 -0.3975077613 -0.1154462778 0.2848807614
560296640.0 -0.102762408 0.2746908813 0.1555222154 -0.3992571768 0.1560918279 -0.3992489688 -0.1124496005 0.2864485347
565296610.0 -0.1003351362 0.2759139017 0.1514478329 -0.400860021 0.1511323674 -0.4007741937 -0.1092903779 0.2875034091
570296580.0 -0.0968196472 0.2769800604 0.1466615523 -0.4023881636 0.1472080127 -0.4026485891 -0.1065015103 0.2891274155
575296550.0 -0.0938968127 0.2782133882 0.1423004832 -0.4036983376 0.1429150303 -0.4039018378 -0.1032732684 0.2902279366
580296520.0 -0.0911545868 0.2794481699 0.1380945797 -0.4052629158 0.1384312494 -0.4055702306 -0.1006980934 0.2916171968
585296490.0 -0.0881029879 0.28012768 0.1340657939 -0.4066243748 0.1338733213 -0.4069276206 -0.0976540672 0.2922489239
590296460.0 -0.0853480672 0.281446821 0.1291524867 -0.4081926547 0.1290239357 -0.4084562409 -0.0941550056 0.2934790708
595296430.0 -0.0824004255 0.2827907009 0.125141154 -0.4095169468 0.124793928 -0.4100056153 -0.0914477509 0.2946390377
600296400.0 -0.0792588407 0.2837477037 0.1204682597 -0.4109215768 0.1206304021 -0.4110465942 -0.0882627815 0.2962467311
605296370.0 -0.0763393112 0.2846739305 0.1158677213 -0.4120119329 0.1161364574 -0.411927652 -0.0854385303 0.297362721
610296340.0 -0.0734976694 0.2854915819 0.1115556258 -0.4131695074 0.1117291945 -0.4138653303 -0.081990202 0.2986511589
615296310.0 -0.0701879839 0.2866051774 0.106674914 -0.4144880803 0.1067126742 -0.414517304 -0.0792335137 0.2989652593
620296280.0 -0.0673637688 0.2872550814 0.1031402966 -0.4151758355 0.1025581865 -0.4158363792 -0.0760963782 0.3001092086
625296250.0 -0.0641840599 0.2883410675 0.097528815 -0.4169063425 0.0977907724 -0.4166177036 -0.0730005332 0.3011937428
630296220.0 -0.0608766236 0.2890892349 0.0932794592 -0.417639863 0.0936259924 -0.4176910547 -0.0700066435 0.302300288
635296190.0 -0.0582928257 0.2899798871 0.0887552708 -0.418575253 0.0888636807 -0.4180727604 -0.066915756 0.3026870621
640296160.0 -0.0548200226 0.2901976495 0.0842795699 -0.4192868427 0.0841458257 -0.4195052832 -0.0634254753 0.3037067
645296130.0 -0.0519488527 0.2916571396 0.0796271974 -0.4204279931 0.0796198641 -0.4203096546 -0.0608746283 0.3043386862
650296100.0 -0.0491527074 0.2925569285 0.0754247763 -0.4211993976 0.0754646446 -0.4209938562 -0.0576765895 0.3055054383
655296070.0 -0.0461279458 0.2925367051 0.0708187242 -0.4214747279 0.070705316 -0.4217545423 -0.0542235968 0.3060306407
660296040.0 -0.043057004 0.2933808339 0.0662779526 -0.4221468274 0.0662542096 -0.4222250394 -0.0511889004 0.3063995219
665296010.0 -0.0396011303 0.2939983351 0.061456224 -0.4231968731 0.0618091555 -0.4230263782 -0.0480364878 0.3074474616
670295980.0 -0.0362203796 0.2946709361 0.0568950507 -0.4236673145 0.0573145595 -0.4235920414 -0.0451787339 0.3080963666
675295950.0 -0.0331520778 0.2948297127 0.0520347923 -0.4242132159 0.0524706935 -0.4244946261 -0.0417293575 0.3090516148
680295920.0 -0.0303844717 0.2958721217 0.0476213581 -0.4248533819 0.0474589519 -0.4249305161 -0.0383189594 0.3092565313
685295890.0 -0.0270828912 0.2963417387 0.0432352132 -0.4253859307 0.0429708726 -0.4256486419 -0.0353914406 0.3100716547
690295860.0 -0.0237912095 0.2965926288 0.0384794818 -0.4254598741 0.0384159134 -0.4259651964 -0.0319225153 0.3105771008
695295830.0 -0.0204730442 0.2964435539 0.0331111126 -0.4257759858 0.0338655726 -0.4260257523 -0.0290632621 0.3111990731
700295800.0 -0.0173151955 0.2971127308 0.0288652393 -0.4264245554 0.0290632138 -0.4265021184 -0.0252240212 0.3111615435
705295770.0 -0.014227835 0.2977501283 0.0244076268 -0.426428651 0.024903912 -0.4264396761 -0.0228222823 0.3119615675
710295740.0 -0.0113392905 0.2978592074 0.0201398234 -0.4266222614 0.0198445366 -0.4266872468 -0.0198012351 0.3124812489
715295710.0 -0.0083432107 0.2981210118 0.0151498474 -0.4271758216 0.0155231756 -0.4271010516 -0.0164904143 0.3123966562
720295680.0 -0.0052027242 0.2980319033 0.0107847499 -0.426741698 0.0107466878 -0.4273558496 -0.0130316852 0.3129405813
725295650.0 -0.0014985805 0.2987454891 0.0055027688 -0.4270507292 0.0060227016 -0.4270814401 -0.0096286225 0.3131058597
730295620.0 0.0010991729 0.2983391344 0.0012143616 -0.4267585507 0.001581577 -0.427040002 -0.0062704127 0.3132913781
735295590.0 0.0047999181 0.2986817521 -0.0032063888 -0.4268497795 -0.002928377 -0.4271452762 -0.0029792824 0.3135445435
740295560.0 0.007866469 0.2992937673 -0.0078881408 -0.4266143918 -0.0080478887 -0.4270300895 0.0002121587 0.3135734241
745295530.0 0.0106062218 0.2990883711 -0.0122588338 -0.4268075549 -0.0120023023 -0.4269459672 0.00302692 0.3137810528
750295500.0 0.0141163599 0.2991347642 -0.017208842 -0.4263419417 -0.0170292168 -0.4262942797 0.0064654328 0.3131252668
755295470.0 0.0175322798 0.2991172796 -0.0217199963 -0.4264441473 -0.0214467548 -0.4264673874 0.0095436806 0.3142336808
760295440.0 0.0202565944 0.2988423612 -0.0263440249 -0.4257164925 -0.0257720761 -0.4263500392 0.01247352 0.3139804125
765295410.0 0.0233886214 0.2986959492 -0.0302796787 -0.4253884055 -0.0306788116 -0.42579605 0.0165953756 0.3143140241
770295380.0 0.0269883983 0.2988662967 -0.0354398062 -0.4247405624 -0.035122305 -0.4254988184 0.0199590365 0.3138906701
775295350.0 0.029891089 0.298790005 -0.0400675291 -0.4245743412 -0.0399834391 -0.4250036756 0.0225433155 0.3138023262
780295320.0 0.0332878521 0.2983648116 -0.0447841151 -0.4242514752 -0.0444482481 -0.4245069165 0.0259887548 0.3137478119
785295290.0 0.0362749295 0.2983246324 -0.0490561731 -0.4230113508 -0.0490306847 -0.4236040808 0.0289000046 0.3134338168
790295260.0 0.0394133506 0.2978061443 -0.0536366045 -0.4230940663 -0.0535981411 -0.4236148686 0.0328163167 0.3132339945
795295230.0 0.0425778748 0.2982412591 -0.0583454457 -0.4221081458 -0.0580668888 -0.4229307084 0.0360598064 0.3135798703
800295200.0 0.0459664205 0.2976290378 -0.0631195451 -0.4220678198 -0.0632424459 -0.422109157 0.0390760087 0.3126794542
805295170.0 0.0488503456 0.2975185192 -0.0673090391 -0.4209138486 -0.0671412139 -0.4211056119 0.042037488 0.3126297202
810295140.0 0.0519602887 0.2970905867 -0.0718523533 -0.4203782694 -0.0717038663 -0.4205334077 0.0457802466 0.3126793965
815295110.0 0.0552594339 0.2966184526 -0.0766110004 -0.4192727803 -0.0763535202 -0.4195511461 0.0485113832 0.3118594725
820295080.0 0.0583133124 0.295710597 -0.0807770699 -0.4185330757 -0.0808436451 -0.4187132907 0.0519474938 0.3117284144
825295050.0 0.061518893 0.2954544997 -0.0855598005 -0.416952727 -0.0856039703 -0.4176733605 0.0554715615 0.311271229
830295020.0 0.0647429779 0.2951459754 -0.0901820204 -0.416343268 -0.0903549082 -0.4166380315 0.058478148 0.3106841546
