!Created with skrf (http://scikit-rf.org).
# Hz S RI R 50.0 
!freq ReS11 ImS11 ReS21 ImS21 ReS12 ImS12 ReS22 ImS22
300000.0 -0.2355057877 -0.1117399544 0.4657004026 0.0730187557 0.4700609665 0.0754956367 -0.2349257063 -0.1144850482
5299970.0 -0.2406460952 0.0069390077 0.4752010485 0.0052447384 0.4747201794 0.0058343738 -0.2443859819 0.0052988991
10299940.0 -0.2370762004 0.0198273019 0.4774099886 0.0061509363 0.476712619 0.006259226 -0.2416799093 0.0174430031
15299910.0 -0.2331368836 0.0297218753 0.4808248254 0.0076982003 0.4804310537 0.0078826321 -0.2373898752 0.0262532803
20299880.0 -0.2273472254 0.0378443666 0.4855826089 0.0079168345 0.485268778 0.0081237167 -0.2326858549 0.0340404082
25299850.0 -0.2214162758 0.0441220136 0.4901702645 0.0067320574 0.4906347591 0.0069462398 -0.2276541622 0.0402345638
30299820.0 -0.2158690038 0.0495154693 0.4962827181 0.0052334943 0.4957037902 0.0049233766 -0.2225456011 0.0450347894
35299790.0 -0.2097685888 0.0540132102 0.5010760398 0.0016191212 0.5011550917 0.0015579858 -0.2171977107 0.0486989797
40299760.0 -0.2043376715 0.0570188141 0.5064382547 -0.0021639278 0.5063206944 -0.0024006435 -0.2126806686 0.0518554655
45299730.0 -0.1995098359 0.0600065191 0.5111184494 -0.0073339145 0.5111009414 -0.0068984953 -0.2080071448 0.0543596829
50299700.0 -0.194720409 0.0617807392 0.5147252502 -0.0126305397 0.5150308014 -0.0128495595 -0.203489145 0.0567202227
55299670.0 -0.190796069 0.0637417238 0.5187070558 -0.018697153 0.5188491889 -0.0182915364 -0.1997738433 0.0580689389
60299640.0 -0.1864078157 0.0649245559 0.521741475 -0.0251132745 0.522253996 -0.0247186162 -0.1962195923 0.0597969113
65299610.0 -0.1829769669 0.0665485997 0.5252189496 -0.0310545632 0.5249846624 -0.0312077621 -0.1928045716 0.0609156391
70299580.0 -0.1794853859 0.0669581266 0.5269667734 -0.037496196 0.5271693943 -0.0379801639 -0.1898055446 0.0616559584
75299550.0 -0.1763824651 0.068154382 0.5289380807 -0.0444909913 0.529177258 -0.0444952146 -0.1871877443 0.06237543
80299520.0 -0.1740100064 0.0689334084 0.5312534147 -0.0514663108 0.5310808447 -0.0516401967 -0.1845555868 0.0630363011
85299490.0 -0.1714401524 0.0693813777 0.532505331 -0.0587541633 0.5323917779 -0.0583492955 -0.1823518746 0.063780364
90299460.0 -0.1692178494 0.0702474181 0.5334426187 -0.0648989216 0.5336470203 -0.0654502479 -0.1802232998 0.0645667777
95299430.0 -0.167207565 0.0710611561 0.5344995937 -0.0724437936 0.5342240876 -0.0720322482 -0.1786615392 0.0650497359
100299400.0 -0.1654460371 0.0717419012 0.534611042 -0.0789904286 0.5346823332 -0.0793158819 -0.1771934813 0.0657170897
105299370.0 -0.1635139856 0.0723056869 0.5348338175 -0.0857366614 0.5352773542 -0.0857648509 -0.1753411066 0.0662614805
110299340.0 -0.1617806535 0.0731130835 0.5346101777 -0.0925726988 0.5352164124 -0.0929841722 -0.1739587636 0.0670584747
115299310.0 -0.1601047292 0.0736112987 0.5351382998 -0.0991801557 0.5350859825 -0.099552946 -0.1722109907 0.0671945837
120299280.0 -0.1590923798 0.0742330697 0.5349007801 -0.1063028473 0.5350929859 -0.1064779513 -0.1712217596 0.0679099427
125299250.0 -0.1579836486 0.0753123623 0.5346900893 -0.1128248385 0.534568278 -0.1131488343 -0.1697871208 0.0684293964
130299220.0 -0.1566349897 0.0758721518 0.5335930268 -0.1193503204 0.5339971005 -0.1201572219 -0.1690002586 0.0694239406
135299190.0 -0.1552974246 0.0766085985 0.5328282315 -0.1260844329 0.5330573967 -0.1264886066 -0.1678355325 0.0701813757
140299160.0 -0.1543117232 0.0783622039 0.5322808639 -0.1330267223 0.5325087506 -0.1329580893 -0.1668120074 0.0709158985
145299130.0 -0.1531776563 0.079069332 0.5315912066 -0.1398765381 0.5311723853 -0.1395710083 -0.1659605575 0.0716748617
150299100.0 -0.1520475869 0.0798836578 0.5303914618 -0.1462302773 0.5306571758 -0.1460934403 -0.1651672684 0.0726994481
155299070.0 -0.1512798903 0.0811169361 0.5290329649 -0.1525868786 0.5289541529 -0.1529058934 -0.1644537501 0.0736780864
160299040.0 -0.1501564603 0.0822230429 0.5279181438 -0.1587517719 0.5278831466 -0.1591554071 -0.1634929227 0.0746498522
165299010.0 -0.1494444064 0.0831675279 0.5264569589 -0.1654764941 0.5264642489 -0.1654244242 -0.1626932862 0.075407578
170298980.0 -0.148666129 0.0843850296 0.524080977 -0.1718712121 0.5246739269 -0.1717796294 -0.1617442012 0.0765405295
175298950.0 -0.1474695595 0.0855946453 0.5236539102 -0.1776917213 0.5231958856 -0.1781386959 -0.1611868669 0.0773999341
180298920.0 -0.1463778194 0.0867806911 0.5218631124 -0.1844808451 0.5218548032 -0.1843532956 -0.1602563913 0.0788455211
185298890.0 -0.145299433 0.0878307485 0.519475549 -0.1905549078 0.5195524364 -0.1905362905 -0.1598972148 0.0794926746
190298860.0 -0.144745209 0.0892552651 0.5178323671 -0.1971359811 0.5178276283 -0.196837656 -0.1586924101 0.08091835
195298830.0 -0.1434309163 0.0900753031 0.5158256894 -0.2027778975 0.5158025537 -0.2028963994 -0.1579995328 0.0816930002
200298800.0 -0.1424631719 0.0917565628 0.5141730248 -0.2084671476 0.5135417642 -0.2091527115 -0.1570448991 0.0832033214
205298770.0 -0.1417540658 0.0929060995 0.5119253198 -0.2145567302 0.5116606424 -0.2148686273 -0.1563799419 0.0838189253
210298740.0 -0.1408834374 0.0941767867 0.5096129447 -0.2212802143 0.5092913849 -0.2213724535 -0.1556225879 0.0854853122
215298710.0 -0.1397101643 0.0957016074 0.5073194724 -0.2270333562 0.5066432984 -0.2269558257 -0.1551720924 0.0866852121
220298680.0 -0.138794485 0.0969001585 0.5042744128 -0.2329299943 0.5048812798 -0.2329188863 -0.1542493744 0.0878639029
225298650.0 -0.137479033 0.0985339405 0.50168946 -0.2386036998 0.5018158587 -0.238245295 -0.1532099728 0.0891798054
230298620.0 -0.1369774047 0.0996815787 0.4999603764 -0.244431328 0.4998020725 -0.2443933928 -0.1524443844 0.0903859585
235298590.0 -0.1358128694 0.1009279853 0.4968106202 -0.2501663532 0.4968840004 -0.2505236898 -0.1515300528 0.0915459198
240298560.0 -0.1350319803 0.1026365782 0.4941942155 -0.2556019724 0.4938804831 -0.2556686336 -0.1509843878 0.0929866094
245298530.0 -0.1337262013 0.104040406 0.4907732674 -0.2620239128 0.4913244155 -0.2617561353 -0.1498327474 0.094317176
250298500.0 -0.1330990708 0.1053514813 0.4885410689 -0.2670985227 0.4887386734 -0.2666214655 -0.1489307495 0.0955590487
255298470.0 -0.1321683468 0.1067242329 0.4853222392 -0.2729114465 0.4857624495 -0.2729887983 -0.1482052227 0.0967852035
260298440.0 -0.1306107658 0.1080355602 0.4828852565 -0.27769969 0.4826161137 -0.2783635289 -0.1468172271 0.0979719174
265298410.0 -0.1295251858 0.1098021908 0.479600817 -0.2842645718 0.479331081 -0.2838531699 -0.1463642714 0.0995173183
270298380.0 -0.1282492071 0.1109133562 0.4760501157 -0.2891469125 0.4768331845 -0.2893052763 -0.1452431975 0.100968582
275298350.0 -0.1275223158 0.1124517523 0.4734197326 -0.2951057474 0.4733600248 -0.2948838476 -0.144035541 0.1022240022
280298320.0 -0.1262505485 0.113944123 0.4702839949 -0.2996182663 0.4701166708 -0.3001625893 -0.1432258499 0.1036172825
285298290.0 -0.1250278333 0.1152734109 0.466781778 -0.305016404 0.4665066115 -0.3056373246 -0.1424325884 0.1051739907
290298260.0 -0.1236415624 0.1165257955 0.4637876827 -0.3107585153 0.4636201232 -0.3104865658 -0.1411202988 0.1064797999
295298230.0 -0.122615434 0.1181134099 0.4604039473 -0.3162392512 0.4599462685 -0.3158580826 -0.1403600177 0.1079154622
300298200.0 -0.1210322851 0.1193422741 0.4570713326 -0.3211793467 0.4571213912 -0.3212719407 -0.1390240046 0.1096235796
305298170.0 -0.1197607102 0.1207034591 0.4536170383 -0.3268372248 0.4537322413 -0.3267791106 -0.1377509979 0.1109343943
310298140.0 -0.1182103682 0.1219487716 0.4502876343 -0.3319466823 0.4498978025 -0.332141713 -0.1367845445 0.1123704814
315298110.0 -0.1171413138 0.1230859414 0.4461107912 -0.3368122529 0.4464793028 -0.3370291473 -0.1356552038 0.1132768356
320298080.0 -0.1159867897 0.1247331522 0.4425423245 -0.3420661587 0.442930956 -0.3419931709 -0.1345806571 0.1144410349
325298050.0 -0.1147097193 0.1256750307 0.4392072131 -0.3473690346 0.4388196585 -0.3469129029 -0.1337907904 0.1158792141
330298020.0 -0.1134386721 0.1270036005 0.4343136507 -0.3523191791 0.4347237613 -0.3520225252 -0.1329254124 0.1168886483
335297990.0 -0.1121861157 0.128172585 0.4306670456 -0.3571847951 0.4301273407 -0.3569119607 -0.1319281958 0.1182967284
340297960.0 -0.1114483958 0.1296912095 0.4265358734 -0.362043044 0.4267942739 -0.36168658 -0.1311584078 0.1201608142
345297930.0 -0.1100258303 0.1310308385 0.4225628498 -0.3663045138 0.4219999819 -0.3661383099 -0.1297578136 0.1210084347
350297900.0 -0.1082364186 0.1324031729 0.4179650306 -0.3710288217 0.418437218 -0.3713200665 -0.1288194892 0.123204119
355297870.0 -0.1070237452 0.1338936914 0.4141090585 -0.3755501573 0.4142752749 -0.3758218419 -0.1279568402 0.1242825767
360297840.0 -0.1056864907 0.1350741143 0.409995544 -0.3802086797 0.4097216107 -0.379958393 -0.1264740162 0.1257548647
365297810.0 -0.1041207822 0.1364652519 0.4057525129 -0.384942151 0.4055731832 -0.3848174541 -0.1256822917 0.127377177
370297780.0 -0.102670964 0.137320217 0.4010360443 -0.3891938001 0.4016986972 -0.3895447385 -0.1243637711 0.1289439356
375297750.0 -0.1013268122 0.139172 0.3976557001 -0.3934486243 0.3968953759 -0.393744169 -0.1231574169 0.1304839082
380297720.0 -0.0997030487 0.1400765961 0.392735169 -0.3978031174 0.3924196685 -0.3979171424 -0.1217090342 0.1316122995
385297690.0 -0.0980839944 0.1415478446 0.3882566487 -0.4014716052 0.3882707965 -0.4022952541 -0.1205744981 0.1332934306
390297660.0 -0.0968332705 0.1427248215 0.3839592714 -0.4059746305 0.3838780214 -0.406564703 -0.1193117464 0.1341613996
395297630.0 -0.0948086981 0.1437841543 0.3798758972 -0.4104911104 0.379535815 -0.410586169 -0.1180918658 0.1360537297
400297600.0 -0.0933958212 0.1453505256 0.3751781618 -0.4149621028 0.375228242 -0.4148143809 -0.1172714232 0.1368503374
405297570.0 -0.0916558662 0.146542114 0.3707286607 -0.4186717932 0.3706179567 -0.4192182829 -0.1160446246 0.1386941422
410297540.0 -0.0901528672 0.147420383 0.3653709798 -0.4228658671 0.3656075083 -0.4230502585 -0.1146927186 0.1397298429
415297510.0 -0.0887345804 0.1491436103 0.3611822729 -0.426634778 0.3613494633 -0.4267375534 -0.1132427361 0.1413851226
420297480.0 -0.0867891686 0.1496951921 0.3563634958 -0.4309996937 0.3564455686 -0.4310737858 -0.1117818001 0.1423267967
425297450.0 -0.0848139999 0.1508081203 0.3516018552 -0.4346588223 0.3517450556 -0.434940824 -0.1103755981 0.1441146931
430297420.0 -0.0835747194 0.1520131894 0.3472509965 -0.4387493981 0.347172811 -0.4387724427 -0.1091625755 0.1447740446
435297390.0 -0.0816157948 0.1530600075 0.3423272716 -0.4419287326 0.3423663643 -0.4420763359 -0.1077510026 0.1466709387
440297360.0 -0.0799332869 0.1542155978 0.3372988204 -0.4459313475 0.3367829918 -0.4458320405 -0.1065922455 0.1474677932
445297330.0 -0.0781019392 0.155062558 0.3317171006 -0.449853921 0.3324952568 -0.4493453783 -0.105230222 0.1484410728
450297300.0 -0.0764144195 0.1560400624 0.3270890233 -0.4532690854 0.3274144892 -0.4534199173 -0.1038331901 0.1499533159
455297270.0 -0.074698752 0.1570969743 0.3225337898 -0.4569758501 0.3226142152 -0.4565496904 -0.1020442918 0.1512981862
460297240.0 -0.0732231001 0.1576526667 0.3172420458 -0.459803403 0.3171053194 -0.4603264745 -0.1008206143 0.1527999796
465297210.0 -0.0711186842 0.1588276706 0.3122428029 -0.463434407 0.3125654682 -0.4636903898 -0.0996684753 0.153454274
470297180.0 -0.0695521733 0.1598736431 0.3074130675 -0.4668700898 0.307650752 -0.4671110001 -0.0982629733 0.1546531597
475297150.0 -0.0681717648 0.1604371727 0.3022023215 -0.4696282837 0.3021234397 -0.4695842862 -0.0967057761 0.1557762001
480297120.0 -0.0658398586 0.1613744368 0.2971184406 -0.4732255865 0.2972222277 -0.473588122 -0.0951189921 0.15728161
485297090.0 -0.0639139841 0.1620948887 0.2920767371 -0.4764808129 0.2922336281 -0.4764376778 -0.0940108763 0.1578349511
490297060.0 -0.0620755468 0.1627230783 0.2868202104 -0.4794505858 0.2868071561 -0.4797299134 -0.0922701233 0.1593635713
495297030.0 -0.0606052127 0.1642478006 0.2811789413 -0.4830419588 0.2811942193 -0.482948174 -0.090441872 0.1598757662
500297000.0 -0.0584771662 0.1644856869 0.2757971834 -0.4858172672 0.2760602857 -0.4855275607 -0.0892266696 0.1610222933
505296970.0 -0.0567933352 0.1653888304 0.270544697 -0.4881741382 0.2705563504 -0.4886075358 -0.0883130713 0.1624012961
510296940.0 -0.0551386553 0.1662867104 0.2655463519 -0.4913570249 0.2655529714 -0.4915209507 -0.0860732361 0.1635994477
515296910.0 -0.053409989 0.1674182513 0.2599159035 -0.4942934386 0.2599162327 -0.4949027962 -0.0849728816 0.1643856694
520296880.0 -0.0511537097 0.1675765055 0.2543679466 -0.496697115 0.2548436164 -0.4969626694 -0.0829928363 0.1649993422
525296850.0 -0.0493918049 0.1683755277 0.2492198647 -0.5001667383 0.2494371925 -0.4999296903 -0.0813018797 0.1664502245
530296820.0 -0.0475897932 0.1689400706 0.2442218961 -0.5021090216 0.2435466521 -0.502383027 -0.080245887 0.1669856414
535296790.0 -0.0457032703 0.1695842419 0.2382533839 -0.5044877936 0.2387087608 -0.5047919674 -0.0784442646 0.1677696811
540296760.0 -0.0438643803 0.1700904392 0.2328595284 -0.5078124025 0.232645931 -0.5076963226 -0.0772402868 0.1691452737
545296730.0 -0.0418310075 0.1711876538 0.2268431165 -0.5101018071 0.227594928 -0.5101608734 -0.0755502841 0.1697808054
550296700.0 -0.0403481969 0.1715725345 0.222239835 -0.512355806 0.2226885135 -0.5128386788 -0.0741230415 0.1711334871
555296670.0 -0.0378866445 0.1720229362 0.2160375204 -0.5148182723 0.2163939065 -0.514637896 -0.0724799481 0.1718634181
560296640.0 -0.0363009807 0.1725703217 0.2106704619 -0.5169346238 0.2105461146 -0.5168294718 -0.0703838312 0.172548282
565296610.0 -0.0346490713 0.1730880119 0.2049815961 -0.5193050555 0.2045929665 -0.5193310027 -0.0689066241 0.1734029721
570296580.0 -0.0320872286 0.1733481084 0.199084673 -0.5212586159 0.1993025932 -0.5215460256 -0.0672845627 0.1746474359
575296550.0 -0.0305134199 0.1743116032 0.1937042919 -0.5229807231 0.1938427904 -0.5233170856 -0.0653140862 0.1750333481
580296520.0 -0.0285183586 0.1745737559 0.1885313238 -0.5254951586 0.187854959 -0.5256401746 -0.0640700832 0.1759006435
585296490.0 -0.0264724605 0.1748288468 0.182688965 -0.5276283708 0.1820970161 -0.5277121386 -0.0626491883 0.1763394761
590296460.0 -0.0248750032 0.1751110883 0.1763428028 -0.5294529933 0.1766188536 -0.5295295364 -0.0605091722 0.1777192125
595296430.0 -0.0226818732 0.1758861525 0.1710378606 -0.531098548 0.1706820322 -0.5314394794 -0.0586447449 0.1779096948
600296400.0 -0.020698942 0.1764001735 0.1649939171 -0.533122416 0.1654031204 -0.5329344087 -0.0573958305 0.1791468983
605296370.0 -0.0186420685 0.1768557016 0.1592411781 -0.5350936281 0.1595276744 -0.5346987884 -0.0556362308 0.17983028
610296340.0 -0.0169906367 0.1770882246 0.1538049397 -0.5364459623 0.1540583111 -0.5366327407 -0.0536441939 0.1808810631
615296310.0 -0.0146463018 0.1776126308 0.1473356522 -0.5381858691 0.1476523111 -0.5381717926 -0.0521055757 0.18103222
620296280.0 -0.0127969372 0.1777467199 0.1421821601 -0.5397781786 0.1419989955 -0.5396017642 -0.0505179066 0.1815178891
625296250.0 -0.0109269592 0.1781000179 0.1363223254 -0.5415567291 0.1360208363 -0.5413532096 -0.0484744211 0.1825075516
630296220.0 -0.0088329092 0.1783696524 0.1300890493 -0.5425528794 0.1303098993 -0.5426364767 -0.0472952825 0.1832343871
635296190.0 -0.0068507463 0.1786622902 0.1243599649 -0.5437664402 0.1238357336 -0.5434756516 -0.0453867494 0.1834865803
640296160.0 -0.0050772188 0.1786265602 0.118713336 -0.5448148927 0.1184394774 -0.5451069301 -0.0432918064 0.1839816079
645296130.0 -0.0029939732 0.1792649737 0.1127501662 -0.5467003938 0.1125716453 -0.5461292464 -0.0420966705 0.1845129644
650296100.0 -0.0009872533 0.1793609461 0.1074193889 -0.5473272068 0.106873655 -0.5472292169 -0.0400320743 0.1853157241
655296070.0 0.0010992215 0.179211052 0.100549547 -0.548519167 0.1007094499 -0.5485183657 -0.0379144741 0.1857512544
660296040.0 0.0025361901 0.1798550272 0.0952418704 -0.549335264 0.095050523 -0.549236103 -0.036586369 0.1860466815
665296010.0 0.0049923431 0.1794451454 0.0891153669 -0.5505926311 0.089494673 -0.550460067 -0.0350610734 0.187134976
670295980.0 0.0075964945 0.1797588328 0.0830726904 -0.5513283782 0.0836946057 -0.551533963 -0.0336174789 0.18756162
675295950.0 0.0090374619 0.1795654132 0.0772561419 -0.5523399435 0.0773896626 -0.5524815467 -0.0312359509 0.1881429781
680295920.0 0.0110499685 0.1800780666 0.0713465487 -0.5530572342 0.0707741499 -0.5531150332 -0.0295339554 0.1880801601
685295890.0 0.0132233004 0.1798551445 0.0653615745 -0.5535573591 0.0651483189 -0.5540188651 -0.027648812 0.1888690718
690295860.0 0.0153190375 0.1799318434 0.0593333355 -0.553896758 0.05872648 -0.554159655 -0.0253919918 0.1894112615
695295830.0 0.0175113489 0.1798338317 0.0525582373 -0.5550107689 0.0527830842 -0.5551227968 -0.0243195562 0.1898449261
700295800.0 0.0196162182 0.1799642669 0.0468343849 -0.5557349409 0.047160835 -0.555578736 -0.0220917331 0.1894995904
705295770.0 0.0215679087 0.1798714748 0.0411082491 -0.5556414465 0.0413987671 -0.5557758336 -0.0206979068 0.190435469
710295740.0 0.0234631601 0.1799657469 0.0349411379 -0.5564117287 0.0349684308 -0.5561124105 -0.019350274 0.1907102819
715295710.0 0.0251858175 0.1799283147 0.0290896142 -0.5567056787 0.0293295574 -0.5565151221 -0.0169391685 0.1907102973
720295680.0 0.0274419709 0.1793140006 0.0229899766 -0.5567595162 0.0233092838 -0.5570708692 -0.0150221457 0.1910700312
725295650.0 0.0296800254 0.1791909689 0.0168912126 -0.557000102 0.0173104355 -0.5569635625 -0.0132361619 0.1916549986
730295620.0 0.0312265842 0.1789756678 0.0108947302 -0.5571195037 0.0111730324 -0.5569142729 -0.0111324355 0.191353452
735295590.0 0.0336835956 0.1787528721 0.0054386613 -0.5570824593 0.0053241245 -0.5574024399 -0.009318726 0.1921319273
740295560.0 0.0353554688 0.1788827317 -0.0007326532 -0.5569630525 -0.0009032944 -0.5568415445 -0.0073664878 0.1921045778
745295530.0 0.0374450869 0.1782550151 -0.006918173 -0.557203446 -0.0063506877 -0.5572391868 -0.0059944979 0.192473866
750295500.0 0.0393574923 0.1781639208 -0.0125517167 -0.5567084259 -0.0126712257 -0.5566380815 -0.0038042157 0.1922985237
755295470.0 0.0420682778 0.1780427014 -0.0190240638 -0.5568121028 -0.0186622494 -0.5570511214 -0.0024272643 0.1929427103
760295440.0 0.0434366537 0.1778658696 -0.0252407604 -0.5563887346 -0.0250805638 -0.5563614157 -0.0009222709 0.1928143871
765295410.0 0.0452053952 0.1769308018 -0.0301970234 -0.5557402161 -0.0305346446 -0.556230486 0.0018446973 0.1934999925
770295380.0 0.0474905441 0.1770421021 -0.0366478341 -0.5556454328 -0.0364805605 -0.5560501446 0.0035924078 0.1933470374
775295350.0 0.0496014105 0.1766732423 -0.0427650049 -0.5549004916 -0.0423305811 -0.5552317223 0.0050518155 0.1929495049
780295320.0 0.0517936016 0.1760776284 -0.0483379428 -0.5546029811 -0.0482754904 -0.5549918365 0.0069857942 0.1934316729
785295290.0 0.0534318072 0.176231016 -0.0546144648 -0.553948684 -0.0544522917 -0.5541200463 0.0084911594 0.1935153448
790295260.0 0.0551838454 0.1754201493 -0.0605784712 -0.5533706969 -0.0606528693 -0.5536654757 0.0111878954 0.1933134894
795295230.0 0.057358963 0.1750661669 -0.0659722982 -0.5527232173 -0.0663831395 -0.5525728243 0.0126334156 0.1941233996
800295200.0 0.0593419346 0.1746910346 -0.072462032 -0.5522261255 -0.0729746955 -0.5521731644 0.0146721796 0.1937759447
805295170.0 0.0611574504 0.173817809 -0.0783321882 -0.5505726738 -0.077934898 -0.5509687797 0.0162780539 0.1936208818
810295140.0 0.0631675755 0.1735315344 -0.0842078523 -0.5501384885 -0.0842183501 -0.5506355072 0.0184807301 0.1938190003
815295110.0 0.0651061506 0.1729052557 -0.0900933343 -0.5488496232 -0.0905490372 -0.5492083542 0.0199937818 0.1934384567
820295080.0 0.0671909573 0.1719235386 -0.0959167712 -0.548085828 -0.0963137024 -0.5484960528 0.0216035269 0.1936099047
825295050.0 0.0691262636 0.171509832 -0.1019778208 -0.5465879608 -0.1021915556 -0.5471648902 0.0237537699 0.1937814141
830295020.0 0.0712586698 0.1711601543 -0.1078184686 -0.5457919033 -0.1082218375 -0.5460950015 0.0255608731 0.1933049922
