!Created with skrf (http://scikit-rf.org).
# Hz S RI R 50.0 
!freq ReS11 ImS11 ReS21 ImS21 ReS12 ImS12 ReS22 ImS22
300000.0 -0.0433306271 -0.0707085831 -0.000400551 -0.0005199013 0.0006990637 0.0006599208 -0.7660938242 -0.1903851838
5299970.0 -0.0460529443 0.0147100763 3.36109e-05 -0.0001922662 -3.05137e-05 0.0001755 -0.7850245152 -0.0096056331
10299940.0 -0.0403178768 0.0327570876 0.0001948884 0.0001069681 -0.0001062881 -3.81597e-05 -0.7876831697 -0.005293755
15299910.0 -0.031668735 0.0474711812 -3.39537e-05 -3.83854e-05 5.2684e-06 8.15598e-05 -0.7933211414 -0.0026458173
20299880.0 -0.0216344777 0.0594364653 0.000101295 3.21074e-05 -0.0001521654 -0.0001216196 -0.7996868415 0.0017679161
25299850.0 -0.0101136396 0.0688382705 -0.0001126545 -0.0001639522 -0.0001677352 -2.06559e-05 -0.8061032166 0.0079235007
30299820.0 0.0014181979 0.0758602014 -9.3095e-05 0.0001900415 -9.88658e-05 8.35663e-05 -0.8119819652 0.015600871
35299790.0 0.0129067366 0.0801901107 1.87903e-05 7.149e-05 0.0001029732 -0.0001743136 -0.8173411386 0.0248678219
40299760.0 0.0247367232 0.0831974024 -0.0001585617 -7.83268e-05 -2.92442e-05 -0.0001018258 -0.8211394741 0.0335209983
45299730.0 0.0351078964 0.0844237502 7.64493e-05 -8.58806e-05 0.0001980595 5.0007e-06 -0.8245872435 0.0436385688
50299700.0 0.0454043709 0.0842751931 5.16876e-05 0.0001313772 -5.24714e-05 0.0001867328 -0.8266187424 0.0543753158
55299670.0 0.0547721403 0.0834252844 -0.0002973739 2.24362e-05 2.10492e-05 5.92803e-05 -0.8288940643 0.0636622937
60299640.0 0.0632126347 0.0814050458 4.03462e-05 3.186e-06 0.0001478144 1.53436e-05 -0.8297451965 0.073920724
65299610.0 0.0715896519 0.0791364808 -1.26373e-05 0.0001137881 5.08332e-05 -0.0001565663 -0.830651803 0.0840212101
70299580.0 0.0779225929 0.0762639536 0.0002006197 7.69849e-05 6.88171e-05 -3.254e-06 -0.8313021776 0.0936613447
75299550.0 0.0846110544 0.0730135153 0.0001573254 0.0001460696 -9.3781e-05 -0.0002356014 -0.8308313772 0.1041132845
80299520.0 0.0901537681 0.0695571215 -0.0003144015 -0.000121354 4.9751e-05 0.0001095093 -0.8308352549 0.1140250558
85299490.0 0.0954518087 0.065669406 -6.31202e-05 0.0001463946 -8.82477e-05 -8.46078e-05 -0.8305443194 0.123148043
90299460.0 0.1005148246 0.0617880101 0.0003155408 0.0001019242 0.0001410873 -4.08735e-05 -0.8290726306 0.1325005958
95299430.0 0.1043586167 0.0581042868 0.0001631991 8.81152e-05 -7.53646e-05 -5.84275e-05 -0.8285600964 0.142395473
100299400.0 0.108154192 0.0541125609 -1.0504e-06 9.13416e-05 -0.0001458556 -5.06396e-05 -0.8273053171 0.1518138593
105299370.0 0.1114213869 0.05022248 0.0001816214 -3.20905e-05 0.0002188357 0.0001355018 -0.8260927196 0.1607282701
110299340.0 0.1145911212 0.0462434483 -0.0001154508 0.0001552931 0.000159105 3.15631e-05 -0.8246852061 0.1695481515
115299310.0 0.1169751278 0.042657049 1.91184e-05 -7.89829e-05 8.7987e-05 0.000275613 -0.8233031157 0.1789286454
120299280.0 0.1193288982 0.038809505 3.63524e-05 -5.85354e-05 -0.0002691156 -1.415e-06 -0.820829629 0.1877182029
125299250.0 0.1209968155 0.0350697742 0.000257006 0.0001623819 9.53462e-05 0.0001842254 -0.8197299377 0.1969924871
130299220.0 0.1230024087 0.0314131825 -0.0001966425 -2.43451e-05 -0.0001399207 -0.0001071224 -0.8175950024 0.2057209383
135299190.0 0.1247804379 0.0278175473 5.06711e-05 0.0001338597 1.44391e-05 0.0001808183 -0.8161002249 0.2148505052
140299160.0 0.1262201247 0.0243766011 0.000127619 7.01344e-05 0.0001340372 0.0002493867 -0.8139459351 0.2234219761
145299130.0 0.1272456435 0.021043255 0.0001150626 4.04307e-05 -3.90339e-05 3.39746e-05 -0.8119531307 0.2323220416
150299100.0 0.1281918897 0.0176001169 -5.69201e-05 3.22788e-05 -3.0906e-06 -9.4921e-05 -0.8094672336 0.241202747
155299070.0 0.1293610914 0.014584264 8.62299e-05 0.000170173 0.0002011575 -8.2068e-05 -0.8071351458 0.2506661017
160299040.0 0.129867604 0.0117068264 -6.05904e-05 9.78149e-05 0.0001037665 -2.98925e-05 -0.8044762791 0.2591947535
165299010.0 0.1305737417 0.0084423548 6.22986e-05 0.0001685001 0.0001174689 0.0001188385 -0.8018154007 0.2674794931
170298980.0 0.1309201202 0.0050870413 0.0001089041 9.09976e-05 0.0002586582 -5.42289e-05 -0.7994874528 0.2755202757
175298950.0 0.1312853959 0.0025633598 -1.04205e-05 0.0001304184 -0.0001200249 0.0001320253 -0.7963087731 0.2848756703
180298920.0 0.131597658 -0.0005226011 9.76795e-05 0.0001422146 -5.18739e-05 7.29734e-05 -0.7935567327 0.2933181055
185298890.0 0.1315306279 -0.0033063713 0.000153275 2.88209e-05 0.0001416498 -5.08367e-05 -0.7904815715 0.3016756709
190298860.0 0.1318046836 -0.0057784897 9.90559e-05 0.0002246047 -2.39354e-05 -5.98864e-05 -0.78741375 0.3101828679
195298830.0 0.1320295453 -0.0083457756 0.0001220025 -7.60961e-05 3.8725e-05 0.0001413987 -0.7838970699 0.3180444417
200298800.0 0.1318863888 -0.0113776852 -0.0001569409 0.0002406317 8.57869e-05 5.14472e-05 -0.7809171795 0.3266706773
205298770.0 0.1313235416 -0.0135737716 0.0002292792 0.0003078356 8.36673e-05 0.0001448312 -0.7775145747 0.3347797277
210298740.0 0.1315372163 -0.0162581284 0.0002258427 -8.80218e-05 0.0001970857 -5.59347e-05 -0.7740483488 0.3430412767
215298710.0 0.1310390594 -0.0186177541 0.0001862828 6.70247e-05 3.19716e-05 0.0004174442 -0.7704461437 0.3512152307
220298680.0 0.1309220819 -0.020951222 -7.31341e-05 0.000295026 -1.74186e-05 0.0001942886 -0.7668101319 0.3591990968
225298650.0 0.1306400616 -0.0230453262 5.19274e-05 -7.21376e-05 0.0002340073 9.55952e-05 -0.7632462603 0.367214769
230298620.0 0.1299208869 -0.0251611273 8.40784e-05 0.0001078504 3.30719e-05 7.49035e-05 -0.759422831 0.3756543669
235298590.0 0.1298872479 -0.0276350833 0.0001349117 -0.0001283699 6.5423e-05 5.70103e-05 -0.7552899932 0.3831460547
240298560.0 0.1291681199 -0.0296049741 0.0001305778 0.0001216836 0.0002873781 0.0002197806 -0.750870369 0.3908846345
245298530.0 0.1283836208 -0.0318404106 0.0001916283 -2.56848e-05 0.0002761595 0.0003155272 -0.747246313 0.3992734448
250298500.0 0.1277051981 -0.0337135039 0.0001886048 -2.67696e-05 6.24497e-05 -3.35534e-05 -0.7426121645 0.4067136311
255298470.0 0.1273911382 -0.0354860187 0.0001832481 0.0001494184 3.86025e-05 8.529e-06 -0.7388942001 0.4148170344
260298440.0 0.1266239629 -0.0378962572 0.000277437 0.0001505011 0.0001071771 0.0001788514 -0.7344217293 0.4218592157
265298410.0 0.1257498185 -0.0396772579 3.02113e-05 0.0001168477 9.26885e-05 3.80216e-05 -0.7302661296 0.4299329404
270298380.0 0.1250781727 -0.0418518334 8.92787e-05 -0.0001141465 2.60714e-05 -8.3596e-06 -0.7252169116 0.4384417526
275298350.0 0.1242493332 -0.0433522092 -0.0001836112 3.37333e-05 0.0001348401 0.0002807138 -0.7201274538 0.4454597694
280298320.0 0.1236056288 -0.0453923176 0.000186606 4.35357e-05 0.0001914163 -2.2238e-05 -0.716224101 0.4529634413
285298290.0 0.122826662 -0.0471700154 0.0001591926 7.63191e-05 0.0002490559 1.94666e-05 -0.71215359 0.460392219
290298260.0 0.1218896802 -0.048976725 0.0001953687 1.32807e-05 7.35788e-05 0.0001533232 -0.7062153254 0.4674992837
295298230.0 0.1208193891 -0.0509157813 0.0003595602 0.0002000738 0.0001094356 0.0001456227 -0.7016030041 0.4747836249
300298200.0 0.1200763058 -0.0524589909 -8.46116e-05 0.0001375127 0.0001463889 0.0001465247 -0.6962371565 0.4824237862
305298170.0 0.1192519517 -0.0544482742 0.0002165544 0.0001316688 0.0001838725 0.0002455445 -0.6914859268 0.4891998887
310298140.0 0.1181133842 -0.0565132868 1.9616e-06 0.0002219255 5.31019e-05 0.0001372212 -0.686084953 0.4970651962
315298110.0 0.1173927399 -0.0582788342 0.0002304626 6.2568e-06 0.0003230476 0.0001458107 -0.6808233923 0.5040349401
320298080.0 0.1162138814 -0.0600299439 4.93957e-05 0.0001288826 2.02439e-05 0.000199369 -0.6762944705 0.5105251537
325298050.0 0.1146094583 -0.0621899259 6.19672e-05 -7.1352e-06 0.0001363936 -9.8903e-06 -0.6700715425 0.5175302896
330298020.0 0.1133955145 -0.0634621965 0.0001877927 0.0002522797 0.0002959257 0.0001455104 -0.6646397861 0.5245179413
335297990.0 0.1121902617 -0.0645797219 0.0001970383 0.0001242135 7.83693e-05 3.1302e-06 -0.6595315477 0.5316568098
340297960.0 0.1108718042 -0.0662040775 0.0001388267 0.0001483689 0.0001700374 0.0001934078 -0.6544414415 0.5384916672
345297930.0 0.1099559424 -0.0676847867 0.0001153141 0.0001135084 5.52107e-05 1.29125e-05 -0.6482454539 0.5441456348
350297900.0 0.108744482 -0.0690355422 -0.0001601 0.0001176096 3.66352e-05 0.0001710647 -0.6425950617 0.5512697185
355297870.0 0.1075234782 -0.0703910603 0.0004222688 4.00534e-05 0.0002579221 9.75259e-05 -0.6372352729 0.558529881
360297840.0 0.1061527562 -0.0717598822 7.30905e-05 0.0001671462 1.16709e-05 0.0001561499 -0.6302677558 0.5650149441
365297810.0 0.1051239893 -0.0730844879 0.0001722872 0.0001236754 0.0001885908 6.33286e-05 -0.6260521486 0.5711943133
370297780.0 0.1037293292 -0.0745597219 0.0003761397 -0.0001032563 0.000139627 8.34974e-05 -0.6192913191 0.5776007148
375297750.0 0.1026346332 -0.0757163812 0.0002381419 0.000260491 0.0001692988 0.0002474677 -0.613611258 0.5834747042
380297720.0 0.1013273846 -0.0765685738 0.0001666834 0.000306028 0.0002756986 0.000130656 -0.606701351 0.5898057769
385297690.0 0.0998620499 -0.0780612401 0.0003135325 -0.000136142 8.82224e-05 4.54062e-05 -0.6014037717 0.5967497475
390297660.0 0.0988510088 -0.0796710451 0.0002987932 -1.21281e-05 0.0002943509 -3.49384e-05 -0.5946026045 0.6022304617
395297630.0 0.0978362877 -0.0804127514 0.0001607115 5.2675e-06 0.0002277703 5.42138e-05 -0.5878511852 0.6078191855
400297600.0 0.0963317574 -0.0818332472 0.0002726846 0.0003431499 0.0002210601 2.74857e-05 -0.5831492237 0.6135659041
405297570.0 0.095279463 -0.0831510523 0.0002669449 -4.7367e-06 0.0001289124 0.0002116589 -0.5754595391 0.6203764019
410297540.0 0.0942561149 -0.0839809252 0.0004205917 0.0002551912 0.0001540426 9.56268e-05 -0.5691036254 0.6258689688
415297510.0 0.0928483275 -0.0854097695 0.0001720344 -1.50029e-05 0.0003707447 0.0002974085 -0.5624139967 0.6313075328
420297480.0 0.0914759477 -0.0869244543 0.0001983709 8.21368e-05 0.0001164969 9.78004e-05 -0.5566189857 0.6381450144
425297450.0 0.0903750914 -0.0876547057 0.0002874868 -1.03075e-05 0.000157855 5.59693e-05 -0.5499474798 0.6424783877
430297420.0 0.0891710444 -0.088852698 0.0001306759 0.0001219212 0.0003515403 0.000248088 -0.5428011484 0.6484798846
435297390.0 0.0876974476 -0.0898731508 0.0002045777 0.000208459 0.0003018013 0.0001252193 -0.5365339615 0.6542335766
440297360.0 0.0863080652 -0.0909682215 8.68717e-05 0.0001967735 0.0002492453 7.10625e-05 -0.5301350632 0.6595592949
445297330.0 0.0853231822 -0.0919998209 0.0001746303 3.19341e-05 0.0002145185 0.0001589755 -0.5227623951 0.6650526365
450297300.0 0.0840697391 -0.0931539792 0.0001144165 0.0002501135 0.0003052271 -7.80751e-05 -0.5155385242 0.669690843
455297270.0 0.0826292032 -0.0941161349 0.000349424 -3.31676e-05 0.0001083773 0.0001145109 -0.5093224602 0.6751174946
460297240.0 0.0814549725 -0.0949105986 0.0001491801 0.0002524832 0.00024179 9.48545e-05 -0.5023104695 0.6801270103
465297210.0 0.080230982 -0.0958897029 0.0003441184 0.0002584422 0.0002485039 9.83352e-05 -0.4951460875 0.6860535003
470297180.0 0.0787237407 -0.0965731589 0.0003804995 -4.35424e-05 0.0002404597 4.79819e-05 -0.4883602506 0.6904284747
475297150.0 0.0770672458 -0.0976031299 -8.42335e-05 7.02007e-05 0.0001995923 8.39917e-05 -0.4812817129 0.6956412438
480297120.0 0.0762504823 -0.0986338927 0.000372185 0.0001596111 8.76214e-05 0.000225411 -0.474352062 0.6997079917
485297090.0 0.074896031 -0.0991818743 5.83291e-05 0.0002038695 0.0001581523 0.0002556558 -0.4673649939 0.7044515897
490297060.0 0.0741622653 -0.1003179607 0.000367677 0.0002016969 0.0003758111 0.0001197638 -0.4595520789 0.7089532
495297030.0 0.072261181 -0.1012621974 0.0002995149 -8.11775e-05 0.0003559139 -2.95336e-05 -0.4525049313 0.7135183507
500297000.0 0.0711245634 -0.1017214688 0.0001037107 0.0002488905 0.0003717591 -1.04429e-05 -0.4451565946 0.718522793
505296970.0 0.0698487834 -0.1028391559 0.0001993578 0.0002467659 1.06833e-05 0.0002227817 -0.4376655159 0.7231417695
510296940.0 0.0685680003 -0.1033077341 0.0003211957 0.0001686696 0.0003577837 0.0001902685 -0.4300006569 0.7274624171
515296910.0 0.0670552209 -0.1037338042 0.0003139524 0.0002550728 0.0003294231 -5.38209e-05 -0.4228581861 0.7312400173
520296880.0 0.0656942049 -0.1048911622 0.0002530306 1.28765e-05 0.0002885561 0.0001554253 -0.4151905907 0.7358592656
525296850.0 0.0644852238 -0.1056390321 3.73146e-05 0.0001660339 0.0002615201 0.0001070381 -0.4083080602 0.7393719725
530296820.0 0.0628104309 -0.1060857131 0.0002636194 4.73621e-05 0.0001862443 0.0001431662 -0.4005433816 0.7434916764
535296790.0 0.0618863447 -0.1065651299 0.0002251034 7.03727e-05 0.0005269958 0.0001671661 -0.3929719047 0.7477367186
540296760.0 0.060748925 -0.107334146 0.0005066721 8.57207e-05 0.0002026901 0.0002530345 -0.3850395816 0.7514091642
545296730.0 0.0591720467 -0.1076591072 7.13905e-05 0.0002353884 0.0002796704 -4.8878e-05 -0.3772984143 0.7557105653
550296700.0 0.0577503361 -0.1082217075 0.0002349136 3.5734e-05 0.0002619323 3.75661e-05 -0.3705233175 0.7591250399
555296670.0 0.0567271979 -0.1087169799 0.0001846842 0.0002128156 0.0002311232 -8.5556e-06 -0.3624009795 0.7622324277
560296640.0 0.0554720326 -0.1092600823 0.0001619715 0.000145624 0.0003422958 2.44196e-05 -0.3544971058 0.7664352019
565296610.0 0.0537101296 -0.1098428177 0.0003261309 -2.6095e-06 0.000169111 -5.61522e-05 -0.3466803757 0.7701220849
570296580.0 0.0523772239 -0.1099855892 8.39259e-05 0.0001819385 0.0004862304 -9.41809e-05 -0.3389298252 0.7730486154
575296550.0 0.0511684652 -0.1106711405 0.0004857277 5.64766e-05 0.0001572117 -4.73624e-05 -0.3309004787 0.7764678562
580296520.0 0.0499702892 -0.1107202466 0.0003153164 0.000137363 0.0002496815 6.81307e-05 -0.3236320711 0.7795175331
585296490.0 0.0485450586 -0.1109609515 0.0003245144 4.72772e-05 0.0003573533 5.48054e-05 -0.3151035895 0.7836354341
590296460.0 0.047197023 -0.1113410563 0.0003524798 0.0003869903 0.0001949863 -0.000139971 -0.3074610068 0.7856420511
595296430.0 0.0457828369 -0.1119732921 0.0003403027 0.000251787 0.0001357144 8.5322e-05 -0.2998680922 0.7894387292
600296400.0 0.0444736455 -0.1119704949 0.0004246142 3.0791e-06 7.63817e-05 -4.6293e-05 -0.2918562853 0.7917908675
605296370.0 0.0424445181 -0.1122053115 0.0002662693 6.81013e-05 0.0001735159 9.3115e-05 -0.2838578864 0.7951712416
610296340.0 0.0417908094 -0.1126445285 0.0003907249 0.0001801875 0.0004003028 -0.0001157474 -0.2762058827 0.7975798236
615296310.0 0.0401826737 -0.1127258207 0.0003825173 -7.7651e-06 0.0003248088 -0.0001073756 -0.2672751368 0.8005968216
620296280.0 0.0387623646 -0.11242737 0.0003532233 0.0001360498 0.0002258048 0.0001084331 -0.2603169653 0.8032790337
625296250.0 0.0371793333 -0.1130321338 0.0003993342 0.0001323712 0.0001745363 5.86313e-05 -0.251547022 0.8052514303
630296220.0 0.0358426688 -0.1128119533 0.0001807109 7.64725e-05 0.0002630142 -5.36208e-05 -0.2433263077 0.80819651
635296190.0 0.0343969817 -0.1129533246 0.0003101484 7.08443e-05 0.0004211158 -3.08787e-05 -0.2353894092 0.8099204408
640296160.0 0.0329449991 -0.1131059123 5.24489e-05 5.15759e-05 0.0003354652 3.05164e-05 -0.2271540502 0.8125982468
645296130.0 0.0321004319 -0.1132168817 0.0003457133 1.24986e-05 0.0003826932 -2.28449e-05 -0.2195703936 0.814318829
650296100.0 0.0302790259 -0.1132710044 0.0002864063 9.30769e-05 0.0002372373 1.09685e-05 -0.2108212905 0.816845035
655296070.0 0.0288204103 -0.1134661925 0.0005099147 -4.17943e-05 0.0002596378 0.0002734338 -0.2031942665 0.8192068668
660296040.0 0.0271084776 -0.1132859404 0.0004293203 0.0001310124 0.0002591144 -4.61563e-05 -0.1942912252 0.8213740108
665296010.0 0.0259553201 -0.1132111946 0.0003713601 -0.0001536607 0.0001099998 -4.7916e-06 -0.1863444287 0.822308776
670295980.0 0.0243913389 -0.1133404836 0.0001838063 4.34619e-05 0.0002936884 -4.89008e-05 -0.1784657413 0.8246719965
675295950.0 0.0230066551 -0.1133751926 0.0004262044 -2.48911e-05 0.0002965417 0.0001896922 -0.1698930936 0.8263968784
680295920.0 0.0212528238 -0.1128382751 0.0003871624 -2.02544e-05 0.0004708048 -5.96848e-05 -0.1612761348 0.8276732211
685295890.0 0.0200315495 -0.1128747719 0.0002709514 0.000147672 0.0002638331 -7.18672e-05 -0.1531996061 0.8299564771
690295860.0 0.0186897218 -0.1128671066 0.0003928436 -2.50851e-05 0.0003222077 -4.4797e-06 -0.1452040747 0.830855363
695295830.0 0.0171006092 -0.1130245053 0.0002584281 -4.6727e-06 0.0002800214 -6.86064e-05 -0.1370610786 0.8330075743
700295800.0 0.0156013435 -0.1125377603 0.0002626305 0.000127508 0.0002725437 0.0001194348 -0.1283835226 0.8337705393
705295770.0 0.0142022117 -0.1123751357 0.0004597043 -9.86983e-05 0.0003915387 3.60324e-05 -0.1200325365 0.8352321563
710295740.0 0.0127626042 -0.1121607362 5.24726e-05 2.37112e-05 0.0003298012 -0.000126631 -0.111842009 0.8363022558
715295710.0 0.0114557345 -0.1120516649 0.0001408266 2.45947e-05 0.0003149174 -2.6032e-06 -0.1030831915 0.836829076
720295680.0 0.0099478176 -0.1118048035 0.0003600687 -0.0001877783 0.0005319812 -5.79454e-05 -0.0948418064 0.8378832814
725295650.0 0.0081855704 -0.1112559856 0.00019903 -4.09807e-05 0.0001885027 1.73448e-05 -0.0866811093 0.8390414983
730295620.0 0.006295834 -0.111320849 0.0004568044 -0.0001195273 0.0003123996 0.0001029179 -0.0789014741 0.8401219079
735295590.0 0.0051772502 -0.1108876871 0.000379693 -0.0002128422 0.0003267115 -9.4213e-05 -0.0697213259 0.8405374693
740295560.0 0.0034005135 -0.1108780399 0.0002951269 -9.7443e-06 0.0002584204 -1.15241e-05 -0.061178687 0.8415642499
745295530.0 0.0023334586 -0.1104606441 0.0002796393 6.62734e-05 0.0002406638 -0.0001975728 -0.0535479707 0.8417009792
750295500.0 0.0006370862 -0.1098361742 0.0001299017 3.38909e-05 0.0005444686 -1.41164e-05 -0.0449007124 0.8424662758
755295470.0 -0.0009105675 -0.1098230788 0.0002480191 -1.75779e-05 0.000290608 -0.0001516435 -0.0365405885 0.8430944764
760295440.0 -0.0024175607 -0.1092876743 0.0003882986 -7.37223e-05 0.0001705621 -0.000219917 -0.0281292527 0.8429233503
765295410.0 -0.0035100659 -0.1092680343 0.0003302645 -0.0001653967 0.0002646923 -0.0002273179 -0.0198188328 0.8433040944
770295380.0 -0.0053068262 -0.1086020904 0.000228196 -0.0001901124 0.0002484823 -9.4957e-05 -0.0111666528 0.843004722
775295350.0 -0.0067110345 -0.1082630034 0.0005348109 -3.0876e-06 0.0004020923 1.70143e-05 -0.0031234212 0.8432234885
780295320.0 -0.0081709687 -0.1079047857 0.0003279991 -0.0001215147 0.0003884639 -7.53198e-05 0.0055274658 0.8434521459
785295290.0 -0.0096581607 -0.1075202782 0.000425113 -0.0001852936 0.0004324446 5.75935e-05 0.0140169175 0.8438094048
790295260.0 -0.0110873171 -0.1073823536 0.0002734379 -0.0002991058 0.0005382204 -7.4879e-05 0.0221539149 0.8434315134
795295230.0 -0.0124325867 -0.106969035 0.0004310577 -1.40934e-05 0.0003450469 -0.0001790641 0.0301493518 0.8425222256
800295200.0 -0.014009538 -0.10647149 0.0005161652 -0.0003866681 0.000496057 -0.0002088655 0.0383539089 0.8419902391
805295170.0 -0.0155192575 -0.1060055922 1.35881e-05 -0.0002136648 0.0002997071 -0.000206366 0.0473802305 0.8419277138
810295140.0 -0.0169029279 -0.1054192665 0.0003450277 -5.79849e-05 0.0005290017 -8.2966e-06 0.0554578484 0.8414359857
815295110.0 -0.0183213462 -0.1051774301 0.0003002733 -0.000218959 0.0002749443 -0.000216455 0.0633807647 0.8406902259
820295080.0 -0.0197904462 -0.1045384336 0.0002183798 -0.000148024 0.0005047789 -0.0001099027 0.0714680351 0.8406643167
825295050.0 -0.0213548781 -0.1041219462 0.0002494657 -0.0001593243 0.0004018543 7.4486e-06 0.0803721543 0.8395147668
830295020.0 -0.0226830793 -0.1034481547 0.0002723702 -0.0002272449 0.0005790466 6.08874e-05 0.0881325271 0.8380881973
835294990.0 -0.0240217783 -0.1033833612 0.0004465342 -9.2907e-06 0.0003585697 -6.08213e-05 0.0966042978 0.8375729834
840294960.0 -0.0252015953 -0.1027996175 0.0003056239 -0.0001816928 0.0002278091 -0.0001640877 0.1056950393 0.8371092819
845294930.0 -0.0270497678 -0.1021445546 0.0005814516 -0.0002240246 0.0004841893 -5.13624e-05 0.1136458236 0.8358260668
850294900.0 -0.0278032422 -0.1020604447 0.0003150878 -0.0001291953 0.0004269569 -0.0001654682 0.1215327974 0.8350449944
