!Created with skrf (http://scikit-rf.org).
# Hz S RI R 50.0 
!freq ReS11 ImS11 ReS21 ImS21 ReS12 ImS12 ReS22 ImS22
300000.0 -0.048946883 -0.0459182746 -0.001145149 0.0006849765 -0.0003059731 0.0006548203 -0.7758130664 -0.1357713907
5299970.0 -0.0486589248 0.0154533448 0.0001366037 0.0003055513 -2.46191e-05 0.0001256509 -0.7849038731 -0.0079189433
10299940.0 -0.0432512681 0.0317204763 1.42533e-05 -9.9688e-05 -6.24165e-05 8.12518e-05 -0.7877955428 -0.0036898986
15299910.0 -0.0351432877 0.0457604615 0.0001031806 6.61282e-05 -0.0001043084 0.0001690842 -0.7936611737 -0.001426249
20299880.0 -0.0252846779 0.0574929555 -5.80635e-05 0.0003084016 1.11231e-05 -2.90081e-05 -0.7999621929 0.002217402
25299850.0 -0.0145713962 0.0665834343 -0.0001043947 0.0002361272 -4.07534e-05 7.71148e-05 -0.8059350963 0.0083905729
30299820.0 -0.0034597268 0.0730361409 -2.0734e-05 7.19905e-05 0.0001364632 -2.40971e-05 -0.8118583992 0.0161784741
35299790.0 0.0078662102 0.0775030637 0.0001680131 -3.94855e-05 -3.9056e-06 0.0001281812 -0.8170885913 0.0249461477
40299760.0 0.0189072644 0.0802815232 9.18449e-05 -0.0001278848 7.78453e-05 -2.49522e-05 -0.8212698044 0.0348728811
45299730.0 0.0295378832 0.0816075395 5.46609e-05 -4.01849e-05 -7.26719e-05 5.47244e-05 -0.8250604272 0.0439975956
50299700.0 0.0392103652 0.0816322787 5.192e-07 0.0002536792 -2.144e-05 -5.45276e-05 -0.8270867945 0.0542531941
55299670.0 0.0483174754 0.0805560542 0.0001037308 0.0001281787 0.0002879834 -1.4231e-06 -0.8295068048 0.064570351
60299640.0 0.056706541 0.0787497469 -6.44424e-05 0.0001750816 0.0002003472 5.32924e-05 -0.8305745772 0.0740584528
65299610.0 0.0643730819 0.0760737415 9.92939e-05 1.17067e-05 1.1407e-05 -3.34662e-05 -0.8313513978 0.0840125814
70299580.0 0.071033703 0.0734718587 -0.0001893037 -0.0002589754 1.2011e-06 7.84244e-05 -0.8318499385 0.0944483491
75299550.0 0.0774115952 0.0702512021 -1.23863e-05 7.34266e-05 0.0001979221 -2.32797e-05 -0.8323033852 0.1035915348
80299520.0 0.0828812821 0.0666434109 -5.24817e-05 -3.39521e-05 9.40557e-05 6.58445e-05 -0.8319010796 0.1138141225
85299490.0 0.0874232987 0.0628548666 -1.64852e-05 0.0001169057 -1.56896e-05 -0.0002441963 -0.8316884916 0.1237096635
90299460.0 0.0924352333 0.05908841 -0.0002184865 -7.29281e-05 7.45868e-05 1.3975e-06 -0.8305671027 0.1330808849
95299430.0 0.0963416694 0.0547975965 -9.22331e-05 5.8722e-05 0.0001661537 9.37211e-05 -0.8291072777 0.1430419224
100299400.0 0.0997402063 0.0510596203 -0.0001363834 -0.0001178297 -1.69583e-05 2.52845e-05 -0.8287739263 0.152295087
105299370.0 0.1030350199 0.0472247529 -4.33325e-05 0.0001130129 -0.0001374439 0.000156628 -0.8267520402 0.1607688701
110299340.0 0.1058128412 0.0432213966 -0.0001442009 9.16529e-05 -8.07641e-05 -0.0001015802 -0.8254130012 0.1704847643
115299310.0 0.1084314544 0.0393695349 -0.0001404507 7.02545e-05 -0.0001365979 0.0001411266 -0.8237007486 0.1793933069
120299280.0 0.1103693242 0.0351897456 -7.2502e-05 0.0001409466 0.0001533837 -8.24313e-05 -0.8223929379 0.1885913831
125299250.0 0.1123168719 0.0315958632 -4.05033e-05 0.0002019202 -3.16209e-05 -0.0002415367 -0.820631128 0.1979040214
130299220.0 0.1136840953 0.0280176781 0.000193607 0.0001257102 -0.0001052365 0.0001051381 -0.81875161 0.2069317074
135299190.0 0.1154956457 0.0244575964 4.20069e-05 -4.092e-07 7.97479e-05 1.48639e-05 -0.8162863928 0.2159156063
140299160.0 0.116380328 0.0206189553 4.06665e-05 9.42064e-05 -7.20953e-05 0.0001986225 -0.8142222003 0.2247320572
145299130.0 0.117408993 0.0168565184 0.000225481 0.0001037646 -0.0002133915 0.0001466952 -0.8120722953 0.2338830823
150299100.0 0.1182323591 0.0136715706 0.0001172604 -0.0002266064 4.36163e-05 1.47949e-05 -0.8108168041 0.2432337722
155299070.0 0.1189584574 0.0106456615 -3.29599e-05 -0.0002030453 -8.24185e-05 3.53696e-05 -0.8072319726 0.2517850872
160299040.0 0.1193606161 0.0072774211 5.1468e-06 3.42683e-05 -6.15652e-05 0.000223707 -0.8053371588 0.2606129002
165299010.0 0.1201705884 0.0040183116 3.242e-05 1.14258e-05 -9.18973e-05 5.14007e-05 -0.8026823691 0.2694214285
170298980.0 0.1200179709 0.0011504429 -7.98212e-05 0.000196359 6.3761e-05 4.926e-06 -0.7995521548 0.2779179652
175298950.0 0.1203374925 -0.0022339044 0.00031126 -8.72469e-05 0.000146202 0.0002463585 -0.7968522628 0.2868318211
180298920.0 0.1205298631 -0.0049824469 -0.00027841 -0.0001633707 0.0001099199 -7.20144e-05 -0.7939649455 0.2947405321
185298890.0 0.1204864025 -0.0083113335 2.92469e-05 3.15101e-05 5.28596e-05 -0.0002789648 -0.7903086111 0.3037375556
190298860.0 0.1204396193 -0.0111369916 -7.8845e-05 4.3058e-06 6.98654e-05 3.14057e-05 -0.7880135306 0.3125496151
195298830.0 0.1203187075 -0.013866912 0.0003575982 3.24966e-05 -0.0001406381 4.26653e-05 -0.7843747108 0.3210442368
200298800.0 0.1199820557 -0.0164382788 0.0001506813 -1.45995e-05 0.0001697082 8.04095e-05 -0.781802791 0.3288183452
205298770.0 0.1196650443 -0.0190203407 2.21412e-05 -0.0001661253 0.0002537395 2.68362e-05 -0.7769879843 0.3371891736
210298740.0 0.1192438291 -0.0216340457 2.0824e-05 0.0001575321 0.0001458536 0.0003536633 -0.7744954528 0.3457532875
215298710.0 0.1186878267 -0.0242068832 9.61801e-05 0.0001723241 9.33636e-05 0.0001146248 -0.7709460005 0.3538151222
220298680.0 0.1179024173 -0.0270017925 -0.0001136673 0.000134245 3.0112e-05 5.61164e-05 -0.767544109 0.3622012175
225298650.0 0.1175776114 -0.0292587916 1.37102e-05 -2.83575e-05 7.98904e-05 -4.14813e-05 -0.7638382924 0.3700219896
230298620.0 0.1170534769 -0.0315878083 -2.91638e-05 6.53133e-05 9.34023e-05 -5.28834e-05 -0.7595258793 0.3782737766
235298590.0 0.1165010284 -0.0339084066 9.04382e-05 -1.74289e-05 -8.11528e-05 -6.55189e-05 -0.7555319056 0.386770683
240298560.0 0.1157790262 -0.0363279341 -3.3482e-05 -2.83499e-05 -2.24797e-05 -0.0001192864 -0.7515196258 0.3952515649
245298530.0 0.1151657595 -0.0385196424 0.0001235295 -9.4022e-05 -6.1354e-06 3.77679e-05 -0.7474817842 0.4020951863
250298500.0 0.1142907724 -0.0405757551 0.0001895421 0.0002169641 -5.30517e-05 1.64829e-05 -0.7433899399 0.4100087265
255298470.0 0.1132998724 -0.0431371385 0.0002588769 0.0002922208 -5.74662e-05 -2.8988e-06 -0.7388419063 0.417695064
260298440.0 0.112385986 -0.045093661 2.27065e-05 -1.44306e-05 -9.7047e-05 -5.73428e-05 -0.7345821756 0.4257677065
265298410.0 0.1116116395 -0.0466068987 4.2614e-06 0.000174397 0.0001842152 8.98548e-05 -0.7303088873 0.4333190393
270298380.0 0.110623237 -0.049011936 -4.84741e-05 -0.0001606139 -5.62103e-05 0.0001507937 -0.7257793587 0.4409931692
275298350.0 0.1098537555 -0.0507996284 -2.22872e-05 -0.0001205037 9.41163e-05 0.0001653254 -0.7208326762 0.4488603088
280298320.0 0.1091515201 -0.0527379744 7.68847e-05 1.28008e-05 5.69984e-05 0.0002120742 -0.7160335164 0.4556511547
285298290.0 0.1083585868 -0.054538399 6.3996e-05 0.0001910796 0.0002058313 0.0003642821 -0.7106234227 0.4636258271
290298260.0 0.1071000563 -0.0567173799 -3.521e-07 7.32695e-05 5.53528e-05 -1.32171e-05 -0.7058334973 0.4710261549
295298230.0 0.1061491824 -0.0585485116 0.0002201592 -0.0001123605 6.16653e-05 -0.0002338115 -0.7011085175 0.4779801491
300298200.0 0.1050705649 -0.0603539872 0.0003267257 -0.0002230624 0.0002181316 -0.0001467692 -0.696467349 0.485387113
305298170.0 0.104156473 -0.0622594887 0.0001312281 6.15646e-05 0.0001690095 -2.05418e-05 -0.6902794761 0.4928426484
310298140.0 0.1032038077 -0.063967343 0.0001162752 4.28509e-05 0.0001425195 0.0001459824 -0.6861650812 0.4998415806
315298110.0 0.1020081898 -0.065942292 8.20513e-05 -2.18254e-05 -3.59874e-05 0.0001049634 -0.680169283 0.5068635586
320298080.0 0.1010971901 -0.0679724227 -0.0001401963 0.0001795379 0.0002224178 7.85351e-05 -0.6748830322 0.514277209
325298050.0 0.0995484107 -0.0697036637 0.0003150304 0.0004933947 3.71878e-05 0.0002289748 -0.6693912881 0.5209678017
330298020.0 0.0981709556 -0.0716244463 -0.0001814864 -4.92471e-05 2.79814e-05 -9.82854e-05 -0.6638227435 0.5284294087
335297990.0 0.0966294277 -0.0732043005 -5.2313e-05 2.98809e-05 0.0001146893 0.0001304369 -0.6590462911 0.5352834653
340297960.0 0.0948957907 -0.0745638619 0.0002008786 -2.92133e-05 -6.5144e-06 7.35688e-05 -0.6529788588 0.5425581182
345297930.0 0.0934870453 -0.0758758308 0.0003007199 5.60661e-05 -2.74193e-05 -6.32152e-05 -0.6474391329 0.5486451144
350297900.0 0.0923113468 -0.0771168801 1.57123e-05 -3.5698e-06 0.000207889 -0.0001568555 -0.6415330644 0.5554940149
355297870.0 0.091147883 -0.0784738471 0.0001546881 -1.0858e-05 0.0001528203 -0.0001647557 -0.6360893925 0.5615736147
360297840.0 0.0894192998 -0.0796328619 6.8549e-06 0.0001111767 -2.8407e-06 -8.1837e-06 -0.6301425319 0.5685435788
365297810.0 0.0880319735 -0.0810050677 6.97048e-05 -3.97365e-05 0.0001160745 3.07607e-05 -0.6231968702 0.5752118101
370297780.0 0.08679855 -0.0822781122 -2.32935e-05 5.90482e-05 4.08327e-05 0.000124472 -0.6175649973 0.5816671615
375297750.0 0.0854421932 -0.0834726566 0.0001280305 0.000156156 -6.59473e-05 0.0001445408 -0.6121016066 0.5874404472
380297720.0 0.0838167435 -0.0850489716 0.0001705788 8.61717e-05 0.0002489843 2.88706e-05 -0.6058998492 0.5938334766
385297690.0 0.0821531979 -0.0859016632 -5.78161e-05 0.0001010732 0.0002060064 5.66631e-05 -0.5993413384 0.6004961654
390297660.0 0.0808803613 -0.0871674543 0.000138101 -1.57135e-05 0.0001994884 0.0001239241 -0.5933685316 0.6066935603
395297630.0 0.0797933561 -0.0883957859 8.32909e-05 -0.0001215134 0.0001589427 -0.0001219698 -0.5866398593 0.6133716667
400297600.0 0.0784873003 -0.0892814683 0.0001484751 0.0001331488 3.2436e-06 0.0001116862 -0.5808617396 0.6185602079
405297570.0 0.0764789089 -0.0902428215 8.0506e-05 -5.931e-06 0.0002534929 8.73116e-05 -0.5744111585 0.6243062757
410297540.0 0.0751598801 -0.0915346698 8.0322e-05 0.0001144601 0.0002106074 -2.14862e-05 -0.5679707585 0.6304499649
415297510.0 0.0736257718 -0.0929531253 0.0001675612 8.65623e-05 1.25381e-05 9.88863e-05 -0.5610365773 0.636419423
420297480.0 0.0721685215 -0.0933887283 5.83311e-05 0.0001207347 4.68964e-05 -0.0001353814 -0.5547786553 0.6418578953
425297450.0 0.0708030519 -0.0944768655 1.29273e-05 7.2037e-06 0.0001647355 6.3017e-05 -0.548359414 0.6479337021
430297420.0 0.0692624449 -0.0956996307 0.0002674224 -0.0002247799 -2.31143e-05 0.0001086407 -0.5413862555 0.6528556509
435297390.0 0.0676623781 -0.0964691592 0.0001265609 0.0001461737 0.0001735995 6.93957e-05 -0.5342024367 0.6581014789
440297360.0 0.06607843 -0.0975924739 2.00061e-05 8.35162e-05 2.58321e-05 1.38373e-05 -0.5274411234 0.663625387
445297330.0 0.0644869565 -0.0985493791 0.0002351138 0.000113075 9.12051e-05 5.54495e-05 -0.5205365837 0.6686408527
450297300.0 0.0631416212 -0.0993590033 -9.2479e-06 0.0001630244 0.0001200549 -0.0001151629 -0.5137874267 0.6735330781
455297270.0 0.061335602 -0.1001765084 7.7186e-06 -0.0001971684 0.0001788012 5.03698e-05 -0.5067971337 0.6783059255
460297240.0 0.0600713606 -0.1009232373 0.0005204639 5.59963e-05 0.0001390225 0.0001309085 -0.4999999797 0.6841473443
465297210.0 0.0586451925 -0.1016310281 0.0001806589 -1.38132e-05 0.000113364 2.46066e-05 -0.492147859 0.6890181908
470297180.0 0.0570762095 -0.1022223159 0.000247975 4.51679e-05 0.0001949156 -2.73049e-05 -0.4850867555 0.6942262979
475297150.0 0.0554543932 -0.1033326835 7.43848e-05 0.0001343688 -0.0001767026 1.58937e-05 -0.4773436061 0.6988948834
480297120.0 0.0537759324 -0.1038886412 0.0001228029 6.2182e-05 0.0001324515 5.7178e-06 -0.4706472957 0.7034059992
485297090.0 0.0519569541 -0.1045482397 0.0002126186 -7.83846e-05 0.0001408731 0.0001504594 -0.4636210913 0.7082082437
490297060.0 0.0503924031 -0.1049105778 0.000170913 -3.65263e-05 3.66059e-05 -2.15442e-05 -0.4558977052 0.7131007585
495297030.0 0.0489367048 -0.1058844941 0.0001552753 0.000109731 0.0001822203 -4.1237e-05 -0.4483836861 0.7177953254
500297000.0 0.0472792015 -0.1065349251 0.0002007119 -0.0001522018 6.17082e-05 -2.13847e-05 -0.4409681161 0.7224727973
505296970.0 0.0457303648 -0.1073048686 -0.0001065874 8.35661e-05 8.77461e-05 3.15462e-05 -0.4338105577 0.7265615099
510296940.0 0.0438192395 -0.1076626236 0.000257117 1.09654e-05 0.0001006288 -9.32722e-05 -0.4264551539 0.7307340576
515296910.0 0.0424503873 -0.1080743089 -9.33676e-05 -4.78266e-05 -3.33927e-05 0.0001683601 -0.4188355066 0.7352362991
520296880.0 0.0406699842 -0.1085504822 0.0002521619 -1.4551e-06 0.0001096297 9.60361e-05 -0.4109773222 0.7393285894
525296850.0 0.0392060469 -0.1095552199 0.0002458619 -3.87733e-05 5.41893e-05 -3.35825e-05 -0.4041777 0.7438196733
530296820.0 0.0375380275 -0.1095344817 0.0002799581 5.76663e-05 0.0001680602 -2.0646e-05 -0.3963655469 0.7475561292
535296790.0 0.0355978872 -0.110078867 0.000107587 0.0001133439 6.24213e-05 -0.0001034757 -0.3891643909 0.7512469548
540296760.0 0.0340146295 -0.1105490257 0.0001362344 0.0003344226 0.0002824014 9.24021e-05 -0.3813018672 0.7552717315
545296730.0 0.0323530019 -0.1109157714 0.0002298313 6.3102e-06 5.10597e-05 -7.3935e-05 -0.3733628841 0.7596518411
550296700.0 0.0312175117 -0.1109347514 1.4737e-05 2.92885e-05 -3.45351e-05 0.0001495774 -0.3657398877 0.7627275438
555296670.0 0.0292935483 -0.1114785929 8.75679e-05 5.55239e-05 6.41736e-05 0.0001418741 -0.3581846992 0.7671023926
560296640.0 0.0276904367 -0.1118557635 2.41618e-05 -3.96753e-05 4.10744e-05 -0.0002223681 -0.3502294208 0.7710650256
565296610.0 0.0257098945 -0.1120969646 8.97602e-05 -5.33286e-05 0.0002097654 3.97202e-05 -0.3423514558 0.7739552415
570296580.0 0.0241964386 -0.1123782979 0.000193779 0.0001420664 0.000167302 -0.0002262745 -0.3356555917 0.7776573228
575296550.0 0.022511509 -0.1123449429 8.50767e-05 -0.0001544554 3.82244e-05 -0.0001186415 -0.3269132962 0.7806120294
580296520.0 0.0211238803 -0.112763866 0.0001887516 -2.53409e-05 6.51918e-05 0.0002230704 -0.3182963711 0.7839888316
585296490.0 0.0189874952 -0.1131311417 0.0001790902 -9.07921e-05 -4.37542e-05 0.0002090379 -0.3107252726 0.7878211098
590296460.0 0.0176545032 -0.1132570148 0.0002067419 -3.90552e-05 6.93571e-05 -4.5405e-05 -0.3028437946 0.7901739492
595296430.0 0.0158820574 -0.1136778271 0.000202094 2.2291e-06 0.0001835001 0.000215021 -0.2950140097 0.7926068154
600296400.0 0.0140814952 -0.113294005 0.0002030533 0.0001995395 0.0001633965 -0.000190943 -0.2869210105 0.7952270484
605296370.0 0.012200452 -0.1136229188 0.0002575101 0.0001055361 0.0003362784 5.85419e-05 -0.2783877976 0.7985664084
610296340.0 0.0106984257 -0.1136835676 0.000183717 -0.0001388135 -0.0001023315 -0.0001976869 -0.2703685132 0.800586296
615296310.0 0.0088764932 -0.1140469258 3.22101e-05 3.96612e-05 0.0002134879 3.16664e-05 -0.2619593976 0.8035060823
620296280.0 0.0071863552 -0.1139076579 0.000215603 0.0001170717 0.0001446542 -0.0001653175 -0.2545840223 0.806480428
625296250.0 0.0054984024 -0.1138592466 0.0001403602 3.95011e-05 0.0001832206 7.88401e-05 -0.245739178 0.8079569526
630296220.0 0.0042754467 -0.1139886083 5.834e-06 -1.54263e-05 0.0002048096 1.7366e-05 -0.237547928 0.8106356473
635296190.0 0.0022569283 -0.1138458835 0.0002148095 -2.99804e-05 4.19733e-05 3.98368e-05 -0.2296467812 0.8130202451
640296160.0 0.0008399463 -0.1138558277 0.0002027522 9.29237e-05 0.0001400558 7.59927e-05 -0.2212600242 0.8153589186
645296130.0 -0.0009368264 -0.1136260606 8.50808e-05 -3.89533e-05 0.000320218 8.15857e-05 -0.213301778 0.8177589652
650296100.0 -0.0025873382 -0.1135853632 6.8364e-05 -4.88315e-05 0.000124016 0.0002111819 -0.2050431052 0.8185930274
655296070.0 -0.0045441694 -0.1133821028 0.0001728928 7.73726e-05 0.0002562104 -5.13847e-05 -0.1959771209 0.820946776
660296040.0 -0.0061644617 -0.1134278767 0.0001820103 0.0001072563 0.0002844078 9.94374e-05 -0.1879755906 0.8232741364
665296010.0 -0.0075364067 -0.1134316095 0.0002566805 -3.94907e-05 -4.30073e-05 9.66571e-05 -0.1794006112 0.8251642857
670295980.0 -0.0096668028 -0.1129073346 0.0001829778 -7.06856e-05 0.0002819275 -9.01178e-05 -0.1717569231 0.8266741459
675295950.0 -0.0111575607 -0.1125657517 0.0002776935 -0.0002580236 0.0002283759 0.0001657137 -0.1636246898 0.8287721102
680295920.0 -0.0126637657 -0.1124926829 0.0002794536 0.0001612715 -3.21799e-05 1.18789e-05 -0.1549386182 0.8314015335
685295890.0 -0.0141306359 -0.1116780063 0.0001067614 7.531e-07 0.000217108 -3.92777e-05 -0.1463445351 0.8313920572
690295860.0 -0.0156320365 -0.1118468006 0.0002476673 -0.0001391606 0.0001630708 -8.00719e-05 -0.1382858379 0.8334872086
695295830.0 -0.0175477465 -0.1113715756 0.0001582756 5.12801e-05 6.8591e-06 -0.0001525903 -0.129558078 0.8342985164
700295800.0 -0.019235663 -0.1112765953 0.0003895571 -0.0001150922 0.0001293795 2.90564e-05 -0.1219707594 0.8357167849
705295770.0 -0.0210379124 -0.1107937184 5.90175e-05 -1.47624e-05 0.0001206897 0.0001302696 -0.1137470487 0.8378553791
710295740.0 -0.022507127 -0.1101732778 0.0001555127 0.0001169725 0.0001979767 -0.0002281826 -0.104898461 0.8382198595
715295710.0 -0.0242230128 -0.1100587479 9.74405e-05 7.43877e-05 8.50673e-05 5.56791e-05 -0.0968282812 0.8396630645
720295680.0 -0.0256912425 -0.1097191426 4.20593e-05 -8.6209e-05 0.0001050196 -0.000180559 -0.0877939341 0.8408063061
725295650.0 -0.0274789014 -0.1091250339 0.0002882109 -0.0001593161 8.57919e-05 -6.73716e-05 -0.0799637369 0.8417200192
730295620.0 -0.0289273898 -0.1085407207 0.0005860424 0.0001594465 7.92461e-05 4.61507e-05 -0.0721954651 0.8425327277
735295590.0 -0.0306377495 -0.1080346037 0.0001374078 -0.0001650409 8.9792e-05 0.0002316283 -0.0636138162 0.842622161
740295560.0 -0.0324465284 -0.10729637 -7.3266e-05 4.3205e-05 -3.29683e-05 6.98598e-05 -0.054460844 0.8435741866
745295530.0 -0.0340964132 -0.106988954 0.00038355 0.0001166321 0.0001608909 -5.37685e-05 -0.0456123742 0.8436686539
750295500.0 -0.0352261271 -0.1061312231 0.0003286703 -2.64913e-05 0.0001443496 -6.37151e-05 -0.0381850088 0.8442551067
755295470.0 -0.0369379827 -0.106050297 0.000210332 -0.0001470601 0.0002361963 0.0002231987 -0.029140949 0.8439791889
760295440.0 -0.0386316898 -0.1050726286 -7.02281e-05 -0.0001216919 0.0002933407 8.4875e-05 -0.0212761392 0.8444826439
765295410.0 -0.0402248924 -0.1043317412 0.0001394802 0.0001065157 0.000116035 3.06559e-05 -0.0129729489 0.8445843055
770295380.0 -0.0419853153 -0.1040896356 0.0002717261 -9.11685e-05 0.0002452498 7.40935e-05 -0.0044890699 0.8443952421
775295350.0 -0.0433852604 -0.1035735734 -0.0001078074 -5.16426e-05 0.0001148828 8.67928e-05 0.0037181876 0.8440358496
780295320.0 -0.0448396079 -0.1025878071 -6.4437e-06 2.82273e-05 0.0003004229 7.8847e-05 0.0122336171 0.8440327728
785295290.0 -0.0466463644 -0.1023994409 0.0001113264 -1.82664e-05 0.0001968488 6.07406e-05 0.0206978102 0.8436579816
790295260.0 -0.0476770639 -0.1010273677 0.000416489 -6.23365e-05 0.0001657089 -7.18544e-05 0.0295206991 0.8446313453
795295230.0 -0.0492909094 -0.1004212845 4.25944e-05 -9.84793e-05 0.0002428521 2.95505e-05 0.0383652396 0.8431123579
800295200.0 -0.05102214 -0.0992801816 0.0001173604 0.0001196133 7.35159e-05 -4.89066e-05 0.0467840732 0.842853254
805295170.0 -0.0522824566 -0.0990009947 0.0001317612 -1.51169e-05 0.0002361831 -7.31821e-05 0.0549163769 0.8428037427
810295140.0 -0.0537316021 -0.0981204389 0.0003899886 -0.0001084878 0.0001148826 8.17587e-05 0.0632617732 0.8416506042
815295110.0 -0.0554965219 -0.0974207368 0.0001436779 -0.0001359458 0.0001525071 -0.000125829 0.0715756351 0.8409094835
820295080.0 -0.0565932796 -0.0962899567 0.0001778226 -2.85111e-05 4.63058e-05 -0.000100786 0.0799658501 0.8403727577
825295050.0 -0.0581730389 -0.0959465576 0.00019934 -0.0002427388 0.0002429584 0.0001665543 0.0881289649 0.8398870793
830295020.0 -0.0596727222 -0.0944538657 -1.587e-05 -0.0001089014 0.0001767688 3.1286e-05 0.0973782498 0.8385309624
835294990.0 -0.0611642528 -0.093613058 0.0002790696 -0.0002822538 0.0001056628 -0.0001527577 0.1044811231 0.8380042373
840294960.0 -0.0622882801 -0.0925264486 9.79619e-05 -8.98428e-05 -3.83574e-05 0.0002080269 0.1135495443 0.836518594
845294930.0 -0.0636543005 -0.0918228032 2.16993e-05 -2.22756e-05 0.0002868362 1.82743e-05 0.1210188143 0.8353644761
850294900.0 -0.0649882147 -0.0906957567 -0.0001152811 -2.13123e-05 4.26101e-05 -0.0001624297 0.130224764 0.8339080162
