!Created with skrf (http://scikit-rf.org).
# Hz S RI R 50.0 
!freq ReS11 ImS11 ReS21 ImS21 ReS12 ImS12 ReS22 ImS22
300000.0 -0.2374843653 -0.1134973167 0.4670223807 0.0752470823 0.4655159057 0.0769081828 -0.2332293466 -0.1225151354
5299970.0 -0.2450798454 0.0060125479 0.4736771406 0.0053483251 0.4739840765 0.0055940389 -0.2438018851 0.0053333763
10299940.0 -0.2417783361 0.0186765308 0.4760309207 0.0068559915 0.4759944765 0.007277026 -0.2402341815 0.0179538504
15299910.0 -0.2370030564 0.0284386065 0.4795237783 0.0081880491 0.4799192853 0.0082510502 -0.2363015297 0.0271067887
20299880.0 -0.2316421886 0.0365221035 0.4843769308 0.0079086924 0.4846779 0.0081387712 -0.2313550348 0.0354023763
25299850.0 -0.2257393194 0.042987687 0.489707698 0.0077613567 0.4897407207 0.0074404897 -0.2261844083 0.0418941201
30299820.0 -0.2203841145 0.0474956369 0.4950432939 0.0056889532 0.4952374948 0.0057650734 -0.2210177809 0.0469938064
35299790.0 -0.214352667 0.0516429915 0.4996060587 0.0026849656 0.5008152929 0.0021963667 -0.2159012883 0.0514206993
40299760.0 -0.2092460351 0.0548077795 0.5058101904 -0.0013970266 0.5057628861 -0.0013368036 -0.2108420186 0.0546062414
45299730.0 -0.2041665774 0.0570443572 0.510315772 -0.0062089712 0.5106619817 -0.0062341748 -0.2056633374 0.057460552
50299700.0 -0.1990543025 0.0588701907 0.5145573891 -0.0117877079 0.514726227 -0.0121820773 -0.2013937112 0.0601849742
55299670.0 -0.1949527304 0.0604794154 0.5184037779 -0.0177593231 0.5180891163 -0.0180304046 -0.1978988798 0.0620364563
60299640.0 -0.1909868621 0.0620878737 0.5219443289 -0.0246393448 0.5217744534 -0.0242303395 -0.1938526585 0.0633788249
65299610.0 -0.1873832084 0.0626106886 0.5252537644 -0.0306578291 0.5249733752 -0.0303403387 -0.1901658342 0.0646240576
70299580.0 -0.1840065382 0.0632434574 0.5273377622 -0.0368974906 0.5269460279 -0.0371904092 -0.1873519308 0.0656536281
75299550.0 -0.1811027682 0.0636666075 0.5287965606 -0.044157516 0.5292148361 -0.0439055241 -0.1845068335 0.0667346617
80299520.0 -0.1785046611 0.0644736191 0.5309276136 -0.0506329512 0.5310027982 -0.0509549047 -0.1817516324 0.0681505463
85299490.0 -0.1757696643 0.0647344907 0.5322940001 -0.0575853211 0.532648791 -0.057712132 -0.1792588792 0.068767507
90299460.0 -0.17352127 0.0655827036 0.5332857897 -0.0645067328 0.533290599 -0.0643926912 -0.1770523015 0.069852781
95299430.0 -0.1713650904 0.0656264756 0.5342850171 -0.0716988059 0.5346940122 -0.0717354399 -0.1749216105 0.0707121045
100299400.0 -0.1692481956 0.0661237735 0.5345681379 -0.0780249053 0.5350567187 -0.0785459988 -0.1731919452 0.0717096266
105299370.0 -0.1674740353 0.0665639717 0.5345647228 -0.085122401 0.5354031483 -0.0854477063 -0.1714084397 0.0721924989
110299340.0 -0.1658803367 0.0667520077 0.5354481996 -0.0916611352 0.5354347489 -0.0920639975 -0.1699059391 0.0731370497
115299310.0 -0.1646122912 0.0675945654 0.5351677881 -0.0986150708 0.5352488758 -0.0987979826 -0.168486443 0.0742429377
120299280.0 -0.1631982787 0.0682801149 0.5350404122 -0.1059402054 0.5349466149 -0.1062839928 -0.1668778655 0.0747127929
125299250.0 -0.1619583486 0.0686750798 0.5345044529 -0.1125924208 0.5345119463 -0.1123113278 -0.1655980118 0.0760114081
130299220.0 -0.1609424142 0.0691319546 0.5342052713 -0.1191200835 0.5341315541 -0.1194765834 -0.1644942491 0.076950607
135299190.0 -0.1598105635 0.0703770541 0.5339327581 -0.1256498634 0.5339245567 -0.1263340388 -0.163127574 0.0777366252
140299160.0 -0.1585278386 0.0708521738 0.5328420507 -0.1327334183 0.5327765893 -0.1320515019 -0.1623761542 0.0788101186
145299130.0 -0.1581438284 0.0715169816 0.5316786806 -0.1391694899 0.5321753623 -0.1390519567 -0.1610969227 0.0799786315
150299100.0 -0.1568203501 0.072602749 0.5307358666 -0.1456673394 0.5309977854 -0.1457555716 -0.1601556329 0.081456241
155299070.0 -0.1555668033 0.0734689949 0.5287050223 -0.1523556182 0.5293706354 -0.1522428262 -0.1589602325 0.0822488684
160299040.0 -0.1550689415 0.0743880109 0.5280069972 -0.1585871926 0.5277699388 -0.1588448848 -0.1578887473 0.0835055676
165299010.0 -0.1540378027 0.0751615901 0.5268104466 -0.1646859012 0.5267983555 -0.1655148038 -0.1569504106 0.0846202131
170298980.0 -0.153206399 0.0763735178 0.52460045 -0.1713361219 0.5250097527 -0.1716239984 -0.1560703748 0.0856930494
175298950.0 -0.1525296968 0.0772693224 0.5236132936 -0.1774968396 0.5239944668 -0.1780211374 -0.1553089975 0.0873296606
180298920.0 -0.1515213349 0.078434915 0.521751849 -0.1841386905 0.5217483216 -0.1846401144 -0.1542358865 0.0884072897
185298890.0 -0.1510976515 0.0795903708 0.5204894763 -0.190341245 0.5200824543 -0.1906191867 -0.153002627 0.0897485039
190298860.0 -0.149757753 0.0807529221 0.5177731576 -0.19636327 0.5182201672 -0.1963545466 -0.1524750882 0.0908203107
195298830.0 -0.1489722619 0.0821177819 0.5160019897 -0.2027958512 0.5164596045 -0.2030068625 -0.1515018521 0.092282358
200298800.0 -0.1481111373 0.0828318289 0.514080047 -0.2090959505 0.51396032 -0.209158555 -0.1505555083 0.0932660284
205298770.0 -0.1478715777 0.0839977862 0.5114951962 -0.214666469 0.5121620142 -0.2146107738 -0.1497008503 0.0950155352
210298740.0 -0.1470203805 0.0856277438 0.5098657475 -0.2207908581 0.509521742 -0.2209559554 -0.148771751 0.0962508067
215298710.0 -0.146126859 0.0866002497 0.5068744005 -0.226406857 0.5072981153 -0.2268603839 -0.1477677979 0.097474056
220298680.0 -0.1454019181 0.0880157162 0.5044724659 -0.2326566671 0.5045465226 -0.2329164109 -0.1463600304 0.0990511453
225298650.0 -0.1446618605 0.0891065226 0.501883349 -0.238492509 0.5022052659 -0.238217787 -0.1455286303 0.1001076897
230298620.0 -0.1438122437 0.0906984416 0.4998313148 -0.2444682478 0.5000961827 -0.2445740129 -0.1448381768 0.1018131151
235298590.0 -0.1434508623 0.0919300271 0.4970269971 -0.2504941111 0.4971027333 -0.2502490385 -0.1435485588 0.1031970589
240298560.0 -0.1423596454 0.0931632513 0.4943072233 -0.2555607213 0.4943715142 -0.2555002484 -0.1428726987 0.104311337
245298530.0 -0.1416094213 0.0944009989 0.4918768445 -0.2619791397 0.4915109024 -0.2615762232 -0.1416300797 0.1061484942
250298500.0 -0.1410045893 0.0956775349 0.4887967298 -0.2672297402 0.4888027096 -0.2669603542 -0.1406963356 0.1074435802
255298470.0 -0.1398530799 0.0972452349 0.4859242658 -0.2729154544 0.4864585018 -0.2729542722 -0.1396113012 0.1091764248
260298440.0 -0.1392431842 0.0982067466 0.4831473463 -0.2777516955 0.4832103681 -0.2781106827 -0.1385580774 0.1102857415
265298410.0 -0.1385040411 0.0997571921 0.4796308634 -0.2839537987 0.4799620671 -0.2841746659 -0.1366561785 0.1117257845
270298380.0 -0.1377644649 0.1009431113 0.4767614388 -0.2890699498 0.4770051455 -0.2889538206 -0.1361312356 0.1133976639
275298350.0 -0.1367930054 0.1026020273 0.4733551199 -0.2945230987 0.4735583385 -0.2946518643 -0.1350024256 0.1147713584
280298320.0 -0.1362499465 0.1038527267 0.4705120958 -0.2995009129 0.4710945436 -0.2999618431 -0.1337364344 0.1163312553
285298290.0 -0.1350764562 0.105310169 0.4670552274 -0.3051440498 0.4676366825 -0.3049412905 -0.1327121625 0.1177271143
290298260.0 -0.1343219994 0.1064773737 0.4646451147 -0.3105776702 0.4642414496 -0.3102568738 -0.1314782035 0.1194062072
295298230.0 -0.1334787634 0.1074898169 0.4606598086 -0.3160310009 0.4605836533 -0.316104506 -0.1298756362 0.1202693718
300298200.0 -0.1323236994 0.1091277109 0.4575231886 -0.320988325 0.4577982382 -0.321210274 -0.1289445669 0.1220625004
305298170.0 -0.1314060682 0.1099696314 0.4538176406 -0.3265586356 0.4540525624 -0.3267351391 -0.1274243587 0.1229331402
310298140.0 -0.1302260407 0.1111973689 0.4504672724 -0.3315546405 0.4506650843 -0.331234383 -0.126191054 0.1243543716
315298110.0 -0.129826522 0.1123769967 0.4466465439 -0.3369881265 0.4469196091 -0.3372150057 -0.1249063141 0.1258891429
320298080.0 -0.128788022 0.1137648111 0.4421154936 -0.3421342075 0.4433811854 -0.3420656988 -0.1237178761 0.1269919343
325298050.0 -0.1283105861 0.1145712761 0.4389481104 -0.3463670078 0.4393355563 -0.3467109479 -0.1223388079 0.1281668621
330298020.0 -0.127656783 0.1161781891 0.4349006651 -0.3517818169 0.4354420879 -0.3520216543 -0.1216086224 0.1294999685
335297990.0 -0.1265539403 0.1173410469 0.4313817973 -0.3565498326 0.4315545588 -0.3571316844 -0.1201322445 0.1309748026
340297960.0 -0.1257416116 0.1186139589 0.4267803254 -0.3615280634 0.4267735029 -0.3617589258 -0.1187567204 0.1326184771
345297930.0 -0.1249946398 0.1199433588 0.4230531563 -0.3664957972 0.4228372478 -0.3665097801 -0.117458209 0.1337119718
350297900.0 -0.1242277259 0.121218952 0.419246974 -0.3705504033 0.4191562335 -0.3706797483 -0.1163970168 0.1350258197
355297870.0 -0.1231039259 0.1226954931 0.414839965 -0.3752752861 0.4149309835 -0.3748161572 -0.1148098671 0.1365031453
360297840.0 -0.1221411347 0.1237454056 0.4102928663 -0.3795425938 0.4106078694 -0.3802659309 -0.1132565027 0.1380950861
365297810.0 -0.1211626315 0.1252182335 0.4062113066 -0.3842989874 0.4063199503 -0.3845666198 -0.1123339713 0.1391778138
370297780.0 -0.1198735817 0.1266226325 0.4016539907 -0.3890294922 0.402359533 -0.3891489254 -0.1104886163 0.1407754505
375297750.0 -0.1188185077 0.1279251417 0.3977345957 -0.3932392683 0.3981883756 -0.3934550349 -0.1091453203 0.1418929143
380297720.0 -0.1180467093 0.1292841921 0.3938752601 -0.3979513104 0.3933274525 -0.3976621541 -0.1075441248 0.1434959298
385297690.0 -0.1169320844 0.1302347326 0.3890197098 -0.4014919537 0.3895682131 -0.4024852295 -0.105978426 0.1452096097
390297660.0 -0.1155638814 0.1312915269 0.3844373777 -0.4057574782 0.3849358053 -0.4060231735 -0.1043337612 0.1458075502
395297630.0 -0.1143153333 0.1326605527 0.3803738293 -0.4096110187 0.3801611093 -0.4102874244 -0.1028792064 0.1472244634
400297600.0 -0.1135252592 0.1339579105 0.3760467933 -0.4146765707 0.3761383591 -0.4143932013 -0.1012024022 0.1488438184
405297570.0 -0.1122519782 0.1346200793 0.3714437893 -0.4182770284 0.3714633203 -0.4188950962 -0.0994860976 0.1499384341
410297540.0 -0.1111334357 0.136422709 0.366802843 -0.4228622054 0.3669081758 -0.4227963229 -0.0981106893 0.1513996789
415297510.0 -0.1097785478 0.1375274397 0.3616549579 -0.426752598 0.362383437 -0.4268633897 -0.0960419643 0.1524413952
420297480.0 -0.108428586 0.1381542935 0.3572050361 -0.43034032 0.357281143 -0.4307561527 -0.094222931 0.1541842908
425297450.0 -0.1069514166 0.1394543956 0.3524933802 -0.4344388455 0.3523006932 -0.4347627844 -0.0929261886 0.1546590714
430297420.0 -0.1061213906 0.140972833 0.3478995177 -0.438565628 0.3482171374 -0.4381506191 -0.0909681921 0.1560016733
435297390.0 -0.1049418044 0.1416716361 0.3433158388 -0.442572897 0.3428645311 -0.4418933691 -0.0898134833 0.157421175
440297360.0 -0.1033737134 0.1426988687 0.3379627735 -0.4459622184 0.3381393586 -0.4460473636 -0.0878115132 0.1585034844
445297330.0 -0.1018969185 0.1434567175 0.3333347222 -0.4492298541 0.3332760075 -0.449897221 -0.0860192976 0.1598003987
450297300.0 -0.100865934 0.1448247488 0.3285352805 -0.4530456778 0.3286631759 -0.4527591634 -0.0840850219 0.1605140771
455297270.0 -0.0994292385 0.1459893402 0.323341526 -0.4566812709 0.3234687131 -0.4568210557 -0.0821356096 0.1616294179
460297240.0 -0.097842286 0.1469499394 0.3186959387 -0.4607322658 0.318640398 -0.4608348702 -0.0808624649 0.1629083802
465297210.0 -0.0963913936 0.1480282307 0.3130174563 -0.4640525988 0.3128239281 -0.4641585337 -0.0786065136 0.164226782
470297180.0 -0.0949590343 0.1487565473 0.3083480866 -0.4667945684 0.3085702699 -0.4670553581 -0.0767393389 0.1647650473
475297150.0 -0.093743749 0.150082919 0.3028392164 -0.4706369935 0.3034009173 -0.4705373966 -0.0753593601 0.1657257663
480297120.0 -0.0919552243 0.1513774777 0.2980523224 -0.4737659326 0.2981519359 -0.4734309524 -0.073194155 0.166903125
485297090.0 -0.0908469423 0.1519752014 0.292588988 -0.4770311159 0.2924496016 -0.4767928149 -0.0715424601 0.16775964
490297060.0 -0.0883963921 0.1532637949 0.2870097006 -0.4803203563 0.2877929847 -0.4801963819 -0.0697700504 0.1684681308
495297030.0 -0.0877689377 0.1539924959 0.2826360123 -0.4832650688 0.2822100284 -0.4833812902 -0.0672250971 0.1695652027
500297000.0 -0.0861974517 0.1548323462 0.2770040022 -0.4859822246 0.2770707666 -0.4863539833 -0.0656606614 0.1704507557
505296970.0 -0.0837958356 0.1560470248 0.2717925948 -0.489281438 0.2716560133 -0.4892563807 -0.063734347 0.1712727856
510296940.0 -0.0828955348 0.1568301461 0.26664612 -0.4926579042 0.2665347898 -0.492594076 -0.0616213369 0.1723036176
515296910.0 -0.0813230996 0.1578465706 0.2607128069 -0.4949350126 0.2605711314 -0.4951085778 -0.05975497 0.1727286915
520296880.0 -0.0795946974 0.1589008948 0.2559530257 -0.4975126857 0.2550717402 -0.4978700879 -0.057418333 0.1741127699
525296850.0 -0.0779780822 0.159735229 0.2500435956 -0.5006229019 0.2495644225 -0.500527501 -0.0553625861 0.1745378372
530296820.0 -0.0764932847 0.1604010088 0.2444434488 -0.5030410578 0.2444203819 -0.5029497235 -0.053692461 0.1749461511
535296790.0 -0.0743617846 0.161366422 0.2389606073 -0.5056802915 0.2390478591 -0.5059884219 -0.0516513241 0.1762722595
540296760.0 -0.0727106637 0.1623745191 0.2334909362 -0.5082558746 0.2330981759 -0.5081566226 -0.0496643627 0.1765360422
545296730.0 -0.071887344 0.1635947025 0.2282030909 -0.5106604327 0.227699509 -0.5105245777 -0.0475996399 0.1774933105
550296700.0 -0.0694892799 0.1640079529 0.2219030396 -0.5135409142 0.2217885973 -0.5136698924 -0.0452824903 0.1780956507
555296670.0 -0.0680441846 0.1648774008 0.216595691 -0.5157097675 0.2167576422 -0.5156466622 -0.0439911509 0.1783191832
560296640.0 -0.0657004815 0.1656368245 0.2105134889 -0.5179672618 0.2113028905 -0.5179963177 -0.0415924802 0.1795028614
565296610.0 -0.0649355852 0.1666515001 0.2056455573 -0.5206741642 0.2053220788 -0.5199594387 -0.0395260899 0.1800194778
570296580.0 -0.0630623443 0.1674847291 0.1995032781 -0.5222928289 0.1998698898 -0.5222815721 -0.0374703485 0.1801411782
575296550.0 -0.0611097401 0.1679300854 0.1942224255 -0.5244717759 0.194296478 -0.5245902022 -0.0355466993 0.1805193001
580296520.0 -0.0595236183 0.1690599101 0.1883192502 -0.5266793016 0.1880995302 -0.5266544773 -0.0336498297 0.1810204345
585296490.0 -0.0575674972 0.1698613727 0.1831208815 -0.5281256211 0.1822587295 -0.5283712678 -0.0312416364 0.1821270227
590296460.0 -0.055393803 0.1704149832 0.1772031199 -0.5302532957 0.1768486088 -0.530654607 -0.0293954286 0.1825446669
595296430.0 -0.0538832519 0.1714170285 0.1707747867 -0.5321079457 0.1706130606 -0.532117907 -0.0273774238 0.1824660337
600296400.0 -0.0522517522 0.1719045315 0.1645489001 -0.5338179412 0.1650773007 -0.5339327246 -0.0251648468 0.1830897953
605296370.0 -0.0508337149 0.1726531065 0.1597611871 -0.5354284224 0.1592308101 -0.5358269888 -0.0232106831 0.183778899
610296340.0 -0.0486744381 0.1736033995 0.1537798552 -0.5370038993 0.1537462119 -0.5374061572 -0.0213155031 0.1841079977
615296310.0 -0.0468058017 0.1741854185 0.1479272843 -0.5392376188 0.1473922194 -0.5392443557 -0.0189367388 0.1844719534
620296280.0 -0.0454667905 0.1753553299 0.1416948143 -0.5402044695 0.141590365 -0.5401363134 -0.0171929991 0.1850623643
625296250.0 -0.0438437964 0.1756689046 0.1356344661 -0.5423268529 0.135853793 -0.5422000739 -0.0150271602 0.1851787303
630296220.0 -0.0418871744 0.176573573 0.1299590977 -0.5434733565 0.1298972975 -0.5432354997 -0.0130579005 0.1852255068
635296190.0 -0.0403084034 0.1773677932 0.124587993 -0.544483071 0.1240954504 -0.5446218752 -0.0110155578 0.1857063893
640296160.0 -0.0382546326 0.1775645393 0.1179988891 -0.5459649417 0.1181690234 -0.5462191214 -0.0090995651 0.1859256466
645296130.0 -0.0361729923 0.1788160297 0.1122559087 -0.5472552757 0.1122213155 -0.5471881152 -0.0073344182 0.1858056884
650296100.0 -0.0346853836 0.1787987588 0.1063601319 -0.5481662373 0.1062067644 -0.5486532395 -0.0044654264 0.1861903614
655296070.0 -0.0330951725 0.1794624277 0.100331094 -0.5495221943 0.1003987675 -0.5492909001 -0.0027633606 0.1867478064
660296040.0 -0.031219979 0.1805376623 0.0948884615 -0.5506049131 0.094342547 -0.5505191629 -0.0008210416 0.186733287
665296010.0 -0.0291138467 0.1810040506 0.0878156622 -0.551217239 0.0880473883 -0.5515939332 0.0015898965 0.1868523054
670295980.0 -0.027687406 0.1814208652 0.0825118731 -0.5520519269 0.082339515 -0.5516004441 0.0032951026 0.1867448307
675295950.0 -0.0257756531 0.1819689846 0.0764100207 -0.5527419673 0.0765909264 -0.5530541822 0.0052375437 0.1871814576
680295920.0 -0.0244918157 0.182505546 0.0709752963 -0.5536820601 0.0704370309 -0.5535353399 0.0076959637 0.1868939558
685295890.0 -0.0222261594 0.1832617288 0.0644360773 -0.5547772844 0.0643940276 -0.5547005795 0.0099144254 0.1874646981
690295860.0 -0.0207940007 0.1836676728 0.0591713575 -0.5551597812 0.0581277384 -0.5554889497 0.0115755526 0.1872118327
695295830.0 -0.0188109553 0.183813556 0.0529739811 -0.5557836009 0.0523863499 -0.555739349 0.0137532213 0.1874409534
700295800.0 -0.0169565382 0.1847847594 0.0469871163 -0.5562215671 0.0467574158 -0.5562387751 0.0158727166 0.1874483514
705295770.0 -0.015633104 0.1850551292 0.0410651499 -0.5571471765 0.0406461473 -0.5565420496 0.0177776014 0.1873227589
710295740.0 -0.0138898977 0.1850817151 0.0352452017 -0.5571153293 0.034256564 -0.5573619214 0.02026933 0.1874807082
715295710.0 -0.0117129884 0.1858670334 0.0288952646 -0.5574564862 0.0284147655 -0.5574725571 0.022148167 0.1870446133
720295680.0 -0.0094868337 0.1860258466 0.0225885272 -0.5577224086 0.0225098861 -0.5577802082 0.024337562 0.1869386647
725295650.0 -0.0087117659 0.1865988776 0.0169268503 -0.5578493166 0.0168209479 -0.5580703794 0.0258879432 0.1875580628
730295620.0 -0.0069883703 0.1866104046 0.0104360873 -0.5573841572 0.0106211068 -0.5575561368 0.0279585439 0.1874211823
735295590.0 -0.0049315595 0.1871771074 0.0053064793 -0.5580069383 0.004435522 -0.558048118 0.0301832835 0.1867692788
740295560.0 -0.0035956799 0.1873331577 -0.0007793385 -0.5581484339 -0.0012075028 -0.5583776924 0.0322463219 0.1870369493
745295530.0 -0.0016044306 0.1877120675 -0.0070125647 -0.5575161177 -0.0065373877 -0.5577943334 0.03382949 0.1864245995
750295500.0 -0.0002375804 0.1881369895 -0.012468621 -0.5578213608 -0.0134029025 -0.5577815476 0.0361551058 0.1865132374
755295470.0 0.00166674 0.1882369401 -0.0186718569 -0.5576647264 -0.0190626276 -0.5578037813 0.0383288188 0.1864290921
760295440.0 0.0036067235 0.189067215 -0.0255536671 -0.5575405254 -0.0253275555 -0.5570097792 0.0404368158 0.1853291883
765295410.0 0.0055606524 0.1884360699 -0.0311902868 -0.557018903 -0.0308173761 -0.5569627534 0.0425871191 0.1854615945
770295380.0 0.0069718166 0.1891312395 -0.0368489215 -0.556393873 -0.036869192 -0.5571060058 0.0440324381 0.185154141
775295350.0 0.0086390812 0.1890929854 -0.0426574078 -0.5559035733 -0.0430531865 -0.5559725725 0.0464109352 0.1848246811
780295320.0 0.0104440642 0.1896135033 -0.0486868355 -0.5553527492 -0.0488142605 -0.5554289315 0.0487186827 0.1842055835
785295290.0 0.0122218251 0.1893105991 -0.0549676059 -0.5555004764 -0.0548918333 -0.555082652 0.0502076315 0.1845290182
790295260.0 0.0138303823 0.189362194 -0.0605563527 -0.5545961 -0.0606648036 -0.5549813915 0.0523197396 0.1843608115
795295230.0 0.0157285687 0.1891795892 -0.0667473465 -0.5535829843 -0.0670278711 -0.5539409488 0.0543930866 0.1832265391
800295200.0 0.0171285929 0.1900005062 -0.0719389333 -0.5524661721 -0.0727421372 -0.5531609766 0.056341088 0.1829100627
805295170.0 0.018916066 0.1896831191 -0.0787237396 -0.5523971342 -0.0785618356 -0.5523563136 0.058765123 0.1824511458
810295140.0 0.0209788383 0.1897332664 -0.0845169833 -0.5513060015 -0.0847334327 -0.551283822 0.060592699 0.1819891097
815295110.0 0.0223947471 0.1899402682 -0.0900961338 -0.5502022481 -0.0903468966 -0.5504642408 0.0623349271 0.1814112192
820295080.0 0.0242091283 0.1897219419 -0.0960214763 -0.5488457213 -0.0960806872 -0.5496437006 0.0638440618 0.1814377498
825295050.0 0.0258940841 0.1896162359 -0.1024173486 -0.5481533479 -0.1022662069 -0.548261035 0.0668137537 0.1805705772
830295020.0 0.027647356 0.1896460888 -0.108043935 -0.5469993066 -0.1077417939 -0.5471943027 0.0682269649 0.1796856236
