!Created with skrf (http://scikit-rf.org).
# Hz S RI R 50.0 
!freq ReS11 ImS11 ReS21 ImS21 ReS12 ImS12 ReS22 ImS22
300000.0 -0.2106708383 -0.1045228571 -0.0009337471 0.0011457627 -0.0008617206 0.0008014419 -0.7630313411 -0.1960421213
5299970.0 -0.2152247931 0.0067704881 0.0001012784 2.80874e-05 0.0002754634 0.0002590377 -0.7848920961 -0.0101893006
10299940.0 -0.211841431 0.0199356647 5.25489e-05 0.0001168454 -9.75222e-05 -3.13512e-05 -0.7871729913 -0.0054031536
15299910.0 -0.2063047384 0.030194805 0.000185162 2.82504e-05 -3.0556e-06 5.67224e-05 -0.7926646545 -0.0026577134
20299880.0 -0.2006956429 0.0380696532 -7.92871e-05 -7.46742e-05 -0.0001687473 -6.57557e-05 -0.7994795964 0.0018380036
25299850.0 -0.194149687 0.0448731184 -0.0002185871 1.48424e-05 0.0002179514 0.000270338 -0.8054810361 0.0077008094
30299820.0 -0.1878132071 0.0493554912 0.0002116431 -1.92615e-05 0.0002307516 -4.88357e-05 -0.8117213554 0.0156018863
35299790.0 -0.1816386807 0.0533808837 0.0002749549 -5.2261e-05 0.0001158648 -0.0001777575 -0.816591967 0.0247562179
40299760.0 -0.1752878475 0.0563324704 -8.97362e-05 5.72561e-05 0.0001890292 4.75653e-05 -0.8211365585 0.0341345666
45299730.0 -0.1697847418 0.0582765171 -5.55482e-05 0.0001098865 0.0001916047 -0.000141316 -0.8241903828 0.0434092143
50299700.0 -0.1645711339 0.0594364091 3.84972e-05 -5.69316e-05 7.25683e-05 0.0001417234 -0.8263022642 0.0540049421
55299670.0 -0.1597395813 0.0603735122 0.0003686765 -0.0001682824 -7.32845e-05 -0.0001022231 -0.8286128762 0.0637401866
60299640.0 -0.1551125559 0.0610395992 2.1588e-05 -0.0002013845 7.0002e-05 -2.37537e-05 -0.8295542682 0.0738236391
65299610.0 -0.1509948945 0.0613896658 -4.60645e-05 -0.0002221469 0.0001434248 -2.40639e-05 -0.8302508939 0.0842657511
70299580.0 -0.1479258386 0.0614697727 8.56975e-05 -2.87492e-05 -0.0002501701 0.0001308543 -0.83089602 0.0936196521
75299550.0 -0.1447928541 0.0613890235 1.96965e-05 6.20619e-05 3.08549e-05 -0.0002158522 -0.830423223 0.1039474487
80299520.0 -0.1416848275 0.0613918342 4.52815e-05 1.2009e-06 8.0316e-06 1.86897e-05 -0.8304295889 0.1141756911
85299490.0 -0.1389599078 0.0610607439 0.0001051811 0.0001389709 -5.35925e-05 -0.0001174518 -0.8298847537 0.1231660683
90299460.0 -0.1362819872 0.0609889457 -0.0001594888 -9.85364e-05 2.5201e-06 -0.0001168265 -0.828767081 0.1326525298
95299430.0 -0.1344824726 0.0608354467 0.0001607217 0.0002946633 0.0003670338 1.95878e-05 -0.827873915 0.142724004
100299400.0 -0.1322294611 0.0603918174 -9.29301e-05 -0.0001685256 -0.0002092248 0.000216444 -0.8267527178 0.1518688655
105299370.0 -0.1303973507 0.0603564874 -9.2483e-06 0.0002223138 -2.60544e-05 9.03975e-05 -0.8255597063 0.1607528929
110299340.0 -0.1286737118 0.059814636 0.000142729 -0.0002454108 -7.45337e-05 6.36581e-05 -0.8242868952 0.1698746677
115299310.0 -0.1275352996 0.0601325309 9.90543e-05 4.80875e-05 -1.48757e-05 6.71399e-05 -0.823118374 0.1794055317
120299280.0 -0.1258684569 0.059864097 -0.0001468198 0.0001170311 -1.3576e-05 2.55449e-05 -0.8212744937 0.1881612708
125299250.0 -0.1246377053 0.059769478 -0.0001889403 -3.8621e-05 6.36731e-05 0.0002157641 -0.8195774404 0.1968328821
130299220.0 -0.1239140554 0.0597707329 -0.0002008951 0.0001308903 -8.18814e-05 0.0001616176 -0.8176752746 0.2058072225
135299190.0 -0.1226884082 0.0599125734 6.78945e-05 0.0001401154 1.79449e-05 -5.58616e-05 -0.8160086628 0.2150458922
140299160.0 -0.1218217704 0.060326005 0.0001845138 0.0001727246 0.0001930075 -4.33113e-05 -0.8137834369 0.2232842205
145299130.0 -0.1208024684 0.0605552024 0.0001182499 -7.75371e-05 0.0002733338 -0.0001007217 -0.811507891 0.2324103836
150299100.0 -0.1200145828 0.0605891618 -3.61948e-05 0.0002387115 -0.0001572861 -0.0001288646 -0.809543626 0.2414912596
155299070.0 -0.1194858701 0.0610359107 6.66576e-05 -7.84516e-05 5.47789e-05 0.0001376125 -0.8067434401 0.2501925046
160299040.0 -0.1188432141 0.061432047 0.0001637579 9.8051e-06 -5.26857e-05 6.65602e-05 -0.8044887602 0.2588402943
165299010.0 -0.1180804354 0.061704062 0.0001116424 -4.18653e-05 0.0001186469 -0.000192848 -0.8012125385 0.2673556192
170298980.0 -0.1174590055 0.0621130545 0.0002187733 1.31268e-05 0.0002676841 8.92914e-05 -0.7993564653 0.2759835326
175298950.0 -0.1170491248 0.062286956 -5.42244e-05 -0.0001594959 0.0001673461 1.54919e-05 -0.795952004 0.2851266382
180298920.0 -0.1164140428 0.0631133727 5.57794e-05 -1.66091e-05 -5.10467e-05 0.0002005166 -0.7934701673 0.2931815952
185298890.0 -0.1156202764 0.0633923945 7.41119e-05 0.0001282086 0.0001906172 5.6898e-06 -0.7901882661 0.3016889308
190298860.0 -0.1149828901 0.0644784354 0.0001767577 6.53904e-05 0.0001356771 -1.70891e-05 -0.7871365698 0.3099554754
195298830.0 -0.1142508474 0.065115697 -6.26395e-05 -4.49279e-05 -4.56053e-05 -0.000148104 -0.7840375516 0.3184153701
200298800.0 -0.1138285587 0.0654478862 7.90266e-05 0.000109169 0.0002421708 6.77343e-05 -0.7807973851 0.3268792557
205298770.0 -0.113783135 0.0664328612 0.0001635663 4.15279e-05 -8.12707e-05 0.0001484091 -0.7772996557 0.3352521793
210298740.0 -0.1129539981 0.0669274283 6.52259e-05 0.0001271377 4.53498e-05 0.0001282525 -0.7739818478 0.343067574
215298710.0 -0.1127166671 0.0677873765 -1.63926e-05 0.0001794421 9.04789e-05 0.0001441769 -0.7706129918 0.3509880233
220298680.0 -0.1116922098 0.0685348218 0.0001109736 0.0001194197 -5.30346e-05 5.84555e-05 -0.7661643803 0.3593872188
225298650.0 -0.1114958259 0.0694069237 0.0001254596 -3.82535e-05 -4.12394e-05 -1.41949e-05 -0.7629797641 0.3679317641
230298620.0 -0.1111462127 0.0704303546 4.29117e-05 7.12071e-05 0.0002354 3.57326e-05 -0.7590871472 0.3754559737
235298590.0 -0.110591612 0.0713330699 -0.0001277345 6.64419e-05 -1.18718e-05 1.95192e-05 -0.7548222088 0.3834108685
240298560.0 -0.1104848111 0.0720169911 0.0002055448 0.0001728188 -6.11033e-05 0.0001759883 -0.7511364452 0.3909654448
245298530.0 -0.1098029417 0.0726823343 -3.85523e-05 0.0001887673 0.0001279018 -0.0001068636 -0.7471187478 0.3993051914
250298500.0 -0.1094120779 0.0736830302 7.2324e-05 0.0001645862 0.0001280157 0.0001807302 -0.7429847606 0.4067168538
255298470.0 -0.1087478343 0.0749429349 -6.73032e-05 0.0001479623 3.62283e-05 3.52495e-05 -0.7384136718 0.4148649937
260298440.0 -0.1084289723 0.075394521 5.38076e-05 1.41177e-05 0.0001960053 5.35193e-05 -0.7336426149 0.4219978267
265298410.0 -0.1080690913 0.076475994 0.0001997541 -3.34511e-05 -0.0001655085 -0.0001036262 -0.7295767991 0.4300862427
270298380.0 -0.1075337794 0.0772762586 0.0001748712 0.0001525044 0.0002140215 -0.000195855 -0.7246597856 0.4377305672
275298350.0 -0.1069475443 0.0784002383 -5.87054e-05 -4.04754e-05 7.32429e-05 7.83791e-05 -0.7205033215 0.4457615986
280298320.0 -0.1069113332 0.079372954 0.0001491085 0.0002818183 -4.80583e-05 6.1059e-06 -0.7160321562 0.4532266988
285298290.0 -0.106114174 0.0802596159 5.61201e-05 0.0003077908 0.0001323689 0.0002179749 -0.7117871511 0.4609701
290298260.0 -0.1056516463 0.0814196016 0.0001584382 6.11052e-05 0.0001493103 9.15469e-05 -0.7066023914 0.4677392352
295298230.0 -0.1051519281 0.0820921273 0.0001814901 6.14505e-05 0.0001057075 5.76237e-05 -0.7015262754 0.4750159896
300298200.0 -0.1044451946 0.0831746167 0.0002855168 0.0001546741 0.0001975923 1.6392e-06 -0.6964308361 0.4821207189
305298170.0 -0.1041442766 0.0841367873 2.04878e-05 -3.1924e-05 1.62585e-05 1.4342e-05 -0.6911700181 0.4896114765
310298140.0 -0.1034761985 0.0848797735 0.0001804506 0.0001013712 4.68995e-05 0.0001119442 -0.6865361265 0.4970871025
315298110.0 -0.1033046014 0.085643594 0.0001051276 0.0002386136 0.0002249537 0.0003619191 -0.6810551935 0.503773709
320298080.0 -0.1024879162 0.0865880199 0.0001712333 5.27914e-05 -1.411e-07 -0.0001266618 -0.6767008214 0.5106423131
325298050.0 -0.1022410539 0.0871544374 0.0001269949 0.0002421568 -1.96295e-05 -0.0001179101 -0.6703727776 0.5178129348
330298020.0 -0.1018384412 0.0886854266 3.42271e-05 0.0001843559 -6.27634e-05 6.7581e-06 -0.6646767957 0.5244207325
335297990.0 -0.101386173 0.0894628067 0.0003240961 0.000111939 0.0002339818 0.0001258027 -0.6591149557 0.5316896968
340297960.0 -0.1010835594 0.0906328575 0.0001171152 -1.13641e-05 0.0002448173 0.000209406 -0.6541256709 0.5388851165
345297930.0 -0.1003119216 0.091471136 0.0001306811 0.0003228158 2.8644e-06 7.69903e-05 -0.6486582442 0.5449731238
350297900.0 -0.0998069206 0.0923378388 -0.0001071779 0.0001631843 0.0001047431 2.6896e-05 -0.6432692883 0.5508615192
355297870.0 -0.0994437824 0.093344445 0.0001582373 0.0002058364 7.75928e-05 0.0002385688 -0.6366721187 0.5585533206
360297840.0 -0.0987870205 0.0946033021 0.0001228516 0.0001055812 -2.26807e-05 1.95139e-05 -0.6304639409 0.5654563472
365297810.0 -0.0979697104 0.0956943466 0.0001966161 -4.7046e-05 0.0001316361 -0.000138925 -0.6252646383 0.5706634017
370297780.0 -0.0976437975 0.096492003 0.0001029291 9.98451e-05 0.0001840065 0.000223736 -0.6187483147 0.577781128
375297750.0 -0.0969428989 0.0973292922 0.0001783256 8.60889e-05 0.0002269458 0.0001624163 -0.6135590145 0.5836682387
380297720.0 -0.0961981356 0.0988047692 2.3717e-06 -0.000205866 0.000123199 5.2562e-05 -0.6063532626 0.5903117421
385297690.0 -0.0954430121 0.0995740116 7.04099e-05 5.23448e-05 0.0001049131 9.91478e-05 -0.6016660782 0.5967589471
390297660.0 -0.0946163511 0.1002470595 -9.23614e-05 0.0001695176 0.0001949988 2.76655e-05 -0.5947489238 0.6016785379
395297630.0 -0.0939187151 0.1015175716 0.0001874088 -5.33842e-05 0.0002511477 0.0001958423 -0.5882346397 0.6080708406
400297600.0 -0.0932849645 0.1025442834 0.0002642828 1.93239e-05 5.82796e-05 9.87567e-05 -0.5830937315 0.614339973
405297570.0 -0.0926568013 0.103073026 0.0001640705 -0.0001128067 -1.36499e-05 0.0002389983 -0.5756082292 0.6203602934
410297540.0 -0.0915271974 0.1041504997 7.4745e-06 -7.386e-06 0.0001383251 -8.17431e-05 -0.5692212203 0.6257318269
415297510.0 -0.0907960249 0.1050540421 0.0001706902 1.65552e-05 0.0001132764 6.01942e-05 -0.563061482 0.6316263042
420297480.0 -0.0901387182 0.1057849868 0.0001230849 7.00971e-05 4.28924e-05 6.43302e-05 -0.556148619 0.6379548278
425297450.0 -0.0890915136 0.1067231093 8.59109e-05 4.85454e-05 8.08711e-05 5.51386e-05 -0.549810023 0.6424058672
430297420.0 -0.0883702001 0.1078696567 0.0001941647 3.3801e-06 0.0002699171 0.000150834 -0.5429158257 0.6483362936
435297390.0 -0.0876129937 0.1086137535 0.000213713 4.09099e-05 0.0001133728 0.0002914605 -0.5368766924 0.6543979737
440297360.0 -0.0866748969 0.1095760772 0.0001972305 0.0001223355 1.908e-05 0.0001415547 -0.5300693362 0.6597117475
445297330.0 -0.085726233 0.1101639746 0.0001535073 -5.59062e-05 0.0001563145 0.0002271511 -0.5229176068 0.6653125173
450297300.0 -0.0848093793 0.1111539119 8.11779e-05 0.0002213 0.0002587638 0.0001146683 -0.5155646257 0.6696966842
455297270.0 -0.0839327387 0.1121159227 0.0001604218 0.0001298994 0.0002523488 2.57995e-05 -0.5090245831 0.6755219874
460297240.0 -0.0826743795 0.1132227353 1.7772e-06 0.00024838 0.0001478301 -3.03254e-05 -0.5018816513 0.679796032
465297210.0 -0.0817411162 0.1137686308 3.64594e-05 0.0001982392 0.0001531647 0.0001486963 -0.4951375006 0.6859460662
470297180.0 -0.0807952682 0.1149114196 0.0001968034 2.75947e-05 0.0001329537 4.31879e-05 -0.488139386 0.6903691122
475297150.0 -0.0800190216 0.1157860922 0.0001502153 8.59328e-05 0.0002211371 4.81254e-05 -0.4810773504 0.6955165611
480297120.0 -0.0785086788 0.1164062981 0.0003440252 5.20999e-05 0.0002166781 0.0001825977 -0.4747644584 0.6999793188
485297090.0 -0.0775796634 0.1173098141 6.1392e-05 4.77268e-05 4.50463e-05 0.0001099949 -0.4672473219 0.7045423024
490297060.0 -0.0762956601 0.1183298114 3.38021e-05 0.0001472793 -0.0002267129 -6.40029e-05 -0.4596636561 0.7092472519
495297030.0 -0.0751718122 0.1190144387 9.69961e-05 6.67892e-05 3.06551e-05 -5.53389e-05 -0.4517205998 0.7136737748
500297000.0 -0.0744868539 0.1199435888 0.0001781717 3.68844e-05 0.0001816476 2.875e-05 -0.4453563264 0.7187960257
505296970.0 -0.0728524817 0.1206800367 7.16827e-05 7.02584e-05 0.0003106743 -5.46933e-05 -0.4378901759 0.7226456777
510296940.0 -0.0716984503 0.1215478961 0.0004879725 3.6113e-06 0.0003517437 0.0001420264 -0.4297376169 0.7273147464
515296910.0 -0.0707992249 0.1227269732 0.0001426109 0.0001501413 0.0002359811 7.76879e-05 -0.4230603611 0.7309423808
520296880.0 -0.0693773722 0.123034324 0.0001645472 -2.97398e-05 0.0001961066 -6.75017e-05 -0.4153383387 0.7359340875
525296850.0 -0.068590607 0.1238024762 -1.234e-06 -0.0002821178 0.0002448787 -0.0001008552 -0.4078502017 0.7399095321
530296820.0 -0.0674900282 0.1249991209 0.0001884292 -0.0002490449 0.0003482141 -1.37517e-05 -0.4005871223 0.7440173249
535296790.0 -0.0656664019 0.1257135955 0.0001495591 0.0001207585 0.0001239446 -3.25821e-05 -0.3928069737 0.7483242353
540296760.0 -0.0645244556 0.1264428858 0.0001057403 0.0002994394 0.0003098079 9.01281e-05 -0.3855574881 0.7520150597
545296730.0 -0.0637660314 0.1275924498 0.0002422159 5.17044e-05 0.0001346365 0.0001231591 -0.3780445125 0.7555876398
550296700.0 -0.0622014543 0.1283260159 0.0004174859 5.72989e-05 0.0003057108 -5.38932e-05 -0.3699284937 0.7590630057
555296670.0 -0.0609652462 0.1290290457 0.0001103921 0.0001604906 0.0001790752 -7.6712e-05 -0.3621694192 0.7622369587
560296640.0 -0.0595376114 0.1297839782 0.0002476454 7.68554e-05 0.0002399734 4.63613e-05 -0.3547303284 0.7663595163
565296610.0 -0.0586298958 0.1305782053 9.65244e-05 -2.34595e-05 0.0001369886 0.0001551789 -0.3469234695 0.7702824734
570296580.0 -0.0572122482 0.131482233 0.0002670695 6.97775e-05 -3.24042e-05 0.0002039272 -0.3390967304 0.7726853088
575296550.0 -0.0557651064 0.1320164511 0.0002155184 2.83882e-05 0.0002084402 8.1293e-06 -0.3310547377 0.7766033265
580296520.0 -0.0546776706 0.1333111942 0.0001861539 0.0002241281 7.59384e-05 0.0001208065 -0.3236080963 0.7792928842
585296490.0 -0.0533042053 0.1338268949 0.0003544294 0.0001201427 0.0001516678 0.0002213994 -0.3152406107 0.7833843647
590296460.0 -0.0518090374 0.134691414 0.0001484052 0.0001844479 4.6121e-05 1.50463e-05 -0.3073504883 0.7860113788
595296430.0 -0.0506326638 0.135372389 0.0002049841 4.7301e-05 3.29695e-05 0.0001169127 -0.3000295443 0.7890348023
600296400.0 -0.0494425817 0.1359968377 0.0001630066 3.91936e-05 0.0002388571 7.09154e-05 -0.2920961656 0.7916987378
605296370.0 -0.0481921018 0.1370389666 0.0001377482 0.0001336194 0.0001239908 6.5498e-06 -0.2832583654 0.7952734673
610296340.0 -0.0467002404 0.1377332508 0.0003087706 -0.0001475708 0.0002308066 5.59271e-05 -0.2758393274 0.7977527639
615296310.0 -0.0451356544 0.1384331305 0.0001821227 -2.12225e-05 6.75013e-05 0.0002644807 -0.2674171917 0.8006158109
620296280.0 -0.0437675109 0.1396964678 4.5641e-05 7.84279e-05 0.0001863278 -0.0001199517 -0.2598717944 0.8028900378
625296250.0 -0.0426474924 0.139481725 0.0003705804 -0.0001018382 -3.748e-06 0.0001058006 -0.2515133485 0.8048427072
630296220.0 -0.0412868032 0.1406219365 0.0003456649 5.80002e-05 0.0003077815 1.59882e-05 -0.2435631942 0.8082303367
635296190.0 -0.0401481934 0.141562765 4.22294e-05 -3.81709e-05 0.0002984644 0.0001526476 -0.2358199035 0.8101198439
640296160.0 -0.0383660483 0.1420710721 0.0001794735 -1.43811e-05 0.0002032577 -6.95408e-05 -0.2271841041 0.8128240379
645296130.0 -0.0368733477 0.143021033 0.0003999598 -4.62742e-05 0.0002378765 0.0001598763 -0.219487759 0.8146217212
650296100.0 -0.0358728008 0.1433900784 0.0001845187 4.94667e-05 0.0003151558 -2.64734e-05 -0.2109384313 0.8168447307
655296070.0 -0.0344609353 0.1441147363 -3.8293e-05 -0.000103784 0.0003058264 -2.8172e-05 -0.2032342397 0.8190389864
660296040.0 -0.0332033471 0.1449832314 0.000145122 -0.0001939492 0.000399128 -0.0001167355 -0.1942467993 0.8207870378
665296010.0 -0.0319467948 0.1458863289 0.0002693032 -1.52075e-05 0.000171152 0.0001075593 -0.1865220986 0.8222554323
670295980.0 -0.030632441 0.1462627348 0.000257006 -0.0001095185 0.0002122436 -6.7138e-06 -0.1785550422 0.824365937
675295950.0 -0.0293904616 0.1465664375 0.0001121925 -5.13961e-05 0.0002881612 0.0001862376 -0.1693625317 0.8262211185
680295920.0 -0.0282430841 0.1477686814 0.0002511822 -0.0002828831 0.0002409695 -2.01134e-05 -0.1616344351 0.8277908508
685295890.0 -0.026209351 0.1481913048 0.0001232451 9.05918e-05 0.0002632151 -0.0001077651 -0.1534935071 0.8297813442
690295860.0 -0.0250386439 0.1485922823 -4.38183e-05 0.0001671542 2.89358e-05 -7.22247e-05 -0.1456237461 0.8309628512
695295830.0 -0.0238635868 0.1491935102 0.0002311301 6.95201e-05 0.0001713931 -4.91847e-05 -0.1367779401 0.832830066
700295800.0 -0.0226864891 0.1498752418 0.0003446485 -0.0001501827 8.48081e-05 -4.61239e-05 -0.1284861694 0.8335417898
705295770.0 -0.02131635 0.1505726748 0.0003017178 7.32841e-05 0.0002104877 7.02176e-05 -0.1204683976 0.8351321977
710295740.0 -0.0197003549 0.1506486181 0.0003159242 7.02459e-05 0.0003013671 -5.99346e-05 -0.1117571873 0.836340116
715295710.0 -0.0182194382 0.1516138161 0.0001123742 -7.05697e-05 0.0003328698 7.63336e-05 -0.1034314385 0.8368520124
720295680.0 -0.0169133461 0.1516855984 0.000213039 -0.0002285992 5.31467e-05 -6.26823e-05 -0.0950018548 0.8374397813
725295650.0 -0.015785237 0.1526167704 0.0002847421 -4.44704e-05 0.0002001637 -8.62843e-05 -0.087116148 0.839186727
730295620.0 -0.0146092373 0.1528602857 0.0002976257 -0.0002645226 0.00035758 -1.4114e-05 -0.0786918218 0.840020589
735295590.0 -0.013080238 0.1537907316 0.0003242844 8.88601e-05 8.74925e-05 -1.184e-07 -0.0698669614 0.8405616411
740295560.0 -0.0122434284 0.1539895503 8.50663e-05 -0.0001441282 0.0002497217 -1.1168e-06 -0.0614731134 0.8415511885
745295530.0 -0.0104017614 0.1540069636 0.0003459754 -8.2294e-06 0.0001931545 -3.25511e-05 -0.0533406335 0.8417130332
750295500.0 -0.0094823334 0.154651149 0.0002368349 7.70717e-05 0.0002902849 -8.76432e-05 -0.0452403909 0.8421688971
755295470.0 -0.0078758606 0.1549249263 0.0003567005 3.53833e-05 0.0002213052 -9.36061e-05 -0.0368655584 0.8427762368
760295440.0 -0.0067283167 0.1555342215 2.89e-06 -0.0001450458 0.000380245 -0.0001073783 -0.0281744888 0.8425122991
765295410.0 -0.0050085945 0.1554968478 0.0001414361 -0.0003208587 0.0003363729 -0.0002750159 -0.0197688456 0.8433506954
770295380.0 -0.0042082154 0.1560404306 0.0002553227 -0.0001969163 0.000104986 -0.0001202597 -0.0116782134 0.8433314145
775295350.0 -0.0025569863 0.1563479463 0.0003468233 4.1773e-06 0.0002376647 -0.0001135129 -0.0033156659 0.843084016
780295320.0 -0.0009765472 0.1567187999 7.58416e-05 0.0001403359 0.0002996446 -0.0001648447 0.0051683438 0.8437766148
785295290.0 0.0002249502 0.1569690381 0.0003394512 -7.13508e-05 0.0001311882 4.60962e-05 0.0135307727 0.8434368002
790295260.0 0.0013415224 0.1569840335 0.00020692 -0.0002554558 0.0002585762 -0.0001404164 0.0214447791 0.8435892149
795295230.0 0.0027905756 0.1574231285 0.0005388854 -3.04536e-05 0.0003066394 -0.0001495352 0.0302096517 0.8423529257
800295200.0 0.0042561222 0.1575769685 0.0002821993 -5.64383e-05 0.0001656179 -1.84411e-05 0.0382851687 0.8423962746
805295170.0 0.0055695707 0.1580610109 0.0003270119 -0.000169109 0.0001781018 0.000118706 0.0472117333 0.8420053543
810295140.0 0.007062121 0.1579718077 0.0003361748 -6.23225e-05 0.0002573224 -0.0001839654 0.0557993259 0.8411971073
815295110.0 0.0083737154 0.1583620957 0.0004377976 -0.0002183253 0.0001230414 -8.45594e-05 0.0634031507 0.8408302568
820295080.0 0.0094104482 0.1585986222 0.0002191621 -0.0001233609 0.000193478 -0.0001720753 0.0709876025 0.8407408725
825295050.0 0.0108027542 0.1582794262 0.0004059298 -6.92819e-05 0.0004543483 -3.59806e-05 0.0798122355 0.8396722957
830295020.0 0.0123178592 0.1585700921 0.000331256 4.5585e-06 0.0002150708 2.2331e-06 0.0877483478 0.8380366193
835294990.0 0.01335229 0.158383455 8.94295e-05 -0.000222567 0.0002662276 -1.13467e-05 0.0968240219 0.8379789876
840294960.0 0.0151702127 0.1584878807 0.0004054249 -0.0002032973 0.0002540342 -3.13115e-05 0.1054694976 0.8369702718
845294930.0 0.0164857422 0.1589244497 0.0003960228 -0.000119487 0.0001376167 -5.55663e-05 0.1138418368 0.8352094566
850294900.0 0.0180945797 0.1587814965 0.0003776054 -9.5511e-06 0.0003122013 -2.55335e-05 0.1212881042 0.8345844889
