!Created with skrf (http://scikit-rf.org).
# Hz S RI R 50.0 
!freq ReS11 ImS11 ReS21 ImS21 ReS12 ImS12 ReS22 ImS22
300000.0 -0.7686212428 -0.177371542 -0.0007062205 0.001212871 -0.000659726 0.0014196645 -0.0461380137 -0.0795157921
5299970.0 -0.7863169101 -0.0097684494 -1.60404e-05 6.84509e-05 -3.72933e-05 -0.0003202678 -0.0488266492 0.0145932903
10299940.0 -0.7893054256 -0.0059428347 -6.666e-07 -8.4444e-06 -0.0001881982 0.0001418671 -0.0428643217 0.0321562745
15299910.0 -0.7944531265 -0.0034823983 6.11438e-05 0.0002076083 -0.0001015035 -2.10164e-05 -0.0349325318 0.046554554
20299880.0 -0.8011447483 0.0006846066 -4.28577e-05 0.0002142672 9.12309e-05 9.35453e-05 -0.0252497157 0.0584159176
25299850.0 -0.8076341543 0.0065312541 0.0002082645 0.0002336543 0.0001502416 0.0001610595 -0.0142901959 0.0678025353
30299820.0 -0.8139700453 0.0138373707 0.000111613 0.0001969384 -0.0001114984 -8.6679e-05 -0.0028084146 0.0745843871
35299790.0 -0.8184026638 0.0232199387 2.5159e-06 4.32682e-05 -2.83982e-05 3.44802e-05 0.0084237624 0.0796307568
40299760.0 -0.8237818364 0.0320712663 0.0004868803 -0.0001423358 4.69655e-05 -3.85138e-05 0.0198349119 0.0826900544
45299730.0 -0.8267357203 0.0418607183 -3.54161e-05 0.0001272275 -6.15425e-05 -0.0001062814 0.0304015603 0.0842303972
50299700.0 -0.8289926874 0.0518727784 -0.000102995 -6.36635e-05 0.0001237454 -7.20881e-05 0.0404177291 0.0845194319
55299670.0 -0.8313651627 0.06116425 -1.18568e-05 0.0001628458 0.0001149283 0.0001066342 0.0496713087 0.0833207543
60299640.0 -0.8322693047 0.0717163419 -9.18761e-05 0.0001261982 6.472e-06 -6.26391e-05 0.0580650922 0.0815426014
65299610.0 -0.8334818206 0.0823626862 0.0001729301 -5.2501e-06 5.901e-05 -1.73799e-05 0.0656905855 0.0792780676
70299580.0 -0.8338337803 0.0911443001 0.0001372687 4.30377e-05 8.34505e-05 0.0001618124 0.072669273 0.0768309098
75299550.0 -0.8339543975 0.1013413386 9.10164e-05 -0.000113293 8.45037e-05 0.0002702642 0.0791921755 0.0736048122
80299520.0 -0.8338904906 0.1121473108 9.09061e-05 -0.0002973097 6.39585e-05 0.0001452864 0.0848924496 0.0702110878
85299490.0 -0.8326648198 0.1212283053 0.0001310114 0.0002489379 -7.49813e-05 0.0002595297 0.0896471326 0.0667778996
90299460.0 -0.8322167539 0.1314953711 -2.14432e-05 0.0001061681 -3.20414e-05 -5.06007e-05 0.0944251532 0.0629967999
95299430.0 -0.8307029593 0.1408958127 0.0001187727 0.0001364166 8.32659e-05 7.45365e-05 0.0984759586 0.0592838488
100299400.0 -0.8301060549 0.150266427 0.0002298213 2.3471e-06 0.0001848469 6.12354e-05 0.1024101247 0.0557255333
105299370.0 -0.828664447 0.1595571927 5.225e-05 -4.63964e-05 -5.30558e-05 4.66375e-05 0.1058744225 0.0515142393
110299340.0 -0.8274969199 0.168663669 8.09986e-05 -6.17009e-05 8.47044e-05 0.0001164697 0.108345634 0.0477575433
115299310.0 -0.8259259823 0.1774804439 3.51841e-05 -7.44935e-05 7.56335e-05 8.55675e-05 0.1109136931 0.0437749274
120299280.0 -0.8242058676 0.1868750768 -8.28397e-05 0.0001857743 0.0001646002 0.0001219935 0.113328487 0.0399667742
125299250.0 -0.8222187638 0.1954462625 0.0003067852 -2.3424e-06 8.28057e-05 0.0001312561 0.1155736786 0.0363627336
130299220.0 -0.8208202431 0.2052687403 -0.0001522763 7.59858e-05 7.48423e-05 5.32572e-05 0.1170854386 0.0330735234
135299190.0 -0.8187710454 0.2142602812 8.451e-05 8.44728e-05 0.0002075863 0.0002173701 0.1186190755 0.0288392906
140299160.0 -0.8174496082 0.2233877045 -6.19212e-05 0.0003786011 9.60492e-05 0.0001296918 0.1199220083 0.0258382964
145299130.0 -0.8148566907 0.2320240059 0.0001683366 4.89553e-05 0.0001336112 2.86684e-05 0.1208558774 0.0224435709
150299100.0 -0.811913623 0.2411679487 -0.0001229483 4.09199e-05 -2.56223e-05 -5.90345e-05 0.1219082415 0.0192746129
155299070.0 -0.8101495172 0.2501781937 6.64339e-05 -0.0002147071 0.0002414679 4.32302e-05 0.1223957378 0.0158454209
160299040.0 -0.8072022207 0.2593539196 8.807e-05 0.0001295207 0.0002266273 6.26832e-05 0.1231344909 0.012647264
165299010.0 -0.804589846 0.2672931212 0.0003546569 8.26756e-05 -0.0001136878 -6.45508e-05 0.1242430506 0.0090098415
170298980.0 -0.8014423216 0.2765477487 9.1383e-06 -5.30527e-05 -9.97759e-05 7.94125e-05 0.1241441911 0.0065095054
175298950.0 -0.7991391112 0.2846981412 2.34242e-05 0.0001470658 0.0001299892 0.0001578384 0.1247669876 0.0036549977
180298920.0 -0.796063789 0.2936302804 0.000256256 0.0002473602 0.0001340692 0.0002033941 0.1252018471 0.0003052155
185298890.0 -0.7923260926 0.3022460421 6.98447e-05 0.000184169 0.0001291586 5.36293e-05 0.1251927696 -0.0023475819
190298860.0 -0.7891077473 0.31116937 -0.0001210854 0.0002177823 0.0002543371 -3.91545e-05 0.125064859 -0.0052865192
195298830.0 -0.7865685019 0.3192299145 0.0002704313 -4.38697e-05 2.05763e-05 0.0002140196 0.1250769827 -0.0076550741
200298800.0 -0.7832891645 0.3279097116 0.0001629882 0.0004093941 0.000175126 -9.8357e-06 0.1248037522 -0.0104032168
205298770.0 -0.7792803915 0.3368022465 -9.93312e-05 0.000163426 7.46017e-05 0.0002217267 0.1249212204 -0.0132320155
210298740.0 -0.7762524048 0.3452148023 0.0002837706 7.30549e-05 0.0001370279 4.64194e-05 0.1244361751 -0.0154071344
215298710.0 -0.7725110907 0.3531390611 9.2719e-05 0.0001555439 0.0001466764 0.0002637302 0.1243986498 -0.0181655061
220298680.0 -0.7686339784 0.3610745148 0.0001034487 0.0001483913 3.51317e-05 0.0001073789 0.1241057381 -0.0200072675
225298650.0 -0.7647645852 0.369540297 0.0001232103 1.09448e-05 5.90081e-05 -5.016e-07 0.1232907914 -0.0226927168
230298620.0 -0.7610796809 0.3775277526 4.14291e-05 0.0001619316 -0.0001293321 -3.45978e-05 0.1228576237 -0.02497955
235298590.0 -0.7573712235 0.3858573757 3.87489e-05 -3.12634e-05 0.0001187416 8.12116e-05 0.1223852799 -0.0271027186
240298560.0 -0.7526300455 0.3936966476 2.51973e-05 0.0001590796 0.0002133357 0.0001375559 0.1219613797 -0.0296438343
245298530.0 -0.7488209072 0.4012300999 6.47655e-05 0.0001675431 -7.07912e-05 1.3882e-06 0.1213884251 -0.0315340181
250298500.0 -0.7444585637 0.409710475 0.0001832657 -7.0679e-05 0.0001138055 7.03496e-05 0.1206143144 -0.0336030029
255298470.0 -0.7404141545 0.4175870931 0.0001055298 0.0001275004 0.0001579361 1.70925e-05 0.1200275917 -0.0360928628
260298440.0 -0.7364937383 0.4247189655 7.00154e-05 6.81316e-05 2.31725e-05 -0.0001851888 0.1192373139 -0.037879641
265298410.0 -0.7319425044 0.4327606252 0.0002188444 1.60077e-05 0.0001579213 3.68257e-05 0.1191248165 -0.0400785473
270298380.0 -0.7276265488 0.4408392946 0.0002379553 9.00103e-05 0.000180933 0.0001760764 0.1181753059 -0.0419062654
275298350.0 -0.7232738514 0.4479961489 7.97307e-05 0.0001825437 0.0001723367 0.0001566533 0.1173969945 -0.0436055496
280298320.0 -0.7179802029 0.4558549868 7.3174e-06 -4.6198e-06 0.0001852661 0.0002728855 0.1162834697 -0.0454480637
285298290.0 -0.7138611893 0.4638357696 0.0002466833 0.0001108657 0.0002553885 0.0001636851 0.1156571256 -0.0473857518
290298260.0 -0.7085079618 0.4709959057 0.0001701015 2.54658e-05 3.00181e-05 -1.09512e-05 0.1146779306 -0.049148415
295298230.0 -0.7040086831 0.4784645392 -0.0001141855 0.0001603443 6.75112e-05 0.0001133326 0.1138953701 -0.0511052341
300298200.0 -0.6995444426 0.4860930292 0.0001530232 6.83533e-05 0.000116199 -1.51693e-05 0.1132178318 -0.0528202796
305298170.0 -0.6949599474 0.492471938 8.4546e-06 4.14286e-05 0.0001848071 6.75843e-05 0.1123422278 -0.054506501
310298140.0 -0.6890756599 0.4993582962 0.0002512865 4.68018e-05 0.0001122995 0.0003265202 0.1116169394 -0.0561747654
315298110.0 -0.684595714 0.5071328175 6.05598e-05 -0.0001297118 0.0001660019 0.0003906191 0.1108116801 -0.0580922012
320298080.0 -0.678733047 0.5142290748 0.0001246692 9.0042e-05 -1.1151e-06 0.0003333739 0.1095759319 -0.0599552852
325298050.0 -0.6735073533 0.5207007003 0.0001863219 0.0001253124 0.0002324545 0.0003616321 0.1087036815 -0.061700544
330298020.0 -0.6679105463 0.5279183257 0.0002356684 -8.9236e-06 -2.32299e-05 0.0001486629 0.1073923649 -0.0636083434
335297990.0 -0.6626332647 0.5348728451 0.0001367431 8.80395e-05 4.02493e-05 0.0001406107 0.1062154761 -0.0651125549
340297960.0 -0.6580996173 0.5416862014 0.0002183912 -7.37183e-05 0.0001035028 -3.26618e-05 0.1051171779 -0.0663632148
345297930.0 -0.6518786266 0.5480316133 0.0002254242 0.0002970896 5.68771e-05 0.0003226195 0.1037211636 -0.0678493138
350297900.0 -0.6462200555 0.5548785354 0.0002621133 0.0001679087 0.0002188304 -3.9462e-05 0.1020712999 -0.069635884
355297870.0 -0.6406346063 0.5610978466 0.0003495147 0.0001776548 0.0002559918 0.0001489864 0.1012097948 -0.0706744801
360297840.0 -0.6345406174 0.5680634568 0.0003096052 9.60372e-05 3.4661e-05 0.0001027915 0.099880036 -0.0718917996
365297810.0 -0.6294058835 0.574511124 6.71243e-05 -4.6584e-06 0.0002264946 0.0001054875 0.0987249275 -0.0733280215
370297780.0 -0.6235882456 0.5807868931 0.0001069869 6.68299e-05 0.0003478435 0.0001869052 0.0974113738 -0.0743349246
375297750.0 -0.6182068535 0.5866548857 0.0002961669 0.0002565291 0.0002756005 0.0001332641 0.0960915566 -0.0757970807
380297720.0 -0.6122722866 0.5928492753 4.81293e-05 5.02684e-05 -0.0001027361 0.0002139971 0.095176773 -0.0766284828
385297690.0 -0.6059081555 0.599073776 0.0002421865 4.47494e-05 0.0002130668 0.0001979671 0.0937241988 -0.0780455009
390297660.0 -0.5982123362 0.605277308 0.0004682713 6.89999e-05 0.0001743649 0.0001106116 0.0924158476 -0.0792016785
395297630.0 -0.592886254 0.6119825517 9.88057e-05 0.0001610755 0.0004509189 0.0003549158 0.0912949698 -0.0807989291
400297600.0 -0.5867472414 0.6179992506 0.0001981127 0.0002292073 0.0001596027 0.000131544 0.090236795 -0.0811877268
405297570.0 -0.5803780545 0.6230545181 0.000329031 9.24513e-05 9.10934e-05 7.41538e-05 0.0889175369 -0.0824151558
410297540.0 -0.5741987787 0.629677078 3.30278e-05 -0.0001561732 0.0001691476 9.15294e-05 0.0876105867 -0.0834162938
415297510.0 -0.5676516144 0.6355615631 0.0002163724 0.0001171855 0.0003284242 0.0002044499 0.0863020812 -0.0847612162
420297480.0 -0.5607274318 0.6406334998 5.66666e-05 -0.0001320424 0.0001871732 0.0001565025 0.0853934348 -0.0852539142
425297450.0 -0.5544841225 0.6461187336 6.20228e-05 3.8181e-06 0.0002796255 0.0001277444 0.0836578297 -0.0869639561
430297420.0 -0.5476852264 0.6521155061 0.0005529216 5.97742e-05 0.0002396209 0.0002107627 0.082621572 -0.0877293337
435297390.0 -0.5407568908 0.657326093 0.000420229 0.0002733907 0.0002697763 0.0001404066 0.080891805 -0.0888271524
440297360.0 -0.5341588889 0.6628515085 0.0002327936 5.31383e-05 0.0003008233 2.56758e-05 0.0799264158 -0.0895656178
445297330.0 -0.5271126526 0.6682318714 0.0002183609 -0.0003119315 0.000333066 0.0002045956 0.0786435103 -0.0903048516
450297300.0 -0.5204968003 0.6735500759 0.0004540471 0.0002382227 0.0003745401 0.0001522831 0.0773223808 -0.0913259935
455297270.0 -0.5138821345 0.6786823017 0.0003756404 0.0003246411 2.71158e-05 0.0002793492 0.0762024087 -0.0922047749
460297240.0 -0.5060768986 0.6838732424 0.0001996129 0.0001062124 0.0001920976 0.0001128418 0.074578482 -0.0932555599
465297210.0 -0.498864277 0.6888781023 -3.03709e-05 0.0003167398 0.000497498 1.85356e-05 0.0734082151 -0.0938390718
470297180.0 -0.4917287212 0.6938193341 0.0003564405 8.43631e-05 8.25107e-05 2.72678e-05 0.0720034698 -0.0946221228
475297150.0 -0.4845909456 0.6988141886 0.0003196202 0.0001957663 0.0002742122 2.26387e-05 0.0706704739 -0.0952689127
480297120.0 -0.4769890186 0.7041571658 0.0002285901 4.11562e-05 0.0003221894 0.0001073305 0.0689601759 -0.0962337927
485297090.0 -0.4701127447 0.7084326663 0.0002246703 0.0001221557 0.0003779244 9.45176e-05 0.0675942368 -0.0969484197
490297060.0 -0.4618188454 0.7138367815 0.0002289731 -2.6626e-05 0.0002590465 0.0001651266 0.0664335277 -0.097793672
495297030.0 -0.4548777377 0.7182599509 0.0002982561 5.54575e-05 0.0003946733 6.96523e-05 0.0652889085 -0.0986832998
500297000.0 -0.4468519414 0.7220310247 0.0003439648 -0.000135108 0.0002088016 0.0001340429 0.0636756061 -0.0989731893
505296970.0 -0.4390054197 0.7268524485 0.0003632181 6.2501e-05 0.0001876975 4.93559e-05 0.0620878668 -0.0999416651
510296940.0 -0.4318524153 0.7309421541 0.0001852119 -2.4428e-06 0.000132427 2.83243e-05 0.0609898471 -0.1001722561
515296910.0 -0.4246410147 0.7352909925 0.0002215218 0.0002396357 0.0002416998 0.0001141132 0.0595220748 -0.1010029431
520296880.0 -0.4160717359 0.7399910811 0.000207787 -0.0001589228 0.0003648652 0.0002598628 0.0582826666 -0.1015545849
525296850.0 -0.4085016701 0.7440183393 0.0004542146 0.0001646255 0.0003431183 0.0001297864 0.0566701074 -0.1022149819
530296820.0 -0.400895152 0.7482343986 0.000290464 -5.59537e-05 0.0004120949 -3.24813e-05 0.0553739978 -0.1027330201
535296790.0 -0.3927974751 0.7524847212 0.0003486004 0.0001734892 0.0003281005 -2.4224e-05 0.054135085 -0.1032516035
540296760.0 -0.3845808093 0.7560492758 0.0003889471 -7.21062e-05 0.000224047 3.00178e-05 0.0524709383 -0.1039093514
545296730.0 -0.3772871662 0.760040672 0.0002193134 0.0001048508 0.0003745601 3.92014e-05 0.0513326673 -0.1043077087
550296700.0 -0.3694188248 0.7637698295 0.0003150878 -8.31242e-05 0.0002697241 7.46706e-05 0.0495610229 -0.1048137732
555296670.0 -0.3615291165 0.7672212385 0.0003025083 -4.56014e-05 0.0002906226 -4.50625e-05 0.0481202102 -0.1054682104
560296640.0 -0.3535400291 0.7706842808 0.000283777 -1.31259e-05 0.0002530485 1.2812e-06 0.0467947493 -0.1058258669
565296610.0 -0.3452212535 0.7744432978 0.0002492971 8.09243e-05 0.0003697089 0.0001061631 0.0453534493 -0.1060895361
570296580.0 -0.3371578152 0.77813612 0.0005566472 -6.9655e-06 0.0001575098 -0.0001693985 0.0435261414 -0.1064519706
575296550.0 -0.3280678159 0.7811895498 0.0003950332 0.0002099205 0.0003021115 2.79535e-05 0.0423736036 -0.1069497227
580296520.0 -0.3211941208 0.784303234 0.0001543126 -7.9591e-06 0.0002706686 0.0001836554 0.0411561093 -0.1073577895
585296490.0 -0.3124053967 0.7877672554 0.000334394 2.71518e-05 0.0004722187 -2.302e-05 0.0397711332 -0.1074509508
590296460.0 -0.3039247517 0.7905957293 0.0002835315 0.0001003098 0.0003678914 -9.3237e-06 0.0378750724 -0.1079754369
595296430.0 -0.2956316081 0.7940067128 0.0004189881 2.14908e-05 0.0002719799 0.0002240455 0.0366293019 -0.1081542825
600296400.0 -0.2881888355 0.7966481272 0.0002762938 3.3273e-06 0.0003259425 -7.98412e-05 0.0354140005 -0.1085796278
605296370.0 -0.27963222 0.7991876581 0.0005322528 6.67126e-05 0.0003240806 4.96968e-05 0.0338542193 -0.1086578985
610296340.0 -0.2713190109 0.8032057921 0.0004720665 4.06961e-05 0.0005347822 -7.67919e-05 0.0319039669 -0.1090631227
615296310.0 -0.2625542975 0.8056837748 0.0003832672 -5.4849e-06 0.0004982069 0.0001149267 0.0306044134 -0.1089039496
620296280.0 -0.2552875487 0.8079786572 0.0004525395 -7.29076e-05 0.0003808195 -2.29734e-05 0.0290973283 -0.1090489344
625296250.0 -0.2473652245 0.8103589568 0.000361559 -0.0001397282 0.0002397433 0.0002881713 0.0276003692 -0.1094123499
630296220.0 -0.2385874016 0.8131723718 0.0006694896 -3.45881e-05 0.0002084022 -7.1557e-05 0.0266119833 -0.1095826689
635296190.0 -0.2307243096 0.8160349958 0.0003293143 -1.10864e-05 0.0005648195 -0.0001334188 0.0249641014 -0.1096525365
640296160.0 -0.2215446935 0.8177769741 0.0003691176 4.86269e-05 0.000508296 4.06549e-05 0.0231867769 -0.1097448931
645296130.0 -0.2142129805 0.8206262935 0.0003025862 -6.58071e-05 0.000586695 -1.149e-06 0.0218203584 -0.1097921229
650296100.0 -0.2053457274 0.822118928 0.000429211 3.14249e-05 0.0005541161 9.94709e-05 0.0204160609 -0.109957851
655296070.0 -0.1973242825 0.8244341682 0.0004721553 -0.000117891 0.0003742969 -0.0001463689 0.0185420913 -0.109975172
660296040.0 -0.188961891 0.8259486189 0.0002380621 0.0001542368 0.0005606327 -6.0575e-05 0.0176999924 -0.1104404434
665296010.0 -0.1809423073 0.8287055422 0.0002834834 -0.0001201341 0.0003746548 9.42183e-05 0.0163163743 -0.1101912607
670295980.0 -0.1726667704 0.8306910512 0.0003385712 -0.0001113579 0.0001261139 -9.01918e-05 0.0146839053 -0.1099953538
675295950.0 -0.1639445039 0.8322842825 0.0006424917 -2.00896e-05 0.0003404395 -0.0001225967 0.0131824464 -0.1099815543
680295920.0 -0.1561777993 0.8336584004 0.0003771809 -0.0001243435 0.0004076667 0.0001896906 0.0117353342 -0.1100724971
685295890.0 -0.147488433 0.835242464 0.000186595 -4.15723e-05 0.0003700686 -0.0001095087 0.0104023427 -0.1098290273
690295860.0 -0.1389699295 0.8368464771 0.0002813295 0.0002526047 0.0003817688 1.03597e-05 0.0091395156 -0.1096953653
695295830.0 -0.1305004699 0.8388221536 0.0004941876 -0.0001156457 0.0003333237 4.48047e-05 0.0072794037 -0.1096614251
700295800.0 -0.1223291555 0.8397142324 0.000274018 3.8021e-06 0.0003865672 -0.0001635269 0.0062789802 -0.1097267094
705295770.0 -0.1145364648 0.8414597328 0.0002870277 -3.11814e-05 0.0004044033 -0.0003753642 0.0045525316 -0.1093528534
710295740.0 -0.1068617848 0.8419284315 0.0002602317 -0.0001700769 0.00040474 -7.14907e-05 0.0034262732 -0.1092642628
715295710.0 -0.097643271 0.8436690365 0.0003255217 -0.0001622 0.000465459 -5.55285e-05 0.0020658897 -0.1093838901
720295680.0 -0.0892295438 0.8436520216 0.0004182355 -4.8593e-06 0.0002819167 -0.0001810668 0.0002709562 -0.1090403335
725295650.0 -0.0814890457 0.8457723713 0.0002584795 -3.11767e-05 0.0004271881 1.8134e-06 -0.0010669913 -0.1084896769
730295620.0 -0.0739247266 0.8467072687 0.0004106797 -4.89016e-05 0.0003204325 1.5143e-06 -0.0027346506 -0.1084573014
735295590.0 -0.0654713756 0.8477535342 0.0007908422 3.9692e-05 0.0003603155 -3.51883e-05 -0.0039267125 -0.1083782928
740295560.0 -0.0574725159 0.8476707515 0.0006310165 -4.73965e-05 0.0004732897 -3.14209e-05 -0.0053852525 -0.1079890757
745295530.0 -0.048922851 0.8488595896 0.0004526257 -4.19636e-05 0.0003340378 -0.0001434117 -0.0069998373 -0.1075638407
750295500.0 -0.0405754823 0.8490965043 0.0003587735 -3.48457e-05 0.0005317171 -0.0002761707 -0.0082967444 -0.1074744413
755295470.0 -0.0319751272 0.8498260239 0.0004613946 3.975e-06 0.0005900486 -5.0644e-06 -0.0093828618 -0.1067642569
760295440.0 -0.024155912 0.8509154227 0.0005848783 0.000122467 0.0005517907 -0.0001503605 -0.0107729987 -0.1068412752
765295410.0 -0.0160053983 0.8503213237 0.0005091043 -0.0002421071 0.0003755457 -0.0001787878 -0.0123164043 -0.1064363412
770295380.0 -0.0082933797 0.8513435802 0.0002983277 5.30567e-05 0.000364387 -4.02524e-05 -0.0136585455 -0.1059393843
775295350.0 -6.90213e-05 0.8511556767 0.0002777821 -9.06475e-05 0.0005749678 -0.000110203 -0.0150462761 -0.1057249187
780295320.0 0.0088681943 0.8512928936 0.0003659872 -0.0001763513 0.0002874576 -7.08953e-05 -0.0164853818 -0.1050085308
785295290.0 0.0166627498 0.8506982097 0.0003487574 1.51561e-05 0.0004046035 -8.64833e-05 -0.0177801743 -0.1045010042
790295260.0 0.0249987586 0.8508109343 0.0004101681 -0.0001152741 0.0004625391 7.264e-06 -0.0188902266 -0.104178603
795295230.0 0.0330047315 0.8504112126 0.0003126647 -0.0002234216 0.0004239866 -8.37967e-05 -0.020568424 -0.1041640291
800295200.0 0.041320817 0.85051432 0.0002605281 -0.0001357534 0.0002284469 6.7397e-05 -0.0218933497 -0.1034482198
805295170.0 0.0493083041 0.850840851 0.0005032024 -0.0001127616 0.0003989811 -2.16119e-05 -0.0229472685 -0.1033315867
810295140.0 0.057653357 0.8501574221 0.0003879811 -0.0003796061 0.0003487241 4.36678e-05 -0.0243065189 -0.1025836561
815295110.0 0.0653730796 0.8494726242 0.0004128501 -0.0001671912 0.0004500695 -8.71814e-05 -0.0258506146 -0.1019816924
820295080.0 0.0739924059 0.8492957908 0.0002582516 -7.92697e-05 0.0003568097 -0.0001465488 -0.027066021 -0.1010715587
825295050.0 0.0817758901 0.8482443634 0.0003091689 -8.21831e-05 0.0006967104 -0.0002054394 -0.0280620717 -0.1006127689
830295020.0 0.0911077792 0.8475277021 0.000331034 -0.0001191385 0.0003499117 8.0445e-06 -0.0296815457 -0.1003506697
835294990.0 0.0982451204 0.8465694218 0.0002117976 -0.0003178006 0.0005425237 3.3085e-06 -0.0308572059 -0.099546594
840294960.0 0.1069533381 0.8453068172 0.0003313547 -0.0001434389 0.000327055 -0.0001121174 -0.0319782326 -0.0988791219
845294930.0 0.1150523531 0.8445119051 0.0004845023 -0.0003671306 0.0002568025 -9.22205e-05 -0.0334373425 -0.0982295874
850294900.0 0.1241702428 0.8431455636 0.0003636791 -3.93888e-05 0.0004948108 -8.13516e-05 -0.0344516728 -0.0975637966
