!Created with skrf (http://scikit-rf.org).
# Hz S RI R 50.0 
!freq ReS11 ImS11 ReS21 ImS21 ReS12 ImS12 ReS22 ImS22
300000.0 -0.2408011306 -0.0858175249 0.4730882861 0.0555451426 0.4679783756 0.054263292 -0.2406047403 -0.0965349969
5299970.0 -0.2443336547 0.0069342713 0.4737481816 0.0048071247 0.4734662892 0.0051171754 -0.2435018715 0.0071023775
10299940.0 -0.2409834542 0.0189433799 0.4754226902 0.0060294942 0.4755871646 0.0061925018 -0.2403256243 0.0204059832
15299910.0 -0.2366088525 0.0278914284 0.4791618257 0.0077352008 0.4791369982 0.0076799211 -0.2358515962 0.029769942
20299880.0 -0.23204026 0.0355639572 0.4838203359 0.00853653 0.4839634152 0.0081364236 -0.2304355489 0.0377368261
25299850.0 -0.2268274788 0.0419643464 0.4888729515 0.0073799424 0.4890610914 0.0076314904 -0.2246127943 0.0439340416
30299820.0 -0.2215154506 0.0469989459 0.4944653789 0.0052970557 0.4941611393 0.0051792947 -0.2188820701 0.0494441661
35299790.0 -0.2162266975 0.0516258117 0.4998738962 0.001845698 0.4998358057 0.002285517 -0.213459154 0.0536121272
40299760.0 -0.2111989328 0.0551530425 0.5048330373 -0.0016616127 0.505177256 -0.0020279862 -0.2082250446 0.0564622965
45299730.0 -0.2065557256 0.0578123462 0.5095677712 -0.0066149559 0.5099423418 -0.006695749 -0.2031557577 0.0591963938
50299700.0 -0.2023094055 0.0599920299 0.5140221495 -0.0121328009 0.514080108 -0.0117604917 -0.1984838176 0.0609237631
55299670.0 -0.1984629647 0.0621625301 0.5183763533 -0.0187381063 0.5177755305 -0.0177514081 -0.1945469392 0.0625843607
60299640.0 -0.194107723 0.0635751881 0.520869727 -0.024629726 0.521230736 -0.0245229044 -0.1903942935 0.0633919224
65299610.0 -0.1909092948 0.0647644185 0.5241798365 -0.0308433299 0.5243439241 -0.03073917 -0.1875175934 0.0642925847
70299580.0 -0.1881690973 0.0660959594 0.5265234492 -0.0374482019 0.5263290804 -0.0372509753 -0.1840386208 0.065089354
75299550.0 -0.1851038103 0.0673033281 0.5282812328 -0.0442376703 0.5284145279 -0.0442378186 -0.1810745547 0.0656403247
80299520.0 -0.1827493381 0.068029233 0.5305518675 -0.0511263338 0.5304286186 -0.051281712 -0.1783798373 0.0661150332
85299490.0 -0.1800232944 0.0688219419 0.531533302 -0.0578311118 0.5318335975 -0.0574975881 -0.1763481787 0.066502965
90299460.0 -0.1779507198 0.0699880654 0.5323303286 -0.0651092499 0.5329696881 -0.0649388033 -0.1739537775 0.066937088
95299430.0 -0.1757153906 0.0701968702 0.5337075077 -0.0713171207 0.5336026387 -0.0719144584 -0.171713042 0.0672352532
100299400.0 -0.1737493191 0.0716296961 0.5334006819 -0.0786178445 0.5337871853 -0.0787252182 -0.1696961306 0.0671896423
105299370.0 -0.1721686837 0.0723577963 0.5342122879 -0.0861376931 0.5343375056 -0.08574094 -0.1677989555 0.0679149764
110299340.0 -0.170235555 0.0734823142 0.5346164287 -0.0923725338 0.5343023631 -0.0920880825 -0.1665239377 0.0681347429
115299310.0 -0.1689844133 0.0741275016 0.5343283042 -0.0993617887 0.5341950506 -0.0990548264 -0.1648699274 0.0684898429
120299280.0 -0.1671163203 0.0746412947 0.5342366625 -0.1062593066 0.5343687201 -0.1064339853 -0.1633223351 0.0693955561
125299250.0 -0.1660690953 0.0753272923 0.5336650963 -0.1123622204 0.5341445814 -0.1127483214 -0.1624872346 0.0692946423
130299220.0 -0.1647790602 0.0768130357 0.5327251218 -0.1195453387 0.5332525583 -0.1198389323 -0.1610423352 0.0699237614
135299190.0 -0.1636683872 0.0779615155 0.5327553394 -0.1262087997 0.5323586414 -0.1258236261 -0.1595000272 0.0710142774
140299160.0 -0.1625325725 0.079216612 0.5317797011 -0.1331250289 0.5318050345 -0.1331001537 -0.1587967741 0.0719910595
145299130.0 -0.1612997114 0.0798813342 0.5306472236 -0.1392363775 0.530339992 -0.1390977797 -0.1577509125 0.0722560928
150299100.0 -0.1598323475 0.0812991869 0.5295530834 -0.1458137778 0.5297117177 -0.1456409329 -0.1569279226 0.0737520175
155299070.0 -0.1592667129 0.0822082349 0.5283100386 -0.1527051573 0.5284340297 -0.1526290414 -0.1557688788 0.0743113323
160299040.0 -0.1580938349 0.0833922092 0.5275216074 -0.1586318424 0.5266636104 -0.158962964 -0.1552358004 0.0753913687
165299010.0 -0.1572779935 0.084620621 0.5258806419 -0.1655718033 0.5256268886 -0.1655085735 -0.1540295832 0.0764755759
170298980.0 -0.1563964419 0.0859075322 0.5242122548 -0.1721671781 0.5239962552 -0.1717279473 -0.1531304114 0.0774118071
175298950.0 -0.1556090095 0.0871680273 0.5230785267 -0.1780294369 0.5221446095 -0.1778175642 -0.1524348179 0.0785044976
180298920.0 -0.1546398277 0.0882900963 0.5208802128 -0.1846534108 0.5206956905 -0.1838730951 -0.151766774 0.0798235799
185298890.0 -0.1531824465 0.0893168212 0.5186422689 -0.1903405659 0.5186779851 -0.1900392387 -0.1508020475 0.0810093944
190298860.0 -0.1526797088 0.0910272175 0.5172816126 -0.1968881492 0.5173953333 -0.1967209264 -0.1501755413 0.0819305583
195298830.0 -0.1518217319 0.0920444789 0.5150637793 -0.202670912 0.5153318915 -0.2027667742 -0.1493837818 0.0832149479
200298800.0 -0.150687314 0.0935735077 0.5128291069 -0.209239733 0.5132262251 -0.2091561304 -0.1493779 0.0843929469
205298770.0 -0.1497391792 0.094967904 0.510463851 -0.2155878285 0.5106388346 -0.2147708836 -0.1483854876 0.0849357681
210298740.0 -0.1488947692 0.0959275667 0.508224538 -0.2209416709 0.5081900942 -0.2204357376 -0.147297941 0.0869633386
215298710.0 -0.1481767953 0.0978573439 0.5064605927 -0.2270048581 0.5060276164 -0.2273399906 -0.1472158641 0.0879943536
220298680.0 -0.1469450957 0.0987805631 0.5032330786 -0.2326608363 0.5036631022 -0.2327307908 -0.1467413914 0.0890103153
225298650.0 -0.1461587095 0.1003369004 0.5008096879 -0.238633797 0.5014309147 -0.2386670824 -0.146288801 0.089884785
230298620.0 -0.145344884 0.1020164657 0.4985538392 -0.2444310318 0.4990101741 -0.2441979105 -0.1453710636 0.0908218229
235298590.0 -0.1441996433 0.1037769174 0.496030348 -0.2502097147 0.495853603 -0.2501568245 -0.1446493589 0.0923130215
240298560.0 -0.1431631884 0.1050525223 0.4936030502 -0.2561453643 0.4929943093 -0.2561486967 -0.1438671863 0.094005282
245298530.0 -0.142297497 0.1064571681 0.4908561241 -0.2618227705 0.490744484 -0.2619195422 -0.1430340767 0.0943411017
250298500.0 -0.1409503901 0.1079519713 0.4873143635 -0.2676501815 0.4872222164 -0.2666637778 -0.1426104704 0.095524072
255298470.0 -0.1399713905 0.1091436594 0.4843876412 -0.2727619309 0.4848145112 -0.2728480619 -0.1417242527 0.0968253398
260298440.0 -0.1390905384 0.1107984053 0.4814236983 -0.2784680916 0.4817694951 -0.2786170057 -0.1408708169 0.0984091991
265298410.0 -0.1375948859 0.1125582881 0.4784816935 -0.2840536342 0.4787842907 -0.283652343 -0.1398442861 0.0995929899
270298380.0 -0.1367975087 0.1138350992 0.4758911859 -0.2888520287 0.4755337704 -0.2892148088 -0.1392454584 0.1008298209
275298350.0 -0.1353379371 0.1152594799 0.4725183479 -0.2951871545 0.4729950959 -0.2949422153 -0.1380549029 0.1015466539
280298320.0 -0.1338614099 0.1167479807 0.4695207821 -0.2999538643 0.4696070577 -0.3001774043 -0.1367728551 0.102871644
285298290.0 -0.132906221 0.1185591936 0.4663941402 -0.3055194316 0.465838826 -0.305897271 -0.1360548773 0.1039596285
290298260.0 -0.1312788305 0.1197258786 0.4626347772 -0.3106954985 0.4627382327 -0.3108635209 -0.1349692659 0.1055604041
295298230.0 -0.1301454425 0.1209241037 0.4594161469 -0.3159686527 0.4592320976 -0.3163510173 -0.1335853204 0.1066703119
300298200.0 -0.1292232493 0.1222820418 0.4564256802 -0.3208423578 0.4563297608 -0.3213469986 -0.1326958668 0.1075933583
305298170.0 -0.1276121837 0.1238941515 0.4521295297 -0.3268607824 0.452364327 -0.3263875239 -0.1311940603 0.1086890637
310298140.0 -0.1263023863 0.1251460422 0.4485633316 -0.3315997739 0.4490226727 -0.3316700837 -0.1304767569 0.110163654
315298110.0 -0.1249726879 0.1261317261 0.4454569646 -0.3367110106 0.4455083361 -0.3367323632 -0.1294941051 0.1112261059
320298080.0 -0.1237117867 0.1274241553 0.4414365453 -0.3422923787 0.4419291728 -0.341696404 -0.1283852803 0.1127355558
325298050.0 -0.1225261735 0.128789046 0.43764377 -0.3473651883 0.4378070011 -0.3468967813 -0.1278951189 0.1136529418
330298020.0 -0.1213836964 0.1297337498 0.4335168461 -0.3520004734 0.4338179936 -0.352594954 -0.1268453384 0.1150980969
335297990.0 -0.1199280842 0.1312012846 0.4295567639 -0.3567134988 0.4296754246 -0.3567638791 -0.1261705687 0.1165670767
340297960.0 -0.1190712532 0.132614779 0.4252719116 -0.361515781 0.4249928526 -0.3618986604 -0.1245105182 0.1178999254
345297930.0 -0.1178477906 0.134398858 0.4211167153 -0.3664667598 0.4211373324 -0.3664932091 -0.12378125 0.1191367129
350297900.0 -0.1164700575 0.1353345267 0.4168949391 -0.3712533482 0.4172096557 -0.3708778279 -0.1231031926 0.1210212533
355297870.0 -0.1149132437 0.1373644553 0.4127362823 -0.3753838253 0.4130332012 -0.3755259972 -0.121965636 0.1222026565
360297840.0 -0.1135634884 0.1385226213 0.4093312663 -0.3798316002 0.4095504219 -0.3801643996 -0.1209236151 0.1236709488
365297810.0 -0.1123116439 0.1404836125 0.4045445388 -0.3850371249 0.4050688864 -0.3846853223 -0.1200183641 0.1248687713
370297780.0 -0.1105400154 0.1411520507 0.4000750607 -0.388792564 0.4007000986 -0.388691166 -0.1190838549 0.1264800213
375297750.0 -0.108991733 0.1425852824 0.3959939318 -0.3935389625 0.3967421105 -0.3933738914 -0.1179013589 0.1273569269
380297720.0 -0.1076292397 0.1442721186 0.3918999348 -0.3980242797 0.3919358207 -0.3969914343 -0.1168912676 0.1286661472
385297690.0 -0.1064049013 0.145462353 0.3874309052 -0.4019067351 0.3873059323 -0.4018877015 -0.1158534194 0.1303363812
390297660.0 -0.104906353 0.1469114554 0.3830518273 -0.4062865396 0.3828050495 -0.4062466603 -0.1148183861 0.1316957733
395297630.0 -0.1031776777 0.1482739397 0.3783141762 -0.4103480933 0.3785491829 -0.4104255295 -0.1133119146 0.132508743
400297600.0 -0.1018385828 0.1494573394 0.3737588949 -0.4146209053 0.3739734513 -0.4145964273 -0.1121507279 0.1339528522
405297570.0 -0.1002997282 0.1505411883 0.3697836017 -0.4190195578 0.3693706266 -0.4184784766 -0.111227162 0.1353617926
410297540.0 -0.0982698638 0.1518759511 0.3647980392 -0.4226656158 0.3651669909 -0.4225839671 -0.1101737222 0.1366209621
415297510.0 -0.0964695282 0.1531918089 0.3597815261 -0.4271259669 0.3601349561 -0.4266575757 -0.1088116465 0.1376758669
420297480.0 -0.0951500357 0.1544561647 0.3549701192 -0.4307534957 0.3551053626 -0.4310441227 -0.1077695895 0.1387549586
425297450.0 -0.0933687059 0.1550118542 0.3507591147 -0.4345904497 0.3507005466 -0.4346775471 -0.1065465778 0.1400480805
430297420.0 -0.0918570933 0.1564481698 0.3458606661 -0.4378965674 0.3457302769 -0.4377152402 -0.1054121222 0.140741353
435297390.0 -0.0902585402 0.157870482 0.3406735465 -0.4422479815 0.3406085566 -0.4420310067 -0.1034051983 0.1418349653
440297360.0 -0.0882756292 0.1591788716 0.3358002786 -0.4458313265 0.336326036 -0.4457982108 -0.1024402688 0.1428885798
445297330.0 -0.0869763946 0.1597832854 0.3313967906 -0.4494334818 0.3311992295 -0.4487993668 -0.1009361721 0.1434331295
450297300.0 -0.0847228361 0.1608427646 0.3259650034 -0.4528737357 0.3258359651 -0.4529427807 -0.099588188 0.1444935998
455297270.0 -0.0830818177 0.162329923 0.3213430156 -0.4564745582 0.3214701374 -0.4566239206 -0.0981568715 0.1458927373
460297240.0 -0.0817840839 0.1630256598 0.3161901737 -0.4599346673 0.3164217418 -0.4599770215 -0.0969189347 0.1467998395
465297210.0 -0.0792818855 0.1642101394 0.3109965406 -0.4638343098 0.3113337559 -0.4635446164 -0.094984465 0.1476676306
470297180.0 -0.0776681273 0.1647966816 0.3056022954 -0.4667867214 0.3061642489 -0.4668363708 -0.0936729867 0.1487767224
475297150.0 -0.076006033 0.1656504311 0.3009580779 -0.4694746204 0.3008688471 -0.4698356649 -0.0917685902 0.1495502265
480297120.0 -0.0741863352 0.1671629453 0.296057848 -0.4733851762 0.2955981495 -0.4733641936 -0.0906492616 0.1509900435
485297090.0 -0.0724077006 0.1679996051 0.2906641159 -0.4763870161 0.2909220044 -0.4762041566 -0.0890926217 0.1517351514
490297060.0 -0.0708673677 0.1690039602 0.2856476191 -0.4793592424 0.285867413 -0.4791652828 -0.0873513705 0.1529447161
495297030.0 -0.0688277447 0.1699305599 0.2798861544 -0.4827836653 0.2806329791 -0.482390428 -0.0860715064 0.1542779505
500297000.0 -0.0667705318 0.1706069339 0.2747919793 -0.4851881135 0.2743110784 -0.4851991262 -0.0844565238 0.1555270336
505296970.0 -0.0650738754 0.1714607977 0.2695802962 -0.4881045424 0.2691836495 -0.4886395555 -0.0828999377 0.1561776974
510296940.0 -0.0629180701 0.1724376026 0.2640954674 -0.4913335346 0.2641288861 -0.4914790691 -0.0810320184 0.1574529105
515296910.0 -0.061324535 0.1733892572 0.2588179367 -0.4943180737 0.2584845306 -0.4942290798 -0.0797594694 0.1583354779
520296880.0 -0.0595035465 0.1738400637 0.2531277927 -0.4972658272 0.2531828977 -0.4966237948 -0.0783302353 0.1590193016
525296850.0 -0.0571976732 0.1744275338 0.2478967244 -0.4995864168 0.2481103172 -0.4994690025 -0.0767727016 0.160476891
530296820.0 -0.0553707576 0.175773707 0.2423099434 -0.5026407347 0.2424940088 -0.5023665419 -0.0751575175 0.1615338398
535296790.0 -0.0535857949 0.1764148895 0.2371391872 -0.5049065778 0.2373094232 -0.5043950128 -0.0740524402 0.1619213788
540296760.0 -0.0518859471 0.1772863598 0.2315719703 -0.5076486304 0.2314965697 -0.507568267 -0.0726756159 0.1633676403
545296730.0 -0.0499218923 0.1776940408 0.2260945201 -0.5096977979 0.2258517084 -0.5100834745 -0.0710319093 0.1641815813
550296700.0 -0.0472745605 0.1788141376 0.2204075478 -0.5121518528 0.2203695148 -0.5122344361 -0.0694926699 0.165003952
555296670.0 -0.0456039725 0.178982291 0.2147472047 -0.5146808465 0.2152593882 -0.514496149 -0.0679257627 0.1659656769
560296640.0 -0.0433390007 0.1802999822 0.2088571197 -0.5168945375 0.2095557935 -0.516921783 -0.0663471172 0.1666479676
565296610.0 -0.0418423587 0.1807319659 0.2033610805 -0.5192482624 0.2036165172 -0.5193174478 -0.0650179027 0.1672965201
570296580.0 -0.0399218184 0.1812259701 0.1976939176 -0.5217326765 0.1971989955 -0.5212244451 -0.0633335448 0.1685346632
575296550.0 -0.0380138233 0.1822215681 0.1924662474 -0.5236038502 0.1921657833 -0.5234598927 -0.0618697193 0.1688592962
580296520.0 -0.0357574479 0.1826168462 0.1867376022 -0.5258384554 0.1864021987 -0.5256008717 -0.0600507398 0.1696939123
585296490.0 -0.0341091593 0.1825954281 0.1811232615 -0.5271073152 0.1809692401 -0.5275996016 -0.058559671 0.1703087773
590296460.0 -0.0315616171 0.1834040206 0.1750519323 -0.5288085586 0.1752794442 -0.5294500603 -0.0576021544 0.1712647451
595296430.0 -0.029507839 0.1838698473 0.1688300215 -0.5315165333 0.1691414328 -0.5310871911 -0.0555554823 0.1716182861
600296400.0 -0.0278448535 0.1844174338 0.1635018081 -0.5330223576 0.1633128429 -0.5326064262 -0.0538086472 0.1720262311
605296370.0 -0.0259486871 0.1849890204 0.1576605664 -0.5350429357 0.1578881233 -0.5345234904 -0.0525869704 0.1729538533
610296340.0 -0.0236487722 0.1851645387 0.1517163679 -0.5362821128 0.151988953 -0.5360285787 -0.0504852208 0.1733125947
615296310.0 -0.0214030402 0.185450457 0.1458164716 -0.5378853654 0.1457766024 -0.5382200359 -0.0486114119 0.1738013024
620296280.0 -0.0195801593 0.1855659965 0.1398635034 -0.539466192 0.1399115889 -0.5392330201 -0.047235114 0.1745049134
625296250.0 -0.0178002621 0.1857198686 0.1352342098 -0.5408781963 0.1343062078 -0.5409651368 -0.0447619784 0.1748188996
630296220.0 -0.0150098323 0.1863832357 0.1281712206 -0.542308083 0.1282940612 -0.5421234142 -0.0432917743 0.1754001132
635296190.0 -0.0136997513 0.1863580812 0.1227870752 -0.5432715421 0.1227228628 -0.5433392589 -0.0415389011 0.1759917016
640296160.0 -0.0113014165 0.1868456858 0.1167064058 -0.5444915596 0.1171818964 -0.5443865003 -0.0399111241 0.1763208548
645296130.0 -0.0093030729 0.187156749 0.1105147058 -0.5460349362 0.1109347358 -0.5459352714 -0.0381683376 0.1773731539
650296100.0 -0.0072000933 0.1875309918 0.1046152576 -0.5469576452 0.1051748511 -0.5470066702 -0.0358453028 0.1769105385
655296070.0 -0.0055561953 0.1875614172 0.0989514874 -0.547996456 0.0990832063 -0.5481926328 -0.0341302035 0.178126627
660296040.0 -0.0037084974 0.1873216383 0.0930816233 -0.5488158759 0.0932357818 -0.5492842528 -0.0322891337 0.1783041458
665296010.0 -0.0009793092 0.1876724336 0.0869494731 -0.550028147 0.0871941186 -0.5499863252 -0.0303828993 0.1792756164
670295980.0 5.70068e-05 0.1881653291 0.0817241532 -0.5507191019 0.0812153435 -0.5510491904 -0.0288290197 0.1797462039
675295950.0 0.002895124 0.1883907826 0.0755659106 -0.5516311341 0.0756438041 -0.5513307524 -0.0275708126 0.1802126175
680295920.0 0.0047658245 0.1880362698 0.0690211492 -0.5523853201 0.0687179599 -0.5526576727 -0.0253265857 0.1811921876
685295890.0 0.0067602077 0.1888008706 0.0634300684 -0.5530246141 0.0630359953 -0.5532439595 -0.0237413241 0.1813379287
690295860.0 0.0091551533 0.1886719397 0.0577556536 -0.5535804596 0.0573453184 -0.553781876 -0.0224049512 0.1825733883
695295830.0 0.0111853617 0.1884816161 0.0521477051 -0.5543056731 0.0511923222 -0.5544192216 -0.0201761683 0.1827504074
700295800.0 0.0132055155 0.188437904 0.0456753823 -0.5545509201 0.0453311152 -0.5545687088 -0.0187015893 0.1835362994
705295770.0 0.0152040662 0.1891489184 0.0395636083 -0.554959947 0.039565079 -0.5555671601 -0.0167002911 0.1837717732
710295740.0 0.0173968837 0.1886938976 0.0337218095 -0.5559551318 0.0336210418 -0.5559046821 -0.0149209162 0.1834845594
715295710.0 0.0191711001 0.1885810867 0.0279360013 -0.5561794509 0.0269308976 -0.5561253276 -0.0131149833 0.1839715663
720295680.0 0.0213467755 0.1886762504 0.0213223276 -0.5564210928 0.0217377287 -0.556246715 -0.0113138447 0.1848747219
725295650.0 0.0238414675 0.1883667927 0.0154345665 -0.5561971267 0.0153543552 -0.5565655331 -0.0101324419 0.1852366221
730295620.0 0.0261397998 0.1887071399 0.0090860246 -0.5560757285 0.0091884051 -0.5562927366 -0.0082943718 0.1849048557
735295590.0 0.0279344574 0.1884596446 0.0035344084 -0.5567857958 0.0033501079 -0.5565981843 -0.0067748435 0.1851645424
740295560.0 0.029679874 0.1884310542 -0.002614686 -0.5564806253 -0.0028227682 -0.5566965987 -0.0046451261 0.1859336117
745295530.0 0.0321916945 0.1883041187 -0.0089066436 -0.5560311151 -0.0090770738 -0.5561151219 -0.0027222085 0.1853803408
750295500.0 0.0341564445 0.1878029928 -0.0145952053 -0.5559896643 -0.0146900844 -0.5563671326 -0.0011806424 0.1857823474
755295470.0 0.0363676844 0.1872092597 -0.0202312596 -0.5557909551 -0.0206977968 -0.5560209145 0.0007552124 0.1854670956
760295440.0 0.0378062878 0.1871712681 -0.0262871007 -0.5560454412 -0.0265557777 -0.556075069 0.002463989 0.1857205748
765295410.0 0.0402345605 0.1868467853 -0.0327410137 -0.5555358388 -0.033149961 -0.5553838468 0.0044312327 0.1860261458
770295380.0 0.0420358713 0.1863931698 -0.0389329711 -0.5547528986 -0.0391228808 -0.5545629229 0.0058723558 0.1855132791
775295350.0 0.0441043848 0.1856326837 -0.0447345191 -0.5541812328 -0.0441429373 -0.5543582727 0.0069955486 0.1861498121
780295320.0 0.0461772829 0.1855393612 -0.0503811668 -0.5533015371 -0.0499475022 -0.5537403392 0.0089609958 0.1855946142
785295290.0 0.048086121 0.1847483142 -0.0569638771 -0.5525657555 -0.0563897731 -0.5532665781 0.0114601844 0.1855618078
790295260.0 0.0508116897 0.1850334775 -0.0625762706 -0.5524427429 -0.0615723466 -0.5521876096 0.0131056738 0.1856753808
795295230.0 0.0523563333 0.1846551869 -0.0683090719 -0.551321847 -0.067983726 -0.5515545941 0.0152336793 0.1857467589
800295200.0 0.0541807632 0.1840157658 -0.074636686 -0.5508159093 -0.0740697496 -0.5507734756 0.0173307974 0.1855925774
805295170.0 0.0564783634 0.1834196445 -0.0800590805 -0.5500286565 -0.0801383629 -0.5504015739 0.0188977536 0.1858014191
810295140.0 0.0581559633 0.182577606 -0.0857903822 -0.549290882 -0.0862769122 -0.5492376382 0.0210334683 0.1855946307
815295110.0 0.0601041973 0.1819224535 -0.0921100214 -0.5478960455 -0.0918363745 -0.5481621137 0.022622843 0.1858173019
820295080.0 0.0619456338 0.1821729255 -0.0977125076 -0.5467581927 -0.0977861722 -0.5470439898 0.024762271 0.1856859776
825295050.0 0.0646950166 0.1814983273 -0.1038016432 -0.5457465873 -0.1033598839 -0.5460379923 0.0266762258 0.1856064635
830295020.0 0.0662007051 0.1806871101 -0.1098478995 -0.5444100005 -0.1098367043 -0.5443323444 0.029338851 0.1851555489
