!Created with skrf (http://scikit-rf.org).
# Hz S RI R 50.0 
!freq ReS11 ImS11 ReS21 ImS21 ReS12 ImS12 ReS22 ImS22
300000.0 -0.7732336548 -0.1380261219 -0.0007756048 -0.0001778522 -0.0001141701 0.0011326105 -0.7663363246 -0.1702335761
5299970.0 -0.7849716434 -0.0071826932 -3.0094e-05 0.0001084338 0.0002086946 7.8467e-05 -0.7844674291 -0.0085254239
10299940.0 -0.7878120409 -0.0041888939 -0.0002552775 -5.93473e-05 -5.99577e-05 -0.0001265079 -0.7885045652 -0.0051996935
15299910.0 -0.7934732302 -0.0015247094 1.91048e-05 -2.67589e-05 0.0002716559 -0.0001219701 -0.7935711071 -0.0034366319
20299880.0 -0.7994983117 0.0021031539 -4.88725e-05 0.0001500203 7.95236e-05 -1.95516e-05 -0.800544782 0.0016466418
25299850.0 -0.8066092431 0.0084281543 -7.03965e-05 -6.80792e-05 2.85717e-05 8.93075e-05 -0.8067451486 0.0073022957
30299820.0 -0.8123027431 0.0162120308 -8.46544e-05 -7.47488e-05 9.74349e-05 -6.98695e-05 -0.8129571555 0.0148520849
35299790.0 -0.8170360082 0.0252297747 -0.0001345158 0.0001258898 5.56998e-05 -8.47261e-05 -0.8182645029 0.0235198205
40299760.0 -0.8211309895 0.0341323064 3.5065e-06 0.0001740924 -1.10231e-05 4.0054e-06 -0.8217635814 0.033488744
45299730.0 -0.8244000945 0.0442672069 -0.00020139 0.0001650679 -0.0001259079 0.0001647899 -0.8252475933 0.0421470503
50299700.0 -0.8264027607 0.0539452075 0.0001027163 -1.32807e-05 9.75777e-05 -0.0002818042 -0.8278561577 0.0528203454
55299670.0 -0.8289881084 0.0640943253 0.0001182259 0.0001677988 0.0001524934 -0.000169091 -0.829815838 0.063500262
60299640.0 -0.8295570814 0.0746031229 -0.0001452061 -0.0001338853 -0.0001159211 0.0001456733 -0.8309455441 0.0733889348
65299610.0 -0.8309877501 0.0850184208 4.78308e-05 -0.0001323787 -0.0001673838 2.17959e-05 -0.8312379812 0.0827624144
70299580.0 -0.830877902 0.0945102357 -0.0001009855 -6.65131e-05 -2.43849e-05 6.1134e-05 -0.8321289102 0.0927190544
75299550.0 -0.8314960742 0.1045289319 -4.97898e-05 0.0002106979 -0.0003218981 -0.0001443461 -0.8325759134 0.1026793189
80299520.0 -0.8317054914 0.1144895676 5.31983e-05 0.0001782187 9.09358e-05 -0.0001669967 -0.8321368495 0.1124354162
85299490.0 -0.8303027595 0.1237903728 0.0001796308 -5.66897e-05 -4.07851e-05 -4.06265e-05 -0.8318575354 0.1218079739
90299460.0 -0.8297034798 0.1344524959 -6.49997e-05 -0.0001588011 7.75225e-05 5.23435e-05 -0.8310503922 0.1316755739
95299430.0 -0.8289102649 0.1433170962 4.7926e-06 0.0001663993 6.71045e-05 -0.0001336281 -0.8298384084 0.141237094
100299400.0 -0.8275422719 0.1528110501 -8.56525e-05 2.07084e-05 -8.69147e-05 3.88213e-05 -0.8292963585 0.1499508795
105299370.0 -0.8267175761 0.1617009197 7.19075e-05 0.00010528 4.54928e-05 -0.0001084872 -0.8273153883 0.1589936374
110299340.0 -0.8252051905 0.1711951215 -7.15311e-05 -9.4046e-05 -0.0001215655 3.07949e-05 -0.8268855755 0.1682210873
115299310.0 -0.823659356 0.180205532 0.0001697288 -0.0001964126 -6.70478e-05 -5.82537e-05 -0.8245901593 0.1774054558
120299280.0 -0.8219165782 0.1892776164 -5.15955e-05 -2.31232e-05 -0.0001091118 3.89e-08 -0.8231529548 0.1861872237
125299250.0 -0.8206745748 0.1977642172 0.0001936224 -2.77971e-05 0.0001390748 3.0305e-06 -0.8219354068 0.1955593608
130299220.0 -0.8182429897 0.207437271 7.58655e-05 6.48926e-05 -9.54638e-05 -5.8908e-05 -0.8202136149 0.2041898517
135299190.0 -0.816859827 0.216483498 2.8149e-05 -0.0001731318 -8.1402e-06 -0.0001176164 -0.8180169736 0.2132590062
140299160.0 -0.8150458502 0.2257163283 9.0863e-06 0.0002429414 0.0001733733 0.0001027844 -0.8161368981 0.2210728919
145299130.0 -0.8122744887 0.2342036343 -1.1392e-06 0.0001584146 0.0001765487 -3.77935e-05 -0.8137911148 0.2302902568
150299100.0 -0.8101185112 0.2431580815 1.14507e-05 0.0001467278 6.92605e-05 -6.79184e-05 -0.8117135979 0.2383664923
155299070.0 -0.8076173339 0.2524682238 -7.12681e-05 -0.0001270749 -5.98351e-05 0.0001937528 -0.8097428625 0.2476840755
160299040.0 -0.8050830177 0.2610947904 3.3494e-06 -4.40396e-05 -1.1958e-06 -2.89477e-05 -0.8075230006 0.2566441958
165299010.0 -0.8023748497 0.2696146965 -3.05538e-05 -0.0001443926 0.0001396631 -1.29128e-05 -0.8045568855 0.2648442278
170298980.0 -0.7993601945 0.2779662989 -0.0002995846 -4.2028e-05 9.12697e-05 5.92338e-05 -0.8016964543 0.2734226985
175298950.0 -0.7968077648 0.2870575541 -9.65417e-05 -3.21834e-05 2.6681e-05 2.36594e-05 -0.7988892786 0.2820913006
180298920.0 -0.7938095854 0.2949765402 0.0001803337 -6.2423e-05 -0.000172907 -6.64272e-05 -0.7955565293 0.2906922196
185298890.0 -0.7904231134 0.3041746985 -0.000184703 -0.000141328 6.35684e-05 -0.00012872 -0.7929603123 0.2978447022
190298860.0 -0.7875453987 0.3119930148 5.10893e-05 0.0001937339 -6.12074e-05 -0.0001649068 -0.7900305054 0.307303182
195298830.0 -0.7841107228 0.3209189362 -0.0001899455 -8.4158e-06 0.0001023344 0.0001217768 -0.7872285192 0.3149462209
200298800.0 -0.7807866103 0.3296537164 1.05802e-05 6.68196e-05 -9.11394e-05 0.0001649605 -0.7832511692 0.3239638036
205298770.0 -0.7773548634 0.3374039613 -6.11898e-05 6.98267e-05 3.6127e-05 0.0001200924 -0.7801810683 0.3320219331
210298740.0 -0.7734291271 0.3455873409 -6.52593e-05 -0.0001851151 -0.0001237294 -0.000125008 -0.7772421811 0.3402179086
215298710.0 -0.7700798876 0.3542497635 8.15733e-05 -0.0002682565 3.8105e-06 -4.27124e-05 -0.7730450021 0.348466941
220298680.0 -0.7671309311 0.3623397154 9.73294e-05 2.2806e-06 2.6535e-05 -0.0002757427 -0.7696458725 0.356708448
225298650.0 -0.7631907194 0.3706955229 5.27892e-05 0.0001390607 2.99474e-05 0.0001929255 -0.7655700201 0.3643154618
230298620.0 -0.7587393942 0.3788479566 -8.05076e-05 0.0001941476 5.60952e-05 0.0001658362 -0.7617251546 0.3726899423
235298590.0 -0.7546552355 0.3871153435 -0.0001183463 9.80186e-05 -7.05031e-05 6.43931e-05 -0.7577375515 0.3807070401
240298560.0 -0.7506745067 0.3955197419 0.0001156566 -5.00422e-05 -0.0001856931 -7.14726e-05 -0.7540062955 0.388585555
245298530.0 -0.7463039964 0.4029284311 0.0001516502 -0.0003047203 1.57351e-05 0.0002034076 -0.7501955398 0.3963675014
250298500.0 -0.7424096801 0.4106933009 4.92396e-05 2.84463e-05 5.25206e-05 -0.0001062173 -0.745882116 0.4047243604
255298470.0 -0.7374370117 0.4191078714 -0.0001240786 2.42634e-05 7.3e-08 0.0001438833 -0.7415263652 0.4124447321
260298440.0 -0.7336066454 0.4261147491 -6.95134e-05 -8.61825e-05 -6.89192e-05 4.45487e-05 -0.7367135761 0.4197169448
265298410.0 -0.7291458889 0.4337068311 0.0001345473 0.000161029 8.4694e-05 -9.88474e-05 -0.7327378206 0.427531118
270298380.0 -0.7243794099 0.4419364513 3.09279e-05 4.50152e-05 0.0001307895 7.4339e-05 -0.7276253777 0.4353540452
275298350.0 -0.7191366186 0.4486878538 9.6468e-06 -5.04469e-05 -6.43739e-05 1.59739e-05 -0.7228339016 0.4431680523
280298320.0 -0.7152620352 0.4569864382 0.0002510222 -0.0001373723 7.91269e-05 0.0001964026 -0.7188768628 0.450242129
285298290.0 -0.7101871987 0.4646725855 2.56797e-05 -2.23753e-05 -5.53924e-05 0.0001033447 -0.7130680849 0.4577726568
290298260.0 -0.7057794587 0.4715838963 0.0001287969 -3.56728e-05 -0.0001047135 -0.000188592 -0.7086519303 0.4653714444
295298230.0 -0.7009399191 0.4792589118 4.55635e-05 0.0001561201 5.13316e-05 -0.0002741941 -0.7039328961 0.4728434795
300298200.0 -0.6949144897 0.4865291789 -0.000103737 0.0001121178 0.0001696556 -2.60669e-05 -0.698932936 0.4800135378
305298170.0 -0.6900202678 0.4944073226 -0.0002308099 -0.0001046493 1.06718e-05 8.14593e-05 -0.693287392 0.4873750795
310298140.0 -0.6842933267 0.5007442231 0.0001223408 0.000134568 -0.0001482038 -0.0001547273 -0.6887700019 0.4948743546
315298110.0 -0.6796809263 0.5081176765 -5.15912e-05 0.0001296456 -7.01378e-05 2.421e-05 -0.683081435 0.5018184397
320298080.0 -0.6743337448 0.5162169945 -0.0001998652 0.0002741642 -0.00014906 0.0001487753 -0.6778501642 0.5093348781
325298050.0 -0.6685009398 0.5222226315 3.41094e-05 5.99292e-05 5.61893e-05 -9.0898e-05 -0.6725420844 0.5163101373
330298020.0 -0.6624697697 0.5292212365 4.08515e-05 -0.0001746343 6.47195e-05 -0.0001059422 -0.6669035582 0.5229848709
335297990.0 -0.6570847243 0.5366150091 -7.957e-05 -0.0001417795 0.0001929167 1.12098e-05 -0.6619981563 0.5300005098
340297960.0 -0.6520593146 0.5423250074 1.81885e-05 0.0001087062 -1.7281e-06 -0.0002122254 -0.655349737 0.5370626156
345297930.0 -0.6462734995 0.5490752663 1.65388e-05 0.0001056986 -0.0002580349 -0.000126243 -0.6498033197 0.5441056449
350297900.0 -0.6403711033 0.5565028186 0.0001009809 0.0002264528 -0.0001776245 -4.87923e-05 -0.6440977426 0.5507135483
355297870.0 -0.6345880502 0.5628037929 -0.0002724686 -0.0001518848 -0.0001336059 0.0001796563 -0.6378750574 0.5571812049
360297840.0 -0.6282875967 0.5692589323 -4.35822e-05 -6.48184e-05 1.778e-06 -1.7177e-05 -0.6323206108 0.5638004655
365297810.0 -0.6223930647 0.5757776684 4.86843e-05 -6.95214e-05 1.82551e-05 -3.57226e-05 -0.6263408235 0.5709943481
370297780.0 -0.6162652177 0.5820375992 -3.27758e-05 1.87061e-05 0.0002074066 -0.0002008147 -0.6207404712 0.5764873666
375297750.0 -0.6099797707 0.5882285551 -0.0001709981 4.96408e-05 0.0001316368 -3.06885e-05 -0.6142086726 0.582815992
380297720.0 -0.6040132892 0.594717283 -6.80414e-05 -9.40612e-05 3.42619e-05 0.0001154808 -0.6080108956 0.5900966046
385297690.0 -0.5977466372 0.6007641033 7.22753e-05 0.0001210451 -0.0001522227 -0.0001165886 -0.6021118851 0.5959236288
390297660.0 -0.591574874 0.607122347 9.39058e-05 2.6419e-05 -7.23111e-05 -5.95859e-05 -0.5953666013 0.6018431568
395297630.0 -0.5852520908 0.6130717762 0.0001352041 0.0001172292 6.38504e-05 -0.0001924167 -0.5892061603 0.6084166349
400297600.0 -0.5789835531 0.6188490357 -2.98689e-05 -0.0001024729 3.43768e-05 -0.0001221297 -0.5831643546 0.6140930756
405297570.0 -0.5733623395 0.6249996438 0.0001712572 7.35478e-05 3.53513e-05 0.0001066229 -0.5773953313 0.6200743314
410297540.0 -0.5652307695 0.6307044776 -0.0002423787 0.0001855405 6.87217e-05 -2.7528e-05 -0.5700256323 0.6256342017
415297510.0 -0.5591235549 0.6360706115 -4.54084e-05 -0.0001030884 4.27623e-05 -0.0001178941 -0.5638806222 0.6322765581
420297480.0 -0.5517185334 0.6424597473 8.3997e-06 -8.29539e-05 6.47226e-05 -0.0001424274 -0.5571410553 0.6368276747
425297450.0 -0.5455491542 0.6480245329 8.72332e-05 0.0001896891 0.0002716656 -0.0001137477 -0.549722884 0.6432374712
430297420.0 -0.5392929336 0.6537820998 0.0001152803 -7.19105e-05 -4.78484e-05 -1.10673e-05 -0.5441042274 0.6485227372
435297390.0 -0.53199829 0.6591369217 -0.0002563418 -5.21002e-05 -0.0001598385 -4.12764e-05 -0.5371997764 0.6535195862
440297360.0 -0.5256148562 0.6642989004 0.000260647 -0.0001613674 -0.0001165185 4.6374e-05 -0.5301470308 0.6587400288
445297330.0 -0.5188044937 0.6695503416 0.0001224498 0.0002246884 -8.82937e-05 4.01751e-05 -0.5236111028 0.6639604186
450297300.0 -0.5108942568 0.6746191229 8.9589e-05 9.35456e-05 -3.35306e-05 1.56627e-05 -0.517151119 0.6695961865
455297270.0 -0.5040629918 0.6808605817 6.04051e-05 6.08278e-05 -6.03272e-05 0.00010497 -0.5098608369 0.6747255704
460297240.0 -0.497836352 0.685790402 2.23567e-05 -8.528e-07 -0.000238122 0.0002669423 -0.5027745779 0.6806218122
465297210.0 -0.4903409483 0.6906836458 -3.79518e-05 9.24313e-05 0.0001148655 0.0001314983 -0.4964967599 0.6851505087
470297180.0 -0.4831965027 0.695018856 -0.0001601785 3.0635e-06 -5.52446e-05 5.39723e-05 -0.4900026606 0.689397387
475297150.0 -0.4756819414 0.7001383531 -1.14261e-05 9.1666e-05 -4.12583e-05 -9.81797e-05 -0.4819501708 0.6945151198
480297120.0 -0.468809482 0.7043658509 0.0001786898 -0.0001459033 -0.0001268465 -7.0206e-05 -0.4754902287 0.7000672086
485297090.0 -0.461062929 0.7094091281 -8.5974e-05 -0.0001299703 2.9613e-06 -2.23494e-05 -0.4679738329 0.7040563549
490297060.0 -0.4542506443 0.7142566033 -0.0001755313 -0.0001062455 -5.09148e-05 9.0898e-05 -0.461181755 0.708460099
495297030.0 -0.4474554597 0.7190309329 0.0001130856 4.12048e-05 1.5563e-05 7.1996e-06 -0.4534866261 0.713059923
500297000.0 -0.4385147913 0.7231826701 -0.0001734734 0.0001656969 -0.0002602541 1.91766e-05 -0.4473695427 0.7176232756
505296970.0 -0.4318470112 0.7270069602 -0.0001240197 -8.35567e-05 -6.5763e-06 -1.2365e-05 -0.4405009327 0.7220734118
510296940.0 -0.4245728457 0.7321168258 4.30355e-05 -0.0001415986 6.07519e-05 0.000105495 -0.4320678004 0.726200613
515296910.0 -0.4171643816 0.7362478634 -0.0001655857 2.90057e-05 -0.0001135609 -8.39045e-05 -0.4254186823 0.7309659556
520296880.0 -0.4089877322 0.7406880711 -6.46585e-05 0.0002591812 -6.18912e-05 -0.0001000138 -0.4174974727 0.7349618773
525296850.0 -0.4021548498 0.7451569248 7.60459e-05 2.85502e-05 7.07393e-05 -0.0001443597 -0.4099122321 0.7393577482
530296820.0 -0.3942583718 0.7480856847 -6.07401e-05 -7.37115e-05 2.64476e-05 -0.0002503881 -0.4031388059 0.7428455008
535296790.0 -0.3858501928 0.7525017572 -5.4761e-05 5.08723e-05 -5.70493e-05 -3.50501e-05 -0.3960801175 0.746520072
540296760.0 -0.379055439 0.7556049934 -5.4467e-06 -1.80376e-05 0.0002480968 -0.0001731896 -0.388144525 0.7509666143
545296730.0 -0.3711888417 0.7595804566 0.0001203147 -3.4945e-06 0.0001614583 -0.0001706853 -0.380808261 0.7539878502
550296700.0 -0.3634157439 0.764022794 -4.09838e-05 7.19288e-05 0.0001355224 4.89155e-05 -0.3735998896 0.7579570092
555296670.0 -0.3547072746 0.7669262983 2.9066e-05 -3.2033e-05 4.05425e-05 2.092e-07 -0.3658828144 0.7619076503
560296640.0 -0.3472695856 0.7706743206 0.0001022018 0.0001122037 2.58746e-05 3.4661e-05 -0.357741263 0.7653600269
565296610.0 -0.3398691351 0.7739992176 0.0002804526 8.76643e-05 0.000133408 -7.27083e-05 -0.3506964753 0.7688548885
570296580.0 -0.3317704537 0.7775460945 -8.02852e-05 0.0001289811 -0.0001131656 -7.4778e-05 -0.3431758446 0.7725706527
575296550.0 -0.3234261165 0.7809380457 0.0001083857 -9.12634e-05 7.4956e-06 2.21852e-05 -0.3349907062 0.7757685318
580296520.0 -0.3157047756 0.7839977693 8.45504e-05 -0.0001549038 0.000223604 9.6223e-05 -0.3272792911 0.7787889071
585296490.0 -0.3074086531 0.7867260379 5.8489e-06 7.0594e-06 -2.7473e-05 7.58851e-05 -0.3197986251 0.78158252
590296460.0 -0.2997665037 0.7897681027 -0.0001461037 0.0002391004 8.65551e-05 9.76556e-05 -0.3121897217 0.7851514882
595296430.0 -0.2912639126 0.7934576793 -0.0003761262 0.0002203769 0.0001223003 -6.37688e-05 -0.3041959625 0.7871189011
600296400.0 -0.2835694636 0.7957759607 -0.0001203044 -0.0001292662 1.9151e-05 5.23254e-05 -0.2963385634 0.7911812307
605296370.0 -0.2755962413 0.7987587852 4.53496e-05 0.0002228777 0.0001048449 0.0001815024 -0.288635904 0.7940644379
610296340.0 -0.2675346541 0.8021758014 0.0001018887 3.909e-06 2.51489e-05 -5.54475e-05 -0.2805081052 0.7969835623
615296310.0 -0.2593616907 0.8041588592 -7.38595e-05 -5.38909e-05 8.27661e-05 -0.000108889 -0.2729510369 0.7995257329
620296280.0 -0.250457268 0.806185859 -0.0001197156 -0.0002275432 0.0002614391 4.41615e-05 -0.2648354039 0.8016422412
625296250.0 -0.2422960535 0.8085976718 9.2164e-05 4.4276e-06 0.000168478 -3.97543e-05 -0.2570143328 0.8048628651
630296220.0 -0.2342660145 0.8117087195 -0.0002128001 1.81098e-05 -6.64119e-05 -0.0001640948 -0.2486272703 0.8075163287
635296190.0 -0.226729642 0.8140273668 -1.06118e-05 0.0001383137 0.0001636906 0.0002237323 -0.2410014363 0.8096287449
640296160.0 -0.2174641964 0.8151766289 -0.0001165538 -4.6644e-06 -5.85372e-05 -8.04753e-05 -0.2324687737 0.8119068867
645296130.0 -0.209800082 0.8178390111 0.0001375258 -0.0001929951 -8.07963e-05 3.98274e-05 -0.2256218252 0.8139914562
650296100.0 -0.201915883 0.8204736912 0.0001190189 -0.0002313967 -0.0002013293 0.000152953 -0.2166799018 0.8166396569
655296070.0 -0.1930280132 0.8216805487 -0.0001100241 -0.0001366874 -0.0001457284 -1.74454e-05 -0.2084402109 0.8181821158
660296040.0 -0.185334054 0.8240374078 0.0001744055 0.0001241928 -4.67438e-05 -6.92473e-05 -0.2001021845 0.8203156788
665296010.0 -0.177293193 0.8262495391 2.74899e-05 2.4971e-06 -1.763e-05 3.10025e-05 -0.1930875245 0.8222224042
670295980.0 -0.1678410883 0.8275414977 -0.0002912559 0.0001108208 -2.47195e-05 -9.83854e-05 -0.1853264045 0.8237254737
675295950.0 -0.1603175917 0.8283725815 6.8615e-06 2.16269e-05 7.12585e-05 -3.88404e-05 -0.1766879471 0.8260164124
680295920.0 -0.1515632633 0.8309577864 0.0002618984 -1.30712e-05 9.50819e-05 0.000185514 -0.1681108785 0.8279669374
685295890.0 -0.1428100056 0.8323789803 1.66507e-05 -0.0001580815 6.4972e-05 3.40435e-05 -0.160411876 0.8293160081
690295860.0 -0.1342914906 0.8334627683 0.0001220484 0.0002219087 4.61837e-05 9.36003e-05 -0.1519192075 0.8301172105
695295830.0 -0.1264323653 0.8346859519 0.000204438 0.0002851373 -6.56424e-05 7.28097e-05 -0.1434373149 0.8324762764
700295800.0 -0.1178719654 0.8356473285 -5.47378e-05 -2.18261e-05 -4.65457e-05 0.0001188673 -0.1352865213 0.8333393867
705295770.0 -0.1086422188 0.8372721283 3.80409e-05 4.34454e-05 -0.0001523392 -7.45997e-05 -0.1278105103 0.8351130604
710295740.0 -0.1011820443 0.8385506808 -0.0001985226 4.78273e-05 -3.85194e-05 0.0001372982 -0.1193123013 0.8364877971
715295710.0 -0.092952475 0.8393070611 -4.15472e-05 -7.91384e-05 -9.0368e-05 2.95626e-05 -0.1110859282 0.8377188495
720295680.0 -0.0842285494 0.8398768545 -7.89447e-05 4.68617e-05 8.56845e-05 3.05318e-05 -0.1026420249 0.8386931069
725295650.0 -0.0753138439 0.8409489219 0.0001467601 -3.10101e-05 -6.87103e-05 4.41364e-05 -0.0937014659 0.8393249191
730295620.0 -0.0676098178 0.8412503225 -3.40067e-05 -7.24327e-05 -1.04231e-05 -3.79486e-05 -0.085998667 0.8400603122
735295590.0 -0.0580228364 0.8416170171 0.0001070338 -9.22697e-05 4.72087e-05 6.37668e-05 -0.0772795565 0.8410204663
740295560.0 -0.0501380584 0.8426453968 0.0002010026 3.65822e-05 7.62583e-05 0.0001153973 -0.0693141652 0.8415340725
745295530.0 -0.0417398103 0.8426592276 5.9595e-06 -3.00608e-05 -2.12807e-05 -3.82047e-05 -0.061087086 0.8422404233
750295500.0 -0.0339254161 0.8432364168 -0.0002281834 8.92315e-05 -9.08117e-05 -1.13163e-05 -0.0525225017 0.8426905343
755295470.0 -0.0245717087 0.8434416104 0.0001358754 0.0001314679 7.8615e-05 -8.2543e-06 -0.0449184117 0.8437047166
760295440.0 -0.0160183272 0.8438773905 -6.68886e-05 0.0001247693 1.26062e-05 4.1969e-06 -0.0367422413 0.843797068
765295410.0 -0.008138072 0.8436804031 0.0001123183 2.88304e-05 4.52977e-05 -1.39719e-05 -0.0275187811 0.8439375291
770295380.0 0.0008574264 0.8443756233 0.0001094687 -7.44946e-05 -0.0001864595 -0.0001051803 -0.0194314166 0.8439603015
775295350.0 0.0090356755 0.8441501532 -6.2752e-05 0.0001287647 -8.35949e-05 4.07729e-05 -0.0115208819 0.8445312196
780295320.0 0.0178510418 0.8431155099 -7.78539e-05 -4.32451e-05 8.86423e-05 -3.38122e-05 -0.0030853609 0.8445956926
785295290.0 0.0260911135 0.8441506805 -0.0001694815 1.84613e-05 6.53576e-05 -2.6241e-06 0.0049253809 0.8446284106
790295260.0 0.0341523818 0.8427180102 -7.72949e-05 6.81941e-05 -8.4424e-06 1.63075e-05 0.0141988507 0.8441621235
795295230.0 0.0429418032 0.8429725413 -0.0001347091 9.45591e-05 7.76206e-05 0.0001111747 0.0222391491 0.8443679382
800295200.0 0.0516478875 0.842651592 -2.13097e-05 4.27893e-05 -0.000106307 -0.0001424923 0.0304620607 0.8435853109
805295170.0 0.0594227959 0.8420828811 -0.0004290605 4.57639e-05 -3.73771e-05 5.44957e-05 0.0383071385 0.843126375
810295140.0 0.0682846574 0.8414194467 6.86559e-05 0.000150858 -0.0002852792 5.03404e-05 0.0471151593 0.8439650486
815295110.0 0.0769246041 0.8403832293 6.34589e-05 8.04884e-05 2.296e-06 -6.80459e-05 0.0552189824 0.8431169512
820295080.0 0.0850848144 0.8390294377 -1.74781e-05 7.66153e-05 0.0001603896 -1.64169e-05 0.062806223 0.8421749976
825295050.0 0.0935601901 0.8386171721 0.0002801025 -9.94902e-05 -0.0001050306 6.72135e-05 0.0713979994 0.8417952316
830295020.0 0.1020588682 0.8377815398 -0.0001678596 -0.0001395297 -0.0001350103 -4.0257e-06 0.0797329268 0.840533474
835294990.0 0.1100266362 0.8366063666 0.0001861677 4.6672e-06 -0.0001251725 7.68823e-05 0.0879036418 0.8401167315
840294960.0 0.1184250898 0.8356778202 -6.33556e-05 0.0001378525 8.8645e-05 0.0001451274 0.09596738 0.8393712311
845294930.0 0.1269185449 0.8340413855 6.9423e-06 0.0001760569 5.45473e-05 0.000199615 0.1040504794 0.8381448709
850294900.0 0.1350713203 0.8330714049 -7.30571e-05 -0.0001348211 -6.80035e-05 -0.0001693159 0.112351836 0.8371869563
