!Created with skrf (http://scikit-rf.org).
# Hz S RI R 50.0 
!freq ReS11 ImS11 ReS21 ImS21 ReS12 ImS12 ReS22 ImS22
300000.0 -0.773092812 -0.1503363537 -0.0015070862 -0.0014012851 -0.0008263889 0.0012615217 -0.0461726702 -0.0708932884
5299970.0 -0.7855651894 -0.0078184632 -0.0002062389 5.6209e-05 -3.48145e-05 -5.35142e-05 -0.0484774675 0.0140813612
10299940.0 -0.7874061244 -0.0042676062 8.16772e-05 5.00443e-05 -0.0002967154 3.9057e-05 -0.042853939 0.031503092
15299910.0 -0.7935659117 -0.0014115622 -6.59666e-05 -3.45726e-05 -0.0002945188 -0.0001638618 -0.0345457815 0.0456328718
20299880.0 -0.7993873286 0.002740262 -6.87752e-05 -4.71504e-05 -0.0001006508 9.72961e-05 -0.0248656167 0.0570657602
25299850.0 -0.8063672406 0.0082169808 0.0001232751 7.6614e-06 0.0001074863 -8.46105e-05 -0.0141733626 0.0662171845
30299820.0 -0.811890593 0.0162405497 4.09845e-05 -4.82262e-05 8.69033e-05 -1.42333e-05 -0.0030159214 0.0725735602
35299790.0 -0.8165616137 0.0250033402 -8.53021e-05 3.24951e-05 0.0001090668 -0.0001840132 0.0082832841 0.0772599337
40299760.0 -0.8216167684 0.0343213807 -0.0001139233 2.46547e-05 -7.77491e-05 0.00017763 0.019463665 0.080083077
45299730.0 -0.8246739294 0.0444330126 -0.0001797846 8.34458e-05 -0.0001454141 -0.0001477315 0.0296633264 0.0813030793
50299700.0 -0.8269794117 0.0540124477 6.2177e-05 -0.0001305746 0.0002889374 9.99709e-05 0.0399819454 0.0813578398
55299670.0 -0.8287197184 0.0643341762 -9.85901e-05 5.85542e-05 4.92431e-05 -0.0001383694 0.048379641 0.0805310384
60299640.0 -0.8296855044 0.0746656166 8.16013e-05 4.62558e-05 6.77816e-05 -5.62405e-05 0.0569827446 0.0785170299
65299610.0 -0.8309686583 0.0844426552 -4.70025e-05 -0.0001634498 3.80541e-05 0.0003009667 0.0642803417 0.0762336186
70299580.0 -0.8315140516 0.0943876271 7.82998e-05 3.83583e-05 -0.000154935 1.79317e-05 0.0712445866 0.0729851016
75299550.0 -0.8316561793 0.1046292838 0.0001117778 -6.49045e-05 2.01987e-05 -5.50465e-05 0.077596941 0.0699253678
80299520.0 -0.8311437038 0.1145918198 -3.17103e-05 -1.98478e-05 5.9103e-06 -7.03248e-05 0.0828566851 0.0662860625
85299490.0 -0.8308074876 0.1240826899 3.25316e-05 2.33869e-05 -3.13899e-05 -0.0001367084 0.0876904165 0.0626153244
90299460.0 -0.8293764624 0.1336069271 0.0001922359 -0.0001220848 4.69001e-05 -8.02392e-05 0.0924244615 0.0585510421
95299430.0 -0.8286982899 0.1434784198 3.35504e-05 5.21559e-05 -0.0001381599 -8.96621e-05 0.0965190527 0.0547286697
100299400.0 -0.8279065089 0.1531791708 -0.000153341 -8.353e-06 -0.0001206287 -4.01489e-05 0.0997796752 0.0507505984
105299370.0 -0.826231327 0.1623991348 6.6965e-05 2.97469e-05 0.0001012623 -0.0001651003 0.1031261707 0.0467703348
110299340.0 -0.8253757373 0.1710239423 2.23639e-05 0.0001699724 -0.0001403436 9.99102e-05 0.105398759 0.0429689472
115299310.0 -0.8234138861 0.1804102645 0.0001196746 -7.00661e-05 -1.81593e-05 -3.97319e-05 0.1082171032 0.0388180993
120299280.0 -0.8219518499 0.1893614191 7.0902e-05 -0.0001320504 -0.000168952 -7.651e-06 0.110389169 0.0349342816
125299250.0 -0.8206386367 0.1986120938 5.74825e-05 -2.97625e-05 -0.0001592134 4.53363e-05 0.1123231571 0.0308162012
130299220.0 -0.8182289326 0.2075869469 8.66995e-05 -8.4394e-05 -1.57587e-05 -1.46978e-05 0.1134924973 0.027469193
135299190.0 -0.8165271921 0.2168483572 0.0002730462 0.0001691398 7.06189e-05 0.0001198289 0.1150897588 0.0237021586
140299160.0 -0.8145111495 0.2256292771 7.84766e-05 0.0002983567 -4.94297e-05 -1.79575e-05 0.1165196273 0.0197025383
145299130.0 -0.8125626079 0.2344578184 5.95022e-05 0.0001022559 9.34513e-05 7.98759e-05 0.1170449572 0.0165547201
150299100.0 -0.8098878917 0.2431479879 0.0001703886 -4.25045e-05 0.0002362605 4.31726e-05 0.1179343891 0.013021083
155299070.0 -0.8074159704 0.2519305425 0.0002638466 7.02249e-05 -1.70188e-05 -1.31715e-05 0.1186795248 0.0095153733
160299040.0 -0.8049653305 0.2610132888 -0.0002074169 -1.50921e-05 -7.23565e-05 0.0001128997 0.1195546395 0.0065624532
165299010.0 -0.8022544245 0.2697963012 0.0001717528 -7.2448e-06 -0.0001219642 -4.3846e-05 0.1198991327 0.0027279826
170298980.0 -0.7997103134 0.2781523086 2.25997e-05 0.0001434323 -2.96943e-05 6.18349e-05 0.1201707459 -8.43722e-05
175298950.0 -0.7969248736 0.287417799 3.79093e-05 1.4891e-06 0.0002152558 0.0001931435 0.1204398495 -0.0032925394
180298920.0 -0.7937783357 0.2947256105 5.74087e-05 -5.46958e-05 -0.0001374009 0.0002278319 0.1208637281 -0.0064161691
185298890.0 -0.7904929794 0.3046104305 3.72715e-05 0.000245618 -2.87306e-05 -0.000106963 0.1205345584 -0.0092898676
190298860.0 -0.7875049595 0.31205987 0.0001497376 7.31623e-05 -0.0001054483 0.0001357061 0.1209187887 -0.0123587458
195298830.0 -0.7841204538 0.3209328876 -6.95559e-05 0.0001567291 -4.98687e-05 6.28373e-05 0.1204968213 -0.0151015257
200298800.0 -0.7804921417 0.3289119255 3.75398e-05 -0.0001613812 3.64238e-05 3.59153e-05 0.1205497025 -0.0179069031
205298770.0 -0.7770578798 0.3374526242 0.0001487683 9.01631e-05 1.70526e-05 -1.652e-07 0.1200226559 -0.0204477901
210298740.0 -0.7733486852 0.3458631094 3.1666e-05 1.86802e-05 6.19699e-05 -0.0001039968 0.119930236 -0.0235181422
215298710.0 -0.7704576609 0.3538983494 0.0002183917 0.000244864 -9.09489e-05 9.80928e-05 0.1190453687 -0.0257767634
220298680.0 -0.7670192279 0.3624101769 -0.0001000366 -5.32774e-05 0.0001339875 1.03157e-05 0.1193766438 -0.0282093165
225298650.0 -0.7628769131 0.3707342131 -0.0001066214 7.80179e-05 4.33417e-05 5.58703e-05 0.1181836022 -0.0303753109
230298620.0 -0.7586422298 0.3791632918 0.0001440709 7.81182e-05 -5.42232e-05 0.0002151138 0.1177179124 -0.0333284387
235298590.0 -0.7546557222 0.3871844723 2.15228e-05 6.85183e-05 6.18944e-05 0.0001182922 0.1171286074 -0.0356704187
240298560.0 -0.7509890218 0.3950591555 0.0002793623 0.000118681 -0.0001618736 8.19156e-05 0.1164056427 -0.0377854608
245298530.0 -0.7463424783 0.4027404723 -0.0001519998 8.81218e-05 9.861e-05 5.55377e-05 0.1158407976 -0.0399762164
250298500.0 -0.7424191606 0.4108285971 5.18325e-05 8.26093e-05 0.000220637 0.0001294835 0.1153915714 -0.0421362427
255298470.0 -0.737593327 0.4187602243 0.0001910875 0.0001542553 -4.96027e-05 0.0002290112 0.1144673348 -0.0445846047
260298440.0 -0.733486596 0.4261752016 -3.9806e-05 0.0001706192 -6.13374e-05 -0.0001009131 0.1138183537 -0.0464677051
265298410.0 -0.729014191 0.4341092054 0.0001420441 -1.29803e-05 -5.89507e-05 0.0001130999 0.1131164025 -0.04878552
270298380.0 -0.7247169047 0.4416448124 0.0003360029 -5.47264e-05 0.0001693954 1.08732e-05 0.1123934172 -0.0507796263
275298350.0 -0.7194329063 0.4491483913 -2.40248e-05 2.55566e-05 -3.61147e-05 0.0001141012 0.1116101353 -0.0522945396
280298320.0 -0.7149736591 0.4566698791 0.0001370091 8.66095e-05 -4.14274e-05 0.0002057225 0.1108754712 -0.0544705676
285298290.0 -0.7105999454 0.4643976888 0.0002278889 4.9712e-06 3.02307e-05 -0.0001175911 0.1094035535 -0.0563511112
290298260.0 -0.7050871172 0.4715214187 -8.2484e-05 6.97002e-05 -1.24833e-05 0.0001870097 0.1090777615 -0.0579250042
295298230.0 -0.700565219 0.4796222766 0.0001591362 8.60075e-05 0.0002335062 -0.0001294478 0.1077355802 -0.060108736
300298200.0 -0.6947206869 0.486851171 0.0001967483 -0.0001341499 0.0001604583 0.0001777383 0.1069723225 -0.0616713263
305298170.0 -0.6903360314 0.494123514 -9.69396e-05 2.87873e-05 0.0001143111 1.83157e-05 0.1060464385 -0.06327284
310298140.0 -0.6841406433 0.5008849767 -0.0001764281 -2.98429e-05 0.0002864731 1.50448e-05 0.1051377934 -0.0648733692
315298110.0 -0.6797245903 0.5079308111 -4.1272e-05 6.57702e-05 0.0001599131 -3.89024e-05 0.1042218795 -0.0670535
320298080.0 -0.6741028854 0.5155459482 0.0002297162 -5.13071e-05 0.0001044566 0.0001676593 0.1031905932 -0.0687559687
325298050.0 -0.6683761187 0.5222070208 6.918e-06 8.87756e-05 0.0001651527 0.0001645949 0.1017264843 -0.0705785902
330298020.0 -0.6631750142 0.5290627201 0.0002357427 6.75197e-05 0.0001035797 0.0002112058 0.100463882 -0.0726866745
335297990.0 -0.6569674359 0.536238739 0.0001047486 -0.000187662 0.0001224448 0.0001389452 0.0992574216 -0.0743260956
340297960.0 -0.6518159841 0.5422683461 0.0001857507 0.0002557251 0.0003435493 -0.0001653887 0.0978580132 -0.0757169525
345297930.0 -0.646595456 0.5491473076 0.0001303964 -0.0003124887 0.0002122382 -6.46277e-05 0.0962375497 -0.0768283604
350297900.0 -0.6404563777 0.5558522094 0.0001943584 5.6211e-05 -2.23385e-05 1.73758e-05 0.0950810441 -0.0784403979
355297870.0 -0.6344834734 0.5626311919 9.88709e-05 -7.04685e-05 0.0001435508 -2.18327e-05 0.0934867519 -0.0793363337
360297840.0 -0.6286059954 0.5693046992 -3.4496e-05 -0.0001251065 3.86126e-05 -6.10179e-05 0.0923799155 -0.0805098825
365297810.0 -0.622604183 0.5757294426 8.68369e-05 -4.58884e-05 -8.4919e-06 -7.8026e-06 0.0907144151 -0.0817425568
370297780.0 -0.6161378511 0.5816934222 0.0001863824 4.14633e-05 0.0001020927 -0.0001343166 0.0895452384 -0.083014246
375297750.0 -0.6099288791 0.5883082758 -2.4654e-06 -3.6686e-06 -0.00018431 0.0002095664 0.0880082997 -0.0841235011
380297720.0 -0.603538836 0.5947429835 0.0001893244 6.75172e-05 0.0001242094 -2.40146e-05 0.0867676775 -0.0851864033
385297690.0 -0.5973666153 0.6013778407 -0.0002365233 2.39125e-05 2.55079e-05 1.6581e-06 0.085303433 -0.0862307469
390297660.0 -0.5916668558 0.6068925084 6.8692e-05 8.31942e-05 6.04354e-05 1.51067e-05 0.0837452213 -0.0876981188
395297630.0 -0.5855254255 0.613118107 0.000209749 -8.8912e-05 7.06763e-05 0.0002243569 0.0824817478 -0.0887725128
400297600.0 -0.5789542738 0.6190674648 7.09364e-05 -2.59127e-05 0.0001698046 -0.0001788359 0.0809691355 -0.0896602818
405297570.0 -0.5725182219 0.6253220964 4.42425e-05 -2.85625e-05 -1.27625e-05 0.0001081808 0.0794801615 -0.0906997373
410297540.0 -0.5657605481 0.6306510538 -0.0001363725 6.87722e-05 0.0001801354 2.99895e-05 0.0779276719 -0.0915197933
415297510.0 -0.5589591288 0.6364334743 5.3508e-06 -9.78849e-05 -7.87567e-05 0.0001059668 0.0766208912 -0.0924455102
420297480.0 -0.5518371133 0.6417282763 -0.000165382 -6.74335e-05 0.0001489345 9.83999e-05 0.074892833 -0.0937439763
425297450.0 -0.5461435758 0.6479154011 0.0001173839 0.0001240117 0.0001257745 8.9904e-05 0.0737549806 -0.094397097
430297420.0 -0.5393565458 0.6530781948 -0.0001194141 -0.0001427679 8.89217e-05 -0.0001058202 0.0721521364 -0.0953939285
435297390.0 -0.5318943825 0.6593743895 4.18012e-05 -0.0003074415 9.77551e-05 1.80645e-05 0.0707367865 -0.0959658261
440297360.0 -0.5251858624 0.6648875882 0.0001247005 0.0002364629 8.90131e-05 0.0001249715 0.069075282 -0.0971718109
445297330.0 -0.5185026692 0.669983387 9.17143e-05 -5.38013e-05 2.97502e-05 -1.8645e-06 0.0673631967 -0.0980582714
450297300.0 -0.510833603 0.6744854348 -8.16862e-05 2.589e-06 0.000201373 -4.02781e-05 0.0656804897 -0.0987464221
455297270.0 -0.503954652 0.6800603138 -7.37371e-05 -0.0001026011 -1.35043e-05 8.36727e-05 0.0644832654 -0.0996038425
460297240.0 -0.4974181215 0.6852321865 0.0001056898 -7.24497e-05 2.45629e-05 -1.10821e-05 0.0631016783 -0.1002838203
465297210.0 -0.4893762312 0.6909007542 0.0003464998 -1.43828e-05 -0.0001235437 3.76782e-05 0.0610362957 -0.101224749
470297180.0 -0.4828043407 0.6948783566 6.77198e-05 -4.91373e-05 9.13232e-05 0.0001858593 0.0592638084 -0.1017556952
475297150.0 -0.4754351713 0.7006319803 0.0001419171 -0.0001025236 2.1942e-05 0.0001492244 0.0583545754 -0.1024657168
480297120.0 -0.4687815264 0.7046715833 -0.0001698724 -1.96476e-05 0.0001774277 -1.15265e-05 0.0564271873 -0.1027743453
485297090.0 -0.4615308011 0.709283765 0.0002196571 -4.81988e-05 0.00021166 0.0001748779 0.0546112699 -0.103851611
490297060.0 -0.4540937606 0.7141558083 4.449e-06 -5.49682e-05 -6.73622e-05 4.67704e-05 0.0531455874 -0.1044987452
495297030.0 -0.4467602133 0.7185414357 5.29531e-05 9.83277e-05 4.47853e-05 0.0001341691 0.0515786532 -0.1050098887
500297000.0 -0.4387959541 0.7233770842 0.0001182776 3.3192e-06 0.0002319819 7.45555e-05 0.0498418174 -0.1055537448
505296970.0 -0.4315835068 0.727146102 0.0001933047 5.10378e-05 0.0001029231 0.0003016435 0.0480191143 -0.1059887762
510296940.0 -0.4243500588 0.7322300444 4.72387e-05 3.18879e-05 0.0003830517 -0.0003062898 0.0466939812 -0.1067008187
515296910.0 -0.4170956397 0.7362020602 -0.0002318737 1.02004e-05 0.0002753659 -5.48228e-05 0.0450022364 -0.1072595529
520296880.0 -0.4090150975 0.7401952705 2.8991e-06 0.000185737 0.0001832786 -9.92552e-05 0.0434034464 -0.1077979039
525296850.0 -0.4020120644 0.7448442007 -1.6804e-05 -4.74592e-05 0.0001388919 -8.70272e-05 0.0417863404 -0.1081531412
530296820.0 -0.3943702527 0.7485040131 0.0001566481 -0.0001631346 1.03656e-05 -1.03834e-05 0.0396787548 -0.1087210633
535296790.0 -0.3861346407 0.7527387597 0.0001022416 0.0001822936 3.99717e-05 0.000113386 0.0383602808 -0.1095393161
540296760.0 -0.3786901747 0.7561319821 0.0002638301 1.82682e-05 0.0002748291 -7.97223e-05 0.0360947132 -0.1094506848
545296730.0 -0.3713684631 0.7599385384 0.0001789581 0.0002104208 0.0003374779 0.0001087678 0.0346436812 -0.1101335865
550296700.0 -0.3635646099 0.7636793026 0.0001521926 0.0001726067 0.0001174316 3.62126e-05 0.0329904942 -0.1105970215
555296670.0 -0.3549083592 0.7674818632 2.06617e-05 -5.94316e-05 0.0001985823 -5.17119e-05 0.0311962324 -0.1105633493
560296640.0 -0.3469812141 0.7710169769 0.0001358345 8.61587e-05 0.0001885217 -0.0001334507 0.0297850036 -0.1111966818
565296610.0 -0.3394353961 0.7741189449 1.0859e-05 0.000208193 0.0001176587 -1.27055e-05 0.0281034856 -0.1112441066
570296580.0 -0.3317134807 0.7773613048 0.0001370144 3.15965e-05 9.60848e-05 -0.0001464798 0.0264849503 -0.1113649334
575296550.0 -0.3235880868 0.7805584338 8.25717e-05 5.94765e-05 0.0002067815 0.0001802975 0.0247897407 -0.1117180245
580296520.0 -0.3155364464 0.7841239639 0.0003033446 3.963e-07 7.39054e-05 0.0002182998 0.0228280632 -0.111820044
585296490.0 -0.3079366986 0.786387772 0.000271696 -4.74607e-05 -0.0001459845 -7.89797e-05 0.0211744931 -0.1127421472
590296460.0 -0.299624636 0.7899379807 0.0001513154 -2.78458e-05 9.03147e-05 -1.40218e-05 0.0195318392 -0.1123772969
595296430.0 -0.2916880682 0.7938466225 9.05093e-05 0.0003012307 -6.64108e-05 5.69279e-05 0.0176582829 -0.1129393354
600296400.0 -0.2834634327 0.795446229 0.0001890348 -0.0001234663 5.87636e-05 7.9833e-06 0.0162637371 -0.1125743475
605296370.0 -0.2755139191 0.7989480182 0.0002346731 7.56102e-05 9.8486e-05 7.61684e-05 0.0143349179 -0.1127749206
610296340.0 -0.2670021626 0.8016879197 0.0001557147 6.97652e-05 0.0003059182 7.61634e-05 0.012843508 -0.1127580808
615296310.0 -0.2592921548 0.8045179959 0.0002883007 7.1811e-06 -4.58828e-05 2.17257e-05 0.0110592724 -0.1132121509
620296280.0 -0.2507296111 0.806257848 0.0003726925 -4.69087e-05 5.9779e-05 4.68879e-05 0.0092597838 -0.1133179067
625296250.0 -0.2426989807 0.8096064739 0.0002255496 -8.72996e-05 8.57894e-05 -0.0002388669 0.0076472791 -0.1130098964
630296220.0 -0.2341851439 0.812147493 0.0001701409 -0.0002545407 0.0001044637 -5.0348e-06 0.0060661514 -0.1128228367
635296190.0 -0.2264630924 0.8140877562 0.0003014899 -0.0001286872 0.0002272432 6.17942e-05 0.0043063186 -0.112895368
640296160.0 -0.2176767963 0.8156589821 0.0002744147 6.04175e-05 -7.44274e-05 0.000126444 0.0026464605 -0.1128951501
645296130.0 -0.2097059105 0.8180998029 0.0003532996 0.0001151698 0.0001114993 -0.0001184682 0.0008208775 -0.1127546042
650296100.0 -0.2018089552 0.8209686386 0.0002454458 -0.0001026532 3.85141e-05 -3.56804e-05 -0.0007802012 -0.1128149299
655296070.0 -0.1933592695 0.8218901409 0.0001256755 -9.56317e-05 7.19421e-05 0.0001020226 -0.0024975299 -0.1125210502
660296040.0 -0.185391561 0.8242171483 4.19113e-05 4.25815e-05 0.0002094428 -4.24672e-05 -0.0043143969 -0.11248973
665296010.0 -0.17660685 0.8256729126 3.72477e-05 -3.87836e-05 0.0003477876 -3.0421e-05 -0.0059863904 -0.1122105577
670295980.0 -0.1678847271 0.8272497805 0.000290106 -9.26513e-05 0.0001095445 -1.99045e-05 -0.0077408708 -0.1118626751
675295950.0 -0.1603192975 0.8291276865 8.38507e-05 -0.0001727294 0.000115658 -0.0002557475 -0.0092196127 -0.1115966952
680295920.0 -0.1519005834 0.8309000769 0.0002741695 0.0001931586 0.0001151122 -6.1812e-06 -0.0110841635 -0.1115299478
685295890.0 -0.1425490623 0.8316532631 0.0001216736 -1.28622e-05 0.0001605832 8.9079e-05 -0.0125537097 -0.1114189082
690295860.0 -0.1339520448 0.8336360198 0.0001349187 4.36283e-05 9.18122e-05 0.000172221 -0.0140614565 -0.1109208521
695295830.0 -0.1261822433 0.8340763289 0.0001325007 -0.0001752476 0.0001115638 0.0002073793 -0.0160785461 -0.1108142884
700295800.0 -0.118108074 0.8356557027 0.0003027269 -0.0001876014 4.19112e-05 1.54115e-05 -0.0175530789 -0.1105028997
705295770.0 -0.1092186031 0.8372031423 0.0001182791 -8.05779e-05 7.40181e-05 3.69316e-05 -0.0192326993 -0.1097612062
710295740.0 -0.1008650875 0.8378517015 9.88417e-05 -0.0001229065 3.88258e-05 -4.9963e-06 -0.021222867 -0.1090040042
715295710.0 -0.0932942263 0.8394902664 1.60524e-05 -0.000258814 0.0001759018 -0.0001088121 -0.0228309943 -0.1089963814
720295680.0 -0.0846362835 0.8397216645 0.0001601543 -9.86941e-05 0.0002765455 -0.0001135174 -0.0239106478 -0.1087389209
725295650.0 -0.0750623626 0.840769613 0.0002641879 -0.000258575 0.0001091051 -6.3994e-05 -0.0257222139 -0.1085157914
730295620.0 -0.0673540585 0.8412397728 0.0001471948 -0.0001113098 0.0001574681 -2.1862e-05 -0.0277685472 -0.1081660693
735295590.0 -0.0583273298 0.8418336902 0.000242871 1.53018e-05 5.67336e-05 -0.0001751011 -0.029195746 -0.1076580747
740295560.0 -0.0500492997 0.8427965255 0.0001535566 0.0001699933 0.0003427948 6.79672e-05 -0.0306348032 -0.1070653917
745295530.0 -0.0417364996 0.8427922139 0.0002323565 -3.43912e-05 9.70156e-05 1.20093e-05 -0.0322663468 -0.1062439647
750295500.0 -0.0336133627 0.8431760864 0.000462378 -0.0002195735 0.0002448907 5.8993e-06 -0.0340011174 -0.1060655189
755295470.0 -0.0244694099 0.843444016 0.0001870636 -7.56182e-05 0.000201816 -0.0001262012 -0.0355957317 -0.1050330707
760295440.0 -0.0160709229 0.8436042921 -4.54136e-05 9.09119e-05 6.86349e-05 -0.0001995399 -0.0375414623 -0.1047330678
765295410.0 -0.0078740044 0.8441478903 0.0001745141 -2.46839e-05 0.0001953645 8.6982e-05 -0.038435334 -0.1039507215
770295380.0 9.5122e-05 0.844323204 3.45381e-05 -4.5888e-05 -2.85004e-05 -8.33862e-05 -0.0399753084 -0.1034492895
775295350.0 0.0091794706 0.8442014828 0.000345242 -2.79079e-05 0.000340215 -6.00068e-05 -0.0417501959 -0.1030032472
780295320.0 0.0178954146 0.8433099295 0.0002052829 -0.0001255388 0.0004136311 -0.0001524103 -0.0436262068 -0.1019252557
785295290.0 0.0258913368 0.8438001721 0.0003998405 8.53828e-05 0.0002448117 0.0001509331 -0.0452063089 -0.1012065738
790295260.0 0.0346597748 0.8431990606 0.0002816099 -0.0001361378 2.78959e-05 3.9296e-06 -0.0461842301 -0.1009272977
795295230.0 0.0428775492 0.8431426006 0.0001210862 -1.69851e-05 0.0002679773 -0.0001269866 -0.047889161 -0.0998331491
800295200.0 0.0513213589 0.8425600019 0.0002482238 9.44369e-05 0.0002444385 -4.5191e-05 -0.0494551026 -0.0996469747
805295170.0 0.0598463272 0.8418780167 8.21132e-05 -0.000125643 0.0003706482 3.06257e-05 -0.0510873149 -0.0985545336
810295140.0 0.0678866483 0.8413117663 0.0003339969 -0.0001615687 0.0001353106 -0.000284943 -0.0524024072 -0.0972086368
815295110.0 0.0770504277 0.8403905045 8.97674e-05 5.5896e-05 -1.96016e-05 0.0001432868 -0.0541443238 -0.0968430487
820295080.0 0.0851704623 0.8387554401 0.0001254722 -1.09873e-05 0.0001020548 -2.37612e-05 -0.0554953921 -0.096014507
825295050.0 0.0941880298 0.8386160558 8.5237e-05 -0.0001011091 0.0001256195 -2.88663e-05 -0.0566937826 -0.0950384771
830295020.0 0.102179536 0.8378164807 0.0002795881 -0.0001304168 0.0001985638 -4.72266e-05 -0.0583520496 -0.0943894654
835294990.0 0.109605283 0.8371319509 0.0001680428 0.0002287734 -6.3361e-05 1.50881e-05 -0.0595564976 -0.0937374738
840294960.0 0.1188598305 0.8352711317 4.04544e-05 -7.2418e-06 0.0002313425 3.2622e-05 -0.0612074042 -0.0919880215
845294930.0 0.1273531866 0.8338716329 0.0002768221 -4.51177e-05 0.000296469 -0.0001272116 -0.0626067369 -0.091347527
850294900.0 0.135364223 0.8325246995 0.0001424299 -0.0003469158 0.0002427889 -3.98902e-05 -0.0638184682 -0.0902837041
