!Created with skrf (http://scikit-rf.org).
# Hz S RI R 50.0 
!freq ReS11 ImS11 ReS21 ImS21 ReS12 ImS12 ReS22 ImS22
300000.0 -0.7760428264 -0.1694369677 -0.0021832964 -0.0004474906 0.0008420479 0.0021244861 -0.2079889119 -0.1064983469
5299970.0 -0.7859526211 -0.0092945615 -2.5183e-06 -0.0001715915 7.53055e-05 -0.0003083159 -0.2157460232 0.0061804588
10299940.0 -0.7896027869 -0.0061097201 5.57929e-05 -8.36598e-05 3.65448e-05 0.0001459133 -0.2122762897 0.0189795695
15299910.0 -0.7942258968 -0.003450405 -1.35337e-05 8.53722e-05 2.716e-07 0.0001842835 -0.2075937584 0.02810032
20299880.0 -0.8010929363 0.000745268 3.88701e-05 2.72657e-05 -0.0001413808 -1.98594e-05 -0.2024314085 0.0356119548
25299850.0 -0.8076680113 0.0067998963 -0.0001357451 0.0001163092 -9.40264e-05 0.0001035039 -0.1964890478 0.0419147549
30299820.0 -0.8136452998 0.0140468261 7.6846e-06 1.8967e-05 4.06892e-05 8.81029e-05 -0.190931149 0.0467445255
35299790.0 -0.8183129995 0.0228053575 -2.07406e-05 -5.31304e-05 -2.88517e-05 -9.28071e-05 -0.1853538028 0.0505925346
40299760.0 -0.8236512521 0.031780407 -2.30624e-05 -5.25796e-05 -7.43692e-05 -1.82309e-05 -0.179703007 0.0530625306
45299730.0 -0.8264277172 0.0417396528 -7.74433e-05 -6.90596e-05 -4.90134e-05 0.0001531455 -0.1741958692 0.0553844114
50299700.0 -0.8291647482 0.0520662306 -8.17024e-05 0.0001158569 -4.58677e-05 -9.23083e-05 -0.1697476928 0.0571210167
55299670.0 -0.8312654328 0.0615542593 0.0002586754 4.8894e-05 3.93315e-05 -9.58403e-05 -0.1653732204 0.0581186366
60299640.0 -0.8322118592 0.0716324552 0.0001693323 0.0004337923 5.5672e-06 -2.2925e-05 -0.161078534 0.0584864409
65299610.0 -0.8335532065 0.0817706239 1.80294e-05 -0.0001209555 0.0001890235 0.0001566634 -0.1578684714 0.0592339965
70299580.0 -0.8334931746 0.0917793221 -4.75501e-05 1.23394e-05 9.66824e-05 4.71069e-05 -0.1545519787 0.0595352083
75299550.0 -0.8337504151 0.1017448174 0.0001395767 -0.0002379896 2.62807e-05 7.58256e-05 -0.1511889263 0.059845227
80299520.0 -0.8338086215 0.1119970216 -8.52075e-05 -0.0001008597 0.0002560235 0.0001320363 -0.1485834921 0.0602049975
85299490.0 -0.8335532601 0.121303067 -4.58445e-05 -2.07616e-05 -6.1667e-06 3.53508e-05 -0.1463692651 0.0597814506
90299460.0 -0.8320694093 0.1316635507 2.27301e-05 -2.79792e-05 2.79664e-05 7.60507e-05 -0.1440444796 0.059755936
95299430.0 -0.8317311597 0.1403680443 0.0001940606 -0.0001720332 4.17297e-05 -1.26695e-05 -0.1422200914 0.0600598206
100299400.0 -0.8298278448 0.1499824339 2.72962e-05 -4.29357e-05 3.86023e-05 1.98688e-05 -0.1405352642 0.0602437144
105299370.0 -0.8290714234 0.1590974271 0.0002412433 -0.0002665519 0.0001745954 4.68975e-05 -0.1386483611 0.0598484145
110299340.0 -0.827474027 0.1682546836 8.89312e-05 4.57784e-05 -1.50633e-05 6.06886e-05 -0.1373233546 0.0597408397
115299310.0 -0.8262449043 0.177189773 8.52798e-05 2.8198e-06 -6.55888e-05 0.0001697294 -0.1361579237 0.060032816
120299280.0 -0.8242824284 0.1863629548 -0.0001566024 5.99321e-05 7.30167e-05 2.02908e-05 -0.1348875582 0.0597142065
125299250.0 -0.8225044617 0.1949942399 -0.0001019076 4.75475e-05 0.0001022638 5.22517e-05 -0.1336081967 0.0599682879
130299220.0 -0.8209596631 0.2053452462 6.38669e-05 0.0001121704 0.0001980674 0.0001932289 -0.1325381242 0.0600399237
135299190.0 -0.8189056292 0.2142329314 0.0001025488 0.0001212077 -8.28491e-05 -4.00453e-05 -0.131800791 0.0604486681
140299160.0 -0.817273811 0.2231753638 0.0002173317 0.0001763648 -8.71489e-05 4.4951e-06 -0.1311466206 0.0605924915
145299130.0 -0.814766727 0.2326121477 0.0001341382 0.0001401809 7.28785e-05 -7.599e-07 -0.1301787956 0.0610528335
150299100.0 -0.8117920496 0.2406113588 0.000186735 0.0001409905 3.89266e-05 0.0002581804 -0.1297697544 0.0613705176
155299070.0 -0.809722125 0.2497338094 9.35263e-05 -0.0002403577 0.0001519517 8.86863e-05 -0.129110668 0.0619928269
160299040.0 -0.8070918072 0.2595465489 0.0002235464 -5.9221e-06 6.99456e-05 4.38768e-05 -0.1284519671 0.062305633
165299010.0 -0.8044216266 0.2677953573 8.5225e-05 0.0001454857 0.0001295883 5.39826e-05 -0.1275753917 0.0625484789
170298980.0 -0.8018045672 0.2762408553 0.0001225564 -1.90353e-05 5.43154e-05 -5.82087e-05 -0.1273775986 0.0633371071
175298950.0 -0.7994446154 0.2848883221 -2.21907e-05 2.06725e-05 0.0001189926 9.36525e-05 -0.126488778 0.0638314941
180298920.0 -0.7964304787 0.2936541991 8.65425e-05 0.0001351505 6.51205e-05 -2.4099e-05 -0.1258985803 0.0643618525
185298890.0 -0.7929311828 0.3020569688 0.0001890688 5.56794e-05 3.22991e-05 0.0001237245 -0.1255161724 0.0647392319
190298860.0 -0.7894100138 0.3114368365 0.0002199054 2.27078e-05 0.0001281863 1.33519e-05 -0.1250728768 0.0655716096
195298830.0 -0.7865348034 0.3190021431 -9.8314e-06 0.0001302109 0.0001764943 8.34929e-05 -0.1247778803 0.066345371
200298800.0 -0.782699293 0.3277752186 9.40355e-05 5.2326e-05 1.00151e-05 8.25143e-05 -0.1239529062 0.0670805436
205298770.0 -0.7794931407 0.3364802716 2.15717e-05 -4.02608e-05 6.65788e-05 -0.000118384 -0.1240579524 0.0678171863
210298740.0 -0.7762492943 0.3448182476 -0.0001470463 0.000190496 0.0001730257 1.1734e-05 -0.123383366 0.0683586805
215298710.0 -0.7721861424 0.3528942621 -0.0001257475 -4.85562e-05 -6.23344e-05 -0.0001214351 -0.1226036688 0.0689081326
220298680.0 -0.7686450344 0.3606450619 -0.0001037719 7.24836e-05 0.0001572256 4.90076e-05 -0.1222691697 0.0703471876
225298650.0 -0.7648898657 0.3694156775 5.65451e-05 0.0002238182 -5.7471e-05 5.74584e-05 -0.1218771046 0.0711838181
230298620.0 -0.7613112887 0.3777505068 8.621e-06 0.0002886721 8.652e-05 0.0001344842 -0.1212069757 0.0718431298
235298590.0 -0.7569926643 0.3859105136 4.3546e-05 -7.74496e-05 -2.34401e-05 -7.87376e-05 -0.1210797611 0.0727610852
240298560.0 -0.7526657887 0.3939709311 -0.0001279261 9.76701e-05 4.15578e-05 0.0001256646 -0.1207008124 0.0732137426
245298530.0 -0.7489841182 0.4021656835 0.0001246492 0.0001615116 4.60911e-05 0.0002564391 -0.1201709473 0.0742091306
250298500.0 -0.7447080033 0.4096316365 -7.19018e-05 -0.0001102942 9.46218e-05 3.1686e-06 -0.1199070493 0.0751722618
255298470.0 -0.7403967998 0.4179118689 0.00034385 0.0001443594 0.0003722378 0.0001328647 -0.1192478428 0.0762059965
260298440.0 -0.7362320621 0.4250756092 0.0001209054 0.000210896 4.15334e-05 -9.8829e-06 -0.1187703479 0.0774501291
265298410.0 -0.732111625 0.4327530092 0.0001883008 7.13614e-05 5.80929e-05 2.39288e-05 -0.1178501622 0.0778909035
270298380.0 -0.7274006483 0.4402437711 0.0001201132 2.51126e-05 -1.15101e-05 0.0001326798 -0.1175129359 0.0790859621
275298350.0 -0.7231702344 0.4481829063 0.0001706123 4.0287e-06 0.0002137651 9.91756e-05 -0.1168524608 0.0804900353
280298320.0 -0.7181333028 0.4554512255 0.0002077211 0.0001752042 0.0002318144 4.08082e-05 -0.1164018528 0.0811899492
285298290.0 -0.7137349486 0.4631048808 0.0001051688 4.90956e-05 4.60742e-05 8.44192e-05 -0.1159537901 0.0825483171
290298260.0 -0.7084927561 0.4713604341 -5.68562e-05 0.0001794165 0.000131531 6.16543e-05 -0.1155222577 0.0832766133
295298230.0 -0.7040592109 0.4777461186 0.00024592 6.39145e-05 0.0002871745 0.0002862509 -0.114505792 0.0841548275
300298200.0 -0.6991104408 0.485462433 0.0002259713 6.91255e-05 7.8821e-06 0.000214338 -0.1139316654 0.0852972595
305298170.0 -0.6946653009 0.4924699173 6.31876e-05 6.8572e-06 0.0001864602 -1.73525e-05 -0.1134570979 0.0863137066
310298140.0 -0.6885930512 0.5000572815 3.3278e-05 0.0001115875 0.0002322003 0.0002549044 -0.1125567195 0.0875151235
315298110.0 -0.6844023414 0.5069567771 0.000134285 0.000172348 1.35946e-05 7.57477e-05 -0.1121125057 0.0885732883
320298080.0 -0.6793593783 0.5145295539 0.0001550829 -9.99464e-05 0.0001302425 0.0001506115 -0.1115519126 0.0894216135
325298050.0 -0.6733417767 0.5209408166 7.6122e-06 -2.78768e-05 4.81538e-05 0.0001504366 -0.1105755829 0.0900003525
330298020.0 -0.6680007529 0.5284086499 0.0002374155 0.0001472789 9.05698e-05 5.57854e-05 -0.1101410185 0.090970755
335297990.0 -0.6633686246 0.5350160348 3.86107e-05 0.0002142061 9.47584e-05 0.0002234825 -0.1096327251 0.0918913676
340297960.0 -0.6578496649 0.541598685 9.88097e-05 0.0003215739 6.0432e-05 5.77164e-05 -0.1087471601 0.093283201
345297930.0 -0.6515642651 0.5481902255 0.0001229858 0.0001783278 0.0001369874 -9.89458e-05 -0.1084417494 0.0941144041
350297900.0 -0.6460448812 0.5550518993 7.3518e-05 0.0001734354 0.0002045452 5.03075e-05 -0.1080459831 0.0951479973
355297870.0 -0.640626632 0.5610808794 0.000150323 4.25523e-05 0.0002585403 9.58242e-05 -0.1072741883 0.0968057982
360297840.0 -0.634549771 0.568165881 0.0002016059 0.000128846 0.0002409753 0.0001964313 -0.1064321084 0.0976490713
365297810.0 -0.6289856883 0.5749314851 0.0003861746 -0.0001073917 -2.51945e-05 7.4589e-05 -0.105894357 0.0985235663
370297780.0 -0.6236159902 0.5808194751 0.0003455609 -8.82802e-05 8.19657e-05 4.72732e-05 -0.1051638302 0.0996840819
375297750.0 -0.6178527695 0.5871691863 0.0001556685 8.96339e-05 4.39627e-05 2.23458e-05 -0.104472363 0.1006548912
380297720.0 -0.6119243744 0.5934418724 -9.43864e-05 -5.76949e-05 0.0002574831 0.00014716 -0.10335406 0.1021453905
385297690.0 -0.6055816285 0.5995850853 8.98207e-05 -3.99604e-05 -5.93503e-05 -0.0001063998 -0.1028733963 0.1031735441
390297660.0 -0.5985876425 0.6055807852 0.0002157376 7.44884e-05 0.0002270443 6.67538e-05 -0.1019727281 0.1040279525
395297630.0 -0.592955118 0.6125981267 3.44026e-05 4.08808e-05 0.0001591885 -1.50817e-05 -0.1011481911 0.1051803476
400297600.0 -0.5867727918 0.6181626447 0.0002115706 0.0001935336 2.42867e-05 0.0001201292 -0.1000756568 0.1064996197
405297570.0 -0.5807301201 0.6227449192 0.0003105763 1.6524e-05 0.000232218 -3.97152e-05 -0.0990333 0.1075495605
410297540.0 -0.5738232171 0.6303549414 4.07901e-05 -0.0001768375 5.30972e-05 0.0001012964 -0.0985182559 0.1086527248
415297510.0 -0.568062415 0.6352102285 -2.03541e-05 9.84604e-05 -4.21568e-05 0.0001303904 -0.0977038367 0.1095801226
420297480.0 -0.5604597158 0.6407455378 0.0001663053 0.0001926738 0.0001202974 0.000133387 -0.0964919165 0.11100541
425297450.0 -0.5544073343 0.6467165531 9.05914e-05 -0.0001355158 0.0001416877 6.12676e-05 -0.0960856362 0.1114721718
430297420.0 -0.5476637665 0.652260982 0.0002763259 5.61482e-05 0.0001779572 0.0001278086 -0.094841535 0.1127650493
435297390.0 -0.5407999807 0.6573342392 0.0001147216 8.05178e-05 0.0003599948 8.8122e-05 -0.0942290021 0.113737308
440297360.0 -0.5339925131 0.6630872436 0.0003133573 0.000115492 0.0001804875 5.02282e-05 -0.0931030479 0.1151345901
445297330.0 -0.5272568565 0.668158369 0.0002788244 6.5719e-05 0.0002665362 2.37819e-05 -0.0916128187 0.1159717902
450297300.0 -0.5203742529 0.6738758981 0.0003303613 3.65125e-05 0.0002012309 0.0001091717 -0.0909781788 0.1169661866
455297270.0 -0.5136735929 0.6787033281 0.0002879653 0.000107618 0.0002699031 0.0001968536 -0.0899242613 0.1177027883
460297240.0 -0.5056137014 0.68448662 -0.0001475542 -0.0001931162 0.0001544257 -3.04656e-05 -0.0891199223 0.1188300267
465297210.0 -0.4988462167 0.6887017829 0.0002989557 0.000106304 6.7361e-06 0.0001880156 -0.0880982709 0.1200335349
470297180.0 -0.4918883922 0.6939630497 0.0003294114 3.6521e-06 0.0002782385 3.22453e-05 -0.0870574962 0.1208067544
475297150.0 -0.4846163459 0.6988693264 8.09396e-05 7.80072e-05 7.86612e-05 -0.0001148314 -0.0855879477 0.1217700247
480297120.0 -0.476651595 0.7044078442 0.0002352161 -6.0087e-06 0.0003147323 0.000268591 -0.0852995903 0.1226770802
485297090.0 -0.4698163846 0.7083205561 0.0001177464 0.0002229258 0.0003326915 0.0001237246 -0.0840076351 0.1235931324
490297060.0 -0.4618478795 0.7139860962 0.000235388 7.61102e-05 0.0001936388 -9.72618e-05 -0.0828782545 0.124480122
495297030.0 -0.4548847461 0.7183876778 0.0002827884 0.0001612665 0.0002857261 -0.0001220908 -0.0814883652 0.1257092993
500297000.0 -0.4470916124 0.7223859179 8.8263e-05 6.2425e-06 1.90836e-05 0.0001811115 -0.0805029999 0.126752732
505296970.0 -0.4390319738 0.7269501984 0.0002306101 7.829e-07 0.0002044697 -3.46215e-05 -0.0793569648 0.1271645818
510296940.0 -0.4318882515 0.7311800584 0.0001614593 -0.0001022559 0.0002048214 -6.3321e-06 -0.078036483 0.1286412485
515296910.0 -0.4240174315 0.7356529405 0.0002550136 0.0001520287 0.0002257201 0.0001026998 -0.0771280805 0.1291748598
520296880.0 -0.416409313 0.7398665281 0.0002467096 -1.39314e-05 0.0003093692 -0.0001108322 -0.0757262719 0.1304372528
525296850.0 -0.4088189381 0.7443845447 -5.982e-06 0.0002041388 0.0002438489 0.0002286427 -0.0749304972 0.1311029304
530296820.0 -0.4009659315 0.7484811567 0.0001049954 0.0001141036 0.0002541681 5.62468e-05 -0.0735272295 0.1318971159
535296790.0 -0.3924635601 0.7516100544 0.0003700761 5.28917e-05 0.0002065782 0.0001284847 -0.0724882722 0.13272862
540296760.0 -0.3851391443 0.755903065 0.000110025 -0.0002152346 0.0002118608 5.5084e-05 -0.0715071013 0.1335435482
545296730.0 -0.3778021549 0.7601635881 6.80877e-05 6.6248e-06 8.5845e-05 6.6426e-06 -0.0700118678 0.1346300915
550296700.0 -0.3691000944 0.7637862153 0.0002415391 1.19364e-05 0.0002431787 0.000108283 -0.0688053493 0.1354295432
555296670.0 -0.3613100642 0.7673373671 0.0004059865 0.0002100031 0.0002024354 -4.84361e-05 -0.067933102 0.1358510581
560296640.0 -0.3532388278 0.7705935228 0.0003666767 0.0001235912 0.0002859701 -1.07843e-05 -0.0668788785 0.1369279027
565296610.0 -0.3456473859 0.774618887 0.0001215025 0.0002227528 0.0002851564 9.87428e-05 -0.0653310703 0.1380054194
570296580.0 -0.3370151437 0.777815648 0.0001862767 0.0001680063 0.0002214618 3.61829e-05 -0.0640836776 0.1386218898
575296550.0 -0.3282243475 0.7809866376 0.0004056182 0.0001188521 9.78044e-05 5.02742e-05 -0.0626959271 0.1391543784
580296520.0 -0.321042684 0.7839636907 2.46934e-05 -0.0001308621 0.0002931126 -4.41849e-05 -0.0617540483 0.1400743312
585296490.0 -0.3122675962 0.7879247622 7.15316e-05 3.61873e-05 0.0002375504 5.62421e-05 -0.0601939952 0.141130713
590296460.0 -0.3035747041 0.7908774012 0.0001714538 0.0001816094 0.0002518665 0.000159177 -0.0592785012 0.1415568982
595296430.0 -0.2960892522 0.7937618046 0.000166607 4.70014e-05 0.0002165134 6.05998e-05 -0.0580890456 0.1426967139
600296400.0 -0.2883781545 0.7968342241 0.0001303556 4.09029e-05 0.0004252724 -9.47685e-05 -0.0564142441 0.1430171745
605296370.0 -0.279766618 0.7995468488 0.0002287993 0.0001754387 0.000235677 6.13347e-05 -0.0550625411 0.1440034469
610296340.0 -0.2711372882 0.8027251724 -6.4363e-06 1.49951e-05 0.0001820909 -5.14418e-05 -0.053971417 0.1446296818
615296310.0 -0.2626370416 0.8060773558 5.17495e-05 0.0001024246 0.000185695 0.0001754889 -0.0524125863 0.1455111555
620296280.0 -0.255700288 0.8080782279 0.0003177318 9.29928e-05 0.0001832404 -6.83947e-05 -0.0512223957 0.1463399592
625296250.0 -0.2472424953 0.8103652052 8.47571e-05 1.08043e-05 0.0001935703 -6.3578e-05 -0.0500353015 0.1467492243
630296220.0 -0.238379472 0.8129882139 0.0004341133 2.62034e-05 0.0003482058 8.84012e-05 -0.0484765849 0.1474208808
635296190.0 -0.2303473323 0.8153129618 0.0002061154 4.9772e-06 0.0001030881 0.0002569044 -0.0473306105 0.1481919385
640296160.0 -0.2220828417 0.8176753343 0.0004372664 2.56634e-05 0.0002619847 -3.07853e-05 -0.0456941269 0.148721467
645296130.0 -0.2137396753 0.8202067456 0.0001804162 9.16643e-05 0.0001641352 0.0001385198 -0.0447987389 0.1492985059
650296100.0 -0.2052083541 0.822232967 0.0004178136 5.33539e-05 7.23292e-05 -5.1234e-05 -0.0431930022 0.1498784662
655296070.0 -0.1977912381 0.8244476016 0.0002117374 -0.0001094752 0.0002075927 -9.5804e-05 -0.0419750357 0.1504510939
660296040.0 -0.1883481058 0.8262239702 -7.27931e-05 -7.1389e-06 0.0003227357 0.000251001 -0.0402714975 0.1509976453
665296010.0 -0.180727314 0.8282573334 0.0001499475 -0.0001021608 0.0005163136 -9.83354e-05 -0.0388928969 0.151605864
670295980.0 -0.1723110416 0.8302189672 0.0002725874 -8.2571e-05 0.0001439649 -0.0001810922 -0.0375669255 0.1523250723
675295950.0 -0.1638523695 0.8321415857 0.0002578058 -2.20406e-05 0.0001683305 1.0629e-05 -0.0362229495 0.1528817359
680295920.0 -0.1564602899 0.8337100701 0.0001800789 7.16567e-05 0.0003620974 -0.0002118765 -0.0344907788 0.1532336124
685295890.0 -0.1471592314 0.8356014615 0.0004114084 0.0001936151 0.0002946784 5.2552e-05 -0.033267558 0.1538008197
690295860.0 -0.1393330879 0.8370906129 0.0002487386 -0.0002140077 0.0002631274 2.21857e-05 -0.0318538475 0.154223718
695295830.0 -0.1305639248 0.8390211166 0.000118841 -0.0001316694 0.0002562032 1.1991e-05 -0.0306351541 0.1549511575
700295800.0 -0.1219659965 0.8399086438 0.0001894153 -2.59693e-05 0.0002717745 8.97136e-05 -0.0287934359 0.1551144095
705295770.0 -0.1146176056 0.8413498721 0.0001394826 7.80572e-05 0.0002781423 0.0001050362 -0.0277272554 0.1562807897
710295740.0 -0.1069485273 0.8421177481 0.0003432063 0.0001469099 0.0003615484 5.91041e-05 -0.0261541003 0.1564529689
715295710.0 -0.0976915167 0.8435681514 0.0002723558 -3.5706e-06 0.0002740908 3.31461e-05 -0.0246415033 0.1565382146
720295680.0 -0.0889448774 0.8446180999 0.0002510104 -0.0001975643 0.0002931594 0.0002716182 -0.0232639863 0.1571387096
725295650.0 -0.0815765484 0.845811775 0.000205267 -0.000134744 0.0003784405 0.0001346821 -0.021699574 0.1580212571
730295620.0 -0.0737225242 0.8465086712 0.0003621883 -0.0003965285 0.0003417057 -7.81208e-05 -0.0203533656 0.1583850041
735295590.0 -0.0652268277 0.8477754815 5.48086e-05 0.0001252002 0.0002432132 -0.0001108457 -0.0186212119 0.1583944777
740295560.0 -0.0577453609 0.8474278577 0.0002518367 -3.05391e-05 0.0003551233 -3.14931e-05 -0.0172410614 0.1589955516
745295530.0 -0.049304083 0.84863395 0.0003832826 1.22808e-05 0.0002875556 -8.568e-05 -0.0156974151 0.159300508
750295500.0 -0.0407497226 0.8494193022 0.0001864638 -3.44163e-05 0.0002239122 -4.9385e-06 -0.0142689155 0.1594738798
755295470.0 -0.0324435178 0.8496703462 0.0001376968 -5.69038e-05 0.0002220014 0.000131653 -0.0128557646 0.1601244521
760295440.0 -0.0243053819 0.8508596788 0.0003263218 -5.29376e-05 0.0003463529 9.20061e-05 -0.0109415734 0.1600754986
765295410.0 -0.0160451331 0.850510227 0.0003079704 -0.0001164111 0.0004041527 7.76994e-05 -0.0095168759 0.1603654523
770295380.0 -0.0081145354 0.8512160281 0.00040499 -0.0002788645 0.0002933167 -2.15758e-05 -0.0083603906 0.1607603584
775295350.0 -0.0001170631 0.8507819894 0.0003654143 -5.86992e-05 0.0004237909 4.72409e-05 -0.0067149139 0.1609658416
780295320.0 0.0090618738 0.8516534729 0.0002627619 -0.000129779 0.0003308602 -0.000176464 -0.0053406448 0.1611201945
785295290.0 0.0167682666 0.8511610446 0.0001496087 -0.000122328 0.0003880238 -0.0001017469 -0.0039507517 0.1616773208
790295260.0 0.025271737 0.850901475 0.000223672 -6.972e-05 0.0003692293 -6.64178e-05 -0.0022104543 0.1619571333
795295230.0 0.0333079066 0.8504354361 0.0003162928 -1.17504e-05 0.0003505555 -5.34482e-05 -0.0010190808 0.1618230159
800295200.0 0.041297011 0.8507986759 0.0003097016 0.0001778938 0.0003547716 -0.0002441666 0.0008764605 0.162199797
805295170.0 0.0487192213 0.8505369944 0.0001806639 5.4876e-06 0.000287096 -0.0001354061 0.0025745575 0.1622655008
810295140.0 0.0580430027 0.8501126304 0.0004185396 -0.0002179408 0.0003402878 7.1806e-06 0.0038321366 0.1625951941
815295110.0 0.0655222365 0.8495818872 0.0002445802 -0.0001969948 0.0002997621 4.14232e-05 0.0051944777 0.1627836579
820295080.0 0.0736129821 0.8486537032 0.0003147096 -5.02772e-05 0.0003419178 1.3741e-06 0.0065933027 0.1630810897
825295050.0 0.0817029201 0.848038972 0.0003759683 -0.0001725631 0.0001269217 -0.0001364381 0.0084843695 0.1629419151
830295020.0 0.0907329728 0.8476485163 0.0002758107 -6.36695e-05 0.0003972287 -0.0001652221 0.0099353688 0.1628478217
835294990.0 0.0980591347 0.8463205451 0.0001708008 -6.78805e-05 0.0002654123 -0.0001955774 0.0116612445 0.1633087855
840294960.0 0.1069923321 0.8451517222 0.000396585 -8.7571e-05 0.0002979939 -3.72476e-05 0.0131786712 0.1634393324
845294930.0 0.1145098631 0.8446263241 0.0002447778 -9.73066e-05 0.0001990089 2.37743e-05 0.0148970761 0.1635768314
850294900.0 0.1238098294 0.8431734183 0.0003480756 -5.5083e-05 0.0001796982 -0.0002536942 0.0163112722 0.1636717333
