!Created with skrf (http://scikit-rf.org).
# Hz S RI R 50.0 
!freq ReS11 ImS11 ReS21 ImS21 ReS12 ImS12 ReS22 ImS22
300000.0 -0.238987117 -0.106277232 0.4687659429 0.0693631446 0.4721412484 0.0710910636 -0.2398181243 -0.1096856507
5299970.0 -0.2408892391 0.0072740056 0.4752626592 0.0053129926 0.4752292651 0.0055885806 -0.2446996019 0.0056852029
10299940.0 -0.2372192906 0.0202014447 0.4771895565 0.0059307889 0.4772390343 0.0066184005 -0.2418149086 0.0176434435
15299910.0 -0.2329961939 0.0299816592 0.480469939 0.0073645955 0.4806100394 0.0076253759 -0.2374792795 0.0264112525
20299880.0 -0.2273047235 0.038097355 0.4851688113 0.0082098267 0.4853696746 0.0077315091 -0.2329546472 0.0341319511
25299850.0 -0.2217328382 0.0444922308 0.490522459 0.0069044373 0.490561682 0.0071694123 -0.2279171994 0.0398143544
30299820.0 -0.2158474507 0.049547973 0.4963018471 0.0049395864 0.4960184039 0.0049441666 -0.2227669051 0.0449644532
35299790.0 -0.2099915478 0.0540685838 0.501237774 0.0017100547 0.5013876543 0.0018029608 -0.2171863919 0.0487610056
40299760.0 -0.204517928 0.0569179804 0.5060336522 -0.0017773451 0.5062282432 -0.0021148275 -0.2127051761 0.0520364759
45299730.0 -0.1995485674 0.0601696052 0.5109636812 -0.0075904008 0.5109709485 -0.0072916066 -0.2080958874 0.0543727365
50299700.0 -0.1945445597 0.0619629886 0.5148179254 -0.0127007871 0.5152701981 -0.0127868056 -0.2035721581 0.0563508653
55299670.0 -0.1905698194 0.0638904069 0.5182897349 -0.0186589189 0.5189011434 -0.0186171147 -0.1998614841 0.0580071739
60299640.0 -0.1862030883 0.0650936887 0.5215192821 -0.0252756292 0.5222852587 -0.0251067686 -0.196376055 0.0595594654
65299610.0 -0.1832372019 0.0662738138 0.5251094681 -0.0303268992 0.5250571717 -0.0310807757 -0.1927607236 0.0603661303
70299580.0 -0.1796438721 0.0667672575 0.5272217228 -0.0375566071 0.5273263678 -0.0375817618 -0.1900464462 0.0615175576
75299550.0 -0.1765154553 0.0681795986 0.5292804511 -0.0445798124 0.5293527642 -0.0448193311 -0.1871275679 0.0624712356
80299520.0 -0.1741099886 0.0689624199 0.5311841445 -0.0514685653 0.5312931594 -0.0513870434 -0.18475023 0.0627448179
85299490.0 -0.171269719 0.0693017318 0.5323976755 -0.0585166504 0.5325309093 -0.0582543545 -0.1826459233 0.0634182467
90299460.0 -0.1692318151 0.0702003189 0.5335862264 -0.0650523992 0.5337452076 -0.0653365878 -0.1798567987 0.0642257659
95299430.0 -0.1672765615 0.0710164226 0.5343405735 -0.0725084729 0.5343758444 -0.0725051486 -0.1784426647 0.0650055691
100299400.0 -0.165254899 0.0718648628 0.5345882573 -0.0789804954 0.5349750124 -0.0790331885 -0.1771664246 0.0651637122
105299370.0 -0.1635795738 0.0724669284 0.5347166084 -0.085883107 0.5350128697 -0.0861537976 -0.1750204992 0.0663664904
110299340.0 -0.1617335645 0.0731650223 0.5345618082 -0.0927119868 0.5351077192 -0.0930111858 -0.1737029332 0.0668242234
115299310.0 -0.1602816665 0.0736729674 0.5349935308 -0.0993147606 0.5351635414 -0.0993167959 -0.1720250448 0.0670720091
120299280.0 -0.1590314298 0.0743272922 0.5349047856 -0.1062946175 0.5352022905 -0.1068069727 -0.1711553974 0.0682541517
125299250.0 -0.1580610648 0.0753093947 0.5345152197 -0.1130535629 0.5345626202 -0.1132763129 -0.1699377494 0.0683462493
130299220.0 -0.156555195 0.0760743569 0.5340659636 -0.1194213771 0.5336772424 -0.1198823447 -0.1686130191 0.069547553
135299190.0 -0.1552006822 0.0766928756 0.5328658966 -0.1259657526 0.5329672959 -0.1264307987 -0.1680132152 0.070289039
140299160.0 -0.1543801449 0.0781143471 0.5324653887 -0.133067072 0.5328817692 -0.1333014756 -0.1666822249 0.0709447981
145299130.0 -0.1532211916 0.0789741741 0.5318732685 -0.1398143818 0.5314488162 -0.1390587794 -0.1663356401 0.0718094228
150299100.0 -0.1521642591 0.0797312486 0.5304438486 -0.1462164032 0.5305056844 -0.1464630372 -0.1652063557 0.0727777713
155299070.0 -0.1511029911 0.0816198318 0.5291932363 -0.1529869825 0.529227233 -0.1530746308 -0.1646049148 0.0734177024
160299040.0 -0.1502500501 0.082176703 0.5279215715 -0.1589319533 0.5277187015 -0.1591044459 -0.1634626493 0.0747202252
165299010.0 -0.1492289506 0.0830533407 0.5264770075 -0.1658355093 0.5266009563 -0.1654241757 -0.1626192342 0.0753205896
170298980.0 -0.1484584209 0.0844145972 0.5240958272 -0.1719563964 0.5248207047 -0.1720068131 -0.1618807166 0.0765443086
175298950.0 -0.1474377478 0.0856499363 0.5236426895 -0.1778768321 0.5233730077 -0.1782365977 -0.1611891019 0.0775626665
180298920.0 -0.1464227129 0.0866002003 0.5213196671 -0.1845709265 0.5216651274 -0.1845123897 -0.1601608061 0.0788655779
185298890.0 -0.1452519823 0.0878761643 0.5193652829 -0.190826347 0.5197595476 -0.1905047073 -0.1598095481 0.0795913584
190298860.0 -0.1445973479 0.0891929312 0.5174594338 -0.1968978042 0.5176667445 -0.1968972979 -0.1583851625 0.081013828
195298830.0 -0.1436404661 0.0901075533 0.5156932835 -0.2025121465 0.5156115225 -0.2033107451 -0.1579703664 0.0818173773
200298800.0 -0.1424853978 0.0917482671 0.5137585248 -0.2087185788 0.5136779719 -0.2087783439 -0.1568870701 0.0833586747
205298770.0 -0.1417302825 0.0929300623 0.5116680073 -0.2145359423 0.5116218349 -0.2151810533 -0.1565473294 0.0840079316
210298740.0 -0.1407731872 0.0941820167 0.5093038116 -0.2213518561 0.509509774 -0.2216006761 -0.1557377745 0.0856920662
215298710.0 -0.1396696591 0.0956279529 0.5067747312 -0.2270315674 0.5069833558 -0.2268820579 -0.1551131988 0.0866035311
220298680.0 -0.1387584775 0.096796996 0.5044217292 -0.232891708 0.5047022301 -0.2329381359 -0.1542746329 0.0880412784
225298650.0 -0.137513373 0.0985085355 0.5018371479 -0.23824767 0.5016168646 -0.2385764385 -0.1535346628 0.0894252428
230298620.0 -0.1368366232 0.099836929 0.4994359591 -0.2446125167 0.5000412239 -0.2444078522 -0.152516196 0.0904970029
235298590.0 -0.1355345295 0.1008458004 0.496780769 -0.250170649 0.4971053195 -0.2505118768 -0.1517692547 0.091795135
240298560.0 -0.1351743561 0.1024637022 0.4945304672 -0.2556731369 0.4943491338 -0.2557011074 -0.1511706102 0.0929670883
245298530.0 -0.1337833663 0.1039955809 0.4907741933 -0.261706531 0.4912267905 -0.2616475442 -0.150134171 0.0945949571
250298500.0 -0.1330875756 0.1052210501 0.4885250672 -0.2668463456 0.4887793804 -0.2666039569 -0.1490559555 0.0955232859
255298470.0 -0.1320300972 0.1068430476 0.4855246383 -0.2730887664 0.4856553039 -0.2729250241 -0.1483446798 0.0967973352
260298440.0 -0.1308451892 0.1079037618 0.4826685358 -0.2779591496 0.4827044133 -0.2784115017 -0.1470018956 0.0982923173
265298410.0 -0.129271475 0.1097639689 0.479745886 -0.2841619914 0.4795609711 -0.2841134171 -0.1466054188 0.0996185566
270298380.0 -0.1281982789 0.110959945 0.4763769677 -0.2894099161 0.4769398782 -0.2892807687 -0.1454219811 0.1012042817
275298350.0 -0.1274570838 0.1125596021 0.4732938989 -0.2949873321 0.4735237049 -0.2949780303 -0.1447468548 0.1024772007
280298320.0 -0.126202785 0.1140336016 0.4699955971 -0.2997266565 0.4701865509 -0.3003034735 -0.1434892621 0.1039121599
285298290.0 -0.1250312225 0.1154836394 0.467016819 -0.3050670439 0.4669578257 -0.3055325951 -0.1430056198 0.1052514868
290298260.0 -0.1238466958 0.1166444466 0.4637582246 -0.3101974893 0.4636552696 -0.3105548847 -0.1412489147 0.1066785729
295298230.0 -0.1226806118 0.1179241072 0.4604691188 -0.3156567303 0.4598695878 -0.3161168714 -0.1404089966 0.1080184491
300298200.0 -0.12078677 0.1193925477 0.456781587 -0.3212877485 0.4570939719 -0.3210520794 -0.1395240272 0.1092335307
305298170.0 -0.1195914896 0.1206608971 0.4533705383 -0.326387978 0.4539289126 -0.3266508205 -0.1380754013 0.1108383213
310298140.0 -0.1181888973 0.1218098454 0.4502826553 -0.3319727687 0.4500588844 -0.3322320692 -0.1370487436 0.1126165635
315298110.0 -0.1173612033 0.1232652374 0.4466559695 -0.3370179181 0.4466145567 -0.3369188314 -0.1358899415 0.1130545233
320298080.0 -0.1158601107 0.1244836547 0.4425464265 -0.3422381597 0.442410083 -0.3420778159 -0.1349060161 0.1144088959
325298050.0 -0.1146564213 0.1253381197 0.4387230731 -0.3473010938 0.4388535119 -0.3475216339 -0.1339466919 0.1158741826
330298020.0 -0.1134678155 0.1271066691 0.4343425071 -0.3522444246 0.4343523496 -0.3524198007 -0.1329477163 0.1168721166
335297990.0 -0.1123825497 0.1282755301 0.4308311344 -0.3568389358 0.4306334608 -0.3573176429 -0.1323056356 0.1182033057
340297960.0 -0.1115054561 0.1296729113 0.4261983233 -0.3617326193 0.4268970782 -0.3616060296 -0.1312135163 0.1197376244
345297930.0 -0.1100883392 0.1309895388 0.4224721632 -0.3658225064 0.4219432506 -0.366127768 -0.1298036876 0.1209515057
350297900.0 -0.1083228495 0.132520363 0.4184652056 -0.3708525102 0.4185724057 -0.3709848276 -0.1291404521 0.1229502284
355297870.0 -0.1070575698 0.1337068053 0.4137938996 -0.3757823664 0.4143060878 -0.3755826055 -0.1278892195 0.1244558314
360297840.0 -0.1054596577 0.1351082575 0.4100531363 -0.3800441758 0.4101669297 -0.3803785731 -0.1268569635 0.1258656285
365297810.0 -0.1042111386 0.1363629946 0.4059347455 -0.3846877952 0.4055272791 -0.384736752 -0.1257539568 0.127484333
370297780.0 -0.1026086079 0.1376621482 0.4011622223 -0.3887283829 0.401634856 -0.3897156133 -0.1244312136 0.1287705204
375297750.0 -0.1011611765 0.1390237067 0.3978805253 -0.3934748364 0.3972778236 -0.3937661431 -0.1230573275 0.1301084551
380297720.0 -0.0995873284 0.1400670537 0.3927684184 -0.3977604575 0.3930036788 -0.3977766045 -0.1218455747 0.1314779682
385297690.0 -0.0980754697 0.1417787329 0.3885189727 -0.4015693531 0.3885314145 -0.402321605 -0.1205743303 0.1329141451
390297660.0 -0.0967190244 0.1427033105 0.3839094079 -0.4066873284 0.3841389502 -0.406686963 -0.1194925399 0.1340730559
395297630.0 -0.0949050356 0.1437417395 0.3798293802 -0.4098102139 0.3794902385 -0.4107961659 -0.118224234 0.1356862801
400297600.0 -0.0938138578 0.1450914829 0.3752141646 -0.4145047731 0.3752447432 -0.4149813938 -0.1170777083 0.1368399693
405297570.0 -0.0918273773 0.14655086 0.3704820415 -0.4187034698 0.3705118246 -0.4190916679 -0.1157630529 0.1385315503
410297540.0 -0.0899844849 0.1476973317 0.3651547565 -0.4228258888 0.3653180433 -0.4226600876 -0.1145084733 0.1394807038
415297510.0 -0.088486133 0.1489729805 0.3614557014 -0.4266800273 0.3612006594 -0.4266287052 -0.1130349613 0.1411588171
420297480.0 -0.0867394918 0.1495699837 0.3563428881 -0.4311625299 0.356572516 -0.4309274903 -0.1116594888 0.1421474292
425297450.0 -0.0851181994 0.1507692788 0.3514563396 -0.434682856 0.3521055941 -0.4346479879 -0.1104050248 0.1439309394
430297420.0 -0.0836644713 0.1522040633 0.3471696 -0.438947731 0.3472217715 -0.4382862462 -0.1090341764 0.1445087573
435297390.0 -0.0815513888 0.153212098 0.3422933311 -0.4418924275 0.3421313965 -0.4418913681 -0.1075914927 0.1462479386
440297360.0 -0.0798418767 0.1542073052 0.3368797605 -0.4458977578 0.3368598271 -0.4459434061 -0.1064135774 0.1471888114
445297330.0 -0.0779825312 0.1552958731 0.3317942285 -0.4500846372 0.3322808031 -0.4497982923 -0.1052235414 0.1483170313
450297300.0 -0.0762828998 0.156225061 0.3272921007 -0.4531960545 0.3274441321 -0.4535720981 -0.103727501 0.149890646
455297270.0 -0.0747901839 0.1569782811 0.3224630724 -0.4565032433 0.3228357885 -0.4567767863 -0.1020094205 0.1510766556
460297240.0 -0.0733001604 0.1580830997 0.3173123987 -0.4598045271 0.3167963642 -0.460423692 -0.1005792107 0.1523738223
465297210.0 -0.0710091763 0.1588488351 0.3125224644 -0.4637564155 0.3129371282 -0.463634479 -0.0995262684 0.1533567258
470297180.0 -0.0696645968 0.1596725074 0.3075841895 -0.4667248929 0.3076098269 -0.4669482574 -0.0980816597 0.1545106856
475297150.0 -0.0679649815 0.1603880145 0.3020556533 -0.4699729878 0.3024366338 -0.4700218421 -0.0964995859 0.1561079186
480297120.0 -0.0659055756 0.1611471749 0.2969072189 -0.4731074368 0.2971422185 -0.4733988161 -0.0947685558 0.1572211763
485297090.0 -0.0639463308 0.1623075608 0.2919430391 -0.4765237645 0.2918851405 -0.4767252223 -0.0936833523 0.1580987112
490297060.0 -0.0621140973 0.1628531533 0.2868158034 -0.4792585592 0.2868853871 -0.4797287935 -0.0922783573 0.1592897789
495297030.0 -0.0606701311 0.1640748931 0.2815781601 -0.4828496712 0.281241144 -0.4826496529 -0.0904854158 0.1601051948
500297000.0 -0.0584085087 0.1647516657 0.2760176902 -0.4861446204 0.2759228679 -0.4860874629 -0.0896233852 0.1615293329
505296970.0 -0.0571540875 0.1654705776 0.270393248 -0.4885717223 0.2704450932 -0.4886305652 -0.0879820239 0.1626197821
510296940.0 -0.0550024232 0.166488038 0.2649645882 -0.4921103555 0.2655582387 -0.4919516206 -0.0859518143 0.1636021314
515296910.0 -0.0533757015 0.1672849391 0.2600426101 -0.4940547289 0.2601373485 -0.494426251 -0.0844896294 0.1646856506
520296880.0 -0.0512953449 0.1675409382 0.2541599233 -0.4968444027 0.2548274637 -0.4971748165 -0.0827391412 0.1655023037
525296850.0 -0.0493620219 0.16837919 0.2492167368 -0.4999873107 0.2492919181 -0.5000483685 -0.0809393945 0.1666390878
530296820.0 -0.0475267473 0.1689743963 0.2439629198 -0.5020923943 0.2435999498 -0.5023951906 -0.0802524742 0.1671473019
535296790.0 -0.0456409082 0.1695049906 0.2379512472 -0.5045993906 0.2385111957 -0.5049915392 -0.0787787394 0.1682895675
540296760.0 -0.0436732192 0.1699918483 0.2327199461 -0.5078933052 0.2323615102 -0.5081955442 -0.0770054604 0.1693789362
545296730.0 -0.0419744297 0.1712383679 0.2273125248 -0.509618871 0.2272337926 -0.5103100169 -0.0757800013 0.1698832846
550296700.0 -0.0403289303 0.1716558762 0.2220491666 -0.5126205339 0.2221618933 -0.5126574899 -0.0738900773 0.1713325473
555296670.0 -0.038053111 0.1718736132 0.2163607493 -0.5149794822 0.2165157326 -0.5146393454 -0.0722751782 0.1718483596
560296640.0 -0.0359813276 0.1725430404 0.210482771 -0.5169247334 0.2108810966 -0.5172220048 -0.0706800338 0.1728922337
565296610.0 -0.0343682007 0.1728618798 0.2048052754 -0.5188678434 0.2047828511 -0.5193710844 -0.0692238235 0.1737579913
570296580.0 -0.032330879 0.173513991 0.1993010973 -0.5213466141 0.1997294728 -0.5213674521 -0.0674198587 0.1749792852
575296550.0 -0.0305086207 0.17438193 0.1938694038 -0.5231313136 0.1939848935 -0.5232980471 -0.065587796 0.1753312102
580296520.0 -0.0284141703 0.1744720841 0.1883879379 -0.5251400479 0.1879461195 -0.5258366298 -0.0641130601 0.1762887701
585296490.0 -0.0264331952 0.1747274013 0.1824438197 -0.5275158034 0.1822075066 -0.5273336223 -0.062952984 0.1761991448
590296460.0 -0.0249833754 0.1754020529 0.1766049324 -0.5290782586 0.1765009961 -0.5297848677 -0.0606532428 0.1777014517
595296430.0 -0.0228687757 0.1760097942 0.1709501822 -0.5311596705 0.1707930754 -0.5317559366 -0.0590877758 0.1781599279
600296400.0 -0.0207642761 0.1764851321 0.1652544539 -0.5330707374 0.1652491464 -0.5331231025 -0.0573157392 0.1792250618
605296370.0 -0.0187391623 0.1769240806 0.159300508 -0.5352084962 0.1598043479 -0.5347297945 -0.0557664305 0.1797008064
610296340.0 -0.01683777 0.1769792379 0.1538511095 -0.5362819931 0.1537650004 -0.5367388803 -0.0538775542 0.1809122487
615296310.0 -0.0148681835 0.1775404137 0.1475654796 -0.5380553558 0.147802384 -0.5383758367 -0.0523448854 0.1812259104
620296280.0 -0.0128340266 0.1776044026 0.1420390333 -0.5393645446 0.1420973313 -0.5396030408 -0.0508109047 0.1813708064
625296250.0 -0.0109548241 0.1780229602 0.1356485209 -0.5413476501 0.1359666808 -0.5412129054 -0.0486500715 0.1824877834
630296220.0 -0.0086009038 0.178397722 0.1300156083 -0.5426050189 0.1307212654 -0.5425882989 -0.047434601 0.1831229487
635296190.0 -0.0069892934 0.1784340618 0.1242578758 -0.5437139534 0.1241530915 -0.5434123541 -0.0453819849 0.1836944826
640296160.0 -0.0051285309 0.1785955505 0.1188713037 -0.5450863861 0.1182991587 -0.5450121872 -0.0434096908 0.1837744548
645296130.0 -0.0030964409 0.1788580637 0.1126693357 -0.5463393491 0.1126378694 -0.5461601729 -0.0423577617 0.1842110565
650296100.0 -0.0008732858 0.1795912964 0.1073377226 -0.5477538286 0.1070798669 -0.547514285 -0.0403036656 0.1852602423
655296070.0 0.0010445429 0.1791710004 0.100899021 -0.5483243374 0.1007797944 -0.5486176209 -0.0383216966 0.1858855353
660296040.0 0.0027947096 0.17945821 0.0948565664 -0.549068007 0.0949514483 -0.5491640185 -0.0366435221 0.185941347
665296010.0 0.0051803369 0.1792769211 0.0891833484 -0.5503432728 0.0894407645 -0.5504548284 -0.0352402365 0.1867810946
670295980.0 0.007136464 0.1795583643 0.083120687 -0.5513275034 0.0836909937 -0.5513035438 -0.0336182162 0.1873185536
675295950.0 0.0092856099 0.1798462936 0.0769643611 -0.5516789727 0.0774080275 -0.5527975559 -0.0310980058 0.1880695874
680295920.0 0.0111790119 0.1801313298 0.0708202391 -0.5532764624 0.0709049059 -0.5533140203 -0.0294845272 0.1879472757
685295890.0 0.0128267655 0.1798924832 0.0654295205 -0.5533992028 0.0649990878 -0.5542875882 -0.0279228757 0.188906078
690295860.0 0.0153294456 0.1798951546 0.0591719507 -0.5540287359 0.0589377248 -0.5540980845 -0.0259094347 0.1891599194
695295830.0 0.017313062 0.1798489321 0.0524028847 -0.5549531714 0.0527752302 -0.5551752609 -0.0244432042 0.1894496657
700295800.0 0.0193719281 0.1798622084 0.0467840227 -0.5553044252 0.0474348973 -0.5557357913 -0.0224043085 0.1893922906
705295770.0 0.0212028912 0.1799639817 0.0411833633 -0.5560691856 0.0414230318 -0.5556937184 -0.0208045541 0.1902139426
710295740.0 0.0234830625 0.1799689668 0.0350483748 -0.5562175377 0.0351649482 -0.5559671303 -0.0194374015 0.1907340135
715295710.0 0.0253646099 0.1795739027 0.0293424032 -0.556484482 0.0293979897 -0.5566540022 -0.0170505671 0.1905160972
720295680.0 0.0271426692 0.1794833502 0.0233791269 -0.5565739202 0.0229930872 -0.5573214 -0.0147704125 0.1911590216
725295650.0 0.0296066457 0.17923013 0.0166011916 -0.5566767767 0.0172597265 -0.5573407011 -0.0131079791 0.1917387515
730295620.0 0.0309609127 0.1792209028 0.0111452481 -0.5571269387 0.0114833151 -0.5570782989 -0.0113138978 0.1913000502
735295590.0 0.0335414056 0.178810993 0.005420686 -0.5571687847 0.0056039362 -0.5572239676 -0.0092264964 0.191749872
740295560.0 0.0355592688 0.1789165822 -0.0007649188 -0.5567408495 -0.0005151506 -0.5570873822 -0.0074570029 0.1920321841
745295530.0 0.0374529201 0.1782405041 -0.0067106094 -0.5568005703 -0.0063927804 -0.5575165379 -0.0063123342 0.192341843
750295500.0 0.0396117455 0.1780180704 -0.0129910333 -0.5561026663 -0.0128647597 -0.5568291901 -0.003936445 0.19232966
755295470.0 0.0417581676 0.1780291047 -0.0187252792 -0.5565190528 -0.0188233127 -0.5571649114 -0.0023727954 0.1925059574
760295440.0 0.0434643204 0.1777123359 -0.0249942199 -0.5561251292 -0.0245925535 -0.5565664205 -0.000838561 0.1927279999
765295410.0 0.0452935129 0.1771699119 -0.0301896907 -0.5554769438 -0.0307046723 -0.5565024431 0.002344887 0.1932155952
770295380.0 0.0476034929 0.1771651604 -0.0367574422 -0.5554962972 -0.036888583 -0.5561091036 0.0038493205 0.1933739862
775295350.0 0.0493680797 0.1767290518 -0.0427189294 -0.554993652 -0.0426880671 -0.5553012689 0.0052025361 0.192911416
780295320.0 0.051528566 0.1760815192 -0.0485565122 -0.5547530986 -0.0480993023 -0.5549766001 0.0072297894 0.1935208158
785295290.0 0.0535033565 0.1759239661 -0.0548197915 -0.5537416507 -0.0545842138 -0.554328163 0.0085135299 0.1933344868
790295260.0 0.0553547522 0.1755698417 -0.0605511658 -0.5534031313 -0.0606398855 -0.5540753475 0.0111181968 0.1935120711
795295230.0 0.0573412628 0.1750627581 -0.0656445973 -0.5521273866 -0.0662691148 -0.5529648295 0.0131274901 0.1940779464
800295200.0 0.0595619921 0.1744963551 -0.0731763394 -0.5522814474 -0.0726168907 -0.5522460592 0.0147431972 0.1939119899
805295170.0 0.0609602831 0.1739761448 -0.0780771391 -0.5507093929 -0.0784509823 -0.5509669826 0.0163665021 0.1935539004
810295140.0 0.0631282125 0.1735046753 -0.0837205796 -0.5500423158 -0.0840452425 -0.5508411053 0.0184004063 0.1939316162
815295110.0 0.0651115043 0.1730232799 -0.090194302 -0.5491080907 -0.0902946327 -0.5492201587 0.0200527024 0.1936034665
820295080.0 0.0670811912 0.1721151001 -0.0961949902 -0.5482169246 -0.0960191569 -0.5486866455 0.0216967314 0.1935668138
825295050.0 0.0692143663 0.1716199342 -0.1020876956 -0.5467228841 -0.1017856565 -0.5475135353 0.0239509248 0.1938860673
830295020.0 0.0710388529 0.1714891621 -0.1078094053 -0.545900625 -0.108576911 -0.5461725886 0.0257732176 0.193460018
