!Created with skrf (http://scikit-rf.org).
# Hz S RI R 50.0 
!freq ReS11 ImS11 ReS21 ImS21 ReS12 ImS12 ReS22 ImS22
300000.0 -0.7761182387 -0.0923868817 -0.0016403758 2.4197e-06 0.0001005459 0.0010948424 -0.0448029132 -0.0572783317
5299970.0 -0.7853517502 -0.0054081534 7.0794e-06 9.72791e-05 0.0002934308 -4.07804e-05 -0.0460914843 0.0158045547
10299940.0 -0.7878961752 -0.0042229742 3.82182e-05 0.0001225398 -0.0001336457 0.000111552 -0.0400197676 0.0338539984
15299910.0 -0.793065846 -0.0019041738 -5.7161e-05 -5.21202e-05 0.0001545233 -8.55824e-05 -0.0313202105 0.0481016875
20299880.0 -0.8004259856 0.00210967 0.0002617451 -4.4619e-06 -8.29234e-05 -4.0021e-06 -0.0211295864 0.060003173
25299850.0 -0.8064712522 0.0077810027 0.0001493674 -0.0001465327 4.87451e-05 -0.0002665559 -0.0100779191 0.06950796
30299820.0 -0.8128325678 0.0152516568 0.0001283666 -0.0001404939 -2.57543e-05 0.0001294161 0.0018611807 0.0759632323
35299790.0 -0.8177796153 0.0248665099 -2.83255e-05 -8.73445e-05 -1.50517e-05 -5.96646e-05 0.0131311248 0.0814746592
40299760.0 -0.821765151 0.0335788083 -0.0002609277 -3.86014e-05 3.50128e-05 2.27248e-05 0.0242870767 0.0839198178
45299730.0 -0.8244700424 0.0432482683 7.54217e-05 0.000119703 -6.1032e-05 -0.0001085389 0.0353501258 0.0852731014
50299700.0 -0.8270048602 0.0528456316 -0.0001592797 0.0002363885 0.0001897448 -5.43183e-05 0.0452406948 0.0851106651
55299670.0 -0.8293957841 0.0635056058 -0.0001341691 3.92146e-05 -9.67462e-05 -0.0001009227 0.0543085799 0.0843939154
60299640.0 -0.8303553085 0.0734763346 4.98702e-05 0.0002956251 2.96253e-05 5.03159e-05 0.0632073711 0.082411946
65299610.0 -0.8312487383 0.0831838109 0.0001702467 4.33683e-05 3.50573e-05 0.0002059981 0.0706062753 0.0799807722
70299580.0 -0.8320141947 0.0934572074 -2.47299e-05 5.2143e-05 -0.0001095909 -8.85278e-05 0.0776784157 0.0773580195
75299550.0 -0.8318083608 0.1038441266 -7.7004e-05 6.19432e-05 -0.0001373006 -9.11392e-05 0.0840818874 0.0735790627
80299520.0 -0.8320444703 0.11334666 0.0001276091 6.49737e-05 -2.7456e-06 -4.01278e-05 0.0896200435 0.0705237281
85299490.0 -0.8312828711 0.1226218716 -0.0001151489 2.74409e-05 1.03303e-05 0.0002579165 0.0947244504 0.0665139947
90299460.0 -0.8303285598 0.1321537236 -0.00012407 4.86345e-05 -5.52056e-05 0.0001165389 0.0993894667 0.062600743
95299430.0 -0.829175205 0.1414007823 4.10649e-05 8.54501e-05 -2.4225e-06 -0.0001260744 0.1036603466 0.0592940636
100299400.0 -0.8282436605 0.1509225365 2.52143e-05 0.0002373853 9.33946e-05 2.82048e-05 0.1074016442 0.0551633792
105299370.0 -0.8269370835 0.1600610003 -4.97986e-05 -7.7179e-05 2.4637e-06 0.0001053114 0.1106182026 0.0511259634
110299340.0 -0.8257505807 0.1693280313 -1.671e-06 -6.31294e-05 0.0001141112 2.85965e-05 0.1132838947 0.0475501437
115299310.0 -0.8241168609 0.1783785375 0.0002939747 0.0001265124 0.0001181244 2.56842e-05 0.1159790825 0.0433937069
120299280.0 -0.8219105976 0.1871971221 -5.34113e-05 7.35112e-05 -4.6333e-05 1.6387e-06 0.1182755676 0.0397132098
125299250.0 -0.8205714722 0.1961666559 0.0001299095 5.56283e-05 0.0002179539 0.0001647375 0.1201777355 0.03562911
130299220.0 -0.8188248825 0.2053699045 4.49863e-05 7.52059e-05 -7.2716e-05 -4.53166e-05 0.1218506116 0.0317627553
135299190.0 -0.8168936817 0.2143063617 -5.43049e-05 0.0001272232 0.0001874124 -8.2709e-06 0.1238135935 0.0285055854
140299160.0 -0.8149805902 0.223152644 -0.000131191 6.66184e-05 -0.0001861738 0.0001362854 0.124941833 0.0253859511
145299130.0 -0.8126528691 0.2317719925 -5.48029e-05 -1.5399e-05 0.0001959458 3.79804e-05 0.1258051933 0.021950508
150299100.0 -0.8104746309 0.2410442215 -2.68517e-05 9.56763e-05 7.46935e-05 -5.22841e-05 0.1269527193 0.018852647
155299070.0 -0.8080282316 0.2494116534 0.0001353247 4.94939e-05 -4.986e-07 3.69474e-05 0.1279016134 0.0154267411
160299040.0 -0.8056172846 0.2577866724 1.4057e-05 0.000146095 5.70033e-05 -9.7833e-06 0.1281275702 0.0124625329
165299010.0 -0.8028976024 0.2669419493 0.0001033431 6.22533e-05 0.000137528 0.0002033098 0.1289398533 0.0093386078
170298980.0 -0.8002860266 0.2755439882 0.0001187683 -1.31654e-05 2.50491e-05 6.92094e-05 0.1293692461 0.006148553
175298950.0 -0.7969789498 0.284256772 -2.6612e-06 0.0002055915 6.1938e-05 -4.6364e-06 0.1297589341 0.0035488833
180298920.0 -0.7950909988 0.2928268041 0.0002173509 5.20963e-05 5.8152e-05 -5.67627e-05 0.1299268397 0.0005733835
185298890.0 -0.7915852868 0.3008715224 0.000259988 8.60064e-05 5.78005e-05 0.0001219258 0.1300192426 -0.0022357418
190298860.0 -0.7885244923 0.3095097002 0.0001180609 0.0001389816 8.4025e-06 0.0001659964 0.1301782846 -0.0048414554
195298830.0 -0.7856739881 0.3173781428 0.0001700154 -5.40403e-05 4.877e-06 7.2735e-05 0.1300396431 -0.0076128814
200298800.0 -0.7814970962 0.3255861952 -0.0001240163 8.18939e-05 -7.62715e-05 0.0001511245 0.1297159223 -0.0105641955
205298770.0 -0.7788418998 0.334194172 1.99841e-05 0.0003607525 8.01072e-05 0.0001796417 0.1295054871 -0.0132537132
210298740.0 -0.7751848266 0.3422809674 0.0001954705 -7.1843e-06 0.0002064615 5.19982e-05 0.1297460658 -0.0154841217
215298710.0 -0.7721304746 0.3504041588 -6.2729e-06 -0.0001899565 5.591e-07 2.49752e-05 0.1289864669 -0.0181505085
220298680.0 -0.7675756371 0.3583410045 1.01406e-05 -0.0001315599 7.80892e-05 0.0001889642 0.1283357541 -0.0205144759
225298650.0 -0.7644215956 0.3666061135 -2.9191e-05 0.0001593366 0.0001361986 0.000165771 0.1279081567 -0.0226109928
230298620.0 -0.7606004116 0.3743861741 6.74431e-05 6.56835e-05 7.82316e-05 -9.11746e-05 0.1279319015 -0.0251635002
235298590.0 -0.7563433577 0.3830524291 9.56624e-05 0.0002986838 -9.87637e-05 0.0001679347 0.1272390899 -0.0272472129
240298560.0 -0.7524418848 0.3905720962 0.000193372 8.56638e-05 1.05808e-05 0.0002088364 0.1265700089 -0.0296743559
245298530.0 -0.7490318195 0.3984099059 -0.0001877672 3.92556e-05 0.0002728879 6.71872e-05 0.1257568422 -0.0319700047
250298500.0 -0.7442831223 0.40655576 0.0001867421 -0.0001135362 0.0002284679 -4.61308e-05 0.1253717539 -0.0339604816
255298470.0 -0.7396347542 0.4136154672 2.39665e-05 0.0001466919 0.0001392391 1.86288e-05 0.1247425521 -0.0365023585
260298440.0 -0.7356939376 0.4216010888 4.33576e-05 0.0001924462 1.52865e-05 9.90672e-05 0.1243123527 -0.0381328495
265298410.0 -0.7317319285 0.4299296974 6.85708e-05 2.73055e-05 -6.4915e-06 0.0001209019 0.1236900505 -0.0400976796
270298380.0 -0.7271735694 0.4372009659 0.0002025812 -2.19461e-05 2.68946e-05 -5.66444e-05 0.1229844323 -0.0422803057
275298350.0 -0.7225596031 0.4444393187 -5.29624e-05 0.0002598624 7.70906e-05 0.0001453838 0.1224133225 -0.0441300285
280298320.0 -0.7172386399 0.4520362747 -6.31075e-05 5.82793e-05 0.0001573064 4.69821e-05 0.1218541736 -0.0459985254
285298290.0 -0.7133221308 0.4596328734 0.0001333921 -6.39179e-05 2.16237e-05 -0.0001459528 0.1208560877 -0.0479559304
290298260.0 -0.7080086551 0.4670478801 -0.000112654 2.6118e-05 7.90872e-05 0.0003047904 0.1199375797 -0.0497605995
295298230.0 -0.702602434 0.4738901636 6.31255e-05 0.0001916006 0.0001455867 0.0001078007 0.1198089043 -0.0517703818
300298200.0 -0.6983918972 0.481859173 8.20231e-05 -5.4901e-05 6.53333e-05 0.00017939 0.1187100223 -0.0536183498
305298170.0 -0.6927740897 0.4881543658 0.0001193323 3.99704e-05 0.000131007 7.52256e-05 0.1183467683 -0.0557845159
310298140.0 -0.6878518535 0.4961195688 5.11023e-05 7.36484e-05 9.3053e-05 4.68646e-05 0.1169331728 -0.0573508994
315298110.0 -0.6827574144 0.5028913899 0.0002823997 0.0001334492 0.0001459821 0.0002384389 0.1160843806 -0.0591216397
320298080.0 -0.6773535247 0.5103903685 0.0002730106 0.0002230524 0.0003022611 0.000228325 0.1148607407 -0.0610107898
325298050.0 -0.6721524505 0.5172891382 0.0001933055 0.0001860367 0.0003255188 0.0003487888 0.1135373977 -0.0626256271
330298020.0 -0.6669741256 0.5240589613 -6.98928e-05 4.87759e-05 0.0002232718 0.000244785 0.1120900924 -0.0643410037
335297990.0 -0.6613742649 0.5306575257 0.0003160358 -9.92016e-05 5.20984e-05 0.0001399873 0.1109799581 -0.0654111059
340297960.0 -0.6558982953 0.5378458565 -5.00989e-05 5.27438e-05 -9.7903e-06 4.98385e-05 0.1100511515 -0.0667634369
345297930.0 -0.6502682434 0.544312643 0.0002571631 -4.37663e-05 0.0001091088 0.0003312548 0.1087884087 -0.0684075831
350297900.0 -0.6446375432 0.5513445942 0.0002724365 0.0004197315 0.0002718809 2.91524e-05 0.1074785364 -0.0692799354
355297870.0 -0.6383894218 0.5580478836 6.99723e-05 2.403e-07 0.0002484391 5.3395e-05 0.1062306338 -0.0708456105
360297840.0 -0.6326460726 0.5633926746 0.0004295888 9.62139e-05 0.0001143385 0.0001227744 0.1051505347 -0.0721664584
365297810.0 -0.6269713202 0.570761077 0.0004884641 0.0003793001 0.0002569109 7.08398e-05 0.104407465 -0.0736510223
370297780.0 -0.6216517563 0.5766587889 0.0001758403 8.56352e-05 7.96254e-05 -0.0001003549 0.1032597913 -0.0745149304
375297750.0 -0.6144352678 0.5829571305 0.0001406449 -0.0002014197 8.45589e-05 0.000142297 0.1017508224 -0.0761099044
380297720.0 -0.6093021771 0.5893992121 0.000130273 -5.9545e-05 0.0002526825 0.0002968725 0.0998682351 -0.0770833979
385297690.0 -0.6041473653 0.5952988482 0.0001112481 0.0001791338 9.40374e-05 0.0001749268 0.0993337027 -0.0783007413
390297660.0 -0.5971559263 0.6013406837 0.0001393124 -6.9786e-06 0.0002599159 0.0002427644 0.0976887096 -0.0793314999
395297630.0 -0.5904233296 0.6082468999 0.0001003426 0.0002339078 0.0002329268 0.000193378 0.0969144145 -0.0806595816
400297600.0 -0.5840324385 0.6141327694 8.3828e-06 3.57339e-05 4.45707e-05 0.0001651194 0.0956406612 -0.0819620887
405297570.0 -0.5785260101 0.619435486 0.0001828824 0.0002530646 0.0002905516 0.0003304268 0.094230973 -0.0830875118
410297540.0 -0.5710237933 0.6248031424 0.000203255 7.86577e-05 0.000227748 -8.7565e-06 0.0930587967 -0.0840239422
415297510.0 -0.5649312834 0.6311069519 -2.95957e-05 6.43587e-05 0.0001937349 0.0001108379 0.0918501825 -0.0854246288
420297480.0 -0.5593181873 0.637319677 0.0002784646 0.0001597517 6.9634e-05 5.47751e-05 0.0906455421 -0.0862773891
425297450.0 -0.551841578 0.6425280868 0.0002140525 6.53417e-05 9.15604e-05 0.0003033376 0.0893659857 -0.0875666815
430297420.0 -0.5457907583 0.6480814593 0.0001874579 0.0001148191 0.0001360954 0.0001727539 0.0878979916 -0.0885460662
435297390.0 -0.539124277 0.6537153702 0.0001563949 5.62629e-05 0.0001361673 0.000237639 0.0867125321 -0.0896219051
440297360.0 -0.5321599064 0.6587586827 -8.57843e-05 -1.66702e-05 0.0002229018 0.000152413 0.0854556325 -0.0905755331
445297330.0 -0.5253923296 0.6645433384 0.0001650211 -2.17947e-05 0.0001358057 -4.42096e-05 0.0842787229 -0.0918041813
450297300.0 -0.5184317114 0.6692428625 0.0001176583 0.0002578621 0.0002756034 0.0001096526 0.0827100197 -0.0925775619
455297270.0 -0.5117738371 0.6744866658 0.0002893435 -3.90449e-05 0.0003106095 0.0002018243 0.0814873994 -0.0936857965
460297240.0 -0.5053191853 0.6788868237 -6.52639e-05 1.13411e-05 0.0002971747 -5.16393e-05 0.0802569499 -0.0945308755
465297210.0 -0.4980959081 0.6851832572 0.0001528447 5.63461e-05 0.000253457 0.0002815653 0.0790442279 -0.0952570621
470297180.0 -0.4906877365 0.689997144 0.0003432533 0.0001928312 0.000222109 9.70996e-05 0.0778420005 -0.0961433256
475297150.0 -0.4839579039 0.6943836837 0.0004091744 0.0002307522 0.0002906592 8.61896e-05 0.0761861229 -0.0968627031
480297120.0 -0.4771030584 0.6994659952 0.0002480177 -8.58563e-05 0.0002404709 0.0001533795 0.0753598871 -0.0977370931
485297090.0 -0.4693539012 0.7041590193 0.0001550152 -3.94562e-05 9.20676e-05 0.0002239918 0.0740466249 -0.0985134557
490297060.0 -0.4626658119 0.708452384 0.0003288139 0.0002223301 0.0002919999 0.0001555244 0.0724222894 -0.0995310913
495297030.0 -0.4552061049 0.7130401268 5.4306e-05 0.000238433 0.0003806521 0.0001075379 0.0712994176 -0.0998389197
500297000.0 -0.447643691 0.717911579 0.0001589545 7.41294e-05 0.0002522076 9.70283e-05 0.06986478 -0.1004042208
505296970.0 -0.4401812208 0.7222465978 0.000157383 1.44719e-05 0.0003417417 4.93101e-05 0.0682818783 -0.1013325646
510296940.0 -0.4330182084 0.726751536 0.0002885658 0.0001939838 0.0002704369 -5.51142e-05 0.0669360324 -0.1019845212
515296910.0 -0.4254272428 0.7309715211 0.0002685614 0.0002054012 0.000145048 -1.70806e-05 0.065614735 -0.1028039908
520296880.0 -0.4181650837 0.7352505152 0.0001118615 -5.40945e-05 0.0001144519 3.8845e-06 0.0642742928 -0.1034094408
525296850.0 -0.4101690904 0.7387449714 0.0003536552 0.0001351629 0.0003370367 0.0001482225 0.0631391537 -0.1035175738
530296820.0 -0.4030343399 0.7437486189 -1.41949e-05 0.0001328025 0.0002233705 7.67801e-05 0.0612915293 -0.1042499547
535296790.0 -0.3961457488 0.7468981577 0.0002460158 0.0002151779 6.5687e-05 0.0002001186 0.0598140328 -0.104940605
540296760.0 -0.3887587344 0.7507721402 0.0002182124 9.77039e-05 0.0002891893 0.0002340891 0.0581943019 -0.1053433252
545296730.0 -0.3810396033 0.7548344109 0.0003765658 0.0001359191 0.0002774723 0.0003780371 0.0570477665 -0.1060325325
550296700.0 -0.3736451868 0.7591989743 -1.29952e-05 -0.0001656429 0.0003882701 4.76551e-05 0.0553248943 -0.1065825032
555296670.0 -0.3654945472 0.7616887772 0.0001002777 7.80221e-05 0.0002964594 0.0001728227 0.0540450645 -0.1068116685
560296640.0 -0.3574649111 0.766181701 -4.54785e-05 0.0001019112 0.0003310414 6.7405e-05 0.0527912308 -0.1073341985
565296610.0 -0.3498046375 0.7696356691 0.0001797777 -0.0002393814 0.0003034636 -6.9348e-06 0.0511114961 -0.1078842504
570296580.0 -0.3427326962 0.7723853622 0.0002492371 7.82282e-05 0.0003327746 2.94058e-05 0.0496276514 -0.1082414408
575296550.0 -0.334531095 0.7772131462 0.0004248922 0.0001433793 0.0003874921 -8.31622e-05 0.0481154324 -0.1086687423
580296520.0 -0.3264394246 0.7797015157 0.0002872359 0.0002784862 0.0001461711 0.0003430929 0.0466444379 -0.1090727203
585296490.0 -0.3190659215 0.7826272728 5.83432e-05 6.51872e-05 0.0002346282 0.0001123363 0.0455540513 -0.109980345
590296460.0 -0.3110102769 0.7858724824 0.0001370769 8.61644e-05 0.0003745724 8.46906e-05 0.0435647809 -0.1097929976
595296430.0 -0.3034519613 0.7882726896 0.0002881391 -9.18058e-05 0.0002342297 -3.01705e-05 0.0422936816 -0.110713339
600296400.0 -0.2950576103 0.7923158556 0.000400889 0.0001587023 0.0002490043 0.0001914983 0.0408810711 -0.1109157778
605296370.0 -0.2877748069 0.7947288022 0.0003436996 0.0001196613 8.09157e-05 5.29708e-05 0.0397860976 -0.1112539872
610296340.0 -0.2791466825 0.7976590356 9.456e-05 9.16442e-05 0.0003836129 -0.000102249 0.0379200764 -0.1113634413
615296310.0 -0.2707150604 0.8005350209 0.0001988995 9.99337e-05 0.0003047646 6.91175e-05 0.0367181944 -0.111727539
620296280.0 -0.2633140437 0.8021592214 0.0001507891 -0.0002256755 0.0002773809 0.0002337742 0.0351927539 -0.1120704724
625296250.0 -0.2553367028 0.8052288227 0.0002926611 7.87901e-05 0.0002411234 4.41641e-05 0.0341431989 -0.1125650091
630296220.0 -0.2468983128 0.8083013986 0.0004177342 -1.47732e-05 0.0001908077 3.63675e-05 0.0322046253 -0.112377748
635296190.0 -0.2393869934 0.8105839286 0.0005130021 7.5355e-06 0.0003396096 3.50372e-05 0.0310006072 -0.1126442142
640296160.0 -0.2316083586 0.8125366365 0.000290133 5.15849e-05 0.0003191208 0.0002165239 0.0297229397 -0.1129327223
645296130.0 -0.2231902524 0.8153159752 0.0002992118 0.0001361172 0.0002243487 -2.63485e-05 0.0281532783 -0.1130203871
650296100.0 -0.2146012711 0.8166769064 0.0005757153 -0.0001093827 0.0002279613 -3.70606e-05 0.0268557649 -0.1130872314
655296070.0 -0.2063020102 0.8191386199 0.0004000035 -2.46418e-05 0.0004271079 8.36578e-05 0.025781305 -0.1131716932
660296040.0 -0.1985435435 0.8203983074 0.0001266759 1.88202e-05 0.0002360361 -3.80461e-05 0.0242782099 -0.1133210451
665296010.0 -0.1897093796 0.8222142468 0.0003594127 -0.0001125498 0.0004599489 -6.11543e-05 0.0223780898 -0.1134383346
670295980.0 -0.182435247 0.8244122439 0.0002629418 -8.97869e-05 0.0002621605 0.0001088369 0.021273737 -0.113288424
675295950.0 -0.1739891417 0.8263037731 0.0004128875 -4.67943e-05 0.0003828863 -9.32545e-05 0.019256106 -0.1130845829
680295920.0 -0.1653146503 0.8285047522 0.000395128 4.93288e-05 0.0002935629 -3.04232e-05 0.0181784276 -0.1131520587
685295890.0 -0.1567578763 0.830501396 0.0002721917 -9.20175e-05 0.0004389201 -1.52127e-05 0.0168457085 -0.1132512904
690295860.0 -0.1492582567 0.830998995 0.0003630061 9.7994e-06 0.000554094 -3.0026e-05 0.0153495389 -0.1127825513
695295830.0 -0.1403140583 0.83221113 0.0003262025 1.94769e-05 0.0003531687 -0.0002169422 0.0138054237 -0.1127702249
700295800.0 -0.1318278879 0.8341246009 0.0002916023 0.0002000534 0.0005630759 0.0001047542 0.0119832515 -0.1127335946
705295770.0 -0.1241383423 0.8353700897 0.0003117335 -9.7125e-05 0.0002120658 -0.0001461641 0.0107893905 -0.112451629
710295740.0 -0.1163072918 0.8367292728 0.0001977452 -5.8138e-05 0.000269784 0.0001129534 0.0090952787 -0.1128550493
715295710.0 -0.1076920111 0.8379174104 0.0003020361 -0.0001376791 0.000324104 -9.07057e-05 0.0079843322 -0.1125723495
720295680.0 -0.0992850808 0.8381311288 0.0004971687 -2.27061e-05 0.0003160028 -2.34156e-05 0.0065209917 -0.1125036753
725295650.0 -0.0902720606 0.8398618435 0.0003860039 5.09035e-05 0.0002869359 9.87813e-05 0.0045999688 -0.1118865946
730295620.0 -0.0822439966 0.8403768686 0.0003926746 0.0001173284 0.0005252357 0.0001139722 0.0033702893 -0.111648129
735295590.0 -0.0747263808 0.8412492266 0.0003269149 0.0001739159 0.0001505186 0.0001330182 0.0018598738 -0.1121055431
740295560.0 -0.0659455747 0.8423675016 0.0002813015 9.22146e-05 0.0005152142 0.0001006029 0.000738247 -0.1116152833
745295530.0 -0.0578101964 0.8431554924 0.0003211305 -3.4988e-06 0.0002976677 7.70668e-05 -0.0008247441 -0.1115201703
750295500.0 -0.0488767142 0.8427847607 0.0002445978 -7.50634e-05 0.0003978471 0.0001397819 -0.0021420501 -0.1111725071
755295470.0 -0.0407257739 0.843188401 0.0003015684 -9.3131e-05 0.0003691132 7.51148e-05 -0.003543341 -0.1113742689
760295440.0 -0.0328435256 0.8436521488 0.0003173448 -2.75638e-05 0.0003882399 2.28495e-05 -0.0050139715 -0.1111234375
765295410.0 -0.0243961454 0.8440570275 0.0002729035 -4.9853e-06 0.0002923908 0.0001265429 -0.0064649463 -0.1105253723
770295380.0 -0.0162919094 0.8443861882 0.0005993834 -3.3643e-06 0.0002404773 -3.22048e-05 -0.0079847201 -0.1104307959
775295350.0 -0.0077664062 0.8447560671 0.00020613 -0.0002084863 0.000303475 -0.0001962823 -0.0095864139 -0.1100472605
780295320.0 0.0004188965 0.8446437398 0.0003784793 -0.00019624 0.0003819772 -4.9951e-06 -0.0105566493 -0.1096839191
785295290.0 0.0088867827 0.8440660684 0.0004353266 -9.9571e-05 0.0004015573 1.9668e-05 -0.011702566 -0.1094365099
790295260.0 0.0178323501 0.8438808163 0.0004828615 -7.19634e-05 0.0004616644 1.21464e-05 -0.0131568308 -0.1088642234
795295230.0 0.0255586888 0.8439066872 0.0004117059 7.83319e-05 0.0005648627 -0.0001097615 -0.0145447047 -0.1086999202
800295200.0 0.0333478398 0.8433778354 0.0004471384 4.30447e-05 0.0005035393 8.1319e-05 -0.016016033 -0.1080483806
805295170.0 0.042608473 0.8434193861 0.0002877941 -0.0001860971 0.0003604258 -0.000139792 -0.017288664 -0.1073814547
810295140.0 0.0509647513 0.8428520158 0.0003515515 8.174e-07 0.0004461495 -0.0002481819 -0.0181445316 -0.1072500603
815295110.0 0.0588267599 0.8420926957 0.0003463253 -8.09584e-05 0.0003124529 -0.0002311458 -0.0199336674 -0.1065834534
820295080.0 0.0671490185 0.8413842354 0.0003922575 -0.0001052567 0.0005051566 6.7477e-06 -0.0209166187 -0.1061419744
825295050.0 0.0761617094 0.8407371288 0.0002914394 3.9976e-06 0.000483254 -0.000177567 -0.0223452875 -0.1056313808
830295020.0 0.0838933985 0.8405865421 0.0001949623 -0.0001973502 0.0004782608 -7.39556e-05 -0.0236891478 -0.1052895478
835294990.0 0.0918306376 0.8395675438 0.0002373021 -8.246e-05 0.0005054267 -4.81335e-05 -0.0250283204 -0.1044682854
840294960.0 0.0999711172 0.838525858 0.0005071721 -0.0003169298 0.0003211942 -2.03372e-05 -0.026279553 -0.1040754045
845294930.0 0.10878657 0.8368588858 0.0005000359 -5.22089e-05 0.0004276504 -0.000243403 -0.0275344597 -0.1035045101
850294900.0 0.1166652697 0.8358246041 0.0004919771 0.0001153365 0.0006550595 8.10272e-05 -0.0290928235 -0.1028228803
