!Created with skrf (http://scikit-rf.org).
# Hz S RI R 50.0 
!freq ReS11 ImS11 ReS21 ImS21 ReS12 ImS12 ReS22 ImS22
300000.0 -0.7753994342 -0.1441604551 -0.0022218531 0.0014152317 0.0018339034 0.0008811352 -0.7736367222 -0.163552111
5299970.0 -0.7847078946 -0.007077543 -0.0001443707 2.02196e-05 -0.0002050361 3.4479e-05 -0.784492287 -0.0089259704
10299940.0 -0.7876142088 -0.0038410919 5.97146e-05 8.21522e-05 -0.0002086904 -9.67381e-05 -0.7880324692 -0.0049177061
15299910.0 -0.79337036 -0.0015334128 -0.000103138 -3.7544e-05 -8.02906e-05 2.77667e-05 -0.7934349869 -0.0030868585
20299880.0 -0.7995681854 0.0025014972 -0.0001148599 -4.60521e-05 0.0001784551 0.0001555228 -0.7998530555 0.0015837701
25299850.0 -0.806606914 0.0083638925 -0.0001103679 -5.29073e-05 3.66835e-05 -4.42566e-05 -0.8063927923 0.0070433018
30299820.0 -0.8113946266 0.0164481249 -1.43378e-05 -0.0001918827 -0.0001414911 -0.0001360229 -0.8125816932 0.0148091865
35299790.0 -0.8170238815 0.0252237708 0.0001361179 1.20709e-05 2.65778e-05 -0.0001270813 -0.8177783714 0.0240337548
40299760.0 -0.8210679922 0.0342829624 -6.99684e-05 -0.0001949038 1.8468e-05 1.7952e-05 -0.8211079873 0.0332863854
45299730.0 -0.8247575258 0.0443999943 -3.10367e-05 -9.48785e-05 6.69842e-05 -3.5067e-06 -0.8250347629 0.042524684
50299700.0 -0.8270499126 0.053543459 9.82021e-05 0.000198249 -8.38137e-05 2.43013e-05 -0.8276977854 0.0525958766
55299670.0 -0.8284911245 0.0642751598 0.000101211 5.17835e-05 3.86943e-05 0.0003045556 -0.8297730893 0.0630872162
60299640.0 -0.8302519212 0.0742909594 -1.31973e-05 -4.0614e-05 3.62371e-05 2.67341e-05 -0.8312385019 0.0733431116
65299610.0 -0.8311643357 0.0848296576 5.84937e-05 1.449e-06 1.54891e-05 -8.01284e-05 -0.8314173701 0.0828529339
70299580.0 -0.8313382265 0.094643357 -2.3064e-05 -5.61861e-05 -0.0001277308 -9.90048e-05 -0.8319984248 0.0928913487
75299550.0 -0.8311458013 0.1047775662 -8.70775e-05 9.57955e-05 1.3204e-06 -1.02466e-05 -0.8329748493 0.1024507756
80299520.0 -0.8316725822 0.1146974783 0.0001200059 7.23913e-05 -3.50477e-05 5.46296e-05 -0.8317856631 0.1122691127
85299490.0 -0.8302817817 0.1242661142 -1.36601e-05 5.33495e-05 0.0001550443 7.12151e-05 -0.8311288326 0.1220166277
90299460.0 -0.8295723307 0.134121955 6.52737e-05 -8.97276e-05 -1.54226e-05 -8.41649e-05 -0.8308410407 0.1312948324
95299430.0 -0.8287109869 0.1439008031 -3.25682e-05 2.7062e-06 -3.17416e-05 2.22956e-05 -0.8297925124 0.1408653124
100299400.0 -0.8280142316 0.1529607132 -1.74316e-05 3.16932e-05 -9.11394e-05 0.0001018165 -0.8284747182 0.1499045364
105299370.0 -0.8270456641 0.1621933568 0.0001448873 -0.0001648277 0.0001847564 4.93193e-05 -0.8275829099 0.1590825924
110299340.0 -0.825574919 0.1711837258 6.86746e-05 -8.10212e-05 7.12901e-05 5.85168e-05 -0.8263694458 0.1684372374
115299310.0 -0.8233443076 0.1805633599 0.0001323502 -8.84565e-05 -1.19848e-05 0.0001083409 -0.8245017033 0.1771629755
120299280.0 -0.8219806463 0.1896324531 -2.77185e-05 -2.36595e-05 8.17494e-05 0.0001073499 -0.8238967718 0.1862008781
125299250.0 -0.8200451534 0.1983686513 -4.46486e-05 0.0002262245 2.2311e-06 4.96304e-05 -0.821603081 0.1957623493
130299220.0 -0.8181131918 0.2079010147 0.0001249052 0.0001288439 -0.0001591723 8.9691e-06 -0.8199446196 0.2043580117
135299190.0 -0.8167870502 0.2168215428 8.90314e-05 0.0001019938 0.0002324058 -9.76723e-05 -0.8176947863 0.2130360402
140299160.0 -0.8144873626 0.2259466815 -6.2782e-06 0.0001512252 -0.000207003 -2.84227e-05 -0.815694953 0.2213592399
145299130.0 -0.8126573853 0.2344942188 0.0001314637 -0.0001425482 0.0001135365 -4.23674e-05 -0.8138879061 0.2302036313
150299100.0 -0.8104157734 0.2432788221 8.66804e-05 -1.9719e-05 -1.53496e-05 9.60078e-05 -0.8118862135 0.2385167271
155299070.0 -0.8076654332 0.2525978361 7.21209e-05 -5.17557e-05 0.0002502695 -3.31594e-05 -0.8095525007 0.2475537851
160299040.0 -0.8047306125 0.2615427865 -4.40136e-05 -0.000157713 -7.83788e-05 2.7979e-06 -0.8077299595 0.2566115588
165299010.0 -0.8023004157 0.2690603817 -0.0001126464 -0.0002194318 -7.537e-06 -7.63528e-05 -0.8043341289 0.2651401072
170298980.0 -0.7999242169 0.2780261152 0.0001424901 -3.76715e-05 -8.35543e-05 1.1076e-05 -0.8022711595 0.2737296541
175298950.0 -0.7968984036 0.2869984145 -0.000109277 -4.6597e-05 -8.11746e-05 0.0001980372 -0.799003607 0.282116354
180298920.0 -0.793573325 0.2948924507 -0.0001014516 -1.76267e-05 4.7615e-05 -4.75525e-05 -0.7959887763 0.2907262029
185298890.0 -0.7904033627 0.3040439066 1.1879e-05 -9.57089e-05 0.000157621 0.0001740856 -0.7927937457 0.2986338086
190298860.0 -0.7874500886 0.3122885593 -0.0001727048 -0.000217799 3.06211e-05 2.2458e-06 -0.7895455028 0.3071554164
195298830.0 -0.7839399168 0.3205989919 7.17477e-05 4.98569e-05 0.0001856533 -0.000106634 -0.7869535882 0.3150366131
200298800.0 -0.7803766412 0.3294260269 0.0001369666 5.42238e-05 7.56639e-05 3.69242e-05 -0.7834485554 0.3241276613
205298770.0 -0.7774516699 0.3375379646 -5.45695e-05 -7.94327e-05 -0.0001024355 -5.29426e-05 -0.7799016849 0.3321021322
210298740.0 -0.7736458842 0.3459865059 -1.17239e-05 8.1564e-05 9.55907e-05 0.0001298074 -0.7768801092 0.3404681085
215298710.0 -0.7700941909 0.3543463987 -3.61378e-05 -9.94995e-05 6.59102e-05 -0.0002496397 -0.7732660253 0.3481660823
220298680.0 -0.766689146 0.3622884323 8.76341e-05 -5.21139e-05 -2.80814e-05 4.96655e-05 -0.7694679212 0.3572330963
225298650.0 -0.7627206425 0.370712757 -0.0001468101 -0.0002470069 -5.2065e-05 -0.0001255411 -0.7659121909 0.3646398142
230298620.0 -0.759075444 0.3789093086 -9.79031e-05 2.95754e-05 -4.35592e-05 7.49113e-05 -0.7613642552 0.3725876398
235298590.0 -0.7544979551 0.3871848641 -9.18882e-05 0.0001950664 4.03201e-05 -0.0001463599 -0.7576357971 0.3806792094
240298560.0 -0.7510013757 0.3953583532 4.56577e-05 4.04071e-05 6.43208e-05 0.0001645277 -0.7537920157 0.388502608
245298530.0 -0.745916348 0.4028518517 0.0001301358 -6.28098e-05 -3.4482e-05 -0.0001646137 -0.7499541324 0.3965206272
250298500.0 -0.742535214 0.4109527076 -6.09827e-05 0.0001266181 -0.0001638652 -0.0001228386 -0.7456500426 0.4049667701
255298470.0 -0.7375042979 0.4187262505 -0.0002225283 0.0002370854 7.71011e-05 -9.45557e-05 -0.7412811339 0.4124539275
260298440.0 -0.7340127655 0.4257926545 -6.52863e-05 -6.00748e-05 -1.69572e-05 9.13908e-05 -0.7366968621 0.4193680587
265298410.0 -0.7292425113 0.4343951555 -0.0001263936 -0.0001076216 0.0001356649 -9.25248e-05 -0.7323276856 0.4275677481
270298380.0 -0.7244838875 0.4412951881 -0.000152055 1.1875e-05 -7.9087e-05 5.30118e-05 -0.7277223357 0.4352363839
275298350.0 -0.7193399646 0.4489488825 1.03788e-05 -7.36706e-05 0.0002449938 1.88189e-05 -0.722643773 0.4432159543
280298320.0 -0.7153664574 0.4567820382 -0.0002119315 -0.0001155145 -3.65362e-05 -0.0001960011 -0.7186519815 0.4497871951
285298290.0 -0.7101002185 0.4646175939 -1.87672e-05 5.63546e-05 -0.0001678626 -6.50687e-05 -0.7130317264 0.4578976173
290298260.0 -0.7054584689 0.4718831921 -0.0002268602 9.39333e-05 -0.0001854172 8.64553e-05 -0.7086091431 0.4655083671
295298230.0 -0.700955131 0.479351011 7.14794e-05 1.53243e-05 -8.27829e-05 -4.93709e-05 -0.7037332143 0.4727403729
300298200.0 -0.6944670911 0.486805019 -0.0002363472 0.000148291 0.0001014123 0.0001057703 -0.698416918 0.4802845007
305298170.0 -0.689931058 0.494159011 -0.0002099663 0.0001171414 6.46417e-05 0.0001057254 -0.692937564 0.4873565914
310298140.0 -0.6842991089 0.5005913015 -4.40547e-05 1.29297e-05 0.0001017849 -1.30298e-05 -0.6886820817 0.4951725967
315298110.0 -0.6796272476 0.5081922537 -1.99942e-05 0.0001258952 -0.000100768 -0.0001297879 -0.6828239143 0.5023341373
320298080.0 -0.6744479562 0.5153789542 4.66266e-05 -7.28529e-05 8.57021e-05 8.31148e-05 -0.6775209678 0.5098285953
325298050.0 -0.6683223035 0.5220557772 -8.83441e-05 6.36868e-05 9.6233e-05 5.13124e-05 -0.6716687588 0.5167367922
330298020.0 -0.6628680932 0.5294234601 -1.74495e-05 0.0001629437 -0.0001461883 -2.88698e-05 -0.6667426116 0.5230378471
335297990.0 -0.6569153811 0.5364927652 0.0001368524 -5.76959e-05 -1.09033e-05 0.0002757246 -0.6614037422 0.5300099903
340297960.0 -0.6526300216 0.5428034448 0.0001208302 4.79323e-05 0.0001104326 -7.64957e-05 -0.6552197259 0.5372743294
345297930.0 -0.6463758115 0.5492025715 7.9579e-05 6.62593e-05 -2.97882e-05 7.3069e-05 -0.6494902925 0.5441771936
350297900.0 -0.640543697 0.5563841003 -0.0001860045 -0.0001469409 1.4719e-05 4.57258e-05 -0.6441593908 0.551131081
355297870.0 -0.6339016659 0.5626159104 -0.0001716417 9.11531e-05 9.91763e-05 -1.85702e-05 -0.6384515531 0.5570910301
360297840.0 -0.6282343062 0.5691726927 -5.52552e-05 -3.04109e-05 1.9391e-06 1.48879e-05 -0.6325103424 0.5637666233
365297810.0 -0.622007963 0.5759651476 1.22668e-05 -1.1065e-06 9.76158e-05 0.0001265459 -0.6263671539 0.570888632
370297780.0 -0.6159827367 0.5815136268 -0.0001572917 -0.000121003 1.64609e-05 0.0001092847 -0.6205462189 0.5764356538
375297750.0 -0.609989498 0.5885001195 8.80672e-05 -9.19352e-05 9.78603e-05 0.0002924426 -0.6143017068 0.5831624015
380297720.0 -0.604075253 0.5951934772 0.0002888902 -2.83104e-05 5.44998e-05 7.54321e-05 -0.6081753023 0.5902188216
385297690.0 -0.5977364332 0.6010551546 4.9293e-06 -8.10531e-05 -0.0001588475 9.4892e-06 -0.6018106268 0.5961745718
390297660.0 -0.5910543634 0.6070132097 -2.90915e-05 0.0001480639 7.8444e-06 0.0001028863 -0.5950796057 0.6016876798
395297630.0 -0.5854147578 0.6130499107 8.0842e-06 -0.000140351 5.64746e-05 3.27702e-05 -0.5892945269 0.6086236033
400297600.0 -0.5791123086 0.6194401943 -0.0001179822 -0.0002880284 3.12878e-05 0.0002811825 -0.5832792929 0.6138612228
405297570.0 -0.5724390321 0.6251989338 6.0806e-05 0.0001458698 0.0001399335 -2.0777e-06 -0.577249382 0.6202253009
410297540.0 -0.5653935115 0.6307865497 -4.5923e-06 0.000160347 -0.0001523321 6.4285e-06 -0.5694950372 0.625633957
415297510.0 -0.5591851068 0.6366082876 2.33053e-05 -0.0001064752 0.0001739221 -0.0001102842 -0.5639268066 0.6319600063
420297480.0 -0.5517251167 0.6424183015 -7.92523e-05 7.97238e-05 -6.12522e-05 3.29661e-05 -0.5572595379 0.6367040783
425297450.0 -0.5454320735 0.6478416837 -6.03851e-05 4.86532e-05 -5.47262e-05 -0.0001032994 -0.5498333146 0.6430828751
430297420.0 -0.539073971 0.65347068 -0.0001600604 1.14899e-05 -6.78812e-05 -8.08448e-05 -0.543992631 0.6486693919
435297390.0 -0.5322541847 0.6591024909 -0.0001202646 6.00229e-05 6.42904e-05 6.37999e-05 -0.5365525639 0.6538177085
440297360.0 -0.5249730111 0.6646431001 0.0001779276 -8.22543e-05 -4.60293e-05 -1.34946e-05 -0.5301739734 0.659182133
445297330.0 -0.5183940103 0.6702379727 -0.0001969341 -2.39357e-05 2.59103e-05 -5.00589e-05 -0.523596599 0.6642421122
450297300.0 -0.5108350353 0.6745001001 2.35773e-05 -0.0001616558 2.2575e-06 6.37505e-05 -0.5171166225 0.669373643
455297270.0 -0.5040067568 0.6798820018 -6.82851e-05 -1.752e-05 4.28935e-05 -6.53012e-05 -0.5097908491 0.6749482631
460297240.0 -0.4976644096 0.6853518763 0.0002701492 -0.0002146793 3.45001e-05 6.50697e-05 -0.5028649074 0.6807200043
465297210.0 -0.4893815029 0.6902444691 -7.55186e-05 1.99491e-05 -4.45722e-05 -6.78489e-05 -0.4964908326 0.6849410796
470297180.0 -0.4827407464 0.6949220725 6.0541e-05 5.84225e-05 1.8169e-05 -2.69489e-05 -0.4895534246 0.6892693808
475297150.0 -0.4754385578 0.7007742372 0.0001462674 -4.97844e-05 -0.0001387441 -3.46203e-05 -0.4815901236 0.6950528737
480297120.0 -0.4688594692 0.7046816194 -0.0001299176 -7.93262e-05 4.47965e-05 1.89824e-05 -0.4754052183 0.6999537219
485297090.0 -0.4609047111 0.7093862024 0.0001640126 9.9746e-06 -4.86728e-05 9.68809e-05 -0.4672974889 0.7039058423
490297060.0 -0.4540297112 0.7143420989 0.0001778195 -5.64819e-05 0.0001259699 -9.06609e-05 -0.4608918886 0.7087704477
495297030.0 -0.4470093466 0.7189674794 -7.28203e-05 0.0001401772 3.14602e-05 0.0001477793 -0.4534769235 0.712610421
500297000.0 -0.4387021767 0.7234005026 6.47984e-05 -0.0001663131 -0.0001642485 -0.0001970851 -0.4467006146 0.7177165446
505296970.0 -0.4315533629 0.7270690604 0.0001994139 5.89594e-05 4.97293e-05 -0.0001536774 -0.4394469359 0.7220500244
510296940.0 -0.4242447204 0.7322985042 -5.59605e-05 -0.0001295686 0.0001962313 -0.0001059747 -0.4316396863 0.7263032262
515296910.0 -0.4173708873 0.7359730368 -2.28063e-05 5.28239e-05 0.000135392 7.45063e-05 -0.4246628356 0.7304177449
520296880.0 -0.408910294 0.7408275408 -0.0001673028 1.10524e-05 0.0001132619 -3.92126e-05 -0.4171328919 0.7346923364
525296850.0 -0.4014013531 0.7449712309 -0.0002816286 5.72958e-05 1.87312e-05 2.31292e-05 -0.4096389145 0.7394641131
530296820.0 -0.3943592485 0.7483701677 8.19398e-05 -0.0001605384 0.0001480297 1.55268e-05 -0.4030668088 0.7427638627
535296790.0 -0.3856830399 0.7523938551 0.00013157 0.0001497311 9.10898e-05 8.41944e-05 -0.3952560801 0.7461484823
540296760.0 -0.3781714566 0.7562320152 7.77232e-05 -1.69591e-05 5.92568e-05 -3.86413e-05 -0.3879513471 0.7505804435
545296730.0 -0.3709416525 0.7598250839 0.0002483758 -2.02047e-05 5.55322e-05 7.69027e-05 -0.3803787223 0.7538917816
550296700.0 -0.363576832 0.7638638217 -0.0001006335 -9.52996e-05 0.0002425969 1.25446e-05 -0.3729693289 0.7577890911
555296670.0 -0.3552451039 0.767367495 0.0001900746 -8.30691e-05 0.000106917 2.77983e-05 -0.3654696583 0.7612617282
560296640.0 -0.3473592705 0.770708175 -4.396e-06 9.16714e-05 -0.0003557194 -0.0002195354 -0.3577167843 0.7650505884
565296610.0 -0.3397952185 0.773359055 -2.65828e-05 3.9628e-05 0.0002107245 8.91192e-05 -0.3502283141 0.7687821198
570296580.0 -0.3314445247 0.7771364842 -8.75046e-05 6.754e-07 -0.0001267394 0.0001003383 -0.3427073203 0.7722149252
575296550.0 -0.323847422 0.7806216324 0.0001742023 7.13033e-05 5.83204e-05 7.617e-06 -0.3346436751 0.7756779909
580296520.0 -0.3156521672 0.7841382605 -0.0001340881 1.8843e-05 6.08673e-05 -0.0001557862 -0.3269752759 0.7788875497
585296490.0 -0.3073864067 0.786631221 -6.78021e-05 0.0001495639 -5.58488e-05 -2.27621e-05 -0.3191477512 0.7813599459
590296460.0 -0.3000797744 0.7897906884 4.90009e-05 8.59073e-05 -4.8402e-06 -4.54962e-05 -0.3114912539 0.7848578948
595296430.0 -0.2917336474 0.7934542578 0.0001725177 -2.7261e-06 -0.0001168535 -5.50684e-05 -0.3040644802 0.7872171094
600296400.0 -0.2837319933 0.7958380787 -8.46042e-05 6.05314e-05 6.65128e-05 9.39971e-05 -0.2957701403 0.7908544401
605296370.0 -0.2749408469 0.7990091815 0.0003641118 -0.0001294366 -4.99248e-05 0.0001764479 -0.2878018135 0.7941094538
610296340.0 -0.2672523783 0.8014859958 0.0001741608 -0.000111267 -0.0001215912 0.0001629781 -0.2802596824 0.7970925974
615296310.0 -0.2590240969 0.803776939 -6.72818e-05 -6.116e-06 -1.7843e-06 4.28842e-05 -0.2724818514 0.7992351739
620296280.0 -0.2501376949 0.806387187 -3.35446e-05 -2.8582e-05 -0.0001288048 0.0002547661 -0.2643789412 0.8016241545
625296250.0 -0.2426471848 0.8092456205 -0.0001761838 6.75574e-05 -0.0001039516 -7.76214e-05 -0.2564968682 0.8045082958
630296220.0 -0.2341513261 0.8117667348 5.9556e-05 -0.0001116786 -1.85432e-05 -0.0001448456 -0.2478071622 0.8076642677
635296190.0 -0.2261837942 0.8137485635 -0.0001302539 3.70223e-05 -0.0001351361 0.0001422674 -0.2410567397 0.8093509127
640296160.0 -0.217614838 0.8153011224 5.50152e-05 7.711e-07 -8.848e-05 0.0001107186 -0.231954155 0.8115570613
645296130.0 -0.2097834653 0.8184155475 -0.0002410169 -7.55461e-05 -0.0001366141 -0.0001569383 -0.2247489869 0.8140027971
650296100.0 -0.2020464275 0.8202051858 1.5122e-06 0.0001235433 -0.0001372906 -1.81681e-05 -0.2166315566 0.8167610988
655296070.0 -0.1926598717 0.8219470775 -2.86146e-05 0.0001607849 -6.38996e-05 5.48355e-05 -0.2084337146 0.8180189426
660296040.0 -0.1853127304 0.8242618366 -0.0001032984 -2.36241e-05 -1.32588e-05 -3.1127e-06 -0.2003369834 0.8201512763
665296010.0 -0.1766664005 0.8261477232 -2.76981e-05 -0.0002086365 -4.85535e-05 4.02691e-05 -0.1922212594 0.8221783311
670295980.0 -0.1679365798 0.8274659883 -9.76296e-05 -5.6772e-05 0.0002183009 -0.0002535996 -0.1851560447 0.8240016247
675295950.0 -0.1601201447 0.8284098189 -0.0001026697 7.71393e-05 9.1232e-05 2.8832e-06 -0.1761500337 0.8260860271
680295920.0 -0.1512325539 0.8307501869 -0.0001866723 -7.54484e-05 -1.65866e-05 -0.0001076012 -0.1676287229 0.827876289
685295890.0 -0.1426517809 0.8318839102 0.0001891586 4.66545e-05 0.000127273 -0.0001877073 -0.1596892968 0.8296251437
690295860.0 -0.1342050521 0.833956901 -8.53866e-05 -5.03603e-05 4.04027e-05 0.0001831398 -0.1510641879 0.830446884
695295830.0 -0.1258844943 0.8340161356 -6.24116e-05 -0.0001446932 -0.0001676656 -0.0001763499 -0.1433769017 0.8326646663
700295800.0 -0.1178940977 0.8355919916 -0.0002667274 -0.000153939 -9.5756e-05 0.0001559535 -0.1346421632 0.8333068096
705295770.0 -0.1088704867 0.8377390463 4.81167e-05 -3.81875e-05 2.79982e-05 -5.92952e-05 -0.1275102356 0.8356247314
710295740.0 -0.1007945214 0.8382090743 -9.47817e-05 0.0002273599 1.35599e-05 1.00811e-05 -0.1188677091 0.8366975401
715295710.0 -0.0931520274 0.8391071156 -8.55281e-05 6.95331e-05 -6.92287e-05 0.0001041239 -0.1108425484 0.8374384328
720295680.0 -0.0842994631 0.8390391376 -1.1397e-05 -0.000199535 -4.23642e-05 -5.23831e-05 -0.1023197466 0.8384066587
725295650.0 -0.0750916626 0.8404955023 8.21245e-05 -0.0002783698 -9.53301e-05 0.0001870947 -0.0938126512 0.8394134973
730295620.0 -0.0672359153 0.841014988 1.12787e-05 4.399e-07 -3.6517e-05 -9.80442e-05 -0.0856208083 0.8402637821
735295590.0 -0.0578998427 0.8417909229 9.02507e-05 4.663e-07 -2.64035e-05 -5.55113e-05 -0.0770232965 0.8410788783
740295560.0 -0.0496442257 0.8425972244 -7.27017e-05 5.42233e-05 9.17219e-05 0.0002085646 -0.0688500535 0.841424769
745295530.0 -0.0415113268 0.8430118199 -0.0001011864 4.9881e-06 -5.41464e-05 9.09596e-05 -0.0608470202 0.8422605251
750295500.0 -0.0335672315 0.8431592909 0.0001678107 -7.02917e-05 -0.00010575 -0.0003449452 -0.0521770557 0.8423601244
755295470.0 -0.0243318316 0.8436258074 0.0001397165 -9.13573e-05 -5.563e-06 3.27839e-05 -0.0443694284 0.843362233
760295440.0 -0.0161271232 0.8434707782 -0.0001272565 -0.0002310803 -1.4702e-06 8.63005e-05 -0.0361325497 0.8433610404
765295410.0 -0.0076284618 0.8436481807 5.39687e-05 -4.3861e-05 0.0001584547 -7.53472e-05 -0.0268548627 0.8440955815
770295380.0 0.0011883845 0.8442553335 -9.12483e-05 0.0001277198 7.00015e-05 -4.23906e-05 -0.0184274065 0.8442086287
775295350.0 0.0089786665 0.8441925273 -3.55843e-05 0.0002408206 8.09896e-05 1.10488e-05 -0.0113727905 0.8440403534
780295320.0 0.0182328218 0.8435503589 -0.0001216045 -7.77347e-05 0.0001114089 2.06087e-05 -0.0025141899 0.8446093236
785295290.0 0.0263673873 0.8434852989 -3.19023e-05 9.94885e-05 -0.0001546795 0.0001165716 0.0048250128 0.8443471196
790295260.0 0.0343953835 0.8428978778 0.0001750916 4.66742e-05 2.88e-08 3.43762e-05 0.0141245043 0.8442282454
795295230.0 0.0424822395 0.8431298293 -1.34313e-05 0.0003004232 0.0001520542 1.17498e-05 0.0229896578 0.8447698082
800295200.0 0.0516952183 0.842393395 0.0001108413 0.0001678068 3.12484e-05 0.0001195945 0.0307196154 0.8434671112
805295170.0 0.0599230814 0.8425891844 -0.0001554716 -6.83278e-05 -7.82204e-05 -0.0001627062 0.0387188995 0.8427744265
810295140.0 0.0681455502 0.840966564 1.11673e-05 0.0001156391 -6.6607e-06 -4.7428e-05 0.046969923 0.8436892449
815295110.0 0.0769797166 0.840164666 8.41315e-05 0.0001217779 5.79218e-05 2.45045e-05 0.0551313467 0.8429749008
820295080.0 0.0851848604 0.839158535 -4.21948e-05 0.0002298552 -1.16468e-05 -3.54068e-05 0.0635196093 0.841713315
825295050.0 0.0935372289 0.838275881 0.0001047108 5.34095e-05 -0.0001076187 2.96919e-05 0.0720649568 0.8413990809
830295020.0 0.1021265446 0.8373993248 -1.45881e-05 2.8196e-06 0.0001927717 -3.76645e-05 0.079945729 0.8403785588
835294990.0 0.1100074408 0.837051264 8.81942e-05 9.47216e-05 -2.37165e-05 -4.02491e-05 0.0886583648 0.8397440149
840294960.0 0.1188747571 0.8352591393 0.000145234 -1.72567e-05 7.77893e-05 -8.97404e-05 0.0963150826 0.8386698561
845294930.0 0.1266989864 0.8342160138 -2.13302e-05 -0.0001087684 -0.0001595712 -1.86188e-05 0.1044926815 0.8379468017
850294900.0 0.1353102771 0.832815843 -1.5099e-06 -3.9987e-06 -0.0001008411 1.90687e-05 0.1129612493 0.8371365594
