!Created with skrf (http://scikit-rf.org).
# Hz S RI R 50.0 
!freq ReS11 ImS11 ReS21 ImS21 ReS12 ImS12 ReS22 ImS22
300000.0 0.8607761876 -0.0009070374 -0.0006358193 -1.2986e-06 -0.0001738655 0.0009182886 -0.7669827721 -0.1931760478
5299970.0 0.8597921086 -0.010146002 1.66567e-05 0.0002558683 0.00010556 0.0001132623 -0.7850733919 -0.0098062633
10299940.0 0.8588430938 -0.0187943456 -6.36325e-05 -7.20743e-05 9.575e-05 -5.242e-07 -0.7876279701 -0.0053712549
15299910.0 0.8580576922 -0.0273855061 -0.0001462886 0.0003036777 -0.0001085877 0.0001511996 -0.7931075263 -0.0027611581
20299880.0 0.8573872416 -0.0352511949 5.58414e-05 -5.53225e-05 -0.0001305704 3.18085e-05 -0.7994083173 0.0016010438
25299850.0 0.8559190456 -0.0432723902 -0.0001380617 6.11664e-05 6.03136e-05 -0.000211856 -0.8061081196 0.0077156253
30299820.0 0.8557952599 -0.0519884015 2.62948e-05 -0.0004036703 0.0001194599 1.65597e-05 -0.8117879962 0.0160112991
35299790.0 0.8552511352 -0.0602946812 8.203e-05 0.0002507788 0.0001828808 0.0001457839 -0.8171759235 0.0247368626
40299760.0 0.854647035 -0.0688016751 0.0001428416 -0.0001741163 0.0001006006 -0.0001374727 -0.8209917998 0.0340852182
45299730.0 0.8537273237 -0.0759899919 2.16344e-05 1.10105e-05 -0.0001671005 2.09896e-05 -0.8242538002 0.0435746349
50299700.0 0.8526959141 -0.0840618699 -0.0001597623 0.0001068497 -0.000136578 2.40736e-05 -0.8266634461 0.0535925578
55299670.0 0.8521541971 -0.0926216191 -0.0001828679 0.0001198201 3.1669e-05 0.0001752805 -0.8287884921 0.0634217594
60299640.0 0.8509849755 -0.1010714359 -7.6787e-05 -0.0001292567 -0.0002034551 3.21165e-05 -0.8298251992 0.0739864954
65299610.0 0.8502510803 -0.1093162274 0.0003294611 4.97907e-05 3.68387e-05 -0.0001167036 -0.8302331972 0.0842045981
70299580.0 0.8492901595 -0.117884842 -0.0002534005 7.31659e-05 -7.09603e-05 -4.64849e-05 -0.8310688337 0.0938134494
75299550.0 0.8478225783 -0.1250419034 -5.4363e-05 0.0001464179 -0.0001028667 -1.16801e-05 -0.8302793217 0.1040389338
80299520.0 0.8463471079 -0.1337550144 -0.0003094128 0.0001212386 -5.3854e-05 3.0697e-05 -0.8305906019 0.1140398324
85299490.0 0.8450050042 -0.1419532249 3.75952e-05 5.0221e-05 0.000197764 3.171e-06 -0.8302350409 0.1234140569
90299460.0 0.8441588715 -0.1498399207 8.42153e-05 0.000122514 -4.57943e-05 3.54074e-05 -0.8286878609 0.1328069522
95299430.0 0.8421541594 -0.1580908353 -0.000360886 -1.59623e-05 -5.88411e-05 6.7743e-05 -0.8283553735 0.1425660449
100299400.0 0.8403438251 -0.1665528912 -0.0001705902 -0.0001005049 6.1118e-06 2.58882e-05 -0.8272992083 0.1519233528
105299370.0 0.8389209566 -0.1744317879 9.59045e-05 -0.0003343377 -0.000131524 -0.0001414365 -0.8254535781 0.1606007805
110299340.0 0.8370192049 -0.182874712 5.71897e-05 0.0003186277 -8.65336e-05 -0.0001782825 -0.8246995513 0.1696402213
115299310.0 0.8357380572 -0.1905669089 1.81775e-05 9.73435e-05 0.0001394764 -6.11811e-05 -0.82323824 0.1792431849
120299280.0 0.8338018589 -0.1985481757 -0.0002016185 -0.0001132557 -0.0002140912 1.27797e-05 -0.8211308164 0.1875428113
125299250.0 0.8320717101 -0.2064096997 0.0001320094 4.66979e-05 0.000128317 -1.87089e-05 -0.8192217382 0.1971380818
130299220.0 0.8301063116 -0.2144020067 6.4627e-05 3.08324e-05 -9.26487e-05 4.97742e-05 -0.8175551165 0.205639207
135299190.0 0.8280780972 -0.2229275963 8.11e-08 -0.0001537014 9.74049e-05 -2.75586e-05 -0.8158411673 0.2151678355
140299160.0 0.8255729505 -0.229721623 0.0002320278 -0.0001092599 -3.35735e-05 3.92813e-05 -0.8140117615 0.2231441887
145299130.0 0.8233022247 -0.2382528209 6.12481e-05 -0.0002294547 8.23898e-05 0.0001088304 -0.8118997943 0.2322346726
150299100.0 0.8210834306 -0.2460928195 0.000217811 3.49073e-05 6.06683e-05 -6.67291e-05 -0.8097429264 0.2414256982
155299070.0 0.8181561579 -0.2542702909 -0.0001748273 -2.11251e-05 0.0001951277 -0.0001722424 -0.8070144856 0.2506054826
160299040.0 0.8160027462 -0.2616053878 -0.0001674089 0.0002448292 4.1417e-05 2.69967e-05 -0.8048650174 0.2589782863
165299010.0 0.8138401571 -0.2694115298 -0.0001179592 -0.000120931 1.97386e-05 0.0001413444 -0.8019770796 0.267530928
170298980.0 0.8117019272 -0.2778553875 7.37205e-05 -0.0002011338 -6.0658e-05 0.0001224626 -0.7996069738 0.2755055819
175298950.0 0.808590352 -0.2852395373 0.000153861 -2.25929e-05 -4.6585e-05 -1.86309e-05 -0.7965011584 0.284377679
180298920.0 0.8054276133 -0.2929747426 2.08761e-05 -0.0001257478 0.0001153644 -7.8783e-05 -0.7931485417 0.2931239712
185298890.0 0.8026742735 -0.3009248271 0.0001288217 3.0069e-05 -3.21898e-05 -0.0002419911 -0.7906253196 0.3014862023
190298860.0 0.7995920675 -0.3084796646 6.79138e-05 -0.0001861396 5.56939e-05 -0.0002229515 -0.7867674901 0.3100438881
195298830.0 0.7970049756 -0.3154960373 -0.0001417713 0.0001393309 0.0001401469 0.0002715805 -0.7837934237 0.3183986794
200298800.0 0.7943001291 -0.3233209795 -0.000129134 -8.30498e-05 5.8452e-05 0.0001085598 -0.7809249446 0.3265367461
205298770.0 0.7905539227 -0.3314039674 -1.53134e-05 -4.2368e-06 0.0001206751 -4.43734e-05 -0.7772351473 0.3351471889
210298740.0 0.7883791663 -0.3387754496 0.0001171474 -4.05173e-05 -1.22136e-05 -0.0001083431 -0.7741213279 0.3432394297
215298710.0 0.7846954865 -0.3466879937 -0.0001957059 -0.0002227263 7.8048e-06 0.000169907 -0.7701363506 0.3512495293
220298680.0 0.7815316991 -0.3535454925 -4.072e-05 -8.15201e-05 -7.80205e-05 -5.52955e-05 -0.7667933827 0.3596179703
225298650.0 0.777905659 -0.3619839917 -0.0001128754 -7.45529e-05 3.33693e-05 -7.92124e-05 -0.7630545616 0.3674592124
230298620.0 0.7731603303 -0.3685297937 -1.06936e-05 -0.0001353199 -0.0001132185 -4.05538e-05 -0.7590316874 0.3753941947
235298590.0 0.7704515242 -0.3766228451 3.6898e-05 -1.77077e-05 -3.20564e-05 0.0002098377 -0.7556224912 0.383357199
240298560.0 0.7665105325 -0.3833210716 -0.0001272186 0.0001222872 -6.06138e-05 0.000130254 -0.7510428154 0.3908172446
245298530.0 0.7631054405 -0.390900052 0.0001110589 -0.0001917298 -4.34072e-05 -0.0001757336 -0.7472501514 0.3991336864
250298500.0 0.7593702776 -0.3979226108 6.34196e-05 -3.09446e-05 -0.0001552959 -0.0001039558 -0.7427776001 0.4071501091
255298470.0 0.7556434165 -0.4053784979 4.415e-05 -0.0001425762 5.85319e-05 6.29199e-05 -0.7387376188 0.4143911975
260298440.0 0.7515892319 -0.4125394928 0.000232777 -2.61632e-05 4.59165e-05 -2.59893e-05 -0.7339633366 0.422251724
265298410.0 0.7470776027 -0.419955896 5.20757e-05 0.00016458 4.52702e-05 7.44085e-05 -0.7298141525 0.4302286114
270298380.0 0.7434467649 -0.4268812589 3.1195e-05 0.0001348197 1.11034e-05 -1.87247e-05 -0.7249942751 0.4378778453
275298350.0 0.7394704105 -0.4338904909 2.922e-05 0.0001579461 -2.72726e-05 0.0001669335 -0.7204273792 0.4451423942
280298320.0 0.7347763796 -0.4414943133 -3.90115e-05 -2.13432e-05 -0.0001222447 -9.95625e-05 -0.7159236776 0.4524994779
285298290.0 0.7312025806 -0.4481002736 -8.90301e-05 -0.0001411912 0.0001821556 -3.26038e-05 -0.7119490564 0.4605744137
290298260.0 0.7259857691 -0.454998067 0.0001780338 2.53047e-05 5.06207e-05 -2.21644e-05 -0.7063235919 0.4677278784
295298230.0 0.7224596609 -0.4624709997 -3.18203e-05 -2.26297e-05 -8.63509e-05 7.78874e-05 -0.7015794304 0.4753821245
300298200.0 0.717958791 -0.4695096439 -4.95726e-05 4.92073e-05 -6.82051e-05 2.37156e-05 -0.6963421319 0.482080966
305298170.0 0.7140524077 -0.477117557 0.0001094387 0.0001038031 6.39047e-05 0.0001030095 -0.6911767047 0.4896015057
310298140.0 0.7090075533 -0.4852088812 0.0001176733 3.24636e-05 2.93358e-05 0.0001287472 -0.6862158879 0.4972639679
315298110.0 0.7040474846 -0.4923320483 -0.0002566853 1.45221e-05 8.45204e-05 -0.0001191502 -0.6810398632 0.5040089442
320298080.0 0.6979911229 -0.4992864834 -3.75255e-05 3.93662e-05 -0.0001105957 4.59852e-05 -0.676198562 0.510835583
325298050.0 0.6928280042 -0.5067840193 -2.41281e-05 -8.12011e-05 -0.000156416 -3.71485e-05 -0.6699391623 0.5176649882
330298020.0 0.6865248076 -0.513809197 7.9043e-06 -5.31243e-05 -4.74242e-05 2.91887e-05 -0.6647672773 0.5243460549
335297990.0 0.6811218643 -0.5191124808 0.0001483464 -0.0001394151 0.0001785506 0.000124322 -0.6596341959 0.5315422084
340297960.0 0.6756503459 -0.5251539356 -8.225e-05 -1.54656e-05 -4.67804e-05 -3.45168e-05 -0.654377967 0.5384672447
345297930.0 0.6704641589 -0.5320726134 9.16456e-05 0.0001448559 -1.87015e-05 0.000170047 -0.6487839271 0.544916344
350297900.0 0.6650942828 -0.5377848258 6.90961e-05 5.8913e-06 -0.0001157288 0.0001119521 -0.6430289488 0.5514281034
355297870.0 0.6595532699 -0.5443332924 -2.94214e-05 -1.80168e-05 -3.88466e-05 1.55057e-05 -0.6369581495 0.5590559761
360297840.0 0.6543660958 -0.5502824261 5.69227e-05 2.09936e-05 -0.0001512978 -6.59982e-05 -0.6308247642 0.5650197122
365297810.0 0.6488497189 -0.5567856095 -0.0003695623 -0.0001627749 -0.0001281784 -0.0001143309 -0.6260093289 0.5704131129
370297780.0 0.6431901312 -0.5630543222 1.44017e-05 6.37488e-05 -7.4131e-06 0.0001584146 -0.6194013218 0.5778319598
375297750.0 0.6379919469 -0.5689247853 -0.0001425167 -4.4373e-06 -3.74207e-05 2.38308e-05 -0.6129792063 0.5840583937
380297720.0 0.6323954548 -0.5741020734 -8.911e-07 -0.0001937043 2.88682e-05 0.0001849203 -0.6067973003 0.5902175034
385297690.0 0.626708385 -0.5808716005 -2.96864e-05 3.82607e-05 -6.49635e-05 6.79182e-05 -0.6009364392 0.5964918038
390297660.0 0.6211229746 -0.5872748246 0.0001668455 6.70223e-05 -2.6245e-06 -0.0001380434 -0.5944586636 0.6023080289
395297630.0 0.6153977461 -0.5924604215 6.13552e-05 -0.0002327628 -0.0001110997 1.01313e-05 -0.5879140379 0.608007531
400297600.0 0.6087628299 -0.5988341525 -0.0001635411 5.60479e-05 0.0001165317 -1.73606e-05 -0.5829614061 0.6141843658
405297570.0 0.6036134104 -0.6047415671 0.0001761387 9.2779e-06 1.79787e-05 -0.0001052446 -0.5756837951 0.6199529661
410297540.0 0.598386122 -0.6097155394 -0.0001523841 -6.3655e-05 -0.0001628255 0.0001258877 -0.5691142403 0.6261889319
415297510.0 0.5915305038 -0.6155929641 -3.95654e-05 1.68851e-05 -0.0001501444 -4.58762e-05 -0.5629506976 0.6314997297
420297480.0 0.5858634981 -0.6216324567 -7.83398e-05 -0.0001676143 -3.55576e-05 -0.0001680193 -0.556326281 0.6378655186
425297450.0 0.5798121329 -0.6269492436 -8.84155e-05 0.0001179016 -0.0002395871 -3.55562e-05 -0.5495600229 0.642383244
430297420.0 0.5732806178 -0.6330606554 1.99172e-05 2.41076e-05 0.0002268768 2.58667e-05 -0.5427385999 0.6487027125
435297390.0 0.5669542626 -0.6388601928 5.68831e-05 0.0001579726 0.0002566362 6.52041e-05 -0.5365825251 0.6544685843
440297360.0 0.5614630875 -0.6439633187 5.87601e-05 -4.62853e-05 -4.88791e-05 -0.0001597917 -0.5308877436 0.6594209461
445297330.0 0.5557765779 -0.6489566441 7.8667e-06 -0.0001488408 -1.94472e-05 -0.0001607956 -0.5227695038 0.6650016622
450297300.0 0.5490413421 -0.6546630659 4.28435e-05 -7.48416e-05 -3.87538e-05 -7.59506e-05 -0.5156810154 0.6696786448
455297270.0 0.5423320241 -0.6600215549 -8.57261e-05 0.0002795068 -3.93636e-05 0.0002133591 -0.5091322013 0.6750962759
460297240.0 0.5355518167 -0.6648688253 4.99051e-05 5.21203e-05 3.10546e-05 0.0001029152 -0.5024902291 0.6797933334
465297210.0 0.5295755484 -0.6700250083 -2.10882e-05 -9.1743e-05 1.17597e-05 -4.44699e-05 -0.4949422566 0.6854847846
470297180.0 0.523649268 -0.6751543266 -0.0001165975 2.81174e-05 -0.0001633977 2.60483e-05 -0.4881229812 0.6902507732
475297150.0 0.5162538493 -0.6800119118 7.07139e-05 2.62116e-05 4.3764e-06 -6.68974e-05 -0.4813182508 0.6951824471
480297120.0 0.5096262795 -0.6855533494 9.79571e-05 5.15035e-05 0.0001120303 -4.15164e-05 -0.4743641902 0.6997730171
485297090.0 0.5030361337 -0.6900868367 -0.0001643435 8.94192e-05 0.0001576208 -5.83865e-05 -0.4668513206 0.7051015803
490297060.0 0.4969604172 -0.694475325 2.605e-05 -6.44118e-05 -0.0001459367 -6.72684e-05 -0.4594521392 0.7092117719
495297030.0 0.4903628712 -0.6994475671 -1.06817e-05 -0.0002946241 -0.0001204156 1.18457e-05 -0.4523469576 0.7138988866
500297000.0 0.4832432067 -0.7040071389 0.0001516315 0.0001133909 -6.2543e-06 -4.94347e-05 -0.4453799258 0.7184105885
505296970.0 0.4764269064 -0.7092000673 5.90331e-05 8.1963e-06 -5.159e-07 -0.0001437799 -0.4374445896 0.7230554546
510296940.0 0.4692779301 -0.71333913 5.58598e-05 5.39915e-05 0.0001731657 4.42916e-05 -0.4302400767 0.727214263
515296910.0 0.4621291284 -0.717956172 0.0001146028 -0.0001636535 0.0001266121 8.11032e-05 -0.4231461095 0.730894972
520296880.0 0.456769655 -0.7226431429 -0.0002339636 -2.48146e-05 5.00993e-05 5.63053e-05 -0.4153150714 0.7359921169
525296850.0 0.4491424488 -0.7271150329 9.44447e-05 6.13761e-05 3.5704e-05 -4.32838e-05 -0.4082251544 0.7396906586
530296820.0 0.442403146 -0.7315349707 -0.0001208015 2.10174e-05 0.000101876 -6.76731e-05 -0.4006961728 0.7435029988
535296790.0 0.4353074471 -0.7350733665 4.27175e-05 1.84979e-05 5.24321e-05 0.0001026272 -0.3932219811 0.7474465965
540296760.0 0.4289044859 -0.7399122883 3.652e-07 0.0002625702 -5.97557e-05 8.26425e-05 -0.3849267014 0.7518856666
545296730.0 0.4200985401 -0.7440718094 -1.75181e-05 2.12378e-05 -0.0001050375 -4.538e-05 -0.377688461 0.7556519985
550296700.0 0.4133298224 -0.7472694252 4.0889e-05 -6.33882e-05 -0.0001224408 4.04391e-05 -0.3700838402 0.7594237157
555296670.0 0.406132691 -0.7518674415 3.13672e-05 7.26092e-05 -9.55899e-05 -4.14723e-05 -0.3621880124 0.7625430601
560296640.0 0.3993326464 -0.7548858975 0.0001204908 0.0002393057 0.0001756914 -1.48516e-05 -0.3550267555 0.7665958497
565296610.0 0.3913740803 -0.7589005158 -0.000180218 6.33606e-05 -8.51355e-05 8.21066e-05 -0.3466454955 0.7698986233
570296580.0 0.3844650103 -0.7627689258 -4.61554e-05 0.0001703504 -3.88344e-05 -5.58557e-05 -0.3389222711 0.7730666526
575296550.0 0.3769693932 -0.7664258907 2.25691e-05 -5.93927e-05 -5.82527e-05 -9.54898e-05 -0.3313958276 0.7764516087
580296520.0 0.3697235752 -0.7694186954 -9.9729e-06 0.0001378668 2.55672e-05 2.58865e-05 -0.3237306968 0.7795484655
585296490.0 0.3621686066 -0.7725842491 3.45872e-05 9.53913e-05 9.46192e-05 5.31764e-05 -0.3155278981 0.7836227456
590296460.0 0.3541281744 -0.7762645426 -2.33749e-05 -5.95125e-05 -7.34713e-05 9.16787e-05 -0.307702692 0.7856749167
595296430.0 0.346767172 -0.7799464899 3.54683e-05 -9.86272e-05 -0.0003514324 -9.55735e-05 -0.3000670489 0.7891402285
600296400.0 0.3392652217 -0.7838581575 -3.8812e-05 -2.38362e-05 -0.0001257234 0.000102509 -0.291899277 0.791804968
605296370.0 0.3309000585 -0.7863653965 1.64248e-05 0.0001693018 -1.858e-07 0.0002396719 -0.2834684835 0.7950976243
610296340.0 0.3238001078 -0.7897649034 0.000257003 -9.03036e-05 0.0001003354 -3.86933e-05 -0.2764593761 0.7978408798
615296310.0 0.3164283017 -0.7923081986 4.82294e-05 2.80804e-05 6.8181e-06 -0.0001676801 -0.2672205475 0.8001588056
620296280.0 0.3081637664 -0.7949580721 -3.04886e-05 6.13791e-05 4.05548e-05 -0.0002284904 -0.2601151159 0.802892895
625296250.0 0.2998968832 -0.7980021073 -9.63443e-05 0.0001854302 -7.26434e-05 -0.0001216451 -0.2516199867 0.8050986418
630296220.0 0.2917191776 -0.8012111545 0.0002086172 0.0001294449 -7.11665e-05 -2.60147e-05 -0.2438900263 0.8082407786
635296190.0 0.283933185 -0.8032829404 -0.0001870106 -3.74331e-05 -0.0001283816 0.000163993 -0.2354356657 0.810020297
640296160.0 0.2760547147 -0.8056596876 3.76038e-05 5.8532e-06 -0.0001969899 -7.80544e-05 -0.227414625 0.8123779291
645296130.0 0.2692485276 -0.8081067425 0.000137603 0.0001947067 -0.0001823004 -7.26756e-05 -0.2196060426 0.8144062314
650296100.0 0.2602915549 -0.8104802662 -0.0001672895 -6.22573e-05 0.000169599 2.14863e-05 -0.2108158199 0.8167811534
655296070.0 0.2532102673 -0.8127210196 0.0001508063 -1.97536e-05 2.42974e-05 4.82187e-05 -0.2031471378 0.8188390645
660296040.0 0.2440039679 -0.8146697629 0.0002261073 6.89955e-05 -0.0001310503 -0.0001316027 -0.1945400223 0.820965927
665296010.0 0.2362768522 -0.8172816522 3.81144e-05 4.82527e-05 0.0001430982 0.000192719 -0.1863805982 0.8222209361
670295980.0 0.2281310587 -0.8193566905 -1.50071e-05 -0.0001342034 9.01403e-05 -3.91425e-05 -0.1785474231 0.8247803676
675295950.0 0.2199474864 -0.8214894018 8.77413e-05 -5.20951e-05 -3.0844e-05 -0.0001134244 -0.1697743285 0.8261924394
680295920.0 0.2111425601 -0.8233344752 8.50823e-05 -8.54749e-05 -0.0001468967 0.00013105 -0.1614209129 0.82785802
685295890.0 0.2031391637 -0.824885999 -0.0001337059 -0.0001074846 9.65893e-05 8.03488e-05 -0.1532693995 0.8298373201
690295860.0 0.1949483452 -0.8267602063 -0.0002747084 7.03832e-05 -0.0001959106 -0.0001476565 -0.1450157132 0.8312264275
695295830.0 0.1864906921 -0.8287408718 -3.2579e-06 0.0001331637 -4.0575e-05 -0.0001463862 -0.1366853668 0.8324876985
700295800.0 0.1781278203 -0.8294619661 -6.67511e-05 -0.0001214168 -9.81257e-05 -5.93878e-05 -0.1285405378 0.8335791884
705295770.0 0.1703070049 -0.8313782495 2.912e-06 -7.82844e-05 -7.64737e-05 8.69513e-05 -0.1203351209 0.8355489389
710295740.0 0.1619123176 -0.8327603811 0.0001048314 -2.89803e-05 0.0002129389 5.94097e-05 -0.1118015734 0.8361081834
715295710.0 0.1540308467 -0.8334981379 0.0002004023 -7.14613e-05 -0.0001202833 5.80507e-05 -0.1034718971 0.8365794752
720295680.0 0.1459032824 -0.8353000055 0.0002074748 0.0001221195 0.0001165226 -7.2808e-05 -0.0948902183 0.8379385707
725295650.0 0.1374139945 -0.8359195792 0.0001686245 1.98714e-05 -4.28656e-05 -5.3939e-05 -0.0870280875 0.8391921611
730295620.0 0.1282809236 -0.8374163218 -1.34086e-05 0.000206225 -8.1966e-06 5.76249e-05 -0.0786540957 0.8401194124
735295590.0 0.1207824343 -0.838613509 -4.7936e-06 0.0001482438 9.01368e-05 -2.47917e-05 -0.0699127764 0.8403847017
740295560.0 0.111882323 -0.8398750854 -8.5528e-06 -0.0001810799 8.6641e-06 -2.4938e-06 -0.0614175146 0.8416554559
745295530.0 0.103686025 -0.8397745237 -0.0001604881 -9.80538e-05 -0.0001203525 0.0001398923 -0.0536770355 0.8418868918
750295500.0 0.0946507611 -0.8409052556 0.0001052563 -0.0001004577 0.0001056077 0.0001372268 -0.0451085077 0.8425880867
755295470.0 0.0863070995 -0.8417543176 -0.0001621139 -6.55642e-05 -0.0002578874 0.0001411945 -0.0372165551 0.8430963079
760295440.0 0.0789122316 -0.8415420862 0.0001793381 0.0002009891 0.0002127162 1.45082e-05 -0.028063639 0.8425547564
765295410.0 0.0699455307 -0.8425453613 -0.0001011639 -7.142e-05 4.96549e-05 -0.0001804433 -0.0199992414 0.8431960153
770295380.0 0.0617179464 -0.8417719964 -0.0001511994 3.15492e-05 1.0077e-06 -6.67714e-05 -0.0115752761 0.8430723319
775295350.0 0.0527439105 -0.842445404 5.26191e-05 -0.0001433718 -4.54113e-05 -0.0001165156 -0.003408546 0.8431319079
780295320.0 0.0449538353 -0.842917818 -0.0001271589 -0.0001056598 -3.9373e-05 5.71455e-05 0.005394325 0.8435100578
785295290.0 0.0362852734 -0.8432606585 0.0001175935 -0.0001347975 -9.27291e-05 -0.0002670455 0.0134510838 0.8438193904
790295260.0 0.0280477196 -0.8433722212 9.67257e-05 -7.66592e-05 6.06497e-05 -0.0001064707 0.0218513215 0.8434609102
795295230.0 0.0198753615 -0.8438332376 1.40354e-05 -0.0001286441 0.0003062603 6.75206e-05 0.0303130612 0.8426568294
800295200.0 0.0114318854 -0.8437866942 -9.61897e-05 -0.0001611662 -0.0002965972 -8.74409e-05 0.0385130967 0.8424369479
805295170.0 0.0026321193 -0.8436852489 -0.0001016444 -0.0001337476 -9.07733e-05 -3.10896e-05 0.0474642753 0.8419355504
810295140.0 -0.0060477661 -0.8422631242 9.81451e-05 -0.0001322627 0.0001186756 -2.18331e-05 0.055695645 0.8412095385
815295110.0 -0.0145256509 -0.8431236487 5.14982e-05 6.70408e-05 3.78616e-05 8.16285e-05 0.0630220696 0.8408553376
820295080.0 -0.0220476345 -0.842386788 0.0001339238 0.0002076058 -7.90551e-05 -7.6581e-06 0.0719321844 0.8400873744
825295050.0 -0.0314064302 -0.8421470366 3.62274e-05 -8.80658e-05 9.91336e-05 2.98247e-05 0.0803612993 0.8397974685
830295020.0 -0.0391315284 -0.8412792973 0.0002726537 -5.90278e-05 1.53743e-05 -4.673e-05 0.0881687416 0.8380659387
835294990.0 -0.0471875464 -0.8404631326 5.01969e-05 -0.0002568694 -0.0003137535 -2.60313e-05 0.0966848845 0.8378321733
840294960.0 -0.0552097227 -0.8405158416 0.0001265245 0.0003845824 -2.7691e-05 3.82274e-05 0.1055494346 0.8368149563
845294930.0 -0.0642703914 -0.8387688777 4.6224e-06 9.4668e-05 -8.24071e-05 3.03282e-05 0.1134914221 0.8354409852
