!Created with skrf (http://scikit-rf.org).
# Hz S RI R 50.0 
!freq ReS11 ImS11 ReS21 ImS21 ReS12 ImS12 ReS22 ImS22
300000.0 -0.772407956 -0.1289443144 -0.0022699668 0.0002579278 -0.0005154739 0.0002317143 -0.7718292456 -0.1592295214
5299970.0 -0.7851886958 -0.0068496916 0.0001015689 -6.74971e-05 -8.84218e-05 -2.2092e-05 -0.7850448381 -0.0086242978
10299940.0 -0.7878114544 -0.0038399422 3.45862e-05 0.0002364735 -2.12648e-05 7.0104e-05 -0.7886468423 -0.0048914922
15299910.0 -0.7931458312 -0.001834112 -8.34514e-05 -6.0516e-06 -1.0743e-05 -0.0001029644 -0.7938759379 -0.0030949879
20299880.0 -0.7996688708 0.0023165694 4.93244e-05 -4.05698e-05 -0.0001907818 -4.20903e-05 -0.8004715343 0.0013409207
25299850.0 -0.8061416289 0.0085231201 0.0001853166 -0.0003099305 -3.278e-07 -0.0001043627 -0.8068018732 0.0075423135
30299820.0 -0.8118945518 0.0165658929 -5.70432e-05 9.7264e-06 6.028e-05 7.19552e-05 -0.8130008091 0.0151053093
35299790.0 -0.8172058742 0.0250936484 -1.6691e-05 -7.44245e-05 -1.29246e-05 -6.79011e-05 -0.8180845772 0.0236892445
40299760.0 -0.8209896791 0.0337974792 -0.0001548642 0.0002711542 4.69404e-05 -0.0001181549 -0.8219291677 0.0330602193
45299730.0 -0.8247745005 0.0441324857 0.0001217824 6.42862e-05 -5.28154e-05 -3.33453e-05 -0.825382656 0.0426353786
50299700.0 -0.8268965194 0.0541409267 -2.62334e-05 -3.69203e-05 -0.000170119 2.54656e-05 -0.8278254276 0.052438794
55299670.0 -0.829051853 0.0648444441 3.41826e-05 -5.56146e-05 -0.000163419 6.77333e-05 -0.8303353314 0.0630057479
60299640.0 -0.8295847568 0.0740904173 -0.0001209662 -1.36902e-05 -0.0001714036 -2.98149e-05 -0.8307834007 0.0728001234
65299610.0 -0.8313802342 0.084589161 -6.81504e-05 0.0001169803 0.0001259102 -0.0001082834 -0.83187434 0.0819634817
70299580.0 -0.8309463421 0.0947581838 -7.10394e-05 -0.0001327137 5.28092e-05 7.80381e-05 -0.8321016517 0.0923356227
75299550.0 -0.8312021965 0.1046854152 -0.000241074 7.10358e-05 1.94055e-05 3.24772e-05 -0.8327444784 0.1022876591
80299520.0 -0.8310962769 0.114099126 0.0001198154 -0.0001095047 0.0001675501 -0.000117014 -0.8320870394 0.1124754451
85299490.0 -0.8300597402 0.1242242103 0.0001603071 -7.03813e-05 -9.24088e-05 0.0001176639 -0.8317613863 0.1216967432
90299460.0 -0.8297547954 0.134292948 7.83009e-05 9.99407e-05 1.11749e-05 -7.09589e-05 -0.8311725835 0.1312703702
95299430.0 -0.8286468787 0.1434758571 8.45217e-05 9.63131e-05 6.9307e-05 0.0002541903 -0.8299153264 0.1414417238
100299400.0 -0.8280073103 0.1530791886 -0.000261584 0.0002458388 3.68817e-05 -0.0001372471 -0.8289505286 0.1495283414
105299370.0 -0.8264283314 0.1620568985 1.59893e-05 4.23958e-05 -7.18715e-05 -5.31072e-05 -0.8275006388 0.15907106
110299340.0 -0.8255893811 0.170289301 -1.74075e-05 -0.0001187842 4.00721e-05 0.000178163 -0.8271739463 0.1683683712
115299310.0 -0.8235658439 0.1805537061 0.0001845462 0.0001963682 1.96839e-05 7.48282e-05 -0.8249015612 0.1766816553
120299280.0 -0.8221816816 0.1897783538 6.69059e-05 -7.21376e-05 -7.3747e-06 -3.10645e-05 -0.8235966738 0.1862699366
125299250.0 -0.820646489 0.1984900464 -2.2386e-06 -3.55487e-05 -0.000212664 -0.0001420154 -0.8222005404 0.1949371013
130299220.0 -0.8186894082 0.2076815301 3.70741e-05 -9.63772e-05 0.0001904409 -1.19953e-05 -0.8199813346 0.2039045534
135299190.0 -0.8164459244 0.2166018099 -0.0001143745 -1.54199e-05 0.0001501361 -5.43144e-05 -0.8180085195 0.2123924661
140299160.0 -0.814294025 0.2252610007 -0.0001220115 0.0001149555 -0.0001267886 8.83799e-05 -0.8162490034 0.2211195685
145299130.0 -0.8125709714 0.2341168769 -4.98686e-05 -7.78796e-05 0.0001192696 -0.000116654 -0.8138699852 0.2303436373
150299100.0 -0.8101682577 0.2430851497 -9.45079e-05 1.51754e-05 -0.0001554128 -6.67154e-05 -0.8118019332 0.238153459
155299070.0 -0.8077894095 0.2521058524 -1.1427e-06 -4.9741e-05 0.0002203151 -0.0001702525 -0.8097346879 0.2473511043
160299040.0 -0.8048468615 0.2608418563 -0.0001642302 4.18125e-05 -2.27112e-05 -3.15339e-05 -0.80721211 0.2564951668
165299010.0 -0.802019388 0.2692245688 1.30268e-05 -0.000111936 -4.49479e-05 0.0002007873 -0.8043586804 0.2647585135
170298980.0 -0.7995797451 0.2779949524 -0.0001484956 -0.0001367254 -8.79647e-05 -1.82561e-05 -0.8020398105 0.2734648551
175298950.0 -0.796539593 0.2870154666 -0.0001261755 6.95392e-05 2.37123e-05 0.0001567563 -0.7990780946 0.2819432624
180298920.0 -0.7938980202 0.2947386535 -9.11808e-05 0.0001441167 -6.9144e-06 4.33859e-05 -0.7954962272 0.2901043347
185298890.0 -0.7904461047 0.3041911557 7.07145e-05 -3.59337e-05 7.64635e-05 -1.89801e-05 -0.7930582685 0.298540711
190298860.0 -0.7878813758 0.3121895637 -0.0001445576 -2.12367e-05 -5.22361e-05 -0.0002725564 -0.7901679838 0.3072058704
195298830.0 -0.78420151 0.321106422 -0.0001124444 1.79157e-05 -8.28988e-05 -1.9931e-06 -0.7871621492 0.3154705762
200298800.0 -0.7811080177 0.3289816115 -0.0003113572 7.19196e-05 8.72854e-05 -1.13076e-05 -0.7833142784 0.3239645896
205298770.0 -0.7775116649 0.3370476209 -0.0001955846 8.39856e-05 -0.0001148439 0.0001226557 -0.7804443091 0.3326910773
210298740.0 -0.7735188538 0.3458633198 7.97867e-05 3.86035e-05 4.82792e-05 6.87671e-05 -0.7773034157 0.3409155497
215298710.0 -0.7702610652 0.35369004 -5.48385e-05 0.0001588072 9.48098e-05 -3.96736e-05 -0.7737031988 0.3481160638
220298680.0 -0.7666645298 0.3622188816 4.73492e-05 1.7648e-05 0.0001908149 5.9553e-05 -0.7698896088 0.357432028
225298650.0 -0.7628061538 0.3710199906 7.26788e-05 4.08872e-05 0.0002000714 0.0002010589 -0.7660263564 0.3646085733
230298620.0 -0.7587814191 0.3788272019 -4.76735e-05 6.53433e-05 2.26401e-05 5.81058e-05 -0.7617433437 0.3729969012
235298590.0 -0.7543191353 0.3871462142 -6.86573e-05 -0.0002870345 -2.40663e-05 0.0001124657 -0.7584119819 0.3805767284
240298560.0 -0.7511957007 0.3948630248 -5.84924e-05 0.0001663245 -0.0001543691 -4.18996e-05 -0.7544096906 0.3885566145
245298530.0 -0.7463801035 0.4025158729 7.35249e-05 -0.000176366 0.000120628 0.0001808677 -0.750422454 0.3966487106
250298500.0 -0.7424265694 0.410755325 5.335e-05 -8.54701e-05 0.0001648926 -0.0001945887 -0.7463937335 0.4049388565
255298470.0 -0.7375668114 0.4186439961 5.0526e-05 0.0002025099 8.32113e-05 2.80835e-05 -0.7417474823 0.4127377051
260298440.0 -0.7337613679 0.4257690106 0.0001055716 -0.0001320646 -2.55709e-05 -0.000101211 -0.736941318 0.4200185574
265298410.0 -0.729370248 0.4336757629 0.000144519 0.0001456256 6.03968e-05 1.65341e-05 -0.7329690848 0.4275609756
270298380.0 -0.7246093443 0.4415780511 0.0001066818 -9.14433e-05 -0.0001105852 -0.0001164156 -0.7279954895 0.4353498404
275298350.0 -0.7194959374 0.4492151657 -8.3205e-06 -5.73579e-05 0.0001349001 0.0001790785 -0.7230758849 0.4432436378
280298320.0 -0.7149692402 0.4565165776 9.68635e-05 0.000202568 -3.15118e-05 1.37944e-05 -0.7188744587 0.4501951256
285298290.0 -0.7102982765 0.4645733764 1.37128e-05 5.82288e-05 -7.06438e-05 -1.62153e-05 -0.714101439 0.4579701091
290298260.0 -0.7056751513 0.4720959653 -0.000120267 9.53898e-05 -0.000102902 0.0001258725 -0.7090807856 0.4652904403
295298230.0 -0.7009494414 0.4791210024 -0.0001320134 -9.47499e-05 0.0001521915 -0.0001493938 -0.7042942772 0.4730282655
300298200.0 -0.6948128611 0.4869670972 4.37326e-05 6.38458e-05 -9.50807e-05 -0.0001246104 -0.699187823 0.4806630701
305298170.0 -0.6903055228 0.4942381852 0.0001031391 -3.77233e-05 -4.29457e-05 8.52577e-05 -0.6936153414 0.4879052327
310298140.0 -0.684765599 0.5012919162 -8.2877e-05 1.37013e-05 -2.4367e-05 -0.0001062286 -0.6894233666 0.4950841283
315298110.0 -0.6796119582 0.5077038655 -0.0001166038 -0.0002191349 8.44036e-05 5.32071e-05 -0.6835266786 0.5024226127
320298080.0 -0.6744849058 0.5155962191 0.000120773 0.0001096517 0.0001801837 -6.16853e-05 -0.6781924345 0.5095095857
325298050.0 -0.6687419073 0.5223809788 -5.18217e-05 -0.0001146886 -9.025e-06 4.41466e-05 -0.6724169124 0.5163573207
330298020.0 -0.6629873922 0.5290724413 0.0002515132 -0.0001760109 0.0001431193 0.0001322995 -0.6667547337 0.5235301472
335297990.0 -0.6567323098 0.5357726557 1.90309e-05 4.56382e-05 0.0002440886 8.5707e-06 -0.6615724116 0.5299401487
340297960.0 -0.652702871 0.5428196677 0.0002520561 -9.87769e-05 6.83376e-05 -0.0001049358 -0.6554699648 0.537181972
345297930.0 -0.6464236043 0.5489810928 -2.37523e-05 0.000250184 -3.41445e-05 6.3963e-05 -0.6501135685 0.5441330977
350297900.0 -0.640577175 0.5557916196 0.0001157579 0.0002074682 -0.0001036764 -0.0001023519 -0.6442697575 0.5510780206
355297870.0 -0.6342422316 0.562309789 6.50586e-05 0.0002746803 -0.0001660728 3.03862e-05 -0.6388967965 0.5573321034
360297840.0 -0.628749757 0.5686803812 0.0001518155 0.0001350252 -6.00178e-05 9.64103e-05 -0.6323291855 0.5632012637
365297810.0 -0.6220358062 0.5757104116 -3.08998e-05 9.5516e-05 0.0001132304 -6.95997e-05 -0.6264829443 0.5701558323
370297780.0 -0.6160848843 0.5814762156 -0.0001748488 -0.0001887456 0.0001883412 -7.67383e-05 -0.6214694884 0.5760104661
375297750.0 -0.6105242265 0.5884978865 -2.46767e-05 8.0381e-06 0.000106406 -8.45025e-05 -0.6141975698 0.5829854634
380297720.0 -0.6038162446 0.5951721957 -0.0002702851 -6.882e-06 -0.0003199432 -2.03167e-05 -0.6083059595 0.5902495082
385297690.0 -0.5984431625 0.6008600071 -1.40821e-05 -9.11908e-05 1.84568e-05 5.98703e-05 -0.601964593 0.596022508
390297660.0 -0.5911088455 0.6066273457 4.58336e-05 -5.48304e-05 0.0001699883 -0.0001017797 -0.5958842684 0.6017860918
395297630.0 -0.5851303639 0.6130804126 -2.22951e-05 -0.0001232961 -4.5745e-05 7.7523e-06 -0.5897112009 0.6082806988
400297600.0 -0.5788220502 0.6188286098 -1.8377e-05 8.31208e-05 -0.0001343922 -0.0001542632 -0.583321633 0.6138794993
405297570.0 -0.5730011516 0.6251169808 -7.02397e-05 -7.9603e-06 5.644e-05 -0.0001205021 -0.5774390871 0.6201737231
410297540.0 -0.5658686118 0.6306524285 -5.12811e-05 7.84475e-05 7.33419e-05 0.0002348031 -0.5698798752 0.6253227948
415297510.0 -0.5592792361 0.6361935505 -0.0002789773 -8.35009e-05 -7.70997e-05 -1.60777e-05 -0.5641086113 0.6314593681
420297480.0 -0.5518653745 0.6418574525 3.774e-07 5.59927e-05 0.0001814042 9.9451e-06 -0.5571411678 0.6366611849
425297450.0 -0.5453244167 0.6478539567 0.0002475519 -5.30291e-05 0.0001966172 -5.4888e-05 -0.5502746831 0.6428029847
430297420.0 -0.5393563587 0.6536598244 5.34257e-05 3.62905e-05 0.00010231 -6.88822e-05 -0.5438497484 0.6486183098
435297390.0 -0.5319375521 0.6583280552 3.28132e-05 -3.3006e-05 -4.25242e-05 -3.15275e-05 -0.5369683303 0.6534923799
440297360.0 -0.5255993425 0.6643576969 7.16318e-05 1.53721e-05 -0.0001399851 0.000111457 -0.5300336614 0.6590598805
445297330.0 -0.518500244 0.6699976136 0.0001720607 0.0001409366 0.0001779682 -8.3441e-06 -0.5236915151 0.6640846773
450297300.0 -0.5109120955 0.6748950077 0.0001545021 -4.1142e-06 -0.0001266348 -0.0002169943 -0.5173297101 0.6698625673
455297270.0 -0.5046251554 0.6799263842 -3.674e-07 -7.22825e-05 0.0001204517 -0.0001090446 -0.510006046 0.6752221589
460297240.0 -0.4977910631 0.6853630578 -4.59037e-05 -0.00011846 8.70161e-05 0.0001615256 -0.5028801274 0.680363083
465297210.0 -0.4904030231 0.6900806939 0.0001140731 -0.0001738466 2.1151e-05 6.64594e-05 -0.4962839765 0.6848198463
470297180.0 -0.4829993863 0.6945728519 -0.0001148503 9.4331e-06 -0.0001992484 -0.0001098552 -0.4894783918 0.6897364313
475297150.0 -0.4761482687 0.7001162321 -6.32481e-05 -6.67452e-05 0.0001634443 0.0001161806 -0.4825073662 0.6946572182
480297120.0 -0.4683286177 0.7044979846 -7.7258e-06 -0.00013369 -3.68803e-05 -9.76303e-05 -0.4754509438 0.7001711942
485297090.0 -0.4607658134 0.7093618634 1.32032e-05 -9.54224e-05 0.0001624958 -0.000176155 -0.468157127 0.7044153576
490297060.0 -0.4541395731 0.7138919723 -2.11171e-05 0.0002127976 -0.0001513514 3.8071e-05 -0.4612461404 0.7085440035
495297030.0 -0.4477709359 0.7184765502 0.0001155194 -5.93573e-05 -1.00887e-05 -6.03114e-05 -0.4536933432 0.7129245415
500297000.0 -0.4387178158 0.7234732047 0.00013995 -9.12054e-05 -2.88162e-05 8.03989e-05 -0.4469270469 0.7176477287
505296970.0 -0.4316488854 0.7272661807 0.0001082452 -0.0001332416 8.14977e-05 0.0001113383 -0.4404581412 0.7222025855
510296940.0 -0.424450882 0.7324606574 -0.0001878028 -0.0001156977 -4.5863e-05 2.07804e-05 -0.4323037662 0.726577542
515296910.0 -0.4168979366 0.7365949225 8.34663e-05 7.3034e-06 7.19009e-05 -5.24485e-05 -0.4248331096 0.7310790481
520296880.0 -0.4090296075 0.7405854545 0.0002449761 9.34461e-05 0.0001443288 -2.72179e-05 -0.4179832307 0.7349032779
525296850.0 -0.4019294002 0.7446878137 0.0001026181 -1.28841e-05 -5.48611e-05 -0.0001291576 -0.4101928528 0.7396377119
530296820.0 -0.394842456 0.7478415992 -4.0418e-05 5.02383e-05 0.0001420464 0.0001333871 -0.4033086685 0.7427302308
535296790.0 -0.3859543983 0.7524524191 -0.0002273367 -9.02158e-05 2.39811e-05 2.35408e-05 -0.3959335055 0.7469125189
540296760.0 -0.3785562817 0.755994724 -9.143e-07 -5.30653e-05 -0.0001316801 -2.2139e-05 -0.3883321439 0.7509916239
545296730.0 -0.3714289587 0.7597452446 -0.0002941862 -0.0001079741 -0.0001473425 -6.66956e-05 -0.3809194175 0.754011846
550296700.0 -0.363825559 0.7636062685 -0.0001762441 -4.77107e-05 4.41768e-05 -9.39654e-05 -0.3732940372 0.7586211158
555296670.0 -0.3548890217 0.7666501922 2.04668e-05 0.0001657717 1.62965e-05 -7.15725e-05 -0.3656160252 0.7623267486
560296640.0 -0.3471612513 0.7706301952 0.0001170677 -0.0002213837 -2.1789e-05 6.64792e-05 -0.3577200179 0.7661337552
565296610.0 -0.3400103417 0.7738508502 0.0001127392 4.09867e-05 8.09225e-05 -8.24691e-05 -0.3505318982 0.769270234
570296580.0 -0.3314456605 0.7770305826 -0.0002606057 -0.0002698123 -0.0001214656 -4.80559e-05 -0.3434299271 0.7727704017
575296550.0 -0.3236624608 0.7804178437 2.62765e-05 -0.000104421 5.88975e-05 -2.55556e-05 -0.3348857766 0.7763546226
580296520.0 -0.3156564529 0.7840460857 7.43497e-05 0.0001526315 0.0001603166 -0.0001634245 -0.3274403963 0.7793575885
585296490.0 -0.3074279304 0.786289121 5.68953e-05 -0.0002519337 -8.36312e-05 0.000111446 -0.3199709638 0.782280633
590296460.0 -0.2995866518 0.7892914189 -7.46655e-05 -5.29191e-05 -0.0002173304 0.0001809391 -0.311903991 0.7854271536
595296430.0 -0.2915881933 0.7931146391 -0.0001097518 2.96634e-05 -2.36108e-05 7.04474e-05 -0.3042194841 0.7871503327
600296400.0 -0.2839020582 0.7958455586 -8.10547e-05 9.44251e-05 -0.0001085257 -6.72304e-05 -0.29655752 0.791647353
605296370.0 -0.2750728309 0.7991131099 0.0001223306 -3.8264e-06 0.0001114661 0.0001162757 -0.2890646178 0.7943416191
610296340.0 -0.2676686331 0.8012735091 -0.0001572058 -1.11034e-05 0.000247385 0.0001612248 -0.2808785671 0.7974657333
615296310.0 -0.2594111577 0.8037848095 0.0001225014 -8.90056e-05 0.0001852148 -0.000160569 -0.2731508397 0.7998452189
620296280.0 -0.2507274973 0.805806871 -6.42558e-05 0.0002554117 0.0001372376 -9.36193e-05 -0.2651954311 0.8021877686
625296250.0 -0.2430704094 0.8089961503 -3.27004e-05 -3.53212e-05 0.0001418665 -0.0003676973 -0.2571701099 0.8044772441
630296220.0 -0.2343807899 0.8121776633 -1.3563e-05 -6.5002e-06 5.5906e-06 -0.0002538602 -0.2483425624 0.8073826778
635296190.0 -0.2262181238 0.8138369127 -8.81455e-05 5.59719e-05 -0.0001724559 -4.60047e-05 -0.2408902492 0.8094088028
640296160.0 -0.2176980976 0.8150375044 7.4795e-06 -0.0001672012 -0.0003102117 -0.0001396048 -0.2325121281 0.8116229265
645296130.0 -0.2099337748 0.8177571552 -5.25272e-05 -1.65517e-05 1.73611e-05 0.0001481016 -0.2250270201 0.8140211955
650296100.0 -0.2020723976 0.8200849079 2.7144e-05 5.61404e-05 -0.0002303876 -0.0001863965 -0.2175562936 0.8166144936
655296070.0 -0.1936849048 0.8216804915 -1.7755e-06 7.2143e-05 0.0001697813 2.24462e-05 -0.2086102312 0.8181143332
660296040.0 -0.1852221954 0.824139712 6.5188e-06 -0.0001240554 -0.0002409556 -0.0001110342 -0.200968486 0.8202851431
665296010.0 -0.1771163214 0.8259234123 -0.0001841558 0.0001288419 2.29606e-05 -0.0001297686 -0.1932665336 0.8219112554
670295980.0 -0.1679236877 0.8275462487 7.1385e-06 -0.0001010755 -8.31798e-05 0.0001287674 -0.1855074301 0.8238111869
675295950.0 -0.160603725 0.8284890286 5.93124e-05 0.0002554872 -2.40084e-05 -0.000215528 -0.1765466003 0.8259302147
680295920.0 -0.151718523 0.8306297866 -3.42926e-05 7.11466e-05 0.0001596397 6.5058e-05 -0.168112872 0.8279742669
685295890.0 -0.1428089108 0.8316990708 -2.62596e-05 -0.0001163777 -5.68027e-05 1.69753e-05 -0.1600783292 0.8294195367
690295860.0 -0.1347077167 0.833651727 -8.743e-07 8.82936e-05 -2.92209e-05 3.78057e-05 -0.1520170325 0.830782612
695295830.0 -0.1265610331 0.8342994576 6.40362e-05 5.60133e-05 5.37505e-05 0.0001073305 -0.1440661391 0.8324346282
700295800.0 -0.1178901691 0.8352322606 -0.0001277346 5.105e-05 -6.31131e-05 -7.94266e-05 -0.1350027362 0.8330619343
705295770.0 -0.1089010884 0.8369349795 -3.82916e-05 3.32091e-05 -5.08642e-05 0.0001644255 -0.1275451819 0.8354055947
710295740.0 -0.1010437909 0.8376654214 -9.36931e-05 0.0001858092 9.47929e-05 -6.00855e-05 -0.1192792405 0.8367069547
715295710.0 -0.093290213 0.83900429 -0.0001330019 -1.42601e-05 -0.0001776912 3.26479e-05 -0.1111686954 0.8377309813
720295680.0 -0.0847105412 0.8396865584 -6.994e-06 -5.24665e-05 -0.0001160206 -9.46737e-05 -0.1026782668 0.8384902712
725295650.0 -0.0749714236 0.8404602646 -3.1618e-06 3.41971e-05 -2.81299e-05 -0.0001425478 -0.0938837619 0.8397854406
730295620.0 -0.0673941331 0.8411217073 -1.19819e-05 8.29499e-05 0.0001218426 7.51942e-05 -0.0854424594 0.8406009503
735295590.0 -0.058620521 0.8412649492 -2.75699e-05 0.0002276853 -6.85264e-05 -7.51962e-05 -0.0771386598 0.8405271674
740295560.0 -0.0503344484 0.8424421951 -0.0001373473 0.0001181686 0.0001133145 -5.32364e-05 -0.0692635431 0.8410746687
745295530.0 -0.0421354632 0.8426569194 2.49111e-05 -5.80527e-05 0.0001518306 9.24007e-05 -0.0608922779 0.8422710043
750295500.0 -0.0338134864 0.8431095108 -8.17903e-05 -6.98275e-05 -2.79335e-05 4.48589e-05 -0.0526339628 0.8426851217
755295470.0 -0.02471203 0.8437733996 -8.47958e-05 -6.85153e-05 3.33082e-05 -2.75836e-05 -0.0445022185 0.8437318485
760295440.0 -0.0162521181 0.8432903849 -0.0001439966 -0.0001129439 -2.58534e-05 3.64455e-05 -0.0362308225 0.8438155792
765295410.0 -0.0083270542 0.8441075159 0.0001118214 3.83796e-05 -7.69435e-05 5.46189e-05 -0.0276827221 0.844658061
770295380.0 0.0004873413 0.8441542947 -0.0002231297 2.98979e-05 8.23375e-05 2.14936e-05 -0.0189363804 0.8441542879
775295350.0 0.008594578 0.8438673457 -0.0002225825 -2.64603e-05 4.66332e-05 -2.09904e-05 -0.0119898498 0.8439899903
780295320.0 0.0177131676 0.8429505303 1.68025e-05 8.28504e-05 0.000202954 -9.54394e-05 -0.0027954758 0.8447766352
785295290.0 0.0259598762 0.843947705 -3.252e-05 0.000195323 5.37707e-05 -0.0001695306 0.0048348529 0.8448374526
790295260.0 0.0341852458 0.8429818206 -0.0001189922 3.77887e-05 -0.0001839755 -7.14048e-05 0.0140829449 0.8446908386
795295230.0 0.0430211014 0.8434220683 4.57419e-05 0.0001099793 -0.0001669668 8.72484e-05 0.021952927 0.845132331
800295200.0 0.0515631029 0.8422187599 -2.51592e-05 -5.63655e-05 -2.08209e-05 -5.49455e-05 0.0301078517 0.8438009665
805295170.0 0.0593600832 0.8416475429 1.8605e-06 8.96282e-05 0.0001220766 5.43079e-05 0.0383202347 0.8434890976
810295140.0 0.06805185 0.8414123126 -0.0002483368 -7.2015e-05 -0.0001150831 0.0001581064 0.0465092635 0.8442353027
815295110.0 0.0767071714 0.8403645117 4.18525e-05 -5.183e-05 -4.4284e-06 -0.0001731739 0.055274585 0.84331985
820295080.0 0.0852558475 0.8391296684 6.99723e-05 0.0001340479 0.0001181709 -1.92706e-05 0.063014579 0.8421670969
825295050.0 0.0936682118 0.8384583293 7.93375e-05 3.97715e-05 0.0001460495 -0.0001136551 0.071451739 0.8420390369
830295020.0 0.1017884358 0.8377186798 -4.2422e-06 -0.0002147481 3.64772e-05 3.22667e-05 0.0798550428 0.8406814916
835294990.0 0.109891756 0.8367463944 3.3303e-06 4.60147e-05 -0.0001299367 0.0001719862 0.0878462667 0.8400920851
840294960.0 0.118363072 0.8353639606 -0.0002274161 -2.36873e-05 0.0002168475 5.72183e-05 0.0959264501 0.8395396405
845294930.0 0.1271339941 0.8340646043 9.071e-07 -8.41411e-05 4.98815e-05 8.34657e-05 0.103976203 0.8385180085
850294900.0 0.1348452346 0.8326434156 -1.34029e-05 0.0001192737 8.04138e-05 7.3978e-05 0.1122200766 0.8373324048
