!Created with skrf (http://scikit-rf.org).
# Hz S RI R 50.0 
!freq ReS11 ImS11 ReS21 ImS21 ReS12 ImS12 ReS22 ImS22
300000.0 -0.7736323735 -0.1795847345 0.0001559877 0.0003320913 0.0005850486 0.0002968659 -0.0457510854 -0.0814276492
5299970.0 -0.7860306516 -0.0096770056 0.0002620191 -6.17456e-05 -1.74194e-05 -7.37888e-05 -0.0475199869 0.0140730402
10299940.0 -0.7895986754 -0.0058514915 -3.42675e-05 -7.90778e-05 0.0001782159 0.0001237524 -0.041648733 0.0315671539
15299910.0 -0.7946449016 -0.0032551838 -8.83e-06 -3.8115e-06 0.000122165 0.000139649 -0.0335687627 0.0457131029
20299880.0 -0.8008967771 0.0006886546 -0.0001204846 -0.0001249232 -1.5833e-05 0.0001779343 -0.0241257938 0.0570670626
25299850.0 -0.8076044118 0.0072046777 0.0001110489 4.25951e-05 -0.0002718227 -8.09064e-05 -0.0136666534 0.0660312577
30299820.0 -0.8140357197 0.0139546041 -0.000249465 -0.0001348498 -0.0001236182 8.41314e-05 -0.0019782044 0.0728311612
35299790.0 -0.8184104647 0.023367243 3.71662e-05 9.29078e-05 -5.15897e-05 2.4035e-06 0.0090262276 0.0775125546
40299760.0 -0.8236340797 0.0321322434 -8.16129e-05 0.0002261585 9.54898e-05 7.71053e-05 0.0202185176 0.0799752418
45299730.0 -0.8267783575 0.0417295226 0.0001370801 3.38951e-05 0.0001494054 6.95109e-05 0.0307512745 0.0815009003
50299700.0 -0.8293284365 0.0523962825 1.38981e-05 -4.61167e-05 -0.0001822527 -0.0001471575 0.0405929427 0.0814529174
55299670.0 -0.8308758034 0.0614910669 -1.21642e-05 5.11298e-05 5.805e-06 -1.40245e-05 0.0495362435 0.0803960784
60299640.0 -0.8328905162 0.0717194674 4.19848e-05 7.47547e-05 5.56718e-05 0.0001665934 0.0577969377 0.0782203833
65299610.0 -0.8333488053 0.0816074403 1.3688e-05 -3.96036e-05 2.12327e-05 0.0001599004 0.0655017148 0.0760667657
70299580.0 -0.8338872478 0.0916838566 -0.0001075755 -0.0002403014 -0.0001959015 -3.79586e-05 0.0721721897 0.0731791277
75299550.0 -0.8342523869 0.1018935452 7.62089e-05 0.0003158335 -7.54396e-05 0.0001854013 0.0786953821 0.069854814
80299520.0 -0.8334758184 0.1118753887 6.18358e-05 5.6659e-06 -8.71067e-05 5.5471e-05 0.084192788 0.0662930016
85299490.0 -0.8332695864 0.1207489694 9.59123e-05 -0.0001035487 8.22505e-05 -9.32301e-05 0.088990095 0.0624683394
90299460.0 -0.8327587713 0.1317814203 9.34519e-05 -5.73175e-05 4.03842e-05 0.000101206 0.0936992029 0.0586733184
95299430.0 -0.8314793188 0.1404546859 8.55202e-05 3.53139e-05 -2.6277e-06 4.43641e-05 0.097534364 0.0552280876
100299400.0 -0.8309483507 0.1502536404 -3.459e-06 3.58069e-05 -0.0001159369 8.32625e-05 0.1010616528 0.051380418
105299370.0 -0.8287903751 0.1589916387 0.0001588702 -4.83572e-05 7.63015e-05 -0.0001542204 0.10422605 0.0471587581
110299340.0 -0.8278246368 0.1686530881 -5.45343e-05 7.17422e-05 0.0001703459 7.98971e-05 0.1066073492 0.0427772633
115299310.0 -0.826061868 0.1776270837 -8.38828e-05 1.54106e-05 -3.56306e-05 6.42245e-05 0.1093793353 0.0392598922
120299280.0 -0.8251201221 0.1865915936 1.94799e-05 -1.94656e-05 7.27779e-05 -2.11539e-05 0.1115167895 0.0348919246
125299250.0 -0.8227367644 0.1956409573 -0.0001717379 -6.4772e-06 0.0001282572 0.0001386359 0.1133145183 0.0312917228
130299220.0 -0.8210225409 0.2051011306 4.72287e-05 0.0001002882 -3.78774e-05 4.06075e-05 0.1149489895 0.0276624587
135299190.0 -0.8194281422 0.2143756015 9.11712e-05 3.46379e-05 -2.383e-05 2.22097e-05 0.1167327954 0.0239066205
140299160.0 -0.816845681 0.2235617084 -4.37005e-05 8.1089e-05 -0.0001462789 0.0002208981 0.1172157921 0.0207538422
145299130.0 -0.8148506935 0.2323494316 -0.0002262206 0.0001864609 -2.18008e-05 0.0002659416 0.1185827965 0.0168359038
150299100.0 -0.8121071327 0.241306099 0.000158553 -9.54778e-05 0.000137278 4.98208e-05 0.1190758323 0.0136417953
155299070.0 -0.8099165521 0.2503504227 0.0001677194 3.51625e-05 3.31516e-05 1.44548e-05 0.1204075727 0.010110601
160299040.0 -0.8075735985 0.2591807124 -0.0001456576 -4.87729e-05 6.64316e-05 0.0001677618 0.1205404795 0.0068477657
165299010.0 -0.8047838021 0.2677164384 9.1737e-05 -8.64154e-05 0.0001410306 -5.55965e-05 0.1210028532 0.0034857104
170298980.0 -0.8015977705 0.2761742213 0.0003237085 0.0001459744 0.0002180276 7.74665e-05 0.1212726592 0.0005871703
175298950.0 -0.799040107 0.2844089093 2.53178e-05 -0.0001009051 -0.0001706491 3.03262e-05 0.1212134418 -0.0023883674
180298920.0 -0.7960887897 0.2935089932 -6.983e-06 2.46576e-05 3.26473e-05 0.0003592266 0.12161223 -0.0054504796
185298890.0 -0.7926274135 0.3021094705 -5.91999e-05 -0.0001296968 7.73438e-05 -5.66598e-05 0.1215337158 -0.0088020997
190298860.0 -0.7895017228 0.3112209747 -9.65895e-05 2.68631e-05 -0.0001200414 -9.04806e-05 0.1214960818 -0.0114170304
195298830.0 -0.7865654068 0.3191269337 -6.26409e-05 4.68678e-05 -3.92732e-05 0.0002073477 0.1212063059 -0.0140939506
200298800.0 -0.7832356027 0.3278776797 0.0001903911 0.0001128957 0.0001598547 5.33093e-05 0.1211461158 -0.0174666685
205298770.0 -0.7796390099 0.3365130871 -8.05291e-05 8.99004e-05 0.0002259236 2.11192e-05 0.1205978241 -0.0196874561
210298740.0 -0.7760143724 0.3449965863 5.20569e-05 -9.45611e-05 0.0001181401 -4.81013e-05 0.1202315448 -0.0223723087
215298710.0 -0.7720582347 0.3528171521 -3.75866e-05 -0.0001274655 1.64984e-05 1.68301e-05 0.119770891 -0.0249931473
220298680.0 -0.7690566423 0.3609953711 6.74851e-05 -7.55353e-05 -5.07282e-05 0.0001865141 0.1194143959 -0.0275627433
225298650.0 -0.764904973 0.3695966889 0.0001301805 0.0001899227 0.0002168489 0.0001949999 0.1187753303 -0.0295486271
230298620.0 -0.760877229 0.3780006441 0.0002060445 3.0592e-05 6.21057e-05 -3.18449e-05 0.118144193 -0.0322793265
235298590.0 -0.7572302741 0.3859666606 9.60377e-05 8.37287e-05 4.73182e-05 2.6182e-06 0.1175206891 -0.0343854987
240298560.0 -0.7527627272 0.3935456902 -1.52461e-05 5.65178e-05 0.000104621 -4.5145e-05 0.1168690312 -0.0369048198
245298530.0 -0.7488566457 0.4014571467 -0.000118428 0.0001367906 -1.19351e-05 7.33984e-05 0.115932064 -0.0389350632
250298500.0 -0.7448941529 0.4093872314 6.68363e-05 0.0001967553 -0.0002277613 0.0001924902 0.1150669322 -0.0410989181
255298470.0 -0.7407406118 0.4174140537 6.46877e-05 4.22374e-05 5.79533e-05 -3.99165e-05 0.1144435564 -0.0437307502
260298440.0 -0.7361888453 0.425210744 -0.0001250061 -3.68984e-05 1.44916e-05 -8.1803e-05 0.113227655 -0.0454549834
265298410.0 -0.7318453081 0.433028614 0.0001334984 0.0001410518 4.47091e-05 1.60026e-05 0.1130801983 -0.0479188659
270298380.0 -0.7270537202 0.4409537843 4.90543e-05 0.0001925753 -5.47758e-05 0.0001964595 0.1118777778 -0.05013568
275298350.0 -0.7231393039 0.4484587465 0.0001399719 0.0001695229 -4.21596e-05 1.16843e-05 0.1110913088 -0.0516039076
280298320.0 -0.7183041832 0.4555307598 -0.000202477 -0.0001632149 4.59255e-05 -3.2608e-06 0.1098344223 -0.053553045
285298290.0 -0.7134144519 0.4629383651 0.0002104454 -5.21207e-05 7.48689e-05 9.8903e-05 0.1090818472 -0.0553420134
290298260.0 -0.7081941843 0.4713257137 0.0001399119 -1.49185e-05 8.07868e-05 2.68827e-05 0.1078890632 -0.0570683171
295298230.0 -0.7036764653 0.4779930996 0.0001396924 -5.97354e-05 -9.57379e-05 8.65444e-05 0.1072516087 -0.0591497349
300298200.0 -0.6995973585 0.4857683942 9.4271e-06 -2.36282e-05 6.55875e-05 0.000122753 0.1060854811 -0.06084719
305298170.0 -0.6944893711 0.4924255301 8.46255e-05 -2.6859e-05 0.0001758674 9.96087e-05 0.1050338101 -0.062714692
310298140.0 -0.6889134162 0.4998035452 0.0001027296 4.72401e-05 2.47348e-05 -4.87282e-05 0.1041320583 -0.0645875177
315298110.0 -0.6843102123 0.5071464108 6.54452e-05 0.0002069238 0.0001093489 -1.51913e-05 0.1032056206 -0.066500186
320298080.0 -0.6788990805 0.5146593101 6.05359e-05 -9.32632e-05 7.51444e-05 -8.9042e-05 0.1017419262 -0.0683281886
325298050.0 -0.6736388387 0.5208650493 0.0001168733 0.0002256844 -7.68595e-05 -8.49845e-05 0.1006189801 -0.0702213945
330298020.0 -0.6684118092 0.5279517518 -6.55984e-05 -0.0001508707 0.0002964192 0.0001091374 0.0991606582 -0.0720819575
335297990.0 -0.6630469599 0.5347029872 0.0001615175 3.48237e-05 2.5267e-06 2.85362e-05 0.0977509029 -0.073704133
340297960.0 -0.6574121341 0.5411262131 5.14114e-05 7.759e-06 0.0001822479 9.76416e-05 0.0962458977 -0.0748257495
345297930.0 -0.6515347398 0.5482544951 0.0002213802 8.91903e-05 -3.98596e-05 -5.12512e-05 0.0948898865 -0.0766549098
350297900.0 -0.6463161703 0.5553586876 0.0001649713 0.000185662 -5.89543e-05 0.0002684124 0.0930933597 -0.0782206007
355297870.0 -0.6405569142 0.5612378806 9.82434e-05 -5.08109e-05 0.0002209912 -3.48275e-05 0.0917493605 -0.079622252
360297840.0 -0.6345476487 0.5684193855 -3.1895e-05 -8.82142e-05 0.000153045 -1.9853e-06 0.0905374265 -0.0806202162
365297810.0 -0.6291098949 0.5744185228 0.000173459 -3.23891e-05 -0.0001849988 0.0001606818 0.0890833344 -0.0818622593
370297780.0 -0.6233282209 0.5808343507 -6.96214e-05 5.06699e-05 8.46165e-05 0.0001964255 0.0875371365 -0.0831936885
375297750.0 -0.6179142493 0.5873567909 -8.1191e-06 0.0002207768 9.74574e-05 -9.87977e-05 0.0861887983 -0.0844529047
380297720.0 -0.6116835012 0.5936148723 -1.59814e-05 -0.0001295907 -0.0002594883 8.89325e-05 0.0850128675 -0.0856776816
385297690.0 -0.605767631 0.599619632 8.4118e-05 -5.88354e-05 0.0002517274 2.64169e-05 0.0835208779 -0.086644459
390297660.0 -0.5991313368 0.6054883368 0.000151439 -4.80057e-05 -0.0001133195 9.27434e-05 0.0820218897 -0.0881227974
395297630.0 -0.5926190456 0.612504507 0.0001599073 -3.13843e-05 0.0002840774 -1.98869e-05 0.0803268976 -0.0894972413
400297600.0 -0.5867436888 0.6181204781 -1.73524e-05 -3.82456e-05 1.2754e-05 -9.58812e-05 0.0790545071 -0.0901944329
405297570.0 -0.5808347573 0.6227550258 4.31629e-05 -8.11592e-05 2.6387e-06 9.11844e-05 0.0778147871 -0.0915435464
410297540.0 -0.5740417517 0.6300096706 0.0002006171 1.442e-05 0.0001517417 0.0001058893 0.0759958655 -0.0923886327
415297510.0 -0.5677130506 0.6354532055 0.0001849409 -0.0002175929 6.29028e-05 -0.0001068171 0.0744933532 -0.0938696145
420297480.0 -0.5606922628 0.6415385588 0.0001146459 3.79495e-05 -0.0001418788 1.90175e-05 0.0735495252 -0.0942714857
425297450.0 -0.5541113993 0.6465681757 0.000143875 -5.54184e-05 8.16568e-05 3.9618e-05 0.0716774959 -0.095880394
430297420.0 -0.5476863205 0.651989306 8.33529e-05 0.0002056435 0.0001029216 -1.84777e-05 0.069970912 -0.096488634
435297390.0 -0.5409174372 0.6575996002 0.0002119908 -9.5111e-05 2.50619e-05 -5.61007e-05 0.0683367825 -0.0973339882
440297360.0 -0.5339033869 0.6632348186 -0.0001652577 -0.0001392902 4.23649e-05 -0.000187524 0.0671763788 -0.0984501507
445297330.0 -0.5276529601 0.6680108676 -0.0001002931 -3.7119e-06 8.43227e-05 -2.98966e-05 0.0656375848 -0.0991491747
450297300.0 -0.5198903636 0.6739197942 0.0002432954 6.61912e-05 0.0002405882 4.05722e-05 0.0642902969 -0.1000216967
455297270.0 -0.5136126009 0.6784072908 0.000169674 8.64476e-05 5.64586e-05 0.0001459266 0.0626171599 -0.1011153161
460297240.0 -0.5062260278 0.6840713012 0.0001784305 -0.0001673517 5.39846e-05 5.62852e-05 0.0607393997 -0.1019867362
465297210.0 -0.4995394804 0.6891846267 2.76181e-05 3.11013e-05 6.18211e-05 7.38878e-05 0.0593348757 -0.1025164066
470297180.0 -0.4923246027 0.6943152632 0.0003636687 0.0002316358 0.0002343016 -2.38093e-05 0.0577066341 -0.1031836216
475297150.0 -0.4846821463 0.6986566646 3.12222e-05 0.0001829875 5.86221e-05 0.0001082669 0.0567407116 -0.1039460593
480297120.0 -0.4768226547 0.7039300878 0.0002723878 9.51722e-05 8.44887e-05 -8.99536e-05 0.0545551878 -0.1048185886
485297090.0 -0.4697813185 0.7088455544 6.13891e-05 1.30579e-05 0.0001410914 -3.47504e-05 0.0528924284 -0.1055854008
490297060.0 -0.4622112571 0.7140531146 0.0003005161 8.61798e-05 0.0002026803 -4.38967e-05 0.0513703901 -0.1067208881
495297030.0 -0.4547136818 0.7184612109 0.0002590395 -0.0001283642 0.0001065831 4.67599e-05 0.0496940484 -0.1069339036
500297000.0 -0.4473300553 0.7220793521 0.0002826564 -4.51096e-05 7.64005e-05 1.61857e-05 0.0483525035 -0.1074348222
505296970.0 -0.439519399 0.7270022594 0.0001571205 0.0001107185 7.4159e-05 9.1578e-06 0.0463641079 -0.108077089
510296940.0 -0.431667403 0.7317082056 0.0002476331 0.0001493518 -7.07531e-05 -8.75122e-05 0.0451609604 -0.1083282999
515296910.0 -0.4241502621 0.7358386315 0.0002389438 -0.0001132595 -7.57104e-05 0.0001907251 0.0431990653 -0.1090944016
520296880.0 -0.416452579 0.7402876964 -7.02658e-05 -7.6483e-06 0.0001542079 -0.0001684098 0.0420241679 -0.1097014855
525296850.0 -0.4087579513 0.7443626638 0.00015355 0.0001231867 0.0001651449 9.65938e-05 0.0401270621 -0.1099892734
530296820.0 -0.4012630282 0.7482563831 0.0001110004 -6.11478e-05 -0.0001280058 -0.000157991 0.038447909 -0.1107489763
535296790.0 -0.3927984319 0.751853654 0.0002281571 3.48747e-05 -0.000114747 1.05681e-05 0.0371348398 -0.1111685556
540296760.0 -0.3850501728 0.7561265438 7.57105e-05 0.0001688937 -6.89583e-05 -6.3562e-06 0.0348729228 -0.1114949615
545296730.0 -0.3773152307 0.7603920775 0.0001496324 -9.96156e-05 0.0001322967 -2.05825e-05 0.0334033705 -0.1120451244
550296700.0 -0.3689463847 0.7635474994 -0.0001425167 0.0001546371 0.0003192612 7.37123e-05 0.0318193376 -0.1125256619
555296670.0 -0.3615698566 0.7673507718 0.0003448254 3.5849e-06 -0.0002652853 0.0001255951 0.0300131103 -0.1127421463
560296640.0 -0.352980521 0.7708610899 0.0001313244 5.88979e-05 0.0002639997 2.02993e-05 0.0283542935 -0.1130030632
565296610.0 -0.3453627049 0.7739891191 9.1416e-05 -6.05543e-05 0.0001890694 0.0001392908 0.0268904273 -0.113306261
570296580.0 -0.3373788449 0.7782493598 8.70573e-05 -0.0003134675 0.0002872994 -6.85691e-05 0.0251084712 -0.1135860395
575296550.0 -0.3282952958 0.7812034931 1.69847e-05 -2.8658e-05 0.0001626836 7.51558e-05 0.0233862919 -0.1141095223
580296520.0 -0.3209731351 0.7849531644 4.89548e-05 0.0001015311 9.78289e-05 0.0001730554 0.021581737 -0.1143217848
585296490.0 -0.3124869416 0.7878551958 0.0002738485 0.0002150084 0.0001470305 -7.39962e-05 0.020185714 -0.1141081515
590296460.0 -0.3036457269 0.7909634604 5.5219e-05 6.44542e-05 -0.0001086553 4.1931e-05 0.0184130636 -0.114482767
595296430.0 -0.2959951433 0.7936075897 -0.0001176421 0.0001168565 3.31506e-05 0.0001304355 0.0167116696 -0.1144024943
600296400.0 -0.2879429168 0.7970377667 2.96241e-05 -0.0003547516 0.000291895 9.93527e-05 0.0152112438 -0.114772193
605296370.0 -0.2796687029 0.799042602 0.0002421767 -0.0002887999 0.0001237499 1.53823e-05 0.0133144103 -0.1148764833
610296340.0 -0.2715996917 0.802920938 0.0001693216 0.0001379738 8.146e-05 7.836e-05 0.0114222836 -0.1148847212
615296310.0 -0.2624657008 0.8055545525 5.83103e-05 -2.69952e-05 0.0002735348 0.0001004413 0.0101136599 -0.1150748297
620296280.0 -0.2550454079 0.8086992594 5.38599e-05 -7.07987e-05 0.0001177488 -4.84684e-05 0.008398882 -0.1148791539
625296250.0 -0.2472205563 0.8101705144 0.0001825069 -7.06053e-05 7.52326e-05 1.11338e-05 0.0066182438 -0.1154694498
630296220.0 -0.2387943097 0.8131488094 6.8541e-05 0.0002142673 0.0001694173 1.79242e-05 0.0050446524 -0.1149939156
635296190.0 -0.2306060442 0.8154635416 0.0001394784 7.43541e-05 0.0003225747 0.0001607393 0.003002105 -0.1148673383
640296160.0 -0.2218344806 0.8173688021 -0.0002082263 2.81855e-05 0.0001128025 -0.000117429 0.00131573 -0.1148814001
645296130.0 -0.2138014781 0.820557233 0.0001184449 -0.0001725678 8.07113e-05 7.98929e-05 -0.0003103789 -0.1149303837
650296100.0 -0.2051906352 0.8220706139 0.0005005131 9.73735e-05 0.000393161 -7.94708e-05 -0.0019971617 -0.1145701239
655296070.0 -0.1977212949 0.8245318098 7.667e-05 0.0001391479 5.92495e-05 -0.0001005741 -0.0037663389 -0.1148501662
660296040.0 -0.1890008151 0.8262021011 0.0002443535 4.90069e-05 0.0001636041 6.90198e-05 -0.0050308023 -0.114620499
665296010.0 -0.1811485384 0.8281093939 0.0001650056 -0.0001543208 0.0003186154 0.0001152975 -0.0067107029 -0.1141846318
670295980.0 -0.1727127361 0.830686608 0.0003226138 0.0001701462 -0.0001061157 -0.0001861817 -0.0088228962 -0.1143574211
675295950.0 -0.1634864343 0.8316778977 8.41606e-05 0.0001206382 0.0002008013 -0.000218375 -0.0103652574 -0.1136923657
680295920.0 -0.1563123307 0.8342431848 -0.000136149 0.0001324649 0.0002441272 0.0001188894 -0.0118218944 -0.1135901184
685295890.0 -0.1475826674 0.8353012351 8.76168e-05 8.08352e-05 0.0002065316 -0.0001320371 -0.0137470344 -0.1133911084
690295860.0 -0.1388947513 0.8368650544 0.0002451157 -0.0001424443 0.0002490584 3.07961e-05 -0.0150418266 -0.1129561929
695295830.0 -0.1306057157 0.8384373265 0.000190317 -0.0001399577 0.0002134169 7.82632e-05 -0.0166073833 -0.1127280204
700295800.0 -0.1226817405 0.8400741275 0.0002553884 -2.20305e-05 0.0003036157 7.02565e-05 -0.0181867673 -0.1124177956
705295770.0 -0.1144558716 0.841561998 0.0003577102 4.30789e-05 0.0001430218 -2.85079e-05 -0.0203084486 -0.1120439548
710295740.0 -0.1069022582 0.8417522169 0.0001135226 -7.21384e-05 -0.0001639041 -0.000104346 -0.0215583533 -0.1117639499
715295710.0 -0.0976018874 0.8437897789 0.0001949622 -6.15619e-05 9.81529e-05 -3.81578e-05 -0.0229907368 -0.1111963891
720295680.0 -0.0887888136 0.8445711776 -6.04957e-05 -4.08822e-05 0.0001301595 0.0002675249 -0.0249751322 -0.1110082382
725295650.0 -0.0812182468 0.845663978 -5.59001e-05 -0.0001376917 0.0001378639 -9.58747e-05 -0.0266610343 -0.11018874
730295620.0 -0.0737645963 0.8468525097 0.0003951515 -6.10353e-05 -0.0001275732 -0.0001012342 -0.0283340271 -0.1098567464
735295590.0 -0.0652017804 0.8477229851 2.68271e-05 -3.31677e-05 0.0001859661 -5.0014e-06 -0.0296065766 -0.1097008253
740295560.0 -0.0575830362 0.8477293964 3.02653e-05 9.45995e-05 0.000101523 -9.70591e-05 -0.0310917474 -0.1088517988
745295530.0 -0.0489349821 0.8490778294 0.0001006345 -4.26504e-05 0.000306825 -3.38294e-05 -0.0330116812 -0.1083405316
750295500.0 -0.041049035 0.849095729 0.0002044418 0.0001366127 0.0001476792 -0.0001743671 -0.0348446601 -0.1078830587
755295470.0 -0.0325052436 0.8499581254 0.0003443424 -1.27189e-05 0.0001212703 0.0001598946 -0.0361296257 -0.1071381885
760295440.0 -0.0239432996 0.8505857746 0.0001693329 0.000134918 3.26713e-05 -0.0001639184 -0.0375490115 -0.1068519854
765295410.0 -0.0162410501 0.8504199996 0.0001412992 5.9129e-06 0.0002440169 8.07049e-05 -0.0392253724 -0.1061341985
770295380.0 -0.0081850305 0.85133211 0.0003139908 6.86505e-05 0.00016587 -0.0001592142 -0.0408031907 -0.1054543499
775295350.0 -5.21614e-05 0.8510628184 0.0001920983 3.86535e-05 0.0001653854 -1.9262e-05 -0.0422849976 -0.1048395787
780295320.0 0.0087439415 0.851417466 9.16515e-05 0.0004205196 0.000256321 0.0001353884 -0.0437135161 -0.1040169985
785295290.0 0.0171068671 0.8509152006 0.0002104714 0.0001590972 0.0001482568 -0.0001185013 -0.0455039997 -0.1031953199
790295260.0 0.0251813927 0.8513110815 0.0001014345 -2.13338e-05 0.0002097306 -0.0002355066 -0.0469078201 -0.1023227583
795295230.0 0.0333089333 0.850552282 0.0002286454 -6.98501e-05 0.0001656145 9.65264e-05 -0.0484493021 -0.1020769164
800295200.0 0.0412895729 0.8504096248 0.0002165849 5.97938e-05 0.0001343176 4.57127e-05 -0.0501237231 -0.1013573325
805295170.0 0.0493894686 0.8501415274 0.0001989983 0.0001885885 0.0001373125 5.041e-06 -0.0510177406 -0.1008178708
810295140.0 0.0584862266 0.8504591467 8.35627e-05 -2.28244e-05 1.10476e-05 -2.33169e-05 -0.0526618884 -0.0994288378
815295110.0 0.0660312585 0.8495925724 0.0001615865 3.45138e-05 0.0001796503 9.5277e-06 -0.0547143383 -0.098890134
820295080.0 0.0737385821 0.8494198609 0.0002451163 0.0001877684 0.0001075758 -4.24226e-05 -0.0563787565 -0.0976166845
825295050.0 0.081784821 0.8483951528 0.0002712868 3.34684e-05 -9.9596e-06 -7.9675e-06 -0.0570157512 -0.0971161681
830295020.0 0.0912311788 0.8477614859 -5.06997e-05 -5.87935e-05 9.95316e-05 -8.9637e-05 -0.0589812752 -0.0962672991
835294990.0 0.0985271651 0.8467951781 0.0001048453 -1.81714e-05 0.0002745556 -4.40116e-05 -0.0600660749 -0.0951201981
840294960.0 0.1070612226 0.8453875622 -3.09969e-05 4.57487e-05 0.0002696606 -6.71305e-05 -0.0615375913 -0.0943013278
845294930.0 0.1147199947 0.8444679211 0.0001405776 -0.0001264735 0.0003561312 5.89026e-05 -0.0630199699 -0.0934425304
850294900.0 0.1240636956 0.8431721751 0.0004533939 6.50227e-05 6.96851e-05 -7.21028e-05 -0.0643723494 -0.0923066664
