!Created with skrf (http://scikit-rf.org).
# Hz S RI R 50.0 
!freq ReS11 ImS11 ReS21 ImS21 ReS12 ImS12 ReS22 ImS22
300000.0 -0.0950301594 -0.097896345 0.6235794685 0.0908110153 0.6209094673 0.0921689028 -0.0959045775 -0.1034986957
5299970.0 -0.1012263038 0.0114476573 0.6303086896 0.0113147725 0.6305834381 0.0111291436 -0.1018020149 0.0113262763
10299940.0 -0.0967469202 0.0285076876 0.6344712913 0.0160956619 0.6343453503 0.0164690318 -0.0965744243 0.028403823
15299910.0 -0.0893726994 0.0425097418 0.640742333 0.0213533776 0.6412130408 0.0211373329 -0.0895971849 0.0416910245
20299880.0 -0.0806891806 0.0535595859 0.6491522147 0.0241875905 0.6489470124 0.0244170697 -0.0808712602 0.052833183
25299850.0 -0.0702320973 0.0623383912 0.6582913029 0.0258447496 0.6583686499 0.0253587405 -0.0714561639 0.061915916
30299820.0 -0.0608898022 0.0687429532 0.6680940894 0.0247455011 0.6679201736 0.0245136597 -0.0616791092 0.0685196268
35299790.0 -0.0504173985 0.0736010866 0.6772341775 0.0223337483 0.6776421175 0.0219584275 -0.0521308037 0.0736486449
40299760.0 -0.0411224986 0.0763905571 0.686784431 0.0172142825 0.6871067278 0.0179301087 -0.0426666256 0.0769675584
45299730.0 -0.0317007857 0.0784008758 0.6959042806 0.012633101 0.695977825 0.0121044369 -0.0330821787 0.0791079887
50299700.0 -0.022908441 0.0789539686 0.7041009306 0.0051262058 0.7038323854 0.005073022 -0.0242400074 0.0801710246
55299670.0 -0.0152340193 0.0787773113 0.7111987058 -0.0021350219 0.710763912 -0.0025106791 -0.0170526654 0.0803569755
60299640.0 -0.0077771314 0.0784994479 0.7182253484 -0.0109477576 0.7180732384 -0.0111472772 -0.0094959765 0.0795251857
65299610.0 -0.0009427085 0.0770447656 0.7239651688 -0.0198963169 0.724242396 -0.0202083795 -0.0024265444 0.0787112038
70299580.0 0.0050977204 0.0750836689 0.7293379615 -0.0287056797 0.7292264503 -0.0291721234 0.0028392819 0.0773137662
75299550.0 0.0104768729 0.0732012132 0.7332868581 -0.0393608879 0.7336255242 -0.0385119012 0.0085022736 0.075533194
80299520.0 0.0154743322 0.0714210282 0.7378422656 -0.0491875437 0.7380337996 -0.0485815156 0.0137750306 0.0734963718
85299490.0 0.0200582399 0.0691844961 0.7409433458 -0.058685281 0.7408085369 -0.058528346 0.0180021645 0.0709037001
90299460.0 0.0240263907 0.0664788011 0.7433165307 -0.0685396232 0.7433311087 -0.0682366481 0.0223371103 0.0693108845
95299430.0 0.0280118291 0.0641710071 0.74624694 -0.0790261543 0.7465258658 -0.0791695658 0.0261451771 0.0667492017
100299400.0 0.0312447546 0.0615346975 0.7477849345 -0.0886215781 0.7476655184 -0.0889139678 0.0290370334 0.0646811092
105299370.0 0.0342218371 0.0590950716 0.7487976291 -0.0987687285 0.7498251121 -0.0988251967 0.0329538868 0.0615209699
110299340.0 0.0373674823 0.0564285046 0.7503450735 -0.1086020262 0.7509763405 -0.1086876436 0.0351042288 0.0593851762
115299310.0 0.0394797668 0.0542310961 0.7518222392 -0.1191815494 0.7510592278 -0.1185883359 0.0374119314 0.0575016233
120299280.0 0.0417401624 0.0521138121 0.7519741554 -0.1296359816 0.7518594279 -0.1294426548 0.0399525262 0.0546250273
125299250.0 0.0438493666 0.0496593555 0.75259654 -0.1385950503 0.7526562261 -0.1385351129 0.0420616113 0.0528853165
130299220.0 0.0456238225 0.0470615597 0.7523613665 -0.1495837869 0.7519950998 -0.149293918 0.0435587408 0.0507516599
135299190.0 0.046815297 0.0455018636 0.7518842218 -0.1583852193 0.7524457607 -0.1589265199 0.0457186131 0.0479372584
140299160.0 0.0488060376 0.0431937862 0.7519753597 -0.1688969724 0.7509156815 -0.1681338974 0.0462214179 0.0454860265
145299130.0 0.0494097954 0.041031964 0.7505837044 -0.1784154944 0.7505709111 -0.1781816473 0.0481117233 0.0434611561
150299100.0 0.0507734766 0.0390910063 0.7495336861 -0.1882049649 0.7494188988 -0.1875513591 0.0492436155 0.041938257
155299070.0 0.05255976 0.0371500192 0.7477442144 -0.1974481553 0.7483862751 -0.1978779318 0.0507528529 0.0395871853
160299040.0 0.0536423508 0.0353493791 0.7470354194 -0.2075465172 0.7463024258 -0.2075356845 0.0511713703 0.0379970001
165299010.0 0.0541992329 0.0333855539 0.7455372154 -0.2162299138 0.7449221993 -0.2165361908 0.0523325377 0.0358500544
170298980.0 0.0549223642 0.0319070527 0.7431360384 -0.2258412787 0.7431526528 -0.2259328423 0.0529148345 0.034130071
175298950.0 0.0559123053 0.0304902366 0.7414416134 -0.2348072512 0.7418856485 -0.2357568897 0.0535247691 0.032901386
180298920.0 0.0563841081 0.028743507 0.739328068 -0.2454714507 0.7394367209 -0.2449517086 0.0541321652 0.030843435
185298890.0 0.0567641527 0.0272376599 0.7375356328 -0.2535646905 0.7374809191 -0.2534975715 0.0551223013 0.0289652774
190298860.0 0.0578130272 0.0255491857 0.7342991197 -0.2630783355 0.7345547711 -0.2626046023 0.055150824 0.0271469977
195298830.0 0.0578863935 0.0240865763 0.733233874 -0.2716046976 0.7327750191 -0.2717723202 0.0556246184 0.0259278414
200298800.0 0.0584880115 0.0223484772 0.7303803221 -0.2812249796 0.7299655902 -0.2805788136 0.0562307109 0.0240015441
205298770.0 0.0581927282 0.0208112109 0.7269675595 -0.2896545809 0.7271276811 -0.2889237828 0.0570967348 0.0228477564
210298740.0 0.0586676883 0.0199677907 0.7242478334 -0.2983481979 0.7239474657 -0.2981952079 0.0565356084 0.0210020997
215298710.0 0.0593779399 0.0185609888 0.7207018521 -0.3073202928 0.7207217464 -0.3070067902 0.0573585449 0.0199497788
220298680.0 0.0595814344 0.0174581545 0.7176514279 -0.3158456733 0.7172577281 -0.3159381187 0.0573092596 0.0181633954
225298650.0 0.0597483165 0.0161370064 0.7137265771 -0.3241157655 0.7144112023 -0.324052121 0.057691028 0.0164708139
230298620.0 0.0603698583 0.0151959261 0.7114127195 -0.332701886 0.7116115066 -0.3330834956 0.0574349544 0.0150663718
235298590.0 0.0598311575 0.0136000401 0.707990049 -0.3419982044 0.7075238543 -0.3411591129 0.0582052171 0.0142045267
240298560.0 0.0602348432 0.012772318 0.7040591104 -0.3494976007 0.7035985696 -0.3497746517 0.0578741855 0.0126813539
245298530.0 0.0602289465 0.0111580308 0.7005029118 -0.3580809591 0.6999462599 -0.3579794572 0.0577220937 0.0115974515
250298500.0 0.0602443557 0.0101692502 0.6966737014 -0.3661866768 0.6967406744 -0.3656609633 0.0576516902 0.0106198798
255298470.0 0.060430728 0.0095874189 0.6929846092 -0.3738656108 0.6932206926 -0.3743137039 0.0578264362 0.0097853622
260298440.0 0.0606523764 0.0079566989 0.6889657214 -0.3819120711 0.6891353359 -0.3824289899 0.0576089827 0.0077600142
265298410.0 0.0598814214 0.0074202767 0.6847000608 -0.3909295767 0.6847874951 -0.3906161751 0.0586793935 0.006870013
270298380.0 0.0602096218 0.0064905594 0.6805609036 -0.3987193383 0.6803555969 -0.3980730773 0.0582300471 0.0058800295
275298350.0 0.0603049499 0.0057630128 0.6756963068 -0.4062157968 0.6757514342 -0.4058743183 0.0576982263 0.004948609
280298320.0 0.0596861689 0.0041798497 0.6718488081 -0.4135222858 0.6721325156 -0.4139769887 0.0585523673 0.0039952871
285298290.0 0.0598419882 0.0034018936 0.6669369818 -0.422075386 0.6676567616 -0.4215706217 0.0578555988 0.0026139767
290298260.0 0.0597932926 0.0026270126 0.6635215064 -0.429837542 0.6633487057 -0.4297278022 0.0583226251 0.0018052617
295298230.0 0.0599723764 0.0011300069 0.658276191 -0.4380880899 0.658151885 -0.4378098556 0.0577255362 0.0004547183
300298200.0 0.0601654074 0.0010350155 0.6538736648 -0.4452581468 0.6535573522 -0.444703722 0.0576744801 -0.0006261563
305298170.0 0.059942701 -0.0008536237 0.6492422024 -0.4532784398 0.6491079984 -0.4532195863 0.0578258273 -0.0022038782
310298140.0 0.0601706523 -0.0017968477 0.644358415 -0.4604663849 0.6444942123 -0.4602135948 0.0579299194 -0.0035884982
315298110.0 0.0599447205 -0.0030840346 0.6399982066 -0.4685774279 0.6388794615 -0.4685254941 0.057760099 -0.0045332764
320298080.0 0.0597402476 -0.0039433599 0.6329243529 -0.47590675 0.6341072104 -0.4764547969 0.0572074459 -0.0056600599
325298050.0 0.0585322366 -0.0055019393 0.6280539138 -0.482924208 0.6285021621 -0.4834165084 0.0569614139 -0.0069564439
330298020.0 0.0572658491 -0.0060653382 0.6225194543 -0.4909718139 0.6232607461 -0.4911320771 0.0556786149 -0.008052103
335297990.0 0.0575624215 -0.0067645296 0.617173602 -0.497450113 0.6174272853 -0.4975979323 0.0555281414 -0.0090058051
340297960.0 0.0567910576 -0.0078400012 0.6109246608 -0.5049128326 0.6105695891 -0.5046882812 0.0553545315 -0.0092123357
345297930.0 0.0566112495 -0.0082962316 0.6055774066 -0.5116929538 0.605132565 -0.5119467349 0.0552632009 -0.0104900543
350297900.0 0.0556127535 -0.0091032168 0.5999690202 -0.5179421529 0.6005085906 -0.5181163749 0.0545100271 -0.0113216519
355297870.0 0.0554602725 -0.0098485391 0.594457343 -0.5241614182 0.5942847086 -0.524101666 0.0543135531 -0.0119547662
360297840.0 0.0553205396 -0.010506311 0.5878256318 -0.5317925138 0.5879708665 -0.531977392 0.0532596275 -0.0122498316
365297810.0 0.0546380679 -0.0110960754 0.5823257755 -0.5383378729 0.5817079852 -0.53838697 0.0527328968 -0.0132344262
370297780.0 0.0545770473 -0.0114767186 0.57610424 -0.5442406364 0.5764511669 -0.5440881378 0.052708188 -0.0140539535
375297750.0 0.0542000851 -0.0123002522 0.5704586112 -0.5509206594 0.5705419148 -0.5509854377 0.0528984126 -0.0147487935
380297720.0 0.0532726219 -0.0128553913 0.5645837504 -0.557583382 0.5636451613 -0.5575370864 0.0525434919 -0.0152234503
385297690.0 0.0530660822 -0.0137843706 0.5578325396 -0.5637600969 0.5580298793 -0.56445681 0.0521275672 -0.0157156709
390297660.0 0.0531353525 -0.014323288 0.5520234957 -0.568857989 0.5523139999 -0.5698544342 0.0520684165 -0.0168336806
395297630.0 0.0529257716 -0.0150006744 0.5457606299 -0.5753579256 0.5454052936 -0.5756223826 0.0512048045 -0.0171019755
400297600.0 0.051938211 -0.0159842626 0.5395958851 -0.5823990709 0.53965256 -0.582015182 0.0514953713 -0.0175174415
405297570.0 0.0517728704 -0.0168441384 0.5330935855 -0.5877634293 0.5328340335 -0.5879844821 0.0510099179 -0.0179495099
410297540.0 0.051355836 -0.0167949878 0.5267011598 -0.5939849353 0.5266408614 -0.5938099117 0.0505916248 -0.0188707355
415297510.0 0.0510563706 -0.0177927669 0.519351008 -0.5995590279 0.520546593 -0.5997536678 0.0507101943 -0.0191869659
420297480.0 0.0506049948 -0.0184806233 0.5136249153 -0.605419386 0.5137540556 -0.6060527636 0.0502315724 -0.0194744921
425297450.0 0.0509069565 -0.0188884097 0.5067904305 -0.6106494904 0.5066504677 -0.6111465259 0.0498157343 -0.0208836184
430297420.0 0.0500633746 -0.0193484377 0.5002978137 -0.617213633 0.5006552901 -0.6162096144 0.0498035523 -0.0210144174
435297390.0 0.0497431051 -0.0202799702 0.4930718392 -0.623047558 0.4928224513 -0.6223074895 0.0488839224 -0.0213040055
440297360.0 0.0496478039 -0.0209087946 0.4863052028 -0.6275410104 0.485906096 -0.6281085682 0.0486312907 -0.0218247681
445297330.0 0.0492766816 -0.0222006992 0.4799259529 -0.6329998714 0.4791271204 -0.6331751713 0.048413035 -0.022309164
450297300.0 0.0487661582 -0.0220832419 0.4725782292 -0.638309509 0.4729466813 -0.6378848281 0.0480505923 -0.022692554
455297270.0 0.0479412194 -0.0227027525 0.4660537058 -0.6434643293 0.4654144399 -0.6436094483 0.0478911511 -0.0235885366
460297240.0 0.0479717665 -0.0231697192 0.4589104698 -0.6497480918 0.4585050133 -0.649190658 0.0473372654 -0.0240938581
465297210.0 0.0476541699 -0.0241973036 0.4507083005 -0.65416627 0.4510535455 -0.6538894077 0.0472905525 -0.0238658915
470297180.0 0.0472034867 -0.0248809609 0.444022192 -0.6584457702 0.4442699751 -0.6586281617 0.0471529002 -0.0252876897
475297150.0 0.0464143085 -0.0247283206 0.4370091387 -0.6638817396 0.4370577794 -0.6634335918 0.0466559828 -0.025641304
480297120.0 0.0465665115 -0.0250851807 0.4295122679 -0.667972882 0.4295346859 -0.6684627844 0.0458562987 -0.0262201382
485297090.0 0.0459743155 -0.0266704555 0.4220397178 -0.6739909421 0.4219596979 -0.6730899612 0.0454765213 -0.0265416168
490297060.0 0.0462679557 -0.0265821717 0.4144270536 -0.6779770343 0.4141379274 -0.677962908 0.0451984525 -0.0271718236
495297030.0 0.0452501709 -0.0278500704 0.4079989864 -0.6825779169 0.40743927 -0.682497703 0.0454258378 -0.0278699652
500297000.0 0.0445930289 -0.0277140059 0.3999959224 -0.6867252173 0.4001284923 -0.6870616953 0.0447012598 -0.0277455124
505296970.0 0.0449247203 -0.028186801 0.3931293385 -0.6911739084 0.3925231608 -0.691147593 0.0443108698 -0.0292365709
510296940.0 0.0443713234 -0.028818895 0.3847886908 -0.6965717258 0.3852407582 -0.696249767 0.0439826991 -0.0291388958
515296910.0 0.0436896021 -0.0291546592 0.3769456858 -0.7002204204 0.376598753 -0.6997360902 0.0438324225 -0.0302077016
520296880.0 0.0433962742 -0.0292703014 0.3691855195 -0.7037695897 0.3690032106 -0.70352601 0.0438469466 -0.0297358373
525296850.0 0.0431620514 -0.0301780278 0.361623895 -0.7078552555 0.361187632 -0.7076427798 0.0434686483 -0.0306802748
530296820.0 0.0426031194 -0.0310566049 0.3541922554 -0.7115873117 0.353898187 -0.7118589396 0.0430376081 -0.0315208935
535296790.0 0.0427637852 -0.0312155333 0.3464950451 -0.7156490033 0.3459470377 -0.7159653117 0.0428776864 -0.0312799537
540296760.0 0.0420635894 -0.0312443485 0.3378906995 -0.7193870962 0.3378835175 -0.7198957457 0.0421964185 -0.0325787341
545296730.0 0.0409140964 -0.0318061232 0.3305593036 -0.7232391127 0.3297004923 -0.72295417 0.0418214802 -0.0327056158
550296700.0 0.0414478828 -0.0320819643 0.3224525702 -0.7269145313 0.322341975 -0.7269682163 0.0416971614 -0.0332429908
555296670.0 0.0406705835 -0.032770591 0.3139198561 -0.7307455546 0.3144571855 -0.7302230431 0.0410143734 -0.0340736609
560296640.0 0.0410395164 -0.0330198811 0.3061999241 -0.7336036821 0.3068869656 -0.733863766 0.0405009897 -0.0337800294
565296610.0 0.0398201997 -0.0333927099 0.2987119137 -0.7368657453 0.2986409426 -0.7367910689 0.0402469718 -0.0340945948
570296580.0 0.0393327493 -0.0336958692 0.2898885805 -0.7401679978 0.2902370111 -0.7402056215 0.0396937277 -0.0351490374
575296550.0 0.0389038077 -0.0342769276 0.2824119164 -0.7434475968 0.282299178 -0.7432044104 0.0387936024 -0.0352771499
580296520.0 0.0387897737 -0.0342576977 0.2740384165 -0.7463307064 0.2741413047 -0.7462509854 0.0383030945 -0.0357893923
585296490.0 0.0383746998 -0.0346924097 0.2662293572 -0.7496033598 0.2658909553 -0.7490869256 0.038430218 -0.0356265557
590296460.0 0.0383664742 -0.0347293008 0.257923913 -0.7524096775 0.2576486579 -0.7523794015 0.0375883316 -0.0362077079
595296430.0 0.037864603 -0.0353763111 0.2491185935 -0.7551534356 0.2489499728 -0.75503158 0.0372857484 -0.0370437641
600296400.0 0.0377194581 -0.035840141 0.2407168884 -0.757633931 0.241018319 -0.7575954551 0.0368268906 -0.0375344849
605296370.0 0.0361485948 -0.0354746177 0.2328981782 -0.7600646944 0.2321792114 -0.7606693942 0.0360375208 -0.0375929789
610296340.0 0.0364229599 -0.0357213294 0.2242688692 -0.7622753634 0.2247979935 -0.7623931943 0.0357106396 -0.0376792053
615296310.0 0.036062948 -0.0364610043 0.2159221981 -0.7656730369 0.2156918037 -0.7656152824 0.0353357123 -0.0379677498
620296280.0 0.0348867157 -0.0361242053 0.2070695743 -0.7675882485 0.2074538161 -0.7675563567 0.0343245177 -0.0382661956
625296250.0 0.0345718359 -0.0365441518 0.1988244899 -0.769802197 0.1995332788 -0.7703548506 0.0334286797 -0.0386820225
630296220.0 0.0340634586 -0.0369335252 0.1896185734 -0.7725613523 0.1907741429 -0.7712642407 0.0334932224 -0.0390073513
635296190.0 0.0333274094 -0.0367778438 0.182529391 -0.7741997739 0.1825515758 -0.7735327693 0.0329709137 -0.0392395475
640296160.0 0.0326630396 -0.0370600562 0.173748451 -0.7764924543 0.1740950806 -0.7760684118 0.0322117562 -0.0397301776
645296130.0 0.0329058964 -0.0367243009 0.1653826503 -0.7778434569 0.1654849991 -0.7780286094 0.0313174766 -0.0407241436
650296100.0 0.0322117366 -0.0373573278 0.1570419715 -0.779661817 0.1567998652 -0.7800915888 0.0319750104 -0.0405988606
655296070.0 0.0316011663 -0.0374862694 0.1479276736 -0.7810130306 0.1485371041 -0.7808830483 0.0302770582 -0.0405279704
660296040.0 0.0309604303 -0.0374052898 0.1399566998 -0.7828894777 0.1394686419 -0.7827580453 0.0296424862 -0.0413504359
665296010.0 0.0305772719 -0.0376620714 0.130749651 -0.7841157167 0.1308821988 -0.7839480073 0.0295620191 -0.0411739509
670295980.0 0.029972242 -0.0375758296 0.1222739193 -0.7854984326 0.1222365569 -0.7854751381 0.0280586626 -0.0415649616
675295950.0 0.0295098016 -0.0380080458 0.1136785656 -0.7866118388 0.114062397 -0.786544814 0.0278425507 -0.0413401714
680295920.0 0.0287089695 -0.0378395012 0.1056241666 -0.7878385529 0.1058448811 -0.7879605635 0.0275896944 -0.0422109239
685295890.0 0.0284539262 -0.0378071098 0.0965277362 -0.7895236231 0.0970565408 -0.7894013039 0.0271058476 -0.0416796063
690295860.0 0.0275873947 -0.038007948 0.0883152092 -0.7902103005 0.0879069469 -0.7904863572 0.0261525132 -0.0423397306
695295830.0 0.027252227 -0.0382895709 0.0800486389 -0.7911367719 0.0794606311 -0.7908039033 0.0255719892 -0.0422188548
700295800.0 0.0267670949 -0.0379836132 0.0713889406 -0.7919631021 0.0710236322 -0.7916616299 0.024980297 -0.0422274161
705295770.0 0.0256367896 -0.0383161559 0.0625985013 -0.792893102 0.0626644085 -0.7920775725 0.024301535 -0.0422338307
710295740.0 0.0256633067 -0.0384958388 0.0538701415 -0.7931776505 0.0537138487 -0.7930767029 0.0239623379 -0.0425851392
715295710.0 0.0247978893 -0.0379038093 0.0451578046 -0.7941258703 0.0451701238 -0.7938918952 0.0231033642 -0.042525603
720295680.0 0.0247130592 -0.0381434301 0.0363950045 -0.7941820039 0.036638329 -0.794191127 0.0223182023 -0.0429021024
725295650.0 0.0233027977 -0.0380184624 0.0281058647 -0.7946723157 0.0277310782 -0.794738109 0.0213441347 -0.0426268873
730295620.0 0.0222814735 -0.0384887118 0.0193533339 -0.7943635713 0.0196153973 -0.7942143696 0.0206688629 -0.0424956087
735295590.0 0.0224584563 -0.0385173828 0.0103617309 -0.7948380202 0.0107027622 -0.7943674441 0.0203222454 -0.0430728981
740295560.0 0.0217419661 -0.0387794086 0.0023064677 -0.7952507882 0.0023192869 -0.7948028068 0.0191551797 -0.0424716259
745295530.0 0.0208324262 -0.0382986393 -0.0063219602 -0.7941883778 -0.0056363857 -0.7943057642 0.018050363 -0.0431159755
750295500.0 0.0201257822 -0.0380976396 -0.0148845814 -0.7946050081 -0.01542292 -0.7944273962 0.0178330037 -0.0430153853
755295470.0 0.0194140227 -0.0383780028 -0.0231808279 -0.7947801186 -0.0234286441 -0.7946502431 0.0175916178 -0.0422644379
760295440.0 0.0188514093 -0.0377877921 -0.0331237444 -0.7942941137 -0.0322370671 -0.7935555378 0.0169046313 -0.0437880711
765295410.0 0.0187310688 -0.0382225297 -0.0407320905 -0.7934168877 -0.0405618943 -0.7934986923 0.0160257149 -0.0428966972
770295380.0 0.0177872364 -0.0381278778 -0.0491318019 -0.7927787236 -0.0490316356 -0.7935365113 0.0151683014 -0.0432698052
775295350.0 0.0171277159 -0.038345801 -0.0580659464 -0.7927245099 -0.0571572319 -0.7918942514 0.015101636 -0.0427382492
780295320.0 0.0162152228 -0.0378673211 -0.0664322683 -0.7914421933 -0.0663229196 -0.7918927876 0.0145364334 -0.0431072652
785295290.0 0.0156851072 -0.0382405533 -0.0753363066 -0.7907684488 -0.0747230478 -0.7904414939 0.0128961652 -0.0422377032
790295260.0 0.0153369201 -0.0384472445 -0.0835579588 -0.7905228353 -0.0834905008 -0.7902468264 0.0125923753 -0.0419869732
795295230.0 0.0148060662 -0.0384433843 -0.0927910162 -0.7900396281 -0.0922280446 -0.7896115393 0.011993075 -0.0431983574
800295200.0 0.0135710003 -0.0378577386 -0.1003949811 -0.7876385379 -0.1011209145 -0.7884457691 0.0114295397 -0.0424531873
805295170.0 0.013072802 -0.0379787821 -0.1094025628 -0.7875482148 -0.1092866231 -0.7870147131 0.0111859321 -0.042323588
810295140.0 0.0131044207 -0.037898092 -0.1178608181 -0.7852359672 -0.1180438453 -0.7854141278 0.0104437249 -0.0424852308
815295110.0 0.0118456257 -0.0376289485 -0.1260935097 -0.7845404277 -0.1257655474 -0.7845756103 0.009299803 -0.042509721
820295080.0 0.011462645 -0.0376550784 -0.1339508349 -0.7827112399 -0.1342181876 -0.783019401 0.0080779242 -0.0412089242
825295050.0 0.0103706773 -0.0378784223 -0.1430738091 -0.7817222358 -0.1434498135 -0.7809089111 0.0085369659 -0.0408868832
830295020.0 0.0099715665 -0.0375502076 -0.1517290367 -0.7795395915 -0.1514239043 -0.7796441596 0.00762414 -0.0419934517
