!Created with skrf (http://scikit-rf.org).
# Hz S RI R 50.0 
!freq ReS11 ImS11 ReS21 ImS21 ReS12 ImS12 ReS22 ImS22
300000.0 -0.2331478931 -0.1374965342 0.4662911431 0.0898222917 0.4679972158 0.0869937026 -0.2362648901 -0.1342249122
5299970.0 -0.2417571324 0.0049316668 0.4748142586 0.0062478885 0.4752180982 0.006007053 -0.2442384356 0.0043994025
10299940.0 -0.2386477711 0.0185361771 0.4769929361 0.0068425442 0.47722655 0.0072968267 -0.2408361768 0.0170979401
15299910.0 -0.2336988106 0.028646147 0.4804260623 0.0080079951 0.4809978155 0.0082257753 -0.2369167254 0.0264570894
20299880.0 -0.2285071145 0.0369147745 0.4853817633 0.0083248533 0.4857049728 0.0083426605 -0.2316836129 0.0337733733
25299850.0 -0.2226080478 0.0434344565 0.4906381024 0.0075196216 0.4908784557 0.0072636465 -0.2268506735 0.0400729101
30299820.0 -0.2170368781 0.048735363 0.4963888027 0.0048980245 0.4962785461 0.0048177849 -0.2215995857 0.0449150305
35299790.0 -0.2112641709 0.0529285511 0.5007198355 0.0021834564 0.5014475131 0.0019911731 -0.2167429765 0.0492262734
40299760.0 -0.2062222143 0.0560081809 0.5064502475 -0.00215342 0.506479734 -0.0022201977 -0.2116714903 0.0521854275
45299730.0 -0.2009015193 0.0587804562 0.5107677887 -0.0066865977 0.5113504599 -0.0068330607 -0.2070857228 0.0550039118
50299700.0 -0.1961207187 0.0608964669 0.5152384292 -0.0122275823 0.5152193782 -0.0127332628 -0.2024428962 0.0570611628
55299670.0 -0.1919539738 0.0624893146 0.5186712041 -0.0181190372 0.5189545495 -0.0185407234 -0.1988774132 0.0584351695
60299640.0 -0.1878563452 0.0640626434 0.5223045802 -0.0246599104 0.5222301069 -0.0247059129 -0.1950901489 0.0595090941
65299610.0 -0.1842121437 0.0651190019 0.5254828149 -0.0308003149 0.5254813545 -0.0310698777 -0.1914425331 0.0607490451
70299580.0 -0.1809331996 0.0656048289 0.5274536367 -0.0372820676 0.5281317358 -0.0373853252 -0.1888683448 0.0618426369
75299550.0 -0.1779024895 0.0666681713 0.5294545927 -0.0445636701 0.5298167115 -0.0446501037 -0.1860503521 0.0628859924
80299520.0 -0.1753777168 0.0676490468 0.5315843323 -0.0510335475 0.5316804456 -0.0516114599 -0.1835181006 0.0637313098
85299490.0 -0.1727526339 0.0683519764 0.5328222121 -0.0582034829 0.5329205022 -0.0581475118 -0.1815445754 0.0640757579
90299460.0 -0.170349995 0.0690212647 0.5337780413 -0.0650914227 0.533607837 -0.0650366217 -0.1789151279 0.0649691989
95299430.0 -0.1680175122 0.0696291959 0.5345223719 -0.072008726 0.5348798254 -0.0726129025 -0.1773610497 0.0654320714
100299400.0 -0.1658419002 0.0703126216 0.5347866816 -0.0789276519 0.5348993532 -0.0787449337 -0.1756703013 0.0663946678
105299370.0 -0.1638703573 0.0708068412 0.5347578639 -0.0857372504 0.5359819087 -0.0855266087 -0.1738013129 0.0665470577
110299340.0 -0.1622879233 0.0716506482 0.5352184072 -0.0923462105 0.5355889218 -0.0924482039 -0.1725657654 0.0674282703
115299310.0 -0.1609326438 0.0725809207 0.5353649577 -0.0991815414 0.5354531005 -0.099533467 -0.1711595544 0.0686643699
120299280.0 -0.1594736432 0.0733939751 0.5356550023 -0.106448268 0.5351529235 -0.106526436 -0.1699065802 0.0686101645
125299250.0 -0.1578358777 0.0739422637 0.5344497923 -0.1128888748 0.5348660322 -0.1124804351 -0.1687495972 0.0696799981
130299220.0 -0.1564470412 0.0743701069 0.533985823 -0.1197439706 0.5341784551 -0.1199055294 -0.1674371565 0.0706316225
135299190.0 -0.1553208238 0.0761358778 0.5335676661 -0.1264526191 0.533906049 -0.1265296038 -0.1666924409 0.0709221791
140299160.0 -0.1541766404 0.0765589498 0.532928625 -0.1330004584 0.5326324071 -0.132441281 -0.1661864643 0.0719758601
145299130.0 -0.1534665799 0.0778605916 0.5318410285 -0.1394535736 0.5318680044 -0.1393091978 -0.1646588331 0.0730245386
150299100.0 -0.1521662862 0.0790148575 0.5307453927 -0.1461968309 0.5305179589 -0.1458862253 -0.1638486141 0.0738991353
155299070.0 -0.1509778419 0.0799117959 0.5292415476 -0.1525935538 0.5296183169 -0.1523357329 -0.1630884773 0.0748827327
160299040.0 -0.149837138 0.0812633663 0.5281225559 -0.1590790462 0.5280182093 -0.1590957141 -0.1623799672 0.0758790552
165299010.0 -0.1488622724 0.0822122542 0.5267944578 -0.165055685 0.5269286667 -0.1654508886 -0.1613766129 0.0769378381
170298980.0 -0.1481561797 0.0832598572 0.524857917 -0.1714103789 0.5254386787 -0.171757879 -0.1610292846 0.0778886709
175298950.0 -0.1467196586 0.0848260497 0.5232691457 -0.1780759 0.5239133397 -0.1784033594 -0.1599219008 0.0794779539
180298920.0 -0.1458961504 0.0859900253 0.5218904921 -0.1848230338 0.5218231004 -0.1846737416 -0.1590462359 0.0803022731
185298890.0 -0.1451079898 0.0872190723 0.5201153564 -0.1905057181 0.5200826972 -0.1905839943 -0.1580843421 0.0811674124
190298860.0 -0.143876971 0.0889088626 0.5176248474 -0.1971028916 0.518207405 -0.1966295858 -0.1575989565 0.0824129267
195298830.0 -0.1431305596 0.0900745437 0.5164195173 -0.2026775728 0.516180657 -0.2029702681 -0.1571649803 0.0837354076
200298800.0 -0.1419479366 0.0910635525 0.5142588545 -0.2091875471 0.5142345191 -0.2091943058 -0.1560479618 0.0847747797
205298770.0 -0.1413453954 0.0924853249 0.5118388683 -0.21480018 0.5118936611 -0.2147714257 -0.1550731812 0.0859936387
210298740.0 -0.1401851402 0.093965243 0.5095456378 -0.2205309759 0.509196142 -0.2209517115 -0.1550276503 0.0872063887
215298710.0 -0.1392027641 0.0955784381 0.5067719923 -0.2266232461 0.5074149298 -0.2267831202 -0.1541789051 0.0884000506
220298680.0 -0.1381662039 0.0969309399 0.5042604612 -0.232843478 0.5042535543 -0.2328918468 -0.1531510931 0.0895530084
225298650.0 -0.1372203158 0.0983971106 0.501884496 -0.2384977858 0.5022219161 -0.2379796686 -0.1527024098 0.0904278692
230298620.0 -0.1359977506 0.0996589149 0.4996570646 -0.2442367231 0.4999573937 -0.244600827 -0.1518697298 0.0919715987
235298590.0 -0.1354382552 0.1013637898 0.4971513829 -0.2507444224 0.4972854927 -0.25017427 -0.1510723 0.0933870605
240298560.0 -0.1340909053 0.1028078404 0.4943140937 -0.2555889781 0.4945590239 -0.255448129 -0.1503307649 0.0943936509
245298530.0 -0.1333859128 0.1039387051 0.4917114555 -0.2618247834 0.4917379461 -0.2614503983 -0.1496267085 0.0958667974
250298500.0 -0.1323948416 0.1053209642 0.4891521488 -0.2668863616 0.4889927713 -0.2669491949 -0.1488537953 0.0975741794
255298470.0 -0.1310484599 0.107092482 0.4861005288 -0.2725479975 0.4867651083 -0.2729623266 -0.1479879592 0.099023545
260298440.0 -0.1301134725 0.1085489268 0.4834247212 -0.2775848999 0.4834402756 -0.2778540953 -0.1472667917 0.0998791044
265298410.0 -0.1292828919 0.109979161 0.4800051643 -0.2838679443 0.4800290098 -0.2841902882 -0.1456264398 0.1013258996
270298380.0 -0.1282604561 0.1112856278 0.4764865206 -0.2891855885 0.4772039547 -0.2888842209 -0.1452349418 0.1028113178
275298350.0 -0.126999954 0.1131020251 0.4730001748 -0.2941866567 0.4736666431 -0.2945745434 -0.1441903472 0.1043424268
280298320.0 -0.1262531675 0.114132389 0.4710906701 -0.2995524373 0.4709663349 -0.2996813281 -0.1434268244 0.1055322281
285298290.0 -0.1249871512 0.1159155941 0.4673800603 -0.3052762716 0.4676287488 -0.3049952567 -0.1426315226 0.1069379838
290298260.0 -0.1238446999 0.1173077223 0.4646622134 -0.310314548 0.4641229839 -0.3102959589 -0.1417523334 0.1080097559
295298230.0 -0.1225367796 0.1181776872 0.4608110319 -0.3157648329 0.461060781 -0.3160189528 -0.1407098881 0.1095271196
300298200.0 -0.1213550402 0.1204037905 0.4576451931 -0.3209935745 0.4579374643 -0.3207361599 -0.1399275124 0.1108734048
305298170.0 -0.1199371289 0.1210194829 0.4542253499 -0.3264087534 0.4542626617 -0.3262498233 -0.1386727821 0.1118123924
310298140.0 -0.1186532397 0.1226703917 0.4508128998 -0.3313341514 0.450687426 -0.331277259 -0.1373838729 0.1129658335
315298110.0 -0.1176630501 0.1237418827 0.447031823 -0.3370956385 0.4470377206 -0.3367488567 -0.1365378265 0.1143558663
320298080.0 -0.1163997046 0.1251890338 0.4426707601 -0.3419047334 0.4431514972 -0.3422903466 -0.1355994745 0.1156518597
325298050.0 -0.1157358855 0.1259516869 0.4391131352 -0.3466454141 0.4399021918 -0.346809498 -0.1346079946 0.1168569998
330298020.0 -0.1147735252 0.1276843963 0.4353014789 -0.3519613131 0.435746592 -0.3520914382 -0.1341515813 0.118137738
335297990.0 -0.113426716 0.1288576897 0.4308926373 -0.3563115833 0.4318195577 -0.3567320826 -0.1329370588 0.1193991394
340297960.0 -0.1125470397 0.1301183045 0.4274227052 -0.3611570571 0.4275494308 -0.3615743512 -0.1321748598 0.1209085368
345297930.0 -0.1114016522 0.1316038607 0.4231832119 -0.3665695659 0.4230505778 -0.3661880145 -0.1308906164 0.1220459345
350297900.0 -0.110451201 0.1330091947 0.4195945562 -0.370493461 0.4195423108 -0.3705137827 -0.1302716574 0.1231095324
355297870.0 -0.1087404769 0.1342645156 0.4151199944 -0.3748432288 0.415048973 -0.3747469173 -0.1285816904 0.1250573394
360297840.0 -0.1073370168 0.1358220309 0.4107745913 -0.3797341706 0.411103564 -0.3799843565 -0.1276840442 0.1265052534
365297810.0 -0.1061048141 0.1371612865 0.4065592135 -0.3844219919 0.4068212619 -0.3843215237 -0.1272667309 0.1275828084
370297780.0 -0.1047424784 0.1382932912 0.402040005 -0.3887299843 0.4026482367 -0.3887528011 -0.1256757021 0.129079603
375297750.0 -0.103530154 0.1397099479 0.3983899438 -0.3929574887 0.3983400598 -0.3928583131 -0.1243427425 0.1300685028
380297720.0 -0.102310848 0.1411919101 0.3941010905 -0.3978273963 0.3937158768 -0.3975510673 -0.1230950511 0.1317372062
385297690.0 -0.1008285301 0.1422158455 0.3892958971 -0.4014743659 0.3893863659 -0.4020287188 -0.1216973599 0.1329412919
390297660.0 -0.0989080821 0.143346007 0.3851163234 -0.4057916551 0.3849455575 -0.4058320477 -0.1204683425 0.1339250891
395297630.0 -0.0974614186 0.1446514462 0.380369462 -0.4096725636 0.3805233705 -0.4101735401 -0.119466827 0.1355552868
400297600.0 -0.0962465965 0.1459157734 0.3758200787 -0.4146281938 0.376144752 -0.4143229326 -0.1178874962 0.1371771244
405297570.0 -0.0949656943 0.1464826291 0.3715767146 -0.418172569 0.371746737 -0.4184560177 -0.1168442747 0.1384457839
410297540.0 -0.0932707003 0.1482712546 0.3667896698 -0.4224881285 0.3674283693 -0.4224526227 -0.1155360124 0.1396681924
415297510.0 -0.0920609834 0.1493488101 0.3621767364 -0.4266964467 0.3627900719 -0.427006256 -0.1140988422 0.1410930556
420297480.0 -0.090069466 0.1501624738 0.3576599242 -0.4306515983 0.3579470821 -0.4303365428 -0.1124470966 0.1422932279
425297450.0 -0.0882290634 0.1513041865 0.3529790427 -0.4340697946 0.3528819001 -0.4344825705 -0.1114300467 0.143110405
430297420.0 -0.0868480018 0.1525960522 0.3487465639 -0.4382510438 0.348685342 -0.4377038291 -0.1098175119 0.1444645729
435297390.0 -0.0852699856 0.1531949104 0.3430126265 -0.4424188603 0.3435321405 -0.4421271242 -0.1090479334 0.1462103844
440297360.0 -0.0832947477 0.1542714079 0.3384087511 -0.4457745555 0.3384626124 -0.4460478815 -0.1072895776 0.1474880404
445297330.0 -0.0817342491 0.1550481888 0.3336207945 -0.4493592324 0.3339205906 -0.4495474277 -0.1060841156 0.1483680145
450297300.0 -0.0799051686 0.1563307858 0.3290235148 -0.4528445711 0.3291481952 -0.4527186658 -0.1043016135 0.1494530884
455297270.0 -0.0788146835 0.1573247099 0.3242807893 -0.4564238425 0.3245835063 -0.4566543425 -0.1029624996 0.1506782983
460297240.0 -0.0765384372 0.1584524831 0.3191471026 -0.4605591677 0.3188127231 -0.4601501385 -0.1013924583 0.15162977
465297210.0 -0.0747618485 0.1593300745 0.3133506776 -0.4636571569 0.3133403979 -0.4638259691 -0.0997211781 0.1532389213
470297180.0 -0.0733322656 0.159934972 0.3086939277 -0.4663890996 0.3091815402 -0.4670919391 -0.0983338346 0.154057701
475297150.0 -0.0715888994 0.1611970703 0.3031294882 -0.4703133544 0.304013593 -0.4704889848 -0.0969343775 0.1552457532
480297120.0 -0.0693622964 0.1623629354 0.2983334927 -0.4736818299 0.2988104073 -0.4732209916 -0.0956899814 0.1562753278
485297090.0 -0.0678587957 0.1625369447 0.293254305 -0.4768622937 0.2931155798 -0.4768044721 -0.0940448788 0.1574373238
490297060.0 -0.065302952 0.1639034135 0.2875213413 -0.4802447053 0.2880097456 -0.4802159557 -0.0924479977 0.158318041
495297030.0 -0.0640255336 0.1641710207 0.2829440089 -0.4830034826 0.2830306399 -0.4832434365 -0.0904807397 0.1594855868
500297000.0 -0.0621610092 0.1655730349 0.2776279909 -0.4859036819 0.2773086322 -0.4861611519 -0.0889558523 0.1604267767
505296970.0 -0.059875191 0.166342492 0.2722787805 -0.4892721015 0.2723045934 -0.488581429 -0.0874609174 0.160905291
510296940.0 -0.0581062375 0.1669977189 0.2668928019 -0.4926945625 0.2672392017 -0.4922293125 -0.0856579446 0.1623180011
515296910.0 -0.0564080572 0.1679761714 0.2610824513 -0.4949178991 0.2611288303 -0.4948461018 -0.0841660743 0.1632723337
520296880.0 -0.0543940718 0.1685829941 0.2558570001 -0.4972856886 0.2557064544 -0.4974239173 -0.0823702895 0.1644888726
525296850.0 -0.0524856951 0.169119801 0.2505472222 -0.5001869285 0.2500872494 -0.5001483582 -0.0807578118 0.1651119675
530296820.0 -0.0508264566 0.1698546578 0.2451750718 -0.5029426656 0.2451028195 -0.5028405327 -0.0791827164 0.1658020991
535296790.0 -0.0479945942 0.1705492071 0.2395164959 -0.5051541488 0.2398797667 -0.5057344339 -0.0774224052 0.1671202145
540296760.0 -0.0462242318 0.1714560811 0.2338548232 -0.5080258405 0.2337519902 -0.5079049993 -0.0755888995 0.167637161
545296730.0 -0.0447620336 0.1724939586 0.2285117492 -0.5107522158 0.2281755136 -0.5104271981 -0.073974163 0.1687443952
550296700.0 -0.0420967121 0.17268412 0.2229365474 -0.513082049 0.2227353075 -0.5130057372 -0.0721925207 0.1690809524
555296670.0 -0.0403706453 0.17325408 0.2172287029 -0.5154558319 0.2172862643 -0.515317425 -0.0708755295 0.1700145023
560296640.0 -0.037944875 0.1739963902 0.211524663 -0.5176186991 0.2118778118 -0.5176974201 -0.0692442891 0.1709282716
565296610.0 -0.0366618971 0.1744713404 0.2064642642 -0.5199678325 0.2060215633 -0.519784549 -0.0671118768 0.1720580774
570296580.0 -0.0343194022 0.1754517084 0.2000738739 -0.5222819242 0.2002155621 -0.5221298558 -0.0657480663 0.1723627809
575296550.0 -0.0320044995 0.1755963922 0.1949724072 -0.523970611 0.1944155422 -0.5238383434 -0.0639367488 0.1731614733
580296520.0 -0.0301546783 0.176473294 0.1892420369 -0.5262629521 0.1891688246 -0.5264785632 -0.0624419844 0.1741570404
585296490.0 -0.027755986 0.1770955979 0.1836643746 -0.5282028608 0.1827566126 -0.5282063183 -0.0602546393 0.1750734036
590296460.0 -0.025452599 0.177346863 0.1775805765 -0.5302998799 0.1775892707 -0.5304041228 -0.0590614546 0.1758149685
595296430.0 -0.0235103153 0.1781231232 0.1714312192 -0.5322127832 0.1714490034 -0.5321967136 -0.0570706331 0.1762387994
600296400.0 -0.0215181656 0.1783633019 0.1654696841 -0.5337641414 0.1657032387 -0.5338071441 -0.0551572113 0.1767116
605296370.0 -0.0199738642 0.1789903077 0.160396284 -0.5352487453 0.159749915 -0.535859213 -0.0536774318 0.1776566969
610296340.0 -0.0175470801 0.1796429451 0.1546352608 -0.5369301177 0.1545944104 -0.5369463018 -0.0521632849 0.1784011262
615296310.0 -0.0152136965 0.1800583128 0.1484861168 -0.539108905 0.1482668669 -0.5388594646 -0.0501050419 0.1787950366
620296280.0 -0.0134420709 0.1805584417 0.1424556419 -0.540373253 0.1424074956 -0.5402379336 -0.0485527085 0.1796863563
625296250.0 -0.0116393596 0.1807286302 0.136729841 -0.5417201355 0.1368670467 -0.5416373601 -0.0469572319 0.1798851269
630296220.0 -0.0094663896 0.1812905344 0.1304376384 -0.5432612277 0.1305896845 -0.5430635455 -0.0448427953 0.1806724117
635296190.0 -0.0073059052 0.1817077963 0.1253210996 -0.5445152323 0.1247681643 -0.5444745413 -0.0431521966 0.1813409286
640296160.0 -0.0053389708 0.1818663521 0.1189105227 -0.5458953547 0.1189109926 -0.5459301118 -0.0415722436 0.1818757643
645296130.0 -0.0030602558 0.1826208438 0.1133119314 -0.5472172412 0.1131615781 -0.5468576145 -0.0398136203 0.1818884562
650296100.0 -0.000849849 0.1825039187 0.1074729612 -0.5481965998 0.107048367 -0.5481229139 -0.0372545018 0.1827221778
655296070.0 0.0009593644 0.182877151 0.1011275689 -0.5494795622 0.1008757814 -0.5491772315 -0.0361465372 0.1835152942
660296040.0 0.0028897089 0.1833383834 0.0954356393 -0.550493653 0.0953781812 -0.5504473269 -0.0344897521 0.1835993824
665296010.0 0.0048960836 0.1835964741 0.0890375719 -0.5510142706 0.0891540841 -0.551373912 -0.032295726 0.1844706236
670295980.0 0.0069838989 0.1836445827 0.0833048149 -0.5524325152 0.0833450092 -0.5515741646 -0.0309858172 0.1846879228
675295950.0 0.0091048882 0.1837571244 0.077069666 -0.553180993 0.0774968815 -0.5534059027 -0.0294403359 0.1854119726
680295920.0 0.0108361473 0.1841839673 0.0718144118 -0.5537393964 0.0713611615 -0.5534711612 -0.027043949 0.1851036433
685295890.0 0.0136646066 0.1844452597 0.0652295305 -0.5546589877 0.0654113139 -0.5546536828 -0.0253977063 0.1860842928
690295860.0 0.0152176588 0.184526763 0.0595797831 -0.5551753905 0.0593840899 -0.5554246179 -0.0235024131 0.18632437
695295830.0 0.0174885997 0.1843458323 0.0537991004 -0.5559736967 0.0535132822 -0.5554686679 -0.0219681985 0.1869069809
700295800.0 0.0195450697 0.1847208156 0.0479506979 -0.556182299 0.0476983487 -0.5565527769 -0.0200023328 0.1870027288
705295770.0 0.0210256132 0.1845501293 0.0415715405 -0.5570569229 0.0413724509 -0.5563722973 -0.0179647398 0.1877374754
710295740.0 0.0231494018 0.1843250516 0.0357055228 -0.5570706176 0.0355869793 -0.5575495099 -0.0162277515 0.1881567914
715295710.0 0.0256258952 0.1847961749 0.0295185092 -0.5575378781 0.0293934799 -0.5573118153 -0.0144350201 0.18822774
720295680.0 0.0275712347 0.1845865603 0.0234559624 -0.5577660887 0.0235002793 -0.5580289483 -0.0126548633 0.188461715
725295650.0 0.0290201291 0.1849695473 0.0183162992 -0.5584028355 0.0176277959 -0.5579480587 -0.0110972193 0.1890163244
730295620.0 0.0307569427 0.1844237721 0.011635618 -0.5576849241 0.0116588648 -0.557467429 -0.009329876 0.1894406925
735295590.0 0.0331337226 0.1847548463 0.0056488475 -0.5581804502 0.0056182987 -0.5581786267 -0.0075510876 0.1892971522
740295560.0 0.0347746874 0.1840498772 -0.0002397818 -0.5581165209 -0.0002403237 -0.558236594 -0.0057088436 0.1898731554
745295530.0 0.0369240841 0.1842681568 -0.0061313724 -0.5574820854 -0.0052626479 -0.5577110351 -0.0041466727 0.1896404613
750295500.0 0.0386327957 0.1843347818 -0.0116078767 -0.5581459418 -0.0122486239 -0.5581961095 -0.0021298665 0.190082651
755295470.0 0.0405045954 0.1839235623 -0.01806069 -0.5577998308 -0.0182162911 -0.5583940925 0.0002036047 0.1908324794
760295440.0 0.0426842915 0.1841216787 -0.0247404489 -0.5576967859 -0.0242322443 -0.5573333103 0.0016928659 0.190034
765295410.0 0.0448933345 0.1836466318 -0.0302556545 -0.5570897374 -0.0299547178 -0.5571590792 0.0036272403 0.1904323652
770295380.0 0.0466115252 0.1835876004 -0.0361605016 -0.5562759528 -0.0361503977 -0.5572329735 0.0053201238 0.1905365277
775295350.0 0.0481527603 0.1831270803 -0.0419106254 -0.5562069419 -0.0419867595 -0.5560665465 0.0074666114 0.1907077597
780295320.0 0.0503932912 0.1831685301 -0.0473648632 -0.5557965475 -0.0476381696 -0.5557456091 0.0095292741 0.1909659802
785295290.0 0.0522910875 0.182304342 -0.053783867 -0.5553587929 -0.0539645406 -0.5554507823 0.0104205626 0.1911128052
790295260.0 0.0539469637 0.1817011525 -0.0597269793 -0.5549134574 -0.0595016037 -0.5550802204 0.0125483517 0.1913609635
795295230.0 0.0563289481 0.1816591197 -0.0662555663 -0.5541913017 -0.0659290617 -0.553840852 0.0145960318 0.1907745243
800295200.0 0.0578140189 0.1811588446 -0.0714002193 -0.5525738767 -0.071977107 -0.5533577533 0.0159614697 0.1909203259
805295170.0 0.0595845176 0.1809307577 -0.0778427681 -0.5525910942 -0.0778489216 -0.5526152835 0.0188491002 0.1911129009
810295140.0 0.0618697046 0.1805339384 -0.0833441888 -0.5516352753 -0.083614235 -0.5514263521 0.020470722 0.1911379411
815295110.0 0.063518786 0.1800444461 -0.0893435595 -0.5505531031 -0.0891101766 -0.5508761042 0.0218298171 0.1909754997
820295080.0 0.0652559891 0.1794943364 -0.0946947596 -0.5493190264 -0.0952105101 -0.5497546614 0.0230404341 0.1915333171
825295050.0 0.0669959128 0.1788367209 -0.1009653338 -0.5486328806 -0.1013772682 -0.5485776205 0.0258233385 0.1914166087
830295020.0 0.0688553195 0.1784266626 -0.1067718697 -0.5473700637 -0.1070512976 -0.5473910045 0.0275225386 0.1907425479
