!Created with skrf (http://scikit-rf.org).
# Hz S RI R 50.0 
!freq ReS11 ImS11 ReS21 ImS21 ReS12 ImS12 ReS22 ImS22
300000.0 0.861056776 -0.0019162924 -0.0006875684 -0.0005198631 0.0005153757 0.0007445667 -0.7713637862 -0.1654448304
5299970.0 0.8594868353 -0.0101004922 -9.17834e-05 9.17285e-05 0.0001075923 -0.0002593681 -0.7846782664 -0.0083279267
10299940.0 0.8590615199 -0.019129675 0.0001216933 3.55658e-05 -0.0001426967 -0.0002135061 -0.7882879606 -0.0051125648
15299910.0 0.8578367047 -0.0274824742 -0.0001491788 7.992e-06 -0.000203553 -1.00397e-05 -0.7935136183 -0.0031661743
20299880.0 0.8573763445 -0.0359664594 0.0001458466 7.2626e-06 -2.42566e-05 4.17028e-05 -0.8004756898 0.0014464461
25299850.0 0.8570290536 -0.0437779046 -1.85338e-05 -1.93563e-05 7.35938e-05 3.62004e-05 -0.8065072893 0.0074261503
30299820.0 0.855934174 -0.0521316876 -8.52234e-05 -0.0001505035 0.0001175561 3.91948e-05 -0.8126393948 0.0147608917
35299790.0 0.8554425868 -0.060439692 0.0001894255 0.0001101767 -1.56863e-05 0.0001010514 -0.8181468434 0.0236828747
40299760.0 0.8542068618 -0.0673925301 1.04217e-05 -6.56723e-05 3.04446e-05 -0.0002092676 -0.8215117467 0.0334231175
45299730.0 0.8534038313 -0.0765361744 4.0801e-06 2.56114e-05 0.0001035495 -7.60412e-05 -0.8253239178 0.041999869
50299700.0 0.85258307 -0.08486216 1.36775e-05 -8.94347e-05 -1.30116e-05 -1.68139e-05 -0.8278956349 0.0524999392
55299670.0 0.8512917694 -0.0926248598 8.74729e-05 -2.61439e-05 8.54199e-05 0.0001361669 -0.8298941729 0.0632331541
60299640.0 0.8508107755 -0.1008256115 -0.00017221 0.0001046546 -0.0001700024 -2.529e-06 -0.8309991437 0.0730081972
65299610.0 0.8497117856 -0.1093032899 0.0002943888 5.58243e-05 -0.0002818683 1.1061e-05 -0.831388223 0.0826844102
70299580.0 0.8488681859 -0.1178208509 -5.40232e-05 9.10989e-05 -7.68422e-05 4.65606e-05 -0.8323118417 0.0926870816
75299550.0 0.8472139916 -0.1267953818 5.06017e-05 1.35039e-05 0.0001266124 -0.0001585515 -0.8325779105 0.1025050201
80299520.0 0.8459544211 -0.134417125 0.0001573633 -3.85018e-05 2.73426e-05 -0.0001171078 -0.83241452 0.1120157986
85299490.0 0.8448162665 -0.1427761678 5.51336e-05 -0.0001512667 -4.2474e-05 -5.7029e-06 -0.8321265474 0.1221760387
90299460.0 0.8430999653 -0.1503959663 -0.0001610968 -6.71171e-05 5.46855e-05 -0.0001151982 -0.8308272963 0.1312808626
95299430.0 0.8419953424 -0.1586442728 -2.87268e-05 -3.41084e-05 2.00511e-05 0.0001157259 -0.830421964 0.141488098
100299400.0 0.8401666321 -0.1661942542 4.98114e-05 -4.01545e-05 0.0001442367 -3.12496e-05 -0.8291730691 0.1497735911
105299370.0 0.8385751134 -0.1753737363 0.0001690305 0.0001150755 -0.0002398532 -9.6884e-05 -0.8277971354 0.1591430372
110299340.0 0.836347305 -0.1830971948 6.5738e-06 4.0269e-06 0.0001452294 -6.26239e-05 -0.8267954543 0.1682840565
115299310.0 0.8347846771 -0.192001222 -0.0001767576 -0.0001303618 8.665e-06 7.62091e-05 -0.8245242672 0.1774307467
120299280.0 0.8326071997 -0.1990237703 -0.0002050701 -4.24053e-05 -3.6894e-05 -9.73561e-05 -0.8237406222 0.1858921923
125299250.0 0.8304082449 -0.2080452594 0.0001241374 -0.0001103896 -0.0002618608 -0.0001060593 -0.8218528755 0.1957868099
130299220.0 0.8288766707 -0.2155924933 -0.0002204414 4.9266e-05 0.0001741101 -7.68779e-05 -0.8198802572 0.2047134471
135299190.0 0.8264692558 -0.2236648606 -4.74857e-05 -0.0001132216 5.16547e-05 -7.27083e-05 -0.8180974503 0.2129280862
140299160.0 0.8246981334 -0.2319171859 -9.7078e-06 0.0001983495 5.87221e-05 2.17185e-05 -0.8157300158 0.2215364295
145299130.0 0.8215485419 -0.2392897615 0.000110885 0.0002053806 -7.44629e-05 -5.57151e-05 -0.8137211114 0.2302506429
150299100.0 0.8195094809 -0.2478320136 -1.75329e-05 -1.34549e-05 0.0001734449 9.45156e-05 -0.811878008 0.2387980258
155299070.0 0.8166030479 -0.2560015381 3.93624e-05 -0.0001156489 0.0001748317 0.0002436352 -0.8095077499 0.2474516279
160299040.0 0.8151110179 -0.2636749046 -0.0001156289 -0.000180452 -5.87588e-05 -0.0002149101 -0.807616495 0.2565030593
165299010.0 0.8116416404 -0.271026661 -0.0001432762 -5.0808e-05 0.0001694267 -0.0001058142 -0.8041076731 0.2650939606
170298980.0 0.8093060818 -0.2796381887 -1.27299e-05 -0.00019365 0.0002285323 8.38919e-05 -0.8015769787 0.2738325704
175298950.0 0.8064999509 -0.2865794409 7.5382e-06 5.95203e-05 -0.0001556738 -4.46242e-05 -0.7990968861 0.2817600137
180298920.0 0.8027961663 -0.2946791118 -0.0001870655 -0.0001248932 0.0001285112 5.40666e-05 -0.7959063154 0.2909239343
185298890.0 0.8007113207 -0.3027543038 4.25261e-05 0.0001847314 -0.0001784891 0.0001436872 -0.7934658517 0.2984531386
190298860.0 0.7976977349 -0.3110334142 -0.0002534555 7.14174e-05 9.77531e-05 -2.52139e-05 -0.7900452223 0.3076211699
195298830.0 0.7944751894 -0.3184805509 0.0001216671 9.01473e-05 -0.0001664271 2.60788e-05 -0.7865812212 0.3158198564
200298800.0 0.7912005092 -0.3260557402 -0.0001837933 6.9408e-05 -0.0001169341 6.06402e-05 -0.7835015664 0.3244325377
205298770.0 0.788150981 -0.3339108651 0.0001436252 6.71617e-05 4.19861e-05 -0.0001036605 -0.7801490004 0.3319718519
210298740.0 0.7850251645 -0.3411408218 -7.27307e-05 -3.73415e-05 4.32927e-05 0.0001457313 -0.7763443047 0.3406910059
215298710.0 0.781275203 -0.3485351465 -0.0001175424 -0.0001161667 -0.0001910566 7.35094e-05 -0.7734385177 0.3485465896
220298680.0 0.7786295187 -0.357002004 -0.0001504472 7.16588e-05 -6.51675e-05 -0.00015222 -0.7696835753 0.3568701622
225298650.0 0.7742932533 -0.3640361084 6.76589e-05 0.000113557 7.32859e-05 -0.0001580201 -0.766095536 0.3648577585
230298620.0 0.7707171285 -0.3718375567 6.80657e-05 -5.81309e-05 6.15653e-05 -4.74174e-05 -0.7614021919 0.3734063849
235298590.0 0.7671223055 -0.3792909638 -0.0001271193 -0.0001834105 -1.93763e-05 9.55627e-05 -0.7577079065 0.3807954631
240298560.0 0.7634520646 -0.3872856863 -8.28517e-05 -6.89229e-05 2.88814e-05 5.69138e-05 -0.753972923 0.3885431464
245298530.0 0.7599168235 -0.3937023339 -2.36977e-05 -8.188e-06 8.9186e-05 -6.2456e-05 -0.7501884269 0.3966602538
250298500.0 0.7555831661 -0.4011452645 1.15254e-05 -0.0001079624 0.0001288834 4.14662e-05 -0.7455999325 0.4044978455
255298470.0 0.7514417149 -0.4085157434 4.04382e-05 0.00012725 3.57994e-05 0.0001478354 -0.7410686407 0.4127078715
260298440.0 0.747158818 -0.4152022822 0.0002064662 0.0001356707 3.60677e-05 -4.84456e-05 -0.7368895898 0.4203948538
265298410.0 0.7439474157 -0.4222709069 -0.0002880754 -3.40558e-05 -7.68583e-05 2.41095e-05 -0.7322510986 0.4277738312
270298380.0 0.7397785461 -0.4299422485 -0.0001717906 3.49925e-05 3.48207e-05 -3.73005e-05 -0.7275655172 0.4354097007
275298350.0 0.7357669313 -0.4372274289 8.15023e-05 -4.80942e-05 3.24574e-05 -7.45013e-05 -0.7231210096 0.4434028578
280298320.0 0.7319734123 -0.444429146 2.4075e-05 0.0001288517 -0.0002341511 -2.53919e-05 -0.7184125328 0.4502040424
285298290.0 0.7270259386 -0.4517681954 9.6538e-05 6.70894e-05 -9.53777e-05 1.85599e-05 -0.7131858075 0.4578790414
290298260.0 0.7233593302 -0.4585836946 7.27499e-05 1.62854e-05 -0.0001399298 -7.0649e-06 -0.7087738808 0.4661006929
295298230.0 0.7183835755 -0.4663652591 -0.0001880918 -0.0002487078 -6.95409e-05 0.0001498034 -0.7035281496 0.4730538974
300298200.0 0.7146545594 -0.473637637 1.24955e-05 -5.42469e-05 3.46957e-05 -2.45321e-05 -0.6987340706 0.4799663467
305298170.0 0.7106595256 -0.4798477936 8.58179e-05 -0.0001967537 8.307e-07 0.0001407707 -0.6931453263 0.4879608149
310298140.0 0.7058780519 -0.4879798438 -2.08851e-05 -4.362e-06 -0.000143366 9.95163e-05 -0.6885209724 0.4953641055
315298110.0 0.7004510978 -0.4954451376 -0.0002549422 0.0002174273 -0.0001015377 -0.0001511469 -0.6828219709 0.5022613966
320298080.0 0.6949849356 -0.5030140414 0.0001136527 2.37471e-05 4.91674e-05 -0.0001358568 -0.6774128004 0.5096227959
325298050.0 0.6897751252 -0.5105345045 -0.0001537759 4.57635e-05 -4.135e-06 0.000105536 -0.6719935497 0.5164506705
330298020.0 0.6837000565 -0.5168060981 1.12326e-05 -7.23458e-05 6.19229e-05 -4.10344e-05 -0.6663364854 0.5230091957
335297990.0 0.6784247892 -0.5228176068 4.82808e-05 0.0001265503 2.31144e-05 0.0001007995 -0.6611494559 0.5303174369
340297960.0 0.6727176795 -0.5293758959 -0.0001624496 -4.60272e-05 8.2048e-05 -0.0002597402 -0.6556423633 0.5373100524
345297930.0 0.6666267945 -0.535578196 3.35796e-05 7.23116e-05 -7.80466e-05 8.8251e-05 -0.6497514663 0.5442660192
350297900.0 0.6611440857 -0.5422039341 8.35298e-05 -9.73274e-05 5.79826e-05 -5.89869e-05 -0.6436476778 0.550877764
355297870.0 0.6556440575 -0.548491114 0.0001700219 1.38297e-05 -6.9355e-05 5.04661e-05 -0.6385057055 0.5575981549
360297840.0 0.6505781604 -0.5547481283 0.0002262292 4.81908e-05 8.3175e-06 -4.48633e-05 -0.6323617344 0.5639349294
365297810.0 0.6451869016 -0.5602409379 -9.5312e-05 -1.7464e-05 3.64211e-05 -4.5408e-06 -0.626093697 0.57039746
370297780.0 0.6395049134 -0.5667052357 -0.0001975414 1.478e-05 7.67226e-05 1.86269e-05 -0.620705223 0.5763927054
375297750.0 0.6337183592 -0.5728761056 -5.10643e-05 -0.0001594074 0.0002042395 -5.42898e-05 -0.6142871564 0.5838207979
380297720.0 0.6293286226 -0.5785330227 -0.0001844214 2.8925e-06 -7.92904e-05 -0.00013757 -0.6083669899 0.5908980643
385297690.0 0.6219789868 -0.5848564501 -6.97368e-05 -7.43694e-05 -4.11698e-05 0.0001192348 -0.6020997799 0.5961746202
390297660.0 0.6168908883 -0.5908085164 0.0001492177 3.9616e-06 -6.72447e-05 0.0001381838 -0.5955122897 0.6017369994
395297630.0 0.611113221 -0.5961676341 -4.63761e-05 -4.77468e-05 1.12205e-05 2.72425e-05 -0.588975615 0.6078236843
400297600.0 0.6043402187 -0.6020670653 -2.38608e-05 -7.76299e-05 -0.0001189263 2.26097e-05 -0.5826596564 0.6136776608
405297570.0 0.5990446217 -0.6077395025 0.0001135376 4.80567e-05 6.10474e-05 7.05164e-05 -0.5771465242 0.6203076048
410297540.0 0.5928083029 -0.6135621189 2.82513e-05 0.0001874731 0.0001119016 3.57588e-05 -0.5697489073 0.6254621539
415297510.0 0.587344798 -0.6193246226 0.0001940895 8.1471e-05 0.0001493442 7.26884e-05 -0.5637378258 0.6321678189
420297480.0 0.5807986755 -0.6251058682 6.26065e-05 -0.0001405325 4.64162e-05 -0.0001341386 -0.5566271656 0.6370461818
425297450.0 0.5746417419 -0.6304331558 0.0001102839 1.83179e-05 1.94722e-05 -6.62854e-05 -0.5500874116 0.643383734
430297420.0 0.5679649732 -0.6359275936 -3.5271e-06 -2.18184e-05 4.17053e-05 4.85941e-05 -0.5438871209 0.648708491
435297390.0 0.5626168284 -0.6414235845 2.67611e-05 0.000208408 -0.0001348398 0.0001452977 -0.5369614563 0.6535848356
440297360.0 0.5561521047 -0.6474589548 7.81379e-05 -9.42739e-05 4.67767e-05 -7.48955e-05 -0.5307251968 0.6587679873
445297330.0 0.5497553748 -0.6523019418 -6.55502e-05 -0.000153302 9.05411e-05 -7.34242e-05 -0.5233296164 0.6642346563
450297300.0 0.5430445674 -0.657307992 -3.95374e-05 -1.83867e-05 1.83476e-05 3.0579e-05 -0.5170202478 0.6700208241
455297270.0 0.5359727877 -0.6625343113 0.0001861737 -2.15462e-05 7.21098e-05 -0.00012178 -0.5099512769 0.6749265581
460297240.0 0.5298094444 -0.6677213385 -0.0001257134 -5.82085e-05 -8.32651e-05 -6.48309e-05 -0.5026247283 0.680383511
465297210.0 0.5232136056 -0.6727345568 8.30502e-05 -1.59526e-05 4.53478e-05 -0.0001278805 -0.4962791717 0.6850381304
470297180.0 0.5164323132 -0.6780673954 -4.01087e-05 3.65988e-05 -3.48947e-05 -5.00709e-05 -0.48896717 0.6896546992
475297150.0 0.5100228189 -0.6829092986 3.46849e-05 -1.35829e-05 5.56698e-05 -0.0001070179 -0.481984628 0.6949540426
480297120.0 0.5031484794 -0.687834771 -2.40419e-05 -5.87152e-05 -0.0001051035 -0.0001434543 -0.4750459065 0.7001558074
485297090.0 0.4967840671 -0.6926488117 0.0001755981 0.0002207327 4.0609e-05 -3.05597e-05 -0.4675717833 0.7041915947
490297060.0 0.4898692251 -0.6971361217 -0.0002147582 1.71027e-05 -6.51006e-05 -0.0001363321 -0.4606080395 0.7085219866
495297030.0 0.4827615139 -0.7022998449 0.0001592292 2.6617e-05 0.0001926061 -0.0001624562 -0.4530547 0.7129335025
500297000.0 0.4756766326 -0.7068403156 -8.03524e-05 1.14728e-05 3.84727e-05 -1.51847e-05 -0.4466292359 0.7178743117
505296970.0 0.4685036983 -0.7113116848 -3.64821e-05 -0.0002138912 -3.2352e-06 -1.42409e-05 -0.4399749304 0.7223569004
510296940.0 0.4616217241 -0.7153332378 1.11455e-05 0.0002061561 2.61985e-05 -3.55994e-05 -0.4317667569 0.7264765264
515296910.0 0.4545254163 -0.7201310427 3.21774e-05 6.53148e-05 7.72893e-05 0.0001136626 -0.4243449015 0.7310548817
520296880.0 0.447368392 -0.7242116868 -0.0001494876 -9.31234e-05 -0.0001351554 4.86138e-05 -0.4174577243 0.7347489864
525296850.0 0.4402596728 -0.7288390659 0.0002186344 6.95516e-05 0.0002633903 0.0002599496 -0.4095162679 0.7397446257
530296820.0 0.4326534274 -0.7333508948 -0.0001824818 4.34705e-05 0.0001388033 4.71885e-05 -0.4027387188 0.7428331383
535296790.0 0.4258565171 -0.7366828096 -2.99865e-05 -0.0001004516 -2.24785e-05 -0.0001335916 -0.3954028613 0.7465287237
540296760.0 0.418578326 -0.7413895766 3.012e-06 -7.82949e-05 3.27439e-05 -4.24768e-05 -0.3876029884 0.750867828
545296730.0 0.4112698403 -0.744376553 -4.04184e-05 9.63437e-05 0.0001013641 -0.0001268791 -0.380507589 0.7541575273
550296700.0 0.4038592457 -0.7490049506 0.0001648193 -7.16552e-05 2.96454e-05 -0.0001447349 -0.3727391936 0.7582352472
555296670.0 0.3959798114 -0.7529793172 8.40364e-05 -0.0001586901 -7.90462e-05 -0.000100542 -0.3649807499 0.7620195736
560296640.0 0.3894330138 -0.7569579567 -0.0001023379 7.39445e-05 6.49516e-05 2.51479e-05 -0.3574351219 0.7655692282
565296610.0 0.3811253243 -0.7607179807 3.05833e-05 0.0001224287 -0.0001406867 0.0001202866 -0.3501953621 0.7689193682
570296580.0 0.3741063837 -0.7646199416 -0.0001453943 0.0001203759 -1.57524e-05 0.000104148 -0.3426471054 0.7725852275
575296550.0 0.3662467935 -0.7674830954 3.26394e-05 7.00899e-05 3.80786e-05 -7.01976e-05 -0.3343970736 0.7756922952
580296520.0 0.3592512486 -0.7705661985 -4.80154e-05 6.88388e-05 -0.0001959674 -0.0001426032 -0.3267106764 0.7789252086
585296490.0 0.3507471801 -0.7741848413 3.41638e-05 0.0003238218 -0.0001276032 -0.0001358386 -0.319037744 0.7817628261
590296460.0 0.3435482767 -0.7775607816 -9.29791e-05 5.74037e-05 4.77451e-05 4.45179e-05 -0.3113290688 0.7848691411
595296430.0 0.3361153157 -0.7805105794 -4.01701e-05 2.46731e-05 4.4639e-06 -0.0001809423 -0.3030937329 0.7873306683
600296400.0 0.327586201 -0.783676043 0.0001188315 8.57564e-05 -0.0003264967 -2.24999e-05 -0.2957233982 0.7911636273
605296370.0 0.3205991387 -0.7864763853 2.58028e-05 0.000213185 -8.0974e-05 0.000181413 -0.2882383272 0.7945966195
610296340.0 0.3123068843 -0.7907311711 5.93335e-05 -7.25153e-05 -0.0001033219 -2.43046e-05 -0.2800391679 0.7972361502
615296310.0 0.3047353393 -0.7927030281 -7.36543e-05 -8.04548e-05 0.0001142129 3.00374e-05 -0.2721694117 0.7997723911
620296280.0 0.296935908 -0.7957923445 3.75399e-05 8.08009e-05 -9.5826e-06 6.37441e-05 -0.2647383189 0.8020042572
625296250.0 0.2894553041 -0.7983599893 1.1648e-06 7.26011e-05 7.03465e-05 -0.0001482522 -0.256592822 0.8049715319
630296220.0 0.2812571272 -0.8014141307 -2.53896e-05 -0.0001031066 -0.0001765855 -0.0001558436 -0.2484987592 0.8074083998
635296190.0 0.2730658458 -0.804343581 9.312e-06 3.94244e-05 0.0001523527 0.0001538448 -0.2406920742 0.809619969
640296160.0 0.265211194 -0.8061109572 -2.90261e-05 -9.03449e-05 -0.0002104535 6.11783e-05 -0.2322592267 0.8120055441
645296130.0 0.2573357078 -0.8088095778 0.0001175205 0.0001573465 1.67087e-05 -1.94671e-05 -0.2247446814 0.8141763541
650296100.0 0.2487949189 -0.8108470316 0.0001327984 -0.0002644442 -0.000219913 2.35233e-05 -0.2156751389 0.8163298188
655296070.0 0.2417630903 -0.8134491265 -1.15492e-05 -0.0001551181 -0.0001610541 -9.85104e-05 -0.208283543 0.8179572469
660296040.0 0.2325825471 -0.815126742 -1.58361e-05 0.0001046658 -2.5703e-05 0.0001858656 -0.2001780901 0.8205966566
665296010.0 0.2252084705 -0.8179599423 0.00015811 0.0001451788 -0.0002230911 4.36423e-05 -0.1924033013 0.8227358503
670295980.0 0.217719083 -0.8201251877 -0.0001984343 0.0001047097 4.89424e-05 -0.0001688314 -0.1849258563 0.8239556625
675295950.0 0.2092931271 -0.8219062172 4.81879e-05 8.7588e-06 -4.1463e-06 -0.0001929836 -0.1753859295 0.8261486255
680295920.0 0.2007090655 -0.823690574 0.0001443744 0.00011483 4.06851e-05 0.0001339555 -0.1673876002 0.827656393
685295890.0 0.1928216012 -0.8255095239 8.74552e-05 -9.77055e-05 -7.0406e-05 9.66847e-05 -0.1592681253 0.8290658048
690295860.0 0.1852130683 -0.8272975662 -0.0001102785 8.03027e-05 -2.4966e-05 -0.0002514756 -0.1510654144 0.8309841264
695295830.0 0.1765170639 -0.8288802984 0.0001627911 -2.93757e-05 8.11069e-05 3.0843e-06 -0.143346596 0.832427352
700295800.0 0.1683851671 -0.8305456128 -1.90459e-05 0.0001276127 -5.75154e-05 4.89773e-05 -0.1345632664 0.833201636
705295770.0 0.1602413768 -0.8324249963 6.54218e-05 -2.32098e-05 0.0001984356 0.000103941 -0.1268114351 0.835203678
710295740.0 0.1516872766 -0.8334899695 -0.0001299278 -0.0001836021 1.03225e-05 -0.0001102263 -0.1194062161 0.8362857325
715295710.0 0.1434424749 -0.8343520749 0.0002019073 -3.92828e-05 -7.93464e-05 -3.25854e-05 -0.1103416533 0.8376788561
720295680.0 0.1350796729 -0.8358340689 4.57855e-05 -0.000220998 2.8933e-05 -4.34273e-05 -0.1019834148 0.8385144032
725295650.0 0.1274752884 -0.8367773737 -0.0001594627 -4.61847e-05 -0.0001608591 0.0001017368 -0.0936380052 0.8393722025
730295620.0 0.1190060525 -0.8386409903 2.27157e-05 -9.28196e-05 -0.0001522356 2.63986e-05 -0.0855747892 0.840286365
735295590.0 0.1108487845 -0.838685521 -0.0001677665 -0.0002974557 -2.28039e-05 -5.86436e-05 -0.0765456214 0.840875658
740295560.0 0.1023299612 -0.8405600469 0.0001074416 -0.0002695823 1.908e-05 -0.0001657175 -0.0686517995 0.8414038711
745295530.0 0.0939290172 -0.8413517217 -0.0001829808 0.0001169976 -0.0002414645 6.9106e-05 -0.0603868782 0.8425622193
750295500.0 0.0857738224 -0.8416648877 -0.0003518965 5.04101e-05 -3.96769e-05 -0.0001039801 -0.0518486637 0.8427542811
755295470.0 0.0774698414 -0.8421920555 0.0001037257 0.000108398 1.71887e-05 -0.0001322057 -0.0440691588 0.8437192941
760295440.0 0.0689049669 -0.8422442161 -7.41e-08 0.0001498472 8.94261e-05 1.21811e-05 -0.0356676484 0.8436653541
765295410.0 0.0606428601 -0.8437179005 -5.8313e-06 -4.00128e-05 4.67142e-05 9.51065e-05 -0.0267254655 0.8441947232
770295380.0 0.0516882433 -0.8438528679 0.0001396911 -3.41509e-05 -8.02329e-05 9.37155e-05 -0.0181977805 0.8438667051
775295350.0 0.0434945912 -0.844076256 -0.0001734732 -0.0001213179 0.0001355481 -5.34959e-05 -0.0108333317 0.8440074574
780295320.0 0.0349250974 -0.8451052569 -0.0001420422 -4.40672e-05 -3.31272e-05 6.77574e-05 -0.002011172 0.8446271705
785295290.0 0.0272603992 -0.8443987612 0.00018473 8.30327e-05 -0.0002452587 7.04358e-05 0.0057205818 0.8442755856
790295260.0 0.0189022216 -0.844373238 7.3096e-06 -2.92106e-05 -0.0001253817 9.9573e-06 0.014681351 0.8442351627
795295230.0 0.010351384 -0.8443167138 -0.0001674348 -6.2762e-06 7.99536e-05 3.34869e-05 0.0230153137 0.8443478658
800295200.0 0.0021946742 -0.8439578206 -3.34887e-05 1.62905e-05 -8.0314e-05 -0.0001695308 0.0308659341 0.8434114582
805295170.0 -0.006302119 -0.844235906 5.84398e-05 -0.0002866407 -2.10185e-05 7.32484e-05 0.0386866571 0.8432724507
810295140.0 -0.014248849 -0.8442252293 -1.72789e-05 0.0003695477 9.97468e-05 -9.10259e-05 0.0474407313 0.8439337417
815295110.0 -0.0224743161 -0.8434233338 0.0001367184 3.76388e-05 -0.0001018201 0.0001439573 0.0557177557 0.8427873711
820295080.0 -0.031665836 -0.8434493167 -0.0002251793 -0.0001844267 8.85307e-05 3.04531e-05 0.0641035371 0.8419655136
825295050.0 -0.0397632863 -0.8431077084 3.24928e-05 -0.000101052 1.875e-05 -7.82823e-05 0.0720103576 0.8418048318
830295020.0 -0.0473827155 -0.8419929582 -0.0003359986 4.28164e-05 -9.06687e-05 -1.81668e-05 0.0801802789 0.8404814519
835294990.0 -0.0561071373 -0.841681359 0.0001837555 -0.0002065311 -0.000164117 -1.56871e-05 0.0884228592 0.8398053916
840294960.0 -0.0641407829 -0.8414416276 -0.0001523285 -4.43675e-05 3.5476e-06 -3.58733e-05 0.0969364734 0.8391867039
845294930.0 -0.0721744094 -0.8407857443 -3.51336e-05 0.0001294749 -0.0001313983 5.511e-07 0.1051125868 0.8373698725
850294900.0 -0.0811283272 -0.8393718943 -6.37676e-05 0.0002284703 -5.14054e-05 -4.52878e-05 0.1131136658 0.8370866297
