!Created with skrf (http://scikit-rf.org).
# Hz S RI R 50.0 
!freq ReS11 ImS11 ReS21 ImS21 ReS12 ImS12 ReS22 ImS22
300000.0 -0.240658086 -0.0827782511 0.4727976505 0.055443978 0.4704990996 0.0516242575 -0.2401906139 -0.0906135916
5299970.0 -0.2451785809 0.0063946834 0.4749469747 0.0049409267 0.4751516425 0.0050879273 -0.2416189705 0.0074337804
10299940.0 -0.2419755139 0.0180746263 0.4769933877 0.0058911323 0.4767498656 0.0060903339 -0.2380572829 0.0204489258
15299910.0 -0.2377350274 0.0267718013 0.4804424793 0.0074449505 0.4807177006 0.0075509503 -0.2335829395 0.0300756687
20299880.0 -0.2331780742 0.0340640616 0.4852030131 0.0081619101 0.4854011479 0.0081870965 -0.2281515429 0.0379167547
25299850.0 -0.2278829479 0.0403119904 0.4901392949 0.0071037011 0.4899540917 0.0074124847 -0.2223485081 0.0442848174
30299820.0 -0.2227107671 0.0448158548 0.4955734984 0.0050844509 0.4957904003 0.0049992491 -0.2167137265 0.0498881919
35299790.0 -0.2176612401 0.0492598145 0.5013254787 0.0014271659 0.5011108068 0.001557825 -0.210815558 0.0542698546
40299760.0 -0.2126389625 0.0524359104 0.5058135939 -0.0021401527 0.5064095375 -0.0024168993 -0.205551121 0.0573660518
45299730.0 -0.2079673884 0.054514048 0.5105228232 -0.0072476469 0.5106907035 -0.0065100921 -0.2008843083 0.0601499144
50299700.0 -0.2037975285 0.0567240251 0.5150105262 -0.0124894528 0.5147629617 -0.0118326842 -0.1958133548 0.0619276939
55299670.0 -0.2001036677 0.0582866381 0.5190409765 -0.0189030881 0.5186805451 -0.0184028612 -0.1915573734 0.0638361805
60299640.0 -0.1961096198 0.059893391 0.5218047509 -0.0248657031 0.5221154408 -0.0244973544 -0.1873911042 0.06509638
65299610.0 -0.1930094656 0.0607249468 0.5246841892 -0.030960195 0.5249127425 -0.0308300552 -0.1839831771 0.0661229096
70299580.0 -0.189857863 0.0620981937 0.5270173874 -0.0379509146 0.5271101955 -0.0374243577 -0.1807515393 0.0672753
75299550.0 -0.1869280976 0.0627774022 0.5291964219 -0.0444783105 0.5290360791 -0.0446184131 -0.1779210697 0.0680202307
80299520.0 -0.1847729439 0.0632502095 0.531115095 -0.0512772865 0.5311392076 -0.0513237375 -0.1749030417 0.0693052211
85299490.0 -0.1826442564 0.0637731195 0.5322125105 -0.0578564399 0.5322106687 -0.0579586212 -0.1723715819 0.0695925878
90299460.0 -0.1802882974 0.0646508756 0.5328776722 -0.0650707666 0.5334968441 -0.0648420867 -0.1703169559 0.0703400575
95299430.0 -0.1780725524 0.0652134176 0.5344414691 -0.0720554549 0.5341098743 -0.0719657126 -0.1681852531 0.0712860586
100299400.0 -0.1765118798 0.0663182967 0.5337462418 -0.0789842676 0.5343930055 -0.0787399633 -0.1658336132 0.0715878387
105299370.0 -0.1748664561 0.0666987776 0.5346728677 -0.0858846599 0.5352509669 -0.0858840211 -0.1637683258 0.0727049652
110299340.0 -0.1733487961 0.0671418687 0.5351808715 -0.0923361585 0.5349770579 -0.092277595 -0.1628306304 0.0732314274
115299310.0 -0.1720494875 0.0679863779 0.5348821481 -0.0994888713 0.5349285572 -0.0995938327 -0.1611570955 0.0741192609
120299280.0 -0.1704456982 0.0686142719 0.5344736703 -0.1062865002 0.5347463392 -0.1060722082 -0.1596405901 0.0749226781
125299250.0 -0.1693395277 0.069160379 0.5342552778 -0.1128061573 0.5345191766 -0.112643158 -0.158381753 0.0751426855
130299220.0 -0.1685971874 0.070293236 0.5334411225 -0.119676013 0.5338199688 -0.119537454 -0.1571826903 0.0761712809
135299190.0 -0.1676109232 0.0712350168 0.5333556378 -0.1263616279 0.5330413092 -0.1263550665 -0.155966432 0.0773230284
140299160.0 -0.1666390566 0.0719209429 0.5324352158 -0.1327159631 0.5326141016 -0.1326736186 -0.1548538457 0.0784198558
145299130.0 -0.1656714698 0.0729250235 0.5311854506 -0.1396555334 0.5313690373 -0.1393471004 -0.1538546153 0.0793980508
150299100.0 -0.1646554126 0.0739347548 0.5300759094 -0.1458303866 0.5303134558 -0.145238928 -0.152762807 0.080498282
155299070.0 -0.1641870254 0.0748087896 0.5290858261 -0.1528867763 0.5287161723 -0.1523567733 -0.1517156592 0.0816326769
160299040.0 -0.1629875649 0.0758567572 0.5275112073 -0.1589671661 0.5274697238 -0.1589610879 -0.1513346291 0.0824846564
165299010.0 -0.1623635441 0.0769514387 0.5260204391 -0.1658029649 0.5263763224 -0.165490513 -0.1496858761 0.0838435207
170298980.0 -0.1617132974 0.0779029012 0.5244116256 -0.1714031933 0.5249395017 -0.1719494721 -0.1489967436 0.0846756645
175298950.0 -0.1611240145 0.078911761 0.5238365514 -0.1780671451 0.5229654645 -0.1778661551 -0.1480920121 0.0859473892
180298920.0 -0.160432854 0.0800617461 0.5215060673 -0.1842781019 0.5212154404 -0.1840111303 -0.1469409349 0.0873629724
185298890.0 -0.1589340066 0.0810499243 0.5191820464 -0.1904710281 0.5192183171 -0.1900634713 -0.1459561678 0.0887115046
190298860.0 -0.1586464282 0.082325913 0.5177489455 -0.1963196438 0.517859402 -0.1963096947 -0.1451670402 0.0894916288
195298830.0 -0.1578766224 0.0833159456 0.5155062254 -0.202487698 0.5157742882 -0.2024546916 -0.144101696 0.0911117675
200298800.0 -0.1569639679 0.0847838352 0.5135311868 -0.208967349 0.5133831074 -0.2089390611 -0.1435272304 0.0920831454
205298770.0 -0.1562391186 0.0858509595 0.511086754 -0.2148569955 0.5112077545 -0.2150724489 -0.142404028 0.0928129391
210298740.0 -0.1555578767 0.087187342 0.5088759565 -0.2207423371 0.5090837259 -0.2201171732 -0.1411047496 0.0949853798
215298710.0 -0.1553471454 0.0885076922 0.5065022928 -0.2269291974 0.506576598 -0.2270970123 -0.1404354455 0.0962252179
220298680.0 -0.1541913091 0.0891826467 0.5040074183 -0.2324323222 0.5040283733 -0.2328682634 -0.1395934001 0.0972046905
225298650.0 -0.1533812716 0.0907379146 0.5019255003 -0.2383716798 0.5018761954 -0.2381745707 -0.1391519864 0.098324493
230298620.0 -0.1524548483 0.0921863066 0.4992603196 -0.2439276999 0.499912806 -0.2441736668 -0.1380270002 0.0996407213
235298590.0 -0.1516567878 0.0937317932 0.4965328455 -0.2499964745 0.4965367745 -0.2498636329 -0.1365825059 0.1014993652
240298560.0 -0.1510402888 0.0948513388 0.4937405897 -0.2560696437 0.4940481126 -0.2558049155 -0.135735711 0.1030323496
245298530.0 -0.1504683111 0.096320117 0.4917121101 -0.2614864872 0.4909519492 -0.2616036602 -0.1345367048 0.1037668536
250298500.0 -0.1492149657 0.0976245973 0.4876263825 -0.2672089632 0.4878310157 -0.2667852062 -0.1337344903 0.1056062965
255298470.0 -0.1483977988 0.0984355594 0.4851103677 -0.2721949197 0.4852621134 -0.2721907688 -0.1325718378 0.1065932196
260298440.0 -0.1479622504 0.0999420269 0.4819996229 -0.278360599 0.4826791914 -0.2778526924 -0.1313169782 0.1081479232
265298410.0 -0.1468791413 0.1018365975 0.4792477659 -0.2839114988 0.4796135842 -0.2833865572 -0.1301075694 0.1099677524
270298380.0 -0.1459614302 0.1028902717 0.4765380561 -0.2889349305 0.476820928 -0.28888234 -0.1294700248 0.1113402219
275298350.0 -0.1448414841 0.1041815347 0.4733135423 -0.2944146464 0.4733648802 -0.2942891114 -0.1279370106 0.1123435554
280298320.0 -0.1440505775 0.1058879625 0.4702942193 -0.3002522052 0.4704315303 -0.2998206316 -0.1267220951 0.1138395787
285298290.0 -0.1430673718 0.1074243006 0.466719308 -0.3051549513 0.4667209899 -0.3053581243 -0.1257701606 0.1153563693
290298260.0 -0.1420818609 0.1083824771 0.4633404564 -0.3100866716 0.4637619554 -0.3105675232 -0.1245348631 0.1171651399
295298230.0 -0.1409441774 0.1095089807 0.4604919371 -0.3155207859 0.460220504 -0.3156993794 -0.1229359989 0.1178153579
300298200.0 -0.1402734024 0.110984735 0.4567091097 -0.3206475221 0.457398223 -0.3211307566 -0.121765974 0.1193139105
305298170.0 -0.1391809472 0.1120187291 0.4531271088 -0.3263995496 0.4532579105 -0.3261368701 -0.1200877104 0.1206143797
310298140.0 -0.138083542 0.1135364318 0.4496746127 -0.3316983924 0.449785187 -0.33129837 -0.1194464586 0.1217701702
315298110.0 -0.1372538056 0.1144998306 0.446304404 -0.3362582353 0.4461421237 -0.336700917 -0.1180357264 0.1232724301
320298080.0 -0.1359672243 0.1158833416 0.4420074957 -0.3419508941 0.442263976 -0.3416084007 -0.1171725502 0.1245623749
325298050.0 -0.1353157337 0.1172385697 0.4384331543 -0.3466976243 0.4385399248 -0.3467763064 -0.1159143566 0.1256205353
330298020.0 -0.1343747286 0.1184161624 0.4342614606 -0.3520292277 0.4346720284 -0.351532308 -0.1148662361 0.1271242234
335297990.0 -0.1333124711 0.1197215097 0.430485836 -0.3563008452 0.4303721505 -0.3563781061 -0.1139501105 0.1287902959
340297960.0 -0.1327128498 0.1212542947 0.4259404039 -0.3612174218 0.4259287712 -0.3614680833 -0.1119668724 0.1301751316
345297930.0 -0.1314777089 0.122748202 0.4218991651 -0.3663702889 0.4219240772 -0.3661862979 -0.1107257333 0.1309579487
350297900.0 -0.1305163553 0.123887958 0.4177003737 -0.3708873201 0.4177548854 -0.3706551701 -0.1098958645 0.1327686431
355297870.0 -0.1291685112 0.1257366181 0.4139471414 -0.3751420751 0.4138827681 -0.375412877 -0.1086877021 0.1338499675
360297840.0 -0.1284330955 0.1267906488 0.41026596 -0.3794127442 0.4103116243 -0.3795787549 -0.1072687146 0.1353186543
365297810.0 -0.127266265 0.1283883464 0.4057107659 -0.3845638649 0.4058320165 -0.3842274015 -0.1057901572 0.1365440843
370297780.0 -0.1259532507 0.1297111379 0.4010904453 -0.3886565337 0.4014469469 -0.3882647997 -0.1041586948 0.1379680117
375297750.0 -0.124379241 0.1311426514 0.3970910535 -0.3929500041 0.3976305219 -0.3931539053 -0.1028301184 0.1391481156
380297720.0 -0.1232531093 0.1322324359 0.3924968655 -0.3978275809 0.3928101912 -0.3967883806 -0.101598456 0.1403446015
385297690.0 -0.1224030347 0.1334249179 0.3881341447 -0.4017151131 0.3881621904 -0.4013457697 -0.0997831959 0.1417955607
390297660.0 -0.1213486124 0.135085507 0.3839844892 -0.4060769995 0.383971263 -0.4051143172 -0.0985627287 0.1428338975
395297630.0 -0.1197433274 0.1361987037 0.3792467744 -0.4098898711 0.3795185551 -0.4100839295 -0.0961628867 0.1443656477
400297600.0 -0.118605175 0.1376064102 0.374815607 -0.4145369561 0.3749423242 -0.4145625517 -0.0951436415 0.1454429935
405297570.0 -0.1178485213 0.1388565436 0.3701160848 -0.4183147363 0.3704926536 -0.4179782521 -0.0938550159 0.1463909033
410297540.0 -0.1160771954 0.1399292095 0.3657806144 -0.4223662783 0.3663050904 -0.4224924758 -0.0921593967 0.1479642356
415297510.0 -0.1147725049 0.1409502311 0.3609991517 -0.4263831962 0.3611964117 -0.426513794 -0.0900635931 0.1491890202
420297480.0 -0.1136510946 0.1429345426 0.3562520322 -0.4303499253 0.3559660546 -0.4303568163 -0.0890195882 0.1498972115
425297450.0 -0.1122347043 0.1435474337 0.3516949684 -0.4340539226 0.3519217173 -0.434341177 -0.0873900915 0.1515589204
430297420.0 -0.1109549529 0.1445663329 0.3469307078 -0.4375168756 0.3469071947 -0.4375619483 -0.0858572949 0.1524851533
435297390.0 -0.1095827782 0.1460182168 0.3416881226 -0.4414090073 0.3422071927 -0.4416092235 -0.0835350078 0.1535215649
440297360.0 -0.1079761509 0.1474391841 0.3370510765 -0.4454731024 0.3374948161 -0.4453454823 -0.0822183198 0.1546374188
445297330.0 -0.1068826201 0.1483007702 0.3328123924 -0.4488985769 0.3323806173 -0.4488767218 -0.0802498254 0.1555841794
450297300.0 -0.1051271593 0.1494271896 0.3270937489 -0.4524954994 0.3273125089 -0.4527267769 -0.0789352438 0.1563635168
455297270.0 -0.1038454351 0.1506142772 0.32245035 -0.456045446 0.322729038 -0.4562759705 -0.0773445487 0.1576099597
460297240.0 -0.10262287 0.1517930351 0.3173268066 -0.4595870601 0.3175696702 -0.4599196041 -0.075403706 0.1588766382
465297210.0 -0.100877901 0.1532715695 0.3124963865 -0.4635005917 0.3127701483 -0.4638243162 -0.0735453706 0.159478019
470297180.0 -0.0992125014 0.1540306567 0.3070415529 -0.466404005 0.3073197084 -0.4665820785 -0.0719025562 0.1607931419
475297150.0 -0.0979449171 0.1549759916 0.3017310009 -0.4689673396 0.3022949365 -0.4694938387 -0.0699914444 0.1611650152
480297120.0 -0.0964781129 0.1564286863 0.2968249534 -0.4732717194 0.2970494751 -0.4730933794 -0.0679850003 0.1625525124
485297090.0 -0.0952277282 0.1576492334 0.2919103069 -0.4760174148 0.2919584281 -0.476120922 -0.0664809952 0.1632080919
490297060.0 -0.0939034861 0.1584204922 0.2869933968 -0.4794088413 0.2868276612 -0.4790083801 -0.0644620754 0.1642218569
495297030.0 -0.0920313387 0.1595695037 0.281100963 -0.4823859694 0.2821186205 -0.4823563531 -0.0629884605 0.1651425353
500297000.0 -0.0904363089 0.1604177024 0.2758877668 -0.4847919017 0.2758332693 -0.4851772454 -0.0611042559 0.166646824
505296970.0 -0.088817675 0.1615254309 0.2709235947 -0.4880319951 0.270782301 -0.4880929093 -0.0596490869 0.1669209774
510296940.0 -0.087416082 0.162532406 0.2655410768 -0.4916286691 0.2651387981 -0.491380351 -0.0572238737 0.1678919934
515296910.0 -0.0855322531 0.1634634619 0.2597224199 -0.4943070855 0.2597850477 -0.4938608853 -0.0555762553 0.1684281218
520296880.0 -0.0844136193 0.1644964349 0.2547006588 -0.4973905857 0.2551009522 -0.4964257841 -0.0538917258 0.1690068991
525296850.0 -0.0826428032 0.1649714503 0.2490438945 -0.4993682594 0.2497475644 -0.4990783457 -0.0522638313 0.1700217961
530296820.0 -0.0808609265 0.1663747584 0.2437822605 -0.5022060538 0.2439326479 -0.5022054267 -0.0500147856 0.1707877025
535296790.0 -0.0794549219 0.167197648 0.2385314571 -0.5048952928 0.2383418148 -0.5042377045 -0.0483243 0.1711083238
540296760.0 -0.0781595388 0.1682655586 0.2329398225 -0.5074352752 0.2327431972 -0.507336803 -0.0465048171 0.1722425291
545296730.0 -0.0761875437 0.1691088931 0.2269176129 -0.5094688665 0.227614101 -0.509589096 -0.0448002479 0.1725562298
550296700.0 -0.0743009975 0.170073074 0.2217239958 -0.5123255767 0.2221357435 -0.5125582702 -0.0428684336 0.1733552923
555296670.0 -0.0730666639 0.1706052895 0.2165828974 -0.514409846 0.2163792551 -0.5142877486 -0.0405828123 0.1743557551
560296640.0 -0.0711867163 0.1719395885 0.2107666481 -0.5174586516 0.2110129821 -0.5169178496 -0.0388672598 0.1744104308
565296610.0 -0.0700165036 0.1723447248 0.2050436956 -0.5190345468 0.2052527559 -0.5190297892 -0.0366606334 0.1749821496
570296580.0 -0.0679973073 0.1731949879 0.1992232624 -0.5217875014 0.1992751974 -0.5216278495 -0.0349500065 0.1761844491
575296550.0 -0.0663177718 0.1743988548 0.1935188508 -0.5239379145 0.1936570418 -0.5233968205 -0.0325933387 0.1762502029
580296520.0 -0.0645666811 0.1748399568 0.1882934588 -0.5258010238 0.1879803199 -0.5254714106 -0.0307575489 0.1765850164
585296490.0 -0.0632884585 0.1755966677 0.1822277019 -0.5270571009 0.1830240395 -0.5275540131 -0.028817976 0.1774422059
590296460.0 -0.0611339496 0.1762349838 0.1767070821 -0.528869193 0.1767613462 -0.5289511024 -0.0272413971 0.1778604322
595296430.0 -0.0594973576 0.1771101953 0.1707348815 -0.5315045585 0.1708305571 -0.5311198071 -0.0249087221 0.1778526673
600296400.0 -0.0579671754 0.1778865119 0.1650520524 -0.5329710974 0.1654237719 -0.5325754087 -0.0232726873 0.1785552212
605296370.0 -0.0562576095 0.1783868625 0.1591105064 -0.5345513973 0.1595404451 -0.5349109075 -0.020972243 0.1790733544
610296340.0 -0.0543942916 0.1791780507 0.1530165456 -0.5362859339 0.1536602352 -0.5368863386 -0.0185113162 0.1794523477
615296310.0 -0.0525993812 0.1798329909 0.1476272739 -0.5377441493 0.1476008782 -0.538223436 -0.0165335483 0.1797447383
620296280.0 -0.0507137844 0.1802633393 0.1417130294 -0.5396535991 0.1418066632 -0.5392998814 -0.0150602418 0.1800630352
625296250.0 -0.0494605622 0.1807814547 0.1361304766 -0.5412287513 0.1360652856 -0.5413796582 -0.0124171007 0.1805465854
630296220.0 -0.046877286 0.1818603015 0.1294853135 -0.5423447593 0.129857018 -0.5425398176 -0.0110310779 0.1810153764
635296190.0 -0.0461528059 0.1819799809 0.1242040331 -0.54375479 0.1243079958 -0.5434205116 -0.0091571726 0.1811674676
640296160.0 -0.0443001196 0.1825842608 0.1184908152 -0.5448375494 0.1188429897 -0.5448524097 -0.006816926 0.1814755129
645296130.0 -0.0420255114 0.1837881607 0.1121609701 -0.5458778771 0.1125943063 -0.5463667343 -0.0047233123 0.1820133771
650296100.0 -0.0401471014 0.183879497 0.1065618455 -0.5470594703 0.1064322012 -0.5475903653 -0.0025391075 0.1815923617
655296070.0 -0.0386497544 0.1846039898 0.1007152013 -0.548345665 0.100825375 -0.5485772259 -0.0005229841 0.1820410759
660296040.0 -0.0373084216 0.1846919458 0.0949032651 -0.5493742759 0.0947941564 -0.5493606693 0.0015221948 0.1821924413
665296010.0 -0.0348387547 0.1852809838 0.0882492004 -0.5501681647 0.0887982246 -0.5502054862 0.0034278872 0.1828422105
670295980.0 -0.0336949145 0.1858505147 0.0827549745 -0.5511876912 0.0829764146 -0.5513911965 0.0049786 0.1826755775
675295950.0 -0.0318045752 0.1864306299 0.0771673862 -0.5514397492 0.0771885943 -0.5516841176 0.0070736625 0.1827758495
680295920.0 -0.0298171534 0.1868891727 0.0710162613 -0.5526199655 0.0706359619 -0.5532135502 0.0092204356 0.1833966495
685295890.0 -0.0278844131 0.187733867 0.0649159438 -0.5534970547 0.064611895 -0.5536203385 0.0110646147 0.1829315423
690295860.0 -0.0260251975 0.1876007249 0.0588395736 -0.5537351205 0.059193938 -0.554263583 0.013014967 0.1832446091
695295830.0 -0.0243425742 0.1880839 0.0533709239 -0.5541058778 0.0528011991 -0.5547290497 0.0152539098 0.1832592176
700295800.0 -0.0226403132 0.1880934366 0.0466428313 -0.5548424703 0.0469471614 -0.5548520071 0.0170094923 0.1834905157
705295770.0 -0.0211332235 0.1891723926 0.0407535573 -0.5555983874 0.0412423353 -0.5558564069 0.0189586907 0.1833334382
710295740.0 -0.0187456804 0.1892420153 0.0349657504 -0.5563221273 0.0356079877 -0.5566650372 0.0212054604 0.1825657591
715295710.0 -0.0173103659 0.1894282069 0.0291545535 -0.556637577 0.0286695366 -0.5564137737 0.023220353 0.1825433306
720295680.0 -0.0154719913 0.1899867291 0.0228588461 -0.5571048141 0.0233644194 -0.556813617 0.0253915217 0.1830831807
725295650.0 -0.0133926062 0.1900628676 0.0172080301 -0.5568150417 0.0173372617 -0.5569970431 0.0268430039 0.1827417287
730295620.0 -0.0113784931 0.1905625858 0.0109903463 -0.5568469287 0.0115093786 -0.5567519147 0.0287576307 0.1821218229
735295590.0 -0.0097982463 0.1909844676 0.0054024973 -0.5573222374 0.0054384509 -0.5567442744 0.0308835127 0.1817481216
740295560.0 -0.0085265058 0.1910412992 -0.0007873235 -0.557203579 -0.0010714742 -0.5573340685 0.0335944451 0.1821350191
745295530.0 -0.0061761019 0.1914858638 -0.0069814598 -0.5566442044 -0.006857428 -0.5569120948 0.0354103606 0.1815005201
750295500.0 -0.0041364731 0.1914430315 -0.0131414473 -0.5564865911 -0.012695832 -0.5569319835 0.0376963626 0.1814383432
755295470.0 -0.002216463 0.1912560006 -0.0188699128 -0.5567500836 -0.018932249 -0.5566086568 0.039585099 0.18099478
760295440.0 -0.0007738665 0.1918505423 -0.0243099704 -0.5566574191 -0.0246695803 -0.5569257376 0.0414652751 0.1807854705
765295410.0 0.0012964428 0.1920433099 -0.0308201214 -0.555974433 -0.0314475265 -0.556466066 0.0436229344 0.1807919146
770295380.0 0.0030606272 0.1919176148 -0.0371542165 -0.5556604225 -0.0372474342 -0.5552531371 0.0456314529 0.1800802423
775295350.0 0.0047467958 0.1915720245 -0.0428608589 -0.5549412081 -0.0424297889 -0.5550912196 0.0470352635 0.1800258148
780295320.0 0.0069494261 0.1920828643 -0.0484695838 -0.5543830618 -0.0481733846 -0.5541586097 0.049164545 0.1792376888
785295290.0 0.0082663764 0.1918974691 -0.0547574655 -0.5537421349 -0.0545411201 -0.5540365158 0.0519589834 0.1793489129
790295260.0 0.011024666 0.1924120172 -0.0605981104 -0.5533306394 -0.0597922604 -0.5533427687 0.0536450037 0.1788563835
795295230.0 0.0123891167 0.1921289825 -0.0668744606 -0.552395415 -0.0664966583 -0.5526229318 0.0559046606 0.1787017196
800295200.0 0.0140361373 0.1925077948 -0.0730123841 -0.5517322204 -0.072304788 -0.5517646042 0.0578225727 0.1780981625
805295170.0 0.0161590865 0.1923292119 -0.078568686 -0.5506463671 -0.078634817 -0.5511902785 0.0593697425 0.1778789328
810295140.0 0.0180238917 0.1919116366 -0.0840758318 -0.5498427415 -0.0841638551 -0.5502574804 0.0621678927 0.1776924788
815295110.0 0.019902937 0.1917575335 -0.0904879279 -0.548650449 -0.0901521625 -0.5489715377 0.0637376286 0.1768604674
820295080.0 0.0216892325 0.1923025304 -0.0961386836 -0.5476015268 -0.0956570152 -0.5479408203 0.0655822257 0.176087159
825295050.0 0.0240637779 0.192155256 -0.101949114 -0.5465634456 -0.1021249905 -0.5472347471 0.0675902545 0.1757171216
830295020.0 0.0255451067 0.1920967221 -0.1083972387 -0.5453003837 -0.1077922966 -0.5456876651 0.0702081512 0.1750336798
