!Created with skrf (http://scikit-rf.org).
# Hz S RI R 50.0 
!freq ReS11 ImS11 ReS21 ImS21 ReS12 ImS12 ReS22 ImS22
300000.0 -0.0979856056 -0.0872602339 0.6240005821 0.0808732093 0.6251368616 0.0851927399 -0.0974682012 -0.0944204624
5299970.0 -0.1003718616 0.012748169 0.6306239276 0.01052626 0.6307963543 0.0111702347 -0.101860185 0.0117890359
10299940.0 -0.0954349955 0.0298206138 0.6345151802 0.0154741966 0.6343902813 0.0158200758 -0.0969815841 0.028926399
15299910.0 -0.08845066 0.0432557008 0.640379311 0.0203891447 0.6402063982 0.0208966591 -0.0901052451 0.0420248201
20299880.0 -0.0794104832 0.054095011 0.6485586007 0.0241449396 0.6489754007 0.0240698697 -0.0818808417 0.0533184581
25299850.0 -0.0695491051 0.0626366965 0.6577687439 0.0249547133 0.6580536467 0.0247570746 -0.072227288 0.0620757316
30299820.0 -0.0595179894 0.069226176 0.6681094186 0.024652024 0.6672204412 0.024563757 -0.0623636204 0.0687515033
35299790.0 -0.0494524873 0.074099337 0.677537256 0.0216133714 0.6775859152 0.0217272611 -0.0523614374 0.0734099188
40299760.0 -0.0396329678 0.0771383452 0.6870145363 0.0175722997 0.686946705 0.0175875211 -0.0432578645 0.0773823473
45299730.0 -0.0304410351 0.0792550657 0.6957873504 0.0118698506 0.6957235695 0.012257263 -0.0340213023 0.0792027825
50299700.0 -0.0215130002 0.0797065768 0.703490197 0.0046992487 0.7035873502 0.0044991807 -0.0252402728 0.0801548842
55299670.0 -0.0143874707 0.0800139932 0.7110020022 -0.0032245193 0.7110940355 -0.0028906977 -0.0177330331 0.0800318387
60299640.0 -0.0065165243 0.0789841217 0.7172746779 -0.0117932251 0.7177124722 -0.0115027276 -0.0102152935 0.0796240871
65299610.0 -0.0004164385 0.0779734767 0.7234604459 -0.0194486318 0.7238451551 -0.0197718342 -0.0036962777 0.0789070732
70299580.0 0.0061600958 0.0756784602 0.7288711914 -0.0292014052 0.7283300592 -0.029178955 0.002320695 0.0772405744
75299550.0 0.0117436221 0.0742748047 0.7331378184 -0.0388661598 0.7328469787 -0.0392895855 0.0083906206 0.075651202
80299520.0 0.01626896 0.0719690467 0.7375821598 -0.0490217041 0.738013448 -0.0489266982 0.0132156845 0.0728229781
85299490.0 0.0208165294 0.0693654044 0.7409321333 -0.0591173515 0.740438945 -0.0586202442 0.0174994862 0.0709410299
90299460.0 0.0246420528 0.0672459881 0.7437264964 -0.0688577348 0.7435592117 -0.0689667684 0.0218635741 0.0688922645
95299430.0 0.0281122688 0.0651871614 0.7462896942 -0.0792898486 0.7458786558 -0.0787624628 0.0252863491 0.0663969731
100299400.0 0.0314277681 0.0624785021 0.7474044646 -0.0893748191 0.7471788377 -0.0894434446 0.0284408796 0.0640033412
105299370.0 0.0348393931 0.06008979 0.7486457272 -0.0990845387 0.7488091177 -0.0993217143 0.0318107481 0.0617387815
110299340.0 0.0369031778 0.0578084962 0.7501958887 -0.1088999331 0.7500382801 -0.1096660136 0.0347090601 0.0593268088
115299310.0 0.0396457364 0.055010476 0.7509775849 -0.1187531512 0.7510930239 -0.1192848186 0.0371348136 0.0563879495
120299280.0 0.0412604797 0.0528880978 0.7518717982 -0.1294837338 0.7512999223 -0.1295366324 0.0388913394 0.0544441305
125299250.0 0.0431144834 0.0502600956 0.7516419752 -0.1393384271 0.7516365271 -0.1393121555 0.0410069313 0.0514756115
130299220.0 0.0451245759 0.048025003 0.7520104252 -0.1490533281 0.7519134581 -0.1495802354 0.0432990793 0.0495613958
135299190.0 0.0468286143 0.045475059 0.7515411332 -0.1587779224 0.7505598814 -0.1588870621 0.0445716521 0.0474882378
140299160.0 0.0477782229 0.0442787735 0.7507733651 -0.1686646741 0.7512936351 -0.1690351239 0.0462387578 0.0453660395
145299130.0 0.0492397684 0.0419538786 0.750293707 -0.1786348774 0.7499978301 -0.1780411048 0.0470635661 0.0426793369
150299100.0 0.0505727048 0.039734638 0.7489955596 -0.1883867027 0.7491183499 -0.188119831 0.0486038622 0.0407021983
155299070.0 0.051158975 0.0382588251 0.7481121366 -0.1985595228 0.747805008 -0.1980974968 0.0493905387 0.0387182415
160299040.0 0.0523413318 0.0359901278 0.7463820537 -0.2069089143 0.746241624 -0.2075598087 0.050644632 0.0373007564
165299010.0 0.0529319924 0.0344040439 0.7454117732 -0.2168594391 0.7447861237 -0.2169296146 0.0514763353 0.0348503189
170298980.0 0.0535216238 0.0326010802 0.742238792 -0.2263243903 0.742723782 -0.2260532134 0.0524883562 0.0327947526
175298950.0 0.0543644149 0.0306682344 0.7415003077 -0.2353003904 0.7412417265 -0.2352691763 0.0532434901 0.0311937955
180298920.0 0.0550387272 0.0293404699 0.7392277645 -0.2444812711 0.738779149 -0.2443531903 0.0535636391 0.0299103216
185298890.0 0.0559531618 0.0275087573 0.7367798448 -0.254042952 0.7368182665 -0.2536628347 0.0540690774 0.027558758
190298860.0 0.0561521358 0.0260750833 0.7342805966 -0.2628629795 0.7348947791 -0.2628462699 0.0555157739 0.0259989266
195298830.0 0.0563607933 0.0240448348 0.7321267602 -0.2716843697 0.7319487256 -0.2721728689 0.0558974469 0.0241829329
200298800.0 0.0569903879 0.0229174582 0.7298542706 -0.2804568268 0.7290171845 -0.2803822642 0.0560831876 0.0231717124
205298770.0 0.0570806885 0.0214151561 0.726945888 -0.2895359775 0.7265007216 -0.2895691879 0.0565671129 0.0207250547
210298740.0 0.0572446565 0.0197163887 0.7238979165 -0.2987589698 0.7234150303 -0.2987551922 0.0568274086 0.0198869375
215298710.0 0.057813182 0.0185391429 0.721019242 -0.3073023436 0.7205099453 -0.3071702054 0.0568539795 0.0180968691
220298680.0 0.0583143723 0.0170773262 0.7172342344 -0.3165868522 0.7173199088 -0.3156508181 0.0574804231 0.017142431
225298650.0 0.0583251515 0.0162475986 0.7136374094 -0.3239034925 0.7135886361 -0.3243500166 0.0577289371 0.0157648337
230298620.0 0.0580354813 0.0149911259 0.7112639792 -0.3327586802 0.7113865407 -0.3329972852 0.0578260829 0.0141149758
235298590.0 0.0584268717 0.0132372581 0.7074326036 -0.3410621243 0.7076458995 -0.3414137621 0.0578440103 0.0127297169
240298560.0 0.0582656515 0.0120758238 0.703525924 -0.3494819627 0.70389831 -0.3494765435 0.0580214526 0.0117693777
245298530.0 0.0587865818 0.0112253368 0.6991597164 -0.3579044455 0.6995404978 -0.3582024467 0.0580315511 0.0103363021
250298500.0 0.0584572473 0.0096515458 0.6960800021 -0.3655063976 0.6961501434 -0.3657952981 0.0589163589 0.00885725
255298470.0 0.0583072439 0.0088279633 0.6922638906 -0.3746796103 0.6922409028 -0.3740382736 0.0588234831 0.0077757299
260298440.0 0.0582771648 0.0076754981 0.6881396122 -0.3818863874 0.688190046 -0.382655727 0.0594807563 0.0069559494
265298410.0 0.0590094307 0.0067963458 0.6840253325 -0.3909260104 0.683620043 -0.3905962201 0.0585840328 0.005252304
270298380.0 0.05923425 0.0056958199 0.6791410093 -0.3984656345 0.6798259163 -0.3983691423 0.0591438813 0.004890717
275298350.0 0.0582725499 0.0047370943 0.6753670498 -0.4069785415 0.6755970676 -0.4066675924 0.0589437334 0.003519436
280298320.0 0.0587599669 0.0040208596 0.6711734897 -0.4140797774 0.6710494669 -0.4143106112 0.0593412218 0.0027449279
285298290.0 0.0589853138 0.0031436631 0.6665361246 -0.4219395575 0.6660757242 -0.42252083 0.0588674273 0.0013221331
290298260.0 0.0587885975 0.001762158 0.6622055713 -0.4298354513 0.6617753553 -0.4296073292 0.0594116611 0.0004411509
295298230.0 0.0586745869 0.0006652355 0.6577552013 -0.437883333 0.6575641582 -0.4375041389 0.0598986219 -0.000467473
300298200.0 0.0591827121 6.3206e-05 0.652940936 -0.4447656333 0.6531368209 -0.4454960865 0.0591753759 -0.0013890196
305298170.0 0.059015675 -0.001398118 0.6484686719 -0.4530354781 0.6484853123 -0.4530467823 0.0598190736 -0.0021685712
310298140.0 0.0594868225 -0.00252932 0.6438278678 -0.4608328412 0.6433707017 -0.4613014833 0.0596960967 -0.0030301759
315298110.0 0.0585897172 -0.0035444414 0.638191247 -0.4683587601 0.6387218368 -0.4684325528 0.0599743007 -0.004870614
320298080.0 0.0585080716 -0.0043664383 0.633001569 -0.4757595432 0.6336681143 -0.4759050631 0.0594071813 -0.0058735597
325298050.0 0.0582657683 -0.0058809274 0.6282617473 -0.4835942533 0.6283014698 -0.4839092228 0.0590760537 -0.007053889
330298020.0 0.0578922449 -0.0066470527 0.6219040454 -0.4907810238 0.6216478628 -0.4908148378 0.0583603032 -0.0081480816
335297990.0 0.0576034649 -0.007903004 0.616864176 -0.4979768451 0.6163095732 -0.4979870446 0.0582754216 -0.0089071194
340297960.0 0.0564006239 -0.0081235492 0.6102898674 -0.5046962968 0.6105839599 -0.5044257616 0.0574848234 -0.0097049006
345297930.0 0.0562183424 -0.00858465 0.6047157678 -0.5104665622 0.6045006475 -0.5113539382 0.0575999406 -0.0108131514
350297900.0 0.0564381784 -0.0093950161 0.5989234631 -0.5174578964 0.5991692391 -0.5181246257 0.0567722454 -0.0108946169
355297870.0 0.0559445577 -0.0102648278 0.593477802 -0.5249278971 0.5929596514 -0.5252589516 0.056487664 -0.0114788356
360297840.0 0.0557761518 -0.0108686032 0.5873509035 -0.5314761751 0.5872545157 -0.5313126535 0.0565164451 -0.0118340282
365297810.0 0.0556842335 -0.0115892121 0.5810600577 -0.5379494171 0.5813064263 -0.5381409474 0.0556582388 -0.0125367955
370297780.0 0.0557419209 -0.012288593 0.5752452727 -0.544824131 0.5757878853 -0.5447528661 0.055837165 -0.0128599745
375297750.0 0.0550037527 -0.0125371364 0.5700197402 -0.5512412156 0.5693530157 -0.5518233293 0.0558254091 -0.0135194162
380297720.0 0.054971181 -0.0138590069 0.5637711946 -0.5566155402 0.5632831425 -0.5572262274 0.0552203175 -0.0142305671
385297690.0 0.0546463273 -0.0139403257 0.5573457315 -0.5631752747 0.5571323627 -0.5635412875 0.0546896563 -0.0148679351
390297660.0 0.053900018 -0.0149579131 0.5505468856 -0.5697044272 0.550919074 -0.5702981254 0.0551672913 -0.0156856542
395297630.0 0.0544376627 -0.0158895964 0.5446321716 -0.5753838633 0.5446344881 -0.5755179032 0.0543937828 -0.0159490725
400297600.0 0.0535587308 -0.0161540478 0.5379591142 -0.5821950146 0.538547137 -0.5824594811 0.0532989821 -0.0172021698
405297570.0 0.0538485331 -0.0168015509 0.5320172 -0.5881924168 0.5322683388 -0.5881959051 0.0536358484 -0.0168391711
410297540.0 0.0536939086 -0.0175394135 0.5242321762 -0.5935435878 0.5251229284 -0.5938442126 0.0531493732 -0.0180155472
415297510.0 0.0531743817 -0.0174612761 0.5185352163 -0.5990754454 0.5190928587 -0.6000560507 0.0523814228 -0.0180861533
420297480.0 0.0529775538 -0.0188940963 0.5121890747 -0.6057851688 0.5124110837 -0.6057804249 0.052696114 -0.0191936684
425297450.0 0.0532463871 -0.0196216754 0.5053379447 -0.6109386618 0.5060248842 -0.6111248743 0.0520320171 -0.019031312
430297420.0 0.0525189531 -0.0196240367 0.499120513 -0.616695604 0.4988008075 -0.6168409277 0.051593853 -0.020305427
435297390.0 0.0525955636 -0.0209372634 0.4922624094 -0.6219640855 0.4921859473 -0.6217618413 0.0511229345 -0.0199821283
440297360.0 0.0522242417 -0.0216397199 0.4852624611 -0.6281093724 0.4845664696 -0.6277048496 0.0510267715 -0.0216698337
445297330.0 0.0521516667 -0.0220688656 0.4780456806 -0.633279909 0.4778580538 -0.6334554913 0.0506034159 -0.0217417437
450297300.0 0.0518307929 -0.022634879 0.4714527571 -0.6388032243 0.4716895422 -0.6387732788 0.0504087714 -0.0221148183
455297270.0 0.0509528237 -0.0231811192 0.4646037913 -0.6436263479 0.4648788462 -0.6435209504 0.050136356 -0.0226424207
460297240.0 0.0505104732 -0.0237846418 0.4570521629 -0.6484367706 0.4569171297 -0.6486284986 0.0495357772 -0.0226409485
465297210.0 0.0506052702 -0.0246899233 0.450162511 -0.6541492135 0.450353083 -0.6542003205 0.0489151043 -0.0238556423
470297180.0 0.0500400353 -0.0250965313 0.4426996459 -0.6590456606 0.4433460996 -0.6589483988 0.0479598121 -0.0243931253
475297150.0 0.0495291988 -0.0265319241 0.4352158938 -0.6633161067 0.4357867527 -0.6627441807 0.0483080305 -0.0247907477
480297120.0 0.0499030456 -0.0269546455 0.4285052123 -0.6683895082 0.4284403798 -0.6680495001 0.0475860112 -0.0246732512
485297090.0 0.0495137587 -0.0274527331 0.4210108987 -0.6729593434 0.4210119397 -0.6732510508 0.0466065098 -0.0257532728
490297060.0 0.0490559085 -0.028369897 0.4137004028 -0.6778397049 0.413865883 -0.6777773309 0.0469353255 -0.0256440105
495297030.0 0.0481042591 -0.0283783382 0.4061692355 -0.6816524845 0.4058771919 -0.6823165797 0.0464758053 -0.0264479869
500297000.0 0.0478828443 -0.0292798137 0.3987155582 -0.686397682 0.3985595538 -0.6870510537 0.045494585 -0.0270940647
505296970.0 0.0470233802 -0.0296594057 0.3910138008 -0.690247916 0.3905517179 -0.6908185245 0.0449217202 -0.0274254836
510296940.0 0.0469090919 -0.0301518008 0.3837493029 -0.6959815012 0.3832272756 -0.6953379607 0.0449789866 -0.0271977749
515296910.0 0.0459061381 -0.0303965068 0.3756697025 -0.6992188479 0.3758838629 -0.6993195041 0.0439277122 -0.0283211618
520296880.0 0.045780781 -0.0314652933 0.368398773 -0.7037834124 0.3683710877 -0.7032304936 0.0441507409 -0.0284167663
525296850.0 0.0451739432 -0.0321668867 0.3601921774 -0.7079711181 0.3602465672 -0.707553599 0.0437989521 -0.0288075541
530296820.0 0.0449630198 -0.0325228794 0.3530551044 -0.7107190935 0.3522373786 -0.7120291872 0.0426654569 -0.0300291759
535296790.0 0.0443006478 -0.0328663256 0.3444146259 -0.7150794383 0.3452926311 -0.7150611424 0.042488666 -0.0303836427
540296760.0 0.0439938495 -0.0337378247 0.3368839937 -0.7192569663 0.3363195664 -0.7195541125 0.0414081394 -0.0299644757
545296730.0 0.0434611437 -0.033517059 0.3284139162 -0.7224276492 0.3290006864 -0.7232683017 0.0413605098 -0.0311355312
550296700.0 0.0425092256 -0.034718397 0.3217568212 -0.7267263713 0.3215965048 -0.7265909303 0.040571258 -0.0304577067
555296670.0 0.0425236545 -0.0353396018 0.3130964515 -0.7301004178 0.3133474595 -0.7298763855 0.0401004029 -0.0313358591
560296640.0 0.0416775115 -0.0358565503 0.3056503317 -0.7325085394 0.3051472683 -0.732872977 0.0396286891 -0.0316613085
565296610.0 0.0407788755 -0.0361928791 0.2971774155 -0.7369693207 0.2963824667 -0.7366916067 0.0390351016 -0.0323998625
570296580.0 0.0411194456 -0.0367481372 0.2890245059 -0.7397273306 0.2892977655 -0.7397484728 0.0387281563 -0.031985694
575296550.0 0.0401730467 -0.0361347681 0.2812166843 -0.7426932585 0.2813199741 -0.7424828928 0.0383442543 -0.0327075057
580296520.0 0.0394280436 -0.0371815916 0.2731914762 -0.7459282349 0.2723582929 -0.7463146784 0.0372321267 -0.0334139261
585296490.0 0.03934534 -0.0379786658 0.2652821628 -0.7486926855 0.2645816286 -0.7490739233 0.0368906709 -0.0340372027
590296460.0 0.0380757854 -0.0385198133 0.2568222768 -0.7520421618 0.2564485027 -0.7518803263 0.0367022894 -0.0333527988
595296430.0 0.03745415 -0.0382817183 0.2484362004 -0.7546917059 0.2480547587 -0.7547106474 0.0366183074 -0.0341826973
600296400.0 0.0371106199 -0.0387017909 0.2400876361 -0.7569506893 0.2404264573 -0.7574377257 0.0357192104 -0.0342631297
605296370.0 0.0367102992 -0.0387897001 0.2321334808 -0.7597690303 0.2319976097 -0.7596994805 0.0350271278 -0.0350261947
610296340.0 0.0356825603 -0.0394540597 0.2240654669 -0.7624262056 0.2237748891 -0.762154908 0.034341889 -0.0344130027
615296310.0 0.0353593139 -0.0397050333 0.215176169 -0.7640895655 0.2149504334 -0.7644824237 0.0342402647 -0.0352064406
620296280.0 0.034434414 -0.0401578983 0.206980896 -0.7671301561 0.2068354149 -0.7672047636 0.0335552772 -0.0359432065
625296250.0 0.0342946244 -0.040304881 0.1975180194 -0.7691697864 0.1984071148 -0.7691520269 0.0332083869 -0.0357104466
630296220.0 0.0336845748 -0.0406235932 0.1902222477 -0.7716430712 0.1900097186 -0.7709790788 0.0319634708 -0.0360806934
635296190.0 0.0328672789 -0.0411232276 0.1816846418 -0.7730298524 0.1815531079 -0.7729834976 0.0312772048 -0.0365688135
640296160.0 0.0320568533 -0.0410923205 0.1732942045 -0.7749083744 0.1733229239 -0.7750378438 0.0312974802 -0.0366695606
645296130.0 0.0318864038 -0.0413564154 0.164629387 -0.7770043923 0.1644459058 -0.7772595353 0.0299101321 -0.0373750248
650296100.0 0.0310222382 -0.041102968 0.1563319742 -0.7785077292 0.1563358 -0.7784773785 0.0297355968 -0.0370532311
655296070.0 0.0302464072 -0.0420406819 0.147705459 -0.7804601241 0.1471126629 -0.7802622573 0.0299498416 -0.0368598606
660296040.0 0.0291377239 -0.0417759979 0.1395560139 -0.7817026443 0.1392257012 -0.7816046079 0.028632459 -0.0378019708
665296010.0 0.0292800017 -0.0423639789 0.1308360695 -0.7832446804 0.1317075639 -0.7834351195 0.0276653052 -0.0375636823
670295980.0 0.0290338814 -0.0423268245 0.1223838324 -0.7849562653 0.1224729645 -0.7844223375 0.0269445276 -0.0381806117
675295950.0 0.0284621131 -0.0425059394 0.113626021 -0.786166453 0.1139244267 -0.7863718637 0.0271482287 -0.0378720722
680295920.0 0.0275087884 -0.0426650258 0.1045597752 -0.7873580557 0.1047542749 -0.7875221235 0.0263567277 -0.038364182
685295890.0 0.0267180925 -0.0427780258 0.0969951437 -0.7881601486 0.0960629991 -0.7885688311 0.0258867156 -0.0380847709
690295860.0 0.0263666483 -0.0430187878 0.0880771823 -0.7887852192 0.0873007914 -0.788617057 0.0255090418 -0.0382950389
695295830.0 0.0263475465 -0.0435245665 0.0787790232 -0.7899054715 0.0788956309 -0.7904041028 0.0241645285 -0.0384523049
700295800.0 0.0256463394 -0.04335636 0.0706900086 -0.790782773 0.0704644736 -0.7914346002 0.0236191491 -0.0394189878
705295770.0 0.0246506198 -0.0434958413 0.0623005287 -0.7918772373 0.0616492581 -0.7915276317 0.0225205047 -0.0391524399
710295740.0 0.0240729562 -0.043403692 0.053327342 -0.7919768651 0.053203478 -0.7919053194 0.0214762742 -0.0392665572
715295710.0 0.0234701419 -0.0436865398 0.0448738759 -0.7929124099 0.0447537175 -0.7925531851 0.0217497466 -0.0400094627
720295680.0 0.0225664956 -0.044138012 0.0360852657 -0.7931543902 0.0363578912 -0.7936488481 0.0217663404 -0.0391243498
725295650.0 0.0224963039 -0.0441146364 0.0269656117 -0.7935506768 0.0271744149 -0.7934580117 0.0210767471 -0.0391547143
730295620.0 0.0210011667 -0.0443991721 0.018197718 -0.7938049725 0.018578336 -0.7944283251 0.0202716687 -0.0403339588
735295590.0 0.0211829848 -0.0441920793 0.0104548353 -0.7935929907 0.0110421671 -0.7941449973 0.0195033497 -0.0396385353
740295560.0 0.0203008849 -0.0441985716 0.001577363 -0.7935016177 0.0015277122 -0.7939647211 0.0194961408 -0.0399358366
745295530.0 0.0197859756 -0.0449611518 -0.0066717906 -0.79413051 -0.0067697868 -0.7944184176 0.0182525653 -0.0398443697
750295500.0 0.019252283 -0.0445655188 -0.0153080365 -0.793288216 -0.0154666952 -0.7931928655 0.0183151881 -0.0406629409
755295470.0 0.0190430692 -0.044375275 -0.0243693865 -0.7934185659 -0.0245245414 -0.7937192003 0.0165653543 -0.040224759
760295440.0 0.0177761305 -0.0446661799 -0.0332846123 -0.7930209184 -0.0331448371 -0.7934460971 0.0157500951 -0.0406632715
765295410.0 0.0172128428 -0.045258089 -0.0410172416 -0.7927863827 -0.0412459203 -0.7928711004 0.0166554315 -0.0396695964
770295380.0 0.0169232077 -0.0448278303 -0.0496799323 -0.7922660911 -0.0503452971 -0.7925907636 0.015890422 -0.0398431974
775295350.0 0.0160303092 -0.0448821151 -0.058888128 -0.7912665535 -0.0586503751 -0.7918820682 0.0144650572 -0.0409621592
780295320.0 0.0155307903 -0.0448750577 -0.0667904039 -0.7906232015 -0.066884475 -0.7911436212 0.0143331313 -0.0403581553
785295290.0 0.0146545132 -0.0445947095 -0.0761996575 -0.7892165627 -0.0761676096 -0.7901659795 0.0127793795 -0.0405384715
790295260.0 0.0140579238 -0.0443692762 -0.084222511 -0.7893456207 -0.084328054 -0.7900450829 0.0128936725 -0.0404938341
795295230.0 0.0133432565 -0.0448487927 -0.0928460258 -0.7875263626 -0.0926590363 -0.7879489059 0.0123864258 -0.0393477935
800295200.0 0.0129309227 -0.0446030534 -0.1018463555 -0.7874498467 -0.102017725 -0.7873232343 0.0118161097 -0.0400518225
805295170.0 0.0116499986 -0.0448125083 -0.1103394043 -0.7855218303 -0.1105340571 -0.7860082893 0.0106414471 -0.0404905294
810295140.0 0.0115715903 -0.0446781959 -0.1183493105 -0.7848164186 -0.1186998412 -0.7851034391 0.0104369629 -0.0398403891
815295110.0 0.0106892805 -0.0443147741 -0.1270981743 -0.7833261693 -0.1276754724 -0.7831807381 0.0097674787 -0.0407264852
820295080.0 0.0101342264 -0.0446808102 -0.135965184 -0.7818973972 -0.1357841191 -0.7821358274 0.0091321318 -0.0401360734
825295050.0 0.0095466667 -0.0447506134 -0.1445303547 -0.7805012069 -0.1442626934 -0.7801902842 0.0090142476 -0.0397595853
830295020.0 0.0087199553 -0.0441467514 -0.1529925644 -0.7786820615 -0.153139205 -0.7792154878 0.0080877902 -0.0400667274
