!Created with skrf (http://scikit-rf.org).
# Hz S RI R 50.0 
!freq ReS11 ImS11 ReS21 ImS21 ReS12 ImS12 ReS22 ImS22
300000.0 -0.2405380273 -0.09451628 0.468946626 0.0628373059 0.469812949 0.0680181651 -0.2383898235 -0.108595675
5299970.0 -0.2437730537 0.0072856382 0.4738926746 0.0050390209 0.4736167793 0.0058966588 -0.2439668998 0.0060532556
10299940.0 -0.2401334048 0.0200295808 0.475860201 0.006599175 0.4756770828 0.0066861364 -0.2410101784 0.018431666
15299910.0 -0.2359669509 0.0295418723 0.4794037954 0.00759211 0.4794658919 0.0080117986 -0.2363877711 0.0276406322
20299880.0 -0.2304566547 0.0371740962 0.4838485549 0.0084410594 0.4840510031 0.0087453082 -0.2317513916 0.0356052628
25299850.0 -0.224899207 0.04364631 0.4893233309 0.0071515771 0.4894711567 0.0074975548 -0.2268621309 0.0417919013
30299820.0 -0.2189559887 0.0484843209 0.4954254659 0.0056281985 0.4945780224 0.005517409 -0.2215840237 0.0467321966
35299790.0 -0.2130009335 0.0529403124 0.5003494613 0.0021095592 0.5006170285 0.0023126289 -0.2162707624 0.0512990198
40299760.0 -0.2077490427 0.0554091737 0.5054651999 -0.0012727045 0.5056181096 -0.0017007981 -0.2113835299 0.054661894
45299730.0 -0.2025351967 0.0582754082 0.510182264 -0.0065793162 0.5101212032 -0.0066459206 -0.2066708169 0.0576829675
50299700.0 -0.1975148424 0.0600368864 0.5143464064 -0.0119717613 0.5142274939 -0.0121867376 -0.2019102908 0.0597975624
55299670.0 -0.1935695151 0.0617366692 0.5177503782 -0.0179394774 0.5181300662 -0.0180815021 -0.1983923201 0.0615165116
60299640.0 -0.1893455832 0.0628092501 0.521251916 -0.0242661881 0.5216037707 -0.024255778 -0.1946187751 0.0631545953
65299610.0 -0.18609498 0.0639177499 0.5249536603 -0.0301238873 0.524188665 -0.0305884264 -0.1909405657 0.0643736679
70299580.0 -0.182384417 0.0643307107 0.5263492522 -0.0371342756 0.5267013778 -0.03725125 -0.1879909303 0.065769993
75299550.0 -0.1796634392 0.0653168056 0.529036616 -0.0442969791 0.5287384997 -0.0440816751 -0.1850948775 0.0670129595
80299520.0 -0.1770323779 0.0657534878 0.5307452262 -0.0509798613 0.5309817897 -0.0507279501 -0.18249384 0.0675111253
85299490.0 -0.1744541133 0.0659033627 0.5317018822 -0.0580854477 0.5319878063 -0.0581499853 -0.1800382903 0.0681512347
90299460.0 -0.1726358269 0.0664790165 0.5327740864 -0.0643848102 0.5329269197 -0.0649728388 -0.1777091418 0.0694878922
95299430.0 -0.1703540229 0.0671071356 0.5341238457 -0.0719902638 0.5338949122 -0.071560309 -0.1756839739 0.070124639
100299400.0 -0.1686703581 0.0677325449 0.5342350517 -0.0787061269 0.5342366324 -0.0786912762 -0.1743907952 0.0710361091
105299370.0 -0.1669206755 0.0680026014 0.5344656232 -0.0855278284 0.5348015453 -0.0853977487 -0.1719880576 0.0716345189
110299340.0 -0.1654147099 0.0683780208 0.5346435237 -0.0922656989 0.5349403413 -0.0925845609 -0.1707800251 0.0727408542
115299310.0 -0.1639829877 0.0687058505 0.5346568443 -0.0988455636 0.5348684926 -0.0991963498 -0.168982539 0.0731869489
120299280.0 -0.1629630609 0.0692439315 0.5345896622 -0.1058218596 0.5345638062 -0.1060785241 -0.1676598753 0.0740590554
125299250.0 -0.1617926255 0.0696792285 0.5343326012 -0.1125033937 0.5344419847 -0.1126070186 -0.1663703935 0.0746415225
130299220.0 -0.1605390959 0.0706740958 0.533522332 -0.1190389258 0.5336470646 -0.1196485906 -0.1652144371 0.0763399108
135299190.0 -0.1592773452 0.0709803409 0.5332156418 -0.1254423573 0.5325975781 -0.1260593969 -0.1640915377 0.076973165
140299160.0 -0.1587032313 0.0722032683 0.5323569743 -0.1328066396 0.5323680258 -0.132394088 -0.1627524729 0.0778063325
145299130.0 -0.1574563024 0.0728980315 0.5315926378 -0.1392831278 0.5312915623 -0.1392900813 -0.1621680825 0.0791981306
150299100.0 -0.1567759627 0.0734485446 0.5303497966 -0.1458607898 0.5303679674 -0.1459571481 -0.1610183879 0.0798700021
155299070.0 -0.1558566598 0.0749388747 0.5293232696 -0.152821221 0.5289760366 -0.1528523969 -0.1599457816 0.0808684438
160299040.0 -0.1549300825 0.0752531888 0.5272953297 -0.1584405967 0.5278864763 -0.1591690083 -0.1589348007 0.0825962399
165299010.0 -0.1545392005 0.0761007341 0.5267314514 -0.1651509576 0.5262432342 -0.1653648094 -0.1579970073 0.0834072506
170298980.0 -0.1536177353 0.0772503591 0.523951186 -0.1714831219 0.5245798505 -0.1716477358 -0.1569510977 0.0845843718
175298950.0 -0.1526415177 0.0781234896 0.5235937063 -0.1777366063 0.5232465577 -0.1777725912 -0.1559700498 0.0857462465
180298920.0 -0.1517108817 0.0791149578 0.5213142353 -0.1841650538 0.5215901125 -0.184011093 -0.1551701613 0.0870558945
185298890.0 -0.1509881932 0.080181744 0.5191760154 -0.1905564799 0.5197155075 -0.190383009 -0.1542478541 0.0882046348
190298860.0 -0.1503506833 0.0813469369 0.5175748669 -0.196871308 0.5176803151 -0.1965721322 -0.1526997045 0.0896508712
195298830.0 -0.1495546056 0.0820829935 0.5155445635 -0.2026362807 0.5157753323 -0.2032296794 -0.1519791225 0.0905777243
200298800.0 -0.1488042325 0.0832943365 0.513820369 -0.208294554 0.5135356179 -0.208804637 -0.1507796937 0.0922502748
205298770.0 -0.1482567799 0.0844080778 0.5114728244 -0.2144931044 0.5118822398 -0.2148521914 -0.1501507282 0.0931003933
210298740.0 -0.1476363148 0.0850951948 0.5092625053 -0.2206620973 0.5092685889 -0.2211323792 -0.1490609737 0.0947723245
215298710.0 -0.146726582 0.0866080395 0.5069977219 -0.2264255465 0.5066825684 -0.2267395739 -0.1484210699 0.0962565972
220298680.0 -0.1460399111 0.0879018142 0.5043996679 -0.2328539219 0.5044079245 -0.2330582065 -0.1471966942 0.0975460165
225298650.0 -0.144952988 0.0895800674 0.501885982 -0.2384079763 0.5018180047 -0.2384578769 -0.1463879293 0.0993021488
230298620.0 -0.1443288881 0.0905006071 0.4995178437 -0.2444326751 0.49969982 -0.2444511675 -0.1450987207 0.1003352796
235298590.0 -0.143523215 0.0914575704 0.4965354598 -0.2497542085 0.496782213 -0.2504258779 -0.1441058517 0.101439437
240298560.0 -0.142868116 0.092935939 0.4940031538 -0.2553712248 0.4939186431 -0.2555748042 -0.1430485434 0.1030537327
245298530.0 -0.1417481162 0.0941970977 0.4907149252 -0.26165766 0.4912645738 -0.2617704734 -0.142041899 0.1046169127
250298500.0 -0.1416239533 0.0953538922 0.4887828591 -0.266819892 0.4886154596 -0.2667315125 -0.1407649513 0.1059876644
255298470.0 -0.1408235577 0.0968012386 0.4854079338 -0.2729450381 0.4856610775 -0.2726940263 -0.139525231 0.1069264811
260298440.0 -0.139679659 0.0979599871 0.4824382574 -0.2780178641 0.4823579901 -0.2785454021 -0.1381885256 0.1090239976
265298410.0 -0.1385415239 0.0993297261 0.4794757163 -0.2846178121 0.4797423882 -0.2839345956 -0.1373717077 0.1101840032
270298380.0 -0.1377440398 0.1007255551 0.4757946731 -0.2893512859 0.4765653439 -0.2893390995 -0.1360074089 0.1120910077
275298350.0 -0.1371394198 0.1017316098 0.4730909063 -0.2948022899 0.4733278075 -0.2951051252 -0.1345867608 0.1134188914
280298320.0 -0.1362111283 0.1033996475 0.4701401843 -0.2997677254 0.4697800822 -0.3005573405 -0.1335593012 0.1150728273
285298290.0 -0.1352910511 0.1046848908 0.4668968254 -0.3052271491 0.4664902075 -0.3054753935 -0.132414154 0.1163394509
290298260.0 -0.1343944449 0.105910923 0.4633106227 -0.3105273178 0.46352085 -0.310872447 -0.1306990749 0.1179677964
295298230.0 -0.1333855239 0.1070153011 0.4604504317 -0.3159029391 0.4602717733 -0.3156039156 -0.1295837211 0.1193571386
300298200.0 -0.1319700386 0.1082571317 0.4566192333 -0.3215734408 0.4568551307 -0.3214809132 -0.128395874 0.1206826743
305298170.0 -0.1309837399 0.1095546184 0.4534738606 -0.3268332756 0.4533395394 -0.3266561593 -0.1267750615 0.1224770744
310298140.0 -0.1298074672 0.1106979057 0.4499917759 -0.3320242712 0.4499703871 -0.332243331 -0.1254047066 0.1239268678
315298110.0 -0.1291025291 0.1115807733 0.4456842158 -0.3370996386 0.4460910097 -0.3371425637 -0.1237374748 0.1250636376
320298080.0 -0.1281239906 0.113169788 0.442311556 -0.342198268 0.4424057612 -0.3426214101 -0.1226980938 0.1263313473
325298050.0 -0.1274982771 0.1141330327 0.4390549605 -0.3473267802 0.4388091294 -0.3477777075 -0.1214600314 0.127694099
330298020.0 -0.1262177258 0.1155267233 0.4340557524 -0.3520855781 0.4343532789 -0.3524952068 -0.1203671327 0.1287372918
335297990.0 -0.1254894507 0.1165162481 0.430577485 -0.3570370078 0.4301485584 -0.3569280013 -0.1189922805 0.1300649202
340297960.0 -0.1249202465 0.117995957 0.4261500542 -0.3621656997 0.426434964 -0.3616628172 -0.1178437149 0.1314527906
345297930.0 -0.1239526528 0.1195113048 0.4222680522 -0.3664292632 0.4216447066 -0.3663609786 -0.1161801029 0.1331322432
350297900.0 -0.1225346101 0.1207913296 0.418172258 -0.3707689496 0.4183630354 -0.3710717347 -0.1152358903 0.1348183064
355297870.0 -0.1216990174 0.1219396835 0.413711441 -0.3753611613 0.4136976792 -0.3758583015 -0.1135615501 0.1362353871
360297840.0 -0.1203002741 0.1233187643 0.4098719531 -0.3803948554 0.4094159904 -0.3807075981 -0.1118040994 0.1379010864
365297810.0 -0.1192186285 0.1245838022 0.4055958974 -0.3846430138 0.4052673201 -0.3850562059 -0.1107453569 0.1394585478
370297780.0 -0.1178765228 0.1257692128 0.4014516747 -0.3890649018 0.40112555 -0.3894409067 -0.1093506813 0.1407068393
375297750.0 -0.1168187294 0.1273541319 0.3971137437 -0.3939671578 0.396727057 -0.393995893 -0.1076320687 0.1422211469
380297720.0 -0.1155588801 0.1285047592 0.3926211646 -0.3978159314 0.3924791576 -0.3980216464 -0.1059028947 0.1437393857
385297690.0 -0.1143832858 0.1297476717 0.3881276109 -0.4018595158 0.3881368109 -0.4021505536 -0.1047116991 0.1452407718
390297660.0 -0.1134261853 0.1308187663 0.383014073 -0.4065223166 0.3834098596 -0.4070214067 -0.1031037268 0.1459854166
395297630.0 -0.1117218048 0.1319719757 0.3793804891 -0.4106990269 0.3791286543 -0.4106548051 -0.1011852101 0.1477094703
400297600.0 -0.110761189 0.1336944301 0.3744453837 -0.4149360512 0.3749356682 -0.4149689278 -0.1003035791 0.1488742275
405297570.0 -0.1092605596 0.1347595614 0.3701912865 -0.4188019119 0.3701580585 -0.4193268781 -0.0983599704 0.1507501956
410297540.0 -0.1078930459 0.1356505501 0.3649866111 -0.422959001 0.3650139366 -0.4228235649 -0.0967632017 0.1515207332
415297510.0 -0.1067440387 0.1375440719 0.3607026736 -0.4268591628 0.3607841737 -0.426998839 -0.0953154022 0.1533645982
420297480.0 -0.1054340443 0.1377962013 0.3559283301 -0.431150695 0.3562193122 -0.4311698303 -0.0933949955 0.1541782407
425297450.0 -0.1037245475 0.1390646266 0.3510797766 -0.4346795988 0.3515343712 -0.4350044469 -0.0913878939 0.1558858221
430297420.0 -0.1029057268 0.1407700789 0.3466608346 -0.4390523178 0.3462308389 -0.4385175147 -0.0900274934 0.1566011675
435297390.0 -0.1013403536 0.1414761326 0.3416548275 -0.4422435211 0.3415988146 -0.4417825488 -0.0884198136 0.1580079213
440297360.0 -0.0997717479 0.142401832 0.3363150602 -0.4457953841 0.3362107212 -0.4460139316 -0.0867506487 0.1587857298
445297330.0 -0.0983670704 0.1435994479 0.3315755974 -0.4500200652 0.3315274813 -0.4496892764 -0.0848545144 0.1601254219
450297300.0 -0.0967349052 0.1447246005 0.3266645375 -0.4531534375 0.3271604142 -0.4534033537 -0.0837281712 0.1612527181
455297270.0 -0.095714971 0.1459283353 0.3221951202 -0.4571554111 0.3219892893 -0.4568779842 -0.0812116583 0.1627638205
460297240.0 -0.0942801916 0.1466731063 0.316534994 -0.4603574801 0.3165224179 -0.4604605544 -0.0796081976 0.1641138064
465297210.0 -0.0925217138 0.1478466207 0.3115910426 -0.463989231 0.3120063959 -0.4637395698 -0.0782859869 0.1648565866
470297180.0 -0.0914610122 0.1485799838 0.3069305874 -0.4666709577 0.3070575694 -0.46702748 -0.076484243 0.1656922884
475297150.0 -0.0900998699 0.1498147785 0.3016514871 -0.4701164299 0.3017644894 -0.4698425567 -0.0744050553 0.1669635314
480297120.0 -0.0885221653 0.1503429745 0.2964106969 -0.4735215002 0.2966637987 -0.4733980379 -0.0729074256 0.1682188974
485297090.0 -0.0867439529 0.1517049143 0.2913892655 -0.4768765659 0.2914090629 -0.4765713075 -0.0711133129 0.1686636894
490297060.0 -0.0853986076 0.1524510297 0.2857029442 -0.4795917601 0.2862397689 -0.4798148739 -0.0692775771 0.1699171829
495297030.0 -0.0842533566 0.153663226 0.2807961473 -0.4828682909 0.2804690202 -0.4829765017 -0.0672826364 0.1707970584
500297000.0 -0.0824500316 0.1543347051 0.275533937 -0.4857930801 0.2756274966 -0.486031072 -0.0656954982 0.1718463982
505296970.0 -0.0812092694 0.1551311343 0.2699236433 -0.48806135 0.2700773052 -0.4885275119 -0.0641013123 0.1727514044
510296940.0 -0.0794210713 0.156406619 0.2646674469 -0.4919553626 0.2649392611 -0.4918557653 -0.0618775731 0.1739759659
515296910.0 -0.0781432716 0.157359995 0.2590799317 -0.4947771117 0.2594785122 -0.4944545737 -0.0600185588 0.1746562463
520296880.0 -0.0765683724 0.1577532142 0.2537681993 -0.4973286216 0.2542791165 -0.4971014205 -0.058377451 0.1753742987
525296850.0 -0.0752816535 0.1590186828 0.248792236 -0.4999418293 0.2483902671 -0.500317387 -0.0556400375 0.176211455
530296820.0 -0.0735881857 0.1597920288 0.2433031436 -0.5020196154 0.2430475168 -0.5023417683 -0.0548008948 0.1766601795
535296790.0 -0.0720561088 0.1604324669 0.2372741443 -0.5047042234 0.2378106272 -0.5047103389 -0.0526080681 0.1775936547
540296760.0 -0.0704346672 0.1612156607 0.2319023057 -0.5080948648 0.2318272013 -0.5079428945 -0.0507874299 0.1784815284
545296730.0 -0.0688298323 0.1624610913 0.2264105816 -0.5102080479 0.226605153 -0.5105261351 -0.048868913 0.1790376185
550296700.0 -0.0675239519 0.1626986955 0.2212171266 -0.5125863063 0.2213423167 -0.5129930899 -0.047214679 0.1801837657
555296670.0 -0.0655371082 0.1635810542 0.2157125407 -0.5149497189 0.215770312 -0.5147803099 -0.0452153693 0.1807552397
560296640.0 -0.063873482 0.1644279742 0.2098046294 -0.5172566967 0.2101315092 -0.517123035 -0.043092932 0.1813552279
565296610.0 -0.0627099314 0.1650690266 0.2043871587 -0.519386432 0.2042205766 -0.5192386028 -0.0413077655 0.1817234671
570296580.0 -0.0608880521 0.1657239901 0.1988571619 -0.5212758069 0.1990010347 -0.5215380611 -0.0391244214 0.1831415337
575296550.0 -0.0592208539 0.166986776 0.193271408 -0.5231130084 0.1935524524 -0.5232472964 -0.0369905131 0.1832215807
580296520.0 -0.0578297606 0.1672067156 0.1874068037 -0.5253942159 0.1873461507 -0.5256600165 -0.0353025699 0.1839875764
585296490.0 -0.0560383273 0.1678539807 0.1819099859 -0.5277249022 0.1817299813 -0.5274753962 -0.0334183636 0.1841434316
590296460.0 -0.0547472349 0.1683630526 0.1757577893 -0.5295827898 0.1754187666 -0.5295134171 -0.0309406011 0.1849758177
595296430.0 -0.0528809224 0.1693004332 0.1702169074 -0.5312407085 0.169889413 -0.5314580411 -0.0291708701 0.1850179809
600296400.0 -0.05144032 0.1699509934 0.1646462623 -0.5330003508 0.1651029539 -0.5335100853 -0.0275145108 0.1860370796
605296370.0 -0.0494628528 0.1708293494 0.1588175511 -0.5352648397 0.1586478538 -0.5347237078 -0.0256362119 0.1860298264
610296340.0 -0.0479549945 0.1713612409 0.1532088571 -0.5368482195 0.1531366404 -0.5366880993 -0.0234837623 0.1870241934
615296310.0 -0.046179423 0.1721168551 0.1469426996 -0.5381495637 0.1470043547 -0.5379912102 -0.0212616523 0.1869820636
620296280.0 -0.0446692285 0.1724126079 0.141200711 -0.5393615852 0.1415043398 -0.5397173559 -0.019368877 0.1872829314
625296250.0 -0.0427726229 0.1730977975 0.1353683894 -0.5416282756 0.135128776 -0.5413458313 -0.0170161156 0.1879080605
630296220.0 -0.0410666303 0.1736638843 0.1294649269 -0.5425679422 0.1299985552 -0.5426106999 -0.0153840037 0.1884143893
635296190.0 -0.039496084 0.1742276926 0.123322077 -0.5435705045 0.1236391901 -0.5432236871 -0.0132489293 0.188641432
640296160.0 -0.0381004258 0.1745313341 0.1180983902 -0.5447689637 0.1175244393 -0.5451948614 -0.0111507356 0.1885199747
645296130.0 -0.0361723046 0.1754067287 0.1116542775 -0.5465780008 0.1120066139 -0.5463752774 -0.0097450271 0.1887907059
650296100.0 -0.0347472532 0.176142655 0.1063847356 -0.5472833729 0.1063303109 -0.547280529 -0.0073812209 0.1889793956
655296070.0 -0.0329212684 0.1763089192 0.1000617383 -0.5484436457 0.0996292203 -0.5483488377 -0.0046534513 0.1895056501
660296040.0 -0.0312697186 0.1770023604 0.0942888516 -0.5492216491 0.0942526045 -0.5492928439 -0.0032369526 0.189717143
665296010.0 -0.0294012267 0.177111265 0.0886227947 -0.5503567572 0.0889031713 -0.5502665191 -0.0013955786 0.1899149407
670295980.0 -0.027204798 0.1776922204 0.0823323356 -0.5512389123 0.0824783863 -0.5514582114 0.0004207832 0.1900093088
675295950.0 -0.0253734825 0.1782122768 0.0758715134 -0.5522433473 0.0766736093 -0.552224104 0.0030699191 0.1901345226
680295920.0 -0.0242339157 0.1787991304 0.0703229261 -0.5531194619 0.0699469876 -0.5530525371 0.0052507698 0.190042549
685295890.0 -0.0226325254 0.1791421207 0.064269511 -0.5539097955 0.064231811 -0.5538466085 0.0069575729 0.1903006707
690295860.0 -0.0202690211 0.1791546963 0.0583079278 -0.5537199609 0.0578513153 -0.5541863955 0.0095257952 0.1905875757
695295830.0 -0.0184595102 0.1795185275 0.0515503145 -0.5547016163 0.051792064 -0.5552099768 0.0113467198 0.1905824459
700295800.0 -0.0166906008 0.1798105201 0.046439015 -0.5554208302 0.0463388078 -0.5554511676 0.0135144454 0.1899206858
705295770.0 -0.0150553974 0.1803717086 0.0403045898 -0.5558864599 0.0402850518 -0.5556849985 0.0150918718 0.1901523912
710295740.0 -0.0136248383 0.1807150153 0.0341641065 -0.5559379076 0.0340023625 -0.5559962316 0.0166693508 0.1906794755
715295710.0 -0.0117446291 0.1806675845 0.0286212619 -0.5562863465 0.0284184155 -0.5563971861 0.0194314655 0.190024447
720295680.0 -0.0099118086 0.1809599609 0.0218201076 -0.5566010191 0.0221448411 -0.5570416829 0.0216215764 0.1902688111
725295650.0 -0.0077021674 0.1814976549 0.0159075348 -0.5565764091 0.0160997031 -0.5568579735 0.0237322722 0.1903835822
730295620.0 -0.0065541618 0.1812390888 0.0099310093 -0.5570650007 0.0102750817 -0.5568349539 0.0260337718 0.1894625407
735295590.0 -0.0042520302 0.1816603298 0.0042685369 -0.5572615389 0.0047812131 -0.5569395516 0.0278150329 0.1895842898
740295560.0 -0.0025572474 0.1822281117 -0.0019745967 -0.556697368 -0.0018214027 -0.5565547272 0.0303885544 0.1894687288
745295530.0 -0.000961273 0.1820535397 -0.0078830356 -0.5568032917 -0.0077062251 -0.5570729022 0.0317539473 0.1894709879
750295500.0 0.0006779521 0.1821270213 -0.0132398671 -0.5563605386 -0.013879822 -0.5566159121 0.0342833087 0.1887388024
755295470.0 0.003058538 0.1826427715 -0.019828616 -0.5564734043 -0.0197114618 -0.5569300972 0.0360495585 0.1890973676
760295440.0 0.0044050979 0.1828077259 -0.0258295162 -0.5561533428 -0.0255931906 -0.5562528541 0.0378090077 0.18855391
765295410.0 0.0062476142 0.1822271998 -0.0311835875 -0.5554229508 -0.0315015407 -0.5560530854 0.0406866971 0.1886313818
770295380.0 0.0084413472 0.182865797 -0.0374442058 -0.554872914 -0.0373506576 -0.5559145548 0.0425621039 0.1884427541
775295350.0 0.0101122099 0.1830136895 -0.0435862504 -0.554466629 -0.0435493578 -0.554796577 0.0440268163 0.1875676137
780295320.0 0.0119412676 0.1828102297 -0.0494336506 -0.5543022106 -0.049460754 -0.5545203294 0.0463337839 0.1877346402
785295290.0 0.01359341 0.183399648 -0.0553510226 -0.5532355939 -0.0555354056 -0.5539972756 0.0484400329 0.1870213789
790295260.0 0.0152850304 0.1831232467 -0.0612923789 -0.5532548401 -0.0613128827 -0.5533480843 0.0505834423 0.1867513625
795295230.0 0.0170173913 0.1831454217 -0.0671763572 -0.5519984188 -0.067344127 -0.5524712527 0.0525882234 0.186851017
800295200.0 0.0190900174 0.183113306 -0.0739864524 -0.5519467655 -0.0737487028 -0.5517416168 0.0547232801 0.186202956
805295170.0 0.0206120741 0.1829620361 -0.0794218598 -0.5503252301 -0.0792756852 -0.5508640463 0.0563720417 0.1852173695
810295140.0 0.0226127878 0.1829613722 -0.0846261168 -0.5497834954 -0.0852094398 -0.5505009113 0.058743615 0.1853914932
815295110.0 0.0242663684 0.1830653599 -0.0912445669 -0.5488056017 -0.0914573272 -0.5489173473 0.0606212963 0.1843363251
820295080.0 0.0262067074 0.1826756991 -0.0970411228 -0.5480382551 -0.0970498105 -0.5481623247 0.0626079517 0.184026351
825295050.0 0.0280531731 0.1826514237 -0.102777703 -0.5464178504 -0.1031174706 -0.546649187 0.0644974513 0.1836058838
830295020.0 0.0298746253 0.1828876984 -0.1091193965 -0.5454314883 -0.1093352961 -0.545877106 0.0666201836 0.1827804109
