!Created with skrf (http://scikit-rf.org).
# Hz S RI R 50.0 
!freq ReS11 ImS11 ReS21 ImS21 ReS12 ImS12 ReS22 ImS22
300000.0 -0.2427027278 -0.0783368208 0.4751828684 0.0530147897 0.4701674681 0.0517517344 -0.2433041248 -0.0937925919
5299970.0 -0.2443137665 0.0074207066 0.4736165602 0.0045651683 0.4732863875 0.0049578693 -0.2439932722 0.0073915143
10299940.0 -0.2411680744 0.0189451846 0.4757369729 0.0061533684 0.4756696302 0.0062243328 -0.2407490661 0.0204643848
15299910.0 -0.2367611617 0.0281109475 0.4795641885 0.007525449 0.4795184886 0.0074769505 -0.2361963239 0.0296182564
20299880.0 -0.2318211562 0.0356336397 0.4839094403 0.0085870733 0.4839644677 0.0083061149 -0.2308580905 0.0374943946
25299850.0 -0.2267665049 0.0420864848 0.4891624891 0.0073447775 0.4891299242 0.0070143598 -0.2248471881 0.0441210514
30299820.0 -0.2214464222 0.0472971047 0.4943885496 0.0051421775 0.4944708283 0.0052608686 -0.2192603735 0.0490354779
35299790.0 -0.2163087358 0.0515927693 0.5000002109 0.0018404674 0.4999772145 0.0021118168 -0.2134927703 0.0533679989
40299760.0 -0.2113003164 0.0549741173 0.5050517281 -0.0018209038 0.5050669965 -0.0023219571 -0.2079865086 0.0560449229
45299730.0 -0.2066847583 0.0576824714 0.5097898542 -0.0065635394 0.5100595242 -0.0065879204 -0.2032283191 0.0587793705
50299700.0 -0.2023174507 0.0598671133 0.5142537227 -0.01214242 0.5143385672 -0.0116626725 -0.1985685881 0.0606916047
55299670.0 -0.1982705279 0.0619066507 0.5180389886 -0.0184731906 0.5179389744 -0.0179753408 -0.1945178576 0.062339292
60299640.0 -0.194117172 0.0635636072 0.5212226155 -0.0247474277 0.5215655344 -0.0243268558 -0.1903340424 0.0631718878
65299610.0 -0.1911705975 0.0646216959 0.5240439613 -0.0306315862 0.5245424508 -0.0306746015 -0.1873401536 0.0639453901
70299580.0 -0.1878321645 0.0661301786 0.5264633981 -0.0372649306 0.5266182214 -0.0372162978 -0.1840403942 0.0649162953
75299550.0 -0.1851619882 0.0673394215 0.5284813062 -0.0440055459 0.5286283488 -0.0441230865 -0.1809998848 0.0653388322
80299520.0 -0.1824553611 0.0682329876 0.5301040286 -0.0510285245 0.5306437142 -0.0510954759 -0.178429863 0.0659379996
85299490.0 -0.1801537545 0.068751541 0.5315905887 -0.0573907281 0.5318462515 -0.0575310167 -0.1760032557 0.0661380044
90299460.0 -0.1780261001 0.0698739684 0.5321171576 -0.0649620723 0.5327207972 -0.0648088713 -0.1736622667 0.0668420473
95299430.0 -0.1754411568 0.0703757213 0.533732611 -0.0718378402 0.5337250868 -0.0719181006 -0.1714992414 0.0673515014
100299400.0 -0.1739506091 0.0715915484 0.5340234721 -0.0783914331 0.5338356935 -0.0787354981 -0.1693904497 0.0674192655
105299370.0 -0.1720363337 0.0723341283 0.534272982 -0.0856494832 0.5346206981 -0.0855335543 -0.1675159613 0.0679962597
110299340.0 -0.1702255222 0.0732939031 0.5344389907 -0.0923736896 0.5347638918 -0.0919491141 -0.1664871715 0.0684443723
115299310.0 -0.1690070513 0.0741925493 0.5349423671 -0.0991221814 0.5345311395 -0.0991887269 -0.1647145748 0.0690216844
120299280.0 -0.1671029149 0.0747435837 0.5341573741 -0.1063526793 0.5341851868 -0.1058661882 -0.1633930952 0.0693509924
125299250.0 -0.1661539165 0.0754268837 0.5336875723 -0.1127227805 0.5339951161 -0.1125185495 -0.1625385073 0.0695612026
130299220.0 -0.1650789473 0.0768095947 0.5329899338 -0.1197811037 0.5331405632 -0.1197384673 -0.1611863105 0.07029239
135299190.0 -0.163922962 0.0780919604 0.5332422909 -0.1260674071 0.5327624884 -0.1261284029 -0.1598382412 0.0712077047
140299160.0 -0.1628675903 0.0787897786 0.5316745011 -0.1327863599 0.5319762892 -0.1332608533 -0.15891773 0.0719902649
145299130.0 -0.1616061391 0.0799518079 0.5311178064 -0.1394628327 0.5308509994 -0.1394111777 -0.1580889965 0.0726161423
150299100.0 -0.1600982608 0.0811318685 0.5298220656 -0.1455917144 0.5295536022 -0.1455346261 -0.1567051252 0.0737002759
155299070.0 -0.1593945174 0.0820735047 0.5287605859 -0.1529532668 0.5285511867 -0.1523267893 -0.1557527574 0.0745874416
160299040.0 -0.1581182297 0.0834807726 0.5272427992 -0.1590039833 0.5267710267 -0.1590634456 -0.1554953543 0.0754757558
165299010.0 -0.157465576 0.0848023361 0.5258076401 -0.1656728508 0.5257205783 -0.1655268901 -0.1540559601 0.076711152
170298980.0 -0.1564876419 0.0856907228 0.5241008535 -0.1718191385 0.5245691524 -0.1717092526 -0.1532975999 0.0776949928
175298950.0 -0.1556584191 0.0869701688 0.5230653218 -0.1780053592 0.5226262082 -0.1774673489 -0.1529368356 0.0786373007
180298920.0 -0.1546335359 0.0884146108 0.5208776286 -0.184678137 0.5206154992 -0.1839017718 -0.1520605101 0.0795246077
185298890.0 -0.1532859369 0.0894925546 0.5191016032 -0.1907408545 0.5188200275 -0.1906326661 -0.1512356197 0.0811199164
190298860.0 -0.1526224346 0.0911874795 0.5173516396 -0.1972663906 0.5171306487 -0.1964684508 -0.1507296501 0.0815702204
195298830.0 -0.1516955877 0.0921876149 0.5152553458 -0.2030175589 0.5149855704 -0.2026173452 -0.1495465947 0.0829193822
200298800.0 -0.1509313127 0.0935879653 0.5132500909 -0.2092764102 0.513211378 -0.2093416691 -0.1495807567 0.0841644746
205298770.0 -0.1496765305 0.0950476124 0.5106472813 -0.2153660479 0.5105792102 -0.2145392498 -0.1485038193 0.0847474013
210298740.0 -0.1489058097 0.0961597875 0.5082679049 -0.2205963214 0.5086485051 -0.2207622679 -0.1477199225 0.086884788
215298710.0 -0.1481600963 0.0977824967 0.5063837402 -0.2269313586 0.5062921154 -0.2275093807 -0.1473452755 0.0878240244
220298680.0 -0.1470297405 0.0986636435 0.503386461 -0.2329463176 0.50371315 -0.2328385332 -0.1466679342 0.0885648964
225298650.0 -0.1463051224 0.1004058873 0.5012469573 -0.2393001473 0.5016839344 -0.2388158812 -0.1461928273 0.0898674785
230298620.0 -0.1449178808 0.1022788739 0.4988703127 -0.2445379167 0.4992227415 -0.2444914058 -0.1454455584 0.0908734832
235298590.0 -0.1439028712 0.1037970583 0.4961014082 -0.2503428535 0.4965379512 -0.2498346365 -0.1447376566 0.0921993678
240298560.0 -0.1431126198 0.1050744112 0.4934597472 -0.2563242649 0.4935589093 -0.2563426772 -0.1439837725 0.0937763557
245298530.0 -0.1423688613 0.1066397615 0.4910606629 -0.2618478005 0.4906463882 -0.2618972067 -0.142920029 0.0940159668
250298500.0 -0.1409031064 0.1080138806 0.4869342686 -0.2673331406 0.4876661723 -0.2671753869 -0.1424806161 0.095702723
255298470.0 -0.1399152205 0.1091665444 0.4843657121 -0.272671815 0.4848498798 -0.2727342515 -0.1417459915 0.096823318
260298440.0 -0.1393525154 0.1106866746 0.4818142298 -0.2788265531 0.4818701184 -0.2782160146 -0.1406630068 0.0982340972
265298410.0 -0.1376361686 0.1123157696 0.4789085237 -0.2840943905 0.478985215 -0.283903469 -0.1399402298 0.0996688117
270298380.0 -0.1365616032 0.1136662472 0.4763882334 -0.2889754679 0.4759223032 -0.2892452869 -0.139141513 0.1009297835
275298350.0 -0.1350533339 0.1151580646 0.4724067828 -0.2951043617 0.4732339231 -0.2946333288 -0.137953122 0.1019325374
280298320.0 -0.1338985339 0.1167969078 0.4695477421 -0.300579238 0.4696494821 -0.2999168908 -0.1367270889 0.1028396295
285298290.0 -0.1327670819 0.1183097869 0.4663603864 -0.3055272151 0.4661281182 -0.3056482334 -0.1360756751 0.1041378395
290298260.0 -0.1314405984 0.1196655518 0.4627003182 -0.310465995 0.4632899675 -0.3111305139 -0.135068589 0.1058140299
295298230.0 -0.1301629912 0.1207812605 0.4597884053 -0.3161983678 0.4594091282 -0.3160389217 -0.133529858 0.1066645158
300298200.0 -0.1293213211 0.1222207521 0.4565896834 -0.3211229635 0.4565334215 -0.3213947411 -0.1329168402 0.1080310146
305298170.0 -0.1278786542 0.1235906815 0.4524316059 -0.3269186749 0.4525888954 -0.326596697 -0.1315566846 0.108964191
310298140.0 -0.1265895518 0.1248930485 0.4487190491 -0.331508915 0.4490464946 -0.3316843401 -0.1308121337 0.1102044989
315298110.0 -0.1250464736 0.1260792921 0.4454450905 -0.3366627082 0.4456319331 -0.3370519325 -0.1297301888 0.1115860013
320298080.0 -0.1236334431 0.1275423178 0.4410090855 -0.342270091 0.4416266621 -0.3420874656 -0.1287230168 0.1127819739
325298050.0 -0.122645785 0.1288271619 0.4375775844 -0.3471660795 0.4376779073 -0.3471877964 -0.1281468778 0.1135899112
330298020.0 -0.1217199842 0.1299406102 0.4339133851 -0.3520365079 0.4336989328 -0.3520751117 -0.1271392067 0.1150778089
335297990.0 -0.1200431794 0.1311931483 0.4292852431 -0.3566605181 0.4297119319 -0.3569220689 -0.1267087492 0.1168399214
340297960.0 -0.1193114055 0.1328583626 0.4256391076 -0.3614825774 0.4249448683 -0.3618993557 -0.1249557713 0.1180510332
345297930.0 -0.1178516329 0.1346440289 0.421133793 -0.3664336243 0.421064095 -0.3667765598 -0.1241566377 0.1190287044
350297900.0 -0.1164981807 0.1356045674 0.4165526285 -0.3710260873 0.4170479943 -0.3712623386 -0.1235138714 0.1213482232
355297870.0 -0.1149182786 0.137327282 0.4130598706 -0.3754083607 0.413614323 -0.375409495 -0.1227421751 0.1223105933
360297840.0 -0.1136201427 0.1386954356 0.4093537577 -0.3799938381 0.409374285 -0.3801934315 -0.1214532714 0.1235707411
365297810.0 -0.1124461243 0.1401084455 0.404568412 -0.3846234726 0.4047674984 -0.3848934668 -0.1201005002 0.1248145285
370297780.0 -0.1107663035 0.1412607043 0.4002927479 -0.389323068 0.4007507324 -0.3886376421 -0.1191357347 0.126232741
375297750.0 -0.1093613768 0.1427490237 0.3961375802 -0.3936366088 0.3965835359 -0.3936073793 -0.1180344448 0.1274464731
380297720.0 -0.1077101899 0.1438295794 0.3916071269 -0.3980270836 0.3919718411 -0.3971021674 -0.1173428251 0.1284568655
385297690.0 -0.106484633 0.1454460276 0.3872719663 -0.40196471 0.3874634811 -0.4018776263 -0.115827031 0.1301996123
390297660.0 -0.1048536818 0.1469208701 0.3834906602 -0.4064796208 0.3827850263 -0.4060462536 -0.115022695 0.1311971419
395297630.0 -0.103206588 0.1482445394 0.3786905871 -0.4106581392 0.3784846348 -0.4105773683 -0.1130966902 0.1325274888
400297600.0 -0.1017307101 0.149817173 0.3736871859 -0.415178002 0.3737932096 -0.4148036364 -0.1122045232 0.1337125229
405297570.0 -0.1003334959 0.1507306766 0.3695483742 -0.4185939547 0.3695675568 -0.4182523926 -0.1112397802 0.1352249106
410297540.0 -0.0983331192 0.1519022686 0.3647633404 -0.4230852474 0.3650048834 -0.422769994 -0.1099218844 0.1364743691
415297510.0 -0.0966681013 0.152825212 0.3600106348 -0.426980327 0.3602804744 -0.4273097434 -0.1087141876 0.1376962621
420297480.0 -0.0949283094 0.1545490765 0.3552324999 -0.4307904594 0.3554944567 -0.4311451164 -0.1075253049 0.1386033948
425297450.0 -0.0933276407 0.1551554591 0.3507351009 -0.4346401756 0.3508602113 -0.4347403944 -0.1062980661 0.1401946185
430297420.0 -0.0919835674 0.1564931641 0.3459010144 -0.4381258803 0.3458326878 -0.4378331845 -0.1051140833 0.1405103679
435297390.0 -0.090216878 0.1579409173 0.3406756195 -0.4421112478 0.3406852609 -0.4420293811 -0.1033915854 0.1419618201
440297360.0 -0.0883839704 0.1589357936 0.3360429358 -0.445679796 0.336168125 -0.4457654519 -0.1023643024 0.1430470891
445297330.0 -0.0866175904 0.1596682678 0.3311282668 -0.4494877032 0.3314430185 -0.4489372866 -0.1009794494 0.1436486841
450297300.0 -0.0847688042 0.1609298688 0.3263647739 -0.4528370631 0.3261353709 -0.4531132647 -0.099311681 0.1448884844
455297270.0 -0.0830580113 0.1619736263 0.3211101078 -0.456585765 0.3215674989 -0.456822985 -0.098116793 0.1460724599
460297240.0 -0.0817413067 0.1632815889 0.3166843417 -0.4598016383 0.3164700456 -0.4602973555 -0.0970004481 0.1472890039
465297210.0 -0.0796104574 0.1641469206 0.3114023974 -0.4633208483 0.3112696208 -0.463616831 -0.0951931894 0.1478590018
470297180.0 -0.0776555911 0.1650767097 0.3060176766 -0.4668804319 0.3060369049 -0.4668140342 -0.0938312921 0.1495450741
475297150.0 -0.0757863246 0.1657777237 0.3010791475 -0.4693768867 0.3012744479 -0.4699775279 -0.0919750283 0.149900244
480297120.0 -0.0742258735 0.1672461247 0.2959772577 -0.4739554856 0.2958334339 -0.4736939713 -0.0903688215 0.1515202097
485297090.0 -0.0724422192 0.1680615945 0.2910251963 -0.4761269062 0.2908350006 -0.4763463388 -0.0891537644 0.152209955
490297060.0 -0.0709813769 0.1689752808 0.2864117758 -0.4796048911 0.2859401195 -0.4796019969 -0.0875360167 0.1532335502
495297030.0 -0.0689644909 0.1698511715 0.2801040786 -0.4825261713 0.2805240536 -0.4827432377 -0.0862588249 0.1543478005
500297000.0 -0.0669195468 0.1707107791 0.2750028333 -0.4852238509 0.2748307794 -0.485235439 -0.0848579774 0.1559109248
505296970.0 -0.0649494127 0.1714068349 0.2697168375 -0.4884010679 0.269643571 -0.4887984873 -0.0832361419 0.1564782787
510296940.0 -0.0628848904 0.1725913402 0.2640826971 -0.4914294939 0.2640919738 -0.4918549755 -0.0813568522 0.157690334
515296910.0 -0.0613362915 0.1731728522 0.2589182346 -0.4945348546 0.2589876506 -0.4942472273 -0.0797725404 0.1584768679
520296880.0 -0.0593077285 0.1741639249 0.2536006548 -0.4972698821 0.2537649009 -0.4967049957 -0.0784165386 0.159362314
525296850.0 -0.0575211145 0.1742644853 0.2481422509 -0.499853714 0.2481599307 -0.4995911658 -0.0774936275 0.1604777656
530296820.0 -0.0552602938 0.1757373034 0.2422156177 -0.5027248375 0.2424968882 -0.5025918459 -0.0752888979 0.1612003057
535296790.0 -0.0539129606 0.1764059314 0.2372791599 -0.5046908149 0.2375533322 -0.5042785387 -0.0744266689 0.1616799354
540296760.0 -0.0516973611 0.1773328285 0.2316839083 -0.5078106151 0.2317621695 -0.5076304663 -0.0727777699 0.1635628312
545296730.0 -0.0498031847 0.1776952281 0.2254411193 -0.5096813022 0.2261269757 -0.5101668523 -0.0712342141 0.1637940314
550296700.0 -0.0477555118 0.1787877526 0.2206605832 -0.5125706006 0.220700522 -0.5129150519 -0.0698071049 0.1650418215
555296670.0 -0.0457483108 0.1791134714 0.2152255692 -0.5148784414 0.2149817827 -0.5147247959 -0.0680469077 0.1658625242
560296640.0 -0.0436924616 0.1801311465 0.2093339346 -0.517113433 0.2094579106 -0.5173292916 -0.0664467712 0.1668204441
565296610.0 -0.0419337985 0.1806596566 0.2041512512 -0.5196402598 0.203934444 -0.5192915388 -0.0651631889 0.1671546639
570296580.0 -0.0400340858 0.1812941905 0.1980870477 -0.5218664766 0.1977806752 -0.521506014 -0.0635241641 0.1683988546
575296550.0 -0.0381773704 0.1817839991 0.1923640569 -0.5240807804 0.1921999949 -0.5239038892 -0.0616072708 0.1689166362
580296520.0 -0.035706323 0.1824668327 0.1866697116 -0.5257832643 0.1867703689 -0.525472848 -0.0600783977 0.1693972782
585296490.0 -0.0344069615 0.1826548543 0.1816209791 -0.5271597633 0.1810606257 -0.5278700218 -0.0584189018 0.1704556498
590296460.0 -0.0316457172 0.183435741 0.1752413214 -0.5292889109 0.1754023878 -0.5293816495 -0.0575850507 0.1711674078
595296430.0 -0.0298086281 0.1840087992 0.1692458845 -0.5313761596 0.1693206201 -0.5313370181 -0.0553333681 0.1712890067
600296400.0 -0.0277760071 0.1843256764 0.1634448 -0.5330925801 0.1637150029 -0.5326967732 -0.0539838614 0.1721605726
605296370.0 -0.0260512441 0.1848388468 0.1576839082 -0.5346754676 0.1579631411 -0.5347787385 -0.0521067505 0.1730076158
610296340.0 -0.0236607692 0.1850812 0.1516600907 -0.5364253887 0.1519860812 -0.5362096216 -0.0503836225 0.1736598684
615296310.0 -0.0213763251 0.185262413 0.1459681472 -0.5377248382 0.1462009244 -0.5381252035 -0.0482587819 0.1738725268
620296280.0 -0.0196772469 0.1855185797 0.1407290072 -0.5391567635 0.1401233066 -0.5393846632 -0.0472601224 0.1746159282
625296250.0 -0.0178490142 0.1857461655 0.1350699403 -0.5411229483 0.1346159105 -0.541337757 -0.0446770413 0.1752272598
630296220.0 -0.0149508401 0.1863163603 0.128183146 -0.5427589245 0.1279981804 -0.5421890049 -0.0434167547 0.1757677351
635296190.0 -0.0138203506 0.1865568143 0.1227838577 -0.5431096561 0.1228176945 -0.5437898852 -0.0416443684 0.176298776
640296160.0 -0.011657275 0.1869360143 0.1169084603 -0.5450092413 0.117218141 -0.5450573652 -0.0399025429 0.1770401198
645296130.0 -0.0092487997 0.1876910965 0.1108686343 -0.5462307875 0.1113595921 -0.5460964831 -0.0382654824 0.1775761724
650296100.0 -0.0072597717 0.1875177329 0.1046803851 -0.547476523 0.1051063866 -0.5473246446 -0.0360436801 0.1775775697
655296070.0 -0.0054478516 0.1876361478 0.0994338726 -0.5483982647 0.0993456408 -0.5484921119 -0.0341836384 0.1786251842
660296040.0 -0.0036469614 0.1874880158 0.0932975986 -0.5491654962 0.0933701319 -0.549501328 -0.0323805916 0.1790339939
665296010.0 -0.0010396825 0.1876785109 0.0867914689 -0.5499084153 0.0874448166 -0.5500265944 -0.0305453754 0.1794626742
670295980.0 -3.15929e-05 0.1882324852 0.0816223122 -0.5509424657 0.0810860102 -0.5508157516 -0.0291879911 0.1798010929
675295950.0 0.0028357348 0.188286563 0.075374519 -0.5515309124 0.0752552563 -0.5516305308 -0.0276048739 0.1801923771
680295920.0 0.004575943 0.188132064 0.0693650314 -0.5520944183 0.0690139337 -0.553070486 -0.025560449 0.1813706928
685295890.0 0.0069744562 0.1888010502 0.0631188561 -0.5529681691 0.0632182427 -0.5533571086 -0.0235786283 0.1817284656
690295860.0 0.0091252775 0.1886446024 0.0575525433 -0.5533373724 0.0573472481 -0.5541047017 -0.0221562568 0.1825414018
695295830.0 0.0111473262 0.1884247884 0.0517130775 -0.5543457609 0.0512520193 -0.5548968353 -0.0203579245 0.1825480445
700295800.0 0.0132847495 0.1883379936 0.0453271528 -0.5547400531 0.0450109966 -0.5548081485 -0.0188790683 0.1833179302
705295770.0 0.0150642727 0.188907441 0.0390678582 -0.5554221424 0.0396951732 -0.5554006769 -0.017176181 0.1838347414
710295740.0 0.0173417413 0.1887214686 0.0338655946 -0.5558135567 0.0337792488 -0.5560115112 -0.0150052217 0.183651876
715295710.0 0.0190972809 0.188376061 0.0278071968 -0.5562663428 0.0274486768 -0.5562184118 -0.0129899905 0.1840579109
720295680.0 0.0212627256 0.1883092896 0.0217244719 -0.5563567554 0.0218166457 -0.5564282986 -0.0117714573 0.184643303
725295650.0 0.0237167368 0.1885035625 0.0155700951 -0.5566174957 0.0153153762 -0.5569022339 -0.0102243835 0.1851222215
730295620.0 0.0261320543 0.1882886104 0.0092249863 -0.5564458563 0.0094419319 -0.5565449343 -0.0085725633 0.1849378667
735295590.0 0.0279270767 0.1882974551 0.0036209975 -0.5567102049 0.0033879961 -0.5565021882 -0.0070472116 0.184992401
740295560.0 0.0296054024 0.1878848581 -0.0023535271 -0.5562936 -0.002852654 -0.5567582148 -0.004411465 0.1858263298
745295530.0 0.0315751042 0.1879973917 -0.0085247225 -0.5560473186 -0.0085660701 -0.556386501 -0.0029174437 0.1853798459
750295500.0 0.0338154239 0.187596296 -0.014497352 -0.5560807495 -0.0146104519 -0.5564761076 -0.001296506 0.1857485568
755295470.0 0.0359816866 0.1872062317 -0.0201031909 -0.5559700162 -0.0202818612 -0.5563041122 0.0007053208 0.1855807428
760295440.0 0.0377161423 0.187241814 -0.0264368619 -0.5560466937 -0.0266254894 -0.5562623966 0.0023145394 0.185775358
765295410.0 0.0402157454 0.1866666859 -0.0327655479 -0.5556453405 -0.0328869438 -0.5557286435 0.0046450061 0.1860821139
770295380.0 0.0417520892 0.1863356017 -0.0384169255 -0.5554183584 -0.0387784701 -0.5551907305 0.0058761287 0.1859427649
775295350.0 0.0439889719 0.1856586651 -0.0447432834 -0.5544228379 -0.0443353164 -0.55462987 0.0072332004 0.1861528735
780295320.0 0.0462469019 0.1858069784 -0.0503181427 -0.553891985 -0.0498814388 -0.5542159455 0.0092885531 0.1853844591
785295290.0 0.0478761588 0.1849444945 -0.056791156 -0.552893498 -0.0564352102 -0.5535327266 0.0116151609 0.1859224882
790295260.0 0.0505727344 0.1850778812 -0.0620136355 -0.5526547002 -0.0613923287 -0.5526360972 0.013559527 0.1859739987
795295230.0 0.0524245734 0.1844400501 -0.0683036518 -0.5516557441 -0.0683542453 -0.5517170094 0.0154352766 0.1863287691
800295200.0 0.0541684217 0.1839914951 -0.0746344729 -0.5509511954 -0.0743695487 -0.5510561445 0.0173211053 0.1858834889
805295170.0 0.0564096584 0.1832690596 -0.080770001 -0.5504242692 -0.080214727 -0.550249159 0.01887542 0.1860784053
810295140.0 0.0582023402 0.1825498144 -0.0854632778 -0.5491843952 -0.0864749315 -0.5492284378 0.021328147 0.1862210152
815295110.0 0.0602910854 0.1822717164 -0.0919615105 -0.5480025601 -0.091522317 -0.5483945031 0.0227982023 0.186232736
820295080.0 0.061828116 0.1820877758 -0.0976706222 -0.5468723861 -0.0974494629 -0.5472576693 0.0244320857 0.1859524109
825295050.0 0.0647926197 0.1814920475 -0.1036499555 -0.5453503631 -0.1035503007 -0.5462989595 0.0265616349 0.1858470453
830295020.0 0.0661426428 0.1808286507 -0.1096612502 -0.5444313441 -0.1096108939 -0.5449213105 0.0290722889 0.1857547296
