!Created with skrf (http://scikit-rf.org).
# Hz S RI R 50.0 
!freq ReS11 ImS11 ReS21 ImS21 ReS12 ImS12 ReS22 ImS22
300000.0 -0.775187759 -0.177956129 -0.0008791146 0.0004935551 0.0007991468 0.0015967183 -0.0450916089 -0.0741279542
5299970.0 -0.7860939362 -0.0094264748 -1.75312e-05 -8.27333e-05 -1.91361e-05 8.43716e-05 -0.0480061454 0.014034182
10299940.0 -0.7892696002 -0.0057128532 -4.6027e-06 -8.98938e-05 -2.32759e-05 -0.0001301813 -0.041813316 0.0313528016
15299910.0 -0.7947335191 -0.0036010348 8.33563e-05 0.000209747 -2.94469e-05 -3.4993e-06 -0.0340484909 0.0454559597
20299880.0 -0.8006873553 0.0005386645 0.0001425326 -5.0738e-06 4.00931e-05 0.0003479943 -0.0241311765 0.0572147441
25299850.0 -0.8077646478 0.0064686084 -3.756e-06 0.0001986275 -5.663e-06 7.16681e-05 -0.0134990187 0.0661813081
30299820.0 -0.814150691 0.0141068405 5.75543e-05 0.0001297035 -3.88437e-05 5.46904e-05 -0.0020287158 0.0727945669
35299790.0 -0.818606911 0.0232211417 -2.73358e-05 -2.36769e-05 0.0001102181 4.36239e-05 0.0088465891 0.0773501096
40299760.0 -0.8235531767 0.0324169361 -6.23361e-05 -7.77597e-05 0.000180638 -0.0001064245 0.0200787763 0.0798870904
45299730.0 -0.8264963881 0.0417601138 0.0001416172 -0.0001069358 6.75495e-05 0.0001165937 0.0306546655 0.0814856601
50299700.0 -0.8292120361 0.0520118953 -0.0002241034 5.502e-05 -0.0001254954 -4.85172e-05 0.0403504378 0.081495364
55299670.0 -0.8310291176 0.0610787512 -6.84866e-05 1.08688e-05 -9.54146e-05 4.59735e-05 0.0493990969 0.0803551491
60299640.0 -0.8323102392 0.0712655376 -5.27176e-05 8.45098e-05 0.0001371903 0.0001434062 0.057922271 0.0782405896
65299610.0 -0.833342311 0.0816882111 0.0001704928 -0.0002317922 -8.08539e-05 4.08824e-05 0.0653013196 0.0759521647
70299580.0 -0.8336219443 0.091751374 3.2731e-06 -0.0001514308 3.89531e-05 -7.0142e-05 0.0720757808 0.0732219954
75299550.0 -0.8340056026 0.1014616315 -7.8521e-06 1.98095e-05 -1.23393e-05 5.0146e-05 0.0782488332 0.0698352426
80299520.0 -0.8337694205 0.1121679982 -0.000122143 -5.01947e-05 6.41466e-05 9.7481e-05 0.0841665843 0.0663284106
85299490.0 -0.8331164371 0.1211915622 2.66831e-05 7.6284e-06 0.0001293029 0.0001803342 0.0888701255 0.0626385741
90299460.0 -0.8320147772 0.1318400102 8.05827e-05 4.66623e-05 -3.16325e-05 5.36238e-05 0.0932545316 0.0587330069
95299430.0 -0.8316505378 0.1402719737 0.0001224198 8.77741e-05 0.0001000476 0.0001091918 0.0973060509 0.0548565977
100299400.0 -0.8302702957 0.1500251281 -0.0002739905 -3.66528e-05 -9.39223e-05 0.0001129007 0.1010833649 0.0510130292
105299370.0 -0.8292285244 0.1597189041 -6.01246e-05 -0.0001911538 0.0001268875 0.0001379934 0.1041748617 0.0466131574
110299340.0 -0.8274489286 0.1682592599 9.16211e-05 1.00921e-05 0.0001157717 -0.0001255807 0.1066377 0.0427483417
115299310.0 -0.8260862563 0.1779500513 0.0002431811 1.19576e-05 0.0002122532 -1.3656e-05 0.1091566842 0.0390940616
120299280.0 -0.8240984312 0.1863346211 8.51645e-05 -7.95755e-05 -0.0001990559 2.94557e-05 0.1113575517 0.0349072037
125299250.0 -0.822202627 0.195886401 -1.16285e-05 1.03482e-05 -0.0001021749 -0.0001534464 0.1132974739 0.0310598841
130299220.0 -0.8209192004 0.2052808538 -3.6441e-06 4.77196e-05 1.92674e-05 0.0001265465 0.1147869769 0.0272464728
135299190.0 -0.8182392709 0.2144178258 -4.82532e-05 1.62219e-05 -3.1618e-05 -7.4009e-05 0.1163102258 0.02381437
140299160.0 -0.8170182638 0.2233535748 0.0001141048 5.47764e-05 5.9497e-06 -8.61602e-05 0.117280376 0.0201864933
145299130.0 -0.8146672199 0.2323933819 -2.95548e-05 0.0001477094 9.86332e-05 6.64177e-05 0.1185360592 0.0168384636
150299100.0 -0.8118491585 0.2410818361 0.0001435928 -3.6315e-05 0.0001228379 5.13771e-05 0.1191915856 0.0132728607
155299070.0 -0.809812956 0.2504282107 -9.68915e-05 9.35676e-05 -0.0001279271 -3.93609e-05 0.1199337192 0.0099608538
160299040.0 -0.8073734299 0.2591461728 5.12701e-05 -5.8664e-05 -3.12958e-05 0.000237921 0.1203208217 0.006605375
165299010.0 -0.8048509899 0.267057234 2.8272e-06 -5.88862e-05 0.0001674954 -2.83687e-05 0.1209266798 0.0033619226
170298980.0 -0.8013209734 0.2759909617 8.45076e-05 -0.0002024363 0.0001936261 0.0001655085 0.1209609494 0.0005368549
175298950.0 -0.7993943493 0.2849913046 -0.0001720383 0.0001160619 7.53494e-05 5.44543e-05 0.1213630725 -0.0024853094
180298920.0 -0.7956398515 0.2937951566 0.0001047819 -7.20601e-05 0.0001071876 -0.0001328483 0.1215114425 -0.0057402196
185298890.0 -0.7927311309 0.3024069657 0.0002173438 -0.0003337151 0.0002374055 0.0001967539 0.121714302 -0.008792139
190298860.0 -0.7900473235 0.3111188382 8.91375e-05 -0.0001761255 0.0001307916 -0.0001051528 0.1213754893 -0.0117642816
195298830.0 -0.786401771 0.3192415254 -3.53292e-05 2.92973e-05 -0.0001335491 -6.39818e-05 0.1209264491 -0.0144216258
200298800.0 -0.7828339091 0.3279053736 -2.79649e-05 0.000136283 8.93377e-05 -0.0002084522 0.1208017979 -0.0170768042
205298770.0 -0.7794126622 0.3364190268 3.75218e-05 5.71098e-05 -8.76312e-05 5.43772e-05 0.1204590657 -0.0199857372
210298740.0 -0.7760730012 0.3449558303 5.4188e-06 -6.3391e-06 0.0001376663 9.31595e-05 0.1200109881 -0.0222076752
215298710.0 -0.7720332899 0.353271073 8.31e-07 -0.0001438171 -8.14496e-05 0.0001156103 0.1197712833 -0.0250842994
220298680.0 -0.7689519751 0.360828031 -1.45791e-05 -0.0001387039 -0.0001155939 0.0001164695 0.1193218729 -0.0271830147
225298650.0 -0.7646768577 0.3694940111 7.31608e-05 -5.53311e-05 4.89582e-05 -7.33256e-05 0.1184747537 -0.0299296746
230298620.0 -0.7609534402 0.3782375618 0.0001936539 8.20148e-05 -1.1589e-05 4.33083e-05 0.1180314298 -0.0323137294
235298590.0 -0.7572507157 0.3853597664 0.0001295664 -0.0001179497 6.23e-06 -0.0001569458 0.1173269297 -0.0343091827
240298560.0 -0.7526622524 0.39384503 -0.0001208392 0.0001169035 5.70423e-05 -3.4577e-05 0.1165801748 -0.0368723587
245298530.0 -0.749079231 0.4010575879 0.0001794726 -1.89364e-05 -2.04092e-05 0.0003411358 0.1156691648 -0.0394113414
250298500.0 -0.7441592306 0.4091879438 0.0001659757 0.0001873979 -3.2713e-05 -9.4047e-06 0.115005035 -0.0411982092
255298470.0 -0.7404562022 0.4175248328 8.89983e-05 0.0001682502 0.0001195157 6.33475e-05 0.1145537984 -0.0437448208
260298440.0 -0.7364765007 0.4251863226 4.24137e-05 -1.396e-05 -4.95809e-05 -5.69446e-05 0.1129416668 -0.0457015198
265298410.0 -0.7318085639 0.4327384035 1.87783e-05 -1.41261e-05 -0.0001699276 8.8183e-05 0.1130080521 -0.0481232945
270298380.0 -0.7273175092 0.4403698938 1.96626e-05 -2.69795e-05 2.16732e-05 0.0001684529 0.1117316925 -0.0498620214
275298350.0 -0.7231497404 0.447979396 -0.0001308176 -9.9712e-05 3.07398e-05 -0.0001572988 0.1110111429 -0.0520272697
280298320.0 -0.718402406 0.4559222886 3.6217e-05 9.06164e-05 6.48413e-05 6.71083e-05 0.109786053 -0.0536665372
285298290.0 -0.713793988 0.4636979334 0.0001013089 -9.66591e-05 1.70553e-05 -8.91666e-05 0.108559846 -0.0554600343
290298260.0 -0.7085656545 0.4711690702 0.0001193598 0.0001445708 4.52608e-05 -3.82722e-05 0.1079131459 -0.0574919266
295298230.0 -0.7040135355 0.4782008712 -3.78263e-05 0.0002155605 -1.04876e-05 2.3259e-05 0.1069295972 -0.0596288763
300298200.0 -0.6992758119 0.4857823549 -9.0147e-06 0.000142318 0.0001298267 3.4718e-05 0.106083434 -0.061187314
305298170.0 -0.6946600387 0.4926094446 3.92971e-05 -5.37601e-05 -6.72376e-05 2.42717e-05 0.1051271793 -0.0630533642
310298140.0 -0.6888234981 0.4996140693 -5.56219e-05 6.7461e-06 0.0001357057 0.0001849337 0.1038642573 -0.0650764318
315298110.0 -0.684534904 0.506988105 0.0001100662 -1.97441e-05 0.0001174401 -6.46758e-05 0.1030792731 -0.0666363645
320298080.0 -0.6789189504 0.5146447127 2.56354e-05 -0.00012908 0.0001225939 0.0002838928 0.1014362919 -0.0684069998
325298050.0 -0.6737017527 0.5207878138 0.0001321963 -9.22068e-05 2.62988e-05 -1.39195e-05 0.1006005034 -0.0705412617
330298020.0 -0.6680046461 0.5281138994 -3.1757e-06 7.17864e-05 -8.31994e-05 0.0001005594 0.0990293926 -0.072456561
335297990.0 -0.662500948 0.5346866573 9.19904e-05 8.11299e-05 5.0535e-05 7.9181e-05 0.0975845992 -0.0740942493
340297960.0 -0.6579148097 0.5417711371 -4.64164e-05 3.84722e-05 0.0001499266 8.1036e-05 0.0963866158 -0.07519435
345297930.0 -0.651921167 0.5483175402 0.0002150276 -0.0001590105 0.0001379537 2.95949e-05 0.0947254794 -0.0767849868
350297900.0 -0.6459920169 0.5550989934 0.0001854368 -0.0001029768 2.2617e-05 0.0001284533 0.0929563165 -0.0783846585
355297870.0 -0.6409812031 0.5611072623 -3.98956e-05 3.27418e-05 -1.51794e-05 0.0001337146 0.0918933391 -0.0795545322
360297840.0 -0.6346643199 0.5679323527 0.0002108572 0.0001079267 0.0001162227 0.0001048697 0.0903197258 -0.0810057262
365297810.0 -0.6294894391 0.5744287595 7.46918e-05 -5.03238e-05 -2.2745e-06 -2.15371e-05 0.0888735696 -0.082368229
370297780.0 -0.6236026429 0.5806515802 1.36034e-05 0.0001413124 0.0001153315 4.4332e-05 0.0875152806 -0.083597305
375297750.0 -0.6173433126 0.5874716085 3.63767e-05 -0.0001005642 3.73403e-05 0.0001518197 0.0859927977 -0.085014929
380297720.0 -0.6119862425 0.5938420015 -1.85922e-05 8.79703e-05 0.0001746481 -0.0001054074 0.0849588933 -0.0859393576
385297690.0 -0.6057999388 0.5994312452 9.8124e-05 0.0001832874 -0.0001270472 -0.00016028 0.0833642728 -0.0871191801
390297660.0 -0.5980880262 0.6054053939 0.0001085286 0.0001146072 -8.0533e-05 4.50552e-05 0.0818883636 -0.0883724983
395297630.0 -0.5927041275 0.6121995531 9.8973e-05 9.67408e-05 0.0001013635 -0.0001724986 0.0802038228 -0.0896278603
400297600.0 -0.5868000744 0.6183676266 9.47896e-05 -0.000207726 1.04312e-05 4.28538e-05 0.0790577663 -0.0904915101
405297570.0 -0.5807002663 0.622990476 -2.4158e-05 -1.92836e-05 0.0001994127 -0.0001022413 0.0777381401 -0.0917878609
410297540.0 -0.5734296612 0.6295290869 -0.0001461151 -6.70243e-05 9.78512e-05 0.0001627108 0.076072237 -0.0926027568
415297510.0 -0.5677027188 0.6356648517 5.57209e-05 -2.77586e-05 -0.0001107127 9.25575e-05 0.0746008268 -0.0939280659
420297480.0 -0.5606375618 0.6409160145 0.0002006227 -5.25412e-05 1.17131e-05 -0.0001938692 0.0733049964 -0.0947338483
425297450.0 -0.5544403685 0.6462348881 0.0002656431 5.26199e-05 0.000262911 -7.41205e-05 0.0714752015 -0.0962193204
430297420.0 -0.5475108248 0.6518982638 4.47906e-05 0.0002845538 -6.44181e-05 -8.4066e-06 0.0703306108 -0.0968511021
435297390.0 -0.5403923193 0.6570932026 -0.0001472903 0.0002170953 0.0001232625 5.6479e-05 0.0682884665 -0.0975710579
440297360.0 -0.5338840301 0.6628151569 0.0001389075 2.73631e-05 5.91368e-05 -7.24035e-05 0.066997302 -0.0986609823
445297330.0 -0.5265307804 0.6679869365 7.89208e-05 1.11519e-05 -2.79455e-05 0.0001654147 0.065701051 -0.0994590241
450297300.0 -0.5202117008 0.6734451055 0.0002073737 6.01988e-05 0.0001147811 -0.0001331884 0.0640920009 -0.1002608006
455297270.0 -0.5136497394 0.6788530255 1.8529e-06 0.0001390092 -0.0001811287 0.000148195 0.0624073995 -0.1011317385
460297240.0 -0.5059120971 0.6843201684 0.0002557541 1.73858e-05 0.000107145 7.88354e-05 0.0607142744 -0.1021323394
465297210.0 -0.499180125 0.6889663625 0.0003591647 -0.0001201235 0.0002963674 -0.0001374009 0.0593287407 -0.1025621461
470297180.0 -0.4920782626 0.6941192121 2.0243e-06 7.31992e-05 0.000158169 0.000273243 0.0576840311 -0.103472343
475297150.0 -0.4847242193 0.699103532 6.0858e-05 9.8769e-06 5.18878e-05 0.000143541 0.0564898733 -0.1041152071
480297120.0 -0.4767943873 0.7040753603 -5.73913e-05 1.22008e-05 0.0003605761 0.0002012513 0.0543050899 -0.1049703467
485297090.0 -0.4701182362 0.7086794635 6.86285e-05 0.0001506662 0.0001365211 -0.0001658091 0.0530874829 -0.1059438006
490297060.0 -0.4621254836 0.7139897923 -1.77442e-05 -7.5036e-05 8.23356e-05 0.000215748 0.0513413207 -0.1063230525
495297030.0 -0.4543269823 0.7182560416 0.0001558849 -2.53221e-05 0.0001764349 -6.86878e-05 0.0498698004 -0.1072517655
500297000.0 -0.4473622277 0.7221921676 0.0001420843 9.64594e-05 0.0003422617 -3.4276e-06 0.0482605613 -0.1077055989
505296970.0 -0.4390735768 0.7270466767 -5.14043e-05 -8.44786e-05 0.000102779 1.26781e-05 0.0463629108 -0.1083636871
510296940.0 -0.4318543868 0.7315137692 0.0002570715 8.63687e-05 0.0002691176 1.99754e-05 0.0451652805 -0.1086715238
515296910.0 -0.4240861957 0.7354066051 -0.0001500188 0.0001182491 -1.405e-06 0.0001566329 0.0431497089 -0.1094012186
520296880.0 -0.4161621763 0.7400338565 -2.98371e-05 -0.0001204936 0.0003618882 -3.22699e-05 0.0419535301 -0.1098957428
525296850.0 -0.4088598001 0.7439063397 9.73547e-05 5.18654e-05 -8.06593e-05 -2.84783e-05 0.039987474 -0.1102199081
530296820.0 -0.4010904381 0.7483926061 0.0001873544 -0.0001236237 0.0001381721 -4.5624e-05 0.0383291041 -0.1107983651
535296790.0 -0.3922796113 0.7518735368 0.0002251357 1.3692e-06 0.0001110789 6.35292e-05 0.0370898461 -0.1112747117
540296760.0 -0.3853931431 0.756615194 2.48352e-05 2.41966e-05 7.73805e-05 7.2823e-05 0.0350608788 -0.1119870459
545296730.0 -0.3776631484 0.7600254692 8.9307e-06 5.838e-06 8.68285e-05 -1.38381e-05 0.0335225787 -0.1121822858
550296700.0 -0.3692292862 0.7635367238 -0.0001018332 0.0001717403 5.02478e-05 2.80469e-05 0.0317420922 -0.1127235233
555296670.0 -0.3615548049 0.7672889995 0.0001164624 -5.3341e-06 3.47155e-05 6.86227e-05 0.02993221 -0.1131977407
560296640.0 -0.3529094139 0.7707968261 0.0003082768 3.79731e-05 -3.72131e-05 7.03818e-05 0.0283314655 -0.1134679897
565296610.0 -0.3459408641 0.7743824879 7.27611e-05 9.46204e-05 0.0002303827 5.37984e-05 0.0267185055 -0.113391444
570296580.0 -0.3368492703 0.7779847021 0.0002522437 -0.0001929845 4.46702e-05 0.0001025335 0.0249106248 -0.1139794208
575296550.0 -0.3283634695 0.7813668771 7.64038e-05 5.3536e-05 4.90032e-05 0.0001766774 0.0233577252 -0.1141978256
580296520.0 -0.3209676787 0.7845933587 -3.1871e-06 -0.0001513993 0.0002268699 0.000123518 0.0217361661 -0.1145072276
585296490.0 -0.3124836142 0.7877727339 5.1401e-05 -0.0001885617 0.000179404 -0.0001147328 0.0201159051 -0.11447692
590296460.0 -0.303427785 0.7906835881 0.0001470565 0.0002061611 0.0002021152 7.33955e-05 0.0183201926 -0.114631199
595296430.0 -0.2958541848 0.7937500922 0.0002617844 -0.0001579495 0.0001566037 7.7687e-06 0.0167002481 -0.1150919632
600296400.0 -0.2880085671 0.7964523354 6.45722e-05 3.53095e-05 0.0002406217 -7.0202e-06 0.0147980182 -0.11500979
605296370.0 -0.2795041774 0.7996885256 9.23957e-05 0.0001253158 4.6911e-06 -0.0003150857 0.0135613268 -0.1151090895
610296340.0 -0.2711975207 0.8031356584 0.0002335067 5.60967e-05 7.93699e-05 9.78553e-05 0.0115271391 -0.1150376023
615296310.0 -0.2627854038 0.8054493476 0.0001548769 2.13616e-05 -5.22743e-05 0.0001533961 0.0098179692 -0.1154115489
620296280.0 -0.2554105897 0.808543275 -9.0084e-05 -0.0001340735 -0.0001155095 -8.04662e-05 0.008252559 -0.1152453538
625296250.0 -0.2474080456 0.809981206 0.0002524414 1.4572e-05 0.0003274902 -4.21919e-05 0.0064190214 -0.1154431823
630296220.0 -0.2385619478 0.813733829 0.0001402118 0.0002078679 0.000188649 -0.0001158719 0.004924306 -0.1151019889
635296190.0 -0.2306127638 0.8155380952 0.0002059625 -0.0002837335 6.36628e-05 2.76884e-05 0.0030878669 -0.1151639615
640296160.0 -0.22173503 0.8175739733 0.0001426897 1.72623e-05 7.2147e-05 -6.2152e-05 0.0017006107 -0.115381145
645296130.0 -0.2136305025 0.8200807562 0.0002202161 2.82325e-05 0.0001694319 7.13579e-05 -0.0002457828 -0.11513601
650296100.0 -0.2050751454 0.8220898664 0.0001884351 0.0001506643 9.93971e-05 6.04546e-05 -0.0016426945 -0.1149801326
655296070.0 -0.1976989006 0.8250562282 0.0003049903 -2.7449e-06 2.3771e-05 -2.73896e-05 -0.0038745266 -0.1149824856
660296040.0 -0.1893525882 0.8258725768 0.0001102852 -0.0001440939 0.0001828954 6.2053e-05 -0.0053132668 -0.1150103261
665296010.0 -0.1807312529 0.8286039832 0.0002285677 -0.0001762265 0.0001688884 0.0001499271 -0.0067178683 -0.1146588913
670295980.0 -0.1726540223 0.8304762642 2.35908e-05 -0.0001320094 0.0001110019 -6.1153e-06 -0.0086926652 -0.11437064
675295950.0 -0.1639576963 0.8323953375 0.0001945926 0.0002217126 0.0001113789 -8.3314e-05 -0.0100652058 -0.1138792673
680295920.0 -0.1565402097 0.8335216968 8.05572e-05 -0.0001097944 0.0003253492 7.7924e-06 -0.0120161778 -0.113902328
685295890.0 -0.1475778459 0.8360943908 -1.96979e-05 0.0001522165 0.0001847094 3.353e-06 -0.0133494955 -0.1133106218
690295860.0 -0.1390016127 0.8368150242 0.0001256869 -5.81868e-05 0.0003333724 0.0001357687 -0.0152132605 -0.1133437613
695295830.0 -0.1303032386 0.838165851 -8.3662e-06 -0.000136845 4.06051e-05 -0.0001849448 -0.017183344 -0.1129444647
700295800.0 -0.1227209104 0.8398915293 -6.88034e-05 0.0002211583 2.55002e-05 1.8351e-05 -0.0182337306 -0.1127762351
705295770.0 -0.1148003443 0.8414548913 0.0003550677 1.44062e-05 1.97173e-05 3.10124e-05 -0.0202777931 -0.1120892832
710295740.0 -0.1067144239 0.842119876 3.41349e-05 -0.0001172141 0.0002647401 -7.87787e-05 -0.0215698725 -0.1120970352
715295710.0 -0.0977251694 0.8432750221 0.0001233233 -0.0001292103 0.0002842345 -3.56083e-05 -0.0230288676 -0.1117457511
720295680.0 -0.0892348256 0.8442847164 0.0001764391 -0.0002123436 0.0001077101 -0.0001838027 -0.0248904521 -0.111415768
725295650.0 -0.0815397957 0.8455822309 0.0002236478 -0.0002520459 0.0001066055 4.73863e-05 -0.0264785254 -0.1106527117
730295620.0 -0.0735459465 0.8466215333 8.01729e-05 0.0001682862 0.0001147037 -0.0001817448 -0.0282197298 -0.1101540917
735295590.0 -0.0651160563 0.8475590658 0.0001724448 -5.73134e-05 0.000486655 -7.62069e-05 -0.0296863519 -0.1096153386
740295560.0 -0.0574069476 0.8472375584 0.0001717495 1.97268e-05 -0.0002496171 0.0003060147 -0.0313116356 -0.108954032
745295530.0 -0.0488261554 0.8481627976 0.0003401525 -8.35361e-05 0.0003538431 -2.95975e-05 -0.0330773824 -0.1085155025
750295500.0 -0.0407548249 0.849129322 0.0001381933 3.34348e-05 4.91146e-05 4.02013e-05 -0.0348380483 -0.1081125062
755295470.0 -0.0319802289 0.8501520712 0.0001792773 -0.0001103168 3.66723e-05 -0.0001365124 -0.0359779083 -0.1069297606
760295440.0 -0.0238089418 0.8504585069 0.0001777941 0.0001634941 0.0001586349 -3.38878e-05 -0.037516464 -0.106988412
765295410.0 -0.0157537895 0.8503538406 0.0001000051 -0.0001397775 0.0002823346 -0.0002507816 -0.0388787151 -0.1064739452
770295380.0 -0.0085453878 0.8512100418 6.55216e-05 -4.91612e-05 0.000215329 0.0001522873 -0.0410121297 -0.1056586073
775295350.0 -0.0002875954 0.8513456082 0.0001494238 1.59392e-05 0.0001086407 3.72777e-05 -0.042126003 -0.1051764148
780295320.0 0.0086532971 0.8512428964 0.0001406756 5.90489e-05 0.0002163909 -0.0002104225 -0.0435620675 -0.1043561588
785295290.0 0.0168571081 0.8511095376 0.0001895016 -1.91645e-05 0.000190036 -0.0001001887 -0.0454369176 -0.1035524671
790295260.0 0.0254403969 0.8506685975 0.0001366761 2.003e-07 0.0002088891 0.0001358283 -0.0469032863 -0.1025461333
795295230.0 0.0334378124 0.8503594194 0.0001898957 0.0001906866 3.20378e-05 -0.0002178532 -0.0487857708 -0.1024810025
800295200.0 0.0409008077 0.8503245416 0.0003224161 0.0001342847 0.0003453943 5.67964e-05 -0.0498920814 -0.1017436044
805295170.0 0.049288341 0.8504709131 0.0002449272 3.19103e-05 0.0001713221 5.92e-06 -0.0508992651 -0.1007638845
810295140.0 0.0577012059 0.8504075368 0.0002250451 -0.000152083 8.57529e-05 3.89707e-05 -0.0529438525 -0.1000371102
815295110.0 0.0655397198 0.8494732518 5.525e-06 1.45013e-05 0.0001236389 1.80113e-05 -0.0547113407 -0.0989725346
820295080.0 0.0740280563 0.849135015 -7.79735e-05 -3.24601e-05 0.0001399393 -0.0001087359 -0.0559463757 -0.0977917199
825295050.0 0.0820126089 0.8482172987 0.000218349 -2.06746e-05 0.0001817213 1.74774e-05 -0.0569775649 -0.0971465119
830295020.0 0.0908701856 0.8472344026 3.66196e-05 -3.40026e-05 0.000160699 0.0002125579 -0.0586898532 -0.096551996
835294990.0 0.0978461234 0.8466342428 2.52352e-05 -0.0001060573 0.0001036165 -3.06401e-05 -0.0600060048 -0.0951781912
840294960.0 0.1067570317 0.8454038956 6.75022e-05 7.05197e-05 0.0001765472 -0.0002061213 -0.0616495206 -0.0942515908
845294930.0 0.1152457412 0.8446058017 0.0001254672 0.0001204634 7.76432e-05 -0.0002711361 -0.0628827675 -0.0934640783
850294900.0 0.1241804035 0.8432620074 0.0003397406 -0.0002658759 0.0002608559 2.36592e-05 -0.0641675713 -0.0924608945
