!Created with skrf (http://scikit-rf.org).
# Hz S RI R 50.0 
!freq ReS11 ImS11 ReS21 ImS21 ReS12 ImS12 ReS22 ImS22
300000.0 -0.0496521345 -0.0385030037 -0.0002480131 -8.66405e-05 0.000561284 0.0010655508 -0.7741109842 -0.1243274836
5299970.0 -0.0497810848 0.0160894361 7.81491e-05 -9.1723e-05 4.286e-06 0.0002646162 -0.7854827369 -0.0067109233
10299940.0 -0.0441176536 0.0328030866 8.85696e-05 0.0002182728 2.00566e-05 -0.0001609298 -0.7888464158 -0.0036508515
15299910.0 -0.0362211524 0.0471418125 -4.97459e-05 -3.28198e-05 -7.1336e-06 -0.000104673 -0.7940726789 -0.0016095453
20299880.0 -0.0263173532 0.0588033996 0.0001205761 0.0001365012 0.0001639759 -0.0001221362 -0.8007968742 0.0021294363
25299850.0 -0.0154571661 0.0683048304 -1.39158e-05 -0.0002640738 -3.75312e-05 -9.06564e-05 -0.8065640151 0.008239712
30299820.0 -0.004155915 0.0750782831 3.4812e-05 -5.96084e-05 0.0001265059 -2.71288e-05 -0.8127581182 0.0162480361
35299790.0 0.0072123557 0.0796484336 0.000149526 8.41057e-05 0.0001293036 -4.47897e-05 -0.8175462828 0.024775669
40299760.0 0.0185241279 0.0825753544 1.93974e-05 0.0002388521 5.5692e-06 0.0001519521 -0.8222762251 0.0342073748
45299730.0 0.0290637059 0.0842875312 1.66464e-05 1.76486e-05 1.94358e-05 -9.9033e-06 -0.8250865366 0.0439530601
50299700.0 0.0390503489 0.0844456199 2.25319e-05 0.0001660085 0.0001480545 4.95824e-05 -0.8272909854 0.0531811539
55299670.0 0.0482429343 0.0837653669 4.4989e-05 0.0001667786 0.0001984891 8.22286e-05 -0.8295899332 0.0640750131
60299640.0 0.0567682405 0.0821597171 -3.2026e-05 0.0002024192 -0.0001775274 0.0001839144 -0.8303572107 0.0741459127
65299610.0 0.0647630874 0.0795951481 -0.0001036909 0.0001613644 2.4327e-05 -7.57765e-05 -0.8317804622 0.08403136
70299580.0 0.0716010462 0.0769786474 -0.0001347423 -2.01395e-05 3.98032e-05 0.0001510302 -0.8317718288 0.0939999307
75299550.0 0.0778403015 0.0737493198 9.94145e-05 2.6532e-06 7.07452e-05 9.17306e-05 -0.8318536875 0.1039071514
80299520.0 0.0836673693 0.0706546748 0.0001883554 7.53841e-05 9.88646e-05 0.0002195837 -0.8319669842 0.1140708226
85299490.0 0.088613118 0.0666237352 4.26867e-05 8.28083e-05 0.0002006597 -3.1692e-06 -0.8313233544 0.1236928441
90299460.0 0.093467748 0.0633090115 -7.0789e-06 7.67465e-05 7.037e-07 0.000393538 -0.8306158032 0.1330117955
95299430.0 0.0975050024 0.0592772235 -4.93161e-05 0.0001404577 5.5263e-06 -3.37687e-05 -0.829232218 0.1427027597
100299400.0 0.101027893 0.0556614454 6.02969e-05 0.000170896 -4.06165e-05 0.0001308126 -0.8288778461 0.1522371369
105299370.0 0.1044726554 0.0519610442 0.0001515627 0.0002536722 0.0001321985 0.0002302363 -0.8270892776 0.1607547693
110299340.0 0.1074406882 0.0481420464 0.0003144396 -1.95866e-05 3.23155e-05 6.33787e-05 -0.825811341 0.1705039445
115299310.0 0.1103993459 0.0443292555 -1.74695e-05 -8.00652e-05 -0.0001172624 0.0002020934 -0.824343197 0.1795921163
120299280.0 0.1125008566 0.0402741001 0.00021274 0.0003481442 0.0002686004 0.0001094956 -0.8225266912 0.1888285281
125299250.0 0.1143415492 0.0364916653 0.0001230867 3.58403e-05 -0.0002033843 2.71081e-05 -0.8211316546 0.1981178999
130299220.0 0.1158682814 0.0332744948 0.0003106235 0.0001299053 0.0001470193 6.97199e-05 -0.8195730364 0.2066764446
135299190.0 0.1175573791 0.0299224411 3.7678e-05 0.0002311949 -7.90016e-05 5.76526e-05 -0.8174101067 0.2157217894
140299160.0 0.1185940141 0.0262345105 0.0001781065 1.657e-06 0.0001856848 0.0001493854 -0.814834052 0.2247089103
145299130.0 0.1198464679 0.0226455332 8.37872e-05 -5.62882e-05 7.93731e-05 0.000188012 -0.8129508942 0.233864454
150299100.0 0.1210518086 0.0194174876 -9.43331e-05 1.5648e-05 0.0001186824 9.28196e-05 -0.8113369202 0.2430490616
155299070.0 0.121747004 0.0161329484 0.0003187046 0.0002039309 3.00952e-05 -4.32485e-05 -0.8078636764 0.251994046
160299040.0 0.1220739595 0.013137191 -5.67877e-05 0.000178156 9.87831e-05 8.16684e-05 -0.8062471374 0.2607387932
165299010.0 0.122912688 0.0099622693 0.0001380556 3.31133e-05 -4.65954e-05 9.06471e-05 -0.8031968291 0.2694748418
170298980.0 0.1230345064 0.0071377484 -9.3986e-06 4.48067e-05 1.30159e-05 0.0001659419 -0.800548528 0.2783014499
175298950.0 0.1236685057 0.0041352637 9.72239e-05 0.0002584276 -8.91217e-05 0.0001833195 -0.797425401 0.2866232992
180298920.0 0.1240072314 0.0013303296 0.0001365062 0.0002694129 0.0001122973 2.57472e-05 -0.794656886 0.2952487196
185298890.0 0.123920839 -0.0016867354 0.0002188238 4.36471e-05 8.17065e-05 0.0001698086 -0.7912123681 0.3034670174
190298860.0 0.1243658105 -0.0044106686 0.0001886573 -6.92823e-05 0.0002663018 0.0001559907 -0.7883893775 0.3121382052
195298830.0 0.1239605958 -0.0070533608 0.0001900609 0.0001557385 0.0001192016 -6.04584e-05 -0.7851401821 0.3205565531
200298800.0 0.1239079599 -0.0094288544 -1.57603e-05 9.2619e-06 0.0001853258 -0.0001423705 -0.7823028964 0.3287063907
205298770.0 0.1239230328 -0.0121349076 0.0001560042 4.96373e-05 -9.19138e-05 0.0001250662 -0.7779275898 0.3375365111
210298740.0 0.1233659114 -0.0147427141 0.0001465317 0.0002536377 -2.87469e-05 0.000182891 -0.7746191866 0.3453580238
215298710.0 0.1230685825 -0.0173107593 0.0001684644 0.0001442727 8.52806e-05 1.83053e-05 -0.7711032182 0.3533010943
220298680.0 0.1225235346 -0.0197978775 0.00013478 0.0001189794 0.0002495451 7.99836e-05 -0.7671890384 0.3614040519
225298650.0 0.1220231524 -0.02225235 6.6833e-05 5.63269e-05 -1.58803e-05 0.0001977087 -0.7640122819 0.3700308328
230298620.0 0.1216112987 -0.0242629316 0.0001302472 0.0001139398 1.96724e-05 -1.66759e-05 -0.7599643126 0.37796639
235298590.0 0.1215559077 -0.0265395562 0.0002307464 0.0001516397 0.0001072842 0.0002676687 -0.7558628977 0.3864142417
240298560.0 0.1210622349 -0.0290116585 -8.46764e-05 0.0001852028 9.43879e-05 2.72766e-05 -0.7515343271 0.3945409152
245298530.0 0.1202769529 -0.0309228154 0.0002697558 0.0001075544 8.86586e-05 0.0001115258 -0.7478427047 0.4020667088
250298500.0 0.1197823502 -0.0331013449 0.0001002066 0.0001953873 0.0001304115 0.0001391143 -0.7433527961 0.4099659242
255298470.0 0.1186718978 -0.0352453835 0.0002472222 0.0001457659 0.0002695422 3.10491e-05 -0.7385504266 0.4176435491
260298440.0 0.1181938856 -0.0371936408 0.0001576444 0.0001330222 -1.07809e-05 8.7923e-06 -0.7348110335 0.4257992041
265298410.0 0.1177185614 -0.0389952284 -1.4065e-05 0.0001528941 0.0001300916 0.0001793662 -0.7303874651 0.4332435537
270298380.0 0.11677232 -0.0410609139 3.8844e-05 -1.33324e-05 0.0002490566 0.000156789 -0.7256000367 0.4410208769
275298350.0 0.1159558328 -0.042839996 0.0003069212 2.17692e-05 6.93205e-05 -2.39048e-05 -0.7210806146 0.4481133165
280298320.0 0.1156191868 -0.044841568 0.0001886674 0.000319589 0.0001773802 5.45122e-05 -0.7162711219 0.4561884308
285298290.0 0.1149569822 -0.0464408298 0.0003104996 0.0001485025 0.0001847741 6.74939e-05 -0.7114822638 0.4637116967
290298260.0 0.1139429149 -0.0482869161 0.0001812417 -1.04754e-05 0.0001255536 0.0002206927 -0.7065692371 0.4709664756
295298230.0 0.1131707963 -0.050206682 5.09058e-05 0.0001519783 0.0001255323 0.0003849553 -0.7017594553 0.477998659
300298200.0 0.1124089639 -0.0520721221 0.000101796 9.61719e-05 0.0001230383 -4.30563e-05 -0.6965986985 0.4856787923
305298170.0 0.1113730714 -0.0536899194 0.0001721503 1.08938e-05 0.0003994517 0.0002494254 -0.690974433 0.4935977279
310298140.0 0.1104676658 -0.0554684778 0.0001622586 -0.0001927915 -2.11508e-05 0.0001551352 -0.6864688927 0.5001490786
315298110.0 0.1099622866 -0.0574415384 0.0004394071 -6.46314e-05 0.0001096925 0.0001622674 -0.6806758824 0.5071511744
320298080.0 0.1086807362 -0.0592878584 0.0003674407 0.000147177 6.93935e-05 0.0001388727 -0.6758047421 0.5148681758
325298050.0 0.1076134277 -0.0607537969 0.0004281649 -7.50071e-05 0.0003007529 5.07158e-05 -0.6702537433 0.5215022335
330298020.0 0.1062980016 -0.0629926046 0.0001052698 0.0001755351 0.0001169016 -9.3501e-06 -0.6646948575 0.5284615701
335297990.0 0.1051884055 -0.0642612288 5.90072e-05 -1.3214e-06 0.0002847264 0.0001312487 -0.6593662344 0.5354123297
340297960.0 0.1037662416 -0.0657870187 0.0001138706 8.16473e-05 0.0001892951 0.0001000565 -0.6533042955 0.5421712489
345297930.0 0.1023207287 -0.0670985584 0.0003972636 -6.50106e-05 -1.04319e-05 0.0001680325 -0.6476463333 0.5487939938
350297900.0 0.1015332631 -0.0682966747 0.0001398772 0.0001001293 0.000313025 0.0001957237 -0.6420995737 0.5552746351
355297870.0 0.1001948453 -0.0697826589 0.0001254649 -1.81078e-05 0.0001683102 0.0001272917 -0.6368051577 0.5619056611
360297840.0 0.0990591399 -0.0713152014 0.0002081037 0.0001513503 0.0002276497 0.0001037368 -0.6300285068 0.5683939101
365297810.0 0.0976171078 -0.0719096069 0.0002113282 -5.97915e-05 0.0001723565 0.0003065006 -0.6239083981 0.5750413222
370297780.0 0.0965731526 -0.0733656078 0.0001358821 0.0002106005 0.0004944325 0.0003782655 -0.6181512755 0.5819959816
375297750.0 0.0954372156 -0.0746696895 0.0002906352 4.2585e-05 9.89989e-05 0.0002169725 -0.6120346998 0.587600064
380297720.0 0.0939611782 -0.0760427449 0.0001259203 0.0002960146 0.0001998718 0.0002769488 -0.6065218689 0.5938323635
385297690.0 0.0925978041 -0.076961183 0.0001960934 1.47143e-05 0.0002795102 0.0002997298 -0.599848438 0.6001036359
390297660.0 0.0916993351 -0.0779768481 0.0004332395 8.71695e-05 0.000278862 0.0002043043 -0.5942094679 0.6062370829
395297630.0 0.0905258027 -0.0793195793 0.0003304182 0.0001549284 1.63669e-05 9.2335e-05 -0.5868322296 0.6124496001
400297600.0 0.0893732939 -0.0803590034 0.0001478977 0.0003188556 0.0002982714 -0.0001239104 -0.5808180385 0.6186304724
405297570.0 0.0877934291 -0.0814152222 0.0004317203 0.0002388786 0.0001259605 0.0002567411 -0.5739115611 0.6244027035
410297540.0 0.0865374633 -0.0824917687 0.0001590343 -3.938e-06 0.0001757053 2.68813e-05 -0.5679113222 0.6304722016
415297510.0 0.0854214497 -0.0836995757 0.0001858411 0.0001187248 0.0001855419 3.81073e-05 -0.5614096997 0.6361500702
420297480.0 0.0843557556 -0.0845427692 -2.28109e-05 4.30422e-05 0.0002473078 0.0002823459 -0.5546262651 0.6423335105
425297450.0 0.0826844468 -0.0855772922 0.0001538761 0.000142837 0.0001984204 0.0003153509 -0.5480220892 0.6475638723
430297420.0 0.0816456521 -0.0866781859 0.0002668237 3.6361e-05 0.0002638473 7.89826e-05 -0.5416362331 0.6526460147
435297390.0 0.0804990819 -0.0874259294 0.0001915674 0.000136262 0.0002923604 0.0001266956 -0.5341648701 0.6585980935
440297360.0 0.0790818134 -0.0885293138 0.0001602721 -9.74623e-05 0.0001592679 0.0002103845 -0.5274405935 0.6636081665
445297330.0 0.0778846897 -0.0893913818 0.0001514352 -0.0001077047 0.0002608833 0.00016752 -0.5207435971 0.6686869984
450297300.0 0.0763556603 -0.0902925917 0.0001577619 0.0001329625 7.14149e-05 1.03851e-05 -0.5138064776 0.6741035361
455297270.0 0.074830607 -0.0912965231 0.000357461 -0.0001439305 0.0001677069 5.57097e-05 -0.5067143491 0.678909575
460297240.0 0.0736799911 -0.0919041536 0.00017755 0.0001914606 0.0002822499 0.0002687281 -0.5001870894 0.6842892895
465297210.0 0.0721873976 -0.0927185185 0.0002058835 1.48124e-05 0.0003725402 6.27311e-05 -0.4924648965 0.6891804242
470297180.0 0.0710507709 -0.0936609652 0.0003471335 -8.48508e-05 0.0002680847 4.91717e-05 -0.4851368412 0.6948385035
475297150.0 0.069501851 -0.0947317368 6.50582e-05 6.5751e-06 0.0002374353 0.0002366611 -0.4783086319 0.6992417783
480297120.0 0.0683836458 -0.0950283507 0.0004930491 0.0002568781 0.0002263767 0.0001663758 -0.4708430385 0.7041363951
485297090.0 0.0669423442 -0.0958616823 0.0003711558 -7.3971e-06 6.32612e-05 8.88577e-05 -0.4636383349 0.7090484318
490297060.0 0.0653656419 -0.0964236319 8.51147e-05 2.568e-05 9.57634e-05 0.0001293229 -0.4565677702 0.7131646807
495297030.0 0.0639106494 -0.0971113013 1.77651e-05 -3.17464e-05 0.0003623468 9.28552e-05 -0.4497651122 0.7182130953
500297000.0 0.0628047387 -0.097868306 0.0006186674 0.0002937169 0.0001423296 0.0001027964 -0.4415780202 0.7231315206
505296970.0 0.0615949031 -0.0986152064 0.0002658833 -0.0001051266 0.0001697781 -2.13567e-05 -0.4342937013 0.7266705493
510296940.0 0.0600355132 -0.0993040025 0.0004888576 -4.0866e-05 0.0003020464 0.0002578632 -0.4268914988 0.7316477894
515296910.0 0.0586115228 -0.0998716198 0.0001851829 -0.0001326496 0.0002425093 0.0002908385 -0.4199944272 0.7353482942
520296880.0 0.0568680717 -0.1004298051 2.80587e-05 -7.50433e-05 0.0002643709 0.0003317882 -0.4123196088 0.7394366852
525296850.0 0.0561084951 -0.1014126583 0.0002188834 0.0001215401 0.0001847361 0.0001155788 -0.4048044822 0.7435462545
530296820.0 0.0544600611 -0.1015469326 0.000244974 0.0001017318 0.0005323868 -1.83154e-05 -0.3969963721 0.74746645
535296790.0 0.0528474653 -0.1018988566 0.0004124262 -7.5794e-05 0.0001755548 0.0001655551 -0.3901074689 0.7512458988
540296760.0 0.051322743 -0.1023351399 0.0004620584 -6.18189e-05 0.0001468097 -7.1172e-06 -0.3819515726 0.7557131778
545296730.0 0.0499982326 -0.1028195151 0.0003712053 0.0002104046 0.0002481137 6.87434e-05 -0.3742184262 0.7593090999
550296700.0 0.0488687018 -0.1035774147 0.0004498752 9.41295e-05 0.0003714529 0.0001265403 -0.3661096805 0.762832983
555296670.0 0.0472768163 -0.10406168 0.0002926483 0.0001246724 0.0004901822 -8.0682e-05 -0.3583530167 0.7670101231
560296640.0 0.0459609134 -0.1040727544 0.0003031808 -1.48798e-05 0.000349254 0.0001790587 -0.3508249033 0.7705566121
565296610.0 0.0440752158 -0.1046094887 0.000463013 0.0001019744 0.0005001323 0.0001557022 -0.3426714941 0.7731059228
570296580.0 0.0427105026 -0.1051270823 0.0001764116 0.0001752279 0.0002916161 0.0002362057 -0.3357144791 0.7773445272
575296550.0 0.0415591986 -0.1052755257 -1.16133e-05 -3.51455e-05 0.0004086453 0.0001387235 -0.3275286604 0.780703193
580296520.0 0.040310615 -0.1056732456 0.0003092313 0.000145549 0.0002778775 0.0002503399 -0.3187026668 0.7839120943
585296490.0 0.0384475614 -0.10621138 0.0003531855 -0.000134507 0.0005162977 5.72432e-05 -0.3108838002 0.7871257762
590296460.0 0.0373494027 -0.1062984729 0.0003511709 0.0001993418 0.0002732315 -2.0167e-06 -0.303360338 0.7902290681
595296430.0 0.0356877449 -0.106747007 0.0004637659 6.66076e-05 0.0002433958 4.64944e-05 -0.2956095517 0.7927902016
600296400.0 0.0339631487 -0.1069534276 0.0002153708 -4.90825e-05 0.0003023553 3.72054e-05 -0.2872840128 0.7952598008
605296370.0 0.032392775 -0.1070833339 0.0005987971 0.0002145262 0.0003962242 2.30646e-05 -0.2784199072 0.7986541114
610296340.0 0.0311179102 -0.1074006888 0.0001271084 4.04969e-05 0.000393672 5.0679e-05 -0.2708632791 0.8012373244
615296310.0 0.030073258 -0.1076598836 0.000272206 0.0001051597 0.0004909567 0.0001887221 -0.2622797034 0.8033587441
620296280.0 0.0281651711 -0.1076880458 0.0001944044 1.91675e-05 0.0003314182 0.0001567246 -0.2552882798 0.8065890325
625296250.0 0.0273043448 -0.1083317567 0.0004654298 -5.31031e-05 0.0002177317 0.0001533887 -0.2458781474 0.8087637858
630296220.0 0.0257710078 -0.1084945466 0.00034493 0.0002433666 0.0001954483 -4.57177e-05 -0.2380604111 0.8109842886
635296190.0 0.0241543726 -0.1081496846 0.0004021778 0.0002747642 0.0001516378 -9.20336e-05 -0.2302008917 0.8138207642
640296160.0 0.0225296024 -0.1085304604 0.0005770606 9.25848e-05 0.0004287099 0.0001872586 -0.2217822644 0.8162523872
645296130.0 0.0210864467 -0.1083878353 0.0001307611 0.0001635875 0.0003264046 6.43372e-05 -0.2135841677 0.8182182736
650296100.0 0.0198333372 -0.1084084874 0.0006059796 7.02661e-05 0.0002970341 0.0002045786 -0.2055787835 0.8198890809
655296070.0 0.0181526762 -0.1083014516 0.0002629968 -4.73189e-05 0.000322206 1.21166e-05 -0.1968039344 0.8212194801
660296040.0 0.0167382237 -0.1089093631 0.0003928708 -0.000128361 0.0004177612 -4.88389e-05 -0.1883133891 0.8243442404
665296010.0 0.0153809746 -0.1089760643 0.0002226759 0.0002745372 0.0002196262 1.54131e-05 -0.1799696149 0.8263487388
670295980.0 0.0136716785 -0.1084995497 0.0003763392 0.0001484809 0.0004966592 9.65513e-05 -0.172740992 0.8269969831
675295950.0 0.0121673526 -0.1084851459 0.0005368797 -5.09896e-05 0.0004780449 9.88933e-05 -0.1645475752 0.8294733707
680295920.0 0.0109986774 -0.1082843851 0.0004644457 2.70063e-05 0.0003022864 -0.0002798984 -0.1559021991 0.8314375807
685295890.0 0.0098483099 -0.1082573248 0.0004419636 -3.09706e-05 0.0006834956 -9.2848e-05 -0.1468702759 0.8322976859
690295860.0 0.0081848992 -0.1082905487 0.000198867 0.0001432562 0.0005194851 -0.0001556273 -0.138973791 0.8341370777
695295830.0 0.0067296391 -0.1079224411 0.000257394 -4.24983e-05 0.0002977505 9.26668e-05 -0.1297762881 0.835294724
700295800.0 0.005346514 -0.1082852152 0.0004357523 0.0001106872 0.00053049 6.487e-06 -0.1224309834 0.83624839
705295770.0 0.0037150648 -0.1078297027 0.0002308432 3.26437e-05 0.0003648586 7.9847e-05 -0.1140391067 0.8383968017
710295740.0 0.0023657321 -0.1074334656 0.0002674821 2.23306e-05 0.0003309192 2.52754e-05 -0.1058083085 0.8383063578
715295710.0 0.0008446494 -0.1074476975 0.0001965381 8.61135e-05 0.0006758545 -8.57018e-05 -0.0972191446 0.839554753
720295680.0 -0.0007477626 -0.1074450441 0.0003898214 -6.9695e-06 0.0004059883 8.50996e-05 -0.0884948773 0.8408879801
725295650.0 -0.0018437955 -0.1070596958 0.0004179423 8.37166e-05 0.0004617471 3.73037e-05 -0.0802779951 0.8418494194
730295620.0 -0.0031900994 -0.1066929747 0.0005739352 -9.32795e-05 0.0006814108 0.0002840607 -0.0726829556 0.8419793071
735295590.0 -0.0045366045 -0.1064668276 0.0004379748 -0.0001100973 0.0001550729 0.0001021347 -0.0638123747 0.8427502554
740295560.0 -0.0063222615 -0.1060826057 0.0004641043 -6.1881e-05 0.0003636139 4.99402e-05 -0.0544780473 0.8438500486
745295530.0 -0.0078338819 -0.1060249098 0.0003250415 4.38506e-05 0.000318122 -7.99921e-05 -0.0464683827 0.8439846934
750295500.0 -0.0087927232 -0.1055367859 0.0006003337 -0.0002592216 0.0005038129 5.33741e-05 -0.0382473034 0.8443407696
755295470.0 -0.0104531248 -0.1055672673 0.0003697066 -0.0002720165 0.0003841209 -0.0001990153 -0.0299221094 0.8443199852
760295440.0 -0.01185173 -0.1051851503 0.0003522809 1.3456e-06 0.0004404269 1.83269e-05 -0.0208440494 0.8441779225
765295410.0 -0.0130023732 -0.1045560255 0.00024452 -7.56551e-05 0.0003039464 -0.0002582679 -0.012863633 0.8454041469
770295380.0 -0.01464297 -0.1043413607 0.0001955894 6.56827e-05 0.0003868058 -0.0001204756 -0.0047424371 0.8449059018
775295350.0 -0.0160452738 -0.1038996311 0.0003787185 1.0237e-06 0.0003360752 3.93712e-05 0.0036115472 0.844593277
780295320.0 -0.0172311529 -0.1035551713 0.0004804483 -0.0005430871 0.0003738319 -0.0001000916 0.0122753147 0.8444569551
785295290.0 -0.0189237951 -0.1033201273 0.0005408095 -0.0001110077 0.0002206726 -1.67513e-05 0.0209970506 0.8446210301
790295260.0 -0.0197632311 -0.1026788353 0.0004429103 -0.00038349 0.0002274281 -4.33187e-05 0.0296362874 0.8445916262
795295230.0 -0.0213639289 -0.1021756717 0.0003552498 -6.19067e-05 0.0004325384 -0.0003040302 0.0382773029 0.8433934388
800295200.0 -0.0227891684 -0.1016610338 0.0004044669 -3.01174e-05 0.0003379431 -4.1461e-05 0.0466425314 0.8436179533
805295170.0 -0.0240562259 -0.1011681424 0.0005572593 -0.0001164333 0.0006504809 -0.0002296018 0.0544887439 0.8432338615
810295140.0 -0.0250329533 -0.1008219727 0.0005361156 -0.0001230677 0.0005599109 9.13238e-05 0.0633181539 0.842725648
815295110.0 -0.0267643012 -0.1003757835 0.0005621907 -6.24086e-05 0.0003599217 -7.4253e-05 0.0714233784 0.8420922903
820295080.0 -0.0277985554 -0.0995126025 0.0004657111 -0.0001940674 0.0005360609 -9.8132e-06 0.0800033665 0.8411951522
825295050.0 -0.0291099913 -0.0991390316 0.000448044 -1.64739e-05 0.0003347475 5.81036e-05 0.0879771375 0.8405813798
830295020.0 -0.0304989773 -0.0983390956 0.0004859206 -0.0002298538 0.0003657019 -2.67407e-05 0.0972358334 0.8397880411
835294990.0 -0.0316990892 -0.0976863975 0.0003130524 -0.00027578 0.0002696093 -1.65967e-05 0.1049273947 0.8388475575
840294960.0 -0.0329300968 -0.0969332981 0.0004668036 -0.0002045881 0.0002947989 -0.000106486 0.1135955972 0.8373957913
845294930.0 -0.0340554903 -0.0964267987 0.0005316244 -0.0001797486 0.0005526445 -0.0002746822 0.121018567 0.8356456895
850294900.0 -0.0352620498 -0.0956388487 0.0003157393 -0.0001619244 0.0003863973 -0.000166765 0.1295732602 0.8345185026
