!Created with skrf (http://scikit-rf.org).
# Hz S RI R 50.0 
!freq ReS11 ImS11 ReS21 ImS21 ReS12 ImS12 ReS22 ImS22
300000.0 -0.3200627337 -0.1287220194 0.3724742259 0.0641601774 0.3712142521 0.0653859347 -0.3144836071 -0.1295918197
5299970.0 -0.3247721816 0.0028002189 0.3784106665 0.0031207927 0.3788837024 0.0031880041 -0.3256765443 0.0018879159
10299940.0 -0.3224417095 0.014140025 0.3799841281 0.0025789877 0.3798862362 0.0028624686 -0.3232407982 0.01266146
15299910.0 -0.3188936871 0.0222588763 0.3816750484 0.0028448552 0.3824944674 0.0024742565 -0.320591644 0.0198449813
20299880.0 -0.3154507899 0.0289881163 0.3848380114 0.0017762416 0.3855315047 0.0017791694 -0.3178596673 0.0260869511
25299850.0 -0.3115400852 0.0348277917 0.388180592 0.0003250316 0.3885636347 0.0001044631 -0.3149964567 0.0313438058
30299820.0 -0.3082143861 0.0395432103 0.3918248305 -0.0021602613 0.3920937046 -0.0022527267 -0.3119343774 0.0357811493
35299790.0 -0.3044086017 0.0435764097 0.3947470913 -0.0048508772 0.3953965283 -0.0051603241 -0.3092910521 0.0400584417
40299760.0 -0.3012295868 0.0467175495 0.3982460593 -0.0085790578 0.3985716282 -0.0084675681 -0.3064735737 0.0433440319
45299730.0 -0.2980633898 0.0499637224 0.4013502851 -0.0124715726 0.4015638373 -0.0125994265 -0.3036029372 0.0465590187
50299700.0 -0.294806886 0.0532450193 0.4037340166 -0.0173724402 0.4038621988 -0.0171762639 -0.3010453366 0.0498179582
55299670.0 -0.2920283762 0.0553713735 0.4058405348 -0.0215999608 0.4058948339 -0.0218512224 -0.299454529 0.0524444289
60299640.0 -0.2897363554 0.0579458119 0.4080903105 -0.0270736294 0.4078675346 -0.0269698851 -0.2971766729 0.0550171092
65299610.0 -0.287215243 0.0602941281 0.4099734616 -0.0316748663 0.4098390038 -0.0315239836 -0.295261372 0.0575094243
70299580.0 -0.2852593794 0.0619746035 0.4106016528 -0.0363418136 0.411138317 -0.03662471 -0.2939347381 0.0600289577
75299550.0 -0.2834939504 0.0644365186 0.4116775468 -0.0420952905 0.4120111504 -0.0420520729 -0.2917307472 0.0623065754
80299520.0 -0.281748977 0.0666389557 0.4128081034 -0.0471894204 0.4130875674 -0.0471996161 -0.2903701262 0.0650152173
85299490.0 -0.2798429081 0.0682501302 0.4133922641 -0.0524118441 0.4136089359 -0.0528551693 -0.28905577 0.0670188148
90299460.0 -0.278182866 0.0709269032 0.4136673388 -0.05790657 0.4136106527 -0.0574827913 -0.2875779784 0.0693007514
95299430.0 -0.276803698 0.0725602589 0.4141935009 -0.0630577329 0.4144068242 -0.0631582475 -0.2863507987 0.0718844639
100299400.0 -0.2754390701 0.0746342001 0.4141531891 -0.0679821308 0.4141665628 -0.0680995799 -0.2853541866 0.0745236551
105299370.0 -0.2739165045 0.0763868653 0.4136394457 -0.0732808744 0.4142035201 -0.0732247599 -0.2840161976 0.076116773
110299340.0 -0.2724100301 0.0787374313 0.413501474 -0.0782723169 0.414015521 -0.078536029 -0.2831638462 0.0785828958
115299310.0 -0.2717266547 0.0810125503 0.4135246092 -0.0832072259 0.4135096191 -0.0836459481 -0.2822921536 0.0812659901
120299280.0 -0.270423338 0.0831114957 0.4131743601 -0.0888212772 0.4130567097 -0.0892470041 -0.281037436 0.0833596134
125299250.0 -0.2694145638 0.0851672521 0.4124814327 -0.0937115986 0.4125627345 -0.0936124989 -0.2801050773 0.085923749
130299220.0 -0.2684763715 0.0874211359 0.412110626 -0.0988409455 0.4119258641 -0.099472453 -0.2791395447 0.0883976878
135299190.0 -0.2670616404 0.0899786312 0.4112126575 -0.104146151 0.4113462316 -0.1041332351 -0.2782020796 0.0907685422
140299160.0 -0.2661650069 0.0923557662 0.4105581005 -0.1091604951 0.4103190171 -0.1090795918 -0.2775373189 0.0929956162
145299130.0 -0.2653071023 0.0945685119 0.4093904524 -0.1139521436 0.4098197128 -0.1139523663 -0.2764079376 0.0958069753
150299100.0 -0.264157598 0.0969792584 0.4084630863 -0.1190379645 0.4083767788 -0.1190595178 -0.2756443923 0.0985265537
155299070.0 -0.2631077309 0.0993615 0.4069087655 -0.1232911517 0.4073576505 -0.1237723529 -0.2744272696 0.1010597579
160299040.0 -0.2620804852 0.1019635999 0.4059439752 -0.1283011762 0.4060601573 -0.1287643135 -0.2741351236 0.1037568061
165299010.0 -0.2609974323 0.1042998253 0.4048080421 -0.1332387769 0.4048988811 -0.1335213723 -0.2728101903 0.1059365736
170298980.0 -0.2601583421 0.106889479 0.4032162813 -0.1379603531 0.4035262891 -0.1385058046 -0.2720424861 0.108666205
175298950.0 -0.2593711394 0.1091892574 0.4025856579 -0.1432095596 0.4023564246 -0.1434771311 -0.2710089095 0.1116047206
180298920.0 -0.2581576961 0.1118286343 0.4006240846 -0.1478842046 0.4006612623 -0.1482687764 -0.2697038017 0.1140323821
185298890.0 -0.2570553818 0.1140268773 0.399432727 -0.1524499124 0.3990788759 -0.1527281447 -0.2687804726 0.1165745842
190298860.0 -0.2558447635 0.1173022368 0.3970343809 -0.157405421 0.3978171532 -0.157378692 -0.2679038398 0.1192998869
195298830.0 -0.2545121882 0.1195190855 0.3957015192 -0.1619160941 0.3960487978 -0.1622119914 -0.2670024968 0.1220271923
200298800.0 -0.2534363994 0.1219732566 0.3942967938 -0.1669011226 0.394323699 -0.1667405107 -0.2655866434 0.1245425181
205298770.0 -0.2526999848 0.1246830731 0.3922988293 -0.1709136494 0.3923534772 -0.1710288662 -0.2642937056 0.1272292037
210298740.0 -0.2514208344 0.12746225 0.3904057595 -0.1755696281 0.3905805027 -0.1757974697 -0.263894467 0.1300920873
215298710.0 -0.2501870401 0.1301557088 0.3882868067 -0.1799846527 0.388740756 -0.1802761381 -0.2622618293 0.1323492888
220298680.0 -0.2490580437 0.1324884076 0.3868009788 -0.1846593338 0.3864140019 -0.1846248638 -0.2609668928 0.1351492434
225298650.0 -0.2479986694 0.1351942785 0.3847337505 -0.1888785064 0.3848966003 -0.188697489 -0.2601684686 0.1380892163
230298620.0 -0.2465602241 0.1379404843 0.3825644915 -0.1934977518 0.3828257906 -0.1934556207 -0.2587946239 0.1405322124
235298590.0 -0.2454795997 0.1404634949 0.3806022942 -0.1977993023 0.3808462606 -0.1979724279 -0.257075981 0.1436071857
240298560.0 -0.2441840711 0.1433025615 0.378134888 -0.2018816112 0.3783699704 -0.2020873302 -0.2561952581 0.1457765775
245298530.0 -0.2427310574 0.1458539898 0.3762377285 -0.2064156713 0.3763224743 -0.2066818488 -0.2549266745 0.1485364621
250298500.0 -0.2415936695 0.1480990013 0.3740992282 -0.2107049142 0.3741149484 -0.210393529 -0.2536106955 0.1512002978
255298470.0 -0.2399170816 0.1512836862 0.3717540405 -0.2146565825 0.3721948315 -0.2151051337 -0.2520042655 0.1543621115
260298440.0 -0.2388821505 0.1535004348 0.3693566614 -0.2187053697 0.3695488122 -0.2190485167 -0.2507803822 0.1568221919
265298410.0 -0.2375412787 0.1560466497 0.3668073248 -0.2235171452 0.3667495202 -0.2236348918 -0.2486922886 0.1591484175
270298380.0 -0.2361147982 0.1585948812 0.3640245532 -0.2274311749 0.3643502576 -0.2274503224 -0.2471983165 0.1623264631
275298350.0 -0.2342310966 0.1614274535 0.3614961583 -0.2314155089 0.361918102 -0.2317441752 -0.245902767 0.164981376
280298320.0 -0.2333349865 0.1638141273 0.359511164 -0.2350244755 0.3595512255 -0.2357411165 -0.2442000437 0.1674218593
285298290.0 -0.2315784469 0.1665694101 0.3566586583 -0.2395828227 0.3570386319 -0.2395868871 -0.2429870363 0.1704920629
290298260.0 -0.2299307804 0.1692175139 0.3544296879 -0.2434707814 0.3543900281 -0.2437015301 -0.2410663709 0.1729164657
295298230.0 -0.2283456819 0.1715702649 0.3513388563 -0.2477323657 0.3518485099 -0.2479463485 -0.2391479886 0.1752179861
300298200.0 -0.2269633826 0.1742277185 0.3489024681 -0.2515907974 0.349285851 -0.251175258 -0.2377330245 0.1779873124
305298170.0 -0.2252096549 0.1764214502 0.3459751782 -0.2557261461 0.346724951 -0.2555348131 -0.2358109129 0.1803227159
310298140.0 -0.2232560455 0.1790940247 0.343075569 -0.2593559414 0.3435171288 -0.2593343052 -0.2339583208 0.1829829755
315298110.0 -0.2219502594 0.1814427592 0.3407164284 -0.263715747 0.3408912398 -0.2638958649 -0.2322226629 0.1854940727
320298080.0 -0.2197800074 0.1834954941 0.3368287567 -0.2676217173 0.3380236899 -0.2679283163 -0.2304629079 0.1879062815
325298050.0 -0.2186490902 0.1855748001 0.334304913 -0.2708099269 0.3349028997 -0.2712307659 -0.2281956704 0.1903571656
330298020.0 -0.2168912402 0.1884006958 0.3312897845 -0.2748992642 0.3318361725 -0.2749674264 -0.2267215751 0.1929380992
335297990.0 -0.2154554773 0.1907430966 0.3284996013 -0.2787699786 0.3286314519 -0.2786325432 -0.2247319354 0.1954006764
340297960.0 -0.2138861243 0.1933872139 0.3251399157 -0.2821837197 0.3250907694 -0.2824665311 -0.2228993705 0.1981129131
345297930.0 -0.2121028813 0.1956510429 0.3219160727 -0.2861150737 0.3218906397 -0.2858638713 -0.2209728537 0.2002702448
350297900.0 -0.2099364925 0.1979825228 0.3189229853 -0.2892306019 0.3190960694 -0.28947462 -0.2192847135 0.2029084695
355297870.0 -0.208033083 0.2002604319 0.3155129782 -0.292573618 0.3156309868 -0.292395789 -0.2171768496 0.2055794976
360297840.0 -0.2064368062 0.2025884459 0.3121235643 -0.2959697982 0.3121700804 -0.2965706209 -0.2151735266 0.2079264655
365297810.0 -0.2043501337 0.2050205694 0.3090469357 -0.2996253928 0.3092367505 -0.2998190945 -0.2133055237 0.2100341585
370297780.0 -0.2026594897 0.2069794004 0.305194968 -0.3031620847 0.3056210382 -0.3031050271 -0.2109586925 0.212741798
375297750.0 -0.2007028695 0.2096244339 0.3025564394 -0.3065387746 0.3024826771 -0.3060973519 -0.2087335178 0.2150575441
380297720.0 -0.1987788032 0.2118269655 0.2989784083 -0.3096998843 0.298849986 -0.3098826649 -0.206622046 0.2176744594
385297690.0 -0.1967259567 0.2140544713 0.29546034 -0.3131071565 0.2956162461 -0.3133146564 -0.2044601705 0.2198217009
390297660.0 -0.1943082518 0.2161047854 0.2922338593 -0.3158525609 0.2917796853 -0.3160369239 -0.201970769 0.2217772042
395297630.0 -0.1916706662 0.2185071521 0.2885653314 -0.3190002392 0.2885158874 -0.3191749775 -0.1996257584 0.2241192648
400297600.0 -0.1901781625 0.2206939691 0.2850176593 -0.3227630684 0.2854111927 -0.3227830459 -0.1977097742 0.2269721468
405297570.0 -0.1878595421 0.2225230045 0.2814705542 -0.3253470806 0.2814006162 -0.3257892862 -0.194957392 0.2291661524
410297540.0 -0.1855133084 0.2248824095 0.2778561558 -0.3287865295 0.2779599355 -0.3284943821 -0.1926819353 0.231519691
415297510.0 -0.1832802246 0.2270011975 0.2740852112 -0.3315355089 0.2745902104 -0.3318057532 -0.1903116134 0.2336247542
420297480.0 -0.1811190582 0.2285335808 0.2703028826 -0.3346673864 0.270744537 -0.3347615448 -0.1878265378 0.2360049411
425297450.0 -0.1785539371 0.230474595 0.2670341892 -0.3374931268 0.2666138223 -0.3374697763 -0.1853704372 0.2373231797
430297420.0 -0.1766955956 0.2326919531 0.263392342 -0.3405032017 0.2634319798 -0.3400306697 -0.182799848 0.2396151505
435297390.0 -0.1739513197 0.2346778001 0.2592150743 -0.3436354102 0.2595527265 -0.3435632218 -0.1808411331 0.242392042
440297360.0 -0.1716425147 0.2363792601 0.2552133376 -0.346355418 0.2553448343 -0.3462293713 -0.1782202434 0.244411461
445297330.0 -0.1690731483 0.2383721663 0.2519065278 -0.348500461 0.2517451874 -0.3493138711 -0.1752615922 0.2465324264
450297300.0 -0.1668134429 0.2401131817 0.2477652333 -0.3511250784 0.2480639043 -0.3516172918 -0.1727105798 0.2483341929
455297270.0 -0.164392827 0.24214311 0.2440561148 -0.3542219112 0.2442651519 -0.3542651801 -0.1701092123 0.2498745624
460297240.0 -0.161622539 0.2440282631 0.2401735053 -0.3577393355 0.2401100845 -0.3570085129 -0.1676252471 0.2519696635
465297210.0 -0.1590375635 0.2459149181 0.2359539139 -0.359953652 0.2359397692 -0.3596553924 -0.1647826459 0.2541985889
470297180.0 -0.1565255638 0.2477214315 0.2321486295 -0.3618490134 0.2324517665 -0.3619976691 -0.1621759634 0.2560263405
475297150.0 -0.1540303433 0.2493406355 0.2281609163 -0.3645269471 0.2280305245 -0.3644957255 -0.1594638531 0.2579018937
480297120.0 -0.1511671916 0.2512919033 0.223917477 -0.3671592623 0.2241611117 -0.3670098902 -0.1572208317 0.2600420809
485297090.0 -0.1484180551 0.2526921959 0.2199077988 -0.3697618096 0.2200979328 -0.3695182738 -0.15421075 0.2615855862
490297060.0 -0.1455587953 0.2546626202 0.2158358254 -0.3722330003 0.2161044366 -0.3720928435 -0.1513652209 0.2629858746
495297030.0 -0.1429235953 0.2559018506 0.2121093017 -0.3744537606 0.2118762286 -0.3743369487 -0.1484923952 0.2649841813
500297000.0 -0.1403380639 0.2578980065 0.20787024 -0.3762540846 0.2077877809 -0.3765120882 -0.1456292006 0.2668947713
505296970.0 -0.1371796724 0.2593766083 0.2037873636 -0.3788965747 0.2036201333 -0.3783388017 -0.142850415 0.2682829021
510296940.0 -0.1343115618 0.260991032 0.199215378 -0.3812690415 0.1997527464 -0.3814311373 -0.1395542866 0.2703337379
515296910.0 -0.1316910756 0.2628987082 0.1949472453 -0.3830815721 0.1951716314 -0.3828394823 -0.1372494173 0.2713893536
520296880.0 -0.1287774833 0.2640697819 0.1908309084 -0.3850457271 0.1910171747 -0.3850352205 -0.1340329017 0.2734622849
525296850.0 -0.1262206986 0.2655901836 0.1867109992 -0.3871622794 0.1864448435 -0.3870293061 -0.1309979706 0.2750657374
530296820.0 -0.12349914 0.266957103 0.1823676926 -0.3892016755 0.1822662982 -0.3891315308 -0.1286070877 0.2760325188
535296790.0 -0.1199301301 0.2686020543 0.1783178559 -0.3909620798 0.1783250461 -0.390933247 -0.1253360971 0.2779464574
540296760.0 -0.1171235703 0.2697375796 0.1737624524 -0.3930582811 0.1738701604 -0.3926725287 -0.1224631546 0.2788345863
545296730.0 -0.1145973492 0.2714680632 0.1700077056 -0.3944853676 0.169390327 -0.394406669 -0.1193620646 0.2805331216
550296700.0 -0.1112926031 0.2729224021 0.1651779793 -0.3965227261 0.1648288894 -0.3964968645 -0.1162777396 0.2817971578
555296670.0 -0.1084128607 0.2740203707 0.1608864253 -0.3984161505 0.1608783753 -0.3982424158 -0.1136052862 0.2829904356
560296640.0 -0.1049373359 0.275311843 0.1562465622 -0.400020924 0.1563910319 -0.399911201 -0.1103610243 0.2849244328
565296610.0 -0.10258665 0.2768688658 0.152423449 -0.4017586239 0.1522490291 -0.4014772624 -0.10735631 0.2863643403
570296580.0 -0.0995096909 0.2782046062 0.1475526879 -0.4031421221 0.1479858771 -0.4033583742 -0.1048737079 0.287184267
575296550.0 -0.0961832242 0.2790476658 0.143568653 -0.404887926 0.1431128561 -0.4047300932 -0.1015217647 0.2883395975
580296520.0 -0.0934723521 0.2804524945 0.1390242702 -0.4060809394 0.138849943 -0.4064471342 -0.0986350696 0.2894939204
585296490.0 -0.0900902115 0.2817481 0.1345951261 -0.4077495254 0.134082961 -0.4075086177 -0.095105465 0.290945596
590296460.0 -0.086632328 0.2830099678 0.1298531263 -0.4089442521 0.1296237751 -0.4094607777 -0.0923372796 0.2920040328
595296430.0 -0.0840654256 0.283949079 0.1252702873 -0.4102482815 0.1249044187 -0.4105318848 -0.0893638375 0.293191269
600296400.0 -0.0809303201 0.2850625064 0.120662975 -0.4115324232 0.1206899673 -0.411666574 -0.0860270054 0.2939352534
605296370.0 -0.0778128462 0.2862940018 0.1168089999 -0.4125687367 0.1160697605 -0.4130928648 -0.0826824644 0.295575867
610296340.0 -0.0742717497 0.2875619371 0.1118434454 -0.4139050886 0.1118321876 -0.4140644231 -0.0800962903 0.2962709725
615296310.0 -0.0709347276 0.2884226924 0.1073604234 -0.4151724574 0.1069561618 -0.4154833297 -0.0763796829 0.2973857682
620296280.0 -0.0689021436 0.2897289335 0.1031103748 -0.4163099054 0.1025711142 -0.4162927264 -0.0733739287 0.2983011293
625296250.0 -0.0656712667 0.2902635429 0.0982237882 -0.4173394699 0.0982036291 -0.4173430031 -0.0705186628 0.2989858358
630296220.0 -0.0622983299 0.2917337973 0.0934779038 -0.4185662706 0.0933239981 -0.418422603 -0.0671746389 0.299779296
635296190.0 -0.0591164542 0.2922929055 0.0893371474 -0.4193011084 0.0888426466 -0.4194284773 -0.0643393068 0.3008067115
640296160.0 -0.0559657642 0.2932744042 0.0847590314 -0.4202546525 0.084264474 -0.4202460979 -0.0608674289 0.3016403593
645296130.0 -0.0524243711 0.2945057163 0.0800087368 -0.421371527 0.0796682681 -0.4209837892 -0.0580265692 0.302114651
650296100.0 -0.0494143616 0.2947584751 0.0756987618 -0.421832056 0.07501358 -0.4223114157 -0.0541990461 0.3030064872
655296070.0 -0.0467123253 0.2957395669 0.0707973885 -0.4226331646 0.0707523413 -0.4225881504 -0.0518818892 0.3041972211
660296040.0 -0.0433241535 0.296499217 0.0664791834 -0.4230919501 0.0660779628 -0.4233867352 -0.0480174792 0.3043317353
665296010.0 -0.0402032317 0.2972804761 0.0614360715 -0.4236311952 0.0611569539 -0.4237138579 -0.0449819145 0.3051804082
670295980.0 -0.0370858602 0.2979437456 0.0566310155 -0.4244266051 0.0567856939 -0.4243632592 -0.0420962318 0.3053782084
675295950.0 -0.0340373635 0.2984957914 0.0525207071 -0.4251980259 0.0525800875 -0.4251182226 -0.0386127896 0.3061823679
680295920.0 -0.0311807456 0.299317261 0.0478098515 -0.4255471339 0.0476087942 -0.4255226532 -0.0352691195 0.306613487
685295890.0 -0.0276565542 0.2999102131 0.0432310074 -0.426311465 0.0432616094 -0.4264532719 -0.032309154 0.3073343971
690295860.0 -0.0249346585 0.3007361253 0.0387363624 -0.4265915068 0.0382548507 -0.4268562157 -0.0292257228 0.3079531964
695295830.0 -0.0214115954 0.3008443239 0.0342503734 -0.4270288173 0.0337438413 -0.4268369372 -0.0258620542 0.3085115149
700295800.0 -0.0181545482 0.3016647026 0.0294602959 -0.4273090111 0.0294053705 -0.4274185208 -0.0225760617 0.308811644
705295770.0 -0.0155052347 0.3020867001 0.0248468441 -0.427623382 0.0244646776 -0.4272102637 -0.019688134 0.309346691
710295740.0 -0.0125093384 0.3022169751 0.0204917949 -0.4277889813 0.0197042945 -0.4279252197 -0.0157997567 0.309688233
715295710.0 -0.0092546247 0.3027889758 0.0158241566 -0.4276977635 0.0155206303 -0.4280466306 -0.0129182096 0.3094629729
720295680.0 -0.0057947497 0.3030943886 0.0112035555 -0.4279202227 0.0105742779 -0.4281837879 -0.0094998173 0.3095934788
725295650.0 -0.0031976674 0.3038463544 0.0068738861 -0.4280340152 0.0063225357 -0.4280474942 -0.0066344386 0.3105306027
730295620.0 -0.0004465318 0.3038412058 0.0021993067 -0.427841863 0.0014260324 -0.4278956844 -0.003565407 0.310728786
735295590.0 0.0028595354 0.3041712868 -0.0026508851 -0.427869249 -0.0031763458 -0.427954722 0.0003088291 0.3104060679
740295560.0 0.0061900868 0.304072457 -0.007413125 -0.4275679899 -0.0073130702 -0.4285644985 0.0034255248 0.3113121534
745295530.0 0.009066046 0.3044247206 -0.0121386902 -0.4271066729 -0.0114490788 -0.4275888912 0.0061140718 0.3113023857
750295500.0 0.0119356565 0.3049067975 -0.0162001029 -0.4272994587 -0.0171078544 -0.4276829075 0.0099204481 0.3112683107
755295470.0 0.0152745542 0.304825712 -0.0209908344 -0.4271721336 -0.0213523723 -0.4276941023 0.0128884441 0.3114478879
760295440.0 0.0180972296 0.3053261827 -0.0259790489 -0.4273444765 -0.0262025364 -0.4267353465 0.016300957 0.3107094316
765295410.0 0.0215390194 0.3050292232 -0.0303850025 -0.4265129391 -0.0300532676 -0.4268448338 0.0194961445 0.3108592102
770295380.0 0.0241705787 0.3049021301 -0.0347410144 -0.425577371 -0.03510736 -0.4264058298 0.0226116171 0.3108572096
775295350.0 0.0272470987 0.3049234069 -0.0392418638 -0.425747728 -0.0397226957 -0.4257311152 0.025997859 0.3109995996
780295320.0 0.0309746196 0.3051573879 -0.0441470416 -0.4252339739 -0.044205073 -0.4253657181 0.0294781408 0.3108471271
785295290.0 0.0336471555 0.304843954 -0.0486076264 -0.4250477468 -0.0486063611 -0.4248661853 0.0321384122 0.310594846
790295260.0 0.0365985626 0.3044545748 -0.0532782571 -0.4244013925 -0.053111538 -0.4248404915 0.0355524765 0.3109186747
795295230.0 0.0396289555 0.3041482409 -0.0579317928 -0.4239024275 -0.0580325658 -0.4236328357 0.0387867388 0.309856281
800295200.0 0.0423795315 0.3042833567 -0.061818814 -0.4229578865 -0.0625369972 -0.4233117428 0.0419013249 0.3099550265
805295170.0 0.0454166926 0.3041666164 -0.0666512987 -0.4222309249 -0.0671709617 -0.4223435879 0.0457999511 0.309478161
810295140.0 0.0490009309 0.3039319332 -0.0715403726 -0.4213989394 -0.0714196799 -0.4215855102 0.0489580606 0.3093965208
815295110.0 0.0517939543 0.3036727126 -0.0759853392 -0.4207960663 -0.0759305512 -0.4206705234 0.0516538583 0.3089671454
820295080.0 0.0549004907 0.3032972849 -0.0801673968 -0.419469978 -0.08037074 -0.4201764128 0.0546378396 0.308910802
825295050.0 0.0577228983 0.3025413154 -0.0853378091 -0.4191837471 -0.0851302071 -0.4190789338 0.0585334131 0.3082712349
830295020.0 0.0611509644 0.3022490929 -0.0893642031 -0.4177462369 -0.089438415 -0.4182332498 0.0614880341 0.3073585333
