!Created with skrf (http://scikit-rf.org).
# Hz S RI R 50.0 
!freq ReS11 ImS11 ReS21 ImS21 ReS12 ImS12 ReS22 ImS22
300000.0 -0.7697239495 -0.1386673558 0.0019669509 0.0008136507 0.0016879833 0.0019197947 -0.76414938 -0.1666246461
5299970.0 -0.7857578349 -0.0071630397 3.6433e-06 0.0002117232 0.0001668522 0.0001693334 -0.7844536961 -0.008362725
10299940.0 -0.7875746028 -0.0041122353 -0.0002968355 -0.000284919 0.0001057302 6.78927e-05 -0.7880591719 -0.0051274207
15299910.0 -0.7931179134 -0.0017021334 -6.38549e-05 -0.0002436884 5.0139e-06 0.0001374242 -0.7933289484 -0.0029154929
20299880.0 -0.7997005884 0.0026660154 -0.0001179991 -0.0002115969 -8.1328e-06 0.0001511933 -0.7994977192 0.0011841582
25299850.0 -0.806804504 0.0079945517 -0.0002025655 -4.3477e-05 -1.26573e-05 0.0001684142 -0.8062891149 0.0069822238
30299820.0 -0.8118149759 0.0164387822 8.71192e-05 3.45439e-05 -0.0001602049 -0.0001203183 -0.8123510939 0.0147020954
35299790.0 -0.8170148146 0.025251666 0.0002687553 -9.3947e-06 0.0001806397 4.31417e-05 -0.817345316 0.0238412663
40299760.0 -0.8212652374 0.0337991847 -2.5312e-06 8.57627e-05 -0.0001253026 -0.000194257 -0.8213482937 0.0331760237
45299730.0 -0.8247332686 0.0441724142 0.0001703076 -0.0001395672 2.61519e-05 -4.97318e-05 -0.8252707579 0.0423680811
50299700.0 -0.8271931333 0.0539011925 0.0001309454 -2.81583e-05 -0.0001895965 8.64051e-05 -0.8276492273 0.0527408625
55299670.0 -0.8287000417 0.0641481663 0.0002076982 3.83949e-05 -8.27409e-05 -0.0001362683 -0.8298799495 0.0628309239
60299640.0 -0.8303494377 0.0742654614 0.0001854788 -2.61665e-05 1.40515e-05 2.17289e-05 -0.8310275568 0.0730552808
65299610.0 -0.8312797201 0.0849683162 6.4079e-05 1.76727e-05 -0.0001169072 0.0001744295 -0.8311054573 0.0831024123
70299580.0 -0.8313599247 0.0950074663 3.32253e-05 -5.24461e-05 1.42297e-05 -4.8493e-05 -0.8323231237 0.0926005285
75299550.0 -0.8314276828 0.104583049 -0.000123169 -0.0001974772 1.28686e-05 4.60406e-05 -0.8322679174 0.1026210919
80299520.0 -0.8312788235 0.1147404917 -3.81927e-05 -3.66633e-05 5.87055e-05 -4.7498e-06 -0.8315986233 0.1123089904
85299490.0 -0.831044424 0.1239882563 -1.00409e-05 -0.0001516663 0.000140603 -7.38733e-05 -0.8317209282 0.1221125046
90299460.0 -0.8299306743 0.134061793 -8.10355e-05 7.70458e-05 -0.0001068101 0.0001621208 -0.8307065372 0.1311824518
95299430.0 -0.8283813459 0.1439335675 1.1644e-06 1.28481e-05 0.0001579443 0.0001647926 -0.8298909381 0.1414615873
100299400.0 -0.8277495478 0.1528671225 -0.000146758 9.1527e-05 0.0001260886 4.04852e-05 -0.8285537841 0.1501626083
105299370.0 -0.8265544694 0.1618752647 6.62993e-05 2.2305e-05 4.53088e-05 -7.3603e-05 -0.8274533863 0.1591998853
110299340.0 -0.8249474871 0.1711351682 -9.50112e-05 9.47253e-05 7.57504e-05 -0.000158455 -0.8265077248 0.1682231334
115299310.0 -0.8241290059 0.1804176983 -0.0001873984 0.0002005372 4.83559e-05 -4.25541e-05 -0.824850098 0.1769027371
120299280.0 -0.8220842334 0.1896241784 -4.61708e-05 5.5768e-06 0.000119847 3.19906e-05 -0.8238749072 0.1865369175
125299250.0 -0.8202718254 0.1988003789 1.93027e-05 0.0001185696 -2.78332e-05 -8.65482e-05 -0.8216369418 0.195103298
130299220.0 -0.8183307763 0.2077354786 4.36636e-05 -5.91528e-05 -0.000177169 5.58551e-05 -0.8198592047 0.2041970338
135299190.0 -0.816617525 0.2165873304 -0.0001023667 -2.628e-07 7.25378e-05 6.41074e-05 -0.8180278026 0.2127167975
140299160.0 -0.8146682555 0.2253843181 5.92723e-05 -8.13873e-05 5.72868e-05 -0.0001149768 -0.8158206974 0.2215175915
145299130.0 -0.8119915487 0.234590955 0.0001008293 2.65465e-05 8.02701e-05 -6.78575e-05 -0.8136705944 0.2299020012
150299100.0 -0.8101492503 0.2430637335 -0.0001334728 -3.44148e-05 0.0001076378 -0.0001930412 -0.8116490169 0.2384766721
155299070.0 -0.8079356742 0.252356219 -6.27941e-05 -3.6664e-06 -1.82983e-05 -0.0002298807 -0.8094743954 0.2474486258
160299040.0 -0.804616915 0.2613301429 -6.1805e-06 0.0001104067 0.0002306124 -8.82307e-05 -0.8075741436 0.2564687874
165299010.0 -0.8022891598 0.2695211849 0.0001477141 2.8723e-06 -3.27492e-05 2.74011e-05 -0.80425641 0.2649296758
170298980.0 -0.7991670826 0.2782080583 -3.89228e-05 -0.0001024654 0.0001217786 -0.0001057625 -0.8021388161 0.2732535656
175298950.0 -0.7964343039 0.2873418165 -3.29857e-05 2.74034e-05 1.75534e-05 8.56125e-05 -0.7988178858 0.2821507746
180298920.0 -0.7932600754 0.2952306377 0.0001331356 -3.72e-05 6.78523e-05 -7.52027e-05 -0.7955857503 0.2903642595
185298890.0 -0.7904605779 0.3044658073 3.53583e-05 8.27291e-05 -2.0958e-05 -2.04766e-05 -0.7929484003 0.2985852398
190298860.0 -0.7875675856 0.3120580896 -2.23431e-05 0.0002147614 -4.9689e-06 9.46044e-05 -0.7897222584 0.3076723283
195298830.0 -0.7838306277 0.3212334249 -0.0001109984 -7.10845e-05 -8.74473e-05 6.25429e-05 -0.7864083957 0.3154548998
200298800.0 -0.780492489 0.3292572807 0.0002097377 8.95081e-05 0.0001439313 -1.08768e-05 -0.7831399023 0.3240456163
205298770.0 -0.77723377 0.3375881847 -1.37225e-05 -5.48773e-05 -0.0002418007 0.0001356588 -0.7799078648 0.3321702472
210298740.0 -0.7736577444 0.3459931009 -6.76434e-05 6.63111e-05 -3.06706e-05 6.45064e-05 -0.7767264483 0.3406747785
215298710.0 -0.7705583312 0.3540964102 -3.23549e-05 0.0001339737 4.8595e-05 5.53747e-05 -0.7733320823 0.348209823
220298680.0 -0.766953829 0.3625410821 6.0878e-06 0.0001156038 0.0001159976 -0.0001268341 -0.7695372195 0.3568424749
225298650.0 -0.7630955103 0.3707641967 -1.74204e-05 -3.01042e-05 -5.65998e-05 3.24161e-05 -0.7658785305 0.3649445126
230298620.0 -0.7593100564 0.3788984156 -5.00602e-05 -0.0002048138 -3.84673e-05 3.70556e-05 -0.761241365 0.3726159831
235298590.0 -0.7545170487 0.3874073237 4.78161e-05 -0.0002347709 5.77411e-05 -1.59193e-05 -0.7573988339 0.3803639722
240298560.0 -0.7511097017 0.3954906901 -0.0002562535 -1.6554e-05 -2.09895e-05 0.0001320617 -0.7538450598 0.3888124211
245298530.0 -0.7464652182 0.4029188513 0.0001403112 -3.86153e-05 0.0001401063 -3.0843e-05 -0.7499335562 0.3965514445
250298500.0 -0.7422760942 0.4108406784 0.0001398486 1.51843e-05 0.0001161041 0.0002205475 -0.7457222316 0.4045006523
255298470.0 -0.7376132276 0.418843714 7.86439e-05 4.06712e-05 0.0001022307 -4.04244e-05 -0.741200893 0.4127315343
260298440.0 -0.7333763237 0.4259221767 -6.95548e-05 -0.0001216905 2.80868e-05 -5.76353e-05 -0.7366623521 0.4194604625
265298410.0 -0.7294564899 0.4340389406 0.0002326814 0.0001410641 -7.28818e-05 -1.59342e-05 -0.732651324 0.4276145207
270298380.0 -0.7244296898 0.4419906913 -1.68127e-05 2.9775e-06 -0.0001439635 0.0002217905 -0.7273826352 0.434953431
275298350.0 -0.7194102269 0.449293201 0.0001836346 0.0001243201 -0.0001376267 7.5879e-06 -0.7227781397 0.4431765712
280298320.0 -0.7154197918 0.4568629602 0.0001828361 -3.39191e-05 -6.77557e-05 0.0001135341 -0.7185633552 0.4503766039
285298290.0 -0.710443923 0.4644465836 -0.0001738953 7.42602e-05 1.16289e-05 -4.122e-06 -0.7131202214 0.4576966764
290298260.0 -0.7054140857 0.471861506 0.0001918676 8.76569e-05 2.28672e-05 6.42324e-05 -0.7085466181 0.4659079501
295298230.0 -0.7005333718 0.4793072568 0.0001639587 0.0001089881 7.70828e-05 9.50088e-05 -0.7036611144 0.4732915689
300298200.0 -0.6951450125 0.486809012 -0.0001356763 -0.0001281505 0.0001336246 -3.2016e-06 -0.6990570317 0.4800888795
305298170.0 -0.689988743 0.4945222459 5.98858e-05 -4.34547e-05 -0.0001941768 -9.63304e-05 -0.6931195785 0.4875897534
310298140.0 -0.684486477 0.5010318829 -4.60556e-05 -1.69895e-05 4.0818e-05 1.21454e-05 -0.6886115668 0.495349633
315298110.0 -0.6797988425 0.5078419166 -0.0001719248 -9.24663e-05 6.8642e-05 -0.0002193677 -0.6834199721 0.5020641639
320298080.0 -0.6742295589 0.5154221605 5.20812e-05 -1.06356e-05 -9.93711e-05 1.1183e-05 -0.6776883901 0.5092325621
325298050.0 -0.6682369741 0.5217400815 -5.14273e-05 -3.32254e-05 -8.0223e-05 2.48004e-05 -0.6725346071 0.5162175122
330298020.0 -0.6626388566 0.5292004102 -0.000173974 -2.92309e-05 5.37055e-05 -0.0002538002 -0.6666332256 0.5232111658
335297990.0 -0.6567250408 0.5358494387 -0.0002519245 0.0001102965 2.23694e-05 4.729e-05 -0.6608775377 0.5300041527
340297960.0 -0.65199077 0.5428805653 -6.6521e-05 -4.00041e-05 7.3596e-06 0.0001012842 -0.6550394114 0.5369219394
345297930.0 -0.6464159368 0.5490147965 -3.25541e-05 9.32092e-05 -0.0001001922 1.11996e-05 -0.6497295685 0.5437123976
350297900.0 -0.6400906623 0.5557835061 6.34039e-05 -5.37293e-05 4.07474e-05 4.16862e-05 -0.644045332 0.5512232954
355297870.0 -0.6344460723 0.5628498929 0.0002032644 1.40788e-05 6.18252e-05 0.0002333247 -0.6381725262 0.5572874051
360297840.0 -0.6282053945 0.5689479393 -5.0769e-06 0.0002229402 8.671e-05 -4.80483e-05 -0.632012311 0.5636515951
365297810.0 -0.6220173843 0.5760364691 9.44038e-05 5.64624e-05 6.70807e-05 0.0001982127 -0.6259031174 0.5708849164
370297780.0 -0.6160438235 0.5822758679 -0.0001381305 -0.0001356792 0.000278907 3.22395e-05 -0.6205742229 0.5766072177
375297750.0 -0.6100302013 0.5885236063 -4.83055e-05 4.6013e-05 5.06651e-05 0.0002846808 -0.6141138137 0.5833058957
380297720.0 -0.6039337844 0.5949055033 6.41268e-05 -0.0001260089 -0.0001352557 1.54112e-05 -0.607557165 0.5905247273
385297690.0 -0.5978180909 0.6002174149 -4.02026e-05 0.0001442396 1.43778e-05 2.48807e-05 -0.6020679967 0.5959698803
390297660.0 -0.5908996303 0.6069224243 9.18057e-05 2.03457e-05 -6.63252e-05 -1.89448e-05 -0.5953070977 0.601547613
395297630.0 -0.5851958568 0.6135977565 0.0001283036 1.58071e-05 8.31071e-05 0.000128226 -0.5888837565 0.6084965045
400297600.0 -0.5787191566 0.6192666497 2.16141e-05 7.00696e-05 6.75589e-05 9.14875e-05 -0.5823938264 0.6138813564
405297570.0 -0.5725457556 0.6251410437 -2.44645e-05 0.0002105994 6.49778e-05 8.51789e-05 -0.5769956028 0.6197936196
410297540.0 -0.5657461439 0.6306251882 6.10526e-05 3.54785e-05 -0.0001645535 -4.96028e-05 -0.5695910476 0.6254617741
415297510.0 -0.5592838847 0.6366002749 -0.0001971066 -0.0001092485 2.14182e-05 0.0001807622 -0.5632834057 0.6321236844
420297480.0 -0.5517322665 0.6423035058 7.65575e-05 0.0001566387 5.71021e-05 0.0001405854 -0.5569613869 0.6368000913
425297450.0 -0.5454673109 0.6480940913 7.44837e-05 -5.05046e-05 9.74608e-05 -3.87113e-05 -0.5502259069 0.6429989648
430297420.0 -0.5394190281 0.6537327294 0.0001501684 3.24049e-05 -6.61417e-05 -2.10256e-05 -0.5439407612 0.6489048579
435297390.0 -0.5321830233 0.6593557636 -5.24077e-05 -8.71787e-05 4.55609e-05 -0.0002463662 -0.5365815367 0.6540772897
440297360.0 -0.5254135374 0.6647055889 7.2632e-06 6.78929e-05 5.42381e-05 0.0001672897 -0.5297600879 0.6590508313
445297330.0 -0.5185815192 0.669947441 -3.64668e-05 0.0001666411 -4.68092e-05 3.65678e-05 -0.5232486572 0.6637568516
450297300.0 -0.5111998043 0.6739916417 0.0001361978 3.53742e-05 -5.9683e-06 1.09523e-05 -0.5166159342 0.6697987831
455297270.0 -0.5041361898 0.6804169062 -0.0001650123 0.0001589549 0.0001301918 -2.63601e-05 -0.5098192288 0.6749126121
460297240.0 -0.4977431857 0.6854379725 0.0002023013 4.06521e-05 -4.10157e-05 8.602e-06 -0.5023423364 0.6804905232
465297210.0 -0.4899688603 0.6906427158 0.0002474975 -0.0002518928 0.0001200227 0.0001252627 -0.4963321358 0.6849100839
470297180.0 -0.4825978655 0.6950791768 4.23829e-05 0.0001269184 1.058e-05 2.5642e-05 -0.4893454688 0.6895708056
475297150.0 -0.4759049917 0.7006541931 0.0001157724 -6.0582e-06 -9.22819e-05 7.99616e-05 -0.4820288182 0.6946203848
480297120.0 -0.4689221823 0.7048058092 7.45282e-05 -3.52195e-05 -1.30934e-05 -3.618e-05 -0.4750530694 0.7000844944
485297090.0 -0.4614594497 0.709284584 -0.0002138449 -0.0002734604 0.0001191437 -6.572e-06 -0.4681052695 0.7036388519
490297060.0 -0.4540243633 0.7142528845 -0.0001320422 -8.06446e-05 -3.16673e-05 -9.7728e-06 -0.4609259438 0.7087033166
495297030.0 -0.4470911938 0.7190395122 -0.0001156865 2.47864e-05 0.0001106942 5.72238e-05 -0.4530501791 0.7128833724
500297000.0 -0.4386870524 0.7236786192 9.39656e-05 -7.37795e-05 -2.78614e-05 -0.0001399009 -0.4463067919 0.7177155822
505296970.0 -0.4313690183 0.7268871723 -4.18524e-05 4.88006e-05 -1.57653e-05 -0.0001562707 -0.4399829175 0.7220382201
510296940.0 -0.4238301561 0.7320006027 -9.8074e-06 0.0002155368 -1.00241e-05 0.0001382302 -0.4317707442 0.72624257
515296910.0 -0.4173558274 0.7362987231 -0.0002041141 8.23046e-05 -6.3585e-06 -6.01068e-05 -0.4247494707 0.7307352405
520296880.0 -0.4092794026 0.7406033757 0.0001987697 6.86801e-05 2.31354e-05 2.14455e-05 -0.4172284927 0.7344665783
525296850.0 -0.4015930367 0.7445345396 -5.42134e-05 7.50692e-05 -2.41767e-05 -0.000106547 -0.4095220586 0.7393642169
530296820.0 -0.3939526449 0.7479469617 -0.0002038569 -2.67613e-05 -0.000180307 8.19396e-05 -0.4029546459 0.7429433407
535296790.0 -0.3858690133 0.7524894016 0.0001613841 0.0003388219 -9.55337e-05 -0.0001282865 -0.3956453838 0.7462730899
540296760.0 -0.3781774369 0.7564226044 -0.0002609981 -0.0001175967 6.05559e-05 1.64449e-05 -0.3877506702 0.7506775516
545296730.0 -0.3708078316 0.759692793 0.000223627 9.42056e-05 -5.91069e-05 -8.73607e-05 -0.3803114175 0.7539154364
550296700.0 -0.3627578418 0.7641165309 -0.0001602336 -4.88566e-05 -1.84682e-05 7.40598e-05 -0.3730426009 0.7582089432
555296670.0 -0.3544346414 0.7669907561 -6.80789e-05 9.70629e-05 -0.0001909819 -4.8465e-06 -0.3647739104 0.7614536865
560296640.0 -0.3467741864 0.7710616331 -5.7921e-05 -9.51691e-05 -1.88174e-05 -0.0001845744 -0.3576081468 0.7655137416
565296610.0 -0.3398595276 0.7738114442 -0.0001386533 0.0001689749 -0.0001572562 -8.99191e-05 -0.3498172973 0.7687366132
570296580.0 -0.331792503 0.7771706983 0.0001085239 0.0001849566 5.00152e-05 0.0002926848 -0.3426823962 0.7725846666
575296550.0 -0.3235836524 0.781294059 0.0001545517 6.21295e-05 9.6331e-05 -7.04653e-05 -0.3346779804 0.7750836074
580296520.0 -0.3153862172 0.7842236285 0.0002685665 -7.21044e-05 -0.0001677075 -8.27925e-05 -0.327081138 0.7788620373
585296490.0 -0.3077720196 0.7863386395 -9.70272e-05 3.14176e-05 1.48385e-05 -1.9875e-06 -0.3194889106 0.7814828775
590296460.0 -0.2996599148 0.790084444 -0.0001353741 0.0002569925 0.0001712741 3.75423e-05 -0.3117479046 0.7848109876
595296430.0 -0.2909716559 0.7937304567 0.000152447 0.0001058989 0.0001613857 -0.0001040806 -0.3034536679 0.7871639518
600296400.0 -0.2832063857 0.7964025889 9.648e-07 -4.18897e-05 -8.98465e-05 6.68461e-05 -0.2956951648 0.7913383154
605296370.0 -0.2753838675 0.7988371229 1.15031e-05 -4.99809e-05 -1.99217e-05 -6.9546e-05 -0.2883150496 0.7940499338
610296340.0 -0.2673526085 0.8018002802 -8.46538e-05 0.0001117183 -7.32957e-05 0.0001497739 -0.280098982 0.7971490707
615296310.0 -0.2590420833 0.8041129881 -0.0001518993 4.13065e-05 0.0001279781 9.2459e-05 -0.272322604 0.7994030093
620296280.0 -0.250615858 0.8066295994 -0.0003593496 0.0002255159 -8.67865e-05 -8.71392e-05 -0.2640867569 0.8015558575
625296250.0 -0.2429355479 0.8094596059 -8.31819e-05 9.948e-06 -0.0001876061 4.72475e-05 -0.2563244259 0.8050004591
630296220.0 -0.234227762 0.8122462556 -0.0001253042 -0.0002058832 0.0001350583 -0.0001034847 -0.2480684611 0.8078333679
635296190.0 -0.2257573813 0.8137957776 -0.0001183249 -1.86377e-05 4.42205e-05 0.0001612055 -0.2405007216 0.8095137758
640296160.0 -0.2176037041 0.8156612322 -4.20318e-05 -3.50302e-05 -7.75794e-05 -0.0001940614 -0.232086163 0.8115656658
645296130.0 -0.2098288933 0.8180408279 0.0001799699 0.0001119677 -3.73456e-05 0.0002770977 -0.2246881557 0.8138330451
650296100.0 -0.2017356308 0.820172711 5.84602e-05 4.8572e-05 -0.0001035844 -0.0001661206 -0.2162402579 0.8162320408
655296070.0 -0.1929454309 0.822473837 0.0002449922 6.58535e-05 -0.000278315 -4.45562e-05 -0.2082016412 0.8174466014
660296040.0 -0.1852785223 0.824593102 -9.82581e-05 -8.90278e-05 6.091e-05 -1.54688e-05 -0.2001473232 0.8196322455
665296010.0 -0.176745964 0.826000911 7.20643e-05 5.78106e-05 2.50028e-05 4.9719e-06 -0.1925711336 0.8220651919
670295980.0 -0.167855551 0.8273743567 -4.23105e-05 -8.346e-05 -0.0002552522 -0.0001055208 -0.1850865581 0.8244201956
675295950.0 -0.1601505709 0.8288602042 8.7913e-05 -6.14867e-05 -0.0001156445 5.87569e-05 -0.1756548786 0.8258815414
680295920.0 -0.1515525671 0.8306381255 -5.69416e-05 5.01134e-05 -3.66376e-05 -5.12334e-05 -0.1677755775 0.8277179488
685295890.0 -0.1425966342 0.8322496755 0.000104869 -4.61442e-05 5.2579e-06 1.46004e-05 -0.1596567414 0.8292144275
690295860.0 -0.1341795747 0.8339013253 -1.57337e-05 6.73837e-05 -7.54596e-05 -6.74459e-05 -0.1512655689 0.8307060578
695295830.0 -0.1259972386 0.8341969632 8.73956e-05 0.000101295 -3.93257e-05 -5.95814e-05 -0.1432111606 0.8324925077
700295800.0 -0.1174415388 0.8358030102 -2.2204e-05 0.0001562171 6.17338e-05 4.38124e-05 -0.1345383414 0.8332333675
705295770.0 -0.1086972324 0.8377208113 7.57759e-05 -0.0001682046 6.13008e-05 -0.0001336579 -0.1268889343 0.8350285709
710295740.0 -0.1007380506 0.8385579967 -8.10508e-05 0.0002839522 -2.38596e-05 -4.9925e-06 -0.119474537 0.8364657909
715295710.0 -0.0930946492 0.8391290041 0.000122163 7.24589e-05 8.18346e-05 -0.0001347538 -0.11013675 0.8376719382
720295680.0 -0.0841093731 0.839228741 0.0002016387 0.0001422048 4.46938e-05 -0.0001306121 -0.1019657178 0.8382210701
725295650.0 -0.0751323334 0.8408141946 -4.141e-05 0.0002316678 -5.85555e-05 -7.6802e-05 -0.0933462827 0.8394729438
730295620.0 -0.0671652516 0.8413265951 -9.84484e-05 -0.0001036845 -1.64124e-05 5.34387e-05 -0.0853228025 0.8399946947
735295590.0 -0.0581451581 0.8416909882 -1.40976e-05 2.07298e-05 -0.0001552162 3.9105e-06 -0.0767488841 0.8404933275
740295560.0 -0.0496002607 0.8428923323 -6.73687e-05 9.21553e-05 8.29304e-05 4.87471e-05 -0.0688008874 0.8409903146
745295530.0 -0.0416080262 0.8425911331 -3.82875e-05 3.73466e-05 3.25486e-05 -0.0001953064 -0.0604148443 0.8419630138
750295500.0 -0.0336817875 0.8432137892 -3.71692e-05 4.9304e-06 3.47789e-05 0.0002139774 -0.0522260793 0.842170285
755295470.0 -0.0239989497 0.8433778862 2.89385e-05 -6.46161e-05 -0.0001848932 8.69329e-05 -0.0442370794 0.8429670742
760295440.0 -0.0158370941 0.8436426478 -7.19002e-05 -1.93767e-05 5.20209e-05 0.0001795409 -0.0358904258 0.8434680477
765295410.0 -0.0081743875 0.8438174467 2.80723e-05 8.54364e-05 2.03917e-05 0.000106827 -0.0269360008 0.8441949325
770295380.0 0.0008657757 0.8442644928 6.09602e-05 -6.77727e-05 0.0001388734 0.0001295317 -0.0186606045 0.8440747005
775295350.0 0.0092616707 0.8441686603 8.13264e-05 -7.182e-06 -4.68663e-05 -3.23441e-05 -0.0110433934 0.8438882964
780295320.0 0.0182128427 0.8439344231 4.24317e-05 -3.37351e-05 -9.55757e-05 0.0002104372 -0.0023837952 0.8442699695
785295290.0 0.0260429967 0.8441753065 7.648e-05 -0.0001596766 -0.0001607845 2.49511e-05 0.0054673752 0.8443951127
790295260.0 0.0344944217 0.8430565126 -0.0001229996 2.69714e-05 2.01107e-05 0.0001269609 0.0148608192 0.8444609972
795295230.0 0.0428527059 0.8431517291 0.000148662 0.0001261554 1.83932e-05 7.54911e-05 0.0225277585 0.844473468
800295200.0 0.0519657125 0.8422514609 -3.37497e-05 0.0001224821 -0.0001265671 0.000139551 0.0306741706 0.8435880866
805295170.0 0.0598093761 0.8420872792 -0.000135986 0.0001822211 5.36319e-05 -0.0001731851 0.038580719 0.8433336663
810295140.0 0.0685562997 0.8413352095 -5.74037e-05 7.64632e-05 -0.0001866591 -6.04407e-05 0.0473114933 0.8439080309
815295110.0 0.0772899694 0.8402326886 0.0001822026 3.3757e-05 0.0001101991 3.62446e-05 0.0555130957 0.8424584741
820295080.0 0.085215748 0.838992697 -1.90082e-05 -0.0002226537 -1.75848e-05 -0.0001032227 0.0634705255 0.8417492458
825295050.0 0.0941793351 0.8387986662 -0.0002533633 9.8767e-06 0.0002567271 -2.52704e-05 0.0722134429 0.8411407155
830295020.0 0.1025378698 0.8379105471 -0.0002460562 -8.28931e-05 -0.0001659954 -5.30024e-05 0.0798717156 0.8406745146
835294990.0 0.1097726152 0.837100935 -0.0002484094 -8.68805e-05 1.7549e-05 0.0001021732 0.0886876663 0.8392210674
840294960.0 0.1189064728 0.8351570752 0.0001477159 0.0001019821 0.0001717883 1.58909e-05 0.0962127551 0.8388559972
845294930.0 0.127077547 0.8343254951 -0.0001162605 0.0001951818 8.76333e-05 -0.0001279095 0.1053026776 0.8373215562
850294900.0 0.1352512834 0.8325787243 -8.67915e-05 2.0608e-06 -0.0001541685 -0.0001227452 0.1131819624 0.8370661611
