!Created with skrf (http://scikit-rf.org).
# Hz S RI R 50.0 
!freq ReS11 ImS11 ReS21 ImS21 ReS12 ImS12 ReS22 ImS22
300000.0 -0.7745386852 -0.1006125462 -0.0014408596 0.0015615224 0.0021883491 0.0019657533 -0.2136935461 -0.0823507096
5299970.0 -0.7851068062 -0.0065441877 0.000109735 -1.1298e-05 0.00014144 -0.0001773106 -0.2148272692 0.0083625211
10299940.0 -0.7876208513 -0.0040407927 -0.0001358938 -0.000152782 7.0294e-05 -3.79639e-05 -0.2113949579 0.0216211793
15299910.0 -0.7933081027 -0.0020431285 1.42276e-05 7.93177e-05 5.37137e-05 0.0002096138 -0.2063283298 0.0311656204
20299880.0 -0.8002196947 0.0018743593 -0.0002738371 0.0002428701 5.70076e-05 -0.0001022478 -0.2000412863 0.0390416711
25299850.0 -0.8064481864 0.0076465625 -0.0001906527 -3.6918e-05 -7.5391e-06 0.0001139991 -0.1936444818 0.0456442291
30299820.0 -0.8127633945 0.0151093838 0.0002004083 0.0001507869 4.55054e-05 0.000179792 -0.1869580659 0.0510529221
35299790.0 -0.8171270454 0.0245081577 9.69215e-05 -8.07452e-05 -0.0001430364 1.18535e-05 -0.1809812735 0.0549384695
40299760.0 -0.8211653589 0.033712519 -0.00010297 0.0002280655 -3.50446e-05 -1.74607e-05 -0.1749425928 0.0575282527
45299730.0 -0.824557698 0.0429806664 -0.0001158912 0.0001726291 7.03251e-05 0.0001045788 -0.1691656436 0.0597302044
50299700.0 -0.8273435816 0.052852387 -0.0002312483 0.0001033321 -5.90942e-05 3.58196e-05 -0.1643150067 0.0609669173
55299670.0 -0.8291099681 0.0627731335 0.000114212 -0.0001057343 8.25726e-05 1.39852e-05 -0.1593678834 0.0617235016
60299640.0 -0.8300471479 0.0733071795 -0.0001756935 5.28942e-05 6.92928e-05 7.3497e-05 -0.1549141123 0.0625301559
65299610.0 -0.8313430043 0.0828783821 -6.94998e-05 0.0002178153 0.0001184943 2.0385e-06 -0.1512884961 0.0624735268
70299580.0 -0.8317851511 0.0931714483 -0.000155056 0.0001610033 3.6097e-06 2.6685e-06 -0.1477421219 0.0629843573
75299550.0 -0.8318095694 0.1034857414 5.86148e-05 0.0002102561 -0.0001952159 0.00015223 -0.1446596732 0.062271091
80299520.0 -0.8320113635 0.1134896243 -5.10289e-05 -1.99156e-05 2.81627e-05 0.0001618111 -0.1417377537 0.0627869421
85299490.0 -0.8310791895 0.1228882744 4.53751e-05 0.0002575789 8.5582e-05 6.83614e-05 -0.1394932884 0.0623680066
90299460.0 -0.8300199356 0.1324993286 -0.0003357286 -4.66058e-05 -4.07111e-05 -5.47095e-05 -0.1368284494 0.0620137707
95299430.0 -0.8289330409 0.1418113809 -7.6802e-05 -2.54778e-05 7.24395e-05 3.6284e-06 -0.135055132 0.0622043859
100299400.0 -0.827717246 0.1509821687 -6.91634e-05 4.38563e-05 -0.000115479 -4.21815e-05 -0.1327292715 0.0618864606
105299370.0 -0.8271524976 0.160553944 9.82938e-05 -7.0822e-06 0.0001107285 -6.8102e-05 -0.1306879856 0.061460442
110299340.0 -0.8254042962 0.1692911712 8.18368e-05 0.0001770118 -0.0001150896 -4.89925e-05 -0.1294310903 0.0612230005
115299310.0 -0.8236948798 0.17835465 -0.0002714386 5.03192e-05 0.0001430421 0.0001129558 -0.1279042678 0.061250544
120299280.0 -0.8223390259 0.1866313435 0.0001897371 -3.85007e-05 -3.81862e-05 0.0001563676 -0.126650113 0.0611216154
125299250.0 -0.8201362344 0.1956242337 0.0001102852 6.21844e-05 4.49222e-05 0.000195201 -0.1253860412 0.0607985035
130299220.0 -0.8186734662 0.2050319889 0.0001373401 1.00398e-05 -2.31119e-05 0.0001242606 -0.1244898374 0.0609283951
135299190.0 -0.8167866725 0.2138682316 0.0001101461 -0.0001043946 4.07829e-05 -1.89105e-05 -0.1231176939 0.0608758415
140299160.0 -0.8145900011 0.2227652908 -0.0001559273 0.000348806 -0.0002363858 -5.45161e-05 -0.1223922343 0.0613337018
145299130.0 -0.8122502535 0.2322658551 5.319e-06 3.60786e-05 2.04508e-05 0.0002220672 -0.1218623405 0.0613979536
150299100.0 -0.8100936744 0.2406639592 -3.60333e-05 5.86514e-05 -0.0001150482 0.0001060781 -0.1210759294 0.0624558192
155299070.0 -0.807356616 0.2498133528 -6.30416e-05 0.0002148091 0.0001561375 7.41814e-05 -0.119860727 0.0622947492
160299040.0 -0.8052052794 0.2581986837 0.0002309975 6.33623e-05 8.35702e-05 -7.52565e-05 -0.1195411954 0.0625551073
165299010.0 -0.8027243594 0.2664938089 -1.87258e-05 0.0002877684 5.91711e-05 -1.92467e-05 -0.1189176364 0.0628812818
170298980.0 -0.7999054082 0.2748813379 0.0001584792 -8.95139e-05 0.0001909727 6.6296e-05 -0.1179761092 0.0632139545
175298950.0 -0.7972328681 0.2835181988 1.9096e-05 -4.00878e-05 9.4093e-06 0.0001759327 -0.1175450882 0.0640780546
180298920.0 -0.7948275568 0.2925376292 1.78219e-05 0.0001114907 -4.5819e-06 0.0001107611 -0.1172437407 0.064595655
185298890.0 -0.7912419547 0.3005190742 -0.0001711037 0.0001016539 6.87492e-05 0.0001783927 -0.1162853295 0.0652362149
190298860.0 -0.7885378254 0.3095469154 -5.99604e-05 -6.35895e-05 -5.98207e-05 0.0001120366 -0.1164110637 0.0655758157
195298830.0 -0.7853134596 0.3175835669 -7.34885e-05 9.86691e-05 4.58131e-05 0.0001046066 -0.1153922584 0.0663501319
200298800.0 -0.7817242152 0.3258532999 -1.42126e-05 -0.0001340328 7.01062e-05 0.0001730857 -0.1153437216 0.0668129715
205298770.0 -0.7780333613 0.3342061786 0.0005010552 -5.53422e-05 4.96669e-05 1.59787e-05 -0.1148513867 0.0670993117
210298740.0 -0.7751760908 0.3423211823 6.32677e-05 -8.84928e-05 0.0001352667 5.25939e-05 -0.1141703134 0.0681123403
215298710.0 -0.7714370893 0.3505166377 -2.1751e-06 6.02683e-05 0.0002708975 2.06071e-05 -0.1140584096 0.0686919634
220298680.0 -0.7671947724 0.3584374459 5.0398e-06 -4.6454e-05 0.0002079398 -9.25982e-05 -0.1136276731 0.0693777633
225298650.0 -0.7642601716 0.3660158463 0.000320606 0.0001139691 -9.1444e-05 6.50432e-05 -0.1134926125 0.0698295544
230298620.0 -0.7602758507 0.3748292039 -6.19367e-05 -2.31271e-05 3.89596e-05 -2.372e-05 -0.1128558474 0.0706974477
235298590.0 -0.7562047733 0.382896614 0.0001098849 -7.43712e-05 2.30349e-05 0.0001048482 -0.1122078158 0.0713124907
240298560.0 -0.7524464205 0.3910660518 6.7629e-06 8.4624e-06 2.1724e-05 -9.7871e-06 -0.1121717661 0.0725808716
245298530.0 -0.7485833458 0.3987193013 0.0001806608 0.0001066042 0.0001219027 3.57559e-05 -0.1116700904 0.0730444859
250298500.0 -0.7445519513 0.4067777857 7.7607e-05 -3.33944e-05 6.06584e-05 -5.08275e-05 -0.1111722261 0.0738472873
255298470.0 -0.7397643686 0.413823148 1.278e-05 -3.06667e-05 6.38495e-05 7.94718e-05 -0.1107149414 0.0743277143
260298440.0 -0.7354609402 0.4208241721 2.08307e-05 -0.0002441776 -2.86408e-05 -0.0001878903 -0.1097834161 0.0753177939
265298410.0 -0.7312495295 0.4296079991 -0.0001140418 0.0001702338 -2.92604e-05 0.0001068236 -0.1095964301 0.0762362666
270298380.0 -0.7271604928 0.4369914669 -8.70385e-05 -0.000105641 0.0001321975 8.4875e-06 -0.1091804986 0.0770906988
275298350.0 -0.7218838617 0.4448450367 0.0001140048 1.16338e-05 -2.33401e-05 0.0001895531 -0.1083757523 0.0781992751
280298320.0 -0.7171733768 0.4521073187 -5.24012e-05 0.000244613 0.0002646326 2.4702e-06 -0.1077324268 0.0788121386
285298290.0 -0.7124766252 0.4599551157 0.0001391696 5.43885e-05 0.0001055155 8.06697e-05 -0.1072230759 0.0798392614
290298260.0 -0.708364836 0.4674838762 -0.0001553848 5.61232e-05 0.000194545 5.19308e-05 -0.1067847237 0.0808582518
295298230.0 -0.702535163 0.4746917408 0.0001149844 0.000282363 8.6305e-06 9.39253e-05 -0.1057404617 0.0812795859
300298200.0 -0.6976050605 0.4812599782 -5.00265e-05 0.0001701256 3.95186e-05 3.12579e-05 -0.1052232791 0.0823447149
305298170.0 -0.6929963909 0.4883498711 -5.83679e-05 0.0001915845 5.56768e-05 7.09184e-05 -0.1043299687 0.0831154312
310298140.0 -0.6877298896 0.496198613 9.92459e-05 9.62474e-05 8.81074e-05 0.0001869704 -0.1042368388 0.0843041787
315298110.0 -0.6827522966 0.5030042612 0.0001657297 -4.114e-07 2.74776e-05 0.000119183 -0.1035689656 0.0849245364
320298080.0 -0.6774380355 0.5103105455 -0.000100863 -5.47e-07 0.0001778596 -8.59353e-05 -0.1026900357 0.0857788491
325298050.0 -0.6716471284 0.5172766033 -4.35354e-05 0.0001310797 -4.92584e-05 0.0001838148 -0.1021416728 0.0864258382
330298020.0 -0.6664299239 0.5239729456 -1.84921e-05 0.0001031195 4.10163e-05 4.61023e-05 -0.1018358035 0.0878388969
335297990.0 -0.6609172511 0.5304139729 0.0002435766 3.58374e-05 -0.0001245031 -5.4172e-05 -0.1015019511 0.0893791335
340297960.0 -0.6557236282 0.5375809195 -9.002e-07 0.0003400261 -2.8995e-05 0.0001188845 -0.1004785302 0.0900233731
345297930.0 -0.6502755692 0.5440965384 0.0001762869 8.49539e-05 0.0001593084 2.9853e-05 -0.1001879122 0.0910054386
350297900.0 -0.644796907 0.5507261997 0.0001203442 -7.66893e-05 6.12633e-05 0.0001830819 -0.0995631152 0.09257595
355297870.0 -0.6378822133 0.5576533138 3.936e-06 0.000185294 0.0001452549 0.0002133971 -0.0992421438 0.0933261071
360297840.0 -0.6322728841 0.5638496734 -2.99915e-05 0.0002936649 4.74089e-05 -2.52247e-05 -0.0983648639 0.0945738154
365297810.0 -0.6273356806 0.5702145377 0.0001989467 0.0002120063 0.0002914232 4.3292e-06 -0.0976078446 0.0955008352
370297780.0 -0.6207392111 0.5764623792 0.0002209488 0.0003314888 8.91401e-05 0.0001103998 -0.09671174 0.096378541
375297750.0 -0.614148811 0.5830295815 7.88517e-05 1.33934e-05 5.93362e-05 -7.13762e-05 -0.0964709749 0.0973668721
380297720.0 -0.6088559615 0.5890380173 -5.9496e-06 0.000170165 7.1313e-06 0.0001731054 -0.095725404 0.0985521354
385297690.0 -0.603278214 0.5948124169 4.13493e-05 0.0001546725 1.22518e-05 0.0002045099 -0.0947308562 0.099351218
390297660.0 -0.5969457852 0.6011196309 0.0003270007 2.37204e-05 0.0001042783 0.0001116934 -0.0944649625 0.1009106386
395297630.0 -0.5909140461 0.6075662852 0.0001116934 -0.0001341567 6.15903e-05 0.0002267177 -0.0932367015 0.1015218624
400297600.0 -0.5841139029 0.6137811335 5.98988e-05 3.21244e-05 4.31719e-05 -9.22425e-05 -0.0924429164 0.1024941234
405297570.0 -0.577872857 0.6193660758 0.0002062484 5.49375e-05 0.0001321281 8.73366e-05 -0.0918886307 0.1035755162
410297540.0 -0.5716568911 0.6247228107 -1.686e-06 -5.91585e-05 0.0002720269 0.0001924965 -0.0910648108 0.1044228641
415297510.0 -0.5641158443 0.6306892773 -4.22955e-05 3.49773e-05 0.0002538584 9.72037e-05 -0.0900993802 0.1054300862
420297480.0 -0.5588515184 0.6371383056 0.0002211397 0.0001178453 0.0001148243 0.0002007596 -0.0893106229 0.1063446905
425297450.0 -0.5514456727 0.6420192793 2.59665e-05 6.23368e-05 4.76781e-05 4.69754e-05 -0.0881524927 0.1075995141
430297420.0 -0.5458329171 0.648094957 0.0002489686 0.0001176576 0.0003477808 8.4529e-05 -0.0880083123 0.1079910657
435297390.0 -0.538676026 0.6532815055 0.0001240582 -0.0001230548 0.0001359028 0.0001193365 -0.0868309291 0.1090740653
440297360.0 -0.5318979231 0.6588219306 0.0002956244 0.0001039378 4.77857e-05 6.74213e-05 -0.0855666357 0.110124987
445297330.0 -0.525311496 0.6641805583 0.0001137746 4.8215e-05 0.0002251418 0.0001067121 -0.0848278827 0.1106026837
450297300.0 -0.5184938599 0.6690849475 0.0001512899 6.897e-07 0.0001525051 5.11947e-05 -0.0838555758 0.111930059
455297270.0 -0.5111967419 0.6743366579 0.0004084385 -1.2142e-05 0.0002102882 3.63821e-05 -0.0829438996 0.1127648959
460297240.0 -0.505379241 0.6797721223 3.85203e-05 2.50549e-05 0.0001705156 0.0001661617 -0.0820004647 0.1141738794
465297210.0 -0.4983051073 0.6846342751 9.97199e-05 3.43219e-05 0.0003183008 2.88064e-05 -0.0810998263 0.1143736712
470297180.0 -0.4899494599 0.6898008737 0.0003935193 -1.89222e-05 1.03357e-05 0.0001495439 -0.0799458593 0.1155231633
475297150.0 -0.4835751825 0.6943075244 0.0002427453 -3.92378e-05 0.0002198618 0.0002232629 -0.0784659659 0.1161027758
480297120.0 -0.4769858032 0.6993347333 0.0001594893 5.58268e-05 0.0002006135 -0.0001532096 -0.07753877 0.1172988446
485297090.0 -0.4688856781 0.7039457017 0.0002387361 0.0001077061 0.0002235574 -4.99579e-05 -0.0764862315 0.1183142344
490297060.0 -0.462633286 0.708591583 6.01726e-05 -7.79276e-05 0.00010082 6.84399e-05 -0.0756680863 0.1190859936
495297030.0 -0.4551488667 0.7129690693 8.52933e-05 0.0002325048 0.0001740361 0.000124467 -0.0745742412 0.1202433432
500297000.0 -0.4471348504 0.7180842417 1.60711e-05 1.29561e-05 5.11817e-05 -8.35906e-05 -0.073441619 0.1216357757
505296970.0 -0.4403179089 0.7223057492 0.0001984363 3.06625e-05 0.0001778181 0.0001603037 -0.0725273899 0.1220368199
510296940.0 -0.4331872891 0.7262451968 -0.0001006052 0.0001939096 5.69435e-05 -2.9581e-05 -0.0714164749 0.1231949492
515296910.0 -0.4249438305 0.7308353443 0.0003932266 0.0002940249 0.0002779238 4.93005e-05 -0.0700807675 0.1240575644
520296880.0 -0.4187854575 0.7352904684 0.0002374364 -0.0001643553 0.0002724334 0.000248986 -0.0692413468 0.1249004675
525296850.0 -0.4105612772 0.7387881154 0.0001415671 1.5173e-05 0.0002341345 0.000134669 -0.0679678153 0.1256594422
530296820.0 -0.4031574726 0.7431582915 0.000185249 0.0003043718 0.0003250795 8.66311e-05 -0.0668909163 0.1267013315
535296790.0 -0.3959541788 0.7469654079 0.0002142789 7.72386e-05 0.0001253262 7.94676e-05 -0.0665489803 0.1273527467
540296760.0 -0.3879267803 0.7503779054 0.000192181 0.0001568155 1.0671e-05 -9.03344e-05 -0.0652906874 0.1283766579
545296730.0 -0.3808784724 0.7547754685 7.14739e-05 6.46594e-05 7.26293e-05 0.0001104068 -0.0638630116 0.1289281192
550296700.0 -0.3734307414 0.7585981187 4.39595e-05 -2.74759e-05 0.0002060824 5.392e-05 -0.0630408299 0.1297457121
555296670.0 -0.365487514 0.7617285335 0.0001653804 -5.1818e-06 0.0001112305 1.21792e-05 -0.061555498 0.1309083953
560296640.0 -0.3581123199 0.7659023005 9.71183e-05 8.19696e-05 0.0002964529 0.0001048125 -0.0603929531 0.1313685538
565296610.0 -0.3500353522 0.769708458 0.0001698432 3.75813e-05 0.0003595376 -1.1145e-06 -0.0593613808 0.132364774
570296580.0 -0.3425543968 0.7721716584 0.000162293 -1.90732e-05 0.0002361748 2.01786e-05 -0.0585058551 0.1329074018
575296550.0 -0.3352465154 0.7770692267 0.0002538655 3.66962e-05 6.95464e-05 1.2958e-06 -0.0569296567 0.1337800036
580296520.0 -0.3260103685 0.7796055131 0.0002265961 9.0739e-06 0.0001673263 0.0002393698 -0.0558816519 0.1342685974
585296490.0 -0.3188372349 0.7822738728 8.39713e-05 -2.37592e-05 0.0003511356 0.0001275657 -0.0546771827 0.1348450433
590296460.0 -0.3107016118 0.7858764883 0.000139391 3.42631e-05 0.0002959391 -2.02784e-05 -0.0535966925 0.1359932994
595296430.0 -0.3023586814 0.7888875527 0.0001027485 -6.94246e-05 0.000358243 2.41388e-05 -0.0524174581 0.1358367429
600296400.0 -0.2953156781 0.7920857498 0.0004179474 8.18471e-05 9.1558e-05 0.0001756193 -0.0510455593 0.1367280242
605296370.0 -0.2876336859 0.7945432624 6.95388e-05 0.0002083992 4.41771e-05 -4.88997e-05 -0.0498352206 0.1376177169
610296340.0 -0.2792884425 0.7974530061 -7.5369e-06 -0.0001347639 0.0001170786 9.10996e-05 -0.0485592944 0.1379115922
615296310.0 -0.2704721544 0.7997941709 0.0002195356 -8.88655e-05 0.0003108272 4.32619e-05 -0.0470442123 0.1386374341
620296280.0 -0.2631402774 0.8022690686 0.0001681882 -4.36433e-05 0.0002327664 -0.0002721255 -0.0461230656 0.1393010609
625296250.0 -0.2546545204 0.8050528264 7.25127e-05 4.38425e-05 0.0001866095 -0.0001765469 -0.0444627649 0.1396778779
630296220.0 -0.2462479706 0.8081331936 0.0001186523 0.0001614789 0.0002165281 0.0001969778 -0.0431595621 0.1404546967
635296190.0 -0.2389082432 0.8102364172 0.0001509877 9.45638e-05 0.0001485084 2.58047e-05 -0.0417544042 0.1412297757
640296160.0 -0.2316429935 0.8117873961 5.6878e-06 -0.0001792908 9.67814e-05 9.9403e-05 -0.0407719633 0.1418766655
645296130.0 -0.2228600502 0.8151793304 0.0002300256 2.71879e-05 0.0003335894 -0.0002036924 -0.0392697322 0.1423957928
650296100.0 -0.2143958437 0.8166318617 0.000271371 0.0002556485 0.0001021783 -1.80794e-05 -0.0377916296 0.1427072936
655296070.0 -0.2064243036 0.8190874552 0.0001902901 -2.11204e-05 0.0001419177 -0.0001709663 -0.0361713082 0.143265055
660296040.0 -0.1983517496 0.8207274407 5.59023e-05 -1.56608e-05 0.0002662955 -0.0001667733 -0.0349183771 0.1438244056
665296010.0 -0.1893268662 0.8220126672 0.0001302413 0.0001191537 0.0001335686 7.90765e-05 -0.0337586358 0.1449279727
670295980.0 -0.1821815074 0.8245491744 0.0002255356 6.55153e-05 0.0001894874 -4.17537e-05 -0.0326845823 0.1451446639
675295950.0 -0.1735758157 0.8259970219 0.0001818321 -0.0001794168 0.000116872 8.57148e-05 -0.0314854216 0.1460226973
680295920.0 -0.1655792823 0.8280529289 6.89135e-05 4.4153e-05 0.0004744645 -7.09169e-05 -0.0293689751 0.1466441661
685295890.0 -0.1569297528 0.8304545369 0.0002731484 -2.75781e-05 0.0001785068 2.48857e-05 -0.0281565865 0.1468794621
690295860.0 -0.149097243 0.8309983142 -7.8723e-05 0.0001249607 0.0001564058 5.47052e-05 -0.0270929094 0.1482670699
695295830.0 -0.1408036398 0.8324463656 2.16303e-05 -6.52099e-05 0.0001027097 4.38473e-05 -0.0254780976 0.1484613185
700295800.0 -0.1317826055 0.8334195098 0.0002832533 4.79e-07 0.0003232263 -7.81049e-05 -0.0244974711 0.1486188552
705295770.0 -0.1241667835 0.8353613003 0.0003481759 -5.67062e-05 0.0003253897 3.72105e-05 -0.023070954 0.149300227
710295740.0 -0.1159944837 0.8365975007 0.0002781113 -3.57609e-05 0.0004129076 -7.94804e-05 -0.0214148602 0.1494037338
715295710.0 -0.1078534964 0.836883689 1.10682e-05 7.52352e-05 0.0002037699 0.0001960483 -0.020469846 0.1498085304
720295680.0 -0.0991672465 0.8388074739 0.0001609984 -0.0001376762 0.0001800387 2.05085e-05 -0.0187572446 0.1504220184
725295650.0 -0.0911552254 0.8396133041 0.0001911059 0.0001701324 0.0001370598 -6.36799e-05 -0.0177219756 0.1510489409
730295620.0 -0.0825749547 0.8408915898 9.7207e-05 -0.0001096867 0.0003204098 -4.89127e-05 -0.0167235407 0.1514350777
735295590.0 -0.0745778234 0.8410668909 0.0002183317 -3.60825e-05 0.0001047122 8.66135e-05 -0.0153418208 0.1513189571
740295560.0 -0.065671225 0.8422785118 0.0002566564 0.0002041743 0.0001647272 -7.34379e-05 -0.0129117875 0.1519297079
745295530.0 -0.0578933146 0.8424620044 0.0002229829 -2.15645e-05 0.0001977008 -5.50151e-05 -0.0121575711 0.1522821691
750295500.0 -0.0489902618 0.8424020666 0.0003644115 1.53466e-05 0.0002560754 -1.78789e-05 -0.0108314017 0.1525950952
755295470.0 -0.0405918438 0.8432968251 0.0003209455 1.1722e-05 6.90588e-05 0.0001667043 -0.0092916537 0.1523049903
760295440.0 -0.0328571377 0.8434030635 0.0002238724 0.000130946 0.0001685327 -1.06941e-05 -0.0079720433 0.1525286842
765295410.0 -0.0247295002 0.8442354286 0.0001185241 -0.0001168846 0.0005064048 -0.0002395794 -0.0065445201 0.1532093963
770295380.0 -0.0164289492 0.8440048645 0.000430342 0.0001772198 0.000256889 6.38583e-05 -0.0053984534 0.1533130437
775295350.0 -0.0079855915 0.8441914752 0.0001711165 -8.79615e-05 5.73729e-05 5.13343e-05 -0.003728544 0.1537961148
780295320.0 0.0005386025 0.8441436745 0.0004040945 4.7828e-06 0.0002779115 -0.0001502435 -0.0020411684 0.1536245006
785295290.0 0.0087861703 0.8438303672 0.0002610669 6.07736e-05 0.0001179688 1.00568e-05 -0.0004571372 0.1538813814
790295260.0 0.0176217928 0.843573743 0.0002186856 -6.60227e-05 0.0002522325 -0.0001689625 0.001399823 0.1542504619
795295230.0 0.0252409218 0.8433116904 0.0001920851 -0.0002597942 3.7784e-05 -8.7289e-06 0.0027041529 0.1543640585
800295200.0 0.0337972773 0.843461044 0.0002290813 -6.87635e-05 0.0002982262 -0.0001088692 0.0042580465 0.1547120724
805295170.0 0.0426475876 0.8430765971 0.0002897057 0.0002042325 0.0002362339 -0.0001486082 0.0056472993 0.1544811053
810295140.0 0.050971237 0.8426655328 0.0002489538 -0.0002084807 0.0001134566 -7.54636e-05 0.0073993334 0.1548733884
815295110.0 0.0588840451 0.8415870775 0.0002134816 -0.000113368 0.0003375998 0.0001487022 0.0088399851 0.1553600071
820295080.0 0.0671504647 0.8411001644 0.0001241403 -0.0001738529 0.0002969748 -6.48185e-05 0.0102587714 0.1551712862
825295050.0 0.0761734363 0.8401991521 0.0001831447 5.42e-08 0.0002600515 -3.43175e-05 0.0118401734 0.1554835604
830295020.0 0.0834992768 0.8400571363 0.0002253588 -0.0001567656 0.0002826671 -0.0001712776 0.0139081332 0.1554920961
835294990.0 0.0921744092 0.8389471704 0.0002546109 -0.000117361 0.0001979557 -8.48816e-05 0.0145972706 0.1554940072
840294960.0 0.0997599957 0.8389421132 0.0003086621 -0.0002115616 0.0004028932 0.0002301719 0.0162937406 0.155845631
845294930.0 0.1084143081 0.8367436365 0.0002858948 0.0002532313 0.0001696734 -3.79309e-05 0.0177282367 0.1557707811
850294900.0 0.1167845278 0.8362635276 0.00033655 -9.964e-05 0.0002668462 2.2958e-06 0.0193263651 0.1558795629
