!Created with skrf (http://scikit-rf.org).
# Hz S RI R 50.0 
!freq ReS11 ImS11 ReS21 ImS21 ReS12 ImS12 ReS22 ImS22
300000.0 -0.767738665 -0.1789622818 -0.0003329987 -0.0004437117 -0.0005483714 0.0022240185 -0.2088924766 -0.106629354
5299970.0 -0.7862288899 -0.0095682569 2.50875e-05 -0.0001750327 -1.11959e-05 0.0002853307 -0.216250391 0.0061601287
10299940.0 -0.7897241564 -0.0060118569 5.297e-07 -2.80863e-05 -4.89289e-05 -6.26694e-05 -0.21228323 0.0187040044
15299910.0 -0.794310743 -0.0033633848 -6.06165e-05 0.0001044197 -0.0001154785 -0.0001080854 -0.2074969346 0.0280783529
20299880.0 -0.8008314682 0.0004086664 -8.5026e-05 0.0001041569 7.964e-05 8.0595e-06 -0.2023986024 0.0358625513
25299850.0 -0.807894152 0.0068157018 -6.21145e-05 -6.43486e-05 7.9493e-05 -0.000129611 -0.196844584 0.0417468229
30299820.0 -0.8137313151 0.0137097462 -7.9956e-06 -0.0001333355 -5.66137e-05 -4.64585e-05 -0.1907994727 0.0468684933
35299790.0 -0.8188773179 0.0230493424 -0.0002045346 1.69828e-05 -5.68324e-05 7.06851e-05 -0.1854180467 0.0504086804
40299760.0 -0.8236219031 0.0318238395 0.0001062861 6.4903e-05 0.0001081012 5.67565e-05 -0.179570866 0.0529990823
45299730.0 -0.8264394585 0.0420113723 -0.0003108101 5.30859e-05 -3.96539e-05 1.25192e-05 -0.1745164687 0.0553250722
50299700.0 -0.8288673318 0.051828508 -3.19084e-05 -2.4412e-06 -0.0001848378 -4.05717e-05 -0.1694765237 0.0572210111
55299670.0 -0.8309606712 0.0613921179 0.0001360374 0.0001173957 -5.60856e-05 0.0002474373 -0.1654928387 0.0580851823
60299640.0 -0.8327291355 0.0714569363 -4.3384e-05 -8.47739e-05 -1.42603e-05 0.0001418491 -0.161348135 0.0586469188
65299610.0 -0.8336045626 0.0816657753 -1.33727e-05 7.42753e-05 0.0002218153 0.0002303821 -0.1578198548 0.0594424639
70299580.0 -0.8337712954 0.0914959831 0.0001406557 -1.57771e-05 -6.06689e-05 4.88476e-05 -0.1545585935 0.0593671135
75299550.0 -0.8339308135 0.1015226713 0.0001300287 4.77681e-05 5.22628e-05 -7.06859e-05 -0.1513084327 0.0597010967
80299520.0 -0.8339081581 0.1116684051 0.0001140091 0.000162109 0.0001597667 0.0001881664 -0.1489026137 0.0598953791
85299490.0 -0.8326651217 0.1213865748 0.0002205314 2.85692e-05 2.321e-06 6.93665e-05 -0.146200319 0.059603615
90299460.0 -0.8321017703 0.1314526301 -0.0001665647 0.0001601717 8.17677e-05 9.56328e-05 -0.1441494706 0.0597707405
95299430.0 -0.8318211376 0.1409253025 -1.00892e-05 0.000246777 -2.34335e-05 7.9663e-05 -0.1420618635 0.0599364782
100299400.0 -0.8305592532 0.1498519743 0.0001189243 0.0002331063 0.0001513368 -5.66033e-05 -0.140558295 0.0601798885
105299370.0 -0.8288141995 0.1592849638 -9.51939e-05 -0.0001073341 -2.16482e-05 4.19846e-05 -0.1384874063 0.0596690034
110299340.0 -0.8277308571 0.1680885983 -0.0001328613 -0.0001086385 -0.0001325818 4.38052e-05 -0.1373783281 0.0596602983
115299310.0 -0.8259421003 0.1773154101 -5.0734e-06 6.8319e-05 -3.70563e-05 3.62e-05 -0.1359571122 0.0601780302
120299280.0 -0.8241157203 0.1868687119 -0.0001374719 5.316e-07 -3.74118e-05 -8.76517e-05 -0.134800386 0.0596176873
125299250.0 -0.8226326674 0.1954320528 0.0002281805 -3.87993e-05 0.000140678 0.0001580819 -0.1337993632 0.059985693
130299220.0 -0.8212126692 0.2048586997 9.5936e-05 0.0002584295 0.0001313535 -0.0001029923 -0.1326489472 0.0602293784
135299190.0 -0.8186900865 0.2143162666 0.0002001325 9.62323e-05 0.0001236503 -9.30326e-05 -0.1315624421 0.0603391289
140299160.0 -0.8173292379 0.2229406805 0.0003066878 0.0001733236 -5.71981e-05 0.0001113641 -0.1312508337 0.0605364593
145299130.0 -0.8148656349 0.2323380049 0.0001081709 0.0001323262 -6.37942e-05 0.0001812556 -0.1302422444 0.0611867595
150299100.0 -0.8116906069 0.241321503 -6.68983e-05 0.0002192064 8.68485e-05 -2.29888e-05 -0.1298338144 0.0613168847
155299070.0 -0.8098061582 0.250210614 6.92573e-05 0.0002546684 -8.33609e-05 6.78378e-05 -0.1289228911 0.0620998972
160299040.0 -0.8075336436 0.2589945933 0.0003800548 0.0001062411 -8.20454e-05 0.0001397604 -0.1283970635 0.0624422986
165299010.0 -0.8045268538 0.2673899473 2.45505e-05 -2.76473e-05 -5.63481e-05 4.048e-07 -0.1277194521 0.062715613
170298980.0 -0.8017468871 0.2760416652 9.884e-07 3.725e-05 -6.7662e-06 0.0001230926 -0.1271757073 0.0632800871
175298950.0 -0.7990668697 0.2844294781 -0.0001411568 6.1482e-05 7.00564e-05 5.30373e-05 -0.1265453064 0.0639106758
180298920.0 -0.7959306751 0.2936390056 0.0001408775 -7.18018e-05 0.0001799293 0.000149642 -0.1260002884 0.0643543724
185298890.0 -0.7924693502 0.3018082714 -2.83e-07 8.61952e-05 2.21003e-05 -5.60474e-05 -0.1254409057 0.0650572026
190298860.0 -0.7893950963 0.31143997 0.00019541 0.0001123805 4.61243e-05 2.6307e-06 -0.1251537163 0.0656840763
195298830.0 -0.7862926825 0.3193068338 0.0001027132 -0.0001671045 -7.9457e-06 4.84922e-05 -0.1246217071 0.0661607321
200298800.0 -0.7827048915 0.3272663175 0.000245401 2.09717e-05 0.0001449919 0.0002644006 -0.1240857695 0.0668053558
205298770.0 -0.7795068523 0.3364529842 2.22585e-05 0.0001119582 0.0001332178 -3.79933e-05 -0.1235458475 0.0680300783
210298740.0 -0.7762495301 0.3445687663 -0.0001103041 -5.97735e-05 0.0001042069 0.0002305344 -0.1233724255 0.0687095244
215298710.0 -0.7720591256 0.3530928577 9.39917e-05 -3.68563e-05 -8.3988e-06 -1.20764e-05 -0.1228977693 0.0691743601
220298680.0 -0.7687612075 0.3609789581 0.000102633 1.5018e-06 4.96213e-05 -5.58814e-05 -0.1220542938 0.0703018437
225298650.0 -0.764720471 0.3697685051 9.69024e-05 -7.8536e-05 -8.78938e-05 0.0001057155 -0.1220329409 0.0711285107
230298620.0 -0.7610117673 0.3777990276 0.0001107633 3.72379e-05 0.0001469927 -2.1474e-05 -0.1215902265 0.0716012821
235298590.0 -0.7570215067 0.3859327074 1.16753e-05 -5.87024e-05 9.78024e-05 8.47224e-05 -0.1210844623 0.0727268586
240298560.0 -0.7527703921 0.393766487 0.0001284145 0.0002730339 -5.36704e-05 0.0001272048 -0.1205019224 0.0732847972
245298530.0 -0.7490340448 0.4015172242 0.00022169 1.17851e-05 -3.33705e-05 0.0001866305 -0.1199640994 0.0741956876
250298500.0 -0.7446605819 0.4093069187 9.5123e-05 0.0001492892 0.0001542274 0.0002070002 -0.1197253648 0.0754034448
255298470.0 -0.7405238272 0.4173388148 5.58645e-05 0.0001278932 1.24683e-05 -2.0472e-06 -0.1190531085 0.0760313635
260298440.0 -0.7361915797 0.4251136942 7.15746e-05 0.0001837298 -1.89562e-05 6.41082e-05 -0.1186478742 0.0774845569
265298410.0 -0.7323955608 0.4331055616 0.0002244532 -9.19665e-05 -3.03336e-05 5.17816e-05 -0.1179617951 0.0778900472
270298380.0 -0.7272946316 0.4400363899 0.0002016362 7.65212e-05 3.7475e-06 0.0001103217 -0.1172172127 0.0791081366
275298350.0 -0.7229661627 0.4482001262 -8.10093e-05 5.2397e-06 9.17139e-05 0.0001547709 -0.1167431676 0.080280206
280298320.0 -0.7182012502 0.4553771124 0.0001490529 2.78703e-05 -0.0001123068 0.0001548488 -0.1166804508 0.0813757593
285298290.0 -0.7135976139 0.4633773971 0.0002348286 0.0001200075 6.89832e-05 2.35606e-05 -0.1160135352 0.0825888599
290298260.0 -0.7085981518 0.4709982047 0.0001487817 0.0001967063 1.45342e-05 7.44919e-05 -0.115346898 0.0834006977
295298230.0 -0.7037552087 0.47804011 0.0002017717 4.5181e-06 3.22244e-05 0.0001768196 -0.114875327 0.0841742327
300298200.0 -0.6990328429 0.4852166412 0.0001849046 2.72919e-05 0.0002934628 -5.79e-08 -0.1139268807 0.0855245011
305298170.0 -0.6944763916 0.4923876599 8.98262e-05 8.96986e-05 -1.92891e-05 0.0001505455 -0.1132300737 0.0862658706
310298140.0 -0.6888887397 0.4996611222 9.27761e-05 2.11765e-05 -3.53947e-05 8.8656e-06 -0.1128237448 0.0876610067
315298110.0 -0.684134733 0.507048562 0.0002057846 3.65438e-05 2.56084e-05 9.70313e-05 -0.1121090996 0.088269927
320298080.0 -0.6787740041 0.5145991868 2.23046e-05 -2.29769e-05 0.0001131891 2.31973e-05 -0.1115826547 0.089260331
325298050.0 -0.67329754 0.5209217157 -0.0001054093 7.87013e-05 0.0001275593 -1.11203e-05 -0.1107797511 0.0899871533
330298020.0 -0.6680388115 0.5280933433 -0.0001110671 -3.83109e-05 6.76756e-05 -9.81888e-05 -0.1106232666 0.0910489316
335297990.0 -0.6624693968 0.5348886405 5.39208e-05 3.7837e-05 0.0001192312 0.0002254907 -0.1095400044 0.0920014715
340297960.0 -0.6576130388 0.5411099129 -0.0001164184 5.77048e-05 0.0002079603 0.0003018412 -0.109133441 0.0933037218
345297930.0 -0.6519982911 0.5478820066 1.7211e-05 -6.50317e-05 0.0001125118 0.0001360778 -0.1086202775 0.0941754285
350297900.0 -0.6461044645 0.5548079633 0.0004345779 0.0003734177 3.19864e-05 0.0002708821 -0.108163946 0.0951559722
355297870.0 -0.6409818538 0.5612610723 0.0002585506 0.0001663002 0.0001959446 0.0002184376 -0.1069372321 0.0966686312
360297840.0 -0.635323581 0.5677315652 0.000297306 2.34818e-05 0.0001858046 3.6976e-06 -0.1064840021 0.0976046079
365297810.0 -0.6293855951 0.5745392105 9.70254e-05 0.0001553576 -0.0001087022 2.52776e-05 -0.1059563158 0.098765301
370297780.0 -0.6233590796 0.5801421034 0.0001317396 0.0001165497 0.0002163328 2.83e-08 -0.1053408358 0.0998349038
375297750.0 -0.6179162861 0.5869361387 0.0001706732 -8.69399e-05 0.0002690864 -2.9924e-05 -0.1044142726 0.1009305729
380297720.0 -0.6121038166 0.5936921527 0.0001467809 -0.0001109141 0.0001082333 2.9078e-05 -0.1036033218 0.1017970095
385297690.0 -0.6058033456 0.5994114571 6.86176e-05 -6.95968e-05 2.17206e-05 4.96508e-05 -0.1026930973 0.1032135856
390297660.0 -0.5980802536 0.6056644289 0.0001815201 0.0002996125 0.000199921 0.000324073 -0.1021049246 0.1041798112
395297630.0 -0.5927619218 0.6114819508 1.85567e-05 0.0002575556 4.45509e-05 0.0002241909 -0.1011259038 0.1049584606
400297600.0 -0.5865892426 0.6177569694 0.0001817999 -4.10565e-05 0.0002567226 0.0001853112 -0.1001506346 0.1064246683
405297570.0 -0.5802184685 0.6230118692 0.0002565987 0.0001254046 2.24044e-05 0.0001716703 -0.0993341186 0.1073806948
410297540.0 -0.573850899 0.629705962 0.0001922905 0.0001249044 0.000432464 -2.26096e-05 -0.0984234045 0.1086189599
415297510.0 -0.5676936498 0.6357778094 0.0004185215 3.76355e-05 0.0001533172 0.0001358041 -0.0976895359 0.1094581056
420297480.0 -0.5608584258 0.6408085158 5.86169e-05 -6.46168e-05 3.731e-05 0.0002526825 -0.0964117245 0.1107777319
425297450.0 -0.5541198895 0.6468436638 -3.21401e-05 0.0002333704 0.0002199464 0.000174353 -0.0961772428 0.1114870665
430297420.0 -0.5477581276 0.652116451 0.0001995038 0.0004066773 0.0003170321 -5.89313e-05 -0.0948787381 0.1127284905
435297390.0 -0.5407288194 0.6576691487 -0.0001621065 2.42467e-05 0.000189811 0.0002345153 -0.094226385 0.1139375982
440297360.0 -0.5338054827 0.6629351582 0.0002948653 -0.000134703 0.0002372947 0.0001024272 -0.0931135555 0.1149718119
445297330.0 -0.5277379597 0.6680184173 -2.98445e-05 -4.76616e-05 0.0001499798 0.0002897949 -0.0920348757 0.1157373229
450297300.0 -0.5205030002 0.6735027364 0.0003265681 8.0193e-05 0.0003526086 -4.18217e-05 -0.0907271094 0.1168383465
455297270.0 -0.5130922382 0.6786915941 0.0001447596 0.0001138817 0.0002334509 4.9812e-05 -0.0898175035 0.1179401314
460297240.0 -0.5060057515 0.6840113713 0.00019814 1.8959e-06 0.0001822861 6.95533e-05 -0.08917717 0.1188650282
465297210.0 -0.4993021046 0.6891159225 0.0002048768 4.29878e-05 0.0001876774 0.0001282397 -0.0878664883 0.1198787328
470297180.0 -0.4918819086 0.6942267995 -7.15345e-05 0.0003014133 0.0001408231 0.0001174277 -0.0870420472 0.120690979
475297150.0 -0.4851171996 0.6991835379 0.0003174378 0.0002748907 0.0001517989 -6.90154e-05 -0.0861711733 0.1218941478
480297120.0 -0.4770026232 0.7038280998 0.0002820907 0.0001260755 0.0001223986 9.6456e-06 -0.0851289289 0.122572772
485297090.0 -0.4700917371 0.7085087793 0.0002160484 0.0003158042 0.0002370249 0.0001048655 -0.0839532621 0.1237762956
490297060.0 -0.4622211867 0.7134477531 0.0002551999 4.22404e-05 0.000223418 -0.0002139426 -0.0828519984 0.1248597092
495297030.0 -0.4550736696 0.717975879 5.71383e-05 0.0002303036 7.47354e-05 -0.0001339572 -0.0818412211 0.1255742117
500297000.0 -0.447439379 0.7222712359 0.0001722129 0.0001914809 4.99371e-05 0.0001342553 -0.0806541399 0.1267227826
505296970.0 -0.4392925185 0.7270739267 -2.18792e-05 0.0001890759 0.0001408743 0.0002016157 -0.0794960618 0.1273665694
510296940.0 -0.4321760197 0.731345316 -2.55128e-05 -8.56964e-05 0.0001365298 -6.4195e-06 -0.0780757379 0.1286440348
515296910.0 -0.4241510486 0.7358972563 0.0005072352 0.0001430995 6.20766e-05 1.42898e-05 -0.0773550419 0.129226815
520296880.0 -0.4163072604 0.7399900393 0.0001510907 -9.01655e-05 0.0002642033 -2.50903e-05 -0.075922874 0.1304522298
525296850.0 -0.4083695335 0.7439122877 0.000214881 -1.1863e-06 0.0001830899 -1.41393e-05 -0.0750675369 0.1311839711
530296820.0 -0.4015182994 0.7481782845 7.09565e-05 -0.0001884959 0.0003058703 -3.06116e-05 -0.0738637901 0.1317071501
535296790.0 -0.3930942717 0.7522140783 0.0003395679 -3.1979e-05 3.84844e-05 3.62636e-05 -0.0720881377 0.1329408332
540296760.0 -0.384793923 0.7562317315 0.000267133 -9.51876e-05 0.0002537698 -8.9142e-06 -0.0713482736 0.1334744726
545296730.0 -0.3775412463 0.7601198591 0.0003417349 1.84723e-05 0.0001733349 0.0001509224 -0.0698845288 0.1346284655
550296700.0 -0.3690243892 0.7638963912 0.0002506051 0.0002282763 0.0004885595 0.0004290823 -0.0691058864 0.1353665735
555296670.0 -0.3613111623 0.7675642153 0.0003873194 -3.2739e-06 0.0003312314 -7.53842e-05 -0.0679931036 0.1361653601
560296640.0 -0.3535468735 0.7707834531 7.65157e-05 4.1877e-05 0.00024029 7.29877e-05 -0.066766863 0.1371250319
565296610.0 -0.345752142 0.7743453925 0.0001826285 0.0002310547 0.0001789193 3.0102e-05 -0.0652338991 0.1378502727
570296580.0 -0.3370628758 0.7780252434 0.0002362201 5.18652e-05 0.0003308225 -7.91285e-05 -0.0641676855 0.1385454437
575296550.0 -0.32805521 0.7812157629 0.00027268 8.96033e-05 0.0002149159 -3.50289e-05 -0.0629134878 0.1395061145
580296520.0 -0.3214798891 0.7847234095 0.0002713188 -9.2991e-06 0.0002296976 0.0001130555 -0.0618934126 0.1399216054
585296490.0 -0.3126058062 0.7871720695 0.0001647084 9.66224e-05 5.48652e-05 7.5002e-05 -0.0604530134 0.1411494956
590296460.0 -0.3039882713 0.7908529667 0.0003467309 0.0001642419 0.000101986 9.31997e-05 -0.0590206352 0.1416204652
595296430.0 -0.296576853 0.7940221872 0.000183822 0.0001861558 0.0004054865 3.8612e-05 -0.0579380309 0.1426589285
600296400.0 -0.2884371056 0.7967572019 0.0001642833 0.000132656 0.0001866251 -4.34008e-05 -0.0564510707 0.1430839478
605296370.0 -0.2798130163 0.7997527698 0.0001966335 -0.0001276613 0.0004531517 0.0001243136 -0.055117511 0.1441336736
610296340.0 -0.2715898176 0.8030799287 0.0002087145 -0.0001858289 0.0001660032 -6.95955e-05 -0.053839961 0.1443942573
615296310.0 -0.2628268259 0.8055312919 0.0002106206 -0.0001417676 0.0001069136 -7.32081e-05 -0.0523303577 0.1452550924
620296280.0 -0.2551753589 0.8081217857 0.0002099274 -0.0001679292 0.0001895084 -0.0001208261 -0.0512024992 0.1463353297
625296250.0 -0.2470137268 0.8102376263 0.0003204029 -0.0001894879 0.0002629718 2.38829e-05 -0.0497762961 0.1465870582
630296220.0 -0.2384861902 0.812941888 0.0001544183 -0.0001152043 0.0001400915 -4.843e-07 -0.0484333298 0.1474926348
635296190.0 -0.2302963721 0.8153259974 0.0001609452 0.0002655597 0.000305538 7.59081e-05 -0.0472623114 0.1478684896
640296160.0 -0.2216970751 0.8173574535 0.0003500995 -0.0001268281 0.0002766969 0.0001444185 -0.0460180182 0.148854691
645296130.0 -0.2139158565 0.8201492811 0.0005841241 -6.61934e-05 0.0002607771 4.68947e-05 -0.044552813 0.1493200848
650296100.0 -0.2052527122 0.8217225045 0.0004860821 2.36616e-05 0.0003223243 0.0001821562 -0.0429714352 0.1500929216
655296070.0 -0.1978853423 0.8246608146 0.0006331282 0.000221097 0.0001796813 0.0001606078 -0.0419309739 0.1506336475
660296040.0 -0.1888634618 0.8263728304 0.000225379 -5.67104e-05 0.0002305519 -0.000123507 -0.0400962227 0.151093857
665296010.0 -0.180959285 0.8284227421 1.29174e-05 0.0001105297 0.0004093904 -3.422e-06 -0.038926402 0.1516136457
670295980.0 -0.1722632688 0.83033886 0.0001894135 -8.69102e-05 0.000291312 -5.70451e-05 -0.0374795865 0.1523826378
675295950.0 -0.1640554737 0.8323551101 0.0003200319 -3.40645e-05 0.0003636216 6.43839e-05 -0.0360192288 0.1529342304
680295920.0 -0.1564218775 0.8332746522 0.000226969 -0.0002583213 0.0002670488 0.000140654 -0.0346527497 0.1533800018
685295890.0 -0.1474503114 0.8354851477 0.0003762909 -0.0001745473 0.000259883 -5.083e-05 -0.0332370812 0.1539839745
690295860.0 -0.1391344938 0.837091563 5.50344e-05 -8.81479e-05 0.0001277824 -1.46119e-05 -0.0316962243 0.1544901031
695295830.0 -0.1303216286 0.838544684 4.7055e-05 0.0001331839 0.0001202482 0.0001324168 -0.0303477756 0.1553662842
700295800.0 -0.122528143 0.8398365019 0.0001652207 -7.83713e-05 6.81664e-05 5.52248e-05 -0.0287438319 0.1551462987
705295770.0 -0.1146538705 0.8417430071 0.0002698454 -6.76102e-05 0.0002685423 -4.82152e-05 -0.0274920994 0.156064838
710295740.0 -0.106694227 0.8420004367 0.0001344492 5.40724e-05 0.0003162443 -0.000343559 -0.0260461234 0.1563120993
715295710.0 -0.0978463861 0.8434510549 0.0003608887 -0.0001752729 0.000178897 -3.06234e-05 -0.0243977457 0.156569424
720295680.0 -0.0892222102 0.8446321238 0.0004439104 7.64093e-05 0.0003050144 -5.39787e-05 -0.0230863892 0.1569117009
725295650.0 -0.0809038944 0.8457467278 0.0003562246 -6.05197e-05 0.0003923566 -4.03612e-05 -0.021635013 0.1577196149
730295620.0 -0.0736332015 0.8468039945 0.0002389185 8.13496e-05 7.7842e-05 0.000158261 -0.0205558362 0.1584373647
735295590.0 -0.0656952059 0.8480512589 0.0004477781 -1.4369e-05 0.000185768 0.0001470622 -0.0186515866 0.1584361238
740295560.0 -0.0577005045 0.8477499467 0.0002655418 0.000107063 0.0001650663 -7.8013e-05 -0.0174058033 0.1589567013
745295530.0 -0.0489708187 0.8487022455 0.0004328313 -0.000242001 0.0004669951 -8.6605e-06 -0.0158757766 0.1592802682
750295500.0 -0.0411845318 0.8488628661 0.000188238 -0.0001692282 0.0002171753 -5.19454e-05 -0.0141558609 0.1596207765
755295470.0 -0.0321579886 0.8496279337 0.000459305 -4.62987e-05 0.0004778116 0.0001345721 -0.0128753869 0.1600580508
760295440.0 -0.0241154727 0.850696208 0.0003683067 0.0001389585 0.0003616605 -6.09354e-05 -0.0111345618 0.1602406473
765295410.0 -0.0161331152 0.850350816 0.0004648493 1.00158e-05 0.0003856126 -0.000181277 -0.0094928399 0.1602267008
770295380.0 -0.0080243755 0.8514231897 0.0003380947 0.0001295475 0.000273984 -0.0001024195 -0.0086327215 0.1607623725
775295350.0 -4.17774e-05 0.8509174501 0.0002158808 -5.91997e-05 0.0002857779 6.9915e-06 -0.0067209276 0.1608732467
780295320.0 0.0090432566 0.8517184915 0.0001068014 -8.54575e-05 0.0002006128 -0.0002301097 -0.0050830023 0.1613407547
785295290.0 0.0169053462 0.8509045104 0.0002760979 1.14877e-05 0.0005406053 -0.0001744266 -0.0037612515 0.1615651847
790295260.0 0.0253136213 0.8508905709 0.0001940073 -0.0001369794 0.0005137098 8.19187e-05 -0.0022654811 0.1619933231
795295230.0 0.0333343226 0.850741923 0.0004409567 -0.0001362187 0.0003369766 -0.0001875798 -0.000898765 0.1617677272
800295200.0 0.0410879457 0.8502690653 0.0002715549 -2.49534e-05 0.0003536942 7.6971e-05 0.0006492929 0.1622622441
805295170.0 0.0489985141 0.8505389911 0.0004049401 -0.0002927507 0.0003499498 -7.84693e-05 0.0026058344 0.1624046361
810295140.0 0.0579387773 0.8503468409 0.00046641 -0.0001766896 0.0001633715 -0.0002594398 0.0039342848 0.1626392216
815295110.0 0.0652914806 0.8495349681 0.0002182013 -1.77647e-05 0.0002444009 -9.02331e-05 0.0053406252 0.1629531911
820295080.0 0.073520488 0.8487870086 0.0003507852 9.3726e-06 0.0002520612 -0.0002269097 0.0069069605 0.1629895493
825295050.0 0.0819626162 0.8482569291 0.0001115554 5.46221e-05 0.0002187765 -3.33295e-05 0.0087356858 0.1629783477
830295020.0 0.0906547264 0.8480967596 0.0003322315 -8.2229e-06 0.0001987343 -4.03469e-05 0.0100415963 0.1628680163
835294990.0 0.097805059 0.8467560874 0.0004147059 -3.51203e-05 0.0001817638 -0.0001159767 0.0115900041 0.1635033548
840294960.0 0.1068081105 0.8452745643 0.0001878218 -6.47234e-05 0.0003152605 -3.8047e-06 0.013284326 0.1633779855
845294930.0 0.1150137462 0.8442732137 0.0002821424 -0.0002223108 0.0002610474 -0.0001357714 0.0146796155 0.1634627182
850294900.0 0.1243451532 0.8435512062 0.0004062075 -0.0001294291 0.0003609288 -0.0001237276 0.016268454 0.1635893489
