!Created with skrf (http://scikit-rf.org).
# Hz S RI R 50.0 
!freq ReS11 ImS11 ReS21 ImS21 ReS12 ImS12 ReS22 ImS22
300000.0 -0.322472961 -0.0906861704 0.376160402 0.0478697832 0.3725294452 0.0457670094 -0.3167789265 -0.1060606884
5299970.0 -0.3264467271 0.0038636951 0.3782187233 0.0027082383 0.3782962752 0.0028000468 -0.3232850966 0.004760759
10299940.0 -0.3241679826 0.0131169697 0.3796445098 0.0020307722 0.3795205186 0.0022805919 -0.3206477577 0.015861731
15299910.0 -0.3212011643 0.0203810756 0.3817809248 0.0019436675 0.3819115747 0.0020561896 -0.3178636831 0.0237214785
20299880.0 -0.318603432 0.0259813157 0.3846739328 0.00196247 0.3847811349 0.001462264 -0.3142314401 0.0304018822
25299850.0 -0.3156632911 0.0314491671 0.3881561403 -8.4175e-05 0.3878874484 5.07961e-05 -0.3105030487 0.0361428607
30299820.0 -0.3128674328 0.0356470943 0.3912113773 -0.0022859091 0.3912739991 -0.0021454046 -0.3065875268 0.0411496377
35299790.0 -0.3098886344 0.0401177218 0.3946189951 -0.0056299558 0.3947524313 -0.0055655789 -0.3032433801 0.0454472135
40299760.0 -0.3072975708 0.0436370881 0.3979107147 -0.0090247479 0.3979052316 -0.0087476632 -0.2999605248 0.0486696652
45299730.0 -0.3045067779 0.0466363888 0.4007174813 -0.0128659011 0.4010203721 -0.0126956379 -0.2970113727 0.0524862718
50299700.0 -0.3023477197 0.0497011656 0.4034036311 -0.0173520655 0.4033960896 -0.0172641294 -0.2943406239 0.0548058954
55299670.0 -0.3001323929 0.0521311706 0.4055247564 -0.022563615 0.4055103866 -0.0218531947 -0.2916667637 0.0574876736
60299640.0 -0.2978633926 0.0553138414 0.4070670358 -0.0270516653 0.4076575934 -0.0270111813 -0.2893070902 0.0598160627
65299610.0 -0.2963308793 0.0577713001 0.4091797194 -0.03209477 0.4090035644 -0.0319489231 -0.2872470435 0.0616262192
70299580.0 -0.2946678642 0.0602433386 0.4104387501 -0.0371364265 0.4104298463 -0.0367839613 -0.2850816784 0.0639876704
75299550.0 -0.29302273 0.0628606105 0.411262404 -0.0421988331 0.4111922218 -0.0424139163 -0.2835164271 0.0661358406
80299520.0 -0.2916163632 0.0649232322 0.4124959883 -0.0475116685 0.4122404308 -0.047449008 -0.2817897915 0.0681905412
85299490.0 -0.2902931535 0.0668079271 0.4128680281 -0.0525019587 0.4126977329 -0.0525941055 -0.2804421205 0.0702267753
90299460.0 -0.2886324904 0.0694439117 0.4127198783 -0.0581269558 0.41319488 -0.0580694183 -0.2781783285 0.071773125
95299430.0 -0.2875878062 0.0716664373 0.4135629572 -0.0630529514 0.413524355 -0.0632846374 -0.2767696695 0.0742365418
100299400.0 -0.2862967912 0.0742095932 0.413064578 -0.0681382697 0.4132280871 -0.0684068698 -0.2752980843 0.0758870196
105299370.0 -0.2852356505 0.0763672651 0.4131718287 -0.0738991554 0.4132603948 -0.0737471695 -0.2737222405 0.0779001244
110299340.0 -0.2839240307 0.0786330376 0.4133266597 -0.0785096289 0.4130308132 -0.0786941713 -0.2728516168 0.0800246128
115299310.0 -0.282954823 0.0808432561 0.4129099656 -0.083891716 0.4128183468 -0.083951266 -0.2717541367 0.0823808127
120299280.0 -0.2819854152 0.0833650914 0.4122252254 -0.0892786911 0.4122918094 -0.0892237831 -0.2705036105 0.084433715
125299250.0 -0.2810914173 0.0856510194 0.4116783356 -0.0941171422 0.4117258375 -0.094078188 -0.2696863293 0.0861611881
130299220.0 -0.2801987807 0.0882229484 0.4109521888 -0.0994542013 0.4109338388 -0.0992506184 -0.2683714743 0.0885892169
135299190.0 -0.2790060264 0.0907913825 0.4103218802 -0.1043901257 0.4100158636 -0.1042504607 -0.2667924144 0.0908328285
140299160.0 -0.2783888343 0.0933938132 0.4094990066 -0.1094602411 0.4094929137 -0.1093492023 -0.2658274853 0.0933411157
145299130.0 -0.2774195081 0.0957506596 0.4087884042 -0.1144683125 0.4086777054 -0.1142522187 -0.264986899 0.0958147019
150299100.0 -0.276363099 0.0983045055 0.4074416164 -0.118818875 0.4074773343 -0.1188738095 -0.2638044736 0.098259278
155299070.0 -0.2754868925 0.1008815257 0.4068777715 -0.1244839062 0.4063159605 -0.1241335889 -0.2624164363 0.1004195047
160299040.0 -0.2744580103 0.1036992569 0.4051568424 -0.1289010227 0.4048847111 -0.1289090771 -0.2620390232 0.1029952575
165299010.0 -0.2736921471 0.1057023226 0.4040810492 -0.1335403392 0.4040194641 -0.1340383287 -0.2607706542 0.1056012859
170298980.0 -0.2728643485 0.1088142557 0.4025793378 -0.1387689104 0.4030119125 -0.1384433607 -0.2599113675 0.1081792673
175298950.0 -0.2718337017 0.1112588096 0.4014333993 -0.1433254642 0.401038707 -0.1432439498 -0.259096294 0.1104565249
180298920.0 -0.270845693 0.1141075167 0.3998036187 -0.1479013171 0.3996964879 -0.1478332605 -0.2575601938 0.1133521366
185298890.0 -0.2692887658 0.1164307988 0.3980718163 -0.1528155488 0.3981063876 -0.1523052134 -0.2566327873 0.1160612104
190298860.0 -0.2686787151 0.1191810187 0.3971662857 -0.1573883217 0.3968841981 -0.1573314605 -0.2558150056 0.1182611612
195298830.0 -0.2680215273 0.1219531007 0.3952186118 -0.1619814274 0.3948913124 -0.1618805696 -0.2547542072 0.1209745114
200298800.0 -0.2665647412 0.1246947251 0.3932415835 -0.1668798001 0.3933583498 -0.1667279698 -0.2540857429 0.1237336427
205298770.0 -0.2651942732 0.1272047206 0.3911438762 -0.171761377 0.3914573915 -0.1712381745 -0.2526783735 0.1258463624
210298740.0 -0.2640398212 0.1299010019 0.3896449645 -0.1756431109 0.3896189156 -0.1754280715 -0.2516870695 0.1290312467
215298710.0 -0.2633228133 0.1328708331 0.3881205978 -0.1802345125 0.3877843319 -0.1804410392 -0.2508110491 0.1311771255
220298680.0 -0.2619588038 0.1354018565 0.3854815103 -0.1847962731 0.385735216 -0.1849716409 -0.2501737955 0.1338972582
225298650.0 -0.2609556682 0.1377732509 0.383627593 -0.1891096107 0.3837908226 -0.1891788449 -0.2490295575 0.1362815769
230298620.0 -0.2595995254 0.1411041354 0.3818576236 -0.1934336351 0.382148252 -0.1937894639 -0.2479434382 0.1387123281
235298590.0 -0.258367475 0.1437655967 0.3795283596 -0.1978891026 0.3795914986 -0.1974642892 -0.246650944 0.1412383234
240298560.0 -0.2570919033 0.1463681815 0.3776601542 -0.2025424144 0.3774843696 -0.2024797874 -0.2453380532 0.1440763966
245298530.0 -0.2561400701 0.1490639626 0.3756803791 -0.2067653385 0.3754715251 -0.2067905011 -0.2443318345 0.1461336587
250298500.0 -0.2539590308 0.151868491 0.3725579745 -0.2110980393 0.3724786693 -0.2103953693 -0.2428972441 0.1485434565
255298470.0 -0.253017724 0.1543285223 0.3704145349 -0.214792654 0.3703208744 -0.2149163339 -0.2413210745 0.1512158496
260298440.0 -0.2517656552 0.1571476052 0.3679763033 -0.2196743011 0.368455037 -0.2192974911 -0.2398530494 0.1534281804
265298410.0 -0.250015793 0.1599661289 0.3654860889 -0.2235888563 0.3660494653 -0.2237210154 -0.2380022973 0.1560160366
270298380.0 -0.2485176215 0.1623505308 0.3633977074 -0.2273937776 0.3636357594 -0.2276817589 -0.2371416812 0.1585495905
275298350.0 -0.246974666 0.1653166691 0.3609033484 -0.2320116886 0.3610240063 -0.2317542322 -0.2350316011 0.1610815738
280298320.0 -0.2452148228 0.1679322584 0.3582673882 -0.2360870227 0.3582184949 -0.2358656434 -0.233428998 0.1632900272
285298290.0 -0.2433705014 0.1708744966 0.3555012282 -0.2399540969 0.3554248107 -0.2401429235 -0.2319551254 0.1657129761
290298260.0 -0.2419307746 0.1734592171 0.3527059244 -0.2434951025 0.352922417 -0.2439905314 -0.2299818009 0.1683997868
295298230.0 -0.2397812414 0.1753741601 0.3503033022 -0.2477447143 0.3501274088 -0.2479138788 -0.2279414794 0.1706009718
300298200.0 -0.2384696071 0.1785423832 0.3481691225 -0.2517249374 0.3478867285 -0.251961558 -0.2263477243 0.1729526571
305298170.0 -0.2364363999 0.1806136635 0.3445872824 -0.2559559721 0.3444797618 -0.2558912255 -0.2243717925 0.1751930556
310298140.0 -0.2348225932 0.1835474635 0.3422713395 -0.2597191944 0.3419632961 -0.2599718566 -0.2228351025 0.177800335
315298110.0 -0.2329061102 0.1856275908 0.3391360597 -0.2637019897 0.3391599371 -0.263421836 -0.2210217726 0.1803889059
320298080.0 -0.2312123152 0.1882339984 0.3359065212 -0.2676237496 0.3362516141 -0.2673594639 -0.2189174199 0.1825475251
325298050.0 -0.2290681035 0.1909686305 0.3330418586 -0.2715984224 0.333257719 -0.2711795122 -0.2171192635 0.1850461844
330298020.0 -0.2275068183 0.1929285934 0.3299903306 -0.2750340476 0.3303161779 -0.2750460316 -0.2155489236 0.1876375781
335297990.0 -0.2254390732 0.1954252306 0.3267452468 -0.2784715547 0.3269798058 -0.2785586853 -0.214271829 0.190325511
340297960.0 -0.2241383264 0.1983668123 0.3235499785 -0.2825685246 0.3232593859 -0.28236807 -0.2117989438 0.1926934871
345297930.0 -0.2222654019 0.2007657409 0.3206200797 -0.2864114612 0.3206159411 -0.2860116192 -0.210182813 0.1949349176
350297900.0 -0.2199855873 0.2031617054 0.3167121506 -0.2895394678 0.3167482458 -0.2893442203 -0.2079538198 0.1980211798
355297870.0 -0.2177353552 0.2061351293 0.3135870527 -0.2932253694 0.3140829178 -0.2929317703 -0.2065260682 0.2002343766
360297840.0 -0.2157541043 0.208369604 0.3109567531 -0.29636213 0.3113235344 -0.2961899558 -0.2046319967 0.2027711485
365297810.0 -0.2141729493 0.2110756106 0.3073524374 -0.299892154 0.3078167939 -0.3000872509 -0.2021125968 0.2051817026
370297780.0 -0.211698356 0.2130951645 0.3039556109 -0.3031038617 0.304384826 -0.303044526 -0.2004633395 0.2075341982
375297750.0 -0.2091284507 0.2154992241 0.3005729581 -0.3062787964 0.3009479262 -0.3066575784 -0.1984053171 0.2098591887
380297720.0 -0.2073038939 0.2180419322 0.2971155728 -0.3098898148 0.2972744142 -0.3092689863 -0.1966846753 0.2118671415
385297690.0 -0.2053598953 0.2206398985 0.2939208992 -0.3131000432 0.2937843823 -0.3125762253 -0.1943703179 0.2144016438
390297660.0 -0.2030999095 0.2228974631 0.2904487161 -0.3163565139 0.2901413984 -0.3161521572 -0.1927129388 0.2166149549
395297630.0 -0.2004633972 0.2252791731 0.2868589443 -0.3194970438 0.287006587 -0.319469511 -0.1899323429 0.2189387312
400297600.0 -0.1985453229 0.2277389299 0.283007289 -0.3227103184 0.2834837367 -0.3225197914 -0.1880679902 0.2209263071
405297570.0 -0.1960471096 0.2297086106 0.27958684 -0.3254009318 0.2796026056 -0.3254444702 -0.1858748432 0.2230476467
410297540.0 -0.1937182295 0.2318683804 0.2762236373 -0.3289195191 0.2762388894 -0.3289902669 -0.183751953 0.2256406047
415297510.0 -0.1912612883 0.2337853897 0.2725050863 -0.3315314671 0.2727263505 -0.3317732208 -0.1814466532 0.2274880199
420297480.0 -0.1891840211 0.2366845372 0.2685610784 -0.3349097434 0.2685479554 -0.3348361618 -0.1793448132 0.2291879717
425297450.0 -0.1863839152 0.2383135418 0.2651402318 -0.3375421041 0.2653151264 -0.3378140573 -0.1771201581 0.231394595
430297420.0 -0.1839698117 0.2406861465 0.2614246553 -0.3403563718 0.261397396 -0.3401643638 -0.1747678832 0.2330222617
435297390.0 -0.1818914851 0.2427946094 0.2573397364 -0.3431579603 0.2571970508 -0.3432725075 -0.1719763363 0.2351365571
440297360.0 -0.1792989503 0.244941052 0.2537913092 -0.3461722216 0.2538141888 -0.3461862922 -0.1700208467 0.2368599852
445297330.0 -0.1764871887 0.2463779927 0.2500761926 -0.3485137422 0.249667348 -0.34853167 -0.1673209872 0.2384389984
450297300.0 -0.173785924 0.2481469124 0.246222184 -0.3513039654 0.2461602156 -0.3515496269 -0.1646485718 0.2401925906
455297270.0 -0.1712062518 0.2502998484 0.2420566369 -0.3539414206 0.2420025013 -0.3540523058 -0.1621748442 0.2418868494
460297240.0 -0.168922325 0.2523123766 0.2381153055 -0.3563526819 0.2381429542 -0.3566014813 -0.1595722666 0.2438972102
465297210.0 -0.1662310447 0.2545763215 0.2342436088 -0.3592471327 0.2342497527 -0.3594244906 -0.1568526203 0.2453798035
470297180.0 -0.1632667461 0.256127059 0.2298434974 -0.3615073865 0.2302357956 -0.3616218432 -0.1541621042 0.247431601
475297150.0 -0.1606426582 0.2578380069 0.2259340634 -0.3640088943 0.2262571578 -0.3637934425 -0.1510823018 0.2491097823
480297120.0 -0.1580728175 0.2600443658 0.2224528537 -0.3669425616 0.2222098386 -0.3667355764 -0.148437771 0.2508211479
485297090.0 -0.1554481167 0.2616229252 0.218222258 -0.3686023166 0.2182876728 -0.3688805648 -0.1457795021 0.2526018468
490297060.0 -0.1528607805 0.2633572532 0.2143112709 -0.371140905 0.2143347593 -0.3710985903 -0.1434208892 0.2547094286
495297030.0 -0.1503271349 0.2652505906 0.2105651194 -0.3732687216 0.2103686315 -0.3734214177 -0.1406791422 0.2561593766
500297000.0 -0.1470598738 0.2668524281 0.2060666377 -0.3754415485 0.2059164652 -0.375425807 -0.137525475 0.2583235211
505296970.0 -0.1443183057 0.2689570234 0.2019091156 -0.3780396529 0.2016316949 -0.3778707483 -0.1349905216 0.2597112501
510296940.0 -0.1415741157 0.2702060324 0.1976656251 -0.3799362404 0.1975811654 -0.3805376244 -0.1320391374 0.2616749177
515296910.0 -0.1384876843 0.271893543 0.1932977375 -0.3821514351 0.1934476908 -0.3822651623 -0.1292044355 0.2630683242
520296880.0 -0.1361211692 0.2735570962 0.189374466 -0.3849555959 0.1894861246 -0.384246679 -0.1266456952 0.2647120234
525296850.0 -0.1328607125 0.2747849207 0.1847921118 -0.3863940907 0.1855086761 -0.3863575282 -0.124131558 0.2663336713
530296820.0 -0.130162779 0.2767605216 0.1808956135 -0.3884619291 0.181061699 -0.3885386657 -0.1212712625 0.2684054456
535296790.0 -0.1275717191 0.2783136352 0.1770260174 -0.3901417665 0.1769500595 -0.3898015965 -0.1186289078 0.2690191094
540296760.0 -0.1246420442 0.2797487247 0.1727469779 -0.3923556918 0.1721700538 -0.3922938657 -0.1157632357 0.2714692642
545296730.0 -0.1213242993 0.2812525883 0.1676076444 -0.3937625321 0.1677866375 -0.3937749094 -0.1132946035 0.2722351384
550296700.0 -0.118400569 0.2829964994 0.16393439 -0.396245349 0.1638606888 -0.3961188677 -0.1106127853 0.2740328594
555296670.0 -0.1155590018 0.2839369565 0.1596431316 -0.3976101214 0.1595283525 -0.3976792708 -0.1078759816 0.2757673227
560296640.0 -0.1127406009 0.2856127288 0.1550915267 -0.399410512 0.1551729893 -0.3992932742 -0.1045891173 0.2768706338
565296610.0 -0.1097477832 0.2869783166 0.1504341719 -0.4006769222 0.1510294644 -0.4009669835 -0.1020598884 0.2775917867
570296580.0 -0.1067297999 0.28825856 0.1464188291 -0.4028485544 0.1458885012 -0.4027522557 -0.0995220356 0.279511258
575296550.0 -0.1038582141 0.2898549922 0.1419262422 -0.4041749162 0.1417211571 -0.4041861354 -0.0962584513 0.2804820115
580296520.0 -0.100293669 0.2906145598 0.1371714941 -0.4055879366 0.1371335566 -0.4054284879 -0.0932241577 0.2811830914
585296490.0 -0.097660894 0.2915245417 0.1331750533 -0.4066264321 0.1331536486 -0.4067613359 -0.0905026333 0.2824435028
590296460.0 -0.0941576248 0.2928967662 0.1285514932 -0.4077407501 0.1288203469 -0.4080768798 -0.0881264914 0.2836954754
595296430.0 -0.0915078753 0.2941159908 0.1238774728 -0.4099082313 0.1237889291 -0.4092925801 -0.0850014185 0.2840622289
600296400.0 -0.0886198653 0.2951502455 0.1194328649 -0.4110497311 0.1196707561 -0.4104020784 -0.0819347232 0.2850526174
605296370.0 -0.085154151 0.2961193316 0.1149196096 -0.4119520656 0.1151450919 -0.4120735795 -0.0789554832 0.2861878113
610296340.0 -0.0821712627 0.2972890824 0.1103006519 -0.4132059925 0.1105446078 -0.4132976401 -0.0758168212 0.2869002077
615296310.0 -0.0785767361 0.2983180025 0.1058248476 -0.4142737637 0.105921293 -0.4148605813 -0.0723809222 0.2876094779
620296280.0 -0.0760461587 0.2989790358 0.1013943176 -0.4153251272 0.1014839231 -0.4153037901 -0.0697188463 0.2884566086
625296250.0 -0.0732087726 0.299764084 0.0976325466 -0.4164458843 0.097278535 -0.4166139792 -0.0664319288 0.2890595553
630296220.0 -0.069169737 0.3007100172 0.0921504869 -0.4176883739 0.0921199549 -0.4172849818 -0.0633377558 0.2902734407
635296190.0 -0.0667196181 0.3017902376 0.0879989731 -0.4182296404 0.0877702148 -0.4185735406 -0.0602660981 0.2909879209
640296160.0 -0.0634822132 0.3022695762 0.0834248761 -0.4192778217 0.0835637789 -0.4193656504 -0.0570128434 0.2916800354
645296130.0 -0.060523497 0.303457384 0.0787608199 -0.419897274 0.0789470978 -0.4201893464 -0.0537921918 0.2923783428
650296100.0 -0.0569477979 0.3041407104 0.0742759543 -0.4204763567 0.0746467092 -0.4209192825 -0.0506699231 0.2927355521
655296070.0 -0.0542683825 0.3045144205 0.0700400628 -0.4216459683 0.069898531 -0.4214914172 -0.0471693635 0.2935743442
660296040.0 -0.0509809989 0.3052801572 0.0653186501 -0.422244013 0.0653701996 -0.4221709176 -0.0441116101 0.2945130331
665296010.0 -0.04745407 0.3057954968 0.0603725261 -0.4228826338 0.0605975271 -0.4230203744 -0.0408148918 0.2953171755
670295980.0 -0.0447739328 0.3067621996 0.0559121688 -0.4235881125 0.0559263499 -0.4232920313 -0.037892603 0.2955763869
675295950.0 -0.0411750486 0.307119773 0.0518284127 -0.4239158445 0.0516892241 -0.4235149508 -0.0354378521 0.2966159035
680295920.0 -0.0378884529 0.3077682346 0.0469753186 -0.4240503705 0.0463343484 -0.4248405508 -0.0314264789 0.2976058538
685295890.0 -0.0347847428 0.3086945554 0.0422209487 -0.4251129233 0.0417521103 -0.4248849339 -0.0282494821 0.2978168524
690295860.0 -0.0313377992 0.3089370578 0.0377832572 -0.4249295576 0.0375284678 -0.425542354 -0.0253682374 0.2987509465
695295830.0 -0.0285355849 0.3090176536 0.0332761065 -0.4251144399 0.0327488237 -0.4256496179 -0.0220086056 0.2989853954
700295800.0 -0.024785318 0.309569053 0.0280920426 -0.4257925448 0.0281494834 -0.4257708152 -0.0193744576 0.2999576245
705295770.0 -0.0218909883 0.3106313656 0.0237434847 -0.4263099332 0.0237850811 -0.4262249728 -0.0161808064 0.3005026297
710295740.0 -0.018055691 0.3107130729 0.0192101828 -0.4268446868 0.0190770761 -0.4266249588 -0.0130693819 0.3004394572
715295710.0 -0.0152696261 0.310632782 0.0145127046 -0.426597819 0.0140290624 -0.4266573712 -0.0097810716 0.3006487877
720295680.0 -0.0121390216 0.3114855059 0.0099821458 -0.4269078052 0.0099305914 -0.4270949779 -0.0063503404 0.3018054632
725295650.0 -0.0083048852 0.3117033204 0.0049967277 -0.4268067777 0.0053423937 -0.4272191914 -0.0038973219 0.3019569768
730295620.0 -0.0052144379 0.31165707 0.0006120056 -0.4263241768 0.0005464248 -0.4270032501 -0.0011737428 0.3017132563
735295590.0 -0.0020984435 0.3121996824 -0.0040799422 -0.4269409271 -0.0041949704 -0.4264992154 0.0019053707 0.3015027402
740295560.0 0.0010458298 0.3124750406 -0.0086373502 -0.4265306635 -0.008684776 -0.4266735622 0.0057994147 0.301902963
745295530.0 0.0041933148 0.3125406993 -0.0131808678 -0.4262940923 -0.0135685276 -0.4266068543 0.0085841293 0.3018454941
750295500.0 0.0076432455 0.3122397508 -0.0178757196 -0.4261749366 -0.0177301077 -0.4263702944 0.0115577903 0.301963044
755295470.0 0.0107968381 0.3122165042 -0.0224049186 -0.4255506671 -0.0225513439 -0.4260127526 0.0147765081 0.3014227731
760295440.0 0.0140072567 0.3122608621 -0.0270350548 -0.4256918398 -0.0273571782 -0.4259043387 0.0182163683 0.3012386952
765295410.0 0.0170269522 0.3122251585 -0.0316236639 -0.425103671 -0.0318372599 -0.4257419974 0.0212140484 0.3014822859
770295380.0 0.020382966 0.3121967561 -0.0365898242 -0.4247800487 -0.0363940403 -0.4246674446 0.0237709446 0.3008710128
775295350.0 0.0236476419 0.3118644539 -0.0411035285 -0.4237669846 -0.0407108336 -0.4244693556 0.0267969503 0.3009930709
780295320.0 0.0269438604 0.3119837704 -0.0454298414 -0.423879309 -0.0451142164 -0.4237460438 0.0300257685 0.3005646194
785295290.0 0.0297825775 0.3112631955 -0.0502881626 -0.4229011958 -0.0497707988 -0.4231552264 0.0337255224 0.3002473089
790295260.0 0.0340167359 0.3117376111 -0.0545587996 -0.4229439907 -0.0538608486 -0.4226048145 0.0369172053 0.3001426126
795295230.0 0.0368442495 0.3110618985 -0.0591411023 -0.4218486814 -0.0593716225 -0.4219605391 0.0402109658 0.2999187495
800295200.0 0.0398689735 0.311303478 -0.0644291148 -0.4213259652 -0.0636997996 -0.4214053226 0.0434832829 0.2994087479
805295170.0 0.0433392411 0.3106357562 -0.0681585655 -0.4204143107 -0.068398015 -0.4210914491 0.0466321961 0.2994360741
810295140.0 0.0463024885 0.3100317307 -0.0726046201 -0.4194524283 -0.0728527193 -0.4198909061 0.0500928902 0.2988153889
815295110.0 0.049661819 0.3094666357 -0.0772560573 -0.4187214583 -0.0771431426 -0.4190208783 0.0531639924 0.2985786868
820295080.0 0.052430653 0.3095085871 -0.0815622214 -0.4176325552 -0.081828351 -0.4176998847 0.0567125275 0.297804406
825295050.0 0.0562725722 0.3088198981 -0.0858309087 -0.4169877184 -0.086159027 -0.4167752809 0.0594345549 0.2975190516
830295020.0 0.059325502 0.3086234127 -0.0906644175 -0.4158450048 -0.0908204079 -0.4159171773 0.0638929565 0.2970739947
