!Created with skrf (http://scikit-rf.org).
# Hz S RI R 50.0 
!freq ReS11 ImS11 ReS21 ImS21 ReS12 ImS12 ReS22 ImS22
300000.0 -0.100221937 -0.0649927788 0.6300400135 0.0626177565 0.6233769205 0.0638861818 -0.0990982525 -0.0758840298
5299970.0 -0.1021404852 0.0133757388 0.6303059519 0.0096863211 0.6306567527 0.0100707369 -0.1007035979 0.0131333365
10299940.0 -0.0972849286 0.0292917504 0.6342361636 0.0149701938 0.6339530582 0.0155643284 -0.0958564458 0.0305934455
15299910.0 -0.0901658338 0.0424937794 0.6404850383 0.020563243 0.6405121974 0.0205724947 -0.0884856485 0.0435328778
20299880.0 -0.081780871 0.0530546022 0.6486340119 0.0245447156 0.6483539241 0.0238233041 -0.0798729608 0.0546491217
25299850.0 -0.0722073299 0.0622158994 0.6576918956 0.025367231 0.6579366523 0.0253098338 -0.0697721997 0.0633849972
30299820.0 -0.0623270586 0.0688522462 0.6669287973 0.0240857557 0.6674487817 0.0245888843 -0.0596170133 0.0702433416
35299790.0 -0.0525884248 0.0736239091 0.6771007147 0.0210383618 0.6771717403 0.0211198821 -0.0498851143 0.0748554966
40299760.0 -0.0432370562 0.0772362731 0.6859665619 0.0168637225 0.6864356726 0.0174202033 -0.0402525201 0.0775339652
45299730.0 -0.0340152804 0.0793918924 0.6950456566 0.0121257725 0.695230155 0.0118431191 -0.0311724011 0.079512384
50299700.0 -0.0257484436 0.0800554541 0.703494225 0.0049295559 0.7032972713 0.0052120635 -0.0225615616 0.0805577611
55299670.0 -0.0174751771 0.0805507417 0.7110174651 -0.0035191829 0.7107643957 -0.0031756189 -0.0147296739 0.0807797401
60299640.0 -0.0098978624 0.0800150929 0.7174960018 -0.0114294429 0.7180385338 -0.0111364919 -0.0077927669 0.0794515116
65299610.0 -0.003554202 0.0787507792 0.7230877131 -0.0203335934 0.7232471205 -0.0199327038 -0.0012746847 0.07859742
70299580.0 0.0026371882 0.0775300794 0.7286566825 -0.0296756922 0.7285456685 -0.029545992 0.0047079496 0.0768288821
75299550.0 0.0080330701 0.0757787264 0.7327181987 -0.0389520782 0.732716555 -0.0391393799 0.0099941283 0.0749634058
80299520.0 0.0130381824 0.0735481563 0.737116431 -0.0493626754 0.7373365609 -0.049043302 0.0150593724 0.0725754383
85299490.0 0.0175001662 0.0715480778 0.7401270698 -0.0583843601 0.741088581 -0.0582004386 0.0190944913 0.0698531376
90299460.0 0.0216499435 0.0688658364 0.7427703175 -0.0691087056 0.7438186514 -0.0688494517 0.0234386849 0.0680919521
95299430.0 0.0260328355 0.0665411602 0.7456679989 -0.0790586021 0.7459276978 -0.0796003986 0.027368501 0.0655877758
100299400.0 0.0289409148 0.0646023912 0.7466091611 -0.0891981141 0.7469328042 -0.0893051137 0.0308969789 0.0624328123
105299370.0 0.0322091439 0.0621368596 0.748386007 -0.0996848669 0.7491949327 -0.0992888239 0.0339799915 0.0605771014
110299340.0 0.0349943126 0.0597332198 0.7500735428 -0.1090254177 0.7495521 -0.1092068676 0.0361988399 0.0578128535
115299310.0 0.0374802678 0.0572262074 0.7506305571 -0.1196260717 0.7511072426 -0.1194431883 0.0391301525 0.0553850121
120299280.0 0.0400778235 0.0546901615 0.7507486692 -0.1299465008 0.7512789597 -0.1298075205 0.0410217033 0.0531429048
125299250.0 0.0418526054 0.0521865774 0.7513228124 -0.1393486829 0.7515564406 -0.1391806438 0.0424067681 0.0501670832
130299220.0 0.0435801438 0.0501740635 0.7511929128 -0.1494540131 0.7514869533 -0.1491135316 0.044686699 0.0481600576
135299190.0 0.0454483927 0.0482976718 0.7513328429 -0.1594817585 0.7507625876 -0.1588403005 0.046586357 0.0460927329
140299160.0 0.0465909889 0.0461194236 0.7504394499 -0.1687444897 0.7511560419 -0.1690294397 0.0479700717 0.0442599096
145299130.0 0.0480477777 0.0437455964 0.7500682651 -0.1787080168 0.749986992 -0.1782902684 0.0495348939 0.0418547172
150299100.0 0.0496948222 0.0421175504 0.7484935461 -0.1877084187 0.7485955553 -0.1878260765 0.0507006007 0.040119259
155299070.0 0.0503897699 0.0396114828 0.7478800329 -0.1984414149 0.7471691909 -0.1983121006 0.0517542882 0.0382645974
160299040.0 0.0517633594 0.0382805846 0.7460355261 -0.2068999406 0.7458944321 -0.2077589783 0.0521799445 0.0362279095
165299010.0 0.0524076546 0.0361188648 0.744275672 -0.2168762726 0.7446937821 -0.2173894794 0.0538405611 0.0345538705
170298980.0 0.0534622662 0.0339340386 0.7428551698 -0.2263205179 0.7428649035 -0.2266319955 0.0543160142 0.0329759617
175298950.0 0.053709696 0.0322549726 0.7412376313 -0.2354501648 0.7408762794 -0.2354468954 0.0548275115 0.0314528625
180298920.0 0.0541978842 0.0305347087 0.7388984065 -0.2449887574 0.7388960443 -0.2447012211 0.0554018903 0.029898108
185298890.0 0.0555708658 0.0288352129 0.7366403775 -0.2539591393 0.7358934823 -0.2541236974 0.0556989969 0.0282369196
190298860.0 0.0553159472 0.0273153491 0.7342023686 -0.2630052434 0.7347205671 -0.2635896593 0.0563904286 0.0262725072
195298830.0 0.055971464 0.0250381878 0.7318902596 -0.2721421172 0.7321318198 -0.2716778616 0.057310567 0.0248988206
200298800.0 0.056360976 0.0240063472 0.7286411646 -0.281554151 0.7288066543 -0.2815561408 0.0567262089 0.0236441204
205298770.0 0.0568538485 0.0226055378 0.7256506145 -0.2908303321 0.7261709295 -0.2895328856 0.0572954956 0.0214770448
210298740.0 0.057300476 0.0208738623 0.7229610248 -0.2980004726 0.7230043489 -0.2982894802 0.0580400487 0.0211845863
215298710.0 0.056783223 0.0196849441 0.7203275558 -0.3073693561 0.7198934597 -0.3077989139 0.0577785817 0.0198033755
220298680.0 0.0577329514 0.0176818437 0.7164728591 -0.3162026408 0.7168829008 -0.3160252573 0.057599563 0.0180830918
225298650.0 0.0579073033 0.0166053369 0.713472036 -0.3253318944 0.7135228356 -0.3247255391 0.057463616 0.0164249989
230298620.0 0.0578826963 0.0157268285 0.7105016689 -0.3330423398 0.7104179306 -0.3331875152 0.0572889054 0.0150485481
235298590.0 0.0578793422 0.0144140139 0.7066532198 -0.3416647446 0.7071526676 -0.341573222 0.0576756611 0.0139173064
240298560.0 0.0580301312 0.0134310185 0.7036546604 -0.3504015008 0.7031369971 -0.350090505 0.0576128877 0.0130658932
245298530.0 0.0578402474 0.0119826045 0.7003741119 -0.3581279542 0.6997614923 -0.3588696675 0.0582547242 0.0111224426
250298500.0 0.0584466084 0.011026777 0.695296055 -0.3667835692 0.6949784095 -0.3659273412 0.0579667618 0.0105690822
255298470.0 0.0583931337 0.0092018684 0.6907935277 -0.3743908233 0.6916903367 -0.3747115747 0.0583675605 0.009121994
260298440.0 0.0579515325 0.0078776798 0.6873107072 -0.3830017431 0.6872994902 -0.3823102287 0.0586034411 0.0079486746
265298410.0 0.0587738751 0.0075907582 0.6832906728 -0.390882887 0.6837412506 -0.3908120375 0.0580138184 0.0068266808
270298380.0 0.0585432814 0.0061099464 0.6793713508 -0.3983749439 0.6795086196 -0.3991183907 0.0577493212 0.0057295921
275298350.0 0.0588309031 0.004987825 0.6755482988 -0.4071049036 0.6751259014 -0.406904392 0.0582322382 0.0044630838
280298320.0 0.0586996013 0.004392274 0.6714662234 -0.4147667278 0.6708723495 -0.4144554441 0.0585978889 0.0034644044
285298290.0 0.0585624058 0.0029192492 0.6666185995 -0.4225065641 0.6662813476 -0.4228525721 0.0583261727 0.0020550841
290298260.0 0.0590244068 0.0020283742 0.6617601548 -0.4297141856 0.6620209955 -0.4299855727 0.0583180219 0.0015299244
295298230.0 0.058774257 0.0007848847 0.6574353909 -0.4374791618 0.6574073619 -0.4376191019 0.0592004277 0.0004406497
300298200.0 0.0583638558 -0.000484786 0.6528235062 -0.4452199728 0.6531596674 -0.445819861 0.0586369123 -0.0006543063
305298170.0 0.058777979 -0.00146472 0.6473896335 -0.4539170023 0.6477152848 -0.453223277 0.0592532199 -0.0019632335
310298140.0 0.0582634365 -0.0024173192 0.6423774951 -0.4613388713 0.6430538314 -0.4610763769 0.0591534683 -0.0031606459
315298110.0 0.0582626688 -0.004335422 0.6375871066 -0.468219208 0.6377683429 -0.4685711819 0.0586499205 -0.0044398681
320298080.0 0.0586689991 -0.004954911 0.6319667259 -0.476485519 0.6324602878 -0.4762606332 0.0584242372 -0.0053425216
325298050.0 0.0577207213 -0.006407455 0.6269359355 -0.4838244392 0.6272641157 -0.4835834411 0.0579724331 -0.0066077504
330298020.0 0.0573980497 -0.0075183699 0.6210202607 -0.4912571286 0.6211621049 -0.4911547893 0.0574979401 -0.0076347683
335297990.0 0.0570346132 -0.0087106557 0.616225085 -0.4975991294 0.6152566162 -0.4986022145 0.0565359328 -0.0079067941
340297960.0 0.0561202062 -0.0094160763 0.6098401027 -0.5053028035 0.6091363532 -0.5052361307 0.0570025275 -0.0088245742
345297930.0 0.0557601629 -0.0094950133 0.6038709917 -0.5122080629 0.6040016842 -0.5120605973 0.0561467105 -0.0097584961
350297900.0 0.0551579489 -0.0111429152 0.5972438375 -0.5188509163 0.5975923006 -0.5189492666 0.0552907085 -0.0099450907
355297870.0 0.0547759279 -0.0107162847 0.5921881672 -0.5246430959 0.5925119767 -0.5254909209 0.0553268284 -0.010956977
360297840.0 0.0544306924 -0.0114665848 0.5875669939 -0.5317054297 0.586905428 -0.5315023218 0.0547490746 -0.011413985
365297810.0 0.0539380006 -0.0121726234 0.5806204927 -0.5386274009 0.5811430248 -0.5387234637 0.0548382649 -0.0118252215
370297780.0 0.054086828 -0.013275066 0.5745759179 -0.5447794553 0.5744985772 -0.5443072355 0.0540563991 -0.0124337378
375297750.0 0.0536128033 -0.0138509305 0.5684608884 -0.551338446 0.5690959015 -0.5516233955 0.0540381023 -0.0130181793
380297720.0 0.0536527524 -0.014450444 0.5628130086 -0.5576164064 0.5623138251 -0.5566695817 0.0533064869 -0.0139074553
385297690.0 0.052714766 -0.0151193098 0.5559822137 -0.5636867135 0.555927086 -0.5637622205 0.053299938 -0.0140694323
390297660.0 0.0524737872 -0.0156638809 0.5501268801 -0.5702751131 0.5496557074 -0.5699481023 0.0523956867 -0.0151139814
395297630.0 0.0519226597 -0.0162352489 0.5438744621 -0.5763418392 0.544131236 -0.576081648 0.0529619035 -0.0156005656
400297600.0 0.0517206694 -0.0170775669 0.5369446227 -0.5827574586 0.5372824909 -0.5826032362 0.0522082072 -0.0162952325
405297570.0 0.0510808937 -0.0174677413 0.5307382125 -0.5882650002 0.5310641882 -0.587721354 0.0514750471 -0.0169357414
410297540.0 0.0513103976 -0.0184475166 0.5247557727 -0.5944717131 0.5245821799 -0.5944060536 0.05114368 -0.0172861353
415297510.0 0.0511620743 -0.0187615047 0.5175187742 -0.5997494244 0.5181021644 -0.6001106913 0.0508191809 -0.0175793351
420297480.0 0.0508000994 -0.0191412581 0.5107482462 -0.6056832186 0.5114312339 -0.6058995028 0.050169221 -0.0189607555
425297450.0 0.0501541585 -0.0204674097 0.5052072976 -0.6117632186 0.5045296969 -0.6113989795 0.04965832 -0.0189554564
430297420.0 0.049772231 -0.0210019667 0.4977508322 -0.6166576904 0.4980828933 -0.6165437622 0.0494419156 -0.0201950336
435297390.0 0.0492857477 -0.0214994673 0.4908133897 -0.6226648695 0.490714048 -0.6223350967 0.0499295258 -0.0202862837
440297360.0 0.049507098 -0.0218171611 0.4842631171 -0.6276565068 0.4840582618 -0.6277879412 0.0487472218 -0.0217022691
445297330.0 0.048752971 -0.0230339273 0.4774179247 -0.6329272458 0.4775630419 -0.6326658548 0.0490216481 -0.0222438886
450297300.0 0.0488649707 -0.0230716342 0.4708189991 -0.6383309095 0.4700727431 -0.638700691 0.0483257527 -0.0229018777
455297270.0 0.0481157511 -0.02390779 0.4630381832 -0.6438464263 0.463760223 -0.6441069597 0.0481438521 -0.0235484773
460297240.0 0.0477215933 -0.0243392729 0.455729947 -0.6485053729 0.4562253146 -0.6486858207 0.0476482706 -0.0237177723
465297210.0 0.0476896497 -0.0249659593 0.4488565662 -0.6540160927 0.4491730608 -0.6541843454 0.0475902791 -0.0245547577
470297180.0 0.0471198151 -0.0259604876 0.4412605288 -0.6589009251 0.4418104365 -0.659074756 0.0468569725 -0.0251065504
475297150.0 0.0464862472 -0.0265626545 0.4344215044 -0.6628222847 0.4346447208 -0.6631784785 0.0472541997 -0.0259175316
480297120.0 0.0462586967 -0.0262873653 0.4270770259 -0.6683742698 0.4268198114 -0.66877786 0.0467423947 -0.0259577864
485297090.0 0.0453498384 -0.0271704185 0.4196862345 -0.6730329419 0.4198893742 -0.6728413387 0.0462701424 -0.0268218306
490297060.0 0.0445902449 -0.0280223383 0.4131522487 -0.6784663844 0.4127417274 -0.6772700343 0.0458753055 -0.0268020878
495297030.0 0.0445186576 -0.0282645052 0.4048717232 -0.6820641926 0.4050821602 -0.6823400111 0.0450081599 -0.0278311871
500297000.0 0.043994925 -0.0289071727 0.3974428974 -0.6866007342 0.3966365558 -0.6863228974 0.0446799845 -0.0272092866
505296970.0 0.0437187667 -0.0293924091 0.3896943134 -0.6902953567 0.3896577699 -0.6907839168 0.0444560429 -0.0281060521
510296940.0 0.0430211594 -0.0296006669 0.3819790875 -0.6955014262 0.3820051856 -0.6953889871 0.0443829354 -0.0283062981
515296910.0 0.042459339 -0.0299426638 0.3742869474 -0.6993674471 0.3746631176 -0.6991144237 0.0440900139 -0.0287034165
520296880.0 0.0422669673 -0.0305799627 0.3667937007 -0.7040891252 0.3669704937 -0.703626078 0.0433868868 -0.02966306
525296850.0 0.041731531 -0.0314214711 0.3592482135 -0.7074710094 0.3588950508 -0.7075651494 0.0426222211 -0.0298430294
530296820.0 0.0412959924 -0.0315329928 0.3516358233 -0.7119178483 0.3513242045 -0.711581499 0.0424771801 -0.0299779282
535296790.0 0.0403007922 -0.0317629707 0.3439768324 -0.7149879641 0.3440683614 -0.71484291 0.0416439256 -0.0311930829
540296760.0 0.0400334003 -0.0319627196 0.3359513284 -0.7196154019 0.3356238365 -0.7190890384 0.0407410692 -0.030339522
545296730.0 0.0396345602 -0.033028884 0.3268549252 -0.7225564449 0.3275729393 -0.7224184687 0.0403558939 -0.0314269326
550296700.0 0.0397632334 -0.0326540297 0.3194939824 -0.7261384138 0.3196648459 -0.7266391467 0.0396672052 -0.0315572788
555296670.0 0.0385560421 -0.0331113741 0.3120685164 -0.7299587658 0.3123438919 -0.7295260616 0.0392621785 -0.0316796725
560296640.0 0.0386289585 -0.0334330938 0.303704084 -0.7331028502 0.3037392017 -0.7333460191 0.0388453808 -0.0322778473
565296610.0 0.0373694899 -0.0339811344 0.2954210115 -0.7360095123 0.2958055069 -0.7366237922 0.0377401756 -0.0331962467
570296580.0 0.0369744975 -0.0341435441 0.2875704182 -0.73983848 0.2869591965 -0.7396433475 0.0375826033 -0.0326694169
575296550.0 0.0362281013 -0.0345042023 0.2797593124 -0.7428284126 0.2792518099 -0.7427832008 0.0372573521 -0.0336294945
580296520.0 0.0359275543 -0.0346980684 0.2712229743 -0.7462587003 0.2716472274 -0.7456343767 0.0365296189 -0.0338331517
585296490.0 0.0353520662 -0.0358546715 0.2636241118 -0.748026465 0.2635377575 -0.748745744 0.0361112769 -0.0339649786
590296460.0 0.0351806699 -0.0356898165 0.2553479149 -0.7503973779 0.2546385546 -0.7516003275 0.0345195401 -0.0344986183
595296430.0 0.0348381048 -0.0357132903 0.2462402346 -0.7543711658 0.2463732825 -0.754016851 0.03498003 -0.0353138989
600296400.0 0.0336545885 -0.0365813048 0.2387104214 -0.7565052875 0.2386619587 -0.7568562281 0.0342047789 -0.0353148686
605296370.0 0.0335144156 -0.0366337546 0.2302262086 -0.7591571115 0.2303027902 -0.7594122373 0.033717275 -0.0357440439
610296340.0 0.0328823244 -0.0369694458 0.2217334225 -0.7615157287 0.2220601657 -0.7616062987 0.0337036081 -0.0363414654
615296310.0 0.0326541122 -0.0378096421 0.2132379231 -0.764113619 0.2132983715 -0.76459087 0.0329390025 -0.0362884733
620296280.0 0.0322417327 -0.038179259 0.2056758689 -0.7663942126 0.2049481367 -0.7658709339 0.0319889155 -0.0366583677
625296250.0 0.0309035558 -0.0386496262 0.1972121077 -0.7693066142 0.1967693288 -0.7693346331 0.0323362436 -0.0369385234
630296220.0 0.03153014 -0.0383710065 0.1883760573 -0.7704507038 0.1880997246 -0.7705103515 0.0312767103 -0.0370596335
635296190.0 0.0296776999 -0.0394224655 0.1803684024 -0.7728525687 0.1798947085 -0.7727701458 0.0312868968 -0.0373736434
640296160.0 0.0292878781 -0.0389303071 0.1714860983 -0.774442566 0.17208862 -0.7747593377 0.0301775681 -0.0379867903
645296130.0 0.0290955507 -0.0391393538 0.1626879879 -0.7757750208 0.1631594056 -0.7763860347 0.029650394 -0.03799373
650296100.0 0.0283912273 -0.039695916 0.1547760824 -0.7782578729 0.1547781884 -0.7783609674 0.0299574968 -0.0390927404
655296070.0 0.0271109075 -0.0402471389 0.1457085322 -0.7796540608 0.1462613004 -0.7799063848 0.0290688404 -0.0385732933
660296040.0 0.0265298442 -0.0407795821 0.1374907813 -0.7814454209 0.1380967571 -0.7816602678 0.0287682972 -0.0388581807
665296010.0 0.0265340548 -0.0403525884 0.1286938108 -0.7825189661 0.1294531765 -0.7827116416 0.028305378 -0.0383240597
670295980.0 0.024752206 -0.0407940357 0.1198722878 -0.7843426367 0.12069032 -0.7839518901 0.0273542805 -0.039192411
675295950.0 0.0250169583 -0.040453123 0.1120525481 -0.7851122389 0.1120084574 -0.7848986692 0.0262692508 -0.0394389388
680295920.0 0.023817218 -0.0412019614 0.1031335593 -0.7864108069 0.1027067654 -0.7869113428 0.026072955 -0.0386765443
685295890.0 0.0236458712 -0.0404694204 0.0948438017 -0.7872650373 0.0945227191 -0.7874274539 0.0255347127 -0.0391494414
690295860.0 0.0234184396 -0.0409727299 0.0861837381 -0.7878581102 0.0857979573 -0.7885503087 0.0247710097 -0.0386084698
695295830.0 0.0225826051 -0.0412456438 0.0783026574 -0.7891185999 0.0772656892 -0.7895062094 0.0242624747 -0.0389524999
700295800.0 0.0222751079 -0.0421302049 0.0683235624 -0.7901519572 0.0683304894 -0.7895934712 0.0232824511 -0.0386631923
705295770.0 0.0212612694 -0.0409826884 0.0602083853 -0.7907317252 0.0606688885 -0.7910745108 0.0228848629 -0.0389285596
710295740.0 0.0212455036 -0.0413368006 0.0521603592 -0.7924461131 0.0525679893 -0.7924132631 0.0225895295 -0.0396870864
715295710.0 0.0197000299 -0.0417075988 0.0437690942 -0.7923956401 0.0427467297 -0.7920306101 0.0218874211 -0.0395279254
720295680.0 0.0196787963 -0.0416548325 0.0347888207 -0.7929316023 0.0348176904 -0.7924379005 0.021484635 -0.0390530847
725295650.0 0.0192657847 -0.0419835641 0.0259128317 -0.7924862767 0.0255528521 -0.7929431357 0.0201555207 -0.0391464191
730295620.0 0.018575596 -0.0414941967 0.0169740412 -0.7926627829 0.0172639699 -0.7930759001 0.019372804 -0.0397727528
735295590.0 0.0177685881 -0.0416192467 0.008750049 -0.793647735 0.0086443254 -0.7929327968 0.0189268724 -0.0400515882
740295560.0 0.0170141327 -0.0418113447 0.000114132 -0.7931658988 0.0002524066 -0.7929063008 0.018699454 -0.0396266222
745295530.0 0.0166142265 -0.0417454376 -0.0087353092 -0.7923579018 -0.0089431846 -0.7928585276 0.0181093471 -0.040210052
750295500.0 0.0161492338 -0.0419829047 -0.0170747217 -0.7924196564 -0.0174595921 -0.7930582357 0.0174012652 -0.0400138762
755295470.0 0.0154086346 -0.042152507 -0.0256863394 -0.7924271884 -0.0253988445 -0.7928496599 0.0173036672 -0.0405095689
760295440.0 0.0144634303 -0.0417309147 -0.0340706007 -0.7925733237 -0.0348164276 -0.7926343062 0.0162718025 -0.0403143292
765295410.0 0.0138857776 -0.0418974819 -0.0434357122 -0.7917800154 -0.0438421693 -0.7916001181 0.0159873995 -0.0401042519
770295380.0 0.0131563777 -0.0422023232 -0.0519478829 -0.790955668 -0.0519071976 -0.7911177091 0.0151318944 -0.0409555644
775295350.0 0.0125730821 -0.0428601208 -0.0606574632 -0.7902436217 -0.0598319127 -0.7904211433 0.0134841267 -0.0400938595
780295320.0 0.0123581229 -0.0424855274 -0.0688809581 -0.7898148316 -0.0683474323 -0.7901518583 0.013263152 -0.0411904594
785295290.0 0.0113661939 -0.0428732202 -0.0777502503 -0.7889581524 -0.0775380039 -0.7891114825 0.01345309 -0.0405701397
790295260.0 0.0114117841 -0.0418323697 -0.0852996464 -0.78792871 -0.0851129469 -0.7880833167 0.0125341058 -0.0409810352
795295230.0 0.0101450294 -0.0426640743 -0.0944585152 -0.787156834 -0.0938898477 -0.7870920445 0.0124912881 -0.0403615537
800295200.0 0.0091254467 -0.0419646989 -0.1039539334 -0.7856932144 -0.1031544278 -0.7861335119 0.0114507046 -0.0409474519
805295170.0 0.0089391392 -0.042314845 -0.1119456657 -0.7843569996 -0.1119457582 -0.7851226273 0.0109969602 -0.040691732
810295140.0 0.0077834276 -0.0428459808 -0.1197512627 -0.7831679223 -0.1201318733 -0.7840211806 0.0111421461 -0.0402482549
815295110.0 0.0080197009 -0.0430330608 -0.1285488441 -0.7820174921 -0.1285926566 -0.7821917954 0.0096636157 -0.0401667709
820295080.0 0.0065228504 -0.0420151073 -0.1373718202 -0.7799773535 -0.1365480421 -0.7802426029 0.0092601228 -0.0400709065
825295050.0 0.0069979956 -0.0422412254 -0.1453426656 -0.7789546454 -0.1454927827 -0.7792075922 0.009395324 -0.0400906228
830295020.0 0.0058713863 -0.0418891059 -0.1547516685 -0.7765396219 -0.1537490917 -0.7774665364 0.009500951 -0.0398078658
