!Created with skrf (http://scikit-rf.org).
# Hz S RI R 50.0 
!freq ReS11 ImS11 ReS21 ImS21 ReS12 ImS12 ReS22 ImS22
300000.0 -0.0916613461 -0.0993685374 0.6208472116 0.0926101092 0.6187631069 0.0935917582 -0.0933088709 -0.1045756317
5299970.0 -0.1014489854 0.0112304795 0.6305782518 0.0115478733 0.6305616328 0.0112069509 -0.1018740365 0.0113556312
10299940.0 -0.0966675592 0.0290464137 0.6347945224 0.0160597477 0.6343512109 0.0163234914 -0.0963886901 0.0282721261
15299910.0 -0.0891745812 0.0424269307 0.6404345072 0.0214762508 0.6404490851 0.0213267546 -0.0895020094 0.0420577486
20299880.0 -0.0804693081 0.0537487396 0.6490583494 0.0236938852 0.6492600725 0.0242818175 -0.080785924 0.0527604211
25299850.0 -0.070136415 0.0622795537 0.6582794861 0.0259527861 0.6583292716 0.025435691 -0.0717972381 0.061996492
30299820.0 -0.0609299589 0.0686236462 0.6682925855 0.0244638319 0.6679598485 0.0247090147 -0.0617016227 0.0684030137
35299790.0 -0.050434752 0.0735212572 0.6774009282 0.0218707611 0.6776179571 0.0220633509 -0.0522005161 0.0739112423
40299760.0 -0.0412292529 0.0763942326 0.6868954312 0.0176001116 0.6870088031 0.0175583951 -0.042643439 0.0769721522
45299730.0 -0.0318562901 0.0783812161 0.6959295808 0.012455181 0.6963402333 0.0123244991 -0.033053492 0.0789793613
50299700.0 -0.0227468721 0.0792352272 0.7040839465 0.0054003806 0.7039381597 0.0049681316 -0.0245020878 0.0803441547
55299670.0 -0.0151580819 0.0790241868 0.7115451831 -0.0022665086 0.7107685898 -0.0026992313 -0.0169740625 0.0805189569
60299640.0 -0.0075649486 0.0787751037 0.7180887677 -0.0110344028 0.717555262 -0.0111021282 -0.0096302555 0.0794936513
65299610.0 -0.0014397114 0.0770573854 0.7242784055 -0.0198447207 0.7240054097 -0.0196786514 -0.0025226126 0.0785835398
70299580.0 0.0055045258 0.0752138426 0.7293757256 -0.0291297336 0.7295770569 -0.0290372244 0.0030073224 0.0773786683
75299550.0 0.0103024339 0.0732678222 0.7332786197 -0.0393163958 0.7335572128 -0.0390629563 0.0087559162 0.0753405624
80299520.0 0.0155546172 0.0713652891 0.737639605 -0.0484256132 0.7378643509 -0.0486807365 0.0137342485 0.0732257715
85299490.0 0.019889417 0.0692421211 0.7412079858 -0.0584328599 0.7409565571 -0.0583290001 0.0180770422 0.0710561586
90299460.0 0.0239938165 0.0667954441 0.743897446 -0.0685259108 0.7435008292 -0.0679740015 0.02220832 0.0692686715
95299430.0 0.0280234278 0.0640119137 0.7460119101 -0.079030589 0.7461522407 -0.0790670729 0.0259186672 0.0664391695
100299400.0 0.031272573 0.0616524084 0.7474579798 -0.0887645325 0.7477115543 -0.0890172661 0.0290931417 0.0643162852
105299370.0 0.0343972793 0.0592777773 0.7490172445 -0.0988146515 0.7500954437 -0.0988143393 0.0328703117 0.0617880323
110299340.0 0.0373042799 0.0563355314 0.7506187983 -0.1087585007 0.7507192488 -0.1087853978 0.0352829962 0.0592228906
115299310.0 0.039476368 0.0545543491 0.7514861741 -0.1187925389 0.7513693229 -0.1187341643 0.0374063783 0.0574132206
120299280.0 0.0417103433 0.0520296286 0.7522788209 -0.1299197854 0.7517853129 -0.129067999 0.0398233687 0.0545694955
125299250.0 0.0436077594 0.0497019826 0.7520592583 -0.1387533641 0.7524647564 -0.1386828077 0.0421951868 0.0528516749
130299220.0 0.0456821579 0.0468908303 0.7523929205 -0.1490157112 0.7520874312 -0.1493978758 0.0438917726 0.0506345875
135299190.0 0.0469503581 0.0453787585 0.7520519207 -0.15879685 0.751921367 -0.1588924306 0.0454108747 0.0480655997
140299160.0 0.0487555691 0.0432592243 0.7519933112 -0.1688725357 0.7510319331 -0.1683419498 0.046289266 0.0454585931
145299130.0 0.0494335155 0.0409632748 0.7500965054 -0.1780936032 0.7503060915 -0.1781719432 0.0481499015 0.0437224974
150299100.0 0.0509246848 0.0391045157 0.7495221654 -0.1881172574 0.7490430437 -0.1879172309 0.048987441 0.0418576969
155299070.0 0.0525578696 0.0370766916 0.7476693219 -0.197682076 0.7484589686 -0.1976412358 0.0506523975 0.0396764998
160299040.0 0.0533056616 0.0355451729 0.7466691956 -0.2069624586 0.746327891 -0.2071125229 0.0509534464 0.0380203141
165299010.0 0.054419125 0.0335319145 0.7455451762 -0.2163781665 0.7448386457 -0.2166553529 0.0524134918 0.0357381632
170298980.0 0.055239051 0.0318853063 0.7427334181 -0.2257767804 0.7433658028 -0.2263417544 0.052795776 0.0340300894
175298950.0 0.0560318974 0.0302507602 0.7423147329 -0.2352602775 0.7416794136 -0.2357762103 0.0534566585 0.0324066667
180298920.0 0.0561930443 0.0286414368 0.740094664 -0.2444615999 0.739451792 -0.2447095038 0.0540916226 0.0308206327
185298890.0 0.0568142739 0.0271540589 0.7376308164 -0.2536942098 0.7371831291 -0.2530601574 0.0551737232 0.0291059682
190298860.0 0.057917437 0.025910595 0.7344873145 -0.2631324664 0.7348434708 -0.262410665 0.055240708 0.0274790271
195298830.0 0.0579246738 0.0241182187 0.7330120213 -0.2716488187 0.7327977489 -0.2718349761 0.0556311585 0.0259139235
200298800.0 0.0583453539 0.0226001266 0.7301147165 -0.2817329667 0.7299464799 -0.2810404322 0.0564472231 0.0240284128
205298770.0 0.0583216029 0.0206895115 0.7268410762 -0.2895906354 0.727521686 -0.2890550247 0.0570835384 0.0225712296
210298740.0 0.0590141694 0.0198640491 0.7240434001 -0.2983465594 0.7234968532 -0.2985882511 0.0564902997 0.0208540619
215298710.0 0.0594936514 0.018635571 0.7207010587 -0.306671986 0.7207972979 -0.3070619933 0.0572446239 0.020039782
220298680.0 0.0596711637 0.0175938676 0.7175648425 -0.3154217733 0.7170771491 -0.3158324814 0.05741057 0.0180384968
225298650.0 0.0595941799 0.0159395208 0.7141489089 -0.324073648 0.7144840054 -0.3239880941 0.0576013824 0.0162646352
230298620.0 0.0603071103 0.015167061 0.7113905259 -0.3325563902 0.7115082696 -0.3330339325 0.0573076933 0.0151810095
235298590.0 0.0598820669 0.0138153797 0.7084978049 -0.3419350879 0.7077335928 -0.3411857403 0.0579338261 0.0143578966
240298560.0 0.0603105547 0.0127904651 0.7043964028 -0.3494966615 0.7039928462 -0.3495509502 0.0579990307 0.0124705892
245298530.0 0.0602980514 0.0113311046 0.7005197481 -0.3583400696 0.7003478451 -0.3579305684 0.0579195157 0.0118176774
250298500.0 0.0600751709 0.0103414895 0.6967229838 -0.3661966529 0.6965550676 -0.3662161438 0.0577346133 0.0105083326
255298470.0 0.0604237524 0.0096271783 0.6932455534 -0.3740879168 0.6932510308 -0.3741725184 0.0581230935 0.0098668522
260298440.0 0.060734576 0.0082176396 0.6889046429 -0.3815001595 0.6889369428 -0.3821398248 0.0575858695 0.0075769487
265298410.0 0.060061507 0.0074156049 0.6846884447 -0.39101569 0.6843523007 -0.3908655254 0.0589112528 0.0065530126
270298380.0 0.0600004715 0.0061647266 0.6807427166 -0.3983180236 0.6806842731 -0.3982052981 0.0580582894 0.0059112481
275298350.0 0.0602920066 0.0056728635 0.6755936204 -0.405475332 0.6755526106 -0.4060833627 0.0578002906 0.0047776218
280298320.0 0.0599203989 0.0045157131 0.6720078206 -0.4136914043 0.6723391953 -0.4138995154 0.0582986235 0.0039560066
285298290.0 0.059790234 0.003470254 0.6671122916 -0.4217973507 0.6676067471 -0.4215278784 0.0579606304 0.0026866417
290298260.0 0.0599364804 0.0026988849 0.6633734019 -0.4293385258 0.662815666 -0.4297811645 0.0579733402 0.0015985142
295298230.0 0.0600511031 0.0011702721 0.6584947726 -0.4376736458 0.6584893838 -0.4381254694 0.0579066354 0.0005091813
300298200.0 0.0600720646 0.0010930118 0.6538401258 -0.4451708698 0.6537927988 -0.4450852426 0.0576404259 -0.0005117161
305298170.0 0.0601079063 -0.0007043301 0.6486686881 -0.4532170674 0.6492944677 -0.4530144086 0.0578577423 -0.0021730706
310298140.0 0.0602395347 -0.0017110415 0.6445288251 -0.4602110701 0.6446807284 -0.4601600546 0.0577846451 -0.0036568783
315298110.0 0.0597011849 -0.003186212 0.6394998792 -0.4687349177 0.6388242193 -0.4686071018 0.0578423843 -0.0043522224
320298080.0 0.0594174581 -0.0039761682 0.6328321291 -0.4760819116 0.6344617592 -0.4758664282 0.0572261272 -0.0055975869
325298050.0 0.0583966462 -0.0053576281 0.62821106 -0.482935176 0.628879556 -0.4830360978 0.057051477 -0.0068175163
330298020.0 0.0575152383 -0.0059977473 0.6224559558 -0.4909020515 0.6232819619 -0.4910171004 0.0560157389 -0.0078013967
335297990.0 0.0578803104 -0.0066378875 0.6174129601 -0.4976439688 0.6170586478 -0.4978486138 0.0555968745 -0.0086785833
340297960.0 0.0569587047 -0.0077165458 0.610814782 -0.5049198698 0.6108939257 -0.5048284732 0.0554256182 -0.0093644416
345297930.0 0.0564269863 -0.0084022553 0.6061736496 -0.5118750761 0.6054381479 -0.5117376666 0.0552931347 -0.0102939823
350297900.0 0.0558844212 -0.0089176825 0.6006245158 -0.5177769727 0.6006082514 -0.5183299996 0.0548130694 -0.011252057
355297870.0 0.0555107008 -0.0093497539 0.5943916418 -0.5244775703 0.5942576683 -0.5246027313 0.0545071106 -0.0120196381
360297840.0 0.0553764033 -0.0103980558 0.5881414303 -0.5317992148 0.588472188 -0.5320033658 0.0533951945 -0.0123206957
365297810.0 0.0546211623 -0.0110827349 0.5824708325 -0.5384694605 0.5819669351 -0.5382249249 0.0530155604 -0.013049928
370297780.0 0.0546456832 -0.0116002621 0.5760310595 -0.5441762438 0.5768726454 -0.5441546338 0.0529695913 -0.0142320421
375297750.0 0.0542461257 -0.0121939653 0.5701857842 -0.5506936277 0.5705412613 -0.5510313011 0.0527240053 -0.0146774734
380297720.0 0.0534556155 -0.0125728328 0.5649492731 -0.5577328443 0.5638683229 -0.5575314714 0.0522112731 -0.0151232726
385297690.0 0.0530898321 -0.0136307873 0.5583669425 -0.5637304357 0.5580484361 -0.5645531538 0.0520507263 -0.0157284323
390297660.0 0.0530571623 -0.0144190181 0.5514951451 -0.5692015838 0.5524655923 -0.5698747384 0.0523494584 -0.016690019
395297630.0 0.0531450673 -0.0150134899 0.5460383664 -0.5754062072 0.545719225 -0.5757151562 0.0513468747 -0.0171306034
400297600.0 0.0520222137 -0.0158329028 0.5394343247 -0.5821304496 0.5398562384 -0.5820088726 0.0515641948 -0.0170927508
405297570.0 0.051895474 -0.016822047 0.5331305681 -0.5875934095 0.5330942541 -0.5877836546 0.0508250743 -0.0178142521
410297540.0 0.0512313182 -0.0167280463 0.526416878 -0.5941276114 0.5268131804 -0.5935381372 0.050488481 -0.0188210808
415297510.0 0.0508170289 -0.0175169744 0.5196038918 -0.5994287781 0.5207976568 -0.5997809311 0.050469734 -0.0192134816
420297480.0 0.0506992804 -0.0185214258 0.5134134771 -0.6055076954 0.513577779 -0.6057340945 0.0505381478 -0.0196055752
425297450.0 0.0509581253 -0.0189256494 0.5069273795 -0.6106862982 0.5066085895 -0.6107909539 0.0497642783 -0.0206721303
430297420.0 0.0500408664 -0.0193493098 0.5008423054 -0.6170538461 0.5005974302 -0.6162376883 0.0500311773 -0.0212878889
435297390.0 0.0498960462 -0.0202987529 0.4931557541 -0.6233130452 0.4930231224 -0.6221712456 0.0489179652 -0.021259617
440297360.0 0.0496882615 -0.02113289 0.4859402752 -0.6282564074 0.485873369 -0.6274865256 0.048573284 -0.021948723
445297330.0 0.0493600555 -0.0216928467 0.4797156443 -0.6329525773 0.4795658631 -0.6331381705 0.0484684344 -0.0220982696
450297300.0 0.0488652148 -0.0222908653 0.4725084808 -0.6385883084 0.4728530207 -0.6376348475 0.0480128838 -0.0228527616
455297270.0 0.0481034644 -0.0226724785 0.4657362426 -0.64335856 0.4662242981 -0.6434671185 0.0476522122 -0.0234651627
460297240.0 0.0481959101 -0.0232782882 0.4585766522 -0.649236088 0.4583291918 -0.6488999451 0.0473931002 -0.0241467786
465297210.0 0.0477896301 -0.0243499923 0.451292196 -0.6545718015 0.450936596 -0.6542882713 0.0473191138 -0.0239208219
470297180.0 0.0473215206 -0.0247648884 0.4440473493 -0.6584976177 0.4446091863 -0.6587442977 0.0470894865 -0.0251475939
475297150.0 0.0464296722 -0.0249319588 0.4367179713 -0.6635396378 0.4371067356 -0.6638799453 0.0467598781 -0.0257521843
480297120.0 0.0467664531 -0.0249531098 0.4297481834 -0.6683137912 0.4295222147 -0.6682312848 0.04606751 -0.0262721448
485297090.0 0.0462825456 -0.0267566555 0.4220776233 -0.6731026987 0.4218685062 -0.6731053404 0.0455432374 -0.0264021206
490297060.0 0.0462066737 -0.0262467848 0.4141373569 -0.6779873988 0.4145533341 -0.6779933111 0.0451489982 -0.0271795709
495297030.0 0.045004524 -0.0277891848 0.4077187459 -0.6826827258 0.4073018641 -0.6826746365 0.0454413671 -0.0277517509
500297000.0 0.0445318905 -0.0276099195 0.4000812386 -0.686647128 0.4000299848 -0.6867547633 0.0447254955 -0.027847856
505296970.0 0.0449788838 -0.0283268606 0.3925939597 -0.6912344924 0.3923916035 -0.6907808412 0.0443574588 -0.0290083205
510296940.0 0.0441014106 -0.0291097486 0.3850444852 -0.6961031797 0.3853502555 -0.69628536 0.0441161645 -0.0288696912
515296910.0 0.0436649008 -0.0290650848 0.3768095317 -0.6997754263 0.3764183214 -0.6997967317 0.0434783668 -0.0303273125
520296880.0 0.0435734081 -0.0294272824 0.3695554274 -0.7035850713 0.3690971405 -0.7034234204 0.0437404848 -0.0298731299
525296850.0 0.0431952785 -0.030381068 0.3615961045 -0.7075211973 0.3615611271 -0.708137527 0.0435282099 -0.0304385933
530296820.0 0.0424349849 -0.0311028004 0.3533334613 -0.7123043612 0.3542728489 -0.7118660714 0.0430041942 -0.0314835384
535296790.0 0.0428128807 -0.0311246018 0.3458612669 -0.7152824689 0.3465949992 -0.7157513052 0.0432445135 -0.0313650097
540296760.0 0.0419331538 -0.0314671853 0.3381452378 -0.719931506 0.3382358947 -0.719794915 0.0421029869 -0.0323657716
545296730.0 0.0408510421 -0.0318903897 0.3302209481 -0.7232798023 0.3300435754 -0.7223989657 0.0418315132 -0.0326256706
550296700.0 0.0414239557 -0.0323146776 0.3226183999 -0.7267381721 0.3220444252 -0.7271099419 0.0415741897 -0.0332932598
555296670.0 0.0408531976 -0.0326858231 0.3144655416 -0.7303988914 0.3146654411 -0.7305486829 0.0409865786 -0.0340409467
560296640.0 0.0411375542 -0.0331595846 0.3059676638 -0.7336305938 0.3067064886 -0.7336365852 0.0404693246 -0.0337129634
565296610.0 0.0398077356 -0.0334544313 0.2988579299 -0.7368486475 0.2988892683 -0.7362176541 0.0404071993 -0.0342341403
570296580.0 0.0393970691 -0.0336145343 0.2900510915 -0.7399565276 0.2904830843 -0.7406714961 0.0393609246 -0.0352605367
575296550.0 0.0389105585 -0.0342704884 0.2828103729 -0.7432345934 0.2820796941 -0.7430198099 0.0390996007 -0.0352904957
580296520.0 0.0385277957 -0.034184761 0.2736977444 -0.7468842368 0.273965742 -0.7467509844 0.038180813 -0.0354734402
585296490.0 0.0382299819 -0.0345914233 0.2662613904 -0.7495434191 0.2658883292 -0.7492129756 0.0385472878 -0.0358733829
590296460.0 0.0383101536 -0.0348368587 0.2573539336 -0.7520388766 0.257470558 -0.7524612601 0.0372651136 -0.0362285509
595296430.0 0.0379626584 -0.0352846558 0.2488829908 -0.7551648277 0.2491786212 -0.7548435732 0.0374802353 -0.0371085053
600296400.0 0.0375822395 -0.0354161162 0.2406534476 -0.758003804 0.2409328375 -0.7578186886 0.0369343551 -0.0371501515
605296370.0 0.0361130122 -0.0359666164 0.2330029896 -0.7602802113 0.232470479 -0.7602594788 0.0363417583 -0.0372789806
610296340.0 0.0362715987 -0.0356804509 0.2242778489 -0.7621318364 0.2247849134 -0.7623398531 0.0355536247 -0.0377942042
615296310.0 0.0360662306 -0.0364422466 0.2164482521 -0.765827165 0.2158093682 -0.7654161562 0.0355320359 -0.0378891941
620296280.0 0.0351461787 -0.0361255693 0.2072257925 -0.7675441861 0.2073152526 -0.7675502275 0.0344553396 -0.0381786122
625296250.0 0.0346143237 -0.0367090279 0.1990271668 -0.7700301994 0.1992307839 -0.7702721687 0.0332642502 -0.0388093121
630296220.0 0.0341515023 -0.0368042295 0.1905925559 -0.771995214 0.1903290142 -0.7714748227 0.0336862044 -0.0388928628
635296190.0 0.0334640738 -0.0368156017 0.1824002755 -0.7741869725 0.182777582 -0.7736165523 0.0329607384 -0.0393362753
640296160.0 0.0331044618 -0.0371564074 0.1735575195 -0.7758680934 0.1739659331 -0.7759343547 0.0319806868 -0.0398753378
645296130.0 0.0328634103 -0.0368292659 0.1649693219 -0.7779097951 0.1654919483 -0.7774788093 0.0315631805 -0.0403553914
650296100.0 0.0321351819 -0.0375461666 0.1570383337 -0.7799573337 0.1566812838 -0.7796002296 0.0320293538 -0.0403636585
655296070.0 0.031576458 -0.0373780255 0.1478305394 -0.7810920176 0.1482927829 -0.7809202933 0.0303465045 -0.0402683208
660296040.0 0.0309664506 -0.0374756036 0.1398336886 -0.7828540306 0.1397173376 -0.7832143565 0.0298454975 -0.0417267506
665296010.0 0.0310737849 -0.0376314288 0.1304476784 -0.7837179472 0.1310410934 -0.7836085657 0.0294890828 -0.0410968753
670295980.0 0.0302468117 -0.0376467419 0.1225324355 -0.7853266699 0.1224380911 -0.7849639109 0.028319597 -0.0416928919
675295950.0 0.0292317403 -0.0379577313 0.1134823335 -0.7868246575 0.1143975446 -0.7868355315 0.027886435 -0.0415645241
680295920.0 0.0288467201 -0.0380450362 0.1055000095 -0.7879172088 0.1056949358 -0.7878506737 0.027733364 -0.0421488721
685295890.0 0.0286023115 -0.037864702 0.0968177056 -0.7891954753 0.0972811143 -0.7891159611 0.0271549954 -0.0416551878
690295860.0 0.0277017073 -0.0379515754 0.0879583626 -0.7900566411 0.0880199731 -0.7901928964 0.0262321151 -0.042406446
695295830.0 0.0273050227 -0.0384627922 0.0799815418 -0.7910049654 0.0799378624 -0.7910354406 0.0256011905 -0.042403699
700295800.0 0.0266577316 -0.0379945782 0.0717776812 -0.7919650305 0.0712405799 -0.7917230568 0.0248107186 -0.0421057098
705295770.0 0.0258538247 -0.0383480843 0.0624476351 -0.7932952153 0.0628842173 -0.7921605121 0.0243691861 -0.0422637219
710295740.0 0.0254626134 -0.0386100975 0.0537178803 -0.793309191 0.0537236275 -0.7930469441 0.0241785696 -0.042375041
715295710.0 0.0247239325 -0.0378496271 0.0456883074 -0.7940963553 0.045092206 -0.7940898303 0.0230753401 -0.0428537097
720295680.0 0.0247944399 -0.0384046186 0.0366196112 -0.7940742021 0.0365414701 -0.7942880963 0.0224188674 -0.0431601311
725295650.0 0.0229918072 -0.0380959281 0.0279556925 -0.7945155692 0.0284064597 -0.7942534367 0.0213728974 -0.0422723606
730295620.0 0.022110806 -0.0384313599 0.0188205253 -0.7941546993 0.0195890078 -0.7937901658 0.0207722895 -0.0423386631
735295590.0 0.0225948017 -0.0385383814 0.0105274507 -0.7950377754 0.0109514746 -0.7948985923 0.0201502192 -0.043179354
740295560.0 0.0217895557 -0.0390863837 0.0020296938 -0.7956184288 0.0026806976 -0.7950309396 0.0191650125 -0.0426700663
745295530.0 0.0209309363 -0.0382931208 -0.0064769925 -0.794030393 -0.0056375571 -0.7944072214 0.0179831694 -0.0432121712
750295500.0 0.0201070412 -0.0382956768 -0.0148992006 -0.7946046675 -0.015452029 -0.7942603923 0.0179352716 -0.0429509354
755295470.0 0.0193305497 -0.0382018354 -0.02337439 -0.7949167838 -0.02311692 -0.7947579529 0.0176006953 -0.0424206243
760295440.0 0.0187758701 -0.0376405076 -0.0331223266 -0.7938354223 -0.0320259271 -0.7934452085 0.0169163609 -0.0436946539
765295410.0 0.0188977503 -0.0383893587 -0.0408166344 -0.7937504197 -0.0403104953 -0.793605365 0.016250702 -0.0429254506
770295380.0 0.0178535151 -0.0377708057 -0.0490761304 -0.7928322987 -0.049076492 -0.7935285323 0.0151071 -0.0430527001
775295350.0 0.0170901027 -0.0384133733 -0.0581298178 -0.7928271381 -0.0578146976 -0.7920049461 0.0150865291 -0.0425962718
780295320.0 0.0165192486 -0.0378884333 -0.0666093494 -0.7912207254 -0.0663929341 -0.7915759914 0.0144154322 -0.0430894944
785295290.0 0.0157404616 -0.0381281289 -0.0749404851 -0.7914806641 -0.0750334841 -0.7909590678 0.012840512 -0.042187237
790295260.0 0.0154791251 -0.0384890867 -0.0831870742 -0.79046144 -0.0833694013 -0.7904384519 0.0124720466 -0.0418755212
795295230.0 0.0147677402 -0.0381999492 -0.0916723366 -0.7898814495 -0.0921900781 -0.7892804005 0.0122120379 -0.0430593607
800295200.0 0.0133864543 -0.0378026992 -0.1000616424 -0.7877512547 -0.10049001 -0.7882012794 0.0111175982 -0.0424110048
805295170.0 0.0128503876 -0.0379203956 -0.1094265686 -0.7874832158 -0.1082755228 -0.7871043123 0.0114564834 -0.0420772101
810295140.0 0.0128920072 -0.0378521647 -0.1178507263 -0.7859851364 -0.1178004844 -0.7856154298 0.0102866392 -0.0423206505
815295110.0 0.0120284977 -0.0375351726 -0.1260172274 -0.784251375 -0.1255203599 -0.7846384974 0.0095172705 -0.0423540722
820295080.0 0.0115238339 -0.0376140701 -0.1338584934 -0.7825570041 -0.1341317427 -0.7826538977 0.0081104603 -0.0411335312
825295050.0 0.0105072106 -0.0378530661 -0.143184372 -0.7812065175 -0.1429939917 -0.7810162254 0.0087235006 -0.0410357503
830295020.0 0.009895294 -0.0377698587 -0.1515797553 -0.7798961578 -0.1515936574 -0.7802175914 0.0073332653 -0.0417737148
