!Created with skrf (http://scikit-rf.org).
# Hz S RI R 50.0 
!freq ReS11 ImS11 ReS21 ImS21 ReS12 ImS12 ReS22 ImS22
300000.0 -0.3183711207 -0.1209244015 0.3721133576 0.0616584399 0.3723592844 0.0636749474 -0.3151929159 -0.1267962864
5299970.0 -0.3250880271 0.0029888901 0.3786144423 0.0031861363 0.3789549999 0.0032550896 -0.3257768282 0.0021502528
10299940.0 -0.3223753531 0.0143152364 0.3798586297 0.0028149268 0.3801135775 0.003105966 -0.3235383668 0.0125933948
15299910.0 -0.3188762633 0.0223789023 0.3820186921 0.0025617802 0.3824200156 0.0027379938 -0.3208940527 0.0197648415
20299880.0 -0.3156493322 0.0289645679 0.3851907911 0.0017183198 0.3853922419 0.0019302537 -0.3180990562 0.0258398151
25299850.0 -0.3116109834 0.0348084398 0.3885774662 0.0007097031 0.38894772 0.0002212649 -0.3149690884 0.0312950698
30299820.0 -0.3083242249 0.0394960409 0.3919073943 -0.0020693329 0.3920744969 -0.0021669596 -0.3120302736 0.0358735819
35299790.0 -0.3045777903 0.0434845811 0.3948762422 -0.0052405711 0.3954597682 -0.0052959608 -0.3094938272 0.0401564814
40299760.0 -0.3016460733 0.0469893396 0.3986342609 -0.0084972977 0.3985198844 -0.0085743589 -0.3065101435 0.0434473918
45299730.0 -0.2981511652 0.0497795634 0.4012531728 -0.0122909092 0.4016143641 -0.0125849712 -0.3038378133 0.0464349771
50299700.0 -0.2951339541 0.0528628623 0.4040370589 -0.0169858439 0.4040802174 -0.0171409022 -0.3013227266 0.0496234943
55299670.0 -0.2925926693 0.0551668966 0.4058398279 -0.0215224634 0.4061511861 -0.0219542091 -0.2996987903 0.0524952011
60299640.0 -0.2897664025 0.0577539346 0.4079165527 -0.026715635 0.408290362 -0.0269103958 -0.2972451445 0.0549159851
65299610.0 -0.2876617533 0.0598609213 0.4101893652 -0.0315355662 0.4095888111 -0.0318357709 -0.295370772 0.0575414882
70299580.0 -0.2854740978 0.061995049 0.4107858929 -0.0365259855 0.411071056 -0.0367415408 -0.2938341685 0.0598534806
75299550.0 -0.2835262805 0.0642479928 0.4116639372 -0.0419222644 0.4119127788 -0.042153876 -0.2920136983 0.0621011973
80299520.0 -0.2817420653 0.066607326 0.412804958 -0.0473105588 0.4130412954 -0.0474506304 -0.2906240326 0.0649445562
85299490.0 -0.2798989125 0.0682696187 0.4135655354 -0.0525734991 0.4138470499 -0.0523669186 -0.2894189475 0.0668581013
90299460.0 -0.278385563 0.0705162146 0.4137836759 -0.0578438381 0.4136689865 -0.0577600898 -0.2879434782 0.0693979686
95299430.0 -0.2770740598 0.0724932457 0.4141838095 -0.0628425091 0.4144748237 -0.0631233792 -0.2868272727 0.0718113652
100299400.0 -0.2751631547 0.0747395739 0.4140763303 -0.0679903828 0.414209957 -0.0684749219 -0.2854756094 0.0746812012
105299370.0 -0.273805851 0.0770030796 0.413601954 -0.0733740208 0.4143982219 -0.0733639129 -0.2839160166 0.0763303529
110299340.0 -0.2728179658 0.0785994301 0.4137384571 -0.0778641979 0.4143225917 -0.0783208824 -0.2833680516 0.0787272164
115299310.0 -0.2716376559 0.0813710128 0.4135258696 -0.0838418101 0.4135746685 -0.0837328291 -0.2823082911 0.0810827972
120299280.0 -0.2706751085 0.083272678 0.4132069354 -0.0890843494 0.4131910069 -0.0893444456 -0.2811332776 0.0832073043
125299250.0 -0.2695829501 0.0850826505 0.4124305212 -0.0938721924 0.4127674126 -0.0939181396 -0.2803991813 0.0860022371
130299220.0 -0.2683834883 0.0873472459 0.4120273515 -0.0986048786 0.4119592578 -0.0993937095 -0.2792549329 0.0882762612
135299190.0 -0.267433545 0.0899533419 0.4114540969 -0.1037149601 0.4114045134 -0.1043384 -0.278253589 0.0908105341
140299160.0 -0.2663600847 0.0921132212 0.4108773631 -0.1092519378 0.4107714253 -0.1088838101 -0.2780129651 0.0933136897
145299130.0 -0.2656456531 0.094708732 0.4095706868 -0.1138528434 0.4098251636 -0.1138556111 -0.2767551585 0.0957834336
150299100.0 -0.2643140928 0.096738881 0.4086011838 -0.1186781859 0.408716789 -0.1189880805 -0.2759854174 0.0984952511
155299070.0 -0.2632237809 0.0994247949 0.4070760338 -0.1237928189 0.4072487021 -0.1238921801 -0.2746121987 0.1008892294
160299040.0 -0.2622903215 0.1022143108 0.4060633775 -0.1289705118 0.4063742187 -0.1291444404 -0.2741863078 0.1034332655
165299010.0 -0.2612619909 0.1043267563 0.405072401 -0.1332349399 0.4049704016 -0.1336386844 -0.2728695456 0.1060335722
170298980.0 -0.2603327301 0.106796315 0.4033320401 -0.1384024703 0.4033945779 -0.1386130744 -0.2721036753 0.1088072305
175298950.0 -0.2593184808 0.1092017744 0.4025034492 -0.1426730325 0.4024203819 -0.1433316511 -0.2707869389 0.1114545828
180298920.0 -0.2581809231 0.1117268422 0.4006966451 -0.1478930364 0.4009258352 -0.1481750966 -0.2699408984 0.1139874807
185298890.0 -0.2572060498 0.1142436408 0.3993279054 -0.1526384657 0.3995366242 -0.1527644882 -0.2692491862 0.1165329252
190298860.0 -0.255725194 0.1172364886 0.3973590774 -0.15720038 0.3978613934 -0.1574575758 -0.2678852633 0.1192809468
195298830.0 -0.2546944742 0.1197372022 0.3960607707 -0.1616679062 0.3964439315 -0.1618406054 -0.2672885304 0.1218251955
200298800.0 -0.2535252264 0.1221172902 0.3942002744 -0.1666395833 0.3943976879 -0.1667862031 -0.2660604867 0.1244439516
205298770.0 -0.2527486629 0.1247997489 0.3922449533 -0.1710788103 0.3924696322 -0.1707108564 -0.2647983161 0.1271968952
210298740.0 -0.2515342616 0.1275475945 0.3909225496 -0.1755653146 0.3905755308 -0.1756523251 -0.2639347678 0.1298922508
215298710.0 -0.2503689629 0.1300563121 0.3885240889 -0.1799357615 0.3886342151 -0.1802997949 -0.2624960565 0.1326261934
220298680.0 -0.2491191781 0.1325570643 0.3864569928 -0.1847838516 0.3865249385 -0.1847995301 -0.2612942349 0.1352057001
225298650.0 -0.2478764649 0.135415089 0.3845284002 -0.1887800723 0.3846429635 -0.1887870396 -0.259941678 0.1377244268
230298620.0 -0.24644259 0.1381259649 0.3824883262 -0.193487649 0.3833382064 -0.1933793 -0.2589928851 0.1406117212
235298590.0 -0.2455635949 0.1406765676 0.3806940654 -0.198082513 0.3808066255 -0.1979091397 -0.2572080691 0.1435404972
240298560.0 -0.2439603208 0.1430031926 0.3783154389 -0.2020019021 0.3786174907 -0.2023402336 -0.2562403138 0.1457582602
245298530.0 -0.242946968 0.1458965649 0.3762430758 -0.2065207891 0.3762304933 -0.2068183717 -0.2549227069 0.1487256025
250298500.0 -0.2417145079 0.1484068853 0.3741862597 -0.2108674883 0.3741031873 -0.2106823339 -0.2535121996 0.1514471407
255298470.0 -0.2398558525 0.1511208689 0.3718616411 -0.2146276059 0.3719966622 -0.2153299571 -0.252293505 0.154352696
260298440.0 -0.2389214299 0.1534238877 0.3695085619 -0.2186654566 0.3696212695 -0.2188871315 -0.2509222776 0.1565050292
265298410.0 -0.2375620672 0.1561789189 0.3671973644 -0.2233563968 0.3668112891 -0.2237327299 -0.2489474509 0.1593524483
270298380.0 -0.2357610646 0.1587733053 0.364500375 -0.2271239587 0.3644530049 -0.2275038564 -0.2471311742 0.1619085962
275298350.0 -0.2345126047 0.1615780141 0.3614995516 -0.2315302988 0.3618671238 -0.2319488649 -0.2460205185 0.1650571572
280298320.0 -0.2330089449 0.1639032117 0.3592392033 -0.2352086977 0.3595320623 -0.2359861604 -0.2443456576 0.1674705581
285298290.0 -0.2313870093 0.1668621472 0.3565587696 -0.2395924649 0.3568655102 -0.2398358401 -0.2431046672 0.170480517
290298260.0 -0.2298360004 0.1694069969 0.3545158568 -0.2436953132 0.3543725455 -0.243798713 -0.2410050939 0.1729074534
295298230.0 -0.2285370854 0.1714249157 0.3517324418 -0.2478123718 0.3518952622 -0.2477309261 -0.2393932017 0.1751737428
300298200.0 -0.226908314 0.1743651445 0.349219059 -0.2518549386 0.3490682762 -0.2517473978 -0.2377745675 0.1781689912
305298170.0 -0.2252565104 0.1766580146 0.3464667159 -0.255575304 0.3464734548 -0.2558149564 -0.2357577491 0.1805273522
310298140.0 -0.2232005326 0.1787856018 0.3431615967 -0.259443526 0.3437428142 -0.2594734407 -0.2342010616 0.1831022596
315298110.0 -0.2219676421 0.1813436376 0.3406422318 -0.2638856556 0.3404091546 -0.263919953 -0.2320810076 0.1856370043
320298080.0 -0.2200441789 0.1840362326 0.3372069903 -0.26751768 0.3377889222 -0.2676176499 -0.2305965694 0.1880537056
325298050.0 -0.2185936784 0.1858060902 0.3344096018 -0.2710693069 0.3350714641 -0.2714294564 -0.2284901773 0.1901607403
330298020.0 -0.2170841194 0.188685322 0.3313988901 -0.2752874574 0.3320802927 -0.2754336378 -0.2272274377 0.1930794351
335297990.0 -0.2153882814 0.1911167172 0.3283025845 -0.278512847 0.328754745 -0.2785959396 -0.2252951642 0.1952512565
340297960.0 -0.2137934496 0.1931937809 0.3248159392 -0.2827701553 0.3251031686 -0.2824803293 -0.223153014 0.1979190925
345297930.0 -0.2118627684 0.1957817789 0.3218161591 -0.2860183504 0.3221743509 -0.2859224017 -0.2213156774 0.2002482154
350297900.0 -0.2103049174 0.1979967283 0.3190751961 -0.2890364859 0.3191306567 -0.2893901468 -0.2196659757 0.2028484132
355297870.0 -0.208330145 0.200340859 0.3152948829 -0.2925118816 0.3153343078 -0.292955993 -0.2169787781 0.2056707217
360297840.0 -0.2061061911 0.202804436 0.3119583844 -0.2963837083 0.3125203866 -0.2967550289 -0.215177854 0.2079514862
365297810.0 -0.2045715106 0.2054441733 0.3090476417 -0.2998425513 0.3089365741 -0.2997428672 -0.213367426 0.2101557199
370297780.0 -0.2024855497 0.2071510478 0.3051957132 -0.3031228951 0.3057621893 -0.3029491332 -0.2112111296 0.2125925056
375297750.0 -0.2005455652 0.2097272639 0.3021110781 -0.3062046575 0.3022509235 -0.3064263287 -0.208900272 0.2151265322
380297720.0 -0.1989086721 0.212431161 0.2993602178 -0.3098357534 0.2987219699 -0.3096567275 -0.2066690746 0.2173004258
385297690.0 -0.1965045754 0.2139498476 0.2954931377 -0.3129070432 0.2955404683 -0.3134896519 -0.204687092 0.2199654598
390297660.0 -0.1940816251 0.2161489766 0.2917303364 -0.3160991912 0.2918574013 -0.316134788 -0.2021353695 0.2218602664
395297630.0 -0.1921190327 0.218510235 0.288627798 -0.3189504996 0.2884851667 -0.3193608356 -0.1999959087 0.2243457747
400297600.0 -0.1902843854 0.2207487825 0.2853471036 -0.322491675 0.285396067 -0.3225965531 -0.1979131176 0.2265369792
405297570.0 -0.188081454 0.2222863353 0.2815301591 -0.3250969233 0.2816106897 -0.3255068358 -0.1951626299 0.2288217755
410297540.0 -0.1854631966 0.2246741816 0.2779064775 -0.3287204595 0.2779616312 -0.3284707388 -0.1928821955 0.2312042751
415297510.0 -0.1835116027 0.2269236042 0.2740080888 -0.3318292621 0.2746811868 -0.3320216536 -0.1903131185 0.2331864729
420297480.0 -0.1811732358 0.2287013331 0.2704343222 -0.3347200251 0.2707211532 -0.335132014 -0.1877094049 0.236025369
425297450.0 -0.1783934477 0.2307190968 0.2667291183 -0.3375735548 0.2669822167 -0.3374204186 -0.1859177984 0.2374997119
430297420.0 -0.1765715194 0.2328542984 0.2633794614 -0.3407386019 0.2635919805 -0.340415733 -0.1827201962 0.239909244
435297390.0 -0.1740527144 0.2344115896 0.258997641 -0.3438375642 0.2595179358 -0.3435653812 -0.1809725519 0.2421791734
440297360.0 -0.1713621674 0.2364819812 0.2552018079 -0.346293254 0.2555681468 -0.3461297104 -0.1781807317 0.2442722041
445297330.0 -0.1690894783 0.2381970967 0.2518015695 -0.3487238357 0.2517146202 -0.3491654989 -0.175345327 0.2464229798
450297300.0 -0.1666527988 0.240288409 0.2476328779 -0.3516341694 0.2481879823 -0.3514447117 -0.1729486925 0.2481626317
455297270.0 -0.1645485531 0.2421902967 0.2440767018 -0.3542654545 0.2443978968 -0.3545089061 -0.1702515933 0.2503225847
460297240.0 -0.1615967923 0.2441108063 0.240452395 -0.3572180215 0.2402189402 -0.357224016 -0.1676094111 0.2518128437
465297210.0 -0.159264925 0.2459887669 0.236227755 -0.3599309687 0.2355985348 -0.3600916866 -0.1644525397 0.2545784057
470297180.0 -0.1565019037 0.2478405553 0.2318871369 -0.3620045895 0.2324913467 -0.3622483259 -0.1623231316 0.2558613573
475297150.0 -0.1539936533 0.2493545486 0.2281953336 -0.3645891291 0.2284691657 -0.3647464867 -0.1595844894 0.2580084481
480297120.0 -0.1509850833 0.2514528893 0.2239477587 -0.3674641922 0.2244073235 -0.3671205273 -0.1572395497 0.259751883
485297090.0 -0.148330609 0.2528828876 0.2200772474 -0.3697853611 0.2200151556 -0.3694449349 -0.154225498 0.2614638606
490297060.0 -0.1453434542 0.2548375684 0.2156120342 -0.3719914568 0.2160414149 -0.3718471094 -0.1512853157 0.2630881708
495297030.0 -0.142848545 0.2560587178 0.212002538 -0.3741707512 0.2118341886 -0.3743702138 -0.1484115679 0.2648955552
500297000.0 -0.1404219955 0.2579707302 0.2078032592 -0.3762571229 0.2076353567 -0.3766369488 -0.1460331524 0.2667515598
505296970.0 -0.1372186809 0.2594820179 0.2037364865 -0.3790363296 0.2035287992 -0.3784196742 -0.1428402366 0.2681634253
510296940.0 -0.1345457859 0.261016405 0.1998825513 -0.3813639556 0.1998383722 -0.3813394038 -0.1398906923 0.2702367566
515296910.0 -0.1319648168 0.2625538819 0.1951477859 -0.3830301229 0.1952666099 -0.38314395 -0.1372306534 0.2714723846
520296880.0 -0.1288075416 0.2643410893 0.1912536651 -0.3851909281 0.1911296906 -0.3853064481 -0.1338563614 0.2735564767
525296850.0 -0.1262651509 0.2656693772 0.1864388595 -0.3873007973 0.1865289967 -0.3870571225 -0.1314949741 0.2746203778
530296820.0 -0.1235325289 0.2670445661 0.1822092519 -0.388949998 0.1825738259 -0.3889062656 -0.1282447545 0.2760123081
535296790.0 -0.1198850233 0.2684789728 0.1781743929 -0.3910105106 0.1781100908 -0.3910091458 -0.1251667266 0.2778381802
540296760.0 -0.1171920409 0.2702148804 0.1740788718 -0.3930406398 0.1736653291 -0.392991752 -0.1223344531 0.2791683961
545296730.0 -0.1146111048 0.2718094979 0.1698400017 -0.394718122 0.1694764359 -0.3945189734 -0.1195565803 0.2806092038
550296700.0 -0.1112247629 0.2729372468 0.1653320613 -0.396666153 0.1648884278 -0.3965744004 -0.1166525047 0.2820272398
555296670.0 -0.10850673 0.2742941427 0.1612143486 -0.3986400188 0.1605684073 -0.3983564847 -0.113481873 0.2830276763
560296640.0 -0.1051609889 0.2754812351 0.156215485 -0.4000552296 0.1564818879 -0.400029359 -0.1107550783 0.2848905122
565296610.0 -0.1027192923 0.2767392921 0.1524692828 -0.4018238586 0.1522217866 -0.4014406417 -0.1075258484 0.286004755
570296580.0 -0.0994369148 0.278290042 0.1473934996 -0.4033354716 0.147586022 -0.4033593784 -0.1046153889 0.2872076746
575296550.0 -0.0961430648 0.2792838525 0.1434087784 -0.4047991802 0.1430743177 -0.404890249 -0.1011723807 0.288377223
580296520.0 -0.0930469453 0.2808171714 0.1389727833 -0.4060470194 0.138882583 -0.4064279114 -0.0990920167 0.2892944158
585296490.0 -0.0900875199 0.2821010142 0.1346984002 -0.4077688572 0.1338317682 -0.4076076213 -0.0951318332 0.2910665442
590296460.0 -0.0866192783 0.2832575538 0.1297406461 -0.4091043586 0.1296057976 -0.4091521486 -0.0924394445 0.2918287157
595296430.0 -0.0838477853 0.2841153399 0.1251528822 -0.4104751915 0.1252910103 -0.4104815289 -0.0893324409 0.29296365
600296400.0 -0.0811167842 0.2854215526 0.1207508957 -0.4118990243 0.1207649216 -0.4116458457 -0.0860157834 0.2937436899
605296370.0 -0.0777476358 0.2867137446 0.1164208834 -0.4129585041 0.1162728812 -0.4133012117 -0.0829399908 0.2954343144
610296340.0 -0.0743508029 0.287569572 0.1120424318 -0.4136885452 0.1121204287 -0.4142146517 -0.0800486416 0.2960559893
615296310.0 -0.0710994016 0.2885072988 0.107140388 -0.4153601388 0.1069858954 -0.4153391751 -0.0764468499 0.2974439743
620296280.0 -0.0684981523 0.2897906008 0.1028295594 -0.4165356726 0.102480455 -0.4164660483 -0.073796841 0.2982800647
625296250.0 -0.0656041165 0.2904847456 0.0983540831 -0.41765389 0.0980868931 -0.4174817781 -0.0704816439 0.2987573063
630296220.0 -0.0623552375 0.29180802 0.0937219161 -0.4189991192 0.0934539029 -0.4186984709 -0.0672504602 0.3000052071
635296190.0 -0.0591560307 0.2926963842 0.0892832682 -0.419344994 0.08905981 -0.4192542527 -0.0642876365 0.3007065331
640296160.0 -0.0559111022 0.293234668 0.0843910801 -0.4204208624 0.0843194444 -0.4205957575 -0.061082145 0.3014801719
645296130.0 -0.0524028167 0.2944181632 0.0800674293 -0.4211310659 0.079890781 -0.4211113587 -0.058264055 0.3021386775
650296100.0 -0.0497745648 0.2950372676 0.0755648263 -0.4219915527 0.0751196448 -0.4221314357 -0.0544610919 0.3028332724
655296070.0 -0.0465293292 0.2959192105 0.0706785872 -0.4228157759 0.0707788054 -0.4226374173 -0.0517496745 0.3039143
660296040.0 -0.0434786349 0.2966903466 0.0664326978 -0.4234726442 0.0662056459 -0.4236439206 -0.0482292168 0.3045074744
665296010.0 -0.0401989466 0.2973497779 0.0612404066 -0.4237433771 0.0612060926 -0.424106851 -0.0453725843 0.3050751691
670295980.0 -0.0373331027 0.2982861324 0.0568153997 -0.424625061 0.0567952775 -0.4247080014 -0.0420488528 0.3054777549
675295950.0 -0.0340573175 0.2984085683 0.0525206826 -0.4246181642 0.052350271 -0.4254204183 -0.0386188312 0.3062713698
680295920.0 -0.0313827598 0.2996906561 0.0479417404 -0.4256427534 0.0478352831 -0.4255735576 -0.0351650458 0.3064572561
685295890.0 -0.0278173363 0.2998484949 0.0429711675 -0.425874315 0.0429014571 -0.4264196572 -0.0323175839 0.3071401586
690295860.0 -0.0250097041 0.300701459 0.038452995 -0.4265070296 0.0382878551 -0.4267332125 -0.0291030913 0.3078402922
695295830.0 -0.0216166732 0.3011728823 0.0342023911 -0.4270901913 0.033743899 -0.426977344 -0.025847126 0.3083930705
700295800.0 -0.0184079595 0.3019021033 0.0298736677 -0.4273120118 0.0294369463 -0.4273696418 -0.0221889711 0.3084597669
705295770.0 -0.0156613021 0.3019828945 0.0250713923 -0.4277700958 0.0246034465 -0.4276299715 -0.0194806654 0.3092903972
710295740.0 -0.0125634004 0.3024314458 0.0203582755 -0.4277070483 0.0199057757 -0.4282368576 -0.0160055477 0.3095054639
715295710.0 -0.0090168117 0.3032823939 0.0154490906 -0.4279779294 0.0155254733 -0.42818867 -0.0127382467 0.3096060037
720295680.0 -0.0055527024 0.3034669288 0.0107915753 -0.4276945452 0.0107844728 -0.4281125839 -0.0094735802 0.3095447856
725295650.0 -0.0030237249 0.303680321 0.0067445302 -0.428064276 0.0062604386 -0.4280676129 -0.0066147064 0.3102350716
730295620.0 -0.0001681093 0.3041653814 0.00161691 -0.4279601569 0.0012022663 -0.4280223462 -0.0032503615 0.311010633
735295590.0 0.0032754069 0.3041820252 -0.0029185493 -0.4279413266 -0.0031687257 -0.4280051834 0.0001177957 0.3102118554
740295560.0 0.005867804 0.304480433 -0.0072634293 -0.427801303 -0.0076713785 -0.4279128735 0.0032716307 0.3110196685
745295530.0 0.00945036 0.3046292855 -0.0121098148 -0.4271003292 -0.0116243896 -0.4277717847 0.0064955345 0.3108967262
750295500.0 0.0119261803 0.3052322856 -0.0163886247 -0.4276241251 -0.0167586281 -0.4277674303 0.0095024628 0.3110381373
755295470.0 0.0153050902 0.3051429511 -0.0209355932 -0.4275749519 -0.0214651779 -0.4274586774 0.0133042469 0.3112800486
760295440.0 0.018425753 0.3054936975 -0.0264091845 -0.4271535296 -0.025701813 -0.4266087608 0.0164162656 0.3106111786
765295410.0 0.0215753094 0.304964306 -0.0306010308 -0.4267738242 -0.030450965 -0.4266848507 0.0198457536 0.3108727631
770295380.0 0.0242770622 0.305366073 -0.0348409177 -0.4260952832 -0.0347358236 -0.4265777813 0.0224599955 0.3106324421
775295350.0 0.0274088191 0.3051369258 -0.03967217 -0.4258838615 -0.0396412765 -0.4257890402 0.0260694803 0.310792766
780295320.0 0.0306523462 0.305117997 -0.0439613865 -0.4252569952 -0.0442877748 -0.4256152951 0.0297159889 0.3110509659
785295290.0 0.03362891 0.3049935674 -0.0485261441 -0.4247609186 -0.0485800681 -0.4253151429 0.0324314905 0.3107591562
790295260.0 0.0367456257 0.3047028462 -0.0532371001 -0.4243510211 -0.0532887785 -0.4245785407 0.0356311109 0.3106943689
795295230.0 0.0398443405 0.3042404406 -0.0580160775 -0.4237098927 -0.0579733382 -0.4241759513 0.0388938736 0.3099687563
800295200.0 0.0424733607 0.3042625978 -0.0618338087 -0.4224353375 -0.0624005055 -0.4230657915 0.041953883 0.3095776052
805295170.0 0.04566573 0.3044879952 -0.066780262 -0.4225483087 -0.0671469409 -0.4227161381 0.0457418625 0.3096526704
810295140.0 0.0490720207 0.3039092269 -0.0713921761 -0.4214137362 -0.0718602569 -0.4216101618 0.0488247074 0.3089905981
815295110.0 0.0516603444 0.3036656873 -0.0757952204 -0.4208821583 -0.0761460507 -0.4208394274 0.0521770345 0.3087976258
820295080.0 0.0551616017 0.3032719335 -0.0802905226 -0.420006147 -0.0802094123 -0.4201531199 0.0548787148 0.308566978
825295050.0 0.0580773802 0.3029193111 -0.0851408604 -0.4192493118 -0.0852652007 -0.4189676956 0.0584468504 0.3081371475
830295020.0 0.0610487108 0.3025085454 -0.0893784267 -0.4179892925 -0.0893125785 -0.4182586945 0.0613228288 0.3072857255
