!Created with skrf (http://scikit-rf.org).
# Hz S RI R 50.0 
!freq ReS11 ImS11 ReS21 ImS21 ReS12 ImS12 ReS22 ImS22
300000.0 -0.2355213415 -0.1204285972 0.4659564824 0.0788189083 0.4653538479 0.0795000965 -0.234856306 -0.1255086981
5299970.0 -0.2448666634 0.0052185008 0.4735093152 0.0058212394 0.4742508292 0.0056691795 -0.2437108095 0.0051308891
10299940.0 -0.2417564921 0.0185105214 0.4761065172 0.0068828942 0.4757476213 0.007127221 -0.2402217573 0.0180150154
15299910.0 -0.2366431423 0.0282308752 0.4790481593 0.0083826876 0.479625525 0.0084406659 -0.2361826762 0.0273358806
20299880.0 -0.2315611234 0.0362940623 0.4844015263 0.008271065 0.4842776891 0.0084667897 -0.2310064121 0.035214995
25299850.0 -0.2253992248 0.042929794 0.4894508205 0.0079039961 0.4897603486 0.007935422 -0.2260615349 0.041862091
30299820.0 -0.2202202342 0.0475756044 0.495068164 0.0053924502 0.4950924263 0.0053811701 -0.2205765778 0.0467964796
35299790.0 -0.2141955121 0.0520793786 0.4998718517 0.0022335261 0.5005810221 0.0024828419 -0.2156121046 0.0516063094
40299760.0 -0.2092651068 0.0546417862 0.5057909755 -0.0015380692 0.5060756633 -0.0014866843 -0.21056281 0.0547048541
45299730.0 -0.2039497918 0.0573666534 0.510226716 -0.0060192371 0.510486161 -0.0065195554 -0.2055124891 0.0576542941
50299700.0 -0.1987828054 0.0591215671 0.514404286 -0.012040335 0.5146034994 -0.0123207364 -0.201047473 0.0601952582
55299670.0 -0.1952664372 0.0603731883 0.518177031 -0.0175542812 0.5178654288 -0.0177114521 -0.1974714776 0.0618786381
60299640.0 -0.1908507271 0.0620140559 0.5218850242 -0.0239945777 0.5215304979 -0.0241390226 -0.1934553903 0.063272773
65299610.0 -0.187151423 0.0625769737 0.5248081309 -0.0302588971 0.5250683358 -0.030657671 -0.1900453998 0.0647514281
70299580.0 -0.183914048 0.0633625888 0.5269955256 -0.0368947522 0.5272949925 -0.0372375861 -0.1871177783 0.0658976121
75299550.0 -0.1809967743 0.0638244376 0.5285860167 -0.044077847 0.5290490702 -0.0438416683 -0.1840199011 0.0670395026
80299520.0 -0.1784249403 0.0646271304 0.5310450767 -0.0510346837 0.5311833809 -0.0509710668 -0.1814773785 0.0682491388
85299490.0 -0.1756804986 0.0649820224 0.5323530273 -0.0576918759 0.5323720677 -0.0576316482 -0.1793332519 0.0689238809
90299460.0 -0.1736183385 0.0656885532 0.5333096226 -0.064868036 0.53307016 -0.0645415132 -0.1766666678 0.0699706354
95299430.0 -0.1712231734 0.0658478847 0.5342498935 -0.0714976056 0.5345386037 -0.0717449318 -0.174987283 0.0707726171
100299400.0 -0.1693748272 0.0660571653 0.5343455994 -0.0781468351 0.5347776572 -0.0786432426 -0.1729692751 0.0716991758
105299370.0 -0.167669708 0.0665030107 0.5349250028 -0.084758528 0.5353044846 -0.0855806469 -0.1708463157 0.0721222404
110299340.0 -0.1658583906 0.0669719085 0.5351186045 -0.0915421114 0.5354701712 -0.0919478013 -0.1697325175 0.0732258451
115299310.0 -0.1646401316 0.0675125231 0.5349067076 -0.0986502735 0.5349953049 -0.0986337479 -0.1681034786 0.074315241
120299280.0 -0.1630165747 0.0680778601 0.5349685689 -0.1062472481 0.5348616316 -0.1062681333 -0.1667170855 0.0747953661
125299250.0 -0.1618682647 0.0687047783 0.5345320848 -0.1124850159 0.5345135926 -0.112299479 -0.165079235 0.0760663512
130299220.0 -0.1609093886 0.0691044702 0.5340537234 -0.1194126874 0.5339847134 -0.1196344465 -0.1640851998 0.0771494972
135299190.0 -0.1598069127 0.0703291218 0.5334570947 -0.1256942766 0.5336460377 -0.1262143312 -0.1629278273 0.0777750186
140299160.0 -0.1584579832 0.0706508882 0.5326653524 -0.1324839158 0.532730373 -0.132326281 -0.1621136288 0.078725655
145299130.0 -0.1580514928 0.0717359844 0.5318312977 -0.1392999892 0.5319122752 -0.1393385247 -0.1607139622 0.0798896697
150299100.0 -0.1564915365 0.0723567313 0.5304214072 -0.1459281076 0.5301807012 -0.145743431 -0.1598564324 0.0813310115
155299070.0 -0.1556567589 0.0732380844 0.5290353381 -0.1521940858 0.5294027533 -0.1526294757 -0.1585163363 0.0823757925
160299040.0 -0.1547676527 0.074684795 0.5277660281 -0.1586922875 0.5279785701 -0.1589274473 -0.1579574926 0.0836282551
165299010.0 -0.1538928474 0.0752459858 0.5268837424 -0.1647809544 0.5264513822 -0.1653660265 -0.1566367148 0.0844164463
170298980.0 -0.1531423982 0.0763636901 0.5250956201 -0.1714056052 0.5248789037 -0.1714423169 -0.1561034185 0.0855339773
175298950.0 -0.152253169 0.0772358512 0.5235191149 -0.1776990832 0.5238457678 -0.1778228911 -0.1546790727 0.0872718224
180298920.0 -0.1517792725 0.0783900657 0.5215883399 -0.1843071171 0.5216155793 -0.1843730825 -0.1538464712 0.088563587
185298890.0 -0.1508051894 0.0795004247 0.5201982712 -0.1902545952 0.5201359666 -0.1902183062 -0.1530919382 0.0894748655
190298860.0 -0.1497467948 0.0808793773 0.5177346251 -0.1967641517 0.5180174516 -0.1965448626 -0.1520997273 0.0909553273
195298830.0 -0.149193273 0.0817946332 0.5160017732 -0.2022714992 0.5160422814 -0.2026381153 -0.1511639512 0.0925623265
200298800.0 -0.1480750102 0.0829014783 0.5139422803 -0.2093964439 0.5138633585 -0.2088133667 -0.1500353775 0.0934441882
205298770.0 -0.1478888138 0.0838283935 0.5115134613 -0.2144657424 0.5119809423 -0.2145910363 -0.148993995 0.09506767
210298740.0 -0.1468802528 0.0854854217 0.5096465996 -0.220858283 0.5096031382 -0.220952873 -0.1485089205 0.096387416
215298710.0 -0.1459661222 0.0865614908 0.5067015994 -0.2266536069 0.5072484624 -0.2271205999 -0.1472768377 0.0979257505
220298680.0 -0.1451746155 0.0879676964 0.5042156505 -0.2328398811 0.50483739 -0.2326975263 -0.1463900407 0.0991386211
225298650.0 -0.1446735809 0.0890766394 0.5017333543 -0.2387560457 0.5023162756 -0.238230552 -0.145563242 0.1006117726
230298620.0 -0.1437734906 0.0905579167 0.4997911202 -0.2439430666 0.4997226638 -0.2445840102 -0.1446577722 0.1016636057
235298590.0 -0.1429887509 0.0918913681 0.4970634046 -0.250449965 0.4975621418 -0.2500862258 -0.1435036699 0.1034321232
240298560.0 -0.1420580261 0.093175066 0.4943424122 -0.2552588966 0.4941793563 -0.2555877528 -0.1423288447 0.1043723483
245298530.0 -0.1417853616 0.0941622758 0.4915747598 -0.2613150974 0.4915329069 -0.2615203266 -0.1413333861 0.1062383493
250298500.0 -0.1409012288 0.0954912203 0.4890185999 -0.267115446 0.4888833016 -0.2671147607 -0.1405691597 0.1077306323
255298470.0 -0.1398816061 0.0970681331 0.4863398481 -0.272392893 0.4862974723 -0.2729125782 -0.139355644 0.1092392169
260298440.0 -0.1391322185 0.0980835014 0.4829979661 -0.2772772892 0.4831448534 -0.2780071736 -0.1384741828 0.1103475707
265298410.0 -0.1384098177 0.0994793544 0.4797205251 -0.2835715576 0.4797418365 -0.2842204307 -0.1367886678 0.1116154547
270298380.0 -0.1378176198 0.1008432014 0.4767607862 -0.2891312296 0.4770971726 -0.288858439 -0.1357180724 0.1131985017
275298350.0 -0.1369044246 0.1026035879 0.4734548886 -0.294167361 0.473604816 -0.294469558 -0.1347046421 0.1151025114
280298320.0 -0.1362419243 0.1036497779 0.4707340192 -0.2996023997 0.470696881 -0.2998325943 -0.1334044073 0.1164590914
285298290.0 -0.1350554823 0.1049022968 0.4669600851 -0.3049111339 0.4673010798 -0.305120522 -0.1325421696 0.1180407678
290298260.0 -0.1342011659 0.1065900636 0.4644887667 -0.3106604233 0.4642191272 -0.3103746245 -0.130905188 0.1192423588
295298230.0 -0.1335255068 0.107454861 0.460634206 -0.3158353779 0.4610942075 -0.3158885325 -0.1297229259 0.1206105686
300298200.0 -0.1325982467 0.109143672 0.4576284508 -0.320913136 0.4573377186 -0.3208229578 -0.1287728409 0.1222609665
305298170.0 -0.1313418899 0.1099681395 0.453614457 -0.3263932351 0.4541607293 -0.3265049868 -0.1273740006 0.1232322779
310298140.0 -0.1302367628 0.1110349694 0.4501703925 -0.331361231 0.450637579 -0.3310505261 -0.1260150292 0.1243375539
315298110.0 -0.1296981142 0.1121727197 0.4468690323 -0.3364998178 0.4466601363 -0.3365461802 -0.1245260889 0.125739223
320298080.0 -0.1288440134 0.1136796322 0.4427646144 -0.3419662434 0.443454452 -0.3419884092 -0.123497787 0.1274042405
325298050.0 -0.1282125506 0.1143912357 0.4389278464 -0.3466673993 0.4394393877 -0.3466883257 -0.1221150041 0.1283103763
330298020.0 -0.1275488453 0.1160912601 0.4351289012 -0.3517918639 0.4359553795 -0.3518944002 -0.1214895337 0.1296894457
335297990.0 -0.1266651507 0.1171503563 0.4310790722 -0.3562525675 0.4311833096 -0.3566726609 -0.1198238473 0.1312157132
340297960.0 -0.1258613368 0.118753516 0.4265527185 -0.3618238448 0.4272650344 -0.3617708183 -0.1185774901 0.1326264197
345297930.0 -0.1250024857 0.1197553166 0.423050752 -0.3663339173 0.4229000526 -0.3663668942 -0.117265416 0.1338361105
350297900.0 -0.1243032905 0.1211062238 0.4195626476 -0.3703720432 0.419383874 -0.370748449 -0.1162271973 0.1350832948
355297870.0 -0.1230954846 0.1224855384 0.4153091539 -0.3749949359 0.4148644872 -0.3753222443 -0.1141516674 0.1368023689
360297840.0 -0.1220170765 0.1239752353 0.4105595005 -0.3798279055 0.4107302329 -0.3802257299 -0.1129454447 0.1382612022
365297810.0 -0.1211980009 0.1251372564 0.4065353059 -0.3840821632 0.4063770938 -0.3846003641 -0.1123444793 0.1394119263
370297780.0 -0.1199241825 0.1264396961 0.4015554757 -0.3890165784 0.4021190958 -0.3887771902 -0.1106688656 0.1408043164
375297750.0 -0.1190470517 0.1276005798 0.3981293498 -0.3930617598 0.3980376949 -0.3934127223 -0.1088146552 0.1419769998
380297720.0 -0.1179977574 0.1291413721 0.393709656 -0.3980115859 0.393330867 -0.3977030943 -0.1073410043 0.1438755335
385297690.0 -0.1170100097 0.1301488484 0.3894450425 -0.4018762314 0.389074292 -0.4023847454 -0.1060272008 0.1452474771
390297660.0 -0.115685375 0.1313068306 0.3848382628 -0.4057621985 0.3849273989 -0.4063302753 -0.1041694051 0.1462751344
395297630.0 -0.1142202465 0.1325129136 0.3802729913 -0.409996153 0.3800258996 -0.4100606532 -0.1027946833 0.147549128
400297600.0 -0.1135074999 0.1337097634 0.3757926578 -0.4147562397 0.3762110751 -0.4144821947 -0.1008906113 0.1490811879
405297570.0 -0.1124161674 0.1348093291 0.3711807201 -0.4182444315 0.3714967237 -0.4187009959 -0.0995596314 0.1503517168
410297540.0 -0.1108420773 0.1362740194 0.3667144197 -0.4230730093 0.3670766951 -0.422567579 -0.0984023337 0.1515632723
415297510.0 -0.1098369384 0.137461865 0.3618663027 -0.4264773039 0.3624213358 -0.4269499949 -0.0959948864 0.1528507043
420297480.0 -0.1085742439 0.1381327797 0.3570901333 -0.4306085972 0.3575555705 -0.4310929339 -0.0942193426 0.1543230514
425297450.0 -0.1071064809 0.1394969443 0.3526223174 -0.4338783404 0.3524746283 -0.4345113777 -0.0931118225 0.1551129236
430297420.0 -0.1062575857 0.140661148 0.3483183219 -0.4387065336 0.3481878958 -0.4381092142 -0.0906880315 0.1562409179
435297390.0 -0.1044832313 0.1416171287 0.3428431384 -0.4425946512 0.3430085502 -0.4419347003 -0.0893071251 0.1575603306
440297360.0 -0.1033042166 0.1427027112 0.3383656884 -0.4460925716 0.338240456 -0.4463321379 -0.087924208 0.1591583996
445297330.0 -0.1021211124 0.1434888806 0.3335444208 -0.4489545099 0.3334596967 -0.4497299391 -0.0860877436 0.1598840676
450297300.0 -0.1006463545 0.1452264583 0.32859506 -0.4532350429 0.328991934 -0.4529899647 -0.0842625551 0.1608920639
455297270.0 -0.0998559365 0.1457335692 0.3236922355 -0.4564890018 0.3235869235 -0.4569754395 -0.0821554312 0.1620483037
460297240.0 -0.0978231921 0.1468379258 0.3186545247 -0.4606086863 0.3184469271 -0.4603459543 -0.0806379501 0.1630978321
465297210.0 -0.0964389369 0.1480121694 0.3130819101 -0.4637963319 0.3127943384 -0.4638249107 -0.0783098686 0.1646113619
470297180.0 -0.0950397074 0.1488632178 0.3080916281 -0.4667615125 0.3087960484 -0.4669791449 -0.0766808905 0.1650238994
475297150.0 -0.0937624911 0.1498425357 0.3028569533 -0.4703826998 0.3033590397 -0.4704357686 -0.074849205 0.1659749311
480297120.0 -0.0919327308 0.1514168456 0.2979341502 -0.4736094986 0.29834642 -0.4736342968 -0.073505789 0.1670267675
485297090.0 -0.0905654397 0.1516919387 0.2923824888 -0.476817087 0.2927771231 -0.4766670975 -0.0714207389 0.1684521571
490297060.0 -0.0886054837 0.1530765434 0.2871696152 -0.4800940608 0.2875160679 -0.479965787 -0.0693892144 0.1688895695
495297030.0 -0.0876709138 0.1536509789 0.2824746219 -0.4832834804 0.282402013 -0.4834460831 -0.0670814669 0.169595689
500297000.0 -0.0861186254 0.1549101118 0.2769664447 -0.4860550234 0.2769031897 -0.4865128861 -0.0653724973 0.1709101961
505296970.0 -0.0840589962 0.1558808123 0.2718217286 -0.4896124709 0.271455692 -0.4886146792 -0.0635208315 0.1712671102
510296940.0 -0.0828799962 0.1568405095 0.2664213077 -0.4926377708 0.2666011363 -0.4925461096 -0.0613645894 0.1723248857
515296910.0 -0.0812742573 0.1580115038 0.2606352009 -0.4949408696 0.2603528517 -0.4947192449 -0.0596692543 0.1729099662
520296880.0 -0.0797562964 0.1586314796 0.2556654726 -0.4979084674 0.2552950763 -0.4981001672 -0.0571888915 0.1746727917
525296850.0 -0.0779872459 0.1596829377 0.2498644632 -0.5004381041 0.2497048671 -0.5005836808 -0.0554403862 0.1747946002
530296820.0 -0.0766062303 0.1601038892 0.2443486674 -0.5031775923 0.2444913186 -0.5032742804 -0.053627912 0.1752171395
535296790.0 -0.0741957863 0.1611806921 0.2386247084 -0.5056381863 0.2393615336 -0.5057553539 -0.0515838126 0.1764275227
540296760.0 -0.0727924857 0.1624722348 0.2331967808 -0.5081554804 0.2332569316 -0.5081218273 -0.049755469 0.1767244255
545296730.0 -0.071650175 0.1632263735 0.2280680094 -0.5106701215 0.2276452308 -0.5106584797 -0.0474743394 0.1776387172
550296700.0 -0.0695357162 0.1639147876 0.2218474795 -0.5131841483 0.2219440728 -0.5134520561 -0.0454379596 0.1783559531
555296670.0 -0.0681140746 0.1649042189 0.2169166099 -0.5156518693 0.2168353439 -0.5154384575 -0.0436767727 0.1781676407
560296640.0 -0.0660278988 0.1655459518 0.2106551144 -0.5180436886 0.2114962567 -0.5177177237 -0.0416207874 0.1793047174
565296610.0 -0.0647053481 0.1664176505 0.2057807789 -0.5202841839 0.2056804426 -0.5196658583 -0.0393352817 0.1802316009
570296580.0 -0.0630525536 0.1676037014 0.1996716066 -0.5221727365 0.1997773711 -0.5224964261 -0.03753694 0.1806914294
575296550.0 -0.0611101136 0.1680031496 0.1943549184 -0.5243260261 0.1940530385 -0.5242184909 -0.0355462365 0.181093275
580296520.0 -0.0592443727 0.1691144636 0.1885443322 -0.5264270364 0.1881327031 -0.5265344712 -0.0337410195 0.1815972637
585296490.0 -0.0575653324 0.1698733 0.1829423647 -0.528234037 0.182254933 -0.5283284408 -0.0312017167 0.1819686311
590296460.0 -0.0551866034 0.1703497041 0.1767295068 -0.5302761968 0.1767029692 -0.530242063 -0.0296422317 0.1828060692
595296430.0 -0.0539145247 0.1712039411 0.17054093 -0.5324965019 0.1707286077 -0.5323782385 -0.0272789739 0.1828647334
600296400.0 -0.0521024458 0.1718085286 0.1649378409 -0.5337160268 0.1649926282 -0.53402903 -0.0252401441 0.1830533739
605296370.0 -0.0505928518 0.1726124284 0.1597189978 -0.5355365195 0.159417638 -0.5359623113 -0.0233222315 0.1838863468
610296340.0 -0.048593688 0.1736356125 0.1535703231 -0.5366634203 0.154012892 -0.5371192167 -0.0216896462 0.1846279659
615296310.0 -0.0467827978 0.1741807695 0.1478540389 -0.5387575346 0.1472613229 -0.5389440865 -0.0189568083 0.1849376259
620296280.0 -0.0454520386 0.1753562698 0.1415065684 -0.5406336546 0.1414652786 -0.5404238314 -0.0172422492 0.1852869295
625296250.0 -0.0435949143 0.1756473168 0.1358960232 -0.5420579879 0.136099693 -0.5418117338 -0.0154377217 0.1852769152
630296220.0 -0.0416411737 0.1765660861 0.1295727957 -0.543504216 0.1299546441 -0.5433088168 -0.0130623073 0.1856915421
635296190.0 -0.0405296902 0.1771406574 0.124375873 -0.5447359892 0.1240555124 -0.5444384903 -0.0110046935 0.1856680586
640296160.0 -0.0382244069 0.1777821911 0.1182272333 -0.5464546306 0.118116731 -0.5461689261 -0.0088310004 0.1863085495
645296130.0 -0.0363528771 0.1784494716 0.1124941434 -0.5471127457 0.1122056173 -0.546876521 -0.0070441178 0.1858565325
650296100.0 -0.0345759061 0.1788786739 0.1063006683 -0.5483143287 0.1062532375 -0.5483036207 -0.0046295233 0.1860772556
655296070.0 -0.032819583 0.1795422818 0.1001269949 -0.5495116175 0.1000776632 -0.5492306322 -0.0030497776 0.1869196267
660296040.0 -0.0312181945 0.1803351931 0.0947550511 -0.5507388565 0.0946519045 -0.5508440803 -0.0009920151 0.1866325034
665296010.0 -0.0293075357 0.1809981756 0.088029673 -0.55094257 0.0884005865 -0.5513632981 0.0012528211 0.1869553936
670295980.0 -0.0276140908 0.18118212 0.082271382 -0.552175344 0.0823724527 -0.5517483663 0.0028350935 0.1868923146
675295950.0 -0.0259028416 0.1820464212 0.076681461 -0.5528079809 0.0766802132 -0.5530546739 0.0053650692 0.1872338231
680295920.0 -0.0245238876 0.1826035459 0.0706854222 -0.5533448251 0.0705956026 -0.5537059112 0.0077215732 0.1871323087
685295890.0 -0.0221691269 0.1829995803 0.0645899256 -0.5546638217 0.0643075294 -0.554551374 0.0096642824 0.1876834817
690295860.0 -0.0207680352 0.1835174811 0.058849136 -0.5551017226 0.0583938199 -0.5552066648 0.0113694085 0.1875042125
695295830.0 -0.0186660159 0.183654023 0.0530281095 -0.5556009404 0.0525472138 -0.5558782721 0.0136629617 0.1875142089
700295800.0 -0.0169460499 0.1841642018 0.0470841985 -0.55616504 0.0468896414 -0.5561143559 0.0158385215 0.1874668046
705295770.0 -0.0154758539 0.184951329 0.0409849964 -0.5567565514 0.0405433471 -0.5564449272 0.0177051957 0.1877275521
710295740.0 -0.0137750358 0.1851970675 0.0348866655 -0.5573204663 0.0345776623 -0.5572299121 0.0200763581 0.1873797712
715295710.0 -0.0118511437 0.1856848974 0.0288938197 -0.557177718 0.0285986873 -0.5577588091 0.0219727609 0.1874431999
720295680.0 -0.0098710771 0.1861355036 0.022685733 -0.5579675945 0.0223626683 -0.5579021551 0.0240900836 0.1871527675
725295650.0 -0.0084962409 0.1866227795 0.0168525935 -0.5578334538 0.0165214496 -0.5579071283 0.0259697517 0.1874486227
730295620.0 -0.0070624217 0.1869277198 0.0105811577 -0.5577502428 0.0107556015 -0.5577226364 0.0279740548 0.187518571
735295590.0 -0.0050900059 0.1872310878 0.004686627 -0.5581375461 0.0044621174 -0.5582968309 0.0298934631 0.1868838822
740295560.0 -0.0034342424 0.1871664864 -0.0010395472 -0.5578334483 -0.0012543639 -0.5582320335 0.0320357224 0.1872532268
745295530.0 -0.0014491295 0.1877060574 -0.0070471416 -0.5570542525 -0.0065248316 -0.5579649824 0.0336703839 0.1866363194
750295500.0 -3.9542e-06 0.1880794733 -0.0131238676 -0.5574300144 -0.0134004434 -0.5576676365 0.0361159242 0.1865685997
755295470.0 0.0017042845 0.1880824493 -0.0186223628 -0.5579655798 -0.019069033 -0.5576514763 0.0381013425 0.1865585544
760295440.0 0.0034976918 0.1889153107 -0.0254497975 -0.5573303171 -0.0254428305 -0.5565102151 0.040250089 0.185353107
765295410.0 0.0054265226 0.1885224514 -0.0309264861 -0.5566195344 -0.0310531767 -0.5570058949 0.0424122797 0.1855551964
770295380.0 0.0068273784 0.1888767856 -0.0366124004 -0.5562446716 -0.0368623236 -0.5565641273 0.0442490923 0.1854245152
775295350.0 0.0086619415 0.1889055441 -0.0426446144 -0.5560475955 -0.0429229643 -0.5557052583 0.0463673497 0.1851170037
780295320.0 0.0104835721 0.1893002525 -0.0485989203 -0.5549324472 -0.0486537989 -0.5551985311 0.0485657107 0.1843780553
785295290.0 0.0123873729 0.1892419721 -0.0551722033 -0.5550407758 -0.0547252904 -0.5548342979 0.050148509 0.1846372128
790295260.0 0.0140183556 0.1890352814 -0.0604697609 -0.5545595343 -0.0604881347 -0.5543930306 0.0521214827 0.1844077821
795295230.0 0.0154964846 0.1892327308 -0.0667012724 -0.5537546893 -0.0667124503 -0.5535845674 0.054219321 0.1830519106
800295200.0 0.0169739365 0.1895750112 -0.0720151938 -0.5526364128 -0.0728542915 -0.553000621 0.056177439 0.1831963508
805295170.0 0.0187727961 0.1895533076 -0.0783692297 -0.5520939269 -0.0785866769 -0.5525680833 0.058834193 0.1825205211
810295140.0 0.0211513483 0.1897377851 -0.0845094004 -0.5509737545 -0.0848357525 -0.5510368053 0.0604894706 0.1819717825
815295110.0 0.0222503533 0.1897816133 -0.0900564558 -0.550225721 -0.0896939592 -0.550257785 0.0623673855 0.1816709452
820295080.0 0.0243962929 0.1893904965 -0.0957009088 -0.5484176055 -0.0961004264 -0.5494091454 0.0635286042 0.1815140681
825295050.0 0.0257308945 0.1892339206 -0.1020895647 -0.5479025881 -0.1020919931 -0.5479610958 0.0667179505 0.1810484348
830295020.0 0.0274632741 0.1892661727 -0.1076070151 -0.5470417636 -0.1078553181 -0.546956658 0.0681907917 0.1799654615
