!Created with skrf (http://scikit-rf.org).
# Hz S RI R 50.0 
!freq ReS11 ImS11 ReS21 ImS21 ReS12 ImS12 ReS22 ImS22
300000.0 -0.769657608 -0.1430547066 -0.0010085776 0.0016594856 0.0009027982 0.0004810509 -0.2131273066 -0.0925563825
5299970.0 -0.7850915703 -0.007342508 -0.0001016197 9.15889e-05 9.05329e-05 0.0003032124 -0.2163567926 0.0067570528
10299940.0 -0.7874638787 -0.0042019946 0.0001374456 9.678e-05 2.77214e-05 -0.0001028768 -0.2131408222 0.0185609135
15299910.0 -0.7931625156 -0.0018660833 -1.91397e-05 -5.89776e-05 0.0001615097 -0.0001009182 -0.2082558429 0.0279844158
20299880.0 -0.79969159 0.0021143575 2.69703e-05 4.65665e-05 -7.13566e-05 -7.34129e-05 -0.2029775533 0.0356950461
25299850.0 -0.8063357186 0.008187227 0.0001306992 0.0001944778 3.0465e-05 0.0001030474 -0.1976706629 0.0416639272
30299820.0 -0.8120283711 0.0160965771 0.0002516693 6.67638e-05 -9.2137e-05 -6.16589e-05 -0.1917531602 0.046358515
35299790.0 -0.8170214716 0.025261176 -4.98101e-05 9.8646e-06 7.5577e-06 -3.5531e-06 -0.1859075622 0.0500033344
40299760.0 -0.8212563447 0.0343686273 -0.0001504968 0.0001096337 -4.3991e-06 -0.000138066 -0.1803314091 0.0529751423
45299730.0 -0.824872447 0.0441428445 -5.7675e-05 5.9316e-05 -7.45779e-05 -3.15718e-05 -0.1754741487 0.0550997169
50299700.0 -0.8264989719 0.054203901 2.281e-06 5.33328e-05 -1.47592e-05 9.6916e-06 -0.1705755876 0.0567666888
55299670.0 -0.8286713933 0.0645895886 0.0001135586 -1.76234e-05 5.11854e-05 4.76576e-05 -0.1664846558 0.0579684791
60299640.0 -0.8301815787 0.0743382586 7.74585e-05 -4.1906e-06 2.9388e-06 -0.0001581808 -0.1626224517 0.0584780149
65299610.0 -0.8309641882 0.084812612 3.77034e-05 -2.75232e-05 2.26786e-05 -4.71888e-05 -0.1584440356 0.0591683963
70299580.0 -0.8310976705 0.0944263521 -0.0001059712 -1.2675e-06 -4.41784e-05 0.0003624001 -0.1552921448 0.0593249938
75299550.0 -0.8316752689 0.1047893774 -1.5805e-06 -2.46393e-05 -2.02704e-05 0.0001802884 -0.1527438066 0.0596056532
80299520.0 -0.8316311146 0.1144698123 -9.31305e-05 7.89508e-05 6.89708e-05 0.0002865118 -0.1502763986 0.0595549692
85299490.0 -0.8309823597 0.1240427902 0.000154614 0.0001161677 2.5671e-05 -2.51549e-05 -0.1478029225 0.059728898
90299460.0 -0.8299455204 0.1343688586 -0.0001195606 9.59237e-05 -5.23196e-05 -1.86952e-05 -0.145328324 0.0594186997
95299430.0 -0.8285913358 0.1435309911 3.35148e-05 0.000216361 3.64165e-05 9.00258e-05 -0.1433361046 0.0596511973
100299400.0 -0.8279693153 0.1530867266 -1.02088e-05 4.9456e-06 -0.0001395786 -0.000100513 -0.1418881094 0.0592804122
105299370.0 -0.8265995039 0.1623810021 3.61974e-05 0.0001370709 -0.0001955288 -6.48498e-05 -0.1397742442 0.0594293743
110299340.0 -0.8252653023 0.1711278259 -2.18303e-05 3.52634e-05 -0.0001360019 -1.5936e-06 -0.1389631265 0.0593673001
115299310.0 -0.8237997822 0.1803981138 -7.91291e-05 -3.67494e-05 -5.72657e-05 9.75822e-05 -0.1371558883 0.059206243
120299280.0 -0.8218437666 0.1890807273 8.1244e-05 2.11844e-05 -6.2359e-06 7.57234e-05 -0.1360136495 0.0593368511
125299250.0 -0.820312928 0.1986593904 0.0002037868 0.0001927559 3.60471e-05 9.2434e-05 -0.1348912489 0.0593060476
130299220.0 -0.8185046569 0.2081025234 -0.0001497063 0.0001741062 -5.56868e-05 0.0001310701 -0.1343261684 0.0598743251
135299190.0 -0.8170399391 0.2166204047 0.0001499065 0.0001381508 0.0001300709 -4.27653e-05 -0.1333103875 0.0596006547
140299160.0 -0.8149368262 0.2256027544 -5.77692e-05 0.000169606 -0.0001073254 -6.39964e-05 -0.1322387236 0.059823039
145299130.0 -0.8123763518 0.2343044364 1.92294e-05 3.51869e-05 0.0001850497 -0.0001915457 -0.1317333592 0.0603097674
150299100.0 -0.8103757423 0.243063763 -1.37953e-05 5.8835e-06 -3.66505e-05 3.73521e-05 -0.1311052504 0.0601992311
155299070.0 -0.8078512243 0.2526869089 5.10293e-05 0.0002061336 -3.9516e-05 0.0001522941 -0.1302695051 0.06108846
160299040.0 -0.8050117687 0.2612897881 9.02491e-05 2.53097e-05 0.0001565083 0.0001767982 -0.1295481731 0.0613707888
165299010.0 -0.8019038186 0.2693386912 3.16639e-05 -0.0001786466 9.28513e-05 1.71528e-05 -0.1290503621 0.0615879085
170298980.0 -0.7999619596 0.2781780133 8.07781e-05 0.0001782116 -4.72039e-05 0.0002389548 -0.1283086614 0.0624152484
175298950.0 -0.7966201719 0.2870779791 -3.24754e-05 8.36635e-05 0.0001327643 7.4935e-05 -0.1280962144 0.0626432642
180298920.0 -0.7935330111 0.2950656728 0.0001277597 1.23652e-05 5.9741e-05 -0.0001007031 -0.1269209912 0.0631278694
185298890.0 -0.7908038106 0.3042381468 -0.0002002455 5.03461e-05 0.0001560854 0.000104211 -0.1271587426 0.0636095791
190298860.0 -0.7875494901 0.312463907 3.78521e-05 3.84661e-05 1.91824e-05 0.0001615026 -0.1257062264 0.0643589936
195298830.0 -0.783946571 0.3209857699 0.0001782423 0.0002460558 0.0001983816 8.43758e-05 -0.125892898 0.0647281968
200298800.0 -0.7806070804 0.3296348283 5.59323e-05 5.5784e-05 -7.28743e-05 0.0001138677 -0.1252129082 0.0654437966
205298770.0 -0.7772590391 0.3379425562 0.000129669 0.0001562405 0.0002615131 0.0001196033 -0.1247081587 0.0663007934
210298740.0 -0.7733505156 0.3457959488 2.467e-07 0.0001880178 0.0001161684 0.0001615729 -0.1240860073 0.0670772784
215298710.0 -0.7700748221 0.3541718197 -0.0001294085 0.0001701401 2.9216e-05 5.44941e-05 -0.1237828951 0.0680003727
220298680.0 -0.7673463386 0.3626322196 3.91964e-05 -1.92574e-05 6.96153e-05 0.0001147591 -0.1231360968 0.0687647831
225298650.0 -0.7627313203 0.3708326363 0.0001483161 9.16597e-05 0.0001485284 0.0001443568 -0.1228723493 0.0697654404
230298620.0 -0.7586912097 0.379051549 -5.72111e-05 0.0003821532 0.0001230297 -5.64337e-05 -0.1221131893 0.070190349
235298590.0 -0.7549485292 0.387158902 3.24954e-05 4.25735e-05 4.35904e-05 0.0001887022 -0.1217541619 0.0711900291
240298560.0 -0.7507825609 0.3950112882 -2.27403e-05 -4.52948e-05 2.90465e-05 2.96982e-05 -0.121384762 0.0723529609
245298530.0 -0.7464314224 0.4029210318 0.0001474361 0.0001786449 3.34445e-05 7.5828e-06 -0.1208251013 0.0731604272
250298500.0 -0.7425374828 0.4107014445 -0.0002022317 -9.676e-06 -6.11719e-05 -4.89382e-05 -0.1199221265 0.0742048154
255298470.0 -0.7379790052 0.4189950624 -8.11009e-05 -1.2617e-05 9.26699e-05 4.30737e-05 -0.1194930664 0.0749903735
260298440.0 -0.733707372 0.4263179438 6.01102e-05 -3.20213e-05 0.0001873574 0.0001684509 -0.1189823397 0.0759285438
265298410.0 -0.7293902585 0.4339493848 0.0001662857 5.7682e-05 -0.000127472 0.0002426996 -0.118469583 0.0766763123
270298380.0 -0.7245533895 0.4417293374 0.0002466167 9.95368e-05 9.31866e-05 -8.6569e-06 -0.1175781688 0.0777342226
275298350.0 -0.7200197853 0.449109863 6.46285e-05 0.0002323838 0.0001681592 -7.32089e-05 -0.116872687 0.0788990655
280298320.0 -0.7153982477 0.45665289 5.98581e-05 3.45381e-05 0.0001146841 9.85734e-05 -0.1165649863 0.079914381
285298290.0 -0.7105747247 0.464422544 8.13085e-05 0.0002425768 0.0001073981 1.28983e-05 -0.1159134453 0.0808409369
290298260.0 -0.7049486424 0.4716971162 -9.69603e-05 -0.0001692535 0.0001332107 3.51832e-05 -0.1152262481 0.0821333458
295298230.0 -0.7009650028 0.4790360167 0.0001624029 0.0002938306 -0.0002469025 9.07194e-05 -0.1150214956 0.0830823579
300298200.0 -0.6948777461 0.4863330377 -4.92968e-05 8.47824e-05 -8.75798e-05 0.0002182454 -0.1141847253 0.0842159918
305298170.0 -0.6897801456 0.4939582832 0.0001904114 3.00413e-05 0.0002174666 -7.748e-07 -0.1130570195 0.0851821451
310298140.0 -0.6849109623 0.5012559677 0.0002609786 0.0002667626 0.0001651913 2.31434e-05 -0.1125270302 0.0864669991
315298110.0 -0.6798563342 0.5079013129 -2.37805e-05 0.0001160951 -4.0388e-05 1.87438e-05 -0.1115988816 0.0872948215
320298080.0 -0.6744164987 0.5155794924 0.000276568 4.91843e-05 0.0001976525 0.0001241842 -0.1109722314 0.0882202243
325298050.0 -0.6684201575 0.5216318027 -0.0001314758 4.828e-05 0.0002929582 5.54121e-05 -0.1105431353 0.0891023867
330298020.0 -0.662843441 0.5293847003 0.0001316844 3.4583e-06 0.0001478189 -9.67629e-05 -0.1098499085 0.090084941
335297990.0 -0.6571427778 0.5364695455 4.18481e-05 3.91088e-05 6.09192e-05 3.15404e-05 -0.1093257842 0.0913778878
340297960.0 -0.6521107131 0.5423988707 0.0002444071 0.0002764733 3.19378e-05 0.0003129756 -0.1083115976 0.0922322548
345297930.0 -0.6464403954 0.5492848734 0.0004116118 0.0002247278 8.9301e-05 6.31144e-05 -0.1081828483 0.0936119525
350297900.0 -0.6400457146 0.5566790121 0.0001315683 4.36977e-05 0.0003157671 8.56688e-05 -0.1071853811 0.0949086662
355297870.0 -0.6346427629 0.5630256428 0.0001173663 2.84523e-05 -5.45844e-05 2.83603e-05 -0.1065822234 0.0961233277
360297840.0 -0.6290140818 0.5693595997 3.92163e-05 0.0001373076 -2.4341e-05 -7.0771e-05 -0.1059032099 0.0972171137
365297810.0 -0.6221742702 0.5757503452 8.52024e-05 0.0002599124 2.35229e-05 0.0002443146 -0.1049738565 0.0981214552
370297780.0 -0.6162331067 0.5813463016 7.72944e-05 3.5444e-06 -1.94098e-05 0.0001530161 -0.1044382456 0.099469137
375297750.0 -0.6101092593 0.5886090681 -3.4638e-05 7.29547e-05 0.0001440177 1.944e-05 -0.1033531371 0.1007824854
380297720.0 -0.6038396561 0.5946827377 0.0002202893 3.04467e-05 -1.5356e-06 -3.0259e-06 -0.1026516159 0.101951651
385297690.0 -0.5978825944 0.600900635 3.38162e-05 0.0001510597 0.0002924603 -3.22627e-05 -0.1019278867 0.103287905
390297660.0 -0.5919954972 0.6073735199 0.0001233934 0.0001838667 -3.70424e-05 9.27114e-05 -0.1010106987 0.1042552276
395297630.0 -0.5852907594 0.6130447509 -7.28908e-05 0.0001592747 0.000169809 4.66969e-05 -0.1001047943 0.1051492327
400297600.0 -0.5789427165 0.6192339008 0.0003316588 4.23947e-05 0.0001273953 2.18876e-05 -0.0996628505 0.1061740638
405297570.0 -0.5728009863 0.6249806665 0.0003400846 0.0001493277 -4.10475e-05 0.0001836998 -0.0986109802 0.1078572723
410297540.0 -0.5657303585 0.6311441694 2.75254e-05 0.0001156849 0.0002166889 2.87134e-05 -0.0976390683 0.1091435574
415297510.0 -0.5589495654 0.6367085311 0.0001402458 0.0001502149 0.0002143384 8.56494e-05 -0.0971444331 0.1104380948
420297480.0 -0.5522038726 0.6422832114 -3.20409e-05 -8.05312e-05 0.0002476161 -0.000150659 -0.0960741194 0.1107928385
425297450.0 -0.545998001 0.6482213413 0.0003022207 9.65392e-05 0.0001091846 0.0002016073 -0.0946139041 0.1122039771
430297420.0 -0.5393981018 0.6537785457 0.0002281063 9.5193e-06 0.0002347492 0.0001297204 -0.0941926108 0.1134313182
435297390.0 -0.5322314376 0.6589521511 8.17501e-05 2.36412e-05 0.0002065609 0.0001948467 -0.0930205232 0.1146758041
440297360.0 -0.5251143995 0.6647285176 0.0001582476 2.49621e-05 0.0002139804 7.82346e-05 -0.0927353476 0.1156441985
445297330.0 -0.5184376225 0.670386834 9.58076e-05 -4.09012e-05 9.35596e-05 -3.40704e-05 -0.0914141093 0.1165516814
450297300.0 -0.510915947 0.6748499572 0.0002460809 0.0001998685 0.0002446918 0.0001095749 -0.0905627922 0.1178521997
455297270.0 -0.5043890729 0.679848322 5.61351e-05 0.0001757937 0.0001179767 8.49732e-05 -0.0895512204 0.1186929118
460297240.0 -0.4976981095 0.6856675791 9.95261e-05 5.4405e-05 0.0002117636 -1.6356e-06 -0.0882197326 0.1201626437
465297210.0 -0.4900468618 0.690495516 0.0002950377 6.38354e-05 0.0001546645 1.50666e-05 -0.0878037203 0.1207034011
470297180.0 -0.4829138645 0.6948455209 4.40999e-05 0.0003161803 0.0001604873 0.0001007839 -0.0871017646 0.1221478418
475297150.0 -0.4755896671 0.7002759198 0.0001722029 0.0002835355 0.0001728102 0.0001688882 -0.0852271118 0.1226904204
480297120.0 -0.4686990232 0.7047631102 5.51249e-05 0.0002002876 -8.5478e-06 0.0001208778 -0.0845577881 0.1242997593
485297090.0 -0.4609466721 0.709359296 2.00525e-05 3.19933e-05 0.0001898364 0.000192206 -0.0836795795 0.1250963141
490297060.0 -0.4538596489 0.7144223281 0.0003036117 -0.0002387456 0.0001950607 2.63318e-05 -0.0826267406 0.1259363607
495297030.0 -0.4473154074 0.71883515 0.0003126953 0.0001493744 5.89836e-05 -3.74527e-05 -0.081400761 0.1268817486
500297000.0 -0.4389680134 0.723602706 1.35626e-05 0.0001733002 8.80173e-05 0.0001463321 -0.0806651526 0.127837861
505296970.0 -0.4314558943 0.7266353079 -1.99091e-05 7.72685e-05 -7.73189e-05 0.0001691204 -0.0796309116 0.1291951604
510296940.0 -0.4242482037 0.7318513023 0.0001836844 0.0001570911 0.0002861333 1.84616e-05 -0.0780483523 0.1300469702
515296910.0 -0.4172653924 0.7358896727 8.35381e-05 -1.96838e-05 0.0002118783 0.0001323748 -0.0772892319 0.1309724927
520296880.0 -0.4089844626 0.7407273383 0.0003789722 0.0001619941 0.0001836755 -9.30454e-05 -0.0760848598 0.1318471157
525296850.0 -0.4014598034 0.7447838851 0.0001977915 0.0001673453 0.0004008845 7.93544e-05 -0.0746647986 0.1325998143
530296820.0 -0.3940167087 0.747937523 9.67696e-05 2.09389e-05 5.088e-05 6.4763e-05 -0.0741699157 0.1334992388
535296790.0 -0.3859702911 0.7525806399 0.0002501439 0.0001166669 0.0002588086 9.9262e-05 -0.0729532098 0.1343362259
540296760.0 -0.3779864378 0.7559481852 0.0001263715 8.35624e-05 0.0001816828 0.000161862 -0.0716936268 0.1355560044
545296730.0 -0.3711746402 0.7601112024 0.0003116637 -4.998e-05 0.0001894572 -8.3386e-05 -0.0708943554 0.1360913216
550296700.0 -0.3629802051 0.7640023613 0.0001796238 1.71494e-05 0.0003684495 0.0001040063 -0.0694693719 0.1370122669
555296670.0 -0.3550603055 0.7670420065 0.0002872377 1.48981e-05 0.000278546 -2.31649e-05 -0.068569525 0.1382226818
560296640.0 -0.3472053686 0.7705272599 0.0002589038 0.0001136066 0.000387611 8.90826e-05 -0.0670029326 0.1386617294
565296610.0 -0.3397570412 0.7739762787 0.0001521825 0.000178132 0.0002906619 0.0001051856 -0.0660141866 0.1398124176
570296580.0 -0.3316550801 0.7773082253 7.1859e-05 0.0001657692 6.6814e-06 -4.5106e-05 -0.0643531915 0.1407345225
575296550.0 -0.3235659761 0.7808564885 0.0002035854 -0.0001696348 0.0001101309 0.0001210134 -0.0630657838 0.1411437502
580296520.0 -0.3162705763 0.7843650572 0.0004549045 3.37771e-05 0.0001745666 -0.0001955964 -0.0621227439 0.1423237836
585296490.0 -0.3076734584 0.7866484144 -4.0733e-05 -2.4233e-05 0.0002031908 0.0001521661 -0.061137751 0.1425169052
590296460.0 -0.3000085085 0.7901698988 9.87912e-05 3.36951e-05 0.0001832804 7.1846e-06 -0.0597293972 0.1435430791
595296430.0 -0.2913144398 0.7938462509 0.0005872736 8.32152e-05 0.0004401453 -0.0001679009 -0.0585488948 0.1442085518
600296400.0 -0.2837990578 0.7957588772 0.0003785308 5.17242e-05 0.0002625551 1.1309e-06 -0.057312824 0.1452529012
605296370.0 -0.2749074068 0.7987879614 0.0001221753 0.0001025427 0.0001980377 8.1813e-05 -0.0559707608 0.1460120439
610296340.0 -0.2674384226 0.8017853879 0.00023662 -9.33891e-05 0.0002657114 -1.88638e-05 -0.0546508763 0.1468726953
615296310.0 -0.2589871494 0.8041008558 5.15388e-05 -0.0001058631 0.0003256521 -0.0002852876 -0.0533377719 0.1471906169
620296280.0 -0.2508602205 0.806331204 0.0005865631 0.0001533393 0.0002981782 0.0002069992 -0.0521436977 0.1480295675
625296250.0 -0.2425036957 0.8088444647 6.24958e-05 0.0001632215 0.0001607156 6.26101e-05 -0.0509532585 0.1486976069
630296220.0 -0.2340609591 0.8116868343 0.0003782001 -9.36226e-05 0.0002296934 -3.90243e-05 -0.0494736943 0.1494823744
635296190.0 -0.2262956253 0.8137270116 0.0002715818 5.34534e-05 0.0001673418 0.0001411595 -0.0483436334 0.1501026161
640296160.0 -0.2177539352 0.8155445572 0.0002613081 2.92055e-05 0.0002359966 1.5669e-05 -0.0469007987 0.1507768941
645296130.0 -0.2100679663 0.8180233754 0.0002284141 -0.0001460059 0.000290394 -5.51584e-05 -0.0456509208 0.1515184269
650296100.0 -0.2012598407 0.8205070381 0.000275494 0.0001002049 5.8791e-05 9.87081e-05 -0.0441426413 0.1521390698
655296070.0 -0.1930613817 0.8216380106 0.0004043167 0.0001428727 0.0003852278 0.0001541763 -0.0429369531 0.1526356729
660296040.0 -0.1852672584 0.8241004744 0.0002996564 -8.04667e-05 0.0003332365 4.34332e-05 -0.0416016076 0.1534731443
665296010.0 -0.1766280611 0.8257048207 0.0003221807 9.93088e-05 9.14763e-05 -1.51086e-05 -0.0401333478 0.154049043
670295980.0 -0.167751107 0.8274480258 0.0001056319 0.0003750626 0.0002813004 -4.23526e-05 -0.038906267 0.1546080888
675295950.0 -0.1596042985 0.8286335182 0.0005086684 8.15315e-05 0.0001481955 0.000180037 -0.0375408569 0.1550120339
680295920.0 -0.1514430518 0.8310751579 0.0002631219 -0.0001261339 0.0002018439 0.0001723911 -0.0360747409 0.1556500671
685295890.0 -0.1426792364 0.8319372279 0.0002831347 -2.27306e-05 6.54081e-05 -1.34956e-05 -0.0346514891 0.1561187052
690295860.0 -0.134553138 0.8338893374 8.42784e-05 -0.0001626647 0.0002185022 -2.7884e-05 -0.0333525839 0.1567201419
695295830.0 -0.1262457912 0.8340490501 0.0003839542 -0.0002809274 0.0001217267 -9.98842e-05 -0.0319227079 0.1576554966
700295800.0 -0.1176938651 0.8356107435 0.0002464196 -0.0001632108 0.0003415001 -3.77704e-05 -0.0302562692 0.1577206832
705295770.0 -0.1086874387 0.8375438814 0.0001377155 7.84638e-05 0.0002611635 -0.0001765798 -0.0289786853 0.1584363169
710295740.0 -0.1009689284 0.8382436071 2.15019e-05 0.000162696 0.0003900241 5.03668e-05 -0.027979144 0.1588535418
715295710.0 -0.0927699588 0.8390889697 0.0002294305 -8.84726e-05 0.0003783778 -0.0001857169 -0.0264267945 0.1589791443
720295680.0 -0.0844366615 0.8395141757 0.0002063939 0.000159988 0.000259772 -0.0002103815 -0.0249727485 0.1598487853
725295650.0 -0.0753211599 0.8410117271 2.50148e-05 5.977e-06 0.0004467339 -0.0001458718 -0.0230551964 0.1599988188
730295620.0 -0.0671667676 0.841554268 0.0001386539 0.0001228145 0.0003662716 0.0001786183 -0.0218058641 0.1604121346
735295590.0 -0.0583538014 0.8412521459 0.000320619 0.0001104244 0.0005107503 -2.55809e-05 -0.0199437436 0.1607552344
740295560.0 -0.050278969 0.8429263628 0.0004050827 -0.0001720076 0.0002215747 0.0001628646 -0.0186766217 0.1610998262
745295530.0 -0.0413224742 0.8428021062 0.0004213173 -0.0001546623 0.0001418541 -5.29167e-05 -0.0173575842 0.1616661663
750295500.0 -0.0335825497 0.843475446 0.0001186772 -5.98724e-05 0.0003016569 5.32466e-05 -0.0162107244 0.1616588372
755295470.0 -0.023911152 0.8431514222 0.0004049998 5.125e-07 0.0004604564 -0.0001709289 -0.0147794502 0.1626728053
760295440.0 -0.0159687537 0.8438684413 0.0002268322 -4.33818e-05 6.286e-06 4.30513e-05 -0.0132730807 0.1626231558
765295410.0 -0.0076265132 0.8435556455 0.0002083788 -0.0002242187 0.0001849727 -1.32237e-05 -0.0112229145 0.1631778474
770295380.0 0.0009026539 0.8438112405 0.0005955301 0.0001504057 0.0004644374 -7.39299e-05 -0.0096929035 0.1632402416
775295350.0 0.0089660254 0.8437073284 0.0001574764 -5.05489e-05 0.0003559157 -5.7189e-05 -0.0087505742 0.1635624142
780295320.0 0.0184704285 0.8434729169 0.0001829064 -0.0002131016 0.0003978416 -0.0002003136 -0.0070462061 0.1637994695
785295290.0 0.0258799689 0.844413357 3.86443e-05 -7.61709e-05 0.000217792 -0.0001989559 -0.0056159316 0.164258604
790295260.0 0.0343865936 0.8433925745 0.0002268996 -4.37932e-05 0.0003135696 -1.20728e-05 -0.0039975388 0.1645091911
795295230.0 0.0428998439 0.8435249171 0.0003406578 6.37625e-05 0.0003872546 -0.0001406874 -0.0024915072 0.1650478794
800295200.0 0.0512324269 0.8428191272 0.0003441748 -2.10381e-05 0.0002459964 1.82208e-05 -0.0008877585 0.1649608551
805295170.0 0.0599902554 0.8419893436 0.0001550336 -9.00707e-05 0.000326175 -9.2867e-06 0.0004030895 0.1648674889
810295140.0 0.0681397214 0.8414087598 0.0003867676 3.411e-05 0.0003598107 -0.0003317228 0.0021492927 0.16557694
815295110.0 0.0766609145 0.8400705013 0.0002884083 -0.0001545895 0.0002345585 -6.86383e-05 0.0037578134 0.1657264761
820295080.0 0.0848785665 0.8390267167 0.0003218394 -0.0001390832 0.0004881306 -0.0002115006 0.004955359 0.1655804553
825295050.0 0.0939726283 0.8387178148 0.0003469994 -0.0001971606 0.0001768616 -0.0001183043 0.0068732672 0.1659530177
830295020.0 0.1024508047 0.8376941618 0.000161681 -5.19004e-05 0.0001882094 -0.0001315714 0.0082698501 0.1661335649
835294990.0 0.1101293655 0.8368866691 0.0001787261 0.0001290409 0.0004282136 -0.0001735756 0.0098959275 0.1660852556
840294960.0 0.1186764373 0.8353449863 0.0004454029 -9.97199e-05 0.0002116697 -4.45931e-05 0.0113036854 0.166484679
845294930.0 0.1275688964 0.8341301664 0.0003255442 -0.0002193228 0.0002490443 -0.000250793 0.0130978224 0.1666244074
850294900.0 0.1352218242 0.8332650736 0.000307913 -0.0001261485 0.0002010947 5.15401e-05 0.0145516583 0.1665662793
