!Created with skrf (http://scikit-rf.org).
# Hz S RI R 50.0 
!freq ReS11 ImS11 ReS21 ImS21 ReS12 ImS12 ReS22 ImS22
300000.0 -0.2411783622 -0.0925107958 0.4681895555 0.0616429196 0.4709400279 0.0663918984 -0.2380258374 -0.1063302664
5299970.0 -0.2438086859 0.0074358968 0.4738267605 0.0049707356 0.4739247998 0.0050296691 -0.2443693153 0.0060116621
10299940.0 -0.2404136205 0.0199524971 0.4760489719 0.0061264826 0.4758045237 0.0067342346 -0.2410584957 0.0184311082
15299910.0 -0.2362170408 0.0296679391 0.4792928146 0.007749146 0.4793394431 0.0080947137 -0.2367522112 0.0274619683
20299880.0 -0.2303738182 0.0373009542 0.4841339722 0.0080874657 0.4841801416 0.0084642097 -0.232132809 0.0354576284
25299850.0 -0.2246609263 0.0437132977 0.4893152073 0.0069191771 0.4896245218 0.0074152753 -0.2267435692 0.0417464753
30299820.0 -0.2189320267 0.0484943382 0.4951266934 0.0056248107 0.4947963882 0.0054810032 -0.2214807199 0.0470426653
35299790.0 -0.2128791151 0.0527430962 0.5004921501 0.0020492735 0.5006929912 0.0018645748 -0.2162457937 0.0510091373
40299760.0 -0.2075376806 0.055738748 0.5054134163 -0.0015505878 0.5055932009 -0.0018936127 -0.2114990699 0.0548327059
45299730.0 -0.2024880684 0.0586228445 0.5103323015 -0.0067664955 0.5103595206 -0.0064873896 -0.206772162 0.0572473196
50299700.0 -0.197642624 0.0601649372 0.5140697547 -0.0121012271 0.5147352914 -0.0122983279 -0.2019197318 0.0598059939
55299670.0 -0.1935197352 0.0618326662 0.5179673698 -0.0181109947 0.5182642907 -0.0182253748 -0.1984287125 0.0615762241
60299640.0 -0.1894669833 0.0625386568 0.5210338097 -0.0242740874 0.5212653951 -0.0243556685 -0.1944197294 0.0631829021
65299610.0 -0.1862406391 0.0638661437 0.5244849817 -0.0301070338 0.5246290558 -0.0305576612 -0.1909416994 0.0645571539
70299580.0 -0.1826349547 0.0644928761 0.526822551 -0.0370666702 0.5265509056 -0.0371761507 -0.1879101288 0.0655623034
75299550.0 -0.1794909112 0.0651241664 0.5280993627 -0.0439614906 0.5286733489 -0.0440291433 -0.1853030355 0.0666477433
80299520.0 -0.1772549662 0.0655547457 0.5309806367 -0.0507156473 0.5307647964 -0.0512428797 -0.1823345041 0.0673365836
85299490.0 -0.1747943164 0.0660184076 0.5321817281 -0.0578444751 0.5321062023 -0.0578415864 -0.1802849808 0.0682535792
90299460.0 -0.1726778077 0.0665400005 0.5330053499 -0.0644825817 0.5333626314 -0.0648536232 -0.1777824865 0.0691730255
95299430.0 -0.1705905983 0.0672400126 0.5342192811 -0.0718936617 0.5343986562 -0.0715969132 -0.1757651543 0.0702905172
100299400.0 -0.1689751039 0.0675138279 0.534092723 -0.0786909755 0.5345283734 -0.0787033318 -0.1741082826 0.0709117264
105299370.0 -0.1669694402 0.0679101186 0.5343432434 -0.0851183078 0.5346681184 -0.0854238959 -0.1719969913 0.0716796765
110299340.0 -0.1657436399 0.0684761119 0.534530652 -0.0922434365 0.5346860463 -0.0926211461 -0.1706683911 0.072648657
115299310.0 -0.1637625506 0.0688310444 0.5347665199 -0.0991184177 0.5346968067 -0.099093502 -0.1689379837 0.0731628778
120299280.0 -0.163029551 0.0694570849 0.5347459284 -0.1059103165 0.535185569 -0.1060881033 -0.1681377055 0.0739930856
125299250.0 -0.1618234356 0.0700266056 0.5344542622 -0.1126222701 0.5343813625 -0.1128514335 -0.1662345648 0.0746449488
130299220.0 -0.1604550584 0.0707901283 0.5337688356 -0.1192685923 0.5336758801 -0.1192747148 -0.1651454614 0.0761136933
135299190.0 -0.1594611297 0.0709622231 0.5331908745 -0.1259541642 0.5326333362 -0.1263625186 -0.1640134191 0.0768174873
140299160.0 -0.1587075951 0.0723005579 0.5324176691 -0.1327605138 0.5329434458 -0.1328487067 -0.1631004833 0.0778704374
145299130.0 -0.1575335382 0.0728043317 0.5316916643 -0.1394761773 0.5315781539 -0.139116885 -0.1621086692 0.0788474813
150299100.0 -0.1566220352 0.0732724732 0.530378569 -0.1461508846 0.53024549 -0.1457100273 -0.1608970479 0.0798384485
155299070.0 -0.1558987241 0.0748844955 0.5290681794 -0.1528890821 0.5289758837 -0.1529796574 -0.159801893 0.0811934252
160299040.0 -0.1549914215 0.0752958414 0.5274145207 -0.1582173394 0.5274385324 -0.158883324 -0.1586892461 0.0825911674
165299010.0 -0.1545179821 0.0761143257 0.5264986733 -0.1650237742 0.5262763388 -0.1653516005 -0.1582580337 0.0833020836
170298980.0 -0.153529415 0.0772209906 0.5241230233 -0.1716392563 0.524584391 -0.1716450447 -0.1569329227 0.0846530028
175298950.0 -0.1527566413 0.0782575441 0.5234133547 -0.1778974748 0.5233571912 -0.1781610535 -0.15609996 0.0858479119
180298920.0 -0.1517569713 0.0790024339 0.521058817 -0.1841325246 0.521399687 -0.1841194505 -0.1548070855 0.0870994708
185298890.0 -0.1509327071 0.0802658564 0.5193626294 -0.190499791 0.5198128592 -0.1905185877 -0.1543161939 0.0881522566
190298860.0 -0.1501012736 0.0813262975 0.5169691568 -0.1966929462 0.5181830415 -0.1968016417 -0.1528370776 0.0894813503
195298830.0 -0.1495279518 0.0820348715 0.5158486877 -0.2025226033 0.5160287682 -0.2032301388 -0.1520363018 0.0905478556
200298800.0 -0.1487912626 0.0834062347 0.5138093974 -0.2083594059 0.5134276407 -0.2088286085 -0.1509159248 0.0923497648
205298770.0 -0.14827613 0.0845189026 0.5116628372 -0.2146639237 0.5114127335 -0.214844937 -0.1500431355 0.0930622336
210298740.0 -0.1476772996 0.0856228582 0.5095041743 -0.2210821758 0.5094629534 -0.2212586275 -0.1491510499 0.0949662868
215298710.0 -0.1467667557 0.0869445879 0.5066708277 -0.2264084142 0.5067236578 -0.2272015051 -0.1485959748 0.0962301433
220298680.0 -0.1459347597 0.0880877575 0.504259503 -0.2326725793 0.5045550977 -0.2328792192 -0.1471866204 0.0977824683
225298650.0 -0.1451786937 0.0890779374 0.501977304 -0.2382152507 0.5019577065 -0.2383361576 -0.1464380737 0.099124525
230298620.0 -0.1443545855 0.0905940921 0.4996423519 -0.2441164483 0.4994941971 -0.2444651935 -0.1453594267 0.1002300475
235298590.0 -0.14367763 0.0916441715 0.4969364997 -0.2502380703 0.4967741509 -0.2504186729 -0.1441355549 0.1015277492
240298560.0 -0.1429533424 0.0929944238 0.4939374043 -0.2557542882 0.4944195104 -0.2557339579 -0.1430775726 0.103304115
245298530.0 -0.1419437667 0.0939632068 0.4906803824 -0.2616308646 0.4914918942 -0.2619158297 -0.1420776706 0.1049904421
250298500.0 -0.1415822623 0.0953191193 0.4882043322 -0.2666497369 0.4887834909 -0.2668105032 -0.1406825667 0.1063175545
255298470.0 -0.1407956327 0.0965149501 0.4852431274 -0.272914977 0.4854768217 -0.2729027412 -0.1398044956 0.1073579454
260298440.0 -0.1397738225 0.0978750772 0.4826928629 -0.2781814093 0.4827491287 -0.2782813508 -0.1382446924 0.1088928726
265298410.0 -0.1388302578 0.0997007786 0.4796367977 -0.2845168075 0.4794142759 -0.283932549 -0.1370546035 0.1102911939
270298380.0 -0.1376347366 0.1005320121 0.4760024721 -0.2891345879 0.4765278584 -0.2895131879 -0.1361978245 0.1118619224
275298350.0 -0.1371609227 0.1019232827 0.4732405544 -0.29525459 0.4733872746 -0.2952481464 -0.1347411242 0.1135072156
280298320.0 -0.1362144803 0.1031837111 0.4701230514 -0.2998633607 0.4699866631 -0.3002497397 -0.1335148552 0.1152115295
285298290.0 -0.1351657305 0.1048087413 0.4668724501 -0.3054308112 0.4667507094 -0.3056859959 -0.1325955302 0.1164262679
290298260.0 -0.1343249349 0.105870263 0.463836879 -0.3103330061 0.4635309687 -0.3106469832 -0.1310230928 0.1180401225
295298230.0 -0.1332431782 0.1071332863 0.4602687947 -0.3160507725 0.4602522369 -0.3159794991 -0.1297098583 0.1192562164
300298200.0 -0.1317789698 0.1082206124 0.4564808979 -0.3212734096 0.4566082756 -0.3214785984 -0.1284310716 0.1208504701
305298170.0 -0.1310326926 0.1095372172 0.4535258215 -0.3265142252 0.4535400809 -0.3268381575 -0.126885687 0.1224951872
310298140.0 -0.1298321528 0.1104504141 0.4497927959 -0.3319597884 0.4498843602 -0.3322886976 -0.125776413 0.1238947949
315298110.0 -0.1293528482 0.111749884 0.4459593125 -0.3371181596 0.446635974 -0.3374012497 -0.1240366062 0.1249232744
320298080.0 -0.1280215527 0.1133574516 0.4420105978 -0.3424756844 0.4424475288 -0.342232776 -0.122811611 0.126054597
325298050.0 -0.1272901125 0.1140042799 0.438659857 -0.3473262699 0.4386982243 -0.347493618 -0.1215155603 0.1273505656
330298020.0 -0.1265403412 0.1157283163 0.4339854907 -0.3525809329 0.4343180107 -0.3525614427 -0.1206611058 0.1287395368
335297990.0 -0.1254128672 0.116665481 0.4302978553 -0.3574792589 0.4304774101 -0.3574308367 -0.1194229885 0.1303843297
340297960.0 -0.1251867205 0.1179636804 0.4259102356 -0.3617948631 0.4266085431 -0.3618922261 -0.1179672733 0.1318272088
345297930.0 -0.1237866791 0.1193120184 0.4220036597 -0.3662413585 0.4220151551 -0.3662287813 -0.1164767413 0.1329913104
350297900.0 -0.1224628824 0.120934672 0.4180254338 -0.3709126163 0.4184454764 -0.371233009 -0.1154145209 0.1350424768
355297870.0 -0.1214823018 0.1220180513 0.4136087853 -0.3756296178 0.4135749008 -0.3758029976 -0.1137040554 0.135952074
360297840.0 -0.1203501147 0.1231088679 0.4096872571 -0.3801708188 0.4096087597 -0.3802828247 -0.1124053533 0.1379019151
365297810.0 -0.1193589464 0.1247867042 0.4052745747 -0.3847590772 0.4051295077 -0.3848500036 -0.1108376761 0.1390619013
370297780.0 -0.117863681 0.1258155168 0.4008439099 -0.3891774747 0.4013509516 -0.389601037 -0.1092406543 0.1407279587
375297750.0 -0.1170809456 0.1274762524 0.3974069107 -0.3936794708 0.3964941932 -0.3942934202 -0.1076057376 0.1422358651
380297720.0 -0.1155755499 0.1283176192 0.3925193268 -0.3976931711 0.392630776 -0.3978628857 -0.1060541002 0.1436342133
385297690.0 -0.1142379929 0.1299967674 0.3880682556 -0.4021770643 0.3878284064 -0.4022370074 -0.1046015471 0.1451725154
390297660.0 -0.1132630932 0.1309265505 0.3833340632 -0.4069525744 0.383740252 -0.4067016826 -0.1031122538 0.1460161555
395297630.0 -0.1119746232 0.1319890796 0.3793930439 -0.4103077307 0.3790766014 -0.4110622916 -0.1015698216 0.1477969031
400297600.0 -0.1106592169 0.1335057828 0.3743288465 -0.4147788914 0.3749695709 -0.4150434564 -0.100209027 0.1487301161
405297570.0 -0.1092637753 0.1349498598 0.3701861579 -0.4192340409 0.369978232 -0.4192196865 -0.0985737628 0.1506577252
410297540.0 -0.1077725204 0.1357241382 0.3648487196 -0.4228687217 0.3651653765 -0.4228280815 -0.0967281225 0.1513843479
415297510.0 -0.1069007073 0.1372291183 0.3605673503 -0.4269655387 0.3609014059 -0.4269179731 -0.095252907 0.1531435727
420297480.0 -0.1052004472 0.1379556323 0.3559157668 -0.4312135731 0.3564534265 -0.4309203386 -0.0934363297 0.1541164115
425297450.0 -0.1038339565 0.1388934915 0.3512996534 -0.4349069881 0.3514579042 -0.4348005934 -0.0915431231 0.1555631845
430297420.0 -0.1026762858 0.140652694 0.3467120327 -0.4390267008 0.3466618459 -0.4386629634 -0.0901543443 0.1564226031
435297390.0 -0.101247384 0.1413851884 0.3417753555 -0.4420985808 0.3417173347 -0.4420580952 -0.0881719342 0.1580692808
440297360.0 -0.0998987264 0.1425506936 0.3365993112 -0.4462400339 0.336476539 -0.4460624933 -0.0867062636 0.1590320437
445297330.0 -0.0983517157 0.1438433652 0.3313936396 -0.4499954399 0.3318093477 -0.4494816912 -0.0850337111 0.1602071544
450297300.0 -0.0968785573 0.1445168454 0.3265598143 -0.4533443994 0.3270452028 -0.4533987765 -0.0832791121 0.1612248171
455297270.0 -0.0955592578 0.1458418931 0.3219704033 -0.4568524717 0.322322469 -0.4568006143 -0.0813123982 0.1625146874
460297240.0 -0.0944324467 0.1469127617 0.3167980859 -0.4599284719 0.3166540031 -0.4601647164 -0.0795389132 0.1642621804
465297210.0 -0.0925621505 0.1477188412 0.3118246363 -0.4635259571 0.3122484022 -0.4636787945 -0.0781624269 0.1647182851
470297180.0 -0.091356958 0.1487831303 0.306680787 -0.466911603 0.3071603252 -0.4669313044 -0.076668037 0.1658848041
475297150.0 -0.0902503059 0.1494679233 0.301498618 -0.4701561495 0.302059309 -0.47012164 -0.0745410999 0.1669933311
480297120.0 -0.0884199603 0.1504230937 0.2965429741 -0.4735740512 0.296613299 -0.4733765032 -0.0727637524 0.1684582792
485297090.0 -0.0866205883 0.1515987854 0.2914758461 -0.4770915545 0.2918634658 -0.4766523746 -0.0711672648 0.1688876971
490297060.0 -0.0855605915 0.1525948251 0.2860900605 -0.4797154299 0.2862234139 -0.4798912655 -0.0691851274 0.1702889197
495297030.0 -0.0841086534 0.153600922 0.2806393932 -0.4828331756 0.280706827 -0.4830133987 -0.0673645081 0.1708257345
500297000.0 -0.0825612083 0.1542666882 0.275619604 -0.4862114439 0.275384514 -0.4859933415 -0.0659378313 0.171699866
505296970.0 -0.0812349894 0.155364217 0.2700150779 -0.4885133061 0.2700922215 -0.4886704274 -0.0641415767 0.1728157737
510296940.0 -0.0797294788 0.1563007909 0.2647252171 -0.4919716653 0.2649557011 -0.4916246563 -0.0618057602 0.1740335919
515296910.0 -0.0781782478 0.1572011548 0.259240339 -0.4942777398 0.25935623 -0.4946159297 -0.0600290155 0.1747508123
520296880.0 -0.0767021736 0.1578353057 0.2539068385 -0.4969829276 0.2543083986 -0.4972454276 -0.0580260807 0.175637536
525296850.0 -0.0750345039 0.1584467558 0.2485759228 -0.4994743129 0.2488450602 -0.5002803923 -0.0558887697 0.1761741132
530296820.0 -0.0733740783 0.1595248263 0.2430752186 -0.5019621285 0.2431644669 -0.5025102076 -0.0546353669 0.1766002541
535296790.0 -0.0719400238 0.1606063034 0.2374954916 -0.5046942164 0.2379428984 -0.5048714143 -0.0526028984 0.1776393494
540296760.0 -0.0704724186 0.1610762503 0.2322625623 -0.5079204533 0.2321058051 -0.508124827 -0.0509268516 0.1786985885
545296730.0 -0.0686678108 0.1622080539 0.2265115709 -0.5100446046 0.2266872322 -0.5101916628 -0.0488557194 0.1791012264
550296700.0 -0.0675300123 0.1627539235 0.221328912 -0.5123688496 0.2217326993 -0.5129828814 -0.0471331697 0.1802201948
555296670.0 -0.0655374937 0.1637518876 0.2158917741 -0.515107871 0.2153737555 -0.5147852533 -0.0453462554 0.1809120883
560296640.0 -0.0642148193 0.1640868458 0.2098217311 -0.5170163714 0.2099518847 -0.5170830968 -0.0430255207 0.1815298381
565296610.0 -0.0628783679 0.1650328879 0.2040828179 -0.5192448452 0.2039115821 -0.5195859189 -0.0415091091 0.1820486673
570296580.0 -0.0609195698 0.1659892389 0.1986956372 -0.5212534276 0.1989315703 -0.5219112002 -0.0392182637 0.1830557326
575296550.0 -0.0592772832 0.1671226116 0.1928292592 -0.5235278247 0.1934712965 -0.5235447906 -0.0370471705 0.1835009738
580296520.0 -0.0578712965 0.167286299 0.1875826962 -0.5256305402 0.1874287352 -0.5255897932 -0.0354019417 0.1840329248
585296490.0 -0.0558859186 0.167833527 0.1817641503 -0.5276251967 0.1816029318 -0.5274337699 -0.0334914852 0.1838817368
590296460.0 -0.0546265487 0.1683323773 0.1759308849 -0.5291915171 0.1760192569 -0.5296177982 -0.0311672081 0.1853381356
595296430.0 -0.0530673462 0.1691774958 0.1703164841 -0.5315556357 0.1699291533 -0.5315618379 -0.029334581 0.1852785739
600296400.0 -0.0516398002 0.1700854855 0.1644057086 -0.5334688898 0.1647839308 -0.5332122044 -0.0272154346 0.1858764828
605296370.0 -0.0495922595 0.1708773716 0.1584853987 -0.5349179295 0.1589580319 -0.5345161747 -0.025690346 0.1862266957
610296340.0 -0.0481254408 0.1713095488 0.1532142542 -0.536470126 0.153117143 -0.5368542474 -0.0231168659 0.1870918272
615296310.0 -0.0461635742 0.1719225586 0.1468990888 -0.5380269062 0.1468778945 -0.5381593159 -0.0214643553 0.1872056163
620296280.0 -0.044722214 0.1722320998 0.1414183775 -0.5393611304 0.1412904855 -0.5397327993 -0.019356725 0.1873934336
625296250.0 -0.0428098118 0.173075678 0.1348377429 -0.5412091379 0.1350194172 -0.5414883965 -0.0172331853 0.1880935394
630296220.0 -0.0411586408 0.1737670397 0.1294281848 -0.5427746084 0.1297462479 -0.5426836382 -0.0153664341 0.1883489615
635296190.0 -0.0394644003 0.1740031997 0.1235586852 -0.5431822959 0.1233730498 -0.5436445492 -0.0131926415 0.1884646411
640296160.0 -0.0379966685 0.1744603063 0.1181054304 -0.5446597553 0.1179173292 -0.5452156875 -0.011020148 0.1885810817
645296130.0 -0.0362262189 0.1752995979 0.1120229564 -0.5464725147 0.1117235204 -0.5464259712 -0.0094874257 0.1888146016
650296100.0 -0.0346791103 0.176195993 0.1062099098 -0.5470495508 0.106339078 -0.5473596358 -0.0073935415 0.1892759306
655296070.0 -0.0329057022 0.1761090553 0.1000859372 -0.5483977798 0.0998558436 -0.5484021122 -0.0047266384 0.1897263044
660296040.0 -0.0316299964 0.1772203653 0.094376225 -0.5492636197 0.0941152791 -0.5492796439 -0.0033985277 0.1895490135
665296010.0 -0.0293715546 0.1769329428 0.0886330101 -0.5502152794 0.0886938787 -0.5503056108 -0.0014189193 0.1900297865
670295980.0 -0.0270800495 0.1778616185 0.0822282663 -0.5511036979 0.0829064763 -0.5511837393 0.0005305001 0.1898640617
675295950.0 -0.0258062529 0.1777041439 0.0762035735 -0.5517019155 0.0767885962 -0.5528631488 0.0031202328 0.1902802681
680295920.0 -0.0242296936 0.1785816466 0.070508804 -0.5530964355 0.0700897307 -0.5529937848 0.0054248899 0.1902157857
685295890.0 -0.0225362164 0.1789963725 0.0644611022 -0.5537409506 0.0641685031 -0.5539234649 0.0070199723 0.1905827708
690295860.0 -0.0203616787 0.1793433238 0.0582882347 -0.5538950408 0.0579945172 -0.5542306983 0.0094774904 0.1904150243
695295830.0 -0.0181317472 0.1793589298 0.0515892565 -0.5546443045 0.0521331427 -0.5550755239 0.0109073394 0.1905456826
700295800.0 -0.016850095 0.179670974 0.0459835845 -0.5550461596 0.04631385 -0.5556756357 0.0131734682 0.1903433351
705295770.0 -0.0149888886 0.1803571031 0.0402881045 -0.5555812966 0.0404667904 -0.5559328039 0.0149878352 0.1904808976
710295740.0 -0.0133169905 0.1807963153 0.0341420993 -0.5558590443 0.0341369846 -0.556156869 0.0168621723 0.1908330355
715295710.0 -0.0117533704 0.1809673804 0.0282659674 -0.5565484148 0.0286348644 -0.5563534205 0.0196158138 0.1900836768
720295680.0 -0.0099660273 0.1807118878 0.0221563463 -0.5562019586 0.0224960225 -0.557373542 0.0216263984 0.1902646555
725295650.0 -0.0077012726 0.1812328961 0.0158004129 -0.5568394801 0.0163517469 -0.5569280122 0.0238885625 0.1903277902
730295620.0 -0.0066119946 0.1814365943 0.010129722 -0.5566416221 0.0102132832 -0.556946406 0.0259579357 0.1897381043
735295590.0 -0.0041501772 0.1818497019 0.004617947 -0.5572328616 0.0046537631 -0.5572711397 0.0278586429 0.1900440971
740295560.0 -0.0025311331 0.1822871715 -0.0018282417 -0.5570517607 -0.0018822462 -0.5568834873 0.0300961073 0.1895238943
745295530.0 -0.0009242156 0.1817342761 -0.0075481871 -0.5568589367 -0.0074084515 -0.5573134448 0.0319273342 0.1895671387
750295500.0 0.0008484227 0.1820779661 -0.0136687051 -0.5561608019 -0.0136584975 -0.556789833 0.0342316302 0.1889607249
755295470.0 0.0031015836 0.1827524891 -0.0200280802 -0.5567691788 -0.0194087748 -0.556598566 0.0357928947 0.1889049258
760295440.0 0.0044390688 0.1829981671 -0.0259542912 -0.5564390425 -0.0255880023 -0.5563579517 0.0377367973 0.1887449838
765295410.0 0.006233337 0.1826249638 -0.0312175288 -0.5557308895 -0.0313483233 -0.5560650159 0.0408232751 0.1884829658
770295380.0 0.0080962235 0.1829747579 -0.0376570239 -0.5554838297 -0.0379675264 -0.5558343555 0.0427561292 0.1885706047
775295350.0 0.0097461744 0.1832164473 -0.0441782132 -0.5549250879 -0.0436141376 -0.555015016 0.0440792014 0.1874285125
780295320.0 0.0118601333 0.1829789211 -0.0495495542 -0.5541233766 -0.0492364698 -0.5549664379 0.0462201385 0.187820908
785295290.0 0.0133937836 0.1831794174 -0.0553177093 -0.5530883264 -0.0556164021 -0.5537535451 0.0481053619 0.1872176153
790295260.0 0.015298041 0.183174914 -0.0614572279 -0.5532347009 -0.0614821076 -0.5537079777 0.0509457162 0.1868148786
795295230.0 0.0172403229 0.1831861627 -0.0671801967 -0.5521703436 -0.0669116177 -0.552530537 0.0526709169 0.1867571514
800295200.0 0.0190983714 0.1832817768 -0.0739173411 -0.5514152631 -0.0736360966 -0.5519905418 0.0548030791 0.185941091
805295170.0 0.0206297752 0.1830425227 -0.0791035591 -0.5502459397 -0.0793448566 -0.5506329519 0.056428139 0.1854994301
810295140.0 0.022696341 0.1831580787 -0.0853189787 -0.5497295859 -0.08512238 -0.5506574203 0.0585976684 0.1853058486
815295110.0 0.0244453368 0.1831729591 -0.0914536859 -0.5486905742 -0.0913884673 -0.5490313321 0.0604207621 0.1844418169
820295080.0 0.0260946624 0.1826958747 -0.0968075163 -0.5479465924 -0.0968222602 -0.5483603876 0.0627300317 0.1842931038
825295050.0 0.0280464722 0.1826207012 -0.102537598 -0.5463304428 -0.1032314754 -0.5466254258 0.0648851482 0.1836488285
830295020.0 0.0298774729 0.1828639844 -0.1088884878 -0.5452628296 -0.1093654882 -0.5459132937 0.0667299279 0.1829109159
