!Created with skrf (http://scikit-rf.org).
# Hz S RI R 50.0 
!freq ReS11 ImS11 ReS21 ImS21 ReS12 ImS12 ReS22 ImS22
300000.0 -0.0951044386 -0.0854798325 0.6204043951 0.0801340545 0.623370256 0.0845618708 -0.0954060092 -0.0941311304
5299970.0 -0.1004311179 0.0127207199 0.6306465236 0.0103340772 0.6303474164 0.0112630534 -0.1016808554 0.0117414324
10299940.0 -0.0951878594 0.0295264067 0.6345388358 0.0158848033 0.6342571086 0.0160379669 -0.0969305816 0.0288312595
15299910.0 -0.0883093084 0.0429662037 0.6405042046 0.0202964529 0.6402695736 0.0211879643 -0.0897699379 0.0423213771
20299880.0 -0.0794368709 0.0542981862 0.6488113325 0.0241846332 0.648795728 0.0239822497 -0.0815349374 0.0531560721
25299850.0 -0.0696635569 0.0627020032 0.6580395505 0.0249595856 0.6580028037 0.0255713643 -0.0723942548 0.0619666973
30299820.0 -0.0595215181 0.0690136874 0.6676332634 0.0244558047 0.6672611056 0.0245494944 -0.0623795866 0.0689297759
35299790.0 -0.0493166237 0.0741796706 0.6774829443 0.0214573043 0.6771705574 0.0217841698 -0.0522271343 0.0734998505
40299760.0 -0.0396569532 0.0770437722 0.6867002676 0.0179446749 0.6870870812 0.0175652905 -0.0433895022 0.0771351427
45299730.0 -0.0301822518 0.0794788015 0.6958086119 0.0117482687 0.6957088756 0.0119195605 -0.0339096414 0.0791817347
50299700.0 -0.0217948619 0.0799088242 0.7033334888 0.0044394587 0.7035556655 0.0045930836 -0.0253623362 0.0801364152
55299670.0 -0.0140545697 0.0800500649 0.7104109117 -0.003211868 0.7109576534 -0.0031717855 -0.0173922763 0.0800067775
60299640.0 -0.0065376549 0.0788533576 0.7168932644 -0.0118443984 0.7174238919 -0.0111093702 -0.0101666939 0.0799596782
65299610.0 -0.0003008463 0.0778468787 0.7236485794 -0.0194033094 0.7234546088 -0.0199163413 -0.003578942 0.0785316518
70299580.0 0.0061697823 0.0756832189 0.7288668032 -0.0293640126 0.7283924892 -0.0290665704 0.0026352524 0.0772101684
75299550.0 0.0115562442 0.0741576391 0.733036316 -0.0389356015 0.7331294421 -0.0388251712 0.0082298861 0.0758500864
80299520.0 0.0162876993 0.0720859123 0.7375195257 -0.0488625866 0.7377735349 -0.0489133955 0.0133963029 0.0730880889
85299490.0 0.0207882493 0.06937487 0.7407055083 -0.0590907385 0.7406261211 -0.0588516816 0.0176836102 0.0710792913
90299460.0 0.0245216752 0.0674271412 0.7431258656 -0.0684113443 0.7438932002 -0.0692516155 0.0224100642 0.06909867
95299430.0 0.0280709744 0.0651793652 0.746081011 -0.0790372589 0.7458416973 -0.0787719362 0.0253631027 0.0663154757
100299400.0 0.0314563904 0.0627001455 0.7473523223 -0.0896729767 0.7474620967 -0.0893151504 0.0285393426 0.064054445
105299370.0 0.0348269884 0.0601564569 0.748579165 -0.0990826005 0.7491801252 -0.0995636011 0.0319093577 0.0621596656
110299340.0 0.037078007 0.0577837079 0.7500637043 -0.1092994994 0.7500423133 -0.1094165909 0.0347080775 0.0594794938
115299310.0 0.039931611 0.0548621222 0.7507441658 -0.1186747428 0.7510939237 -0.1188217008 0.0372356754 0.0562536425
120299280.0 0.0414480822 0.0527175166 0.7519839971 -0.1296730729 0.7513199547 -0.1296681579 0.0386759374 0.0545312789
125299250.0 0.0434085066 0.0502208488 0.7513208958 -0.1393306708 0.7519657853 -0.139634311 0.0411091701 0.0515009012
130299220.0 0.0451132877 0.0479410565 0.7518479412 -0.1490677223 0.751858228 -0.1495395328 0.0429919188 0.0498077377
135299190.0 0.0467490742 0.0454982535 0.7511821282 -0.158689906 0.7510878249 -0.1589691328 0.0442464997 0.0475155069
140299160.0 0.0480337328 0.0443101939 0.7510677862 -0.1690980589 0.7511290176 -0.1687930618 0.0463892702 0.0454472256
145299130.0 0.0492529139 0.0419169296 0.7506835961 -0.1786475914 0.750026089 -0.1784360386 0.0470286591 0.0428822267
150299100.0 0.0505206922 0.0398223054 0.7489084327 -0.1883264609 0.748811517 -0.1884563985 0.048471605 0.0408045767
155299070.0 0.051249032 0.0382860278 0.7476366104 -0.1983436695 0.7478034993 -0.1979477472 0.0492618735 0.038777172
160299040.0 0.0523679575 0.0362303958 0.7460021291 -0.2067663584 0.7460368271 -0.2077896314 0.0505241285 0.0372048616
165299010.0 0.052923201 0.0342978548 0.7454179533 -0.2171588402 0.745127077 -0.2170290571 0.0512672982 0.0349041757
170298980.0 0.053395722 0.0327150489 0.7422045114 -0.226136993 0.7427321312 -0.2264188066 0.0525341728 0.032690236
175298950.0 0.0543637248 0.0306756749 0.74167151 -0.2354933113 0.7419706756 -0.2354091587 0.053181432 0.0312165075
180298920.0 0.0552530564 0.0291846031 0.7394304772 -0.2449583865 0.7390499825 -0.2445873211 0.0536753136 0.029735017
185298890.0 0.0562080141 0.0275084035 0.7366003363 -0.2541862272 0.7370632276 -0.2540170463 0.0542348476 0.0276725062
190298860.0 0.0561579945 0.0259099366 0.734357644 -0.2629853926 0.7345215122 -0.262796272 0.0554179645 0.026227774
195298830.0 0.0563075997 0.0240786868 0.7318093116 -0.2715500537 0.7321553439 -0.2727366045 0.055583553 0.0240182406
200298800.0 0.0572025739 0.0225796263 0.7296030026 -0.2806166542 0.7290248767 -0.2805157834 0.0560774301 0.0231036226
205298770.0 0.0573787755 0.0215137538 0.7269747649 -0.2892237797 0.7269074439 -0.2896937849 0.0563964762 0.0207737014
210298740.0 0.0571030998 0.0196215231 0.7235557672 -0.2987866544 0.7237365029 -0.2990403247 0.0565832007 0.0197044185
215298710.0 0.0579744722 0.0185794841 0.7207964219 -0.3069262073 0.7205345263 -0.3071509741 0.0568848908 0.0181337077
220298680.0 0.0581332266 0.017323963 0.717681742 -0.3163392265 0.7172542231 -0.315794593 0.057320726 0.0172636999
225298650.0 0.058738548 0.0161594744 0.7141883557 -0.3236996848 0.7143087314 -0.3241195778 0.0574357954 0.0156286969
230298620.0 0.0583461883 0.0149905293 0.7106777391 -0.3333267065 0.7111296939 -0.3328498042 0.0580195961 0.0140485133
235298590.0 0.0586173124 0.0131737726 0.7074814028 -0.340891457 0.7074392026 -0.3418621269 0.0580062345 0.0125965522
240298560.0 0.0586432083 0.0121185013 0.7034269296 -0.3493828434 0.7040507976 -0.349204757 0.0582685275 0.0116159075
245298530.0 0.0588733501 0.011252176 0.6991863974 -0.3577449526 0.6997792962 -0.3579125897 0.058435858 0.010323491
250298500.0 0.0586148652 0.009693754 0.6958763662 -0.3653027094 0.6964548353 -0.3659099542 0.0589114738 0.008887489
255298470.0 0.0584227235 0.0089373289 0.6920037746 -0.3741618965 0.6921150596 -0.3737651822 0.0589509839 0.0075420765
260298440.0 0.0583893546 0.0077227502 0.6876541543 -0.3821511581 0.6887853539 -0.3828192028 0.0595603341 0.0067444802
265298410.0 0.0592591921 0.0069901418 0.6843104452 -0.3910410313 0.6839365944 -0.3905882114 0.0588331076 0.0054402541
270298380.0 0.059141893 0.0056529031 0.6793208268 -0.3983837371 0.6797998112 -0.398230785 0.0591416324 0.004948428
275298350.0 0.0586927793 0.0047365173 0.6753565345 -0.4068162765 0.6759302307 -0.4065681364 0.0592748088 0.0033414132
280298320.0 0.0587003015 0.0039490451 0.6709190526 -0.4134757515 0.6709788307 -0.4146280448 0.0594033079 0.0026425596
285298290.0 0.0589834956 0.003106088 0.6665743997 -0.4217512154 0.6663605093 -0.4222378716 0.0592095057 0.0014621062
290298260.0 0.0589522118 0.0017506735 0.6623206378 -0.4299785056 0.662192705 -0.4301131132 0.0594726068 0.0004601874
295298230.0 0.0587502278 0.0005372728 0.6578476576 -0.437668016 0.6574151511 -0.437424701 0.0599468051 -0.0003997461
300298200.0 0.059232709 -0.0001549723 0.6526462397 -0.4448389212 0.6530189963 -0.4453218712 0.0594597046 -0.0015727385
305298170.0 0.0589297971 -0.0013742224 0.6480636524 -0.4525750903 0.6488809785 -0.4532420765 0.0600585778 -0.0024471411
310298140.0 0.0595177986 -0.0025007897 0.6438157871 -0.4605020882 0.643392666 -0.4610895661 0.059836308 -0.0030107516
315298110.0 0.0587370065 -0.0034598995 0.6378852869 -0.4681172338 0.6386741283 -0.4683755027 0.059994257 -0.0046754153
320298080.0 0.0588006048 -0.0044501111 0.6333211834 -0.4756787627 0.6332038938 -0.4759254091 0.0596393326 -0.0059809199
325298050.0 0.0583968339 -0.0058163611 0.6280929679 -0.4832801859 0.6283423213 -0.4838378575 0.0592161895 -0.0068072641
330298020.0 0.0582254364 -0.0068401379 0.6213243324 -0.4908588048 0.6217760889 -0.4910374169 0.0586201633 -0.0080145753
335297990.0 0.0574861634 -0.007719438 0.6162566331 -0.4974628866 0.616603695 -0.4979378654 0.0582936583 -0.0088977201
340297960.0 0.056701695 -0.008127993 0.6108031027 -0.5044058321 0.6103848569 -0.5043440153 0.0576089865 -0.0093616985
345297930.0 0.0562099145 -0.0085565567 0.6047123003 -0.5110541047 0.6046141796 -0.5110837367 0.0576355623 -0.0108890969
350297900.0 0.0566209788 -0.0093567146 0.5990784556 -0.5178513561 0.5994210934 -0.5178724814 0.0568521672 -0.0104671424
355297870.0 0.0561221337 -0.0103567205 0.593199371 -0.5244365081 0.5930693998 -0.5250854904 0.0564420047 -0.0112168438
360297840.0 0.0560174602 -0.0107394774 0.5877301282 -0.5318532532 0.5875228011 -0.5317373418 0.0564786735 -0.0116276901
365297810.0 0.0556079864 -0.0114490781 0.5819637391 -0.5383737305 0.5816631402 -0.5381545941 0.0561146039 -0.0119635227
370297780.0 0.0557598175 -0.0122069351 0.5753696277 -0.5442677131 0.5754839347 -0.5445723942 0.0561257469 -0.0129036894
375297750.0 0.0549156119 -0.0122107574 0.5701215324 -0.5512030286 0.5696678022 -0.5511871315 0.0557652899 -0.013475336
380297720.0 0.0549991669 -0.0136590954 0.5635953551 -0.5569361907 0.5636574772 -0.5574462928 0.0553541104 -0.0142013397
385297690.0 0.0547131886 -0.0141308475 0.5572578264 -0.5630783361 0.5569267153 -0.5634703816 0.0550408972 -0.0146677675
390297660.0 0.0542829497 -0.0146971951 0.5508163012 -0.5695773492 0.550943657 -0.5701881543 0.0549927991 -0.0153463869
395297630.0 0.0544326942 -0.0156730503 0.5456616449 -0.5758010738 0.5449377262 -0.5757254565 0.054364396 -0.015704413
400297600.0 0.0537832006 -0.0160958492 0.5380701105 -0.5820825081 0.5384730149 -0.5821366264 0.0531450175 -0.0168615574
405297570.0 0.0539333042 -0.0166170751 0.5319775476 -0.5878162822 0.53201987 -0.5882032259 0.0535707366 -0.0167141794
410297540.0 0.0534426129 -0.0173313923 0.5250089402 -0.5933275703 0.5251336789 -0.5939717343 0.0532463751 -0.0179013899
415297510.0 0.0532471452 -0.0171727353 0.5187428097 -0.5994243815 0.5191059599 -0.5997369625 0.0526732164 -0.0178370495
420297480.0 0.0530140233 -0.0187880752 0.5125309822 -0.6056299547 0.5125174074 -0.6058477376 0.0529269093 -0.019150764
425297450.0 0.0533015671 -0.0195734086 0.5054070848 -0.6115442466 0.5061793318 -0.6108708394 0.0519263731 -0.0191361337
430297420.0 0.0523847811 -0.019512824 0.4991850166 -0.6172783983 0.4988976503 -0.6173699302 0.0516215667 -0.0201420183
435297390.0 0.052661282 -0.0207586675 0.4922953978 -0.6219972434 0.4920312655 -0.6224403225 0.0511257288 -0.0199780185
440297360.0 0.0524019521 -0.0214918863 0.4854613258 -0.6275085524 0.4846549353 -0.6277750282 0.051059446 -0.0215052036
445297330.0 0.0522277586 -0.0220911107 0.4777851174 -0.6335487125 0.4780876165 -0.6333568991 0.0504740262 -0.0216969348
450297300.0 0.0518411465 -0.022580439 0.4715269185 -0.6383124706 0.4710470587 -0.6384369325 0.0500951534 -0.0217740727
455297270.0 0.0512898655 -0.0233091278 0.46469609 -0.6438508827 0.4647580462 -0.6434245687 0.050302034 -0.0225535691
460297240.0 0.0507169715 -0.023713062 0.4570504736 -0.648909542 0.4564770521 -0.6485349794 0.0497151942 -0.0226094733
465297210.0 0.0506628278 -0.0247502107 0.4503177381 -0.6538942103 0.4505325057 -0.6539064483 0.0486330646 -0.0238734686
470297180.0 0.0500620198 -0.0252813845 0.4426990264 -0.6582629376 0.4433558634 -0.6587144665 0.0478506985 -0.0241690293
475297150.0 0.0495127583 -0.0264278616 0.4354426226 -0.6629363659 0.4361793058 -0.6625382001 0.048105799 -0.024882987
480297120.0 0.049959872 -0.0267325659 0.4287128185 -0.667985969 0.4287019519 -0.668067697 0.0474595344 -0.0243658134
485297090.0 0.0494856963 -0.0273836609 0.421160854 -0.6729049187 0.4212327491 -0.6730302713 0.046847819 -0.0257076051
490297060.0 0.0489443884 -0.0280493407 0.4141298564 -0.6777796286 0.4141632101 -0.677839248 0.0468777093 -0.0256507539
495297030.0 0.0480928727 -0.0281308595 0.4060805313 -0.6821818393 0.4060729686 -0.6820582459 0.0465842515 -0.026557906
500297000.0 0.0479782469 -0.0291503834 0.398634432 -0.6864773712 0.3988656304 -0.6868454089 0.0453824222 -0.0268232589
505296970.0 0.0471679226 -0.0297234141 0.3908312512 -0.6905185027 0.3907447042 -0.6911067869 0.0448383281 -0.027372584
510296940.0 0.0469822488 -0.0301560889 0.3831607227 -0.6953740904 0.3834697591 -0.6953896003 0.0450795359 -0.027067089
515296910.0 0.0463354312 -0.0305568822 0.3760998993 -0.6990031028 0.3759433287 -0.6995259484 0.0439368687 -0.0282092107
520296880.0 0.0461379281 -0.0315269847 0.3682039626 -0.703336254 0.3684417642 -0.7033053085 0.0440321962 -0.0283637778
525296850.0 0.0454531712 -0.0323719438 0.3605414981 -0.7075426025 0.3605939626 -0.7081420022 0.0437108963 -0.0288054113
530296820.0 0.0449628195 -0.0324241882 0.3534137953 -0.7107247914 0.3522819285 -0.7115951038 0.0425027278 -0.0301974379
535296790.0 0.0443625243 -0.0329120592 0.3445815403 -0.7148644327 0.3452157299 -0.71543759 0.0424666468 -0.0304768901
540296760.0 0.0439576156 -0.0338513978 0.3369426744 -0.7193088055 0.3364120887 -0.7195354994 0.0414583563 -0.0303819006
545296730.0 0.0434976186 -0.0335888355 0.3289415234 -0.7219661268 0.3291373525 -0.7231831162 0.0413045411 -0.031227901
550296700.0 0.0425694593 -0.0345130585 0.321412436 -0.7266433985 0.3214262841 -0.726313906 0.0405301809 -0.0307965411
555296670.0 0.0425108227 -0.035280012 0.3134279928 -0.7298493618 0.3134931647 -0.7298362928 0.0400880318 -0.0313538652
560296640.0 0.0418830569 -0.0356585472 0.3054592049 -0.732745259 0.3056730728 -0.7326592962 0.0396526874 -0.0317935395
565296610.0 0.0407711826 -0.0362251314 0.2970449512 -0.7366678255 0.2967260526 -0.7368819629 0.0390291101 -0.0325773567
570296580.0 0.0413247871 -0.0369265038 0.2892522308 -0.7396016516 0.2892738518 -0.7400650941 0.0389159099 -0.0319096286
575296550.0 0.0402589686 -0.0362210106 0.2813801824 -0.7421575475 0.2813431928 -0.7429407382 0.0384907258 -0.0328497036
580296520.0 0.0394788734 -0.0372004368 0.2734616303 -0.7456788277 0.2727224884 -0.746160409 0.0374601221 -0.0333399222
585296490.0 0.0392256637 -0.0379973587 0.2652205047 -0.7489007941 0.2649404001 -0.7487277178 0.0371224572 -0.0340805006
590296460.0 0.0380724248 -0.038708247 0.2562546965 -0.7514293961 0.2564795548 -0.7519154628 0.0366283174 -0.033564821
595296430.0 0.0376425481 -0.038536719 0.2491786176 -0.7543970878 0.2482910186 -0.7545272822 0.0365067401 -0.0342612396
600296400.0 0.0370165577 -0.0384989831 0.2401984726 -0.7573479474 0.2405047584 -0.7571127978 0.0355961441 -0.0341862737
605296370.0 0.0365233142 -0.0385880047 0.2321786417 -0.7597459694 0.2319357988 -0.7594965512 0.035194186 -0.0349825226
610296340.0 0.0357394629 -0.0396255811 0.2240476825 -0.7617417286 0.2238916984 -0.762198345 0.034534181 -0.0344143787
615296310.0 0.0352231232 -0.0396268152 0.2153908042 -0.7642545037 0.2151216863 -0.7647264715 0.0344620126 -0.0350902282
620296280.0 0.0345887982 -0.0402256978 0.2069985203 -0.7669019964 0.206857672 -0.7667863168 0.0336004709 -0.0360655117
625296250.0 0.0345373711 -0.0404083275 0.1977193927 -0.7688927197 0.1986847814 -0.76950305 0.0333293211 -0.0355586481
630296220.0 0.0336815609 -0.0404326122 0.1896626274 -0.771414184 0.1904510226 -0.7715143161 0.0323062311 -0.036033227
635296190.0 0.0330384187 -0.0409113901 0.1819589164 -0.7727269408 0.1811223373 -0.7728025895 0.0315627824 -0.0363480684
640296160.0 0.0321960043 -0.0411376804 0.1735098057 -0.7747311275 0.1734614031 -0.7752379117 0.0315897518 -0.0362905783
645296130.0 0.0319065571 -0.0411746796 0.1647072724 -0.7776027865 0.1648880456 -0.7770052404 0.0296703867 -0.0371905326
650296100.0 0.0310197062 -0.0409897669 0.1566733384 -0.7785852318 0.1567369892 -0.7784570998 0.0297449341 -0.0372193473
655296070.0 0.030382234 -0.0420172018 0.1480032839 -0.7794981879 0.1476392886 -0.7804192154 0.0301406293 -0.0366230923
660296040.0 0.0293139045 -0.0418077181 0.1398569566 -0.7816029034 0.1398856827 -0.7817399386 0.0286535731 -0.0377105812
665296010.0 0.0292569704 -0.0423644043 0.1310930884 -0.7834574218 0.1313629241 -0.7831911026 0.0280829105 -0.0375150092
670295980.0 0.0291655815 -0.0422574204 0.1226453386 -0.7844484978 0.1224002496 -0.7848546896 0.0270154779 -0.0379943062
675295950.0 0.0283004516 -0.0424681791 0.1140599855 -0.7863885454 0.114195751 -0.7859674756 0.0269414426 -0.0377673681
680295920.0 0.0274951008 -0.0424589977 0.1051703351 -0.7876808031 0.1051661055 -0.7871336057 0.02632918 -0.0386006985
685295890.0 0.0267687805 -0.042527799 0.0969014608 -0.7882952623 0.0963808547 -0.7885502628 0.0258541215 -0.0381412918
690295860.0 0.0263597289 -0.0429887258 0.088421984 -0.7886554563 0.0876166971 -0.7891934538 0.0254656297 -0.0379670513
695295830.0 0.0263494599 -0.0435313257 0.0784261609 -0.7901540095 0.079063299 -0.7902504726 0.0242785874 -0.0384319324
700295800.0 0.025514668 -0.0435233086 0.0711960844 -0.7909508661 0.0705819688 -0.7914618046 0.0234589893 -0.0390023697
705295770.0 0.0246752235 -0.0435128627 0.0621252554 -0.791704258 0.0622884659 -0.7916545209 0.0228519471 -0.0389604177
710295740.0 0.0241916137 -0.0434943362 0.0534309369 -0.7921013182 0.0532572753 -0.7919020682 0.0217141004 -0.0388178429
715295710.0 0.0234138902 -0.0437512095 0.0448147131 -0.7924071256 0.0450340219 -0.7925622585 0.0220668269 -0.039683059
720295680.0 0.0227070751 -0.044163162 0.0361236209 -0.792885501 0.0364991206 -0.7939227911 0.0215478645 -0.0391018926
725295650.0 0.0224076244 -0.0441410969 0.0272332385 -0.7927712746 0.0276318238 -0.7932415079 0.0207446896 -0.039170004
730295620.0 0.0210844145 -0.0445716975 0.0187806694 -0.7939246777 0.0184616078 -0.7938397499 0.0203659697 -0.0405105315
735295590.0 0.0211962036 -0.0443795165 0.0109231593 -0.7940576049 0.0103958065 -0.7940016809 0.0194044421 -0.0396063063
740295560.0 0.0206230344 -0.0440838006 0.0018041313 -0.793422821 0.0018576961 -0.7934080815 0.019602942 -0.0400540624
745295530.0 0.0196737096 -0.0447594328 -0.0068611114 -0.7941351552 -0.0067297081 -0.7943619277 0.0180199315 -0.0396853302
750295500.0 0.0192079667 -0.0446100762 -0.0151619108 -0.7929984114 -0.015416769 -0.7938549 0.0181337936 -0.0402655178
755295470.0 0.0188196603 -0.0446091159 -0.0236805461 -0.7937178632 -0.0235131449 -0.7939308286 0.0165233343 -0.0399933365
760295440.0 0.0178064005 -0.0447206148 -0.0330806719 -0.7931186854 -0.0330654077 -0.7936735329 0.015781051 -0.0403507598
765295410.0 0.0169708795 -0.0451868431 -0.0407314989 -0.7924553523 -0.0409045411 -0.7928609187 0.0167715512 -0.03972331
770295380.0 0.0169411645 -0.0446924543 -0.049798942 -0.7920450605 -0.0498168267 -0.7923256375 0.0157428723 -0.0396758682
775295350.0 0.0162582079 -0.0448844367 -0.058286484 -0.7913063243 -0.0584823214 -0.7916920356 0.0144048104 -0.0409210593
780295320.0 0.0155411029 -0.0449588989 -0.0665689618 -0.7910884971 -0.0663218526 -0.7909553773 0.0141594926 -0.0399249518
785295290.0 0.0147780732 -0.0444348698 -0.0760602657 -0.7894814315 -0.0754369715 -0.790346068 0.013018603 -0.0402793137
790295260.0 0.0140632829 -0.0446205134 -0.0841725474 -0.7895463622 -0.0840781517 -0.7897180757 0.0131240927 -0.0402590586
795295230.0 0.0135552881 -0.0448852734 -0.0923617933 -0.7877238579 -0.0928739723 -0.78797205 0.0120408918 -0.0395826125
800295200.0 0.0127895937 -0.0443701477 -0.1019299963 -0.7875887375 -0.1018582837 -0.7875403824 0.0120247038 -0.0403935736
805295170.0 0.0117560158 -0.0446696329 -0.1096565203 -0.7852843365 -0.109746714 -0.7859463844 0.0106231923 -0.0403973803
810295140.0 0.0115457914 -0.0447841948 -0.1181308401 -0.7851255488 -0.1180953051 -0.7851234047 0.0105686523 -0.0398139853
815295110.0 0.0107731713 -0.0442737785 -0.1271480435 -0.7831591558 -0.1278263372 -0.7838393879 0.0092683028 -0.0406214668
820295080.0 0.0101594501 -0.0446451924 -0.1356261719 -0.7819495637 -0.1356595044 -0.7824035363 0.0089490052 -0.0402518755
825295050.0 0.0096092643 -0.044760111 -0.1440119092 -0.7797642485 -0.1435641045 -0.7800569167 0.0089655801 -0.0398069556
830295020.0 0.008669573 -0.0442161106 -0.152918975 -0.7781733011 -0.1533315562 -0.7793686685 0.0080383439 -0.0399812848
