!Created with skrf (http://scikit-rf.org).
# Hz S RI R 50.0 
!freq ReS11 ImS11 ReS21 ImS21 ReS12 ImS12 ReS22 ImS22
300000.0 -0.3189547556 -0.0828240621 0.37448908 0.04498841 0.3716650341 0.0410895401 -0.3185742013 -0.0972552568
5299970.0 -0.32673485 0.0042049979 0.3784117502 0.0026004175 0.3782620182 0.0025901485 -0.3242692141 0.0048693089
10299940.0 -0.3240987035 0.0132472997 0.3792044554 0.0020681002 0.3796937621 0.00227026 -0.3215348791 0.0159977439
15299910.0 -0.3216548199 0.0203242251 0.3819534025 0.0023261716 0.3818614349 0.0020506522 -0.3184034005 0.023763897
20299880.0 -0.318890361 0.0260251652 0.384831903 0.0021872401 0.3848664985 0.0017406511 -0.3146219673 0.0302914938
25299850.0 -0.3158205286 0.0315716414 0.3882173086 0.0001470243 0.3878764226 0.0002037525 -0.310748017 0.0359484666
30299820.0 -0.3128354979 0.0359203388 0.3915325402 -0.002335118 0.3913231759 -0.0022213051 -0.3072323396 0.0410129824
35299790.0 -0.3099098517 0.0398817916 0.3945872861 -0.0054825954 0.3949802125 -0.0052705257 -0.3038425299 0.0451579564
40299760.0 -0.3075143089 0.0434052906 0.3978375513 -0.0083846441 0.3979849927 -0.0085779235 -0.300125954 0.0485750023
45299730.0 -0.3048137752 0.0465281597 0.4009421533 -0.0129518172 0.4008110049 -0.0126655163 -0.2972385811 0.0518417551
50299700.0 -0.3026253193 0.0491839831 0.4036419145 -0.0173776289 0.4036439079 -0.0169283388 -0.2944046057 0.0541818995
55299670.0 -0.3003190318 0.0519567839 0.405497368 -0.0221533509 0.4057271442 -0.0220641315 -0.2918337717 0.057187964
60299640.0 -0.2979567657 0.0548117361 0.4075660592 -0.0272916876 0.4076955271 -0.0267468256 -0.2890378938 0.0594438805
65299610.0 -0.2964780816 0.0573309046 0.4090983052 -0.0318532208 0.4091798741 -0.0318977245 -0.2873022446 0.0616962853
70299580.0 -0.2948505748 0.0600882203 0.410588342 -0.0366613932 0.4103661765 -0.0368466416 -0.2848115796 0.0639424311
75299550.0 -0.2928165973 0.0624679464 0.4112455967 -0.0423257262 0.4113783653 -0.042292561 -0.2832574557 0.0661400213
80299520.0 -0.2914501637 0.0649136444 0.4122648769 -0.047576187 0.4125515527 -0.0472185357 -0.2816618768 0.0679625877
85299490.0 -0.290216281 0.0667951376 0.4127778631 -0.0524506443 0.4129491657 -0.0524948817 -0.2800109099 0.069967364
90299460.0 -0.2888588153 0.0694445788 0.4130686019 -0.0578894578 0.4135822826 -0.0579127879 -0.278167699 0.0721801881
95299430.0 -0.2872770437 0.0714547756 0.4136271888 -0.0632431036 0.4138139805 -0.0631979625 -0.2766972881 0.0742274394
100299400.0 -0.2864407461 0.0740701934 0.4133303726 -0.0683507914 0.4131273152 -0.0680932702 -0.2751285785 0.075795749
105299370.0 -0.2849264568 0.0765236656 0.4132863097 -0.0738348667 0.4133966356 -0.0733345482 -0.2738192207 0.0779390364
110299340.0 -0.2840043303 0.0789504846 0.4131890972 -0.0786090296 0.4131104403 -0.0783736847 -0.2729806666 0.0801561474
115299310.0 -0.2827393256 0.0808001185 0.412847408 -0.083780693 0.4129462645 -0.0835556775 -0.271533729 0.0826361646
120299280.0 -0.2818904358 0.0832744909 0.4123643883 -0.089123662 0.4125609778 -0.0887173799 -0.2702731312 0.0843132781
125299250.0 -0.2812032854 0.0853569696 0.4120358634 -0.0937464924 0.4121518425 -0.0936978657 -0.2695572247 0.0862629161
130299220.0 -0.2805257668 0.0881991446 0.411023172 -0.0992392225 0.4110186515 -0.0990518204 -0.2684076457 0.0885935422
135299190.0 -0.2791076344 0.0908250272 0.4105653897 -0.1042953204 0.4102499168 -0.1039236079 -0.2672717253 0.0910923341
140299160.0 -0.2784978964 0.0930843318 0.4096468959 -0.1092569227 0.4097293395 -0.1089595421 -0.2660399246 0.0932741504
145299130.0 -0.2774651746 0.0957148965 0.408845571 -0.1141776668 0.4084838209 -0.1141638803 -0.2651878825 0.0956300951
150299100.0 -0.2763754182 0.0982008063 0.4073424817 -0.1185431112 0.407849098 -0.1183938208 -0.2645071429 0.0984366562
155299070.0 -0.2758138778 0.1006152328 0.4069452809 -0.124270535 0.4064165485 -0.1237468734 -0.2629416519 0.1007947138
160299040.0 -0.2746599509 0.1032100373 0.4053362407 -0.1286078661 0.4050472563 -0.1286048254 -0.2625852307 0.1032933162
165299010.0 -0.2737008905 0.1060347509 0.4043193128 -0.1339518945 0.4045293608 -0.1337478593 -0.2612593846 0.1059163918
170298980.0 -0.2728997509 0.1086466291 0.4025889171 -0.1383459508 0.4028383345 -0.1383565743 -0.2598960808 0.1084189973
175298950.0 -0.2718129891 0.1112240208 0.4015972092 -0.1431782081 0.4013317685 -0.1429847584 -0.2594464764 0.1105803495
180298920.0 -0.2709985126 0.11395129 0.3998297212 -0.1479479835 0.39989065 -0.1474844491 -0.2584754324 0.1132375712
185298890.0 -0.2694259194 0.1161627701 0.3984037051 -0.1524058501 0.3983197497 -0.1523551466 -0.2573113374 0.1159766276
190298860.0 -0.268789038 0.1193574593 0.3971793323 -0.1573477455 0.3971970386 -0.1569641384 -0.256235945 0.1183360159
195298830.0 -0.2677133113 0.1219824152 0.3952750953 -0.1620740437 0.3954860481 -0.1615210982 -0.2551824178 0.1209557865
200298800.0 -0.2665959497 0.1247668829 0.393894825 -0.166602747 0.3934567938 -0.1665851381 -0.2543872974 0.1233558787
205298770.0 -0.2651656967 0.127720841 0.3915119915 -0.1716010004 0.3915796927 -0.1709249016 -0.2533162206 0.1256139349
210298740.0 -0.2644131162 0.1298203351 0.3899170824 -0.1753768469 0.3898926591 -0.1752821196 -0.2520652157 0.1287032901
215298710.0 -0.2634804562 0.1326332055 0.3878781914 -0.1803049531 0.3879060866 -0.1802671809 -0.2512534818 0.1310891032
220298680.0 -0.2620121991 0.1350598197 0.3856403058 -0.1843741955 0.3858872265 -0.1846384092 -0.2500481796 0.1332188455
225298650.0 -0.2611795958 0.1380280232 0.3841305228 -0.1889898992 0.3841504425 -0.1889974927 -0.2491557519 0.1356996662
230298620.0 -0.2597316625 0.1407887354 0.3818994767 -0.1933347359 0.3821874569 -0.1933784645 -0.2477254054 0.138455769
235298590.0 -0.2582288514 0.1438341397 0.3796504029 -0.1978524872 0.3797227527 -0.1974273146 -0.2463946338 0.1411741344
240298560.0 -0.2569585508 0.1461609991 0.3779581153 -0.2023153723 0.3778998755 -0.2022963438 -0.2455075973 0.1439215476
245298530.0 -0.2557614571 0.1492032647 0.3761270411 -0.206519995 0.3754972177 -0.2061805071 -0.2437926546 0.1454991342
250298500.0 -0.2543579531 0.1516994139 0.3728823967 -0.2108285035 0.3729577919 -0.2106965103 -0.2430186992 0.1484691896
255298470.0 -0.2530184278 0.1541717997 0.3701147473 -0.2147327242 0.3706546164 -0.2150355166 -0.2410839026 0.1511891442
260298440.0 -0.2515525535 0.1568519676 0.3683087313 -0.2192608271 0.3687806139 -0.2191117359 -0.2396328276 0.1535018099
265298410.0 -0.2499385781 0.1600459083 0.3658778939 -0.22341614 0.366125781 -0.2233476829 -0.2383618876 0.1563270797
270298380.0 -0.2486588593 0.1624979641 0.363584643 -0.2276369828 0.3637386387 -0.2273760755 -0.2367773915 0.1586097396
275298350.0 -0.2469649254 0.1651415558 0.3611615886 -0.2315994926 0.3612250062 -0.2317477792 -0.2350492304 0.1610847692
280298320.0 -0.2451028188 0.167832032 0.358726964 -0.2357295982 0.3586964389 -0.2358166073 -0.2335943418 0.1634886876
285298290.0 -0.2436820323 0.1706460329 0.3560342246 -0.2398515901 0.3557690841 -0.2394394143 -0.2320016665 0.165940439
290298260.0 -0.2417466138 0.1733750961 0.353498485 -0.2437126754 0.3535029297 -0.2435158338 -0.2300124234 0.1686197595
295298230.0 -0.2402074913 0.1754409469 0.3507912396 -0.2479664543 0.3505860954 -0.2477202212 -0.2280770849 0.1707819158
300298200.0 -0.2385971801 0.1784083342 0.3482927511 -0.2515620047 0.3480734696 -0.2519099946 -0.2268272 0.1736179192
305298170.0 -0.2363843138 0.1805629751 0.3449855055 -0.2558560154 0.3454137692 -0.2553109102 -0.2247030474 0.1758406411
310298140.0 -0.2348996106 0.183592816 0.342217858 -0.2595719322 0.3426721568 -0.2594374462 -0.2229605637 0.1778225356
315298110.0 -0.2329981582 0.1857144797 0.3395949789 -0.2632104739 0.339609027 -0.2634688794 -0.2212115322 0.180435468
320298080.0 -0.231309699 0.1883941344 0.3364631054 -0.2678763623 0.3363558627 -0.2670397172 -0.2193835078 0.1830510962
325298050.0 -0.2294399239 0.1907755303 0.3336653018 -0.2713240067 0.3333140178 -0.2712686409 -0.2180264326 0.1853419846
330298020.0 -0.2274409488 0.1930989309 0.3301408001 -0.2750457813 0.3303285361 -0.274799641 -0.2159420898 0.1875701585
335297990.0 -0.2257552232 0.1954969496 0.327056999 -0.2786539512 0.3270401463 -0.2782916535 -0.214553673 0.1904951006
340297960.0 -0.2242614127 0.1983425017 0.3240141878 -0.2824400869 0.3239115293 -0.2823108121 -0.2121826695 0.1928683922
345297930.0 -0.2223578448 0.2009058377 0.3206930446 -0.2860494224 0.3204832581 -0.2857262583 -0.2105377107 0.1950078717
350297900.0 -0.2202615379 0.2030327639 0.3172525371 -0.2893375323 0.3172626022 -0.2889591936 -0.2089117174 0.197898086
355297870.0 -0.2177192214 0.2062223816 0.3141938417 -0.2928336133 0.3141392232 -0.2926308177 -0.2071728432 0.1999393482
360297840.0 -0.2159484603 0.2083635855 0.3110447231 -0.2959973657 0.3114303689 -0.2960178965 -0.2050305024 0.2028888471
365297810.0 -0.213899821 0.2108336334 0.3078083339 -0.2998472654 0.3080727493 -0.29925545 -0.2026523539 0.2046791791
370297780.0 -0.2118518785 0.2133015295 0.3041129593 -0.3029191466 0.3046856575 -0.3026555759 -0.2008367987 0.2071606776
375297750.0 -0.2094966471 0.2158467968 0.3009148655 -0.3061457592 0.3017141104 -0.3064679224 -0.1989390053 0.2095033771
380297720.0 -0.2072791959 0.2179375947 0.2974457425 -0.3097021323 0.2978258754 -0.3091057818 -0.1969013314 0.2121086263
385297690.0 -0.2055190192 0.220134384 0.2940095015 -0.3126752221 0.2940700362 -0.313079421 -0.19457311 0.2144979911
390297660.0 -0.203218889 0.222833408 0.2908451738 -0.3162570181 0.2908368452 -0.3156690666 -0.1926848121 0.2162941866
395297630.0 -0.200542895 0.2249643557 0.2873647439 -0.3194533197 0.2873784677 -0.3191142555 -0.1899548212 0.2185248819
400297600.0 -0.1985215445 0.2274860296 0.2831896161 -0.3225087871 0.2837160325 -0.3221740053 -0.1882008827 0.2204627778
405297570.0 -0.196529304 0.2296764696 0.2798011442 -0.3253792538 0.2801075566 -0.3253447515 -0.1861453849 0.2227579237
410297540.0 -0.1941130242 0.2318339939 0.2766160097 -0.3288095749 0.276640299 -0.328675445 -0.1839251029 0.2250721748
415297510.0 -0.1914257778 0.2336593238 0.2727058662 -0.3316696616 0.2728940733 -0.3315614906 -0.1813249886 0.2273720508
420297480.0 -0.1893378475 0.236481647 0.2689485278 -0.3344928126 0.2689118312 -0.3345921538 -0.1792176641 0.2290200841
425297450.0 -0.1863498853 0.2383207661 0.26530228 -0.3371092436 0.2659559409 -0.3377526334 -0.17724583 0.2315214381
430297420.0 -0.1840801686 0.2403059328 0.2613690527 -0.3401531689 0.2617387584 -0.3400341974 -0.1746952269 0.2332067754
435297390.0 -0.1818983137 0.2424303484 0.2578358135 -0.3430201757 0.2575259027 -0.343089572 -0.1717439194 0.2351808423
440297360.0 -0.1792576771 0.2446532553 0.253860586 -0.3456145719 0.2544385277 -0.345882886 -0.1698003069 0.2366268555
445297330.0 -0.1765820592 0.246427753 0.2503673777 -0.3485304463 0.2503563059 -0.3483479651 -0.1672065118 0.2383612728
450297300.0 -0.1739862952 0.2483644233 0.2467179252 -0.3512584847 0.2463197343 -0.3515981616 -0.1646240877 0.2404837182
455297270.0 -0.1717328417 0.2503973144 0.2423175583 -0.3539043029 0.2426216123 -0.3539857331 -0.1621743637 0.2421998407
460297240.0 -0.1692174673 0.2525330499 0.238672099 -0.3564454763 0.2388543471 -0.3567088087 -0.1597563662 0.2442622782
465297210.0 -0.1662978103 0.2544251913 0.234646383 -0.3591942257 0.2347592901 -0.3593153854 -0.1568250616 0.246011983
470297180.0 -0.1634440626 0.2561690463 0.2303468997 -0.3617709095 0.2309462678 -0.3615448736 -0.1543154458 0.2480712083
475297150.0 -0.1611320558 0.2580919208 0.2265675578 -0.363781416 0.2270432842 -0.3633935863 -0.1514618747 0.2496063755
480297120.0 -0.1582358986 0.2601054896 0.2227811761 -0.3664680314 0.2226198797 -0.366763308 -0.1487801146 0.2516503396
485297090.0 -0.1557344353 0.2618790429 0.2188405195 -0.3684523025 0.2188793287 -0.3683455787 -0.1465495567 0.2531385866
490297060.0 -0.1533729171 0.2638373513 0.2149087372 -0.3714210293 0.2147003545 -0.3710752605 -0.1435323516 0.2551144442
495297030.0 -0.1504565784 0.2653490816 0.2106101206 -0.3733944775 0.210894262 -0.3730922673 -0.1412226845 0.2568828133
500297000.0 -0.1472425759 0.2672041835 0.2061836227 -0.3755714907 0.2064080609 -0.3756657334 -0.1381219335 0.2588239575
505296970.0 -0.1445739458 0.2686239464 0.2023997488 -0.3776388806 0.2023570799 -0.3780347512 -0.1354127089 0.2604025842
510296940.0 -0.1417308151 0.2703233592 0.1979678152 -0.3802785147 0.198165494 -0.3802336834 -0.1326470701 0.2620387772
515296910.0 -0.1389925562 0.2721391197 0.1939438885 -0.3820036276 0.1938487565 -0.3817256868 -0.1300102854 0.2633229776
520296880.0 -0.1362563024 0.2738181819 0.1896365296 -0.3846708405 0.1897460269 -0.3837981599 -0.1272585137 0.2645381365
525296850.0 -0.1329702134 0.2746261832 0.1853557158 -0.3861078994 0.1859961237 -0.3862431199 -0.1245773077 0.2663421533
530296820.0 -0.1301850211 0.2767243295 0.1812926184 -0.3882721729 0.1813481314 -0.3884084134 -0.121721292 0.2676378851
535296790.0 -0.127721639 0.2783333444 0.1772518255 -0.3900513358 0.1772925478 -0.3896534625 -0.119295805 0.2694369915
540296760.0 -0.1246576147 0.2801405927 0.1728867869 -0.3923218982 0.1726616413 -0.3921812336 -0.1163520366 0.270870232
545296730.0 -0.1219111797 0.2813033555 0.1682378867 -0.3934469015 0.1682897418 -0.3935150614 -0.1137322297 0.2719286792
550296700.0 -0.118354631 0.282753331 0.1637814789 -0.3956050497 0.1640800617 -0.395965602 -0.1110402034 0.2741460874
555296670.0 -0.1157387633 0.2836961719 0.1598451228 -0.3973695908 0.1601694488 -0.3974298489 -0.1080451964 0.2754096425
560296640.0 -0.1127891853 0.2857419146 0.1552871966 -0.3991970968 0.1559092419 -0.399055661 -0.1049829894 0.2765575498
565296610.0 -0.1099258082 0.2871670695 0.1508234881 -0.4009572628 0.1511535244 -0.4005245205 -0.1020988634 0.2769947183
570296580.0 -0.1071462199 0.288134778 0.1467020651 -0.4025343271 0.1464896708 -0.4023559927 -0.0996646185 0.278796895
575296550.0 -0.1039821701 0.2894981324 0.1425943238 -0.4037074292 0.1421186842 -0.4040275397 -0.096339037 0.2800379245
580296520.0 -0.1005292234 0.2907286563 0.1378698494 -0.4056428749 0.137707544 -0.4053016148 -0.0934421773 0.2810502759
585296490.0 -0.0979326293 0.2914926024 0.1334339642 -0.40654104 0.133859514 -0.4069003712 -0.0908306294 0.2823198667
590296460.0 -0.0946808755 0.2930026519 0.1291712017 -0.4077563419 0.1295998879 -0.4078299386 -0.0880826242 0.2836039051
595296430.0 -0.0915863427 0.293952301 0.1243136631 -0.4097931207 0.1243803108 -0.4094966666 -0.084932225 0.2840957923
600296400.0 -0.0888174643 0.2953026295 0.1202538985 -0.4110670354 0.1201974156 -0.4107023742 -0.0820738712 0.2851745456
605296370.0 -0.085916851 0.2962222067 0.1155425322 -0.4117831447 0.1156714343 -0.4118431598 -0.0784760013 0.2863018441
610296340.0 -0.0826886246 0.297285173 0.1110600889 -0.4133538514 0.1117673279 -0.4135691611 -0.0755265165 0.2873176901
615296310.0 -0.079037948 0.2980554644 0.1066540058 -0.4139809492 0.1064497324 -0.4146578192 -0.072593274 0.2879833098
620296280.0 -0.0764012062 0.2989034796 0.1019547689 -0.4151010308 0.1022404886 -0.415143572 -0.0700166103 0.2891954972
625296250.0 -0.0732209748 0.2998647499 0.0981348652 -0.4167871107 0.0977878947 -0.4165092739 -0.0661197566 0.2895081765
630296220.0 -0.069306705 0.3008533149 0.0924540003 -0.4175628542 0.0926598318 -0.4174522235 -0.0634624246 0.2908202101
635296190.0 -0.0671258695 0.3018650691 0.0885343754 -0.4183966608 0.0886844968 -0.4184708146 -0.0602845496 0.2914764129
640296160.0 -0.0636633056 0.3029346999 0.0841425819 -0.4191765474 0.0841568696 -0.4193222716 -0.0569837293 0.2921129292
645296130.0 -0.0603648497 0.3037539534 0.0790538673 -0.4200101958 0.0797962018 -0.4200054045 -0.0541576646 0.2931553002
650296100.0 -0.0572367222 0.3040604193 0.0748369213 -0.4207245815 0.0749773111 -0.4207979835 -0.0508949996 0.2929876449
655296070.0 -0.0539747122 0.3049220059 0.0700706272 -0.4215978354 0.0704631981 -0.4217601939 -0.047278473 0.2940713459
660296040.0 -0.0510594072 0.3052617059 0.0657313516 -0.4222577593 0.0658919433 -0.4224115985 -0.0442879444 0.2951589665
665296010.0 -0.0474766175 0.3057799442 0.0604909789 -0.4230068106 0.0611048286 -0.4232195866 -0.0410249591 0.2958843667
670295980.0 -0.0452559821 0.3069323593 0.0567203026 -0.4233915247 0.0565011782 -0.4236364842 -0.0386191237 0.2962107728
675295950.0 -0.0411633238 0.3075010096 0.0519079599 -0.4240007893 0.0522556763 -0.4236763416 -0.0353509058 0.2971887478
680295920.0 -0.0382116669 0.3081195352 0.0471682538 -0.4243788782 0.0469331771 -0.4248400525 -0.0322428549 0.2982784677
685295890.0 -0.0349437492 0.3089040371 0.0427906886 -0.4249999537 0.0426696121 -0.4252970233 -0.0291056623 0.2982719386
690295860.0 -0.0314895131 0.3090345384 0.0380933963 -0.4249315591 0.0381761822 -0.4256119017 -0.0258905645 0.2990735856
695295830.0 -0.0285200966 0.3094001916 0.0336691116 -0.4253073753 0.033402851 -0.4256555387 -0.0227719153 0.2992507555
700295800.0 -0.0251519527 0.3098941147 0.0288207014 -0.4257868389 0.0286171723 -0.4259114223 -0.0199371507 0.2999755923
705295770.0 -0.0221191604 0.3107599847 0.0243337421 -0.4264425893 0.0242828492 -0.4263445609 -0.0166611121 0.3003952711
710295740.0 -0.0185926509 0.3110001147 0.0194967207 -0.4269430808 0.0195272967 -0.4265106531 -0.0136770264 0.3003091827
715295710.0 -0.0158034468 0.3107904983 0.0154748391 -0.4266641532 0.0148433224 -0.4267146786 -0.0101058715 0.3007549974
720295680.0 -0.0122781119 0.3115483224 0.010230605 -0.4270300961 0.0106730647 -0.4268874705 -0.0071605379 0.3014795052
725295650.0 -0.009015048 0.3119455252 0.0058530707 -0.4271079002 0.0058783958 -0.4271249571 -0.004398048 0.3016015091
730295620.0 -0.0056273745 0.3122412443 0.0011824705 -0.4266058919 0.0015218797 -0.4271254757 -0.0012654749 0.3016006891
735295590.0 -0.0022168 0.3121851024 -0.0035859304 -0.4268051423 -0.0033595062 -0.4267362633 0.0013726593 0.3013979677
740295560.0 0.0006038416 0.3125816993 -0.0079035726 -0.426796074 -0.0083910692 -0.4270912757 0.0057988854 0.3020630357
745295530.0 0.0040598314 0.3127179086 -0.0129467599 -0.426278091 -0.0126031971 -0.4264706476 0.0082991788 0.3016163007
750295500.0 0.0073403039 0.3126355124 -0.0171723014 -0.4262030354 -0.0173870111 -0.4264804971 0.0113958002 0.3016467297
755295470.0 0.0106197631 0.3124970265 -0.021796265 -0.4261226056 -0.0220167178 -0.4261050691 0.014774954 0.3014026501
760295440.0 0.0137284016 0.3126530626 -0.0263893662 -0.4258799981 -0.0266891111 -0.4258876883 0.0177005251 0.3015961988
765295410.0 0.017065817 0.3127844375 -0.031155057 -0.4255280055 -0.0311173436 -0.4253637156 0.0209294818 0.301363214
770295380.0 0.0200364963 0.3123519233 -0.0359533568 -0.4248949408 -0.0357022257 -0.4250399335 0.0238709197 0.301206648
775295350.0 0.0231107354 0.3122342758 -0.0408289153 -0.4243665324 -0.0400608428 -0.4244368388 0.026759233 0.3013985187
780295320.0 0.0266009482 0.312405031 -0.0449329381 -0.4239263721 -0.0443007193 -0.4240050635 0.0300869636 0.3006444831
785295290.0 0.029839488 0.3115792532 -0.0498227736 -0.4230767943 -0.0493375595 -0.4235207414 0.0339011324 0.3006399097
790295260.0 0.0338027231 0.312043537 -0.0538817947 -0.4229049169 -0.0533780485 -0.4227146416 0.0369943318 0.3006837
795295230.0 0.0363807756 0.3117095863 -0.0583830851 -0.422020789 -0.0579444016 -0.4225368946 0.0405701786 0.3003909823
800295200.0 0.0397321247 0.3114570606 -0.0634066564 -0.4214088701 -0.0631745421 -0.421540948 0.0435615712 0.2999206022
805295170.0 0.0431421908 0.3108722607 -0.0676305584 -0.4208227289 -0.0678411635 -0.4209148374 0.0467349095 0.2996515684
810295140.0 0.0463892618 0.3104929996 -0.0718904336 -0.4199289563 -0.0720543135 -0.4199747506 0.0500360058 0.2994517257
815295110.0 0.0493438231 0.3103445286 -0.0767098046 -0.4188207527 -0.076585956 -0.4190142952 0.0531438137 0.2989300109
820295080.0 0.0528455493 0.3100270956 -0.0813658292 -0.4182166312 -0.0810123304 -0.4181313998 0.0560055718 0.2987063257
825295050.0 0.056214185 0.3093874335 -0.0853994784 -0.4172438375 -0.0855362641 -0.41716091 0.0592578796 0.2982154491
830295020.0 0.0593279116 0.3092191171 -0.0903101277 -0.4160582524 -0.0903934474 -0.416044697 0.0633342443 0.2978656611
