!Created with skrf (http://scikit-rf.org).
# Hz S RI R 50.0 
!freq ReS11 ImS11 ReS21 ImS21 ReS12 ImS12 ReS22 ImS22
300000.0 -0.2421024661 -0.0823851422 0.4728330432 0.0551730387 0.4674589475 0.0529897273 -0.2399307852 -0.0953739775
5299970.0 -0.2441938767 0.0071056131 0.4736417232 0.0049109513 0.4737095811 0.0054062964 -0.2441555243 0.0070731634
10299940.0 -0.2410645536 0.0186906036 0.4753765908 0.0062573767 0.4755930255 0.0066062666 -0.2407925552 0.0202212337
15299910.0 -0.2366424658 0.0278650615 0.4790650378 0.0078194113 0.4792361545 0.0080156145 -0.2362334944 0.0297510168
20299880.0 -0.232052276 0.035125897 0.4837531822 0.0084992786 0.4840333228 0.0081665299 -0.2309711902 0.0375173104
25299850.0 -0.2268901563 0.0420814756 0.489084484 0.0071245922 0.4889770178 0.0077740058 -0.2248904432 0.0438770041
30299820.0 -0.2214615377 0.047002332 0.4944363282 0.0056070296 0.4942645205 0.0055639686 -0.2192477303 0.0490231686
35299790.0 -0.2164586293 0.051350191 0.4997913173 0.0017497315 0.4999947868 0.0020083187 -0.2136483637 0.0533379742
40299760.0 -0.2112211075 0.0550133769 0.5048288359 -0.0021897243 0.5052938244 -0.0017682442 -0.2081753609 0.0561341509
45299730.0 -0.2066106824 0.0575693019 0.509592389 -0.0060132232 0.5100057279 -0.006487661 -0.2032772746 0.0587289172
50299700.0 -0.2023905118 0.0599754471 0.5141149006 -0.0117610882 0.5138582832 -0.0116679624 -0.1986745981 0.0605796634
55299670.0 -0.1985190783 0.0615329542 0.5180227289 -0.0182633657 0.5177576411 -0.0179953263 -0.194321144 0.0623175659
60299640.0 -0.1941272465 0.0637186949 0.521295393 -0.0241373749 0.5215547922 -0.0239343075 -0.1905526457 0.0630661091
65299610.0 -0.1909882424 0.0648373292 0.5241975023 -0.0308109402 0.524511481 -0.0304430481 -0.1871023164 0.0640828454
70299580.0 -0.1878455332 0.0663083196 0.5267206804 -0.0372384085 0.5268451163 -0.0371269091 -0.1838372227 0.0649097133
75299550.0 -0.1850616748 0.0672746046 0.5284299462 -0.0438981291 0.5284459723 -0.0439796779 -0.1808631705 0.0652733772
80299520.0 -0.1827240615 0.0682980476 0.530760976 -0.0511805167 0.530549779 -0.0508013133 -0.1784298884 0.0658854143
85299490.0 -0.1800311065 0.0688538871 0.5320189124 -0.0574493047 0.5317858773 -0.0574474887 -0.1761406248 0.0661253616
90299460.0 -0.1781587397 0.0697819269 0.5323911794 -0.0649222044 0.5327917555 -0.0647664952 -0.1736907312 0.0668861991
95299430.0 -0.1755898745 0.0704385544 0.533791181 -0.0716769269 0.5338065586 -0.0717531537 -0.1714437402 0.0672647336
100299400.0 -0.1738089124 0.0717462803 0.5336897966 -0.0783930584 0.5336565048 -0.0786745328 -0.1692838904 0.0674004719
105299370.0 -0.1722616741 0.0724857962 0.5340870885 -0.0857575526 0.5343800125 -0.085615837 -0.1674029319 0.0681147377
110299340.0 -0.1702618786 0.0734124581 0.5346824845 -0.0922480452 0.5342651311 -0.0918074984 -0.1662970528 0.0686532283
115299310.0 -0.1687784496 0.07417517 0.5346607386 -0.0992878259 0.5344112212 -0.0988895414 -0.1648931978 0.0689967667
120299280.0 -0.167321226 0.0747464706 0.5343030203 -0.1058033407 0.5343194107 -0.1056817954 -0.1632795159 0.0695039064
125299250.0 -0.1659783876 0.0753960484 0.5335298414 -0.112486901 0.5341038217 -0.1122485755 -0.1623357767 0.0696787047
130299220.0 -0.1648809309 0.0767947566 0.5330571069 -0.1195640271 0.5331074423 -0.1193049667 -0.1610560004 0.0703405462
135299190.0 -0.1637330276 0.0780637888 0.5329152786 -0.1262677811 0.5324282855 -0.1258895811 -0.1598211616 0.0711883271
140299160.0 -0.1628299226 0.0790976141 0.5321977069 -0.1330058944 0.5320894874 -0.1327652753 -0.158647563 0.0721684588
145299130.0 -0.1615717954 0.0800233303 0.5313978493 -0.1395828776 0.5308275691 -0.1391573568 -0.157708988 0.0730013177
150299100.0 -0.1601073972 0.0813207432 0.5294809754 -0.1455882985 0.5298164399 -0.1453501359 -0.1568695016 0.0741303451
155299070.0 -0.159443221 0.0819856609 0.5286843657 -0.1526363587 0.5284770882 -0.1521861889 -0.1556004093 0.0748374999
160299040.0 -0.1581561949 0.0836780245 0.5273962281 -0.1588087876 0.5269952428 -0.1588767632 -0.155669051 0.075612245
165299010.0 -0.1571811926 0.0846684842 0.5258442533 -0.1653897756 0.5260176805 -0.1651175753 -0.1543125588 0.0768825182
170298980.0 -0.156369218 0.0856019315 0.5243413384 -0.1716791823 0.5243250565 -0.1714259083 -0.1533797634 0.0777437276
175298950.0 -0.1556107976 0.0871633287 0.5229642095 -0.1777582786 0.5223273381 -0.1777107725 -0.152968544 0.0786210599
180298920.0 -0.1548207783 0.0883672391 0.5209438588 -0.1842215711 0.5210680767 -0.1839581511 -0.1522398443 0.0799202687
185298890.0 -0.1532594466 0.08940419 0.5189777069 -0.1902311136 0.518791282 -0.1902820673 -0.1513386534 0.0810730628
190298860.0 -0.152687588 0.0909214454 0.5173813046 -0.1966473842 0.5177484839 -0.1963067853 -0.1506290792 0.0817322803
195298830.0 -0.1519216 0.0919300313 0.5154475029 -0.2027968243 0.5153456442 -0.2027953897 -0.1496545371 0.0828154643
200298800.0 -0.1506076976 0.0934896111 0.5127428052 -0.2088151024 0.5130075331 -0.209063566 -0.1492257416 0.0843702698
205298770.0 -0.1498098383 0.0949111866 0.5108603549 -0.2151150498 0.5108741535 -0.2143443332 -0.1486372739 0.084765805
210298740.0 -0.1488683829 0.0959826214 0.5087885341 -0.2205296137 0.5083181869 -0.2201218768 -0.1476119635 0.0863547286
215298710.0 -0.1484996868 0.0979119373 0.5066000089 -0.2269971449 0.5061874974 -0.2269694305 -0.1473207909 0.0877175224
220298680.0 -0.1470204501 0.098717671 0.503482943 -0.2326457898 0.503431187 -0.2328367485 -0.1468758047 0.088693362
225298650.0 -0.1462231155 0.1006636001 0.5012255894 -0.2385168314 0.5018360678 -0.2386524972 -0.1465214822 0.0896891869
230298620.0 -0.1451733149 0.1019237086 0.4989315649 -0.2442585055 0.4994029231 -0.2442432648 -0.145740196 0.0906966739
235298590.0 -0.1437962519 0.1038726264 0.4959252359 -0.2497625682 0.4965937822 -0.2494938306 -0.144638836 0.0920958763
240298560.0 -0.1433282713 0.1051334263 0.4939911851 -0.2557117704 0.4932536668 -0.2560669286 -0.1437761144 0.093836211
245298530.0 -0.1421613697 0.1064537966 0.490901418 -0.2614573296 0.4909356343 -0.2615870185 -0.1431709213 0.0940218478
250298500.0 -0.1409317282 0.1079973976 0.4871650207 -0.2672750974 0.4874875538 -0.2667002351 -0.1425679776 0.0957059766
255298470.0 -0.1400726025 0.1094136176 0.484798346 -0.2725578455 0.4850633026 -0.2723859526 -0.1415317321 0.0966941202
260298440.0 -0.1390475892 0.1104014565 0.4820128478 -0.2785365918 0.481906877 -0.2782514657 -0.1405608718 0.0982063224
265298410.0 -0.1375208367 0.1126642473 0.4787226627 -0.2841522215 0.4790643172 -0.2835425329 -0.139900948 0.099428502
270298380.0 -0.1366052431 0.113867215 0.4761648088 -0.2887560905 0.4761542331 -0.2890012515 -0.1391374975 0.1005233829
275298350.0 -0.1350215537 0.1152455841 0.472755794 -0.294683048 0.4729074664 -0.2947326235 -0.1378385558 0.101915668
280298320.0 -0.13413502 0.1167920194 0.4699837966 -0.2996871471 0.4695767514 -0.2999216742 -0.1368316212 0.1030540766
285298290.0 -0.1330963301 0.1185177145 0.4666973862 -0.3051839386 0.466335521 -0.3054958463 -0.1360373414 0.1042393402
290298260.0 -0.131394203 0.1196228689 0.4627371009 -0.3103251908 0.463269984 -0.3108838929 -0.1349879151 0.1057798755
295298230.0 -0.1302063588 0.1208171393 0.4599271727 -0.3156161213 0.460096495 -0.3159467905 -0.1339089135 0.1064830458
300298200.0 -0.129078642 0.1224389679 0.4566847118 -0.3207460965 0.4565760147 -0.3212521454 -0.1327499663 0.1079507586
305298170.0 -0.1276695502 0.1235330961 0.4523194079 -0.3265191085 0.4528241935 -0.3262656811 -0.131074855 0.1091006872
310298140.0 -0.126585849 0.1252738228 0.448905559 -0.3317368378 0.4493675096 -0.3312885851 -0.1306446203 0.1102990715
315298110.0 -0.1252810011 0.126301373 0.4457124243 -0.3365887932 0.4457921702 -0.3368507251 -0.1297104688 0.1114941971
320298080.0 -0.1238751078 0.1277696976 0.4415095989 -0.3421729148 0.4416058989 -0.342107125 -0.1284369308 0.1127841407
325298050.0 -0.1225575113 0.1290013884 0.4379677095 -0.3469832981 0.4379800746 -0.3468996928 -0.1279659287 0.1140091542
330298020.0 -0.1213127958 0.1300126281 0.4337173555 -0.3520019706 0.4341771927 -0.3515929564 -0.1270535327 0.1152660326
335297990.0 -0.1199902446 0.1311485445 0.4299298925 -0.3566842176 0.4298262037 -0.3568154108 -0.1266323363 0.1170383218
340297960.0 -0.1192202431 0.1329084246 0.4253042781 -0.361206168 0.4255865567 -0.3618215873 -0.1249172327 0.1183961826
345297930.0 -0.1178384739 0.1349028188 0.4213357536 -0.3660690847 0.4214653061 -0.3665046222 -0.1242100736 0.119206177
350297900.0 -0.1164626811 0.135743831 0.4168371132 -0.3710829705 0.41744402 -0.3709322099 -0.1234878999 0.1211241742
355297870.0 -0.1151746434 0.1376082445 0.4129535543 -0.3756592933 0.4134246259 -0.3754165584 -0.1223682993 0.1218778866
360297840.0 -0.1137054259 0.1384713769 0.4095018172 -0.3797147918 0.4099008882 -0.3799056984 -0.1212431036 0.1237360599
365297810.0 -0.11265684 0.1403929741 0.4048474212 -0.3844756613 0.4053743003 -0.3845547561 -0.1199287708 0.1251348443
370297780.0 -0.1106656637 0.1414241316 0.4004205952 -0.3886190409 0.4012124482 -0.3886045282 -0.1188316834 0.1264547301
375297750.0 -0.1091511544 0.1428487468 0.3964244312 -0.393395504 0.3967540141 -0.3930991977 -0.117742759 0.1275118548
380297720.0 -0.1079286391 0.1440090903 0.3921640986 -0.3978209314 0.392271298 -0.3967912379 -0.1169863936 0.1287262533
385297690.0 -0.1064466383 0.1455838877 0.3875376524 -0.4016402497 0.3877935417 -0.401828984 -0.1157202157 0.1300593286
390297660.0 -0.1044552121 0.1470472891 0.3832380751 -0.4063724997 0.3831583632 -0.4058912345 -0.1148497516 0.1313797747
395297630.0 -0.103312564 0.1483991089 0.3788989649 -0.4103010191 0.3789754924 -0.4105552639 -0.1131047471 0.1324666739
400297600.0 -0.1017749257 0.1496933829 0.373844797 -0.4151399325 0.3743562206 -0.4145985695 -0.1121873459 0.133887826
405297570.0 -0.1004595893 0.150761184 0.3698777309 -0.4185542928 0.3698596028 -0.4180379883 -0.1112649205 0.134718542
410297540.0 -0.0984440394 0.1518853242 0.3652506788 -0.4225372959 0.3654918053 -0.4226319725 -0.1098600874 0.1365044604
415297510.0 -0.0963407539 0.1532260382 0.3598552416 -0.4269647247 0.3606351667 -0.4264992016 -0.1085729599 0.1374589702
420297480.0 -0.0953557614 0.1547750657 0.3553305759 -0.4305142667 0.3555439897 -0.430880997 -0.107495588 0.1385305039
425297450.0 -0.0934447747 0.1552983218 0.3514889469 -0.4344879983 0.3513228447 -0.4346338357 -0.1063626995 0.1401329327
430297420.0 -0.0916819371 0.156438221 0.3459563244 -0.4375960406 0.346338192 -0.4375501729 -0.1051896377 0.1407739693
435297390.0 -0.0902790847 0.1578608369 0.3408704058 -0.4420909796 0.3411493137 -0.4420143346 -0.103133598 0.1418528342
440297360.0 -0.0884648786 0.1591830312 0.3365679551 -0.4452368383 0.3364377773 -0.4454032379 -0.1022602101 0.1430141435
445297330.0 -0.0868482969 0.1598335157 0.3318520747 -0.4491509013 0.3319412502 -0.4487604697 -0.1007709897 0.1439315704
450297300.0 -0.0846475803 0.1611460416 0.3267414485 -0.4528348612 0.3265914053 -0.4530104059 -0.0992886863 0.1447497711
455297270.0 -0.0831087715 0.1624351062 0.3213801217 -0.4562241997 0.3219232719 -0.4566570559 -0.0979613075 0.1457108115
460297240.0 -0.0814392127 0.1633156173 0.3166709179 -0.4599296222 0.3168394782 -0.4599742983 -0.096601181 0.1474032959
465297210.0 -0.0793647969 0.1643344623 0.3115240495 -0.4634021579 0.3117031525 -0.4635237476 -0.0951346521 0.1480805157
470297180.0 -0.0778299466 0.1651122842 0.3064933927 -0.4665048043 0.3068752503 -0.4667691358 -0.0934905912 0.1495320528
475297150.0 -0.0759772659 0.165998805 0.3011344108 -0.4694355929 0.3014485853 -0.4698322491 -0.0918461682 0.1500323326
480297120.0 -0.0743068333 0.1672951494 0.2963206402 -0.4729181485 0.2959370845 -0.473394099 -0.0906555686 0.151167032
485297090.0 -0.0722966105 0.1682726691 0.2912722483 -0.4760372236 0.2910053549 -0.4759996097 -0.0888562624 0.1521546927
490297060.0 -0.0709182118 0.1689291057 0.2859470144 -0.4794255402 0.2863456253 -0.4792460091 -0.0874770322 0.1537782842
495297030.0 -0.0688445772 0.1700458913 0.2803425831 -0.4825282066 0.2813998901 -0.4823360155 -0.0861802751 0.1545113591
500297000.0 -0.0670061825 0.1709359213 0.2754628147 -0.4853027718 0.2752012115 -0.4849227395 -0.0844862164 0.1557032393
505296970.0 -0.065017362 0.1717617396 0.2699523528 -0.4879079573 0.269804597 -0.4881880132 -0.0831108284 0.1565350293
510296940.0 -0.0631511478 0.1728116939 0.264735953 -0.4913552012 0.2645298172 -0.4912460508 -0.0815846488 0.1574711821
515296910.0 -0.0613019028 0.1733975581 0.2591527288 -0.494188446 0.2592933776 -0.4938939082 -0.0797996567 0.1584512487
520296880.0 -0.0591752707 0.1743607011 0.2536214945 -0.4973215402 0.2539705722 -0.4968220816 -0.0788666977 0.1591657309
525296850.0 -0.0571925492 0.1744656456 0.2482735781 -0.4992650919 0.2486464185 -0.4995231381 -0.0772143833 0.1602138607
530296820.0 -0.0553916426 0.1758971472 0.24284077 -0.5022229573 0.2430960045 -0.5023889449 -0.0756511844 0.1613658847
535296790.0 -0.0537231419 0.1766974438 0.2374275688 -0.5045821565 0.2378746644 -0.5045171833 -0.0743552684 0.1620382451
540296760.0 -0.0517620571 0.1773145676 0.2317130809 -0.5074212356 0.2317881688 -0.5077073989 -0.0725560956 0.16325035
545296730.0 -0.0498154535 0.178176531 0.2264345589 -0.5094159263 0.226311723 -0.5097628872 -0.0713020998 0.1637773484
550296700.0 -0.0473637456 0.1790451702 0.2208481529 -0.5123270803 0.2212758603 -0.5128605961 -0.0702515743 0.1651508669
555296670.0 -0.0458138729 0.1790926592 0.2153365167 -0.5145434429 0.2155791029 -0.514507318 -0.0679969201 0.1660874702
560296640.0 -0.0433781267 0.180477141 0.2095525181 -0.517068493 0.2099323058 -0.5169690985 -0.0662615268 0.1666554531
565296610.0 -0.0419708539 0.1806261196 0.2037822438 -0.5192313534 0.204256373 -0.5191111352 -0.0650890153 0.1669589131
570296580.0 -0.0401676193 0.1816495909 0.1987934333 -0.5219022206 0.1981400379 -0.5212957903 -0.0636038628 0.1685754793
575296550.0 -0.038100514 0.1823176774 0.192909056 -0.5237369986 0.1926063879 -0.523645512 -0.0618093712 0.168842804
580296520.0 -0.0357909832 0.1825810188 0.1871233243 -0.5255373688 0.1872033409 -0.525565316 -0.0601002372 0.1696924633
585296490.0 -0.0339090592 0.1827034853 0.1812848444 -0.5271748575 0.1819753047 -0.5277352726 -0.05852979 0.1701733612
590296460.0 -0.0315663791 0.1837272724 0.1756007065 -0.5288843586 0.1760894648 -0.5292884286 -0.0572569965 0.1711087728
595296430.0 -0.0294006324 0.1842383534 0.1693560225 -0.5314857006 0.1698640143 -0.531215147 -0.0551680343 0.1712834418
600296400.0 -0.0282004425 0.1844660434 0.1642114655 -0.5330454642 0.1640326969 -0.5329608493 -0.0539231841 0.1720214885
605296370.0 -0.0260063331 0.1848764872 0.1586465714 -0.5342969661 0.1585837891 -0.5347527083 -0.0518655744 0.1728546117
610296340.0 -0.0236686677 0.1854534393 0.1520327348 -0.5365032232 0.1529578674 -0.5364717992 -0.05041724 0.1732301256
615296310.0 -0.0213550539 0.1855332236 0.1462028008 -0.5380929415 0.1461664711 -0.5381402967 -0.0480821797 0.1738590631
620296280.0 -0.0194247564 0.1857261185 0.1407155566 -0.5392332377 0.1411035114 -0.5389215299 -0.046698704 0.1745409082
625296250.0 -0.0177860407 0.1860537793 0.135431027 -0.5411338694 0.1350858658 -0.5411479787 -0.0447585724 0.1753534797
630296220.0 -0.0148715041 0.1868310957 0.1284506501 -0.5421975937 0.1291072676 -0.5418734584 -0.0432946857 0.1757002191
635296190.0 -0.0138393708 0.1869285214 0.1231647013 -0.543157033 0.1233246223 -0.5436473013 -0.0414299824 0.1761338242
640296160.0 -0.0118080585 0.1871814419 0.1172456013 -0.5448375519 0.1176031982 -0.5447164726 -0.0398788571 0.17680511
645296130.0 -0.0092327268 0.1875764823 0.1110300576 -0.5459168948 0.1117705875 -0.5461108581 -0.0379320609 0.1774360512
650296100.0 -0.0072632301 0.1875362954 0.1054212508 -0.5467672282 0.1059238478 -0.5470271782 -0.0360491583 0.1775533773
655296070.0 -0.0050441502 0.1876015515 0.0995640552 -0.5484388277 0.099706456 -0.5480040952 -0.0342608535 0.1783181823
660296040.0 -0.0034246123 0.1877752715 0.0934052296 -0.5494329213 0.0938738551 -0.5492837073 -0.0323830923 0.1788234489
665296010.0 -0.0010604254 0.187863424 0.0876219179 -0.5497514499 0.088120701 -0.549965949 -0.0305352395 0.1797350056
670295980.0 0.0002757456 0.1885704718 0.0818542251 -0.550694437 0.0817420871 -0.5509645142 -0.0295959381 0.1800341011
675295950.0 0.0025911965 0.1887984566 0.0762702706 -0.5516054859 0.0762709137 -0.5511328567 -0.0278581673 0.180433176
680295920.0 0.0046612668 0.1885524994 0.0694849961 -0.5524576267 0.0689413964 -0.5530794334 -0.0256297732 0.1814273284
685295890.0 0.0069256393 0.1891953777 0.0637403229 -0.5530891003 0.0637885775 -0.5533185022 -0.024080696 0.1817194363
690295860.0 0.0092114984 0.1890107919 0.0578641735 -0.5533503556 0.0578436948 -0.5540245191 -0.0224196544 0.1824965043
695295830.0 0.0109319347 0.1886045486 0.0522375064 -0.5543516221 0.0515569079 -0.5543808885 -0.0205779719 0.1825058237
700295800.0 0.0135114746 0.1885582547 0.0456003525 -0.5546095091 0.0458276111 -0.5547844438 -0.0190394185 0.1832505343
705295770.0 0.0151199861 0.1891616632 0.0395311584 -0.5551166677 0.0401762783 -0.5555867819 -0.0170556839 0.1836028118
710295740.0 0.0176397567 0.1890444017 0.0343229772 -0.5562528662 0.0342076056 -0.5562859118 -0.0152363939 0.1836682176
715295710.0 0.0191355885 0.1887359038 0.0285079655 -0.5563158089 0.0276988279 -0.5561044352 -0.0132184364 0.1837687668
720295680.0 0.0214507045 0.1886202842 0.0223199632 -0.5562241639 0.0224947169 -0.5565610611 -0.0119667518 0.1848379439
725295650.0 0.0236377277 0.1887538984 0.0158630517 -0.5564122709 0.0159534219 -0.5567526871 -0.0104146895 0.1850808461
730295620.0 0.0257756892 0.1888832506 0.0099971656 -0.5564182954 0.0102367306 -0.5565889629 -0.0086916437 0.1847906093
735295590.0 0.0278533047 0.1886202152 0.0037336007 -0.5568765023 0.0038139122 -0.5569382221 -0.0068535434 0.1850425363
740295560.0 0.0294157099 0.1886254454 -0.0018431232 -0.5566933444 -0.0019483317 -0.5569496053 -0.0044473412 0.1856416606
745295530.0 0.0316838996 0.1884253238 -0.0078727341 -0.5560723417 -0.0080177859 -0.5565992017 -0.0030117055 0.1850581279
750295500.0 0.0341295553 0.1880781792 -0.0143899981 -0.5562524336 -0.0142178817 -0.5565989382 -0.0012564257 0.1857816056
755295470.0 0.0358947162 0.1874775456 -0.0199976963 -0.5561635812 -0.0198653446 -0.5560340795 0.000906024 0.1851328575
760295440.0 0.0380413337 0.1876482804 -0.0261845354 -0.5559150004 -0.0259162635 -0.5560522022 0.002560973 0.1851575562
765295410.0 0.0402243349 0.1872269233 -0.0320971501 -0.5553625048 -0.0324074857 -0.555678838 0.0041943956 0.1860529287
770295380.0 0.0419980734 0.1867936476 -0.0385119895 -0.5553075584 -0.0378558798 -0.5549445684 0.0057510679 0.1855650745
775295350.0 0.0438284043 0.186114588 -0.0442665887 -0.554272015 -0.0435958076 -0.5546477291 0.0072826675 0.1861258661
780295320.0 0.0463025416 0.1858849798 -0.0501353632 -0.5538538772 -0.0491908257 -0.5536434167 0.0094012198 0.1856601635
785295290.0 0.0479246979 0.1851311736 -0.0565263175 -0.5529500118 -0.0558376896 -0.5532950736 0.0116861478 0.185727023
790295260.0 0.0505773477 0.1854645364 -0.0612685866 -0.5524982792 -0.0610413763 -0.5526284051 0.0136443721 0.1859940854
795295230.0 0.0522678873 0.1845406263 -0.0677676013 -0.5518208034 -0.067541019 -0.5524061366 0.0155902597 0.1862320983
800295200.0 0.0540638648 0.1846279973 -0.0737710222 -0.5508947117 -0.0736337588 -0.5512816613 0.0172511568 0.185699399
805295170.0 0.0563617584 0.1838607111 -0.079509433 -0.5501239473 -0.0794746283 -0.5503586685 0.0189842265 0.1860025252
810295140.0 0.0579611599 0.1832911071 -0.0854431296 -0.5490755155 -0.0857989566 -0.5495360881 0.0210656548 0.1863139951
815295110.0 0.0602003012 0.1823557325 -0.0915082287 -0.5483717505 -0.0914439532 -0.548163576 0.0227056782 0.1857371049
820295080.0 0.0619996883 0.1825425188 -0.097187121 -0.5472957385 -0.0967843168 -0.5474743345 0.0245848744 0.1860459853
825295050.0 0.064526933 0.1817133737 -0.102627548 -0.5458107029 -0.1030649116 -0.5465971596 0.0264620293 0.1861811435
830295020.0 0.0663404684 0.1814346413 -0.1089675694 -0.5448467687 -0.1088225598 -0.5450689142 0.029293626 0.1858668556
