!Created with skrf (http://scikit-rf.org).
# Hz S RI R 50.0 
!freq ReS11 ImS11 ReS21 ImS21 ReS12 ImS12 ReS22 ImS22
300000.0 -0.7739714851 -0.0915888728 -0.0012089797 -0.0009153188 -0.0003032121 0.000484584 -0.044138828 -0.0614728588
5299970.0 -0.7847125053 -0.0052700145 3.76755e-05 0.0004187645 0.0001934757 -0.0001255366 -0.0455356586 0.0157746363
10299940.0 -0.7876244854 -0.0036730918 -2.81824e-05 2.18431e-05 5.922e-06 7.53634e-05 -0.0397252087 0.0336911418
15299910.0 -0.79323211 -0.0020053859 -6.34896e-05 -4.13875e-05 -9.28355e-05 6.4396e-05 -0.0314462378 0.0481906953
20299880.0 -0.8003901552 0.0023190815 -0.0001368753 2.24343e-05 -0.0001302344 -0.0001025813 -0.021020085 0.0600952539
25299850.0 -0.8062288468 0.0081495442 5.59324e-05 3.87898e-05 0.0001323562 -2.30012e-05 -0.0097558407 0.0697207048
30299820.0 -0.8120765853 0.0153480872 2.84143e-05 0.0001041459 -0.0001818703 1.73549e-05 0.0018694523 0.0764775853
35299790.0 -0.8176630883 0.0248542344 0.0001590809 0.0002487713 -7.1236e-06 8.81635e-05 0.0132895416 0.0813089878
40299760.0 -0.8211699085 0.034179633 -1.5111e-05 0.0001062522 2.9718e-06 -2.08838e-05 0.0244101859 0.0841884328
45299730.0 -0.8244975337 0.0433066903 -9.38454e-05 0.0001390362 -1.9387e-06 8.87435e-05 0.0352800696 0.0859107929
50299700.0 -0.8274705211 0.0528573159 0.000157907 -0.0001434754 -1.69448e-05 0.0001521406 0.0453265442 0.0856408766
55299670.0 -0.8292152082 0.0629357872 3.2826e-06 2.70345e-05 -0.0002000757 -0.0001334811 0.0544761439 0.0845627995
60299640.0 -0.8297732114 0.073711079 -7.23614e-05 1.15882e-05 -3.03099e-05 0.0001094814 0.0630315159 0.0825118611
65299610.0 -0.8311159958 0.0838098839 0.0001745134 -0.0001015255 4.67716e-05 9.06634e-05 0.0705272316 0.0801151243
70299580.0 -0.8319840417 0.0943177638 -8.7173e-06 -6.7549e-06 1.2792e-05 4.12131e-05 0.077617848 0.077299118
75299550.0 -0.831785404 0.1035437499 -0.0001183099 -0.0002592975 0.0002507716 0.0002358446 0.0840258777 0.0739234831
80299520.0 -0.8315890247 0.1141859867 -8.94337e-05 -1.87366e-05 -0.000142281 1.76324e-05 0.0891540191 0.070610775
85299490.0 -0.8311329298 0.1232163912 5.36988e-05 -1.33204e-05 0.0002285225 -6.90261e-05 0.0942855988 0.0667619765
90299460.0 -0.8301754831 0.1324818385 -1.48981e-05 -5.54432e-05 5.75867e-05 -9.36621e-05 0.0991384018 0.0630024154
95299430.0 -0.8291706275 0.1417893715 0.000139924 0.0001280409 -6.90269e-05 9.34302e-05 0.103280709 0.0590114123
100299400.0 -0.8282286485 0.1514031127 4.89054e-05 0.0001687226 2.70083e-05 0.0001106772 0.1071024593 0.0547574732
105299370.0 -0.8270654266 0.1611418533 0.0002344336 8.21439e-05 0.0001790344 0.0001037031 0.1106462379 0.0509531798
110299340.0 -0.8254037896 0.1695994776 -8.739e-05 -0.00012622 8.59433e-05 -3.6651e-06 0.1131586166 0.0472314761
115299310.0 -0.8241744255 0.1790859045 7.42811e-05 -2.6177e-06 0.0002314559 0.0001115334 0.1158028534 0.0432094473
120299280.0 -0.8219989543 0.1873314943 -2.72595e-05 0.0001409241 -5.72183e-05 0.0001430224 0.1183270227 0.0395395701
125299250.0 -0.8203989116 0.1960234072 9.6297e-05 0.0001944422 -8.60404e-05 0.0001856234 0.1203965229 0.0353744595
130299220.0 -0.818430684 0.2059454878 0.0001192326 0.0001344329 -0.0001361966 1.8028e-05 0.1216611409 0.0317756079
135299190.0 -0.8166347617 0.2148068273 0.0002128758 3.91766e-05 7.6561e-06 5.1422e-05 0.1233954373 0.0283480358
140299160.0 -0.8142539532 0.2232616661 0.0001559939 7.16373e-05 6.22602e-05 8.22982e-05 0.1250258646 0.0251323479
145299130.0 -0.812429689 0.2324423125 7.95931e-05 0.0002708501 -5.84628e-05 7.07097e-05 0.1259041058 0.0215758718
150299100.0 -0.8099625254 0.2410928105 -3.05591e-05 1.83281e-05 0.0001302593 0.0002153055 0.1268196612 0.0186301187
155299070.0 -0.8073944918 0.2496100366 0.000163514 9.82391e-05 5.45871e-05 -3.45838e-05 0.1278576073 0.0153356582
160299040.0 -0.8045385101 0.258643687 -5.25011e-05 0.0002146518 0.0001306367 0.0001771797 0.1282973075 0.0119976707
165299010.0 -0.8024780581 0.2670995368 0.0001476509 5.20059e-05 5.88455e-05 0.0001240263 0.1293307562 0.0089533451
170298980.0 -0.7997061562 0.2755659035 -6.75862e-05 0.0002388072 5.69305e-05 6.13278e-05 0.1296851138 0.0059787729
175298950.0 -0.7973828599 0.284092411 -2.73104e-05 5.133e-06 1.4066e-06 -0.000214124 0.1298921869 0.003205858
180298920.0 -0.7943925167 0.2931908117 -0.000212688 2.1614e-05 -0.0001426093 0.0001844639 0.1301442639 0.000628585
185298890.0 -0.7914599778 0.3010756357 0.0002009646 3.06233e-05 5.2577e-05 -0.0001292673 0.1304434332 -0.002305715
190298860.0 -0.7883974379 0.309747969 0.0001998655 3.11406e-05 4.77514e-05 0.0001448386 0.1304942315 -0.0049954677
195298830.0 -0.7851789131 0.3180397855 0.0001040861 0.0001456087 -3.68587e-05 -5.7664e-06 0.130101762 -0.0075476423
200298800.0 -0.781431293 0.3264689417 0.000109233 7.77642e-05 0.0002282937 0.000306623 0.1300703466 -0.0104563922
205298770.0 -0.7782646058 0.3344513289 0.0002163197 0.000111689 7.2991e-06 0.0002258552 0.1300130347 -0.0130986909
210298740.0 -0.7748130536 0.3424777568 0.0001257344 -4.61999e-05 -0.0001384738 0.0001146923 0.1297725252 -0.0150642512
215298710.0 -0.7717393955 0.3506345414 4.01051e-05 -1.2175e-05 8.24303e-05 5.68092e-05 0.1290312072 -0.0177850912
220298680.0 -0.7672944195 0.3592343071 0.0002058954 -6.27387e-05 4.51782e-05 0.0002830995 0.128470135 -0.0202283505
225298650.0 -0.7645762213 0.3666817185 2.14366e-05 -0.0001470688 -2.29022e-05 0.0002786375 0.1281238775 -0.0226056645
230298620.0 -0.7602140581 0.374716259 -0.0001679003 8.62751e-05 0.00017794 4.78932e-05 0.1276725333 -0.0250044857
235298590.0 -0.7558977282 0.383397454 3.38308e-05 -4.22002e-05 0.0001303165 0.0002047272 0.1270841088 -0.0271590628
240298560.0 -0.7519404571 0.3915565209 2.41655e-05 0.00022632 0.0001115857 0.0001151419 0.1263408137 -0.0295848345
245298530.0 -0.7485826945 0.3992844645 -0.0001213464 8.68813e-05 -2.43083e-05 0.0001998433 0.1258412936 -0.0321017123
250298500.0 -0.7442813163 0.4068342291 -6.45278e-05 0.0001995315 2.58885e-05 0.0001449525 0.1248406217 -0.0339575529
255298470.0 -0.7391361925 0.4145550124 0.0002003219 0.000132569 -0.0001354288 0.0001108132 0.1242711957 -0.0364276401
260298440.0 -0.7351254835 0.4223572 0.0001305184 0.000123546 8.7458e-06 5.32041e-05 0.1239429063 -0.0383604153
265298410.0 -0.7313715336 0.4303909626 9.01786e-05 0.0001404655 6.4477e-05 0.0002284369 0.1231309254 -0.0403271792
270298380.0 -0.7266683308 0.4379620824 0.0002250105 0.0001124679 -9.2739e-06 8.50979e-05 0.1225514448 -0.0423002721
275298350.0 -0.7220175566 0.4450729997 0.0001714484 2.46902e-05 0.0002745776 0.0003543142 0.1219646293 -0.044071369
280298320.0 -0.7169550064 0.4526517262 4.7474e-06 0.0001758042 0.0001637542 1.81423e-05 0.1213078665 -0.0464332729
285298290.0 -0.7127167895 0.4603196983 0.0001874727 3.73093e-05 0.0001144671 5.89144e-05 0.1205296926 -0.0484158737
290298260.0 -0.7079916109 0.4679594764 -2.33917e-05 0.0001523869 8.50508e-05 0.0002442598 0.1201171599 -0.0500571871
295298230.0 -0.7026809025 0.4746048312 8.21403e-05 0.0001510755 -5.51905e-05 -1.22176e-05 0.1192930854 -0.0520549016
300298200.0 -0.6977138822 0.4820032007 0.0001391307 -0.0001339296 0.0001293312 0.0001083989 0.1184168413 -0.0536736728
305298170.0 -0.6925825694 0.4883115707 0.0002734775 0.000175879 0.0001154632 0.0001133614 0.1180685465 -0.0561002425
310298140.0 -0.6874861934 0.4967917405 0.0001151468 0.0001275787 -0.0001260509 0.0002743372 0.1167233782 -0.0577312269
315298110.0 -0.6823625739 0.5035431387 0.0001839732 -1.52666e-05 0.0001846625 0.0001188956 0.1158269221 -0.0593682911
320298080.0 -0.6771107029 0.5109189443 9.858e-07 3.49748e-05 -2.88005e-05 3.08692e-05 0.1150939139 -0.0614598462
325298050.0 -0.6716764213 0.5171671683 0.0001153587 2.041e-05 9.64296e-05 8.71635e-05 0.1137761167 -0.0628608899
330298020.0 -0.6660437468 0.5244003841 0.0003272901 0.0001086855 0.0001687693 -6.94174e-05 0.1123926438 -0.0645545534
335297990.0 -0.6606284461 0.5304703768 9.58693e-05 0.0001909189 3.33051e-05 0.0001675669 0.1112532766 -0.0656411227
340297960.0 -0.6557169612 0.5375160835 0.0002830161 9.2177e-06 0.0003327453 7.03888e-05 0.1106041435 -0.067001702
345297930.0 -0.6497416989 0.5444313559 0.0002171458 0.0002968879 0.0001602031 0.0002697883 0.1090221435 -0.0688444463
350297900.0 -0.6441894292 0.5510325748 0.0001161959 -7.90469e-05 0.000303575 0.0001440962 0.1078642592 -0.0693613588
355297870.0 -0.6376592678 0.5581848398 0.0002312348 9.43658e-05 0.0001604544 0.0002928021 0.1063214631 -0.0709158294
360297840.0 -0.632298437 0.564340715 2.60474e-05 0.0002804514 0.0001166329 0.000231278 0.1052474122 -0.0720861776
365297810.0 -0.6270895593 0.5708334778 0.0002749263 0.0002082452 0.000111592 8.25047e-05 0.1041739824 -0.073626089
370297780.0 -0.6208330462 0.5773382917 0.0001734352 7.95802e-05 7.70373e-05 9.5189e-06 0.1031266875 -0.0747522083
375297750.0 -0.6140197974 0.58356137 -0.0001266372 0.0002087815 0.0002678558 0.0004484477 0.1016599117 -0.0763849939
380297720.0 -0.6085496653 0.5892055707 0.0002375584 0.0001204322 0.0003877861 7.5755e-05 0.1002220837 -0.0771666979
385297690.0 -0.6025701691 0.5956439036 0.0002805435 0.0001026603 0.0002663831 0.0002314981 0.0992860016 -0.0782911965
390297660.0 -0.5960992352 0.6015331345 0.0001940603 0.0003021326 0.0003179115 0.0003072112 0.0976643584 -0.0792948229
395297630.0 -0.590564326 0.6084338212 0.0003565532 0.0002363817 -8.31458e-05 1.5664e-06 0.0969345091 -0.0805811246
400297600.0 -0.5836638847 0.6141612488 -4.01299e-05 0.0001435472 0.0001439232 -4.6109e-06 0.0954447447 -0.0816767098
405297570.0 -0.5776029004 0.6198826306 0.0002140696 0.000288712 0.0001401465 8.24377e-05 0.0940294728 -0.0829931179
410297540.0 -0.5707424776 0.6255003863 0.0001155846 6.78026e-05 8.02588e-05 0.0002281143 0.0926880583 -0.0839905573
415297510.0 -0.5640940521 0.6312862602 0.0002891349 0.0002753449 0.0001470366 0.0002514678 0.0913908129 -0.0854654233
420297480.0 -0.5589445729 0.6377542758 0.0002604784 0.0001069769 0.0002054057 -1.6594e-05 0.09016739 -0.0865163145
425297450.0 -0.5512139193 0.6425992677 0.0002063376 0.0001446538 0.0002141709 0.0001583149 0.0891797244 -0.087696834
430297420.0 -0.5453240683 0.6482828486 0.0001621745 0.0001329045 0.0001402195 0.0001647443 0.0872363777 -0.0885454129
435297390.0 -0.5384205628 0.6536664207 0.0003043723 1.35518e-05 0.0002988249 0.0001813807 0.0864083774 -0.0899609109
440297360.0 -0.5316753132 0.6591224 8.04215e-05 0.0001727046 0.0001086978 7.17219e-05 0.085127565 -0.0907602423
445297330.0 -0.5243477736 0.6641411375 3.40968e-05 7.03938e-05 0.0001538774 0.0001589208 0.083865966 -0.0921924546
450297300.0 -0.5175474912 0.6695821669 0.0002105379 0.000200911 0.0003383885 0.0001173721 0.0825549896 -0.093012057
455297270.0 -0.5110609514 0.6750742416 0.0002317567 0.0002051849 6.37138e-05 0.000215758 0.0813032005 -0.0939437527
460297240.0 -0.5046891044 0.6796888791 0.0001653175 -0.0001587183 9.83056e-05 -9.0757e-06 0.0798254581 -0.0942284825
465297210.0 -0.4975097564 0.6849784642 9.78261e-05 0.0003211439 -1.081e-05 0.0001620527 0.0787555362 -0.0954997688
470297180.0 -0.4901369782 0.6897864904 0.0002583015 0.0002170902 -0.0001241121 -0.0001127672 0.0772694221 -0.0963670486
475297150.0 -0.4830483363 0.694472275 0.0001429539 0.0001057232 0.0001385834 0.0001043802 0.0763728203 -0.0975827107
480297120.0 -0.4762708399 0.6999816431 0.0002511475 1.1481e-05 0.0004397901 0.0001817086 0.0750196298 -0.0980218067
485297090.0 -0.4686364342 0.7041462776 0.0002570517 -4.12959e-05 0.0002132589 0.0001903185 0.074056902 -0.0987246404
490297060.0 -0.4618947805 0.70849307 0.0001481847 -0.0002329803 0.0002191817 0.0003269223 0.0722264102 -0.1000827156
495297030.0 -0.4541373129 0.7132090848 0.0002690177 0.0002360689 0.000274869 0.0001545695 0.071070736 -0.1003091823
500297000.0 -0.4476024155 0.7186141191 0.0002579433 -3.8312e-05 0.0002564553 0.0001965438 0.0701194218 -0.1009331512
505296970.0 -0.4402252579 0.7225291931 2.41475e-05 2.47116e-05 0.0003771072 -0.0001934094 0.0681982795 -0.1017742239
510296940.0 -0.4324709427 0.7268069891 0.0001826582 7.73439e-05 0.0003433197 9.14213e-05 0.0669652045 -0.1022001761
515296910.0 -0.4241371786 0.730908202 0.0001941504 -9.66173e-05 0.0002583101 0.0001105101 0.0659302786 -0.1029044215
520296880.0 -0.4175262981 0.7354516249 0.0003918756 0.0002009927 0.0003009035 -2.44421e-05 0.0642429369 -0.1035972789
525296850.0 -0.409721084 0.7391959106 0.0001430438 3.79653e-05 0.0001001691 0.0001005642 0.0629954301 -0.1037831349
530296820.0 -0.4021796272 0.7438025061 0.0003341067 5.34239e-05 0.0003354514 0.0002365873 0.0616124261 -0.1045503641
535296790.0 -0.3950044848 0.7471456678 0.0004478677 -4.10567e-05 0.0002878805 9.53649e-05 0.0595669374 -0.1050066639
540296760.0 -0.3881100196 0.7510004052 0.0002087199 -2.11388e-05 0.000371525 2.4294e-05 0.058295177 -0.1053709783
545296730.0 -0.3800605134 0.7555041677 0.0003765653 0.0001272802 0.0001950333 0.0001697304 0.0568462726 -0.1059382971
550296700.0 -0.372383448 0.7588673777 0.000179989 -5.618e-06 0.0003214843 0.0002423246 0.0552687327 -0.1066339962
555296670.0 -0.3643850997 0.7620672533 0.0003608493 6.23252e-05 0.0001588731 4.73784e-05 0.0540227986 -0.1066799104
560296640.0 -0.3569207816 0.7666181242 0.0004783844 3.99333e-05 0.0002815634 1.66332e-05 0.0525194626 -0.1072167171
565296610.0 -0.3492491154 0.7702305932 0.0003340965 -8.63405e-05 0.000134245 0.0001988401 0.0508644139 -0.1080418777
570296580.0 -0.3415495471 0.7731387265 9.38364e-05 -7.10203e-05 0.0001930891 0.0001138842 0.0492213235 -0.1082071494
575296550.0 -0.3339746818 0.7768221229 0.0001875413 -0.0001410758 0.0003467164 6.02978e-05 0.0480324601 -0.1085893092
580296520.0 -0.3257547394 0.779834478 0.0003058564 3.18053e-05 0.0001436641 1.37029e-05 0.0464622573 -0.1092682769
585296490.0 -0.3177365799 0.7827423119 0.0003968612 -0.0002268145 0.000329569 7.18757e-05 0.0450141796 -0.1098970607
590296460.0 -0.3098572312 0.7860416027 0.0003709898 0.0001460024 0.0003453062 4.9579e-05 0.0433684661 -0.1098723907
595296430.0 -0.3022398612 0.7885402571 0.0005382274 5.06624e-05 0.0004102448 0.0001059004 0.0417937068 -0.1104708079
600296400.0 -0.2944758843 0.7921987711 0.0003764999 -6.24445e-05 0.0004227394 1.32281e-05 0.0402446153 -0.1108901479
605296370.0 -0.2869226054 0.7943973405 0.0002023494 -6.65341e-05 0.0004507852 -8.0338e-05 0.039192515 -0.1112797236
610296340.0 -0.2784841063 0.7976740588 0.0002984838 2.77989e-05 0.0001389719 0.0001221617 0.0378044851 -0.1115801957
615296310.0 -0.2699599985 0.7999945574 0.0003477391 -3.15334e-05 0.0003404858 2.44077e-05 0.0362859261 -0.1119093839
620296280.0 -0.2626758826 0.8019640786 0.0003864191 0.0002058455 0.0004244384 -9.71354e-05 0.0347716696 -0.1123351118
625296250.0 -0.254414215 0.8054293917 0.0003039067 -4.09007e-05 0.0001679585 7.85569e-05 0.0337242912 -0.1127490674
630296220.0 -0.2455409562 0.8080371885 0.0002363954 -3.5894e-05 0.000386734 1.06619e-05 0.0320121006 -0.1126099935
635296190.0 -0.2379133823 0.8102890327 0.000275503 0.0001240626 0.0001493573 0.0001403133 0.031002796 -0.1131427478
640296160.0 -0.2305560474 0.8124099996 0.0001353114 -6.06858e-05 0.0003382911 5.65021e-05 0.0292054203 -0.1134433938
645296130.0 -0.2222008399 0.815595397 0.0003891703 -0.0001292221 0.0003416264 1.08731e-05 0.0280038353 -0.1131813384
650296100.0 -0.2137300422 0.8169716406 0.0001541657 -6.21737e-05 0.0003154396 5.07139e-05 0.0267597561 -0.1137642584
655296070.0 -0.2055485033 0.8192800904 0.0002034229 -9.85012e-05 0.0003414298 0.0002018786 0.0254911447 -0.1136183745
660296040.0 -0.1975518073 0.8202739495 0.0003117159 -2.60153e-05 0.000435377 -7.18161e-05 0.0237816015 -0.1136980588
665296010.0 -0.1892126433 0.8222752436 0.0004309311 -3.17734e-05 0.0002164425 3.36348e-05 0.0223031152 -0.11355327
670295980.0 -0.1821802764 0.824499135 0.0003414784 2.23309e-05 0.0002929446 -3.5316e-06 0.020717797 -0.1136960523
675295950.0 -0.1725111538 0.8258883327 0.0003300186 6.07695e-05 0.0003342991 -0.0001649846 0.0193776839 -0.1133596179
680295920.0 -0.1644375332 0.82805911 0.0003376669 -0.0003055862 0.0002721814 0.0001321914 0.0181570836 -0.1133624119
685295890.0 -0.1559170239 0.8298949875 0.0002772562 0.0001631404 0.0005052042 -8.19773e-05 0.0165654638 -0.1134114048
690295860.0 -0.147898763 0.830911216 0.0004290213 -5.61826e-05 0.0004079086 -9.45462e-05 0.0152708243 -0.1130958246
695295830.0 -0.1399026356 0.832043339 0.0003360301 -7.6454e-05 0.0004664407 5.77297e-05 0.0138234799 -0.1128375166
700295800.0 -0.1310174109 0.8338057607 0.0004953489 0.0001356204 0.0003315373 -0.000126078 0.0121700448 -0.1127946113
705295770.0 -0.12352653 0.8347877128 0.0006206136 -0.0001371691 0.0002594484 -8.04886e-05 0.0108741158 -0.1123494609
710295740.0 -0.1144125558 0.8358998943 0.0002775996 -2.4568e-06 0.000382352 -0.0002076186 0.0090024665 -0.1126023887
715295710.0 -0.1062704408 0.837747243 0.0002919412 -6.01843e-05 0.0003272701 0.0001145361 0.0078422959 -0.112401634
720295680.0 -0.098515862 0.8381517001 0.0004142542 2.89892e-05 0.0002967086 -7.39463e-05 0.00653856 -0.1122617027
725295650.0 -0.0895841522 0.8397501581 0.0006196441 -0.000151445 0.0005845726 2.34709e-05 0.0045600954 -0.1117574994
730295620.0 -0.0811994379 0.8402426404 0.0003314528 3.79537e-05 0.0002150835 4.1161e-05 0.0031608456 -0.1118197369
735295590.0 -0.0735542992 0.8411422402 0.0001891906 6.8575e-05 0.0006444402 -3.78233e-05 0.0014275338 -0.1119349576
740295560.0 -0.0651450396 0.8422454403 0.0002503545 0.0002962341 0.0003805344 8.89103e-05 0.0002813779 -0.1113807163
745295530.0 -0.0569636185 0.8421273435 0.0003350744 -0.0002315611 0.0001528391 9.15382e-05 -0.0012866146 -0.1115551913
750295500.0 -0.0478139937 0.8430588912 0.0005246054 -0.0001675986 0.0004352051 -1.20748e-05 -0.0027247519 -0.1110463529
755295470.0 -0.0396692765 0.8432374218 0.0005178785 3.13702e-05 0.0003381828 -0.0002774191 -0.0038385258 -0.1112537142
760295440.0 -0.0316820109 0.8430165895 0.0003996298 0.0001909284 0.0002648283 0.0001249474 -0.0055685492 -0.1109153022
765295410.0 -0.0232398293 0.844026778 0.0003635751 -3.8784e-06 0.0002524156 3.24982e-05 -0.0069054009 -0.1105618016
770295380.0 -0.0148886638 0.843606566 0.0005190909 -0.0002041158 0.0002600891 -5.04879e-05 -0.0088009409 -0.1104443057
775295350.0 -0.0067532422 0.843900171 0.0003498371 -0.000217984 0.0004224736 -0.0002264965 -0.0100202324 -0.11010235
780295320.0 0.0017905195 0.8434236521 0.0003462064 -0.0001696975 0.000209534 -4.86076e-05 -0.0112823683 -0.1098428907
785295290.0 0.009946248 0.8433604377 0.0003922688 -0.0004127303 0.0003779666 -5.77447e-05 -0.012278071 -0.1098049988
790295260.0 0.0191830478 0.8438084491 0.0003614461 -0.0002216881 0.0003471622 -0.0002044888 -0.0136182153 -0.1089225698
795295230.0 0.0266247151 0.8433378156 0.000271225 7.19588e-05 0.0003618062 -8.15641e-05 -0.0150220951 -0.108920418
800295200.0 0.0345404009 0.8427465899 0.0005138073 -4.18664e-05 0.0004612307 2.5407e-06 -0.0162802127 -0.1080926927
805295170.0 0.0439909228 0.8427404596 0.0002465156 -0.0001592409 0.0004811737 -8.78789e-05 -0.0177019776 -0.1077145106
810295140.0 0.0518407216 0.841850683 0.0003813948 1.924e-07 0.0004382473 -0.0001532346 -0.0184545409 -0.1076125087
815295110.0 0.0602153154 0.8412333365 0.0003836904 -0.000171117 0.0004251296 -0.0003173512 -0.0199597928 -0.1074102838
820295080.0 0.0683310417 0.8408078324 0.0001186484 -0.0002090768 0.0005516756 -0.0001287173 -0.021300607 -0.1064989371
825295050.0 0.0773556788 0.8400580215 0.0002310649 0.0001503148 0.0002586478 -0.0001467192 -0.0225799445 -0.1060644876
830295020.0 0.0848209337 0.8397325602 0.0003462889 -5.54103e-05 0.000416256 0.0002187033 -0.0235215704 -0.1056397466
835294990.0 0.0931398493 0.8386956517 0.000477693 -0.0001428761 0.0004097606 -0.0003607719 -0.0249663623 -0.1049732619
840294960.0 0.1006178151 0.8384973939 0.000390309 -0.0002333938 0.0003456439 -0.0001585071 -0.0264265325 -0.1044422529
845294930.0 0.1091998638 0.8364830698 0.0005317159 6.53757e-05 0.0005174118 -0.0001500689 -0.0277389322 -0.1037269832
850294900.0 0.1175622051 0.8356859127 0.000275898 -0.0002236127 0.0003811515 1.4278e-05 -0.0289475251 -0.102986462
