!Created with skrf (http://scikit-rf.org).
# Hz S RI R 50.0 
!freq ReS11 ImS11 ReS21 ImS21 ReS12 ImS12 ReS22 ImS22
300000.0 -0.2458420617 -0.0865200541 0.473527228 0.0584208547 0.470805578 0.0536057566 -0.2378396786 -0.0926400846
5299970.0 -0.2449278587 0.0067205899 0.4747424114 0.0049279836 0.4752208127 0.0049976723 -0.2410392888 0.0073086868
10299940.0 -0.2417305219 0.0179131001 0.4767689591 0.0062135117 0.47655307 0.0062136136 -0.2375863575 0.020597961
15299910.0 -0.2374268564 0.0269929214 0.4806559147 0.0074456457 0.4808675794 0.0073982094 -0.2334672164 0.0301153646
20299880.0 -0.2331049461 0.0339217454 0.4854248215 0.0084136112 0.4849165423 0.0079469868 -0.2280213709 0.0378687607
25299850.0 -0.2278521151 0.0403117855 0.4900722238 0.0069548247 0.4902361091 0.0070065145 -0.2218898513 0.0447547148
30299820.0 -0.2226074475 0.0450475349 0.4956224495 0.0048400205 0.4952784179 0.0048288878 -0.2158729164 0.0502993215
35299790.0 -0.2174226203 0.0492089644 0.5008183768 0.0015732043 0.50085778 0.0014474006 -0.2104477314 0.0545717589
40299760.0 -0.2126615465 0.0523299164 0.5058954393 -0.0023572813 0.5061038953 -0.0023552501 -0.2052736172 0.0575901536
45299730.0 -0.208034801 0.0547766775 0.5104744669 -0.0071618545 0.5106616002 -0.0071710072 -0.2003692295 0.0605763151
50299700.0 -0.203938961 0.0568981667 0.5151299177 -0.012771416 0.5148364942 -0.0126392925 -0.1956090381 0.0622738424
55299670.0 -0.1998492164 0.058152848 0.5187233106 -0.0189101397 0.5186798651 -0.0185289551 -0.191408602 0.064362222
60299640.0 -0.195898038 0.0600328235 0.5217860953 -0.0249831978 0.5222225493 -0.0247327454 -0.1875812501 0.0654965669
65299610.0 -0.1928314509 0.060815238 0.5245679032 -0.0312368633 0.5250288022 -0.031487896 -0.1839188962 0.0665819053
70299580.0 -0.1900995758 0.0618654989 0.5272395579 -0.0378860151 0.5269468781 -0.0380089512 -0.1804112238 0.0677408053
75299550.0 -0.1871479737 0.0630615486 0.5288503382 -0.0445499051 0.5289250812 -0.0449295723 -0.1780356987 0.0682710019
80299520.0 -0.1848224312 0.0637174149 0.5309549833 -0.0516460796 0.5313302323 -0.0515536322 -0.1753411854 0.0691113685
85299490.0 -0.1825681257 0.0637853397 0.5319285569 -0.0579462785 0.5322324312 -0.0580772618 -0.1729887206 0.0695440825
90299460.0 -0.1804793563 0.064872384 0.5329573601 -0.0653589861 0.5336446657 -0.0652261583 -0.170438765 0.0704401637
95299430.0 -0.1780854752 0.0654696023 0.5342160718 -0.0726206968 0.5340795407 -0.0722324395 -0.1682919896 0.0711984502
100299400.0 -0.1766503755 0.0664624394 0.5339251899 -0.0791694651 0.5343268303 -0.0790103986 -0.1663636409 0.0712498544
105299370.0 -0.1749210461 0.0667008173 0.5345516952 -0.0860662699 0.5347642672 -0.0859446647 -0.1639083583 0.0722354105
110299340.0 -0.1736082143 0.0676079797 0.5349104434 -0.0926826974 0.5342235998 -0.0926020594 -0.1627244025 0.0729053504
115299310.0 -0.1718105278 0.0681118247 0.5346282894 -0.0996628751 0.5349157114 -0.0996676688 -0.1609893653 0.0738800078
120299280.0 -0.1705936035 0.0685287613 0.5342832447 -0.106329231 0.5346809358 -0.1066081302 -0.1595811782 0.0747337039
125299250.0 -0.1693370731 0.0692291921 0.5342209398 -0.112925645 0.5341869955 -0.1128051839 -0.1583502293 0.0747676803
130299220.0 -0.1687705543 0.0701098327 0.5336104261 -0.1201087553 0.5335774148 -0.1196518824 -0.1568741646 0.075739373
135299190.0 -0.1675253044 0.071248132 0.5330680262 -0.1265148854 0.5327473987 -0.1265814689 -0.1553979376 0.0766890524
140299160.0 -0.1666693741 0.0718785679 0.5321330483 -0.1335167775 0.5319524984 -0.1333239077 -0.1545523282 0.0781157808
145299130.0 -0.1656164582 0.0729045218 0.5312501338 -0.1398672172 0.5309519052 -0.1395172553 -0.1534856395 0.0787454651
150299100.0 -0.1645858799 0.0738427988 0.529637935 -0.1460082717 0.5298777182 -0.1455737112 -0.1524410871 0.0798984727
155299070.0 -0.1639207884 0.0746947573 0.5290325525 -0.1533667135 0.528623382 -0.1531604517 -0.1512695522 0.0812105263
160299040.0 -0.162927892 0.0759918691 0.5272630122 -0.1594387567 0.5271287638 -0.1594895314 -0.1504478619 0.0822624611
165299010.0 -0.1622866699 0.0767719664 0.525575179 -0.166369225 0.5259888847 -0.1658480197 -0.1490602152 0.0837724436
170298980.0 -0.1613463524 0.0777616062 0.5238139669 -0.172343966 0.5244983968 -0.1720778315 -0.1480375362 0.0847070582
175298950.0 -0.1608297486 0.078819614 0.5230536106 -0.1778812719 0.5224678973 -0.1781523043 -0.1475088397 0.0860540345
180298920.0 -0.1600288321 0.0799982227 0.5209970815 -0.1844426343 0.5207159426 -0.18437363 -0.1465186189 0.0872310043
185298890.0 -0.158945881 0.0809023543 0.5189189681 -0.1910119379 0.5187737917 -0.1904669186 -0.1456423041 0.0886818812
190298860.0 -0.1585769191 0.082508579 0.5175583282 -0.1968733958 0.5175709949 -0.1967799875 -0.1450160875 0.0898849198
195298830.0 -0.1577038816 0.0831968337 0.5154170255 -0.2026429944 0.5156454265 -0.2027812985 -0.1433993768 0.0909462173
200298800.0 -0.1568621401 0.0846273482 0.5131208953 -0.2092905674 0.5132942188 -0.2094564983 -0.1432149872 0.0924646409
205298770.0 -0.1564056429 0.0859234835 0.5106781541 -0.215330091 0.5109824437 -0.2150366948 -0.1420000981 0.0931352041
210298740.0 -0.1552774265 0.0871464789 0.5085206569 -0.2210724254 0.5084866193 -0.2206879465 -0.1411523771 0.0953343504
215298710.0 -0.155228203 0.0884751957 0.5066113591 -0.2270297431 0.5060627836 -0.2274043956 -0.1401958021 0.0965447974
220298680.0 -0.1540156195 0.088966536 0.5038867085 -0.2324599902 0.5038194936 -0.2328857412 -0.1397878086 0.0976782179
225298650.0 -0.1533677614 0.0906498282 0.5013453803 -0.238943128 0.5016952737 -0.2388069494 -0.139078054 0.0988627216
230298620.0 -0.1526099607 0.0924084254 0.4986571489 -0.2443485747 0.499472232 -0.2442973925 -0.1378294391 0.1000246742
235298590.0 -0.1518187374 0.0938802502 0.4963594783 -0.2502350625 0.496107534 -0.2499925238 -0.1365522397 0.1014662357
240298560.0 -0.1510881812 0.0947713131 0.4939989458 -0.2563324533 0.493619453 -0.2564443682 -0.1361077132 0.1032850164
245298530.0 -0.1502907951 0.0961236471 0.491285862 -0.2616977094 0.4910550101 -0.2619974968 -0.134938731 0.1041562367
250298500.0 -0.1491004223 0.0976336084 0.4875260981 -0.2675645742 0.4877075056 -0.2671910905 -0.1340169223 0.1055501096
255298470.0 -0.1488672417 0.0986355384 0.4846423185 -0.2726186392 0.4848504438 -0.2728807087 -0.1328658893 0.107070582
260298440.0 -0.1482258449 0.0998754941 0.4820473188 -0.2784069645 0.4822127218 -0.2783468322 -0.1316723395 0.1082975789
265298410.0 -0.1468336784 0.1016590246 0.4789925757 -0.2842265058 0.4791861709 -0.2837701497 -0.1306229401 0.1096193748
270298380.0 -0.1458885583 0.1030013253 0.4763046145 -0.2890312523 0.4762282582 -0.2895832604 -0.129721569 0.1115104745
275298350.0 -0.1448638354 0.1041343207 0.4728978282 -0.2947887604 0.4734136327 -0.2947658787 -0.1282471644 0.1123436002
280298320.0 -0.1438928185 0.1058531839 0.4701167024 -0.3003722161 0.4697627099 -0.2999304332 -0.1268662136 0.1138400924
285298290.0 -0.1430135134 0.1069914386 0.4665878828 -0.3051749411 0.4664823834 -0.3055525957 -0.1259967353 0.1151014211
290298260.0 -0.1419561999 0.1085694015 0.4631425362 -0.3104807725 0.463059855 -0.3109340262 -0.1243889223 0.1167471601
295298230.0 -0.1408999853 0.1094683437 0.4597715759 -0.3160589242 0.4597698076 -0.3157763802 -0.1227495612 0.1174403522
300298200.0 -0.1403627366 0.1109901814 0.4567134064 -0.3209202931 0.4566997567 -0.321429825 -0.1218615345 0.1191674748
305298170.0 -0.1387738619 0.1120738714 0.4523193061 -0.3265385231 0.4526256864 -0.3263725943 -0.1197365979 0.1202496772
310298140.0 -0.1380521229 0.113644037 0.4493587177 -0.3319092123 0.4496715838 -0.3313324518 -0.1189825074 0.1215174122
315298110.0 -0.1371659396 0.1145831011 0.4460001751 -0.3369701854 0.4459332812 -0.336826389 -0.1178852355 0.1226891537
320298080.0 -0.1357629694 0.1160306417 0.441322803 -0.3418872772 0.4418402287 -0.3419965749 -0.1164946795 0.1240352327
325298050.0 -0.1352206656 0.1170856901 0.4379127519 -0.3471110868 0.4380461279 -0.3471422886 -0.1155948691 0.1255760915
330298020.0 -0.1340040402 0.1182315556 0.4338365526 -0.3519298523 0.4342995521 -0.3520355574 -0.1142167285 0.1266625294
335297990.0 -0.1330564607 0.1192962735 0.4298343338 -0.3568737154 0.4297782385 -0.3569716306 -0.1134499231 0.1283728649
340297960.0 -0.1325667331 0.1209163827 0.4254510923 -0.3613063165 0.425621778 -0.3619613004 -0.1114567067 0.1297294365
345297930.0 -0.1315199173 0.1228638258 0.421811522 -0.3667601252 0.4216805787 -0.3664221153 -0.1106007238 0.1306188168
350297900.0 -0.1304578113 0.1236100035 0.4169793977 -0.371155895 0.4174127569 -0.3711242952 -0.1095339734 0.1329081347
355297870.0 -0.1294829414 0.1253257768 0.4132206175 -0.3754182362 0.4134370568 -0.3753325069 -0.1081941132 0.1340023794
360297840.0 -0.1283462108 0.1268746641 0.4099899793 -0.3795909419 0.409735973 -0.3799513652 -0.106869914 0.1353230486
365297810.0 -0.1272677238 0.1282206378 0.405112929 -0.3845833812 0.4053487402 -0.3843606243 -0.1050576935 0.1366555425
370297780.0 -0.1257142069 0.1295262762 0.4005394976 -0.3886873907 0.4012408421 -0.3884517208 -0.1039638623 0.1383079733
375297750.0 -0.1245531479 0.1305666512 0.396309922 -0.3935198097 0.3971342861 -0.3931856113 -0.1026594816 0.1394550047
380297720.0 -0.1236375122 0.1319948169 0.3921624825 -0.3979031093 0.3922532758 -0.3972382408 -0.1013379591 0.1403490801
385297690.0 -0.1224014155 0.1333478082 0.3877446233 -0.4017407648 0.3877509826 -0.4016883681 -0.0995354401 0.1421335313
390297660.0 -0.1211240567 0.1350212735 0.3833354272 -0.4061701701 0.3833422862 -0.4058801936 -0.0983674258 0.1430620964
395297630.0 -0.1197872349 0.1363383879 0.3791735724 -0.4105464575 0.3789890431 -0.4105641664 -0.0962244205 0.1446805144
400297600.0 -0.1187968606 0.1377464751 0.3741995976 -0.4147686107 0.3740672202 -0.4142727191 -0.0950274236 0.1454225247
405297570.0 -0.1176187293 0.1388264124 0.3699839529 -0.418598712 0.3697852342 -0.418404726 -0.0937683548 0.1466184323
410297540.0 -0.1158000196 0.1398818641 0.3653537896 -0.4225505593 0.3656119205 -0.4226323701 -0.0921323001 0.1483472566
415297510.0 -0.1144886876 0.1410299951 0.3602108105 -0.4271112898 0.3610542158 -0.4264706619 -0.0907519677 0.1493695534
420297480.0 -0.1136494126 0.1426755965 0.3559209711 -0.430393013 0.3558989133 -0.4304040225 -0.0891104491 0.1500147962
425297450.0 -0.1120940993 0.1435849271 0.3512225453 -0.4343108987 0.3516077112 -0.4344860708 -0.0878051878 0.1516389424
430297420.0 -0.1108767792 0.1448541285 0.3463087231 -0.4378819792 0.3465686948 -0.4377340744 -0.0862108032 0.1526038516
435297390.0 -0.1096356645 0.1458875824 0.3414005407 -0.4418895809 0.3411225556 -0.4421446235 -0.0835898943 0.1535051234
440297360.0 -0.1080978782 0.147392552 0.3367639515 -0.445187391 0.3369030954 -0.4454351203 -0.0826471999 0.1544407556
445297330.0 -0.1067636772 0.1482459961 0.3321400975 -0.4491788672 0.3318642839 -0.4490941938 -0.0806112433 0.154903456
450297300.0 -0.1049474941 0.1494906524 0.3268951334 -0.4527717973 0.326882731 -0.4530542307 -0.0790477334 0.1562058502
455297270.0 -0.1035874582 0.1506248442 0.3215813359 -0.4563299079 0.3218419064 -0.4567103504 -0.0776016933 0.1571510783
460297240.0 -0.1025979799 0.1517824842 0.316706427 -0.4599925979 0.3170585881 -0.4597951366 -0.0755971563 0.1584922073
465297210.0 -0.100553896 0.1530546053 0.3117339466 -0.4630399159 0.3118964056 -0.4632474192 -0.0738679964 0.1589472432
470297180.0 -0.0992280151 0.1538064666 0.3061775927 -0.4662488887 0.3066096058 -0.4667806037 -0.0719781772 0.1604548858
475297150.0 -0.0977021148 0.1549079886 0.3014507691 -0.4694761194 0.3019085157 -0.4696528102 -0.0697542499 0.1609479855
480297120.0 -0.0965970832 0.1564043241 0.2965309237 -0.4731447656 0.2962471378 -0.4737637426 -0.0679595288 0.1619811786
485297090.0 -0.0951381943 0.1570084201 0.2911036785 -0.4762420942 0.2912868254 -0.4761892965 -0.0661714032 0.1628271121
490297060.0 -0.0938130615 0.1581716601 0.2865128181 -0.4794125526 0.2861801145 -0.4796968376 -0.0642288728 0.1639511078
495297030.0 -0.0920318998 0.1592473859 0.2806739073 -0.4823269665 0.2814732932 -0.4821759266 -0.0627312608 0.1648777005
500297000.0 -0.0904159102 0.1600428024 0.2753535871 -0.4850575816 0.2754160618 -0.4849533848 -0.0605835505 0.1663237645
505296970.0 -0.0888342234 0.1612228054 0.2703772312 -0.4882498755 0.2699202688 -0.4885235945 -0.0589887633 0.166508582
510296940.0 -0.0873502047 0.1623256845 0.2648881369 -0.491138083 0.2650424479 -0.4914821325 -0.0569752398 0.1676044788
515296910.0 -0.085896675 0.1633878271 0.259402752 -0.4940657192 0.2593788315 -0.4942334003 -0.0553595752 0.1684822784
520296880.0 -0.084285422 0.1643046895 0.2541876571 -0.4975479335 0.2542151174 -0.4968034896 -0.053582183 0.1689211566
525296850.0 -0.0825284407 0.1647339537 0.2486669178 -0.4993289092 0.2490076387 -0.4995768643 -0.0515319298 0.1699958369
530296820.0 -0.0809055679 0.1660754636 0.2432283523 -0.5022821013 0.2434009331 -0.5021911175 -0.0497453666 0.1707715665
535296790.0 -0.0796361242 0.1672922447 0.2382269092 -0.5047992073 0.2380011375 -0.5045669568 -0.0480476135 0.1713147754
540296760.0 -0.0780745528 0.1678838678 0.2319098874 -0.5074210891 0.2325666748 -0.5074721484 -0.0462780966 0.1722358172
545296730.0 -0.0763267222 0.168882653 0.2265457808 -0.5099966305 0.2265531156 -0.5100384195 -0.0443441448 0.1726783296
550296700.0 -0.0743859956 0.1701028799 0.2211365999 -0.5126195347 0.2214273568 -0.5127682332 -0.0426183 0.173564098
555296670.0 -0.0730473286 0.1703054793 0.215658902 -0.5145017647 0.2159093452 -0.5144350918 -0.0404999183 0.1743087489
560296640.0 -0.0710543575 0.1717320431 0.210153825 -0.5169428218 0.2101100393 -0.5169885909 -0.0387107222 0.1748793277
565296610.0 -0.0698922787 0.1723998064 0.20439657 -0.5190631808 0.2045139178 -0.5194028179 -0.0368675387 0.1754757708
570296580.0 -0.068014296 0.1730782292 0.1989664999 -0.5217474936 0.1985541682 -0.5214932923 -0.035074815 0.1763199943
575296550.0 -0.0667024748 0.1743938786 0.1931825729 -0.5236108546 0.1926701127 -0.5236557365 -0.0329194454 0.1763072418
580296520.0 -0.0646721733 0.1748651141 0.1875718934 -0.5258373517 0.1873091249 -0.5254057466 -0.0307353555 0.176764624
585296490.0 -0.0631134884 0.1753416561 0.1819836536 -0.527475424 0.1818485831 -0.52721543 -0.0289950053 0.1772657978
590296460.0 -0.0610301392 0.1761451177 0.1760366482 -0.5290922021 0.1763977909 -0.5290853779 -0.0276740985 0.1780413155
595296430.0 -0.0593762993 0.1770875885 0.1699840289 -0.5311034661 0.169733987 -0.5311922971 -0.02537948 0.1779959356
600296400.0 -0.0580180594 0.1776450491 0.1645566702 -0.5327647133 0.1642775851 -0.5330524331 -0.0236313421 0.1785625669
605296370.0 -0.0562583288 0.1785273511 0.1588859758 -0.5351286697 0.1586793991 -0.5347390195 -0.0214323587 0.1791266149
610296340.0 -0.0543558706 0.1792738582 0.1525545048 -0.5364439743 0.1529402973 -0.5362536863 -0.019208373 0.1789541358
615296310.0 -0.0522514317 0.179534173 0.1466236004 -0.5377685351 0.1465800935 -0.5385177762 -0.0170264694 0.1797518339
620296280.0 -0.0507161892 0.1800126491 0.1411123496 -0.5393429786 0.1413676655 -0.5391736331 -0.0157277586 0.1799972367
625296250.0 -0.0494355432 0.1805349673 0.1359416374 -0.5408020661 0.1349895411 -0.5411015423 -0.0128061016 0.1798506107
630296220.0 -0.0466552339 0.1815827915 0.1292354781 -0.5421659316 0.1292540906 -0.542131822 -0.0111231788 0.1804619963
635296190.0 -0.0460095412 0.181841897 0.1234409856 -0.5433344685 0.1236085599 -0.5436678513 -0.0090268016 0.1809239215
640296160.0 -0.044026113 0.1826487943 0.117958726 -0.5446401095 0.118082615 -0.545044636 -0.0069001945 0.1810666005
645296130.0 -0.0422200186 0.1834571397 0.1117631926 -0.5459604502 0.1122974549 -0.5461190784 -0.0048713635 0.1813629463
650296100.0 -0.0403305528 0.1836777449 0.1061407602 -0.5469258815 0.1060843415 -0.5470930406 -0.0026776828 0.1809441313
655296070.0 -0.0387087763 0.183878185 0.1000748916 -0.5482588873 0.0999486774 -0.5483426806 -0.0007735266 0.1814770125
660296040.0 -0.0373385691 0.1844434152 0.0943740584 -0.549564911 0.0943305191 -0.5492593512 0.0016386171 0.1817387493
665296010.0 -0.0348927185 0.1849578179 0.0877516579 -0.5501993091 0.0878931581 -0.5503304527 0.0038231242 0.1821354758
670295980.0 -0.0340428153 0.1856090622 0.0823543208 -0.5513197523 0.082170389 -0.5509518616 0.0053497032 0.1819115569
675295950.0 -0.031517975 0.1861529896 0.07624101 -0.5518260019 0.0763336187 -0.5513262739 0.0071047219 0.1822145013
680295920.0 -0.0299758349 0.1865073786 0.0704244873 -0.5526345837 0.0699250714 -0.5527723676 0.0095548121 0.1828974351
685295890.0 -0.0280329528 0.1875956792 0.0643142679 -0.5536370802 0.0638707529 -0.5535570139 0.0113954423 0.1826131342
690295860.0 -0.025896435 0.1873983315 0.0583410172 -0.5534224613 0.0583048728 -0.5542175605 0.0132475981 0.1832693465
695295830.0 -0.0243653758 0.1877616863 0.0525633057 -0.5543975674 0.0519871781 -0.5545758512 0.0156352034 0.1831997212
700295800.0 -0.0227846452 0.1878664247 0.0464348002 -0.5547866118 0.0462151742 -0.5548821066 0.0171195275 0.183143794
705295770.0 -0.0209362528 0.1887854708 0.0399139036 -0.5558322898 0.0406361013 -0.5555340189 0.0192169558 0.1831471585
710295740.0 -0.0184236586 0.1888194156 0.0343798261 -0.5563069101 0.0347602423 -0.555927453 0.0213916893 0.1828796893
715295710.0 -0.0173530958 0.1892418982 0.0283499072 -0.5564668191 0.0282232714 -0.5564618176 0.0236489317 0.1829922334
720295680.0 -0.0151362339 0.1895878983 0.0220871344 -0.5565028916 0.0229159805 -0.5566819918 0.0255360475 0.1832036926
725295650.0 -0.0132151524 0.1898860443 0.0163126203 -0.556565504 0.0163669048 -0.5568271655 0.0271822449 0.1829199389
730295620.0 -0.0111338584 0.1902597074 0.0102668059 -0.5564504752 0.0103216474 -0.5568276077 0.0290534697 0.1826458469
735295590.0 -0.0097863446 0.1907147046 0.0046005478 -0.5568068705 0.0044813253 -0.5568962532 0.0308792532 0.1821036275
740295560.0 -0.0079578602 0.1910799108 -0.001660877 -0.5566882988 -0.0017994897 -0.5569508163 0.0338638122 0.1823168357
745295530.0 -0.0061633074 0.1912034933 -0.0078605736 -0.5563844837 -0.0079846164 -0.5566645862 0.0356218705 0.1817765164
750295500.0 -0.0039244488 0.1914338891 -0.0136474379 -0.5563515178 -0.0135778002 -0.5563509966 0.037353818 0.1816958459
755295470.0 -0.0019725913 0.1911852042 -0.0193082788 -0.5564154875 -0.0195540091 -0.5565499708 0.0395282672 0.1808851021
760295440.0 -0.0006313179 0.1916100595 -0.0257174065 -0.5567207238 -0.0257019159 -0.5565322048 0.0415642227 0.1806511507
765295410.0 0.0014208575 0.1917517062 -0.0317305912 -0.5559817609 -0.0319920289 -0.5561116437 0.0433402568 0.1804752552
770295380.0 0.0032035381 0.1915412192 -0.0378433844 -0.5553584186 -0.0379564881 -0.5552347476 0.045303892 0.1801712114
775295350.0 0.0050755222 0.1912839131 -0.043941071 -0.554241613 -0.0430513286 -0.554827291 0.0468668493 0.1800035673
780295320.0 0.0069419313 0.1917640933 -0.0494062282 -0.5541066741 -0.0490606707 -0.5541249936 0.0490388414 0.1791255583
785295290.0 0.0085338394 0.1913866026 -0.0557154759 -0.5532003015 -0.0553353182 -0.5537359542 0.0516495845 0.1790265417
790295260.0 0.0109785471 0.192292163 -0.0612531281 -0.5528283012 -0.0607411131 -0.5529898926 0.0534167219 0.1785599772
795295230.0 0.0124791573 0.1917455324 -0.0674375825 -0.5519405894 -0.0669123201 -0.5526127282 0.0556404989 0.178108515
800295200.0 0.0142533955 0.1919497018 -0.0736980937 -0.5513708533 -0.0733560386 -0.5513207972 0.0577076527 0.1775196516
805295170.0 0.0162113648 0.1917699529 -0.0790125706 -0.5503252814 -0.0793111182 -0.5508228517 0.0592556062 0.1769332684
810295140.0 0.0177889921 0.1913654234 -0.0844227348 -0.5494533105 -0.0850186598 -0.549725302 0.0621156236 0.1765708157
815295110.0 0.0202301232 0.1915203044 -0.0910193599 -0.5483791836 -0.0907496431 -0.5488267944 0.0636152569 0.1761804607
820295080.0 0.0213442072 0.1919187572 -0.0968575517 -0.5475470441 -0.0965002868 -0.547583437 0.0653495671 0.1756653486
825295050.0 0.0240059278 0.191471886 -0.1025339329 -0.5464663604 -0.1027443472 -0.5464294063 0.0675914742 0.1751258995
830295020.0 0.0253347402 0.1914491523 -0.1086886228 -0.5449394584 -0.1087095065 -0.5451685502 0.0703190081 0.1745755993
