!Created with skrf (http://scikit-rf.org).
# Hz S RI R 50.0 
!freq ReS11 ImS11 ReS21 ImS21 ReS12 ImS12 ReS22 ImS22
300000.0 -0.2390431245 -0.1069132774 0.4696398282 0.0701694865 0.4722506109 0.0722771079 -0.2387765938 -0.1122082836
5299970.0 -0.240805784 0.0071581583 0.4749156581 0.0051987653 0.4749855253 0.0055359367 -0.2443434316 0.0055627018
10299940.0 -0.2371918903 0.0205000015 0.4770394902 0.0057854418 0.476792609 0.0065218764 -0.2418065447 0.0175836616
15299910.0 -0.2328654587 0.0297328715 0.4804172341 0.0074384456 0.4803322563 0.0075041242 -0.2373068863 0.0265962638
20299880.0 -0.2274584789 0.0379753332 0.4850504211 0.0081308501 0.485494688 0.0080157912 -0.2328654882 0.0340429924
25299850.0 -0.2214197942 0.0443777769 0.4908989383 0.0068171635 0.4906067669 0.0067770563 -0.2276639312 0.0400595114
30299820.0 -0.2157205778 0.0491639363 0.4961507539 0.0053296209 0.4957473831 0.0051741574 -0.2226272594 0.0449309437
35299790.0 -0.2096202138 0.0540295254 0.5009975347 0.0014581104 0.5013530612 0.001652232 -0.2172730427 0.0488561747
40299760.0 -0.204586244 0.0571001009 0.5061259335 -0.0020780226 0.5065617756 -0.0022531382 -0.2126997555 0.0521387958
45299730.0 -0.1994440525 0.0600889 0.5111653944 -0.0073062938 0.5109902313 -0.0068822591 -0.2079808957 0.0544669576
50299700.0 -0.1948081198 0.0617171915 0.5150280711 -0.0123846679 0.5148464354 -0.0126373737 -0.2032039467 0.0564204455
55299670.0 -0.1905996702 0.063895702 0.5182831447 -0.0187191366 0.5189832043 -0.0185500811 -0.1999500624 0.0581868602
60299640.0 -0.1863268486 0.0651074606 0.5217697698 -0.0248822516 0.5219274355 -0.0248265464 -0.1961247476 0.0596152724
65299610.0 -0.1829460017 0.0665615782 0.5251286841 -0.0308036714 0.5250838366 -0.0313710611 -0.1926159167 0.0606820589
70299580.0 -0.1794333849 0.0670938204 0.5271818646 -0.0377399692 0.527245835 -0.0376454219 -0.1900915926 0.061624049
75299550.0 -0.1765182508 0.0681173967 0.5294242795 -0.0445048954 0.5293554466 -0.0448101593 -0.1869868639 0.0626362994
80299520.0 -0.1741179924 0.0688083047 0.5314726817 -0.051261549 0.5311465335 -0.0514074152 -0.184784799 0.0630015816
85299490.0 -0.1713539567 0.0695166646 0.5323322241 -0.0582631651 0.5323093351 -0.058564749 -0.1824995338 0.0637738181
90299460.0 -0.1692462587 0.0704093879 0.5334254339 -0.0654481537 0.5335656062 -0.0651622097 -0.1800521438 0.0642855477
95299430.0 -0.1670471514 0.0712172549 0.5344511303 -0.0726667372 0.534295664 -0.0722240486 -0.1786114642 0.0650210337
100299400.0 -0.1653858924 0.071635466 0.5345660218 -0.0791070744 0.5348092805 -0.0788778857 -0.1770362187 0.0655321723
105299370.0 -0.1631991727 0.072374787 0.5345380651 -0.0855988591 0.5349906898 -0.0861132711 -0.1749493904 0.0662429237
110299340.0 -0.1620501281 0.0731551129 0.5350038868 -0.0920414209 0.5351888029 -0.0931255255 -0.1737142276 0.0671706911
115299310.0 -0.1603260366 0.0735389309 0.534958351 -0.0993678639 0.5354040925 -0.0993945007 -0.1725274406 0.0671834532
120299280.0 -0.1591711747 0.0742429583 0.5348831796 -0.1062607477 0.5346828126 -0.106479108 -0.1710606274 0.0679593106
125299250.0 -0.157876912 0.075023079 0.5345250813 -0.1130239778 0.5346974369 -0.1133585178 -0.1696777633 0.0683137066
130299220.0 -0.1564834821 0.0760131742 0.5338643426 -0.1195071091 0.5342024261 -0.1198536192 -0.1690415854 0.0694863733
135299190.0 -0.1553944789 0.0766742856 0.5331000994 -0.1260683579 0.5329424778 -0.1266105848 -0.1681023468 0.0703708255
140299160.0 -0.1543019493 0.0782017781 0.5324985004 -0.1330953917 0.5325607704 -0.1329829668 -0.1668424254 0.0709562475
145299130.0 -0.1531469288 0.0787706599 0.5319320984 -0.1397497123 0.53157835 -0.1393275116 -0.1662836521 0.0717069695
150299100.0 -0.1520066694 0.0799065235 0.5305648782 -0.1463477087 0.5304254621 -0.1460254482 -0.1651171656 0.0726015735
155299070.0 -0.1510910081 0.0814213082 0.5292123832 -0.1529172624 0.5290641928 -0.1528290591 -0.1644399943 0.0734571169
160299040.0 -0.1501323322 0.0820593708 0.527315588 -0.1587836859 0.527818334 -0.1591908218 -0.163405213 0.0747619001
165299010.0 -0.1492524576 0.0831859066 0.5266552302 -0.1657787862 0.5265447591 -0.1656847763 -0.1625059206 0.0753844442
170298980.0 -0.1482100915 0.084509605 0.5243261425 -0.17162374 0.5247495825 -0.1720865201 -0.1617049064 0.0764725405
175298950.0 -0.1471173676 0.0855650499 0.5235344021 -0.1776986108 0.5237535594 -0.1782682333 -0.1612784479 0.0775887759
180298920.0 -0.1461766441 0.086556187 0.5214007983 -0.1846410059 0.5213810043 -0.1842559615 -0.1601064567 0.0787555018
185298890.0 -0.145252164 0.0878573636 0.5192499293 -0.190660898 0.5197029187 -0.1905172175 -0.1596370324 0.0794350784
190298860.0 -0.1442972211 0.0891094352 0.5176927245 -0.1966650429 0.517654882 -0.1970798412 -0.1584329558 0.0806631418
195298830.0 -0.1434487099 0.089938732 0.5155637445 -0.2025840626 0.515714024 -0.2033232684 -0.1581630155 0.0818915977
200298800.0 -0.1422911418 0.0917236499 0.5137445864 -0.2087779606 0.5137693106 -0.208883082 -0.1568497828 0.0830656876
205298770.0 -0.1416114581 0.0928494724 0.5116017135 -0.2148766138 0.5115753169 -0.2148215209 -0.1562651865 0.083962324
210298740.0 -0.1408443579 0.0940681874 0.5093912708 -0.2213016357 0.509414884 -0.2213992154 -0.1556017003 0.0856979346
215298710.0 -0.1397886609 0.0955808749 0.5071442216 -0.2270673491 0.5069354675 -0.2264777176 -0.1551130573 0.0865675993
220298680.0 -0.1390496339 0.0968982897 0.5045780389 -0.2327124269 0.5046956882 -0.2326070905 -0.1541429727 0.0879857158
225298650.0 -0.1377710382 0.0985999426 0.5019654214 -0.2385723195 0.5018691713 -0.2386513559 -0.15347701 0.0894574699
230298620.0 -0.1371036461 0.099780294 0.4997590062 -0.2446259543 0.4997572555 -0.2445379667 -0.1526286943 0.0902848438
235298590.0 -0.1359122357 0.1008261343 0.4969219037 -0.2501228375 0.4969407951 -0.2506584486 -0.1518041042 0.0914087233
240298560.0 -0.1349170322 0.1027025363 0.4945403622 -0.2556548955 0.4944517009 -0.2555581236 -0.151060698 0.0932116888
245298530.0 -0.1337083982 0.103895155 0.4909959336 -0.2617813993 0.4915275507 -0.2617048852 -0.1500118006 0.0943525185
250298500.0 -0.1330743031 0.105279609 0.4882080361 -0.2667104217 0.4886370714 -0.266766514 -0.1489210515 0.095500456
255298470.0 -0.1317790729 0.1066751677 0.4854235354 -0.2729078662 0.4857927927 -0.2727288967 -0.1481223359 0.0967470518
260298440.0 -0.1309698939 0.1080820762 0.482884473 -0.278247294 0.4828466076 -0.2782350437 -0.1472530028 0.0982856512
265298410.0 -0.1294947501 0.1095917827 0.4797519065 -0.2842276125 0.4795219697 -0.2839441562 -0.1464706891 0.099566857
270298380.0 -0.1283481891 0.110871976 0.4760922128 -0.2891949398 0.4762401575 -0.2896074858 -0.1451750203 0.1010063494
275298350.0 -0.1273975004 0.1125400838 0.4731989526 -0.2948940259 0.4739146159 -0.2949191026 -0.144431024 0.1023572117
280298320.0 -0.1261675549 0.1140499144 0.4701631508 -0.2996020376 0.4700230515 -0.300477694 -0.1434419178 0.1037637026
285298290.0 -0.124964847 0.1155318403 0.4669486844 -0.3053023077 0.4667825715 -0.3055439418 -0.1423200993 0.1049319484
290298260.0 -0.1236914791 0.1168956511 0.4638564403 -0.3107045699 0.4635264371 -0.3106124955 -0.141123808 0.1065863077
295298230.0 -0.122418124 0.117839093 0.4603237631 -0.3162400769 0.4601423909 -0.3162828219 -0.1402582581 0.1079099004
300298200.0 -0.1209706858 0.1193685882 0.4568196629 -0.3212550678 0.456780561 -0.3213663443 -0.1395201802 0.1092384446
305298170.0 -0.1197081607 0.1205485183 0.4534192098 -0.3267686718 0.453810366 -0.3264344212 -0.1379520105 0.1108245965
310298140.0 -0.1180419452 0.1217437984 0.4500517845 -0.3316143712 0.4498921838 -0.3323681395 -0.1370790342 0.1123673523
315298110.0 -0.1172499849 0.1231129544 0.446302347 -0.336900272 0.4464746902 -0.3373242383 -0.1358118836 0.113149171
320298080.0 -0.1157601845 0.1243506163 0.4423417992 -0.3420288261 0.4424789066 -0.3419742455 -0.1347596984 0.1145959493
325298050.0 -0.1146477474 0.1253616212 0.4390679378 -0.3469500962 0.4387966634 -0.34736579 -0.1339755679 0.1155846955
330298020.0 -0.113388885 0.1267716716 0.4341270532 -0.3520782007 0.4344784639 -0.3522958419 -0.13297178 0.1167316632
335297990.0 -0.112224223 0.1280657083 0.4305460897 -0.35716499 0.4305946658 -0.3573770533 -0.1319927954 0.1184680741
340297960.0 -0.1115517733 0.1296809727 0.4264032566 -0.3616126218 0.4265212675 -0.361847598 -0.1310890918 0.1199373849
345297930.0 -0.1100637475 0.1310412237 0.4226205777 -0.3661848101 0.4220654753 -0.3661840771 -0.1298980378 0.1210022849
350297900.0 -0.1085309675 0.1326278555 0.4178906961 -0.3706827774 0.4182488624 -0.3709330111 -0.1288023952 0.1228632233
355297870.0 -0.1071601747 0.133828287 0.4138338381 -0.3755842361 0.4142643425 -0.3760435105 -0.1277945229 0.124542852
360297840.0 -0.1054718733 0.1351450449 0.409830959 -0.3805452032 0.4099199544 -0.3802158382 -0.1267835262 0.1259279473
365297810.0 -0.1042093368 0.1361627874 0.4055681439 -0.3846593087 0.4058352085 -0.3847154675 -0.1256770161 0.1269956145
370297780.0 -0.1024615213 0.1372923128 0.4008326189 -0.3887591028 0.4014331866 -0.3894350813 -0.1244430012 0.128744458
375297750.0 -0.1012951899 0.1393588689 0.3976535639 -0.3934494437 0.3972853108 -0.3938933536 -0.1229872804 0.1302750136
380297720.0 -0.0997743501 0.1398516842 0.3926117227 -0.3973287439 0.3927789938 -0.3976598618 -0.1215254351 0.1314117501
385297690.0 -0.0981129547 0.1417573599 0.3884056127 -0.401809169 0.3885458507 -0.402282534 -0.1204165636 0.1334045052
390297660.0 -0.0969141592 0.1426860626 0.3835465066 -0.4068276686 0.3837186549 -0.406831245 -0.119320627 0.133979266
395297630.0 -0.0949497285 0.1437416262 0.3798414902 -0.4102665585 0.379451055 -0.4104939114 -0.1181088385 0.1357902844
400297600.0 -0.0935618008 0.1451554247 0.3750495421 -0.414858211 0.375149472 -0.414732951 -0.1173597315 0.1367326508
405297570.0 -0.0917883096 0.1464689018 0.3701378935 -0.4186574568 0.3706529323 -0.4190433721 -0.115794773 0.1384432158
410297540.0 -0.0901475332 0.147569053 0.3651240051 -0.4227441228 0.365560395 -0.4228246919 -0.1143547447 0.1396306423
415297510.0 -0.0886824195 0.1490950196 0.3611910278 -0.4269788974 0.3610880087 -0.4266495935 -0.1131681152 0.1412630876
420297480.0 -0.0867005049 0.1497378895 0.3561072038 -0.4308819978 0.3562010377 -0.4305997933 -0.1115794405 0.1419656073
425297450.0 -0.0849176331 0.1507922768 0.351480465 -0.4347665679 0.3518429664 -0.4344989071 -0.1102821779 0.1438653644
430297420.0 -0.0836459893 0.1518996594 0.3470320031 -0.4387702172 0.3468298272 -0.4388595903 -0.1090012757 0.1448788342
435297390.0 -0.0816043272 0.1530189605 0.3420855808 -0.4419259871 0.3420531695 -0.4420929689 -0.107665207 0.1463363999
440297360.0 -0.079881049 0.153870488 0.3372138437 -0.4458976981 0.3367946838 -0.4458741343 -0.106340556 0.1471916322
445297330.0 -0.0780324756 0.1550043877 0.3320426265 -0.4496390072 0.3320221724 -0.4497498806 -0.1049756091 0.1484193829
450297300.0 -0.0763439937 0.1559671403 0.3270031358 -0.4532054575 0.3273426752 -0.4534959164 -0.1035259729 0.1499272483
455297270.0 -0.0748386731 0.1570243253 0.3224893921 -0.4567958215 0.3225462429 -0.4567945647 -0.10189851 0.1512738544
460297240.0 -0.0731746439 0.1580613827 0.3171699215 -0.4600888873 0.3169051567 -0.4601846816 -0.1004527334 0.1528301876
465297210.0 -0.0711207075 0.1587896352 0.3121002361 -0.4636665685 0.3124681818 -0.4633732897 -0.0992532525 0.153312938
470297180.0 -0.0695576289 0.1599193656 0.3075704613 -0.4671202809 0.3077700474 -0.4669086207 -0.0982706939 0.1543501107
475297150.0 -0.067944141 0.1605028339 0.3017780017 -0.4700234628 0.3023423117 -0.4699095005 -0.096493094 0.1557675506
480297120.0 -0.0658431467 0.161200839 0.2968985123 -0.4732025063 0.2971864781 -0.4734554384 -0.0949748746 0.1571539981
485297090.0 -0.0638451958 0.1620175644 0.292283165 -0.4766334181 0.2918796556 -0.4767132864 -0.0936668905 0.1579528379
490297060.0 -0.0623189405 0.1629360299 0.2869559831 -0.4798670212 0.2866758112 -0.4800185072 -0.0919682016 0.1593275595
495297030.0 -0.0606632345 0.1639702905 0.2810772177 -0.4830233976 0.2811087397 -0.4828355278 -0.0905371091 0.1600702268
500297000.0 -0.0585452839 0.1643826402 0.2757660292 -0.485765112 0.2759038454 -0.4855154966 -0.0892039336 0.1612271753
505296970.0 -0.0568022838 0.1655442271 0.2704751052 -0.4881539523 0.2704924041 -0.4885218893 -0.0881469991 0.1624986869
510296940.0 -0.0549166465 0.1664100211 0.2652801273 -0.4916778319 0.265374583 -0.4918114225 -0.0859713905 0.1634716231
515296910.0 -0.053175654 0.1673203582 0.259641854 -0.4943390242 0.260252575 -0.4944098112 -0.084900768 0.1644450643
520296880.0 -0.0511779265 0.1675873061 0.2546759331 -0.497214099 0.254525569 -0.4971222314 -0.0830143693 0.1652258469
525296850.0 -0.0493758094 0.1684138401 0.2488357934 -0.4998732557 0.2489500598 -0.4999559594 -0.0810434248 0.166506131
530296820.0 -0.047634415 0.1688763091 0.2440260735 -0.5018613659 0.2435663254 -0.5023870609 -0.0800837615 0.1671351721
535296790.0 -0.0457308159 0.1696124684 0.2380403689 -0.5047806359 0.2385693727 -0.5048072639 -0.0782570778 0.1679371142
540296760.0 -0.0440072263 0.1700990294 0.2328445883 -0.5081592159 0.2325633098 -0.50788786 -0.0772111342 0.1693437132
545296730.0 -0.04199694 0.1711182265 0.2270874011 -0.5097934444 0.2271610406 -0.5100886839 -0.0755591616 0.1697301342
550296700.0 -0.040084968 0.1714479851 0.2217287379 -0.512366398 0.2221239768 -0.5128013655 -0.0737698388 0.1709484799
555296670.0 -0.0376972113 0.1716338721 0.2157991276 -0.5147859369 0.2162664603 -0.5147541304 -0.0723485894 0.1722083753
560296640.0 -0.0362712901 0.1726768415 0.2106163256 -0.5173563623 0.2108027579 -0.516941369 -0.0706346872 0.1727034808
565296610.0 -0.0344692023 0.1730363453 0.2045014592 -0.5192834115 0.204917198 -0.5194503849 -0.0690840552 0.1734718395
570296580.0 -0.0321534 0.1734707323 0.1989480602 -0.5212757071 0.1996248799 -0.5213405657 -0.0673763406 0.1749422416
575296550.0 -0.030180762 0.1742507918 0.1933091859 -0.5233123751 0.1936689988 -0.5234573872 -0.0653029195 0.1752806522
580296520.0 -0.0286175739 0.1745708444 0.1883270762 -0.5255312705 0.1878892632 -0.5257618965 -0.0643549932 0.1758471549
585296490.0 -0.0264413886 0.1745274515 0.1824479496 -0.5274412151 0.1822506328 -0.5275021756 -0.0625508975 0.1765265221
590296460.0 -0.0248162279 0.1751197432 0.1763269859 -0.5294600236 0.1766119627 -0.5297703854 -0.0607028138 0.1777295501
595296430.0 -0.0228522362 0.175646818 0.170813549 -0.5309320658 0.1706662779 -0.5314927057 -0.0589785497 0.178008237
600296400.0 -0.0207000623 0.1760622595 0.1651622685 -0.5330391345 0.1654642455 -0.5331958679 -0.0574061247 0.1791264915
605296370.0 -0.0186674966 0.1767659783 0.1595119912 -0.5349225691 0.1596395148 -0.5347871254 -0.0559049857 0.1797514244
610296340.0 -0.0167049395 0.1769344933 0.1539741486 -0.5361419113 0.1537275351 -0.5368736868 -0.0538840643 0.180526838
615296310.0 -0.0148701662 0.1774697149 0.1474056219 -0.5379305207 0.1477522724 -0.5381027185 -0.0522334416 0.1811761708
620296280.0 -0.0129112986 0.1774177452 0.1420137761 -0.5392768112 0.1419826025 -0.5394920097 -0.0504997821 0.1815100478
625296250.0 -0.010763228 0.1779036964 0.1360192307 -0.5408731701 0.1358183201 -0.5410617818 -0.0486131165 0.1821955968
630296220.0 -0.008787246 0.1783011984 0.1298770562 -0.5428400023 0.1304967684 -0.5426522014 -0.0471467549 0.1832685899
635296190.0 -0.0066081455 0.1783872972 0.1240243896 -0.5434804417 0.1240915704 -0.5437340668 -0.0453538371 0.1836561102
640296160.0 -0.0050347428 0.1785980667 0.1186044787 -0.5446514797 0.1185077894 -0.5450907055 -0.0435900024 0.1840719381
645296130.0 -0.0030773525 0.1790405906 0.1122286172 -0.5465944888 0.1123566039 -0.5463471787 -0.0423232603 0.1844518466
650296100.0 -0.0010306816 0.1794650752 0.1069422913 -0.5473924015 0.1069824208 -0.5474199929 -0.0401444382 0.185416568
655296070.0 0.0010161523 0.1792111561 0.1007165223 -0.5487986406 0.1004788085 -0.5482735305 -0.0380266183 0.185598246
660296040.0 0.0027305147 0.1798173474 0.0946101006 -0.5494455435 0.095042295 -0.5491231204 -0.0367743904 0.186442298
665296010.0 0.0051129795 0.1793871675 0.0890889062 -0.5507137734 0.0896132849 -0.5504315599 -0.0354222099 0.1868590919
670295980.0 0.0075185877 0.1796864076 0.0833696527 -0.5514787902 0.0834920323 -0.5510235896 -0.0333890579 0.1871009913
675295950.0 0.0091359559 0.1797031777 0.0769006148 -0.5522265134 0.077095686 -0.552495212 -0.0311494184 0.1875677514
680295920.0 0.0108948111 0.1800265078 0.0710709344 -0.5530626272 0.0705853352 -0.5527156999 -0.0294614433 0.1879856354
685295890.0 0.0130475304 0.1799015976 0.0655241341 -0.5535217089 0.0649315339 -0.5539533202 -0.0278207526 0.1884743215
690295860.0 0.0152820806 0.1798705187 0.0592464154 -0.5538901908 0.0582611893 -0.5537858029 -0.0255342877 0.1893959554
695295830.0 0.0173082124 0.1797249232 0.0527186022 -0.5546300482 0.0527713419 -0.5549225913 -0.0243421788 0.189470728
700295800.0 0.0195710327 0.1798979732 0.0467914447 -0.5555532579 0.0469679642 -0.5555035395 -0.0223588521 0.1895397152
705295770.0 0.0216987573 0.1797450459 0.04076212 -0.5558327766 0.0415175938 -0.5561851387 -0.0208546277 0.1901000155
710295740.0 0.0233138105 0.179900324 0.035272984 -0.5565500079 0.0348253997 -0.5560685844 -0.0195613002 0.1907531615
715295710.0 0.0251605122 0.1797354732 0.0293162037 -0.556569801 0.0292323786 -0.5564878783 -0.0169843651 0.1906030816
720295680.0 0.0270514911 0.1793662423 0.0231927876 -0.556811192 0.023193043 -0.5572056161 -0.0150047356 0.1911160138
725295650.0 0.0296026932 0.1793031764 0.0163843393 -0.556513563 0.0169873986 -0.5570466432 -0.01336501 0.1915920486
730295620.0 0.0311523317 0.1788849359 0.0110908453 -0.5569953158 0.0107971519 -0.5567639426 -0.0112439339 0.1911732441
735295590.0 0.0335359233 0.1787698896 0.0054301669 -0.5569338999 0.0052307614 -0.557390518 -0.009332926 0.1919052022
740295560.0 0.0353699632 0.1788881127 -0.0009655319 -0.5566917706 -0.0006724517 -0.5571126615 -0.0076009829 0.1919860108
745295530.0 0.0373248041 0.1781996488 -0.0071098548 -0.5572627013 -0.0068679625 -0.557134805 -0.0060848638 0.1924829677
750295500.0 0.0394706269 0.1779667198 -0.0126373271 -0.5565340764 -0.01267083 -0.5565029096 -0.0039085018 0.1921247578
755295470.0 0.0420143348 0.1782962404 -0.0192308229 -0.5568346296 -0.0189538105 -0.5567759087 -0.0024541281 0.1927657498
760295440.0 0.0434719128 0.1778012289 -0.025074363 -0.5566182192 -0.02488654 -0.5564776507 -0.0009323462 0.1928083029
765295410.0 0.0453146102 0.1771519508 -0.0305347349 -0.5558378599 -0.0308087801 -0.5561433886 0.0020673909 0.1933383489
770295380.0 0.0476774386 0.1772342611 -0.0371223721 -0.555822594 -0.0366604316 -0.5560906765 0.003856716 0.1935017453
775295350.0 0.0495244656 0.1763544336 -0.042856985 -0.5545408638 -0.0427947013 -0.555099469 0.0050983268 0.1927170153
780295320.0 0.0516983559 0.1760079171 -0.0489174062 -0.5545936175 -0.0484749777 -0.5549029008 0.0071490488 0.1934620109
785295290.0 0.053232466 0.1760046034 -0.054618938 -0.5533463159 -0.0547034134 -0.5541907286 0.0085244361 0.1932434746
790295260.0 0.0555993117 0.1755358328 -0.0603599313 -0.5535238567 -0.0610155768 -0.5538813474 0.0110273007 0.1935088115
795295230.0 0.057264812 0.1750938413 -0.0662902681 -0.5523520839 -0.0666402075 -0.5525593338 0.0127951532 0.1940880105
800295200.0 0.0594257827 0.1745222857 -0.0730262396 -0.5525778392 -0.0728823531 -0.5522060934 0.0147799189 0.1937665621
805295170.0 0.0611482953 0.1739169189 -0.0785761888 -0.5506333092 -0.0785929484 -0.551094696 0.0159520505 0.1934120704
810295140.0 0.0632303534 0.1734799495 -0.0842813928 -0.5500708421 -0.0840251287 -0.5506603746 0.0184476022 0.1939584484
815295110.0 0.0651151176 0.1730030042 -0.0905866248 -0.5489654118 -0.0902632419 -0.5493001119 0.0200320655 0.1934933319
820295080.0 0.0671797942 0.1718345356 -0.0961285763 -0.5482219194 -0.0960886721 -0.5486524699 0.0217598346 0.1935188834
825295050.0 0.0691785828 0.1714420924 -0.1018271521 -0.5465663854 -0.1021299272 -0.547019623 0.024232313 0.1934042105
830295020.0 0.0709279679 0.1712531164 -0.1081172909 -0.5457872864 -0.1085487895 -0.546253963 0.0256499411 0.1932295326
