!Created with skrf (http://scikit-rf.org).
# Hz S RI R 50.0 
!freq ReS11 ImS11 ReS21 ImS21 ReS12 ImS12 ReS22 ImS22
300000.0 -0.049747924 -0.0431594597 6.32012e-05 0.0024239011 0.000384333 0.0020135153 -0.7777700713 -0.1276841551
5299970.0 -0.0498074847 0.0157453504 0.0003999004 0.000238161 -0.0001431664 0.0001754678 -0.7849066339 -0.0070050746
10299940.0 -0.0443535247 0.0328556475 2.61576e-05 8.46001e-05 -6.40515e-05 -0.0002657036 -0.7873737648 -0.003550363
15299910.0 -0.0360723998 0.0471608547 -4.5407e-05 4.66579e-05 -0.0002114444 -8.0408e-06 -0.7934143146 -0.0013120118
20299880.0 -0.026311337 0.058694913 -0.0001152005 2.3604e-05 -6.42896e-05 -2.04319e-05 -0.7994222843 0.0026072097
25299850.0 -0.0151572078 0.0682719143 4.90185e-05 0.0001088518 7.85933e-05 3.9119e-05 -0.8058590176 0.0083918125
30299820.0 -0.0040959083 0.0749820738 4.72997e-05 -8.8877e-06 0.0001191146 -9.0648e-05 -0.8121970945 0.0165212297
35299790.0 0.0071882254 0.0796690726 1.86415e-05 -5.40488e-05 0.0001840147 2.55391e-05 -0.8171060318 0.0251418461
40299760.0 0.0185959996 0.0827967364 0.0003023159 -8.75872e-05 -0.0001859279 -6.26903e-05 -0.8208518175 0.034525404
45299730.0 0.0291021739 0.0841435893 0.0001816809 0.0001082056 -5.34807e-05 3.34668e-05 -0.825068647 0.0440633229
50299700.0 0.0391612931 0.0844134444 0.0001404159 0.0001414741 8.70768e-05 -5.80983e-05 -0.8275378641 0.0534769525
55299670.0 0.0484087023 0.0832716347 6.35421e-05 -0.0001058845 2.75153e-05 -2.35385e-05 -0.8300208662 0.0647462148
60299640.0 0.0568373377 0.081922172 0.0001483354 0.0001462818 -3.1041e-06 6.92545e-05 -0.8307844304 0.0740020956
65299610.0 0.0646454104 0.0796297076 9.9435e-05 -5.28157e-05 9.0189e-06 -0.0001687292 -0.8325679547 0.0839928005
70299580.0 0.0716639681 0.0771428257 0.000169677 -1.55365e-05 0.0001040669 9.96739e-05 -0.8316904542 0.0947945668
75299550.0 0.0780037463 0.0739909403 -0.0001035554 0.0001834356 7.73772e-05 0.0001681055 -0.8323444679 0.1046692812
80299520.0 0.0837553 0.0705054839 3.83245e-05 2.58782e-05 -2.77103e-05 6.41677e-05 -0.8322382863 0.1145082955
85299490.0 0.0886483467 0.066763586 0.0001201058 0.0001637275 -2.52299e-05 7.43306e-05 -0.831358302 0.1236478948
90299460.0 0.0933037363 0.0631707468 4.66813e-05 2.17874e-05 1.40869e-05 0.0001055453 -0.8306505303 0.1334623665
95299430.0 0.0976017063 0.0590319863 -8.26077e-05 9.37512e-05 -0.0001123497 6.94282e-05 -0.8292078099 0.1429302165
100299400.0 0.101247135 0.0557517002 0.0002091216 0.0001682538 8.36123e-05 0.0001061391 -0.8286994304 0.1523714505
105299370.0 0.104514029 0.0518279401 5.96179e-05 0.0001438274 6.73609e-05 0.0001027224 -0.8274854893 0.1612951595
110299340.0 0.1073959814 0.047861712 1.45988e-05 0.0003676983 0.0001220022 0.0001276248 -0.825883872 0.170730385
115299310.0 0.110246509 0.0438674931 0.0001989286 -0.00010458 -0.0001003581 4.30694e-05 -0.8241371501 0.1801156605
120299280.0 0.1122490961 0.0401758715 0.0002679266 0.0003230336 3.89028e-05 1.68359e-05 -0.8225516266 0.1888455144
125299250.0 0.1140737289 0.0363857841 0.0001433666 0.0001987006 -0.0001223624 -6.27733e-05 -0.820934016 0.1982233131
130299220.0 0.1157231916 0.0330079793 -0.0001493123 -3.11821e-05 0.0001821057 0.0001589622 -0.818796256 0.2070233584
135299190.0 0.1176382009 0.0296480659 6.35114e-05 0.0002488645 8.63308e-05 3.6014e-06 -0.8161507002 0.2160956042
140299160.0 0.1188641538 0.0260339779 0.0001481658 -0.0001167001 3.03902e-05 4.44814e-05 -0.814303755 0.2250524485
145299130.0 0.1197447098 0.0226741796 0.000103921 0.0002346776 0.00010549 -0.0002247716 -0.8122789903 0.2343487551
150299100.0 0.121227412 0.0190892224 -1.83612e-05 0.0003076563 -0.0001133228 0.0001370409 -0.8104902741 0.2434700118
155299070.0 0.1217809289 0.0158592255 8.22913e-05 9.91872e-05 0.0001517686 -4.1055e-05 -0.8075445476 0.2519102055
160299040.0 0.1218481757 0.0131219046 7.48595e-05 0.0001510685 2.81278e-05 -3.3943e-05 -0.8049469026 0.2609512246
165299010.0 0.1228585123 0.009820382 0.0001833954 7.75604e-05 3.93449e-05 2.14519e-05 -0.8026381511 0.2694381503
170298980.0 0.1231991885 0.0068295806 5.9296e-05 -6.75724e-05 0.0001016232 -8.08689e-05 -0.7989567108 0.2784152204
175298950.0 0.1233192685 0.0038369598 8.51339e-05 0.0001584222 0.0002301558 4.10742e-05 -0.7970692083 0.2869820135
180298920.0 0.1239209474 0.0010855831 -7.07614e-05 0.0002604676 -5.27729e-05 7.67488e-05 -0.7935694011 0.2953822186
185298890.0 0.1241006706 -0.0020183138 -5.09048e-05 -1.9718e-05 0.0002042282 0.0001879679 -0.7899358002 0.3038034375
190298860.0 0.1242392415 -0.0046557789 -6.87569e-05 4.70172e-05 9.90355e-05 0.0001371738 -0.7877645104 0.3125119307
195298830.0 0.1239820742 -0.0073023 0.0001691776 0.0001945483 2.51339e-05 0.0001350702 -0.7845358807 0.3214809462
200298800.0 0.1239134551 -0.0098316549 9.10727e-05 0.0002118564 0.0001120891 -8.52974e-05 -0.7815392622 0.3292136387
205298770.0 0.1236972205 -0.0123982832 -3.71803e-05 -1.05299e-05 9.58502e-05 4.43867e-05 -0.7774901095 0.338134586
210298740.0 0.1233463952 -0.0149827982 4.31547e-05 0.0001966154 6.75003e-05 0.0001349972 -0.7742566022 0.3457819051
215298710.0 0.1230817489 -0.0174334208 0.0001222125 0.0001218322 0.0002745486 -0.0001008568 -0.770957 0.3544925539
220298680.0 0.1225615683 -0.0200326512 -0.0002591568 -3.00401e-05 3.49108e-05 9.20973e-05 -0.7670032519 0.3619865303
225298650.0 0.1222439274 -0.022389492 0.0002486693 0.0001247371 0.0003990605 6.20731e-05 -0.763789803 0.370161628
230298620.0 0.1218683086 -0.0245000748 0.000150888 -5.58111e-05 4.70479e-05 0.000223206 -0.7598219629 0.3782256902
235298590.0 0.1214492502 -0.0266827132 -2.25554e-05 0.0001446289 -2.74152e-05 -5.13988e-05 -0.7560623167 0.3872145015
240298560.0 0.1208684314 -0.0290701732 0.0001487851 0.000179043 3.67452e-05 -5.06941e-05 -0.7517886557 0.3953829862
245298530.0 0.1202994595 -0.0314226983 3.08683e-05 7.50148e-05 0.0002101034 9.19039e-05 -0.7478244632 0.4029060632
250298500.0 0.1197018371 -0.0332495041 0.0001775863 7.54765e-05 0.0002232665 0.0002049136 -0.743875523 0.4102794246
255298470.0 0.1187385548 -0.0355025904 -5.43292e-05 0.0002024959 0.0002033709 0.000126593 -0.7386395728 0.4181442645
260298440.0 0.1180992653 -0.0372970995 0.0002347085 0.0001267005 0.0001414769 6.1609e-05 -0.7351326997 0.4260389152
265298410.0 0.1174382273 -0.0392715699 6.4229e-05 0.0001019907 0.0001582198 4.15204e-05 -0.7303110333 0.434132245
270298380.0 0.1167120977 -0.0412005458 0.0001002584 0.0001641313 0.0001837888 4.65698e-05 -0.72584639 0.441450406
275298350.0 0.116131722 -0.0431359453 0.0001496824 0.0003448131 0.0002387186 0.0001379133 -0.7211680112 0.4485467617
280298320.0 0.1156211953 -0.0451011824 2.93152e-05 0.0002070382 0.0001494372 0.0001984525 -0.7157860407 0.4561918938
285298290.0 0.1148330348 -0.0467654559 0.0003278401 9.3375e-05 0.0001908338 0.0001225956 -0.7111632486 0.4641283
290298260.0 0.1138054689 -0.0485650795 2.62615e-05 -3.1219e-05 3.88331e-05 1.63932e-05 -0.7059066646 0.470905591
295298230.0 0.1129185243 -0.0504982202 0.0002082199 4.5942e-06 3.53575e-05 0.0001161199 -0.7012630561 0.4783489149
300298200.0 0.1121497335 -0.0522497114 0.0002979223 7.11943e-05 -3.4349e-05 8.14818e-05 -0.6959847617 0.4856064998
305298170.0 0.1111754734 -0.0542138714 0.0001172046 -2.26774e-05 0.0001434536 0.0002079321 -0.6903612542 0.4930474093
310298140.0 0.110349549 -0.0556900429 5.4811e-06 -0.0001403548 0.0002776595 6.96818e-05 -0.6856244819 0.4999542168
315298110.0 0.1099544338 -0.0575470993 5.74944e-05 0.0002849456 -7.33473e-05 8.18178e-05 -0.6801346776 0.5073314489
320298080.0 0.1089178424 -0.0595831993 0.0003788129 -2.542e-07 0.0002571214 0.0001270102 -0.6743601326 0.5147957285
325298050.0 0.1076141249 -0.0610932542 0.0002032237 0.0001691733 0.0001370601 9.00348e-05 -0.6686335138 0.5215483224
330298020.0 0.1062114936 -0.0628880304 0.0002913621 7.15025e-05 -7.96348e-05 -9.93477e-05 -0.663633187 0.528753492
335297990.0 0.1049628147 -0.0646101685 -6.21692e-05 1.19733e-05 0.0001771443 6.22941e-05 -0.6583181104 0.5355881137
340297960.0 0.1033845309 -0.0659231391 9.35913e-05 0.0002565521 0.0002651301 -4.90184e-05 -0.6523541726 0.5425345045
345297930.0 0.102271287 -0.0674248396 0.0002382765 0.0003230717 0.0001969807 5.89457e-05 -0.6467695516 0.548517627
350297900.0 0.1011201201 -0.068424752 0.0004393181 0.0001008039 0.0002103852 0.0003367004 -0.6412938397 0.555511722
355297870.0 0.1001201634 -0.0700571652 0.0002542043 0.0002206205 0.0001693158 0.0001289116 -0.6354137661 0.5614680774
360297840.0 0.0988674299 -0.0711822136 0.0001956072 6.4117e-05 8.75999e-05 6.81886e-05 -0.62961182 0.5689683206
365297810.0 0.0975843417 -0.0724867823 0.0004635261 0.0001374678 3.39152e-05 0.0002232722 -0.6231077007 0.5754185708
370297780.0 0.0965037962 -0.0738926327 0.0001797685 -4.68246e-05 7.44978e-05 1.33558e-05 -0.6177103205 0.5821399252
375297750.0 0.0955499141 -0.0749085846 6.62038e-05 -3.4136e-05 0.0001302883 0.0001024192 -0.6119107384 0.5880458403
380297720.0 0.0941086822 -0.0761868369 0.0002022306 1.88623e-05 0.0002029952 5.77518e-05 -0.6058099403 0.5945911033
385297690.0 0.0928874591 -0.0770926822 0.0004120836 0.0001714904 0.0001312191 0.0002501878 -0.5988315707 0.6012178778
390297660.0 0.0912532089 -0.0782137369 0.000301716 0.0002415999 0.0001294707 1.37456e-05 -0.5933788993 0.6063651339
395297630.0 0.0905017342 -0.0797080953 0.0001569603 0.0002782152 0.000314772 0.0001350455 -0.5866660433 0.6135542174
400297600.0 0.0893956921 -0.0805434003 0.0003220131 5.7449e-05 0.0003667804 4.36254e-05 -0.5806317969 0.619237137
405297570.0 0.0877451394 -0.0814789828 7.47393e-05 0.000105579 0.0003693343 0.0002168569 -0.5734844907 0.6250437665
410297540.0 0.0864772897 -0.083002906 0.0002136115 0.0001441549 9.09666e-05 4.43706e-05 -0.5680218282 0.6307920061
415297510.0 0.085331082 -0.084358764 0.0004713639 0.0001010415 2.18895e-05 6.85706e-05 -0.5610478779 0.6368099329
420297480.0 0.0839786375 -0.0847298369 0.0001249704 -2.2648e-05 0.0003518981 0.000152134 -0.5540976426 0.6427704802
425297450.0 0.0827478547 -0.0857757042 0.0003923438 0.0001749604 5.0592e-06 0.0001297901 -0.5481133488 0.64811961
430297420.0 0.081494681 -0.0868331838 0.0005107469 0.0002135359 0.0001785863 0.0001464191 -0.5410934909 0.6528271224
435297390.0 0.0800662139 -0.0875107755 0.0002669225 5.52471e-05 0.0001402479 0.0001172291 -0.5334647368 0.6587267671
440297360.0 0.0786538342 -0.0889028877 0.0002195052 5.43663e-05 0.0002443855 0.0001539001 -0.5273643148 0.6637310747
445297330.0 0.0772355919 -0.0897192003 0.0001588402 -9.313e-06 8.96266e-05 0.0001807029 -0.5199978695 0.6687463447
450297300.0 0.076088608 -0.0908869701 0.0003290949 0.0002445028 0.0001891434 5.9567e-06 -0.5131493518 0.6742582864
455297270.0 0.0746019832 -0.0915198128 0.0004510078 0.0001133942 0.0003523686 0.0001573918 -0.5062447739 0.6785421279
460297240.0 0.0733421859 -0.0923026093 0.0004255553 0.0002801739 0.0001564676 -0.0001103618 -0.4995719519 0.6841448754
465297210.0 0.0719769734 -0.0932980202 0.0002416343 -9.47814e-05 6.74208e-05 4.37336e-05 -0.4916519157 0.6890833838
470297180.0 0.0707235216 -0.093995042 0.0001812868 4.47944e-05 -8.68825e-05 -2.1724e-06 -0.4847075706 0.6946384536
475297150.0 0.0690668615 -0.0947964202 0.0002742826 8.3327e-05 0.000428411 4.92764e-05 -0.4775476697 0.6987443823
480297120.0 0.0681624034 -0.0953884102 0.0002816571 9.15352e-05 0.000246686 0.0002088226 -0.4698656653 0.7041947997
485297090.0 0.06679495 -0.0961768672 7.32941e-05 -0.0002555068 0.0002226128 -1e-10 -0.4627675416 0.7082745955
490297060.0 0.0651157545 -0.0965792559 0.0002579817 0.000157703 0.0001821208 0.0001139137 -0.4557185815 0.7125530108
495297030.0 0.0638459132 -0.0973650549 0.000112583 -3.79811e-05 0.0003121028 0.0002466138 -0.4484037467 0.7179914698
500297000.0 0.0624035847 -0.098241008 0.0001870607 -4.19341e-05 0.0002272534 0.0002018985 -0.4408640587 0.7225496004
505296970.0 0.0612231179 -0.098930143 0.0003328135 -8.50799e-05 0.0001853938 -0.0002054055 -0.4333373575 0.7268130502
510296940.0 0.0597960191 -0.0997624275 0.0002601063 5.91071e-05 0.0001043106 0.0001932043 -0.4259473406 0.7314373251
515296910.0 0.0586114762 -0.0999960788 8.38831e-05 -1.80596e-05 0.000337643 0.0002748964 -0.4182117913 0.7350983105
520296880.0 0.056684356 -0.1006871352 0.0003856668 0.0001148471 0.0003423051 -5.01508e-05 -0.4108481512 0.7391391541
525296850.0 0.0554613073 -0.1013351402 0.0001424316 -1.7657e-06 0.0001295909 0.0002966653 -0.403954753 0.7439323096
530296820.0 0.0542380129 -0.1017922753 8.81317e-05 0.000349099 4.01683e-05 0.0001288731 -0.3961097737 0.7475598054
535296790.0 0.0525601907 -0.1022646859 0.000106261 -5.63967e-05 0.0003770771 -4.00299e-05 -0.3886404907 0.7514667931
540296760.0 0.0511381335 -0.1028186051 2.43606e-05 0.0001167009 0.0001892768 1.83761e-05 -0.3803768273 0.7561070461
545296730.0 0.049609331 -0.1033184987 0.000363354 0.0001279532 0.0002636695 0.0001673312 -0.3729383525 0.7597334527
550296700.0 0.0486651483 -0.1038134899 0.0003089269 0.0001369121 0.0002878217 9.27281e-05 -0.3653478425 0.7630713609
555296670.0 0.0467741402 -0.1042180173 0.0003623742 -0.0001080917 0.0004238556 6.25265e-05 -0.357694261 0.7675283314
560296640.0 0.0456796247 -0.1045530163 0.0003394114 -0.0001174709 0.0003577307 -5.9201e-06 -0.3497465985 0.7712397092
565296610.0 0.0439526622 -0.1051243491 0.0005036035 0.0001425207 0.0001906452 0.0001430036 -0.3417866948 0.7736687694
570296580.0 0.0423572249 -0.1052586753 0.0003072279 -4.24315e-05 0.0002231472 0.0001003484 -0.3350580995 0.7781399099
575296550.0 0.041276646 -0.1057290536 0.0003483573 1.43476e-05 0.0002577751 2.49245e-05 -0.3261370083 0.7809384125
580296520.0 0.0399472532 -0.1061745823 0.0004472651 0.0002276068 0.0004460505 7.4178e-05 -0.318313847 0.7843638747
585296490.0 0.0381807074 -0.1066475928 0.0002927721 5.78576e-05 0.0003282319 1.0959e-06 -0.3105884149 0.7876169197
590296460.0 0.0369647173 -0.1065932137 0.0003852136 1.85699e-05 0.0004213949 0.0001148616 -0.3024514117 0.7904601936
595296430.0 0.03523956 -0.1068668467 0.0001635249 -2.65564e-05 0.0004777303 -9.39827e-05 -0.2945432989 0.7927850995
600296400.0 0.0336322492 -0.1073301849 0.0002888481 0.0001471746 0.0003267534 -8.6109e-06 -0.286600066 0.7959160999
605296370.0 0.0323516641 -0.107543641 0.0001182779 3.26869e-05 0.0005867259 5.35627e-05 -0.2777903404 0.7986409745
610296340.0 0.0309365674 -0.1077193783 0.0005218026 -0.0002374069 0.0003084768 0.0002463842 -0.2702742675 0.8010533325
615296310.0 0.0294669098 -0.1080285629 0.0003411017 0.0004014848 0.0001636694 0.000156944 -0.2619791393 0.8035219548
620296280.0 0.0280132508 -0.1081728569 0.0005315807 5.92663e-05 0.0003586178 0.0001809794 -0.2542160533 0.8061849417
625296250.0 0.0265763714 -0.1085633508 0.0005149781 3.99961e-05 0.0002265426 3.91779e-05 -0.2454880426 0.8081471648
630296220.0 0.0253886107 -0.1086721067 0.0002483093 8.614e-05 0.0002744839 9.79416e-05 -0.2376056173 0.8111349598
635296190.0 0.0234890805 -0.1086368788 0.0005350307 0.0002045735 0.0002251909 0.0001670001 -0.2292071082 0.8132926379
640296160.0 0.0222555527 -0.1088549301 0.0002739415 0.0001624971 0.0003948061 0.0003210322 -0.2208183891 0.8156342753
645296130.0 0.0207007228 -0.1086825876 0.0002956131 -4.1017e-05 0.0002628714 -0.0001579182 -0.212727661 0.8175671907
650296100.0 0.0190984318 -0.1087778689 0.0004316408 0.0002340902 0.0001920722 -0.0001238366 -0.2049896568 0.8189559217
655296070.0 0.0176503129 -0.1090857131 0.0002238927 -2.12745e-05 0.0002666882 2.79762e-05 -0.1963716223 0.8213499183
660296040.0 0.0162962981 -0.1087966079 0.0007566521 -0.0003047688 0.0003206425 6.74631e-05 -0.1872190391 0.8234587219
665296010.0 0.015176523 -0.1093131077 0.0004007065 -0.0002403601 0.0004263191 6.96365e-05 -0.178961972 0.8252644797
670295980.0 0.0131699483 -0.1088443242 0.0003497714 0.0001803351 0.0004228848 -9.25487e-05 -0.1717566286 0.8270077954
675295950.0 0.0120361488 -0.108650335 0.0005443612 -0.0001963903 0.0003166466 -9.19028e-05 -0.163627741 0.8290081526
680295920.0 0.0106871712 -0.1086790169 0.0003346383 -5.63565e-05 0.0004893328 0.0001671242 -0.1549132436 0.8310179987
685295890.0 0.0093905722 -0.1084423761 0.0001406595 -9.88756e-05 0.0003450068 1.013e-06 -0.145826587 0.8318604874
690295860.0 0.007999965 -0.1085944663 0.0004767868 -0.0001016587 0.000477539 0.0001466852 -0.1377600985 0.8338958519
695295830.0 0.0062626367 -0.108532243 0.0005822261 -8.35953e-05 0.0002671747 2.52235e-05 -0.1293007927 0.8346157637
700295800.0 0.0048411957 -0.1086215443 0.0005059617 -0.0001818441 0.0003150872 2.05365e-05 -0.1216691062 0.8364842192
705295770.0 0.0034552434 -0.1080913077 0.0004001827 0.0001104996 0.0002959546 -0.0001696917 -0.1131962561 0.8381194451
710295740.0 0.0018961273 -0.1082266827 0.0005012529 1.91283e-05 0.0004639897 0.0001362826 -0.1050161668 0.8387241285
715295710.0 0.0007188752 -0.1079938976 0.0004320453 -0.0001869928 0.0003341035 -1.92147e-05 -0.0961110238 0.8397638863
720295680.0 -0.0007733223 -0.1076937758 0.0003769791 -0.000180456 0.0001812843 -0.0001536018 -0.0875564409 0.8409753064
725295650.0 -0.0023022685 -0.1072738212 0.0004792376 -4.24101e-05 0.0003911776 -6.10199e-05 -0.0792236937 0.8421286648
730295620.0 -0.0035933497 -0.1071047882 0.0001527346 0.0003435608 0.0003597444 -9.379e-06 -0.071444905 0.841741898
735295590.0 -0.0049732396 -0.1066324383 0.0001450924 5.97771e-05 0.0005628001 -0.0001107947 -0.0629878754 0.8429929183
740295560.0 -0.006586703 -0.1064781103 0.0005963158 -7.99297e-05 0.0005110378 0.0001111801 -0.0537466775 0.843918633
745295530.0 -0.008226883 -0.106022589 0.000557347 8.11341e-05 0.0004082823 -4.3672e-06 -0.045516968 0.844314543
750295500.0 -0.00941057 -0.1059440897 0.0005249942 -0.0001522269 0.0003483811 -0.0001641101 -0.0375127744 0.8446501587
755295470.0 -0.0108505489 -0.1059217024 0.0002402917 -0.0001114313 0.0002951046 7.69598e-05 -0.0283987054 0.8436535312
760295440.0 -0.0121729923 -0.1051707792 0.0003007617 -0.0001307295 0.0004950523 -0.0001211493 -0.0207079841 0.8440527473
765295410.0 -0.0136075737 -0.1048626634 0.0004901925 -0.0002700256 0.0006606125 6.67266e-05 -0.0122963632 0.8453638244
770295380.0 -0.0149920575 -0.1045016856 0.0006050998 -0.0001375898 0.0004492538 -0.0001756907 -0.0040209597 0.8447244353
775295350.0 -0.0164925362 -0.1044450334 0.0004252808 5.15529e-05 0.0003554443 -0.0001185591 0.0042487054 0.844244868
780295320.0 -0.0178950138 -0.1036295233 0.0004808736 0.0001350204 0.0004451388 -0.0001054039 0.0128041621 0.8442756887
785295290.0 -0.0190858288 -0.1035203883 0.0005242738 0.0001093127 0.0004971567 8.38258e-05 0.0216396145 0.8439086016
790295260.0 -0.0202172646 -0.1027706662 0.0002300824 -3.50198e-05 0.0005639851 -6.80447e-05 0.0303195613 0.8442838595
795295230.0 -0.0219522305 -0.1023292116 0.0004369781 -0.0002836065 0.0005323898 -0.000117976 0.0389660437 0.8429904796
800295200.0 -0.0231288574 -0.1017523246 0.0003575317 -0.0001236896 0.0004789676 8.279e-07 0.0472565332 0.8425083859
805295170.0 -0.0245075167 -0.1016523396 0.0004703213 -0.0001660186 0.0001817679 2.5501e-06 0.0551130425 0.8424044218
810295140.0 -0.0256118415 -0.1009767853 0.0004217539 -3.76643e-05 0.0005944272 -0.0002911336 0.063929303 0.8414535611
815295110.0 -0.0271994704 -0.1006011233 0.0001858975 5.03002e-05 0.0004674488 -1.48701e-05 0.0722064017 0.8408399405
820295080.0 -0.0282486837 -0.0997320749 0.0002741838 -0.000169857 0.0004958894 5.65494e-05 0.0804131855 0.8405168455
825295050.0 -0.0293502085 -0.0992937924 0.0005863544 -0.0004720362 0.0006391671 -0.0002447899 0.0892644526 0.8396548497
830295020.0 -0.0306592766 -0.09878956 0.0004080695 -0.0001715077 0.0005235325 1.26874e-05 0.0981441063 0.8386321663
835294990.0 -0.0322375774 -0.0980125334 0.0003504442 -6.95302e-05 0.0004481304 -6.69309e-05 0.1057059595 0.8375753477
840294960.0 -0.0335978247 -0.0974125677 0.0003884345 -0.000229032 0.0004140816 -4.7943e-05 0.1142469215 0.8364141669
845294930.0 -0.0346444751 -0.0967704431 0.000304451 -5.5851e-05 4.9697e-05 -0.0001336581 0.1217988509 0.8348772289
850294900.0 -0.0357668848 -0.09603684 0.0004127116 -6.60216e-05 0.0004894118 -0.0001600003 0.1304703576 0.8338446831
