!Created with skrf (http://scikit-rf.org).
# Hz S RI R 50.0 
!freq ReS11 ImS11 ReS21 ImS21 ReS12 ImS12 ReS22 ImS22
300000.0 -0.2362874804 -0.1115032193 0.4674145628 0.0717331815 0.4704969859 0.0741296374 -0.236661267 -0.1136037181
5299970.0 -0.2407119641 0.0069376477 0.4752991636 0.0054771529 0.4751755067 0.0056324987 -0.2450063695 0.0052752741
10299940.0 -0.2371352417 0.0198795612 0.4771614731 0.0061918198 0.4769417423 0.0067477638 -0.2417003576 0.0173613152
15299910.0 -0.2329413215 0.0296121179 0.4804645396 0.0075679869 0.4804680791 0.0079051455 -0.2374694329 0.0261736648
20299880.0 -0.227282239 0.0379107889 0.4849487664 0.0081723386 0.4853297582 0.0082783318 -0.2331272023 0.0339925527
25299850.0 -0.2217298507 0.0443057654 0.4904223597 0.0066227795 0.4908023371 0.0071217051 -0.2277721324 0.040167573
30299820.0 -0.2158014016 0.049377258 0.4965001028 0.0054436669 0.4954910058 0.0049157072 -0.2227029779 0.0448978971
35299790.0 -0.2100078796 0.0539067407 0.5013156294 0.0018383205 0.5010643895 0.0020231639 -0.217623311 0.0485469117
40299760.0 -0.2044708298 0.0570638339 0.50634757 -0.0020450028 0.5064671515 -0.0021194831 -0.2126350203 0.0521417194
45299730.0 -0.1995734076 0.0602698648 0.5112317188 -0.0071308845 0.5113415709 -0.007183377 -0.2077715547 0.0546229258
50299700.0 -0.1945685761 0.0621050294 0.5147756748 -0.01273321 0.5151437235 -0.012899614 -0.2036666241 0.0566996648
55299670.0 -0.1904557876 0.0639899874 0.5185339193 -0.0186389715 0.5188925311 -0.0184931849 -0.1997849078 0.0578535218
60299640.0 -0.1864155882 0.064824058 0.5217731835 -0.0250624997 0.5220683118 -0.0245771025 -0.1961091505 0.0595621503
65299610.0 -0.1829757434 0.0663094274 0.5249978179 -0.0308348373 0.5253258234 -0.0309860075 -0.1928067674 0.0606542929
70299580.0 -0.1796322162 0.0670755902 0.5271559697 -0.0374084618 0.5276168289 -0.0379670612 -0.1903079869 0.061515898
75299550.0 -0.1765106501 0.0682263745 0.5290498881 -0.0446539756 0.5289862982 -0.0450256358 -0.1871006332 0.0623555533
80299520.0 -0.1740677528 0.0689839103 0.5315231482 -0.0518119178 0.5311995496 -0.0514485357 -0.1847193973 0.0630971568
85299490.0 -0.1715163625 0.0694032234 0.5324844693 -0.0582281518 0.5321069085 -0.0579866453 -0.1826828645 0.0634250006
90299460.0 -0.1693360394 0.0702429064 0.5331938624 -0.0650246746 0.5335413471 -0.0650059198 -0.1801529798 0.0643725626
95299430.0 -0.1672327095 0.0711674117 0.5349189923 -0.0725163042 0.5345279168 -0.0723833461 -0.1783969906 0.0652585563
100299400.0 -0.1654473279 0.0716172825 0.5344326785 -0.078763221 0.5347377769 -0.0791537249 -0.1769265945 0.0655894788
105299370.0 -0.1632219876 0.0723177238 0.5348222352 -0.0858740126 0.5351884415 -0.0858871556 -0.1750710536 0.0663164854
110299340.0 -0.1618546499 0.0730178495 0.5349969472 -0.0923935042 0.534986813 -0.0929915817 -0.1735675862 0.0669262579
115299310.0 -0.1603311665 0.0734615562 0.534884489 -0.0992367102 0.5353537827 -0.0993721151 -0.1722846912 0.0671604493
120299280.0 -0.1589333818 0.0744956811 0.535012957 -0.1065386445 0.5351179952 -0.1065929937 -0.1713568178 0.0679890446
125299250.0 -0.157998417 0.0751912271 0.5344757373 -0.1127731505 0.5346670381 -0.1132765934 -0.1698951439 0.0684593046
130299220.0 -0.1565742097 0.0759851642 0.534066536 -0.1192800612 0.5339858388 -0.1197667607 -0.1687728697 0.0691710397
135299190.0 -0.1551680435 0.0767576919 0.5329523606 -0.1261719692 0.532965313 -0.1265294663 -0.1678740624 0.0701997184
140299160.0 -0.1544400763 0.0779251996 0.5326754089 -0.1330823324 0.5326475576 -0.1327539807 -0.1667405272 0.0709919472
145299130.0 -0.1531580361 0.0789833749 0.5317205721 -0.1396551453 0.5315090986 -0.1393177064 -0.1662170404 0.0718912594
150299100.0 -0.152141303 0.0798092666 0.5305190628 -0.1460854419 0.530692931 -0.1462126672 -0.1651846608 0.0724658144
155299070.0 -0.1511470829 0.0815085202 0.5292018663 -0.152913584 0.5292403468 -0.1531460443 -0.1645371124 0.0736866959
160299040.0 -0.1499862203 0.0821021087 0.5275267919 -0.1589235268 0.5279526952 -0.1591378035 -0.1634219821 0.0747079942
165299010.0 -0.1493248542 0.0830964427 0.5267706194 -0.1658866202 0.5266800986 -0.1655711421 -0.1627136075 0.0756020566
170298980.0 -0.1484378057 0.0845589432 0.5242976834 -0.1722062575 0.5249004201 -0.1718645076 -0.1618564261 0.0763989317
175298950.0 -0.1472344684 0.0855106384 0.5237280772 -0.1778574048 0.523460022 -0.1781387301 -0.1610347812 0.0774720959
180298920.0 -0.1461638205 0.0866390526 0.5215820787 -0.1844954694 0.5215454261 -0.1840923824 -0.1600119894 0.0788046911
185298890.0 -0.1452281882 0.088051399 0.5197539351 -0.190578902 0.5199815651 -0.19024877 -0.159863256 0.0795674982
190298860.0 -0.1445112142 0.0890162443 0.5174721752 -0.1968395345 0.5180963529 -0.196706711 -0.158294532 0.080683057
195298830.0 -0.1435037851 0.0900647182 0.5154193302 -0.2024396956 0.5159165922 -0.2030949115 -0.1577915383 0.0817929109
200298800.0 -0.1427353509 0.0918557873 0.5140314919 -0.2084652864 0.5138861324 -0.2089190532 -0.1570811878 0.083380348
205298770.0 -0.1415274089 0.0930952368 0.5114258968 -0.2146587492 0.5118392261 -0.2149070665 -0.1563764665 0.0840119412
210298740.0 -0.1407687002 0.0941217005 0.5092896211 -0.2210101732 0.5093236898 -0.2212811404 -0.1556633634 0.0855891797
215298710.0 -0.1398656652 0.0958812192 0.5066881692 -0.2270425588 0.5067901707 -0.2267823413 -0.1550444248 0.0863225981
220298680.0 -0.1389578644 0.0968588529 0.504531194 -0.2325138577 0.5046415989 -0.2328687829 -0.153857263 0.0882217182
225298650.0 -0.1375545219 0.0984134032 0.5018584406 -0.2386478005 0.5020521045 -0.2384514314 -0.1535596209 0.0893570334
230298620.0 -0.1370389442 0.0997917889 0.4998564949 -0.2444828773 0.4999343202 -0.2443265181 -0.1524679702 0.0905127236
235298590.0 -0.1358653967 0.1009406533 0.4967932817 -0.2500791545 0.4971046585 -0.2506359387 -0.151596039 0.091359087
240298560.0 -0.1350858417 0.1024677956 0.4942788287 -0.2556410307 0.4945139298 -0.2553978672 -0.1512216017 0.0929748024
245298530.0 -0.1335412802 0.1038147615 0.4908598585 -0.2615302122 0.4916073468 -0.2616271239 -0.150245276 0.094342057
250298500.0 -0.1331371777 0.1051373332 0.4886057249 -0.2665001676 0.4888656823 -0.2664731041 -0.1489324993 0.0957114254
255298470.0 -0.1318772473 0.1069572228 0.4853844066 -0.272921162 0.4860404294 -0.2726577093 -0.1481011486 0.0966058695
260298440.0 -0.130708417 0.1081284569 0.4830528664 -0.2780670844 0.4831373952 -0.2784663137 -0.1470799622 0.0986251606
265298410.0 -0.1295170587 0.1096434369 0.4797638531 -0.2839172094 0.4797474738 -0.2838437551 -0.1464968016 0.0996502773
270298380.0 -0.128399363 0.1108597051 0.4762261061 -0.2893530782 0.4768510561 -0.2888971623 -0.1454902044 0.1012384941
275298350.0 -0.1275445114 0.1123681478 0.4732239211 -0.2947051493 0.4739222526 -0.2951715605 -0.1443911443 0.1023446187
280298320.0 -0.1262420969 0.114166658 0.470038558 -0.2997974016 0.4699228071 -0.2999841307 -0.143246803 0.1037289962
285298290.0 -0.1248768651 0.1154956815 0.4668560689 -0.3051778339 0.4672068412 -0.3053329875 -0.1427646596 0.1053692474
290298260.0 -0.1238558429 0.1169249995 0.4639066432 -0.3106377374 0.4638898389 -0.3107057255 -0.1413668012 0.1069628115
295298230.0 -0.122596923 0.1182816303 0.4606992923 -0.3158566866 0.4601255407 -0.3158985007 -0.1400864809 0.1079221361
300298200.0 -0.1210218629 0.1195043988 0.4566858877 -0.3213010789 0.4572221494 -0.321320272 -0.1393477725 0.1095485716
305298170.0 -0.1197599568 0.120599423 0.4533948794 -0.326531149 0.45381051 -0.3266821862 -0.1375998848 0.1109702287
310298140.0 -0.1181346048 0.1218327357 0.450505832 -0.3316857633 0.4501061595 -0.3318678401 -0.1368798171 0.1125971861
315298110.0 -0.1171602492 0.1231669198 0.446260183 -0.337101203 0.4468231938 -0.3367793468 -0.1358038752 0.1136444292
320298080.0 -0.1156530594 0.1245640148 0.4425442426 -0.3419904741 0.4427883055 -0.3419559961 -0.1349939852 0.1144054532
325298050.0 -0.1146510271 0.1256557197 0.4390456568 -0.3471141812 0.439087181 -0.3472926148 -0.133990374 0.1158447312
330298020.0 -0.1136018701 0.1268393952 0.4341663591 -0.3516736153 0.4345590614 -0.3522637126 -0.1328403546 0.1171511599
335297990.0 -0.1121154539 0.1282596447 0.4304129277 -0.3570457281 0.430908534 -0.3568143121 -0.1320933011 0.1186383944
340297960.0 -0.111244538 0.1299285911 0.4264055514 -0.3618112241 0.4268434575 -0.36126628 -0.1311305443 0.1200239991
345297930.0 -0.1101894845 0.1311223125 0.4223369387 -0.3656902852 0.4222591337 -0.3658866534 -0.1299860216 0.1213647421
350297900.0 -0.108391388 0.1325504667 0.4183455691 -0.3705563945 0.4186808897 -0.3708206602 -0.1288643199 0.122884936
355297870.0 -0.1073058882 0.1336268834 0.4141321682 -0.3751846218 0.4141724373 -0.3756450553 -0.1278728839 0.124380543
360297840.0 -0.1057585382 0.1353897535 0.4101920363 -0.3801906961 0.4101203938 -0.3800685162 -0.1265091821 0.125743938
365297810.0 -0.103871622 0.1363378587 0.4050333242 -0.3843331674 0.4058096574 -0.3846627739 -0.1254100002 0.1274325345
370297780.0 -0.1025814637 0.1376111235 0.4013747111 -0.3887434347 0.401622447 -0.3895952206 -0.1243997348 0.1288823404
375297750.0 -0.1011441938 0.1395013287 0.3977265997 -0.3936545263 0.3973336744 -0.3937236821 -0.1231714685 0.1303199348
380297720.0 -0.0996652984 0.1403769473 0.3931275803 -0.3978574398 0.3930362758 -0.3977281555 -0.1218373503 0.1318286676
385297690.0 -0.098157379 0.1415858219 0.3884776207 -0.4017004591 0.3886235107 -0.4019884428 -0.1208394721 0.1331474665
390297660.0 -0.0967611336 0.1428495121 0.3842405487 -0.40634746 0.3839294293 -0.4066795677 -0.1192416244 0.1343298602
395297630.0 -0.094767346 0.1438003466 0.3795197718 -0.4103072158 0.3797292464 -0.4102966485 -0.1180808493 0.1361089879
400297600.0 -0.0934041581 0.145483634 0.3750356187 -0.414924707 0.3755647766 -0.4148404574 -0.1174270793 0.1369798802
405297570.0 -0.0916353584 0.1465981283 0.3704528184 -0.4186984046 0.3707281164 -0.4192035146 -0.1159560285 0.1387778101
410297540.0 -0.0901025214 0.1477139983 0.3658807653 -0.4222442303 0.3654293033 -0.4225183895 -0.1144675031 0.139442518
415297510.0 -0.0884487121 0.149090305 0.3613240984 -0.4265699081 0.361438559 -0.4267633114 -0.1132110804 0.1415383389
420297480.0 -0.0869052084 0.1496495087 0.3565077962 -0.4311737074 0.3566620124 -0.4306791243 -0.1117001858 0.1422604923
425297450.0 -0.0848832536 0.1505267717 0.3520023897 -0.4344361784 0.3521619327 -0.4343514176 -0.1104028402 0.1438252133
430297420.0 -0.0835860478 0.1521910665 0.3468184935 -0.4387251825 0.3472548242 -0.4382931468 -0.1089975274 0.1448289691
435297390.0 -0.0817254176 0.1531114295 0.3426086867 -0.4417117859 0.3422239905 -0.4418089221 -0.1076551207 0.1465946372
440297360.0 -0.0797468835 0.1539873659 0.3370454968 -0.4456596102 0.3371214203 -0.4460215669 -0.1063624046 0.1472912218
445297330.0 -0.0780582691 0.1551198396 0.332305756 -0.449819905 0.3323329237 -0.4495345549 -0.104845368 0.148695834
450297300.0 -0.076201964 0.155900527 0.3273381264 -0.4527986827 0.3275232011 -0.4533380401 -0.1037445396 0.1499958152
455297270.0 -0.074794692 0.1570030007 0.3229086413 -0.4566634641 0.3228845052 -0.4566627119 -0.1017953296 0.1512010732
460297240.0 -0.0734616997 0.1581272772 0.3172952969 -0.4598448758 0.3170026442 -0.4602602968 -0.1004200585 0.1527178496
465297210.0 -0.0707016741 0.1588141111 0.3124285931 -0.4639651201 0.3130458947 -0.4636506151 -0.0998530004 0.1534787957
470297180.0 -0.0694609755 0.160025765 0.3073510601 -0.4667609954 0.3075976366 -0.4671294958 -0.0986278564 0.1548770865
475297150.0 -0.0678706487 0.1605842461 0.3019475586 -0.4698194734 0.3026105587 -0.46991832 -0.0963240086 0.1558992785
480297120.0 -0.0658787981 0.1612617467 0.2973237373 -0.4728283903 0.2974472312 -0.4733495688 -0.0949513397 0.1572466886
485297090.0 -0.0636302637 0.1623944739 0.2920646776 -0.4763823099 0.2923253286 -0.476560066 -0.0940092312 0.1580333974
490297060.0 -0.0620917292 0.1629258754 0.2867629869 -0.4794013468 0.2870700457 -0.4794010379 -0.0920612299 0.1594359298
495297030.0 -0.0606170672 0.164204481 0.2815707119 -0.4826904036 0.2814369106 -0.4826677926 -0.0905888512 0.160169726
500297000.0 -0.0584077054 0.1645543384 0.2762873223 -0.4857069136 0.2763272068 -0.4859712811 -0.0894848528 0.1616148791
505296970.0 -0.0567418509 0.1655178768 0.2704917623 -0.4882211087 0.2709551096 -0.4883324989 -0.0883878613 0.1623241467
510296940.0 -0.055006487 0.1661233845 0.2655140552 -0.4915795678 0.2659077999 -0.4917642632 -0.0861131533 0.1637594145
515296910.0 -0.0535020038 0.167236997 0.2599664369 -0.4940036918 0.2605698475 -0.4945893742 -0.0849294786 0.1644651142
520296880.0 -0.0510927742 0.1677569613 0.2545472905 -0.4972345219 0.2550084296 -0.4967184718 -0.0830012746 0.1655239391
525296850.0 -0.0495835673 0.1682236508 0.2495546055 -0.4999534985 0.2494413424 -0.5001300999 -0.0812504517 0.1665721513
530296820.0 -0.0474327636 0.1691089983 0.2443712287 -0.5018953055 0.243714914 -0.502393973 -0.0804910977 0.1669928248
535296790.0 -0.0458580403 0.169895212 0.2384174901 -0.5047530682 0.2390613542 -0.5046314231 -0.0785886252 0.1680674514
540296760.0 -0.0438942853 0.1700676237 0.2330593915 -0.5076895197 0.2330810863 -0.5079337186 -0.0772340472 0.1693014069
545296730.0 -0.0419334063 0.1711357996 0.2274165257 -0.5096957136 0.2277374833 -0.5102766668 -0.0755702025 0.1698612057
550296700.0 -0.0404169482 0.1714030501 0.2222760587 -0.5123500993 0.2226576425 -0.512827184 -0.0739542728 0.1713463274
555296670.0 -0.0379956095 0.1721845073 0.2165885569 -0.5149766772 0.2167543977 -0.5147786211 -0.0724375197 0.1721230487
560296640.0 -0.0360828383 0.1724581803 0.2106548183 -0.5170247706 0.2110325109 -0.516682288 -0.0705588373 0.1727827317
565296610.0 -0.0344788004 0.173113078 0.2051991478 -0.519139569 0.2051194754 -0.5193851078 -0.0691904125 0.17349886
570296580.0 -0.0320753164 0.1735475201 0.1992169601 -0.5214108286 0.2000338732 -0.5214411087 -0.0672849616 0.1748548852
575296550.0 -0.0303390521 0.1741898205 0.1936343531 -0.5231281052 0.1944471889 -0.5232276292 -0.0656168579 0.175759389
580296520.0 -0.0284816008 0.1748735679 0.188526621 -0.525697174 0.188308105 -0.5254096145 -0.0639818014 0.1760133231
585296490.0 -0.0262526865 0.17501617 0.1828089953 -0.5274826342 0.1825598935 -0.5273385538 -0.0625791314 0.1766439995
590296460.0 -0.0248323769 0.1753495372 0.1767981667 -0.5295071918 0.1768497047 -0.5295635272 -0.0608033518 0.1775605855
595296430.0 -0.0226487908 0.1758380574 0.1711723348 -0.531347339 0.1709073844 -0.5313924726 -0.0590355616 0.1781979213
600296400.0 -0.0207268303 0.1765425105 0.1654460836 -0.5332503163 0.1657274348 -0.533141697 -0.0572722641 0.1792276239
605296370.0 -0.0187294607 0.1767423612 0.1596678823 -0.5346388602 0.1596715673 -0.5346528693 -0.0556596847 0.1798788022
610296340.0 -0.0167771474 0.1771518799 0.1543538343 -0.5364495166 0.1539126838 -0.536703042 -0.0539871916 0.1807935861
615296310.0 -0.0148328232 0.1776049003 0.1476277502 -0.5378505324 0.1480271103 -0.537853345 -0.0520117355 0.181310784
620296280.0 -0.0126808324 0.1776151235 0.1420037161 -0.5396677796 0.1420165739 -0.5395280134 -0.0507975972 0.1813873008
625296250.0 -0.0107402998 0.1779380867 0.1358282569 -0.5413980988 0.1364220303 -0.5415846268 -0.0486833009 0.1825640934
630296220.0 -0.0086475474 0.1784410649 0.1301462827 -0.5425525534 0.1306784051 -0.5425723907 -0.047189801 0.1830655589
635296190.0 -0.0067172374 0.1784911324 0.1247402073 -0.5434783452 0.1247030522 -0.5432940908 -0.0457578302 0.1836060513
640296160.0 -0.0048449049 0.1784922735 0.1190188384 -0.5447049715 0.1187576373 -0.5453074991 -0.0433427226 0.1843495943
645296130.0 -0.0029664916 0.1793198628 0.1129895457 -0.5464819392 0.1130574964 -0.5462145712 -0.0425094623 0.1844161143
650296100.0 -0.0010912799 0.1794731003 0.1075657168 -0.5473986991 0.1072671694 -0.5474262477 -0.0402994564 0.1855264982
655296070.0 0.0008381939 0.1793434712 0.1009911424 -0.5481931164 0.1011234501 -0.5485684791 -0.0381306328 0.1860533792
660296040.0 0.0028451227 0.1798124524 0.0953992459 -0.5492785782 0.0953046067 -0.5494377629 -0.0369173429 0.1860588691
665296010.0 0.0050895417 0.179497322 0.0894425841 -0.550516492 0.0897999768 -0.55050874 -0.0351878432 0.1869837939
670295980.0 0.0073475876 0.1798907158 0.083509464 -0.55132727 0.0836251978 -0.5515617241 -0.0333162988 0.1872225905
675295950.0 0.009082844 0.1796761741 0.0775606942 -0.5524141147 0.0777931121 -0.5526014454 -0.0313371583 0.1878498429
680295920.0 0.0110382595 0.1800842831 0.0712127062 -0.5529838889 0.0714650059 -0.5532559008 -0.0297106709 0.1881224072
685295890.0 0.013123574 0.1801039618 0.0655719025 -0.5536136441 0.065263615 -0.5541968858 -0.0276640542 0.1888948529
690295860.0 0.0155416365 0.1800204926 0.05922274 -0.554074558 0.0590547123 -0.5541934704 -0.0256364381 0.1892420023
695295830.0 0.0177509392 0.1798026842 0.0527190443 -0.5548172385 0.0532816515 -0.5550210322 -0.0245606065 0.1896550989
700295800.0 0.0192952648 0.1797741502 0.0475063435 -0.5550791283 0.0475293192 -0.555730055 -0.0225669237 0.1895037606
705295770.0 0.0215247076 0.1798725558 0.0412846434 -0.5557717625 0.0419500848 -0.555846094 -0.0208858076 0.1900788802
710295740.0 0.023490745 0.1799501509 0.0350507042 -0.5558185645 0.0355107537 -0.5562853853 -0.0192108509 0.1906888822
715295710.0 0.0251183828 0.1798021146 0.0294863243 -0.5568294258 0.0302472784 -0.5566559073 -0.0172253588 0.1908553338
720295680.0 0.0272775598 0.1794261327 0.0232816218 -0.5567090368 0.0233792489 -0.5572835121 -0.0148340122 0.1916102388
725295650.0 0.0295763394 0.1791705644 0.017244323 -0.5566049434 0.017361045 -0.5573751514 -0.0133317271 0.1916917196
730295620.0 0.0312991402 0.1791413062 0.0111113437 -0.557034152 0.0115044955 -0.5571421409 -0.011352215 0.1913890958
735295590.0 0.033861916 0.1790972031 0.0054725725 -0.5570774218 0.0057027378 -0.557279146 -0.0093004203 0.1922262657
740295560.0 0.0354919469 0.1789432748 -0.0006566509 -0.5564330986 -0.0005295152 -0.5573940786 -0.0074912692 0.1922500414
745295530.0 0.0375417867 0.1784049514 -0.0066502007 -0.5569527639 -0.0061846125 -0.5574928556 -0.0057103846 0.1926668347
750295500.0 0.0394455891 0.1783370985 -0.0122581957 -0.5561320063 -0.0125063158 -0.5565564034 -0.0038669485 0.1924744737
755295470.0 0.0419602572 0.1781347878 -0.0185058355 -0.5566578395 -0.0183805111 -0.5570779189 -0.0026276819 0.1930367339
760295440.0 0.0433935364 0.1779553105 -0.0248316323 -0.5565494989 -0.0239876845 -0.556345061 -0.0009098445 0.1930791207
765295410.0 0.0451828161 0.177113322 -0.0303223994 -0.5555127224 -0.0301466295 -0.5565319475 0.001968166 0.1935830851
770295380.0 0.0474391673 0.1770586199 -0.0362849673 -0.5557325569 -0.0363040128 -0.5563092208 0.003860725 0.193571706
775295350.0 0.049517954 0.176594606 -0.0423720011 -0.5551182118 -0.0421432024 -0.5555710928 0.0049603851 0.1931860762
780295320.0 0.0515833824 0.1760658279 -0.0482308246 -0.5544773503 -0.0479365837 -0.5551364392 0.0071961998 0.1938149871
785295290.0 0.05336572 0.1760645696 -0.054282029 -0.5533780496 -0.0543019894 -0.5544492187 0.0086009672 0.1937514514
790295260.0 0.055362174 0.1757154041 -0.0603882443 -0.55337905 -0.0601398643 -0.5541397642 0.0110130041 0.1937439285
795295230.0 0.0574514375 0.175022708 -0.0658524344 -0.5526615872 -0.0657572617 -0.552955202 0.0127495497 0.1942261509
800295200.0 0.0593274397 0.1744882776 -0.0726729204 -0.5518589409 -0.0723646347 -0.5522196457 0.014609295 0.1938267809
805295170.0 0.0609952326 0.1740057397 -0.0783233886 -0.5508256477 -0.0779286085 -0.5513265169 0.0161402316 0.1938957867
810295140.0 0.0631801427 0.1735518022 -0.0838630813 -0.5502080156 -0.083715205 -0.5505842579 0.0184025814 0.1941152871
815295110.0 0.0650981769 0.1730000553 -0.0899223356 -0.5495119418 -0.090069814 -0.5492453558 0.0199048328 0.193911008
820295080.0 0.0672691115 0.1720366922 -0.0958361583 -0.5481186074 -0.0954872261 -0.5485386271 0.0216422634 0.1939173379
825295050.0 0.0690352911 0.1716534366 -0.1016571742 -0.5468776388 -0.1014858626 -0.5472060213 0.0239086656 0.1939850599
830295020.0 0.0707828186 0.1710172416 -0.107535147 -0.5456385738 -0.1078254327 -0.5464422137 0.0254653408 0.1937756922
