!Created with skrf (http://scikit-rf.org).
# Hz S RI R 50.0 
!freq ReS11 ImS11 ReS21 ImS21 ReS12 ImS12 ReS22 ImS22
300000.0 -0.3135222421 -0.1258744616 0.3717357359 0.0633760672 0.3704297748 0.0643173621 -0.3143118423 -0.1292325096
5299970.0 -0.3247725159 0.0029039453 0.3783085746 0.0031004818 0.3786959827 0.0034789402 -0.3257377681 0.0021739327
10299940.0 -0.3224289382 0.0144526481 0.3800602701 0.0026870152 0.3799204769 0.0028769797 -0.323387068 0.0124095651
15299910.0 -0.3191898209 0.0225324266 0.3821759584 0.0025600417 0.3821865414 0.0027321449 -0.3207028494 0.0197080864
20299880.0 -0.3154048099 0.0290211129 0.3850173779 0.001920833 0.3851282564 0.0018912321 -0.3179946572 0.0259954539
25299850.0 -0.3116235291 0.0347507519 0.3886528768 0.0005476407 0.3887510286 0.0002115667 -0.3148767735 0.0314829126
30299820.0 -0.3083550914 0.0394524427 0.3921561003 -0.0018111436 0.3921831516 -0.0023245124 -0.3120148327 0.0357570028
35299790.0 -0.3043377209 0.0435497594 0.3952814743 -0.0050406653 0.3955077282 -0.0052221217 -0.3095161616 0.0398373692
40299760.0 -0.3012568818 0.0469306224 0.3985362297 -0.0085331262 0.3986090898 -0.0086744166 -0.3067491106 0.0433970644
45299730.0 -0.2979710332 0.050099404 0.4013885797 -0.0122432463 0.4015076705 -0.0126285023 -0.303553874 0.0466969277
50299700.0 -0.2946883178 0.0528054218 0.4036502824 -0.0172019153 0.4036819271 -0.017436877 -0.3011395546 0.0498347499
55299670.0 -0.2923138238 0.0554321466 0.4060372139 -0.0212698134 0.405893359 -0.0219766335 -0.2995131314 0.0519662274
60299640.0 -0.2896328146 0.0578149517 0.4078113409 -0.0267634898 0.4080229361 -0.0269136113 -0.2972110898 0.0548720514
65299610.0 -0.2875400789 0.0602305783 0.4098735938 -0.0315139365 0.4096640499 -0.0315070202 -0.2952184593 0.0574971869
70299580.0 -0.2854910989 0.0619302193 0.4106076076 -0.0362227724 0.411038636 -0.0367129158 -0.2938823403 0.0600129183
75299550.0 -0.283544167 0.064228647 0.4118608036 -0.0421620781 0.412410276 -0.0420528249 -0.2921418791 0.0624725818
80299520.0 -0.2817536274 0.066654569 0.4127316402 -0.0474344945 0.4133002996 -0.04733172 -0.2907587345 0.0648349255
85299490.0 -0.2796781079 0.06854358 0.4133638379 -0.0528109683 0.4135568148 -0.0521822327 -0.2892318622 0.0667291138
90299460.0 -0.2783237317 0.0706382704 0.4135405081 -0.0576605947 0.4134988015 -0.0576273411 -0.2873630363 0.0693685833
95299430.0 -0.2769738768 0.0726206117 0.4140297597 -0.0629268497 0.4142971148 -0.063510516 -0.2866364968 0.0718302477
100299400.0 -0.2754956756 0.0745975408 0.4142015151 -0.0678206623 0.4140203213 -0.0683574323 -0.2855579854 0.0746308789
105299370.0 -0.2738837639 0.0770871278 0.4139005583 -0.0735301007 0.4143127775 -0.0736703651 -0.2843146308 0.0763192317
110299340.0 -0.2726811264 0.0787105592 0.4135185496 -0.0779797972 0.4139306393 -0.0783240193 -0.2831961415 0.0785532362
115299310.0 -0.2714297537 0.0809303672 0.4130349064 -0.0833382285 0.4134018495 -0.0838349477 -0.2820961049 0.081087447
120299280.0 -0.270203824 0.0830678738 0.4132114944 -0.0888516724 0.4130874731 -0.0890824017 -0.2809944627 0.0832407335
125299250.0 -0.2691519167 0.0851326912 0.4120410234 -0.0936871294 0.4125760012 -0.0939064255 -0.2799654467 0.0859105153
130299220.0 -0.2683994188 0.0873526979 0.4122300732 -0.0988724381 0.4120154657 -0.0993663878 -0.2792286986 0.0882078915
135299190.0 -0.2673112101 0.0898668893 0.4114448796 -0.1039704434 0.4113997133 -0.1044258294 -0.2781573597 0.0908114792
140299160.0 -0.2663021794 0.0920333719 0.4105115379 -0.1088793603 0.4101827059 -0.1087067122 -0.2776650312 0.0928995546
145299130.0 -0.2655386783 0.0946804197 0.409561599 -0.1139634417 0.409625789 -0.1138306804 -0.2766184376 0.0958265223
150299100.0 -0.2641304553 0.0970101628 0.4086265971 -0.1191824823 0.4084532732 -0.1190411267 -0.2758342204 0.098402181
155299070.0 -0.2630658643 0.0993625895 0.4067914073 -0.1237386414 0.4076310149 -0.1238080749 -0.2744546575 0.1008284359
160299040.0 -0.2625251592 0.1020595599 0.4063803017 -0.1283462865 0.4060832603 -0.1290850163 -0.2740818106 0.1036736904
165299010.0 -0.2611703806 0.104099946 0.4047827827 -0.1331276104 0.4048672431 -0.1335760286 -0.272785146 0.1060323905
170298980.0 -0.2600126125 0.1067366596 0.4028924127 -0.1383817808 0.4033995766 -0.1382563739 -0.271871516 0.1083048907
175298950.0 -0.2589742821 0.1093384151 0.4022678794 -0.1430687389 0.4024981274 -0.1435777893 -0.2709115079 0.1116411375
180298920.0 -0.2582013238 0.1118156489 0.4007362925 -0.1480126762 0.4009581942 -0.1483443548 -0.2698586326 0.1139775661
185298890.0 -0.2569328943 0.1144015411 0.3990127863 -0.1529563528 0.3992043797 -0.1525177935 -0.2689203116 0.1164411677
190298860.0 -0.255772929 0.1172788918 0.3970907445 -0.1574898601 0.3976043494 -0.1574628343 -0.2677933139 0.1192056939
195298830.0 -0.2548189826 0.119810074 0.3961795982 -0.1616156021 0.3963070534 -0.1618154675 -0.2670541965 0.121631502
200298800.0 -0.253368327 0.1218913863 0.394003838 -0.1668827044 0.3943402378 -0.1666950828 -0.2656914667 0.1245806316
205298770.0 -0.2528475941 0.1249413319 0.3924645753 -0.1712236252 0.3923335343 -0.1709688785 -0.2647204244 0.1271181792
210298740.0 -0.2518514885 0.1274748299 0.3906466865 -0.1755962237 0.3905927717 -0.1756924401 -0.2638234509 0.1298735441
215298710.0 -0.2502206822 0.1302083619 0.388287053 -0.1802768183 0.3886878276 -0.1804980586 -0.2623283537 0.132844065
220298680.0 -0.2490907625 0.1325534751 0.3865496003 -0.1847870881 0.3863651166 -0.1843061212 -0.2610436336 0.1352716696
225298650.0 -0.2477307246 0.1350429378 0.3841495033 -0.1889389092 0.3848195364 -0.1888236355 -0.2601380934 0.1380123768
230298620.0 -0.2463597363 0.1381391201 0.3825134566 -0.1934922323 0.3829956273 -0.193660872 -0.2587471279 0.1403124238
235298590.0 -0.2452874137 0.1406214567 0.3804974753 -0.1983922727 0.3807401218 -0.1976533828 -0.2575458057 0.1432098963
240298560.0 -0.2442300824 0.1431347076 0.3781425803 -0.2019734505 0.3784978076 -0.2021476125 -0.256194315 0.145569865
245298530.0 -0.2428630246 0.1454835172 0.3760992864 -0.206487639 0.3761155153 -0.2068303893 -0.2547515173 0.1485784151
250298500.0 -0.2411812684 0.1486455752 0.3739234098 -0.2107225045 0.3738108891 -0.2104943415 -0.2535350979 0.1513127464
255298470.0 -0.2400258536 0.1514104804 0.3717116288 -0.2150080199 0.3721396438 -0.2152903108 -0.2519844876 0.154301183
260298440.0 -0.2386438065 0.1535446571 0.369403699 -0.2188631204 0.3696028285 -0.2189668246 -0.2507415807 0.1566179307
265298410.0 -0.2372030511 0.1563419108 0.3666807942 -0.2235489868 0.3666056411 -0.2235439151 -0.2487218838 0.1589679678
270298380.0 -0.235922364 0.1588121281 0.3638904181 -0.2273438199 0.3643426952 -0.2274404704 -0.2472535236 0.1621522399
275298350.0 -0.2345205417 0.1615744329 0.3617656804 -0.2314497451 0.3616026959 -0.2316467506 -0.2458675523 0.1649580971
280298320.0 -0.2330532565 0.1640858203 0.3596835682 -0.2354494262 0.3595199995 -0.23579888 -0.2444039678 0.1675702041
285298290.0 -0.2313569158 0.1665173437 0.3568483637 -0.239420525 0.3569452563 -0.2395430392 -0.2428855406 0.1703823167
290298260.0 -0.2296992312 0.1693288298 0.354590642 -0.2437611458 0.3543752505 -0.2436532558 -0.2412715875 0.1726123683
295298230.0 -0.2284805201 0.1714803256 0.3516122996 -0.247629267 0.3516984694 -0.2480638001 -0.2392003438 0.1753308152
300298200.0 -0.2268863563 0.1741986255 0.3490046064 -0.2516669884 0.3488294061 -0.2517196661 -0.2374282874 0.1781914019
305298170.0 -0.2251602372 0.1765174042 0.3462694884 -0.2557192066 0.3465152899 -0.2556067157 -0.2359090505 0.1801674339
310298140.0 -0.2231184529 0.1789869131 0.3432600931 -0.2595246943 0.3435569425 -0.2594447108 -0.2338378948 0.1830636237
315298110.0 -0.2218665617 0.1811584967 0.3405621709 -0.2637275832 0.3405941047 -0.2636630575 -0.2321018197 0.1856792116
320298080.0 -0.2201385576 0.1837228399 0.3371142251 -0.2674766295 0.3375231132 -0.2676247755 -0.2304270447 0.1876850743
325298050.0 -0.2186195795 0.1858566522 0.334361691 -0.271123716 0.3347618016 -0.2709571108 -0.2283193249 0.1902684815
330298020.0 -0.2170619828 0.1886600234 0.3314771266 -0.2751323565 0.3314783106 -0.2750099298 -0.2268588697 0.1923591371
335297990.0 -0.2151340349 0.1908558472 0.3284014564 -0.2786026959 0.3284204557 -0.2786431753 -0.2248594473 0.1952841809
340297960.0 -0.2137775662 0.193091353 0.3250408122 -0.2823791263 0.3248844899 -0.2823989907 -0.222918529 0.198399696
345297930.0 -0.2118917427 0.1954510756 0.3219486069 -0.2860908502 0.3216227968 -0.2860306571 -0.2208876188 0.2003249253
350297900.0 -0.2103389023 0.1977473506 0.3190277891 -0.2890926877 0.318923424 -0.2893616796 -0.21927741 0.202555106
355297870.0 -0.2081849019 0.2004988398 0.3154970452 -0.2928473433 0.3153837056 -0.2926474161 -0.2172053615 0.2056284627
360297840.0 -0.2060268272 0.202726627 0.3117206998 -0.2965162238 0.3124788334 -0.2965216649 -0.2149562956 0.2076495708
365297810.0 -0.2045158398 0.2050747 0.3090540722 -0.2997510856 0.3091282511 -0.2997966515 -0.2134448269 0.2099175429
370297780.0 -0.2021752804 0.2074172025 0.3051485718 -0.3031440635 0.3057741074 -0.302878559 -0.211010765 0.2126263611
375297750.0 -0.2000380888 0.2094914114 0.3019592041 -0.3062777397 0.3021489874 -0.3064205914 -0.2090619819 0.2151061724
380297720.0 -0.1982798774 0.2119955368 0.2991752104 -0.3101826741 0.2990169078 -0.3097429285 -0.2063683009 0.2174293242
385297690.0 -0.1968363941 0.2142082678 0.2953511836 -0.3128590468 0.2955883384 -0.3134466037 -0.2046912059 0.2198882929
390297660.0 -0.1942475353 0.2161486512 0.2920439435 -0.3159764537 0.2921022875 -0.3163938843 -0.201920594 0.2218761737
395297630.0 -0.1919549731 0.2184034735 0.288486575 -0.3191386788 0.2883991755 -0.3191691595 -0.1997841894 0.2243498797
400297600.0 -0.1898537843 0.2207000101 0.284915742 -0.322529676 0.2852144925 -0.3227649744 -0.1976042581 0.2269486636
405297570.0 -0.1879729655 0.2223219612 0.2813439502 -0.3255112063 0.2816238297 -0.3256640257 -0.1951160975 0.2288802767
410297540.0 -0.1854717308 0.2246537079 0.2777541137 -0.3287414446 0.2778365704 -0.328468498 -0.1931576319 0.2311778468
415297510.0 -0.1832688721 0.22699477 0.2741599526 -0.3318415397 0.2744427268 -0.3315497836 -0.190178912 0.2331902265
420297480.0 -0.1810822643 0.2286137373 0.270482848 -0.3343779672 0.2709657136 -0.3346581179 -0.1877209679 0.235663662
425297450.0 -0.1786814558 0.2308015446 0.2669371595 -0.3375104779 0.2666314332 -0.3372278505 -0.1857067937 0.2370882738
430297420.0 -0.1763307359 0.2327324738 0.2631770966 -0.3406307747 0.2632522965 -0.3402275764 -0.1830634821 0.2396415663
435297390.0 -0.1737373691 0.2342963493 0.2589581438 -0.3436233681 0.259472521 -0.3432743191 -0.1809340485 0.2416739258
440297360.0 -0.1713559541 0.2364362005 0.255310718 -0.3461113624 0.2552579514 -0.3461559658 -0.1780897271 0.2442557594
445297330.0 -0.1688182117 0.2381556333 0.2515146675 -0.3489339021 0.2518499274 -0.3494574725 -0.1751825141 0.2464836075
450297300.0 -0.1665612111 0.2401701904 0.2477338226 -0.3515066016 0.2482968481 -0.3518502885 -0.1726611362 0.2484058001
455297270.0 -0.1645369491 0.2419301461 0.2442465298 -0.3542464368 0.2439503473 -0.3544035961 -0.1698594871 0.2502250559
460297240.0 -0.1614340737 0.244116286 0.2400976306 -0.3576173713 0.2400872444 -0.3572545804 -0.1674615504 0.2517880173
465297210.0 -0.158842844 0.245635344 0.235612165 -0.3596683231 0.2357744774 -0.3597828587 -0.1647103895 0.2541379326
470297180.0 -0.1562030311 0.2476213572 0.2316955867 -0.3618256997 0.2323315165 -0.3621364342 -0.1621855873 0.2557648986
475297150.0 -0.1539255255 0.2496269417 0.2283759325 -0.3645077606 0.2282152493 -0.3647482583 -0.1593965205 0.2577629736
480297120.0 -0.1508050015 0.2513007967 0.2242641727 -0.3673174921 0.2240780151 -0.3670270532 -0.1569825409 0.2597464442
485297090.0 -0.1486209445 0.2528217098 0.2201418037 -0.3696840945 0.2200828442 -0.3695265556 -0.1543035068 0.2615916469
490297060.0 -0.1453212363 0.2545385587 0.2156577414 -0.3721305048 0.2159389058 -0.3721578541 -0.1514302842 0.2629705207
495297030.0 -0.1428712429 0.2559431855 0.2117809492 -0.3743093668 0.2115413996 -0.3744125039 -0.1482585082 0.2646833117
500297000.0 -0.1404181416 0.2576776506 0.207620538 -0.3762760551 0.2078388256 -0.3765688256 -0.1458894713 0.2667130236
505296970.0 -0.1371621147 0.259476524 0.2036041699 -0.3791312619 0.2038607877 -0.3785803308 -0.1429255921 0.2681143874
510296940.0 -0.1345025505 0.260647227 0.1995130501 -0.3809912481 0.1996339537 -0.3812615157 -0.1395509318 0.2701714748
515296910.0 -0.1318958479 0.2629722429 0.1951572932 -0.383221992 0.195031643 -0.3830343632 -0.1373851551 0.2714630801
520296880.0 -0.1286547932 0.2642522167 0.1908203594 -0.3851236615 0.1908565717 -0.3851184828 -0.1340798369 0.2732433337
525296850.0 -0.1260345139 0.2656173033 0.1864617395 -0.3870846411 0.1863021663 -0.3870485603 -0.1311389108 0.2747155769
530296820.0 -0.123347867 0.2671175407 0.1822893921 -0.3890847852 0.1822452211 -0.3891528907 -0.1283312418 0.2758959182
535296790.0 -0.1198029031 0.2682924041 0.1781547601 -0.390972289 0.1782383262 -0.3911754523 -0.125382141 0.2778851677
540296760.0 -0.1169021331 0.2698061234 0.1738180694 -0.3926681016 0.1735468351 -0.3928766751 -0.122670524 0.2790365819
545296730.0 -0.1145516503 0.2715810842 0.1694882825 -0.3947542996 0.1694540473 -0.3944858898 -0.1194589692 0.2804736367
550296700.0 -0.1111567437 0.2729305338 0.1651368855 -0.3966121658 0.1648711038 -0.3966049831 -0.1164656837 0.2817922178
555296670.0 -0.1086892629 0.2743313038 0.1609676596 -0.3986208797 0.1604801137 -0.3981596913 -0.1135007371 0.2829448596
560296640.0 -0.1050743791 0.2753854266 0.156349205 -0.3998834226 0.1564762691 -0.4000448786 -0.1104890372 0.2845699953
565296610.0 -0.1026305643 0.2767266016 0.1523418209 -0.4017998857 0.152146589 -0.4012403792 -0.1073938393 0.2858455341
570296580.0 -0.0994095976 0.2784149632 0.1475464514 -0.4031374535 0.1474684146 -0.4032687482 -0.1045000136 0.2871366089
575296550.0 -0.0961242677 0.2792524951 0.14339463 -0.4049791647 0.1432178153 -0.4045777719 -0.1013223429 0.2883343933
580296520.0 -0.0934325708 0.2809114463 0.1389326326 -0.4062968945 0.1387432163 -0.4061908829 -0.0986848512 0.2891727901
585296490.0 -0.0899419015 0.2818878504 0.1345161943 -0.4075872383 0.133866121 -0.4077664154 -0.0951218447 0.290874008
590296460.0 -0.0864614707 0.2830610885 0.1297328192 -0.4092511243 0.1300106268 -0.4093897967 -0.0923370788 0.2919951686
595296430.0 -0.0838611028 0.2838342516 0.1247829941 -0.4104477303 0.125134887 -0.4105925639 -0.0892218261 0.2929991656
600296400.0 -0.080866795 0.2853239578 0.1206193782 -0.411761253 0.1205001151 -0.4115636813 -0.0858529736 0.29354031
605296370.0 -0.0778435846 0.2863125735 0.1166693622 -0.4128099203 0.1163110414 -0.4131859259 -0.0828912912 0.2950605663
610296340.0 -0.0744596071 0.2876031923 0.1119530598 -0.4137273775 0.1118229819 -0.4140364106 -0.0801352609 0.2962679643
615296310.0 -0.0710959066 0.2883020877 0.1074803725 -0.4153742344 0.1068863906 -0.4154474082 -0.0764151247 0.2971521875
620296280.0 -0.0684241734 0.2898793779 0.1027437074 -0.4163532658 0.1027024313 -0.4163565691 -0.0738730861 0.2983917633
625296250.0 -0.0656705196 0.2903924658 0.0982309745 -0.4174674288 0.0982509494 -0.417513453 -0.0708070529 0.29858092
630296220.0 -0.062173412 0.2915694659 0.0934006658 -0.4184128269 0.0936616345 -0.4183125196 -0.0673330374 0.2998200252
635296190.0 -0.0591681294 0.2924804058 0.0893539013 -0.4192717538 0.0888308899 -0.4192926155 -0.0642110441 0.3005061008
640296160.0 -0.0557109122 0.2933488711 0.0842654102 -0.4202380388 0.0844368888 -0.420265441 -0.0611072953 0.3012532579
645296130.0 -0.0525760374 0.2944874359 0.0797435871 -0.4211754879 0.079754286 -0.4209495412 -0.0581030973 0.3017104023
650296100.0 -0.0496592915 0.294688991 0.0753471369 -0.4220407554 0.075210367 -0.4220918862 -0.0546173493 0.3027265969
655296070.0 -0.0469181177 0.2956871149 0.0708322947 -0.4227105984 0.0704292816 -0.4225398331 -0.0516672053 0.3036687385
660296040.0 -0.0432516089 0.2967978417 0.0663002989 -0.4235134694 0.0661026702 -0.4233015731 -0.0482331469 0.30411051
665296010.0 -0.0404169026 0.2972956238 0.0611966037 -0.4237941544 0.061365907 -0.4240822194 -0.0450098625 0.3047878731
670295980.0 -0.0375824123 0.2980916867 0.0570150364 -0.4245934577 0.0566618976 -0.4244474786 -0.0418779059 0.3052936953
675295950.0 -0.0342074733 0.2987502 0.0522089496 -0.4249537116 0.0523756602 -0.4249949082 -0.0388341157 0.3062198491
680295920.0 -0.031391974 0.2994088854 0.0479447891 -0.4251839028 0.0475086109 -0.4256933438 -0.0350883444 0.3067272047
685295890.0 -0.0277741509 0.300015069 0.0430873717 -0.4261570271 0.0429106455 -0.4261744083 -0.0325433837 0.3072118727
690295860.0 -0.0248811522 0.3003204913 0.038363472 -0.4265106353 0.0383938319 -0.4264991531 -0.0289462127 0.3074490069
695295830.0 -0.0213572889 0.3010241226 0.0339996535 -0.4267491202 0.0338002233 -0.4267830794 -0.0254896632 0.3082500462
700295800.0 -0.018359688 0.3017177528 0.0295172545 -0.4272059087 0.0293101438 -0.4273634748 -0.0226177875 0.3085299741
705295770.0 -0.015871308 0.30206885 0.0248218724 -0.4275743624 0.0244287648 -0.4273232432 -0.019271108 0.3090290353
710295740.0 -0.0124976138 0.3021673134 0.0203352229 -0.4276649137 0.0196677078 -0.4277354904 -0.0156360012 0.3092747759
715295710.0 -0.0089659943 0.3028118133 0.0156853685 -0.427744838 0.0154583754 -0.4275760633 -0.0126280228 0.3092865914
720295680.0 -0.0056002693 0.3030214365 0.0107596038 -0.4276610644 0.0105027655 -0.4280323616 -0.0095196791 0.3098459519
725295650.0 -0.0030654443 0.3037368405 0.0068769377 -0.4278431859 0.0060264245 -0.4278211902 -0.0063864616 0.3104029142
730295620.0 -0.0005858373 0.3040357954 0.0016531177 -0.427928009 0.0017170031 -0.4278151219 -0.0033781061 0.3106804788
735295590.0 0.003044562 0.3043964784 -0.0029701599 -0.4281748514 -0.0028508754 -0.4278830246 -2.65589e-05 0.3102652398
740295560.0 0.0062249858 0.3039590384 -0.0078152963 -0.4278495196 -0.0075563948 -0.4281166337 0.0033388632 0.3108705902
745295530.0 0.0088967921 0.3046514416 -0.0116610553 -0.4272872384 -0.0118268322 -0.4277187127 0.0063163218 0.3107470417
750295500.0 0.0121773812 0.3044805406 -0.0165789684 -0.4272898053 -0.0169571566 -0.4276056704 0.009906093 0.3108995065
755295470.0 0.0153421014 0.3049000956 -0.0210376639 -0.4275598895 -0.0213726657 -0.4274159055 0.0130816524 0.3112676923
760295440.0 0.018174093 0.3053601352 -0.0262733785 -0.4272307213 -0.026305446 -0.4268094284 0.0164482085 0.3104923109
765295410.0 0.0216858355 0.3044149211 -0.0308208436 -0.4265088249 -0.0304365041 -0.4267881782 0.0196879291 0.3107071005
770295380.0 0.0246449504 0.3051045426 -0.0346450908 -0.4260883102 -0.0352888967 -0.426407439 0.0227353494 0.3104627271
775295350.0 0.0274825405 0.3050594252 -0.0397077613 -0.4260807185 -0.0396611923 -0.4255915741 0.0261953109 0.3105357665
780295320.0 0.0308750252 0.3048843106 -0.0438385601 -0.425122788 -0.0441852592 -0.4255874275 0.0293709623 0.3105387183
785295290.0 0.0337372165 0.3048405057 -0.0488761888 -0.4248619842 -0.0488368587 -0.4246750921 0.0323936605 0.3107716202
790295260.0 0.0366868257 0.3045152089 -0.053163067 -0.4244741548 -0.0533355048 -0.4246525136 0.0355958657 0.3107022527
795295230.0 0.0397831243 0.3041644999 -0.0580600594 -0.4235018445 -0.0580197489 -0.423846912 0.0387646776 0.3097297407
800295200.0 0.0427165457 0.3043002081 -0.061903762 -0.4225866284 -0.062511992 -0.4231680177 0.0420289525 0.3095538389
805295170.0 0.0457048129 0.3040510991 -0.0670413521 -0.4224727212 -0.0671723334 -0.4223762637 0.0460373617 0.3091784601
810295140.0 0.0490948932 0.3039997898 -0.0715727012 -0.4212250845 -0.0716999953 -0.4215766402 0.0490956007 0.3090250209
815295110.0 0.0517979829 0.3036292971 -0.0760197546 -0.4206441294 -0.0758596604 -0.4208624918 0.0520120959 0.3086189144
820295080.0 0.0548209535 0.3033042768 -0.0803672345 -0.4198620191 -0.0801960091 -0.4202062832 0.0546886532 0.3087348778
825295050.0 0.0576638015 0.3024106495 -0.0849844336 -0.4190352377 -0.0852181665 -0.4188200413 0.0586893821 0.3080496117
830295020.0 0.0610129798 0.3022043556 -0.08947829 -0.4182541766 -0.0896642382 -0.4182275901 0.0614872262 0.3072898615
