!Created with skrf (http://scikit-rf.org).
# Hz S RI R 50.0 
!freq ReS11 ImS11 ReS21 ImS21 ReS12 ImS12 ReS22 ImS22
300000.0 -0.0493553729 -0.0481963738 -0.0013916694 -0.0004855409 0.0015206731 0.0009773632 -0.7714255457 -0.1398339835
5299970.0 -0.0499675628 0.0159973277 -0.0001217727 -9.02004e-05 -0.0001148924 -0.0001364742 -0.7847737352 -0.0078443302
10299940.0 -0.0441635779 0.0325918423 5.50453e-05 -1.30182e-05 2.97616e-05 0.0001009113 -0.7873807214 -0.003549256
15299910.0 -0.0360164502 0.0471576151 -7.52974e-05 -0.0001763727 8.84522e-05 -5.07738e-05 -0.7931716337 -0.001354525
20299880.0 -0.0263130007 0.0586670084 0.0001267488 -3.39048e-05 2.67751e-05 -7.41025e-05 -0.7997329028 0.002295606
25299850.0 -0.0150952099 0.0682658725 -7.92052e-05 8.42821e-05 6.70033e-05 0.0002801935 -0.8060491582 0.0083136059
30299820.0 -0.0041588956 0.0750362598 -0.0001456876 3.35226e-05 -0.000151167 5.13915e-05 -0.8123110619 0.0163369498
35299790.0 0.0073454744 0.0796639958 0.0002462207 6.67566e-05 0.0001917628 -6.29482e-05 -0.8169918511 0.0249583427
40299760.0 0.0186403477 0.0830113581 0.0002166631 8.6222e-06 -0.0003173959 -3.48348e-05 -0.8211327916 0.0341436987
45299730.0 0.029342222 0.0844014588 4.07423e-05 7.68969e-05 -4.78192e-05 4.32469e-05 -0.8252856542 0.0440860709
50299700.0 0.0389966416 0.0844131668 4.50932e-05 9.19206e-05 -9.43841e-05 3.30505e-05 -0.8273748408 0.0542342886
55299670.0 0.0484288643 0.0835240225 2.0152e-05 3.46275e-05 -0.0002162266 8.49235e-05 -0.8292408537 0.0646201003
60299640.0 0.057146291 0.0821097719 1.63081e-05 0.0001206842 9.86397e-05 5.41248e-05 -0.8306169935 0.0744046128
65299610.0 0.0647068299 0.0798922024 -0.0001064719 1.22615e-05 0.0002327931 9.32906e-05 -0.8324052951 0.0841074644
70299580.0 0.0714325654 0.0769351003 -3.07746e-05 -0.0001059676 -6.6067e-05 5.22613e-05 -0.8317169908 0.0944995117
75299550.0 0.077987037 0.0740078532 -1.77365e-05 0.0001557997 -2.34084e-05 9.267e-05 -0.8320328929 0.1043707194
80299520.0 0.0838052544 0.0706605868 3.84281e-05 0.0002912338 -0.00017733 -4.01666e-05 -0.8322612469 0.1138714261
85299490.0 0.0886116965 0.0668081372 -4.04644e-05 -4.6606e-06 -2.51338e-05 -6.8847e-06 -0.831661316 0.1236591932
90299460.0 0.0933029075 0.0634023992 5.02648e-05 -9.5621e-06 -1.96551e-05 0.0001118089 -0.8303765667 0.1330210961
95299430.0 0.0974172529 0.0590964335 7.60474e-05 2.82809e-05 -0.0001332087 8.5095e-05 -0.8290014992 0.1430448013
100299400.0 0.1010866071 0.0555525462 6.60925e-05 -4.53812e-05 0.0001456665 7.46927e-05 -0.8282731685 0.1521330462
105299370.0 0.1045160023 0.0518386313 9.08928e-05 0.0001474668 0.0001931427 1.77255e-05 -0.8266640981 0.1609178457
110299340.0 0.1073354304 0.0480111484 5.99787e-05 -4.1222e-05 3.1777e-06 0.0001380888 -0.825362299 0.1705756418
115299310.0 0.1100466122 0.0441289465 0.0001428203 3.90907e-05 0.0002472403 0.0002208874 -0.8238365443 0.1799416165
120299280.0 0.1123948154 0.0402474389 -0.0001813176 -1.0792e-05 2.18708e-05 0.0001643595 -0.822131391 0.1889901543
125299250.0 0.1141913371 0.036538363 0.0001116123 0.000222537 0.0002310001 2.7225e-05 -0.8206255303 0.1976080497
130299220.0 0.1160903454 0.0330375878 0.0001931006 -0.0001472351 0.000203738 0.0001453651 -0.8190224723 0.2065631922
135299190.0 0.1174624121 0.0298085165 0.0002850912 -0.0003461571 1.75756e-05 1.91328e-05 -0.8167738106 0.2156080385
140299160.0 0.1186683048 0.0262358082 3.61256e-05 0.0002842294 -0.0001464662 0.000119768 -0.8140389975 0.2245092331
145299130.0 0.1199716695 0.0227749915 -4.5122e-06 -9.6281e-05 0.0001335352 9.08857e-05 -0.8119082961 0.2338327851
150299100.0 0.1210660039 0.0193510545 -1.72523e-05 0.000166481 -1.62103e-05 -0.0001629087 -0.810119221 0.2432348245
155299070.0 0.1216604436 0.0160370908 0.0001032988 -8.4968e-06 7.14105e-05 7.3237e-06 -0.8076337654 0.2515807253
160299040.0 0.1220857196 0.0132075301 0.0001718313 0.0001825189 0.0002745845 3.80209e-05 -0.8050158932 0.2603105259
165299010.0 0.1228319868 0.0097959019 0.000206233 0.0001794147 -3.70438e-05 0.0002025467 -0.8022820178 0.2693050344
170298980.0 0.1232436716 0.0071704115 5.51297e-05 -0.0001051523 3.3736e-05 0.0002543477 -0.7992080272 0.2782199435
175298950.0 0.1235865717 0.003993315 -3.56043e-05 0.0002136917 5.0253e-05 0.0001410779 -0.7967236515 0.2866170573
180298920.0 0.1238342035 0.0011060842 -7.16867e-05 8.1322e-06 0.0002066144 0.0001416168 -0.793564605 0.2949296657
185298890.0 0.1241850349 -0.0018250543 0.0002060846 3.25814e-05 8.15508e-05 0.0001318028 -0.7904307707 0.304244924
190298860.0 0.1242666288 -0.0044524466 0.0002819583 0.0001559747 1.30914e-05 3.29454e-05 -0.7876843264 0.312132869
195298830.0 0.1240450503 -0.0070534013 6.98388e-05 1.60714e-05 0.0002068607 6.3733e-06 -0.7841795722 0.3209355626
200298800.0 0.1240802352 -0.0096368321 8.87567e-05 -1.23538e-05 0.00029977 -0.0001886488 -0.7815312297 0.3292176196
205298770.0 0.1239924626 -0.0122320159 1.29324e-05 4.32505e-05 1.41087e-05 0.0002936472 -0.7773864309 0.3376522076
210298740.0 0.1235880703 -0.0147445314 8.21326e-05 5.70688e-05 0.000167157 0.0001640947 -0.77445918 0.3460221308
215298710.0 0.1229851204 -0.0172218504 0.0001016909 0.0002492944 5.39389e-05 8.12603e-05 -0.770785976 0.3539709402
220298680.0 0.1226577663 -0.0197598057 0.0001774303 0.0001057865 0.0001815617 0.0001731914 -0.7676698481 0.3620384086
225298650.0 0.122281089 -0.0221405347 2.93607e-05 8.45483e-05 0.0001546435 0.0001701848 -0.7637556135 0.3701445224
230298620.0 0.1219333896 -0.0244326515 -3.06714e-05 0.0002776808 0.000119404 -2.86319e-05 -0.760061586 0.3787578069
235298590.0 0.1215955086 -0.0262567746 0.0001704756 0.0001314172 0.0002223025 0.0001518793 -0.7553892857 0.3869703257
240298560.0 0.1209604386 -0.0287790079 -3.25699e-05 -9.33678e-05 0.0002532711 0.0001574346 -0.7514725842 0.3950232154
245298530.0 0.1204562382 -0.0308652091 0.0002023879 0.0002267672 0.0001086575 0.000109802 -0.7478397061 0.4020975281
250298500.0 0.1197076115 -0.0328496163 5.51355e-05 3.15776e-05 7.21026e-05 9.73727e-05 -0.7431231376 0.4099221511
255298470.0 0.1190440435 -0.0353768213 0.0002701244 -7.59139e-05 -1.13422e-05 0.0001303254 -0.7387544253 0.4180154613
260298440.0 0.1181320625 -0.0372926668 0.0003371483 0.0001598891 0.0002199241 8.81257e-05 -0.7345644356 0.4260036456
265298410.0 0.1176431617 -0.0389320568 0.0001669196 0.0002440997 0.0002207597 4.96912e-05 -0.7305090799 0.4334699191
270298380.0 0.1167917895 -0.0411267713 0.000176487 9.72005e-05 0.0001558023 0.0001107844 -0.7254371501 0.4412536518
275298350.0 0.1158603447 -0.0430520852 -0.000151916 0.00010429 0.0002796017 8.58905e-05 -0.7205520333 0.4485844468
280298320.0 0.1152975399 -0.0447926527 0.0003130688 -2.15657e-05 8.21141e-05 -5.25784e-05 -0.7156787836 0.4560885186
285298290.0 0.114772683 -0.0465018361 -0.0001877679 0.000160626 0.0001697096 0.0001543336 -0.7104242405 0.463488123
290298260.0 0.1139870773 -0.0485261209 0.0001769192 -3.40321e-05 0.0001965971 0.0001298878 -0.706093785 0.4706795091
295298230.0 0.1130536072 -0.0503139275 -8.70538e-05 0.0001600889 0.0001448424 0.0001453719 -0.7013896422 0.4780853699
300298200.0 0.112269044 -0.0521560089 4.99759e-05 6.31884e-05 -8.75291e-05 -0.00014709 -0.6958404317 0.4852315969
305298170.0 0.1113128946 -0.0538200682 0.0001791337 -0.0001438399 5.71082e-05 0.0002179134 -0.6902263813 0.4924450803
310298140.0 0.1105132022 -0.0555386318 0.00020043 4.32685e-05 0.0001724968 0.0001632817 -0.6862237586 0.499881355
315298110.0 0.1099982206 -0.0573752611 5.74732e-05 9.98866e-05 0.0002001782 6.9684e-06 -0.6800498831 0.506932382
320298080.0 0.1088235114 -0.0593441605 0.000102377 0.0003856837 0.0004413683 -2.58868e-05 -0.6750547068 0.5141864801
325298050.0 0.1077189329 -0.0610961544 0.0002145834 3.23744e-05 0.0002312142 -0.0001784967 -0.6687661147 0.5209732022
330298020.0 0.1062999916 -0.0628900343 0.0002298291 0.0002159955 0.0001549016 -6.4102e-06 -0.663456296 0.5282762807
335297990.0 0.1052779474 -0.0644704463 0.0002268088 0.0002443423 8.23258e-05 0.0001280678 -0.6585108015 0.5351187398
340297960.0 0.1038549638 -0.0656831317 0.0002473439 8.3402e-05 0.0002418763 -9.0104e-06 -0.652562623 0.5419610021
345297930.0 0.1026082393 -0.0672041665 0.0002177658 0.0003624439 9.86203e-05 -6.80126e-05 -0.6470400315 0.5486109348
350297900.0 0.1012585186 -0.068364809 0.0003337994 0.0002218707 0.0001151984 0.0003356282 -0.6416055317 0.5550510382
355297870.0 0.1001854103 -0.0700867417 0.0002764865 3.43442e-05 0.0002498579 0.0001062778 -0.6353033681 0.5615122268
360297840.0 0.0988869275 -0.0710193931 0.000242115 -2.6193e-05 0.0001380554 1.11126e-05 -0.6296380052 0.5686512463
365297810.0 0.0977005125 -0.0719777332 -6.01477e-05 9.78422e-05 0.0001447154 0.0003424727 -0.6229054751 0.575214918
370297780.0 0.0965633221 -0.0735011607 0.000237978 1.95744e-05 0.0001148535 1.69732e-05 -0.6177542311 0.5814292459
375297750.0 0.0955394991 -0.0746021844 3.49998e-05 5.08206e-05 0.0001596106 0.0003324916 -0.6115122888 0.5876698012
380297720.0 0.0940694312 -0.0762762816 0.0005289444 0.0002412671 3.79296e-05 0.0001283413 -0.605499408 0.5940821526
385297690.0 0.0929551474 -0.0769405133 0.0002744794 6.81649e-05 7.08393e-05 0.0001971814 -0.5991328593 0.6004435106
390297660.0 0.0915568425 -0.0779312881 0.0001997439 0.0001250694 0.0001436888 6.8516e-05 -0.5932833436 0.6066193662
395297630.0 0.0906490348 -0.0791707649 0.000409561 0.000263702 0.0002684567 0.0001939108 -0.5864210653 0.6134543916
400297600.0 0.0894650919 -0.0803313479 0.0004646257 0.0001566429 0.0001448286 -8.89831e-05 -0.5807141053 0.6185067642
405297570.0 0.0878457562 -0.0812221014 0.0002925989 0.0001247393 0.0001222487 0.0002584679 -0.5737370542 0.6243311225
410297540.0 0.0866212693 -0.0825083058 0.000475638 1.65145e-05 0.0003751379 0.0001024941 -0.567380749 0.6305544808
415297510.0 0.0856112201 -0.0838312078 0.0001479365 8.76307e-05 0.0001594449 0.0001154587 -0.5607465776 0.636312679
420297480.0 0.0841763939 -0.0843875753 0.0002568001 0.0001820714 0.0001130757 0.0001828801 -0.5545804232 0.6421603164
425297450.0 0.082942184 -0.0855618023 0.0004500846 9.72895e-05 0.0002184174 -7.10994e-05 -0.5480429554 0.6480247659
430297420.0 0.0817979294 -0.0868469143 0.0002973374 9.64309e-05 0.0003460557 -1.29265e-05 -0.5413112404 0.6525726154
435297390.0 0.0804137353 -0.0874299907 0.0001534475 -5.34065e-05 0.0003275506 0.0001350458 -0.534080004 0.6584786857
440297360.0 0.0787649919 -0.0888658872 0.0003984485 -0.0001839816 9.8234e-05 6.89142e-05 -0.5276010291 0.6636334924
445297330.0 0.0775386381 -0.0895813769 0.0002062534 8.75518e-05 0.0001184544 0.0001436763 -0.5205837491 0.6685333317
450297300.0 0.0762426374 -0.0904217743 0.0001912235 0.0002357506 -9.87108e-05 0.0001380693 -0.5131628032 0.6741630628
455297270.0 0.0748145658 -0.0909404187 0.0003043806 0.0001580089 0.0002876807 0.0002533545 -0.5065632655 0.6782186199
460297240.0 0.0736566323 -0.0920102899 0.0001029467 0.0001161169 6.5611e-06 5.26367e-05 -0.4996907049 0.6837311863
465297210.0 0.0722203095 -0.0931267426 0.0004004952 0.0002255512 0.000204953 0.0001067252 -0.4918924417 0.6886585116
470297180.0 0.0710001206 -0.0937180501 0.0002238625 -2.80199e-05 0.0003479597 0.0001253456 -0.4849542109 0.694162488
475297150.0 0.0696832486 -0.094598991 0.0001492005 0.0001309534 0.0002749191 -4.5606e-06 -0.4774767972 0.6979547746
480297120.0 0.0683202919 -0.0951701516 0.0002105368 -4.66471e-05 0.0001487477 0.000195479 -0.4703638744 0.7035555088
485297090.0 0.0668737242 -0.0959723217 0.0004429731 -4.56319e-05 0.0001369937 0.0002254137 -0.4632965315 0.7084758772
490297060.0 0.0654380461 -0.0962378169 0.0004650096 0.0002045777 9.83901e-05 0.0001835663 -0.4556609727 0.7127437882
495297030.0 0.0640935499 -0.0972015773 0.0002503923 -9.49332e-05 0.0004577363 0.0001792365 -0.4486561328 0.7178899611
500297000.0 0.0627942116 -0.0979931933 0.0002633691 9.97195e-05 0.0001074443 0.0001041437 -0.4408255622 0.7224105471
505296970.0 0.0617878923 -0.0985516139 0.0001101785 0.000104907 0.0002554807 0.0002691085 -0.4336578771 0.7265395432
510296940.0 0.0599958448 -0.0994629329 0.0002820909 0.000223442 0.0003460552 0.0001566075 -0.4265679741 0.7307688208
515296910.0 0.0587825671 -0.0998607107 0.0002476263 0.0002533142 0.0002022913 0.0001619283 -0.4183634844 0.7349304865
520296880.0 0.0572122459 -0.1003833283 0.0003163906 0.0002177902 0.0003068954 4.46037e-05 -0.4113582056 0.7392272176
525296850.0 0.0557195463 -0.1013562431 0.0001988288 9.46407e-05 0.0003769625 1.42572e-05 -0.4041906732 0.7441003892
530296820.0 0.0545238728 -0.1017129663 0.0002865063 0.0001213037 0.0003949923 0.0003069538 -0.3965076591 0.7471437985
535296790.0 0.0529878125 -0.1020621895 0.0002042017 0.0001091193 0.0003930755 2.64045e-05 -0.3893541319 0.7513091277
540296760.0 0.051408832 -0.1028079813 0.0004947308 0.0003227797 0.0002213899 0.0002612921 -0.3813141694 0.755521663
545296730.0 0.0498918175 -0.1029856228 0.0005112165 9.91416e-05 0.0002020729 0.0002257843 -0.373327533 0.7590725173
550296700.0 0.0486591402 -0.1033298712 0.0001472669 1.70664e-05 0.0002035156 -0.0001711953 -0.365860835 0.7627253917
555296670.0 0.0470857773 -0.104095853 0.0004106125 -9.5407e-05 0.0004187782 0.0001406213 -0.357688467 0.7674278158
560296640.0 0.046019369 -0.1041115688 0.0002725584 0.0002422983 0.0003939639 0.0001048349 -0.3501015841 0.7714391275
565296610.0 0.0443222591 -0.1046594372 0.000365309 3.53197e-05 0.0003654776 0.0001284789 -0.3420953589 0.7737985354
570296580.0 0.0427208181 -0.1051013845 0.0002639868 0.0001431038 0.0002476162 0.0001704662 -0.3348633177 0.7778647776
575296550.0 0.0415149374 -0.1051533308 0.0004136949 0.0002277037 0.0004290193 0.0001051094 -0.3267988846 0.7810047028
580296520.0 0.0402609537 -0.1057126154 0.0003424487 1.91848e-05 0.0004333429 5.9105e-06 -0.3186999567 0.7836594299
585296490.0 0.0381519067 -0.1062535684 0.0003201073 6.91825e-05 0.0006108987 0.0001604889 -0.3100437153 0.7872103421
590296460.0 0.0374288567 -0.1063976122 0.0002085642 0.0001663675 0.0003076205 -7.706e-07 -0.3033520272 0.7898152277
595296430.0 0.035704427 -0.1069952758 0.0004626583 5.46939e-05 0.0004426958 0.0001390283 -0.2950039 0.7925168822
600296400.0 0.0340262391 -0.1070072602 0.0003705848 2.46224e-05 0.0005034103 0.0001857441 -0.2867495522 0.7952015634
605296370.0 0.032436695 -0.1074206333 0.0003500666 -0.0001252849 0.000580833 -0.0001043012 -0.2779630604 0.7984538748
610296340.0 0.0314342785 -0.1075406736 0.0004619119 -2.89906e-05 0.0003828543 6.68772e-05 -0.2707162058 0.8009231623
615296310.0 0.0297510786 -0.1075783496 0.000247673 9.12969e-05 0.0004725009 9.44323e-05 -0.2618735479 0.8033299514
620296280.0 0.0279051795 -0.10795137 0.0003092685 -1.99073e-05 0.0004631977 7.0442e-06 -0.2547145558 0.8060837748
625296250.0 0.0268485703 -0.108215572 0.0002994038 -2.4079e-05 0.0003850317 0.000136915 -0.2455997891 0.8080846295
630296220.0 0.0256899398 -0.108477526 0.0003500911 -2.53201e-05 0.0003487171 5.48324e-05 -0.2376106913 0.8111329185
635296190.0 0.0238881182 -0.1084679392 0.0004196724 -2.46826e-05 0.0001421463 9.03703e-05 -0.2296965769 0.8126111159
640296160.0 0.0226204587 -0.1087762487 0.0004880652 -1.26274e-05 0.0001705385 1.65555e-05 -0.220959751 0.8152755907
645296130.0 0.0209039734 -0.1084164612 0.0004811452 -4.65197e-05 0.0003098436 0.0001544835 -0.2133176136 0.8173838899
650296100.0 0.0193896742 -0.10839059 0.0003324066 0.0001943118 0.0002766186 -9.80908e-05 -0.2047552716 0.8190101338
655296070.0 0.0181336493 -0.1087542925 0.0003324126 0.0002295331 0.0002293576 1.86493e-05 -0.1962723586 0.8210638994
660296040.0 0.0165075088 -0.1086997875 0.0002332932 -9.6761e-05 0.0002863414 0.0002012563 -0.1875680085 0.822871429
665296010.0 0.015375366 -0.1090032986 0.0004309632 -5.08677e-05 0.0004109091 0.0001155616 -0.1795187705 0.8253483638
670295980.0 0.0137212159 -0.1088639191 0.0004237557 3.08885e-05 0.0003544721 1.75272e-05 -0.171885925 0.8262193104
675295950.0 0.0121889855 -0.1081558 0.0003908177 -4.60405e-05 0.0003481444 4.0575e-06 -0.1636150859 0.8288168817
680295920.0 0.0107729528 -0.1086211364 0.000284933 8.11515e-05 0.0003339421 -0.0001183511 -0.1547292512 0.8308372927
685295890.0 0.0097396675 -0.1082773923 0.0006619886 -0.0001989359 0.0003381005 -9.12567e-05 -0.1456946743 0.831596269
690295860.0 0.0081597193 -0.1082405278 0.0004116149 0.0002325827 0.0002020185 0.0001389841 -0.1386879926 0.8336259491
695295830.0 0.0065264586 -0.1082423898 0.0001765381 3.45592e-05 0.0003711328 -0.0002707691 -0.129344979 0.8347462792
700295800.0 0.0052765576 -0.1082217642 0.0004193263 -2.6196e-05 0.0005091868 9.06631e-05 -0.1217238641 0.8362882215
705295770.0 0.003731162 -0.1080198954 0.0003751955 -0.0001349154 0.0003511535 7.51145e-05 -0.1136049731 0.837869926
710295740.0 0.0020892392 -0.1077294691 0.0004619742 -7.05252e-05 0.000322173 -1.9796e-06 -0.1052870222 0.8385817544
715295710.0 0.0009232487 -0.1076275418 0.0003768809 0.0001337226 0.0001950552 -3.90091e-05 -0.0960528039 0.8392869632
720295680.0 -0.0004196411 -0.1073861764 0.0003681137 -0.0001464982 0.0003368971 1.84538e-05 -0.0876147919 0.8405513699
725295650.0 -0.0018946117 -0.1068748057 0.0005516026 2.93183e-05 0.0003167576 -2.9154e-06 -0.0799089935 0.8426486733
730295620.0 -0.0033330404 -0.1064753993 0.0004036528 -2.37579e-05 0.0006241887 -4.81209e-05 -0.0719277391 0.8424532224
735295590.0 -0.0047522239 -0.1065655606 0.0001748168 6.48896e-05 0.0002116209 0.0002678563 -0.0633497987 0.8425443721
740295560.0 -0.0065434046 -0.1063065923 0.0003326692 -5.15301e-05 0.0004711396 -0.0002523624 -0.0538722036 0.8439681424
745295530.0 -0.0078939482 -0.1060528454 0.000546597 0.0001489567 0.0003367721 -7.03088e-05 -0.0459034642 0.8440132887
750295500.0 -0.0089370623 -0.1057621927 0.0003509715 -1.40584e-05 0.0005823135 -2.74174e-05 -0.0382361672 0.8444667635
755295470.0 -0.0106825554 -0.1052742178 0.0004504058 1.96547e-05 0.0003980937 -0.000120178 -0.0291105097 0.8436001374
760295440.0 -0.0117684606 -0.1049360811 0.0002301306 -5.34143e-05 0.0004301721 -4.64839e-05 -0.0210396706 0.8443045416
765295410.0 -0.013139563 -0.1046010918 0.0005836804 -7.29907e-05 0.0004675087 7.31943e-05 -0.0123500895 0.8444579453
770295380.0 -0.0145680011 -0.1044744234 0.0004031712 -2.13735e-05 0.0004964755 9.18925e-05 -0.0045062071 0.8444541207
775295350.0 -0.0164006205 -0.1040463278 0.0003253324 -9.89713e-05 0.0005859604 -2.55286e-05 0.0038404144 0.8443736009
780295320.0 -0.0173089539 -0.1036368806 0.0003001545 -0.0002104261 0.0005124313 -0.0001469265 0.0127532027 0.8444708644
785295290.0 -0.0188810674 -0.1033763265 0.0004517979 -0.0001166647 0.0004468615 -0.000180084 0.0213675395 0.843896471
790295260.0 -0.0200084536 -0.102607207 0.0005679912 -7.07453e-05 0.0003478015 -1.9851e-06 0.0300265756 0.8440012187
795295230.0 -0.0212865163 -0.1020246548 0.0004551184 -3.33725e-05 0.00048811 -0.0001898687 0.0388849647 0.8430085212
800295200.0 -0.0228926987 -0.1016634126 0.000356645 -0.0001946273 0.0007298725 -0.0003031495 0.04675282 0.8427588705
805295170.0 -0.0240717774 -0.101419467 0.0004686008 0.0001440587 0.0004305397 -7.2038e-05 0.054815497 0.8425078629
810295140.0 -0.0251291291 -0.1007479056 0.0002855297 -0.0001646001 0.0003629071 -0.0001242323 0.0632692079 0.8416834561
815295110.0 -0.0268200082 -0.1002575017 0.0003713699 -2.64881e-05 0.0004861897 -0.0002762271 0.071762012 0.8406875731
820295080.0 -0.0282837988 -0.0993574496 0.0003539909 -4.63283e-05 0.0004275061 -0.0001384262 0.0801248468 0.8402358603
825295050.0 -0.0290690789 -0.0992334292 0.0002089344 0.0001782754 0.0005641682 -0.0002274009 0.0882395182 0.8397927528
830295020.0 -0.0306660835 -0.0986597234 0.0003956572 -0.0001373163 0.0005268561 -0.0002337689 0.0976475866 0.8383193946
835294990.0 -0.0318305323 -0.0978854598 0.0003514016 -0.0001970438 0.0004195277 -4.5322e-06 0.1050633215 0.8377065233
840294960.0 -0.0329307303 -0.0972337605 0.0003894938 -0.0001066991 0.0004567747 -0.0002439402 0.1137014713 0.8363082514
845294930.0 -0.0344957817 -0.0963618068 0.0006326399 0.0001231959 0.0004239588 7.87415e-05 0.1214387026 0.8349218717
