!Created with skrf (http://scikit-rf.org).
# Hz S RI R 50.0 
!freq ReS11 ImS11 ReS21 ImS21 ReS12 ImS12 ReS22 ImS22
300000.0 0.860592682 -0.0020001068 -0.0002068604 -0.0002880718 -0.0005216147 -4.6923e-05 -0.770774169 -0.1623491116
5299970.0 0.8598561021 -0.0102678114 -4.19886e-05 -5.08744e-05 -1.02106e-05 -2.93472e-05 -0.7854067272 -0.008586094
10299940.0 0.8586354853 -0.0190882339 -0.0001774148 -0.0003009103 4.80289e-05 -0.0001191666 -0.7882938248 -0.0051004167
15299910.0 0.858180823 -0.0276481284 -0.0002850349 6.41549e-05 4.08532e-05 0.0001494826 -0.7935403535 -0.0032949461
20299880.0 0.8573852008 -0.0357937754 -3.26921e-05 -0.0001220403 -9.36452e-05 -0.0001055489 -0.8003376867 0.0018612283
25299850.0 0.8567806893 -0.0435552805 -9.6154e-06 -4.77346e-05 -2.40871e-05 5.19574e-05 -0.806939735 0.0072417765
30299820.0 0.855744823 -0.0523420233 0.000131256 -3.22048e-05 1.805e-06 4.34982e-05 -0.8127682188 0.0145830578
35299790.0 0.8546886086 -0.0602568241 0.0001632139 -6.27061e-05 6.70552e-05 -0.0002095199 -0.8179068011 0.0239764276
40299760.0 0.8535914454 -0.0680164084 0.0001532679 0.000116325 -2.4129e-06 8.81841e-05 -0.821732834 0.0334495453
45299730.0 0.8533169308 -0.0764853165 7.94115e-05 8.58513e-05 -6.02311e-05 -0.0001182083 -0.8253452168 0.0421550284
50299700.0 0.8522062006 -0.0849329369 -5.61793e-05 2.71557e-05 -0.0001388735 9.22543e-05 -0.8278077855 0.0524992596
55299670.0 0.8515393923 -0.092726053 0.0001342966 -0.0001936852 -8.85628e-05 -9.72062e-05 -0.8299666029 0.0631173773
60299640.0 0.850362124 -0.1008682732 -0.0001112334 3.577e-06 0.0002105677 -4.07059e-05 -0.8308083518 0.0728550815
65299610.0 0.8498769187 -0.1095477225 0.0001671701 -3.0183e-06 -2.62414e-05 -4.80337e-05 -0.8314189628 0.082840509
70299580.0 0.8490620889 -0.1177314076 2.51617e-05 0.0001301431 -1.4815e-05 -0.0001366423 -0.8324975242 0.0925809332
75299550.0 0.8473845275 -0.1261414916 3.94235e-05 -9.12142e-05 -0.0001618854 0.0001288453 -0.8327285792 0.1022215188
80299520.0 0.8457398507 -0.1343953745 -0.000228352 -0.0001310281 -9.23578e-05 1.421e-07 -0.8320672774 0.112027982
85299490.0 0.8444743759 -0.142570083 4.6337e-06 -0.0001152872 5.7957e-06 7.40728e-05 -0.8317682662 0.1219910094
90299460.0 0.8431904293 -0.1498729188 -0.0001753205 0.0001117468 0.0001715929 0.0001564235 -0.8309475771 0.1311338869
95299430.0 0.8419872761 -0.1585009978 -7.6575e-05 -0.0003021479 -6.0165e-06 -0.000200404 -0.8301933725 0.1414106153
100299400.0 0.8394382083 -0.1673481427 -7.59201e-05 6.70697e-05 0.0001445002 -0.0001275114 -0.8291470362 0.1499699166
105299370.0 0.8382124454 -0.1753120686 0.0001134565 0.0001359708 -4.37228e-05 -4.58434e-05 -0.8274356761 0.1589347597
110299340.0 0.8361920843 -0.1828656284 9.373e-05 -4.05705e-05 0.0001185744 0.0001634003 -0.8266496287 0.1684361538
115299310.0 0.8347310489 -0.1915556748 -1.19199e-05 -7.23252e-05 0.000105916 0.0001405109 -0.8250050653 0.1771913538
120299280.0 0.8325678892 -0.199130955 -0.0001071284 -0.0001652463 -1.067e-05 3.7757e-05 -0.8234484236 0.1856334075
125299250.0 0.8301982807 -0.2079108855 0.0001054778 -6.55207e-05 3.49194e-05 -7.8093e-05 -0.8219272064 0.1958118738
130299220.0 0.8281502295 -0.2156239688 0.000167711 0.0001230319 -1.12992e-05 -6.91758e-05 -0.8205299246 0.2047182347
135299190.0 0.8268094278 -0.2236146243 -5.35104e-05 8.3725e-06 0.0001376611 6.02677e-05 -0.8183039688 0.2126571107
140299160.0 0.8248819372 -0.2315277439 1.67639e-05 -0.0001412922 -0.0001176574 -9.7204e-06 -0.8159754977 0.2219106043
145299130.0 0.8214952289 -0.2392572011 -0.000134555 0.0002240112 -9.19283e-05 -5.11807e-05 -0.8140951398 0.2299927526
150299100.0 0.8194829159 -0.2474274714 0.0002070335 0.0002203925 -0.0001938565 -2.09323e-05 -0.8117561301 0.2383272875
155299070.0 0.8168035915 -0.2557697488 -0.0001066232 6.44163e-05 -7.98106e-05 0.0001786972 -0.8092330921 0.2477126035
160299040.0 0.8142795283 -0.2634703166 0.0001695711 6.48709e-05 1.31563e-05 4.75356e-05 -0.8068973398 0.256770777
165299010.0 0.8115031896 -0.2710894742 -0.000106331 0.0001399211 -9.00652e-05 7.26131e-05 -0.8042901048 0.2646073275
170298980.0 0.8091349346 -0.2791868542 6.38732e-05 2.18351e-05 6.65675e-05 1.79094e-05 -0.8019644665 0.2738607143
175298950.0 0.8066877444 -0.2864583325 -0.0001217966 4.88697e-05 7.31309e-05 0.0001164866 -0.7989709776 0.2818757048
180298920.0 0.8036768723 -0.2950315649 -0.0002651064 -9.68374e-05 6.2719e-05 5.46629e-05 -0.7954870012 0.290899177
185298890.0 0.8001741149 -0.3025066519 -6.37652e-05 -6.05149e-05 9.94828e-05 -0.0001263094 -0.7930322871 0.2987204005
190298860.0 0.7971168556 -0.3107805723 9.20079e-05 -1.18834e-05 -0.0001965088 7.31498e-05 -0.7895063529 0.3072407634
195298830.0 0.7945499029 -0.3176887236 2.60853e-05 -0.0001312105 -5.81686e-05 -6.39644e-05 -0.7874096 0.3153797255
200298800.0 0.7914441461 -0.3262501598 4.4743e-06 -2.69614e-05 -6.84588e-05 -5.50165e-05 -0.7833401702 0.3237973869
205298770.0 0.7881723641 -0.3339982898 -6.30949e-05 3.67016e-05 -7.85242e-05 2.99682e-05 -0.7797002775 0.3319161351
210298740.0 0.785223876 -0.3407392338 -2.32207e-05 6.2553e-06 8.23875e-05 4.24519e-05 -0.7770551859 0.3403620006
215298710.0 0.7816129892 -0.3486778421 0.0001272209 4.2986e-06 0.0001548122 0.0001266713 -0.7735660772 0.3486550189
220298680.0 0.7783998309 -0.3564544332 -0.0002339245 -0.0001773445 3.42096e-05 -4.31948e-05 -0.7692297715 0.3568810363
225298650.0 0.7741632748 -0.3636964853 7.29855e-05 4.88542e-05 -0.0001008103 0.0001761861 -0.7660308301 0.3652696274
230298620.0 0.7712749572 -0.3718697331 6.1307e-06 -0.0002025411 0.0001509186 -2.57231e-05 -0.7620759053 0.3726696567
235298590.0 0.7674055812 -0.3790799547 9.85023e-05 0.0001250882 -5.3195e-05 -0.0001335898 -0.7584097126 0.3808436671
240298560.0 0.7626911059 -0.3867221079 0.000259046 5.87794e-05 -0.0001564907 4.46121e-05 -0.7538980114 0.3883573563
245298530.0 0.7597722477 -0.3935652594 8.7182e-06 -0.0001539462 0.0002593176 -6.81998e-05 -0.7500495055 0.3966014428
250298500.0 0.7560736097 -0.4013016708 0.0001074861 2.101e-07 5.67051e-05 -3.6872e-06 -0.7459261595 0.4046837563
255298470.0 0.7519204776 -0.4080744679 0.0001521376 -2.2954e-05 -0.0001281369 7.97408e-05 -0.7414864306 0.4125676039
260298440.0 0.7479705258 -0.4151692619 9.76366e-05 7.11e-06 -7.15101e-05 5.59e-05 -0.7370122148 0.4204349559
265298410.0 0.7436724179 -0.4231593847 -6.55467e-05 -7.98285e-05 -5.94939e-05 0.0002020807 -0.7328934806 0.4278981373
270298380.0 0.7400495082 -0.429756476 0.0001267074 7.57706e-05 -1.2957e-06 0.0001145617 -0.7277231208 0.4352461523
275298350.0 0.7358514069 -0.4368103093 -7.09159e-05 -0.0002827864 8.37029e-05 -0.0001021894 -0.7226848203 0.4432908816
280298320.0 0.7315315175 -0.4440118563 -4.57511e-05 -6.4441e-05 4.76662e-05 -1.40688e-05 -0.7186056819 0.4503643305
285298290.0 0.7273958718 -0.4510876508 -0.0001826609 0.000155851 0.0001838371 0.0002354757 -0.71352465 0.4577424947
290298260.0 0.7230003229 -0.4588395561 0.0001035701 -4.4644e-06 5.36089e-05 -3.85882e-05 -0.7089045053 0.4659607377
295298230.0 0.7188754701 -0.4666776647 0.0002077006 0.0001150361 -0.0001050516 0.0001051673 -0.7038009767 0.4729820218
300298200.0 0.7149079575 -0.4733895817 -8.94469e-05 5.56118e-05 -0.0001143131 0.0001738756 -0.6987717005 0.4801442526
305298170.0 0.7106926418 -0.4797020932 -0.0001909825 -0.0002686851 -0.0001051718 -5.14548e-05 -0.6933466843 0.4879594627
310298140.0 0.7057884656 -0.4881084453 -8.3767e-06 0.0001416332 -7.21393e-05 -9.579e-06 -0.6889771739 0.4951766862
315298110.0 0.7002875194 -0.4959258907 5.7249e-05 -0.0001664989 2.15307e-05 -5.82856e-05 -0.6834971818 0.5020932521
320298080.0 0.6948027371 -0.5025425414 0.0002953836 -0.000125021 -4.51987e-05 -7.94862e-05 -0.6780969261 0.5093820676
325298050.0 0.689282767 -0.5100676785 0.0001586079 -0.000100516 -7.33552e-05 -0.0002914357 -0.672137664 0.5160059272
330298020.0 0.6834197434 -0.5167165925 6.7708e-06 0.0001418742 0.0001116023 2.81071e-05 -0.666797096 0.5229066065
335297990.0 0.6777204318 -0.5223342612 0.0001196945 0.0001939465 -1.2811e-05 -0.000116032 -0.6618571102 0.5299421417
340297960.0 0.6727433775 -0.5287446419 0.0001381462 9.50308e-05 -8.56781e-05 -0.0001561732 -0.6556501245 0.5378311444
345297930.0 0.666906692 -0.5357391062 4.77657e-05 -1.06403e-05 -0.0002436669 -8.64837e-05 -0.6498585924 0.5438151214
350297900.0 0.6614512712 -0.5416826664 2.36667e-05 3.76545e-05 0.0001125166 2.35175e-05 -0.6440900512 0.5510101761
355297870.0 0.6559011595 -0.5480083627 7.38187e-05 -8.57078e-05 3.90886e-05 -9.34571e-05 -0.638524669 0.5576129321
360297840.0 0.650937105 -0.5544061206 3.17396e-05 0.0001086762 -0.0001925291 -5.53441e-05 -0.6321321432 0.5637882781
365297810.0 0.6454201247 -0.5606696012 -0.0002631143 -0.0002048338 -0.0001522506 -1.34565e-05 -0.6259221243 0.5707298974
370297780.0 0.6393500537 -0.5667021144 4.74019e-05 0.0002769549 0.0002370011 7.16916e-05 -0.6207787281 0.5765055722
375297750.0 0.6338085247 -0.5723452845 -4.12862e-05 -0.0001543309 7.7038e-05 -6.6361e-05 -0.614302675 0.5830397094
380297720.0 0.628994877 -0.5783703828 -9.19279e-05 -9.62792e-05 -7.59643e-05 0.0001936412 -0.6085340683 0.5904566736
385297690.0 0.6222116188 -0.5844607397 0.0001499024 3.81378e-05 6.6559e-06 8.07647e-05 -0.6019904042 0.5961211957
390297660.0 0.616695514 -0.5903462101 -0.0001750421 4.22494e-05 -9.07738e-05 4.83729e-05 -0.5953429294 0.6013585363
395297630.0 0.6113308198 -0.5963387624 4.94716e-05 3.49594e-05 4.52114e-05 1.28151e-05 -0.5893292323 0.6084470025
400297600.0 0.6043768581 -0.6017196814 1.21556e-05 0.0001056894 -2.657e-05 3.15391e-05 -0.5837940171 0.6140131086
405297570.0 0.5991133608 -0.60815482 0.0001635126 -3.7046e-05 0.0001317206 -3.03533e-05 -0.577170162 0.6201050861
410297540.0 0.5934996868 -0.6137577125 0.0001394128 3.79121e-05 -0.0002487168 -4.18766e-05 -0.5700630385 0.6256930469
415297510.0 0.5875061178 -0.6189332974 -6.72903e-05 8.25245e-05 -2.56714e-05 6.96522e-05 -0.5638417864 0.6319258452
420297480.0 0.5809188798 -0.625211148 2.7351e-05 -0.0001011298 -0.0002219832 -8.19756e-05 -0.5568803257 0.6367430253
425297450.0 0.5747697349 -0.6301116554 9.98947e-05 6.08849e-05 -7.33636e-05 -0.0001785689 -0.5502642218 0.6429665464
430297420.0 0.5682918491 -0.6360470746 -8.90827e-05 2.241e-05 -0.0001440981 -5.33466e-05 -0.5438446643 0.6486428406
435297390.0 0.5625631908 -0.6415518499 -9.75025e-05 8.94948e-05 -1.3915e-06 -8.11552e-05 -0.5373559952 0.6537235373
440297360.0 0.5558483643 -0.6473953273 5.70567e-05 3.69522e-05 -3.95517e-05 5.45941e-05 -0.530616878 0.6588137169
445297330.0 0.5497890232 -0.6519516451 -0.0002485176 0.0001978954 -5.78226e-05 8.9574e-06 -0.5235536813 0.6641424769
450297300.0 0.5431265852 -0.6574795092 2.09729e-05 5.13261e-05 4.5451e-05 5.89737e-05 -0.5169135362 0.6695557152
455297270.0 0.5360737526 -0.6626207499 4.37389e-05 0.000110141 3.0042e-06 4.78155e-05 -0.5099147606 0.6752149759
460297240.0 0.5299728508 -0.6671919151 0.0001066813 -2.01933e-05 -0.0001920236 2.82e-06 -0.5024346936 0.6801741306
465297210.0 0.5236004443 -0.6726302121 -6.25151e-05 0.0001957543 -0.0001455402 8.28421e-05 -0.4963592437 0.6848363331
470297180.0 0.5167646261 -0.6782582023 -9.83977e-05 1.71797e-05 -3.63534e-05 -6.297e-06 -0.4900281313 0.6895806719
475297150.0 0.5101951168 -0.6825561141 8.01548e-05 3.7536e-06 -4.2603e-06 6.95319e-05 -0.4820611346 0.6948434612
480297120.0 0.5033178903 -0.6878134131 0.0001002407 0.0001069095 0.0001053396 -3.54061e-05 -0.475068979 0.6999791268
485297090.0 0.4968076233 -0.6924180053 -7.53959e-05 -1.39666e-05 -5.48902e-05 2.52898e-05 -0.4675730312 0.703807515
490297060.0 0.489865919 -0.6970791243 8.2406e-06 -0.0001405633 5.71349e-05 3.64568e-05 -0.4610804297 0.7085622387
495297030.0 0.4823546996 -0.7025309677 -5.43761e-05 0.0001409069 -7.26563e-05 -1.87137e-05 -0.4531989525 0.7129287443
500297000.0 0.4764539921 -0.7065703821 9.66768e-05 0.0001361597 1.91195e-05 3.85045e-05 -0.4468135188 0.7180519314
505296970.0 0.4684410143 -0.7109930504 -6.09624e-05 -0.0001379 -7.8438e-05 -4.51471e-05 -0.4402256867 0.7219978262
510296940.0 0.46153065 -0.7155321995 3.15929e-05 9.2476e-05 -3.41444e-05 2.32233e-05 -0.4322988964 0.7267537818
515296910.0 0.4549708343 -0.7200375557 -8.22029e-05 -9.74376e-05 -0.0001484056 3.09479e-05 -0.4249678282 0.7311611866
520296880.0 0.4477355873 -0.7243735001 9.48318e-05 8.18509e-05 7.95516e-05 -0.0001302794 -0.4173791054 0.7348458157
525296850.0 0.4405392453 -0.728326488 -0.00023466 -8.10013e-05 4.06246e-05 -0.0001371525 -0.409813136 0.7394731175
530296820.0 0.4329505322 -0.7329973676 3.58046e-05 3.22477e-05 2.6871e-06 7.08031e-05 -0.4031617077 0.7427097421
535296790.0 0.4255245787 -0.7367014142 -2.80805e-05 2.03536e-05 -0.0001665424 -0.0001009619 -0.395602628 0.7469200411
540296760.0 0.4190715337 -0.7410508363 9.92124e-05 5.20956e-05 -3.36074e-05 5.29989e-05 -0.3883393954 0.7512665609
545296730.0 0.4116024676 -0.7447047956 6.64177e-05 -2.64539e-05 7.9246e-05 -0.0001493074 -0.3808813223 0.7543207671
550296700.0 0.403660547 -0.7487918822 0.0001078035 1.65221e-05 1.64641e-05 -8.14368e-05 -0.3733111829 0.758039317
555296670.0 0.396430994 -0.7530115828 9.71372e-05 1.74347e-05 -3.4122e-06 -8.4541e-06 -0.3656779802 0.7618015438
560296640.0 0.3896305592 -0.756817732 -5.92211e-05 -0.0001000943 -5.14994e-05 8.05593e-05 -0.3575891963 0.7653715615
565296610.0 0.3812618572 -0.7605697537 3.26587e-05 -0.000179827 5.47286e-05 -5.56582e-05 -0.350387527 0.7690729208
570296580.0 0.3745209483 -0.7644399207 -0.0001771946 3.87323e-05 -2.0048e-05 -2.2781e-06 -0.3430367604 0.7724746784
575296550.0 0.3667441126 -0.7671773759 9.7559e-06 -2.5001e-05 -5.86743e-05 -9.5556e-06 -0.3347887251 0.7760523015
580296520.0 0.359465414 -0.7704343699 -3.88988e-05 4.43655e-05 5.47326e-05 -0.0002083539 -0.3273522608 0.7792935076
585296490.0 0.3508509266 -0.7742156961 0.000184902 -0.0002426689 -3.22965e-05 -7.70849e-05 -0.3192669374 0.7818294798
590296460.0 0.3433511685 -0.7777144996 -6.63472e-05 -9.65927e-05 4.06481e-05 -0.0001263336 -0.3119481369 0.7850823821
595296430.0 0.3358519526 -0.7804968247 1.78673e-05 -1.6647e-05 -4.0683e-05 7.71091e-05 -0.3036070745 0.7873502876
600296400.0 0.3280736593 -0.7833280153 6.52026e-05 4.57847e-05 -3.14306e-05 -0.0001735345 -0.2960113813 0.791237603
605296370.0 0.3204535027 -0.7862459403 -5.77259e-05 2.93819e-05 -0.0001438004 5.99053e-05 -0.2884950514 0.794586322
610296340.0 0.3129512596 -0.7904162603 8.41138e-05 -0.000191185 -0.0001334732 3.97528e-05 -0.2800635222 0.7973727528
615296310.0 0.3049104382 -0.7928240475 -5.45609e-05 0.0002509694 0.0001803167 -2.71668e-05 -0.2725698185 0.7990080803
620296280.0 0.2973153174 -0.7952837631 3.51343e-05 -8.1141e-06 -0.0001965173 0.0001084989 -0.2649443025 0.801793482
625296250.0 0.2896581195 -0.7985707543 -4.43243e-05 0.0001235712 0.0002045819 3.84408e-05 -0.2567563286 0.8048692128
630296220.0 0.2809468224 -0.8009309898 4.6996e-05 4.04904e-05 -0.0001186394 -0.0001401679 -0.2484087313 0.8075781141
635296190.0 0.2738347386 -0.804430293 0.0002552326 -0.0001276959 -0.0001366561 -2.49515e-05 -0.2407892359 0.8092763117
640296160.0 0.2654955192 -0.8061059872 0.0002682491 -0.0001028878 -3.5431e-05 -2.74389e-05 -0.2323194829 0.8122403001
645296130.0 0.2574756175 -0.8092108285 -1.04e-06 -1.9347e-06 -0.0001421478 5.18443e-05 -0.2248001059 0.8142430468
650296100.0 0.2496816597 -0.8105531906 0.0001123594 0.0001860868 -0.000209258 -0.0001272243 -0.2171029915 0.8166914933
655296070.0 0.2417944376 -0.8130541715 -0.0001997797 9.03887e-05 -0.0001037266 -0.0001053298 -0.2084264364 0.8183323357
660296040.0 0.2332641408 -0.8152980719 0.0001333162 -4.79624e-05 -6.70156e-05 0.0001533795 -0.2007924103 0.8202901843
665296010.0 0.2254442319 -0.8180974836 -0.0001383455 -0.0001789896 -0.0001188647 -5.58169e-05 -0.1930126987 0.8226252742
670295980.0 0.2177702712 -0.8200392933 -0.0001961467 7.23365e-05 1.9558e-06 -7.87358e-05 -0.1852115688 0.8241850044
675295950.0 0.2099013647 -0.821557493 5.14002e-05 0.000200709 -0.0001044066 1.13919e-05 -0.1759754355 0.8261431191
680295920.0 0.200483031 -0.8234633536 -0.0001488385 6.47791e-05 -3.69158e-05 -6.28804e-05 -0.1676156336 0.8281845029
685295890.0 0.1923508943 -0.8247286309 5.36984e-05 0.0001038095 -0.0001588156 8.83959e-05 -0.1598026686 0.8295398464
690295860.0 0.1847440553 -0.8271786603 0.000111965 7.24685e-05 -2.1639e-05 -0.0003062608 -0.1515821006 0.8311603865
695295830.0 0.1761502925 -0.8290902286 -5.71453e-05 7.05011e-05 0.0001086963 3.33278e-05 -0.1432828223 0.8320706675
700295800.0 0.1685994913 -0.8301699502 1.75667e-05 0.000246305 -0.0002004041 6.53785e-05 -0.1347267231 0.8333168864
705295770.0 0.160746036 -0.8319603788 -0.0001375844 1.87764e-05 -7.32779e-05 -0.0001083639 -0.1272907207 0.8348322777
710295740.0 0.1520193436 -0.8334221251 5.19964e-05 -2.92603e-05 -4.6087e-06 -7.16893e-05 -0.1194179237 0.8364030165
715295710.0 0.1438235316 -0.8342292343 -0.0001977784 0.0001113323 -9.17312e-05 1.22233e-05 -0.1107487862 0.8373848171
720295680.0 0.1353499055 -0.835636965 -5.50208e-05 5.59646e-05 -3.99084e-05 5.99545e-05 -0.1023354062 0.8384398484
725295650.0 0.1277492268 -0.8368479222 7.2071e-06 0.0001548994 -4.72964e-05 1.92643e-05 -0.0939674896 0.8397891933
730295620.0 0.1195012074 -0.83827189 8.6407e-06 -3.03137e-05 -0.0001032344 4.62017e-05 -0.0851724369 0.8400974401
735295590.0 0.1108470344 -0.8388544932 7.39692e-05 -1.08497e-05 0.0001360354 0.0001235005 -0.0766375916 0.8409125397
740295560.0 0.1029718076 -0.8403454722 -7.9671e-05 3.0715e-05 4.89423e-05 0.0001215834 -0.0690521112 0.8411365176
745295530.0 0.0939496254 -0.8411954458 -2.14161e-05 0.0001453658 -6.46417e-05 -9.14333e-05 -0.0606815878 0.8420731053
750295500.0 0.0857620696 -0.8419677079 0.0001923399 0.0001234364 3.6433e-05 4.39391e-05 -0.0522450838 0.8425651426
755295470.0 0.0779932525 -0.8429948298 2.31681e-05 -0.0001785047 -9.56084e-05 0.0001333829 -0.0448055925 0.8436271614
760295440.0 0.0693809812 -0.8424034944 0.0001441325 0.0001174136 -2.61555e-05 -1.33256e-05 -0.0367207616 0.8437589912
765295410.0 0.0611533785 -0.8436511409 -6.52787e-05 -0.0001691018 -5.004e-06 -8.39819e-05 -0.0270957752 0.8440131782
770295380.0 0.0522509563 -0.8438352342 8.05489e-05 -8.01428e-05 3.32737e-05 0.0001665282 -0.0184187632 0.8439666339
775295350.0 0.0441137799 -0.8436491762 9.53992e-05 -7.35256e-05 8.26165e-05 9.22424e-05 -0.0116260286 0.8441529601
780295320.0 0.0352916771 -0.8447634188 -0.0001293306 -0.0001475297 -1.02655e-05 -5.27222e-05 -0.002534859 0.8446060118
785295290.0 0.0271653549 -0.8444437596 0.0001208184 8.75253e-05 0.000118577 2.3728e-05 0.0049317097 0.8445300974
790295260.0 0.0192878822 -0.8441938673 -0.0002003939 0.0001169651 9.5285e-06 -0.0001038075 0.014346865 0.8445278167
795295230.0 0.0109093442 -0.844362625 8.18978e-05 9.7537e-06 -1.46779e-05 -9.89721e-05 0.0223687675 0.8449218246
800295200.0 0.0027895764 -0.8437748972 -0.0001046921 -2.63042e-05 -4.8577e-05 0.0001956806 0.0303168632 0.8437772845
805295170.0 -0.0052563322 -0.8447902539 1.85512e-05 5.45964e-05 -4.8566e-06 -9.80206e-05 0.0386221132 0.8434242727
810295140.0 -0.014251239 -0.8443647373 -0.0001023614 3.51071e-05 -6.23615e-05 1.70713e-05 0.0470882135 0.844181754
815295110.0 -0.0220020149 -0.843158399 -2.80323e-05 0.0001256477 9.316e-05 -0.0001231106 0.0552746245 0.8428101106
820295080.0 -0.0310459196 -0.843783795 5.889e-06 0.0001139172 -5.63494e-05 0.0001858246 0.0633798282 0.8420261004
825295050.0 -0.0394715907 -0.8431475168 -3.89492e-05 -5.86001e-05 0.0001006788 -7.93087e-05 0.0714175627 0.8414566113
830295020.0 -0.0475170958 -0.8425556858 -0.0003863442 7.01737e-05 0.0001496465 8.4406e-05 0.0798840633 0.8407155991
835294990.0 -0.0553355317 -0.8415913136 -0.0001580239 3.33102e-05 0.0001779939 0.0002234981 0.0883004285 0.8399008202
840294960.0 -0.0639799828 -0.8407759296 5.8423e-05 2.03976e-05 -1.1123e-06 0.0001154539 0.0962855002 0.8390587007
845294930.0 -0.0722540503 -0.8406904368 2.08797e-05 -7.33684e-05 -3.82928e-05 -5.59525e-05 0.1044585774 0.8381498614
850294900.0 -0.0811370032 -0.8389422977 -8.75506e-05 -0.0002994541 3.19502e-05 2.249e-07 0.112835606 0.8374345673
