!Created with skrf (http://scikit-rf.org).
# Hz S RI R 50.0 
!freq ReS11 ImS11 ReS21 ImS21 ReS12 ImS12 ReS22 ImS22
300000.0 -0.2429884275 -0.0928238961 0.4725770609 0.0621757717 0.4720783598 0.0591122162 -0.2392241017 -0.1012762775
5299970.0 -0.2448945286 0.0064857786 0.4749924314 0.0047123744 0.4748557257 0.0051234192 -0.2406049141 0.007180246
10299940.0 -0.2415277477 0.0179750335 0.4767027979 0.0058300876 0.4767269252 0.0061407809 -0.2374073525 0.0205722126
15299910.0 -0.2374454473 0.026736904 0.4803740364 0.0074467191 0.4805926528 0.0075331046 -0.2326130814 0.0300934436
20299880.0 -0.2328497057 0.0341671455 0.4849514274 0.0082457143 0.4848383072 0.0079012897 -0.2275035851 0.0383488538
25299850.0 -0.2277242949 0.0404144042 0.4903240068 0.0070395836 0.4900409982 0.0073470949 -0.2217265516 0.0447951952
30299820.0 -0.2225073272 0.0451618433 0.4952402077 0.0046022567 0.4955747396 0.0046942905 -0.2158295943 0.0502744967
35299790.0 -0.2173290349 0.0490223076 0.5007016942 0.0014314431 0.5008302917 0.0016031021 -0.210281769 0.0547203187
40299760.0 -0.2126797138 0.0522779587 0.5058793175 -0.0021652796 0.5058421488 -0.0021292115 -0.2049429041 0.0575715394
45299730.0 -0.2079696644 0.0549313075 0.5104699296 -0.0069053673 0.5105439284 -0.0069934238 -0.2002439402 0.0607030319
50299700.0 -0.2037809254 0.0568234192 0.5150113855 -0.0127339446 0.5143697815 -0.0124338883 -0.1953360334 0.0625845383
55299670.0 -0.1998251862 0.0584929907 0.518623377 -0.0193061791 0.5183599178 -0.0187375204 -0.191217039 0.064578983
60299640.0 -0.1960863544 0.0601253437 0.5220483419 -0.0251657535 0.5217311059 -0.0247549432 -0.1872151476 0.0653720762
65299610.0 -0.1929300834 0.0610107 0.5246700663 -0.0313440753 0.5247075312 -0.0313278925 -0.1843602606 0.0665926144
70299580.0 -0.1901668053 0.0620504779 0.5274102681 -0.0381379237 0.5270854078 -0.0379860068 -0.1809526986 0.0676415609
75299550.0 -0.1872987942 0.0626912626 0.5288320514 -0.0443547742 0.528876818 -0.0448930675 -0.1779961061 0.0684230705
80299520.0 -0.1849280036 0.0637094694 0.5310037744 -0.0516737192 0.5310983972 -0.0516318059 -0.1755327841 0.0692438112
85299490.0 -0.1824903179 0.0641491664 0.5320221603 -0.0585113813 0.5319406245 -0.0582521673 -0.1728513264 0.0695426895
90299460.0 -0.1805394885 0.0647507021 0.5328927741 -0.0655292151 0.5332442388 -0.0651560031 -0.1707302691 0.0703227785
95299430.0 -0.1780340989 0.0652358087 0.5339306542 -0.0721451759 0.5339937558 -0.0723231023 -0.1679181186 0.0711636462
100299400.0 -0.1766092842 0.0664225866 0.533780427 -0.079301694 0.5338555198 -0.079062731 -0.1660176981 0.0713757089
105299370.0 -0.1750817758 0.0669009604 0.5344451729 -0.0862563929 0.5346926704 -0.086058351 -0.1643103801 0.0722802246
110299340.0 -0.1732170808 0.0677439721 0.5344091852 -0.0928172629 0.5342909763 -0.0925389159 -0.163007052 0.0727847161
115299310.0 -0.1717450492 0.0681190828 0.5347342113 -0.0994261669 0.5343885056 -0.0996303699 -0.1611350101 0.0735770993
120299280.0 -0.170597944 0.0682825336 0.5340267214 -0.1060744666 0.5344976296 -0.1065070707 -0.1595781597 0.074284466
125299250.0 -0.1694468058 0.0692818152 0.534016828 -0.1129655408 0.5343681696 -0.112947503 -0.1586119603 0.0748451058
130299220.0 -0.1685837287 0.0702716429 0.5330127853 -0.1200826661 0.532929411 -0.1197935573 -0.1570253341 0.0757880673
135299190.0 -0.1675242898 0.0714035336 0.5331286845 -0.1266462058 0.5327280295 -0.1263003311 -0.1555431338 0.0766017724
140299160.0 -0.1664772891 0.0722132308 0.5317518663 -0.1334763519 0.5317235415 -0.1332561307 -0.1545814568 0.0777481758
145299130.0 -0.165404293 0.0729117385 0.5310354083 -0.1399669569 0.5308283249 -0.1395939064 -0.1533322987 0.0787273306
150299100.0 -0.1642661582 0.0738376277 0.5296468165 -0.1455902045 0.5298662428 -0.1457499455 -0.1521663981 0.0801279444
155299070.0 -0.1639606503 0.0746978492 0.5285787949 -0.1532059814 0.5282184095 -0.1526743437 -0.1509199237 0.0811364765
160299040.0 -0.162686517 0.0757724578 0.5272756825 -0.1593625236 0.5271910609 -0.1591552847 -0.1503121159 0.0822120693
165299010.0 -0.1619346203 0.0768194156 0.525606396 -0.1657346096 0.5258950789 -0.1657279323 -0.1490382802 0.0836828015
170298980.0 -0.1614869572 0.0774981372 0.5243310814 -0.1716692634 0.52425954 -0.1719705451 -0.148068025 0.0847295074
175298950.0 -0.1604141259 0.0787266759 0.5231337804 -0.1781461619 0.5224223574 -0.1779202629 -0.1473644819 0.0861320473
180298920.0 -0.1600082966 0.0799839279 0.5208859988 -0.1845168359 0.5207466616 -0.1845123903 -0.1461515465 0.0875210068
185298890.0 -0.1586125775 0.0808077487 0.5188435977 -0.1903730069 0.5185852448 -0.1906358514 -0.1452844837 0.0887907298
190298860.0 -0.1584616065 0.0823186627 0.5173426146 -0.196912802 0.5174035472 -0.1965972826 -0.1444061637 0.0898625079
195298830.0 -0.1575945602 0.0831413846 0.5149926411 -0.2029966827 0.5151946103 -0.2028733304 -0.1433518578 0.0911838392
200298800.0 -0.15681682 0.0846743071 0.5133119123 -0.2093264392 0.5132581033 -0.2093539711 -0.1428788249 0.0926208454
205298770.0 -0.1559962886 0.0859139427 0.5106944063 -0.2154976873 0.5107787399 -0.2148927389 -0.1419381733 0.0933941993
210298740.0 -0.1554956976 0.0868361444 0.5086234075 -0.2206709861 0.5084732147 -0.2205071016 -0.1407748462 0.0951869478
215298710.0 -0.1550733092 0.0882715249 0.5063485871 -0.2271501035 0.5061575557 -0.2273558273 -0.1402880938 0.0966187891
220298680.0 -0.1541118192 0.0893559396 0.5038572918 -0.232910289 0.5035546343 -0.232723696 -0.1395897999 0.0976789282
225298650.0 -0.1535972009 0.0906824893 0.5017384804 -0.2388658923 0.5014477997 -0.2384581606 -0.138816953 0.0989042325
230298620.0 -0.1525148992 0.0920913042 0.4986930192 -0.2444227245 0.4994810231 -0.2443717905 -0.1378458029 0.1002505522
235298590.0 -0.1517249749 0.0938145075 0.4962536265 -0.2504615783 0.4963193904 -0.2497321437 -0.1368854179 0.1017094547
240298560.0 -0.1511261121 0.0950107115 0.4935225863 -0.2562489723 0.4935563772 -0.2562920217 -0.1359686116 0.1034771038
245298530.0 -0.1506359245 0.0961760024 0.4910720837 -0.2616832266 0.4906286424 -0.2617068717 -0.1348797587 0.1040827929
250298500.0 -0.149148304 0.0978443462 0.4875304529 -0.2672955437 0.4874980748 -0.2670985767 -0.1341836798 0.1052845096
255298470.0 -0.1486456168 0.098612256 0.4842007007 -0.272593467 0.4849936079 -0.2727829163 -0.1329486365 0.1068320778
260298440.0 -0.1481962693 0.0999294209 0.4818436751 -0.2788399715 0.4818168436 -0.2785761621 -0.1315912773 0.1082864939
265298410.0 -0.1467440349 0.1017039564 0.4790004418 -0.2840061313 0.478908065 -0.2839267117 -0.1305296006 0.1097324457
270298380.0 -0.1460625655 0.1029140848 0.4761783317 -0.2891045024 0.4759717796 -0.2890024752 -0.1298246482 0.1108197979
275298350.0 -0.1448491199 0.10440785 0.4727736831 -0.2950692937 0.4727659644 -0.2944244306 -0.1280636203 0.1121548656
280298320.0 -0.1438037973 0.1056474738 0.4696653388 -0.3002930795 0.4693224581 -0.3002040187 -0.1270824754 0.1136032982
285298290.0 -0.1428614631 0.1073913797 0.4664585349 -0.3053049536 0.4661681216 -0.3058198317 -0.1256429621 0.1149213283
290298260.0 -0.1419556862 0.1084879773 0.4629586105 -0.3107173579 0.4629435725 -0.3108644 -0.1244609152 0.1164014292
295298230.0 -0.140940533 0.1095207485 0.4597465126 -0.315822615 0.4595940849 -0.3161139461 -0.1227240527 0.1175900822
300298200.0 -0.1401979862 0.1107171375 0.456568404 -0.3212116281 0.4563495703 -0.3214179909 -0.1219148776 0.1189661226
305298170.0 -0.1390269216 0.1120448213 0.4525047794 -0.3267568431 0.4522192892 -0.3262260495 -0.1198370951 0.1200650924
310298140.0 -0.1378765992 0.113641327 0.4493487814 -0.3317102442 0.4495445604 -0.3312701394 -0.1187360687 0.1214214099
315298110.0 -0.136947663 0.1145054807 0.4455665024 -0.3369074785 0.4456507207 -0.3366502798 -0.1176973936 0.1225463263
320298080.0 -0.1358724586 0.1159669078 0.4412068112 -0.3424035464 0.441740267 -0.3421449413 -0.1161828848 0.1241495971
325298050.0 -0.1351529665 0.1171720616 0.4376970609 -0.3472418008 0.4382104607 -0.3473127553 -0.1151464304 0.1251350792
330298020.0 -0.1337911303 0.1180841361 0.4336851027 -0.3522653305 0.4339533258 -0.3521217433 -0.1139795776 0.1265528438
335297990.0 -0.1330193275 0.1193514353 0.4299729836 -0.3565793177 0.4297857087 -0.3569160826 -0.1133209217 0.1283571
340297960.0 -0.1324993343 0.1208881539 0.4256147707 -0.3613913795 0.4254942021 -0.3614714542 -0.1113943237 0.1296532464
345297930.0 -0.1312577989 0.122603521 0.4213312047 -0.3665376038 0.4214098438 -0.3661857759 -0.1103031669 0.1306907713
350297900.0 -0.1302998524 0.1236499286 0.4169974563 -0.3711104165 0.4170485145 -0.3711437538 -0.109029344 0.1327234021
355297870.0 -0.1291607674 0.1255578692 0.4132562854 -0.3758658932 0.4132087782 -0.3751289686 -0.1079680927 0.1336983919
360297840.0 -0.1280835528 0.1266748036 0.4093869166 -0.3796827057 0.4096410701 -0.3796779308 -0.1064341131 0.1354886883
365297810.0 -0.1273832721 0.1283824709 0.4049940538 -0.3848266107 0.4051581241 -0.3845561954 -0.1050919418 0.1368338284
370297780.0 -0.1257433966 0.1292160353 0.4003275085 -0.3887319007 0.4010855715 -0.3885530773 -0.1035544705 0.1378406604
375297750.0 -0.1245490022 0.1309163997 0.3965572204 -0.3933864379 0.3970302735 -0.3929932501 -0.102252094 0.1392468983
380297720.0 -0.1232182839 0.1318723503 0.3918548769 -0.3979294463 0.3923338086 -0.3969599462 -0.1013844815 0.1405713258
385297690.0 -0.1225910655 0.13337195 0.3877263886 -0.4017396588 0.3876585197 -0.401789938 -0.0995638239 0.1422791497
390297660.0 -0.1210120824 0.1350698212 0.3831185368 -0.4061663409 0.3831863752 -0.40551343 -0.0982620084 0.1432847557
395297630.0 -0.1197995364 0.1360630704 0.3791790883 -0.4101033158 0.3786961213 -0.4103312725 -0.0960586268 0.1444995037
400297600.0 -0.1187705813 0.1377396095 0.3740115007 -0.4151206473 0.374043959 -0.4147350356 -0.0949997101 0.1457396105
405297570.0 -0.1175217722 0.1387552128 0.3693723494 -0.4182704973 0.3698056708 -0.4180314981 -0.0939648748 0.1470754386
410297540.0 -0.1159182003 0.1399925058 0.3650409886 -0.4226879751 0.3653138292 -0.4226369156 -0.0922595132 0.1482731135
415297510.0 -0.1144925274 0.1412759093 0.3602645626 -0.4267881368 0.3609209341 -0.4267294771 -0.0905991026 0.1493288952
420297480.0 -0.1133323502 0.143019643 0.355433591 -0.430730306 0.3557155761 -0.4306025307 -0.0894380793 0.1501417378
425297450.0 -0.1118700682 0.1437570815 0.3511224825 -0.4343315125 0.3512501779 -0.4344686914 -0.0879246244 0.1517096303
430297420.0 -0.1108103694 0.1446544401 0.346025303 -0.437844286 0.3463170334 -0.4379648358 -0.0862635144 0.1524404299
435297390.0 -0.109355849 0.1460016829 0.3413022481 -0.4417684012 0.3409695173 -0.4419636232 -0.0839087228 0.1535051649
440297360.0 -0.1079580551 0.1473051856 0.3361413663 -0.4455564062 0.3365469892 -0.4456069533 -0.0826247853 0.1543883155
445297330.0 -0.1063248401 0.1483524358 0.331915487 -0.4490189254 0.3318535631 -0.448813523 -0.0806865122 0.1551437173
450297300.0 -0.1050042092 0.1494499269 0.326809975 -0.4531804507 0.3267752086 -0.4528409415 -0.0791606899 0.1560007238
455297270.0 -0.1035750887 0.150411684 0.3213396176 -0.4560770066 0.3219505282 -0.4564193151 -0.0773185819 0.1569933754
460297240.0 -0.1023655232 0.1516771001 0.3168588229 -0.4594303956 0.3167155146 -0.4599736462 -0.0756342508 0.1580274253
465297210.0 -0.1004389071 0.1529101559 0.3119530588 -0.4627816401 0.3116775455 -0.4636571674 -0.0734004518 0.1587997594
470297180.0 -0.0989410914 0.1535727188 0.3063377784 -0.4665419216 0.3063909235 -0.4663855149 -0.0716040686 0.1600415285
475297150.0 -0.0977247609 0.1546115804 0.3012863828 -0.4693861727 0.3016557448 -0.4696317183 -0.0697033339 0.1605289181
480297120.0 -0.0962886099 0.1563341212 0.2964225325 -0.4733287626 0.2962717661 -0.4734263873 -0.06754704 0.1618214486
485297090.0 -0.0949819811 0.1572754269 0.2914365925 -0.4761279871 0.2914388277 -0.4759917813 -0.0656785657 0.1626248224
490297060.0 -0.0938192796 0.1580805672 0.2863928413 -0.4791568439 0.2863058432 -0.4789901341 -0.0642785299 0.1637657871
495297030.0 -0.0923366079 0.1591884676 0.2807933598 -0.4823328626 0.2811681467 -0.4822248333 -0.0624175334 0.1645426664
500297000.0 -0.0905948323 0.1598873341 0.2754654534 -0.4849739654 0.2750258446 -0.4851252546 -0.0606053541 0.1659752936
505296970.0 -0.0886758089 0.1610915233 0.2703427358 -0.4879302729 0.2697539316 -0.4882050838 -0.0588672833 0.1664123604
510296940.0 -0.0874206872 0.1621484411 0.2643625193 -0.4912889198 0.2646983125 -0.4912046565 -0.0566007458 0.167474458
515296910.0 -0.0857752308 0.1633490762 0.2591191522 -0.4939118926 0.2595278297 -0.4941888884 -0.0549033121 0.1683147871
520296880.0 -0.084427927 0.164431139 0.2543415138 -0.4971899618 0.2540679303 -0.4965696929 -0.0532800834 0.1688458448
525296850.0 -0.0825300307 0.1646894393 0.248481088 -0.4993428672 0.2490365183 -0.4994821778 -0.0515912613 0.1698896234
530296820.0 -0.0808138289 0.1660609811 0.2432419702 -0.502259518 0.2430204668 -0.5021716545 -0.0493651085 0.1706657635
535296790.0 -0.0796296864 0.1669749803 0.2378883033 -0.5046413359 0.2379365678 -0.5044788962 -0.0479078172 0.1711379358
540296760.0 -0.0779895893 0.1682215456 0.2320615952 -0.5076508771 0.2319764222 -0.5075179037 -0.0458146063 0.1724688978
545296730.0 -0.0762912751 0.1687107728 0.2265152645 -0.5096219714 0.226703008 -0.509846714 -0.0441983439 0.1730223729
550296700.0 -0.0742881325 0.1696646462 0.2208000726 -0.511905325 0.2211391504 -0.5121007437 -0.0425898446 0.1738564199
555296670.0 -0.0729351355 0.1705611553 0.2157561147 -0.5146863075 0.2160557598 -0.514285836 -0.040502122 0.1744981314
560296640.0 -0.0709959369 0.1719157614 0.209759997 -0.5172819202 0.2100367869 -0.5166003439 -0.0383821386 0.1746362974
565296610.0 -0.0698398907 0.1725686719 0.2041846118 -0.5189393837 0.204272325 -0.5193121971 -0.0369228463 0.1752094782
570296580.0 -0.0680765407 0.1730499607 0.1986699735 -0.5213221369 0.1982810539 -0.521548465 -0.0350157142 0.1764377576
575296550.0 -0.0666243299 0.1741477719 0.1931276706 -0.5239090678 0.1930321874 -0.5233395046 -0.0329028483 0.1766093506
580296520.0 -0.0646193623 0.1750170193 0.1870742854 -0.5258122688 0.1871549779 -0.5253406736 -0.0310379744 0.1769174541
585296490.0 -0.0628170211 0.1751739959 0.1813115451 -0.5271281933 0.1818639694 -0.5276348927 -0.0292702248 0.1774186112
590296460.0 -0.0611914017 0.176428716 0.1759372618 -0.5291485944 0.1758907178 -0.5296239107 -0.0281310079 0.1780901747
595296430.0 -0.0592640122 0.1769276107 0.1699325906 -0.531315687 0.170024533 -0.5311572734 -0.0253518803 0.1778897563
600296400.0 -0.0579594031 0.1777622774 0.1643928654 -0.5329383203 0.1643726682 -0.5330249823 -0.0235357294 0.1786057347
605296370.0 -0.0562235743 0.1781559927 0.1584415487 -0.5344513112 0.1587332553 -0.5343734207 -0.0210890049 0.1787076872
610296340.0 -0.0544924257 0.1792425119 0.1523751018 -0.5360882916 0.1529656928 -0.5360506754 -0.0194146503 0.1789839659
615296310.0 -0.052390804 0.1796288291 0.1466441078 -0.5376637233 0.1465361826 -0.5382178016 -0.0171190567 0.1792671124
620296280.0 -0.0509457305 0.1799727467 0.1412067514 -0.5394036039 0.1412652557 -0.5393421923 -0.0154063998 0.1795249741
625296250.0 -0.0492476234 0.1805104155 0.1355994336 -0.540947709 0.1348805143 -0.5412859391 -0.0128242728 0.1799693767
630296220.0 -0.0466028919 0.1813178226 0.1288786491 -0.542526061 0.1290053921 -0.5419168357 -0.0110359397 0.1804977601
635296190.0 -0.0457022502 0.1818144974 0.1234968824 -0.5432423743 0.1234822595 -0.5435278308 -0.0087688506 0.1805731899
640296160.0 -0.0441534274 0.1825458336 0.1176585694 -0.5445446814 0.1181988056 -0.544659162 -0.0065945125 0.1805327631
645296130.0 -0.0421658775 0.1831235307 0.111721497 -0.5456643617 0.1120980774 -0.545667473 -0.0048085755 0.1809918045
650296100.0 -0.0402623382 0.1836067666 0.1055722028 -0.5467842783 0.1058954731 -0.54704911 -0.0024407004 0.1807364161
655296070.0 -0.0388416944 0.1839458372 0.0998833833 -0.5484142662 0.1002436536 -0.5478469195 -0.0006702387 0.1813675415
660296040.0 -0.0372959566 0.1841672439 0.094437036 -0.5494195826 0.0939442803 -0.5489650815 0.0017259993 0.1812194715
665296010.0 -0.0347303627 0.184874442 0.0875264382 -0.5502109869 0.0878300108 -0.5500811597 0.0035957967 0.1819361885
670295980.0 -0.0338792384 0.1854829469 0.0821013024 -0.5509946694 0.0823099589 -0.5509924708 0.0054780493 0.1817894716
675295950.0 -0.0316686492 0.1860405364 0.0764599862 -0.5515720973 0.0762338994 -0.5513038169 0.0076383791 0.1822760707
680295920.0 -0.0300258162 0.1864435895 0.0701378893 -0.5525971181 0.0698974449 -0.5529153067 0.0095675864 0.1830501951
685295890.0 -0.0281340489 0.1876225129 0.0643723966 -0.553279761 0.0640432432 -0.5535490103 0.0118166809 0.1825363143
690295860.0 -0.025909244 0.1873869889 0.0583374336 -0.5534959881 0.0579543405 -0.5541130414 0.0137588753 0.1832158851
695295830.0 -0.024305204 0.1878214933 0.0528275521 -0.554439912 0.0519900924 -0.5542673781 0.0156880155 0.1828265794
700295800.0 -0.0224032107 0.1876338015 0.0461424526 -0.5546594212 0.0459743411 -0.5547232526 0.0174444708 0.1833214111
705295770.0 -0.020859286 0.1889695053 0.0404117249 -0.5555821513 0.0406366254 -0.5554375505 0.0192881977 0.1834024155
710295740.0 -0.0186265772 0.1889716404 0.0344585346 -0.5562830268 0.0343414867 -0.5561123879 0.0216610502 0.1827272542
715295710.0 -0.0172692968 0.1892672252 0.0287035102 -0.5559590363 0.0283054867 -0.5560081112 0.023739034 0.1829003846
720295680.0 -0.0153150959 0.1898258074 0.0224234231 -0.5567030564 0.0223900019 -0.5563903477 0.0257689698 0.1831624552
725295650.0 -0.0133561739 0.1897520137 0.0164801481 -0.556287571 0.0165206985 -0.5565820519 0.0273323618 0.1830830645
730295620.0 -0.0112396984 0.1904489003 0.0104641475 -0.556330095 0.0104250285 -0.5568204909 0.0291430016 0.1827696883
735295590.0 -0.0094196066 0.1907071922 0.0044052992 -0.5569813819 0.0042205436 -0.5566366374 0.0309816872 0.1823026713
740295560.0 -0.0078456589 0.1909344747 -0.001642855 -0.5565752747 -0.0016381035 -0.5566650292 0.0336379949 0.1821219193
745295530.0 -0.0058077092 0.1913089678 -0.0078213284 -0.5563868282 -0.0077942158 -0.5563712277 0.035517555 0.1814922332
750295500.0 -0.0039468932 0.1911039748 -0.0136506519 -0.5560317591 -0.0139868008 -0.5565334595 0.0373442382 0.1816811613
755295470.0 -0.0021765551 0.1911630252 -0.019580166 -0.5561295287 -0.0193916638 -0.5561806583 0.0394643155 0.1811222884
760295440.0 -0.0003159514 0.1913762315 -0.0252989162 -0.556044962 -0.0256941714 -0.5563326723 0.0413237606 0.1808248729
765295410.0 0.0014687037 0.1918114957 -0.0318231405 -0.5556818661 -0.0318933368 -0.5558635301 0.0435399834 0.1807372683
770295380.0 0.0030177477 0.1917083902 -0.0376641438 -0.5552635054 -0.0378247535 -0.5551216977 0.0452768137 0.180073406
775295350.0 0.0050926153 0.1912615918 -0.044037434 -0.5544652693 -0.0434062524 -0.5547087741 0.0466339841 0.1800600537
780295320.0 0.0069747544 0.1918575521 -0.0499162335 -0.5538217829 -0.0493541889 -0.5540727153 0.0488847309 0.1787182503
785295290.0 0.0085463134 0.1913820666 -0.0560064451 -0.5532417935 -0.0554313864 -0.5534569941 0.0513005827 0.1789301253
790295260.0 0.0110708927 0.1920693382 -0.0611998528 -0.5527932433 -0.0603434612 -0.5526450842 0.0532289882 0.1783262461
795295230.0 0.0124099443 0.1916609086 -0.0671848804 -0.5517721276 -0.067182316 -0.5525110147 0.0554948172 0.1779967033
800295200.0 0.0142318339 0.1918896781 -0.073924153 -0.5511682109 -0.0734366879 -0.5513616157 0.0573861778 0.1772421666
805295170.0 0.0162544161 0.1917360679 -0.0793867765 -0.5503780786 -0.0791583264 -0.5506558097 0.0592862357 0.176916499
810295140.0 0.0180243824 0.1915639486 -0.0850409183 -0.5491246313 -0.0850308135 -0.5497812282 0.0617291455 0.176485416
815295110.0 0.0200461482 0.1913278582 -0.0911500713 -0.5484209116 -0.090669648 -0.5483682904 0.0635809119 0.1758036362
820295080.0 0.0213871557 0.1918563703 -0.0967410327 -0.5471264396 -0.0966055539 -0.5472552294 0.065575074 0.1752108054
825295050.0 0.0239041957 0.1916135106 -0.1027777079 -0.5460532789 -0.1024614797 -0.546150082 0.0675839723 0.1746720861
830295020.0 0.025334688 0.1916140888 -0.1086627434 -0.544786491 -0.10869796 -0.5450010204 0.0702230839 0.1739984601
