!Created with skrf (http://scikit-rf.org).
# Hz S RI R 50.0 
!freq ReS11 ImS11 ReS21 ImS21 ReS12 ImS12 ReS22 ImS22
300000.0 -0.2410562469 -0.0770187437 0.4734514674 0.0519566721 0.4684868644 0.0519913766 -0.2404109549 -0.0928769272
5299970.0 -0.2444401881 0.007230278 0.4735614955 0.0050340781 0.4733424036 0.0049035144 -0.2442809555 0.0074182824
10299940.0 -0.2409432655 0.0189650618 0.4753417705 0.00558389 0.4756679874 0.0060685677 -0.2407263635 0.0204171108
15299910.0 -0.2365694374 0.0281851346 0.4791992729 0.0077743215 0.4793953471 0.0076935591 -0.2363206445 0.0297386422
20299880.0 -0.2320423263 0.0355495602 0.4836554159 0.0084084743 0.4837981458 0.0083941582 -0.2309310418 0.037505582
25299850.0 -0.2268864915 0.0420455258 0.4890073011 0.0077139397 0.4888548079 0.0077865507 -0.2249194009 0.0439121399
30299820.0 -0.2214378553 0.0471276028 0.4944973764 0.0052691722 0.4944597158 0.0051527073 -0.2192981184 0.0489579539
35299790.0 -0.2161856188 0.051513681 0.5001807858 0.0014917586 0.5002720605 0.0022852242 -0.2139137773 0.0534812823
40299760.0 -0.211689868 0.0550315725 0.504796135 -0.0017747614 0.5049973244 -0.0017009293 -0.208406023 0.0562078776
45299730.0 -0.2064393617 0.057665902 0.5095773361 -0.0064337915 0.5098869824 -0.0067005783 -0.203317298 0.0588610023
50299700.0 -0.2022225226 0.0597788686 0.5142315563 -0.0119055627 0.5143144133 -0.0116510236 -0.1985725315 0.0606883322
55299670.0 -0.19831772 0.061707364 0.5179274785 -0.0185334307 0.517555834 -0.017947395 -0.1943446755 0.0622003021
60299640.0 -0.1941751563 0.0636117835 0.5211258381 -0.0245604219 0.521435615 -0.024107414 -0.1905267141 0.0630958323
65299610.0 -0.191204986 0.064729465 0.52411165 -0.03059407 0.5243594362 -0.030485675 -0.1871444139 0.0640387958
70299580.0 -0.1882032172 0.0660791987 0.5268613007 -0.0373133179 0.526493146 -0.0372426803 -0.1836159789 0.0649241275
75299550.0 -0.1848958906 0.06735562 0.5284629826 -0.0443560631 0.5281761514 -0.0442930308 -0.1810420298 0.0651302655
80299520.0 -0.1825772659 0.0681112399 0.5305459245 -0.0509650426 0.5305244363 -0.0509612303 -0.1783162784 0.0659848756
85299490.0 -0.1801122707 0.0689120624 0.5320089221 -0.0573781363 0.5316588198 -0.0576954767 -0.1760966143 0.0662922425
90299460.0 -0.1780606732 0.0698087051 0.5324446496 -0.0650552254 0.5330714933 -0.0648311189 -0.1736365106 0.0668692164
95299430.0 -0.1755867053 0.0701359111 0.5337806163 -0.0715038946 0.5336138669 -0.0717750858 -0.1715357006 0.0673205157
100299400.0 -0.1737722451 0.0715281723 0.5335299648 -0.0783341053 0.53373404 -0.0786615628 -0.1695698197 0.067208816
105299370.0 -0.17191968 0.0722879452 0.5340596524 -0.0855489618 0.5344290608 -0.0855037809 -0.1673531182 0.067960051
110299340.0 -0.1703967304 0.0731349506 0.5348758676 -0.0919434154 0.5343805154 -0.0923224383 -0.1664883622 0.0682557299
115299310.0 -0.1688673462 0.0742314302 0.5345504184 -0.0992671703 0.5346200871 -0.0993660498 -0.1650919095 0.0689327486
120299280.0 -0.1673994485 0.074605483 0.5342377315 -0.1060112864 0.5341862209 -0.1060367151 -0.1633469338 0.0694677661
125299250.0 -0.1661154985 0.0755260776 0.5338605504 -0.1124606976 0.534306651 -0.1126928964 -0.1625820845 0.0697549232
130299220.0 -0.1650351196 0.0767204728 0.5330542623 -0.1195522981 0.5332850408 -0.1194296408 -0.1612632444 0.0704345428
135299190.0 -0.163836668 0.0780756 0.5328816552 -0.1260794012 0.5327926977 -0.1262181609 -0.160112703 0.0712177001
140299160.0 -0.1625205746 0.0789675463 0.531931494 -0.1329272178 0.5319474006 -0.1329802376 -0.1588052267 0.0724035252
145299130.0 -0.1611510084 0.0800478752 0.5310025137 -0.1396937975 0.5307556941 -0.1392636575 -0.1578914826 0.0727985791
150299100.0 -0.160105581 0.0811091171 0.5297340252 -0.1454273766 0.5301025159 -0.1453139209 -0.1569438456 0.0736540663
155299070.0 -0.1595105783 0.0819681234 0.5289372031 -0.1528209028 0.528528011 -0.1525331502 -0.1560969662 0.0746643892
160299040.0 -0.1581154409 0.0831810129 0.5270310568 -0.1588599487 0.5267968488 -0.1590623613 -0.1556725313 0.0754486542
165299010.0 -0.1573155699 0.0847451817 0.5256118374 -0.1656800595 0.5257086627 -0.1653620842 -0.1541545688 0.0767633303
170298980.0 -0.1565697569 0.0857596012 0.5245796646 -0.1720884196 0.5244380212 -0.1715592766 -0.1534384022 0.0775625885
175298950.0 -0.1555972911 0.0868172469 0.5225049412 -0.1777323487 0.5223699359 -0.1776923389 -0.1529025797 0.0786467552
180298920.0 -0.1546995844 0.0884008579 0.5209942716 -0.1840914098 0.5208733144 -0.1839774235 -0.1520526798 0.0799115719
185298890.0 -0.1532954859 0.0894874425 0.5189221288 -0.1905328989 0.518555013 -0.1902464887 -0.1512118577 0.0808367135
190298860.0 -0.1526303608 0.0910920083 0.517271789 -0.1964951277 0.51776007 -0.1968531915 -0.1503735703 0.0819354188
195298830.0 -0.1518337197 0.09234339 0.5150483227 -0.202966004 0.5153028269 -0.202591604 -0.1495746196 0.0829759061
200298800.0 -0.1508877442 0.0936376472 0.5131752659 -0.2090737678 0.513008292 -0.2089677812 -0.1492980438 0.0840130782
205298770.0 -0.1499650156 0.0947198354 0.5109504911 -0.215231165 0.5108362127 -0.214850056 -0.1485796115 0.0848062111
210298740.0 -0.1490787034 0.0962435139 0.5087502974 -0.2207759233 0.508739906 -0.2203882412 -0.1474510614 0.086455761
215298710.0 -0.1483671208 0.0977768862 0.5064460863 -0.2269084362 0.5062185448 -0.2269827439 -0.1473344961 0.0875855555
220298680.0 -0.1468481011 0.0988367082 0.5033955054 -0.2328790839 0.5038500429 -0.2326056314 -0.1470064112 0.0884573835
225298650.0 -0.1462726486 0.100249273 0.5010361598 -0.2387701866 0.5013480351 -0.2387592286 -0.1463084647 0.0898218222
230298620.0 -0.1453058442 0.102219967 0.499003887 -0.2441725242 0.4990471539 -0.2444771466 -0.1456314929 0.090740395
235298590.0 -0.1440727668 0.1036769191 0.4961858497 -0.2501644741 0.4960075653 -0.2498964842 -0.1446717399 0.092263395
240298560.0 -0.1432706078 0.1053267586 0.4935034024 -0.2562887368 0.4936454746 -0.2561325133 -0.1440418372 0.0937151987
245298530.0 -0.1424067488 0.1064216977 0.4913542298 -0.2620202589 0.4910061765 -0.2618789931 -0.1430430819 0.0942763865
250298500.0 -0.1408479065 0.108340932 0.4877255835 -0.2676741024 0.487150308 -0.2670146533 -0.1423511883 0.0956911977
255298470.0 -0.1401245189 0.1089291907 0.4846308764 -0.272580547 0.4849715342 -0.2728586534 -0.1415555456 0.0967876024
260298440.0 -0.1390725124 0.1106150242 0.4820418569 -0.2784973114 0.4820803066 -0.2782021784 -0.1402767338 0.0980177384
265298410.0 -0.1374024115 0.1127318368 0.4786266906 -0.2841866974 0.4792289445 -0.2838750783 -0.1399807453 0.0997100118
270298380.0 -0.1366931795 0.1136604524 0.4761639285 -0.2891214973 0.4760279685 -0.2893330381 -0.1388640351 0.1006425156
275298350.0 -0.1351450775 0.1152759528 0.4726438536 -0.2948622723 0.47288536 -0.2950073644 -0.137780751 0.1020281657
280298320.0 -0.1340163998 0.1169667317 0.4695616002 -0.3004252002 0.4695904365 -0.3000377273 -0.1365846229 0.103207894
285298290.0 -0.1329003033 0.1183209066 0.4663207433 -0.3052517238 0.4663926569 -0.3057138385 -0.1362670865 0.1043017443
290298260.0 -0.131453943 0.1196960718 0.4631954118 -0.3108865751 0.4631516756 -0.3108350051 -0.1352376277 0.1056438563
295298230.0 -0.1301318318 0.1206642326 0.4598189205 -0.3153336503 0.4594554809 -0.3158907781 -0.1336968159 0.106561512
300298200.0 -0.1293866847 0.1221870531 0.4565971885 -0.3209454354 0.4565543772 -0.321544398 -0.1328182441 0.108163428
305298170.0 -0.1277513392 0.1235017578 0.4523889744 -0.3265436921 0.4525043926 -0.3268255116 -0.131419363 0.1091445697
310298140.0 -0.1264923223 0.1251089554 0.4489771602 -0.3321373631 0.4492691053 -0.3314327391 -0.1307528517 0.1102644876
315298110.0 -0.125456582 0.1261361308 0.4454980071 -0.3367334054 0.4456689743 -0.3369217065 -0.1294719065 0.1115299618
320298080.0 -0.12367529 0.1273500322 0.4412091934 -0.3423923572 0.4415438868 -0.3422144305 -0.1284956834 0.1128019003
325298050.0 -0.1227819876 0.1288895629 0.4378381021 -0.3471026196 0.4378683683 -0.3470007573 -0.1278773379 0.1141901008
330298020.0 -0.1214696159 0.1298087173 0.433514101 -0.3520669836 0.4339743316 -0.3521783908 -0.1270378072 0.1152792103
335297990.0 -0.1201110522 0.1310875164 0.4295889003 -0.3567900513 0.4296810033 -0.3570786084 -0.1265871817 0.1167661522
340297960.0 -0.1193825829 0.1332260388 0.4255525699 -0.3617787291 0.4253669699 -0.3618606683 -0.1247561627 0.1180782435
345297930.0 -0.1177316407 0.1345973161 0.4215290906 -0.3667096238 0.4214880349 -0.3660040723 -0.1244577891 0.1191581575
350297900.0 -0.1167205614 0.1355116817 0.4171475287 -0.3709451509 0.4171878221 -0.3710620729 -0.1234825751 0.1208649637
355297870.0 -0.1148485366 0.1375709066 0.4128542947 -0.3756373202 0.4135351527 -0.3753136588 -0.1225347177 0.1222877807
360297840.0 -0.1136371567 0.138672138 0.4096531361 -0.3797979817 0.4096718825 -0.3801835792 -0.1216651678 0.1235693696
365297810.0 -0.1125962167 0.1404404905 0.4050768819 -0.3849911122 0.4049564275 -0.3845634122 -0.1201349333 0.1247469319
370297780.0 -0.1104510517 0.1412474999 0.400222741 -0.388522625 0.4010349063 -0.3887520095 -0.119362492 0.1265790234
375297750.0 -0.109289681 0.1427449781 0.3965792707 -0.3933042288 0.3962804627 -0.393131063 -0.1178908016 0.1274275472
380297720.0 -0.107551706 0.1443353473 0.3917726345 -0.397957487 0.3921283924 -0.3968905856 -0.1173307699 0.1285402723
385297690.0 -0.1063558502 0.1454662994 0.3874349087 -0.401661631 0.3874726769 -0.4021891675 -0.115695772 0.1302951096
390297660.0 -0.1050010889 0.1469773557 0.383219335 -0.4063540504 0.3830755835 -0.4058400417 -0.1150268801 0.1313357946
395297630.0 -0.1031768981 0.1483263945 0.3786029119 -0.4105064195 0.3786395031 -0.4105878229 -0.1128275565 0.1327444933
400297600.0 -0.1016872126 0.1495047406 0.3738243667 -0.4149319596 0.3742444615 -0.4146824487 -0.1123519464 0.133743536
405297570.0 -0.1003874251 0.1505327952 0.3695370656 -0.4187665393 0.3695446051 -0.4184682048 -0.1113036348 0.1352841714
410297540.0 -0.0984252016 0.1517641448 0.3651166895 -0.4228811617 0.3651153946 -0.4230002126 -0.109933926 0.136585932
415297510.0 -0.0965818462 0.1529623632 0.3601518291 -0.4268612067 0.3603812783 -0.4268177958 -0.1089416934 0.1375900659
420297480.0 -0.0952687952 0.1547484514 0.3554133991 -0.4308527988 0.3555745907 -0.4309161821 -0.10795118 0.1385479727
425297450.0 -0.0936420898 0.155253854 0.3510211602 -0.4347620383 0.3510497396 -0.4348040752 -0.1066409131 0.1399830485
430297420.0 -0.0917221163 0.1565017583 0.346019064 -0.4375816841 0.3459822533 -0.4380036258 -0.1051631122 0.1406654294
435297390.0 -0.090273551 0.1577239694 0.3409874795 -0.4420061518 0.340974508 -0.4421266275 -0.1035770537 0.1418541214
440297360.0 -0.0884665786 0.1590231126 0.3364567323 -0.445331169 0.3363598615 -0.4460385592 -0.1024985844 0.1429283702
445297330.0 -0.0868575993 0.1596893541 0.3318273512 -0.449283569 0.3314419429 -0.4488770383 -0.1008718544 0.1435952603
450297300.0 -0.0849660974 0.160770332 0.3264829606 -0.4527811953 0.3265464352 -0.453167426 -0.0994967785 0.1444964538
455297270.0 -0.0832270074 0.1621015105 0.3210933635 -0.4563326666 0.321833578 -0.4567882785 -0.0982708441 0.1459429678
460297240.0 -0.0818144311 0.1630779661 0.3165297337 -0.4599179425 0.3164045252 -0.4602966798 -0.0968960346 0.1474733459
465297210.0 -0.0795359965 0.1641345687 0.311495858 -0.4634337592 0.3115275868 -0.4635982574 -0.0950217109 0.1480571538
470297180.0 -0.0777402158 0.1648693319 0.3058975867 -0.4665010932 0.3063261712 -0.4667654785 -0.0933918361 0.149453176
475297150.0 -0.0759672366 0.1659285722 0.3011426347 -0.4697648577 0.3011782066 -0.4697861799 -0.0919190438 0.1499954614
480297120.0 -0.0740404549 0.1672445965 0.296032769 -0.4731580561 0.2959037946 -0.4737338496 -0.0902580814 0.1512716456
485297090.0 -0.0724670971 0.1681316749 0.2907944335 -0.4763442815 0.2905587191 -0.4765666855 -0.0890784868 0.1520377325
490297060.0 -0.0708356642 0.1691940273 0.2859139105 -0.4796617173 0.2857659702 -0.4795581316 -0.0875561617 0.1534119928
495297030.0 -0.068880696 0.1698016412 0.2802704086 -0.4824312453 0.2805241689 -0.4827682057 -0.0862954107 0.154473458
500297000.0 -0.0669740836 0.1706734399 0.2751590687 -0.4853830769 0.2750168866 -0.485146685 -0.0849210237 0.1558284785
505296970.0 -0.0649381999 0.1715336565 0.2696946962 -0.4881684848 0.2694164264 -0.4884280949 -0.0832510841 0.1564347408
510296940.0 -0.0634317486 0.1725430293 0.2642147887 -0.491270226 0.2643723643 -0.4916746337 -0.0814118642 0.1575020007
515296910.0 -0.0613379477 0.1732367652 0.2588526175 -0.4943098635 0.2592558305 -0.494017204 -0.0802579309 0.1585382963
520296880.0 -0.0592759595 0.1743092036 0.2539195505 -0.4975794097 0.2534538983 -0.4968893124 -0.0788251135 0.1589756227
525296850.0 -0.0575202447 0.1744387939 0.2479928728 -0.4997169116 0.248372324 -0.5000540054 -0.0771588159 0.1606057815
530296820.0 -0.0552983041 0.1757191926 0.2426199224 -0.5024766227 0.2426838438 -0.5023909663 -0.0753810808 0.161430801
535296790.0 -0.053805903 0.1764114284 0.2378031059 -0.504822111 0.237608465 -0.5045570727 -0.0742644618 0.1619078842
540296760.0 -0.0516932377 0.1773587555 0.2317527908 -0.5078905251 0.2314738474 -0.507883703 -0.0728139267 0.1635577256
545296730.0 -0.0499694763 0.1779675197 0.226292986 -0.5097839659 0.2262313463 -0.5100113107 -0.0714054793 0.1640365299
550296700.0 -0.0477333163 0.1790425912 0.2207209902 -0.5128217427 0.2208555728 -0.5127664051 -0.0697333514 0.1648922479
555296670.0 -0.0459182179 0.1791282379 0.2151425706 -0.5144528365 0.2151207495 -0.5145387087 -0.0681492343 0.1659787299
560296640.0 -0.043578678 0.1800633157 0.2095489255 -0.5174213936 0.2094684761 -0.51697918 -0.0665650468 0.1665260229
565296610.0 -0.0423023784 0.1807983659 0.2036008616 -0.5194805358 0.2038127703 -0.5192228988 -0.0652006254 0.1668274064
570296580.0 -0.0400965934 0.1811610501 0.1980189436 -0.5219162164 0.1977557588 -0.5213570762 -0.0635562786 0.1682961428
575296550.0 -0.0380973726 0.1820746209 0.1926420757 -0.523837901 0.1922112607 -0.523774595 -0.0620521639 0.1691002161
580296520.0 -0.0357526752 0.1826899947 0.1864526579 -0.5259027341 0.1866881623 -0.5257021879 -0.0598637599 0.1694992614
585296490.0 -0.034145207 0.1823862485 0.1812611556 -0.5271213083 0.1812356426 -0.5276157174 -0.0585627048 0.1703570732
590296460.0 -0.0315640422 0.1834252303 0.1753494041 -0.529009826 0.1755016543 -0.5293489054 -0.0573783718 0.1712220686
595296430.0 -0.0298189953 0.1841159319 0.1692747207 -0.5316431941 0.1693467747 -0.5313127163 -0.0553363157 0.1715681954
600296400.0 -0.0279899654 0.1843692478 0.1636345976 -0.5331088284 0.1636667705 -0.5327552548 -0.0538325686 0.1722657846
605296370.0 -0.0256829238 0.1847482677 0.1577970585 -0.5346319139 0.1580880928 -0.5343323755 -0.0519131975 0.1726044613
610296340.0 -0.023844228 0.1850689673 0.152055132 -0.5363532494 0.1521573799 -0.536307129 -0.0503218989 0.1736179444
615296310.0 -0.021365051 0.1853372778 0.1459488671 -0.5377196932 0.1457640084 -0.5381760208 -0.0485298849 0.1741376821
620296280.0 -0.0196334513 0.1856295946 0.1403014687 -0.5393998915 0.1403004576 -0.5393400277 -0.0472675768 0.174801757
625296250.0 -0.0175018198 0.1859536684 0.1352316471 -0.5413128187 0.1343185678 -0.5413830481 -0.0447364983 0.1752094762
630296220.0 -0.0149479004 0.1865107205 0.1281088294 -0.5423881622 0.1286068843 -0.5421321322 -0.0431626172 0.1758056682
635296190.0 -0.0138432986 0.1864369467 0.1230540362 -0.5432994256 0.1230821901 -0.5437231475 -0.0416828079 0.1765351361
640296160.0 -0.0116662406 0.1870411497 0.1172593355 -0.5448688047 0.1175280046 -0.5451183511 -0.039714989 0.1770776875
645296130.0 -0.0093372664 0.1874881434 0.1110154573 -0.5458532935 0.1111459919 -0.5461515947 -0.0378212826 0.1777307273
650296100.0 -0.0073404426 0.1874345598 0.1051058332 -0.5469232178 0.1049479081 -0.5469497853 -0.0361678124 0.1776277781
655296070.0 -0.00541518 0.1875696685 0.0995377918 -0.5479910083 0.0995354142 -0.5482138065 -0.034268863 0.1783308774
660296040.0 -0.0037721015 0.1875555953 0.0933961387 -0.5491123963 0.0934094167 -0.5492607479 -0.0324208286 0.1787988153
665296010.0 -0.0009991329 0.1878614561 0.0872467158 -0.5502150887 0.087362727 -0.5502580672 -0.0306712486 0.1795682269
670295980.0 0.00013002 0.1882001773 0.081491151 -0.5509416112 0.0816320454 -0.551103534 -0.0293395811 0.1800632233
675295950.0 0.0025233205 0.1885208659 0.0757707085 -0.5513535494 0.0757722975 -0.5516027882 -0.027692783 0.1803583041
680295920.0 0.0046517491 0.1881532387 0.0695134815 -0.5523694552 0.0689544072 -0.5530876421 -0.0254787703 0.1813115756
685295890.0 0.007026013 0.1889985078 0.0635935338 -0.55339237 0.0633904404 -0.5532962042 -0.0239481062 0.1814866786
690295860.0 0.0091502394 0.1887788331 0.057525199 -0.5534606581 0.0574556524 -0.5542332426 -0.0223093603 0.182567463
695295830.0 0.0111279527 0.1883359576 0.0521977743 -0.5543127908 0.0515291082 -0.5544545971 -0.0204026028 0.1825655725
700295800.0 0.0131555256 0.1883141579 0.0455538595 -0.5547606882 0.0451816372 -0.5543775002 -0.018889554 0.1831827928
705295770.0 0.0150206643 0.1889631232 0.039253454 -0.5551848114 0.0399799159 -0.5552292488 -0.0172604029 0.1836362625
710295740.0 0.0172580418 0.1888179583 0.0335175916 -0.5559325311 0.0339367591 -0.556320505 -0.0152562729 0.1836267196
715295710.0 0.0191919089 0.188500707 0.0280059305 -0.5563291582 0.0270470764 -0.556130732 -0.013052075 0.1841357379
720295680.0 0.0212692171 0.1884661463 0.0218214532 -0.5564057686 0.0220051514 -0.5562117137 -0.0115400491 0.1846557153
725295650.0 0.0237516345 0.1883908129 0.0153794243 -0.5564582091 0.0157719242 -0.5567812384 -0.0102912788 0.1852786873
730295620.0 0.0261478657 0.1886802841 0.0096491741 -0.5563688899 0.0093890272 -0.5569661536 -0.0084953715 0.1852696748
735295590.0 0.0278699899 0.1882976398 0.0036041514 -0.5566616014 0.0033180632 -0.5567314413 -0.0066571336 0.1849160428
740295560.0 0.0296167163 0.1883730334 -0.0021806908 -0.5567147837 -0.0025257156 -0.556697031 -0.0045657986 0.1853456525
745295530.0 0.0318168761 0.1880190199 -0.0085962058 -0.5560805176 -0.0087510194 -0.5563232318 -0.0027650646 0.1854637215
750295500.0 0.0339270891 0.1877018038 -0.0139583388 -0.5560563819 -0.0142784008 -0.5564832944 -0.0014508477 0.1856414612
755295470.0 0.036167665 0.1872629641 -0.0203762374 -0.555913422 -0.0206293773 -0.5562066609 0.0010972154 0.1854582711
760295440.0 0.0383098256 0.187305049 -0.0264015625 -0.5559702927 -0.0264821188 -0.5563907109 0.0024935925 0.1859899661
765295410.0 0.0400303359 0.1870657627 -0.032222412 -0.5557276712 -0.0326582005 -0.5556299697 0.0043066567 0.1861198759
770295380.0 0.0418268443 0.1864812037 -0.0386617111 -0.555166452 -0.038503976 -0.5552205607 0.0057644773 0.1859390653
775295350.0 0.0439355835 0.1856886127 -0.0442426149 -0.554359096 -0.0444503878 -0.5542883785 0.0071632583 0.1860694693
780295320.0 0.0462093223 0.1856497316 -0.0506892525 -0.5536687489 -0.0498581304 -0.5538908558 0.0094488863 0.18551412
785295290.0 0.0480484965 0.1847283076 -0.0566466208 -0.5528035717 -0.0567028179 -0.5535333141 0.0117085649 0.1859400757
790295260.0 0.0504687222 0.1852232679 -0.0619006912 -0.5529200941 -0.0616738287 -0.5528568561 0.0133719708 0.1860562832
795295230.0 0.0521207472 0.1845278948 -0.0682301029 -0.552181159 -0.0678936437 -0.5520934463 0.0154830255 0.186203172
800295200.0 0.054241761 0.1842092666 -0.0747703618 -0.5507431314 -0.0744820947 -0.5509673982 0.0174965102 0.186064071
805295170.0 0.0560761392 0.1833110258 -0.0796840981 -0.5502273083 -0.08053275 -0.5507204818 0.0189408187 0.186173375
810295140.0 0.0583049164 0.1828772218 -0.0856947164 -0.5489533822 -0.0862301009 -0.5497566705 0.0211532444 0.1860014112
815295110.0 0.0601292424 0.1822389554 -0.0915539823 -0.5480133231 -0.0914980401 -0.5482488033 0.0226614504 0.1861116334
820295080.0 0.0621988207 0.1824369525 -0.0974986231 -0.5470442335 -0.0974148179 -0.5472755868 0.0247392997 0.18575065
825295050.0 0.0645084856 0.1815267221 -0.1031263541 -0.5461347574 -0.1037410521 -0.5461028249 0.0263795614 0.1859128726
830295020.0 0.06629509 0.1811022211 -0.1097545774 -0.5445766774 -0.109401509 -0.544698754 0.0288655013 0.1860187025
