!Created with skrf (http://scikit-rf.org).
# Hz S RI R 50.0 
!freq ReS11 ImS11 ReS21 ImS21 ReS12 ImS12 ReS22 ImS22
300000.0 -0.772535406 -0.1061513014 -0.0011990625 -0.0016634192 0.001240599 0.0002906328 -0.0507204879 -0.063445234
5299970.0 -0.7847925426 -0.0062019427 9.94911e-05 7.03354e-05 9.88511e-05 -0.0001936483 -0.049852495 0.0156622421
10299940.0 -0.7879010673 -0.0039351476 -2.24973e-05 0.000133527 -3.92235e-05 4.58813e-05 -0.0439925625 0.0337039505
15299910.0 -0.7931850466 -0.0018473137 8.46871e-05 6.04062e-05 -0.0001026135 0.0001200121 -0.0355574231 0.0481591734
20299880.0 -0.799754667 0.0019329592 -0.0001814022 5.35765e-05 -1.2323e-05 -5.70079e-05 -0.0252420643 0.0599969099
25299850.0 -0.80658664 0.0082322325 6.84974e-05 4.57476e-05 3.96975e-05 -8.2239e-06 -0.0138221294 0.0694413821
30299820.0 -0.8126357881 0.0153601768 -5.73348e-05 4.34713e-05 -9.10535e-05 -3.56908e-05 -0.0021782469 0.0760711888
35299790.0 -0.8173952101 0.0245557366 4.00679e-05 -4.31068e-05 0.0001932679 0.0002641281 0.0093452097 0.0810059016
40299760.0 -0.8211709093 0.0336809616 0.000202139 0.0001501862 0.0001881429 -8.7575e-06 0.0209495825 0.0835523506
45299730.0 -0.8245159767 0.0431007948 4.6385e-06 0.0001605975 6.2872e-06 -0.0001166231 0.031305695 0.0850402094
50299700.0 -0.8269540698 0.0531547754 0.0001431913 -1.00466e-05 0.000156289 -1.12522e-05 0.0414454879 0.0847760714
55299670.0 -0.8294509231 0.0633247912 -9.2361e-05 -5.87536e-05 -7.5937e-05 1.97069e-05 0.050796084 0.0838612395
60299640.0 -0.83092314 0.0737425178 0.000169154 0.0001240653 7.77433e-05 -1.84632e-05 0.0596122252 0.0817306917
65299610.0 -0.8312006368 0.0836858318 -1.99498e-05 3.28064e-05 1.52307e-05 -6.44588e-05 0.0671112223 0.0791622931
70299580.0 -0.8316170132 0.0932912373 9.45301e-05 -9.04221e-05 -1.67549e-05 1.86186e-05 0.0735670315 0.0761741249
75299550.0 -0.831867633 0.1037346942 4.15453e-05 1.8728e-05 -3.19987e-05 -1.93107e-05 0.0801716104 0.0724922241
80299520.0 -0.8317170607 0.1129077059 -0.0001045992 0.0003208635 5.4296e-05 -0.000169797 0.0861660035 0.0691756508
85299490.0 -0.8313277087 0.1226689708 -9.10375e-05 0.00020687 0.0002129532 -0.000239293 0.090933033 0.0649241253
90299460.0 -0.8300536351 0.1325515771 0.0001345781 0.0001025401 -9.57895e-05 0.0001177897 0.0957998894 0.0607262937
95299430.0 -0.829221817 0.1419103549 -6.86592e-05 5.70542e-05 0.0001186409 -3.70221e-05 0.0996609821 0.0572565472
100299400.0 -0.828393987 0.1510769405 -2.22525e-05 -0.000117857 0.000116952 -4.2258e-05 0.1034724193 0.052406337
105299370.0 -0.8275586802 0.1607459559 0.0002680181 -0.0001655831 9.43826e-05 0.000124337 0.1070135952 0.0485866209
110299340.0 -0.8253354491 0.1696290212 -6.39446e-05 0.0003342571 1.72489e-05 -4.19206e-05 0.1096682351 0.0444286627
115299310.0 -0.8239106842 0.1785218463 0.000121914 4.01229e-05 8.18767e-05 7.45146e-05 0.1122940686 0.0403418981
120299280.0 -0.8220899784 0.1873993786 -6.79886e-05 2.00165e-05 -2.80497e-05 -1.57681e-05 0.114624319 0.0367171049
125299250.0 -0.8204549593 0.1962502679 0.0001067958 0.0001104339 -2.16344e-05 -4.32895e-05 0.1163520324 0.032079368
130299220.0 -0.8189187419 0.2055927192 7.37232e-05 4.22889e-05 0.0003060714 9.5743e-06 0.1183815208 0.0285669217
135299190.0 -0.8171057585 0.2140232692 0.0002588316 4.75528e-05 -2.43309e-05 -5.8312e-06 0.1195972185 0.0248999144
140299160.0 -0.8141679516 0.2234251637 -0.0002171116 8.56937e-05 0.0001841719 6.64875e-05 0.1209473266 0.0215755577
145299130.0 -0.81260984 0.2329454578 -4.0673e-05 9.79706e-05 -0.0001708699 -1.24345e-05 0.1218625427 0.0176651794
150299100.0 -0.8100814139 0.2407591003 -3.39591e-05 0.0002053048 0.0001506135 5.82163e-05 0.1229131605 0.014729234
155299070.0 -0.8079455296 0.2495166518 5.10233e-05 0.0001661318 -0.0001046656 9.837e-07 0.1237225872 0.0113737516
160299040.0 -0.8052290152 0.2583583269 0.0001202555 4.80967e-05 3.23134e-05 -5.60632e-05 0.124153467 0.00812754
165299010.0 -0.8027417893 0.2670382206 -3.1129e-05 -0.0001252461 0.0001731081 6.94744e-05 0.1250678094 0.0048134391
170298980.0 -0.8002631712 0.2754178684 -1.28963e-05 -0.0001788769 0.0001103526 0.0001754168 0.1250600063 0.0017644675
175298950.0 -0.7974560728 0.2841922223 -9.87915e-05 4.11607e-05 4.4247e-05 3.8066e-06 0.1254225181 -0.0013928722
180298920.0 -0.7949513365 0.2932214316 -7.88147e-05 0.0003136511 8.43857e-05 0.0001745688 0.1255440234 -0.0041109732
185298890.0 -0.7910662662 0.3014580696 0.0001497224 5.23417e-05 3.14288e-05 -0.0001587324 0.1256264576 -0.007336503
190298860.0 -0.7885802096 0.3096397242 9.9345e-06 0.0001034169 0.0001331743 8.34151e-05 0.1255986638 -0.0100393716
195298830.0 -0.7847987534 0.3182248305 -0.0001096508 0.0002548182 8.28341e-05 0.0001149032 0.1253720191 -0.0127441952
200298800.0 -0.7812026967 0.3259605274 2.40661e-05 -2.09034e-05 -5.86462e-05 -5.03344e-05 0.1249842164 -0.0155838946
205298770.0 -0.7785541279 0.3345701205 4.65043e-05 -4.4902e-05 8.91815e-05 0.0001482299 0.1246438849 -0.0185551856
210298740.0 -0.7752074778 0.3428090426 -0.0001921726 3.15724e-05 1.57078e-05 -0.0001806046 0.1241729483 -0.0209293251
215298710.0 -0.7718092503 0.3506713703 0.0001018115 0.0001931827 5.1984e-06 0.0001596056 0.1234572008 -0.0234953085
220298680.0 -0.7673475957 0.3589477691 0.0001576978 0.000149856 -3.8422e-06 0.000205272 0.1227865994 -0.0263404324
225298650.0 -0.7644552 0.3667205523 -9.26646e-05 0.0001300768 -0.0002186113 -4.43826e-05 0.1221589173 -0.0285381016
230298620.0 -0.7597277767 0.3744441962 -0.0001575577 9.87272e-05 0.0002162297 4.0473e-06 0.1214249391 -0.0312756604
235298590.0 -0.7567313283 0.3829706877 3.74247e-05 -3.62965e-05 0.0001844152 0.0001936615 0.1209661784 -0.0336113179
240298560.0 -0.7520608596 0.3912085799 -6.5785e-06 -0.0002762853 4.00018e-05 -0.0001180452 0.1201487623 -0.0360371597
245298530.0 -0.748819639 0.3989242113 0.000100679 -0.0002179948 -7.7971e-06 0.0003059125 0.1193488473 -0.0384726539
250298500.0 -0.7440472476 0.4068346595 -0.0001412018 0.0001949865 9.46457e-05 -4.03907e-05 0.1186971754 -0.0408099757
255298470.0 -0.7395165553 0.4142196026 0.0001719196 -4.19084e-05 -5.92104e-05 8.84994e-05 0.1179331241 -0.0433886534
260298440.0 -0.7354384308 0.421738094 9.53254e-05 -0.0001864321 -4.02656e-05 -8.90486e-05 0.117023734 -0.0453775598
265298410.0 -0.7315509674 0.4299014369 0.0003301901 9.87442e-05 -0.0001028434 -2.8056e-05 0.116480688 -0.0473738123
270298380.0 -0.7268184404 0.4372892717 2.24527e-05 -3.71801e-05 8.19212e-05 0.0002862259 0.1151940461 -0.049364831
275298350.0 -0.7219195806 0.4452168578 -5.45232e-05 0.0001105305 0.0003412908 0.0002347701 0.1148064038 -0.051618179
280298320.0 -0.7171930959 0.4525047048 2.92236e-05 -6.89374e-05 8.28829e-05 3.84257e-05 0.1139497834 -0.0537306766
285298290.0 -0.7130307829 0.4604425678 0.0001034255 -2.41136e-05 0.0001227993 7.1436e-06 0.1129440652 -0.055552031
290298260.0 -0.7079629546 0.4673541527 0.0001042601 -4.2457e-06 3.84146e-05 0.0002514416 0.1121132647 -0.0575406412
295298230.0 -0.7025593744 0.4746177258 5.8256e-05 9.7601e-06 0.0001420079 0.0001345725 0.1112322002 -0.0596002612
300298200.0 -0.6980283031 0.4818114292 9.84451e-05 0.0002540833 6.1067e-05 0.0001091742 0.1103325144 -0.061508929
305298170.0 -0.6920482991 0.4883286742 3.66185e-05 -0.0002510365 -1.37928e-05 8.71686e-05 0.1096130206 -0.063758233
310298140.0 -0.6876532722 0.4965753688 -7.499e-07 -9.23112e-05 6.58206e-05 0.0001045704 0.1081685569 -0.0656733213
315298110.0 -0.6829114175 0.5035789857 -7.6429e-05 -2.045e-07 3.06838e-05 1.54256e-05 0.1068294301 -0.0674942093
320298080.0 -0.6771360606 0.5102549437 0.0001720036 -0.0001426321 2.15089e-05 -2.08567e-05 0.1059937927 -0.0689825993
325298050.0 -0.6715884813 0.5174338466 -6.76925e-05 0.0002145867 -6.29474e-05 -5.63534e-05 0.10409657 -0.0713319644
330298020.0 -0.6665799948 0.5240498162 0.0002612683 5.40051e-05 0.0002179207 3.74768e-05 0.1028068044 -0.0725457664
335297990.0 -0.6607595285 0.5307574353 0.0001533864 8.24977e-05 0.0001730022 -0.000143378 0.1012492235 -0.0738851224
340297960.0 -0.6551555356 0.5381156171 0.0001646653 6.23483e-05 -8.1341e-06 1.07889e-05 0.1004876785 -0.0750273978
345297930.0 -0.6501408329 0.5442711814 2.58152e-05 -9.1427e-06 3.93971e-05 3.1808e-06 0.0988587021 -0.0767777758
350297900.0 -0.6445716271 0.5513710239 -2.78745e-05 0.0001427845 0.0002042547 0.0001265186 0.0971587561 -0.0775872018
355297870.0 -0.6378322118 0.5582375814 -0.0001424288 0.0002302922 2.23773e-05 7.40166e-05 0.0955375093 -0.0790929782
360297840.0 -0.6326538269 0.563898513 -8.87553e-05 0.0002055113 0.0002323756 -0.000130476 0.0944558122 -0.0805820521
365297810.0 -0.6268020161 0.5705067469 0.0001822071 4.40621e-05 -0.0001578396 0.0001058733 0.0931042701 -0.0819372134
370297780.0 -0.6204617288 0.5767995313 8.21045e-05 7.21457e-05 6.36019e-05 -4.415e-07 0.0919025775 -0.082831713
375297750.0 -0.6143246708 0.5835752849 8.64848e-05 0.000161115 9.02326e-05 0.0001145554 0.090013599 -0.0848504811
380297720.0 -0.6088741958 0.589150686 -0.0001735875 0.0001501413 0.0001626596 -3.79557e-05 0.0883327632 -0.0857315588
385297690.0 -0.6035006317 0.5957668765 0.0002067078 0.0001299759 1.56547e-05 0.0001724069 0.0873699255 -0.0870877273
390297660.0 -0.5968401166 0.6015379811 8.97387e-05 0.0001684796 0.0001834577 -7.13102e-05 0.0855556511 -0.0877831745
395297630.0 -0.5901716732 0.6080421464 -4.57757e-05 1.0938e-05 -3.09294e-05 3.43173e-05 0.0840692063 -0.0891754177
400297600.0 -0.5837473187 0.614215139 0.0001433468 -7.01878e-05 0.000116505 1.5405e-06 0.0830550526 -0.0901584229
405297570.0 -0.5779998207 0.6195469187 -2.39756e-05 5.69853e-05 8.85433e-05 5.2458e-05 0.0810853136 -0.0917449598
410297540.0 -0.5713476394 0.6252910136 0.0001773427 0.0001684209 0.0003064906 -9.19601e-05 0.0798013863 -0.0927420616
415297510.0 -0.5645794763 0.6313657122 5.38152e-05 -8.15424e-05 -6.27211e-05 9.89623e-05 0.0782136397 -0.0937364031
420297480.0 -0.5592806169 0.6371187224 0.0002533088 -0.0001515778 0.0002456445 0.0002155675 0.0762872273 -0.0946296557
425297450.0 -0.5515798058 0.6427710457 0.0001180837 -0.0001879874 0.0002104249 0.0001454954 0.0752433913 -0.0960891452
430297420.0 -0.5448796206 0.6485529866 4.14841e-05 -4.26696e-05 3.82338e-05 -0.0001013696 0.0736118117 -0.0973199818
435297390.0 -0.5386215375 0.6534507801 0.0001425849 1.58333e-05 8.89662e-05 7.58774e-05 0.0723087165 -0.0984396801
440297360.0 -0.5314607817 0.6592016603 0.0003233833 9.04416e-05 -4.22689e-05 8.65956e-05 0.070848545 -0.0991394768
445297330.0 -0.524805421 0.6645850546 -7.88419e-05 0.0001348901 6.25936e-05 0.00010774 0.0689958529 -0.1007713464
450297300.0 -0.5177838695 0.6691580517 0.0001600002 0.0001459748 6.72501e-05 0.0002169494 0.0674253086 -0.1012639702
455297270.0 -0.511020528 0.674453815 4.69504e-05 -1.37558e-05 6.75788e-05 -9.85133e-05 0.0660983496 -0.1023483217
460297240.0 -0.5048233413 0.6796877693 0.0001377825 1.59681e-05 0.0001753367 3.07488e-05 0.0643781307 -0.1031704371
465297210.0 -0.4974699328 0.6852654588 -4.48774e-05 0.0001933263 9.7519e-05 0.0001541874 0.062893166 -0.1040285926
470297180.0 -0.4898191357 0.6894489433 2.37179e-05 0.0001034323 -0.000117569 -7.91481e-05 0.0614767158 -0.1045048331
475297150.0 -0.4833588623 0.694419409 -1.61318e-05 3.04638e-05 0.0002016404 -0.000189073 0.0599462448 -0.1059449955
480297120.0 -0.4767432407 0.69932877 6.28729e-05 8.80938e-05 1.31849e-05 0.0001485644 0.0586489485 -0.1063534514
485297090.0 -0.4689459184 0.7041483602 0.0001772255 0.0001349387 0.0001090296 -6.34e-06 0.0572676261 -0.1070760537
490297060.0 -0.4622749314 0.7086717301 9.60748e-05 -0.0001683373 -4.856e-06 6.84134e-05 0.0553344373 -0.1077916949
495297030.0 -0.4544630815 0.7128102598 0.0003097131 0.0001587981 4.39633e-05 9.76227e-05 0.0538774744 -0.1082183016
500297000.0 -0.4476342081 0.7180820951 8.75373e-05 -9.83168e-05 9.17446e-05 0.0001573804 0.0524680764 -0.1083970484
505296970.0 -0.4401847299 0.7225947581 4.76857e-05 -6.84155e-05 0.0001900291 5.01494e-05 0.0504644956 -0.1091038801
510296940.0 -0.4328344987 0.7265327144 0.0001618288 -5.05674e-05 0.0002723253 5.02898e-05 0.0489154017 -0.1098481352
515296910.0 -0.4246036011 0.7306110337 -0.0001237284 5.70168e-05 -0.0001139681 2.25675e-05 0.0475258616 -0.1102565253
520296880.0 -0.4186124634 0.7357401902 -2.36672e-05 0.0003311353 0.0001109456 0.0001257576 0.0453176745 -0.1107564432
525296850.0 -0.4103988047 0.7392601568 4.34416e-05 4.73664e-05 2.6403e-06 6.66028e-05 0.0440241608 -0.1110802811
530296820.0 -0.4024035292 0.743790396 9.02994e-05 0.0001090032 0.0002617204 -0.0002221836 0.0424715714 -0.1116333386
535296790.0 -0.3958073658 0.746964536 0.0003653301 -6.287e-05 8.88288e-05 -0.0001472795 0.0403991069 -0.1122002687
540296760.0 -0.3884169028 0.7510124428 0.0002003758 -1.6195e-06 0.0001033223 0.0001788355 0.0387639872 -0.1123897644
545296730.0 -0.3800858843 0.7549799147 0.0001744063 -2.5168e-05 0.0002153659 -6.01734e-05 0.0371505464 -0.1130287675
550296700.0 -0.3730991585 0.7588204382 0.0001626027 5.18239e-05 0.0001761303 8.62656e-05 0.0354862827 -0.1131955929
555296670.0 -0.3650970694 0.7621153213 0.0002502294 5.37073e-05 0.0002000521 -9.44241e-05 0.0338154553 -0.1133857068
560296640.0 -0.3571126242 0.7666600776 5.31363e-05 -3.64782e-05 0.0002440713 7.65776e-05 0.0320945557 -0.1139901353
565296610.0 -0.3492370729 0.77009693 0.0002493226 -6.65248e-05 3.68563e-05 0.0002205054 0.0300899054 -0.1146890937
570296580.0 -0.3420096161 0.772614917 0.0001088927 0.0002851177 5.79924e-05 0.0002653544 0.028148214 -0.1144853393
575296550.0 -0.3344305206 0.7768930304 0.0002954667 -0.0001052659 5.9976e-06 -8.97841e-05 0.0266983603 -0.1146274619
580296520.0 -0.325864925 0.779291299 -7.62087e-05 0.0001748715 0.0001163823 -8.5009e-05 0.0249023245 -0.1152001973
585296490.0 -0.3183699323 0.7825002403 0.0001715408 -6.70865e-05 0.0001942906 2.76336e-05 0.0231454287 -0.1157005745
590296460.0 -0.310418771 0.7858625005 0.00018611 0.0001486573 0.0001955854 4.8876e-05 0.0214048025 -0.1154401775
595296430.0 -0.3028416871 0.7885734504 0.0002278524 0.000234786 -3.96664e-05 -7.97585e-05 0.0196939168 -0.1162486489
600296400.0 -0.2946694578 0.7919132759 0.0003014747 0.0001278537 0.0003712524 7.48093e-05 0.0181402505 -0.1165511474
605296370.0 -0.287427037 0.7944932785 0.0002726444 3.6275e-05 0.0001791588 -1.44389e-05 0.0165865625 -0.1164957926
610296340.0 -0.2782900882 0.7973465944 3.88381e-05 -0.0002234316 2.87212e-05 -0.0001926745 0.0146523952 -0.1167039347
615296310.0 -0.2702114275 0.8000198004 5.33256e-05 -3.10116e-05 0.0002104827 -7.42264e-05 0.0130003988 -0.11687424
620296280.0 -0.2626361381 0.8020256408 0.0002177068 8.80512e-05 0.0001187616 4.22922e-05 0.0114695461 -0.1170887291
625296250.0 -0.2540118216 0.8053733195 6.69229e-05 1.50066e-05 0.0002433862 2.588e-07 0.0100833896 -0.1170203007
630296220.0 -0.245930206 0.8081701636 0.0001320225 0.0002896671 5.59943e-05 -7.01905e-05 0.008261024 -0.1168074869
635296190.0 -0.2386515578 0.8108785747 0.0001305984 -8.41188e-05 -6.85776e-05 -1.32445e-05 0.0066139858 -0.1170543104
640296160.0 -0.2308389175 0.8125494749 -2.06185e-05 0.0001794701 0.0001086175 2.17871e-05 0.0049560765 -0.1173245566
645296130.0 -0.2220686768 0.8150747154 -1.71999e-05 -3.61561e-05 0.0001953116 0.0001797857 0.0033104656 -0.1167673049
650296100.0 -0.2141459665 0.8165962516 0.0003922229 0.0001114555 5.14363e-05 4.41215e-05 0.001872546 -0.1170292777
655296070.0 -0.2061250389 0.8193873045 0.000120148 -9.02772e-05 0.00013055 6.34877e-05 0.0004165641 -0.1168849696
660296040.0 -0.197510728 0.8200711465 0.0001057617 0.0001134493 0.0001633217 0.0001051979 -0.0009285167 -0.1165904033
665296010.0 -0.1895230733 0.8223820387 0.0002287828 6.76487e-05 0.0001680077 6.53557e-05 -0.0027568399 -0.116330364
670295980.0 -0.182018382 0.8244233194 0.0001874794 -0.0001484597 0.0001044879 0.0001842912 -0.0048032262 -0.1162515673
675295950.0 -0.1734252485 0.8256703623 0.0001965033 0.0001261593 0.000313853 -9.94156e-05 -0.0061601065 -0.1157654586
680295920.0 -0.1649020499 0.8280848253 1.378e-05 -0.0001240322 0.0001300135 4.36184e-05 -0.0079033824 -0.115296464
685295890.0 -0.156625071 0.8303037069 0.0003351117 6.28672e-05 0.0002909765 9.2975e-06 -0.0096233804 -0.1149370034
690295860.0 -0.1484053428 0.8309346277 6.91519e-05 0.0001871264 -6.31494e-05 -1.59034e-05 -0.0111612576 -0.1145425794
695295830.0 -0.1401191096 0.8319336043 0.0002256844 -0.0001454814 0.0003614144 0.0001777567 -0.0128625345 -0.1143371651
700295800.0 -0.131736734 0.833586381 0.000139653 0.0002918876 0.0003387605 -1.8816e-05 -0.0145039035 -0.1138801767
705295770.0 -0.1237923705 0.8354456121 0.0001648849 -6.14996e-05 0.0001765898 -7.89357e-05 -0.0162562612 -0.1132528456
710295740.0 -0.1154618673 0.8364141825 4.62001e-05 9.05711e-05 -2.64883e-05 6.35534e-05 -0.0181769478 -0.1130451304
715295710.0 -0.1069818626 0.8371776237 -1.83917e-05 -9.61074e-05 9.367e-06 -2.36218e-05 -0.019865327 -0.1127351135
720295680.0 -0.098491356 0.8380766141 0.0001297405 -4.83359e-05 0.0002181026 -1.02948e-05 -0.0211662312 -0.1120412651
725295650.0 -0.0907016302 0.8399040617 0.0003013023 0.0001076319 -8.95921e-05 7.22372e-05 -0.0232670117 -0.1116563878
730295620.0 -0.0817996944 0.8407414568 0.0001695522 -0.0001176039 0.000113099 -0.0001548424 -0.0251566029 -0.1112041957
735295590.0 -0.0735475332 0.8412206147 0.000235595 -0.0001791888 0.0001790732 -0.0001399324 -0.0268300714 -0.1109407736
740295560.0 -0.0654945121 0.842161563 0.000143202 -7.3473e-06 0.0002185562 1.94953e-05 -0.0280218426 -0.1103226335
745295530.0 -0.0568949235 0.8430552252 0.0001696347 -0.0001273779 0.0001124395 7.81934e-05 -0.0298150803 -0.1102598469
750295500.0 -0.0483555377 0.8429189993 0.0002465469 7.46975e-05 0.0004200139 -8.173e-06 -0.0312383219 -0.1094689203
755295470.0 -0.0399768467 0.8430323967 0.0001305013 -0.000146688 2.38305e-05 -0.000180975 -0.0328104377 -0.1093383684
760295440.0 -0.0320709253 0.843047732 0.0001009124 -0.0001709342 0.0003792586 -7.3689e-06 -0.0346814545 -0.1087063329
765295410.0 -0.0237100442 0.8438762338 0.000385698 8.30719e-05 0.0002103381 -2.23037e-05 -0.0359818772 -0.1078704031
770295380.0 -0.0153144562 0.8443913686 0.0003618498 -3.7428e-05 7.26475e-05 1.60347e-05 -0.0381427233 -0.1075337563
775295350.0 -0.0071090723 0.8441194389 0.0001327879 -0.0001310689 0.0002284995 -8.01635e-05 -0.0396850973 -0.1067953637
780295320.0 0.0015659465 0.8442297715 0.0002585496 -0.0001480953 4.90781e-05 -6.31212e-05 -0.0408401176 -0.1062389627
785295290.0 0.0095856754 0.8434168944 0.0002365612 -7.9267e-06 -3.17468e-05 -0.0002505003 -0.0420021892 -0.1057260387
790295260.0 0.0183525925 0.8440521739 1.42292e-05 0.0001375836 0.0002350657 3.9777e-06 -0.0434604017 -0.1050407087
795295230.0 0.0260083263 0.8435748508 4.32017e-05 -0.0002789587 0.0001866107 -4.0764e-06 -0.0450498223 -0.1047805132
800295200.0 0.0348149717 0.8431512548 0.0002885418 0.0001076568 -9.5217e-06 0.0001622036 -0.0467921022 -0.1037473952
805295170.0 0.0433125494 0.84270643 0.0003782786 -3.26579e-05 0.0002251608 -4.90001e-05 -0.0480529729 -0.1027394644
810295140.0 0.0513727266 0.8422588842 6.84284e-05 6.75168e-05 0.0001199779 -0.0001038983 -0.0492180655 -0.1023373746
815295110.0 0.0597270223 0.8419191045 0.0001634963 5.20615e-05 7.5042e-05 -0.000110451 -0.0507816777 -0.101453537
820295080.0 0.067639867 0.8412339837 0.0002602986 -0.00013813 0.0003571799 -8.86112e-05 -0.0519360036 -0.100689797
825295050.0 0.0771466813 0.8398379051 -3.33254e-05 -0.0001528084 0.0002140157 -1.82884e-05 -0.053469442 -0.0998778059
830295020.0 0.0844972935 0.8399635522 0.0001739755 -0.0001269689 0.0002420103 -0.0001614532 -0.0546738642 -0.0986374097
835294990.0 0.0927038694 0.8384302977 8.1416e-06 1.04869e-05 3.77648e-05 -0.0001384635 -0.0564385215 -0.0977135046
840294960.0 0.1008336709 0.8382666121 0.0002032515 3.06866e-05 0.000163001 2.70258e-05 -0.0578652164 -0.0968673631
845294930.0 0.1090290493 0.8361532378 9.3452e-06 5.55964e-05 2.12226e-05 0.00010349 -0.0590493872 -0.0960924072
850294900.0 0.11730062 0.836217759 7.80739e-05 -7.55855e-05 9.58538e-05 8.76457e-05 -0.0602974798 -0.0948342815
