!Created with skrf (http://scikit-rf.org).
# Hz S RI R 50.0 
!freq ReS11 ImS11 ReS21 ImS21 ReS12 ImS12 ReS22 ImS22
300000.0 -0.3233376241 -0.0790308461 0.3770746538 0.0434757263 0.3745970296 0.0409612385 -0.3220163242 -0.0984373555
5299970.0 -0.326447655 0.0046285871 0.3782612403 0.002392007 0.3783643721 0.0023927855 -0.323916159 0.004957894
10299940.0 -0.3240622741 0.0136056884 0.3795266629 0.0020525442 0.3794798645 0.0021156216 -0.3214275142 0.0161206281
15299910.0 -0.3216222162 0.0204609601 0.3818994956 0.0020875439 0.3818770157 0.0020219509 -0.3181115602 0.0238266108
20299880.0 -0.3186937172 0.0262005542 0.3845336326 0.0018742019 0.384874224 0.0015909399 -0.3145201502 0.0304338991
25299850.0 -0.3158088999 0.0314684941 0.3883472962 3.90216e-05 0.3881024571 0.0001614548 -0.3109726566 0.0359889948
30299820.0 -0.3129077166 0.0358134306 0.3914877653 -0.0022775484 0.391627198 -0.002448176 -0.306960795 0.0408974728
35299790.0 -0.3099988098 0.0401474925 0.3947938129 -0.0056514141 0.3948128203 -0.0053560118 -0.3035831219 0.0452354791
40299760.0 -0.3073076261 0.0436309164 0.3980927487 -0.0087228056 0.3980993721 -0.0089689187 -0.300183947 0.0485107662
45299730.0 -0.3047173825 0.0464595756 0.4006573235 -0.0127602508 0.4009499106 -0.0126649224 -0.2974566066 0.0520563784
50299700.0 -0.302323116 0.0495086887 0.4037109399 -0.0173517624 0.4035802765 -0.0172497607 -0.294417559 0.0548699403
55299670.0 -0.3001639895 0.0525596359 0.40569611 -0.0226650476 0.4056145639 -0.0220065246 -0.2920158078 0.0572708974
60299640.0 -0.2978797843 0.055088288 0.4072526273 -0.0273536332 0.4076085752 -0.0267598215 -0.2890164134 0.0594283761
65299610.0 -0.2964793192 0.0572396538 0.4090149009 -0.0318267717 0.4092706236 -0.0321021753 -0.2868688106 0.0615704658
70299580.0 -0.2948067645 0.0599695642 0.4105858762 -0.0371297602 0.4102273226 -0.0368870012 -0.2852766115 0.063925696
75299550.0 -0.2932620374 0.062498772 0.4111800815 -0.0422620532 0.4112962277 -0.0423048101 -0.2832015385 0.0657798586
80299520.0 -0.2919933224 0.0649622836 0.4126148726 -0.0477095007 0.4124151167 -0.0474774141 -0.2816518518 0.0680791257
85299490.0 -0.2900607983 0.0671348848 0.4128594349 -0.0525061502 0.412938874 -0.0523631403 -0.2802155452 0.0700471399
90299460.0 -0.2891049187 0.0696523329 0.4128849818 -0.0581158341 0.4133654201 -0.0579019105 -0.2782504028 0.0720052733
95299430.0 -0.2871313419 0.0715763225 0.4135684572 -0.0629599168 0.4135083705 -0.0632747968 -0.2769372828 0.0742824808
100299400.0 -0.2865227398 0.0742205352 0.4132419121 -0.0681541588 0.4132613744 -0.0682596729 -0.2749981603 0.0760202778
105299370.0 -0.2853438751 0.0765607731 0.4132587333 -0.0738275503 0.4135983806 -0.0736168332 -0.2738748607 0.0782753395
110299340.0 -0.2843413615 0.0787739306 0.4133459056 -0.0785416668 0.412924174 -0.078800101 -0.2726929654 0.0806587455
115299310.0 -0.2828350678 0.0810467563 0.4129383808 -0.0840013992 0.4126912696 -0.0836221635 -0.2715147859 0.0824463277
120299280.0 -0.2821888774 0.083148704 0.4124110545 -0.0892499991 0.4123200261 -0.0892612899 -0.2703833397 0.0847502098
125299250.0 -0.2810308677 0.0854712673 0.4119207229 -0.0939793937 0.4121676488 -0.0936903738 -0.2696576931 0.0863783503
130299220.0 -0.2804327373 0.0882726514 0.4109151119 -0.0993669787 0.4108253192 -0.0990201556 -0.2684847819 0.0885452089
135299190.0 -0.2795747238 0.0906300853 0.410802064 -0.1040307817 0.4105081181 -0.1039841606 -0.2673457521 0.0909195911
140299160.0 -0.2783528441 0.0930733273 0.4093664497 -0.1095270855 0.4096293822 -0.109246972 -0.2661694785 0.0936744495
145299130.0 -0.2775009391 0.0957704723 0.4088684511 -0.1143168208 0.4086406241 -0.1141849407 -0.2652497661 0.0954837415
150299100.0 -0.276361628 0.0983746627 0.4077156956 -0.1186382865 0.4078456188 -0.1186468905 -0.2644052945 0.0984292546
155299070.0 -0.2754528747 0.1007781886 0.4068602439 -0.1242309543 0.4065851609 -0.1237922414 -0.2632068345 0.100832912
160299040.0 -0.2745679335 0.1032692763 0.4051084098 -0.1287841291 0.4054402205 -0.1288782255 -0.2625850163 0.103063158
165299010.0 -0.2737764698 0.1057773295 0.4038319023 -0.1338558848 0.4042741608 -0.1338809601 -0.2612579464 0.1058748484
170298980.0 -0.2730681814 0.1084088875 0.4026588846 -0.1383520677 0.4028218489 -0.138639486 -0.2600345756 0.1081352677
175298950.0 -0.2717380095 0.1114823983 0.4016386316 -0.1434679726 0.4011176787 -0.1432253226 -0.2592665202 0.1105769418
180298920.0 -0.2708829402 0.114033938 0.3998958264 -0.147947097 0.3998712596 -0.1475922026 -0.2584645095 0.1132233516
185298890.0 -0.2696314139 0.116454366 0.3984552789 -0.152600029 0.3979841164 -0.1526930303 -0.25702312 0.1159736881
190298860.0 -0.2687899701 0.1193988948 0.396942611 -0.1572778496 0.3970119623 -0.1571288974 -0.2563671132 0.1184444519
195298830.0 -0.267718762 0.12168637 0.3949491097 -0.1616674901 0.3951165974 -0.162128949 -0.2551938873 0.1208839628
200298800.0 -0.2666303945 0.124516023 0.3933647325 -0.1665790557 0.3936327617 -0.166752386 -0.2543307449 0.1235774116
205298770.0 -0.2654600323 0.1271661845 0.3916929136 -0.1714699807 0.3916097107 -0.1710509564 -0.2530631668 0.1257063529
210298740.0 -0.2642460615 0.1300518928 0.3899119972 -0.1756086716 0.3896659199 -0.1755413327 -0.25205304 0.1285611623
215298710.0 -0.2633708569 0.1326288135 0.3881537899 -0.1801515392 0.3877672665 -0.1805757709 -0.2509117271 0.1312440283
220298680.0 -0.2621577256 0.1350531385 0.3856871293 -0.184743956 0.385847734 -0.1847320182 -0.250129003 0.1332911015
225298650.0 -0.2610230902 0.1380132355 0.3837893823 -0.1893756819 0.3842059393 -0.1890029888 -0.2492095092 0.1359353987
230298620.0 -0.2593295428 0.1407456756 0.3820049055 -0.1934848446 0.3822095323 -0.1936588768 -0.248002921 0.1384217879
235298590.0 -0.258221632 0.1438081964 0.3799916865 -0.1979858049 0.3800995756 -0.1978215634 -0.2467003139 0.1411521227
240298560.0 -0.2570014616 0.1465431597 0.3777478833 -0.2025955995 0.3780488819 -0.2025133045 -0.2451262828 0.1439384525
245298530.0 -0.2558332936 0.1490624658 0.3757220996 -0.206692957 0.3753785248 -0.206736333 -0.243914799 0.1460645394
250298500.0 -0.2542679007 0.1519123693 0.372833241 -0.2110806546 0.3728937153 -0.2107232077 -0.2430031562 0.1483792203
255298470.0 -0.2528644089 0.1542936387 0.3703687619 -0.214853401 0.370749515 -0.2149494165 -0.2413843215 0.1509455221
260298440.0 -0.2516699361 0.1567307936 0.3682083055 -0.2197231239 0.3683142503 -0.2195240483 -0.2397008628 0.1538914399
265298410.0 -0.2500095688 0.1600806747 0.3657153148 -0.2237068217 0.3662544187 -0.2233021877 -0.2384498212 0.1562302805
270298380.0 -0.248642937 0.1626761181 0.3636123548 -0.2276115049 0.3635123565 -0.2275133833 -0.2366367838 0.1588835712
275298350.0 -0.2467602512 0.1651438221 0.3607962067 -0.2318497573 0.3612229265 -0.2316786502 -0.2354130953 0.160858023
280298320.0 -0.2450632267 0.1679370034 0.35869906 -0.2358648902 0.358616343 -0.2357023482 -0.2335484207 0.1636094717
285298290.0 -0.2435661714 0.1704115882 0.3556706776 -0.2398702627 0.3557164602 -0.2398281105 -0.2318780958 0.1660884035
290298260.0 -0.2419201374 0.1733425937 0.3531130527 -0.2438668481 0.3532372374 -0.2440662958 -0.2302076878 0.1686640207
295298230.0 -0.2399177449 0.1754828797 0.3504302823 -0.2477847874 0.3503579764 -0.247844647 -0.2285140318 0.1707298921
300298200.0 -0.2386162965 0.1784371169 0.3480443437 -0.2518670453 0.3482476584 -0.251901209 -0.2266414222 0.1732518613
305298170.0 -0.2366385137 0.1804864944 0.344956304 -0.2558604457 0.3448624243 -0.2559359105 -0.2243854983 0.1757480761
310298140.0 -0.2349631767 0.1835441205 0.3418311184 -0.2601419791 0.3422371503 -0.2597216519 -0.2230286569 0.1780305879
315298110.0 -0.2327403994 0.1858210329 0.3391825364 -0.2634092735 0.3391022103 -0.2633730208 -0.2216094615 0.1804909921
320298080.0 -0.2310638848 0.1881965826 0.3357900152 -0.2675102358 0.3364639285 -0.2674698144 -0.219317913 0.1831796929
325298050.0 -0.2294702653 0.1906570739 0.3334830274 -0.2714054759 0.3330841179 -0.2714676914 -0.2178655056 0.1851292904
330298020.0 -0.2274253381 0.192866392 0.3299549485 -0.2749777195 0.330385083 -0.2751700135 -0.2160281109 0.1880701574
335297990.0 -0.2254577914 0.195711429 0.3270631218 -0.2786559009 0.3270327755 -0.2789306151 -0.2147568366 0.1905061974
340297960.0 -0.224225155 0.1981448746 0.3237432998 -0.2822876668 0.3234670276 -0.2825437614 -0.2120392861 0.1931095366
345297930.0 -0.2221145693 0.2011372462 0.3207085151 -0.2862126512 0.3203664531 -0.2861043862 -0.2103978247 0.1951277981
350297900.0 -0.2203691804 0.2030101671 0.3171918805 -0.2893241948 0.3173351294 -0.2897756057 -0.2087493842 0.1980820897
355297870.0 -0.2178309134 0.2061758953 0.3139175485 -0.2929423702 0.3144700276 -0.2926689565 -0.2069541502 0.1998829163
360297840.0 -0.2163062699 0.2082200393 0.3110402785 -0.295996762 0.3111038122 -0.2964864576 -0.2050771443 0.2029071064
365297810.0 -0.214151969 0.2108112755 0.3074318321 -0.3000022536 0.3075101008 -0.2998089463 -0.2025269683 0.2049128532
370297780.0 -0.2117609512 0.2133431391 0.3039869998 -0.3030027468 0.3043367783 -0.3028342499 -0.2008623305 0.2073317357
375297750.0 -0.2091071815 0.2156631153 0.300580208 -0.3064454691 0.3012568922 -0.3066484957 -0.1987339665 0.2098032025
380297720.0 -0.2073039266 0.2178840824 0.2975381322 -0.3100925661 0.2975733242 -0.3092260513 -0.1972244506 0.2118878903
385297690.0 -0.2053878532 0.2203575742 0.293879853 -0.3130189639 0.2938687305 -0.3128312004 -0.1945824253 0.2140495349
390297660.0 -0.2030105983 0.2227219063 0.2905781313 -0.3166903629 0.2903527458 -0.3158849098 -0.1927395916 0.216403316
395297630.0 -0.2004382519 0.2248285411 0.2867306987 -0.3194170544 0.2869577828 -0.3195054447 -0.190055627 0.2185838152
400297600.0 -0.1982816236 0.2273251822 0.2831149324 -0.3226380603 0.2834952812 -0.3226986681 -0.1881741861 0.2207653551
405297570.0 -0.1965918314 0.2294638526 0.2795642755 -0.3254808261 0.2798009365 -0.3255067822 -0.1859269185 0.2230594857
410297540.0 -0.1939538742 0.2316093883 0.2763378539 -0.3288230908 0.2764739903 -0.3286663464 -0.1835907634 0.2254444907
415297510.0 -0.1909739483 0.233773722 0.2721557337 -0.3317617996 0.2731781319 -0.3320008237 -0.1815878649 0.2272631059
420297480.0 -0.1890106121 0.2364072649 0.2688366876 -0.3346898479 0.2688115536 -0.3348204968 -0.1791897008 0.2293399131
425297450.0 -0.1864029951 0.2382169938 0.2655082022 -0.3371714599 0.2657067095 -0.3376757493 -0.1771629151 0.2315165001
430297420.0 -0.1839769158 0.2403339072 0.261310933 -0.339992788 0.2614390749 -0.340030235 -0.174916684 0.2330213571
435297390.0 -0.1818357172 0.2424895785 0.2576307774 -0.3432295208 0.2573545228 -0.3432633752 -0.1717170346 0.234973498
440297360.0 -0.1791656555 0.2444744308 0.2539497352 -0.3457975425 0.2537827267 -0.3460093366 -0.1696505703 0.2369672658
445297330.0 -0.1766542213 0.2464602205 0.2503263093 -0.3486871371 0.2500064573 -0.3485908487 -0.1669547326 0.2384765592
450297300.0 -0.1738679531 0.2484657581 0.2459836289 -0.351633218 0.2459272838 -0.3513333958 -0.1644975614 0.2404808566
455297270.0 -0.1714782965 0.2504810466 0.2421117473 -0.3538988889 0.2425683636 -0.3541458992 -0.1622053172 0.2422806744
460297240.0 -0.1690058277 0.2523842395 0.2381961532 -0.3565422862 0.2385647895 -0.3571840808 -0.1597572851 0.2442817068
465297210.0 -0.1663224382 0.2544257362 0.2347274407 -0.3591218537 0.234283061 -0.3596957503 -0.1567983294 0.2459865829
470297180.0 -0.1633618514 0.2562849906 0.230474397 -0.361638952 0.2303325589 -0.361706937 -0.1541612946 0.2482156506
475297150.0 -0.1609748815 0.2579236999 0.2262040249 -0.3637324194 0.226649371 -0.3640270615 -0.151396409 0.2493630786
480297120.0 -0.1583133949 0.2601731168 0.2223243521 -0.3667928343 0.2223236678 -0.3670006684 -0.1488137229 0.2513418746
485297090.0 -0.1556433315 0.2619005404 0.2187065874 -0.3689652768 0.2184761953 -0.3691176623 -0.1461741537 0.2531487289
490297060.0 -0.1532646803 0.2635624202 0.214453118 -0.3712911217 0.2146572347 -0.3712213706 -0.1437790908 0.2547268777
495297030.0 -0.1502732281 0.2653883574 0.2101797642 -0.3735325922 0.2105924239 -0.373336592 -0.1411142033 0.256855399
500297000.0 -0.1474065583 0.2673306131 0.206253234 -0.3757525935 0.2057613897 -0.3755486882 -0.1380089727 0.25870735
505296970.0 -0.1444889778 0.2686966607 0.2021035863 -0.3776961282 0.2018526777 -0.3781196103 -0.1354983273 0.2597320839
510296940.0 -0.1414670723 0.2704234047 0.1976071603 -0.3803354591 0.197632683 -0.3806234034 -0.1324299828 0.2617022619
515296910.0 -0.138468383 0.271832936 0.1934143529 -0.3822785631 0.1933940268 -0.3820087824 -0.1297882641 0.2633912553
520296880.0 -0.1360266046 0.2737662273 0.1893169099 -0.3847320806 0.1894327982 -0.3843822004 -0.1269673548 0.2651279029
525296850.0 -0.1328628374 0.2746861694 0.1849402684 -0.3861785127 0.1854241672 -0.3864072537 -0.1245946111 0.2665531585
530296820.0 -0.1300620061 0.2766581591 0.1809743944 -0.3886474238 0.181137684 -0.3886546093 -0.1214959224 0.2677824986
535296790.0 -0.1274671183 0.278120813 0.1770523453 -0.3903485107 0.17696308 -0.3898588757 -0.1190790268 0.2692192143
540296760.0 -0.124786053 0.2797897287 0.1724676414 -0.392611359 0.1726462115 -0.3923218167 -0.1166603042 0.2712586028
545296730.0 -0.1218337031 0.2812604953 0.1677779549 -0.3938835219 0.1680226154 -0.3941989125 -0.1134709416 0.2721286014
550296700.0 -0.1185216752 0.2829052242 0.1639346154 -0.3961194212 0.1638295027 -0.3960524546 -0.1104978601 0.2737435653
555296670.0 -0.1154631752 0.2837028038 0.1596914092 -0.3973686965 0.1597125262 -0.3970895054 -0.108075757 0.2751418762
560296640.0 -0.1124578221 0.2856615425 0.1551241767 -0.3993505272 0.1552542109 -0.3994249654 -0.1050229455 0.2765505853
565296610.0 -0.1096004891 0.286901574 0.1506328289 -0.4009386545 0.1511180773 -0.4007685348 -0.1025514174 0.2775146597
570296580.0 -0.1069400973 0.2880365217 0.1463082777 -0.4029066746 0.1457759681 -0.4027905256 -0.0993438946 0.2793850516
575296550.0 -0.1042080564 0.289808692 0.1422608841 -0.4044410726 0.1414358714 -0.4043647409 -0.0963046019 0.2805947155
580296520.0 -0.1006764085 0.2905085886 0.1377568783 -0.4055577664 0.1375807168 -0.4055232156 -0.0932315004 0.2812485162
585296490.0 -0.0976542705 0.2915770825 0.1331646503 -0.4068550662 0.1334062134 -0.4067064441 -0.0903384685 0.2821044327
590296460.0 -0.0940814004 0.2928403171 0.1284865326 -0.4081006864 0.1290878805 -0.4083783865 -0.0880498073 0.2835210981
595296430.0 -0.0915531393 0.2939621201 0.1240481817 -0.4099211065 0.1241436245 -0.4095456389 -0.0848316604 0.2842295712
600296400.0 -0.0885683238 0.2949049431 0.1194817809 -0.4109949087 0.1198022333 -0.4106048802 -0.0819775426 0.2852431662
605296370.0 -0.0855141492 0.2961983266 0.1156247001 -0.4123229587 0.1152595517 -0.4119299579 -0.0785315589 0.2862383013
610296340.0 -0.0821059546 0.297159007 0.1103410163 -0.4134649161 0.1109378152 -0.4133924622 -0.0756058244 0.287098169
615296310.0 -0.0790502293 0.2980394525 0.1064327145 -0.4142157066 0.1059121497 -0.4148510563 -0.0720765201 0.2878210143
620296280.0 -0.0760733823 0.298585445 0.1018239244 -0.4156615089 0.1014775273 -0.4153541573 -0.0695409377 0.2892148184
625296250.0 -0.0728448552 0.2995721093 0.0974116102 -0.4165895205 0.0970712249 -0.4168035077 -0.0661313326 0.2896853972
630296220.0 -0.0690474701 0.3006085979 0.0919744317 -0.4178493458 0.092232636 -0.4175986645 -0.0632720636 0.2908004757
635296190.0 -0.0667045074 0.3015118522 0.0881464704 -0.4184233152 0.0880194173 -0.4185309601 -0.0601203531 0.2912537857
640296160.0 -0.0635500511 0.3021600534 0.0835290998 -0.4187850289 0.0840212657 -0.4195829553 -0.056913297 0.2921047889
645296130.0 -0.0602391063 0.3035151354 0.0788031861 -0.4202947842 0.0793237559 -0.420586306 -0.054249836 0.2931463663
650296100.0 -0.0572388688 0.3038385768 0.0745588214 -0.4210373865 0.0747115386 -0.4208916795 -0.0506704222 0.293241478
655296070.0 -0.0538822656 0.3046105117 0.0698007234 -0.4216511105 0.0699258779 -0.4216044082 -0.0475121918 0.2940523753
660296040.0 -0.0509780953 0.3052072473 0.0656871438 -0.4222612657 0.0653218058 -0.4224056274 -0.044274185 0.2948635904
665296010.0 -0.0473108914 0.3057470931 0.060161058 -0.4229740288 0.0604991981 -0.4230277604 -0.0409842662 0.2956585677
670295980.0 -0.0449721064 0.3066881456 0.0561434161 -0.4236323039 0.0559285478 -0.4238574308 -0.0382674272 0.2964377286
675295950.0 -0.041515597 0.3074022822 0.0518952667 -0.4238223117 0.0515959644 -0.4236868647 -0.0354674384 0.2969657167
680295920.0 -0.0379874955 0.3077229361 0.0468989392 -0.4243613056 0.046599194 -0.4250138502 -0.0317338908 0.2982841776
685295890.0 -0.0347387256 0.3083611468 0.0423817607 -0.4252197374 0.0422222716 -0.4250850457 -0.0288992434 0.2980244267
690295860.0 -0.0316625904 0.308789101 0.0374995661 -0.4252190069 0.0375200795 -0.4256038731 -0.0258274656 0.2988060394
695295830.0 -0.0286727813 0.309254762 0.0335314011 -0.4257480181 0.0328422547 -0.4258836626 -0.0221649014 0.2992349927
700295800.0 -0.0249640136 0.3095274848 0.0282273219 -0.4259971097 0.0282184986 -0.4258789836 -0.0201800488 0.2998301288
705295770.0 -0.022150045 0.3104344554 0.0237151636 -0.4263137316 0.0240723482 -0.4265083684 -0.0162609144 0.3005128322
710295740.0 -0.0185618281 0.3105904295 0.0194716356 -0.4269598803 0.0194446943 -0.4265086377 -0.0132159165 0.3003155939
715295710.0 -0.0156411744 0.3111436291 0.0150090463 -0.4269452934 0.0141486766 -0.4268496673 -0.0100569528 0.3006440228
720295680.0 -0.0121127999 0.3114425093 0.009999997 -0.4271608704 0.0101296267 -0.4270021116 -0.0067983046 0.3013789954
725295650.0 -0.0088778117 0.3113693954 0.005208742 -0.4269639323 0.0055260833 -0.4271637966 -0.0040777048 0.3016115605
730295620.0 -0.0053946629 0.3119513124 0.0005411515 -0.4269944504 0.0010375846 -0.4268229784 -0.0014196832 0.3014460221
735295590.0 -0.0025630893 0.3119527868 -0.0038900749 -0.4270232913 -0.0038550351 -0.4266135577 0.0020699958 0.3013844697
740295560.0 0.0009785231 0.3120080375 -0.0082361609 -0.4264961182 -0.0087910858 -0.4266955033 0.0057587543 0.301703872
745295530.0 0.0042623861 0.3123086053 -0.0132411142 -0.4263208131 -0.0133997942 -0.4264660544 0.0083092103 0.3015198866
750295500.0 0.0077330642 0.312338926 -0.0176795508 -0.4263390781 -0.0178098158 -0.4266493082 0.0117629171 0.301908538
755295470.0 0.010874055 0.3120231973 -0.0222802599 -0.4260709641 -0.0224458071 -0.4260417312 0.0151881113 0.301228731
760295440.0 0.0138495042 0.312556015 -0.026846267 -0.4261556437 -0.0271134887 -0.4261302011 0.017971181 0.3015004059
765295410.0 0.0171193329 0.3123660074 -0.0315680289 -0.4257076383 -0.0318787297 -0.4257623518 0.0210589129 0.3015808421
770295380.0 0.0200504686 0.3122684465 -0.0361424187 -0.4250972487 -0.036257606 -0.4247328821 0.0241112303 0.3010102602
775295350.0 0.0235219442 0.312038241 -0.0410458485 -0.4246567053 -0.0406282405 -0.4244842104 0.0268987466 0.3013286534
780295320.0 0.0269490566 0.3118582911 -0.045445838 -0.4237944376 -0.0452935352 -0.4239964831 0.0301491679 0.3011322717
785295290.0 0.0298304155 0.3113052319 -0.050117196 -0.4232636072 -0.049816987 -0.4234386399 0.0339243751 0.3005674861
790295260.0 0.0336190921 0.3118606694 -0.0542515218 -0.4230054611 -0.0539146554 -0.4224635515 0.0370895765 0.3006867037
795295230.0 0.036664683 0.3112738747 -0.0588700558 -0.422038282 -0.0588908329 -0.4224796075 0.0405372842 0.300303601
800295200.0 0.039739653 0.3110124771 -0.0639251509 -0.4212209822 -0.0635135351 -0.4210753746 0.0436430867 0.2998540005
805295170.0 0.0433677225 0.3105779838 -0.0681459045 -0.4205090383 -0.0681706485 -0.4210582256 0.046547327 0.2998588598
810295140.0 0.0461423658 0.3101741468 -0.0722369579 -0.4195085809 -0.0726980602 -0.4201663603 0.0499857671 0.2993688671
815295110.0 0.0493845789 0.3098207901 -0.0775675082 -0.41888727 -0.0771111975 -0.4188610215 0.053191798 0.2988619117
820295080.0 0.0525194509 0.3098827379 -0.0817998103 -0.4181332835 -0.0812432936 -0.4180147558 0.0564123412 0.2982647524
825295050.0 0.0565906303 0.3089710304 -0.0856847713 -0.4171942722 -0.0860445955 -0.417074511 0.0595437943 0.298029048
830295020.0 0.0591953805 0.3086883838 -0.0906332801 -0.4160198134 -0.0908869241 -0.4161448098 0.0633759268 0.2976896644
