!Created with skrf (http://scikit-rf.org).
# Hz S RI R 50.0 
!freq ReS11 ImS11 ReS21 ImS21 ReS12 ImS12 ReS22 ImS22
300000.0 -0.2377779423 -0.1064127211 0.4677493414 0.0694814135 0.4722889324 0.0704314816 -0.2378945852 -0.1095741187
5299970.0 -0.2407320261 0.0071286681 0.4752735321 0.0053627247 0.4748090069 0.0056550919 -0.244650866 0.0055531603
10299940.0 -0.2371773561 0.0201324169 0.4770885734 0.0064116192 0.4770282689 0.0066697618 -0.241754121 0.0176186223
15299910.0 -0.2329474529 0.029905945 0.4802775457 0.0078754297 0.4805405978 0.0077058632 -0.2375583835 0.0264090592
20299880.0 -0.2275446577 0.0380215727 0.4851866348 0.0078074508 0.4854736249 0.0083497207 -0.2330458785 0.0339932124
25299850.0 -0.2216332111 0.044384361 0.4903257496 0.0067435673 0.4903572879 0.0069509061 -0.2277220801 0.0402728113
30299820.0 -0.2158180271 0.0495460418 0.4961628221 0.0052145531 0.4955689392 0.0048621915 -0.222624957 0.0448250888
35299790.0 -0.210260043 0.0538876326 0.5012943984 0.0018842464 0.5015811705 0.001703299 -0.2172538515 0.0486502896
40299760.0 -0.2046655886 0.056954534 0.5064108398 -0.0021444002 0.506438461 -0.0023008659 -0.2126412321 0.0520870283
45299730.0 -0.1995371588 0.0599536479 0.5111368112 -0.0072302723 0.511097568 -0.0069284245 -0.2080061648 0.0543314332
50299700.0 -0.1946455087 0.0617140075 0.5148471023 -0.0126809363 0.5150472778 -0.0125875305 -0.2035113821 0.0564470515
55299670.0 -0.1907105638 0.0638945782 0.5185548005 -0.0188696239 0.5189604319 -0.0185686221 -0.1998428383 0.0581927028
60299640.0 -0.1866449702 0.0649117431 0.5217271979 -0.0251575058 0.5219064447 -0.0250432519 -0.1960596478 0.0597096298
65299610.0 -0.1831476217 0.0663212869 0.5251025027 -0.030817183 0.5251962794 -0.0312380682 -0.1928846327 0.0606787288
70299580.0 -0.1795719416 0.0670801041 0.5270240412 -0.0375944063 0.5272780429 -0.037760389 -0.1902723322 0.0615096997
75299550.0 -0.1765455356 0.0681061754 0.5292670055 -0.044666085 0.5292610802 -0.0448676761 -0.1870111879 0.0627920388
80299520.0 -0.1741239191 0.0691080157 0.5316405036 -0.0515626647 0.5311408466 -0.0512883834 -0.1846461281 0.0625297016
85299490.0 -0.1715103367 0.069476668 0.5324589561 -0.0584998748 0.5323872653 -0.058502457 -0.1827694966 0.0635042945
90299460.0 -0.1693333897 0.0703434077 0.5336264527 -0.0653370458 0.533455768 -0.0654248167 -0.1801749204 0.0645039115
95299430.0 -0.167238673 0.0710969759 0.5343811304 -0.072364577 0.5344798285 -0.0722387022 -0.17874279 0.0650725741
100299400.0 -0.1653631425 0.0716630392 0.5344412061 -0.078968076 0.5344502784 -0.0792635983 -0.1769841826 0.0655411302
105299370.0 -0.1633222386 0.0722454682 0.5351875837 -0.0857459606 0.535183814 -0.0862128735 -0.1749160523 0.0661998418
110299340.0 -0.1619943101 0.0731137699 0.5350480275 -0.0927138171 0.5350241396 -0.092890845 -0.1735877207 0.0668423606
115299310.0 -0.1603226774 0.073534039 0.5348673404 -0.0991078225 0.5351648473 -0.0994816754 -0.1719578997 0.0673212058
120299280.0 -0.1592314641 0.0744844671 0.5352236012 -0.1066009434 0.5349717155 -0.1067215194 -0.1710805098 0.0681009836
125299250.0 -0.15786176 0.0752387791 0.5343545915 -0.1128911088 0.5343905699 -0.1133717299 -0.1698219646 0.0686503816
130299220.0 -0.1565672334 0.07611482 0.5340251481 -0.1197595861 0.5340433883 -0.1199262836 -0.1689745718 0.0696555431
135299190.0 -0.1552729483 0.0764781123 0.5332172248 -0.1260238667 0.5330499386 -0.1265289937 -0.1680589627 0.0702003617
140299160.0 -0.1544262212 0.0779462856 0.5326101086 -0.1328548399 0.5325221587 -0.1332696805 -0.1668650649 0.0711008918
145299130.0 -0.1530369614 0.0789650096 0.5317887983 -0.1397642531 0.5315111574 -0.1395160899 -0.166185665 0.0717126305
150299100.0 -0.1520756988 0.0799485689 0.5305773594 -0.1462368387 0.5303716109 -0.1460454912 -0.1652655813 0.0727191516
155299070.0 -0.1512228127 0.0812641048 0.5291273585 -0.1530619503 0.5296196549 -0.1528222219 -0.1646430559 0.0734990682
160299040.0 -0.1500546919 0.0820579393 0.5273996777 -0.1585998163 0.5279032218 -0.1591196532 -0.1636402709 0.0749242261
165299010.0 -0.149429656 0.0833366975 0.5265459346 -0.1656779864 0.526294533 -0.1659126417 -0.1625545716 0.0755197531
170298980.0 -0.1486091425 0.0842459801 0.5242227933 -0.1720239814 0.5247344786 -0.1719932291 -0.162006707 0.0766724155
175298950.0 -0.1472418197 0.0853618595 0.5237976127 -0.1778497601 0.523386998 -0.1780738852 -0.1611150915 0.0776024248
180298920.0 -0.1462532653 0.0865949169 0.521540112 -0.1846801484 0.5215361814 -0.184388982 -0.1602141034 0.078923461
185298890.0 -0.1449577877 0.0878760941 0.5193181423 -0.190723044 0.5197284104 -0.1908248085 -0.1597418885 0.0796180046
190298860.0 -0.1445289041 0.0890239007 0.5176170947 -0.1968414125 0.5179034676 -0.1971836212 -0.1584230899 0.0808825225
195298830.0 -0.1432130975 0.0901504772 0.5156098225 -0.2025580963 0.5158427169 -0.2030951714 -0.1580073261 0.0817481088
200298800.0 -0.1424460767 0.0916524017 0.5138092884 -0.2087068972 0.5136123284 -0.208780566 -0.1566918377 0.0832049655
205298770.0 -0.1418039419 0.0928381537 0.5115499287 -0.2146714091 0.5117108797 -0.2149132535 -0.1563275935 0.0840425053
210298740.0 -0.1408117452 0.0939052895 0.5087764352 -0.2210152267 0.5094807041 -0.2215439511 -0.1556489505 0.0853936521
215298710.0 -0.1398734083 0.0955790262 0.5071100671 -0.2268530231 0.5071641595 -0.2270440197 -0.1553204784 0.0868722206
220298680.0 -0.1389635722 0.0968865319 0.5043370116 -0.2328620889 0.5046193722 -0.2327825862 -0.1540995244 0.0881380654
225298650.0 -0.137392896 0.0983998011 0.5015212829 -0.2384398773 0.5019080287 -0.238592331 -0.1535878063 0.0893194348
230298620.0 -0.1369932938 0.099858691 0.4997814477 -0.2444273946 0.499875891 -0.2445003081 -0.1525416855 0.0905078442
235298590.0 -0.1359845638 0.1008729212 0.4968289148 -0.2500283995 0.4972424525 -0.2504652354 -0.1518234796 0.0916011914
240298560.0 -0.135225876 0.1026145157 0.4944003584 -0.255896291 0.4944249584 -0.2554204932 -0.1509317914 0.0929474242
245298530.0 -0.1337162041 0.1038009486 0.4909675626 -0.2615784894 0.4912080562 -0.2618886988 -0.150182676 0.0946397524
250298500.0 -0.133045829 0.1050318716 0.4886561101 -0.2667703515 0.4888413145 -0.266442903 -0.1487998703 0.0956646857
255298470.0 -0.131917861 0.1067087284 0.4855292902 -0.2728091556 0.4855221833 -0.2729417228 -0.1482736941 0.0968858676
260298440.0 -0.1309312227 0.1079344771 0.4830883569 -0.2779089479 0.4826660677 -0.2785790318 -0.1470307263 0.0982553805
265298410.0 -0.1294485055 0.1098367955 0.4795991945 -0.2843502221 0.4793098005 -0.2839841525 -0.1466367557 0.0994893028
270298380.0 -0.1282807066 0.1111917702 0.4762621978 -0.289642728 0.4768436897 -0.2895718233 -0.1455673524 0.1012516011
275298350.0 -0.1273112788 0.112567607 0.4735275319 -0.2951322383 0.4733337419 -0.2950404887 -0.1441494391 0.1024367965
280298320.0 -0.1261537079 0.1138712327 0.4702739575 -0.2997237579 0.4702207206 -0.3002397134 -0.1433165594 0.1036416862
285298290.0 -0.1250661815 0.1154512131 0.466626903 -0.3051954989 0.4670719746 -0.3054668012 -0.1429558914 0.1051255856
290298260.0 -0.1236469174 0.1169333133 0.4635834931 -0.3111180208 0.4635247295 -0.3106691291 -0.141355569 0.1067036904
295298230.0 -0.1225515594 0.1179757533 0.460636991 -0.3159106616 0.4601694508 -0.3162045574 -0.1401087036 0.1079565178
300298200.0 -0.120933975 0.1193211676 0.4566073404 -0.3210990066 0.4572109709 -0.3214883318 -0.1395422679 0.1092577971
305298170.0 -0.1195684717 0.1207065904 0.453446753 -0.3267705647 0.4536317779 -0.3268110845 -0.137979202 0.1107069392
310298140.0 -0.1180817988 0.1217955214 0.4501330483 -0.3319400353 0.4498421592 -0.3320477647 -0.137388538 0.1123296054
315298110.0 -0.1170992574 0.1232058213 0.4460960754 -0.3369242533 0.4463060174 -0.3367955409 -0.1356575811 0.1132865631
320298080.0 -0.1159062516 0.1245634005 0.4425051719 -0.3420461872 0.4425115378 -0.3422803945 -0.1348908555 0.114623324
325298050.0 -0.1148054352 0.1255406878 0.4391464688 -0.3472208378 0.4385033754 -0.347529602 -0.1338600917 0.1156872791
330298020.0 -0.1136419629 0.1269067659 0.4341351014 -0.3520440603 0.434207821 -0.3520509164 -0.1331475561 0.1169204494
335297990.0 -0.1121997027 0.1280415159 0.430615884 -0.3571737256 0.4305611247 -0.3569603579 -0.1321732192 0.1184797437
340297960.0 -0.1114689745 0.1296237711 0.4262821612 -0.3619155297 0.4264754104 -0.3616477975 -0.1312432764 0.1199227804
345297930.0 -0.1100976012 0.1311355258 0.4223531103 -0.3660001103 0.4218514001 -0.3665053945 -0.1297885766 0.1208547969
350297900.0 -0.1084586357 0.1324581876 0.4181569573 -0.3705424278 0.418333443 -0.3711635161 -0.1288630384 0.1226462453
355297870.0 -0.1071208425 0.133612458 0.4136637206 -0.3755153449 0.4138351842 -0.3756708677 -0.128340058 0.1240374215
360297840.0 -0.1056602041 0.135225234 0.410136467 -0.3805419066 0.410026132 -0.3801299713 -0.1268041646 0.1257416363
365297810.0 -0.1040984567 0.1363552096 0.4056391162 -0.3846658523 0.4056104974 -0.3847490449 -0.1253873633 0.1269700613
370297780.0 -0.1027903111 0.1376014578 0.4013343559 -0.3891570993 0.4015795487 -0.389440506 -0.1243003097 0.1286161241
375297750.0 -0.1012425036 0.1393063504 0.3974378772 -0.3936215588 0.3973065685 -0.3937853591 -0.1230787855 0.1303827222
380297720.0 -0.0997850408 0.1401153187 0.3929423478 -0.3972536836 0.3923616112 -0.3977214903 -0.1217564126 0.1315910198
385297690.0 -0.0983645539 0.1416056715 0.3885322188 -0.4018743141 0.3881089658 -0.4020909529 -0.1205824309 0.1328132353
390297660.0 -0.0967008812 0.1427831794 0.3838392709 -0.406084863 0.3840061428 -0.4068820505 -0.1192227121 0.1342722702
395297630.0 -0.0948492931 0.1437136431 0.379427122 -0.4100590683 0.3793480431 -0.410665472 -0.1182190243 0.1358052461
400297600.0 -0.0936940216 0.1453812726 0.3752044999 -0.414605383 0.3751847231 -0.4152530054 -0.1171976721 0.1366809241
405297570.0 -0.0916399818 0.1464611299 0.3704678838 -0.4190490367 0.3705005497 -0.4189612315 -0.1157384487 0.1387245011
410297540.0 -0.0900039769 0.1473465966 0.3653112068 -0.4227574957 0.3656235867 -0.4229617847 -0.1142420689 0.1395741567
415297510.0 -0.0886055989 0.1488373192 0.3611944608 -0.4264671186 0.3612707265 -0.4270155869 -0.113328377 0.1413189804
420297480.0 -0.0867702962 0.1495026535 0.3560192684 -0.4311671851 0.356410937 -0.4308718118 -0.1113779577 0.141945367
425297450.0 -0.0848969392 0.1506469651 0.3515943947 -0.434607902 0.3517387663 -0.4346934857 -0.1101520545 0.1436894422
430297420.0 -0.0836978705 0.1521215674 0.3470968873 -0.4387454864 0.3468936168 -0.4384729226 -0.1091372857 0.1447137015
435297390.0 -0.0816808895 0.152837261 0.3422758905 -0.4421552536 0.342382154 -0.4419566341 -0.1075326831 0.1465413527
440297360.0 -0.0800705999 0.1539988744 0.337200703 -0.4458537364 0.3368784723 -0.4457606821 -0.1064008788 0.1471441045
445297330.0 -0.0782958272 0.1552207413 0.331782758 -0.4499189269 0.3322688182 -0.4496511075 -0.104976143 0.1486887856
450297300.0 -0.0764705519 0.1560042183 0.3273562411 -0.4530539749 0.3272978401 -0.4533949452 -0.1035880725 0.1498104199
455297270.0 -0.0749616452 0.1570126305 0.3226722345 -0.4565682945 0.3227694207 -0.4568948081 -0.1020394722 0.1510899801
460297240.0 -0.0733213292 0.1580859219 0.3173647653 -0.4597430459 0.3169211488 -0.4605660476 -0.1003586069 0.1526073055
465297210.0 -0.0710011418 0.1587473612 0.3126311095 -0.463650377 0.3125889435 -0.4636288273 -0.0993870318 0.1532962804
470297180.0 -0.0696615545 0.159668773 0.3071860915 -0.4663654424 0.307629394 -0.4669660652 -0.098325376 0.1546009719
475297150.0 -0.0678954344 0.1601950608 0.3018736403 -0.4697880453 0.3022240395 -0.4698645748 -0.0962286283 0.1559410898
480297120.0 -0.0658398161 0.1611417464 0.2968538002 -0.4731712556 0.2974133944 -0.4733694153 -0.0948065126 0.1574477981
485297090.0 -0.0641433104 0.1622054411 0.2919271453 -0.4765205728 0.2921500035 -0.4764559564 -0.0936050564 0.1577693224
490297060.0 -0.0621627017 0.1630214458 0.2865860562 -0.479924266 0.2866569798 -0.4797879327 -0.0917734826 0.1592547944
495297030.0 -0.060683561 0.1641988963 0.2811507513 -0.4829640896 0.281203083 -0.4832975562 -0.0906459623 0.1602652817
500297000.0 -0.0585524908 0.1645995896 0.2759552122 -0.4861345042 0.2760340213 -0.4858422268 -0.08916719 0.1614072641
505296970.0 -0.056909876 0.1655102256 0.2702055887 -0.4885034593 0.2705991545 -0.4886179499 -0.0881573926 0.1626372461
510296940.0 -0.0550017808 0.1661888201 0.2655174209 -0.491629066 0.2653414916 -0.491411198 -0.0857017764 0.16364892
515296910.0 -0.0533726603 0.1671269006 0.2600725529 -0.4942177477 0.2603103223 -0.4947067551 -0.0847185303 0.1643099167
520296880.0 -0.0512165081 0.1676755841 0.2544129564 -0.4972925379 0.2544362093 -0.4969530257 -0.0830309065 0.1658705953
525296850.0 -0.0494505718 0.1684518225 0.2492802266 -0.499703018 0.2489503707 -0.500064499 -0.0809558142 0.1664435667
530296820.0 -0.0476104971 0.1689457741 0.2439501331 -0.5020768128 0.2437275463 -0.5025805427 -0.0800183309 0.1670496139
535296790.0 -0.0456742272 0.1697951725 0.2377791244 -0.5048348218 0.2383270169 -0.505095118 -0.078439381 0.1682365599
540296760.0 -0.0437675054 0.1700056924 0.2327573934 -0.5077228422 0.2324462939 -0.5080646119 -0.0771035787 0.1693112732
545296730.0 -0.0418852088 0.1707498559 0.2270449621 -0.5099595329 0.2271656979 -0.5102242229 -0.0754892196 0.1699128681
550296700.0 -0.0406126842 0.1714495271 0.2218693266 -0.5123639468 0.2222054775 -0.5125404247 -0.073931611 0.1712356462
555296670.0 -0.0379602082 0.171818483 0.2161987151 -0.5147461169 0.2160868081 -0.5145440242 -0.0723732456 0.1722138302
560296640.0 -0.036214998 0.1723381154 0.2103870214 -0.5167883305 0.2107033058 -0.516944721 -0.0706263994 0.1729704479
565296610.0 -0.0344600675 0.1729710572 0.2049659509 -0.5194330112 0.2048494579 -0.5196120449 -0.0692343578 0.1737104023
570296580.0 -0.0321337119 0.1733937269 0.1992401935 -0.5211779476 0.1997427406 -0.5219622295 -0.0674503441 0.1751647386
575296550.0 -0.0302591591 0.1743287054 0.19368987 -0.5229597946 0.1939277506 -0.5231821511 -0.0652967078 0.1751591275
580296520.0 -0.0284362779 0.1747377483 0.1879024459 -0.5255438569 0.1877364132 -0.5254154902 -0.064064832 0.1759454263
585296490.0 -0.0262903586 0.1746374675 0.1825545068 -0.5272385619 0.182214966 -0.5275431634 -0.0626592769 0.1767350557
590296460.0 -0.0248802254 0.1750644689 0.1764209594 -0.529330431 0.1760778335 -0.5297337733 -0.0606680199 0.1778481004
595296430.0 -0.0226432067 0.1758044349 0.1708218649 -0.5312122067 0.1707297084 -0.5314542955 -0.0588571911 0.1782546374
600296400.0 -0.0207448644 0.1763134501 0.1649154044 -0.5329927013 0.1654419003 -0.5333361878 -0.057579858 0.1794180856
605296370.0 -0.0186705433 0.1765705074 0.1595941875 -0.5350701305 0.1592722825 -0.5346892127 -0.0556539921 0.1795701795
610296340.0 -0.0169761391 0.1769699106 0.1537822236 -0.5365281605 0.1538719573 -0.5367131637 -0.0540375463 0.1808059388
615296310.0 -0.0147582731 0.1775187112 0.1476924928 -0.5379528121 0.1476324222 -0.5380486263 -0.0522273231 0.1812878261
620296280.0 -0.0127746644 0.1774658084 0.1421745514 -0.5392845036 0.1417738891 -0.5396535478 -0.0505554226 0.1812114634
625296250.0 -0.0106612173 0.1779039798 0.1359049104 -0.5411647318 0.1359909432 -0.5413501491 -0.0487674991 0.1825084906
630296220.0 -0.0088522334 0.1782205018 0.1297708296 -0.5427749361 0.1306039849 -0.5427432088 -0.0473565842 0.1834725769
635296190.0 -0.0067989402 0.1782531572 0.1241737392 -0.5433235088 0.1242062652 -0.5436010065 -0.0457050825 0.1837088922
640296160.0 -0.0049266022 0.1785710335 0.118414919 -0.5451813784 0.1185786115 -0.5450149533 -0.0434893777 0.1842592387
645296130.0 -0.0029449247 0.1789830556 0.1122093378 -0.5465672132 0.1126699442 -0.5464351145 -0.0425708046 0.1843817606
650296100.0 -0.0011713586 0.179418742 0.1073203294 -0.5471566178 0.1069992958 -0.5473960402 -0.0403801351 0.1852095671
655296070.0 0.0010193998 0.1789761517 0.1007545685 -0.5482734863 0.1004847767 -0.5486070804 -0.0382418397 0.1859659792
660296040.0 0.0025748034 0.1798335247 0.0953347109 -0.549526456 0.0950056678 -0.5495443043 -0.0367518379 0.1862075382
665296010.0 0.0049230842 0.1793761876 0.0892780241 -0.5506921555 0.0893648759 -0.5506622608 -0.0352205914 0.1869822009
670295980.0 0.0072244815 0.1796472044 0.0828096091 -0.5513404075 0.0833346027 -0.5512129633 -0.0333589829 0.1869494032
675295950.0 0.0091246953 0.1797163976 0.0772398573 -0.552144997 0.0772928569 -0.5525736172 -0.0314047022 0.1878840556
680295920.0 0.0111784143 0.180023559 0.0707911711 -0.5530482891 0.0710643593 -0.5528737179 -0.0294339338 0.1881887133
685295890.0 0.0132395203 0.180087989 0.06532497 -0.553900914 0.0651910816 -0.5541745977 -0.0279156844 0.1887171536
690295860.0 0.015415241 0.1799436853 0.0590752535 -0.5538206309 0.0587851303 -0.5541670097 -0.0257771584 0.1892673024
695295830.0 0.0176629311 0.1800006953 0.0524521689 -0.5549533243 0.0526947156 -0.5549530042 -0.0243842374 0.189601565
700295800.0 0.0193557283 0.1799950329 0.0468785135 -0.5554523154 0.046939185 -0.5557487267 -0.0224796993 0.1893559364
705295770.0 0.0213808335 0.179794082 0.0414381463 -0.5558103964 0.0410864908 -0.555677695 -0.0207406204 0.1900752604
710295740.0 0.0231464396 0.1797690937 0.0352023919 -0.5558353904 0.0351258831 -0.5560014386 -0.0193924388 0.1906041583
715295710.0 0.0253040699 0.1797439384 0.0291603408 -0.5563977788 0.0295137943 -0.5564547391 -0.0169827733 0.1903074554
720295680.0 0.027104807 0.1794043501 0.0231435579 -0.5569674555 0.0233599445 -0.5572834307 -0.0147554697 0.1912300363
725295650.0 0.0296039423 0.1792397119 0.0167409646 -0.5568705983 0.0172576457 -0.5569254469 -0.0132856529 0.1914153867
730295620.0 0.0309904404 0.1789918475 0.0109837647 -0.5568952675 0.0111661685 -0.5573154265 -0.011478501 0.1911967726
735295590.0 0.0338063623 0.1786479853 0.0052020142 -0.5569188947 0.0051036505 -0.5573557508 -0.0094341926 0.1917842111
740295560.0 0.0353601709 0.1789263357 -0.0013005908 -0.5570585454 -0.0007270628 -0.5569029599 -0.0075567685 0.1919208572
745295530.0 0.0374438323 0.1785195456 -0.0069809244 -0.5572360373 -0.0068238188 -0.5571490464 -0.0057697856 0.1924366886
750295500.0 0.0392594735 0.1781659945 -0.0128521099 -0.5569161465 -0.012946353 -0.5570355326 -0.0038686806 0.1923033858
755295470.0 0.0416111668 0.1780008866 -0.0188414549 -0.5565165854 -0.0187903049 -0.5568188171 -0.002528373 0.1926783274
760295440.0 0.0433680268 0.1777776017 -0.0249492195 -0.5562633814 -0.0249887427 -0.5562604743 -0.0007313837 0.1926207943
765295410.0 0.0452836922 0.1770178532 -0.0304650523 -0.5558221471 -0.0310813038 -0.5563255043 0.002035464 0.1933129406
770295380.0 0.0477949645 0.1768561859 -0.0370787393 -0.5554802269 -0.0369860664 -0.5561119967 0.0040031897 0.1934295681
775295350.0 0.0494464687 0.1768219999 -0.0428829713 -0.5552752873 -0.0427650416 -0.5550284846 0.0052242218 0.1928737523
780295320.0 0.0516474445 0.1760057223 -0.0485977145 -0.5548219 -0.0483807772 -0.5549188273 0.0073313533 0.1935224596
785295290.0 0.0534396456 0.1759724349 -0.0547861614 -0.5536108718 -0.0546411145 -0.5541289142 0.0087037494 0.1933786687
790295260.0 0.0552094223 0.1753300865 -0.0608423503 -0.5536409176 -0.0605963367 -0.5536025261 0.0111618334 0.1932399454
795295230.0 0.0573514106 0.1748139455 -0.066470794 -0.5524744181 -0.0663440047 -0.5526022683 0.0126295801 0.1941738835
800295200.0 0.0595590321 0.1746755882 -0.0732972724 -0.5521675239 -0.0727022845 -0.5524044408 0.0144065842 0.1936585024
805295170.0 0.0612507804 0.173834223 -0.078728543 -0.5508196593 -0.0785601867 -0.551117555 0.0162894377 0.1933315806
810295140.0 0.063068487 0.1735777368 -0.0842361897 -0.5501320349 -0.0843968528 -0.5506614797 0.0183432708 0.193818067
815295110.0 0.0653639763 0.1731101694 -0.090742934 -0.5492161548 -0.0904819034 -0.5490467757 0.0201600759 0.1934788838
820295080.0 0.0670855576 0.1721792294 -0.0960507721 -0.5484986581 -0.0960217844 -0.5484257507 0.0220256621 0.1934050808
825295050.0 0.0692236896 0.1714405156 -0.1021969044 -0.5467896816 -0.1020889747 -0.5467265027 0.0241342905 0.1936194867
830295020.0 0.0711803094 0.1713880357 -0.108007975 -0.5460104612 -0.1081571283 -0.5462236185 0.025835418 0.1935807224
