!Created with skrf (http://scikit-rf.org).
# Hz S RI R 50.0 
!freq ReS11 ImS11 ReS21 ImS21 ReS12 ImS12 ReS22 ImS22
300000.0 -0.3183654501 -0.1063346278 0.3722809395 0.0525915043 0.3741291456 0.0570814094 -0.3159533683 -0.1149149881
5299970.0 -0.3237432932 0.0047667216 0.378428655 0.0026415728 0.3788066464 0.0030792982 -0.3262282616 0.0029089367
10299940.0 -0.3211511119 0.0158457799 0.3798242676 0.0021267006 0.379823224 0.0024627339 -0.3243503148 0.0125588646
15299910.0 -0.3179497677 0.0233681231 0.3819517249 0.0022181714 0.3820444176 0.0026908312 -0.3215969139 0.019687604
20299880.0 -0.3142332493 0.0300296461 0.3850508861 0.0018752131 0.385147036 0.0016055166 -0.3188032353 0.0260008077
25299850.0 -0.310603271 0.0355377601 0.3885878143 0.0001137785 0.3884183895 -1.79701e-05 -0.3155575055 0.0309521593
30299820.0 -0.3068335443 0.0402452622 0.3920508644 -0.0021949791 0.3916396329 -0.0021413926 -0.3129501959 0.0354318838
35299790.0 -0.3028104257 0.0448643633 0.394915486 -0.0053625818 0.3950812104 -0.0050691083 -0.3096842434 0.0394079069
40299760.0 -0.2996686545 0.0480436808 0.3982405322 -0.0084895303 0.3983967639 -0.0088728953 -0.3071719508 0.0431046934
45299730.0 -0.2966298386 0.0515640724 0.4016116624 -0.012978127 0.4014366752 -0.0126696423 -0.3048369822 0.0459439891
50299700.0 -0.293221719 0.054064172 0.4033429602 -0.017195093 0.4036645622 -0.01734107 -0.3021535769 0.048930192
55299670.0 -0.2909997291 0.0569336944 0.4054501002 -0.0219056235 0.4059341283 -0.0220375109 -0.3005658643 0.051870417
60299640.0 -0.2882415668 0.0589023544 0.4074529931 -0.0267372318 0.4076967888 -0.0269458105 -0.2983139537 0.0546297184
65299610.0 -0.2862636954 0.0615020012 0.4094911627 -0.0315890581 0.4095575532 -0.0317588974 -0.2962918859 0.0572081315
70299580.0 -0.2837101664 0.0636011592 0.4103010585 -0.0365133587 0.4108590221 -0.0370655619 -0.2946226088 0.0596103634
75299550.0 -0.2819307832 0.0658176556 0.4114651554 -0.0421765393 0.4116601124 -0.0419994332 -0.2930524099 0.0619507328
80299520.0 -0.2800445726 0.0679339505 0.4125267548 -0.047224046 0.4127412106 -0.0475472215 -0.2915519703 0.0640137436
85299490.0 -0.2786734603 0.0697692602 0.4128636528 -0.0525553006 0.4130704227 -0.0526581743 -0.2903851119 0.0662702075
90299460.0 -0.2770979569 0.0721478569 0.4134527358 -0.0576583564 0.4137976214 -0.0579479956 -0.2888675488 0.0688518261
95299430.0 -0.2756716261 0.0740898337 0.4139505763 -0.0634744235 0.4140693741 -0.0630676828 -0.2876774765 0.0711714949
100299400.0 -0.2745509641 0.0764008153 0.413696669 -0.0680986103 0.4137680597 -0.068349078 -0.2865122126 0.0733000693
105299370.0 -0.2729853943 0.0785404282 0.4134682379 -0.0734078 0.4135675043 -0.0736780992 -0.2851188988 0.0756491413
110299340.0 -0.2718396658 0.08053407 0.4132743151 -0.0785461193 0.4134836851 -0.0787092359 -0.2844289879 0.0780144705
115299310.0 -0.2707539374 0.0824004638 0.4131797372 -0.0834642331 0.4133365642 -0.0835583164 -0.2830990203 0.0798528393
120299280.0 -0.2696901805 0.0848248785 0.4129919367 -0.0889386886 0.413287411 -0.0890113697 -0.2827775317 0.0824841736
125299250.0 -0.2687738111 0.0869008384 0.412285148 -0.0941721459 0.4123556661 -0.0941677878 -0.2815227711 0.0846939195
130299220.0 -0.2677524007 0.0890308073 0.4116996202 -0.0985570081 0.4117527733 -0.0991134187 -0.2807000431 0.0875060929
135299190.0 -0.2666678423 0.0910962157 0.4106445655 -0.1039011992 0.4105872799 -0.1041763845 -0.2797167467 0.0898633573
140299160.0 -0.2658558349 0.0937296168 0.4101547765 -0.1092142228 0.4104460353 -0.1090740251 -0.2786756293 0.0920254955
145299130.0 -0.2649900892 0.0959142922 0.4095836357 -0.114030233 0.4093106704 -0.1138751252 -0.2781416695 0.0943892676
150299100.0 -0.2639609177 0.0978591465 0.4082261804 -0.1190032696 0.4081297587 -0.1187670383 -0.276901883 0.0967736944
155299070.0 -0.2629904988 0.1007383009 0.4072176593 -0.1240636158 0.4072810309 -0.1243358192 -0.2761458698 0.0994664033
160299040.0 -0.2618585412 0.1030123009 0.405903288 -0.1282228564 0.4058315617 -0.1289098622 -0.2753651473 0.1026208017
165299010.0 -0.2613346124 0.1053539503 0.4049412248 -0.1338465911 0.4047365987 -0.1335315738 -0.274277731 0.1042112026
170298980.0 -0.2603376008 0.107826217 0.4029620844 -0.1381139499 0.4033300981 -0.1383439501 -0.2732169057 0.1072208218
175298950.0 -0.2591294991 0.1105603349 0.4019573275 -0.1429561282 0.4021983397 -0.1431600424 -0.272197513 0.1096558853
180298920.0 -0.2578490601 0.1128591355 0.4003071161 -0.1482266488 0.4006868366 -0.1480102077 -0.2711746239 0.1123982571
185298890.0 -0.2568395326 0.1153557579 0.3987454181 -0.1528249702 0.3992695211 -0.15256848 -0.2706643585 0.114735023
190298860.0 -0.255871818 0.1177376792 0.3971671537 -0.1573066744 0.3976152456 -0.1571605892 -0.2687562796 0.1176236938
195298830.0 -0.2546400513 0.1200059179 0.3955583237 -0.1618153062 0.3960879039 -0.1620969565 -0.2682562383 0.1200723688
200298800.0 -0.2538151244 0.1230497718 0.3944094271 -0.1664207532 0.3938295144 -0.1663526307 -0.2665738019 0.122967468
205298770.0 -0.2526736231 0.1253560422 0.3924018756 -0.1710043015 0.3923475501 -0.1712130569 -0.2657139404 0.1255819917
210298740.0 -0.2517406207 0.1276657104 0.390824573 -0.1758419595 0.3906928415 -0.1761852989 -0.264832227 0.1285483194
215298710.0 -0.2501453851 0.1303851522 0.38822975 -0.1799899541 0.3883869435 -0.1800000467 -0.2637529028 0.1307117696
220298680.0 -0.249150702 0.1329576723 0.3863647592 -0.1848692075 0.38650787 -0.1847561693 -0.2617756575 0.1336180241
225298650.0 -0.2478164541 0.1355303842 0.384546081 -0.1889947211 0.3844455747 -0.1889252651 -0.2611333092 0.1362765903
230298620.0 -0.2469036722 0.1380260108 0.3825881355 -0.1933892812 0.3827684591 -0.1935059012 -0.2598019374 0.1389354588
235298590.0 -0.2453717445 0.1407255514 0.3804834076 -0.1979653051 0.3807377624 -0.1982733663 -0.2584846243 0.1414925285
240298560.0 -0.244576538 0.1433190819 0.3786718691 -0.2021237262 0.3782869718 -0.2020167383 -0.2571966469 0.1444160882
245298530.0 -0.2424664247 0.1459068832 0.3755174942 -0.2068022598 0.3761908608 -0.2068008357 -0.2556958139 0.1472950836
250298500.0 -0.2414706264 0.148158401 0.3737804805 -0.2105868179 0.373771837 -0.2102770151 -0.2537876666 0.1500186842
255298470.0 -0.240135507 0.1511202635 0.3711864811 -0.2151950404 0.371412331 -0.2150074963 -0.252655404 0.1522466065
260298440.0 -0.2384729246 0.1535183971 0.3690751576 -0.2192612686 0.3690575413 -0.2194813076 -0.2513245499 0.1549472368
265298410.0 -0.237299787 0.1562262934 0.36648176 -0.2237449253 0.3666802346 -0.223396398 -0.2497848663 0.1576788549
270298380.0 -0.2356240381 0.1585009836 0.3635339111 -0.2273906466 0.3642130594 -0.2277715049 -0.2478936719 0.1606468823
275298350.0 -0.2339595429 0.1609980711 0.3615866259 -0.2318588463 0.3617250099 -0.2318810907 -0.2463436978 0.1631323785
280298320.0 -0.2324895319 0.1637769443 0.3589137027 -0.2354671646 0.3588926586 -0.2360916107 -0.2447796367 0.1657820752
285298290.0 -0.2308355167 0.1664909341 0.3562012063 -0.2399360258 0.3563774932 -0.239916887 -0.243259597 0.1682851951
290298260.0 -0.2293813869 0.1687928185 0.3540780128 -0.2438400436 0.3538760985 -0.243959538 -0.2413896346 0.1713739447
295298230.0 -0.2278771381 0.1714241917 0.3516403347 -0.2480405116 0.3510009094 -0.2481132726 -0.239595644 0.1737629038
300298200.0 -0.2258845258 0.1737593233 0.3483912944 -0.251740942 0.348361499 -0.2520758953 -0.2378389515 0.176356435
305298170.0 -0.223953126 0.1763732602 0.3457668734 -0.2560963614 0.3460068166 -0.2563369158 -0.2355941489 0.1792697249
310298140.0 -0.2220255327 0.1785046721 0.3430852423 -0.2602276501 0.3430768108 -0.2604901381 -0.234214283 0.1823730799
315298110.0 -0.2206306742 0.180730615 0.3400507689 -0.2636313721 0.3402166247 -0.2635907316 -0.231893022 0.1845324605
320298080.0 -0.2189505958 0.1834420625 0.3371283648 -0.2677683828 0.3369126588 -0.2675131508 -0.2301407297 0.1870030152
325298050.0 -0.217107751 0.1855020485 0.3340803144 -0.2717367639 0.3340093107 -0.271530614 -0.2282292821 0.1892789032
330298020.0 -0.2151917433 0.1880561398 0.3304788375 -0.2753152346 0.3308342527 -0.2752905829 -0.2263982239 0.1917518068
335297990.0 -0.2131649668 0.1903417463 0.3275080025 -0.2791675418 0.3276426132 -0.2790962252 -0.2245311818 0.1946467353
340297960.0 -0.2118373216 0.1928323997 0.3242056757 -0.2826430632 0.324605052 -0.2824958259 -0.2229498961 0.1970689361
345297930.0 -0.2101544237 0.1950842629 0.3213094646 -0.2858952898 0.3209940327 -0.2858663368 -0.2209064227 0.1993016284
350297900.0 -0.2076786161 0.1977261999 0.3175944493 -0.2892362929 0.3182131579 -0.2897478148 -0.2189797923 0.2023731045
355297870.0 -0.2059882801 0.1998048823 0.3147362025 -0.2929768431 0.3147839715 -0.2934866052 -0.2167756553 0.2048259658
360297840.0 -0.2038932138 0.2023488237 0.3113916113 -0.2969212126 0.3114268166 -0.296734745 -0.2146286838 0.2072209378
365297810.0 -0.2015423072 0.2044939047 0.3079822146 -0.300326172 0.3081515667 -0.300038781 -0.212486972 0.209683525
370297780.0 -0.1997264569 0.2068089187 0.3046913355 -0.3030677358 0.3047815724 -0.3036717429 -0.2106509114 0.2122853943
375297750.0 -0.1977590782 0.2092865706 0.302050945 -0.3067222207 0.3015448366 -0.307219055 -0.2081906894 0.215036237
380297720.0 -0.1952417928 0.2113351325 0.2977234781 -0.3100782902 0.2979342752 -0.3101964156 -0.2057552943 0.2178956645
385297690.0 -0.1932881236 0.2136561524 0.2945853946 -0.3131333214 0.2944249211 -0.3133868693 -0.2033610935 0.2198257806
390297660.0 -0.1909927026 0.2159406749 0.2907034601 -0.3167384626 0.2909677494 -0.3168025277 -0.2013249371 0.2219669117
395297630.0 -0.1887333192 0.2181804275 0.2876716079 -0.3195540107 0.2877065907 -0.3197868359 -0.1993079113 0.2244986771
400297600.0 -0.1868138734 0.2203547108 0.2842252657 -0.3228083762 0.2840839157 -0.3229955551 -0.1972351986 0.2266114362
405297570.0 -0.1840943089 0.2224815486 0.2803826778 -0.3261280955 0.2803427923 -0.3263675797 -0.1951099099 0.2294272146
410297540.0 -0.1817969615 0.2245562944 0.2762835103 -0.3289904926 0.2766323915 -0.3289981653 -0.1923333615 0.2314903781
415297510.0 -0.1795287884 0.2267319678 0.2728923001 -0.3318743574 0.2733212449 -0.3320651327 -0.1900483692 0.2340174687
420297480.0 -0.1770315955 0.2286111347 0.2693448127 -0.3352722582 0.2692999 -0.3346740822 -0.1875972859 0.2356486264
425297450.0 -0.174823453 0.2306578843 0.2655723793 -0.3382782162 0.2660856122 -0.3378499228 -0.1851108136 0.2381399302
430297420.0 -0.1726332793 0.2325767648 0.2618483111 -0.3407894838 0.2622243255 -0.3407904686 -0.1829501376 0.2402980662
435297390.0 -0.1699453786 0.2350220793 0.2579843063 -0.3436563205 0.2581730338 -0.3432119 -0.1801781698 0.2425494811
440297360.0 -0.1671736681 0.2364356951 0.253786746 -0.3463336007 0.2539226216 -0.3462889535 -0.1775768849 0.2443855959
445297330.0 -0.1647871622 0.2386122388 0.2502819278 -0.3491195803 0.2505577161 -0.3490830848 -0.1751718734 0.2464751202
450297300.0 -0.162422135 0.2403230476 0.2465252519 -0.3517389612 0.2464093656 -0.351936467 -0.1728318658 0.2486854979
455297270.0 -0.1600082038 0.2422038281 0.2432015073 -0.3546365486 0.2430573157 -0.3543297295 -0.1697566648 0.2508818629
460297240.0 -0.1575620575 0.2441819152 0.238789531 -0.3570822699 0.2386478137 -0.3572465502 -0.1673822691 0.2531528423
465297210.0 -0.1548267849 0.2458616647 0.2351428524 -0.3596055302 0.235182505 -0.3595135123 -0.16473168 0.2544659403
470297180.0 -0.1520958454 0.2475253399 0.2308798299 -0.3618881756 0.2312905871 -0.3622494699 -0.1626910872 0.2568125771
475297150.0 -0.1498696311 0.249234927 0.2267543702 -0.3640863408 0.227085256 -0.3641607261 -0.1596307193 0.2584204073
480297120.0 -0.1470477955 0.2506611734 0.2229069924 -0.3664953501 0.2230126687 -0.3671368499 -0.1571180955 0.2610352328
485297090.0 -0.1444518592 0.2527903932 0.2195208051 -0.3696010517 0.2190115832 -0.3692621128 -0.1546432381 0.2619898316
490297060.0 -0.1417587014 0.2542939696 0.2149436566 -0.3716305504 0.2149615888 -0.3716405633 -0.1516747464 0.264205198
495297030.0 -0.1392198794 0.2562389079 0.2107906632 -0.3742690691 0.2105834521 -0.3739983132 -0.1487197101 0.2658244131
500297000.0 -0.1362927685 0.2574587316 0.2064712321 -0.3760630797 0.2065034465 -0.3760058883 -0.1465892024 0.2676833606
505296970.0 -0.1334958176 0.2593114043 0.2018616539 -0.3783480202 0.2023848851 -0.3781491212 -0.1441918864 0.2697379322
510296940.0 -0.1308757294 0.2608362761 0.1982766954 -0.3805033029 0.1983988324 -0.3808031671 -0.1408411867 0.2714031988
515296910.0 -0.1284861003 0.2624680563 0.1941844269 -0.3824689125 0.1942714229 -0.3825258914 -0.1380598854 0.2727342531
520296880.0 -0.1255434865 0.2638020159 0.1901847655 -0.3843642708 0.1897787121 -0.3845063806 -0.1352352879 0.2746080064
525296850.0 -0.1230001696 0.2652966843 0.1855974607 -0.3865948331 0.1856939969 -0.3868634561 -0.1322158035 0.2759889216
530296820.0 -0.1197829314 0.2666415476 0.1814791203 -0.3881607766 0.181463352 -0.3884892156 -0.1298310998 0.2773165098
535296790.0 -0.1171934161 0.2683116513 0.1773111099 -0.3902611196 0.1777915191 -0.3902206876 -0.127213593 0.2788105171
540296760.0 -0.11429395 0.2693790803 0.1727242659 -0.3927190253 0.1728792425 -0.3925664928 -0.1242802581 0.2808772189
545296730.0 -0.111554023 0.2709335113 0.1688286543 -0.3939019411 0.1686554112 -0.3941736414 -0.1212146507 0.2817449779
550296700.0 -0.1085753924 0.2723095503 0.1643240869 -0.3959421617 0.1648795097 -0.3960832271 -0.1186518657 0.2834362442
555296670.0 -0.1055893176 0.27332917 0.1600016211 -0.3976971788 0.1599880711 -0.3975138327 -0.1152761062 0.2849824364
560296640.0 -0.1027789346 0.2746142183 0.1555431001 -0.3992185356 0.1559811943 -0.3990624326 -0.1122754665 0.2864971658
565296610.0 -0.1001981602 0.2758311482 0.1511995892 -0.4006307269 0.1508565705 -0.4010330003 -0.1094291389 0.2878173279
570296580.0 -0.0967652847 0.2770092057 0.1465424473 -0.4024152795 0.1469944048 -0.4026259368 -0.1065657488 0.2895202598
575296550.0 -0.0936896271 0.2785119634 0.1424437133 -0.4037893517 0.142597337 -0.4038572185 -0.1037022677 0.2903947226
580296520.0 -0.0911877288 0.2795023972 0.138288592 -0.4058698561 0.1381051954 -0.4054817101 -0.1007383729 0.2914380721
585296490.0 -0.0879112282 0.280163582 0.1333803387 -0.4068052038 0.1335635639 -0.4071090243 -0.0977770743 0.2924846579
590296460.0 -0.0851720287 0.2813955118 0.1291512389 -0.4082926626 0.1292643104 -0.4084617116 -0.0946510846 0.2937486003
595296430.0 -0.0820505339 0.2828486543 0.1247803633 -0.4094140692 0.1244696578 -0.4097699116 -0.0914385582 0.2947667561
600296400.0 -0.0792470395 0.2836561206 0.1205347348 -0.4111764525 0.1204676333 -0.4112769753 -0.0883936849 0.2962550264
605296370.0 -0.0759977008 0.2846723868 0.1158028611 -0.4124929669 0.1161349608 -0.4121376977 -0.0854776231 0.2972856389
610296340.0 -0.0733410106 0.2855652372 0.1117480866 -0.4134419577 0.1117234131 -0.4134696413 -0.082654711 0.2984326855
615296310.0 -0.0702492185 0.2864384307 0.1068045494 -0.4142112869 0.1069406794 -0.4141810008 -0.0793213793 0.299294322
620296280.0 -0.0669154523 0.287269185 0.1025003045 -0.4151706284 0.1027740925 -0.4156433051 -0.0762375029 0.2998239955
625296250.0 -0.0640570674 0.288349788 0.0974219376 -0.4166441464 0.0981295576 -0.4169731918 -0.0729459201 0.3011293701
630296220.0 -0.0611401515 0.2891491292 0.0935438082 -0.4180142591 0.0937058758 -0.4176421765 -0.070028969 0.3019765807
635296190.0 -0.0579403191 0.2901626653 0.0885300623 -0.4183423485 0.0889662867 -0.417932708 -0.0670862842 0.3030222876
640296160.0 -0.0550010178 0.2903834815 0.0844230386 -0.4192835155 0.084144419 -0.419742462 -0.0635379679 0.3037217633
645296130.0 -0.0520464998 0.2914916828 0.0799096677 -0.4206013612 0.0799263995 -0.4199321508 -0.0611813468 0.304072064
650296100.0 -0.0490163417 0.2923972064 0.0753811204 -0.421256242 0.0752256341 -0.4211193623 -0.0576073115 0.3053845741
655296070.0 -0.0457054756 0.2926607126 0.0704804508 -0.4219170895 0.0705308327 -0.4219712738 -0.053814583 0.3062646401
660296040.0 -0.0431841476 0.2936605137 0.0664327882 -0.4224706559 0.0659924148 -0.4222005658 -0.051186549 0.3065734647
665296010.0 -0.0396861189 0.2938128693 0.0616442006 -0.4232547848 0.0619214915 -0.4233876105 -0.0481398297 0.3077245486
670295980.0 -0.0362355979 0.2944793249 0.0568497808 -0.4237368173 0.0570000638 -0.4237034104 -0.0452096693 0.3080685601
675295950.0 -0.0335082874 0.2946274561 0.0522856647 -0.4241285702 0.0525502893 -0.4246263655 -0.0417070892 0.3087624393
680295920.0 -0.0305538281 0.2957262714 0.0475825533 -0.4248948163 0.0477065405 -0.4249445581 -0.0385997863 0.3093842544
685295890.0 -0.0270040403 0.2961428613 0.0434381077 -0.4252741008 0.042935374 -0.4257939572 -0.035145199 0.3099115958
690295860.0 -0.0237759657 0.2964470463 0.0385597472 -0.425337771 0.0381991304 -0.4253293371 -0.0319423611 0.31035824
695295830.0 -0.0205487621 0.2967289438 0.0331500169 -0.4259977712 0.0336680066 -0.4259943405 -0.0291806661 0.3113277338
700295800.0 -0.017448966 0.2972006942 0.0288861083 -0.4264762768 0.0291208203 -0.4263539772 -0.0255698744 0.3110045303
705295770.0 -0.0141682082 0.2976012209 0.0243321292 -0.4266195077 0.024924491 -0.4268384212 -0.0230445045 0.3118130191
710295740.0 -0.0112022953 0.2978682375 0.0199329125 -0.4266042876 0.0203106514 -0.4267988216 -0.0200733811 0.3125989727
715295710.0 -0.0084683597 0.2983002923 0.0151684294 -0.4269993403 0.0155979479 -0.426925879 -0.0160737576 0.3120759624
720295680.0 -0.005371511 0.2981504362 0.0107250158 -0.426891569 0.0108260664 -0.4273141902 -0.012878045 0.3129261339
725295650.0 -0.0015291158 0.2985240312 0.0058324431 -0.4270289624 0.0062152039 -0.4269604719 -0.0095584794 0.3130539975
730295620.0 0.0010863844 0.2986056988 0.0012728281 -0.4268305925 0.0015398478 -0.4270539868 -0.0061438339 0.3126306382
735295590.0 0.0050148407 0.2985623612 -0.0030700482 -0.4270850873 -0.0030057877 -0.4273000861 -0.002749182 0.3135582326
740295560.0 0.0077060821 0.2989656495 -0.0077182128 -0.4267292632 -0.0078609032 -0.4270630058 0.0002154472 0.3133577111
745295530.0 0.0108184289 0.2988585848 -0.0121640994 -0.4266211294 -0.012383524 -0.427217757 0.0031618563 0.3139226442
750295500.0 0.0141390179 0.298995853 -0.0172016671 -0.4264159241 -0.0173164121 -0.4264745148 0.0068721336 0.3136164907
755295470.0 0.0176836084 0.2992399415 -0.0215757055 -0.4265154608 -0.0213954462 -0.4268803282 0.0096908052 0.3138841527
760295440.0 0.020409746 0.2988161134 -0.0264526362 -0.4258847602 -0.0261053267 -0.4260545496 0.0126892096 0.3139514623
765295410.0 0.0233145985 0.2987977976 -0.0305143634 -0.4257376669 -0.0308904208 -0.4262539738 0.0169743168 0.3143526879
770295380.0 0.0267549839 0.2990440586 -0.0355174439 -0.4252830303 -0.0352209226 -0.4255542561 0.0198131717 0.3139041828
775295350.0 0.029657153 0.298649798 -0.0398658538 -0.4245733689 -0.0399321418 -0.4249007239 0.0227792432 0.3135553015
780295320.0 0.0330925006 0.2982903132 -0.0445466686 -0.4243826212 -0.0445961035 -0.4244735005 0.026017625 0.3139597404
785295290.0 0.0361068844 0.2984887972 -0.0490213814 -0.4233421442 -0.0489470805 -0.4238550343 0.0290165413 0.3137039475
790295260.0 0.0391475252 0.29828339 -0.0536253025 -0.4232914545 -0.0538553014 -0.4234120773 0.0327636239 0.3132854961
795295230.0 0.0425747368 0.2980700765 -0.057898777 -0.4224224548 -0.0579610331 -0.4226157803 0.0359543284 0.3138311329
800295200.0 0.0457139441 0.297710936 -0.0628347766 -0.4217739248 -0.0631493936 -0.4222808831 0.0394462026 0.3128586934
805295170.0 0.0486133543 0.2972161021 -0.067195078 -0.4209120035 -0.0670379996 -0.421231822 0.0421459919 0.3123774279
810295140.0 0.0521019985 0.2967227046 -0.0717257506 -0.4201214217 -0.0719013562 -0.4206619165 0.045620693 0.3124818516
815295110.0 0.0552529919 0.2964264255 -0.0765248479 -0.4192322597 -0.0765208177 -0.419624031 0.0487706458 0.3123623235
820295080.0 0.0584047629 0.2954930084 -0.0808475726 -0.4183908216 -0.0810243701 -0.4189595023 0.051744135 0.3115642751
825295050.0 0.0616845508 0.2954127918 -0.0852799375 -0.4173794751 -0.085722108 -0.4180016527 0.0552893877 0.3115089791
830295020.0 0.0646191988 0.2951302167 -0.0901852201 -0.4165364213 -0.0903241225 -0.4168360083 0.0585087389 0.3106661477
