!Created with skrf (http://scikit-rf.org).
# Hz S RI R 50.0 
!freq ReS11 ImS11 ReS21 ImS21 ReS12 ImS12 ReS22 ImS22
300000.0 -0.0997186488 -0.0855889122 0.6254097788 0.0774104366 0.6253956789 0.0831164021 -0.0963799352 -0.0902763585
5299970.0 -0.1004727886 0.0130470989 0.6307956193 0.0102414139 0.6304672124 0.0107956047 -0.1026375907 0.0121844151
10299940.0 -0.0954403955 0.0297035134 0.6344350603 0.0157379476 0.6344583698 0.0155261152 -0.0972275752 0.0288826544
15299910.0 -0.0883172083 0.043161113 0.6404879088 0.0206865923 0.6399565238 0.0207912935 -0.0900113918 0.0420799743
20299880.0 -0.0795912966 0.0543081871 0.6488814485 0.0243253674 0.6487881901 0.0242749208 -0.0819248963 0.0533489237
25299850.0 -0.0697745254 0.062682733 0.6581101979 0.0253552712 0.6581423698 0.0252782853 -0.07271917 0.0619460018
30299820.0 -0.059660445 0.0690599844 0.6679349972 0.024622225 0.6673482463 0.024705773 -0.0626499944 0.0688275526
35299790.0 -0.0495167367 0.0741470409 0.6774852561 0.0214785183 0.677748809 0.0218267674 -0.0523636653 0.0734535391
40299760.0 -0.0396551037 0.0769583015 0.6864390899 0.0181924545 0.6868673085 0.0176273792 -0.0434353613 0.0768368496
45299730.0 -0.030438651 0.0795329711 0.6959369211 0.011538497 0.6960003744 0.0116722022 -0.0341189951 0.0791136039
50299700.0 -0.0217699318 0.0797202425 0.7031910047 0.0044750673 0.7038276155 0.0045986798 -0.0253058253 0.0799025562
55299670.0 -0.0143052424 0.0799686948 0.710304847 -0.0029318588 0.7109521065 -0.0028560472 -0.017915137 0.0798627997
60299640.0 -0.006565216 0.0789813452 0.7169978524 -0.0117015019 0.7176357798 -0.0114581363 -0.0103602978 0.0796717003
65299610.0 -0.0004061885 0.078029454 0.7235086706 -0.0194859395 0.7238302975 -0.0195180638 -0.0037543114 0.0785260596
70299580.0 0.0059796793 0.0759130701 0.7289107189 -0.0288113924 0.7289074427 -0.0290921575 0.0022346346 0.0770337778
75299550.0 0.0114919124 0.0744097269 0.7325298497 -0.0390239011 0.73302531 -0.0388590329 0.0080787497 0.075573598
80299520.0 0.0161425178 0.0721114655 0.7378098587 -0.0491898191 0.7377112381 -0.049089556 0.012985566 0.072755097
85299490.0 0.0206831674 0.0694817762 0.7405841722 -0.0593972359 0.7406507532 -0.0589825864 0.0174679223 0.0708512655
90299460.0 0.0244254363 0.0674716419 0.7432384811 -0.0687212224 0.7435167974 -0.0690509949 0.0221655435 0.0686018045
95299430.0 0.0281063545 0.0653615084 0.7462768497 -0.0793113515 0.745826794 -0.0789220779 0.0253264994 0.0662181006
100299400.0 0.0313501277 0.0627707761 0.7475167728 -0.0891650745 0.7475080429 -0.0893929856 0.0285306575 0.0639441682
105299370.0 0.0346151514 0.0601570213 0.7483757958 -0.0992609977 0.7491159388 -0.0993259165 0.0317914867 0.0620576535
110299340.0 0.0370365498 0.0577348807 0.7500428009 -0.1088191559 0.750038717 -0.1097283955 0.034714759 0.0593405695
115299310.0 0.0397485195 0.0550282796 0.7508669791 -0.1190152034 0.7514310834 -0.1190191952 0.037162877 0.0560959468
120299280.0 0.0412872215 0.052839619 0.7518227339 -0.129508029 0.751698018 -0.1296144704 0.0391729579 0.0540217927
125299250.0 0.0431567141 0.0501768554 0.7513975914 -0.1388029393 0.752044089 -0.1393629658 0.0414470366 0.0509798378
130299220.0 0.045171998 0.0479931282 0.7513103201 -0.1490066328 0.7518078337 -0.1496646196 0.0434037124 0.0493787593
135299190.0 0.0469435515 0.0456120149 0.7516054006 -0.1583767574 0.7508330753 -0.1587361425 0.0445629946 0.0474732125
140299160.0 0.0477754918 0.0439629284 0.7506099238 -0.168656899 0.750761009 -0.1687626307 0.0463377278 0.0454903639
145299130.0 0.0492755628 0.0418684762 0.7503934548 -0.1783368072 0.7502083399 -0.178492397 0.0472828954 0.0425482467
150299100.0 0.0505911536 0.0399225781 0.7490125694 -0.1882989182 0.7494102792 -0.1881365519 0.0484907093 0.0411270461
155299070.0 0.0511083295 0.0381289975 0.7475478088 -0.1981655665 0.7480520615 -0.1981764688 0.0494880326 0.0385091884
160299040.0 0.052350688 0.0358859423 0.7461981973 -0.2066299447 0.74624461 -0.2072606497 0.0507627209 0.0372646818
165299010.0 0.0529291919 0.0343190453 0.7452578216 -0.2168317406 0.7450055258 -0.2166913007 0.0518306771 0.0348593344
170298980.0 0.0533022798 0.0325672984 0.7423227659 -0.225887148 0.7429417955 -0.2261381172 0.0529448645 0.0329649509
175298950.0 0.0542774474 0.0306040579 0.7421013613 -0.2350621678 0.7414679107 -0.2351254291 0.0533281577 0.0312998497
180298920.0 0.0552298614 0.0293545967 0.7389775344 -0.2448795866 0.7390947138 -0.2442357759 0.0538244874 0.0299721806
185298890.0 0.0559182538 0.0272899679 0.7374465386 -0.2535558134 0.7368502277 -0.2533169574 0.0543523303 0.0280356593
190298860.0 0.0560946287 0.0259319764 0.7341123945 -0.2629896664 0.7345179288 -0.2628145456 0.0554648752 0.0263046685
195298830.0 0.0563804604 0.0238999728 0.7316797519 -0.2715820613 0.7321561759 -0.2724638964 0.0558763516 0.0244310535
200298800.0 0.0571066456 0.0226743917 0.7300217041 -0.2803304017 0.7291815269 -0.2801957657 0.0558940662 0.0233302214
205298770.0 0.0570199443 0.0214499163 0.7270418969 -0.2891577313 0.72661097 -0.2893838704 0.0565157057 0.0210183953
210298740.0 0.0569915952 0.0196693831 0.7241729478 -0.2987975034 0.7236642098 -0.2987309847 0.0567292132 0.0200832772
215298710.0 0.0577341682 0.0185003759 0.7206899909 -0.306979412 0.7208316098 -0.3068135031 0.0569280189 0.0182889808
220298680.0 0.0580775222 0.0172776754 0.7175070531 -0.3161045164 0.7173518292 -0.3156122616 0.0575488552 0.0176030413
225298650.0 0.0583173594 0.0160100705 0.7136891606 -0.3240224008 0.7141242867 -0.3239424135 0.0576904142 0.015819089
230298620.0 0.0581463345 0.0147867504 0.7109713921 -0.3329059554 0.7112796432 -0.3327028298 0.0578924228 0.0146892598
235298590.0 0.0583513972 0.0131297868 0.7074149819 -0.3410865623 0.7073062124 -0.3412212106 0.0581541222 0.0129923228
240298560.0 0.0581014751 0.0121590491 0.7039562619 -0.3492450786 0.703648359 -0.3490859752 0.0579669061 0.0120304859
245298530.0 0.0587064984 0.0114518942 0.6993657972 -0.3575537631 0.6997866425 -0.3580780195 0.0582549556 0.0107766918
250298500.0 0.0582947884 0.0097978359 0.6959469391 -0.3653191986 0.6963912667 -0.3653529875 0.0586804642 0.0092331447
255298470.0 0.058145454 0.0090429453 0.6918707806 -0.3744247635 0.6920964028 -0.3740912105 0.0585854099 0.0075529937
260298440.0 0.0582775527 0.0077350282 0.688022118 -0.3821497674 0.6887397929 -0.3823181491 0.0592750278 0.0071349176
265298410.0 0.0589972552 0.0069688125 0.6841877572 -0.390965954 0.6842866117 -0.3907384113 0.0589418016 0.005596802
270298380.0 0.0591010745 0.0057287235 0.679678269 -0.3981920655 0.6800175245 -0.3986125742 0.0589416422 0.0053756066
275298350.0 0.0583502352 0.0048657565 0.6755116334 -0.4062670747 0.6761205945 -0.4066111227 0.0588566881 0.0038972248
280298320.0 0.0587022822 0.0039679047 0.6707271496 -0.4133553159 0.6713069534 -0.4143154088 0.0593965459 0.0029175109
285298290.0 0.058880783 0.0032787931 0.6667915179 -0.4220023701 0.6666288801 -0.4218582831 0.0587019176 0.0017608563
290298260.0 0.0586967806 0.0018117803 0.6627171636 -0.4297153027 0.6621979821 -0.4295073649 0.059499239 0.0007820047
295298230.0 0.0587423035 0.0006472034 0.6581896512 -0.4372268 0.6577029758 -0.4374510609 0.059597486 -0.0002883106
300298200.0 0.0591970283 -0.0001475134 0.6531075683 -0.445335973 0.6528756654 -0.4455055521 0.0589776166 -0.0013099506
305298170.0 0.0587035632 -0.0012350712 0.6480067061 -0.4530009201 0.6489203047 -0.4531143794 0.059602825 -0.002113562
310298140.0 0.0595494664 -0.0023977945 0.6437112453 -0.4605145882 0.6436497604 -0.4609156857 0.0595252504 -0.0027450488
315298110.0 0.0587328979 -0.0033489094 0.6382264757 -0.4680237316 0.6387518955 -0.4679870856 0.0596689333 -0.0045719431
320298080.0 0.058537588 -0.0043888092 0.6328792004 -0.4754970487 0.6331525617 -0.475605758 0.0593743842 -0.0059526474
325298050.0 0.0583521334 -0.0057920278 0.6282826376 -0.4832067771 0.6284368518 -0.4834366912 0.0589965626 -0.0068531817
330298020.0 0.0579446589 -0.0065316608 0.621350815 -0.4908834642 0.6218019948 -0.4906460196 0.0583633406 -0.0085846073
335297990.0 0.0575134707 -0.0076452225 0.6162169735 -0.4977795222 0.6169410313 -0.4978486427 0.0579321017 -0.0090653036
340297960.0 0.056549391 -0.007981096 0.6104667302 -0.5046214043 0.6111308996 -0.504483549 0.0573712284 -0.0093050821
345297930.0 0.0560333829 -0.0083134543 0.6051658138 -0.5105015509 0.6048956483 -0.5109504288 0.0579397708 -0.0105873611
350297900.0 0.056525642 -0.0093055546 0.5988984273 -0.5176811847 0.599261701 -0.5181690483 0.0568574303 -0.0107972849
355297870.0 0.0560567293 -0.0101193379 0.5930763841 -0.5240858296 0.5933642545 -0.5249598252 0.0563773629 -0.0115173722
360297840.0 0.0560604212 -0.0105218061 0.5877707871 -0.5311509526 0.587444833 -0.5315145322 0.0564131266 -0.0120297696
365297810.0 0.0556074501 -0.0114473472 0.5812919776 -0.5374896282 0.5817341648 -0.537749351 0.0557130189 -0.0124432437
370297780.0 0.0556649126 -0.0122995277 0.575901788 -0.5443665718 0.575867489 -0.5448869802 0.0560621393 -0.0129800209
375297750.0 0.0550875746 -0.0122499778 0.570836 -0.5507979441 0.5697777743 -0.5514573917 0.0556543351 -0.0136221599
380297720.0 0.0549789135 -0.0137853429 0.563486676 -0.5565316657 0.5634076164 -0.5571475873 0.0552225584 -0.0144457537
385297690.0 0.0548700972 -0.0140232078 0.5572023367 -0.5629640611 0.557063572 -0.56342558 0.055062603 -0.0148797745
390297660.0 0.0543389433 -0.0148712595 0.5509834196 -0.5696015163 0.5512003993 -0.5706641363 0.0550548767 -0.0158600405
395297630.0 0.0546744286 -0.0154750342 0.5451703637 -0.5752745701 0.5449671888 -0.575120155 0.0544406459 -0.0157541397
400297600.0 0.0536669989 -0.0159965623 0.5382002907 -0.5822658677 0.5384760132 -0.5822352876 0.0532079699 -0.0172022872
405297570.0 0.0540088547 -0.0166192824 0.5320892058 -0.5878431 0.5322883498 -0.5879472723 0.0536418528 -0.017137386
410297540.0 0.0537266172 -0.017474941 0.5251746025 -0.5932625283 0.5251096712 -0.5935745518 0.0531855675 -0.018048077
415297510.0 0.0532769451 -0.0173179084 0.5190019905 -0.599408595 0.5193652444 -0.59972845 0.0528573912 -0.0180745368
420297480.0 0.0528810156 -0.0189056596 0.5122599532 -0.6050691789 0.5130217636 -0.6054148122 0.0529894728 -0.0191882403
425297450.0 0.0532372367 -0.0196277766 0.5059043972 -0.6108514103 0.5062849193 -0.6109884602 0.0523373532 -0.0190405467
430297420.0 0.0525229513 -0.0199423749 0.4990098409 -0.6170561922 0.4992213068 -0.6173387953 0.0515772892 -0.0205321893
435297390.0 0.0524059157 -0.0208610474 0.4925220341 -0.621607721 0.4927355934 -0.62220195 0.0513039679 -0.0198983782
440297360.0 0.0522478397 -0.0215738257 0.4853014444 -0.6275862002 0.4847805195 -0.6277095747 0.0513205007 -0.0214930351
445297330.0 0.0524590695 -0.0221432291 0.4781541133 -0.6334420073 0.4786354046 -0.6328959779 0.0507010183 -0.0220098016
450297300.0 0.0517817852 -0.022527 0.4712865024 -0.6384699154 0.4716327296 -0.639036015 0.0505018369 -0.0218897895
455297270.0 0.0510568147 -0.0235349885 0.4647734763 -0.6433893354 0.4652279741 -0.6435579902 0.0503989693 -0.0226562737
460297240.0 0.0504227422 -0.0237806843 0.4578424573 -0.6479239499 0.4570568448 -0.6485114293 0.0497005115 -0.022541889
465297210.0 0.0506200242 -0.0248026889 0.4504043158 -0.6537860304 0.4504631635 -0.6541569554 0.0489313157 -0.0236725761
470297180.0 0.0500149479 -0.0251399697 0.4431897895 -0.6587235364 0.4435975881 -0.6588432318 0.0478382075 -0.0240157538
475297150.0 0.0495997519 -0.0263832354 0.4353258694 -0.6631796609 0.4361213995 -0.6634214496 0.0480938928 -0.0246157659
480297120.0 0.0494301337 -0.0267394335 0.4281289526 -0.6679526458 0.4286412482 -0.668347154 0.0475063089 -0.0245232797
485297090.0 0.0494646933 -0.027210462 0.4217995671 -0.6725852216 0.4211188522 -0.6731624905 0.0471766505 -0.0257654797
490297060.0 0.0488053888 -0.0281547334 0.4143613864 -0.6774992611 0.4141847314 -0.6774983353 0.0472749561 -0.0256138399
495297030.0 0.0478555258 -0.0283857855 0.4063458253 -0.6820489339 0.4060717823 -0.6821672877 0.0467461971 -0.0265197182
500297000.0 0.047927857 -0.0292668704 0.3989958592 -0.686841148 0.3988747944 -0.6865985499 0.0453527502 -0.0268505238
505296970.0 0.0471983177 -0.0297353475 0.3909050373 -0.6907590724 0.3906964186 -0.6909867959 0.0448977422 -0.0271569273
510296940.0 0.0466818265 -0.0300568057 0.3836324599 -0.6953152697 0.3840319074 -0.6956241431 0.0453525686 -0.0270490733
515296910.0 0.0462274717 -0.030462938 0.3760788858 -0.698541279 0.37610096 -0.6993746212 0.0442112561 -0.0278933799
520296880.0 0.0459043069 -0.0312981211 0.3682427284 -0.703358436 0.3683875057 -0.703618545 0.0443456973 -0.0283612324
525296850.0 0.0450953643 -0.0321702633 0.3602695588 -0.7077998968 0.3606513607 -0.707954464 0.0438454964 -0.028653763
530296820.0 0.0449654415 -0.0322933024 0.3533239746 -0.7106819445 0.3525846325 -0.711951781 0.0427602132 -0.0300607442
535296790.0 0.0439674236 -0.0328921311 0.34464212 -0.7149014451 0.345292089 -0.7151133643 0.0426899074 -0.0303129299
540296760.0 0.0437727672 -0.033770178 0.33710585 -0.719291538 0.3366830008 -0.7196519774 0.0415815856 -0.0300651752
545296730.0 0.0433408013 -0.0334720641 0.3287550162 -0.7225727255 0.3294358148 -0.7234784665 0.0411852585 -0.0308718851
550296700.0 0.0425937861 -0.0343287299 0.3217438622 -0.7260913769 0.3215067762 -0.7265820205 0.040705449 -0.030415488
555296670.0 0.0424633886 -0.0351862374 0.3132739003 -0.7300466366 0.3135589847 -0.7298418563 0.040067066 -0.0311073965
560296640.0 0.0418715312 -0.035438725 0.3061395551 -0.7332796611 0.3055440272 -0.7329337395 0.0397798796 -0.0316438514
565296610.0 0.0406353337 -0.0359912931 0.2974372223 -0.7364226763 0.2973227396 -0.7362562569 0.0389951618 -0.0319045696
570296580.0 0.0410819621 -0.0366330732 0.2893407352 -0.7396450128 0.2895056171 -0.7401242844 0.0388330425 -0.0316716758
575296550.0 0.0400946973 -0.0361255598 0.2811427259 -0.7423314916 0.2816682863 -0.7427011367 0.0382909343 -0.0327290353
580296520.0 0.0394899324 -0.0370789869 0.2733867366 -0.7460444513 0.272956388 -0.7462204964 0.0374988343 -0.0332966904
585296490.0 0.039274787 -0.037724925 0.2654822549 -0.748786916 0.2651522706 -0.7490820024 0.0369208875 -0.0337885118
590296460.0 0.0380344129 -0.0384449008 0.256806721 -0.7516199342 0.2565017349 -0.7517082179 0.0366170542 -0.033310401
595296430.0 0.0376084707 -0.0382884064 0.2486570845 -0.7539683505 0.2486021438 -0.7548998852 0.0362227908 -0.0339865874
600296400.0 0.0371548893 -0.038456364 0.2402979833 -0.7575560599 0.2409395652 -0.7570383068 0.035268872 -0.0343058325
605296370.0 0.0368156033 -0.0385546339 0.2321946048 -0.7592886512 0.232285986 -0.7597761192 0.0350578601 -0.0347698091
610296340.0 0.035997461 -0.0395057297 0.224061484 -0.7625120889 0.2237304145 -0.7626442358 0.0343872267 -0.0345140131
615296310.0 0.0354993897 -0.0395711201 0.2149525981 -0.7641241931 0.2153182931 -0.7647569318 0.0342420487 -0.0351039956
620296280.0 0.0347916072 -0.0401622444 0.2070235003 -0.7668858887 0.2069355134 -0.7671638334 0.0333436351 -0.0358937142
625296250.0 0.0344766119 -0.0402754661 0.1986018182 -0.7692278048 0.1986542362 -0.7690761111 0.0326683712 -0.035637212
630296220.0 0.033905183 -0.0405460315 0.1897311721 -0.7714805526 0.1909404588 -0.771330077 0.0316960761 -0.0359180041
635296190.0 0.0331733124 -0.0411288165 0.1814849879 -0.7730700788 0.1815047244 -0.7727282421 0.0313483257 -0.0363950267
640296160.0 0.0323008254 -0.0411010426 0.1736948745 -0.7747420692 0.173590324 -0.7753854743 0.0314411566 -0.0365055964
645296130.0 0.032040396 -0.0413656011 0.1651328457 -0.7773264075 0.1646401994 -0.7768711395 0.0295906469 -0.0373032479
650296100.0 0.0309451444 -0.0409304353 0.1572004172 -0.7783169801 0.156972219 -0.7786624901 0.0296287926 -0.0374641704
655296070.0 0.0302893578 -0.0420146649 0.1478505759 -0.7800314296 0.1479749986 -0.7800453348 0.0300753125 -0.0370282421
660296040.0 0.0293055558 -0.0418123492 0.1395589078 -0.7813423197 0.139349273 -0.7816776309 0.0283638155 -0.0380616782
665296010.0 0.0293235749 -0.0425023456 0.1313075918 -0.7831772388 0.1315028598 -0.7833910649 0.0278774453 -0.0372960965
670295980.0 0.0292304148 -0.0424376115 0.1225629379 -0.7846398899 0.1227716848 -0.7848976647 0.0270674883 -0.0382159685
675295950.0 0.0285436861 -0.0424753414 0.1139804781 -0.7857213911 0.1143685221 -0.7865075943 0.0270357524 -0.0379612616
680295920.0 0.0273926823 -0.0424389996 0.1052589011 -0.7874727974 0.1052644582 -0.7873913756 0.0263978994 -0.0383142406
685295890.0 0.0267702829 -0.0429186672 0.097176724 -0.7885255385 0.0965390651 -0.7887097318 0.0257529164 -0.0383511794
690295860.0 0.026711192 -0.0432926979 0.088424164 -0.7889062322 0.0878513465 -0.7886576697 0.0257892733 -0.0382910156
695295830.0 0.0264023407 -0.043585732 0.079052457 -0.7902751344 0.0792117807 -0.7900647371 0.0242037357 -0.0386588905
700295800.0 0.0256401168 -0.043288426 0.0705952403 -0.7907972377 0.0708196159 -0.7912356405 0.0238979071 -0.0394811602
705295770.0 0.0247814702 -0.0436155943 0.0621039153 -0.7917355699 0.0623867516 -0.7917480638 0.0230149649 -0.0392524127
710295740.0 0.0240998432 -0.0434581932 0.0536439502 -0.7918666425 0.0537048064 -0.7922034309 0.0218349459 -0.0390670539
715295710.0 0.0236463481 -0.0439460292 0.0451920233 -0.7927814722 0.0454777091 -0.7931387605 0.0221390325 -0.0402200576
720295680.0 0.0227606233 -0.0441041582 0.036391785 -0.7924930012 0.036536985 -0.7938951726 0.0217512503 -0.0393231971
725295650.0 0.0223038588 -0.044206757 0.0276680732 -0.7932466397 0.0276730228 -0.7932861671 0.0210346626 -0.0391677181
730295620.0 0.0211053547 -0.0445426401 0.0193535365 -0.7939135185 0.019000103 -0.7940778644 0.0205020726 -0.0406920646
735295590.0 0.021414999 -0.0441763651 0.0110507708 -0.7937792669 0.0106175913 -0.7940870326 0.0197972502 -0.0395741591
740295560.0 0.0203592592 -0.0442762805 0.0015361988 -0.7934386539 0.0015311109 -0.7938941071 0.0198311893 -0.0399310635
745295530.0 0.019746795 -0.0448058588 -0.0067056489 -0.7942641581 -0.006528021 -0.7942868906 0.0182191738 -0.0398009884
750295500.0 0.0192479142 -0.0447183776 -0.0151868494 -0.7932719047 -0.0151606213 -0.7936156541 0.0180142502 -0.0405379543
755295470.0 0.0188134616 -0.0445495517 -0.0240151866 -0.7935184716 -0.0236138753 -0.7937970207 0.0168150572 -0.0402295354
760295440.0 0.0178959451 -0.0445531378 -0.0327817256 -0.7931259927 -0.0325516252 -0.7933951747 0.0160388041 -0.0404345468
765295410.0 0.0169234806 -0.0452252768 -0.0402241397 -0.7924634441 -0.0404670917 -0.7929415492 0.0166615256 -0.0397570245
770295380.0 0.0171751302 -0.0449332414 -0.0496382077 -0.7920618177 -0.049745452 -0.7925104744 0.0160533643 -0.0400027819
775295350.0 0.0161933469 -0.0446655984 -0.0580944962 -0.7914952337 -0.0582100924 -0.7918940121 0.0148966982 -0.0408783974
780295320.0 0.0156921266 -0.0449342051 -0.0666046751 -0.7908530419 -0.0663230622 -0.7911607422 0.0145523471 -0.0400224383
785295290.0 0.0146317038 -0.0442791064 -0.0758405697 -0.7893538823 -0.0758509156 -0.7902808775 0.0133591125 -0.040355748
790295260.0 0.0140697943 -0.0444699785 -0.0834886287 -0.7891597664 -0.0840385722 -0.7896046338 0.0135370817 -0.0403488355
795295230.0 0.0132451956 -0.044844773 -0.0919627088 -0.7878742119 -0.092125506 -0.7882225097 0.0125684587 -0.0396979623
800295200.0 0.0130345403 -0.0445841097 -0.1019283862 -0.7872274234 -0.1018547296 -0.7873962063 0.0120637617 -0.040018583
805295170.0 0.0119092773 -0.04455999 -0.109416239 -0.785412009 -0.1098847818 -0.7862993707 0.0110393793 -0.0404821269
810295140.0 0.0115003949 -0.0446816706 -0.1185894835 -0.7845510868 -0.1181111062 -0.7855768379 0.0106060935 -0.039875995
815295110.0 0.0108184319 -0.0442901551 -0.1273746101 -0.7830670648 -0.127218264 -0.7834182974 0.0098257337 -0.0400660062
820295080.0 0.0104211196 -0.0448494786 -0.1358376546 -0.7820718308 -0.1355331542 -0.7825097919 0.0088557701 -0.0398652801
825295050.0 0.0094825716 -0.0448272513 -0.1439346449 -0.7801065569 -0.1435793253 -0.7801600707 0.0091455498 -0.0394607569
830295020.0 0.0087870733 -0.0440721836 -0.1526042907 -0.7784862366 -0.1532993423 -0.7793883217 0.007927495 -0.0399448775
