!Created with skrf (http://scikit-rf.org).
# Hz S RI R 50.0 
!freq ReS11 ImS11 ReS21 ImS21 ReS12 ImS12 ReS22 ImS22
300000.0 -0.0471175547 -0.0437622541 -0.0011356859 0.0004981587 0.0011759805 0.0001073143 -0.7752163865 -0.1422161003
5299970.0 -0.0497738052 0.0158751374 -0.0001728558 -0.0002229547 0.0002065479 -0.0001208308 -0.7847782741 -0.007641829
10299940.0 -0.0441163236 0.0327399716 4.62202e-05 6.26863e-05 8.04e-08 6.56181e-05 -0.7873920387 -0.0035294505
15299910.0 -0.0360728919 0.0471623614 0.0002646432 0.0002254198 -0.0001216469 5.03607e-05 -0.7929618914 -0.0015902591
20299880.0 -0.0262908192 0.0587122241 -7.39549e-05 0.0002821625 -0.0001203858 8.19945e-05 -0.7995921707 0.0020007803
25299850.0 -0.0154669521 0.0681831473 2.00852e-05 -0.0003714374 1.05693e-05 -2.99195e-05 -0.805861375 0.0078320977
30299820.0 -0.0041336433 0.074974343 -0.0002882363 -0.0001484027 -0.0001045413 3.50771e-05 -0.8120473898 0.0164046617
35299790.0 0.0070848012 0.0800159372 2.58456e-05 -8.18548e-05 -0.0001911846 -1.47609e-05 -0.8167780857 0.0248641504
40299760.0 0.0186457869 0.0827628346 -0.0001770078 1.126e-07 -2.5945e-05 1.81834e-05 -0.8212808167 0.0345928661
45299730.0 0.0294466962 0.0842215222 0.0001431101 6.01995e-05 -9.7399e-06 -0.0002469712 -0.8252252795 0.0443078448
50299700.0 0.0390633073 0.0846740022 0.0002685775 0.0001818388 0.000130277 -1.66091e-05 -0.8268513285 0.05398803
55299670.0 0.048365692 0.0832703931 9.1262e-06 0.0001130234 4.82937e-05 -9.58198e-05 -0.8292934866 0.0643781896
60299640.0 0.0570406118 0.0819546023 -1.86835e-05 0.0002423151 0.000117761 1.64343e-05 -0.8302640343 0.0738917776
65299610.0 0.0646453401 0.0796210527 0.0001925939 1.70912e-05 -5.35261e-05 8.3364e-05 -0.8314983581 0.0839366315
70299580.0 0.0715436822 0.0769179818 5.40323e-05 -2.87386e-05 -2.96363e-05 -2.26835e-05 -0.8314289977 0.0938494217
75299550.0 0.0780365705 0.0739786584 4.31145e-05 -0.0001953905 0.000208158 -5.97556e-05 -0.8326592623 0.1039813146
80299520.0 0.0837432221 0.0706076883 3.93456e-05 0.0001990142 5.36694e-05 0.0002259028 -0.8323182886 0.1138185009
85299490.0 0.0886391163 0.0668735078 0.0001166238 0.0001539767 0.0001153851 0.0001195557 -0.8318184802 0.1234012167
90299460.0 0.09323193 0.0631266234 0.0002151499 0.000221816 2.89047e-05 0.0001218204 -0.8308717651 0.1331912374
95299430.0 0.097736836 0.0590044599 9.74844e-05 -1.3272e-05 -7.7933e-06 5.51667e-05 -0.8287821488 0.1429247947
100299400.0 0.101136034 0.055552071 4.4678e-06 -4.396e-07 9.3673e-06 0.0001455928 -0.8287410853 0.1523703741
105299370.0 0.1044812859 0.0517447709 0.0001140929 0.0001547682 8.17661e-05 0.0002763916 -0.8268814617 0.1608766557
110299340.0 0.107454124 0.0479694078 0.0001426234 -0.0001109053 -9.54822e-05 0.0001418751 -0.8254127029 0.1705647401
115299310.0 0.1102369756 0.0440857851 -7.50269e-05 0.0003092351 -4.85203e-05 0.0002299793 -0.8240931175 0.1797206492
120299280.0 0.1122675088 0.0403012722 0.0002519472 -0.0001713688 -2.24497e-05 0.0003818278 -0.822069543 0.1888044969
125299250.0 0.1139661848 0.0365906457 0.000147358 0.0001228401 6.677e-05 2.63802e-05 -0.8207774124 0.1979980405
130299220.0 0.1156091776 0.0330736099 -1.65211e-05 0.0002060137 5.47462e-05 -9.9413e-06 -0.8188404557 0.206718302
135299190.0 0.1176334841 0.029680288 -6.17192e-05 5.62588e-05 0.0003515933 8.642e-07 -0.8167559163 0.2157365033
140299160.0 0.1187622887 0.0260553757 9.55396e-05 2.59161e-05 -2.82386e-05 3.04326e-05 -0.8139696691 0.225282726
145299130.0 0.119912915 0.0225804228 -1.73305e-05 0.0001371925 0.0002736937 -5.8629e-06 -0.812274221 0.2343739562
150299100.0 0.1209025258 0.019233924 0.0001407379 9.504e-06 8.69884e-05 4.03363e-05 -0.8104530482 0.2430615949
155299070.0 0.1215315954 0.0161291937 2.48511e-05 3.82133e-05 6.22053e-05 0.000146229 -0.8070501512 0.2518305213
160299040.0 0.1223168796 0.0131150806 0.0002276307 -8.2764e-05 0.0002591844 0.0001506347 -0.8047519744 0.2605959812
165299010.0 0.122994832 0.0098353715 3.1063e-05 0.0002428057 0.0001191758 -9.96417e-05 -0.8025494317 0.2693956162
170298980.0 0.1230696407 0.0068186599 -0.0001739081 -2.79264e-05 -0.0001158902 8.60861e-05 -0.7992213677 0.2781626045
175298950.0 0.1236593352 0.0038140144 0.0003411755 -0.0001154554 8.24864e-05 0.0001733725 -0.7965496355 0.2867144319
180298920.0 0.1239780791 0.0011435606 7.95956e-05 0.0001810889 0.0002307151 4.58466e-05 -0.7933927722 0.2949956453
185298890.0 0.1241831505 -0.0019459693 0.0001832822 4.81973e-05 3.93981e-05 -6.48968e-05 -0.789891249 0.3040248954
190298860.0 0.1243982198 -0.0045002715 9.16672e-05 -7.85099e-05 3.79405e-05 0.0001098106 -0.7884113664 0.3121851289
195298830.0 0.1240419424 -0.0072904597 2.54184e-05 0.0001150726 0.0001366789 0.0001331132 -0.784135328 0.3211209175
200298800.0 0.1241091369 -0.0096801826 0.0003155152 0.0001690359 -3.69482e-05 -3.6113e-06 -0.7816404879 0.3291683207
205298770.0 0.1236374332 -0.0124676864 0.000120647 0.0001998853 -3.95852e-05 0.0001573521 -0.7774959779 0.3371002561
210298740.0 0.1235318679 -0.0146865984 -1.95872e-05 0.0001533537 0.0001209037 0.0003657986 -0.7746664891 0.3459463158
215298710.0 0.1231025239 -0.0174977401 2.4802e-06 0.0001166138 -2.355e-05 -0.0001290247 -0.7709796335 0.354080956
220298680.0 0.1227106966 -0.0199143564 0.0001727603 0.0002560469 3.51425e-05 0.0002051589 -0.7674110651 0.362339503
225298650.0 0.1220867412 -0.0223576832 0.0001195518 0.0001113814 7.06074e-05 0.0002186291 -0.7638467321 0.3701756169
230298620.0 0.1217188924 -0.0243651377 0.0002401055 4.86293e-05 0.0002454065 0.0001274323 -0.7600617689 0.3784944362
235298590.0 0.1216819637 -0.026493785 -4.50671e-05 0.0001203074 0.0001658064 -6.8316e-06 -0.7556410124 0.3869393811
240298560.0 0.1206491045 -0.0291149937 0.0001622988 7.31688e-05 9.94239e-05 0.0002296783 -0.7514600189 0.3953356573
245298530.0 0.1202620111 -0.0312374562 0.000230321 0.0002223167 -3.60429e-05 -1.67835e-05 -0.7481407083 0.4023929014
250298500.0 0.1197238805 -0.0331947628 9.97416e-05 0.0002345375 0.0001993502 0.0002277792 -0.7434690458 0.4102627131
255298470.0 0.1186989419 -0.0353956996 0.0001627487 0.0002764632 2.10121e-05 5.5654e-05 -0.7385901929 0.4181676549
260298440.0 0.1179910768 -0.0375650471 0.0001092133 2.1693e-06 0.0002447506 0.0002683129 -0.7348817299 0.4262958276
265298410.0 0.1175988606 -0.0390979787 0.000198734 0.0001512524 7.64676e-05 7.95888e-05 -0.7303408804 0.4332207482
270298380.0 0.1166539377 -0.0412656843 0.0003095435 -8.1082e-06 9.33382e-05 0.0001688362 -0.7253594607 0.4409553818
275298350.0 0.1159240625 -0.0429793762 0.0001000576 -3.25735e-05 8.95546e-05 -1.62926e-05 -0.7209251722 0.4483691444
280298320.0 0.1153741443 -0.0450924362 4.56775e-05 5.96609e-05 0.0001518745 0.0002793391 -0.7160112239 0.4559150622
285298290.0 0.1147188728 -0.0467830809 0.000137213 0.0003522772 5.76804e-05 0.0003839841 -0.7108881406 0.4635622069
290298260.0 0.1139250374 -0.0484825332 0.0004240214 0.000221359 5.99885e-05 6.22055e-05 -0.7061965588 0.4709914672
295298230.0 0.1128407706 -0.0504287606 -7.90905e-05 0.0002598358 9.35934e-05 6.14175e-05 -0.7009664237 0.4778422296
300298200.0 0.112071685 -0.0521194454 0.0002321497 0.0003185988 7.70768e-05 0.0001717501 -0.6959046579 0.48551919
305298170.0 0.1113420342 -0.0540849476 -2.83081e-05 1.70132e-05 0.0001619781 0.0001311416 -0.6897647569 0.4928468871
310298140.0 0.1105519505 -0.0556428759 -2.54622e-05 -3.40999e-05 0.0003561723 -3.31405e-05 -0.6858862849 0.499618821
315298110.0 0.1096063571 -0.0575312071 0.0001257508 0.0003947156 0.000210098 0.00029122 -0.679903391 0.5069645665
320298080.0 0.1087687062 -0.0597375582 0.0001579082 -0.0001435874 0.0002374082 7.50363e-05 -0.6742640989 0.5143093278
325298050.0 0.1075946892 -0.0610892839 0.0001823025 0.0002359747 0.0002456004 0.0002437676 -0.6692880396 0.5211957249
330298020.0 0.1061904428 -0.0628337418 7.28077e-05 0.0002064951 0.0001088161 9.51793e-05 -0.6633076956 0.5283223322
335297990.0 0.1048763555 -0.0646316633 0.0004122904 0.0003393715 0.0003211968 0.0002623024 -0.6585525751 0.5354718854
340297960.0 0.1035224461 -0.0659921731 0.0001592435 7.69857e-05 0.0001436739 -2.37953e-05 -0.6523348668 0.5421465835
345297930.0 0.102378265 -0.0675112233 -0.0001351851 -9.32394e-05 0.0001835735 0.0001994249 -0.646203992 0.5485138904
350297900.0 0.1015808655 -0.0685214223 0.000241921 0.0002060413 0.0003745698 0.0001884241 -0.6410613412 0.5554854366
355297870.0 0.1001488755 -0.069932792 0.0002721452 0.0004146973 0.0003299213 0.000233502 -0.6355229288 0.5623234252
360297840.0 0.0990599537 -0.0710828352 0.0002165232 8.44195e-05 9.4479e-05 0.0001771225 -0.6299472901 0.5688865337
365297810.0 0.0974183186 -0.0722492816 0.0002441317 0.0001576568 0.0002162181 0.0002142045 -0.6232933164 0.5750220855
370297780.0 0.09637162 -0.0736165596 0.0001768413 0.0002382722 0.0002118819 0.000174196 -0.617464229 0.5820100967
375297750.0 0.0953673615 -0.0750113269 0.0001783245 0.0001523502 0.0001297252 0.0001914286 -0.6112389969 0.5879735883
380297720.0 0.0940937892 -0.0762210097 0.0003673328 0.0002763043 0.0003481291 2.52984e-05 -0.6053694869 0.5939750651
385297690.0 0.0926145721 -0.077062136 0.0001042111 0.0002590811 0.0001623724 0.0003409458 -0.5990818958 0.6008292931
390297660.0 0.0912527253 -0.0782246132 0.0003832591 0.0001750005 0.0002022444 0.0002969174 -0.5936807494 0.606627464
395297630.0 0.0905041623 -0.0794632243 1.36486e-05 5.22142e-05 0.0001555601 7.75989e-05 -0.5863853069 0.6131882987
400297600.0 0.0890815395 -0.0806270445 0.0002870265 0.0001283365 -7.3137e-06 0.0001041777 -0.5804465433 0.6190363177
405297570.0 0.0875479728 -0.0816558327 7.5021e-05 5.3539e-05 0.0002527212 2.25851e-05 -0.5736182708 0.6245935659
410297540.0 0.0865597169 -0.0827016249 0.0002610983 -3.51173e-05 0.0002190155 0.000250183 -0.5673123244 0.6307446732
415297510.0 0.0853408394 -0.0841448664 0.0002439003 0.0001729624 8.81281e-05 0.0001293924 -0.561092207 0.636062669
420297480.0 0.0842154199 -0.0845543124 0.0003646022 1.19625e-05 0.0003163479 0.0001020201 -0.5546757776 0.6424601966
425297450.0 0.0829618444 -0.0857870688 0.0001772962 -5.59349e-05 0.0001997143 8.0097e-05 -0.5481637396 0.6479500143
430297420.0 0.0815567126 -0.0869953431 0.0002112624 4.61846e-05 -9.8215e-06 -7.52762e-05 -0.5414211193 0.6530665164
435297390.0 0.0801972802 -0.0876225627 0.0001307192 2.89808e-05 0.0001398484 4.60192e-05 -0.5337597655 0.6585815302
440297360.0 0.0788622706 -0.0887561801 0.0001210376 1.30998e-05 0.0002964195 9.2474e-06 -0.5273476572 0.6637527068
445297330.0 0.0774877884 -0.0897479806 4.80728e-05 7.32137e-05 0.0002103147 0.0001945687 -0.5200460674 0.6687809783
450297300.0 0.0762782207 -0.0906630793 0.0003265053 0.0002401425 0.000156581 7.57484e-05 -0.5132471798 0.6739415688
455297270.0 0.0748713694 -0.0914029268 0.000303195 0.0002851479 0.0001079142 -2.1895e-06 -0.5066251479 0.6786179688
460297240.0 0.073390601 -0.0922007724 0.0003499898 0.0003182788 0.0001204591 6.83783e-05 -0.4996386623 0.6841147721
465297210.0 0.0721732134 -0.0931725488 0.0001400071 0.0003141391 0.0003393537 8.00798e-05 -0.4917819327 0.6889111268
470297180.0 0.0710050133 -0.0938661695 0.0004717069 0.0003491458 0.0003371648 4.46248e-05 -0.4846866196 0.6939940687
475297150.0 0.0696221548 -0.0947600971 0.0002026059 0.0001206144 0.0002689925 -7.8323e-06 -0.4774209716 0.6983547283
480297120.0 0.0680182285 -0.0954635053 0.0001328154 -6.24114e-05 0.0001752799 0.0001370944 -0.4698545623 0.7035398803
485297090.0 0.0666970317 -0.0962001816 0.0003072803 3.23563e-05 0.0002716697 -0.0002191111 -0.4632691835 0.7083896296
490297060.0 0.0650205105 -0.0964016059 0.0001941594 -3.20853e-05 0.0002778052 8.5437e-05 -0.455367427 0.7125603411
495297030.0 0.0636375452 -0.0975505343 8.6122e-05 6.27094e-05 0.0003778073 9.61029e-05 -0.4485779377 0.7175386555
500297000.0 0.0625255803 -0.0980314845 0.0003168504 0.0001146195 0.000241765 0.0003056973 -0.4409190748 0.7225671691
505296970.0 0.0612879934 -0.0989264058 0.0004533163 0.0002140719 0.0002314011 0.0001839488 -0.4335909536 0.7259982963
510296940.0 0.0599910959 -0.0994883586 0.0002952231 8.54473e-05 0.0002368938 0.0001624041 -0.4260024792 0.7309446012
515296910.0 0.0584389082 -0.1002647874 0.0003961549 -4.12e-05 1.83233e-05 0.0001173108 -0.4184025608 0.7351893442
520296880.0 0.0568606823 -0.1006922395 0.0002369214 0.0002484486 0.0003899046 0.000162042 -0.410695143 0.7388017157
525296850.0 0.0556721071 -0.1014982878 0.000313866 0.0002026896 0.000379516 1.17773e-05 -0.4033158875 0.7434354868
530296820.0 0.0543082798 -0.1018475526 0.0002023965 4.17204e-05 0.0002442934 5.01882e-05 -0.3960512372 0.7481155494
535296790.0 0.0528039592 -0.102143897 0.0001748881 7.71803e-05 0.0002242058 5.92233e-05 -0.3888724698 0.7513307184
540296760.0 0.051196009 -0.1026820639 0.0003980134 6.48859e-05 0.0006585705 4.21511e-05 -0.3807950996 0.7560091226
545296730.0 0.0498202324 -0.1031588987 0.0002283839 0.0001889411 0.0001844678 4.91844e-05 -0.3738398048 0.7591654761
550296700.0 0.0488905677 -0.1037114629 0.0002454381 0.0001716722 0.0004877831 1.43788e-05 -0.3656353527 0.7630661952
555296670.0 0.0468325898 -0.104187172 0.0004118242 7.14751e-05 0.000197709 6.33445e-05 -0.3581854493 0.7671468883
560296640.0 0.046007373 -0.1046227194 0.0003287448 0.000194314 0.0001936204 0.0001053493 -0.349827644 0.770342067
565296610.0 0.0442413328 -0.1049342169 0.0002474999 0.0001462749 0.0002746444 0.0002076245 -0.3419294856 0.7740563112
570296580.0 0.0426947458 -0.105185428 0.0002630832 5.86085e-05 0.0005109342 0.0002066453 -0.3346183857 0.777675997
575296550.0 0.041277941 -0.1054701036 0.0004535179 0.0001304972 0.0003402531 -0.0001066374 -0.3266722722 0.7809340886
580296520.0 0.039867058 -0.1060243779 0.0004228356 6.54304e-05 0.0003322349 0.0001013261 -0.3181956962 0.7838621375
585296490.0 0.0381138064 -0.1064171506 0.0002386947 5.0462e-05 0.000316517 8.59373e-05 -0.310304851 0.7872766659
590296460.0 0.037095586 -0.106403918 0.0001631083 0.0002506935 0.0002083071 -5.50497e-05 -0.3028007946 0.7903355364
595296430.0 0.0355668131 -0.1066963999 0.0005237061 -7.17997e-05 0.0003899366 0.0002183411 -0.2948751344 0.7926016973
600296400.0 0.0339079456 -0.1072149214 0.000371243 0.0001604271 0.0003206024 9.63806e-05 -0.2866600374 0.7957023018
605296370.0 0.0325940935 -0.1073850062 0.0004363806 5.97197e-05 0.0003164914 0.0001268452 -0.2776537761 0.7982837731
610296340.0 0.0311334532 -0.1076355166 0.0003746054 -8.07984e-05 0.0003228144 0.0001846799 -0.2700368785 0.8007499143
615296310.0 0.029729524 -0.107995594 0.0006178419 0.0002933899 0.000141143 0.0001461917 -0.2616354363 0.8035850024
620296280.0 0.0280598785 -0.108138001 0.0004041112 0.0001188343 0.000383496 0.0001233445 -0.2541590331 0.8062801315
625296250.0 0.0265651117 -0.1084567808 0.0002989995 9.16728e-05 0.000417368 0.0001459389 -0.2453201779 0.8079738273
630296220.0 0.025715075 -0.1085822859 0.0003285194 9.05953e-05 0.0003173525 0.0001009155 -0.2369334769 0.8108159984
635296190.0 0.0237545177 -0.1083886633 0.0001972174 0.000129401 0.0003037159 -1.78928e-05 -0.2289962998 0.8129853488
640296160.0 0.0224534368 -0.1089316989 0.0004254002 -8.15528e-05 0.000323398 -1.6603e-06 -0.2210535803 0.815459494
645296130.0 0.0209741704 -0.1085621522 0.0002293635 2.15014e-05 0.0004609481 1.356e-05 -0.2128787558 0.8177976455
650296100.0 0.0192718681 -0.1086640406 0.0004220338 0.0002490483 0.0003127361 -9.8162e-05 -0.2045816274 0.8187599325
655296070.0 0.0179098991 -0.10905067 0.0002883534 9.73008e-05 0.0004155269 0.0003945063 -0.1958647223 0.8206551245
660296040.0 0.0165387075 -0.1089299586 0.0003462688 0.000355968 0.0004379916 -1.15862e-05 -0.1875670303 0.8231404982
665296010.0 0.0152186569 -0.1094020966 0.0001139927 -5.8947e-06 0.0002829861 1.40177e-05 -0.1792108023 0.8250361547
670295980.0 0.0135642118 -0.1088212999 0.0003271807 -4.02067e-05 0.0003782126 0.0001261623 -0.1717330713 0.8265250833
675295950.0 0.0119725049 -0.1087612186 0.0002412088 0.0001536611 0.0002937517 0.0001204805 -0.1635134129 0.8285628199
680295920.0 0.0106522696 -0.1087305796 0.0003123958 1.14992e-05 0.000588337 2.46791e-05 -0.1546221492 0.8309279425
685295890.0 0.0095346748 -0.1084599183 0.0003227639 -3.99824e-05 0.0006211614 3.10026e-05 -0.1458748524 0.8315988497
690295860.0 0.0078889232 -0.1086022653 0.0004522534 1.62839e-05 0.0003243251 0.0001122364 -0.138094697 0.8339388531
695295830.0 0.0061573775 -0.1084329364 0.0002832768 7.9942e-05 0.0004564262 6.8112e-06 -0.1294546404 0.8350220811
700295800.0 0.0048237822 -0.1084742306 0.0005449099 4.03435e-05 0.000194358 7.69597e-05 -0.1215098699 0.8365061278
705295770.0 0.0034028357 -0.1080167187 0.000336054 -0.0001972656 0.0003341333 -0.0001029349 -0.1131093226 0.8373484929
710295740.0 0.0019226298 -0.1076806895 0.0002596095 0.0001260124 0.0004206538 -2.28597e-05 -0.1045030635 0.8388443916
715295710.0 0.0008431647 -0.1078931713 0.0004941087 -6.9798e-06 0.0005086927 -4.71524e-05 -0.0963272474 0.8385706942
720295680.0 -0.0007137083 -0.1074234273 0.0003893486 1.38746e-05 0.0002412421 -7.89847e-05 -0.0878107234 0.8405949404
725295650.0 -0.001885591 -0.107110096 0.0003339906 -9.15072e-05 0.0005035098 9.58974e-05 -0.0796049167 0.8420263963
730295620.0 -0.0037058385 -0.1068592235 0.0002910343 -0.0001322905 0.0002556827 7.44906e-05 -0.0715450173 0.8422712317
735295590.0 -0.0048612967 -0.1064851979 0.0003682749 -9.6e-06 0.0002845729 -0.000107904 -0.0631216678 0.8423993949
740295560.0 -0.0065558834 -0.1061622 0.00043351 8.6051e-05 0.000491853 -4.44485e-05 -0.0539323716 0.8441012032
745295530.0 -0.008033039 -0.1062502782 0.0004079905 -1.03522e-05 0.0002073323 -0.0001286189 -0.0457526379 0.8436929645
750295500.0 -0.0092104995 -0.1060040307 0.000332744 -0.0002959656 0.0002090967 -6.45422e-05 -0.0377765323 0.8442446214
755295470.0 -0.0106697108 -0.1055804259 0.0004669561 8.26795e-05 0.0004971949 -8.14409e-05 -0.0293297586 0.8438427941
760295440.0 -0.0122654902 -0.1049648888 0.000385668 -0.0003710454 0.0004305213 1.00432e-05 -0.0209017911 0.8441089873
765295410.0 -0.0132937673 -0.1047721058 0.0003153348 6.53962e-05 0.0002272841 -0.0001198366 -0.0121466175 0.8449907838
770295380.0 -0.014643692 -0.1044622807 0.0004923945 -0.0004383957 0.0004641244 -5.04827e-05 -0.0040893987 0.8445135666
775295350.0 -0.0164331034 -0.1041804567 0.0005577882 -5.94872e-05 0.0001490922 4.42759e-05 0.00408331 0.8439523339
780295320.0 -0.0175808778 -0.1035568845 0.0005137526 -0.000111458 0.0003669672 7.66139e-05 0.0126461816 0.8440053292
785295290.0 -0.0191625388 -0.1033485519 0.0005506396 9.20887e-05 0.0005121345 9.29457e-05 0.0215075985 0.8441074378
790295260.0 -0.0200543217 -0.1024061468 0.0005221864 -5.68949e-05 0.0004001931 -0.0001675055 0.0305359718 0.8436781344
795295230.0 -0.0213240894 -0.1021203583 0.0004883967 -0.0001378197 0.0004989984 -8.75827e-05 0.0389127183 0.8427210178
800295200.0 -0.0228460939 -0.1018924653 0.0004111434 9.6094e-05 0.0004929608 -0.0001828121 0.0473873528 0.8425840186
805295170.0 -0.0242165766 -0.1015308091 0.0002950535 -0.000282078 0.000225214 -0.0001305219 0.0552039982 0.8423085386
810295140.0 -0.025336146 -0.1009895123 0.0004672534 -0.0003023024 0.0005053217 1.3312e-06 0.0637998342 0.8412495296
815295110.0 -0.0270741445 -0.1005244477 0.0005078728 9.91015e-05 0.0005963583 -0.0001693541 0.0721839222 0.8407523192
820295080.0 -0.0282825066 -0.0996426311 0.0004825184 -1.60666e-05 0.000292156 0.0001760542 0.0801713085 0.8402448293
825295050.0 -0.029272031 -0.0995023988 0.0002899433 -0.0001839673 0.0004524383 -0.0001969929 0.0887468829 0.8395868758
830295020.0 -0.0305810081 -0.0986986934 0.0003730173 -0.0001264059 0.0004570438 -3.55779e-05 0.0978348943 0.8385801285
835294990.0 -0.0320164485 -0.0977843536 0.0004370591 -3.26954e-05 0.0001887459 -0.0002875595 0.1055515832 0.8373543183
840294960.0 -0.0333836289 -0.0974429045 0.0006436473 6.13026e-05 0.0005271296 -0.0003288098 0.1139275232 0.8357712792
845294930.0 -0.0346363502 -0.0964925878 0.0002183078 -0.0001227982 0.000274865 -0.0003372051 0.1215196891 0.8346939932
850294900.0 -0.0357501308 -0.0960426115 0.0004915897 -4.65918e-05 0.0005283743 -0.0001205895 0.1301179846 0.8337222684
