!Created with skrf (http://scikit-rf.org).
# Hz S RI R 50.0 
!freq ReS11 ImS11 ReS21 ImS21 ReS12 ImS12 ReS22 ImS22
300000.0 -0.2103752686 -0.0960173623 -0.0015717231 0.0017315864 -0.0001073719 0.0010633856 -0.7685283655 -0.1909725875
5299970.0 -0.2153085204 0.0070187048 -0.0001479073 0.0002669325 -0.0001583762 -6.614e-06 -0.7851067406 -0.0095825915
10299940.0 -0.2119459404 0.0200459058 2.73175e-05 3.41372e-05 0.0001832621 -8.6368e-06 -0.7879209528 -0.0055724175
15299910.0 -0.2062669031 0.0302882233 -3.11258e-05 5.89563e-05 -6.55698e-05 -4.01295e-05 -0.7930217114 -0.0027946462
20299880.0 -0.2006895306 0.0382918289 -4.92666e-05 -0.0001398329 -0.0001764037 -0.0001011274 -0.799973453 0.001406435
25299850.0 -0.1941365608 0.0446627211 6.59199e-05 6.1782e-06 0.0001435297 0.0002784646 -0.8063416526 0.0083005558
30299820.0 -0.1878872107 0.0495010861 -6.88582e-05 0.0002223322 0.0001403975 -0.0001988072 -0.8125939525 0.0157466847
35299790.0 -0.1816060315 0.0533178147 1.83133e-05 2.0499e-06 -5.28436e-05 -0.000134667 -0.8174098043 0.0245617403
40299760.0 -0.1752303946 0.0562746365 3.20328e-05 5.71081e-05 -1.27485e-05 -5.2392e-06 -0.8213760128 0.0337681405
45299730.0 -0.1698971556 0.0580478775 -0.0004425492 0.000148399 0.0001202598 -6.39643e-05 -0.8243733097 0.0434223471
50299700.0 -0.1643486252 0.0594576198 8.0238e-05 8.89756e-05 0.0001937806 -5.3813e-06 -0.8267287258 0.0539643221
55299670.0 -0.1599582294 0.0604675212 -0.0001022748 4.06369e-05 -3.0629e-06 0.0002050034 -0.8292013695 0.063805905
60299640.0 -0.1554962399 0.0606364058 -0.0001527459 -6.2195e-06 -0.0002231816 -7.17749e-05 -0.8304251373 0.0741724015
65299610.0 -0.1512883632 0.0615634324 0.0001312267 -4.27605e-05 0.000129132 7.4625e-06 -0.8309294144 0.0840570116
70299580.0 -0.14819102 0.0614688303 6.54427e-05 -1.50363e-05 -8.03656e-05 -6.67338e-05 -0.8311342012 0.0934588031
75299550.0 -0.1448447719 0.0613436378 -7.73374e-05 0.0001199003 -1.50528e-05 -0.0001016231 -0.8312781031 0.1041245977
80299520.0 -0.1416363816 0.0613960106 3.99422e-05 -0.0001108288 -0.0001026451 -1.84047e-05 -0.8311858028 0.113846179
85299490.0 -0.1389260582 0.0611735887 -0.0001017652 0.0001236383 9.29193e-05 -6.0287e-05 -0.8301994551 0.1234804873
90299460.0 -0.1363442929 0.0609133224 -0.0001380049 -4.66238e-05 4.6629e-06 3.39216e-05 -0.8292348601 0.1324954621
95299430.0 -0.134258984 0.060737924 0.0001196344 -1.0118e-05 2.6456e-05 0.0002038055 -0.8287532893 0.1425493113
100299400.0 -0.1322621161 0.0607584516 1.62684e-05 0.000206727 -0.0001439663 2.11809e-05 -0.8277415712 0.151430919
105299370.0 -0.1306014295 0.0604699367 -0.0001548527 0.0001148645 0.0002436048 0.0002064266 -0.8263787111 0.160864695
110299340.0 -0.1287368859 0.059851393 0.0001679789 2.16374e-05 -1.2194e-06 -2.91268e-05 -0.8248866156 0.1697830845
115299310.0 -0.1274330473 0.0600949806 6.24585e-05 4.9426e-05 -3.15948e-05 -3.48681e-05 -0.8237924604 0.1791682138
120299280.0 -0.1261410504 0.0598796035 9.44101e-05 -9.56872e-05 -1.42243e-05 7.82806e-05 -0.8214478971 0.1879531422
125299250.0 -0.1248413499 0.0597439447 4.04031e-05 4.59033e-05 0.0001261937 0.0001761046 -0.8196548376 0.1971678041
130299220.0 -0.1239746824 0.0597830749 -3.9621e-06 0.0001237672 -0.000190017 0.0001625644 -0.8179753589 0.2057937467
135299190.0 -0.122675376 0.0597766831 -3.58366e-05 8.93317e-05 3.4891e-06 0.0001032469 -0.8163246394 0.2146665638
140299160.0 -0.1216749192 0.0602040682 -2.10641e-05 1.05222e-05 -1.35671e-05 -9.2095e-06 -0.8144252436 0.2234389236
145299130.0 -0.1207172461 0.0601360394 0.0001132385 -3.38466e-05 0.0001918603 5.84871e-05 -0.8120703511 0.2325517988
150299100.0 -0.1199808359 0.0603453466 -9.98101e-05 0.0001071167 0.0001488597 0.0001014724 -0.8100739062 0.2417127517
155299070.0 -0.1196524755 0.0611230946 2.0985e-06 0.0001675044 -6.5741e-06 -0.0001664726 -0.8072310478 0.2506519964
160299040.0 -0.1188317494 0.0615262483 5.48383e-05 1.20525e-05 1.08344e-05 0.0001034637 -0.8048939235 0.2592703934
165299010.0 -0.1179679514 0.0618454614 -2.44239e-05 6.10346e-05 -1.32027e-05 -2.25398e-05 -0.8024682276 0.2668406457
170298980.0 -0.1173612919 0.0620951433 -1.51748e-05 0.0001646174 0.0001044078 -3.98575e-05 -0.7994565016 0.2754376868
175298950.0 -0.1168218051 0.0625842152 0.0001687564 1.59788e-05 8.89893e-05 0.0003826654 -0.7964956989 0.2847582387
180298920.0 -0.116267374 0.0632841898 -0.0001309874 0.0001817914 9.25268e-05 8.703e-06 -0.7935841054 0.2933770017
185298890.0 -0.1156550773 0.0634465363 -3.05647e-05 6.78932e-05 -5.25405e-05 0.0002832549 -0.7907224796 0.301387873
190298860.0 -0.1150620067 0.0644467427 1.78549e-05 0.0001891878 0.0001460596 2.05021e-05 -0.7870980839 0.3097850515
195298830.0 -0.1143475233 0.0650860863 0.0002166225 0.0003448714 0.0001949822 0.0001279024 -0.7842328715 0.3179344489
200298800.0 -0.1138476315 0.0656178417 -5.61028e-05 -5.8814e-06 9.12556e-05 -0.0001767809 -0.7809793157 0.3264245859
205298770.0 -0.1135014291 0.0664534142 0.0002228459 4.54098e-05 -7.08022e-05 9.40968e-05 -0.7780574063 0.3350451554
210298740.0 -0.1130383212 0.0671849281 -1.96461e-05 0.0001358629 3.59744e-05 9.02301e-05 -0.7746855882 0.3429673983
215298710.0 -0.1128219904 0.068156573 9.09609e-05 0.0001539253 -0.0001204019 0.000130847 -0.7706099946 0.3515385721
220298680.0 -0.1118921287 0.0684672245 -0.0001640474 5.8123e-06 -3.96034e-05 0.0001224374 -0.766816545 0.3596771255
225298650.0 -0.1117334987 0.0692458837 -0.0002042112 0.0001455064 0.000218261 0.0001957799 -0.7630023772 0.3674742132
230298620.0 -0.1110205288 0.0704531054 0.0001058256 -9.05338e-05 0.0002028504 2.91358e-05 -0.7591284703 0.3752555475
235298590.0 -0.1108260852 0.0712273244 0.0001261657 -6.97485e-05 1.71352e-05 0.0001662789 -0.7552962675 0.3832938487
240298560.0 -0.1104888459 0.0720508972 -0.000158396 0.0002998087 0.0001586527 4.20683e-05 -0.7515997442 0.3913048704
245298530.0 -0.1097844346 0.0726964987 0.0001781314 -0.0001159036 0.0001931902 -7.44944e-05 -0.7477099336 0.398970496
250298500.0 -0.1095677986 0.0736687561 3.96319e-05 0.0002443828 0.000156604 0.0001930897 -0.7428546215 0.4072819671
255298470.0 -0.1090065668 0.0747044254 9.48828e-05 3.48485e-05 -6.54809e-05 0.0001588503 -0.7384414013 0.4149892655
260298440.0 -0.1083918811 0.0756400371 -6.88389e-05 0.0001863014 0.0001528636 9.43655e-05 -0.7340322652 0.4217639474
265298410.0 -0.1081470193 0.0763413387 9.45625e-05 0.0003088589 4.41258e-05 0.0001703798 -0.7300426917 0.4302641199
270298380.0 -0.1076818475 0.0772615399 -9.7581e-06 -7.30374e-05 -8.93534e-05 6.52141e-05 -0.7252876541 0.4379567862
275298350.0 -0.1072785692 0.0786602335 -3.94628e-05 4.05454e-05 -1.36389e-05 -9.0777e-06 -0.7208847503 0.4457248779
280298320.0 -0.106690027 0.0793830152 -1.81855e-05 0.0001383443 6.05659e-05 -2.21227e-05 -0.7164778592 0.4528029211
285298290.0 -0.1061012632 0.0804859023 5.39164e-05 6.02412e-05 5.43917e-05 8.0913e-05 -0.7126469481 0.4608559967
290298260.0 -0.1057520377 0.0812376619 -7.08922e-05 0.0001582716 -0.0001045737 0.0001687437 -0.7069541959 0.4675512075
295298230.0 -0.105285851 0.0821917998 0.0001111763 3.24703e-05 9.54582e-05 9.53126e-05 -0.7013811711 0.4745332691
300298200.0 -0.1047078216 0.0832116951 0.0001215892 0.0003420803 0.0002065596 0.0002606215 -0.6970740881 0.482589154
305298170.0 -0.1038127715 0.0840865226 0.0002483757 5.76041e-05 -6.12108e-05 0.0003452226 -0.6916588056 0.4890354442
310298140.0 -0.1034893736 0.0845969942 5.67591e-05 5.12473e-05 1.44259e-05 0.0001357862 -0.6863580817 0.4967311937
315298110.0 -0.1032414249 0.0857421443 -0.0001358059 0.0001182705 0.0002328314 0.0002535562 -0.681387955 0.5041775512
320298080.0 -0.1025346069 0.0866791287 0.0001488814 1.27408e-05 8.0399e-05 0.0001173488 -0.6765421624 0.5101533176
325298050.0 -0.1022347775 0.0870001774 0.0001509396 -0.0001011434 0.0001374416 4.4455e-05 -0.6704745868 0.5175673328
330298020.0 -0.101716679 0.0885127551 1.68988e-05 -0.0001075936 5.15934e-05 -4.89269e-05 -0.6649874376 0.5243842588
335297990.0 -0.1015930034 0.0894409191 0.0001057472 5.92594e-05 4.19775e-05 1.23312e-05 -0.6592380718 0.5311517989
340297960.0 -0.1011935287 0.0907116896 2.09345e-05 7.6652e-06 8.19101e-05 9.8978e-05 -0.6542365861 0.5387575179
345297930.0 -0.1006463387 0.0913472664 0.000127185 8.13215e-05 0.0001930083 0.0001985688 -0.6484877531 0.544776603
350297900.0 -0.1000658811 0.0923925721 0.0002085304 0.0001089138 0.0002493529 0.0002373752 -0.643087322 0.5511031535
355297870.0 -0.0992364196 0.0933982687 0.0001075758 0.0001044168 0.0002004144 -4.8368e-05 -0.6370383691 0.5584506353
360297840.0 -0.0988497585 0.0946866755 0.0001406026 0.0002084895 -8.0176e-06 2.49185e-05 -0.6306488512 0.5644051881
365297810.0 -0.0978831046 0.0955890537 0.0002769668 5.01129e-05 0.0001923912 0.0001262003 -0.6256029788 0.5703420824
370297780.0 -0.0973050695 0.096246518 -1.78953e-05 6.6112e-06 -1.09916e-05 7.33636e-05 -0.6196341468 0.5776871406
375297750.0 -0.0968383856 0.0975891149 0.000395566 0.0001577358 0.000137599 -3.14607e-05 -0.6136258806 0.5840673951
380297720.0 -0.096089408 0.0986741938 2.5412e-05 0.0001413143 7.76584e-05 3.83109e-05 -0.6071894227 0.5906651037
385297690.0 -0.09539993 0.099369376 0.000140025 -0.0002333407 0.0002110593 -0.000102628 -0.6017279964 0.5958329056
390297660.0 -0.0945265775 0.1001929142 7.66842e-05 3.03968e-05 2.21938e-05 0.0002176048 -0.5946771001 0.6022309903
395297630.0 -0.0937808784 0.1013568198 8.98914e-05 0.0001007262 9.48858e-05 0.0001948467 -0.5885413486 0.6071794008
400297600.0 -0.0935170249 0.1025109531 0.0001072506 -3.57185e-05 2.5245e-05 0.0001672796 -0.583277818 0.6140195129
405297570.0 -0.0928599656 0.1029920625 0.0001062551 -2.04861e-05 0.0002998455 -8.4799e-05 -0.5754725423 0.620053473
410297540.0 -0.0914918038 0.1039589562 6.32645e-05 1.2651e-06 -8.59452e-05 0.0002945345 -0.5703062303 0.6263425854
415297510.0 -0.0909076343 0.1051250538 -7.5073e-05 -4.33922e-05 0.0001755384 6.29692e-05 -0.5632455818 0.6315484282
420297480.0 -0.090387752 0.1056849027 2.60257e-05 0.0001533195 8.3461e-05 -7.08504e-05 -0.5562178308 0.6378093495
425297450.0 -0.0888635155 0.1068137631 0.00020067 8.27924e-05 0.0001966004 4.48305e-05 -0.5494977102 0.6426878737
430297420.0 -0.0881675085 0.1077536699 -2.76583e-05 9.94481e-05 0.0001804811 0.0001117941 -0.5430802157 0.6486384312
435297390.0 -0.0875745401 0.1086805996 0.0002031116 -3.0849e-05 -2.4849e-05 2.26215e-05 -0.5367005785 0.6544820616
440297360.0 -0.086659034 0.1096527266 9.7631e-06 -5.2349e-06 0.0001083615 -6.93651e-05 -0.5302519141 0.6592166337
445297330.0 -0.0856303065 0.1101466907 0.0001718725 4.25735e-05 0.000265345 0.0001962806 -0.5226308403 0.6651910602
450297300.0 -0.0847328034 0.1112819875 0.0003550504 -1.09642e-05 8.53445e-05 -3.84444e-05 -0.5160758359 0.669614037
455297270.0 -0.0839263032 0.1123117299 0.0001309394 0.0001121376 0.0002973134 0.0003455899 -0.5092227242 0.67523809
460297240.0 -0.082620535 0.1131935472 -5.6904e-06 -9.30919e-05 -9.901e-06 0.000193445 -0.50272022 0.6801191293
465297210.0 -0.0818367513 0.1139184219 0.0001849679 0.0001689321 6.8127e-06 9.0054e-06 -0.4950198637 0.6855778081
470297180.0 -0.0807305846 0.1149700025 0.0002970629 -4.71935e-05 3.33258e-05 6.2464e-06 -0.4884579501 0.6901924822
475297150.0 -0.0799037732 0.1157914429 0.0001410383 0.0002323179 5.01534e-05 0.0001605308 -0.4815521374 0.6950393609
480297120.0 -0.0783891195 0.1165674332 0.0002818732 4.67921e-05 0.0002446709 0.0001340345 -0.4746829328 0.6998132189
485297090.0 -0.0776594515 0.1172988632 0.0001459129 0.0001346679 0.0001950049 0.0001433734 -0.4668408775 0.7049563912
490297060.0 -0.0760911209 0.1184456809 6.85134e-05 3.33866e-05 4.78957e-05 2.21146e-05 -0.459946011 0.708750808
495297030.0 -0.0751992929 0.1189729986 9.33547e-05 -0.0001637024 -8.9684e-06 -0.0001231119 -0.4527664231 0.7134899832
500297000.0 -0.0743693481 0.1200049192 0.0003274644 -3.05344e-05 0.0001815582 0.0001916598 -0.4456056021 0.7182567062
505296970.0 -0.0728048843 0.1206152221 0.0001194367 8.17053e-05 9.88818e-05 2.3834e-05 -0.4376085717 0.7226476976
510296940.0 -0.0718809035 0.1217662491 0.0001710125 0.00012845 7.6338e-05 2.71544e-05 -0.4304754487 0.7275240281
515296910.0 -0.0708799335 0.1223813275 0.000291231 0.0001692259 0.000107217 0.0003851089 -0.4235788378 0.7309389547
520296880.0 -0.0693834601 0.1233444006 0.0002013926 0.0002496691 0.0001108153 0.00020982 -0.4152392817 0.735960267
525296850.0 -0.0684981183 0.1241268049 0.0002718139 3.49871e-05 0.0001216053 8.29903e-05 -0.408330754 0.7395283545
530296820.0 -0.0676251393 0.1251796736 0.0001603787 0.0001183 9.26296e-05 1.6279e-05 -0.4007418043 0.7432860129
535296790.0 -0.0656909308 0.1257343909 8.34512e-05 -7.15007e-05 0.0001896685 1.58212e-05 -0.3934097983 0.7483027719
540296760.0 -0.0646101747 0.126493397 -4.9164e-06 0.0001551179 0.0002601705 -3.17352e-05 -0.385048752 0.7517941122
545296730.0 -0.0636432397 0.1276297085 0.0002312962 9.26882e-05 0.0001389683 -6.15343e-05 -0.3781769584 0.7558573909
550296700.0 -0.0624108475 0.1282399488 5.16218e-05 2.93115e-05 0.0002934809 5.6144e-06 -0.370179732 0.7590550325
555296670.0 -0.0611923784 0.1293043489 6.99694e-05 8.83987e-05 0.0003530108 2.05245e-05 -0.3624090421 0.762333404
560296640.0 -0.0598157533 0.1297029946 0.0002879853 -4.29639e-05 0.0002792434 5.23418e-05 -0.3546817614 0.7666281774
565296610.0 -0.0587195733 0.1305967695 2.82792e-05 1.75603e-05 0.0002726508 1.94776e-05 -0.3468927268 0.7698175414
570296580.0 -0.0573033325 0.131557351 0.0001046488 2.49253e-05 0.0001817902 -0.000114504 -0.3391279268 0.7728451275
575296550.0 -0.0557754457 0.1320664349 0.0003265272 0.0002177663 0.0002910444 2.65024e-05 -0.3309307753 0.7763985983
580296520.0 -0.0546642448 0.1332784544 0.0003032775 -3.2899e-06 0.0002158052 -0.0001683005 -0.3242103807 0.7796539702
585296490.0 -0.0532610667 0.1341258233 0.0001091774 -3.10508e-05 0.00018167 5.0224e-06 -0.3156258181 0.7833234841
590296460.0 -0.0518909325 0.1349527028 0.0001617071 -0.0001009566 0.0003718769 -2.60379e-05 -0.3079851724 0.7855900478
595296430.0 -0.0507233375 0.1355881388 9.32983e-05 8.48002e-05 0.0002323899 8.7853e-05 -0.3003943534 0.7888695506
600296400.0 -0.0489754633 0.1360822244 0.0001328768 -0.0001643519 0.0002153763 -0.0001156055 -0.2917315577 0.7913526951
605296370.0 -0.0482133005 0.1371409594 0.0001793493 -0.0001427983 0.000148835 0.0002419805 -0.284106068 0.7954640256
610296340.0 -0.0464405285 0.1376942475 0.0003855619 -5.59207e-05 0.0002618454 -9.97049e-05 -0.2766957946 0.7976517228
615296310.0 -0.0449205292 0.1385820187 0.0002667956 0.0001326364 0.0001443345 0.0001260685 -0.2677308355 0.8004911899
620296280.0 -0.0437627289 0.1395054589 1.67456e-05 5.73222e-05 0.0001597774 5.01454e-05 -0.2603201325 0.8032227302
625296250.0 -0.0428771712 0.1397448421 7.90567e-05 -0.0001623188 0.0002790387 -7.6578e-06 -0.2517626843 0.8051083175
630296220.0 -0.0411727612 0.1406595413 7.36021e-05 9.56098e-05 0.0005377033 9.68031e-05 -0.2436889018 0.8081234645
635296190.0 -0.0402000065 0.1417717198 0.0002720922 -6.60136e-05 0.0001507238 -9.40943e-05 -0.2357642599 0.8099245224
640296160.0 -0.0389073877 0.1418890848 0.0002511961 -1.87092e-05 0.0001674072 -0.0001153742 -0.2279759902 0.81288388
645296130.0 -0.0369300763 0.1427315216 0.0005002275 -5.37545e-05 0.0002466307 -0.0001054029 -0.219482859 0.8143528821
650296100.0 -0.0357718971 0.1435531872 0.0002102158 0.0001910051 0.0001636977 -6.37843e-05 -0.2108283415 0.8166831288
655296070.0 -0.034430901 0.1441547441 0.0001885931 -0.0001280418 0.0004087648 4.78133e-05 -0.2030688485 0.8193441305
660296040.0 -0.0334831412 0.1448055817 0.0001339383 4.20771e-05 0.0002703539 3.71223e-05 -0.1947986723 0.8209798396
665296010.0 -0.0318649287 0.145529096 0.000318376 0.00020725 0.0003355068 5.06071e-05 -0.1863156774 0.8222922558
670295980.0 -0.0306418611 0.146297488 -0.0001400306 7.81963e-05 0.0003021239 1.55951e-05 -0.1790480401 0.8240516475
675295950.0 -0.0290725063 0.1465805963 0.0002437698 -0.0002096677 0.000270073 0.000124815 -0.1699735382 0.8265484993
680295920.0 -0.0280470868 0.147617554 0.0002145594 8.45029e-05 0.0001586728 0.0001497225 -0.1620217832 0.8278225623
685295890.0 -0.0264285012 0.1482826198 6.79856e-05 -1.14736e-05 0.0001069615 0.0001573089 -0.1533694629 0.8298317701
690295860.0 -0.0252209967 0.1486190357 0.0003789125 -0.0001777114 0.0003268112 -0.0001229401 -0.1456494194 0.8311840219
695295830.0 -0.0238696742 0.149218726 0.0002562521 -3.73822e-05 0.0002887024 1.9651e-06 -0.1377168205 0.8332913637
700295800.0 -0.0223096261 0.1498907185 0.0001928709 8.58809e-05 0.0003510776 -7.6673e-06 -0.129087875 0.834279753
705295770.0 -0.0213700428 0.150451584 5.80797e-05 0.0001114171 4.76577e-05 -0.0001049143 -0.1205405958 0.8359808557
710295740.0 -0.0197947474 0.1507244931 0.0001911974 -1.28125e-05 0.0003959639 6.84619e-05 -0.1120852264 0.8362563072
715295710.0 -0.0184495644 0.151373808 0.0001433796 0.0001705883 0.0001839186 4.73896e-05 -0.1035416077 0.8368640012
720295680.0 -0.0167918149 0.1518166061 0.000277029 8.42682e-05 0.0003689764 -0.0002294931 -0.0953871911 0.8381005535
725295650.0 -0.0159559463 0.1525528237 0.0002223502 -2.68379e-05 0.0002143628 -0.0001399532 -0.0877811328 0.8393721466
730295620.0 -0.0148871551 0.152927328 0.0003273051 -3.58669e-05 0.000293221 0.0001665068 -0.0792547177 0.8400702525
735295590.0 -0.0131419601 0.1534179938 0.0002798275 3.12238e-05 0.000213373 0.0001268908 -0.0701924413 0.8405221923
740295560.0 -0.0121291112 0.1535041364 0.0003871948 6.80442e-05 5.59974e-05 6.04264e-05 -0.0618687138 0.8416762456
745295530.0 -0.0103323924 0.1541911856 0.0002272933 9.60337e-05 0.0003444751 0.0001424277 -0.0539905311 0.8419599209
750295500.0 -0.0094009151 0.1546468628 0.0003414155 2.54879e-05 0.0002191972 0.0001201605 -0.0451996804 0.8423379752
755295470.0 -0.0077712299 0.1547544655 0.0001232277 5.60848e-05 0.0002205575 -7.20613e-05 -0.0369829127 0.8430658432
760295440.0 -0.0065674044 0.1555586467 0.0003468537 -6.85451e-05 0.0001471923 9.0973e-06 -0.0281477071 0.8431082714
765295410.0 -0.0048499393 0.1555138768 0.0003253071 -0.000107631 0.0002858158 -2.44021e-05 -0.0200230781 0.8435056685
770295380.0 -0.0036732416 0.1561590014 0.0002792239 9.01711e-05 0.0003187543 0.0001298259 -0.0117684693 0.8436329171
775295350.0 -0.0027176023 0.1564468411 0.0002487863 -0.0001309596 0.0001226956 -9.848e-07 -0.0035382009 0.8431502524
780295320.0 -0.0010986503 0.1565698983 9.11483e-05 -0.0001925229 0.0001932201 0.0001513687 0.0053961613 0.8440199529
785295290.0 0.0001167525 0.1568603097 0.0001740927 4.96157e-05 0.0003457005 -8.53475e-05 0.0131769675 0.8436575377
790295260.0 0.0014724421 0.1570572795 0.0001184798 -3.4897e-05 0.0003766171 -8.29612e-05 0.0217306661 0.8437430135
795295230.0 0.0027692092 0.1571076385 0.0003302958 -8.92436e-05 0.0003316047 7.4093e-06 0.0296072527 0.8429386078
800295200.0 0.0040386369 0.1576487509 0.0001348298 4.34633e-05 0.0001399039 -0.0001613863 0.0379239123 0.8426186046
805295170.0 0.0055066467 0.1579038748 0.0003820844 -7.31732e-05 0.0003318313 -4.14418e-05 0.0472685548 0.84211074
810295140.0 0.0069057141 0.1581659762 0.000193947 -2.46235e-05 0.0001296494 0.0001269832 0.0552759729 0.8414164478
815295110.0 0.0080779258 0.1584375901 0.0002272053 -4.6378e-05 9.62312e-05 -6.46063e-05 0.0629162113 0.8415736419
820295080.0 0.0095416845 0.158248509 0.0002435146 -0.0001346281 0.0001312018 -6.42795e-05 0.071157899 0.8406923757
825295050.0 0.0108998501 0.1584444404 0.0002835379 0.0001718001 0.0001728795 -0.0001669672 0.0798734049 0.8399139821
830295020.0 0.012304244 0.1585645648 0.0001665681 -6.30698e-05 0.0002458262 -0.0002828045 0.0873777924 0.8389825438
835294990.0 0.0134424492 0.1586157883 0.0003457091 -0.0001610946 0.0002284118 -9.68772e-05 0.0965902022 0.8381872345
840294960.0 0.0151527061 0.1586430405 0.0001495686 6.12801e-05 0.0004301445 -0.0002354709 0.105014951 0.8373529116
845294930.0 0.0165529236 0.1589039444 0.0004079685 -8.26659e-05 0.0002531417 8.38576e-05 0.1131373579 0.8356326746
850294900.0 0.0182399782 0.1585698905 0.0001758202 -4.39317e-05 0.0002758744 -4.41953e-05 0.1208893664 0.8349756768
