!Created with skrf (http://scikit-rf.org).
# Hz S RI R 50.0 
!freq ReS11 ImS11 ReS21 ImS21 ReS12 ImS12 ReS22 ImS22
300000.0 -0.0433793022 -0.0707479514 -0.0007964852 0.0006923956 -0.0007041482 0.0014161802 -0.7626896277 -0.191326194
5299970.0 -0.0460377773 0.0144322864 3.602e-06 -6.78546e-05 -1.87711e-05 -0.0001996047 -0.7852560725 -0.0095469164
10299940.0 -0.0402296208 0.0328795689 6.10319e-05 7.22068e-05 0.0001381199 -2.05398e-05 -0.7875136219 -0.0051786677
15299910.0 -0.0316355349 0.0477927227 6.51679e-05 -1.65626e-05 -2.0408e-06 -5.38805e-05 -0.7929910113 -0.0024804083
20299880.0 -0.0216735498 0.0592513364 -0.0002203161 -0.0001751299 -0.0001002193 3.71553e-05 -0.7998364588 0.0014420397
25299850.0 -0.010277187 0.0686737486 -1.92716e-05 -3.6669e-06 -4.671e-05 5.20648e-05 -0.8060984659 0.0078268295
30299820.0 0.0012815745 0.0755861614 0.0003088869 -6.05795e-05 -0.0001737916 0.0001347257 -0.8119696447 0.015911545
35299790.0 0.0131743108 0.0802252452 7.83574e-05 1.57868e-05 -0.0001287436 -5.49301e-05 -0.8169395152 0.0247649086
40299760.0 0.0245062678 0.0830229118 8.4966e-05 -2.6315e-05 -2.88582e-05 0.0001257664 -0.8215142165 0.0342913383
45299730.0 0.035124555 0.0841677086 2.78544e-05 0.0001452688 -0.0001256657 6.2542e-06 -0.8239346612 0.0438974921
50299700.0 0.0453348047 0.0840353292 8.59769e-05 3.58303e-05 0.000138234 -5.19658e-05 -0.8266979591 0.0537658527
55299670.0 0.054971253 0.0835191177 -4.20888e-05 -4.3158e-06 6.20695e-05 -0.0001170032 -0.8288185732 0.063889273
60299640.0 0.0633623494 0.0813162974 -5.15365e-05 -6.13996e-05 4.43216e-05 6.59025e-05 -0.8294019085 0.0738208332
65299610.0 0.0715182229 0.0792723534 -0.0001676377 0.000120413 3.31622e-05 0.0001978103 -0.8300698919 0.084028083
70299580.0 0.0780508618 0.076277028 -6.0474e-05 -5.58395e-05 -0.0002384361 -6.617e-06 -0.8309872997 0.0933599868
75299550.0 0.0844135588 0.0730676837 -0.0001547799 8.32529e-05 0.0001665895 -3.41967e-05 -0.8308389504 0.1040024264
80299520.0 0.0903657792 0.0693980412 -4.23013e-05 -8.25418e-05 3.5425e-06 0.0002337631 -0.8310148667 0.1142204204
85299490.0 0.0956004208 0.0656188274 -9.7119e-06 -0.0001536578 0.0001156058 7.9629e-06 -0.8303032868 0.1231622375
90299460.0 0.1003275488 0.0621278901 -7.05899e-05 6.00739e-05 5.7575e-06 -4.3085e-06 -0.8293824046 0.1326772888
95299430.0 0.1045747307 0.0581714461 -1.32636e-05 0.0001931446 -0.0001341187 0.000148621 -0.8281630243 0.1423763584
100299400.0 0.1080818575 0.0540664124 -2.68983e-05 -2.3426e-05 2.12505e-05 -0.000148351 -0.8274942923 0.1519112449
105299370.0 0.1117189594 0.0502020554 5.6014e-06 0.0001499592 -0.0001841378 0.0001276041 -0.8258423824 0.1608055596
110299340.0 0.1145729911 0.0462019582 -4.74527e-05 -1.61799e-05 5.85836e-05 8.75687e-05 -0.8245496064 0.1695538247
115299310.0 0.1171312323 0.0428263171 5.153e-05 0.0001587563 5.90916e-05 3.38472e-05 -0.8236458997 0.1789862308
120299280.0 0.1194312699 0.0388638764 7.916e-05 0.0003211511 -4.26073e-05 -5.85168e-05 -0.8210120085 0.187796942
125299250.0 0.1213376548 0.0352243735 -3.80138e-05 0.0001492059 -0.0001858797 0.0001766254 -0.8199348346 0.1970434564
130299220.0 0.1229562563 0.0312606275 0.0001249313 0.0001378705 2.6177e-05 0.0002005581 -0.8174091048 0.2057538938
135299190.0 0.1247949848 0.0277898778 -5.88052e-05 -4.67566e-05 0.0001238484 0.0001502151 -0.8156294398 0.2150860004
140299160.0 0.1259979508 0.0243557214 0.0001372268 0.0002477043 -0.0001062199 6.90221e-05 -0.8142592335 0.2233386994
145299130.0 0.1274161203 0.0210930604 0.0001688667 0.0001393364 -0.0001500699 0.0001975979 -0.8121926991 0.2325440408
150299100.0 0.1283933394 0.0178580378 0.000205396 -3.20758e-05 0.0001332268 0.0002097783 -0.8094906428 0.241054575
155299070.0 0.1293361334 0.0146652916 0.0001009986 0.0001096588 6.76658e-05 9.70607e-05 -0.807230249 0.2504250751
160299040.0 0.1299347518 0.0115802936 -9.17769e-05 -6.36809e-05 3.28064e-05 1.84669e-05 -0.8045527105 0.2594815604
165299010.0 0.1306211759 0.0083223112 -0.0001804413 6.53039e-05 -3.23302e-05 -5.25965e-05 -0.8026578997 0.267314493
170298980.0 0.131045618 0.0053088266 -0.0001292405 -5.593e-07 0.0001638878 0.0001908684 -0.799880481 0.2753007226
175298950.0 0.1313668737 0.0024591885 -0.0001014997 6.52076e-05 3.67623e-05 0.0002408623 -0.7963002569 0.2850711088
180298920.0 0.1314808251 -0.000364611 3.87275e-05 -2.91966e-05 1.06912e-05 -7.73754e-05 -0.7934833716 0.2931302503
185298890.0 0.1316069078 -0.0031995997 -1.96366e-05 5.44593e-05 -0.0001199237 6.92341e-05 -0.7907903397 0.3015424072
190298860.0 0.1318772947 -0.0058374969 0.0002432979 0.0002071762 5.55175e-05 6.33242e-05 -0.7873060201 0.3101436563
195298830.0 0.1320118869 -0.0082407083 4.09122e-05 0.0001718778 2.0141e-05 -1.13429e-05 -0.7844377414 0.3179962941
200298800.0 0.1319533749 -0.0112936355 5.08438e-05 -3.67904e-05 8.83274e-05 3.58242e-05 -0.7808744082 0.326686468
205298770.0 0.1314176318 -0.0134416001 0.0001783896 9.59469e-05 0.0001433837 -3.221e-06 -0.7775690954 0.3352302768
210298740.0 0.1316239311 -0.016150556 -0.0002526434 4.19205e-05 9.90123e-05 0.0001084782 -0.7739965981 0.3434995248
215298710.0 0.1309712272 -0.0183731634 4.64121e-05 -3.28609e-05 -0.0001153858 0.0001569255 -0.7708266707 0.3513357652
220298680.0 0.1309155052 -0.0209990023 -6.19076e-05 0.0001990549 0.0001204456 0.0002674015 -0.7667854889 0.3592480272
225298650.0 0.1307425633 -0.0233927181 0.000241524 0.0001789891 -9.5283e-05 0.0001003277 -0.7633321892 0.3676219773
230298620.0 0.130085205 -0.0253556348 -7.4732e-06 0.0002738513 0.0001673756 9.09015e-05 -0.7591846 0.3755564736
235298590.0 0.129637552 -0.0274351679 0.0001633443 0.0002083172 0.0001833213 0.0001156945 -0.7547842152 0.3831398464
240298560.0 0.1288975316 -0.0295182358 0.0001798532 0.0002367675 -0.0001581231 -0.000198321 -0.751011264 0.390856101
245298530.0 0.1284176385 -0.0320267129 5.41129e-05 -2.69157e-05 3.72326e-05 0.0001797235 -0.7474953224 0.3992141222
250298500.0 0.1279918233 -0.0337475193 4.74935e-05 0.0001686093 0.0001358629 5.9699e-06 -0.7427368995 0.4066771361
255298470.0 0.1273695622 -0.0358757768 0.0001111772 0.0001735101 -8.48842e-05 -1.13274e-05 -0.7388938161 0.41475116
260298440.0 0.12662269 -0.0381035368 0.0001974837 0.0001772215 0.0003261428 1.2816e-05 -0.7340948268 0.4216288371
265298410.0 0.1258439968 -0.0398784259 0.0001723761 6.26145e-05 0.0001564586 0.0002591136 -0.7295633328 0.4299693826
270298380.0 0.1250549459 -0.0417076254 1.3768e-05 0.0001271429 7.34612e-05 0.0001013858 -0.725181016 0.4379394756
275298350.0 0.1243579789 -0.0434723097 -0.0001681109 0.0001493336 8.43242e-05 -1.772e-05 -0.7207734149 0.445652611
280298320.0 0.1235063899 -0.0452974767 6.75952e-05 -8.2637e-06 -4.61242e-05 0.000181756 -0.7161401606 0.4525358107
285298290.0 0.1226140869 -0.0472449914 -6.5921e-06 3.80024e-05 0.0002020337 0.0001043237 -0.7117494142 0.460469027
290298260.0 0.1217840385 -0.0488787483 5.44286e-05 0.0002515903 0.0003535116 0.0001694988 -0.7066393417 0.4675315461
295298230.0 0.1211696832 -0.0510926814 0.000167333 0.0001073652 0.0001247322 4.54065e-05 -0.7014859749 0.4748036193
300298200.0 0.120259518 -0.0525143973 0.0003228016 8.15073e-05 -0.0001711612 8.06211e-05 -0.6966683468 0.4822806974
305298170.0 0.1195369928 -0.0544155362 -5.46979e-05 0.0001387489 0.0002050076 -8.1449e-06 -0.6914812445 0.4888072736
310298140.0 0.1185804146 -0.0566771181 0.00011959 0.0002975215 0.0001621025 0.0001276529 -0.6864357695 0.496428085
315298110.0 0.1172666979 -0.0580588189 0.0002094964 -8.36383e-05 0.0001083178 0.00011598 -0.6811206727 0.503584579
320298080.0 0.1162920145 -0.0600109955 0.0002002592 2.57576e-05 -9.67435e-05 0.0001352256 -0.6762212321 0.5106138586
325298050.0 0.1146150533 -0.0623647853 2.97597e-05 0.0002155983 0.0002228185 0.0001428441 -0.6702691764 0.517512406
330298020.0 0.1135391734 -0.0633033102 0.0002313438 0.0001482381 0.0001090872 0.0001031954 -0.6647941578 0.5244439771
335297990.0 0.1119751811 -0.0646842837 -3.79901e-05 -2.46167e-05 0.000235167 -6.02026e-05 -0.659499995 0.5315946261
340297960.0 0.1108061336 -0.0662077795 0.000299927 0.0001467397 -3.40388e-05 -2.5728e-06 -0.6542661016 0.5384598693
345297930.0 0.1097832676 -0.0676196761 0.0001391417 0.000207447 0.0003600524 0.0003061912 -0.64866315 0.5445880569
350297900.0 0.1086051371 -0.0690385963 0.0002209745 7.58007e-05 0.0001403596 8.68812e-05 -0.6430814668 0.5509716695
355297870.0 0.1074478688 -0.0705129833 3.4217e-05 0.0001171598 7.44889e-05 0.0002296314 -0.6369819025 0.5587594938
360297840.0 0.106100618 -0.0718761196 0.000137541 0.000150958 -8.65251e-05 0.0001541858 -0.6307035761 0.5650339575
365297810.0 0.1051319259 -0.0729921489 0.0001676212 -3.12079e-05 0.0002761312 0.0001136598 -0.625948198 0.5708569298
370297780.0 0.1036046189 -0.0743014377 0.0002356089 -5.40047e-05 -1.86971e-05 9.93893e-05 -0.6195019669 0.5777667091
375297750.0 0.1029971755 -0.0758435153 0.0003454273 0.0003183324 0.000163831 0.0001929156 -0.6131744963 0.5841538821
380297720.0 0.1012916396 -0.0765156507 0.000196725 0.0001729175 0.0003149958 9.19705e-05 -0.6068743171 0.5902445024
385297690.0 0.1002631179 -0.0780205273 8.21396e-05 0.0003505868 0.0001371257 0.00012912 -0.6013200715 0.5960334152
390297660.0 0.0990862112 -0.079621932 0.0001039675 0.0001362914 0.0002223721 0.0002248584 -0.5947394929 0.6018793129
395297630.0 0.0977294125 -0.0807367998 0.0002426236 5.0684e-05 9.93188e-05 0.0001059459 -0.5877901079 0.6079217175
400297600.0 0.0962876527 -0.0817930436 0.0002798543 -8.93949e-05 0.000241691 -5.19125e-05 -0.5830171253 0.6141742411
405297570.0 0.0951204209 -0.0831373159 3.86537e-05 2.98292e-05 0.0001212385 0.0001942537 -0.5754405952 0.6200599759
410297540.0 0.0942796497 -0.0842049451 0.0003254806 5.17797e-05 -4.00233e-05 0.0002924554 -0.5693277111 0.6260740173
415297510.0 0.0928731013 -0.0853553596 0.0003684241 1.14465e-05 0.0003886597 0.0001782724 -0.5629779885 0.6319576577
420297480.0 0.0914129919 -0.0868030728 0.0002411333 -5.82922e-05 0.0002170823 0.0003979066 -0.5561234322 0.6380914226
425297450.0 0.0904221148 -0.0876243026 0.0003148486 6.80682e-05 7.75878e-05 0.0001257214 -0.5501180176 0.6427367154
430297420.0 0.0890433915 -0.0889139037 7.41665e-05 4.06944e-05 0.0001714339 0.000176368 -0.5430964777 0.6484380182
435297390.0 0.087742896 -0.0900177327 0.0001469874 5.37951e-05 0.000215661 0.0001480341 -0.5366359188 0.6541457665
440297360.0 0.0862477051 -0.0910664637 0.0001666835 3.11213e-05 0.000129458 -6.30084e-05 -0.5303960962 0.6591723337
445297330.0 0.0852928293 -0.0922316577 0.0002742539 0.0001814845 0.0002855446 0.0002105796 -0.5230777621 0.6646902329
450297300.0 0.0836042743 -0.0931076312 0.000217885 0.0001432358 0.0003029723 0.0001717139 -0.5163330457 0.6699813474
455297270.0 0.0824287776 -0.0941559264 0.0002985781 0.0001619831 0.0002902711 5.5706e-05 -0.5086168888 0.675038295
460297240.0 0.0811747796 -0.095004352 0.0002554171 0.0004301436 7.98337e-05 0.0001690743 -0.5024401138 0.6798830914
465297210.0 0.0801297944 -0.0958575531 0.0002804023 9.49244e-05 0.0002866397 6.78036e-05 -0.4951087093 0.6857286116
470297180.0 0.0788836767 -0.0966811949 0.0002268972 7.50185e-05 0.0002187331 1.07463e-05 -0.4875616794 0.690024507
475297150.0 0.077306009 -0.097643424 0.0001515254 9.09262e-05 0.0001639861 -0.0001286383 -0.481354733 0.6946811243
480297120.0 0.0762499706 -0.0984814836 0.0003122502 0.0002007118 0.0002621077 0.0002495013 -0.4748915224 0.6999680642
485297090.0 0.074949173 -0.0994238174 0.0002112719 0.0003950244 0.0004473107 3.62711e-05 -0.4671780315 0.7046395657
490297060.0 0.0738555421 -0.1004055756 1.55339e-05 0.0003072729 0.0001487872 -2.49898e-05 -0.4596695298 0.709007416
495297030.0 0.0723929062 -0.1012332859 0.0001674128 0.0001316662 0.000257784 8.49494e-05 -0.4522896134 0.7133270421
500297000.0 0.070909575 -0.1018012252 0.0003454996 3.10146e-05 8.92425e-05 2.45342e-05 -0.4452919076 0.7184519079
505296970.0 0.0698317657 -0.1027730762 0.0002498008 0.0001502921 0.0003406052 0.0001740289 -0.437528599 0.7227187817
510296940.0 0.0683423346 -0.1032639181 0.0003008007 0.0002250756 0.0002447417 7.80898e-05 -0.4301118964 0.7273193905
515296910.0 0.0669410535 -0.1041805817 0.0002284699 0.0001568895 0.0001545889 0.0001535766 -0.4231011588 0.7310614274
520296880.0 0.0658862486 -0.1049611935 0.000470169 -0.0001075702 0.0001550616 -4.52454e-05 -0.4151079445 0.7360859502
525296850.0 0.0642572441 -0.1054354589 -1.11949e-05 3.1802e-06 0.000367721 0.0002653599 -0.4078819132 0.7392068134
530296820.0 0.0627894773 -0.1061339237 0.0001967205 -2.5057e-06 0.0002444235 6.00219e-05 -0.4004660765 0.7436962949
535296790.0 0.0621921013 -0.1067668854 0.0004101252 -7.23509e-05 0.0001995579 -5.01725e-05 -0.3931438651 0.7477238676
540296760.0 0.0609057461 -0.1071906469 0.0002444397 5.57778e-05 0.000231577 0.0001000972 -0.3848586948 0.7516125327
545296730.0 0.05904758 -0.1076194694 0.0002241424 0.0002846801 0.0003204564 0.0003559065 -0.3776732676 0.7554044765
550296700.0 0.0576327643 -0.1080411151 0.0002635279 0.0001595808 0.0001833062 -9.0487e-05 -0.3699904987 0.7589505822
555296670.0 0.0566583758 -0.1086571839 0.000209034 -0.0002055981 0.0003886897 4.53451e-05 -0.3624562885 0.7623551558
560296640.0 0.0553794016 -0.1090925798 0.0003159974 5.759e-06 0.0001763587 0.0001400612 -0.3548959403 0.7661864431
565296610.0 0.0537145328 -0.1096950109 -0.0001381027 0.0001614892 0.0002656577 0.0001365889 -0.3470281142 0.7698203999
570296580.0 0.0522493897 -0.1099059818 0.0003438758 -4.83184e-05 0.0001293477 9.15012e-05 -0.3390762114 0.7729097881
575296550.0 0.0512741394 -0.1105716998 0.0002995569 -0.0001121312 0.0002743833 -2.916e-07 -0.3309569033 0.7758866985
580296520.0 0.0497267799 -0.1106709231 0.0002257784 0.0001279048 0.0003233784 7.53248e-05 -0.3236286444 0.7795187305
585296490.0 0.0485066828 -0.1108023558 0.0001426461 0.0001870498 0.0003957283 0.0001473384 -0.3152458026 0.7834278973
590296460.0 0.0474018074 -0.1111074771 0.0001441094 0.0002140627 0.0001547279 9.35065e-05 -0.3076069771 0.7856053923
595296430.0 0.0457181253 -0.1118394172 0.0003398772 -9.9842e-05 0.0002913926 7.44365e-05 -0.299910551 0.7893138666
600296400.0 0.0441736785 -0.1122396772 0.0003875104 -2.69487e-05 0.0004616203 -4.7862e-06 -0.291675596 0.7918681145
605296370.0 0.0427369986 -0.1122033864 0.0002411195 0.0002416071 0.0002295928 -4.2185e-06 -0.2839625809 0.7954305569
610296340.0 0.0417737237 -0.1126026037 0.0002999766 0.0001921029 0.0002723059 1.84791e-05 -0.2760353762 0.797944131
615296310.0 0.0404576273 -0.1129958866 0.0003866845 0.0003308781 0.0003870214 -7.69616e-05 -0.2671374497 0.800854714
620296280.0 0.0389348038 -0.1124430955 0.0002942438 -0.0001374767 0.0003984218 0.0001603506 -0.2598489596 0.8028287734
625296250.0 0.0371810395 -0.1129132775 0.0005761983 3.8986e-06 0.0004629939 0.0002088844 -0.2517886473 0.8050566395
630296220.0 0.035836299 -0.1128622001 2.63902e-05 2.66978e-05 0.000456791 1.52942e-05 -0.2440212711 0.8080284059
635296190.0 0.0342848732 -0.1130369398 0.0002796063 0.0001454367 0.000380266 9.86664e-05 -0.2353996015 0.8098434402
640296160.0 0.032808945 -0.1131190486 0.0003599437 -7.76778e-05 0.0002665342 -3.35403e-05 -0.2271160969 0.8131538098
645296130.0 0.0318668778 -0.1131431847 0.0003581211 6.45539e-05 0.0001215517 -0.0001543595 -0.2192412654 0.8140400103
650296100.0 0.0303088522 -0.1133112601 0.0003978761 -0.0001774136 0.0001748329 -7.79448e-05 -0.2105471634 0.8167822406
655296070.0 0.0287999624 -0.1133707426 0.0005885855 -1.14079e-05 0.0002855496 -7.2843e-06 -0.2034422267 0.8189133336
660296040.0 0.0272074152 -0.1133825848 0.0004648243 3.63348e-05 0.000369224 -0.0001392104 -0.1941183862 0.8210891928
665296010.0 0.0259389685 -0.1131752675 0.000318473 0.0001031173 0.0002669049 -1.36247e-05 -0.1862325037 0.8219892789
670295980.0 0.0244244244 -0.1132997075 0.0003374725 5.0009e-05 0.0003183022 9.50769e-05 -0.1787322085 0.8242773679
675295950.0 0.0228663092 -0.1133870117 0.0004235293 0.0002518293 0.0002779919 -3.80929e-05 -0.1695521932 0.8265030135
680295920.0 0.0211124243 -0.1130397343 0.0003470915 7.60581e-05 0.0003637449 -3.87375e-05 -0.1613948569 0.8274009813
685295890.0 0.0198068072 -0.1129783685 0.0003239723 -0.0001959379 0.0002110815 1.2433e-06 -0.1536583924 0.8296192889
690295860.0 0.0183689586 -0.1129540885 0.0002545863 -0.0001338451 0.0005246192 -0.0001062453 -0.1447469294 0.8306441521
695295830.0 0.0168858433 -0.1127957203 0.0005495773 -0.0001476116 0.0004516792 -2.69479e-05 -0.1368671008 0.8330463847
700295800.0 0.0157607173 -0.1124489053 0.0003998663 -9.78212e-05 0.000402747 3.7891e-06 -0.1285265558 0.8331995735
705295770.0 0.0140043495 -0.1122784969 0.0005127714 1.40433e-05 0.0004856065 -5.35936e-05 -0.1198952658 0.8353313814
710295740.0 0.0124948046 -0.1120931342 0.0004074836 -4.53786e-05 0.0004197415 7.9464e-06 -0.11174194 0.8356817493
715295710.0 0.0112920334 -0.1118716382 0.0003245229 -3.98721e-05 0.0003124145 -6.70824e-05 -0.1031583354 0.8364616502
720295680.0 0.0098211375 -0.1116112185 0.0003509718 7.61334e-05 0.000540428 -0.0002237535 -0.0945213395 0.8378221527
725295650.0 0.0081770546 -0.1112204753 0.0003000472 -4.76854e-05 0.0003808594 8.11895e-05 -0.0870417978 0.839335384
730295620.0 0.006143745 -0.1112897256 0.0002495368 -9.92958e-05 0.0004004832 -7.97369e-05 -0.0788914546 0.8404272669
735295590.0 0.0050264865 -0.1110149852 6.4932e-05 1.37637e-05 0.0004263124 -0.0003370077 -0.069910036 0.8401049798
740295560.0 0.0034872665 -0.1109389764 0.0003765578 -6.9512e-05 0.0002399968 -2.80817e-05 -0.0616851654 0.8413568625
745295530.0 0.0021888892 -0.1106316865 0.0005356234 8.76115e-05 0.0002900202 -0.0002043441 -0.0534330155 0.8416544036
750295500.0 0.0004484643 -0.110094704 0.0004092952 0.0001002997 0.0002899928 -0.0001159445 -0.0447686658 0.8423618057
755295470.0 -0.001112746 -0.1098106444 0.0003520521 -2.32963e-05 0.0002980275 -5.68108e-05 -0.036754904 0.8429161946
760295440.0 -0.0023563101 -0.1091938284 0.0004988739 1.83932e-05 0.000381642 4.02705e-05 -0.0277464073 0.8425033459
765295410.0 -0.0037151305 -0.1091338421 0.0003528696 -6.64741e-05 0.0002572346 -0.0001031425 -0.019940884 0.8434746998
770295380.0 -0.0052927507 -0.1086943822 0.0004572751 0.0001799817 0.0003838483 2.17528e-05 -0.0111350694 0.8433875891
775295350.0 -0.0066953702 -0.1083731118 0.0004371941 4.6644e-05 0.0003738681 -0.0001264767 -0.0032216769 0.8432864307
780295320.0 -0.0081038037 -0.1077858271 0.0002574665 -2.51451e-05 0.0003653608 -8.16686e-05 0.0056739911 0.8434136501
785295290.0 -0.0096532911 -0.1079200101 0.0003238374 -0.0001201248 0.0004543543 -3.53189e-05 0.0134467286 0.843714035
790295260.0 -0.0110690792 -0.1072716303 0.000485506 0.0001376726 0.0004981302 -0.0001287264 0.0222201864 0.8434731805
795295230.0 -0.0127407054 -0.1071758616 0.0001307789 -3.00609e-05 0.0004425252 -3.68676e-05 0.030237348 0.8425350577
800295200.0 -0.0140598267 -0.1063773525 0.0001876694 6.19837e-05 0.0005360837 4.36222e-05 0.0383566864 0.8419089322
805295170.0 -0.0154260574 -0.1059123114 0.0005345032 9.7495e-06 0.0004053479 -4.10848e-05 0.0472857012 0.8415742149
810295140.0 -0.0169088617 -0.1053702337 0.000243267 -0.0001957627 0.0002072739 -2.14867e-05 0.05594906 0.8410021332
815295110.0 -0.0183484396 -0.1052495271 0.0003864641 7.10704e-05 0.000423368 -4.63705e-05 0.0634600306 0.8408057597
820295080.0 -0.019840803 -0.1046245894 0.0003333055 -4.7896e-06 0.000290192 0.0001460871 0.0715382162 0.8406129243
825295050.0 -0.0213347367 -0.104119694 0.0007376957 -0.0001204054 0.0004024056 -0.0002800031 0.0803712239 0.8394926572
830295020.0 -0.0227174746 -0.1034160134 0.000569954 2.50903e-05 0.0003433262 -0.0001971538 0.088504139 0.8380846905
835294990.0 -0.0239474412 -0.1031514432 0.0005886515 -0.000216958 0.0003008784 -0.0002850332 0.0969407375 0.8377832366
840294960.0 -0.0254800385 -0.1027231063 0.0004719268 -9.06924e-05 0.0004975625 -0.0002384174 0.1055867937 0.8367226029
845294930.0 -0.0266323185 -0.1020370968 0.0004843111 -0.0002987858 0.000591015 -0.000213936 0.1132411206 0.8354505906
850294900.0 -0.0277757766 -0.1019667016 0.0003263587 -4.87124e-05 0.0004463564 -0.0002172968 0.1213046101 0.8346546713
