!Created with skrf (http://scikit-rf.org).
# Hz S RI R 50.0 
!freq ReS11 ImS11 ReS21 ImS21 ReS12 ImS12 ReS22 ImS22
300000.0 -0.2363827175 -0.1267482534 0.4654366909 0.0831459353 0.4640343102 0.0836940293 -0.231504837 -0.1298287859
5299970.0 -0.2447486836 0.005117937 0.4732101378 0.0062113501 0.4741014887 0.0059445948 -0.2432476231 0.0050998211
10299940.0 -0.2418145391 0.0183476183 0.4760850224 0.0072331384 0.4759660348 0.0068914948 -0.2399423682 0.0179667708
15299910.0 -0.2366413313 0.0281658992 0.4792132615 0.0081035569 0.479487538 0.0083919129 -0.2360608237 0.0273886922
20299880.0 -0.2315336073 0.0361817083 0.4839823746 0.0085740693 0.484438348 0.0084866811 -0.2307541602 0.0351817783
25299850.0 -0.2257839144 0.0429211171 0.489431138 0.0080432773 0.4899400888 0.007800402 -0.2259342449 0.0417022996
30299820.0 -0.2201154272 0.0476785455 0.4949397544 0.0057365367 0.495286491 0.0054410373 -0.2203978028 0.0470874062
35299790.0 -0.2142986757 0.0516567361 0.4994973697 0.0024028675 0.5004535356 0.0021896195 -0.2155653943 0.0515747969
40299760.0 -0.2090947262 0.0547295908 0.5056769069 -0.0015210173 0.5054468021 -0.0013758964 -0.2104714324 0.0547680067
45299730.0 -0.2039289527 0.0571667686 0.5099320269 -0.0060180775 0.5106707127 -0.0067934928 -0.2054609168 0.0579811727
50299700.0 -0.1989609279 0.0589748865 0.5141947513 -0.011824533 0.5144981113 -0.0117826252 -0.2010030253 0.0601056932
55299670.0 -0.1949847159 0.0604741974 0.5183496038 -0.0176217936 0.5180926446 -0.017670222 -0.1970732893 0.0620200772
60299640.0 -0.1908103991 0.0619644452 0.521679135 -0.0241307747 0.5218616203 -0.0242068337 -0.1931506323 0.0631970835
65299610.0 -0.1871078805 0.0627967183 0.5248717801 -0.030195859 0.5248328874 -0.030423805 -0.1896681617 0.0646439354
70299580.0 -0.183911862 0.0634503013 0.5272119934 -0.0368762381 0.5272443821 -0.0366911545 -0.1868123527 0.0658454585
75299550.0 -0.1809019857 0.0639506862 0.5288547697 -0.0441224305 0.5290029194 -0.0439862904 -0.1840211968 0.0669088721
80299520.0 -0.1782302082 0.0645484611 0.531104451 -0.0507260978 0.5312501133 -0.0510703685 -0.1813714983 0.0679950415
85299490.0 -0.1755741822 0.0648357439 0.5321378889 -0.0576374495 0.5325107385 -0.0576252488 -0.1790586734 0.0686814395
90299460.0 -0.1735237598 0.0652620187 0.5331752893 -0.0644062672 0.5333437591 -0.0644498734 -0.1764030645 0.0700535677
95299430.0 -0.1712928012 0.065869532 0.5338552502 -0.0715490647 0.5344596321 -0.0720154087 -0.1746601087 0.0708420349
100299400.0 -0.1694206812 0.0662013263 0.534989847 -0.078257197 0.5344052761 -0.0788413579 -0.1728121492 0.0717953291
105299370.0 -0.1677492532 0.0664887029 0.5349153138 -0.0848804895 0.5354434945 -0.0854742837 -0.1707542572 0.0725312046
110299340.0 -0.1659481414 0.0669429331 0.5350620743 -0.0919009115 0.5354072198 -0.0917840545 -0.169728092 0.0729386399
115299310.0 -0.1646437339 0.0675804913 0.5350564694 -0.0985660558 0.5348972206 -0.0987349529 -0.1679462361 0.0742445592
120299280.0 -0.1630962007 0.0682357705 0.5349024919 -0.1061774623 0.5348704633 -0.1061626616 -0.166542859 0.0749714316
125299250.0 -0.1619903038 0.0686587758 0.5344441387 -0.1126134743 0.5342632054 -0.1124327384 -0.1649623306 0.0759624175
130299220.0 -0.1608555721 0.0690796766 0.5340926674 -0.1190371877 0.5341709959 -0.1197738023 -0.1637109096 0.0771066006
135299190.0 -0.1599227355 0.070060071 0.533801758 -0.1253814508 0.533724247 -0.1263529235 -0.1628537703 0.0778913037
140299160.0 -0.1583561566 0.0710067774 0.5327168916 -0.1328538038 0.532534896 -0.1325275733 -0.1618460921 0.0787968962
145299130.0 -0.1578096669 0.0716829754 0.531840652 -0.1391464393 0.5317024998 -0.1392850149 -0.160608103 0.0800430658
150299100.0 -0.1565750666 0.0726094708 0.5303977984 -0.1457561996 0.5305304778 -0.1457049322 -0.1595808856 0.0816376198
155299070.0 -0.1555563065 0.0732012983 0.5289392036 -0.1517349355 0.5292100019 -0.1522390893 -0.1584325014 0.0822381588
160299040.0 -0.1547412016 0.0744782995 0.5279767351 -0.1588001546 0.5278844587 -0.1590828062 -0.1579998293 0.0838123687
165299010.0 -0.153846064 0.0753117031 0.5264750593 -0.1648048394 0.5264185864 -0.1654426126 -0.1562697308 0.0843787098
170298980.0 -0.1530027196 0.076271843 0.5247008205 -0.1715827278 0.5250576299 -0.1715096565 -0.1557888604 0.0859293808
175298950.0 -0.1520846081 0.0773639284 0.5234384234 -0.1779611194 0.5239793762 -0.1783210396 -0.1546578046 0.0871012288
180298920.0 -0.1515121034 0.0785487022 0.5213573343 -0.1843268417 0.521610027 -0.1841755392 -0.1538901876 0.0884602483
185298890.0 -0.1508367799 0.0794132157 0.5201837759 -0.190448564 0.5199152057 -0.1900511229 -0.1526003865 0.0899348666
190298860.0 -0.1496668127 0.0808949256 0.5174888159 -0.1965655939 0.517913743 -0.196421815 -0.1518547754 0.0910735852
195298830.0 -0.1492448177 0.0821469793 0.5161654848 -0.2028992576 0.516369802 -0.2025552583 -0.151305949 0.0924924285
200298800.0 -0.1482713098 0.0828049926 0.5141517375 -0.2092603304 0.5139332568 -0.2088653343 -0.1500299691 0.0933922839
205298770.0 -0.1478208787 0.0838730369 0.5113460224 -0.2145000548 0.5118474701 -0.2146208217 -0.1488779667 0.0951059464
210298740.0 -0.1471211323 0.0854703688 0.5095829771 -0.2209498442 0.5094082468 -0.2205542308 -0.1485641054 0.0963163316
215298710.0 -0.1461937567 0.0866637985 0.50676315 -0.2262833216 0.5073622799 -0.2271147106 -0.1472942316 0.0978903808
220298680.0 -0.1451481444 0.0877337545 0.5043909578 -0.2328105271 0.5043521356 -0.232814548 -0.1461179853 0.0990792044
225298650.0 -0.144502432 0.0890706218 0.5018670616 -0.2382475367 0.502006457 -0.2383483088 -0.1450127545 0.1003768626
230298620.0 -0.1436529107 0.0904005142 0.499541317 -0.2440627254 0.4999028534 -0.2444334107 -0.1444976442 0.1018366026
235298590.0 -0.1433052116 0.091762782 0.4972836177 -0.2505116233 0.4971666884 -0.2499251853 -0.1433116093 0.1035865226
240298560.0 -0.1423040267 0.0931583897 0.4941639167 -0.2554039076 0.4943721576 -0.2558777034 -0.1422176769 0.1046597001
245298530.0 -0.1417829187 0.0939600311 0.491771356 -0.2614552426 0.4912248114 -0.2618373985 -0.1414081027 0.1060699508
250298500.0 -0.1409263923 0.0954982243 0.4888135707 -0.266729052 0.4887712843 -0.2669412868 -0.1403537736 0.1077491647
255298470.0 -0.1398637172 0.0970851623 0.4862299875 -0.2721766242 0.4865889112 -0.2726802304 -0.1394030738 0.1095040307
260298440.0 -0.13896995 0.0982189709 0.4830129494 -0.2776129409 0.483126158 -0.2780418895 -0.1382452363 0.1103352512
265298410.0 -0.1386392074 0.0997611482 0.4798178997 -0.2839100552 0.4797963871 -0.28396876 -0.136381703 0.1118827551
270298380.0 -0.1379036826 0.1008203206 0.4767913116 -0.2890588209 0.4769198606 -0.2892066665 -0.1357430465 0.1136006579
275298350.0 -0.1366241299 0.1024205677 0.4729308264 -0.2944824209 0.473589378 -0.2941667752 -0.1347709564 0.1152100968
280298320.0 -0.1362356385 0.1034431016 0.4706622995 -0.2994094245 0.4706618357 -0.2999957356 -0.133160591 0.1164463788
285298290.0 -0.1353194426 0.1050983536 0.4670613862 -0.3051268304 0.4671689611 -0.3050961281 -0.1320393038 0.1181863342
290298260.0 -0.1343074635 0.1064422037 0.4644408901 -0.3105154808 0.463943371 -0.3106423953 -0.1309551105 0.1193956361
295298230.0 -0.1335419668 0.1076404341 0.4607884429 -0.316285216 0.4611442952 -0.3159530126 -0.1301448911 0.1210468561
300298200.0 -0.1323110923 0.1091224365 0.4570420307 -0.3212376526 0.4573447258 -0.3211928097 -0.1284193695 0.1220091713
305298170.0 -0.1315363583 0.1098825003 0.4538252904 -0.3262076387 0.4540860464 -0.3264205927 -0.1272046688 0.1232045533
310298140.0 -0.1301528588 0.1111662772 0.4502719442 -0.3314884959 0.4507003486 -0.3312360385 -0.1256506535 0.1245940935
315298110.0 -0.1297828356 0.1122010269 0.4469880593 -0.3367971905 0.4466846143 -0.3367864166 -0.1245807003 0.1259472635
320298080.0 -0.1287010064 0.1136267113 0.4425688686 -0.3418660484 0.4435922412 -0.3421332818 -0.1237635362 0.1275333
325298050.0 -0.1281328239 0.1144266405 0.4389595138 -0.3468176445 0.439363997 -0.3469263175 -0.1221209282 0.1284634951
330298020.0 -0.1275747191 0.116057271 0.4353043547 -0.3521352517 0.4355452356 -0.3518897438 -0.121109493 0.129487542
335297990.0 -0.1263641282 0.1174882499 0.4311140704 -0.3568079476 0.4313831655 -0.3568961181 -0.1198220904 0.1310161199
340297960.0 -0.1257513197 0.1186931336 0.4266147428 -0.3617293101 0.4268998492 -0.3616750991 -0.1184917906 0.1328097053
345297930.0 -0.1248680005 0.119806775 0.4232508187 -0.3664422406 0.4231015557 -0.3665771826 -0.1171291625 0.1339359498
350297900.0 -0.1243798479 0.1208574142 0.4189929966 -0.3703575887 0.4190833362 -0.3706751118 -0.116252076 0.1350305773
355297870.0 -0.1231059567 0.1223665219 0.4148185034 -0.3749630058 0.4148198782 -0.3749542947 -0.1144601427 0.1366082814
360297840.0 -0.1220559951 0.123641524 0.4102270931 -0.3797841085 0.4106878537 -0.380335333 -0.1132566712 0.1383541809
365297810.0 -0.1211345094 0.1252317061 0.406211274 -0.3843246161 0.4065867516 -0.3846798329 -0.1121631366 0.1393648422
370297780.0 -0.1200479961 0.1261916462 0.401745681 -0.3888039214 0.4022948823 -0.3889290807 -0.1108495805 0.1409962472
375297750.0 -0.1188113517 0.1276726399 0.3979227566 -0.3932553112 0.3977022553 -0.3932383822 -0.1088983356 0.1422225605
380297720.0 -0.1182151432 0.1293583373 0.394137104 -0.3982865108 0.3933713553 -0.3975344293 -0.1074637835 0.1437661145
385297690.0 -0.1171448014 0.1303357837 0.38907786 -0.4018846096 0.389296959 -0.4023407901 -0.1058734265 0.1450511983
390297660.0 -0.1154991587 0.1312566779 0.3842408352 -0.4056141106 0.3849394383 -0.4062308436 -0.10415653 0.1461415558
395297630.0 -0.1141678467 0.1328064346 0.3803736493 -0.409869677 0.3801450338 -0.4101100708 -0.102787575 0.1473805568
400297600.0 -0.1135553765 0.1338491884 0.3758808709 -0.4145752073 0.3757269858 -0.4147532935 -0.101044315 0.1492272433
405297570.0 -0.1123619723 0.1347094475 0.3714550645 -0.4187010732 0.3715279807 -0.4189071628 -0.0991236371 0.1502828414
410297540.0 -0.1107847916 0.1361685427 0.3668961618 -0.4228661246 0.3670114968 -0.4224900194 -0.0979876016 0.1514379422
415297510.0 -0.1098323353 0.1374266514 0.36198087 -0.4267847948 0.3622870206 -0.4268743112 -0.0957224296 0.1529098867
420297480.0 -0.1085708142 0.1381235429 0.3569315246 -0.4307598798 0.3575921605 -0.4310734807 -0.0941413457 0.1544884591
425297450.0 -0.1071831604 0.139518533 0.3528888924 -0.4342400569 0.352368052 -0.4344620605 -0.0928619837 0.1549776564
430297420.0 -0.1060748701 0.1406689705 0.3485231488 -0.4383558663 0.3482994608 -0.4381562875 -0.090878382 0.1562942777
435297390.0 -0.104923543 0.1417483527 0.3428630732 -0.4426565447 0.3427172714 -0.4421517227 -0.0896482521 0.1578921758
440297360.0 -0.1033124567 0.1426540593 0.337964426 -0.4459018601 0.3378328611 -0.4460802608 -0.0876761253 0.1587270609
445297330.0 -0.101789735 0.1435415208 0.3331230098 -0.449166511 0.3336310301 -0.4500528337 -0.0859119384 0.1600620941
450297300.0 -0.1004283811 0.1448785584 0.3284472931 -0.4527382809 0.328596031 -0.4532160645 -0.0840724988 0.1610500454
455297270.0 -0.0997375513 0.1459114713 0.3236721026 -0.4564530403 0.3237163135 -0.4568816556 -0.0822754768 0.1620060848
460297240.0 -0.0977270882 0.1471720062 0.3185217652 -0.460508332 0.3184175321 -0.4603561832 -0.0806253897 0.1628480445
465297210.0 -0.0964361385 0.1480313866 0.3131097675 -0.4638607746 0.3124570852 -0.4641109966 -0.0782508342 0.1646897849
470297180.0 -0.0952856896 0.1488536607 0.3080217939 -0.4666785194 0.3085488204 -0.466743188 -0.0769303117 0.16518316
475297150.0 -0.0937966743 0.1502461502 0.3031658955 -0.4704730876 0.3031614177 -0.4704817833 -0.0748024848 0.1662724323
480297120.0 -0.0919726405 0.1513002531 0.2977582872 -0.4738681953 0.298157622 -0.473732904 -0.0734050193 0.1672762992
485297090.0 -0.0907473571 0.1520140814 0.2926986758 -0.477190586 0.2925718203 -0.476873284 -0.0714920618 0.1682829005
490297060.0 -0.0885484011 0.1530902565 0.2869166005 -0.480260491 0.2876860993 -0.4801847336 -0.0694352092 0.1688535134
495297030.0 -0.0874817627 0.153503815 0.2825536458 -0.4829992995 0.2819988695 -0.483600824 -0.0672684159 0.1697719139
500297000.0 -0.0864025643 0.154879904 0.2773171893 -0.4856862777 0.2767820857 -0.4866652549 -0.0654564742 0.1711321275
505296970.0 -0.0842501505 0.1560840952 0.271596955 -0.4894655819 0.2716679134 -0.4890789009 -0.0638434898 0.1712268481
510296940.0 -0.0828711108 0.156693673 0.2663614626 -0.4925431173 0.2663777497 -0.4927448304 -0.0612690073 0.1726574361
515296910.0 -0.0812073366 0.157931325 0.2603237557 -0.4951310858 0.2604775268 -0.4948835819 -0.0596142789 0.1729015302
520296880.0 -0.0796013822 0.1588302205 0.2553449693 -0.4977115275 0.2552864488 -0.4977659534 -0.057511481 0.1744456432
525296850.0 -0.0779585846 0.1593868942 0.2499817118 -0.5003517485 0.2498625545 -0.5003410618 -0.0555921775 0.1747576042
530296820.0 -0.0765901743 0.1602203205 0.2443796771 -0.5031307927 0.2443807825 -0.5031243167 -0.0536750029 0.1752289682
535296790.0 -0.0743439721 0.161112703 0.2387886932 -0.505548707 0.2393645221 -0.5054620336 -0.0516490922 0.176160966
540296760.0 -0.0729000477 0.1620754852 0.2331065142 -0.5082497528 0.2328851174 -0.5081150572 -0.0497447746 0.1765458753
545296730.0 -0.0716926655 0.1633126503 0.2281449149 -0.5106628636 0.2277208406 -0.5106839733 -0.0476238787 0.1774632318
550296700.0 -0.0694052931 0.1639018592 0.2222198761 -0.5131908789 0.2222697167 -0.5133995538 -0.0454737457 0.1782023187
555296670.0 -0.0679411469 0.1649766003 0.2167186605 -0.5159574116 0.2165260546 -0.515748692 -0.0438832869 0.1784400067
560296640.0 -0.0658559971 0.1654065827 0.2107662268 -0.5179630697 0.2109828213 -0.5177524406 -0.0413533401 0.1796037737
565296610.0 -0.0647822038 0.1663430116 0.2054435438 -0.5203796385 0.2057410661 -0.519917773 -0.0395417581 0.1802121342
570296580.0 -0.0629545552 0.1673429672 0.1994433404 -0.5219751602 0.1995870884 -0.5224278237 -0.0375907819 0.1805389944
575296550.0 -0.0609647468 0.1680243828 0.1942795219 -0.5243177768 0.1939295485 -0.5244132107 -0.0355238657 0.1811386278
580296520.0 -0.0593305561 0.1688420444 0.1884176242 -0.5263461926 0.1880641887 -0.5265952983 -0.0336410041 0.1816102125
585296490.0 -0.0573730618 0.1698188217 0.1826767386 -0.5284025254 0.1823479377 -0.5283435346 -0.0312770823 0.182307066
590296460.0 -0.0552681206 0.1704600285 0.1768506637 -0.5304771988 0.1766931236 -0.5307426107 -0.0296334812 0.182676291
595296430.0 -0.0539040163 0.1712070674 0.1704459784 -0.5322049737 0.1704953115 -0.5324047941 -0.0273156423 0.1826966419
600296400.0 -0.052193272 0.1720140786 0.1648367804 -0.5338119003 0.164856786 -0.5336050735 -0.0253076647 0.1831186003
605296370.0 -0.0509211772 0.1727957465 0.1600460431 -0.5352493364 0.1591097977 -0.5360135909 -0.023293681 0.1839909879
610296340.0 -0.0485396398 0.1738044677 0.1535773189 -0.5370844398 0.1539291353 -0.5374579344 -0.0215755626 0.1845191665
615296310.0 -0.0466958615 0.174130824 0.1476620428 -0.5394377146 0.1473176426 -0.5389781793 -0.0189218078 0.1848401135
620296280.0 -0.0454124633 0.1753530523 0.1415551274 -0.540567917 0.1415547619 -0.5403884939 -0.0174325629 0.1855453974
625296250.0 -0.0436489188 0.1754497163 0.1359767185 -0.5417431325 0.1359277195 -0.5420084367 -0.0152961049 0.1851993813
630296220.0 -0.04170925 0.1764333228 0.1296882498 -0.5434265909 0.1299465901 -0.5432034176 -0.012953145 0.1857105863
635296190.0 -0.0400532888 0.1773387492 0.1240167929 -0.5447396153 0.1241137507 -0.5447345843 -0.0111197767 0.1859790596
640296160.0 -0.038116527 0.1772604726 0.1180976187 -0.5457597972 0.1182636374 -0.5458437918 -0.0092122287 0.1859832443
645296130.0 -0.036072422 0.1786243702 0.1122070274 -0.547392723 0.1123538453 -0.5469650948 -0.007237105 0.1859806102
650296100.0 -0.0347297164 0.1789478496 0.1066390756 -0.5486720026 0.1061572104 -0.548329884 -0.0044972379 0.18628792
655296070.0 -0.0329175546 0.1793732471 0.1001494037 -0.5496757799 0.1001218269 -0.5489574808 -0.0030835022 0.1870010698
660296040.0 -0.0311353087 0.1803199533 0.0945007419 -0.5505099177 0.0941289424 -0.5504732083 -0.0005653156 0.1865862852
665296010.0 -0.0293774788 0.1808555858 0.0881723378 -0.5512513788 0.0882211565 -0.5513172197 0.0012297574 0.1871707873
670295980.0 -0.0275016152 0.1813642707 0.082688665 -0.5521717018 0.0822291053 -0.5517435804 0.0032475715 0.187159713
675295950.0 -0.0260680198 0.1818216436 0.0764234461 -0.5530152191 0.0764144493 -0.5534132039 0.005310456 0.1873685745
680295920.0 -0.02443358 0.1826140221 0.0708396948 -0.5534407401 0.070581584 -0.5533616088 0.0075617571 0.1870297807
685295890.0 -0.0221768577 0.1830455732 0.0642206314 -0.554526802 0.0643991302 -0.5547262146 0.0095211511 0.1873622876
690295860.0 -0.0206699788 0.1835994623 0.0587825811 -0.554793545 0.0582782546 -0.5553734084 0.0117589136 0.1874704043
695295830.0 -0.0187567679 0.1839897419 0.0528954233 -0.5561455312 0.0525874228 -0.5557367341 0.0136284789 0.1874529784
700295800.0 -0.0168480901 0.184447844 0.0468635839 -0.5562600641 0.0466816443 -0.5561922654 0.015643491 0.1873490646
705295770.0 -0.0156376344 0.1848400351 0.0406939719 -0.5568900173 0.0408384282 -0.5564220655 0.0174791836 0.1875598053
710295740.0 -0.0135570071 0.1852296262 0.0348589832 -0.5567990872 0.0342680719 -0.5572480076 0.0201090629 0.1875001155
715295710.0 -0.0117483419 0.1858011843 0.028797063 -0.5575060241 0.0282845598 -0.5577118593 0.0220283179 0.1873088251
720295680.0 -0.009820937 0.1860789747 0.0228413927 -0.5574498021 0.0223905415 -0.5578564517 0.0241493135 0.1872007742
725295650.0 -0.0084351038 0.1865972751 0.0170917908 -0.5579513084 0.0169277071 -0.5578839466 0.0256973727 0.1875499252
730295620.0 -0.0072191469 0.1867851623 0.0108461502 -0.5574958754 0.0106099263 -0.5574203478 0.0280044614 0.1873786564
735295590.0 -0.0049197294 0.1871925819 0.0051377638 -0.5575621978 0.0043815722 -0.5580885227 0.0298602989 0.18683851
740295560.0 -0.0034124003 0.1872989311 -0.0010519524 -0.5580083601 -0.0011948476 -0.5581627225 0.031765685 0.1872661684
745295530.0 -0.0017115438 0.1880105197 -0.0068270998 -0.5575812141 -0.0066941135 -0.5579930892 0.0338634916 0.1866476815
750295500.0 -8.40173e-05 0.1879580359 -0.0130855389 -0.5574772245 -0.0134998695 -0.557667064 0.0362340296 0.1863876742
755295470.0 0.0014564385 0.1883038679 -0.0187602645 -0.5577574662 -0.0190906695 -0.5578248839 0.0381870727 0.1867024909
760295440.0 0.0032380278 0.1888485084 -0.0251514061 -0.557364859 -0.0251398144 -0.5572154264 0.0402837589 0.1855414452
765295410.0 0.0054037384 0.1883067717 -0.0312562417 -0.5565352539 -0.0309753914 -0.5566896473 0.0422555918 0.1855801842
770295380.0 0.0070235192 0.1890759908 -0.0369435122 -0.5563533851 -0.0367766553 -0.5569242082 0.0437442067 0.1854440614
775295350.0 0.0083342762 0.1886691095 -0.0432260346 -0.5561819017 -0.0428033005 -0.5559453825 0.0462515135 0.1853431012
780295320.0 0.0104139841 0.18938415 -0.0489699733 -0.5551060553 -0.0489119054 -0.5553666008 0.0486612004 0.1846445209
785295290.0 0.0122511027 0.1893339928 -0.0550519623 -0.5548888447 -0.0544019604 -0.5552119342 0.0498177635 0.1846381873
790295260.0 0.0138526214 0.1892242109 -0.0608660664 -0.5543496655 -0.0604140985 -0.5548207703 0.052123119 0.18439815
795295230.0 0.0156091518 0.1890448222 -0.0666596603 -0.5535234099 -0.0670219055 -0.5537183944 0.054300169 0.183200091
800295200.0 0.0170552268 0.1895012324 -0.0721937374 -0.5523390621 -0.0727340529 -0.5533984925 0.0558568372 0.1830795193
805295170.0 0.0189186078 0.1895250147 -0.0782834108 -0.5523035934 -0.0783241047 -0.5523242657 0.0586912078 0.1825393697
810295140.0 0.0208901514 0.1896987656 -0.0842729727 -0.5509893053 -0.0845474659 -0.5510590888 0.060264016 0.1820620818
815295110.0 0.0224922515 0.1897762689 -0.0901475254 -0.5500393421 -0.0903957946 -0.5504130464 0.0622665892 0.1815914042
820295080.0 0.0241542941 0.1896106605 -0.0960378324 -0.5489342898 -0.0960720762 -0.5493480875 0.0636185872 0.1815432853
825295050.0 0.025490458 0.1893305118 -0.1021190061 -0.548107885 -0.102162997 -0.5481751751 0.0666225079 0.1809025997
830295020.0 0.0275291735 0.1894823553 -0.1078860675 -0.5472071297 -0.1076842227 -0.5471027432 0.0683554456 0.1798185576
