!Created with skrf (http://scikit-rf.org).
# Hz S RI R 50.0 
!freq ReS11 ImS11 ReS21 ImS21 ReS12 ImS12 ReS22 ImS22
300000.0 -0.0490200348 -0.05714924 -0.000688373 -2.8301e-05 -2.89177e-05 0.0011711077 -0.7726018398 -0.165067588
5299970.0 -0.0491172637 0.015838314 0.0001991469 0.0001251739 -4.17987e-05 0.0001353713 -0.7849935474 -0.0086359493
10299940.0 -0.0431664184 0.0334220437 5.42229e-05 0.0001756886 7.32581e-05 -0.0001659247 -0.7885054716 -0.0051443116
15299910.0 -0.0351496056 0.0481440601 -0.000123347 0.0001545432 6.15249e-05 2.0111e-06 -0.7937283037 -0.0029346821
20299880.0 -0.024603777 0.0599665294 0.0001207317 -3.1102e-06 0.0001529311 -0.0001334141 -0.8001228867 0.0012136484
25299850.0 -0.013234758 0.0690150289 -0.0002516674 8.97388e-05 6.39334e-05 8.75738e-05 -0.8067118291 0.0078028671
30299820.0 -0.0014337599 0.075728219 0.0001645863 3.63143e-05 0.0001192874 -1.9538e-06 -0.8127764546 0.0147046293
35299790.0 0.0104080425 0.0804489824 -0.0001364152 9.51679e-05 6.19104e-05 -0.0001436167 -0.8180907423 0.0237331911
40299760.0 0.0218858984 0.0832894049 2.37169e-05 -0.000169781 0.0001210154 -0.0001581144 -0.8216271808 0.033262198
45299730.0 0.0322967275 0.0846594728 -5.96882e-05 -0.000198866 -5.17933e-05 -6.23741e-05 -0.8254275085 0.042248416
50299700.0 0.0428176409 0.0842891651 3.76771e-05 5.2794e-05 -5.59535e-05 -6.98931e-05 -0.8275356791 0.0526309953
55299670.0 0.0521007652 0.0834584618 8.68565e-05 -7.60577e-05 0.0001700853 3.4397e-05 -0.8297156968 0.0630580811
60299640.0 0.0606193437 0.0812488634 6.56937e-05 7.57552e-05 -0.0001154475 -5.9252e-06 -0.8309960317 0.0731729471
65299610.0 0.0686125388 0.078881777 -0.0001098088 -1.00586e-05 -1.67428e-05 -0.0002573637 -0.8311768545 0.0828295182
70299580.0 0.0758049899 0.0756253746 -7.48369e-05 -9.04793e-05 -0.0001615884 3.6292e-06 -0.832833865 0.0928010175
75299550.0 0.0822110985 0.0720544872 -9.14799e-05 0.0001918411 7.31434e-05 -8.8222e-05 -0.8327352625 0.1023815882
80299520.0 0.0875633392 0.0689057689 -0.0001477462 -9.24989e-05 -0.0001340555 0.0002018226 -0.8317961801 0.1125319402
85299490.0 0.0928752101 0.0645889615 9.44351e-05 -0.0001092603 -3.21747e-05 0.0001335666 -0.8318810421 0.1220059126
90299460.0 0.0972436964 0.0609628243 3.42537e-05 0.0001462461 -0.0001057522 -9.44033e-05 -0.831246182 0.1313671447
95299430.0 0.1013650547 0.0565633101 0.0001035931 6.257e-05 -2.14871e-05 0.0001872503 -0.8297081387 0.1405031036
100299400.0 0.1047149519 0.0530182872 5.0572e-06 8.75094e-05 -0.0001265988 -5.74847e-05 -0.829044776 0.1498002972
105299370.0 0.1083035195 0.0488139964 -0.0001117006 0.0001087755 5.86223e-05 -0.0001987022 -0.8275637866 0.1591876667
110299340.0 0.1110038701 0.0447835611 -5.469e-06 7.03149e-05 -5.86209e-05 -4.79579e-05 -0.8269307455 0.1685260949
115299310.0 0.1135150499 0.0404470619 -9.5505e-05 -9.02578e-05 -4.63331e-05 0.0001531441 -0.8249341667 0.1771749777
120299280.0 0.115437379 0.0368591485 9.86899e-05 -0.000152818 0.0002113211 0.0001474889 -0.8234845859 0.1859158041
125299250.0 0.1170871453 0.0326792414 3.19231e-05 -2.35422e-05 -0.0001466963 -0.0001076204 -0.8216641084 0.1951852003
130299220.0 0.1191642561 0.0292466122 0.0001692035 -7.3378e-06 0.0001175391 -0.0002418553 -0.820093705 0.204471132
135299190.0 0.1208654556 0.0251581925 1.03682e-05 6.2082e-05 0.0001244905 9.73107e-05 -0.8178314616 0.2126719376
140299160.0 0.1221609869 0.0217543709 4.64523e-05 9.1426e-05 -4.18045e-05 0.0002075847 -0.8158737809 0.2216548405
145299130.0 0.1230567862 0.01792368 -3.26597e-05 3.7603e-05 7.53103e-05 3.26596e-05 -0.8135845122 0.2303973555
150299100.0 0.1236174801 0.0139290327 5.38318e-05 0.0001879509 8.52207e-05 5.29175e-05 -0.8117941813 0.2384461715
155299070.0 0.1243811993 0.0108852285 -0.0002281421 -0.0001317887 -2.58552e-05 -7.09199e-05 -0.8100238599 0.247460516
160299040.0 0.1251639117 0.0074594176 -4.68655e-05 0.0001974085 8.87893e-05 -0.0001233698 -0.80724405 0.256912369
165299010.0 0.1255112159 0.0041681662 -8.15305e-05 0.0003391873 2.81296e-05 0.0001296237 -0.8045503481 0.2649792531
170298980.0 0.1257270929 0.0008631499 -0.0001324333 8.1232e-05 0.0001115168 -4.36159e-05 -0.8019941973 0.2739082848
175298950.0 0.1261449913 -0.0020757985 -0.0001712993 3.05735e-05 -1.64859e-05 2.24903e-05 -0.7986888713 0.2821673685
180298920.0 0.126156764 -0.0052354097 -3.33557e-05 4.8636e-06 -7.09312e-05 6.58596e-05 -0.7954304522 0.2905063699
185298890.0 0.1259364849 -0.0082860395 0.0001664325 -8.65102e-05 0.0001160303 -2.89554e-05 -0.7928348709 0.2984318208
190298860.0 0.1260561952 -0.0112283804 -8.16127e-05 4.9667e-05 -5.73312e-05 5.14951e-05 -0.7896053756 0.3077117193
195298830.0 0.1263519539 -0.0141703246 0.0001024792 0.0002297703 0.0001172302 0.0001971255 -0.7869793002 0.3152553821
200298800.0 0.1256030663 -0.0169444892 0.0001114868 5.2864e-05 -6.29549e-05 -1.56291e-05 -0.7834507901 0.3236562872
205298770.0 0.1255850222 -0.0198041218 -0.0001082908 0.0002418388 0.0001621323 -5.3234e-06 -0.7798367887 0.3321621795
210298740.0 0.1252630712 -0.0221099173 3.99257e-05 7.57128e-05 -4.85587e-05 0.0001834292 -0.776670249 0.340998671
215298710.0 0.1245373245 -0.024911241 -0.0001408358 -5.8331e-06 2.43181e-05 9.29698e-05 -0.7731218236 0.3487739765
220298680.0 0.124184029 -0.0277384229 5.16076e-05 5.1329e-05 2.25966e-05 0.0001406221 -0.7694709813 0.3573351025
225298650.0 0.1238423026 -0.0302131643 0.000183312 -3.55839e-05 8.37289e-05 -6.82896e-05 -0.7656413193 0.3644760431
230298620.0 0.1231102256 -0.0325729288 -3.95146e-05 5.0778e-05 3.76648e-05 0.0001023596 -0.7615700188 0.3725799476
235298590.0 0.1221213924 -0.0350057097 0.0002043054 -5.73991e-05 -4.42956e-05 0.0001734923 -0.7581615422 0.3806979844
240298560.0 0.1217541275 -0.0373776248 0.0001790823 0.0001243283 0.0001894521 -4.4689e-05 -0.7540248814 0.3883507159
245298530.0 0.1210745958 -0.0395636287 9.42685e-05 2.80035e-05 -7.25416e-05 0.0002831635 -0.7502732846 0.3963441005
250298500.0 0.1201633379 -0.0420141824 -5.82293e-05 5.3833e-06 -6.82966e-05 0.000219764 -0.7458409544 0.4048587405
255298470.0 0.1193693477 -0.0441365257 0.0002816001 -5.11868e-05 -9.55084e-05 0.0001457656 -0.7417613737 0.4124556795
260298440.0 0.118864546 -0.045988799 0.000113667 0.0001246579 -3.12632e-05 -0.0001210532 -0.7365867783 0.419790038
265298410.0 0.1176588126 -0.0480869767 1.0021e-05 -0.0001726506 9.92136e-05 -3.8669e-06 -0.7324420327 0.4277549978
270298380.0 0.1172029706 -0.0501944511 0.0003299489 0.000138746 0.0002128704 3.806e-06 -0.7274471374 0.4355411852
275298350.0 0.1161114707 -0.0522742941 -8.03817e-05 0.0001259885 -1.7733e-06 -3.59109e-05 -0.7230560725 0.4432357075
280298320.0 0.1151998134 -0.054139683 0.0001568476 0.0001108394 -0.0002691781 -7.6089e-06 -0.7187781274 0.4503851049
285298290.0 0.1140261703 -0.0562641413 0.0001591043 -5.5344e-05 0.0001764141 6.04576e-05 -0.7130948049 0.4577268951
290298260.0 0.1131609601 -0.0581248914 0.0002654604 0.0001735416 8.74268e-05 0.0001965299 -0.708873383 0.4659024493
295298230.0 0.1122159996 -0.0603969728 0.0001521969 7.23929e-05 0.000135308 5.80398e-05 -0.7039581961 0.4730773662
300298200.0 0.111138291 -0.0622912983 0.0001873476 0.0001904688 0.0001033227 6.54021e-05 -0.6986567097 0.4799471693
305298170.0 0.1105082174 -0.0641558126 2.726e-06 -1.8156e-05 3.91052e-05 5.38795e-05 -0.6931635494 0.4877156416
310298140.0 0.1090962712 -0.0665674981 2.4991e-05 0.0001281944 7.43632e-05 2.51208e-05 -0.6889246407 0.4950353927
315298110.0 0.1075433782 -0.0682112967 0.0001990975 9.9246e-05 0.0001240763 1.60792e-05 -0.6835395846 0.5020313192
320298080.0 0.1064670788 -0.0699663483 0.0003004882 0.0001008348 0.0001419459 -8.04184e-05 -0.6777535891 0.5092614687
325298050.0 0.1047753417 -0.0720108483 0.0002110421 0.000270241 -4.3311e-06 2.09907e-05 -0.6721890765 0.5164643577
330298020.0 0.1036334233 -0.0735104397 0.0001380652 0.0001477939 9.44939e-05 3.01598e-05 -0.6670100774 0.5228362468
335297990.0 0.1019885749 -0.0751158232 -2.2258e-05 3.14712e-05 0.0002157325 -0.0001074554 -0.6613818707 0.5304261798
340297960.0 0.1007147431 -0.0765500526 5.47307e-05 -2.00133e-05 0.0001533714 -2.99746e-05 -0.6555347134 0.5374993824
345297930.0 0.0991740451 -0.078112322 0.000184642 2.79883e-05 -1.32693e-05 4.10762e-05 -0.6501958968 0.5441663436
350297900.0 0.0981720558 -0.0793697837 -3.67258e-05 8.51759e-05 -6.98621e-05 -6.24805e-05 -0.6438744153 0.5509632551
355297870.0 0.0962771658 -0.0809408554 0.0001733557 0.0001731626 0.0001068822 -8.83439e-05 -0.6382978452 0.5576148476
360297840.0 0.0950312322 -0.0822657997 0.0002516044 5.01138e-05 -4.10513e-05 0.0001571489 -0.6321863624 0.5632210451
365297810.0 0.0937556865 -0.0836337882 0.0001716103 2.9641e-05 0.0001173502 6.99919e-05 -0.626547969 0.5705698485
370297780.0 0.0923943931 -0.0849797276 -4.3586e-05 0.0002260506 0.0001596791 6.2124e-05 -0.6207227154 0.5763984033
375297750.0 0.0909164378 -0.0859655996 -6.31727e-05 -2.30675e-05 0.0001636553 0.0002744658 -0.6140827719 0.5836042128
380297720.0 0.08993099 -0.087609886 9.31523e-05 0.000146474 0.0001938345 3.24847e-05 -0.6079781831 0.5899246833
385297690.0 0.0882814525 -0.0886005919 0.000143788 5.76476e-05 -4.07764e-05 6.42688e-05 -0.6018007777 0.5958824823
390297660.0 0.0869479155 -0.0898598028 2.27005e-05 8.1137e-05 0.0002229802 0.0002592193 -0.5955339657 0.6016800072
395297630.0 0.0855888907 -0.0914481071 -3.95286e-05 0.0001643173 0.0001330172 -5.1774e-06 -0.5890562665 0.6079001807
400297600.0 0.084027559 -0.0919868471 0.0002785784 -0.0001959837 -9.4636e-06 -6.44609e-05 -0.582628477 0.6137941039
405297570.0 0.0824711074 -0.0932868635 3.01948e-05 -1.96396e-05 -1.53493e-05 0.0001875064 -0.577516282 0.6198772738
410297540.0 0.080829497 -0.0946312564 -0.0001353839 -3.33525e-05 6.80212e-05 1.85754e-05 -0.5702025276 0.6259681312
415297510.0 0.0796818862 -0.0956913962 0.0001051904 -7.4408e-05 9.74222e-05 7.6515e-06 -0.563879046 0.6321758994
420297480.0 0.0780337145 -0.0967930094 2.88876e-05 6.90162e-05 8.26499e-05 0.0001746846 -0.5571650238 0.6367995643
425297450.0 0.0764522685 -0.0979691169 2.59695e-05 0.0001838862 -1.97414e-05 9.05244e-05 -0.5498632173 0.6426827494
430297420.0 0.0750428016 -0.0987655523 0.0001633405 0.0001056231 4.98176e-05 0.0002990252 -0.5432742267 0.6486681173
435297390.0 0.0735284087 -0.0997264089 -2.4198e-06 3.54152e-05 4.98359e-05 -6.16486e-05 -0.5371463029 0.6535819467
440297360.0 0.0718906528 -0.1006809082 0.0001391246 -0.0001476514 6.09236e-05 3.06832e-05 -0.5300680672 0.6590201127
445297330.0 0.0704761549 -0.1012492739 6.37567e-05 2.4442e-05 6.69113e-05 -0.0001040313 -0.5235330514 0.6641559185
450297300.0 0.0688168776 -0.1026302005 7.6078e-05 0.000274533 0.0001114898 -1.31449e-05 -0.5167054061 0.6698878055
455297270.0 0.0672242361 -0.1034379809 0.0001440083 -5.37269e-05 6.53334e-05 -4.40554e-05 -0.5098316492 0.6748598324
460297240.0 0.0654134445 -0.1041141954 0.0001501515 4.98998e-05 0.0001519915 0.0001963627 -0.5026213997 0.6803733997
465297210.0 0.064157194 -0.1048188886 0.0003161339 -0.0001402142 6.77796e-05 -0.0001216843 -0.4961732407 0.684838599
470297180.0 0.0624860261 -0.1056701618 3.1314e-06 -0.0001071035 0.0003357453 -9.30479e-05 -0.4892667659 0.689651732
475297150.0 0.0610459413 -0.106752617 0.0001976002 -5.36648e-05 0.0002157876 0.0001168443 -0.4817496147 0.6947452394
480297120.0 0.0593286184 -0.1074477023 -4.51143e-05 6.37945e-05 0.000112353 -7.65573e-05 -0.4753046598 0.7000416318
485297090.0 0.0576502114 -0.1082944579 -9.2502e-06 -1.6464e-05 0.0001452129 0.0001002624 -0.4679748287 0.7039405303
490297060.0 0.0561739104 -0.1087196214 0.0001979258 7.78471e-05 -2.51114e-05 4.07118e-05 -0.4610218962 0.7086800734
495297030.0 0.0544420733 -0.1093591058 2.418e-06 -7.86779e-05 0.0001379324 -0.0001753686 -0.453153326 0.7129887033
500297000.0 0.0527910183 -0.1104513354 7.72289e-05 -1.85898e-05 -2.27698e-05 4.70436e-05 -0.4465647904 0.7173862529
505296970.0 0.0509717332 -0.1107096578 9.66452e-05 -4.63435e-05 0.0002651931 2.19355e-05 -0.4396324085 0.7222511584
510296940.0 0.0494770382 -0.1113498509 0.0003046742 -9.02511e-05 7.9905e-06 -6.03998e-05 -0.4316472469 0.7264755454
515296910.0 0.0477035696 -0.1119076188 8.326e-05 -4.57748e-05 0.0001864123 2.02561e-05 -0.4245959368 0.7307935007
520296880.0 0.0464405945 -0.1125593893 0.0002444035 8.01199e-05 4.45592e-05 -3.11787e-05 -0.4174683986 0.7346771153
525296850.0 0.0446800993 -0.1129855348 9.37443e-05 -6.35395e-05 -7.53729e-05 4.18437e-05 -0.4097059392 0.7391685632
530296820.0 0.0428219129 -0.1135509397 0.000231963 5.68476e-05 0.0001330465 -3.15125e-05 -0.4026732871 0.7433573521
535296790.0 0.0414192548 -0.1139605533 -6.62422e-05 0.000222762 -1.71748e-05 -1.29902e-05 -0.3953102213 0.7465446419
540296760.0 0.0393873569 -0.1148333491 0.0001250357 -7.589e-07 3.68993e-05 -9.3426e-06 -0.3880872733 0.7508723804
545296730.0 0.0380181243 -0.114892674 0.0002423947 7.83675e-05 0.0001471292 -1.19664e-05 -0.3804201396 0.7542779101
550296700.0 0.0362583824 -0.1151982 0.0001903936 9.09106e-05 0.0001732146 -3.84401e-05 -0.3731322521 0.7581293358
555296670.0 0.0346706673 -0.1154799032 -4.08311e-05 -0.0001846107 7.0029e-05 -5.97373e-05 -0.3653920252 0.7621236075
560296640.0 0.0329202075 -0.1162881093 0.0001221527 -0.0002706251 0.0002256162 -1.65099e-05 -0.3574611694 0.7655839898
565296610.0 0.0309666781 -0.1162360172 -0.000121341 -0.0001767729 3.27627e-05 -9.51571e-05 -0.3503843204 0.7688092129
570296580.0 0.029393935 -0.1167233663 -1.07689e-05 5.40864e-05 0.0001211257 0.0001271201 -0.3426258558 0.772665922
575296550.0 0.0282769349 -0.1169306218 -0.0001128301 0.0001578275 0.000192855 0.0001211501 -0.3345510607 0.775984959
580296520.0 0.0263209186 -0.1172096955 0.0001842039 -5.6062e-06 -6.3159e-06 0.0001504941 -0.3269178211 0.7795095485
585296490.0 0.0244770755 -0.1175415058 0.0002639188 6.54182e-05 6.95867e-05 -2.17421e-05 -0.3192719745 0.7816725581
590296460.0 0.0226385232 -0.1177772075 0.000227942 0.0001529339 9.75333e-05 -3.18033e-05 -0.3114253745 0.7849078993
595296430.0 0.0209478488 -0.1178585597 0.0003394539 -0.0003800173 0.0001510326 8.62508e-05 -0.3036032438 0.7873671246
600296400.0 0.0193574484 -0.1178985416 1.51089e-05 -1.02062e-05 -0.0001541268 -0.0001150926 -0.2961676772 0.791457787
605296370.0 0.0179267468 -0.1183309749 0.0001040574 0.0001142019 -1.13613e-05 7.72186e-05 -0.2880730031 0.7942263424
610296340.0 0.0158784943 -0.1182698589 0.0001382373 5.45562e-05 6.20887e-05 -0.0001661876 -0.2801379232 0.7972680925
615296310.0 0.0144913996 -0.1183431932 0.0001161302 -0.0001184543 0.0002153579 -0.0002669075 -0.2729185898 0.7996683224
620296280.0 0.0127624429 -0.1186096709 0.0003061382 2.9409e-06 0.000129996 -0.0001687953 -0.2644370027 0.8018368238
625296250.0 0.011078836 -0.1185077498 5.25618e-05 5.29249e-05 0.0002149306 8.766e-07 -0.2566340377 0.8047173237
630296220.0 0.0094505432 -0.1187449914 0.0002381966 -0.0001494988 2.09195e-05 0.0001057432 -0.2483283398 0.8078415373
635296190.0 0.0074864651 -0.118326322 0.0002735028 6.06836e-05 0.0001634062 0.0001433716 -0.2409449234 0.8091121347
640296160.0 0.0060045681 -0.1184442362 -3.18564e-05 2.81379e-05 0.0001558123 2.29587e-05 -0.2325877526 0.8118100262
645296130.0 0.0040167636 -0.1185319818 4.32352e-05 -0.0001091682 0.000183295 6.38214e-05 -0.2244573772 0.813944529
650296100.0 0.0023841017 -0.1179992515 0.0002857014 -2.40227e-05 7.46e-08 -0.0002071292 -0.2168630176 0.8164933273
655296070.0 0.0006797041 -0.1184393105 0.0001272911 -5.4977e-06 0.0003021843 -7.5806e-06 -0.2083343184 0.8180170523
660296040.0 -0.0010511053 -0.1180381924 1.12106e-05 6.11903e-05 0.0002015725 0.0001971142 -0.2004793143 0.8206054822
665296010.0 -0.0025702172 -0.1181190301 0.0003629783 -9.94834e-05 0.0001376249 -9.75307e-05 -0.1925397032 0.8218707408
670295980.0 -0.0043114082 -0.1178719695 -3.6128e-05 3.8277e-05 6.95177e-05 -7.9691e-06 -0.1847616628 0.8236435
675295950.0 -0.0057808248 -0.1176155402 0.0001773988 -6.05325e-05 7.73182e-05 0.0001687589 -0.1761911784 0.8266123126
680295920.0 -0.0075035413 -0.1169523394 0.0001092604 -0.0002020778 0.0002953563 0.0001333167 -0.1675422057 0.8278267022
685295890.0 -0.0090561212 -0.1169419457 0.0001759531 0.0001457244 0.0003436252 -7.1108e-05 -0.1600222327 0.8291516817
690295860.0 -0.0107371244 -0.1169611256 1.05265e-05 -5.12118e-05 4.53646e-05 2.35098e-05 -0.1516687641 0.8307120536
695295830.0 -0.0124538056 -0.1164843436 0.0002085976 0.0002300068 0.0001230451 9.11747e-05 -0.1434948763 0.8323093142
700295800.0 -0.0142236697 -0.1161156832 0.0001594404 -0.0001361069 0.0001453639 -6.25278e-05 -0.1343421758 0.8331874769
705295770.0 -0.0156401953 -0.1161352752 -5.63904e-05 -3.54102e-05 9.67136e-05 -5.79346e-05 -0.1271674527 0.835097402
710295740.0 -0.0172174482 -0.1156356707 6.9229e-06 0.0001605112 0.0002498822 1.94214e-05 -0.1193350899 0.836191516
715295710.0 -0.0191616732 -0.1154540355 -0.000135948 -0.0001987191 6.25287e-05 -0.0002217943 -0.1103953593 0.8374452304
720295680.0 -0.0208005155 -0.1151284507 -3.99514e-05 0.0001539182 0.000160938 3.35983e-05 -0.1021827208 0.8384862056
725295650.0 -0.022215494 -0.1143347087 0.000127357 1.08861e-05 3.61752e-05 0.0001496955 -0.0934946182 0.8393955742
730295620.0 -0.0239528507 -0.1142648345 0.0001370255 1.16297e-05 0.0002008889 7.83022e-05 -0.0853481701 0.8405182515
735295590.0 -0.0251096099 -0.1135058278 0.000172718 1.58786e-05 0.0001240767 -5.61736e-05 -0.076707453 0.8410646445
740295560.0 -0.0270843052 -0.1131268008 0.0003303 0.0001679472 2.83248e-05 4.45435e-05 -0.0689227381 0.8409299992
745295530.0 -0.0289454142 -0.1126007077 0.0002696812 -7.4e-05 2.48183e-05 6.27463e-05 -0.0603362472 0.842141024
750295500.0 -0.0303543651 -0.1118107673 4.26264e-05 -0.0001011562 5.45169e-05 -6.6341e-05 -0.0521676682 0.8421153938
755295470.0 -0.0319050398 -0.1112631343 0.0003202183 -7.33354e-05 0.0001837399 9.57024e-05 -0.0439917143 0.8434307557
760295440.0 -0.0334900342 -0.1107000159 3.93892e-05 -6.43681e-05 4.59379e-05 -8.04578e-05 -0.0358459279 0.8435945982
765295410.0 -0.0351764641 -0.1103719052 8.93989e-05 0.0001803525 0.0001437203 3.29488e-05 -0.0269008846 0.8443281695
770295380.0 -0.0365411811 -0.1095279513 0.0001956666 2.73155e-05 -0.0001162483 -1.82096e-05 -0.0187325058 0.844140489
775295350.0 -0.0384740814 -0.1087638209 0.0001634234 -0.0001159644 2.85051e-05 -0.000135849 -0.0114353314 0.8438027072
780295320.0 -0.0397979625 -0.1086289776 0.0001595999 5.9761e-06 0.0001111917 -5.0851e-06 -0.0026120153 0.8446387776
785295290.0 -0.0413089705 -0.107503518 6.84043e-05 -0.0001359207 0.0003295838 -8.58282e-05 0.0055977041 0.8444842248
790295260.0 -0.0428069355 -0.1069593427 2.10326e-05 1.47722e-05 0.0001754801 0.0001298955 0.0150054887 0.844276059
795295230.0 -0.0443539796 -0.1060269752 0.0002410168 -0.0001809837 0.0002226135 -0.0001533945 0.022546611 0.8445175795
800295200.0 -0.045744068 -0.1054567482 0.0002489404 0.0001722286 7.82522e-05 -4.16232e-05 0.0306288852 0.8437674134
805295170.0 -0.0471757578 -0.1048114535 3.68681e-05 0.0001420408 0.0001731766 -4.10843e-05 0.0389142068 0.8429290161
810295140.0 -0.0485891618 -0.1040093909 0.0002521099 -5.93897e-05 3.5394e-06 -8.83421e-05 0.0474362867 0.8437008233
815295110.0 -0.0500461593 -0.103023288 0.0002146779 -0.0001152576 0.0002212379 4.61432e-05 0.0555775546 0.842610465
820295080.0 -0.0518185954 -0.1023459695 0.0001017116 -8.69894e-05 0.0002248276 -5.1314e-05 0.063512051 0.841652073
825295050.0 -0.0532109231 -0.1012590363 7.31638e-05 -0.0002550402 0.0003214889 0.0002372119 0.072130713 0.8413868057
830295020.0 -0.0543704599 -0.1004829399 1.57023e-05 4.87923e-05 3.87595e-05 -0.0003004948 0.0801713779 0.8405987721
835294990.0 -0.0559033354 -0.0998617766 0.000256083 -0.000249715 -3.42398e-05 1.70737e-05 0.0882927829 0.8396479836
840294960.0 -0.0573486083 -0.0990612147 -1.38163e-05 4.56188e-05 0.0002041044 7.65679e-05 0.0966557089 0.839198433
845294930.0 -0.0590298941 -0.0977894701 -2.84486e-05 -4.17438e-05 0.0003777409 -0.0001222598 0.1047098285 0.8380490916
850294900.0 -0.0603672929 -0.0970570146 0.0002590504 -7.44363e-05 0.0001279773 -2.58178e-05 0.113343645 0.8371189583
