!Created with skrf (http://scikit-rf.org).
# Hz S RI R 50.0 
!freq ReS11 ImS11 ReS21 ImS21 ReS12 ImS12 ReS22 ImS22
300000.0 -0.3193786824 -0.1032573899 0.373729626 0.0499219458 0.3726495378 0.0550793923 -0.3183123767 -0.1126905016
5299970.0 -0.3237845086 0.0047723234 0.3785278972 0.0027438075 0.3782285824 0.0033471512 -0.3260225399 0.0029653603
10299940.0 -0.320804355 0.0158553235 0.3797878119 0.0021790266 0.3799057752 0.0025882556 -0.3242263992 0.0127314471
15299910.0 -0.3179150949 0.0234839438 0.3820440046 0.0021275976 0.3820347561 0.0025230005 -0.3213675872 0.0197995025
20299880.0 -0.3140936094 0.0301798363 0.3850508341 0.0018139099 0.3849860068 0.0017737807 -0.3188973074 0.0260757213
25299850.0 -0.3107697331 0.0356058225 0.3882928696 6.61175e-05 0.3886393666 -1.17876e-05 -0.3159578379 0.0312448889
30299820.0 -0.3067084255 0.0403951201 0.392086275 -0.0021134736 0.391853173 -0.0022465916 -0.3128178392 0.0355108934
35299790.0 -0.3027177245 0.0445744867 0.3950656546 -0.0053099216 0.3949496412 -0.0052202006 -0.3098087227 0.0390766276
40299760.0 -0.2994434345 0.0477813826 0.3982446894 -0.0085574004 0.3982165315 -0.0088072399 -0.3072340655 0.0429902094
45299730.0 -0.2964442997 0.051606047 0.4011742599 -0.0129980592 0.401411476 -0.0127145164 -0.3046949934 0.0464440825
50299700.0 -0.2930946141 0.0541128631 0.4034383833 -0.0174144504 0.4038754475 -0.0174555713 -0.302250025 0.0490150335
55299670.0 -0.2909577056 0.0569168496 0.4054235346 -0.0220615193 0.4056763336 -0.0220053853 -0.3003332927 0.0516614466
60299640.0 -0.2878818267 0.0587884939 0.4071454771 -0.0265616829 0.4075886817 -0.027052883 -0.2979766934 0.0545263999
65299610.0 -0.2862384843 0.0617454775 0.4097472917 -0.0314340637 0.4094976734 -0.031760129 -0.2963871852 0.0571250587
70299580.0 -0.2838942195 0.0636766058 0.4105991551 -0.03658727 0.4107708286 -0.0368607791 -0.2947770878 0.0594390114
75299550.0 -0.2819746688 0.0657809465 0.4115777811 -0.0418606145 0.411556359 -0.0422681012 -0.2929109369 0.0616718399
80299520.0 -0.2802007062 0.0678331687 0.4127365268 -0.0474482741 0.4127337158 -0.0472150185 -0.2914655684 0.0640343221
85299490.0 -0.2784260807 0.0698359658 0.4130614957 -0.0527155189 0.4129228438 -0.0526160044 -0.2904138795 0.0659958668
90299460.0 -0.2772742404 0.0719391411 0.4136056454 -0.0577785314 0.4135231145 -0.057886969 -0.2885983346 0.0686909902
95299430.0 -0.2756938312 0.0744335372 0.4137633061 -0.0631809147 0.4140380891 -0.063106169 -0.2878024401 0.0712704632
100299400.0 -0.2744445535 0.0764747731 0.4138997054 -0.0682329497 0.4136184013 -0.0685800977 -0.2867249836 0.0731916598
105299370.0 -0.2730596958 0.0784203946 0.4133805444 -0.0734423701 0.4138795229 -0.0737257683 -0.2852567361 0.0758040347
110299340.0 -0.2720347364 0.0803498087 0.4133840836 -0.0781194518 0.4136618973 -0.0790864824 -0.2844022545 0.0781659181
115299310.0 -0.270678219 0.0824085308 0.4132673848 -0.0835194738 0.4132148551 -0.0836447331 -0.2830646907 0.0800215272
120299280.0 -0.2696106239 0.0846812019 0.4127348326 -0.0887297712 0.4129146531 -0.0889225549 -0.2824064198 0.0824268913
125299250.0 -0.2687950471 0.0865545616 0.4119924974 -0.0939452368 0.412565579 -0.0939956693 -0.2814638042 0.0848526167
130299220.0 -0.2676991456 0.0891255505 0.4116341913 -0.0985784895 0.4115485789 -0.0992445019 -0.2806951431 0.0873504501
135299190.0 -0.2667687454 0.0909280506 0.4110796607 -0.1034651885 0.4106269626 -0.1041859354 -0.2795850284 0.089688084
140299160.0 -0.2659109486 0.0937628439 0.4102089908 -0.1091522154 0.4101965991 -0.109163806 -0.2782381004 0.0918959309
145299130.0 -0.2649259066 0.0959272912 0.4095147075 -0.1139496885 0.4091745493 -0.1139069013 -0.2782004223 0.094355159
150299100.0 -0.2639909521 0.098157113 0.4081122702 -0.1191465029 0.4085209417 -0.1190383412 -0.2772046852 0.0966929212
155299070.0 -0.2627862322 0.1008792827 0.4070587728 -0.1243827283 0.4069413618 -0.1241530426 -0.2759445522 0.0994899337
160299040.0 -0.2617007094 0.1033481633 0.4057326687 -0.1285547046 0.4057974879 -0.1289557924 -0.274721034 0.1022807731
165299010.0 -0.2611552064 0.1054721718 0.4047118988 -0.1338319368 0.4046836618 -0.133756637 -0.2743977477 0.1047043402
170298980.0 -0.2602584006 0.1078478175 0.4028049261 -0.1384434284 0.4031911372 -0.1384727682 -0.2733089788 0.1069530929
175298950.0 -0.2589696106 0.110498866 0.4022345921 -0.1430526414 0.4020498571 -0.1430630779 -0.2722492271 0.1098087453
180298920.0 -0.2579304458 0.1125993542 0.4004955801 -0.147680412 0.4006494751 -0.1479108324 -0.2707403753 0.112388143
185298890.0 -0.2569067251 0.1153370112 0.398681036 -0.1526520773 0.3990389043 -0.1524498894 -0.2702969878 0.1146589451
190298860.0 -0.2558280861 0.1176405352 0.3972433529 -0.1572606184 0.3973227235 -0.1574348727 -0.2688478849 0.117445541
195298830.0 -0.2546029955 0.119678343 0.3956509448 -0.1615338793 0.3959191227 -0.1621829015 -0.2679139561 0.1202620681
200298800.0 -0.253634315 0.1226743627 0.3938720292 -0.1662926884 0.3939256348 -0.1665062621 -0.2667488455 0.1230889775
205298770.0 -0.252737782 0.1251521047 0.3924411828 -0.1708058521 0.3923031121 -0.1712231651 -0.2657457974 0.1252612653
210298740.0 -0.2516027695 0.1277989073 0.3907081437 -0.1759967066 0.3904757 -0.1758777484 -0.2644873029 0.1283773554
215298710.0 -0.2504269722 0.1304899005 0.3885713068 -0.180096985 0.3888590496 -0.1801943267 -0.2638510125 0.1308346337
220298680.0 -0.2493018596 0.1331297032 0.3863861936 -0.1843928359 0.3867862208 -0.1847818606 -0.2620265834 0.1336180303
225298650.0 -0.2477307148 0.1356681249 0.3841842134 -0.188953715 0.384310532 -0.1888799495 -0.2609277909 0.1364011164
230298620.0 -0.2467967588 0.1380998291 0.3827506064 -0.1935449813 0.3827540154 -0.193621658 -0.259775519 0.1389542931
235298590.0 -0.2455364872 0.1406414871 0.3805718489 -0.1977593109 0.3805650623 -0.1980054509 -0.2584977725 0.1413374418
240298560.0 -0.2446703491 0.1432689067 0.3784760867 -0.2020085764 0.378245359 -0.2019297298 -0.2571978809 0.1444523755
245298530.0 -0.242641029 0.145706383 0.3755314374 -0.2065341113 0.3761107307 -0.2063919314 -0.2555292959 0.1469547543
250298500.0 -0.2416216922 0.1483510258 0.3737627539 -0.2107380762 0.3739517969 -0.2102448874 -0.2539293486 0.1497645701
255298470.0 -0.2403903627 0.1509780628 0.3715406614 -0.2150398141 0.371536828 -0.2148645724 -0.2527834106 0.1521078741
260298440.0 -0.2386732282 0.1534570168 0.3689134428 -0.2190197144 0.3689768836 -0.2191725694 -0.250747732 0.1549792392
265298410.0 -0.2372075225 0.1563474707 0.3665751254 -0.223727212 0.3665634638 -0.2234014567 -0.2495248855 0.1575451006
270298380.0 -0.2354370969 0.1584957582 0.363736162 -0.2273878463 0.364459917 -0.2279903121 -0.2477871846 0.1606667218
275298350.0 -0.2338890493 0.1612393855 0.3615094266 -0.231832346 0.3615933129 -0.231972104 -0.2464050583 0.1632599484
280298320.0 -0.2325612817 0.1639261696 0.3591205202 -0.2357096667 0.3589100437 -0.2360590042 -0.244664009 0.1659196011
285298290.0 -0.2308383859 0.1666939142 0.356373085 -0.239958509 0.3565439024 -0.2400832507 -0.2432397727 0.1686055976
290298260.0 -0.2294310358 0.1688164113 0.3538530513 -0.2435467906 0.3538711891 -0.2439890594 -0.2412610048 0.1715547127
295298230.0 -0.2276727138 0.1713316812 0.351325296 -0.2477956022 0.3512259231 -0.2478796509 -0.2395423294 0.1738877895
300298200.0 -0.2256905151 0.1737600201 0.3480762468 -0.2519348468 0.3484574184 -0.2519871809 -0.2376730656 0.176528287
305298170.0 -0.2238403415 0.1762679794 0.3455315813 -0.2562326523 0.3458630181 -0.256119213 -0.2356832266 0.1795492477
310298140.0 -0.2222018097 0.1781857817 0.3430826127 -0.2598479036 0.3427241049 -0.2602922516 -0.233988544 0.1822124254
315298110.0 -0.2203935944 0.1807932728 0.3399073938 -0.263863989 0.3402555347 -0.2638890807 -0.2319474688 0.184423345
320298080.0 -0.2188891932 0.1832687194 0.3372448287 -0.2677591542 0.3372324536 -0.267558588 -0.2301619453 0.1869177817
325298050.0 -0.2170181372 0.1855181923 0.3342434865 -0.2714093411 0.3344352671 -0.2718213303 -0.2286660071 0.1894695117
330298020.0 -0.2152595451 0.1881040102 0.3305741567 -0.2751534408 0.3310692543 -0.2754452672 -0.2263189366 0.1919630576
335297990.0 -0.2131145325 0.190286976 0.3273306454 -0.2790449332 0.3276599578 -0.2789256973 -0.2248122217 0.1941723266
340297960.0 -0.2119092382 0.1927631456 0.3243376783 -0.2827648194 0.324817297 -0.2824980847 -0.2231167192 0.196984275
345297930.0 -0.2099840589 0.1950574159 0.3213910597 -0.2858022013 0.3210941151 -0.2861834101 -0.2206717209 0.1994311757
350297900.0 -0.2079225864 0.197627208 0.3178691679 -0.2894509273 0.3181119547 -0.2897890522 -0.2187024765 0.2022555541
355297870.0 -0.2060195004 0.199720187 0.314882879 -0.2931443726 0.3146252269 -0.2934194322 -0.2165712236 0.2049465064
360297840.0 -0.203661721 0.2022221244 0.3115811896 -0.2962339396 0.3115553227 -0.2966665021 -0.2147295581 0.2073690985
365297810.0 -0.2013542413 0.2047672419 0.3077398718 -0.300191819 0.3081791169 -0.3000982477 -0.2127609552 0.2100318524
370297780.0 -0.199676902 0.2066211563 0.304648435 -0.3031702662 0.3049718012 -0.3038137539 -0.2103179612 0.2122226893
375297750.0 -0.1975175116 0.2095569388 0.3018556235 -0.3069080456 0.301599102 -0.3069516025 -0.2081206227 0.2150386262
380297720.0 -0.1953058819 0.2113810086 0.2980490744 -0.3098845368 0.2980374928 -0.3101197413 -0.2056442325 0.2175758966
385297690.0 -0.1933516447 0.2137210551 0.2946742827 -0.3127380412 0.2944009525 -0.3131914248 -0.203747256 0.2200036487
390297660.0 -0.190831965 0.2156306554 0.2905460398 -0.3164648875 0.2910038673 -0.3167661099 -0.201629649 0.2218195774
395297630.0 -0.1887521795 0.2180277156 0.2877114431 -0.3195290433 0.2873942579 -0.3196312524 -0.199017034 0.2245944154
400297600.0 -0.186509036 0.2203559157 0.2839136428 -0.3227859321 0.2839229687 -0.3229728477 -0.1969671829 0.2268523133
405297570.0 -0.1842681515 0.2222966156 0.280369714 -0.3258144142 0.2803716902 -0.3262742023 -0.1947580344 0.2293867514
410297540.0 -0.1818588258 0.224598874 0.2763770212 -0.3289320632 0.2765041117 -0.3288585087 -0.1922120874 0.2313691325
415297510.0 -0.17943988 0.226548347 0.2730673651 -0.3318839907 0.2730779834 -0.331746412 -0.1901186959 0.2339047656
420297480.0 -0.1770938805 0.2283998154 0.2690483407 -0.3349362854 0.269239771 -0.3347559053 -0.187103578 0.235638282
425297450.0 -0.174607508 0.230494932 0.2657926091 -0.3378590851 0.2659963884 -0.3378083857 -0.1849018364 0.2382845209
430297420.0 -0.172348932 0.2325885367 0.2618295667 -0.3409158226 0.2619307083 -0.340684465 -0.1827908638 0.2401529185
435297390.0 -0.1697655567 0.2347679276 0.2580106753 -0.3434340378 0.2584230295 -0.3434170973 -0.1800802685 0.2428070315
440297360.0 -0.1671745881 0.2364606719 0.2541026968 -0.346122813 0.2542251338 -0.3459945587 -0.1778480554 0.2440292102
445297330.0 -0.1649008065 0.2382929877 0.2502664018 -0.3488997835 0.2505816607 -0.3491362436 -0.1753147735 0.2463673115
450297300.0 -0.1620834081 0.2399980342 0.2463325 -0.3515773053 0.2468350735 -0.3518010156 -0.1728706444 0.2487179812
455297270.0 -0.1601258914 0.2421431999 0.2430436241 -0.3543431594 0.2429824179 -0.3541566763 -0.1697456645 0.2506940155
460297240.0 -0.1574873046 0.2439266754 0.2387642076 -0.3566945442 0.2384770646 -0.3570812258 -0.1674660743 0.2531042701
465297210.0 -0.1548044541 0.2460101985 0.2348412223 -0.359786029 0.2352553229 -0.3597678267 -0.1654428526 0.2547340925
470297180.0 -0.1520551909 0.2478191352 0.2311208685 -0.362117249 0.231215912 -0.3622569594 -0.1627240299 0.2567768348
475297150.0 -0.1495898648 0.2489477123 0.2266471791 -0.363997348 0.2273929848 -0.3640126624 -0.1595818241 0.2584967358
480297120.0 -0.1468811129 0.2507531821 0.2227491788 -0.3662476169 0.2232068677 -0.3670507059 -0.1573139941 0.2611717406
485297090.0 -0.1441997895 0.2526403104 0.2189389368 -0.3690900341 0.2190424277 -0.3691908416 -0.1545374301 0.2623749658
490297060.0 -0.1416899343 0.2543878363 0.2149733889 -0.3713533313 0.2148684286 -0.3719397259 -0.1520137342 0.2643526571
495297030.0 -0.1389475773 0.2562089244 0.2109888497 -0.3737498888 0.210520825 -0.3735886025 -0.1490673155 0.2658061907
500297000.0 -0.1361590114 0.2574284409 0.2066281103 -0.3760773854 0.2066384306 -0.3762024107 -0.1465128776 0.2679772747
505296970.0 -0.1332817042 0.2590496989 0.2021402286 -0.3781551713 0.2023083834 -0.3778958829 -0.1441314934 0.2694330757
510296940.0 -0.130736496 0.260574873 0.1984145163 -0.3804232476 0.1986472078 -0.3804887974 -0.1409153575 0.2713303973
515296910.0 -0.1284068384 0.2625480472 0.1937766929 -0.3824121347 0.1944184842 -0.3826664177 -0.1382179103 0.2726767602
520296880.0 -0.1254551526 0.2636753194 0.1897655322 -0.3845540367 0.189997537 -0.3845896526 -0.1353383064 0.2744115576
525296850.0 -0.1227200467 0.2651028597 0.1857355868 -0.3863287801 0.1857500179 -0.3869767412 -0.1321808381 0.2763390301
530296820.0 -0.1200124045 0.2665036594 0.1815900002 -0.388230609 0.1816944094 -0.3882075052 -0.1301088937 0.277312579
535296790.0 -0.1171076238 0.2680733218 0.1772905445 -0.390257926 0.1774520771 -0.3902205224 -0.1268984455 0.2789491887
540296760.0 -0.1141107331 0.2692955916 0.1727071484 -0.3927937135 0.1727748602 -0.3924580445 -0.1239075141 0.2808609204
545296730.0 -0.1110442704 0.270931567 0.1686231317 -0.3939847858 0.1688401735 -0.3941341015 -0.1213522374 0.2819268422
550296700.0 -0.1088545712 0.2724371231 0.164147869 -0.3960244355 0.1646460246 -0.3962563995 -0.1184293535 0.2837132534
555296670.0 -0.1052138807 0.273511396 0.1599480497 -0.3975570032 0.1599570606 -0.3977181386 -0.1155243982 0.2847855024
560296640.0 -0.1027207979 0.2744351934 0.1555298102 -0.3989940389 0.1559784346 -0.3988515391 -0.1122372127 0.2861505251
565296610.0 -0.1004356656 0.2757594919 0.1513618129 -0.4006430255 0.1511316778 -0.4010273663 -0.1096868397 0.2877319188
570296580.0 -0.096994244 0.2772363543 0.146815823 -0.4023689488 0.1471188202 -0.4026401711 -0.1066571764 0.2894882545
575296550.0 -0.0940167168 0.2785491199 0.1426272768 -0.4040306206 0.1430307465 -0.4039171677 -0.1033177039 0.2904543137
580296520.0 -0.0912568611 0.2793742462 0.1381816579 -0.4055495907 0.1383483272 -0.4056738351 -0.100509785 0.2915183606
585296490.0 -0.087951502 0.2801259433 0.133571225 -0.4067657732 0.1334999706 -0.4069741466 -0.0975516898 0.2924756553
590296460.0 -0.085432472 0.2814307622 0.1290666499 -0.4082675673 0.1293605253 -0.4086115659 -0.0944767336 0.2939275831
595296430.0 -0.0820843595 0.2827472063 0.1250780527 -0.4099095922 0.1247544707 -0.4099849864 -0.0914713729 0.2947950478
600296400.0 -0.0794449203 0.2835639751 0.1203980982 -0.4111763502 0.1207398608 -0.4114598074 -0.0884303699 0.2964504492
605296370.0 -0.0761088525 0.2846635785 0.115833162 -0.412577111 0.1158521509 -0.4120236941 -0.0854184374 0.2971805782
610296340.0 -0.0733505638 0.2856117924 0.1116826238 -0.4134271619 0.1114644635 -0.4135842301 -0.0821674685 0.2985095609
615296310.0 -0.0702326027 0.2865243225 0.1068461878 -0.4141151235 0.1070440141 -0.414890903 -0.079196282 0.2995645911
620296280.0 -0.0670746182 0.2871880491 0.1024437532 -0.4155822826 0.1024663605 -0.4157785181 -0.0761501755 0.2999335262
625296250.0 -0.0640361303 0.2881752824 0.0976349284 -0.4169067799 0.097896951 -0.4169076382 -0.0730387989 0.3012913729
630296220.0 -0.0609934088 0.2891757704 0.0933516337 -0.417615045 0.0936762858 -0.4175953374 -0.0699351202 0.3018113176
635296190.0 -0.0582287376 0.2900440687 0.0888226787 -0.418253574 0.0888041703 -0.4181301702 -0.0669196713 0.3030540016
640296160.0 -0.0550630748 0.2905744619 0.0843950728 -0.4194908651 0.0843236214 -0.4195906036 -0.0636347789 0.303652345
645296130.0 -0.0517650813 0.2914768574 0.0794343027 -0.4206588305 0.08012081 -0.4204227244 -0.06136349 0.3044386014
650296100.0 -0.0490884851 0.2922248352 0.0755791852 -0.4210033961 0.0755141116 -0.4210266201 -0.0576033555 0.3056193233
655296070.0 -0.0459492406 0.2924696151 0.0705752993 -0.4218166408 0.0704558087 -0.4217489846 -0.0541174415 0.3062000563
660296040.0 -0.0429961793 0.2935895563 0.0664772611 -0.4221325153 0.0662332979 -0.4226720932 -0.0511849878 0.3069758889
665296010.0 -0.0394706052 0.2939011442 0.0616206989 -0.4230649791 0.062173537 -0.4233999235 -0.0484916686 0.3077411306
670295980.0 -0.0363477164 0.294463419 0.0567496337 -0.4233964762 0.0574160945 -0.4237608765 -0.0452434371 0.3083379246
675295950.0 -0.0332499666 0.2950565767 0.0523548255 -0.4243291384 0.0527259212 -0.4247208482 -0.041749657 0.3088105316
680295920.0 -0.0302587717 0.2955979541 0.0477064035 -0.4247632469 0.0477339955 -0.4251092551 -0.0384749515 0.3092801333
685295890.0 -0.0270102943 0.2960447829 0.0430300023 -0.4254632995 0.0432232 -0.4256303228 -0.035574201 0.3097585098
690295860.0 -0.0235952466 0.2964602287 0.0384977332 -0.4252515662 0.0383148831 -0.4255836335 -0.0320897909 0.3105513293
695295830.0 -0.020675548 0.2966127889 0.0336223304 -0.4259074937 0.0337551147 -0.4263180454 -0.029211605 0.3110941842
700295800.0 -0.017476669 0.2971405517 0.0290372109 -0.4266087479 0.029198628 -0.4264761333 -0.0258356295 0.3111753112
705295770.0 -0.0143306919 0.297714011 0.0246388306 -0.4268214351 0.0247269335 -0.4267652168 -0.022632481 0.3119337905
710295740.0 -0.0113218841 0.2978064929 0.0197802589 -0.4269336561 0.0201348339 -0.4267901553 -0.0199062944 0.3125958915
715295710.0 -0.0084285164 0.2982471302 0.0155017715 -0.4271750539 0.0156319507 -0.4269085839 -0.0158317215 0.3121425105
720295680.0 -0.0051153362 0.2980568628 0.0104310805 -0.4268715183 0.0107846425 -0.4275030613 -0.0125074028 0.3127019632
725295650.0 -0.0016601828 0.2985986891 0.0056277015 -0.4271048706 0.0065078575 -0.4273399671 -0.009527242 0.3129854195
730295620.0 0.0010153774 0.2986331145 0.0014128908 -0.4271122877 0.0014784815 -0.426957801 -0.0064444469 0.3126997073
735295590.0 0.0050156189 0.2987591716 -0.0030957066 -0.4269505692 -0.0028804105 -0.4271464005 -0.0028151407 0.3136362175
740295560.0 0.0075595504 0.2990377857 -0.0076307837 -0.4264920279 -0.0078471977 -0.4270185225 0.0003656717 0.3135758101
745295530.0 0.0107604378 0.2990209913 -0.0126232503 -0.4267208402 -0.012107587 -0.4271921681 0.0035266374 0.3138391908
750295500.0 0.0140742431 0.2988552441 -0.0167892002 -0.4263102908 -0.0169195119 -0.4267783769 0.0064883605 0.3137423833
755295470.0 0.0175103317 0.2993714194 -0.0219569716 -0.426414385 -0.0214981501 -0.4262740031 0.0097994538 0.3140917966
760295440.0 0.0203761223 0.2990626419 -0.0261747799 -0.4259026458 -0.0260896657 -0.4258764416 0.0129380777 0.3138768592
765295410.0 0.0232539156 0.2987295045 -0.0304581392 -0.4255730758 -0.0307172706 -0.4262862703 0.0168460773 0.3142140212
770295380.0 0.026733629 0.2989223787 -0.03529894 -0.4249907061 -0.0354308175 -0.4256581287 0.0199570468 0.3139550615
775295350.0 0.0298029049 0.2989649287 -0.0401398519 -0.4248845592 -0.0396220197 -0.4248127635 0.022609111 0.3135766352
780295320.0 0.0331554493 0.2982560471 -0.0444723014 -0.424303399 -0.0439709201 -0.4246281015 0.0260807687 0.3140987988
785295290.0 0.0361915808 0.2985259905 -0.0491177033 -0.4231917554 -0.0489543231 -0.4238719671 0.0290384608 0.313662758
790295260.0 0.039188902 0.2981236089 -0.0533099747 -0.4231331752 -0.0534798274 -0.4234348891 0.0326739163 0.3134444636
795295230.0 0.0426701516 0.2978817631 -0.0582683422 -0.4221956911 -0.0580572859 -0.4227394733 0.0358572964 0.3135513066
800295200.0 0.0459796997 0.2976346401 -0.0629621095 -0.4219713156 -0.0628510056 -0.4220314383 0.0392726494 0.3131469995
805295170.0 0.0485328923 0.2969794378 -0.0669902716 -0.4206968755 -0.0672325429 -0.4211206928 0.041840851 0.3126391321
810295140.0 0.0522323061 0.2967849744 -0.0718418622 -0.4204127218 -0.0718159067 -0.4210603995 0.045688907 0.3127819088
815295110.0 0.0552844193 0.296599306 -0.0764505298 -0.4194638044 -0.076553359 -0.4195842731 0.0486484386 0.3120762822
820295080.0 0.0581598553 0.2955989199 -0.0804751964 -0.418514615 -0.08036133 -0.4187233736 0.0516981249 0.311750841
825295050.0 0.0615625788 0.2951394427 -0.0852576043 -0.4172152771 -0.0852554251 -0.4179853214 0.0553502078 0.3114543835
830295020.0 0.0645683748 0.295314266 -0.0895969616 -0.4169909596 -0.0903214583 -0.4169973329 0.0582593389 0.310907183
