!Created with skrf (http://scikit-rf.org).
# Hz S RI R 50.0 
!freq ReS11 ImS11 ReS21 ImS21 ReS12 ImS12 ReS22 ImS22
300000.0 0.8602375207 -0.0015558587 0.0001546691 -6.71499e-05 -0.0002632232 0.0001821353 -0.7664439489 -0.1940696679
5299970.0 0.86008233 -0.0103623551 -0.0002151937 -5.39169e-05 0.0001948483 6.34724e-05 -0.7848816372 -0.0095591156
10299940.0 0.8585816822 -0.0184319793 -0.0001216469 5.058e-07 1.9164e-06 0.0001261981 -0.7874664972 -0.005502843
15299910.0 0.8577775457 -0.0277638683 0.0002242644 7.51287e-05 -7.68965e-05 5.3722e-05 -0.792563831 -0.0024978755
20299880.0 0.8572265279 -0.0354842416 -0.0001540318 0.0001402316 4.84196e-05 -0.0001444729 -0.7996655842 0.0017557801
25299850.0 0.8561380324 -0.0432689941 1.6447e-06 6.57299e-05 -6.2958e-06 -9.8937e-06 -0.8062776898 0.0078345811
30299820.0 0.8557199419 -0.0521182527 -0.000207807 -0.0001944818 -8.06469e-05 -0.0001074732 -0.8116509237 0.0157504875
35299790.0 0.8555179661 -0.0598255864 -0.0002203872 3.42463e-05 -7.99121e-05 3.62473e-05 -0.8170451013 0.0250576613
40299760.0 0.8549287508 -0.0681696933 0.0001059174 -9.00487e-05 8.37635e-05 -0.0001722762 -0.8212854435 0.0341640675
45299730.0 0.8534003918 -0.0766775372 -4.00632e-05 4.70727e-05 -3.47932e-05 0.0001153746 -0.8239423027 0.0438994093
50299700.0 0.852662523 -0.0845657758 1.76828e-05 1.64015e-05 2.13837e-05 -9.23601e-05 -0.8264047422 0.0536198399
55299670.0 0.8522604008 -0.0930094017 9.4877e-05 -8.26637e-05 5.65313e-05 7.0526e-06 -0.8283719905 0.0640464037
60299640.0 0.8506787196 -0.1010421481 -2.2182e-06 -0.0001412643 -1.59034e-05 -8.21589e-05 -0.8294936407 0.0740476744
65299610.0 0.850588636 -0.1092295774 -4.03281e-05 -0.0001235092 -3.71002e-05 0.0001962698 -0.8301036248 0.0842402091
70299580.0 0.8487392151 -0.1178633098 0.0002680683 0.0001911759 3.31241e-05 0.0001875715 -0.8308478131 0.0938480179
75299550.0 0.8474974286 -0.1261717678 0.0001469594 -1.5344e-06 0.0001610784 -5.66465e-05 -0.8306166993 0.1042046602
80299520.0 0.8463115015 -0.1336316142 -0.000194685 -0.000172965 -0.0001154463 -0.0001738688 -0.8304155807 0.1140672315
85299490.0 0.8449282665 -0.14154296 -0.0001382271 -2.83781e-05 4.38365e-05 0.0001397259 -0.8300404535 0.1234223715
90299460.0 0.8443216786 -0.1502323018 -0.0001292889 -3.23842e-05 -7.85045e-05 -3.5221e-06 -0.829005263 0.1326914
95299430.0 0.8423608355 -0.1578644168 7.89685e-05 -4.07876e-05 -4.76932e-05 0.0001747232 -0.8282516704 0.1427897783
100299400.0 0.8400730949 -0.1664831984 7.63762e-05 8.4985e-06 -5.9939e-06 -0.0001854766 -0.8272762022 0.152146341
105299370.0 0.8391303207 -0.1740623554 -0.0002589154 8.1179e-05 -5.44032e-05 5.2364e-05 -0.8260718462 0.161013594
110299340.0 0.8374563407 -0.1830307562 -0.0002089092 -1.4658e-05 5.61413e-05 -1.49556e-05 -0.8245071106 0.1697372946
115299310.0 0.8360557375 -0.190648112 -3.10875e-05 -6.34522e-05 1.99119e-05 -1.93147e-05 -0.8233042642 0.1791764149
120299280.0 0.8335492123 -0.1986549535 -3.30164e-05 6.52686e-05 0.0001492132 0.0001486554 -0.8211406363 0.1880928883
125299250.0 0.8319455371 -0.2064572426 -6.4604e-05 -0.0001141959 -8.02195e-05 0.0001378479 -0.8197140666 0.1969023735
130299220.0 0.8300735443 -0.2143985439 2.25691e-05 0.0001375113 4.79483e-05 -5.80731e-05 -0.8175812545 0.2057092289
135299190.0 0.8279967503 -0.2229524203 -9.38441e-05 -0.0001091808 3.95327e-05 0.0001330693 -0.815891982 0.2150363772
140299160.0 0.8258752634 -0.2299150754 0.000165966 -9.6127e-05 -3.13869e-05 -0.0002208869 -0.8136867408 0.2234110434
145299130.0 0.8232142403 -0.2381817407 0.0001555346 4.83645e-05 -7.00167e-05 -8.32932e-05 -0.8121006427 0.2326068872
150299100.0 0.8208752284 -0.2460033161 -5.04393e-05 0.0001500804 3.72523e-05 2.89625e-05 -0.8093752357 0.2414128685
155299070.0 0.8187374194 -0.254301096 1.69869e-05 6.88601e-05 -6.97415e-05 -6.12502e-05 -0.8073652976 0.2508897713
160299040.0 0.8158948664 -0.2616757455 0.0001382277 0.000125102 -0.0001229589 -8.38786e-05 -0.8048815324 0.2594724931
165299010.0 0.813837728 -0.2698875832 -6.3302e-05 -0.0001156201 9.6199e-06 -0.0001004587 -0.801611458 0.2673019456
170298980.0 0.8115533321 -0.2776891886 -2.83484e-05 -8.84985e-05 -9.64511e-05 -0.0001031142 -0.7995258474 0.275692687
175298950.0 0.8086446982 -0.2857146063 -0.0001975359 -9.81612e-05 -3.0275e-05 3.18324e-05 -0.7961402572 0.2849125034
180298920.0 0.8059982265 -0.293048202 0.0002898831 0.0001359865 2.05809e-05 0.0001853751 -0.7931995428 0.2932468502
185298890.0 0.8027950118 -0.3008046173 3.09524e-05 2.34255e-05 -6.68441e-05 8.51389e-05 -0.7903209121 0.301758893
190298860.0 0.7997752946 -0.3091292143 -3.34408e-05 -2.61296e-05 -9.74976e-05 4.04635e-05 -0.7874255923 0.3101096304
195298830.0 0.7969155185 -0.3161419902 1.33765e-05 0.0001443117 -0.0001632892 -2.685e-06 -0.7838897099 0.3182024721
200298800.0 0.7935626814 -0.323325956 8.17996e-05 -5.3289e-05 0.0001051775 -0.0001010108 -0.7808438309 0.3270430112
205298770.0 0.7906732537 -0.3312116392 -0.0002299768 5.6417e-06 2.72929e-05 -3.61392e-05 -0.7776842963 0.3350116369
210298740.0 0.787946311 -0.3384805692 3.79599e-05 1.86454e-05 9.27557e-05 1.81047e-05 -0.7736753592 0.3433897727
215298710.0 0.7846386056 -0.3471646735 -1.76713e-05 -4.9592e-06 -5.20345e-05 6.63832e-05 -0.7700673444 0.3518116442
220298680.0 0.7810221731 -0.3536927517 3.90588e-05 3.98764e-05 0.0001354502 0.0001704616 -0.7661854591 0.3593580958
225298650.0 0.7776736969 -0.3618435542 7.04779e-05 7.33011e-05 -0.0001111972 -1.16885e-05 -0.7631012501 0.3670724101
230298620.0 0.7731923415 -0.368616956 -0.0001605321 -0.0001809057 0.0001464286 5.71109e-05 -0.75921062 0.3753869632
235298590.0 0.7703028297 -0.3765066968 -0.0001093856 0.0001180594 -2.03587e-05 -0.0003197594 -0.7549968959 0.3831377219
240298560.0 0.7666453039 -0.3839365723 -0.000138434 3.95238e-05 -6.80321e-05 -8.88799e-05 -0.7514725023 0.3908836975
245298530.0 0.7629070771 -0.3909652601 0.000119859 -4.62295e-05 0.000109509 -4.63335e-05 -0.7471881061 0.3989652239
250298500.0 0.7590294472 -0.3984025158 0.0002459864 0.0001978455 3.82495e-05 3.66415e-05 -0.742805735 0.4073341364
255298470.0 0.7552964657 -0.405111021 4.19958e-05 -3.97736e-05 -8.7599e-05 -2.6881e-05 -0.7388143468 0.414415317
260298440.0 0.7510505313 -0.4129436474 -0.0001835112 -1.25811e-05 6.7684e-06 2.80002e-05 -0.7341677928 0.422419138
265298410.0 0.7470369677 -0.4199335262 -7.84929e-05 8.44605e-05 -6.90202e-05 4.02693e-05 -0.7299339674 0.4303158282
270298380.0 0.7432799341 -0.4266069652 7.241e-06 5.22321e-05 -2.30195e-05 0.0001650588 -0.7248599218 0.4381975801
275298350.0 0.7393710747 -0.4341201469 1.97701e-05 -0.0001694895 -0.0001550283 1.96483e-05 -0.7203347374 0.4450131531
280298320.0 0.7342210934 -0.4411065251 -0.0002341571 -0.0001337368 -0.0001262071 6.9636e-05 -0.7161015854 0.4532330315
285298290.0 0.7308188266 -0.4484888715 4.42943e-05 0.0001524049 2.61207e-05 -8.83254e-05 -0.7114536312 0.460230971
290298260.0 0.7258224557 -0.4554808655 0.000190017 -4.25803e-05 9.66939e-05 5.57242e-05 -0.7068436255 0.4677357499
295298230.0 0.7225434142 -0.4623072253 5.20993e-05 0.0001086364 6.70756e-05 1.38958e-05 -0.7013594809 0.4751476653
300298200.0 0.7179165994 -0.4696036785 -8.35583e-05 2.82873e-05 2.23242e-05 -1.57145e-05 -0.6964417987 0.4822774239
305298170.0 0.7136607741 -0.4773600532 7.60578e-05 -3.5286e-06 0.0001268678 -3.47048e-05 -0.6913695858 0.4896429677
310298140.0 0.7086121392 -0.4851868759 -0.0001767326 -5.35153e-05 2.37967e-05 -0.0001436133 -0.6860623115 0.4971816398
315298110.0 0.7041160067 -0.492377274 -7.59334e-05 5.45528e-05 2.81275e-05 7.60262e-05 -0.6813816236 0.5042422205
320298080.0 0.6980065156 -0.4995208032 -2.34447e-05 8.16525e-05 -0.0001300564 7.84754e-05 -0.6758066955 0.5103126655
325298050.0 0.6924094659 -0.5067526303 0.0001863841 0.0001271568 8.05868e-05 3.86166e-05 -0.6699792895 0.5174541378
330298020.0 0.6862779576 -0.5134567579 -9.79451e-05 1.95599e-05 9.74655e-05 0.0001475038 -0.6650871284 0.5245686451
335297990.0 0.6811960529 -0.5191149543 0.0001253581 4.30013e-05 -0.0001322186 -2.10532e-05 -0.6599095495 0.531380574
340297960.0 0.6752426605 -0.525628075 -0.0001194867 -6.19524e-05 -4.64439e-05 -2.35068e-05 -0.6543339884 0.538360205
345297930.0 0.6706489509 -0.531910864 -6.67827e-05 -4.717e-07 0.0001952604 -9.71258e-05 -0.6484310181 0.5449952462
350297900.0 0.6650001015 -0.5381897916 0.0001681593 -7.6266e-06 0.0002130386 4.42838e-05 -0.6433938206 0.5517121617
355297870.0 0.6601169115 -0.5444891181 -3.1895e-06 2.22129e-05 1.24769e-05 -2.39481e-05 -0.6367833145 0.5584957026
360297840.0 0.6539201246 -0.5506775917 -9.83238e-05 -0.0001132196 -6.27576e-05 -0.0001430372 -0.6303171768 0.5649153738
365297810.0 0.6488600026 -0.5570135951 7.40422e-05 -6.66415e-05 -4.25849e-05 -5.34766e-05 -0.625526393 0.5706871205
370297780.0 0.6431280481 -0.5631397491 3.75311e-05 6.26983e-05 0.0001332913 4.4254e-06 -0.6194738693 0.5774393419
375297750.0 0.6378636664 -0.5689081102 -4.2226e-06 -5.71692e-05 -9.57893e-05 9.13256e-05 -0.6128777755 0.5837079347
380297720.0 0.6318750407 -0.5747783527 6.37967e-05 0.0001942979 -0.0001176737 -7.32783e-05 -0.606964462 0.5901623269
385297690.0 0.6261935146 -0.5809349188 1.21927e-05 6.778e-07 -9.39389e-05 2.87363e-05 -0.6016226716 0.596352364
390297660.0 0.6208043164 -0.5871788603 -0.000101973 -1.7938e-05 -0.0001653987 0.0002127983 -0.5943460441 0.6019735668
395297630.0 0.6152697358 -0.5922007227 0.0001159327 3.8112e-06 -0.000118911 -9.27158e-05 -0.5880419465 0.6077748784
400297600.0 0.6083436471 -0.5987354887 0.0001139644 -0.0001975768 -2.4687e-05 3.48378e-05 -0.5826403384 0.6142817983
405297570.0 0.6035036195 -0.6046930403 -5.93821e-05 0.0001602453 -0.0001275625 1.2471e-05 -0.5758593923 0.620251921
410297540.0 0.5982475368 -0.6100102048 7.19696e-05 0.0001836652 -3.18111e-05 0.0001589955 -0.5693390273 0.6260238177
415297510.0 0.5914964935 -0.6154804024 0.0001124182 -8.72747e-05 0.0001004275 5.2387e-05 -0.5629738209 0.631597885
420297480.0 0.5859696465 -0.622163489 7.29086e-05 -5.20412e-05 -8.02374e-05 -0.0001042104 -0.5563391308 0.6382695597
425297450.0 0.5795596735 -0.6271385159 -9.6546e-05 1.25741e-05 -4.35113e-05 1.74585e-05 -0.5496336195 0.6426831319
430297420.0 0.5734021774 -0.6328395375 -7.73699e-05 0.0001565017 1.28475e-05 1.9244e-06 -0.5428596357 0.6485614005
435297390.0 0.5667978938 -0.6385302901 4.55647e-05 -0.0001081252 -1.55628e-05 0.0003177202 -0.5365711254 0.6545385872
440297360.0 0.5608941485 -0.6440601665 4.28091e-05 1.18947e-05 -0.0002109851 -6.4754e-06 -0.530340584 0.659355504
445297330.0 0.5557251449 -0.6492525082 0.0001178427 -0.0001313276 -0.0002057848 6.52012e-05 -0.5232999138 0.6647586828
450297300.0 0.5494877236 -0.6547415349 -0.0001070759 -8.47226e-05 6.84392e-05 -3.61544e-05 -0.5156209477 0.6697145001
455297270.0 0.5423391693 -0.6599193352 -8.62788e-05 6.84224e-05 -0.0001711835 -0.0001919278 -0.5086961802 0.6752098219
460297240.0 0.5358591118 -0.6649439334 -4.80803e-05 -0.0001603085 4.54181e-05 3.94999e-05 -0.5026716568 0.6800437131
465297210.0 0.5294812398 -0.6700657902 4.41272e-05 9.13289e-05 0.0001640103 -4.31613e-05 -0.4951754614 0.6861792301
470297180.0 0.5233736055 -0.6751676161 2.33337e-05 1.0698e-05 5.16791e-05 -3.2606e-06 -0.4880071878 0.6904366344
475297150.0 0.5158269383 -0.6804803676 1.3698e-06 9.72531e-05 -4.09389e-05 9.99543e-05 -0.4811145603 0.6952853411
480297120.0 0.50991048 -0.6856367188 -6.7808e-06 -2.83179e-05 -0.0001631736 0.0001045781 -0.4742600415 0.6999847207
485297090.0 0.5029205406 -0.6903996181 0.0001296276 -6.18909e-05 0.0001020821 5.75235e-05 -0.4669631759 0.7050823191
490297060.0 0.4968983641 -0.6944315832 5.46415e-05 0.0001302727 2.07605e-05 1.9864e-05 -0.4598012591 0.7094852288
495297030.0 0.4897911076 -0.6994961596 -0.0002011819 6.42219e-05 -6.82762e-05 -5.20838e-05 -0.4520902379 0.7132301405
500297000.0 0.4835421404 -0.7039713544 4.24103e-05 1.18675e-05 -4.37861e-05 0.0001228388 -0.4448432854 0.7182206299
505296970.0 0.4762208414 -0.7092622798 -0.0001153606 -0.0001839688 -8.54269e-05 -6.4894e-05 -0.4377817664 0.7228523258
510296940.0 0.4694077489 -0.7138287902 8.63047e-05 2.76819e-05 2.75118e-05 -6.92005e-05 -0.4299998845 0.7274399465
515296910.0 0.4620492096 -0.7180310931 -4.19115e-05 -7.49016e-05 -3.0599e-05 2.5342e-06 -0.4231349383 0.7312037778
520296880.0 0.4557867613 -0.7225031295 -9.8812e-05 0.000143019 4.5334e-05 4.1906e-06 -0.4150775505 0.7360317754
525296850.0 0.4490199163 -0.7273663988 -0.0001504548 0.000126783 0.0001721883 8.33181e-05 -0.4079827125 0.7399286515
530296820.0 0.4423009089 -0.7317085444 2.56992e-05 6.99733e-05 -5.35993e-05 -0.0001422366 -0.4006953572 0.7439394816
535296790.0 0.4352967649 -0.7352397969 -6.9899e-06 0.0002877215 -2.52654e-05 -0.0001540565 -0.3930140518 0.7482349341
540296760.0 0.4284856371 -0.7399031133 0.0001402834 0.0001711132 -0.0001629664 1.83679e-05 -0.3851599688 0.7515063934
545296730.0 0.4200349761 -0.7441243793 8.048e-07 -3.82118e-05 -2.71105e-05 -0.0001374072 -0.3777553943 0.7556515511
550296700.0 0.4126102902 -0.7474622084 -2.15852e-05 9.9918e-05 3.8205e-05 4.82927e-05 -0.3699041884 0.7592866688
555296670.0 0.4058882865 -0.7512757813 0.0001186856 1.4759e-06 0.0001807206 -3.09322e-05 -0.3626917521 0.762622203
560296640.0 0.3986250286 -0.7549610261 8.64768e-05 9.52602e-05 -6.68739e-05 9.39707e-05 -0.3540932758 0.7666481914
565296610.0 0.3913172154 -0.760045509 -4.80391e-05 -2.9599e-05 2.74263e-05 -0.0001295011 -0.3466326851 0.7699091065
570296580.0 0.3840807542 -0.7630996878 0.0001462557 -5.67161e-05 0.000144021 6.6279e-05 -0.3391375726 0.7729628188
575296550.0 0.3765309282 -0.7663526926 -4.63082e-05 0.0002749067 -0.0001116743 -5.70743e-05 -0.3306529848 0.7763308519
580296520.0 0.3694415759 -0.7698792893 -8.6076e-05 -0.0002199959 -6.77407e-05 -0.0001569551 -0.3237701333 0.7796261295
585296490.0 0.36175219 -0.7728322729 -4.34888e-05 -4.15155e-05 -3.88938e-05 4.04706e-05 -0.315562634 0.7831680195
590296460.0 0.3538717627 -0.7760766484 0.0002054359 0.0001511875 -6.45677e-05 -0.0001542927 -0.3077492052 0.7861015146
595296430.0 0.3464800369 -0.7797422531 -3.18332e-05 -5.01536e-05 -6.30485e-05 9.22482e-05 -0.2996873141 0.7894839221
600296400.0 0.3389376459 -0.7833657723 -0.0001205817 -2.50512e-05 1.99397e-05 0.0001265097 -0.2918432077 0.7919551583
605296370.0 0.3307238887 -0.7865491829 0.0001539985 0.0001006454 -8.804e-06 0.0001099977 -0.2836382278 0.7949017166
610296340.0 0.3231354338 -0.7896331697 0.0001152458 -1.06171e-05 0.0001538617 -7.09913e-05 -0.2761409293 0.7978708356
615296310.0 0.3160150171 -0.7923564502 0.0001300355 1.03239e-05 4.72261e-05 -0.0002067219 -0.2677412006 0.8006165509
620296280.0 0.3080063208 -0.7944574284 -8.40413e-05 -0.0001109164 1.11673e-05 -0.0001385957 -0.2597575914 0.8030033949
625296250.0 0.3001826615 -0.7981519697 -3.79654e-05 0.0002233106 0.0001509063 -3.7759e-05 -0.2510402235 0.8049600764
630296220.0 0.2912668898 -0.8002928378 -5.32538e-05 -0.0001587533 5.33211e-05 2.90764e-05 -0.2435106855 0.8084643937
635296190.0 0.2838782031 -0.803120922 2.14036e-05 -0.0001146486 -8.18729e-05 -6.49858e-05 -0.2356214219 0.8095837865
640296160.0 0.2756910897 -0.8057407793 4.86912e-05 4.29594e-05 0.0001658825 -3.15849e-05 -0.2273247053 0.8125955028
645296130.0 0.2688698925 -0.8081789537 6.99378e-05 8.77094e-05 3.09306e-05 -4.0039e-06 -0.2191444163 0.8148358107
650296100.0 0.2605188408 -0.8107368817 6.51669e-05 -6.2829e-06 -6.445e-05 8.42331e-05 -0.2107854615 0.8167084623
655296070.0 0.2520427807 -0.8125539467 0.0001914146 0.0001074333 -1.98427e-05 -5.24727e-05 -0.2031626873 0.8190177149
660296040.0 0.2436925918 -0.8149659281 3.50758e-05 0.0001398713 0.0002512962 7.40433e-05 -0.1941834139 0.8211856812
665296010.0 0.2356963189 -0.8169339726 0.0001300803 0.0001115811 -7.50639e-05 -0.0001172107 -0.1863371696 0.8225866032
670295980.0 0.2279077534 -0.8196729204 -6.25836e-05 -0.0001320398 -5.20745e-05 5.00835e-05 -0.1783565235 0.8248328821
675295950.0 0.2194260494 -0.822012969 -6.9553e-06 3.66603e-05 -0.0001817376 8.64017e-05 -0.1692950275 0.8263252366
680295920.0 0.211144099 -0.8236345537 -2.38916e-05 -7.6194e-05 0.0002280777 0.0001886689 -0.161331015 0.828259201
685295890.0 0.2029144111 -0.8250236516 -4.92053e-05 6.37156e-05 -2.5309e-06 -0.0001089237 -0.1537422942 0.8297292963
690295860.0 0.1946685821 -0.8263576392 0.0001421609 -4.1649e-06 0.0001248701 7.4536e-06 -0.145119721 0.8313618107
695295830.0 0.1861487593 -0.8286754741 -8.60765e-05 0.0001059933 0.0002183945 -5.97404e-05 -0.1370949063 0.832977755
700295800.0 0.178413358 -0.8300470813 2.77938e-05 -9.71014e-05 -0.0002179862 -0.0001516197 -0.1281057299 0.8335340707
705295770.0 0.1700693911 -0.8314656607 0.000117272 -6.38503e-05 -6.85765e-05 -6.08819e-05 -0.1202556697 0.8354899716
710295740.0 0.1617241345 -0.832396955 -0.0001488548 -0.0001273806 0.0001385605 6.73234e-05 -0.1113640121 0.8358906645
715295710.0 0.1536494105 -0.8334271862 0.0001115589 -3.93432e-05 7.19158e-05 -5.29994e-05 -0.103132372 0.8365965269
720295680.0 0.1457956089 -0.8345680174 -0.0002024029 -0.0001471423 0.0001617943 -0.0001263857 -0.0947176766 0.8378638298
725295650.0 0.1364261007 -0.8353603356 -0.0002050179 4.2443e-05 -0.0001232275 0.0001404898 -0.0866637271 0.8393533508
730295620.0 0.1285601712 -0.8380031555 -1.3928e-06 -0.0001618049 0.0001479167 0.000233493 -0.0788453757 0.8399999379
735295590.0 0.1201216536 -0.8386082423 -7.90215e-05 -9.1998e-05 -1.76839e-05 -3.76977e-05 -0.069633661 0.8401478112
740295560.0 0.1114492264 -0.8394499467 2.45552e-05 0.000161901 5.44267e-05 -0.000192141 -0.0617087772 0.8418240589
745295530.0 0.1028613511 -0.8397047441 9.0298e-06 -7.06083e-05 0.0001025023 -2.26665e-05 -0.053168851 0.8416238203
750295500.0 0.0949193023 -0.8410295946 4.87087e-05 -7.87274e-05 3.85125e-05 9.27027e-05 -0.0445990584 0.8420299711
755295470.0 0.086204395 -0.8414599132 0.0001790347 0.0002570358 -3.1859e-05 0.0001779024 -0.0368853827 0.8427857241
760295440.0 0.0783489124 -0.8414561313 5.7848e-06 -2.8496e-06 5.44732e-05 8.3297e-05 -0.0276921071 0.8427567297
765295410.0 0.0697761114 -0.8422231821 0.0001580754 -0.0002286168 -0.0001323029 -0.0001303216 -0.019409247 0.8435349384
770295380.0 0.0617275784 -0.8421852351 1.38386e-05 -7.98e-08 -0.0001606109 7.29242e-05 -0.011148193 0.8430883587
775295350.0 0.0525387917 -0.8430073506 -6.8972e-05 2.98868e-05 1.80723e-05 -0.0001156212 -0.0029208377 0.8431941327
780295320.0 0.0437604331 -0.8427937075 0.0001622413 -9.02615e-05 7.705e-05 -9.0221e-05 0.0056860563 0.8434140213
785295290.0 0.0364898781 -0.8432371594 1.13167e-05 5.03589e-05 4.09904e-05 -7.81154e-05 0.0133594849 0.8434561078
790295260.0 0.0281416917 -0.8432681267 -0.0002475713 -0.0001081467 -6.49615e-05 4.59144e-05 0.0218159526 0.8432926386
795295230.0 0.0193808663 -0.8438773395 -6.97225e-05 -0.0001844762 -5.8795e-05 0.0002701523 0.0302988864 0.8424071904
800295200.0 0.011174064 -0.8435252399 0.0001415017 0.000133961 -1.06682e-05 -2.90636e-05 0.0384486014 0.8421058638
805295170.0 0.0025263923 -0.8437684445 -3.34084e-05 -6.4553e-06 8.39197e-05 0.0001359127 0.047798782 0.8422165679
810295140.0 -0.0054985216 -0.8422179652 -0.0001315993 0.0002130877 1.37957e-05 -0.0002099019 0.0559920159 0.8409315954
815295110.0 -0.0143836178 -0.8428349414 0.0001151621 9.16226e-05 7.58915e-05 2.7261e-06 0.0636042673 0.8405604692
820295080.0 -0.0220768306 -0.8418318869 0.0001019614 6.40801e-05 2.2359e-06 5.7725e-06 0.0716033026 0.8403898739
825295050.0 -0.0320633421 -0.8419405041 0.0001041161 5.31183e-05 -2.81467e-05 0.000128519 0.080558535 0.8392996652
830295020.0 -0.0397381633 -0.84176249 0.0001509222 -9.74422e-05 7.7184e-05 -0.0001092569 0.0882040758 0.8381619374
835294990.0 -0.0474025377 -0.8405246194 -8.52799e-05 -6.39113e-05 0.0002112229 1.66275e-05 0.0968312565 0.8375315279
840294960.0 -0.055593847 -0.8397744285 -1.08429e-05 7.75814e-05 7.38454e-05 9.28516e-05 0.1056295463 0.8368933589
845294930.0 -0.0642579467 -0.8396607131 -0.0001213147 -8.2827e-05 2.81703e-05 1.33244e-05 0.1139327825 0.8357516149
850294900.0 -0.0716251664 -0.8385346606 5.76918e-05 -0.0003335439 0.0001710854 1.69057e-05 0.1216576169 0.8345044727
