!Created with skrf (http://scikit-rf.org).
# Hz S RI R 50.0 
!freq ReS11 ImS11 ReS21 ImS21 ReS12 ImS12 ReS22 ImS22
300000.0 0.8591360582 -0.0025039461 0.0004425403 0.0014027232 -0.0007114734 -0.0006598003 -0.777452261 -0.125407677
5299970.0 0.858738945 -0.0097950091 -9.4058e-06 -4.72228e-05 -1.80145e-05 2.4753e-06 -0.7854288388 -0.0068288483
10299940.0 0.8578114321 -0.0184761644 0.0001400214 -0.0001027976 -0.0001561981 -4.91432e-05 -0.7885029624 -0.0036227864
15299910.0 0.8567943656 -0.0264556941 -0.0001872705 -2.85344e-05 -0.00020943 0.0002427816 -0.7937812581 -0.0015472771
20299880.0 0.8561074795 -0.0352936059 6.85187e-05 -3.5512e-06 -0.0002194079 -3.61253e-05 -0.8002559748 0.0021181709
25299850.0 0.8556515265 -0.0435040917 0.0001027231 0.0002999091 0.0002980344 4.14295e-05 -0.806919385 0.0080758655
30299820.0 0.8548894771 -0.0514329646 2.75684e-05 -0.0001593446 -3.549e-06 -0.0001845297 -0.8132440212 0.0163648282
35299790.0 0.8540821925 -0.0601187299 6.145e-07 4.81841e-05 -7.64475e-05 -0.0001249838 -0.8175992164 0.0249561304
40299760.0 0.852239597 -0.0684454715 -0.0001836938 6.79146e-05 -2.26911e-05 6.91573e-05 -0.821626075 0.0342525752
45299730.0 0.8525120632 -0.0771635729 -0.0001106707 -0.0002023001 6.48313e-05 0.0001145949 -0.8255297937 0.0433991948
50299700.0 0.8519833566 -0.0847942051 0.0001292679 0.0002569119 3.35509e-05 -0.0001043478 -0.8273422356 0.0539457775
55299670.0 0.8507541205 -0.093203924 -8.48674e-05 -1.87523e-05 -0.0001094729 5.3144e-05 -0.8300696424 0.0640186217
60299640.0 0.849675364 -0.1011544978 0.0001144077 -9.05356e-05 -5.01523e-05 -0.0002028031 -0.8300763338 0.0739879203
65299610.0 0.8486490879 -0.1100416475 -7.60511e-05 -6.20907e-05 0.0001210602 -0.0001091653 -0.8317475512 0.0837946859
70299580.0 0.8473737331 -0.1184544617 -3.12992e-05 0.0001152438 -1.16296e-05 0.0001758235 -0.831964579 0.0938106574
75299550.0 0.8467262775 -0.1262922105 -0.0002413862 -0.0001201377 -8.23208e-05 9.81752e-05 -0.8319112722 0.1032983055
80299520.0 0.8445663956 -0.1349715535 0.0001395463 -3.96606e-05 -0.0001567626 -0.0001566485 -0.831739491 0.1138702512
85299490.0 0.8434153783 -0.1429027288 5.71094e-05 7.59189e-05 -4.1889e-05 -0.0001094545 -0.8316492152 0.1235422452
90299460.0 0.8417358764 -0.1508737049 0.0001376529 -0.000105658 4.51106e-05 9.03631e-05 -0.8305591311 0.1324882397
95299430.0 0.839768103 -0.1594345241 -3.33959e-05 0.0001153194 1.95378e-05 1.326e-05 -0.8292612484 0.1423142495
100299400.0 0.8381628959 -0.1666715439 0.0001195082 0.0001384868 -0.0001584104 -5.2568e-06 -0.8285168246 0.1522738884
105299370.0 0.837162423 -0.1752800797 9.63905e-05 -0.0001554547 7.48623e-05 3.94784e-05 -0.8269620236 0.1607655379
110299340.0 0.83525118 -0.1833920992 -8.61499e-05 -3.1855e-05 -0.0001041941 -1.11709e-05 -0.8261193338 0.1705911324
115299310.0 0.8330169778 -0.1920041184 1.7154e-05 -8.81735e-05 -0.000117715 -2.00891e-05 -0.8244097591 0.1800094386
120299280.0 0.8312863956 -0.1998388474 6.12675e-05 -3.67899e-05 4.32463e-05 -0.0001168795 -0.8229732162 0.188782947
125299250.0 0.8299875557 -0.2080027756 0.0003517981 1.28992e-05 -3.49796e-05 -2.07948e-05 -0.8214513171 0.1980460962
130299220.0 0.8277214921 -0.2161647609 3.20388e-05 0.0001909619 -0.0001711343 -0.0001507171 -0.81971803 0.2069010952
135299190.0 0.825514308 -0.2235269302 0.0001280047 2.75123e-05 7.80504e-05 -0.0001024343 -0.8174395815 0.2159665082
140299160.0 0.8230675702 -0.2318642275 -5.89095e-05 4.39529e-05 -5.84452e-05 -5.9903e-06 -0.8150312836 0.2249226668
145299130.0 0.8203706378 -0.2400556418 -4.55115e-05 -0.0001967911 0.000118785 -6.9161e-06 -0.8131491192 0.2343427138
150299100.0 0.818207781 -0.2482982276 -0.0001255173 -0.0001482878 4.23953e-05 -3.02941e-05 -0.8115754781 0.2430496738
155299070.0 0.8158154102 -0.2560672273 0.0002053567 2.83751e-05 -7.5425e-06 -8.15901e-05 -0.80826764 0.2519128331
160299040.0 0.8127557738 -0.2638108384 -0.0003586034 4.13093e-05 -0.0001217318 0.0001829115 -0.8061858127 0.2606785832
165299010.0 0.8103208682 -0.2718969916 -8.53019e-05 -1.95089e-05 -0.000174689 -0.0001316112 -0.8038015844 0.2694966625
170298980.0 0.8077218631 -0.2798691578 -0.0001871505 -6.17028e-05 0.0001364954 0.00022887 -0.8007461463 0.2781714751
175298950.0 0.8044585875 -0.2873004992 -6.73728e-05 4.54653e-05 -0.0001083659 -6.41397e-05 -0.7980213448 0.2866752637
180298920.0 0.8022372004 -0.295691125 -8.28541e-05 2.59525e-05 2.71936e-05 0.0002133145 -0.794717765 0.295364271
185298890.0 0.7991489799 -0.3035087395 -1.11709e-05 -9.34078e-05 4.17726e-05 6.1507e-06 -0.7913166306 0.3033633669
190298860.0 0.7958068902 -0.3113284256 0.0001080122 -9.25938e-05 -5.48345e-05 0.0001054972 -0.7885254105 0.3123025433
195298830.0 0.7929181903 -0.3187010922 -8.63565e-05 -1.94704e-05 5.554e-05 -9.80482e-05 -0.7854196898 0.321175049
200298800.0 0.7892813759 -0.32581152 -0.0002537572 -4.76009e-05 -0.00011268 4.64111e-05 -0.7828464506 0.3285893601
205298770.0 0.7862941974 -0.3343071149 9.81048e-05 -8.51523e-05 0.000290951 -2.39048e-05 -0.778449405 0.3373116214
210298740.0 0.7828094804 -0.3415426706 -5.34625e-05 0.0001737508 0.0001022169 0.0001449814 -0.7752369583 0.34545371
215298710.0 0.77973235 -0.3495496041 -0.0002366554 -2.03104e-05 -1.45556e-05 -0.0002509619 -0.7714260458 0.3535001188
220298680.0 0.7762863895 -0.3573807821 -7.6996e-05 -9.86554e-05 -0.0001291519 0.0001299254 -0.7676408727 0.3616159912
225298650.0 0.772695096 -0.3651436296 8.93075e-05 9.52538e-05 -0.0001548248 -5.68598e-05 -0.7638548166 0.3695611728
230298620.0 0.7685858568 -0.3721914487 8.48828e-05 4.08006e-05 0.000187282 2.68464e-05 -0.7602944077 0.3779813742
235298590.0 0.7646389481 -0.3795775798 0.0001214316 -0.0001048774 -7.05991e-05 0.0001153408 -0.7559780779 0.386402738
240298560.0 0.7617066029 -0.3872565742 -0.0001675045 -0.0002867866 0.0001807804 8.25986e-05 -0.7519347396 0.3948578183
245298530.0 0.7576374258 -0.3943959211 -2.8056e-06 0.0002052176 5.8432e-05 2.35788e-05 -0.7475906239 0.4022259817
250298500.0 0.7538471986 -0.4014513934 0.0001580194 -4.41026e-05 -0.0001998683 0.0001556888 -0.7439447488 0.4100803056
255298470.0 0.7492306975 -0.409492037 -3.17869e-05 0.0001441801 -0.0001322153 -9.25482e-05 -0.7390067809 0.4175172703
260298440.0 0.7452097431 -0.416670793 6.42811e-05 -4.2578e-06 -1.67291e-05 -2.01162e-05 -0.734898349 0.426253727
265298410.0 0.7414350943 -0.4234657322 -8.32726e-05 0.0001170657 -0.0001971272 7.98733e-05 -0.7303178609 0.433259182
270298380.0 0.7371334987 -0.4305771076 1.13819e-05 4.84398e-05 3.56991e-05 0.0001130235 -0.7256730774 0.4411201555
275298350.0 0.7328972472 -0.4382890192 -0.0001386595 0.0002177643 -6.80657e-05 -2.04057e-05 -0.7211991839 0.4484592667
280298320.0 0.7280781144 -0.4454462067 -2.08943e-05 0.0001930011 -3.90211e-05 0.0002207794 -0.7161079804 0.4555495448
285298290.0 0.7245599452 -0.4524416574 -0.0001182491 -0.0001848374 0.000175637 8.35019e-05 -0.7110680187 0.4633794419
290298260.0 0.7202595187 -0.4595509024 -0.0001892947 0.0002327217 -0.0001310347 7.18539e-05 -0.7063978191 0.471289317
295298230.0 0.7158699169 -0.4664401785 -0.0001549105 -3.57528e-05 9.12057e-05 5.02738e-05 -0.7016153972 0.4780020525
300298200.0 0.7122122002 -0.4742165054 1.35914e-05 -0.0001049849 0.0001002341 0.0001222954 -0.6968335407 0.4855766463
305298170.0 0.707156919 -0.4809375675 5.0487e-06 4.48522e-05 -5.05765e-05 0.0001879457 -0.6910189178 0.4934273403
310298140.0 0.7028547428 -0.4882556952 2.542e-07 4.78598e-05 0.0001096761 1.42661e-05 -0.6864857685 0.5003022433
315298110.0 0.6986931906 -0.4956838137 5.46568e-05 -0.0002467214 -0.000120049 0.0001544448 -0.6810170801 0.5068038274
320298080.0 0.693290305 -0.5034142425 5.58388e-05 1.89064e-05 -2.91277e-05 9.10577e-05 -0.6755472194 0.5148078182
325298050.0 0.6881613691 -0.5106684741 3.54855e-05 -6.34515e-05 3.34377e-05 -5.17686e-05 -0.669972091 0.5216770022
330298020.0 0.6819005271 -0.5170563361 0.0001550988 -0.0002069505 -6.17618e-05 0.0002143705 -0.6644675433 0.5287624216
335297990.0 0.6757742667 -0.5245129506 0.0001035512 -0.0001171822 -0.0001237739 -0.0001608046 -0.6591455252 0.5354906658
340297960.0 0.6701066194 -0.5314553618 -0.0001179004 -7.63383e-05 -8.57174e-05 -0.0001230609 -0.6535862324 0.5422625166
345297930.0 0.6641357191 -0.5370561179 -6.18969e-05 -7.50303e-05 -4.04762e-05 8.7179e-05 -0.6479530614 0.5485614717
350297900.0 0.658878714 -0.5431768384 -3.04808e-05 1.88858e-05 4.0732e-06 6.426e-05 -0.6423836201 0.5551274723
355297870.0 0.6531788471 -0.5493690645 3.70317e-05 -9.27995e-05 -0.0001615901 -7.73409e-05 -0.636834081 0.5616828314
360297840.0 0.6479386729 -0.5556982292 1.66137e-05 6.11008e-05 0.00011187 2.19374e-05 -0.6308259313 0.5691879301
365297810.0 0.6416174101 -0.5616857898 -3.22204e-05 0.0001219005 7.72884e-05 -4.49246e-05 -0.6240123324 0.5749492001
370297780.0 0.6364528856 -0.5681975922 -0.0001669734 5.86493e-05 9.27573e-05 -0.0001371898 -0.618833781 0.5812261694
375297750.0 0.629598476 -0.5739443707 -0.0001990591 -0.0002486746 0.0001082567 -0.0001487821 -0.6125418681 0.5875008839
380297720.0 0.6246831917 -0.5803900283 -5.12236e-05 0.0001254923 0.0001064354 0.0001568489 -0.6065595598 0.5938854605
385297690.0 0.618449146 -0.586510719 1.91315e-05 0.0001324922 -6.73132e-05 0.0002153602 -0.5999666274 0.6001650477
390297660.0 0.6127089901 -0.5913732982 -8.31632e-05 7.67e-07 8.84571e-05 -0.0001099971 -0.594118123 0.6061152734
395297630.0 0.6069088766 -0.5980236673 -3.86655e-05 2.7444e-06 -0.0001131693 7.8773e-06 -0.5870934807 0.6127314379
400297600.0 0.6012872025 -0.6032364045 -4.76142e-05 -6.96162e-05 -0.0001456665 -0.0001502698 -0.5807765651 0.6181934424
405297570.0 0.5948544974 -0.6090204871 -4.42383e-05 7.64035e-05 6.79203e-05 7.8061e-05 -0.5742984297 0.6246213977
410297540.0 0.5884868532 -0.6154729515 0.0001606378 -5.13334e-05 0.0001328236 -7.06593e-05 -0.5682122877 0.6306098531
415297510.0 0.5827190993 -0.6208259675 2.11981e-05 -5.5952e-05 -6.90395e-05 0.0001177501 -0.5616249361 0.6356403143
420297480.0 0.576557789 -0.6263651986 0.0001860005 1.99266e-05 -7.9857e-05 5.46315e-05 -0.5550392854 0.6424148686
425297450.0 0.5703193129 -0.6319773302 0.000117285 -4.09235e-05 -1.12216e-05 -2.21986e-05 -0.5484018453 0.6475665073
430297420.0 0.5639946436 -0.6373203171 -6.6874e-05 9.61086e-05 1.32967e-05 5.78014e-05 -0.5417489779 0.6523500175
435297390.0 0.5575065906 -0.642782938 4.1794e-06 -5.12737e-05 -2.26071e-05 4.29008e-05 -0.5347012847 0.6583981186
440297360.0 0.5515968899 -0.6489123355 6.17748e-05 5.60037e-05 1.87248e-05 3.13459e-05 -0.527853119 0.6634906454
445297330.0 0.54483614 -0.6538342084 0.0002189294 -5.83626e-05 1.26366e-05 0.0001434135 -0.5206973454 0.6687980459
450297300.0 0.5387834948 -0.6586439261 7.26733e-05 -0.0001897751 -3.56993e-05 6.28593e-05 -0.5137150604 0.6743014899
455297270.0 0.5320258386 -0.6639488793 -0.0001592389 -0.0002846523 1.16499e-05 0.0001177347 -0.5070796329 0.6793190675
460297240.0 0.5253235689 -0.6689831319 3.9874e-05 -0.0001015996 -3.80577e-05 0.00010888 -0.5002833278 0.6841082557
465297210.0 0.5181321706 -0.6745538957 3.26447e-05 -5.76823e-05 -0.0001760841 5.02209e-05 -0.4927512827 0.6891818443
470297180.0 0.51142494 -0.678585682 2.08341e-05 0.000101343 -5.53182e-05 0.0001265537 -0.4854502146 0.6948137794
475297150.0 0.5053339013 -0.6840326742 5.61907e-05 6.32049e-05 -0.0001021651 0.000164323 -0.4783810884 0.6993451234
480297120.0 0.4980864893 -0.6885593711 -0.0001677771 3.863e-06 -6.78097e-05 -0.0002460185 -0.4707918784 0.7041758917
485297090.0 0.4915692094 -0.6934790234 -8.84108e-05 -0.0001045764 -2.80436e-05 -0.0001877295 -0.4641316008 0.7091099117
490297060.0 0.4843208095 -0.698027128 -0.0001562872 -5.12155e-05 -9.5441e-06 1.24771e-05 -0.4566988758 0.713211254
495297030.0 0.4776752087 -0.702381094 -5.6745e-05 0.0002263782 9.13836e-05 -0.0001074333 -0.4494977717 0.7182379572
500297000.0 0.4700437847 -0.7075893994 -0.000236797 -0.0001057283 5.01879e-05 -3.83291e-05 -0.4417522993 0.7227509741
505296970.0 0.4637168293 -0.7120637819 -0.0002184415 9.26501e-05 -1.86877e-05 0.0003045858 -0.4346237889 0.727418175
510296940.0 0.4562053803 -0.7165847041 -3.10684e-05 5.22451e-05 -0.0001573279 0.000125104 -0.4271483578 0.7315586068
515296910.0 0.4492667471 -0.7209726243 8.05562e-05 -0.0001352427 0.0002925484 0.0002258879 -0.4195879274 0.7352879014
520296880.0 0.4419343204 -0.725646591 0.0001106939 8.38416e-05 -1.35791e-05 8.2344e-06 -0.4122914803 0.7394934814
525296850.0 0.435029911 -0.7300519628 0.0001314885 -0.0002252974 1.3155e-06 -2.33551e-05 -0.4050163591 0.7437456627
530296820.0 0.4279294047 -0.7337680435 9.62937e-05 -3.20336e-05 6.7302e-06 -0.0001519613 -0.3969197767 0.7474452865
535296790.0 0.4201796995 -0.7377807123 6.63685e-05 -6.40064e-05 -8.81616e-05 1.67907e-05 -0.389886453 0.7513492775
540296760.0 0.412902802 -0.7417090925 -1.19789e-05 -0.0001578633 6.71132e-05 -9.16357e-05 -0.382166022 0.7550306646
545296730.0 0.4055492969 -0.7457489097 -0.0001408272 -9.98424e-05 -0.0001941143 0.0001935491 -0.374572526 0.7588027524
550296700.0 0.3985369795 -0.748778498 1.31092e-05 -8.61626e-05 1.29496e-05 -0.0002573621 -0.3663335606 0.7627421704
555296670.0 0.3903625034 -0.7537291921 -0.000171415 7.1133e-06 9.8838e-05 -0.0001518614 -0.3585728505 0.7665808445
560296640.0 0.3827379741 -0.7567972511 -9.1123e-06 7.17093e-05 -0.0001129375 4.90997e-05 -0.3507332659 0.7702696355
565296610.0 0.375745878 -0.7603448462 -0.0001232389 1.93994e-05 -7.72599e-05 -7.1644e-06 -0.3433069434 0.7739722236
570296580.0 0.366983545 -0.7642127811 -1.33114e-05 -7.72927e-05 -0.0001540593 -9.43904e-05 -0.3353915745 0.7775102955
575296550.0 0.3598396415 -0.7671657258 -1.53003e-05 -4.97807e-05 -0.0002130045 0.0001019796 -0.3277798107 0.7805039315
580296520.0 0.3526071229 -0.7713482103 -2.4477e-06 -5.75981e-05 -0.0001462517 2.94956e-05 -0.3185432238 0.7835066868
585296490.0 0.3443461208 -0.7745152798 2.43834e-05 0.0001166817 -1.96751e-05 1.25839e-05 -0.311269846 0.7872655909
590296460.0 0.3369425334 -0.7771528425 0.0001006255 7.92219e-05 7.04615e-05 -5.4918e-06 -0.3038859161 0.7899542751
595296430.0 0.3287873869 -0.7806605593 -0.0001227419 8.66357e-05 -8.9205e-06 -3.604e-07 -0.2951319762 0.7928302939
600296400.0 0.3211478136 -0.7840374858 0.000135736 -9.77051e-05 8.15623e-05 -0.0001416058 -0.2874150075 0.79570131
605296370.0 0.3129003234 -0.7866276529 -5.40747e-05 -6.71474e-05 -0.0001138474 -6.42614e-05 -0.2786362231 0.7989297112
610296340.0 0.3054664864 -0.7896394818 0.0001261327 -0.0001264906 -0.0001597954 -0.0001631261 -0.2711942693 0.8012896622
615296310.0 0.2980794704 -0.7930259146 1.08002e-05 -0.0001928255 -0.0001386463 0.0001261549 -0.2626550621 0.8036886006
620296280.0 0.2900617748 -0.7954676539 -7.8261e-05 1.1946e-06 -7.69375e-05 5.08484e-05 -0.2550932036 0.8070019045
625296250.0 0.2819592306 -0.7981442324 0.0001340043 -5.04922e-05 1.81302e-05 -0.0002577697 -0.2459763545 0.8087419994
630296220.0 0.2747132208 -0.8014758327 1.60617e-05 0.0001124586 -0.0002047531 -0.000136279 -0.2379049231 0.8117780719
635296190.0 0.2659800847 -0.8039563867 -7.56671e-05 -0.0002690882 -3.043e-07 9.07509e-05 -0.2303419629 0.8140868215
640296160.0 0.2578831972 -0.8062225964 0.0001350496 -2.44363e-05 6.36737e-05 8.2533e-05 -0.221597443 0.8162595721
645296130.0 0.2499338119 -0.8081039396 2.6494e-06 4.38998e-05 7.2466e-05 0.0001796921 -0.2136728738 0.8186864251
650296100.0 0.2419311963 -0.8102270075 -0.0002870233 6.8431e-05 -8.8942e-06 0.0001351221 -0.2057864903 0.819877865
655296070.0 0.2333096361 -0.8135594913 0.000212813 -9.32874e-05 -8.45558e-05 8.56106e-05 -0.1969441125 0.8221380326
660296040.0 0.2255037796 -0.8149936011 -0.0001327308 0.0001594431 -1.76341e-05 1.13989e-05 -0.1884908897 0.8242951936
665296010.0 0.2181467397 -0.8177571062 8.698e-07 0.0001085522 -0.0001204726 -0.0001251189 -0.1801819959 0.825864087
670295980.0 0.2094340144 -0.8196111787 -5.67491e-05 -0.0001927494 0.0001360129 -7.01506e-05 -0.1729007498 0.8275898355
675295950.0 0.2016769703 -0.8209401916 -5.18924e-05 -0.0001079688 5.99453e-05 0.0001122533 -0.1640825579 0.8294496307
680295920.0 0.1931721811 -0.822329074 -5.17287e-05 -9.21512e-05 -0.0001750169 2.43847e-05 -0.156276265 0.831268395
685295890.0 0.1848249339 -0.8239639342 0.0001080813 -5.60235e-05 7.18491e-05 -9.51976e-05 -0.1473354749 0.8323478441
690295860.0 0.1767953241 -0.8262392792 3.58528e-05 -0.0003224228 1.84531e-05 0.000144974 -0.1393214494 0.8339290641
695295830.0 0.1678261852 -0.8277461436 1.96623e-05 0.0002066823 -0.0002450112 -2.82458e-05 -0.1305120936 0.8352619279
700295800.0 0.1603922856 -0.8291863007 -0.0002002693 0.0002238961 -0.0001918065 -0.0001998674 -0.1227039636 0.8365313568
705295770.0 0.1509920524 -0.8305424055 -2.38667e-05 -3.1579e-05 7.63201e-05 3.75343e-05 -0.1144743981 0.8383913354
710295740.0 0.1435390457 -0.8318240302 -2.15222e-05 6.91739e-05 0.0001435565 5.87512e-05 -0.1052596727 0.8384297562
715295710.0 0.1347931698 -0.8336642349 0.0001720016 -8.57693e-05 -3.7011e-06 0.0001349814 -0.0974652155 0.8396296778
720295680.0 0.1271716577 -0.834626451 2.12781e-05 -3.94669e-05 6.92278e-05 -2.64403e-05 -0.0886979149 0.8402515014
725295650.0 0.1179692921 -0.8353586293 -6.05893e-05 9.98647e-05 5.7381e-05 -0.0001192671 -0.0807504426 0.8416868659
730295620.0 0.1099462991 -0.8362125465 -2.10762e-05 0.000125426 0.0001458734 -0.0002072056 -0.0727619139 0.8420487536
735295590.0 0.1014665442 -0.8367905734 0.0002100453 -6.38035e-05 3.3607e-06 -9.69083e-05 -0.0640776055 0.8426892844
740295560.0 0.0929228007 -0.8382066647 2.3528e-06 -8.9744e-05 -8.76984e-05 -0.0001886103 -0.0546843935 0.8441423522
745295530.0 0.0844326306 -0.8384585367 -0.0001419401 0.0001192676 5.07279e-05 -1.788e-07 -0.046136682 0.8438791792
750295500.0 0.0763970881 -0.8394227616 0.0001201199 -7.02982e-05 7.70932e-05 0.0001002154 -0.0388325769 0.8442028164
755295470.0 0.0678107732 -0.8400394415 0.0002435401 -5.9418e-06 -2.00685e-05 0.0001239742 -0.0295379129 0.8438376135
760295440.0 0.0591417098 -0.8403250271 6.27024e-05 -0.0001320026 1.80388e-05 2.24056e-05 -0.0215547286 0.8444101552
765295410.0 0.051013752 -0.8408348662 2.96109e-05 0.0001144793 1.03177e-05 -6.25049e-05 -0.0131728952 0.8452208174
770295380.0 0.042832765 -0.8411382055 -0.0001388306 -0.0002442263 7.35264e-05 7.83569e-05 -0.004661519 0.8449477927
775295350.0 0.0341860323 -0.8419779876 0.0001003577 5.58635e-05 -7.66165e-05 1.71091e-05 0.0032928343 0.8448447405
780295320.0 0.0256151279 -0.8414657469 -6.8249e-06 8.0417e-06 3.38881e-05 -5.66449e-05 0.0121243377 0.844732013
785295290.0 0.0175689025 -0.8422819732 2.151e-06 6.36176e-05 -4.2492e-05 0.0001050634 0.0209640717 0.8448318878
790295260.0 0.0090693007 -0.8419366152 -0.0001595418 -3.1266e-06 -3.5365e-06 0.0001992999 0.0300497999 0.8448825085
795295230.0 0.0012286995 -0.8414581162 8.6972e-06 0.0001521683 0.0002426772 -0.0001473105 0.0384708977 0.8436008923
800295200.0 -0.0079902388 -0.8407155694 0.0002304299 9.8489e-06 4.23526e-05 -8.22792e-05 0.046916226 0.8434158367
805295170.0 -0.0159896625 -0.8408746578 -0.0002689454 9.71451e-05 0.0001182716 -0.0001143996 0.05420168 0.8432052042
810295140.0 -0.024130815 -0.8405365808 -0.0001461803 0.0001016219 -3.73198e-05 0.0001757459 0.0634054252 0.8423148504
815295110.0 -0.0325506885 -0.8407024896 -1.57663e-05 -9.91501e-05 6.70834e-05 9.4733e-06 0.0716896301 0.8418577788
820295080.0 -0.0405570228 -0.8396882936 -6.1215e-05 3.88773e-05 3.4836e-05 -2.89016e-05 0.0798107086 0.8412122917
825295050.0 -0.0495776768 -0.8390606957 0.0003083897 -3.30447e-05 0.0001860776 -0.0001740947 0.0880588534 0.8409413523
830295020.0 -0.0577630078 -0.8388150342 3.0811e-05 0.0001825373 5.65737e-05 -6.17679e-05 0.0968607802 0.8394338045
835294990.0 -0.0661010565 -0.8372953332 4.68202e-05 0.0002475752 -0.0002399794 -0.0002420976 0.1047026528 0.8387156486
840294960.0 -0.0744995519 -0.8370987719 0.0002975459 0.0001853643 0.0002146638 -3.64706e-05 0.1132834057 0.8372771725
845294930.0 -0.082737267 -0.8355422273 -0.0001049614 -2.50305e-05 -0.0001062526 -8.89323e-05 0.1215321876 0.8361725017
