!Created with skrf (http://scikit-rf.org).
# Hz S RI R 50.0 
!freq ReS11 ImS11 ReS21 ImS21 ReS12 ImS12 ReS22 ImS22
300000.0 -0.769176314 -0.1335245215 -3.08881e-05 0.0007081007 0.0006760449 0.0013501049 -0.0465688287 -0.0652123849
5299970.0 -0.7850914352 -0.0064969971 -0.0001979469 2.09183e-05 -0.0001952874 -8.01601e-05 -0.0496210874 0.0146564688
10299940.0 -0.7873341236 -0.0040325729 6.3956e-06 4.88901e-05 -0.0001205372 1.3556e-06 -0.0440749002 0.0320638493
15299910.0 -0.7931624588 -0.0016476267 3.75935e-05 0.0001716039 2.31052e-05 0.0001014323 -0.0357062189 0.0465398338
20299880.0 -0.7996504172 0.0025550026 -0.0001782644 0.0001369678 -0.0001637854 0.0001316828 -0.0258994827 0.0584866692
25299850.0 -0.8066959471 0.0086200339 5.19057e-05 -0.0002711001 -0.0002211139 -5.4579e-06 -0.0152725515 0.0676367443
30299820.0 -0.8122775083 0.016178093 8.94871e-05 0.0001101805 7.63371e-05 0.0001857549 -0.0040147211 0.0744220485
35299790.0 -0.816811262 0.0254565666 -0.000107246 -0.0002353145 2.72591e-05 0.0001250698 0.0074273421 0.0792131472
40299760.0 -0.8221434458 0.0343091045 -1.67114e-05 3.73889e-05 6.9115e-06 -8.1236e-06 0.0187849945 0.0823961897
45299730.0 -0.825218072 0.0442123829 -4.73884e-05 -1.86352e-05 -6.98002e-05 3.70067e-05 0.0293683952 0.0838556457
50299700.0 -0.8270047522 0.0538842958 4.88612e-05 -0.000148595 -8.75043e-05 -4.3691e-05 0.0395288299 0.084141916
55299670.0 -0.8288160528 0.0642517071 3.96161e-05 3.46218e-05 -0.0002010644 9.25799e-05 0.0480416502 0.0834355234
60299640.0 -0.8299840433 0.0745617137 0.0001903225 1.56817e-05 -5.0831e-05 9.71285e-05 0.0569933835 0.0815388374
65299610.0 -0.8311808421 0.085272844 3.40516e-05 -7.22045e-05 -8.49461e-05 0.0001008477 0.0646481298 0.0794013536
70299580.0 -0.8313925202 0.0945008635 -7.46091e-05 -0.0001897708 0.0001760484 0.000187956 0.0717594826 0.076530508
75299550.0 -0.8315787237 0.1043233575 -0.0001533921 -4.86385e-05 0.0001184686 0.0001290026 0.0784097397 0.0737206898
80299520.0 -0.8315000392 0.1143768765 0.0001286205 -9.64097e-05 -0.0001267903 0.0001606084 0.0833536998 0.0702396167
85299490.0 -0.8306944811 0.1241276871 -0.0001225635 0.000306265 1.12744e-05 9.29301e-05 0.0885340103 0.0667014763
90299460.0 -0.8300394951 0.1339308828 0.000241552 0.0001866223 3.16379e-05 0.0002059247 0.0935239593 0.0626521895
95299430.0 -0.8290955984 0.1439016965 -2.39521e-05 -7.92275e-05 0.0001034918 4.30295e-05 0.0976189893 0.0589209305
100299400.0 -0.8279629755 0.1528089207 -5.60645e-05 9.75469e-05 4.8096e-05 7.05995e-05 0.1009630156 0.0554217097
105299370.0 -0.8267029544 0.1620796805 7.79026e-05 3.38882e-05 0.0001262298 0.0001151832 0.104679268 0.0512314998
110299340.0 -0.8253212737 0.1712757885 0.0002359206 0.0001167577 0.0001339471 -5.81398e-05 0.1073661749 0.0474973342
115299310.0 -0.8237011893 0.1804163577 -2.5374e-06 0.0002816484 -7.55623e-05 0.0002595552 0.1099225074 0.0438391812
120299280.0 -0.8216525379 0.1892613133 0.0001293233 0.0002135761 6.28361e-05 -1.31583e-05 0.1123151372 0.0401520501
125299250.0 -0.8203032728 0.1988748632 0.0001025659 0.0001460602 -7.83664e-05 3.25275e-05 0.1143513168 0.0359758999
130299220.0 -0.8181057444 0.2078285245 0.000215999 0.0001242723 -0.0001632516 -6.64712e-05 0.1157986199 0.0328071415
135299190.0 -0.8167691389 0.2169528087 0.0003338024 0.0002123828 0.0001117076 0.0001485771 0.117577503 0.02898131
140299160.0 -0.8146685172 0.2252857971 -0.0001723692 0.000196621 0.0001329878 0.0002553158 0.1190104781 0.0251203835
145299130.0 -0.8124015788 0.2341682596 0.0001383867 -7.65295e-05 0.0002203082 4.2087e-05 0.1196780107 0.0221417753
150299100.0 -0.8103278495 0.2429595041 0.0001407981 -4.74276e-05 0.0001335427 2.9186e-05 0.1207200384 0.0184683653
155299070.0 -0.8079458403 0.2523222247 4.89711e-05 -2.74407e-05 -6.24913e-05 0.000120591 0.1217781008 0.0157252418
160299040.0 -0.8043932174 0.2610182484 2.30756e-05 6.84326e-05 1.6791e-06 -7.55051e-05 0.1225702494 0.0123029427
165299010.0 -0.8022494476 0.2692734157 -5.7097e-05 0.0001063824 -0.0001548828 1.3766e-05 0.1230781899 0.009076163
170298980.0 -0.7997913384 0.2780138216 0.0002304178 7.34522e-05 7.99439e-05 0.000126184 0.1235344587 0.0060558339
175298950.0 -0.7972857266 0.2869058612 0.0001285464 2.7983e-06 7.7763e-05 0.0002228813 0.123782167 0.0028604925
180298920.0 -0.7937605461 0.2953899709 1.46101e-05 9.7517e-05 4.52044e-05 0.0003175456 0.1242260197 -9.27646e-05
185298890.0 -0.7907707655 0.3040654977 -5.24714e-05 0.0002161384 0.0001537709 0.0002255963 0.1241744195 -0.0030252598
190298860.0 -0.7874173182 0.3123653532 0.0001708683 5.45849e-05 9.6089e-05 -9.11441e-05 0.1244050458 -0.005619399
195298830.0 -0.7842586716 0.3209383669 0.0002177756 0.000162759 0.0001239234 4.19148e-05 0.1243267441 -0.0085664445
200298800.0 -0.7808620004 0.3294573922 4.39536e-05 0.0001313816 -8.26976e-05 -7.69042e-05 0.1244119245 -0.0112382873
205298770.0 -0.7775779785 0.3371353487 7.45319e-05 0.0002668098 6.11799e-05 3.26773e-05 0.1243270372 -0.0135281135
210298740.0 -0.7734764035 0.3459173897 3.01611e-05 -0.0002677282 0.0001311771 0.0001311761 0.1242387673 -0.0163334666
215298710.0 -0.7699121896 0.3540665993 -3.93967e-05 7.42639e-05 0.0001072036 -4.52803e-05 0.1236003996 -0.0187907064
220298680.0 -0.7675991116 0.3622586413 0.0001626058 0.0001045378 0.0001344375 7.85342e-05 0.1235444019 -0.0208118148
225298650.0 -0.7630415395 0.3708647194 -3.59671e-05 0.0001385829 -1.10563e-05 2.29117e-05 0.1227895496 -0.0230507187
230298620.0 -0.7589691506 0.3790619038 0.0002207104 0.0001012634 0.000107804 0.0001922791 0.1227912128 -0.0259183252
235298590.0 -0.7549036003 0.3872740728 0.0001636512 0.0002206432 -1.50877e-05 0.0001615964 0.1221402387 -0.0281219254
240298560.0 -0.7509554209 0.3950901875 9.57989e-05 2.69367e-05 0.0001001056 5.27732e-05 0.1215919659 -0.0303372715
245298530.0 -0.7464026159 0.402697646 -7.0892e-06 0.0001929432 -0.000141382 -0.0001135175 0.1211428194 -0.0320635922
250298500.0 -0.7424084787 0.4108714554 0.0002936957 0.0002565731 0.0001370994 0.0001132579 0.1207226948 -0.0343475948
255298470.0 -0.73746555 0.4188682469 0.0001260265 1.20535e-05 2.76482e-05 6.85715e-05 0.1202299256 -0.0367327464
260298440.0 -0.7335757626 0.4258207897 0.0001717145 0.0001499732 0.0001792532 0.0001809353 0.1194255943 -0.0386902971
265298410.0 -0.7297181798 0.4341774268 0.0001682294 1.24871e-05 9.03886e-05 0.0002034983 0.1189564421 -0.0407834937
270298380.0 -0.7248095759 0.4416197471 0.0001088131 8.83598e-05 0.0003121333 -2.2069e-05 0.11798553 -0.0426871316
275298350.0 -0.719290952 0.449005984 6.37136e-05 -5.9674e-06 -3.89707e-05 6.96154e-05 0.1176000363 -0.0442019637
280298320.0 -0.7152221159 0.4564493787 9.02027e-05 0.0001564715 0.0003495533 0.0001005601 0.1167540233 -0.0464455619
285298290.0 -0.7106536628 0.4647700024 0.0001217138 0.000215048 0.0001399971 0.0001598995 0.1158290609 -0.0482825215
290298260.0 -0.7055576606 0.4718874923 3.98872e-05 0.0001430326 -8.42027e-05 0.000243866 0.1154873291 -0.0497421206
295298230.0 -0.7007428725 0.4796560815 0.0001666801 0.000193769 0.0002102005 -2.42473e-05 0.114401027 -0.0518341279
300298200.0 -0.6949447801 0.486805774 8.80264e-05 0.0002588118 0.000260235 7.79807e-05 0.1136730378 -0.0533667628
305298170.0 -0.6900936527 0.4943917479 0.000256184 0.0001454371 -4.53938e-05 3.89927e-05 0.1132997957 -0.0551243573
310298140.0 -0.6844625275 0.5011535871 1.80571e-05 -1.16203e-05 0.0003753358 -3.54654e-05 0.1124483062 -0.0567090068
315298110.0 -0.67931734 0.5081755685 0.0002294722 0.0001957522 0.0002776958 -3.34466e-05 0.1116501995 -0.0588174279
320298080.0 -0.6743114078 0.5156346936 0.0002915666 8.475e-05 0.000181919 0.0001090202 0.110628906 -0.0602199465
325298050.0 -0.6689760661 0.5223040718 0.0003262711 5.91502e-05 0.0001359353 2.31269e-05 0.1095374372 -0.0622370898
330298020.0 -0.662843813 0.5292474543 0.0002101993 7.53079e-05 0.0001130643 0.0001612229 0.1084879872 -0.0640328252
335297990.0 -0.6570534948 0.5364984234 0.000104109 5.35736e-05 0.0002107079 0.0001101138 0.1072679877 -0.0654646701
340297960.0 -0.6523789039 0.5426409006 0.0001869228 8.77771e-05 0.0003227815 0.0001964831 0.1060599734 -0.0669049805
345297930.0 -0.6457590428 0.5489861369 0.0002506484 0.0002919095 5.24532e-05 0.0002044255 0.1049765333 -0.0684555348
350297900.0 -0.6406891755 0.5556627672 0.000219848 0.0002609333 0.0001003886 0.0001063775 0.1038202277 -0.0695941467
355297870.0 -0.634510896 0.5624626612 0.0001512926 -2.91097e-05 0.0001234124 0.000206548 0.1027150511 -0.0706742583
360297840.0 -0.6285924856 0.5692823181 0.000312058 -2.33287e-05 0.0002115736 5.9043e-06 0.1017554224 -0.0720641957
365297810.0 -0.6229841835 0.5762160658 0.0001250398 8.44123e-05 0.0003232258 0.0001133124 0.10032264 -0.0731524957
370297780.0 -0.6158367759 0.5817023376 0.0002276092 1.48103e-05 4.33222e-05 -2.62381e-05 0.098875138 -0.0744055033
375297750.0 -0.6103771293 0.5883483737 0.0002868974 0.0001269891 0.00014397 2.19787e-05 0.0979819473 -0.0756306612
380297720.0 -0.6043046455 0.5949058214 0.0002569447 -8.6793e-06 0.0002492367 -9.34959e-05 0.0971048005 -0.0765064074
385297690.0 -0.5971976487 0.6007483913 0.0002244325 -6.0242e-06 7.18958e-05 -3.41891e-05 0.0956139555 -0.0775306984
390297660.0 -0.5915636977 0.6070751127 0.0001789864 0.0001772961 0.0002980615 0.0001185376 0.0945370242 -0.0789588995
395297630.0 -0.5850995022 0.613496615 9.51507e-05 0.0002402135 0.0001100201 6.43472e-05 0.0932524944 -0.0797277888
400297600.0 -0.5791509144 0.6194975955 0.000422251 0.0002228225 6.83088e-05 0.000143415 0.0917572273 -0.0809691903
405297570.0 -0.5730686171 0.6251215992 6.12745e-05 6.63532e-05 0.0003674587 0.0001426647 0.0907829086 -0.0820972108
410297540.0 -0.5654056547 0.6314893318 0.0003213091 0.0001184567 0.0001552718 0.0002011111 0.0894373324 -0.0826658868
415297510.0 -0.55879377 0.63627487 0.0003567672 -2.16074e-05 0.0002980914 0.0002031468 0.0881578326 -0.083431301
420297480.0 -0.5520241727 0.6421197238 0.0003848037 0.0001867786 0.0001673449 0.00015561 0.0869793177 -0.0847498873
425297450.0 -0.5460056331 0.6478241338 0.000174839 0.0002034128 0.000253082 0.0001293594 0.0861140478 -0.0859070084
430297420.0 -0.5398768619 0.653401987 0.000345596 -5.07349e-05 0.000142756 1.15917e-05 0.0845904433 -0.0864640837
435297390.0 -0.5323835901 0.6589285867 0.0004060539 0.000122063 0.0002159565 0.0001246639 0.0837920339 -0.0874721982
440297360.0 -0.5254239529 0.6640988751 0.0003641125 8.5222e-05 0.0001780909 4.13088e-05 0.0818515863 -0.0885277385
445297330.0 -0.5185379825 0.6697735732 0.0002294102 0.000102206 0.0003395175 7.65363e-05 0.0807202583 -0.0893315217
450297300.0 -0.5114454868 0.6746693573 0.0003017657 0.0002300084 0.0001010939 0.0001432828 0.079285091 -0.0900030157
455297270.0 -0.504330482 0.6800265069 0.0003756578 0.0001249501 5.30055e-05 8.46063e-05 0.0780552197 -0.0909932597
460297240.0 -0.4974907546 0.6854138142 0.0003727144 0.0001433387 0.0002177857 0.0003039136 0.0769913783 -0.0915964685
465297210.0 -0.4900583691 0.690257215 0.0001726623 -0.0001581502 0.0002161642 0.000126324 0.0750476922 -0.0922813552
470297180.0 -0.482807286 0.6948037199 0.0002284988 -0.0001746179 0.0003813896 0.0003566479 0.0735289603 -0.0929068271
475297150.0 -0.4758893092 0.7003465446 0.0002131058 0.0004159836 0.0003828382 5.40079e-05 0.0727165689 -0.0938933636
480297120.0 -0.4690613413 0.7047397224 0.0003728382 0.0002034692 0.0001900664 1.23899e-05 0.0712970677 -0.0943215709
485297090.0 -0.4611083809 0.7092230772 0.0003403299 -0.0001736145 0.0001730311 -4.81275e-05 0.0696068774 -0.0950955479
490297060.0 -0.4540156672 0.7145355346 0.0003898213 -4.127e-06 0.000102453 0.0001635986 0.0683090165 -0.0958654815
495297030.0 -0.4471946346 0.7191300655 0.0001527421 -8.5265e-06 0.0002081206 0.0001108396 0.0667543371 -0.0967135535
500297000.0 -0.4389818466 0.7230734573 9.16676e-05 0.0001753902 0.0004837112 0.0001565826 0.065357191 -0.0969999619
505296970.0 -0.4314753329 0.7268239223 0.0002302087 -7.21095e-05 0.0001042146 0.0001531033 0.0638049869 -0.0975942887
510296940.0 -0.4241501852 0.731942404 0.0003471738 0.0002757075 0.0001605921 0.0001324139 0.0628465454 -0.0979043416
515296910.0 -0.4174146867 0.7362807668 0.0004562692 0.0002765342 0.0003130875 9.10908e-05 0.0611115657 -0.098511015
520296880.0 -0.4092416643 0.7401934669 0.0001451289 0.0002309997 0.0002937007 -9.478e-06 0.0598457349 -0.0993687749
525296850.0 -0.4014900327 0.7447526832 0.0001269684 2.73743e-05 0.0004481578 -2.32046e-05 0.0587325421 -0.1003050021
530296820.0 -0.3941832218 0.7477384286 0.0002591973 6.56734e-05 -3.79481e-05 2.94993e-05 0.0563881272 -0.1001673201
535296790.0 -0.3863167989 0.7520795109 0.000202581 0.0001225509 0.0002193616 0.0001215032 0.055224486 -0.1013288728
540296760.0 -0.3779998187 0.7556050478 0.0001437348 0.000298115 0.0001916219 1.04399e-05 0.0536602284 -0.1014447954
545296730.0 -0.3710848318 0.7596322473 0.0001353535 1.0652e-06 0.0002477179 -7.1e-07 0.0523929211 -0.1022313122
550296700.0 -0.3630130017 0.7637441973 0.0003792886 0.0001123759 0.000367134 0.0001663385 0.0509805007 -0.1027084907
555296670.0 -0.3549858421 0.7669346774 0.0002842045 -3.80007e-05 0.0003422071 8.85569e-05 0.0490301133 -0.1026535772
560296640.0 -0.3469730521 0.770735482 0.0003027176 -1.43846e-05 0.0004170691 0.000161134 0.0480946194 -0.1032746889
565296610.0 -0.3392713261 0.7746478443 0.0003528824 3.25141e-05 0.0002958607 0.0001725496 0.0463744083 -0.1034880331
570296580.0 -0.3317812339 0.7771898806 0.000318174 0.0001206358 0.0001965345 0.0001144338 0.0451835547 -0.1038977004
575296550.0 -0.3235858651 0.7809151263 0.0004059686 -7.58534e-05 0.0002689943 0.0002327697 0.0436267383 -0.1045289502
580296520.0 -0.3159267537 0.783927394 0.000276544 2.80704e-05 0.0003177438 -7.0153e-06 0.0418904058 -0.1045711429
585296490.0 -0.3074253498 0.7863460643 0.0004416116 0.0002567869 0.0003945339 -0.0001236212 0.0404764345 -0.1054871372
590296460.0 -0.2997710385 0.7892679334 0.0001094513 -7.48158e-05 0.0002460791 0.000161207 0.0390395287 -0.1053571304
595296430.0 -0.2915078612 0.7934685313 0.0005807832 0.0002521049 0.0002517481 -6.1653e-05 0.0373360847 -0.1056856427
600296400.0 -0.2833906433 0.7958154448 0.0005721208 0.0001672301 0.0003349012 -0.000144075 0.0360859222 -0.1059933553
605296370.0 -0.2754847377 0.7994179273 0.0004148311 0.0001937442 0.0005537147 -7.1782e-06 0.0347198363 -0.1063080527
610296340.0 -0.267757638 0.8015891109 0.0005256542 0.000203356 0.0002725218 0.0001702179 0.0330268919 -0.1062908672
615296310.0 -0.2583876515 0.8043118871 0.0001549908 3.06636e-05 0.000445366 0.0002418598 0.0315466795 -0.1068556586
620296280.0 -0.2508745774 0.8064923143 0.0004530287 -3.47579e-05 0.0002600913 -6.66255e-05 0.0301726735 -0.1074017435
625296250.0 -0.2424934918 0.8094639624 0.000412748 -1.50658e-05 0.000273978 -6.8408e-05 0.028462161 -0.1071202882
630296220.0 -0.2342225213 0.8116235203 0.0002429145 -9.78014e-05 0.000320138 -3.51649e-05 0.0271628056 -0.1072861403
635296190.0 -0.2260697286 0.8140785105 0.0002882192 7.3493e-06 0.0003583737 6.63367e-05 0.0257133727 -0.1071246681
640296160.0 -0.2178991176 0.8148473761 0.000153354 0.0002093463 0.0002146098 1.45422e-05 0.0242928049 -0.1076184363
645296130.0 -0.210288169 0.8180501786 0.0003572343 7.13347e-05 0.0002272031 0.0001257243 0.0224571448 -0.1077593287
650296100.0 -0.2019143869 0.820445084 0.0003087036 2.7734e-06 0.0003803547 0.0001623495 0.0208554169 -0.1077161349
655296070.0 -0.1928078051 0.8218892103 0.000308065 9.30923e-05 0.0004258268 4.045e-06 0.0196706593 -0.1078279583
660296040.0 -0.1852761523 0.8240899973 0.0003439889 0.0001340275 0.0005982674 -2.96151e-05 0.0182600028 -0.107911743
665296010.0 -0.1766687636 0.825952246 0.0006213288 -9.94753e-05 0.0002394273 -8.67874e-05 0.0167127356 -0.1077864407
670295980.0 -0.16797623 0.8272592685 0.0005523737 8.73451e-05 0.00033689 8.1278e-05 0.0152231556 -0.1080081498
675295950.0 -0.159786865 0.8289746054 0.0003793874 0.0001228254 0.0004185158 -2.76043e-05 0.0139634935 -0.1077571867
680295920.0 -0.1517444973 0.8312375691 0.0003303935 -0.0002799489 0.0004844414 2.61992e-05 0.0121593889 -0.1079443499
685295890.0 -0.1426711812 0.83192497 0.0004753507 -3.50431e-05 0.0004174564 0.0001742246 0.0110255542 -0.1078169572
690295860.0 -0.1344447704 0.8334504768 0.0001551868 -0.0002371232 0.0004381473 0.0002680871 0.0098890825 -0.1077529071
695295830.0 -0.1255345459 0.8342204961 0.0002694734 -6.54081e-05 0.0004231047 7.92213e-05 0.0077909749 -0.1075845342
700295800.0 -0.1175450121 0.8354992136 0.0002615609 0.0001626873 0.0004634043 -0.0002122019 0.0067634236 -0.1077737355
705295770.0 -0.1089414304 0.8376112145 0.0003024784 -0.000123608 0.000419841 -7.22085e-05 0.0054284524 -0.1072746313
710295740.0 -0.1013578454 0.8380936666 0.0003392918 -0.0001506446 0.0004161314 -9.75696e-05 0.0035714256 -0.106983386
715295710.0 -0.0931727248 0.8391945918 0.0003870549 9.34752e-05 0.0005962252 -6.31418e-05 0.0022234241 -0.1070946802
720295680.0 -0.0846646555 0.8395334845 0.0003725777 4.10956e-05 0.0003072417 -7.32508e-05 0.000988114 -0.1070764649
725295650.0 -0.0750362377 0.8409477307 0.000579616 3.56192e-05 0.0005020364 -0.0001606295 -0.0005016297 -0.1066699128
730295620.0 -0.0671522883 0.8409876273 0.0003706467 -0.00019376 0.0002900226 -9.5711e-06 -0.0019151373 -0.1063208248
735295590.0 -0.0574735787 0.8419578433 0.0003418742 0.0001352439 0.0003146066 -0.0001934907 -0.0029543993 -0.1062037874
740295560.0 -0.0501261462 0.8426897555 0.0003025353 -0.0001442626 0.0006619914 3.72087e-05 -0.0047225226 -0.1062153087
745295530.0 -0.0415654035 0.8429941004 0.0003009687 -0.0002438481 0.0003694298 -0.0001103273 -0.0059876376 -0.1056134002
750295500.0 -0.0336329475 0.8431079325 0.0005219957 7.94595e-05 0.0002292184 -8.55425e-05 -0.0075131769 -0.1053404128
755295470.0 -0.0240151657 0.8436535343 0.0003960444 -0.0002532899 0.0004367695 -9.28743e-05 -0.0091677043 -0.1049886108
760295440.0 -0.0161987219 0.8435251434 0.0003316148 0.0001122616 0.0002418184 -8.17241e-05 -0.0103386066 -0.1048527593
765295410.0 -0.0080658369 0.844112669 0.0003145249 -9.57599e-05 0.0002380077 -0.0001726037 -0.0113405438 -0.1044651341
770295380.0 0.0007969235 0.8442915296 0.0005739695 -0.0002639204 8.7825e-05 9.12262e-05 -0.0126899377 -0.1040214881
775295350.0 0.0087219096 0.8440008938 0.0004090068 6.13951e-05 0.0003404672 -7.084e-07 -0.0143783166 -0.1040074828
780295320.0 0.0176485992 0.8436851867 0.0003330789 -0.0001332534 0.000674711 -5.1426e-05 -0.0160163116 -0.1030857493
785295290.0 0.0262651251 0.843834753 0.0003363059 -6.2895e-05 0.0004562948 -4.65435e-05 -0.0171711173 -0.1024963789
790295260.0 0.0346366238 0.8429549269 0.0006713826 5.94893e-05 0.0005195404 -0.0002354435 -0.018563437 -0.1026185438
795295230.0 0.0428225335 0.8428631158 0.0006097103 -3.03276e-05 0.0004377157 -7.63101e-05 -0.0197771427 -0.1014614568
800295200.0 0.0515009458 0.8425435945 0.0001021247 -3.55531e-05 0.0003443844 0.0001633706 -0.02116519 -0.1012667138
805295170.0 0.0600898272 0.8420402983 0.0005858012 -0.0001144962 0.0003487637 -0.0002005523 -0.0224730763 -0.1010613282
810295140.0 0.0682765124 0.8415948706 0.0003605958 -6.69714e-05 0.0005572972 -0.0002029363 -0.0239018429 -0.0998153421
815295110.0 0.0770352393 0.8399792269 0.0004486399 -0.000205655 0.0004980762 -0.0001653237 -0.0252952787 -0.0994400158
820295080.0 0.0853492604 0.8392697784 0.0005665261 -3.33905e-05 0.0001868325 -0.0001744853 -0.0269315736 -0.0989733504
825295050.0 0.0941448442 0.8385085121 0.0005988411 -0.000206944 0.0003181618 -1.1962e-06 -0.0276159496 -0.0986346595
830295020.0 0.1020383649 0.837617554 0.0004471768 -3.10465e-05 0.0005406401 -0.0003952306 -0.0290339244 -0.098229435
835294990.0 0.1103596441 0.8370619899 0.0003822015 -6.503e-07 0.0002777788 -0.0001843688 -0.0304888982 -0.0976433438
840294960.0 0.1190794948 0.8350403664 0.0004584207 -0.0002655692 0.0002595386 1.91178e-05 -0.0317194043 -0.0962982205
845294930.0 0.1276065172 0.8343995515 0.0005459458 -0.000128863 0.0003670551 -5.49065e-05 -0.0329576765 -0.0958392506
850294900.0 0.1352229063 0.8326421293 0.0004391231 -0.0002056221 0.0003914155 1.8723e-06 -0.0341230705 -0.0954095725
