!Created with skrf (http://scikit-rf.org).
# Hz S RI R 50.0 
!freq ReS11 ImS11 ReS21 ImS21 ReS12 ImS12 ReS22 ImS22
300000.0 -0.2375519434 -0.0993929705 0.4663179051 0.0643665715 0.4679155859 0.0679532464 -0.2381980497 -0.1056800103
5299970.0 -0.243832883 0.0070846116 0.4738740965 0.0050234701 0.4736717992 0.0056077466 -0.2442262402 0.0058515011
10299940.0 -0.2403047746 0.0198400497 0.4762917359 0.0062797426 0.4759828064 0.0066147686 -0.2410778796 0.0181838081
15299910.0 -0.2359839888 0.0294526386 0.4790913041 0.0075265153 0.4791408525 0.0079394701 -0.2366542564 0.0275428157
20299880.0 -0.2306807143 0.0372132528 0.4841306547 0.0083844074 0.4845096148 0.0085841219 -0.2320508451 0.0353767305
25299850.0 -0.2248971572 0.0435687393 0.4894620788 0.0074089499 0.4895843474 0.0072493699 -0.2270163186 0.0415860296
30299820.0 -0.2188282857 0.0485776842 0.4951037426 0.0053486708 0.4948736562 0.0054104061 -0.221746667 0.0469956476
35299790.0 -0.2132427387 0.0529142329 0.5002495842 0.0024197843 0.5004312606 0.0024967271 -0.2163660175 0.0509431965
40299760.0 -0.2075736034 0.0557914911 0.5053724712 -0.0017224042 0.5052594107 -0.0018081184 -0.2115251173 0.0546292932
45299730.0 -0.202515475 0.0586266284 0.5104001069 -0.0067948893 0.5102353991 -0.0063399371 -0.2066817769 0.0570471858
50299700.0 -0.1976809152 0.0602112607 0.5140540645 -0.0122592019 0.514537556 -0.012508807 -0.2023267117 0.0596817936
55299670.0 -0.1936274985 0.0617491266 0.5178263201 -0.0179718947 0.518202881 -0.0178143234 -0.1984408749 0.0616931997
60299640.0 -0.1892751909 0.0626440925 0.5210698992 -0.0241361692 0.5215425254 -0.0243016335 -0.1945505265 0.0631136797
65299610.0 -0.1862476341 0.0639836413 0.5244512914 -0.0304098517 0.5247602628 -0.0306997458 -0.1911748615 0.0644294033
70299580.0 -0.1826001109 0.0642344724 0.5268143436 -0.0370113928 0.5268724961 -0.0371504401 -0.1877235708 0.065523205
75299550.0 -0.1797807214 0.0649873164 0.5288431359 -0.0440378597 0.5290637717 -0.0440449315 -0.1851756132 0.0668075244
80299520.0 -0.1773644069 0.0659067394 0.5310203454 -0.0506909003 0.5310639827 -0.0505974719 -0.1827904247 0.0672488376
85299490.0 -0.1747519206 0.0660272399 0.5322623083 -0.057729687 0.5319909846 -0.0576011079 -0.1806404906 0.0682358121
90299460.0 -0.1725704369 0.066571573 0.5333273805 -0.0644619675 0.533144191 -0.0646533425 -0.1776190198 0.069039342
95299430.0 -0.1705291723 0.0673158793 0.5343239565 -0.0725040525 0.5343343343 -0.0716453737 -0.1758146209 0.0702217547
100299400.0 -0.1688102269 0.0675526265 0.5343186628 -0.078366036 0.534515237 -0.0785941152 -0.1742902105 0.0709172495
105299370.0 -0.1670703385 0.0681603786 0.5347172135 -0.085347063 0.5348307329 -0.0854465052 -0.1720297051 0.071633521
110299340.0 -0.1656007582 0.0684928723 0.5342769891 -0.0918749063 0.5350666519 -0.0922867496 -0.1707275141 0.0727304619
115299310.0 -0.1640058228 0.0687426486 0.5347219505 -0.0986783715 0.535203307 -0.0992232315 -0.1690479205 0.0731196324
120299280.0 -0.1628651181 0.0695865046 0.5347563582 -0.1058919602 0.5349524834 -0.1061506396 -0.1680220708 0.0743094764
125299250.0 -0.161918795 0.069837021 0.5343064399 -0.1123690128 0.5350866695 -0.1126387175 -0.1665727894 0.0747899748
130299220.0 -0.1604990224 0.0707207588 0.5337794028 -0.1189201561 0.5338659066 -0.1192905849 -0.1653921385 0.0758576982
135299190.0 -0.1593651432 0.0710759437 0.5328017707 -0.1257175526 0.5326894683 -0.1258538498 -0.1641287451 0.0767479893
140299160.0 -0.1586488813 0.0722470895 0.5322241059 -0.1323876489 0.532566334 -0.1324569049 -0.1626574216 0.0781460169
145299130.0 -0.1573597349 0.0729238764 0.5316347054 -0.1395456767 0.5313223963 -0.1389707438 -0.1622106159 0.0786982768
150299100.0 -0.1566058805 0.0733961197 0.5304546614 -0.1456859309 0.5304138003 -0.1456897658 -0.1611068298 0.0798078995
155299070.0 -0.1559518356 0.0747108075 0.5289196871 -0.1524487852 0.5291480338 -0.1527506109 -0.1601663117 0.081132826
160299040.0 -0.1547648842 0.0752105469 0.5273349835 -0.1583812199 0.5279367603 -0.1588626419 -0.1589826587 0.0824190523
165299010.0 -0.1542673031 0.0760827746 0.5262016018 -0.1656416032 0.5264697909 -0.1654591275 -0.157883846 0.0832876058
170298980.0 -0.1535528979 0.0772769608 0.5242491803 -0.1713815206 0.5247099223 -0.1718466262 -0.1567921074 0.0845456796
175298950.0 -0.1525249672 0.0784046197 0.5234818027 -0.1775697947 0.5233252191 -0.1777192572 -0.155999866 0.0854685841
180298920.0 -0.1516827256 0.0790192927 0.5213139333 -0.1841892564 0.521514443 -0.1840073692 -0.1550156426 0.0875101802
185298890.0 -0.1508762068 0.0801340121 0.5193739237 -0.1905307803 0.5197179011 -0.1901956215 -0.1541771364 0.0880006009
190298860.0 -0.1502655311 0.0813073667 0.5177691788 -0.1965472631 0.5177881471 -0.1968913793 -0.152644107 0.0895085475
195298830.0 -0.1495342377 0.0820776099 0.5154472445 -0.2021715465 0.5156288371 -0.2027276852 -0.1519231772 0.0903335068
200298800.0 -0.1488567354 0.0836098806 0.5138944784 -0.2080598297 0.5138047059 -0.2085033568 -0.1507287615 0.0925334025
205298770.0 -0.1480961929 0.0846692233 0.5116663206 -0.2144809906 0.5117951772 -0.2146293582 -0.1500289882 0.09338005
210298740.0 -0.1475458919 0.085674252 0.5096290587 -0.2213347047 0.5096286065 -0.2209450179 -0.1491182452 0.0949744083
215298710.0 -0.1467142662 0.0868911928 0.5069980832 -0.2266647859 0.5070430763 -0.2265188707 -0.1484695605 0.0961511746
220298680.0 -0.1457142174 0.0880226131 0.5042074849 -0.2328123023 0.5047294364 -0.2326873116 -0.1471233666 0.0974687154
225298650.0 -0.1450381911 0.0893654186 0.5018299069 -0.2383491102 0.5018822348 -0.2383919136 -0.1462291837 0.0990259167
230298620.0 -0.1445702413 0.0906189351 0.4997568012 -0.2444574263 0.4999120016 -0.2445438964 -0.1448518211 0.1004389801
235298590.0 -0.1436103537 0.0916434292 0.4969076413 -0.2501468693 0.4973538628 -0.2502360942 -0.1442234837 0.1014652245
240298560.0 -0.1429422665 0.0930010784 0.4939248146 -0.2555807007 0.4943153683 -0.2555140078 -0.1431931425 0.1033220081
245298530.0 -0.142120113 0.0942108526 0.4907285434 -0.2614312755 0.4912188241 -0.2615274987 -0.1419066629 0.1048642899
250298500.0 -0.141792653 0.0953732736 0.4888794924 -0.266584147 0.4887183472 -0.2665372387 -0.1406687451 0.1060038762
255298470.0 -0.14073501 0.0969955576 0.4854957525 -0.2730181311 0.4856418044 -0.2729176085 -0.1395947856 0.107669593
260298440.0 -0.1396654227 0.0979942101 0.4827934116 -0.2778233638 0.4825309654 -0.2782116502 -0.1380386853 0.1090318273
265298410.0 -0.1386983017 0.0996010085 0.4795376793 -0.284397656 0.4794234754 -0.2836954932 -0.137420721 0.1102404089
270298380.0 -0.1378023384 0.1005392932 0.4761464171 -0.2890958963 0.4767264582 -0.2891619723 -0.1360952822 0.1120186165
275298350.0 -0.1371435727 0.1020096255 0.4733266934 -0.2951129772 0.4736417078 -0.2949040557 -0.1348215548 0.1135741788
280298320.0 -0.1360840461 0.1032183612 0.47009621 -0.299460689 0.4700968624 -0.3001068447 -0.1336086827 0.1148561301
285298290.0 -0.1351076066 0.1045588589 0.4669651874 -0.3053964644 0.4670551922 -0.3049960427 -0.1325636079 0.1166326968
290298260.0 -0.1343627564 0.1058963054 0.4637118767 -0.3105408259 0.4634559862 -0.3107085077 -0.1305856878 0.118159356
295298230.0 -0.1332500517 0.1072346156 0.4602510848 -0.3161085165 0.4602729254 -0.3158852049 -0.1297156571 0.1194255728
300298200.0 -0.1319894813 0.1084907593 0.4567161833 -0.3212059243 0.4569002361 -0.3212915061 -0.1285850454 0.1210165266
305298170.0 -0.1308985761 0.1093414511 0.4534232736 -0.3266644093 0.4537206226 -0.3265223938 -0.126851135 0.1224553439
310298140.0 -0.1298859147 0.1108708122 0.4502714732 -0.3314618256 0.4501335388 -0.3321218528 -0.125382117 0.1242347372
315298110.0 -0.1291074165 0.1119724547 0.4460280743 -0.3370634044 0.4459551109 -0.3369536205 -0.1239690253 0.1249609169
320298080.0 -0.1279164464 0.1131554888 0.4423243765 -0.3422144932 0.4425661882 -0.3421521944 -0.1229718056 0.1261262046
325298050.0 -0.1274160081 0.1140301633 0.438851068 -0.3471725452 0.4389414386 -0.3475296302 -0.1215762132 0.1276281244
330298020.0 -0.1262828867 0.1156022284 0.4339448473 -0.3522837349 0.434398853 -0.3524191455 -0.1201264084 0.1285649263
335297990.0 -0.1255108929 0.1166582614 0.4305079256 -0.3570442534 0.4307039656 -0.356906674 -0.1192195239 0.1303675159
340297960.0 -0.1248935202 0.1180877065 0.4259867339 -0.3618978834 0.4265704213 -0.3614811729 -0.1179503891 0.1320604026
345297930.0 -0.1239935582 0.1197095636 0.4223802516 -0.3659563745 0.4219545499 -0.3663349998 -0.1162054493 0.1331691436
350297900.0 -0.122308744 0.1209481332 0.4181887752 -0.3707194123 0.4186130981 -0.3710212162 -0.1152868965 0.1351467742
355297870.0 -0.1215833294 0.1219178699 0.4138839143 -0.375413971 0.4139167143 -0.3758390023 -0.1137710905 0.1364092063
360297840.0 -0.1203353919 0.1234017892 0.4097533041 -0.3800755469 0.4096189951 -0.3804497226 -0.1121998124 0.1380364436
365297810.0 -0.1192126265 0.1248001097 0.4056019489 -0.3844863406 0.405722105 -0.384705775 -0.110805008 0.1397785513
370297780.0 -0.1178360957 0.1260514823 0.4016642893 -0.3889423967 0.4012536239 -0.3892525969 -0.1093241853 0.1408928011
375297750.0 -0.1167476762 0.1276859243 0.3976247485 -0.3936755334 0.3971337101 -0.393853979 -0.1075647278 0.1422715259
380297720.0 -0.1155234725 0.1283823534 0.3929665814 -0.3977348566 0.3928767073 -0.3975932792 -0.1060269328 0.1438339716
385297690.0 -0.1142391734 0.1301558011 0.3882347967 -0.4019097045 0.3882234503 -0.4020420022 -0.1047187913 0.145379041
390297660.0 -0.1132156253 0.1310432948 0.3837241541 -0.4065325505 0.3840658692 -0.4069643524 -0.1030391175 0.1464081094
395297630.0 -0.1116967808 0.1323780204 0.3792938006 -0.4106707145 0.3795909005 -0.4104582122 -0.1014053113 0.1479403385
400297600.0 -0.1104783635 0.1336086502 0.3747186682 -0.4146197905 0.375265153 -0.4150091419 -0.1003870373 0.1492115884
405297570.0 -0.1092565408 0.1349707511 0.370169489 -0.419047209 0.3706488453 -0.4193353927 -0.0983716381 0.1508919281
410297540.0 -0.1077546511 0.1359263445 0.3653507347 -0.4227228688 0.3655460055 -0.4227933918 -0.0968134029 0.151671869
415297510.0 -0.1067127131 0.1376424633 0.3607369748 -0.4269469984 0.3611426397 -0.4268102248 -0.0951715559 0.1533941348
420297480.0 -0.1053905724 0.1380994042 0.3560530535 -0.4313513107 0.3561878748 -0.4306879923 -0.0933627357 0.1541277007
425297450.0 -0.1036509635 0.1390549136 0.3514478067 -0.4348304408 0.3516647926 -0.434621685 -0.0916363469 0.1557305387
430297420.0 -0.1027645276 0.1406842908 0.3467620618 -0.4389598788 0.3466720786 -0.4386688107 -0.0901669737 0.1571207607
435297390.0 -0.1011123662 0.1417358292 0.3420605585 -0.4421146871 0.34207105 -0.4418735986 -0.0884611995 0.1584915102
440297360.0 -0.0997650212 0.1426998029 0.3365687038 -0.445658598 0.3366013562 -0.4459292478 -0.086715828 0.1587266163
445297330.0 -0.0981916056 0.1437230692 0.3315170743 -0.4497722332 0.3319254716 -0.4495866865 -0.0851717603 0.1602421257
450297300.0 -0.0968764606 0.1445659536 0.3266675231 -0.4530294684 0.3271999682 -0.4534222709 -0.0832862159 0.1615464283
455297270.0 -0.0956742968 0.1456720173 0.322235552 -0.4567003145 0.3225255432 -0.4565729582 -0.0815673805 0.1627143714
460297240.0 -0.0943606684 0.1470110726 0.316998934 -0.4600097829 0.3167716664 -0.4601726777 -0.0794939282 0.1643407511
465297210.0 -0.0928785107 0.1478089888 0.3124144517 -0.4635804982 0.3125748035 -0.4638056275 -0.0785203049 0.1648718459
470297180.0 -0.0913181929 0.1488990997 0.3070085073 -0.4670724073 0.3075765375 -0.4670529067 -0.0769763937 0.1661597582
475297150.0 -0.0902717855 0.1498826395 0.3018507892 -0.4699344431 0.3023821461 -0.469693983 -0.0745666618 0.16704707
480297120.0 -0.0885865896 0.1503725053 0.296813357 -0.473129653 0.2968622152 -0.4733566302 -0.0728119795 0.168447402
485297090.0 -0.0866712028 0.1516588408 0.291852881 -0.4764454508 0.2917740905 -0.4766461619 -0.0713947786 0.1689716989
490297060.0 -0.0851696206 0.1525731515 0.2861374811 -0.4795016947 0.28642672 -0.479623078 -0.0694979642 0.1702401311
495297030.0 -0.0841367099 0.153764674 0.2810253141 -0.4829304036 0.2810664454 -0.4827209575 -0.0674749391 0.1707370369
500297000.0 -0.0826339439 0.1542406804 0.275803789 -0.4858491959 0.2761662776 -0.485611906 -0.066020343 0.1719534122
505296970.0 -0.0811879302 0.155225852 0.2704520615 -0.4882331005 0.2704062339 -0.4884024141 -0.0642500971 0.1729645511
510296940.0 -0.0796567316 0.1563693234 0.2651440954 -0.4915415756 0.2655108515 -0.4922144891 -0.0621622393 0.1740632326
515296910.0 -0.0782841047 0.1571946575 0.2594588188 -0.4940291298 0.2597987615 -0.4942910211 -0.0602469457 0.1747006349
520296880.0 -0.0764686847 0.1579379115 0.2541519912 -0.497104623 0.2551182864 -0.4969233849 -0.0583184178 0.1757857498
525296850.0 -0.0751510889 0.1586184153 0.2490789775 -0.4997399981 0.2488506902 -0.5001761831 -0.0559646706 0.1766745606
530296820.0 -0.0734304565 0.1597748371 0.2437788116 -0.5018411807 0.2436976608 -0.5025332761 -0.0548290086 0.1769883174
535296790.0 -0.072316764 0.1605688199 0.2377346366 -0.5047166055 0.238252474 -0.5047318354 -0.0525637638 0.1776584239
540296760.0 -0.0705737865 0.1612141792 0.2327805865 -0.5079186262 0.2324458854 -0.5081399506 -0.051130886 0.1790159575
545296730.0 -0.0687266854 0.162356941 0.2268077882 -0.5095873356 0.2270161743 -0.5103379415 -0.0490262512 0.1792031472
550296700.0 -0.0675309107 0.1629388864 0.2215314859 -0.5120399016 0.2220526856 -0.5126205876 -0.0472822736 0.1802452589
555296670.0 -0.0653733804 0.1638900656 0.2158555361 -0.5147780659 0.2160678292 -0.5149463869 -0.0453297744 0.181222984
560296640.0 -0.0643817202 0.1643972744 0.2105763042 -0.5174135913 0.2106712049 -0.5167366936 -0.0430650486 0.1816650851
565296610.0 -0.0629807221 0.1651471582 0.2047765822 -0.5191146926 0.2044808977 -0.5198220939 -0.0414787905 0.1819824616
570296580.0 -0.0610118271 0.1658232431 0.1991629069 -0.5213071517 0.1996182375 -0.5218322755 -0.0395566452 0.1833481402
575296550.0 -0.0590109075 0.1672252636 0.1932556272 -0.5234533572 0.1940786724 -0.5235171646 -0.0374202532 0.1835175337
580296520.0 -0.0577765536 0.1676017672 0.1878850164 -0.5255109434 0.187709351 -0.525840249 -0.0352373827 0.1838589492
585296490.0 -0.0559561715 0.1679712726 0.1824949578 -0.5275816097 0.1820646041 -0.5277619262 -0.0336730284 0.1839694658
590296460.0 -0.0545688265 0.1684086284 0.1760421252 -0.5293926636 0.1761890977 -0.5296130308 -0.0313074723 0.1851459416
595296430.0 -0.0527957485 0.1694804821 0.1706336061 -0.5313608669 0.1706531234 -0.5317217627 -0.0295127374 0.1851094775
600296400.0 -0.0514482797 0.1698916939 0.1648016802 -0.532981248 0.1651547923 -0.5330983739 -0.0272005273 0.1861060125
605296370.0 -0.0494438683 0.1709394923 0.158903406 -0.5350272061 0.1588777455 -0.534790511 -0.0253667675 0.1861736579
610296340.0 -0.0479265171 0.1712778305 0.1534421565 -0.5367401372 0.1533443229 -0.5365379879 -0.0234543664 0.1873794736
615296310.0 -0.0461994414 0.1722807229 0.1471919762 -0.5377809482 0.1473219216 -0.538119944 -0.0212814696 0.1873887304
620296280.0 -0.0446653983 0.1722674275 0.1421937157 -0.5393404769 0.1419604452 -0.5394059928 -0.0196870779 0.1871651433
625296250.0 -0.0428024557 0.1732898036 0.1356222683 -0.5415753772 0.1357326464 -0.5414578673 -0.0173892582 0.1878546888
630296220.0 -0.0409849141 0.1737724548 0.1294885282 -0.5426243562 0.1302632482 -0.5427418857 -0.0157770854 0.1883637708
635296190.0 -0.0395125211 0.174262516 0.1240787856 -0.5432984259 0.1239089652 -0.5435835744 -0.0132816133 0.1886288805
640296160.0 -0.0378734686 0.1745724481 0.1183450822 -0.5449544964 0.1182192905 -0.5454378712 -0.0109203022 0.1887983036
645296130.0 -0.036145663 0.1753897359 0.1118057478 -0.546325707 0.1125600902 -0.5461156592 -0.0100910517 0.1889679945
650296100.0 -0.0347559249 0.1762542822 0.1070490835 -0.5473054563 0.1066844119 -0.5473002928 -0.0073127232 0.1891169229
655296070.0 -0.0327902594 0.1761918771 0.1002296301 -0.5487208333 0.1006600907 -0.5485991254 -0.0047892199 0.1897612662
660296040.0 -0.0314612458 0.1771732263 0.0951036598 -0.5493782519 0.0949764954 -0.5494198833 -0.0033342087 0.1897694628
665296010.0 -0.0295592541 0.1772109735 0.0888502494 -0.5501963244 0.0891316207 -0.5506532715 -0.0012729265 0.1903451347
670295980.0 -0.0271730525 0.1776387078 0.0827441261 -0.55151187 0.0832136731 -0.5512873582 0.0006545063 0.1901115711
675295950.0 -0.0256664949 0.1782277952 0.0768113683 -0.5519828476 0.0771860864 -0.5525249539 0.0031339297 0.190588245
680295920.0 -0.0241887189 0.1786952259 0.0707530004 -0.5530333383 0.0708648076 -0.5532825018 0.0050505863 0.1906239046
685295890.0 -0.0224695079 0.1790492053 0.0648619739 -0.5535133796 0.0645794079 -0.5539221223 0.0074186269 0.1905769715
690295860.0 -0.0203637698 0.1792850607 0.0585241293 -0.5537804167 0.0588093279 -0.554132102 0.0090945812 0.1907997799
695295830.0 -0.018641898 0.1794303221 0.0524596513 -0.5548010969 0.0523229397 -0.5547498224 0.0110651604 0.1909356247
700295800.0 -0.0167747703 0.1799201221 0.0466928739 -0.5550458125 0.046941883 -0.5554488766 0.013357363 0.1899723737
705295770.0 -0.0149903712 0.1804920392 0.0405835662 -0.5556431921 0.0411503951 -0.5557181432 0.0152030888 0.1904563802
710295740.0 -0.0133542024 0.1807705823 0.0345946812 -0.5561079173 0.0346469347 -0.5562265256 0.0170798484 0.1913407314
715295710.0 -0.0117625474 0.1811711986 0.0287347328 -0.5563210489 0.0289935779 -0.5565720581 0.0194929521 0.1905227828
720295680.0 -0.0100728895 0.181258414 0.0226754564 -0.5564863359 0.0229679105 -0.5569975311 0.0217440864 0.1905719797
725295650.0 -0.0077774742 0.1814309589 0.016382275 -0.5566407892 0.0168177319 -0.5570134974 0.023555977 0.1903459234
730295620.0 -0.0066830715 0.181461425 0.0103952341 -0.5569150503 0.0105449888 -0.5571431814 0.0260067127 0.1900179354
735295590.0 -0.0040948575 0.1817838119 0.0050875824 -0.5568989173 0.0053716845 -0.5573890303 0.0278975874 0.1903731496
740295560.0 -0.0027250094 0.1822361399 -0.0011117991 -0.5564739482 -0.001306345 -0.5570876903 0.030028145 0.1897098985
745295530.0 -0.0008604707 0.1819548128 -0.0072801642 -0.5566488129 -0.0070954128 -0.5570997514 0.0317944765 0.1901022417
750295500.0 0.0009241351 0.1821544618 -0.0129349768 -0.5562643034 -0.0133689294 -0.5565962371 0.0340029407 0.1893308491
755295470.0 0.0033930071 0.182424542 -0.0192588823 -0.5562417836 -0.0191362362 -0.5567466156 0.035949872 0.1895333013
760295440.0 0.0045536627 0.1828044202 -0.0256530873 -0.5563561968 -0.0250629736 -0.5566989481 0.0376479257 0.189250354
765295410.0 0.006115197 0.1827371924 -0.0308990199 -0.5557560436 -0.0307251162 -0.5562502722 0.0407043705 0.1890020775
770295380.0 0.0083988668 0.182859153 -0.0372142906 -0.5550523001 -0.0372530552 -0.5559671895 0.0427060326 0.1886588481
775295350.0 0.009910991 0.183182939 -0.0430754382 -0.5546983085 -0.0428345095 -0.5550624731 0.0440591528 0.1879399744
780295320.0 0.0119026453 0.1828468206 -0.048851503 -0.5545571118 -0.0491608115 -0.5546523326 0.0464647623 0.1880446361
785295290.0 0.0135055818 0.1833393254 -0.0550463049 -0.5531439827 -0.0549639487 -0.5540029336 0.0481160986 0.1877015514
790295260.0 0.0153130619 0.1831808643 -0.0609092608 -0.5537951248 -0.0609155863 -0.5537091743 0.0505956624 0.1873470349
795295230.0 0.0168319443 0.1836046441 -0.0665548974 -0.5525555483 -0.0663931321 -0.552957725 0.0524120291 0.187327204
800295200.0 0.0188671972 0.1832660374 -0.0729942462 -0.5520259524 -0.072998573 -0.5522611747 0.0547957833 0.1864924704
805295170.0 0.0206468156 0.1830170948 -0.0787884752 -0.5503943396 -0.0786456104 -0.5506563347 0.0561587375 0.1858472619
810295140.0 0.0224624458 0.1829947537 -0.0844144575 -0.5499356591 -0.0847651289 -0.5509567849 0.058594011 0.1860378351
815295110.0 0.0243625161 0.1831992014 -0.0908258952 -0.5486535954 -0.0907288307 -0.5492564175 0.0604903406 0.1848725586
820295080.0 0.0262976752 0.1829392992 -0.0965989481 -0.5480801009 -0.0965104588 -0.5484138895 0.0624094804 0.1843511257
825295050.0 0.0281935698 0.1827190547 -0.1023668069 -0.5464285305 -0.1023494325 -0.546916909 0.064593378 0.1840261773
830295020.0 0.0297134635 0.1830079596 -0.1085244985 -0.5458600556 -0.1084216299 -0.5460363983 0.0665959682 0.1834338148
