!Created with skrf (http://scikit-rf.org).
# Hz S RI R 50.0 
!freq ReS11 ImS11 ReS21 ImS21 ReS12 ImS12 ReS22 ImS22
300000.0 -0.3208920028 -0.1028306027 0.3723896114 0.0533609271 0.3755230238 0.0572332073 -0.3179555141 -0.1137701686
5299970.0 -0.3238461731 0.0046695539 0.3787997303 0.0028656684 0.3784785591 0.0030790361 -0.326207755 0.0029997214
10299940.0 -0.3210373513 0.0155350234 0.3796581575 0.0021935591 0.3796190976 0.0023854406 -0.3240190061 0.0126894799
15299910.0 -0.3180097256 0.0236302046 0.3821149046 0.0023533061 0.3818543832 0.0023386211 -0.3211278731 0.0199734165
20299880.0 -0.3141823769 0.0303083075 0.3850097737 0.0016531321 0.3852632638 0.0015714066 -0.3185107167 0.0261360138
25299850.0 -0.3105948932 0.0357929103 0.3883366015 0.0001488561 0.3882889117 7.96188e-05 -0.3155777716 0.0311169212
30299820.0 -0.3065939901 0.0404085127 0.3921374316 -0.0019650515 0.39137169 -0.0020411191 -0.3127016142 0.0354948574
35299790.0 -0.3028197289 0.044615602 0.3949692204 -0.0051404431 0.3951590773 -0.0054650745 -0.3097758956 0.039316518
40299760.0 -0.2997063781 0.0480655203 0.3984796426 -0.0085065297 0.3982119837 -0.008765427 -0.3070744794 0.0432064153
45299730.0 -0.296621863 0.0515477235 0.4014449419 -0.0130459255 0.4011982464 -0.0126818056 -0.3047530718 0.0461536876
50299700.0 -0.2933232414 0.0540678241 0.4034392097 -0.0173977683 0.4037105393 -0.017509506 -0.3020625339 0.0491339765
55299670.0 -0.2910249104 0.0568250137 0.4056989594 -0.0222241141 0.4058238043 -0.0217759771 -0.3002765477 0.0521230746
60299640.0 -0.2880740656 0.0591172596 0.4076127551 -0.0271713262 0.4074936406 -0.0270844467 -0.2982706213 0.0545587397
65299610.0 -0.2860915963 0.0617140833 0.4094502359 -0.0314706831 0.409183718 -0.0317500736 -0.2963865171 0.0570773116
70299580.0 -0.2837991093 0.0634694741 0.4105772958 -0.0367518395 0.4103797693 -0.0368989099 -0.2945128435 0.0595035845
75299550.0 -0.2817498274 0.0656545661 0.411571068 -0.0419962673 0.4117506293 -0.0419490473 -0.2934577961 0.0623386085
80299520.0 -0.2805475454 0.06820573 0.4127778262 -0.0473956272 0.4124814184 -0.0472946776 -0.2917750095 0.064054473
85299490.0 -0.2786881099 0.0698113763 0.4131478661 -0.0526906987 0.4130387674 -0.0527321244 -0.2902727699 0.0662789209
90299460.0 -0.2770228772 0.0721191863 0.4133855176 -0.0576601211 0.4133465438 -0.0581377314 -0.2884968707 0.0689472452
95299430.0 -0.2755841756 0.0742120677 0.4138039175 -0.0636048098 0.413857554 -0.0630980582 -0.2875204323 0.0714971523
100299400.0 -0.2745921561 0.076300755 0.4139468384 -0.0682832688 0.4135846699 -0.0685286598 -0.2863773363 0.0733971439
105299370.0 -0.2728962673 0.0784447667 0.4135914983 -0.0736731007 0.413647155 -0.0734261179 -0.2851853106 0.0753661393
110299340.0 -0.2722313239 0.0804250122 0.4134764059 -0.078504079 0.4136252721 -0.0788877868 -0.2846296346 0.0779878179
115299310.0 -0.2705743958 0.0820840585 0.4129602298 -0.083702034 0.4131469732 -0.0835061106 -0.2831997208 0.0799512719
120299280.0 -0.2696823432 0.0845190651 0.4129700697 -0.0888105874 0.4128934681 -0.0888660897 -0.2823909552 0.0826383596
125299250.0 -0.2687930018 0.0867178009 0.4121886146 -0.0938700516 0.4125460959 -0.0938710504 -0.2815666594 0.0845945625
130299220.0 -0.2676836476 0.0888761353 0.4114734152 -0.0987678102 0.4116166216 -0.0993720975 -0.2804993829 0.0876338266
135299190.0 -0.2665116941 0.0909790737 0.4108643284 -0.1036682027 0.41049384 -0.1039881561 -0.279726509 0.089771154
140299160.0 -0.2657681598 0.0937447639 0.4102571968 -0.1091101751 0.4102468414 -0.109244357 -0.2785970551 0.0922009902
145299130.0 -0.2647106946 0.095933703 0.4094250774 -0.1142793994 0.4089827641 -0.1138465242 -0.2781169002 0.0944733708
150299100.0 -0.2638322553 0.0982649382 0.4079986999 -0.119121038 0.4081254663 -0.1189445933 -0.276518495 0.0971263996
155299070.0 -0.2631226265 0.1009727433 0.4071708153 -0.1242915426 0.4070608784 -0.1241158443 -0.2762451573 0.0994183651
160299040.0 -0.2618859926 0.1031066724 0.4058467991 -0.1284824278 0.4060285472 -0.1288084877 -0.2751712587 0.1022972225
165299010.0 -0.2610597342 0.1053298474 0.4047946675 -0.133808994 0.4048559613 -0.1337830381 -0.2741411744 0.104722167
170298980.0 -0.2600861926 0.1077791178 0.4028263007 -0.1384658878 0.4031482272 -0.1386168079 -0.273220475 0.1070514215
175298950.0 -0.2589499603 0.1105088104 0.4024589193 -0.1428885364 0.4021268909 -0.1431984761 -0.271820106 0.1097644059
180298920.0 -0.2579893836 0.112499432 0.4006449755 -0.1480557691 0.4005568183 -0.1481344174 -0.270989196 0.1125748527
185298890.0 -0.2567211288 0.1155196411 0.3986025617 -0.1528442965 0.3987378758 -0.1528026801 -0.2703188112 0.1148106988
190298860.0 -0.2556663428 0.1179512578 0.3972031776 -0.1574925513 0.3972547541 -0.1573306679 -0.2687181383 0.1175490466
195298830.0 -0.2546679776 0.1203020927 0.3957231037 -0.1620010877 0.39567181 -0.162248552 -0.2676863026 0.1199674555
200298800.0 -0.2539300093 0.122739759 0.3942395982 -0.1663370511 0.3940440391 -0.166399773 -0.2666310121 0.1228718311
205298770.0 -0.2526491002 0.1253410761 0.3922210858 -0.1713171587 0.392224727 -0.1712199031 -0.265543888 0.1253920689
210298740.0 -0.251273982 0.1279459443 0.3903746499 -0.1761271584 0.3905961461 -0.1757976408 -0.2646355979 0.128098928
215298710.0 -0.2502045025 0.1305108306 0.3883671003 -0.1802920852 0.3884649441 -0.1799600779 -0.2638476689 0.1307088995
220298680.0 -0.2493804941 0.1328848069 0.38640274 -0.1845826061 0.3864520619 -0.1846739221 -0.2620339285 0.1336770076
225298650.0 -0.247528942 0.1356564512 0.3842474267 -0.188756827 0.3840895839 -0.1888893681 -0.2612519567 0.1365045746
230298620.0 -0.2467567021 0.1379132376 0.3827541448 -0.1936370909 0.3826144975 -0.1936436223 -0.2596095212 0.1388286895
235298590.0 -0.2455010621 0.1403111814 0.3803620313 -0.1978192144 0.3804946828 -0.1982196802 -0.2584731505 0.1413766779
240298560.0 -0.2441437827 0.1433547988 0.3782809068 -0.2020616302 0.3783443315 -0.2019486798 -0.2569731815 0.1442285671
245298530.0 -0.2423693118 0.146000312 0.3754701416 -0.206707306 0.3761574701 -0.2065097049 -0.2559156882 0.1470776417
250298500.0 -0.2414759476 0.1482304811 0.3736668483 -0.2102960382 0.3737805575 -0.2104024438 -0.2539318359 0.149866007
255298470.0 -0.2398868158 0.151039743 0.3712637739 -0.2151633466 0.3714523731 -0.2151136209 -0.2525440108 0.1522289579
260298440.0 -0.2385498615 0.1536857811 0.3691192397 -0.2190445336 0.3690486634 -0.2194426196 -0.2509066692 0.1552516074
265298410.0 -0.2370934902 0.1563103052 0.3665818749 -0.2239219724 0.3661335278 -0.2235666037 -0.2498309067 0.1577726666
270298380.0 -0.2355560054 0.158611981 0.3636483035 -0.2275970885 0.3642672263 -0.2277264184 -0.2480323926 0.1605121444
275298350.0 -0.234150326 0.1610979454 0.3616686961 -0.2317358865 0.3620398842 -0.2321526005 -0.2461462513 0.1633299491
280298320.0 -0.2328106647 0.1638304276 0.3594430442 -0.2356917668 0.3592091855 -0.2357822251 -0.2447114054 0.1657525373
285298290.0 -0.2311259068 0.1663482099 0.3563924924 -0.2392663758 0.3565546002 -0.2400322535 -0.2431215454 0.168399764
290298260.0 -0.2293817082 0.1690166766 0.35385171 -0.2438490465 0.3538853696 -0.2439575597 -0.2410877557 0.1712275229
295298230.0 -0.2276495659 0.171378806 0.3513121379 -0.247871017 0.3508670962 -0.2481149009 -0.2396887875 0.1739155717
300298200.0 -0.2256390431 0.173731954 0.3482080758 -0.2520590283 0.3486272251 -0.2521693579 -0.2379309066 0.176592318
305298170.0 -0.2238929248 0.1763475428 0.3457576737 -0.2560442673 0.3458764117 -0.2562089796 -0.2356025004 0.1792574178
310298140.0 -0.2218393324 0.1782178636 0.3430958541 -0.2599747777 0.3428022329 -0.260261966 -0.2338598346 0.1819835809
315298110.0 -0.2206621651 0.180874259 0.3397762236 -0.2639318192 0.3401518497 -0.2644172426 -0.231741835 0.1843848308
320298080.0 -0.218605522 0.1832670325 0.3370601653 -0.2677983352 0.3369613319 -0.2677246694 -0.2299510692 0.186787518
325298050.0 -0.2169036459 0.1853284328 0.3343445164 -0.2716035433 0.3342307047 -0.2718956301 -0.2281657041 0.1895423991
330298020.0 -0.2151097056 0.1877714308 0.3301752745 -0.2753733159 0.3308779849 -0.2755033598 -0.2263475335 0.1918956587
335297990.0 -0.2131720357 0.1903758229 0.3274611608 -0.2792862961 0.3278907972 -0.2791369618 -0.2248261043 0.194280805
340297960.0 -0.2121979529 0.192652249 0.3244676828 -0.2823856902 0.3246500114 -0.2828519798 -0.2229362187 0.1970342639
345297930.0 -0.2097344176 0.1951507005 0.3212257558 -0.2861295071 0.3209072391 -0.2860860012 -0.2207981188 0.1991967364
350297900.0 -0.2075115557 0.1977982602 0.3179440756 -0.2894133482 0.3183027295 -0.2898915146 -0.2187880261 0.2022840105
355297870.0 -0.2059279029 0.1999502145 0.3145541666 -0.2930772752 0.3147189681 -0.2932694928 -0.2168345934 0.2048234167
360297840.0 -0.2038796373 0.2022919691 0.311428113 -0.2967940458 0.3112835289 -0.2969255374 -0.2143237272 0.2075040908
365297810.0 -0.2018974939 0.2045284998 0.3079936546 -0.3001424413 0.3078695804 -0.3000583995 -0.2124188891 0.2099125199
370297780.0 -0.1998133148 0.2067584084 0.3047338275 -0.3032278583 0.304858592 -0.3036179379 -0.2102757648 0.2123717281
375297750.0 -0.1974165193 0.2095440385 0.3019207471 -0.3070747969 0.3012852576 -0.3069441606 -0.2079636065 0.2147106205
380297720.0 -0.1954976618 0.2112636683 0.2979570535 -0.3098341453 0.2980428186 -0.3099410671 -0.2060253662 0.2175805971
385297690.0 -0.1933928446 0.2137369345 0.2943129834 -0.3130720234 0.2941982752 -0.3131992559 -0.203374304 0.2198187537
390297660.0 -0.1912076782 0.2157807776 0.291035134 -0.3165382134 0.2908798067 -0.3167656623 -0.2011674584 0.2216257616
395297630.0 -0.1887261485 0.2178799661 0.2879276336 -0.3194133685 0.287450493 -0.3196811346 -0.1994044875 0.2242972324
400297600.0 -0.1862435936 0.2203438119 0.2838973716 -0.3231744272 0.2842238078 -0.3231228667 -0.1971177826 0.2266448724
405297570.0 -0.1840290933 0.2223302919 0.2801886553 -0.3260094427 0.2804871192 -0.3260368408 -0.1950399972 0.2292521706
410297540.0 -0.181691055 0.2244113816 0.2763295125 -0.32913694 0.2764657698 -0.3286655469 -0.1922124477 0.231347088
415297510.0 -0.1796417885 0.2266324029 0.2731703402 -0.3318826123 0.2733104466 -0.3319725926 -0.1901626282 0.2340325191
420297480.0 -0.1769705432 0.2284622672 0.2689797033 -0.3353752438 0.269481536 -0.334971996 -0.1877108042 0.2355661061
425297450.0 -0.1746174589 0.2302742412 0.2655537686 -0.3378401105 0.2658663708 -0.3376389769 -0.184844972 0.2382188066
430297420.0 -0.1723542703 0.232557119 0.2620041142 -0.3414003573 0.2620538663 -0.3408907658 -0.1825140736 0.2400855946
435297390.0 -0.1698666689 0.2348168673 0.2580175723 -0.3434146009 0.2584713911 -0.3435105703 -0.1800844466 0.2423573569
440297360.0 -0.1673275528 0.2366168034 0.2539453503 -0.346279144 0.2541380207 -0.3462903953 -0.17797772 0.2440900225
445297330.0 -0.1649182623 0.2387549906 0.2501123893 -0.3493009143 0.2502601832 -0.3492307199 -0.1750625229 0.24639089
450297300.0 -0.1622777143 0.2403029503 0.2463613924 -0.3517466392 0.2465676244 -0.3516930145 -0.1726925966 0.2485789743
455297270.0 -0.1599878805 0.2421167705 0.2429938883 -0.3541967559 0.2427027899 -0.354264812 -0.1699200669 0.2507799648
460297240.0 -0.1575719653 0.2441671595 0.2387498412 -0.356921254 0.2384961252 -0.3569033852 -0.1670374671 0.2531573605
465297210.0 -0.1545050899 0.245876254 0.2347127129 -0.3598251962 0.2350890008 -0.3594578778 -0.1648481793 0.2546392887
470297180.0 -0.1522426785 0.2475143308 0.2307543294 -0.3619898064 0.2311506609 -0.3622948865 -0.1626310779 0.2565733678
475297150.0 -0.1496014083 0.2494486742 0.226792658 -0.3645862806 0.2267858188 -0.3639775958 -0.1593555602 0.2585606585
480297120.0 -0.1470249683 0.2505929164 0.2228222481 -0.36662454 0.2230126938 -0.3670673438 -0.1571360712 0.2608907644
485297090.0 -0.1442307884 0.2525596524 0.2190742769 -0.369392497 0.2189208853 -0.3692372657 -0.15460124 0.2623840907
490297060.0 -0.1417844744 0.2541981569 0.2149451324 -0.3716346964 0.2147657994 -0.3717392054 -0.1516874279 0.2641750041
495297030.0 -0.139195873 0.2560584632 0.2106104474 -0.3738814792 0.210364252 -0.373993863 -0.1487502074 0.2656854751
500297000.0 -0.1361954717 0.2577708768 0.2065080549 -0.3763495029 0.2066319068 -0.3762713452 -0.1466097777 0.2677064233
505296970.0 -0.1336547577 0.2590609551 0.2019255533 -0.3779884973 0.2022270275 -0.3781915756 -0.1439862097 0.2696017704
510296940.0 -0.1308740298 0.2607092609 0.1982101572 -0.3805852894 0.1982548355 -0.3804821317 -0.1408450082 0.2713011369
515296910.0 -0.128435921 0.2626445021 0.1938661018 -0.382621383 0.1941125425 -0.3823714296 -0.1379507131 0.2728597418
520296880.0 -0.1252749548 0.2639776594 0.1896298824 -0.3847839845 0.1898693563 -0.3843363242 -0.1351239751 0.2744961137
525296850.0 -0.1227145699 0.2653155272 0.1852497208 -0.3865909384 0.1855683667 -0.3868998873 -0.1320412095 0.2760344954
530296820.0 -0.120034135 0.2665321291 0.1818613741 -0.3882051705 0.1815184853 -0.3883744302 -0.1298192737 0.2776913223
535296790.0 -0.1172235562 0.2681480874 0.1770165596 -0.3901736828 0.1773231437 -0.3899807831 -0.126606498 0.2788406247
540296760.0 -0.1141845407 0.2692974553 0.1727395331 -0.3925152795 0.1728699743 -0.3923665794 -0.1241451974 0.2807621587
545296730.0 -0.1114743967 0.2708929785 0.1684881575 -0.3939618429 0.1683549573 -0.3941112672 -0.1211481078 0.2818840261
550296700.0 -0.1088486906 0.2721356593 0.1644254372 -0.3956517429 0.1642989281 -0.3960751139 -0.1183062555 0.2836669113
555296670.0 -0.1052853643 0.2735034866 0.1598881726 -0.3977485389 0.1600293109 -0.3976006653 -0.1154575613 0.2849103085
560296640.0 -0.1027450088 0.2746479581 0.1554258919 -0.3992388897 0.1557740364 -0.3990853984 -0.1123742025 0.2864632104
565296610.0 -0.1000294431 0.2757776601 0.1513342409 -0.4006695049 0.1511027338 -0.4008951085 -0.1097652131 0.2876485188
570296580.0 -0.0969969325 0.2771501302 0.1466636021 -0.4024552903 0.1470872005 -0.4026025333 -0.1065738026 0.289106342
575296550.0 -0.0939916171 0.2783058918 0.1425680818 -0.4039221333 0.1425953638 -0.4038550561 -0.1035198764 0.2904830263
580296520.0 -0.0909339205 0.2795929622 0.1380976516 -0.4056519627 0.1381133428 -0.4055091084 -0.1005750228 0.2913214212
585296490.0 -0.0883185602 0.2803570911 0.1338510412 -0.406794059 0.13334348 -0.4069060423 -0.0977447251 0.2922089281
590296460.0 -0.0853356634 0.281270385 0.1291593141 -0.4080171839 0.1290936285 -0.4085715625 -0.0944657534 0.2939301016
595296430.0 -0.082072275 0.2825985177 0.124768662 -0.4097450139 0.1245633812 -0.4098706322 -0.0913563789 0.2947926248
600296400.0 -0.0791750239 0.2834293425 0.1200820546 -0.4111212999 0.1205307626 -0.4109552349 -0.08857787 0.2961940452
605296370.0 -0.0762234111 0.2847731298 0.1160885396 -0.4124033773 0.1158569227 -0.4121883151 -0.0853265002 0.2972920709
610296340.0 -0.073305512 0.2854355036 0.1115892617 -0.4133236543 0.1117203371 -0.4136465773 -0.0823392907 0.2984309245
615296310.0 -0.0699882325 0.2865448278 0.1066766878 -0.4146942129 0.1065428434 -0.4147160428 -0.0793178128 0.2992739147
620296280.0 -0.0671843342 0.2871295041 0.1024431019 -0.415470584 0.102327177 -0.4155182183 -0.0761717359 0.2997885582
625296250.0 -0.0640203037 0.2881006227 0.0974119776 -0.4167425785 0.0978879935 -0.4170427228 -0.0728705039 0.301387571
630296220.0 -0.060896073 0.2890273718 0.0928954321 -0.4180199883 0.0936365365 -0.4176277322 -0.0701309094 0.3024638864
635296190.0 -0.0579165121 0.2897784996 0.0887000558 -0.418361086 0.0885621409 -0.4183514814 -0.0669192336 0.3027784558
640296160.0 -0.0550855235 0.2905361395 0.0840617351 -0.4193880012 0.0841377828 -0.4196030997 -0.0634427871 0.3036205104
645296130.0 -0.0521240968 0.2914152895 0.079749358 -0.4204882396 0.079941945 -0.4202089877 -0.0610285456 0.3044528572
650296100.0 -0.0489313685 0.2922622749 0.0756603201 -0.4211562373 0.0755020841 -0.4208117374 -0.0574006166 0.3051562921
655296070.0 -0.0457357924 0.2923965166 0.0705510994 -0.4217855733 0.0704867584 -0.421892692 -0.0540364735 0.306226122
660296040.0 -0.0431553808 0.2937036944 0.0662131299 -0.4224966918 0.0662923543 -0.4221974098 -0.0511315399 0.3064778706
665296010.0 -0.0398100421 0.2937320656 0.061523519 -0.4230417514 0.0618867545 -0.4234656028 -0.0482837545 0.3077335743
670295980.0 -0.0361145799 0.2943038227 0.0566161251 -0.4238446745 0.0571914806 -0.4236538998 -0.0453502442 0.3078863694
675295950.0 -0.0333448199 0.2947103992 0.0520423917 -0.4242528454 0.0524751886 -0.4246563795 -0.0417027541 0.3087309818
680295920.0 -0.0302584027 0.2955750542 0.0477089261 -0.4248708128 0.0473530803 -0.4247547123 -0.038349929 0.3093218922
685295890.0 -0.0268241098 0.2960780891 0.0430828451 -0.4254515197 0.0429923374 -0.4253619875 -0.035397013 0.3097234956
690295860.0 -0.02388057 0.2964511101 0.0383409228 -0.4254800335 0.0382276738 -0.4256903849 -0.0318980039 0.3104968878
695295830.0 -0.020534514 0.2964550554 0.0331194884 -0.4258911435 0.0338147602 -0.4260172184 -0.0292270181 0.3108164172
700295800.0 -0.0174899416 0.2970896818 0.0288610745 -0.4261467538 0.0291200347 -0.4265245498 -0.025740809 0.3109840411
705295770.0 -0.0143187677 0.2976545635 0.0243740852 -0.4264595458 0.0246131122 -0.4268305093 -0.0228414161 0.3118032468
710295740.0 -0.0113520187 0.2978748659 0.0198036033 -0.4266267887 0.0197458072 -0.426856494 -0.0196575225 0.3124079164
715295710.0 -0.008248905 0.2982079296 0.0153913072 -0.4269235878 0.0156441346 -0.4268681309 -0.0163310066 0.3120625885
720295680.0 -0.0050256112 0.2980046567 0.0105289949 -0.4267099218 0.0106850829 -0.4275417176 -0.0127505821 0.3127921911
725295650.0 -0.0016410881 0.2984380769 0.0057775735 -0.4269130514 0.0060590026 -0.4271354307 -0.0098075153 0.3130513495
730295620.0 0.0009840101 0.2985887643 0.0011304149 -0.4270927653 0.0012964799 -0.4270642122 -0.0060347407 0.3129787491
735295590.0 0.0046915351 0.2985993967 -0.003304699 -0.4270338848 -0.0031119479 -0.4273239232 -0.0030049776 0.3134722468
740295560.0 0.0078302493 0.2990756839 -0.0081133392 -0.426666143 -0.0080499877 -0.4266578201 0.0004003615 0.3131589981
745295530.0 0.0106854552 0.2988590808 -0.0126991025 -0.4268310979 -0.0126165892 -0.4270849256 0.0035460157 0.3137855403
750295500.0 0.0140228528 0.2988795036 -0.0169401807 -0.4266546603 -0.017093445 -0.4264584946 0.0067956499 0.3134529945
755295470.0 0.0173114979 0.298923914 -0.021375784 -0.4262373812 -0.0214868503 -0.426471898 0.0097373107 0.313793742
760295440.0 0.0203355283 0.2993018756 -0.0265924016 -0.4262203513 -0.0263558437 -0.4259972079 0.0130052925 0.3136915348
765295410.0 0.0233976495 0.2988613139 -0.0302021825 -0.4254206737 -0.0309231803 -0.4258304652 0.0168153048 0.3141319097
770295380.0 0.0267307832 0.2988643578 -0.0359434571 -0.4248492626 -0.0355848093 -0.425414347 0.0198196595 0.3136295676
775295350.0 0.0297369686 0.2989597505 -0.0402334064 -0.4248640129 -0.0402304563 -0.4246782665 0.0226827304 0.3133220979
780295320.0 0.0332301148 0.2983979557 -0.0442047296 -0.4243271031 -0.0444542096 -0.4246405127 0.0260353207 0.3136700316
785295290.0 0.0361145394 0.2983697195 -0.049200171 -0.4233754708 -0.0492737057 -0.4240165809 0.0292887862 0.3136058855
790295260.0 0.0393037766 0.2980400183 -0.0537222795 -0.4232604042 -0.0535260548 -0.4234413169 0.0329915419 0.3129530966
795295230.0 0.0425700315 0.2977677409 -0.0578598502 -0.4222553092 -0.0582818846 -0.4224207337 0.0360213249 0.3133779251
800295200.0 0.0457956934 0.2977963684 -0.0631906819 -0.4224979821 -0.0630934677 -0.4220428033 0.0389561642 0.3129073148
805295170.0 0.0487843884 0.2973379548 -0.0676884288 -0.4208674626 -0.0676460918 -0.4211756793 0.0423348646 0.3123597039
810295140.0 0.0519836586 0.2965147039 -0.0714912275 -0.4203103108 -0.0717551351 -0.4204485581 0.0458680814 0.3126584372
815295110.0 0.0553898076 0.2964812638 -0.0765451779 -0.4193646386 -0.0769537706 -0.4193967159 0.048933964 0.311938096
820295080.0 0.058372705 0.2956071027 -0.0809706961 -0.4186770891 -0.081020238 -0.4190399468 0.0519414393 0.3111684516
825295050.0 0.0613982323 0.2953802417 -0.0855185841 -0.4175803297 -0.0855719352 -0.4178625231 0.0555100192 0.3111470006
830295020.0 0.0645650727 0.2948937553 -0.0901643823 -0.4166947055 -0.0904405286 -0.4166745835 0.0583497912 0.3104708117
