!Created with skrf (http://scikit-rf.org).
# Hz S RI R 50.0 
!freq ReS11 ImS11 ReS21 ImS21 ReS12 ImS12 ReS22 ImS22
300000.0 -0.3239409759 -0.0786654249 0.3776114005 0.0406759857 0.3735387623 0.0405872669 -0.3197053705 -0.0973336148
5299970.0 -0.3264969004 0.0044197958 0.3782797337 0.0026276827 0.3785337144 0.002194408 -0.3241831068 0.0048285315
10299940.0 -0.324122186 0.0133105588 0.3794465115 0.0019955631 0.3794219672 0.0021418223 -0.3217072175 0.0161147137
15299910.0 -0.3216641922 0.0203275195 0.3818688961 0.0021435305 0.3817397176 0.0019644657 -0.3184546509 0.0236718351
20299880.0 -0.3187862153 0.0263113485 0.3849802407 0.0016672536 0.3850781041 0.0017511421 -0.3150132865 0.0301213472
25299850.0 -0.3158632861 0.0312823528 0.3879588365 0.0002633596 0.3881394261 0.000171845 -0.3109526548 0.0360660246
30299820.0 -0.3129145787 0.0359620291 0.3914617178 -0.0023635164 0.3915781943 -0.0023131338 -0.3071269785 0.0407361079
35299790.0 -0.3097379764 0.0398730976 0.3946236293 -0.0056035009 0.3949480524 -0.0054357586 -0.3036796647 0.0450827863
40299760.0 -0.3071888723 0.0435992047 0.3976032181 -0.0088402495 0.3980527222 -0.0089550336 -0.3000988205 0.0484415389
45299730.0 -0.305060139 0.0465494574 0.4007416743 -0.012795855 0.4008772469 -0.0127418705 -0.2971652151 0.0519481844
50299700.0 -0.3022594951 0.0494871829 0.4035449032 -0.0173393232 0.4035456156 -0.0171314436 -0.2944213831 0.0546499565
55299670.0 -0.3005295106 0.052072071 0.405905958 -0.0221688669 0.4054368411 -0.0218861483 -0.2916109748 0.0571573961
60299640.0 -0.2978115006 0.0548669929 0.4072816286 -0.0268721562 0.40749678 -0.0269039414 -0.2891493048 0.059284716
65299610.0 -0.2962069352 0.0573123667 0.4089929512 -0.0321755048 0.4091717402 -0.0323021039 -0.2870160111 0.0619106703
70299580.0 -0.2946749378 0.0602157382 0.4102096051 -0.0367566144 0.4102210844 -0.0368015049 -0.2849616729 0.0639025944
75299550.0 -0.2931017649 0.0623674902 0.411436699 -0.0424066693 0.4113276952 -0.0424703461 -0.2832853932 0.0660624284
80299520.0 -0.2916799719 0.0647355064 0.4123796045 -0.0475631381 0.4124645647 -0.0473939171 -0.2815330985 0.0680812923
85299490.0 -0.2901565814 0.0669291274 0.4131658761 -0.0522680837 0.4128773644 -0.0523649999 -0.2800841586 0.0700269214
90299460.0 -0.2887355482 0.0695336712 0.4129029345 -0.0579449137 0.4132507272 -0.0580654496 -0.2782759252 0.0721589403
95299430.0 -0.2873602554 0.0713425029 0.4136056698 -0.0630470953 0.4134117383 -0.0630438229 -0.2765255192 0.0743375872
100299400.0 -0.286478726 0.074037633 0.4133170335 -0.0684426206 0.413194285 -0.068566171 -0.2753688201 0.0762832191
105299370.0 -0.2851011934 0.0764800437 0.4130457193 -0.0738017467 0.4134168686 -0.0735551595 -0.2738011812 0.0783801731
110299340.0 -0.2841161106 0.0789986034 0.4134485229 -0.0785474683 0.4128143073 -0.0786246216 -0.2726338579 0.0802106051
115299310.0 -0.2829203827 0.0810680726 0.413123225 -0.084056615 0.4127685278 -0.0837952696 -0.2717464096 0.0824455421
120299280.0 -0.2819020367 0.0832532404 0.4124162561 -0.0890567601 0.4125605132 -0.088894514 -0.2703266005 0.084467019
125299250.0 -0.2811649469 0.0854912777 0.4119127633 -0.0937840468 0.4119990555 -0.0938321856 -0.2695854014 0.0864552068
130299220.0 -0.2803975629 0.0881330234 0.4112501188 -0.0988549699 0.4112413141 -0.0990255688 -0.2684261377 0.088623483
135299190.0 -0.2794834598 0.0905779977 0.4106082839 -0.1038927126 0.4105825732 -0.1038184554 -0.2673142137 0.0910542854
140299160.0 -0.2784826934 0.0934151652 0.4092991995 -0.1092619572 0.4100448789 -0.1091642784 -0.2663350837 0.0935514286
145299130.0 -0.2775589435 0.0956732145 0.4089284564 -0.1137956277 0.4085638549 -0.1138305012 -0.2651698037 0.0958558129
150299100.0 -0.2764744412 0.0982440093 0.4078344902 -0.1186544733 0.4077773053 -0.1187701867 -0.2646036162 0.098266602
155299070.0 -0.2757344689 0.1006297159 0.4069067107 -0.1240438399 0.4065738876 -0.124343061 -0.263137928 0.1009371929
160299040.0 -0.2746920893 0.1033514566 0.4053409207 -0.1288864849 0.4051803278 -0.1284543187 -0.2627754445 0.1032506293
165299010.0 -0.273907166 0.1060838607 0.4041842523 -0.1342224546 0.404041516 -0.1339971923 -0.261354694 0.105522598
170298980.0 -0.2725850169 0.1085676258 0.4025998538 -0.1386473684 0.4029649923 -0.1385447252 -0.260286909 0.1081489232
175298950.0 -0.2720146928 0.1113191809 0.4017615394 -0.1431151663 0.4011968748 -0.1430757075 -0.2597699433 0.1106745336
180298920.0 -0.2710386362 0.1141150605 0.4002335462 -0.1481976668 0.3999477344 -0.1474946526 -0.2583911278 0.1134800202
185298890.0 -0.2694326196 0.1164929261 0.3982864581 -0.152711744 0.398452847 -0.1525683498 -0.257433885 0.1158685175
190298860.0 -0.2686425095 0.1194537552 0.3971219882 -0.1574378267 0.3972925863 -0.1573389227 -0.2561651634 0.1184943603
195298830.0 -0.2677116579 0.1220354463 0.3952401766 -0.1618899405 0.3952592 -0.1619811508 -0.2550518275 0.1208250925
200298800.0 -0.2667880397 0.1245765346 0.3934887249 -0.1667767661 0.3934556377 -0.1668208071 -0.2543623537 0.1233509109
205298770.0 -0.2656754404 0.1270829616 0.3914349889 -0.1713420904 0.3912714588 -0.1710142861 -0.25311996 0.1255974287
210298740.0 -0.2643083873 0.129827755 0.3895785224 -0.1756568979 0.3897360286 -0.1752779382 -0.252025995 0.1284184268
215298710.0 -0.263353623 0.1328479251 0.3883505412 -0.1803584959 0.3880154344 -0.1802939837 -0.2514443684 0.1308467245
220298680.0 -0.2620786151 0.135029274 0.3856435824 -0.1845562071 0.3857420559 -0.1846008313 -0.2500909748 0.133580212
225298650.0 -0.2610180168 0.138048026 0.3838482418 -0.1891329635 0.3840292284 -0.1891563673 -0.2489459666 0.1358571193
230298620.0 -0.2596035452 0.1407563227 0.3818902159 -0.1933399534 0.3821428722 -0.1935175561 -0.2478551302 0.1384645453
235298590.0 -0.2582761661 0.1437660029 0.3797074282 -0.1978469394 0.3798860071 -0.1976291405 -0.2464925879 0.1410714712
240298560.0 -0.2572852915 0.1464391598 0.3778389344 -0.2024906635 0.3775786036 -0.2023107176 -0.2452836073 0.1438332801
245298530.0 -0.2558739091 0.1487788877 0.3757353182 -0.2066952589 0.3752454676 -0.2067472647 -0.2439637613 0.1458310052
250298500.0 -0.2543246477 0.1518906074 0.3723067094 -0.211202398 0.3725510413 -0.2110227973 -0.2428035487 0.1487142879
255298470.0 -0.2529734291 0.1541631368 0.3702712659 -0.2148673937 0.3707463763 -0.2149735097 -0.2413921141 0.1509324991
260298440.0 -0.2514962933 0.1567108093 0.3681031086 -0.2195000657 0.3684458014 -0.2195621294 -0.2399743464 0.1536932914
265298410.0 -0.2501763944 0.1599189255 0.3660076419 -0.2236399785 0.3660292116 -0.2231534386 -0.2383126655 0.1562314044
270298380.0 -0.2485374867 0.1624033027 0.3635868612 -0.2274636996 0.3635992147 -0.2274192201 -0.2366509151 0.1588386795
275298350.0 -0.2467399931 0.1652824369 0.3608174486 -0.2322553543 0.3610990825 -0.2315065911 -0.2349047268 0.1612838022
280298320.0 -0.244814233 0.1680244559 0.3586616347 -0.2358649898 0.3586392129 -0.2356544697 -0.2332505058 0.1635631967
285298290.0 -0.2434485214 0.1706896413 0.3559166628 -0.2397218866 0.3557870188 -0.2398132223 -0.2318799069 0.1659843061
290298260.0 -0.2418580299 0.173047718 0.3531126776 -0.2434984096 0.3530307531 -0.2440193998 -0.2303917351 0.1686542951
295298230.0 -0.2399325915 0.1754939977 0.3504698342 -0.2478052578 0.3504669693 -0.247847276 -0.2283908282 0.1706854342
300298200.0 -0.2387178909 0.1782452759 0.3481293284 -0.2514908444 0.3482100359 -0.2518817701 -0.2268886558 0.1735719354
305298170.0 -0.236700637 0.180608414 0.3447831693 -0.2559124904 0.3451737356 -0.2559898965 -0.2245430119 0.1761571312
310298140.0 -0.2349065657 0.1836773763 0.3422798251 -0.2597262215 0.3425769293 -0.2595093148 -0.2231329032 0.1781615941
315298110.0 -0.233115142 0.1855945168 0.3396498264 -0.2633143151 0.3395086815 -0.2635085935 -0.2214194884 0.1805338124
320298080.0 -0.2310171364 0.1882265549 0.3359760822 -0.2677434255 0.3365238651 -0.267595438 -0.2195100814 0.1828580681
325298050.0 -0.2294325456 0.1904458122 0.3329259413 -0.271113736 0.3333099333 -0.2713787532 -0.2178321237 0.1854471972
330298020.0 -0.2275816497 0.193248934 0.330043899 -0.2751651288 0.3302768317 -0.2748553208 -0.216180901 0.1880636453
335297990.0 -0.2257126188 0.1954463923 0.3270693086 -0.2787537278 0.3269582202 -0.2788412921 -0.2148383175 0.1907293522
340297960.0 -0.2243505987 0.1984825165 0.3235444896 -0.2823004735 0.3235156745 -0.2823373378 -0.2122428852 0.1931923763
345297930.0 -0.2223711552 0.200966527 0.3205742847 -0.2862806842 0.3205057794 -0.286177088 -0.21047708 0.1952260282
350297900.0 -0.220039327 0.2029951605 0.3168387049 -0.2896099528 0.3171710835 -0.289341182 -0.2088287708 0.1978297843
355297870.0 -0.217819789 0.206035529 0.3139509967 -0.2930767118 0.3140703783 -0.2926876333 -0.2069608901 0.2002195283
360297840.0 -0.2161474547 0.2082909569 0.3112247565 -0.2961798008 0.3112381608 -0.2960040743 -0.2050594727 0.2028001014
365297810.0 -0.2141080241 0.2107744962 0.3075254226 -0.2999644888 0.3077028068 -0.2998449471 -0.2029187113 0.2047243234
370297780.0 -0.2118208931 0.2130723845 0.3040397773 -0.3029918431 0.3045414315 -0.3027220044 -0.2007499793 0.2074839104
375297750.0 -0.2093114588 0.2157928688 0.3005999222 -0.3064568259 0.3012215417 -0.3068348214 -0.1988968779 0.209616874
380297720.0 -0.2073123517 0.21781415 0.2972256457 -0.3097395373 0.2975246399 -0.3088254951 -0.1970562668 0.2115335926
385297690.0 -0.2055265788 0.2201323585 0.2943514633 -0.312975141 0.2942137488 -0.3130296556 -0.1948849017 0.2141496309
390297660.0 -0.2032125894 0.2228428154 0.2904640395 -0.3164029444 0.290711598 -0.3157032645 -0.1929717716 0.2162062425
395297630.0 -0.200662497 0.2248818071 0.2870689681 -0.3191961016 0.2870623747 -0.319419448 -0.1898768306 0.2185310516
400297600.0 -0.1982687384 0.2273468249 0.2832758261 -0.3228879583 0.2834984812 -0.3223876328 -0.1877284601 0.2207734543
405297570.0 -0.1966986252 0.2297472673 0.2800548124 -0.3256706083 0.2801777881 -0.325436425 -0.1861541702 0.222825265
410297540.0 -0.193617811 0.2316888362 0.2763102451 -0.3286617484 0.2767358378 -0.3285445176 -0.1838326769 0.2250697237
415297510.0 -0.1913371574 0.2338616222 0.2724272119 -0.33166187 0.2728845309 -0.3319289903 -0.1811996482 0.22724827
420297480.0 -0.189140817 0.2363128731 0.268700985 -0.3348373993 0.2687703839 -0.3348642644 -0.1792856794 0.2290551325
425297450.0 -0.186453682 0.2382401441 0.2655258798 -0.3374957786 0.2657817749 -0.3377500664 -0.1772813752 0.2312073706
430297420.0 -0.184342258 0.2402400932 0.2616016921 -0.3400919614 0.2615416302 -0.3401046065 -0.1747274694 0.2330552461
435297390.0 -0.1818511511 0.2422654851 0.257565712 -0.3431250983 0.2574219281 -0.3433716121 -0.1717635288 0.2349786448
440297360.0 -0.1793785489 0.2446616916 0.253885323 -0.3459548989 0.2540999664 -0.3459277778 -0.1696315467 0.2369580688
445297330.0 -0.1766485801 0.2464230517 0.2505143417 -0.3486624984 0.2502753451 -0.3482017744 -0.1672041354 0.2383077527
450297300.0 -0.1738194538 0.248459217 0.2462193741 -0.3513163774 0.2462590739 -0.3516810514 -0.1645668758 0.2403575609
455297270.0 -0.1716293405 0.2503811628 0.2419802653 -0.3538331969 0.2421748335 -0.3541581663 -0.1619148977 0.2423279
460297240.0 -0.1691041447 0.2522793513 0.2381252897 -0.3562777088 0.2385950818 -0.3565766814 -0.1596758917 0.2443944957
465297210.0 -0.1662572957 0.2546555142 0.2346904422 -0.3595890771 0.2344607895 -0.3596938486 -0.1569326896 0.2460484106
470297180.0 -0.1638187834 0.2562733609 0.2302107373 -0.361709071 0.2304486366 -0.3616022288 -0.1542044607 0.2482542686
475297150.0 -0.1611581325 0.2577968302 0.2261448631 -0.3636494976 0.2266993266 -0.3637661009 -0.1514300609 0.2492394939
480297120.0 -0.1582526782 0.2602488914 0.2223618762 -0.3666637589 0.222602843 -0.3667878549 -0.1485961149 0.2516364035
485297090.0 -0.1556088428 0.2617016501 0.2185620919 -0.3688354888 0.218516169 -0.3686230292 -0.1463060574 0.2530095487
490297060.0 -0.1532873971 0.2635824995 0.2147280609 -0.3712898602 0.2146573467 -0.3710663582 -0.1436450879 0.2549377017
495297030.0 -0.150162213 0.2652692394 0.2101490249 -0.3732549211 0.2105748505 -0.3736061184 -0.1411170491 0.2568180428
500297000.0 -0.1472501342 0.2672117905 0.2062428506 -0.3755611585 0.2061366755 -0.375489357 -0.1378225466 0.2587206922
505296970.0 -0.1444315859 0.2685613299 0.2019858201 -0.3779430279 0.2018290193 -0.3779509102 -0.1357093534 0.259936402
510296940.0 -0.1419035394 0.2703395772 0.1980522693 -0.3799748901 0.1975455828 -0.380419217 -0.1328747209 0.2616179021
515296910.0 -0.1388518941 0.2716307135 0.1935571445 -0.382334971 0.1936025513 -0.3823798536 -0.1298675294 0.2632162856
520296880.0 -0.1361621209 0.2737098526 0.1898229137 -0.3846944504 0.189361301 -0.3842578061 -0.1276056928 0.2647451486
525296850.0 -0.132857276 0.2746957364 0.1850055764 -0.3863162758 0.185570663 -0.386345693 -0.1246752533 0.2663235064
530296820.0 -0.1301691771 0.2765549209 0.1808014097 -0.3882711912 0.1811253137 -0.3884337285 -0.1218495464 0.2680585307
535296790.0 -0.1278119427 0.2781179104 0.177209766 -0.3900961507 0.1769611464 -0.3900643853 -0.1190916761 0.2693021119
540296760.0 -0.1249061015 0.2795697367 0.1727997178 -0.3921560915 0.172520878 -0.3922033265 -0.1165628172 0.2710170731
545296730.0 -0.1220190451 0.2812868656 0.1681393561 -0.393885222 0.1683599933 -0.3941735949 -0.1136978165 0.272146812
550296700.0 -0.1186473607 0.2825906063 0.1643435602 -0.3957247318 0.1640343771 -0.3957141195 -0.1107467581 0.2737825985
555296670.0 -0.115570331 0.2841473198 0.1596291604 -0.3977179999 0.1597161658 -0.3976430823 -0.1079406427 0.2755206509
560296640.0 -0.1125129326 0.2855706323 0.1550332841 -0.3992355727 0.1553831397 -0.3995396523 -0.10486873 0.2766999277
565296610.0 -0.1098006725 0.2868158578 0.1506049827 -0.4010659094 0.1509794361 -0.4007918146 -0.1024263811 0.2776505922
570296580.0 -0.1068406238 0.2879993008 0.1464478468 -0.4027960991 0.1461339825 -0.4027063905 -0.0997012004 0.2790094752
575296550.0 -0.1039967789 0.2895678083 0.1423210397 -0.4040348088 0.1417476785 -0.4040948391 -0.0962462457 0.279836199
580296520.0 -0.1005348805 0.2906207608 0.1377180248 -0.4059671189 0.1376349859 -0.4056055879 -0.0935115836 0.2814328206
585296490.0 -0.0978642006 0.2915891078 0.1333803083 -0.4065867939 0.1334617492 -0.4071026143 -0.090579193 0.2822606946
590296460.0 -0.0943053152 0.2929133626 0.1288404764 -0.4078434103 0.1288415737 -0.4082206284 -0.0879220119 0.2837681762
595296430.0 -0.0915298816 0.2939682353 0.1243085415 -0.4098544915 0.1243126886 -0.4096036243 -0.0849145955 0.283888508
600296400.0 -0.0885081107 0.2953232775 0.1196778938 -0.4112196079 0.1197143707 -0.4104586938 -0.0818866726 0.2849920852
605296370.0 -0.0856657843 0.2959983048 0.1153660493 -0.4122283524 0.1153853952 -0.411976845 -0.0786485538 0.2863190619
610296340.0 -0.0824882678 0.2973134503 0.1108646814 -0.4131990913 0.1109184297 -0.4133504494 -0.0753239704 0.2873410486
615296310.0 -0.0790203338 0.2979312502 0.106151673 -0.4139665933 0.1059986111 -0.4143542405 -0.072380298 0.2877319629
620296280.0 -0.0757150797 0.2988639728 0.101626663 -0.4154276566 0.1019171791 -0.4152080806 -0.0697490803 0.2890730605
625296250.0 -0.0731742007 0.2996110491 0.0977976555 -0.4167850654 0.0970778976 -0.4168475155 -0.066094999 0.2895900562
630296220.0 -0.0694746602 0.3006339679 0.0925067454 -0.4172630211 0.092254134 -0.4176033629 -0.0634576596 0.2904831944
635296190.0 -0.0667993479 0.3015036572 0.0880992734 -0.4181351504 0.0882317722 -0.4186292923 -0.0600240912 0.2918933958
640296160.0 -0.0637712062 0.3024936994 0.0839390236 -0.4189418191 0.0838901189 -0.4194523601 -0.057218647 0.2922783557
645296130.0 -0.06029249 0.3034156822 0.0785939583 -0.4201408935 0.0792853928 -0.4205008534 -0.0539083895 0.2932347224
650296100.0 -0.0572212336 0.3039606762 0.0745045102 -0.4209125363 0.0746023031 -0.4207685785 -0.0507306335 0.2933829031
655296070.0 -0.0541108566 0.3047951179 0.070059454 -0.4216150155 0.0700583102 -0.4217478968 -0.0474178724 0.2941362498
660296040.0 -0.0512416322 0.305353233 0.0656060197 -0.421920387 0.0655059675 -0.4224732079 -0.0443582358 0.2949943564
665296010.0 -0.0476881376 0.3056284136 0.0606672609 -0.4225034809 0.060587438 -0.4232378516 -0.0410518835 0.2961010534
670295980.0 -0.0451433274 0.3066728962 0.0565068111 -0.4233788504 0.0560176903 -0.4235624185 -0.0381307331 0.2962361672
675295950.0 -0.0414417463 0.3072990986 0.0518589573 -0.4239443509 0.0516943076 -0.4237385176 -0.035551303 0.2968241703
680295920.0 -0.0383657457 0.3077314081 0.0470058435 -0.4242962473 0.046532908 -0.4250471974 -0.0315850355 0.2979514979
685295890.0 -0.0345281146 0.308846244 0.0424788191 -0.4249237828 0.0420889325 -0.4253041656 -0.0288979009 0.2982870692
690295860.0 -0.0315267095 0.3091043898 0.0379355862 -0.4252037718 0.0378443447 -0.4256660411 -0.0261832081 0.2990526699
695295830.0 -0.0284134785 0.3094234594 0.0333746312 -0.4256172068 0.032813147 -0.4259951254 -0.0226861238 0.2993707037
700295800.0 -0.0251662925 0.3096651604 0.0282847491 -0.4258744207 0.0284458746 -0.4260416981 -0.0199977052 0.2997893937
705295770.0 -0.0219050749 0.3104354924 0.023872433 -0.4262230317 0.0244084106 -0.4265632993 -0.0168394108 0.3006405085
710295740.0 -0.0185276506 0.3106675843 0.0193358643 -0.4268510016 0.0195876573 -0.4272053848 -0.013569452 0.3003442332
715295710.0 -0.0155765957 0.3106398358 0.0150629114 -0.4267597085 0.0144156718 -0.4269278016 -0.0101063637 0.3004554225
720295680.0 -0.0121750466 0.3113242196 0.0098675427 -0.4271551668 0.0101758904 -0.427042849 -0.0070258526 0.301105382
725295650.0 -0.0088015315 0.3117786209 0.0052266525 -0.4268458797 0.0053430994 -0.4271956464 -0.0045557661 0.3017297288
730295620.0 -0.0054533335 0.3119308965 0.0007337085 -0.4266049053 0.0008747387 -0.4269779175 -0.0013639442 0.3014456395
735295590.0 -0.0020630494 0.3118177778 -0.0038944786 -0.4270686043 -0.0037103233 -0.426841751 0.0018512054 0.3018035584
740295560.0 0.0007898529 0.3122843066 -0.0082251443 -0.4264336759 -0.0086309113 -0.4270336249 0.0057996308 0.3020492758
745295530.0 0.0040458148 0.3123913127 -0.013063191 -0.4262770115 -0.0134273052 -0.4267970523 0.0085222661 0.3019407148
750295500.0 0.0071369751 0.3125044352 -0.0174466193 -0.4261553526 -0.0174860582 -0.42642449 0.0118618776 0.3018304869
755295470.0 0.0107551234 0.312174851 -0.0220699779 -0.4258908189 -0.022059454 -0.4259342892 0.0150198039 0.3013307985
760295440.0 0.0138150772 0.3121824355 -0.0270413519 -0.4259575315 -0.0270366581 -0.426005542 0.0177460187 0.3014132524
765295410.0 0.0169871906 0.3121546802 -0.031389255 -0.4249534401 -0.0319324804 -0.4255164223 0.0211615168 0.3015998052
770295380.0 0.0201312131 0.3122487778 -0.036094006 -0.4249226197 -0.0362736592 -0.424871037 0.0243228959 0.3013877635
775295350.0 0.0233298182 0.3117370996 -0.0408029759 -0.4243435924 -0.0404717653 -0.4246788376 0.0268235282 0.3012432949
780295320.0 0.0268009699 0.3120635271 -0.0450484412 -0.4237427165 -0.0449428122 -0.423930304 0.0301549843 0.3006899032
785295290.0 0.0300060495 0.311462753 -0.0501115932 -0.4231827384 -0.0498577695 -0.4236103488 0.0341586019 0.3004706572
790295260.0 0.03366094 0.3118276605 -0.0543200525 -0.42287999 -0.0537516389 -0.4230447775 0.0370527336 0.3008658916
795295230.0 0.0368296786 0.3113170324 -0.0593315784 -0.4218859494 -0.0587716842 -0.4222879178 0.0402385254 0.3004228307
800295200.0 0.0395714748 0.3112379963 -0.063768808 -0.4217587727 -0.0634781241 -0.4212227008 0.0436462865 0.2998683311
805295170.0 0.0432836799 0.3104306929 -0.0679943542 -0.4206411239 -0.0680698308 -0.4209166888 0.0467470753 0.2998722301
810295140.0 0.0461324444 0.3102736582 -0.0723454666 -0.4195626347 -0.072097089 -0.4200271121 0.0499040398 0.2995656307
815295110.0 0.0494209487 0.3098753792 -0.0771513584 -0.4186834491 -0.0768363914 -0.4190592963 0.0531755406 0.2990045615
820295080.0 0.0525290627 0.3099505408 -0.0813568765 -0.4181991331 -0.0814121201 -0.4180074729 0.0562785304 0.2985315883
825295050.0 0.0562022505 0.3092051362 -0.0857480228 -0.4170747462 -0.0860952177 -0.4172256109 0.0595656049 0.2981113237
830295020.0 0.059428229 0.3088887282 -0.0908246166 -0.416166236 -0.0906995059 -0.4162698002 0.0632269919 0.2977106187
