!Created with skrf (http://scikit-rf.org).
# Hz S RI R 50.0 
!freq ReS11 ImS11 ReS21 ImS21 ReS12 ImS12 ReS22 ImS22
300000.0 -0.2447650888 -0.0845848352 0.4744673409 0.055961663 0.4746208325 0.051859771 -0.2434414482 -0.0909921609
5299970.0 -0.2453990314 0.007088189 0.4749342392 0.0047041476 0.4748803447 0.0050179313 -0.2412418742 0.0078027216
10299940.0 -0.2418875321 0.0182072761 0.4768532124 0.0058588159 0.4768745718 0.0060923854 -0.2380398318 0.0206955484
15299910.0 -0.2375798292 0.0267590724 0.4805553184 0.007569952 0.480612123 0.0073598568 -0.2332187011 0.0300269172
20299880.0 -0.2328533623 0.0338623507 0.4846703729 0.0078223828 0.4853118315 0.0081790511 -0.2279950342 0.0381208005
25299850.0 -0.2277665574 0.0403457853 0.4898486806 0.0069139685 0.4902104592 0.0072569198 -0.2222281019 0.0444479097
30299820.0 -0.2223776777 0.0452343169 0.4956363843 0.0047619816 0.4955060156 0.0048223016 -0.2163345096 0.0499302416
35299790.0 -0.217271638 0.0493021726 0.5009919676 0.0015277293 0.5009727165 0.0018207602 -0.2106361008 0.0542183073
40299760.0 -0.2127088757 0.052467004 0.5058593693 -0.002289236 0.50608412 -0.0025013939 -0.2053180443 0.0572191738
45299730.0 -0.2080328789 0.0546918319 0.510647197 -0.0068177184 0.5109152703 -0.0071217359 -0.2002429735 0.0602328536
50299700.0 -0.2039748185 0.0567824105 0.5151251815 -0.0122508285 0.5150720779 -0.0124521315 -0.1956474115 0.0622217298
55299670.0 -0.1998585902 0.0584060494 0.5185598127 -0.0190552453 0.5185040034 -0.0183106779 -0.1913329878 0.0638793269
60299640.0 -0.1957711772 0.0600593937 0.5220652915 -0.0250569514 0.5222223451 -0.0247137734 -0.1874336658 0.0653684008
65299610.0 -0.1929823555 0.0607909882 0.5246541501 -0.0312222488 0.524887443 -0.0308467927 -0.1840000626 0.0665051133
70299580.0 -0.1898836247 0.0619221964 0.5272783236 -0.037490681 0.5271114335 -0.0377140069 -0.1807467487 0.067449956
75299550.0 -0.187032913 0.0629048292 0.5290172925 -0.0442264558 0.5289447647 -0.0449341335 -0.1777176785 0.068325268
80299520.0 -0.1846715649 0.0636547335 0.5310495843 -0.0512545412 0.5314461024 -0.0516671637 -0.1751111119 0.0691046664
85299490.0 -0.1824702359 0.0640174194 0.5320852882 -0.058145655 0.5319244807 -0.0579673012 -0.1726797353 0.0695413462
90299460.0 -0.1801856107 0.0646946291 0.532890419 -0.06505115 0.5335000166 -0.0652242751 -0.1703373449 0.0704896007
95299430.0 -0.1781210424 0.0651638953 0.5340341118 -0.0718757674 0.5340419082 -0.0720825323 -0.1679263045 0.0712471267
100299400.0 -0.1767792956 0.0660572735 0.533958323 -0.0787183707 0.534032347 -0.0790363165 -0.1657850585 0.0716076106
105299370.0 -0.1748105236 0.0668893762 0.534557593 -0.0862925762 0.5348113402 -0.0857189462 -0.1638183578 0.0724964371
110299340.0 -0.1734055383 0.0674781902 0.5350848249 -0.0927338242 0.5345749467 -0.0926275963 -0.1627675219 0.0731508423
115299310.0 -0.1719610265 0.0681477633 0.5349454082 -0.0995497777 0.5348030845 -0.0995493191 -0.1611222498 0.0741430689
120299280.0 -0.1707070601 0.068448071 0.5348396793 -0.1064836983 0.5343794384 -0.1063888575 -0.1595828979 0.07457123
125299250.0 -0.1696305365 0.0690529766 0.5343068144 -0.1128873696 0.5344828339 -0.112313984 -0.1585970902 0.0752676701
130299220.0 -0.1686605883 0.0703516236 0.5337341097 -0.1198475352 0.5335715569 -0.1196926534 -0.1573757724 0.0758812935
135299190.0 -0.1676803197 0.071200014 0.5332280783 -0.1264580804 0.5327817358 -0.1259992689 -0.1557734195 0.0770802449
140299160.0 -0.1666548036 0.0720184091 0.5322251359 -0.1330357926 0.5326351707 -0.1330046945 -0.1547448083 0.0781831721
145299130.0 -0.16564452 0.0729664718 0.5315352522 -0.1395264052 0.5309747619 -0.1393845085 -0.1535500742 0.0792112122
150299100.0 -0.1646879894 0.0739378983 0.5302248785 -0.1458907359 0.5298816678 -0.1455931777 -0.1525352859 0.0805628863
155299070.0 -0.1639843086 0.0745810715 0.528946848 -0.1527057106 0.5288253029 -0.152592363 -0.1512628713 0.0815344753
160299040.0 -0.1629637368 0.0759909922 0.527547175 -0.1590819837 0.5272222549 -0.1591261493 -0.1509390103 0.0825608762
165299010.0 -0.1622646928 0.0770084025 0.5257746615 -0.1657371247 0.5261626463 -0.1656233819 -0.1495991028 0.084033844
170298980.0 -0.1615363829 0.0775649379 0.5241183148 -0.171781478 0.5244217969 -0.171867012 -0.1485324342 0.0848088394
175298950.0 -0.1609141839 0.0787889139 0.5233805955 -0.1781556441 0.5224722117 -0.1780340285 -0.1480689113 0.085985857
180298920.0 -0.1601171712 0.0798247198 0.5215066325 -0.1841740784 0.5212363462 -0.1839310058 -0.1468566514 0.087591126
185298890.0 -0.1589300039 0.0809719902 0.5190287714 -0.1905985893 0.5192752019 -0.1903645532 -0.146031785 0.0886479849
190298860.0 -0.1583101121 0.0824959535 0.5173596298 -0.1969433496 0.5177342542 -0.1966709937 -0.1449318644 0.089882485
195298830.0 -0.1578659295 0.0831984502 0.5155954096 -0.2028090025 0.5155688699 -0.2023927665 -0.1442199346 0.0909927097
200298800.0 -0.1570360743 0.0846992533 0.5131186222 -0.2090663174 0.5131837989 -0.2089951051 -0.1434082608 0.092365132
205298770.0 -0.1561361749 0.0861543627 0.5110861271 -0.2152289562 0.5110413123 -0.2152932145 -0.1420763006 0.092966119
210298740.0 -0.1551358848 0.0868675012 0.5086261628 -0.220437332 0.5087284215 -0.2206181996 -0.1408921743 0.0951561093
215298710.0 -0.1551907763 0.0883521189 0.5063975926 -0.226680813 0.5067185895 -0.2270074845 -0.1405079389 0.0960045288
220298680.0 -0.1541063421 0.089435965 0.5037263192 -0.233031889 0.5037747513 -0.2325700178 -0.1397040472 0.0971831422
225298650.0 -0.1532974043 0.0905424473 0.50139441 -0.2384411163 0.5020028457 -0.2385282415 -0.1390741993 0.0986336497
230298620.0 -0.1524454268 0.0923082186 0.499108329 -0.2441328623 0.4996112812 -0.2441983857 -0.1379076842 0.099875866
235298590.0 -0.1517672378 0.0936295263 0.4965759777 -0.2501154336 0.4965676191 -0.2496586112 -0.1368397284 0.1013243303
240298560.0 -0.1511650902 0.094682769 0.4938518504 -0.2558029588 0.4939109696 -0.2559096001 -0.1360293665 0.1031214124
245298530.0 -0.1504515484 0.0960523364 0.4913829403 -0.2617807252 0.4909219984 -0.2615670044 -0.1343127002 0.1038631153
250298500.0 -0.1494398247 0.0977495217 0.4878214202 -0.2674320509 0.4874505522 -0.2668056598 -0.1335823399 0.1053672093
255298470.0 -0.1487075565 0.0984965011 0.4848661234 -0.2720251697 0.4851763459 -0.2724236745 -0.1325243293 0.1068386378
260298440.0 -0.1482752242 0.1000324431 0.4823536926 -0.2784540369 0.4824477508 -0.2780084694 -0.1314429722 0.1085745
265298410.0 -0.1467033581 0.1017391545 0.4788825761 -0.2839919331 0.4794177977 -0.2835268897 -0.1305936134 0.1096323557
270298380.0 -0.1460266673 0.1029875787 0.4759413518 -0.2890659946 0.4763889303 -0.2892259247 -0.12927397 0.1111811397
275298350.0 -0.1449250158 0.1043243508 0.4730419298 -0.294885849 0.4737062279 -0.2945002178 -0.1280242268 0.1122562769
280298320.0 -0.1440116801 0.1057370606 0.4702510499 -0.2999758476 0.4701408384 -0.2997929755 -0.1269251865 0.1134610239
285298290.0 -0.1429491463 0.1072916508 0.4666016376 -0.3053513116 0.4665944642 -0.3052294652 -0.1255105565 0.114945853
290298260.0 -0.1420347091 0.1082782727 0.4633728323 -0.3101330541 0.4634022122 -0.3105041515 -0.1244026188 0.1166637726
295298230.0 -0.1410409549 0.1095833557 0.4598244837 -0.3156991504 0.4600970898 -0.3158784131 -0.1229043959 0.1178711056
300298200.0 -0.1404078212 0.1110065441 0.4569232762 -0.3207435205 0.4570622183 -0.3214484127 -0.122020769 0.1192312526
305298170.0 -0.1390450319 0.1124006228 0.45275376 -0.3263399195 0.4532083603 -0.3261897914 -0.1201204218 0.1205349296
310298140.0 -0.1380074596 0.1136915403 0.4497816871 -0.3318611723 0.449931294 -0.3313715042 -0.1191389398 0.1219518317
315298110.0 -0.1372414683 0.1144995289 0.4457758932 -0.3363614963 0.4463279941 -0.3364165173 -0.1178390306 0.1229969648
320298080.0 -0.1359001949 0.1160472639 0.4417437524 -0.342161054 0.442347854 -0.3416867299 -0.1167222713 0.1242394039
325298050.0 -0.1350794535 0.1171049543 0.4378427049 -0.3473025519 0.4386612417 -0.3470336145 -0.1154283154 0.1255938713
330298020.0 -0.13419908 0.1180844841 0.4339599272 -0.3517475022 0.434315052 -0.35199859 -0.1146641209 0.1268121375
335297990.0 -0.1331949671 0.1195283188 0.4303099752 -0.3564143685 0.4300050423 -0.3569144785 -0.1138450416 0.1286013853
340297960.0 -0.1327588958 0.1210569079 0.4258084713 -0.361067368 0.4256259088 -0.3615323967 -0.1118921029 0.1296413055
345297930.0 -0.1314263199 0.1230325533 0.4216466291 -0.3663438172 0.4215522197 -0.3662874726 -0.1108324444 0.1307065398
350297900.0 -0.1306291868 0.1235916923 0.4173648311 -0.3707356691 0.4174311687 -0.370910736 -0.1097252861 0.1327498328
355297870.0 -0.1291686947 0.1256136429 0.4134584285 -0.3754823765 0.4140921941 -0.3751683241 -0.1086870477 0.1336989991
360297840.0 -0.1281428883 0.1267308164 0.4098088671 -0.3793993551 0.410153794 -0.3798599726 -0.1069163142 0.135318003
365297810.0 -0.1271492391 0.1282680297 0.4049282063 -0.3845275579 0.4058184395 -0.3847037864 -0.1055392098 0.1366887786
370297780.0 -0.1258268569 0.1292990354 0.4007145783 -0.3882356081 0.4012439235 -0.3883459667 -0.1039707657 0.1378776338
375297750.0 -0.1245900052 0.1308351896 0.39674259 -0.3932944986 0.3971522423 -0.3931175018 -0.1022687872 0.1389544531
380297720.0 -0.1235663507 0.1319763016 0.3920754741 -0.3976237612 0.3923615847 -0.396766789 -0.1013554594 0.1401341395
385297690.0 -0.1224307566 0.1335518073 0.3878917698 -0.4020867842 0.3877445857 -0.4014724091 -0.0995337478 0.1416390176
390297660.0 -0.1210132655 0.1348118918 0.3834485247 -0.4058013519 0.383768125 -0.4055168793 -0.0984851406 0.142977574
395297630.0 -0.1198014691 0.1362563387 0.3791459418 -0.4103484281 0.3792839881 -0.4102903617 -0.0964220117 0.1441658265
400297600.0 -0.1187632327 0.1377011186 0.3742648303 -0.4145593173 0.3747103777 -0.4140166761 -0.094867329 0.1455382724
405297570.0 -0.1176349049 0.1387130226 0.3701056947 -0.4180151077 0.3702125262 -0.4178034353 -0.0933424184 0.1463765669
410297540.0 -0.1159187713 0.140103506 0.3651725084 -0.4226331125 0.365991529 -0.4223399933 -0.092076689 0.1480966883
415297510.0 -0.1146359742 0.1410404064 0.360846825 -0.4266062287 0.3609150875 -0.4266898681 -0.0903987223 0.1492879358
420297480.0 -0.1136718165 0.1427979309 0.3560597486 -0.4302854359 0.3559111081 -0.4306144074 -0.0890252459 0.1501013663
425297450.0 -0.1118246062 0.1435253789 0.351937112 -0.4342962214 0.3519609772 -0.4343876433 -0.0873162856 0.1515253706
430297420.0 -0.1108260405 0.1447070091 0.3468085771 -0.437450415 0.3465398952 -0.4377318458 -0.085900321 0.152591711
435297390.0 -0.1095859889 0.1460194578 0.3418955596 -0.4416939417 0.34135919 -0.4420378251 -0.0837244767 0.153670617
440297360.0 -0.1080033975 0.1474235586 0.3369925593 -0.4455201365 0.3373119142 -0.4456406569 -0.0822803261 0.1545716204
445297330.0 -0.1065913235 0.1480787438 0.3321876858 -0.4493161824 0.3321701262 -0.4486317836 -0.0805092023 0.1552259437
450297300.0 -0.1052591279 0.1496784032 0.3272293752 -0.4526988118 0.3269751274 -0.4527158438 -0.0790591664 0.1561406463
455297270.0 -0.1038668301 0.1506399879 0.3219474985 -0.4559673871 0.3223980829 -0.4564576491 -0.0772008121 0.1574723875
460297240.0 -0.1024147027 0.1518680784 0.3172422249 -0.4595195236 0.3169396432 -0.4598922115 -0.0757741915 0.1587356772
465297210.0 -0.1006794765 0.1529172369 0.3123570422 -0.4634358762 0.3123293403 -0.4635977149 -0.0736203859 0.1594848422
470297180.0 -0.099304887 0.1539407924 0.3069672221 -0.4663182269 0.3071989574 -0.4663778355 -0.0719190069 0.1607398071
475297150.0 -0.0979825083 0.1549478763 0.3019884455 -0.4694323135 0.3021803409 -0.4694540096 -0.0695414912 0.1613937667
480297120.0 -0.0966010433 0.1564403448 0.29674593 -0.4732247679 0.296652313 -0.4734000933 -0.0681455628 0.1621760315
485297090.0 -0.0948178884 0.1573033398 0.2915855798 -0.4761394146 0.2916772622 -0.4759765437 -0.0662416711 0.1632777605
490297060.0 -0.0937921557 0.1586055649 0.2866603365 -0.4794497253 0.2867958024 -0.4790090617 -0.0645322249 0.1642893752
495297030.0 -0.0918774348 0.1594768065 0.2809872633 -0.4822543473 0.2816174361 -0.4822673078 -0.0630990512 0.1651371642
500297000.0 -0.0908594162 0.1601560403 0.275914482 -0.4846008328 0.2757630942 -0.4851682357 -0.060946026 0.1665326877
505296970.0 -0.0889080474 0.1614560775 0.2703734377 -0.4881410975 0.2702063884 -0.4881387789 -0.0592367257 0.166691595
510296940.0 -0.0875111232 0.1624486303 0.2652017979 -0.4910397231 0.2653451167 -0.4913999345 -0.0569524826 0.1678450122
515296910.0 -0.0857851575 0.1634203203 0.2595589685 -0.4944443454 0.2600269697 -0.4938839428 -0.0556024812 0.1684339742
520296880.0 -0.0843524531 0.1646934941 0.2546389948 -0.497221905 0.2545967213 -0.4969094302 -0.0535612179 0.1690912082
525296850.0 -0.0825144013 0.1649135435 0.2488202114 -0.4993334155 0.2491624054 -0.4997397758 -0.0517893218 0.1700801608
530296820.0 -0.0810568416 0.1661879875 0.2435440703 -0.5023130552 0.2437567939 -0.5021188377 -0.0500210099 0.170812825
535296790.0 -0.07976257 0.1671106762 0.2384599113 -0.504536791 0.2385497198 -0.5043696673 -0.0481293654 0.1710243956
540296760.0 -0.0781273253 0.1682813442 0.232846058 -0.5076851808 0.2330314262 -0.5073423234 -0.0465984398 0.1719827964
545296730.0 -0.0764227606 0.1688100642 0.2269942807 -0.5097940755 0.2271450927 -0.5095239803 -0.0447359305 0.1725579556
550296700.0 -0.0742266705 0.1699883519 0.2214434562 -0.5122251665 0.221913434 -0.5123105436 -0.0430447655 0.1735791631
555296670.0 -0.0730607299 0.1705691448 0.2160834608 -0.5141296199 0.2162570729 -0.5146247804 -0.0404748768 0.1742983404
560296640.0 -0.0710573959 0.1716930345 0.2102327186 -0.5170437043 0.2103994832 -0.5168374018 -0.0385701099 0.1746534584
565296610.0 -0.069718787 0.1721912716 0.2045292511 -0.5190128314 0.2048896634 -0.5189925867 -0.0369625365 0.1748760551
570296580.0 -0.0681543657 0.1734347225 0.1991179376 -0.5218940756 0.1985920757 -0.5212812496 -0.0351685716 0.1759009359
575296550.0 -0.0668324604 0.1742902819 0.1938093421 -0.5237795353 0.1935796358 -0.5233672621 -0.0329931953 0.1760461514
580296520.0 -0.0645586945 0.1749115295 0.1876852882 -0.5258407492 0.187540738 -0.5254404965 -0.0307810271 0.1768588415
585296490.0 -0.0631916423 0.1750923329 0.1827260247 -0.5269344156 0.1823445666 -0.5273530138 -0.0287765166 0.1774254708
590296460.0 -0.0610884207 0.1762903063 0.1766131233 -0.5287296559 0.1764493382 -0.5290803348 -0.0274296931 0.177942022
595296430.0 -0.0594468596 0.1771756453 0.1701343752 -0.5315745255 0.1703885642 -0.5311253904 -0.0251981455 0.1776827094
600296400.0 -0.0581135355 0.1778106615 0.1649224935 -0.5331934827 0.1647871404 -0.5328389943 -0.02339424 0.1784535894
605296370.0 -0.0565022897 0.1784295832 0.159020623 -0.5345957797 0.1593194002 -0.5346664151 -0.0210086422 0.1789638116
610296340.0 -0.054487693 0.1791138196 0.1525833954 -0.53628085 0.1533827254 -0.536365878 -0.0189220265 0.179379119
615296310.0 -0.0525023832 0.1794031309 0.1473288894 -0.5376463532 0.147222769 -0.5382554401 -0.0168370833 0.1796899277
620296280.0 -0.0506882332 0.1799676279 0.141553478 -0.5391090716 0.1419630642 -0.5393491565 -0.0151121508 0.1803634235
625296250.0 -0.0492240145 0.1805595011 0.1361553033 -0.5409991738 0.1357461961 -0.5412168875 -0.0126618459 0.1803138064
630296220.0 -0.046763484 0.1812554545 0.129143641 -0.5420819486 0.1292275025 -0.5418835066 -0.0107949967 0.1810092719
635296190.0 -0.045718618 0.182100382 0.1238126299 -0.5437324219 0.124065903 -0.5430009006 -0.0089461085 0.1811873202
640296160.0 -0.0439542039 0.1828777934 0.1180509525 -0.5447382478 0.1181783228 -0.5448944539 -0.0067170072 0.1812104668
645296130.0 -0.0420907025 0.1834180082 0.1116525642 -0.5463167024 0.1126184336 -0.5458653931 -0.0049173235 0.1817829719
650296100.0 -0.0401441481 0.1838022807 0.1061281724 -0.5469301869 0.1063434268 -0.5473431712 -0.0026066758 0.1813833671
655296070.0 -0.0386317398 0.1842946418 0.1004149915 -0.54823135 0.1006837852 -0.5483147773 -0.0007437369 0.182069894
660296040.0 -0.0372294481 0.1845302974 0.0947432188 -0.5489670021 0.0950002929 -0.5498462728 0.0015694779 0.1820282423
665296010.0 -0.0349310992 0.1848368425 0.0881464016 -0.5503107045 0.0887203728 -0.5501986934 0.0034256637 0.1826054382
670295980.0 -0.0337667839 0.1858514394 0.0826497652 -0.5512045662 0.0825209672 -0.5512774343 0.0050334053 0.1820837466
675295950.0 -0.0317382852 0.186420337 0.0767932023 -0.5518919384 0.0768671207 -0.5516574423 0.0068657454 0.1826225976
680295920.0 -0.0302579899 0.1863013327 0.0708853494 -0.5525281248 0.0700722026 -0.5532123674 0.0093754416 0.1829523236
685295890.0 -0.0278200086 0.1874758505 0.0643352156 -0.5532701858 0.0645830669 -0.5535217942 0.0111881293 0.1826061697
690295860.0 -0.0258478951 0.1877152901 0.0587773042 -0.5535182488 0.0587386605 -0.554535744 0.0131693826 0.1833157451
695295830.0 -0.0242575787 0.1878565673 0.05303032 -0.5546656481 0.0526178521 -0.5545008405 0.0152817994 0.1830484139
700295800.0 -0.0225042343 0.1879394674 0.0466228332 -0.5547922982 0.0465672045 -0.5548916569 0.0168697 0.1834100193
705295770.0 -0.0212374471 0.1892250745 0.040611224 -0.5553641022 0.04110219 -0.555657815 0.0188266142 0.1830599
710295740.0 -0.0190086653 0.1891954101 0.035232989 -0.5560269152 0.0352499074 -0.5558165357 0.0212367231 0.1826086309
715295710.0 -0.0173777206 0.1894969798 0.0292904458 -0.5563766499 0.0286419209 -0.5561400798 0.0233477155 0.182741732
720295680.0 -0.0153822139 0.1897319905 0.0227222915 -0.5564786764 0.0228766485 -0.5564738899 0.0256112064 0.1828481463
725295650.0 -0.0133213948 0.1898818992 0.0168910274 -0.5567336509 0.0168487149 -0.5570014135 0.0269280693 0.1831751531
730295620.0 -0.0115849938 0.1903752951 0.0107212132 -0.5564396734 0.0107121477 -0.5569026398 0.028852191 0.1825242158
735295590.0 -0.0097192193 0.1906031353 0.0052065009 -0.5569715995 0.0050378168 -0.5569704601 0.0308687797 0.1820363418
740295560.0 -0.0081478848 0.1907216686 -0.0011841845 -0.5566527576 -0.0011874297 -0.5568686139 0.0338135229 0.182333652
745295530.0 -0.0062348514 0.1909977961 -0.0070493895 -0.5564081741 -0.0073589423 -0.5566612345 0.0352233422 0.1816609543
750295500.0 -0.0040548698 0.1911561106 -0.0130598935 -0.5564817269 -0.0131607303 -0.5566348239 0.0373837326 0.1815022374
755295470.0 -0.0022161453 0.1911729828 -0.0189354256 -0.5566317088 -0.0189087776 -0.5563353018 0.0396864646 0.1807496173
760295440.0 -0.0005357618 0.1916142907 -0.0249935713 -0.5565706533 -0.0253951932 -0.5564378794 0.0414646631 0.1807644953
765295410.0 0.0013539554 0.1919117651 -0.0317298029 -0.5563004065 -0.0314410507 -0.5562760182 0.0436211845 0.1803344172
770295380.0 0.0032399113 0.1917635802 -0.037528971 -0.5551242123 -0.0370420114 -0.5553783298 0.0454035123 0.1798889404
775295350.0 0.0048624812 0.1915786825 -0.0432942878 -0.5546359546 -0.0425207074 -0.5548145921 0.0466973721 0.1800593601
780295320.0 0.0067143431 0.1919276512 -0.0492899902 -0.553948841 -0.0484308235 -0.5542947971 0.0491819166 0.1789342273
785295290.0 0.0086505524 0.1914495589 -0.0553060576 -0.5528855895 -0.054618303 -0.5536240835 0.0518532607 0.1791200458
790295260.0 0.0108868445 0.1921974747 -0.0605982444 -0.5530091781 -0.060321611 -0.5533318502 0.0536214551 0.1784824971
795295230.0 0.0126061793 0.1921443524 -0.0673595534 -0.5518830683 -0.0665957662 -0.5524327007 0.0557520284 0.1784998828
800295200.0 0.0142238735 0.1920615632 -0.0734114717 -0.551167584 -0.0727265267 -0.5513907285 0.0575297301 0.1779295128
805295170.0 0.0162375078 0.1919914295 -0.0787389978 -0.5504383206 -0.0787510896 -0.5508333666 0.0594952947 0.1774439455
810295140.0 0.0176969541 0.191773632 -0.0840568668 -0.5498305948 -0.0845056428 -0.5499732082 0.0616736971 0.1767516045
815295110.0 0.0201560705 0.191758364 -0.090728234 -0.548313312 -0.0903945221 -0.5486901777 0.0632638081 0.1763670405
820295080.0 0.0212989772 0.1920820084 -0.0960011085 -0.5475301096 -0.0958370255 -0.547749091 0.0652876958 0.1760303632
825295050.0 0.0241196998 0.1916671496 -0.1019270036 -0.546476993 -0.1020883598 -0.5465314534 0.0675179126 0.1754261353
830295020.0 0.0254829263 0.1918679562 -0.1081311797 -0.5453054694 -0.1078441065 -0.5455075852 0.0699978694 0.1745900125
