!Created with skrf (http://scikit-rf.org).
# Hz S RI R 50.0 
!freq ReS11 ImS11 ReS21 ImS21 ReS12 ImS12 ReS22 ImS22
300000.0 -0.0483017031 -0.0574046087 -0.0015009502 -0.0002620067 0.0003959386 0.0012942783 -0.7665731225 -0.1667614161
5299970.0 -0.0492430973 0.0157554274 -0.0001632909 -0.0002459749 -4.58321e-05 -9.91248e-05 -0.7849975534 -0.0084445622
10299940.0 -0.0433250327 0.0336251794 5.70834e-05 -0.0003583881 0.0001225246 -0.0002334612 -0.7884934867 -0.0049241566
15299910.0 -0.0351497376 0.0479997206 -3.87421e-05 8.76974e-05 0.0002404527 -0.0001203344 -0.7940308945 -0.0029280635
20299880.0 -0.0245521146 0.0598455437 0.000158188 0.0001943894 0.0001157982 -0.0001120278 -0.8008155087 0.0016575465
25299850.0 -0.0132466262 0.0689769459 5.21593e-05 -1.80395e-05 7.40535e-05 -2.27196e-05 -0.8071188313 0.0069737798
30299820.0 -0.0015760745 0.0755190795 -0.0001729712 -2.51363e-05 0.0001500025 0.0002609963 -0.8128088059 0.0152426268
35299790.0 0.0104782423 0.0806816372 3.54618e-05 2.08233e-05 -6.65786e-05 9.07346e-05 -0.8182938681 0.0239415163
40299760.0 0.0217952313 0.0833614662 -0.0003234952 -1.33789e-05 -0.0001624438 0.000242491 -0.821759281 0.0330548521
45299730.0 0.032448532 0.0847133789 0.0002774994 -0.0001527274 3.36927e-05 2.89327e-05 -0.8255166302 0.0420057639
50299700.0 0.0430226042 0.084520154 -2.63235e-05 3.65096e-05 -5.766e-06 4.30063e-05 -0.8281685625 0.0528271165
55299670.0 0.0518673639 0.0833938191 -2.4266e-06 0.000152694 0.0001844699 9.5008e-05 -0.8297626063 0.0631057392
60299640.0 0.0605563785 0.0813919525 0.0001389186 4.5865e-05 6.9656e-06 -0.0001010462 -0.8307019021 0.0729194303
65299610.0 0.0684270345 0.0789653009 1.06332e-05 0.0001121507 4.17045e-05 -3.78628e-05 -0.8313476682 0.0826524014
70299580.0 0.0756015846 0.0756017631 -0.0001318714 0.0001094563 8.19153e-05 0.0001647942 -0.8327775261 0.0931055617
75299550.0 0.0822035886 0.0721679842 -7.2287e-06 -3.38931e-05 -5.8083e-05 -7.67313e-05 -0.832800995 0.102451949
80299520.0 0.0874745953 0.0689882305 -0.0001119147 -7.76941e-05 -5.55138e-05 -1.63318e-05 -0.8321708108 0.112452431
85299490.0 0.0929460599 0.0646730356 9.7447e-05 1.31442e-05 -1.61052e-05 3.37654e-05 -0.8313212143 0.1221827989
90299460.0 0.0972100155 0.0609057376 -0.0001809034 1.57836e-05 -0.0001837453 -4.47037e-05 -0.8311230256 0.1311327988
95299430.0 0.1014796097 0.0569743105 4.2468e-06 -0.0002859223 0.0002003934 -2.7431e-06 -0.8300799891 0.1416321646
100299400.0 0.1048727222 0.0531364855 1.25388e-05 -7.12128e-05 -0.000140784 0.000153117 -0.8289926032 0.1496236038
105299370.0 0.1082188745 0.0488981623 -3.45775e-05 0.0001196069 0.000100888 -9.8912e-06 -0.8276585721 0.1586747435
110299340.0 0.1107591739 0.0447027362 -8.78056e-05 -5.29572e-05 -2.8713e-06 -7.80201e-05 -0.827066423 0.1680572619
115299310.0 0.1135751673 0.0404712869 -6.18921e-05 -0.0001233147 6.933e-05 -2.17072e-05 -0.8247213667 0.1771443396
120299280.0 0.1155119057 0.0367657552 -0.0001517877 -1.03313e-05 -1.51264e-05 -3.81872e-05 -0.8234748273 0.1863067201
125299250.0 0.117201989 0.0325880063 0.0001144501 1.77656e-05 -0.0001333816 -6.41825e-05 -0.8218141184 0.1956261459
130299220.0 0.1192535812 0.0289885204 -0.0001067678 2.73211e-05 -6.28026e-05 0.0001033857 -0.819799879 0.2041696945
135299190.0 0.1207167648 0.0252025326 6.82061e-05 0.0001524658 -6.51818e-05 -3.50438e-05 -0.818214449 0.21229136
140299160.0 0.1219240111 0.0217065567 0.0001344378 -4.25351e-05 5.22685e-05 -3.9302e-05 -0.8162300343 0.2214769909
145299130.0 0.1228945582 0.0178527402 -0.0001509422 8.40021e-05 -2.53631e-05 0.0001303752 -0.8135098658 0.2299431597
150299100.0 0.1235618074 0.0142509472 8.60115e-05 0.0001719531 -1.6554e-06 6.4859e-06 -0.8119784849 0.2380923967
155299070.0 0.1244290762 0.0109988179 -7.33245e-05 -8.66204e-05 2.79665e-05 0.000162532 -0.809932889 0.2469383713
160299040.0 0.1250107125 0.0076020398 5.55622e-05 0.0001515703 2.20023e-05 0.0001270833 -0.8075828642 0.2566081243
165299010.0 0.1253227283 0.0042501418 -1.84577e-05 -9.82396e-05 3.16467e-05 6.90402e-05 -0.8041708878 0.2646954583
170298980.0 0.1255928027 0.0011163278 -4.02769e-05 0.0001147723 0.0001158346 3.88322e-05 -0.8022309861 0.2732449022
175298950.0 0.1261194258 -0.0016885977 1.69803e-05 0.0001159057 3.97726e-05 1.96642e-05 -0.799154142 0.2817597924
180298920.0 0.1261757319 -0.0050631247 -6.34236e-05 -7.25366e-05 6.395e-05 -3.79797e-05 -0.7957733555 0.290244313
185298890.0 0.1260507675 -0.0081446841 4.44867e-05 7.93552e-05 -9.8238e-06 0.0001979153 -0.7932140531 0.2983849196
190298860.0 0.1259777566 -0.011526487 2.87933e-05 6.42513e-05 0.0001059425 9.97881e-05 -0.7901471845 0.3071917977
195298830.0 0.1262685964 -0.0141807392 -0.0001150179 -0.000148248 0.000124679 -1.6422e-06 -0.7872451323 0.3153895723
200298800.0 0.1254782256 -0.0168529548 3.51563e-05 3.6375e-05 -1.68813e-05 7.88719e-05 -0.7835863186 0.3237537583
205298770.0 0.1254086341 -0.019604047 -0.000162346 8.351e-06 0.0001111171 1.05974e-05 -0.7802244841 0.3322728014
210298740.0 0.1253235566 -0.0220502194 9.6482e-05 0.0001672564 -2.30469e-05 8.7972e-06 -0.7768209195 0.3402560226
215298710.0 0.1244836638 -0.0246449732 0.0003417082 0.0001208145 4.71929e-05 0.0001611951 -0.773476592 0.3483608801
220298680.0 0.1240565467 -0.0273607806 -0.0002333989 1.30106e-05 -4.23545e-05 -5.31446e-05 -0.7697488328 0.3568840263
225298650.0 0.1238573312 -0.0300513429 -0.0001444615 0.0001445906 2.4073e-05 0.000236118 -0.7661413577 0.364813715
230298620.0 0.1230443426 -0.0324804462 4.03726e-05 -0.0003631878 0.0001246872 -3.82758e-05 -0.7616221881 0.3729802941
235298590.0 0.1222045411 -0.0348080003 3.44778e-05 0.0001515639 9.71474e-05 1.21891e-05 -0.7581832253 0.3808489208
240298560.0 0.1218818725 -0.0371378968 9.85692e-05 -0.0002773315 -0.0001930715 -9.17531e-05 -0.7542105084 0.388784588
245298530.0 0.1210270954 -0.039456619 0.0001105253 0.0001494744 8.16174e-05 0.0002181425 -0.7503376727 0.3963796697
250298500.0 0.1202089866 -0.0417913978 3.75438e-05 2.6975e-05 0.0001851966 9.17657e-05 -0.7463413441 0.4045830782
255298470.0 0.1193105615 -0.0439094653 -0.0001030653 0.0001136958 -4.93056e-05 -0.0003160009 -0.7415944345 0.412486952
260298440.0 0.118795264 -0.0458039587 0.0002230906 1.36003e-05 0.0001586458 6.5742e-06 -0.7368250863 0.4203042799
265298410.0 0.1176535609 -0.0482162309 0.0002689198 7.53571e-05 -7.25664e-05 8.17117e-05 -0.733084693 0.4276873325
270298380.0 0.1167669632 -0.0501723657 3.57982e-05 9.42147e-05 6.66945e-05 5.37222e-05 -0.7281525492 0.4353673444
275298350.0 0.1158702981 -0.0522483144 2.1689e-06 2.39609e-05 4.05487e-05 0.0002616746 -0.723412361 0.4429682039
280298320.0 0.1152472792 -0.0543629747 -2.06009e-05 0.0001500746 -8.00123e-05 0.000203942 -0.7193131893 0.4501470751
285298290.0 0.1142133358 -0.0559034612 0.0002947035 -0.0001603535 0.0001508597 -4.27074e-05 -0.7137060235 0.4576789475
290298260.0 0.1132512744 -0.0579610214 -4.81409e-05 0.0001595499 0.0001098719 9.59223e-05 -0.7090495622 0.4657165492
295298230.0 0.1122898573 -0.0603252865 6.19268e-05 6.89989e-05 -9.7245e-06 0.0001464097 -0.7040580914 0.4728205876
300298200.0 0.1112602266 -0.0625904618 0.0002354642 -0.0001863656 8.1835e-06 -3.0564e-05 -0.6994322351 0.4803656167
305298170.0 0.1107887137 -0.0639652958 0.0001205309 0.0001322697 0.0001665848 0.0001604771 -0.693452324 0.4879357645
310298140.0 0.1091336945 -0.0665103612 0.0001632968 8.55804e-05 0.0001576897 -4.88444e-05 -0.688845503 0.4953025431
315298110.0 0.1074832356 -0.0681252304 0.0001797601 0.0001648037 -0.0001350146 -4.87869e-05 -0.6837290402 0.502368906
320298080.0 0.106549759 -0.0700691627 0.0001581625 -0.0001991191 0.0001686992 8.97532e-05 -0.6783885595 0.5096160999
325298050.0 0.1050192747 -0.0719273143 -2.891e-05 -5.31871e-05 0.0001336104 0.0001285288 -0.6728960609 0.5161206134
330298020.0 0.1035322157 -0.0732932093 0.000165458 8.75153e-05 -8.55688e-05 5.34033e-05 -0.6666856763 0.5235847406
335297990.0 0.1021463725 -0.0750251639 6.41531e-05 0.0001428227 0.0002118238 -5.291e-06 -0.6615675452 0.5296709612
340297960.0 0.1004688258 -0.076483971 -6.95637e-05 0.0001462557 0.0001778834 -6.23317e-05 -0.6557659648 0.5368990299
345297930.0 0.0989123639 -0.0778930326 -1.44285e-05 -0.0001269273 -0.0001205008 -9.88117e-05 -0.6498971808 0.5439974247
350297900.0 0.0980967657 -0.0790408453 0.0001999622 -1.24662e-05 0.0004514808 0.000121573 -0.6443493131 0.5511991875
355297870.0 0.0963612242 -0.0806912936 -2.70417e-05 4.80632e-05 9.91824e-05 0.0001195811 -0.6387550933 0.5574978107
360297840.0 0.0950879215 -0.0822148759 0.0003005511 1.64844e-05 -3.26097e-05 0.0001671417 -0.6321981284 0.5637628023
365297810.0 0.0937264041 -0.0835210677 -6.68872e-05 -5.1221e-05 -0.0001370092 -6.89948e-05 -0.6263090837 0.570781919
370297780.0 0.0924302348 -0.084583704 0.0002211747 9.70546e-05 -9.15836e-05 0.0001808899 -0.6212298922 0.5765047743
375297750.0 0.0910127274 -0.0860292357 7.7547e-06 3.41827e-05 2.45571e-05 9.41139e-05 -0.6147607176 0.5830845541
380297720.0 0.0898705561 -0.0874652223 6.16678e-05 6.80614e-05 4.75247e-05 9.81215e-05 -0.6081919485 0.5901106566
385297690.0 0.0881966857 -0.0884724006 -7.7092e-06 -0.0001021257 5.34203e-05 2.25348e-05 -0.6020592687 0.5956618905
390297660.0 0.0866953433 -0.0898068566 4.76667e-05 -0.0001539487 -0.0001469046 -0.0002194694 -0.5954659172 0.601536285
395297630.0 0.0854171927 -0.0912097528 -2.84373e-05 7.82523e-05 -0.0001439391 0.0001158846 -0.5890883221 0.6080738326
400297600.0 0.0840248646 -0.0918057143 9.45033e-05 4.42107e-05 5.86536e-05 -3.86268e-05 -0.5835915763 0.6136493286
405297570.0 0.0825137662 -0.0933561929 8.14345e-05 -2.5032e-06 0.0001082204 0.0001686623 -0.5774292179 0.6198647139
410297540.0 0.0811044015 -0.0943757526 -4.15611e-05 7.72108e-05 0.0001207965 3.49786e-05 -0.5702886638 0.625549496
415297510.0 0.0793638939 -0.095623846 0.0002912033 -9.54514e-05 2.39798e-05 0.0001289549 -0.5636245022 0.6316951513
420297480.0 0.0779802621 -0.0965956361 4.31228e-05 -0.000135922 0.0001767583 6.85638e-05 -0.556935218 0.6370537349
425297450.0 0.0764825611 -0.0974981389 7.0724e-05 0.0002302623 4.92127e-05 2.99433e-05 -0.5505222974 0.6431045044
430297420.0 0.0751693972 -0.0987247539 7.19483e-05 0.0002841384 -0.0001117631 -6.37218e-05 -0.5436436337 0.6487584449
435297390.0 0.0735977838 -0.0994424528 0.0002299569 0.0002302484 0.0002693684 0.0002538879 -0.5370861813 0.6536335741
440297360.0 0.0719823569 -0.1005863854 -8.59335e-05 -6.305e-07 0.0003461237 0.0001385487 -0.5304824303 0.6585133645
445297330.0 0.0704206695 -0.1013227916 0.0001027492 -5.53291e-05 1.60433e-05 0.0001731037 -0.5237443752 0.664475303
450297300.0 0.0688387382 -0.1026230718 7.92506e-05 -5.01543e-05 0.0002683095 -4.8477e-05 -0.5171071639 0.6695626806
455297270.0 0.0672620733 -0.1033606367 0.0001856496 0.0001277309 3.97741e-05 9.42428e-05 -0.5101058106 0.6749728939
460297240.0 0.0657634636 -0.103902232 5.8175e-06 -0.000156326 1.69433e-05 0.0001401668 -0.5030446537 0.6803756953
465297210.0 0.0642619128 -0.1047007889 -2.3148e-06 6.7826e-06 4.93128e-05 -8.47476e-05 -0.4964359642 0.6850568696
470297180.0 0.0626332304 -0.1058098564 0.0001680233 -7.41657e-05 4.08319e-05 0.0002572719 -0.4895722681 0.689859582
475297150.0 0.0607747807 -0.1063937765 -1.61875e-05 0.0002396599 0.0003150442 -0.0001261442 -0.4825722494 0.6944489243
480297120.0 0.0593079938 -0.1074390055 -3.54351e-05 -0.000131301 0.0001840802 1.59552e-05 -0.4754267847 0.6996327264
485297090.0 0.0579148806 -0.1082184899 -0.0001800028 0.0001045711 0.0002222833 0.0001310887 -0.4681010275 0.7040817076
490297060.0 0.0563309638 -0.1087749987 1.90912e-05 -3.5483e-06 0.0003199878 3.09838e-05 -0.4612267178 0.7092123714
495297030.0 0.054544433 -0.1094063604 0.0001574034 -2.26234e-05 -7.71653e-05 -7.77067e-05 -0.4536745401 0.7129895365
500297000.0 0.0528482721 -0.1101921617 -2.51986e-05 0.0001286943 0.0001768936 6.19254e-05 -0.4466450065 0.7177471963
505296970.0 0.0510314217 -0.1105848785 2.10565e-05 4.97478e-05 0.000195117 -8.66253e-05 -0.4401027694 0.7223539993
510296940.0 0.0497446521 -0.111237211 0.0001661674 0.0001651849 0.0003071194 -7.13664e-05 -0.4320839178 0.7264429916
515296910.0 0.0477591409 -0.111724673 0.0001078889 8.60544e-05 9.92051e-05 5.13284e-05 -0.4253000127 0.7309775175
520296880.0 0.0460826819 -0.112445561 3.83137e-05 5.6679e-05 0.0002448598 7.46006e-05 -0.4178235983 0.7349704552
525296850.0 0.0445374564 -0.1130263432 7.26613e-05 -6.64192e-05 0.0001086584 -9.9596e-06 -0.4099769888 0.7399629464
530296820.0 0.0429933635 -0.1133836466 0.0001127397 1.0042e-06 9.87316e-05 -0.0001407976 -0.4031578701 0.7432351493
535296790.0 0.0414244757 -0.1138227653 0.0002604019 4.10032e-05 1.09656e-05 -1.4932e-05 -0.3957909912 0.7466061945
540296760.0 0.0396964349 -0.1145772112 7.6084e-06 -0.000149459 0.0001198352 -0.0001315012 -0.3885276488 0.7511037452
545296730.0 0.0378493728 -0.1146580531 4.01685e-05 0.0001049066 7.14435e-05 -0.0001162879 -0.3809136007 0.7543500369
550296700.0 0.0363023309 -0.1151606327 0.0001573472 -6.38886e-05 -1.84285e-05 4.38678e-05 -0.3732531581 0.7582813281
555296670.0 0.0346160441 -0.1155191396 0.0001664911 -7.65315e-05 0.0001280338 -3.08626e-05 -0.3654595719 0.761997759
560296640.0 0.0330851595 -0.1161430136 -9.16e-08 3.20773e-05 3.02295e-05 0.0001071447 -0.3578973318 0.7658342391
565296610.0 0.0313025513 -0.1161364203 -8.66689e-05 9.37481e-05 8.39611e-05 -0.0001835269 -0.3502876526 0.7691751753
570296580.0 0.0297128453 -0.1167223585 0.0001978715 0.000107608 0.0001311514 -7.6705e-05 -0.3433266918 0.7726559816
575296550.0 0.0280013566 -0.1168408945 3.73676e-05 5.137e-05 0.0001802476 -2.2155e-06 -0.3349746238 0.7758728358
580296520.0 0.0265334576 -0.117352339 0.0001656477 9.64477e-05 0.0001181057 -5.42031e-05 -0.327626853 0.7789919128
585296490.0 0.0243489978 -0.1172744456 0.0001385794 0.000252789 0.0001526652 -7.01439e-05 -0.3198166684 0.7816537604
590296460.0 0.0224088552 -0.1175735487 5.95414e-05 8.30491e-05 0.0002583845 -6.5655e-05 -0.3119232761 0.7849117764
595296430.0 0.0212020229 -0.1177662958 7.6502e-06 0.0002847421 7.87923e-05 0.0001511473 -0.3043850847 0.7874259777
600296400.0 0.0192711 -0.1179027171 0.0001531183 -1.21103e-05 -3.64715e-05 -1.77937e-05 -0.2967263997 0.79153648
605296370.0 0.0180145099 -0.1181275118 3.32797e-05 0.000147094 0.0001675834 -8.38626e-05 -0.2887781982 0.7941377775
610296340.0 0.0160385639 -0.1183269198 -3.70511e-05 -0.0002732106 0.000103209 3.40447e-05 -0.2808032909 0.797237229
615296310.0 0.0143963122 -0.1181236549 0.0003630846 2.67358e-05 6.76926e-05 1.91116e-05 -0.2730632775 0.8001603816
620296280.0 0.0129095912 -0.1184501821 4.82518e-05 -0.0001306172 0.0001284124 2.5783e-05 -0.265144541 0.801760774
625296250.0 0.0112724885 -0.1182517933 6.37294e-05 -0.0002024324 8.20299e-05 -0.0002038737 -0.2571241164 0.8047098585
630296220.0 0.0092622355 -0.1184203096 9.17197e-05 0.0001675082 6.55189e-05 -2.45075e-05 -0.2492437641 0.8072436243
635296190.0 0.0076398899 -0.1184150819 0.0001632059 -2.04346e-05 0.0001444088 -0.0001051399 -0.2414070482 0.8096377514
640296160.0 0.0058438973 -0.1182700772 4.76964e-05 -0.000130354 0.0001714424 2.90252e-05 -0.2326112997 0.8121210864
645296130.0 0.0042502571 -0.1182960906 0.0002352951 2.79324e-05 -5.64846e-05 2.00226e-05 -0.2249470275 0.81404887
650296100.0 0.0024832945 -0.1181942366 0.0001202668 2.27735e-05 0.0001595795 -3.18414e-05 -0.2167102749 0.8167750257
655296070.0 0.0007546794 -0.1182461642 1.6397e-06 -0.0001532363 0.0001173337 6.3817e-06 -0.2087652486 0.8177794001
660296040.0 -0.0008065628 -0.1177728106 0.0002788849 3.4124e-05 0.0001400698 -0.0001056062 -0.200619333 0.8201813298
665296010.0 -0.002434179 -0.1178592968 0.0003290432 0.0001637791 -1.09093e-05 0.0001202083 -0.1927200669 0.8219982717
670295980.0 -0.0044991433 -0.1179517383 0.0002460321 -8.8988e-05 2.30534e-05 -9.08791e-05 -0.185415836 0.8241738778
675295950.0 -0.0056436557 -0.1173823521 0.0002336883 7.60886e-05 0.0001867287 8.61806e-05 -0.1764222604 0.8262652476
680295920.0 -0.0077200507 -0.117012155 0.0001403989 -6.3961e-06 -1.47702e-05 -4.74765e-05 -0.1684042709 0.82774822
685295890.0 -0.009261223 -0.1168448476 0.000202101 -0.0001075549 2.4542e-06 -7.15584e-05 -0.1601278379 0.8295089626
690295860.0 -0.0106891795 -0.1166261613 0.0001731886 0.0001246969 -0.0001079914 -0.0001304881 -0.1520806962 0.8306763218
695295830.0 -0.0123767757 -0.1164610722 0.00026242 1.60456e-05 7.38932e-05 -0.0001497079 -0.1438634723 0.8323208067
700295800.0 -0.0140343137 -0.1163627066 0.0002303841 -1.45689e-05 0.0001567088 -0.0001555831 -0.1353293783 0.8334893323
705295770.0 -0.0156577677 -0.116159979 5.69628e-05 -0.0001776656 0.0001864255 -0.0001337671 -0.1277707496 0.834853887
710295740.0 -0.0174375816 -0.1156018072 0.0002158541 -4.60443e-05 0.0002223704 5.83062e-05 -0.1195491045 0.8364811788
715295710.0 -0.0191348631 -0.1150829448 8.2384e-05 -8.91678e-05 -3.66324e-05 -0.000149627 -0.1107316831 0.8374981748
720295680.0 -0.0206749936 -0.1148697887 0.000190801 -8.70803e-05 0.0001378787 -4.62383e-05 -0.1021712925 0.8384619505
725295650.0 -0.0223178347 -0.114268464 0.0001742206 3.63299e-05 0.0001465292 5.03319e-05 -0.0945699104 0.8394947983
730295620.0 -0.0237762593 -0.1139452407 0.000316942 -0.0001765443 6.6173e-05 0.0001550865 -0.0857910839 0.8401476141
735295590.0 -0.0251256573 -0.1134327968 0.0002176925 -0.0001173892 0.0002085047 -6.72989e-05 -0.0770890791 0.8408697087
740295560.0 -0.0272131961 -0.1130415006 0.0002519113 6.37901e-05 0.0001228957 4.2166e-05 -0.0695061833 0.841575026
745295530.0 -0.0287448264 -0.1126185625 0.0001684951 -6.24254e-05 0.000258155 -6.70149e-05 -0.0608107515 0.842263567
750295500.0 -0.0302573201 -0.1118725213 0.0001104392 3.64983e-05 0.0001307236 0.0001197003 -0.0523640158 0.842619811
755295470.0 -0.0316889821 -0.1110607305 0.00023392 5.37469e-05 0.0001595829 -0.0001734779 -0.0446402233 0.8434479689
760295440.0 -0.0333773133 -0.1108249683 0.0001074866 6.05284e-05 0.0001610219 -5.12053e-05 -0.0363932592 0.8435482709
765295410.0 -0.0350062195 -0.1105170012 0.0003318312 -1.7071e-05 0.0002398905 -3.65305e-05 -0.0276465714 0.8445181288
770295380.0 -0.0362840179 -0.1095703953 0.0001918836 -5.03514e-05 0.0003297881 3.01511e-05 -0.0190918316 0.8441322319
775295350.0 -0.038192331 -0.108832037 0.0001985637 -0.0002443213 6.58497e-05 -0.0002428659 -0.0114520021 0.8440708736
780295320.0 -0.0396280923 -0.1083995815 0.0003204996 0.0002064806 0.0002462657 -3.7953e-05 -0.0027847348 0.8452133312
785295290.0 -0.0410505613 -0.1075347047 0.0001450344 0.0001437312 3.68683e-05 -5.47105e-05 0.0049845735 0.845064622
790295260.0 -0.0425029891 -0.1070487364 3.49239e-05 -0.0001337449 -9.8098e-06 -0.0001380107 0.0144116054 0.8443098622
795295230.0 -0.0439815087 -0.1059395331 7.02173e-05 -2.675e-07 0.0002782163 -0.0001260824 0.0221187258 0.8447976755
800295200.0 -0.0457266569 -0.1052061953 9.90201e-05 -1.73629e-05 0.0001782686 -0.0001104044 0.0303160085 0.8445457885
805295170.0 -0.047262308 -0.1047930309 -2.7815e-05 -0.0001576927 9.46558e-05 0.0001269354 0.0380891187 0.8438487965
810295140.0 -0.0485523797 -0.1039005967 0.0002518394 -0.000138879 0.0003109815 1.16762e-05 0.0469978041 0.8443751407
815295110.0 -0.050034152 -0.1031623765 0.0002447658 8.15996e-05 0.0001847497 2.28512e-05 0.0546990816 0.8433729123
820295080.0 -0.0515720192 -0.1023401119 6.71778e-05 -6.89068e-05 9.51609e-05 3.13329e-05 0.0629892942 0.8425045373
825295050.0 -0.0530106111 -0.1015388422 7.38319e-05 6.27378e-05 7.73682e-05 -0.0001214761 0.0716283143 0.8420282484
830295020.0 -0.0542856137 -0.1004430786 0.0001133898 -1.47055e-05 0.0001004031 0.0001366763 0.079352664 0.8412119036
835294990.0 -0.0561155232 -0.0996591085 0.0003166371 8.5422e-05 0.0002200653 -5.01142e-05 0.0880104685 0.840423786
840294960.0 -0.057115245 -0.0990028401 0.0001590017 -7.3796e-06 0.0001078766 3.56207e-05 0.0960097008 0.8393958858
845294930.0 -0.0588335551 -0.0977906271 9.49183e-05 -0.0001991908 0.0002576118 0.0001290555 0.1045445902 0.8386535737
850294900.0 -0.0598537366 -0.0969541213 9.12717e-05 -0.0001553174 6.18246e-05 -8.99175e-05 0.1126422945 0.8377003777
