!Created with skrf (http://scikit-rf.org).
# Hz S RI R 50.0 
!freq ReS11 ImS11 ReS21 ImS21 ReS12 ImS12 ReS22 ImS22
300000.0 -0.2107122961 -0.0760695517 -0.0022146329 0.0014088895 -5.3593e-06 0.0009614815 -0.7676276781 -0.1639397125
5299970.0 -0.2141642755 0.0086026354 7.57073e-05 9.54158e-05 0.0001658919 1.09605e-05 -0.7848858574 -0.0081428986
10299940.0 -0.2103964695 0.02112633 0.0001138448 6.4767e-06 3.53582e-05 6.2604e-06 -0.7884287908 -0.0050036252
15299910.0 -0.2054848316 0.0310975389 3.7232e-06 8.91876e-05 0.0001501648 9.59494e-05 -0.7936254934 -0.003363876
20299880.0 -0.1993533333 0.0391447153 0.0002244977 5.30942e-05 0.0001999022 0.0002478857 -0.8004744999 0.0018902597
25299850.0 -0.1929305209 0.0453327428 -8.56826e-05 9.7741e-06 -5.64325e-05 7.26772e-05 -0.8069854491 0.0071656135
30299820.0 -0.1862968914 0.0502182823 1.56133e-05 -7.5413e-05 1.97974e-05 -0.0001004448 -0.8125319173 0.014931226
35299790.0 -0.1798962882 0.054310976 0.0001124732 -1.7009e-06 -3.12768e-05 2.43005e-05 -0.8179899472 0.0237579404
40299760.0 -0.1736304701 0.0572038922 -4.55016e-05 -8.2171e-05 0.000146618 0.000253528 -0.8212867963 0.0332374554
45299730.0 -0.1683654825 0.0594451204 6.75165e-05 -1.56786e-05 -0.0001962216 -2.03947e-05 -0.8252853048 0.042343873
50299700.0 -0.162823215 0.0606977592 -0.0002726982 0.0001388403 8.56475e-05 6.96505e-05 -0.8276775118 0.0526695303
55299670.0 -0.1582354874 0.0618999996 7.10694e-05 -2.2199e-06 -0.0001771798 9.5604e-06 -0.8296385778 0.0628845992
60299640.0 -0.1537579186 0.0621348219 8.35282e-05 6.21626e-05 -4.9206e-06 -3.17697e-05 -0.830932402 0.0730605562
65299610.0 -0.1499686019 0.0627443611 7.44333e-05 3.8658e-06 2.324e-06 -0.0001595474 -0.831147661 0.0828648658
70299580.0 -0.1463767068 0.0628339034 8.4128e-06 0.0002897881 -8.2505e-06 -0.0001450916 -0.8323741456 0.0930139185
75299550.0 -0.143166767 0.0624264966 0.0001059554 -8.49069e-05 -6.84028e-05 3.37498e-05 -0.8323375044 0.1024148618
80299520.0 -0.1405042043 0.0626200968 8.64129e-05 -0.0001811973 -0.0001411055 -1.62649e-05 -0.8318627155 0.1123817813
85299490.0 -0.1376941314 0.0623836773 -1.84638e-05 0.0001439057 -0.0001097705 -2.92166e-05 -0.8317053946 0.1221875901
90299460.0 -0.1354602315 0.0623362219 0.0001516865 8.67291e-05 7.91217e-05 -5.319e-07 -0.8304299456 0.1312515658
95299430.0 -0.1334038914 0.0619353639 0.0001605472 0.0002149407 9.10722e-05 3.75663e-05 -0.830180932 0.1413059356
100299400.0 -0.1314707017 0.062142423 0.0001387372 -5.29265e-05 -8.77844e-05 -0.0001112027 -0.8286349697 0.1496278717
105299370.0 -0.1298679107 0.0615782634 9.61765e-05 6.9133e-06 3.56328e-05 -0.0001538592 -0.8271854016 0.1593418046
110299340.0 -0.1284914765 0.0614041551 -0.0001913823 9.44118e-05 4.76547e-05 -0.0001428396 -0.8269337298 0.1686219728
115299310.0 -0.1267743716 0.0611195846 3.54915e-05 -0.0001421168 -2.56309e-05 0.0001320483 -0.8248600281 0.1767492276
120299280.0 -0.1256128573 0.0612780037 -5.82052e-05 -8.7917e-06 -0.0001653934 1.12914e-05 -0.8237066616 0.1866320533
125299250.0 -0.1247576873 0.0610987055 -0.0001249687 6.13205e-05 3.26221e-05 7.65015e-05 -0.8220528571 0.1954097205
130299220.0 -0.1233331258 0.0612416366 -2.09578e-05 0.0002497609 -1.78321e-05 3.38183e-05 -0.8198192175 0.2044120865
135299190.0 -0.1223255713 0.0611327258 0.0003112908 -5.11938e-05 3.69593e-05 2.17239e-05 -0.8180067084 0.2128169129
140299160.0 -0.1215663506 0.0612809691 -2.31604e-05 3.09003e-05 -0.000113011 0.000174378 -0.8158577735 0.2213007078
145299130.0 -0.1204964361 0.0614697034 -3.65384e-05 3.23317e-05 -4.58053e-05 0.0001346762 -0.8137437895 0.2298910247
150299100.0 -0.1201382634 0.0615779696 -0.0001078164 0.0001545221 6.11064e-05 5.19532e-05 -0.8118817423 0.2386500883
155299070.0 -0.1193334438 0.0620077876 6.56561e-05 2.40375e-05 0.0001397179 7.38729e-05 -0.8092808153 0.2475320316
160299040.0 -0.1186531366 0.0622137119 -8.05645e-05 -5.08861e-05 8.15238e-05 3.77892e-05 -0.8071522257 0.2564173524
165299010.0 -0.1180466698 0.0625037705 0.0001446322 0.0001817288 0.0001449831 -2.8855e-06 -0.8044106128 0.2649045619
170298980.0 -0.1176272114 0.0626753171 -0.0001090464 4.45134e-05 3.66897e-05 0.0001279938 -0.8020074915 0.2734653707
175298950.0 -0.1167898607 0.0635299212 -6.3901e-05 0.0002068327 0.000275637 1.46478e-05 -0.7989618383 0.2819904601
180298920.0 -0.1164274999 0.0635576194 7.23498e-05 3.08012e-05 -8.67757e-05 0.0001626204 -0.7960106385 0.2902324806
185298890.0 -0.1159021324 0.0642543554 -9.5677e-06 0.0001710283 -0.0001722781 9.00272e-05 -0.7930723343 0.2988022704
190298860.0 -0.1152830156 0.0647157062 0.0001478292 0.0001274839 4.75335e-05 2.77558e-05 -0.7893924923 0.3074125961
195298830.0 -0.1145401464 0.0651496012 9.95871e-05 8.80723e-05 0.000184471 0.0001106628 -0.786650227 0.3155221096
200298800.0 -0.1144070973 0.0661016351 -9.89345e-05 -0.000194073 3.1336e-06 5.53447e-05 -0.7833008049 0.3239767749
205298770.0 -0.1138324615 0.0665869905 0.0002102317 0.0001043505 -3.50979e-05 4.22771e-05 -0.7797687151 0.3322406149
210298740.0 -0.1131810509 0.0672727454 -0.0001090735 2.31449e-05 6.14471e-05 0.0001511814 -0.7768781016 0.3404236086
215298710.0 -0.1129840974 0.0679358387 7.4546e-05 -5.9858e-06 -6.22144e-05 7.25406e-05 -0.7734272981 0.3479007693
220298680.0 -0.1126088442 0.0685255327 4.05956e-05 0.0001539149 4.3265e-06 -3.31764e-05 -0.7693391141 0.3570770925
225298650.0 -0.1118840511 0.0692539165 0.0001020767 -2.93771e-05 0.0002086149 -3.72177e-05 -0.7655751606 0.3647671167
230298620.0 -0.1114780299 0.0699862734 -4.13285e-05 0.0002297347 -6.8e-05 2.89031e-05 -0.761367259 0.3731503248
235298590.0 -0.1112069602 0.0707783933 0.0002643999 8.54767e-05 -0.0001048509 0.0002181112 -0.7577056256 0.3810205519
240298560.0 -0.1106223124 0.0717048898 0.0001246216 -4.20877e-05 1.15406e-05 0.0001534147 -0.7542873349 0.3887494866
245298530.0 -0.1100191286 0.0721705793 0.0003424586 0.0002049059 3.81529e-05 -3.72271e-05 -0.7500918995 0.3965817788
250298500.0 -0.1096598745 0.0729331634 0.0001259579 5.02482e-05 -1.58366e-05 0.0001591321 -0.745997283 0.405009371
255298470.0 -0.1091912155 0.0741515056 0.0003307397 -1.52426e-05 0.0001698351 0.0001331393 -0.741417374 0.4128033669
260298440.0 -0.1083156559 0.0749675566 -3.8672e-06 -7.5648e-05 9.09827e-05 0.0002151211 -0.7369713079 0.4204443676
265298410.0 -0.1083326465 0.0757598536 0.000110085 0.000202738 1.24442e-05 0.0001032163 -0.7326650683 0.4276368572
270298380.0 -0.1076076551 0.0768878592 0.0001711602 0.0002683536 4.93215e-05 0.0001016661 -0.7277942271 0.4356050499
275298350.0 -0.1069352959 0.0776876322 -6.92437e-05 0.0001126184 -0.0001598382 0.0001511321 -0.7227917604 0.4429393682
280298320.0 -0.1068497595 0.0784982674 0.000280189 0.0001060719 -0.0001244089 0.0001131436 -0.7185294425 0.4505552643
285298290.0 -0.1059865535 0.0794609988 0.0002069532 -3.72826e-05 0.0001339385 0.0002249416 -0.7134912499 0.458394818
290298260.0 -0.105335453 0.0804334621 9.81512e-05 4.8734e-05 -6.7766e-06 2.89752e-05 -0.7088792682 0.4658528143
295298230.0 -0.1047053017 0.0812953507 0.0002537909 -8.62344e-05 0.0001181897 -0.0002043841 -0.7037134237 0.4725802932
300298200.0 -0.1039995537 0.0817797739 0.0001520807 0.0003583338 0.0002657874 -2.20247e-05 -0.6987322122 0.480094901
305298170.0 -0.1030593306 0.0828154696 1.29731e-05 -1.09341e-05 0.00012648 3.92225e-05 -0.6936972453 0.4878302872
310298140.0 -0.1030383689 0.0835711498 -6.4603e-05 7.69952e-05 0.0001654406 0.0001289682 -0.6886672132 0.4948374559
315298110.0 -0.1026599762 0.0845320208 0.0001869471 0.0001629539 0.0001569066 4.02906e-05 -0.6831718319 0.5018812921
320298080.0 -0.1018027866 0.0855327641 0.0001318695 0.0001804143 9.22047e-05 0.0003296275 -0.6778479267 0.5093651844
325298050.0 -0.1016545252 0.0860156087 -5.02143e-05 3.63774e-05 0.0001699063 3.44399e-05 -0.6721960538 0.5162687356
330298020.0 -0.1009829525 0.0872790322 0.0001303301 2.77518e-05 0.0002377766 0.0002057804 -0.666457188 0.522935022
335297990.0 -0.100383789 0.0881875315 -1.54136e-05 0.0001209652 0.0001026163 -7.24882e-05 -0.6609867117 0.5300063841
340297960.0 -0.099859854 0.0894430283 0.0002138498 -4.61698e-05 0.0002237622 0.0001102735 -0.6552655775 0.5375099175
345297930.0 -0.0994652258 0.0902019193 1.87257e-05 0.0001276735 0.0001220459 0.0001204301 -0.6498160835 0.5443418137
350297900.0 -0.0985436689 0.0912019043 0.0001032365 0.0001919227 7.38899e-05 0.0002413594 -0.6440576172 0.5509776359
355297870.0 -0.0982746919 0.0922295396 0.000162048 0.0002386909 0.0001264472 -6.58755e-05 -0.6382456094 0.557031991
360297840.0 -0.0973229796 0.0931551768 0.0001163955 0.000198578 -2.59455e-05 7.47213e-05 -0.6321277849 0.5640675182
365297810.0 -0.0965006553 0.0939706165 -4.04677e-05 0.0001252858 0.0002583566 8.64864e-05 -0.6261584981 0.5710282094
370297780.0 -0.0959528905 0.0950833214 0.0001591828 -3.26573e-05 0.0001027198 -4.33322e-05 -0.6205431245 0.5763307547
375297750.0 -0.0953377469 0.0964512914 0.0001951914 0.0001611661 0.0001707894 -1.08849e-05 -0.6138896759 0.5827697506
380297720.0 -0.0942262558 0.0972998879 -2.81206e-05 0.0002520105 2.76403e-05 4.21372e-05 -0.607634724 0.5902864292
385297690.0 -0.0936070829 0.0983918851 0.0002191344 -0.0001063883 -9.24887e-05 0.0001980927 -0.6019910616 0.5960020021
390297660.0 -0.0927415178 0.0992569256 0.0001444934 5.6149e-05 1.68926e-05 0.0002008797 -0.5950078264 0.6020824868
395297630.0 -0.0919377526 0.1003575533 0.0002704564 0.000133436 3.12992e-05 0.0001144666 -0.5892497036 0.608339249
400297600.0 -0.0911816991 0.1013953673 0.0001397481 7.30774e-05 0.0002722061 0.0002550195 -0.5830197597 0.6138025443
405297570.0 -0.0904634752 0.1023820079 5.97631e-05 0.0001830273 5.79124e-05 4.89988e-05 -0.576966367 0.6202589444
410297540.0 -0.0895867471 0.1032437257 -0.0001629643 -7.8648e-05 0.0003441478 5.12472e-05 -0.5699658139 0.6257556104
415297510.0 -0.0883363569 0.1042866552 0.0001919363 -3.74216e-05 0.0001606579 0.0002037948 -0.5630300556 0.6320744478
420297480.0 -0.08779276 0.1048101177 0.0001409326 0.0001075588 2.69173e-05 0.0001211737 -0.557009543 0.6365008903
425297450.0 -0.0867935075 0.1060985206 0.0002268143 0.0001770303 0.0002093917 4.97366e-05 -0.550184083 0.6430864142
430297420.0 -0.0862787472 0.1069934891 0.0001632526 5.40813e-05 0.0002440818 6.94e-05 -0.5439403501 0.6484082219
435297390.0 -0.0850927411 0.108249551 0.0002645543 -5.72667e-05 0.0002392761 9.66491e-05 -0.5365358606 0.6535551723
440297360.0 -0.0842145998 0.108954544 0.000274444 -0.0002305528 4.53749e-05 0.0001899702 -0.5302479532 0.6590922899
445297330.0 -0.0833883217 0.1099820844 0.0001710377 1.99074e-05 0.0002350451 -0.0001045368 -0.523460721 0.6645525991
450297300.0 -0.0824828124 0.110874697 0.0001276384 3.08444e-05 0.0001415653 0.0001044047 -0.5169861288 0.6694138643
455297270.0 -0.0815730716 0.1117273507 0.0001899487 0.0001011299 8.04484e-05 0.0001486207 -0.5097616015 0.6749811195
460297240.0 -0.0806641642 0.1129985198 0.0002108743 5.58538e-05 0.0002906907 -0.0001336748 -0.5022693736 0.6802778778
465297210.0 -0.0795154271 0.1137808275 4.52568e-05 0.0001627486 0.0001418887 7.05262e-05 -0.4960558497 0.6849624826
470297180.0 -0.0786416919 0.1146844137 0.0001090038 1.86724e-05 0.0001201522 0.0001629285 -0.4892501325 0.6897037059
475297150.0 -0.0775813616 0.1153019879 0.0004350049 1.62023e-05 8.52773e-05 -0.0002329599 -0.4816467697 0.6949969175
480297120.0 -0.076750062 0.116344834 0.0003249538 3.39293e-05 0.0001074583 -7.2618e-06 -0.4750939793 0.7001090741
485297090.0 -0.0755827037 0.1175615912 0.0003343342 8.32589e-05 0.0002679056 -5.10089e-05 -0.4679190196 0.7041731439
490297060.0 -0.074546867 0.1180721456 0.0002683766 -7.25473e-05 0.0001800665 0.0001206887 -0.4605007281 0.7083628166
495297030.0 -0.0735262963 0.1189917828 0.000374648 0.0001485556 8.78771e-05 9.63101e-05 -0.4530726965 0.712712644
500297000.0 -0.0724039375 0.119735667 0.0002567914 0.0002007499 4.01002e-05 0.0001624929 -0.4464350986 0.7179115409
505296970.0 -0.07140245 0.1208156813 0.0004129022 -3.70832e-05 0.0003249824 -8.309e-07 -0.4397684133 0.7219548567
510296940.0 -0.0704067446 0.1216752066 7.0371e-05 0.000226047 0.0002989834 6.34881e-05 -0.4320794996 0.7263241161
515296910.0 -0.0695014201 0.1225318704 0.0002594965 -0.0001913724 0.000193183 -7.14153e-05 -0.4247219057 0.7308804179
520296880.0 -0.0682014337 0.1234562396 0.0003269195 0.0002894227 0.0002848957 -2.31501e-05 -0.417428411 0.7346736709
525296850.0 -0.0670670658 0.124245604 0.0002212072 -2.81585e-05 0.0001325887 7.42411e-05 -0.4096521572 0.7395629507
530296820.0 -0.0661070765 0.125012895 0.0002609822 0.0001917813 0.0002204937 -9.26086e-05 -0.4033488233 0.7431762057
535296790.0 -0.0647252476 0.1258881018 0.0001452536 0.0003316941 0.0001814074 0.0001699274 -0.3953494553 0.7462625734
540296760.0 -0.0636765704 0.1264706773 0.0003999078 0.0001205304 4.14625e-05 1.59378e-05 -0.3881525933 0.7509008617
545296730.0 -0.062708435 0.1274141456 0.0003013483 -0.0001844337 9.27624e-05 -2.33396e-05 -0.3804684478 0.7539946882
550296700.0 -0.0616607522 0.1281855376 0.0002514834 5.14753e-05 0.0001005294 0.000331843 -0.3730492856 0.7580513358
555296670.0 -0.0601811689 0.1289012352 0.0002277018 -9.03826e-05 0.0002516138 2.87989e-05 -0.3649220938 0.7621125255
560296640.0 -0.0589514746 0.1295955947 0.0002652559 0.0001429164 0.0003461204 4.5505e-05 -0.3577244958 0.7659330157
565296610.0 -0.0577234077 0.1305073188 0.0002106933 -7.46495e-05 0.0001484938 3.24749e-05 -0.3497053838 0.7689936853
570296580.0 -0.0564716344 0.1310907824 0.0002332403 0.0002338998 0.0001484189 0.0002007989 -0.3432094983 0.7723683828
575296550.0 -0.0552065628 0.13193112 0.0001422447 0.0001505984 0.0001111661 0.0002679424 -0.3344351616 0.7761975501
580296520.0 -0.0540847662 0.1325821731 0.0001314623 -0.0001040715 0.0002549252 -0.000161896 -0.3270736165 0.7793754288
585296490.0 -0.0531932989 0.1332033447 -5.20046e-05 -6.7804e-06 0.0002365415 -0.0002751109 -0.3192248576 0.7814195275
590296460.0 -0.0520819189 0.1339055718 0.0002430708 -7.19668e-05 0.0002703837 3.71553e-05 -0.3116972544 0.7852206217
595296430.0 -0.0504518011 0.1347677524 0.0001961211 -2.5022e-06 0.0004268342 -7.47396e-05 -0.3032909557 0.7875785544
600296400.0 -0.049304578 0.1353631154 0.0001237716 8.23646e-05 4.34957e-05 0.0001082351 -0.2959129754 0.7913688047
605296370.0 -0.0479908789 0.1358509386 0.0002921485 -8.21429e-05 0.0002436033 -0.0001165367 -0.2884421104 0.7940668942
610296340.0 -0.0469039882 0.1364102506 0.000302956 0.0001325112 0.0003142676 0.0001409065 -0.2798219756 0.7969687485
615296310.0 -0.0455894592 0.1375292612 0.000183186 5.94785e-05 0.0002922615 0.0001872986 -0.2727803307 0.7992246917
620296280.0 -0.0442086791 0.137988378 0.0004325862 0.0002779236 0.0003025776 -0.0001081717 -0.2645463712 0.801560414
625296250.0 -0.0429911651 0.138441155 0.0004225213 -0.000161549 0.0002744217 5.30629e-05 -0.2564719973 0.8052191854
630296220.0 -0.0417752438 0.1394268816 0.0002372589 0.0002051245 5.62643e-05 0.0001302645 -0.2483134077 0.8075471056
635296190.0 -0.0407245951 0.1396873034 0.0004147957 7.92744e-05 0.0003847659 -5.8542e-05 -0.2407450719 0.809271794
640296160.0 -0.0392012504 0.1403471199 0.0001343301 0.0001770981 0.0002206884 2.8821e-06 -0.2326078023 0.8118147231
645296130.0 -0.0378710271 0.1409754409 0.000163453 -0.0001396395 0.0003245567 -3.88188e-05 -0.2249006773 0.8140609726
650296100.0 -0.0364936904 0.1417902488 0.0001868267 6.67312e-05 0.000323484 2.52812e-05 -0.216267932 0.8164069888
655296070.0 -0.035284958 0.1419052287 0.0001490846 0.0001737271 0.0003202078 -8.0997e-06 -0.2085162571 0.81836768
660296040.0 -0.0340625337 0.1427759413 0.0001535029 0.0001995252 4.0561e-05 0.0001403279 -0.2002382487 0.820737005
665296010.0 -0.0325854508 0.142964762 -2.28886e-05 -0.0001391283 0.0002410677 -0.0001057059 -0.1927540052 0.8222473865
670295980.0 -0.0309516348 0.1434871942 0.0002609566 5.04334e-05 0.000106164 0.0001607271 -0.1852899258 0.8237193743
675295950.0 -0.0296960546 0.1439401401 0.0001643534 1.3663e-06 0.0002187713 0.0001173201 -0.1761428306 0.8263805576
680295920.0 -0.0284921537 0.14443037 0.0001503635 3.50125e-05 0.0002814478 0.0001171876 -0.1675634773 0.8275918871
685295890.0 -0.0269352617 0.1451604227 0.000232452 7.79736e-05 0.0002945709 -1.70063e-05 -0.159621565 0.8291165738
690295860.0 -0.0256103887 0.1454622069 0.0004263489 0.0001549341 0.0002494906 -8.25309e-05 -0.1508713207 0.830366447
695295830.0 -0.0242492922 0.145959122 0.0003091924 1.44572e-05 0.0001483911 -8.39841e-05 -0.1435018593 0.8324794552
700295800.0 -0.0229876286 0.1462929595 1.63837e-05 -0.0002747365 0.0002098547 -6.72806e-05 -0.1351365918 0.8330901265
705295770.0 -0.0213959692 0.1468680414 0.0001024978 8.71368e-05 0.0003902603 0.0001217957 -0.127398417 0.8354115664
710295740.0 -0.020021348 0.1474142693 0.0002049474 -1.99763e-05 0.0003445083 -0.0001345834 -0.119110484 0.8366343016
715295710.0 -0.0190216687 0.1475398171 7.42856e-05 -3.08656e-05 0.0003253081 5.12196e-05 -0.1102047689 0.8375097032
720295680.0 -0.0175689986 0.1478306784 0.0003010355 -2.10708e-05 0.0001692425 0.0001257809 -0.1018121872 0.8383291426
725295650.0 -0.0160306606 0.1483948278 -7.2395e-05 -5.39447e-05 0.0002179223 -0.0001070374 -0.0934431686 0.8391319605
730295620.0 -0.0144587281 0.1486737654 0.0004664689 -3.38645e-05 0.0002358134 0.0001042376 -0.0852753745 0.8400257756
735295590.0 -0.0128138616 0.1490906505 0.0003267163 -1.74045e-05 0.0003669887 -0.0001165936 -0.0767238335 0.8404608834
740295560.0 -0.0115325347 0.1497368687 0.000364349 -0.0001532285 0.0002378054 -1.14289e-05 -0.0692723648 0.8412019342
745295530.0 -0.0104640253 0.1498529903 0.0002815762 -0.0001022515 0.0002828393 4.55834e-05 -0.0605368017 0.8419696642
750295500.0 -0.0089472752 0.1499673537 0.000224151 -0.0001802618 0.0002245112 -0.0002443783 -0.0520996967 0.8422459448
755295470.0 -0.0070527886 0.1505184522 0.0001639713 -4.08203e-05 0.0003931939 3.66455e-05 -0.0443872432 0.8432873181
760295440.0 -0.0059218841 0.150779341 0.0002898366 7.0454e-06 0.0001331884 5.49019e-05 -0.0357750345 0.8436371521
765295410.0 -0.0047885612 0.1507447169 1.34717e-05 -0.0003332344 0.0002680275 -0.0001973066 -0.0267846887 0.8441602241
770295380.0 -0.003224379 0.1512270166 0.0002375063 -4.89815e-05 0.0002277813 3.3145e-05 -0.0186281168 0.8441296282
775295350.0 -0.0017311568 0.1514048193 0.0001450684 -0.000172504 0.0003735724 -3.62133e-05 -0.010923266 0.8436805379
780295320.0 -0.0002764165 0.1515427435 1.7322e-06 3.08613e-05 0.0001133349 0.0001660313 -0.0030141685 0.8448815506
785295290.0 0.0013358476 0.1519558597 0.0002099061 -3.84796e-05 0.0002312195 -3.50717e-05 0.0053235388 0.8441987271
790295260.0 0.0027580008 0.1521972725 0.0001136031 0.0001470362 0.0002604841 -8.221e-07 0.0148028602 0.8447072036
795295230.0 0.0041402688 0.1524848145 0.0003577131 -6.62936e-05 0.0003062203 2.25693e-05 0.0228246418 0.8446347147
800295200.0 0.0056904321 0.1529304033 0.000247318 0.0001747071 0.0001007665 7.93214e-05 0.0303846942 0.8436686086
805295170.0 0.0071330706 0.1527064849 0.0001258077 1.28446e-05 0.0004374704 3.63421e-05 0.0390322994 0.8431567343
810295140.0 0.0087551796 0.1529028117 0.0001801957 -0.0001215559 0.0002836112 1.12785e-05 0.0471210543 0.8440935284
815295110.0 0.0101914035 0.1528211274 0.0001318149 -0.0001742102 0.0003727869 -0.0001735396 0.055289034 0.8426916324
820295080.0 0.0118596232 0.1528419303 0.0002876187 -7.8288e-05 0.0001722018 -4.14113e-05 0.0638307883 0.8420280692
825295050.0 0.0132156135 0.1530570362 0.0003518487 -0.0001708629 0.0002697823 -2.35061e-05 0.0723076685 0.8417262371
830295020.0 0.0148221696 0.1532491212 0.0002093224 0.0001560409 0.0002048288 -0.0002370278 0.080376883 0.8406083069
835294990.0 0.0160548443 0.1536244814 0.0003452439 -0.0002851578 0.0001504666 -0.0001896846 0.0884570534 0.8399265747
840294960.0 0.0176577867 0.1531611027 0.000257231 -0.000165877 0.0002852941 4.75152e-05 0.0966918143 0.8391540488
845294930.0 0.0192426453 0.1536592298 -0.0001088708 0.0001603579 0.0002792196 2.53071e-05 0.1048613552 0.838019599
850294900.0 0.020777837 0.1533264265 0.0004987762 -0.0002815028 0.0001696863 -4.55743e-05 0.1128126614 0.8367382759
