!Created with skrf (http://scikit-rf.org).
# Hz S RI R 50.0 
!freq ReS11 ImS11 ReS21 ImS21 ReS12 ImS12 ReS22 ImS22
300000.0 -0.7772547961 -0.0924540404 -0.0006517315 0.0015446853 -0.0002716337 0.0009300032 -0.2110974753 -0.0812596164
5299970.0 -0.7851768425 -0.0053838382 2.58952e-05 -0.0001058394 -7.59493e-05 3.06844e-05 -0.2147403274 0.0084281359
10299940.0 -0.7881170465 -0.0035499629 -7.68271e-05 3.46658e-05 0.0001670171 6.30717e-05 -0.2110245141 0.0213624823
15299910.0 -0.7929366461 -0.002110753 -0.0001121447 -2.2145e-06 6.61912e-05 -0.0001105176 -0.2060337617 0.0310728903
20299880.0 -0.8001642994 0.0020338074 -0.0001087068 9.29723e-05 -2.71739e-05 -8.01709e-05 -0.2001835051 0.0394000331
25299850.0 -0.8064670064 0.0079327596 -0.0001881587 -0.0001353294 5.20666e-05 7.22455e-05 -0.1938169515 0.0456325269
30299820.0 -0.8124671699 0.0154676523 -8.62335e-05 -5.13924e-05 8.56669e-05 0.0001710563 -0.1871906934 0.0506915549
35299790.0 -0.8172233012 0.0245852022 -4.28963e-05 -3.40942e-05 -0.0001837063 -1.53295e-05 -0.1808772651 0.054767357
40299760.0 -0.8213700217 0.0339158605 -8.12185e-05 3.31223e-05 -0.0001647185 -0.0001169592 -0.1748639309 0.0573308273
45299730.0 -0.824853203 0.0430933386 -1.09244e-05 5.4957e-05 8.71972e-05 0.0001392222 -0.1696303188 0.0599602114
50299700.0 -0.8272376084 0.0530574251 -0.0001763472 -4.59478e-05 5.0292e-06 -0.0001760641 -0.1640004168 0.0609627895
55299670.0 -0.8290736813 0.0633313378 1.64991e-05 -0.0001583981 7.75357e-05 -4.51585e-05 -0.1594140434 0.0617970162
60299640.0 -0.8305105045 0.0733956867 0.0001860612 0.0001096961 -0.0001501684 -3.81311e-05 -0.1549323565 0.0623049806
65299610.0 -0.8307592505 0.0831083814 -3.594e-05 0.0002134428 -0.0002777061 -2.82275e-05 -0.151442279 0.06252667
70299580.0 -0.8316483377 0.0935428038 0.0001619273 2.48941e-05 -0.0001091878 -6.24146e-05 -0.1478866416 0.0628269124
75299550.0 -0.8319628706 0.1037720478 0.0001524444 -0.0001642676 7.51878e-05 0.0001076965 -0.1446934 0.0624288882
80299520.0 -0.8315539765 0.11361738 -0.0002405351 -5.58667e-05 3.894e-05 -4.58276e-05 -0.142080835 0.0627333929
85299490.0 -0.8309347499 0.122576191 -0.0001001793 -4.34019e-05 8.17122e-05 -1.75744e-05 -0.1397152643 0.0623792526
90299460.0 -0.8301947252 0.1322481635 -3.92096e-05 4.60518e-05 5.81401e-05 0.0001105703 -0.1369023294 0.062300912
95299430.0 -0.8286516783 0.1413072046 5.49764e-05 3.64743e-05 9.10248e-05 4.26006e-05 -0.1348682756 0.0621850064
100299400.0 -0.8282701279 0.1512942829 0.0001806541 4.9699e-06 0.0001654111 0.0002580069 -0.1326951168 0.0614581423
105299370.0 -0.8269834354 0.1602588391 -0.0001414078 0.0003873286 -2.92788e-05 1.31758e-05 -0.1307323261 0.0615868915
110299340.0 -0.8252007564 0.1694754434 3.13092e-05 -0.0001127804 0.0002548287 -8.0604e-06 -0.1295553134 0.061198887
115299310.0 -0.8235969171 0.1782437324 8.07024e-05 0.0002730376 -6.38644e-05 0.0001700414 -0.1277720083 0.0615140313
120299280.0 -0.8217536835 0.1873506031 7.71053e-05 8.28818e-05 7.44925e-05 5.95463e-05 -0.1266176133 0.0610775334
125299250.0 -0.8206111178 0.19621397 3.43621e-05 1.70793e-05 1.06769e-05 0.0003257846 -0.1255347337 0.0606144435
130299220.0 -0.8184941397 0.2054879974 -0.0001474408 -3.28684e-05 8.0907e-05 4.65099e-05 -0.1246111907 0.0606785178
135299190.0 -0.8167963397 0.2141721437 0.0002521559 0.0001234918 9.37089e-05 3.09689e-05 -0.1234140893 0.0607861924
140299160.0 -0.8144277087 0.223413821 0.0002069378 0.0001380822 -0.000100007 0.0001444273 -0.122337653 0.0613526691
145299130.0 -0.8126274293 0.2324525526 -9.39548e-05 -2.74089e-05 2.88289e-05 -3.17422e-05 -0.121658735 0.0614628144
150299100.0 -0.8102362196 0.2407673438 2.23227e-05 6.2045e-06 0.0002187288 5.06161e-05 -0.1207974972 0.0619657744
155299070.0 -0.807514056 0.2498876165 -2.32816e-05 9.36745e-05 -3.40397e-05 -4.2987e-06 -0.11979716 0.0622789806
160299040.0 -0.8055659323 0.2583721883 0.0001102869 0.0001221394 -5.40835e-05 -0.0001144868 -0.1196376944 0.062533717
165299010.0 -0.8027786264 0.2666902217 -1.58278e-05 -5.05884e-05 -6.89189e-05 0.0001635524 -0.1186701124 0.0630273348
170298980.0 -0.7996289055 0.275450863 5.64943e-05 2.0608e-06 8.10437e-05 -6.75348e-05 -0.1181817204 0.0633019317
175298950.0 -0.7971420348 0.2844614198 5.467e-07 -1.69847e-05 -2.06231e-05 -9.20833e-05 -0.117732498 0.0639648679
180298920.0 -0.7946751321 0.2928310069 7.66165e-05 2.51344e-05 -0.0001113143 0.0001500451 -0.1171161885 0.0645675065
185298890.0 -0.7912063356 0.3012545867 -2.19134e-05 0.0002799752 2.98842e-05 4.28147e-05 -0.1163946952 0.0650335225
190298860.0 -0.7885662955 0.3100042206 -0.0001371036 -5.26062e-05 4.96804e-05 0.0001863988 -0.1159453933 0.0659276844
195298830.0 -0.7849202523 0.3180447469 1.76407e-05 0.000138392 0.0001189289 4.43599e-05 -0.11558709 0.0660764084
200298800.0 -0.7813736471 0.3260451928 8.71619e-05 -2.92453e-05 4.57766e-05 1.18541e-05 -0.1152660789 0.0667688093
205298770.0 -0.7782567432 0.3344265048 0.0001143116 8.5798e-06 -1.72344e-05 4.1543e-06 -0.1148629335 0.0674570873
210298740.0 -0.7745685416 0.3424095589 -0.0001568411 8.21097e-05 4.78907e-05 0.0002565502 -0.1142500889 0.0680588399
215298710.0 -0.7715391987 0.3504642285 -8.30777e-05 0.0001506416 4.83533e-05 1.54842e-05 -0.1141451612 0.0687165165
220298680.0 -0.7671112611 0.3589045193 4.0889e-06 -0.0001353259 6.74226e-05 -0.000117827 -0.1137797009 0.0694830513
225298650.0 -0.7642849789 0.3663606729 -8.25607e-05 0.0001442364 -5.2075e-05 -0.0002288925 -0.1133544577 0.0702988012
230298620.0 -0.7601401532 0.3749564034 -2.79376e-05 -0.000183365 0.0003357295 6.76039e-05 -0.1127035987 0.0708445394
235298590.0 -0.7560733342 0.383705784 -3.67591e-05 0.0001624789 7.62485e-05 2.13102e-05 -0.1123755492 0.0717977413
240298560.0 -0.7524240386 0.3913298093 -0.0001011361 5.6034e-05 7.63446e-05 0.0001324298 -0.1120348018 0.0725577416
245298530.0 -0.7486153098 0.3994026365 -9.09522e-05 4.3963e-05 0.0001942977 6.11376e-05 -0.111711932 0.0731024766
250298500.0 -0.7445207742 0.4068451227 -1.57956e-05 0.0002435102 -3.36502e-05 0.0001362342 -0.1116350434 0.0737024902
255298470.0 -0.7389068103 0.4140438397 0.0002838814 -8.36391e-05 9.80073e-05 0.0001222485 -0.1108492666 0.0745440231
260298440.0 -0.7353513813 0.4214685931 0.0001974835 -4.70579e-05 0.0001076751 -3.56748e-05 -0.1100833341 0.0756198602
265298410.0 -0.7310167832 0.429838132 0.0001457759 8.48638e-05 -2.05705e-05 -6.5657e-06 -0.1095503871 0.0764560802
270298380.0 -0.7270482137 0.4373038684 2.82755e-05 0.0001947199 0.0001809338 9.81014e-05 -0.1089874368 0.077078623
275298350.0 -0.7219048324 0.4449847544 -3.58807e-05 0.0002817609 6.55673e-05 3.50033e-05 -0.1084854702 0.0779829867
280298320.0 -0.717032937 0.452452345 0.0002043684 0.0001187614 4.18666e-05 9.4712e-06 -0.1078996937 0.0788634222
285298290.0 -0.7126039519 0.4598782726 -3.8197e-05 -4.69965e-05 8.14247e-05 0.0001076154 -0.1072763355 0.0797046691
290298260.0 -0.7075710013 0.4674918055 8.27608e-05 5.18782e-05 1.738e-07 2.80172e-05 -0.1064123192 0.080661815
295298230.0 -0.702406016 0.4744539236 -3.78964e-05 0.0001316068 0.0001270184 0.000252312 -0.1058539204 0.0814343854
300298200.0 -0.6977408249 0.4816843237 0.0001747623 -0.0001216752 0.000263625 4.91699e-05 -0.1053631079 0.0823293482
305298170.0 -0.6927651487 0.4884386684 3.2371e-05 0.0001148062 -1.79122e-05 0.0001763365 -0.104081617 0.0829854092
310298140.0 -0.6873497079 0.4959705706 0.0001104619 -0.0001604681 0.0001165729 9.37781e-05 -0.1042825924 0.0838660888
315298110.0 -0.6826792747 0.502880276 2.19352e-05 0.0001021284 0.0001203637 0.0001918854 -0.1036016227 0.0848277543
320298080.0 -0.6771578248 0.5103778627 0.0001245334 0.000103782 0.0002391066 -4.51839e-05 -0.1029017488 0.0859314707
325298050.0 -0.6715731206 0.5175972214 -2.1405e-06 0.0002225808 -4.2078e-06 0.0001839265 -0.102369859 0.0866977074
330298020.0 -0.6660466441 0.5242242229 2.27683e-05 0.0001077084 0.0001542019 0.000366894 -0.1018990464 0.0880575159
335297990.0 -0.6606873406 0.5308060396 8.4319e-05 -7.905e-06 0.0002934539 9.98017e-05 -0.1014296429 0.0892570218
340297960.0 -0.6554777325 0.5377492549 0.0002681004 0.0002122638 0.0001889478 -0.0001618625 -0.1002530535 0.0900555818
345297930.0 -0.6501219331 0.5442089795 0.0003619619 0.0001949238 0.0001184613 0.0003672678 -0.0999931777 0.0911020027
350297900.0 -0.6442143127 0.5511012747 -4.71481e-05 -6.88931e-05 0.0002059781 1.51882e-05 -0.099663341 0.0926119205
355297870.0 -0.6379656561 0.558124541 0.0001826109 0.0001756271 0.0001585201 -5.86272e-05 -0.0990891196 0.0932851566
360297840.0 -0.6326995029 0.563676472 0.0002142249 0.0001791518 0.000160467 0.0001403541 -0.098442567 0.0944410292
365297810.0 -0.6271775424 0.5704902718 9.41127e-05 0.0002447393 -2.06684e-05 8.23749e-05 -0.0976012251 0.0951501998
370297780.0 -0.6205939019 0.5765910778 0.0002182063 0.0001073736 -4.72024e-05 -0.000125727 -0.0963983312 0.0970227252
375297750.0 -0.6147925973 0.5836250186 0.0002055329 0.0001871407 0.0001785653 4.52573e-05 -0.0961550312 0.0971973076
380297720.0 -0.6081810083 0.5884049144 0.0001532423 5.65374e-05 6.8703e-06 1.6222e-05 -0.0958354047 0.0983745169
385297690.0 -0.6038019527 0.5955709392 0.0001660776 0.0002037324 -8.95464e-05 0.0002738375 -0.0949759359 0.0996460525
390297660.0 -0.597049672 0.6015092933 2.53509e-05 0.0003299331 0.0001659008 -5.97111e-05 -0.0944592836 0.1007220294
395297630.0 -0.590144816 0.6078893509 0.0002338429 3.51782e-05 -0.0002069145 0.0001800637 -0.0931722198 0.1018777622
400297600.0 -0.5842674487 0.6142758008 0.000277178 4.20656e-05 0.0001801247 0.0001165539 -0.0924636113 0.1028531978
405297570.0 -0.5778721172 0.6196792659 2.4827e-06 -3.45623e-05 5.89144e-05 9.44022e-05 -0.0918186576 0.1036568342
410297540.0 -0.5705088387 0.6254511757 0.0001654748 7.10648e-05 9.91781e-05 5.48256e-05 -0.0908892969 0.104619686
415297510.0 -0.5645102506 0.6314035205 -0.0001548976 0.0001358063 -0.0001392868 -1.7009e-06 -0.0900889078 0.1051288644
420297480.0 -0.55890967 0.6373249448 0.000294191 -0.0001451768 3.14954e-05 -0.0002412706 -0.0892244933 0.1066423169
425297450.0 -0.551850508 0.6427460421 4.9194e-06 -6.39183e-05 0.0002002654 4.15708e-05 -0.0884966221 0.1073876088
430297420.0 -0.5450494458 0.6482906337 -1.70675e-05 6.69642e-05 0.0001299917 0.0001938294 -0.0878934769 0.1082628229
435297390.0 -0.538272575 0.6530950724 0.0001777976 0.0001652969 0.0001882617 0.0002471582 -0.0870278679 0.1090311701
440297360.0 -0.532004963 0.6593597152 -1.53079e-05 -2.89561e-05 0.0002954426 2.24081e-05 -0.0858180259 0.1100427239
445297330.0 -0.5246445082 0.6641771111 0.0001391565 0.0001614294 0.0001947726 0.000269804 -0.0848840347 0.1107319929
450297300.0 -0.5180075713 0.6697380989 -3.10059e-05 0.0001582141 0.0003150386 0.0002076622 -0.0838191762 0.1118922591
455297270.0 -0.511026182 0.6748099432 0.0001351313 0.0001882068 2.5948e-06 0.0001039536 -0.0828708278 0.112554206
460297240.0 -0.5049435291 0.6793240866 9.62235e-05 0.0001162186 0.0002360849 -2.13049e-05 -0.08179386 0.1138877551
465297210.0 -0.498010186 0.6854606652 0.0002349766 5.23334e-05 0.000161023 0.0002315265 -0.0808591744 0.1144177358
470297180.0 -0.4898210748 0.690167081 0.0001497772 3.1872e-06 0.00017159 -4.67161e-05 -0.079877916 0.1153743853
475297150.0 -0.4830256456 0.6947791704 0.0001948742 -4.46972e-05 4.38838e-05 5.29497e-05 -0.078542192 0.1161887578
480297120.0 -0.4768114347 0.6993329356 0.0001640751 0.0001554804 6.76365e-05 -4.89422e-05 -0.0777205999 0.1171487604
485297090.0 -0.4682681901 0.7041401989 0.0001570207 0.0001508833 7.96962e-05 -0.0001448375 -0.0766428118 0.1184513232
490297060.0 -0.4620408201 0.7087976868 0.0002286841 -1.9702e-05 0.0001459651 -9.98327e-05 -0.0757341759 0.1191476726
495297030.0 -0.4545401874 0.7134324556 -1.50565e-05 0.0001177479 0.0001857303 2.69781e-05 -0.0745304048 0.1200294213
500297000.0 -0.4474090573 0.7181077442 1.20208e-05 8.27784e-05 0.0002032886 0.0001445959 -0.0733398083 0.1212192019
505296970.0 -0.4404155963 0.7225672175 0.0001586391 5.77131e-05 0.0002990212 -0.0002307987 -0.0725819949 0.1215951718
510296940.0 -0.4329711025 0.7269742653 7.37961e-05 -6.11963e-05 0.0002150299 0.0001211357 -0.071191657 0.1225624884
515296910.0 -0.4242961184 0.7309141243 0.0004955427 3.76529e-05 -1.4163e-06 7.4186e-06 -0.0701921985 0.1236032588
520296880.0 -0.4180657552 0.7353407691 0.0002260486 0.0001189388 0.0001016243 0.0002003049 -0.0691579674 0.1247299032
525296850.0 -0.4102680957 0.7386493065 -5.41914e-05 0.0003297282 0.0002511332 0.0001645611 -0.0682080044 0.125628243
530296820.0 -0.4023486662 0.7434645452 0.0003242831 0.0002011441 -0.000104846 9.56931e-05 -0.0669586658 0.1263365929
535296790.0 -0.3959986438 0.7473685586 0.0002629733 0.0002037011 -1.78362e-05 -1.19738e-05 -0.0661024628 0.1270796651
540296760.0 -0.3879917823 0.7508958906 3.20421e-05 0.0002467499 0.0001805249 0.0001350677 -0.0647959807 0.12840605
545296730.0 -0.3801525193 0.7548727603 0.0003581436 -0.0001278147 0.0002088804 5.5397e-05 -0.0639491392 0.1287434817
550296700.0 -0.3728599567 0.7592118924 0.0002198804 -7.1756e-05 -3.9559e-05 0.000184591 -0.0625249895 0.129721356
555296670.0 -0.3643294727 0.7617831009 0.000164372 1.18798e-05 0.000299578 5.85275e-05 -0.0616660195 0.1307189455
560296640.0 -0.357416687 0.7664080842 0.0001295235 -1.7989e-06 0.0001461859 0.0001716903 -0.0604305854 0.1315291406
565296610.0 -0.3493355374 0.769811707 6.73817e-05 0.0002421803 9.95474e-05 -9.34916e-05 -0.0594794443 0.1322132077
570296580.0 -0.342105608 0.7726679911 0.0002941456 6.06284e-05 0.0001739082 -3.87263e-05 -0.058216583 0.1328326702
575296550.0 -0.3343730784 0.7771404971 0.0004932341 1.66116e-05 0.0001052362 -0.0002031012 -0.057326873 0.1334008614
580296520.0 -0.3258869882 0.7798067881 0.0001593253 -0.0001585321 0.0001053937 8.45805e-05 -0.0558529233 0.1342918713
585296490.0 -0.318923038 0.7824405028 0.0002789072 -0.000158145 0.0002268141 -5.05092e-05 -0.0544492519 0.1349786535
590296460.0 -0.3102836538 0.7862781986 0.0002283361 -0.0001874472 0.000272521 0.000111753 -0.0537979365 0.1359792041
595296430.0 -0.3026426918 0.7884849461 0.0003422909 3.42237e-05 0.000256031 2.6223e-05 -0.0526874072 0.1361770149
600296400.0 -0.29459775 0.7917855061 0.0004408274 -2.82974e-05 0.0002333117 0.0001083791 -0.05134553 0.1368783363
605296370.0 -0.2875773628 0.7942237971 0.0002699555 -0.0002246611 -4.21316e-05 -0.0001255067 -0.0497194651 0.1376866407
610296340.0 -0.278550734 0.7972798413 -8.67349e-05 0.0003193369 0.000281675 9.3142e-06 -0.0486895329 0.1381568804
615296310.0 -0.2698801585 0.799954589 0.000121955 -5.24396e-05 0.0001402503 8.64928e-05 -0.0471345957 0.1384780349
620296280.0 -0.2624012441 0.802080454 5.76334e-05 3.34276e-05 0.0002219753 0.0001116035 -0.0459673383 0.1394053155
625296250.0 -0.2541267152 0.8054045907 2.52043e-05 0.0001864613 0.0002529202 1.25009e-05 -0.0446763867 0.1398075716
630296220.0 -0.2461616449 0.8073464098 4.95363e-05 0.0001457655 0.0002913153 -4.9174e-06 -0.0434071952 0.1406677542
635296190.0 -0.2387202024 0.8103261862 0.0002533554 7.05824e-05 0.0002225048 -3.5314e-05 -0.0421338841 0.1408241171
640296160.0 -0.2309972902 0.8123252109 0.0001198954 1.80623e-05 0.0005081458 0.0001981263 -0.0404520007 0.1416226844
645296130.0 -0.2225940169 0.8151730246 2.3267e-05 7.48807e-05 0.0002827262 0.000110697 -0.0392856667 0.1422691098
650296100.0 -0.2137540969 0.8168890053 0.0002989977 0.0001180433 0.0003806701 -8.29571e-05 -0.0379161854 0.1424281131
655296070.0 -0.2056359324 0.8186059163 0.0001201195 -9.30144e-05 0.0001609263 -3.08414e-05 -0.0364961292 0.1434003665
660296040.0 -0.1979732576 0.8204187423 0.0001223795 -8.39493e-05 0.0003716939 -7.7543e-06 -0.0347845569 0.1440545082
665296010.0 -0.189465629 0.8220473224 0.0002346864 3.08997e-05 0.0003848319 -0.0001142003 -0.0336613563 0.1448200049
670295980.0 -0.1817274906 0.8243780194 0.000181767 0.0001214463 0.0003266001 -0.0001582349 -0.0323795206 0.1454549604
675295950.0 -0.1729468435 0.8266644658 0.0002037474 -4.93161e-05 7.71954e-05 -6.01059e-05 -0.0313780586 0.1455499968
680295920.0 -0.1647298337 0.828329365 0.0003749924 0.0001085212 0.0002094195 1.52666e-05 -0.0293212888 0.146605017
685295890.0 -0.1557810341 0.8305843378 5.2476e-06 4.48071e-05 0.0002836722 6.07688e-05 -0.0283596963 0.1468567809
690295860.0 -0.1483329237 0.8314812025 1.66637e-05 4.16171e-05 0.0003326291 -3.51935e-05 -0.0268345834 0.1478169729
695295830.0 -0.1400952499 0.8321146615 0.0003581679 -0.0001574524 0.0004003826 7.07926e-05 -0.0255511988 0.1483090335
700295800.0 -0.1311119064 0.833563968 6.38603e-05 -0.0001309345 0.0001575369 -6.07815e-05 -0.0244254729 0.1486552985
705295770.0 -0.1236803935 0.8356839393 0.0003641249 0.0001734371 0.0003284987 1.11106e-05 -0.022782284 0.1493710604
710295740.0 -0.1151340101 0.836347722 6.21518e-05 -0.0001402343 0.0002306819 -0.0001651017 -0.0216672319 0.1493567244
715295710.0 -0.1066988533 0.8372293271 0.0002086867 -3.15423e-05 0.0002484738 -0.0002330849 -0.02017228 0.1500469866
720295680.0 -0.0980365927 0.8387302625 0.0002850385 -0.0001656341 -3.74099e-05 0.0001244102 -0.0187238864 0.1503152777
725295650.0 -0.090320038 0.8398267904 0.0004341237 9.44222e-05 0.0004284697 0.0002141609 -0.0179438725 0.1510367699
730295620.0 -0.0814426853 0.8406142964 0.0004977345 -4.861e-06 0.0003983169 -0.0001089033 -0.0162698646 0.1511841816
735295590.0 -0.0735710187 0.8411287705 0.0002476497 -5.2147e-06 0.0001567032 -5.65797e-05 -0.0149157509 0.1516006416
740295560.0 -0.0654975084 0.8420310567 0.0002482489 -3.1397e-05 -1.12951e-05 -2.68358e-05 -0.0129796221 0.1519674438
745295530.0 -0.0568377283 0.843211241 -2.45396e-05 0.000158847 0.000244567 -9.9789e-05 -0.0119794692 0.1520769088
750295500.0 -0.0479904114 0.8428844211 0.000305366 -5.40944e-05 0.0002045642 -5.11601e-05 -0.0105709872 0.1526456322
755295470.0 -0.0405263122 0.8431611203 0.0004792974 -7.93942e-05 0.0002636583 1.63992e-05 -0.0092171116 0.15239574
760295440.0 -0.0320581224 0.8430101005 9.58606e-05 -3.12939e-05 0.0002274211 -8.27368e-05 -0.0078072038 0.1525688953
765295410.0 -0.0235300182 0.8438603596 0.000444373 3.59868e-05 0.0001155997 1.36104e-05 -0.0062146335 0.1530767619
770295380.0 -0.0153389331 0.8442709808 5.29448e-05 5.20765e-05 0.0003120921 -0.0001285118 -0.005126739 0.1533497499
775295350.0 -0.0069168057 0.844344094 8.28911e-05 -3.24166e-05 0.0002520198 6.32776e-05 -0.0039771179 0.1535452934
780295320.0 0.0013228551 0.8442999969 0.000283462 4.47359e-05 0.0003784441 7.44348e-05 -0.0020824121 0.1535368832
785295290.0 0.0095855179 0.8429632312 0.0001965536 -1.5689e-06 0.0001303704 -0.0001310189 -0.000307556 0.1536625792
790295260.0 0.0185871087 0.8436412897 0.0003710068 4.86965e-05 0.0003371782 -0.0002373032 0.0012868403 0.1539831325
795295230.0 0.0260381761 0.8433975312 3.4976e-05 -0.0001231557 0.0003090461 -1.71704e-05 0.0028832962 0.154397173
800295200.0 0.0343159252 0.8433349075 0.0002742244 4.70356e-05 0.000277217 -0.0001127843 0.0037172243 0.1543963028
805295170.0 0.0439163339 0.8432008509 7.86803e-05 -0.0001277248 0.0003202003 -4.0671e-05 0.0056282997 0.1549434673
810295140.0 0.0516767379 0.8422344899 0.0001713041 -9.71939e-05 0.0002080501 -2.56725e-05 0.0073639223 0.154594544
815295110.0 0.0598653648 0.8417279332 0.0001666718 -0.0002294501 0.0003546473 -0.0001335392 0.0088259023 0.1548367431
820295080.0 0.0679475507 0.8414648399 0.0002794656 -4.0903e-06 0.0002584178 -0.0002200553 0.010338968 0.1551245997
825295050.0 0.0774818106 0.8403096578 0.0003270965 -6.1042e-06 0.0005261418 -0.000185279 0.011832228 0.1553203174
830295020.0 0.0844105516 0.8397747207 0.0002255985 -1.49235e-05 0.000169066 -2.58884e-05 0.0137699913 0.1554374289
835294990.0 0.093084842 0.8391590585 0.0003829236 -0.0001912149 0.0003085586 0.0001145342 0.0149590905 0.1556865395
840294960.0 0.1003708909 0.8379923018 0.0002102673 -9.36671e-05 0.0001730184 -0.000193299 0.016497526 0.1556165987
845294930.0 0.1091598908 0.8372138933 0.0002531988 -1.249e-06 0.0002269798 -0.0001002013 0.0177463446 0.1554752308
850294900.0 0.1174379647 0.8362979621 0.0001583882 -2.63221e-05 0.0002311189 1.85838e-05 0.0193830309 0.1557976286
