!Created with skrf (http://scikit-rf.org).
# Hz S RI R 50.0 
!freq ReS11 ImS11 ReS21 ImS21 ReS12 ImS12 ReS22 ImS22
300000.0 -0.1008027071 -0.0652044296 0.6301148507 0.0616502602 0.6234059436 0.0624667614 -0.1005176276 -0.0747775618
5299970.0 -0.102039703 0.0130667105 0.6302421554 0.0095861178 0.6306784739 0.0103911405 -0.1007915779 0.0130978892
10299940.0 -0.0970857165 0.0296288379 0.6333406721 0.0151559254 0.6342735337 0.0155604692 -0.0957983791 0.0301477645
15299910.0 -0.0899669489 0.0423587319 0.6405295889 0.0202084429 0.6408144061 0.0206516776 -0.0884056196 0.043547137
20299880.0 -0.081647005 0.0531573428 0.6483729317 0.0239927431 0.6484809356 0.0242174695 -0.0799826916 0.0546165391
25299850.0 -0.0723499734 0.0622664843 0.6578902524 0.0254584205 0.6574616447 0.0252444045 -0.069751474 0.0633923692
30299820.0 -0.0621611854 0.0688890472 0.6680514706 0.0242973132 0.667384058 0.0247008725 -0.0596869418 0.070278153
35299790.0 -0.0524891746 0.0737135144 0.6771949972 0.0211473189 0.6770390728 0.0213796049 -0.0499429192 0.0749636522
40299760.0 -0.0431577031 0.0772381975 0.6866163697 0.0170120701 0.6862375108 0.0174172312 -0.0402839706 0.0775656447
45299730.0 -0.0341147918 0.0790987124 0.6948670753 0.0111782932 0.6952261803 0.0119667995 -0.0312988419 0.0796085852
50299700.0 -0.0256327305 0.0801235614 0.703424213 0.0051977964 0.7037504635 0.0055886434 -0.0227906528 0.0806060802
55299670.0 -0.0176966054 0.0805026403 0.7115715364 -0.0031055728 0.7106141087 -0.0025612145 -0.0148687619 0.0806954721
60299640.0 -0.0099515485 0.0801269766 0.7177813961 -0.0116462086 0.717555462 -0.0113038941 -0.0074623272 0.0793883838
65299610.0 -0.0037751523 0.0790782428 0.7232323962 -0.0197702921 0.7234922735 -0.0198333945 -0.0009252308 0.078681346
70299580.0 0.0024602629 0.0776219714 0.7286947822 -0.0292851557 0.7283380699 -0.0295604595 0.005011635 0.0768839542
75299550.0 0.0082136774 0.0757577905 0.7325983149 -0.0392947059 0.732568 -0.0391790784 0.0101666438 0.0750581225
80299520.0 0.012982418 0.0735967486 0.7371815484 -0.0486231003 0.7371459429 -0.0489108135 0.0149828997 0.0725867442
85299490.0 0.0178083359 0.0715366367 0.7399585429 -0.0586189849 0.7404288202 -0.0585628673 0.0193386075 0.0700060026
90299460.0 0.0219487276 0.0690704219 0.7430043831 -0.0691323207 0.743607283 -0.0686731852 0.0234770596 0.0680608212
95299430.0 0.0259519628 0.0665175609 0.7460552153 -0.0788883569 0.7458199764 -0.079207941 0.0272669574 0.0655134792
100299400.0 0.0291348984 0.0648247247 0.746810894 -0.0889842492 0.7469341677 -0.0893068193 0.0310433334 0.062683325
105299370.0 0.0325012442 0.0618495959 0.7487313049 -0.0998874992 0.7494581879 -0.0995905031 0.0342451952 0.0608357058
110299340.0 0.0350203578 0.0597465149 0.7503682299 -0.1090954648 0.7497397629 -0.1088142633 0.0359405581 0.0579054391
115299310.0 0.0373629762 0.0572281046 0.75076872 -0.1192796678 0.7505971996 -0.1191533549 0.0388409839 0.0554987013
120299280.0 0.0398839399 0.0546554229 0.7510537689 -0.1292713596 0.7515999638 -0.1293283107 0.0416147627 0.0532618302
125299250.0 0.0417380252 0.0522862839 0.7516302825 -0.1385825328 0.7516699912 -0.1390693087 0.0429592257 0.0501837196
130299220.0 0.043370337 0.0502265551 0.751070469 -0.1491967289 0.751361881 -0.1493740153 0.0447680881 0.0481052769
135299190.0 0.0453476293 0.0481311772 0.7512609065 -0.1587962506 0.7512889648 -0.1589025808 0.0468110855 0.046108677
140299160.0 0.0465401551 0.0461280107 0.7509900248 -0.1690900714 0.7508627219 -0.1688180018 0.0480120733 0.0441943731
145299130.0 0.0482873203 0.0439234612 0.7500526556 -0.1783138214 0.7495148795 -0.1785821534 0.0497142454 0.0420635079
150299100.0 0.0496835461 0.0420042582 0.7485283056 -0.18735379 0.7490057239 -0.187838955 0.0507556324 0.0400855056
155299070.0 0.0504404377 0.0396677468 0.7479134809 -0.1985012011 0.7471910058 -0.1976270721 0.0518303073 0.0384017537
160299040.0 0.0517970725 0.0379547396 0.7462516452 -0.2071808428 0.7457264108 -0.2077429142 0.0522325289 0.0360521928
165299010.0 0.0524207004 0.0363175608 0.7448763683 -0.2170715803 0.7446397652 -0.21720218 0.0536245083 0.0350012648
170298980.0 0.0534435271 0.0339045287 0.74270587 -0.2264321744 0.7428284608 -0.2262221516 0.0540660772 0.0331113701
175298950.0 0.0536893719 0.0321370228 0.7412920808 -0.2351280936 0.7409106378 -0.2353381759 0.0552882253 0.0312328336
180298920.0 0.0544825336 0.0305852808 0.7391741217 -0.2450063544 0.7387499542 -0.2447128902 0.0554606097 0.0297647694
185298890.0 0.055518545 0.0286033108 0.7363335696 -0.2538680317 0.7362028429 -0.253394452 0.0557255775 0.0282613586
190298860.0 0.0554464345 0.0272127641 0.7342103346 -0.2631814043 0.734386768 -0.262887682 0.0563877236 0.0263759049
195298830.0 0.0562024052 0.0253182465 0.7317835895 -0.2720621969 0.7319036109 -0.2714694045 0.0573060837 0.0250612145
200298800.0 0.0563401892 0.024126506 0.7288179512 -0.2811991247 0.7288776753 -0.2814738886 0.0567080299 0.0235142793
205298770.0 0.0568860713 0.0229147644 0.7259357562 -0.2901129424 0.726156527 -0.2894760176 0.0576004127 0.0213585847
210298740.0 0.0571410774 0.0209627945 0.7229213055 -0.2984352747 0.7232718333 -0.2979694876 0.0579281727 0.0212032656
215298710.0 0.0566902488 0.0194143166 0.7203675648 -0.3073676036 0.7203052613 -0.3075088236 0.0577688978 0.0195749616
220298680.0 0.0575868512 0.0175881136 0.716892101 -0.3161847037 0.7166271006 -0.3160475943 0.0576042515 0.0180346113
225298650.0 0.0578855094 0.0166231212 0.7136216522 -0.3248211408 0.7140761794 -0.3247860865 0.057605377 0.0166068412
230298620.0 0.0578303949 0.0157120582 0.7107370527 -0.3327111076 0.7108035185 -0.3329605488 0.0573948973 0.0148942442
235298590.0 0.057892341 0.014581474 0.7071155776 -0.3414855675 0.7067382679 -0.3414748345 0.057744867 0.0137909411
240298560.0 0.0581223364 0.0134661074 0.703737052 -0.3505155146 0.7033741378 -0.3496175211 0.0577157758 0.013119953
245298530.0 0.0578231104 0.0119461278 0.6999804061 -0.358285265 0.6998692396 -0.35821329 0.0583042001 0.0108729873
250298500.0 0.0585041838 0.010865243 0.6949251608 -0.3663782566 0.695171711 -0.3664066062 0.0578291199 0.010436697
255298470.0 0.0583832721 0.0091273991 0.6908370797 -0.3744665365 0.6917899707 -0.3743826072 0.0582758089 0.0089435165
260298440.0 0.0578410357 0.008148524 0.6876354006 -0.3832464859 0.6874859837 -0.3824672902 0.0584771315 0.0077815784
265298410.0 0.0587368478 0.0076000798 0.6833567854 -0.3910644704 0.6840343438 -0.3900763021 0.0581642415 0.0067004654
270298380.0 0.0587626925 0.0061070879 0.6797151061 -0.3984031788 0.6794154799 -0.3984121092 0.0578631366 0.0058736588
275298350.0 0.0589447186 0.0051690254 0.6756608381 -0.4066878072 0.6752600486 -0.4068082688 0.0583539887 0.004407129
280298320.0 0.0586520341 0.0042739705 0.6707414244 -0.4148419078 0.6710836277 -0.4143943445 0.0584739579 0.003446242
285298290.0 0.0586760438 0.0031944376 0.6665259201 -0.4224953024 0.6663872091 -0.4227150911 0.0585528454 0.0021928268
290298260.0 0.0589552915 0.0019261915 0.6615568644 -0.4295947309 0.6619959531 -0.4300711298 0.0584738784 0.0016518018
295298230.0 0.0588260229 0.0007568248 0.6575356053 -0.43766624 0.6574272033 -0.4376011487 0.0592530159 0.0003233577
300298200.0 0.0583811245 -0.0003336688 0.6529771231 -0.4451434074 0.6529754723 -0.4461028546 0.0589094312 -0.0008954816
305298170.0 0.0586099825 -0.0014529481 0.6478430387 -0.4539172744 0.6473573581 -0.4528999259 0.0591819981 -0.0018645277
310298140.0 0.058367584 -0.0023888053 0.6430439789 -0.4612027668 0.6433079353 -0.4607553328 0.0593743371 -0.0030811258
315298110.0 0.0583763105 -0.0041075698 0.6379321928 -0.4682795598 0.6379123404 -0.4683412868 0.0586906824 -0.0043349303
320298080.0 0.0587509877 -0.0049531814 0.6323003897 -0.4767486191 0.6323540663 -0.4758911066 0.0585702631 -0.0051917245
325298050.0 0.0579343634 -0.0061831221 0.6272893659 -0.4838993786 0.6272192742 -0.4835014778 0.0579373956 -0.0064294484
330298020.0 0.0575248077 -0.0075642664 0.6208279379 -0.4911416119 0.6212876819 -0.4909355463 0.0573165295 -0.007689074
335297990.0 0.0570294856 -0.0086493594 0.6157629584 -0.4980074525 0.6156750646 -0.4980437487 0.0565016679 -0.0078311027
340297960.0 0.0560779017 -0.0088833074 0.6100987795 -0.5049519288 0.6096250241 -0.5051296078 0.0569477022 -0.0086142968
345297930.0 0.0558915435 -0.0092365331 0.6036507364 -0.5121167122 0.604195776 -0.5124038876 0.0564522114 -0.0098591081
350297900.0 0.0552014016 -0.0109469913 0.5980002458 -0.5186736802 0.5980204857 -0.5184532947 0.0554649767 -0.0098447601
355297870.0 0.0547760754 -0.0105924351 0.5918770132 -0.5254096035 0.5923478361 -0.5247619346 0.0551238956 -0.0109673737
360297840.0 0.0547042106 -0.0115330817 0.5875468757 -0.5317848743 0.5871602771 -0.5311606158 0.0548835657 -0.0111659133
365297810.0 0.0542413042 -0.0120557926 0.5807041799 -0.5383219086 0.5810953181 -0.5384323964 0.0546495877 -0.0117430156
370297780.0 0.0544507571 -0.0133333001 0.5743037083 -0.5444782645 0.5754840198 -0.544417148 0.0542691516 -0.0119051351
375297750.0 0.0538408536 -0.0137776633 0.5688352997 -0.551325085 0.569684162 -0.551105089 0.0542944967 -0.0127638415
380297720.0 0.053378694 -0.0143350774 0.5624954939 -0.5575003585 0.5626762607 -0.5565216601 0.0533517301 -0.0141417394
385297690.0 0.0529346088 -0.0151303787 0.5562804706 -0.5642120793 0.5560256652 -0.5634227817 0.053316555 -0.0143216576
390297660.0 0.0528137542 -0.015421067 0.5506265243 -0.5703920611 0.5504172941 -0.5697684275 0.0525053253 -0.0152186454
395297630.0 0.0523741839 -0.0159867285 0.5439854314 -0.5760427344 0.5444673527 -0.576265581 0.0531061194 -0.0159473597
400297600.0 0.0517697963 -0.0168184146 0.5371002489 -0.5828315304 0.5371199527 -0.5825014781 0.0523747077 -0.0161927118
405297570.0 0.0510186758 -0.0174803478 0.5305899667 -0.5882014299 0.5308217304 -0.5876558053 0.0516113195 -0.0167422118
410297540.0 0.0513632215 -0.0180250538 0.5246738094 -0.5946306631 0.5247982439 -0.5943555429 0.0514647914 -0.0170473501
415297510.0 0.0512009334 -0.0187970743 0.5181035577 -0.6001198337 0.5181782443 -0.6000675648 0.0510978427 -0.0176581689
420297480.0 0.0510422946 -0.0190481893 0.510883477 -0.6058187471 0.5111227873 -0.6058601059 0.0504723843 -0.0191589919
425297450.0 0.0501354678 -0.0203411863 0.5049416247 -0.6114564481 0.5051311825 -0.6111362126 0.049304531 -0.0192163746
430297420.0 0.0497100192 -0.020976446 0.4977806123 -0.6165707683 0.497981707 -0.6165190997 0.049661582 -0.0201614783
435297390.0 0.0494288648 -0.0212488007 0.4904390213 -0.6226700929 0.4906648441 -0.6224700159 0.0500510231 -0.0208338661
440297360.0 0.0494010099 -0.0216916795 0.4839080517 -0.6275159087 0.4842746218 -0.6279441377 0.0486746715 -0.0216119898
445297330.0 0.0486508757 -0.0228412378 0.4774099847 -0.6333368281 0.4777257434 -0.6325204244 0.0491266973 -0.0223444946
450297300.0 0.0489457361 -0.0234668471 0.4708438862 -0.6384500765 0.4703656332 -0.6384798437 0.0486441816 -0.0226713398
455297270.0 0.0482846643 -0.0238682027 0.4628146288 -0.6436512423 0.4633689631 -0.6437308246 0.0480733133 -0.0233340705
460297240.0 0.0475204637 -0.0242444212 0.4559896234 -0.648519861 0.4561872038 -0.6485724597 0.0476229823 -0.0237128244
465297210.0 0.0474261391 -0.0249667736 0.4494935976 -0.653831124 0.4492946731 -0.6541507128 0.047404956 -0.0247415043
470297180.0 0.0470531842 -0.0254981774 0.4416020964 -0.6585575402 0.4418341339 -0.6587802701 0.0471819281 -0.0247590265
475297150.0 0.0468737437 -0.0265109034 0.4343079075 -0.6632587723 0.4351780813 -0.6631645986 0.0474639844 -0.0259808407
480297120.0 0.0461836464 -0.0264111936 0.4271612938 -0.6684351657 0.4273292461 -0.6686794893 0.0469360405 -0.0261265363
485297090.0 0.0454522713 -0.0269884671 0.4202354244 -0.6728955191 0.4201077217 -0.6727195521 0.0465859991 -0.0269398914
490297060.0 0.0447696071 -0.0280684506 0.4129977299 -0.6784822868 0.412815474 -0.677438344 0.0459408441 -0.0266294212
495297030.0 0.0445556057 -0.0281386822 0.4049860539 -0.6820145495 0.4058223659 -0.6816851915 0.0452538799 -0.0275216572
500297000.0 0.0439235277 -0.0290191469 0.3969738243 -0.6861456927 0.3974295543 -0.6860170045 0.0449617797 -0.0272937345
505296970.0 0.0439507024 -0.0294286392 0.3903494297 -0.6907685451 0.3894961811 -0.6907466175 0.0442455999 -0.0279782404
510296940.0 0.0431792958 -0.0297670756 0.3818809713 -0.6954830242 0.3823547334 -0.6954846304 0.0445426992 -0.0283152017
515296910.0 0.0426064247 -0.029953639 0.3746250596 -0.6996978634 0.3743835438 -0.6991056666 0.0437652251 -0.0288697334
520296880.0 0.0420576122 -0.0303752066 0.3667828756 -0.7036239082 0.3672166996 -0.703331574 0.0431988127 -0.0296925751
525296850.0 0.0418446941 -0.0317474925 0.3588577521 -0.7072286648 0.3595659707 -0.7075583698 0.0422891295 -0.0297151032
530296820.0 0.0413173275 -0.0315539196 0.3515576925 -0.7119098033 0.3514862099 -0.7111831985 0.0423689181 -0.0301546636
535296790.0 0.0405041106 -0.0317765688 0.3445484136 -0.7156663718 0.3440196474 -0.714690244 0.0416906814 -0.0313396378
540296760.0 0.0400701259 -0.0317914508 0.3360342973 -0.7189651157 0.3359726627 -0.7192025925 0.0410536538 -0.0305181881
545296730.0 0.0397010011 -0.0326102563 0.3275853295 -0.7224863674 0.3278361933 -0.7221744152 0.0403893195 -0.0314658481
550296700.0 0.0397600745 -0.0324837946 0.3195574674 -0.7263154059 0.3201401153 -0.7263942736 0.0395363522 -0.031587606
555296670.0 0.0387616134 -0.0332176758 0.3122210606 -0.7295758392 0.3123050919 -0.7294627147 0.0392377381 -0.0322246926
560296640.0 0.0385547187 -0.0332126839 0.3038344576 -0.7328948009 0.3038470439 -0.7331122402 0.0388981508 -0.0325059235
565296610.0 0.0375224158 -0.033935582 0.295603548 -0.7364911963 0.2960731003 -0.7362476878 0.0379458759 -0.0328781691
570296580.0 0.0370428204 -0.0339606812 0.2880528559 -0.740087932 0.287531161 -0.7393915707 0.0376140087 -0.032716447
575296550.0 0.0363164127 -0.0343418481 0.2799113156 -0.7429421285 0.2792791372 -0.7429123295 0.0373979205 -0.0338023413
580296520.0 0.0360517028 -0.0347778274 0.2717245533 -0.7458349506 0.2714221672 -0.7457435486 0.0366862436 -0.0339456192
585296490.0 0.0354725727 -0.0359702319 0.2637138771 -0.7486350542 0.2635953021 -0.7484119996 0.0360454478 -0.0342649622
590296460.0 0.0355450244 -0.0354330268 0.2549342733 -0.7508169709 0.2552791883 -0.7513797209 0.0346312204 -0.0345893051
595296430.0 0.0350318741 -0.0356943277 0.2464369498 -0.7545225774 0.2465819916 -0.7539447033 0.0349684334 -0.0351141866
600296400.0 0.0338727358 -0.0364651582 0.238453438 -0.7569766917 0.2388079555 -0.7566226065 0.0342700774 -0.035690108
605296370.0 0.033403568 -0.0365330919 0.2304694343 -0.7595877698 0.2305143955 -0.7592896865 0.0336607253 -0.0355727366
610296340.0 0.0330372581 -0.0370545467 0.2219826729 -0.76120815 0.2226016172 -0.7618282099 0.0336925653 -0.0362774462
615296310.0 0.032940637 -0.0376900102 0.2135889491 -0.764185828 0.213740483 -0.7645287618 0.033416654 -0.0363944266
620296280.0 0.0319131187 -0.0379587313 0.2053991959 -0.7660645793 0.2056440531 -0.7659859044 0.0321078392 -0.036418078
625296250.0 0.031073047 -0.0388116512 0.1980158438 -0.7694299924 0.1975684739 -0.7688383421 0.0324851264 -0.0367004432
630296220.0 0.0315842064 -0.0384455082 0.1879701645 -0.7708268151 0.1884307255 -0.770454984 0.0314350864 -0.0371774517
635296190.0 0.029757078 -0.0390937854 0.1803673176 -0.7726543479 0.1801418731 -0.7727306617 0.0312728203 -0.0375429839
640296160.0 0.0293899651 -0.038950714 0.1717298606 -0.7747310499 0.1721420387 -0.774978274 0.0303623192 -0.0380426593
645296130.0 0.0289344393 -0.0389300336 0.1630154898 -0.7760984628 0.1634338841 -0.7768785652 0.0303435645 -0.0378758804
650296100.0 0.0286595507 -0.0395992886 0.1550352832 -0.77837014 0.1549770429 -0.7782305815 0.0300268823 -0.0389763805
655296070.0 0.027466846 -0.0401356391 0.1465079566 -0.7806995075 0.1465864362 -0.7798711162 0.0293485298 -0.0384081103
660296040.0 0.0264277973 -0.0406350736 0.1378183644 -0.7816907147 0.1386271204 -0.7816147912 0.028992322 -0.0390293531
665296010.0 0.0268427127 -0.0406575882 0.1285560085 -0.7831730474 0.1292912389 -0.7827085328 0.0285293918 -0.0384742023
670295980.0 0.0250023887 -0.0406109813 0.1207788474 -0.7843251175 0.1206026858 -0.7841976313 0.0272985769 -0.0392094073
675295950.0 0.0251095197 -0.0403214349 0.1126734838 -0.7852941376 0.1123711245 -0.7848296339 0.0264197625 -0.0391730633
680295920.0 0.0239559527 -0.0412029806 0.1033220162 -0.7862457234 0.1032323721 -0.786925226 0.0261956839 -0.0385100611
685295890.0 0.0236492511 -0.0405840718 0.0944109072 -0.7871049847 0.0944567739 -0.7878896226 0.0253348576 -0.039200286
690295860.0 0.0235495285 -0.0409490109 0.0861907448 -0.7877196829 0.08663426 -0.7885479878 0.0245643031 -0.0384254922
695295830.0 0.0229771338 -0.0412419333 0.0778591674 -0.7892345327 0.0775997217 -0.7890590175 0.0242743156 -0.0388408221
700295800.0 0.0221501091 -0.0417472731 0.0692483515 -0.7898422141 0.0686291848 -0.7894054581 0.0236502911 -0.0384594953
705295770.0 0.0213693548 -0.0406130961 0.0603071483 -0.7905753168 0.0607316109 -0.7907774288 0.0226709921 -0.0390946046
710295740.0 0.0212606929 -0.0410782209 0.0521070658 -0.7923211208 0.0526152808 -0.79184562 0.0227809099 -0.0399324738
715295710.0 0.0198421885 -0.0417154353 0.0442011361 -0.7928438296 0.0431712028 -0.7920364752 0.022157709 -0.0395549316
720295680.0 0.0194692554 -0.0416957652 0.0342843071 -0.7926292392 0.0351447393 -0.7922934044 0.0214369737 -0.0389156133
725295650.0 0.0192490257 -0.0416514785 0.0260359074 -0.7927258481 0.026245282 -0.7929779241 0.0200755443 -0.0390623782
730295620.0 0.0188021556 -0.041378553 0.0173472097 -0.7925813581 0.0175651606 -0.7933233614 0.0195487476 -0.0398026563
735295590.0 0.0178399039 -0.0413860189 0.0091814769 -0.7932598303 0.0087214699 -0.7931408699 0.0187001481 -0.0398510231
740295560.0 0.0169370038 -0.0415241843 0.0002271333 -0.7927574494 8.4622e-05 -0.7928171335 0.0189272635 -0.0395770151
745295530.0 0.0166119221 -0.0416676161 -0.0083767749 -0.7925181898 -0.0086586598 -0.7931246391 0.0183691171 -0.0403448657
750295500.0 0.0162923221 -0.0417193674 -0.016569966 -0.7929678885 -0.0170057101 -0.7931937421 0.0172646024 -0.0399697132
755295470.0 0.0156329539 -0.0421325853 -0.025247377 -0.7925240203 -0.0254075582 -0.7926537915 0.0177055525 -0.0405558673
760295440.0 0.0147818959 -0.0417734768 -0.0340187699 -0.7925293837 -0.0345620564 -0.7928904223 0.0165316209 -0.040574929
765295410.0 0.0142682274 -0.0420834667 -0.0429057951 -0.7919311069 -0.0432158533 -0.792504471 0.0159661629 -0.0402123094
770295380.0 0.013172416 -0.0424340349 -0.0517830938 -0.7914668634 -0.0516983371 -0.7911152026 0.0150859131 -0.0408707126
775295350.0 0.0128781907 -0.0431286618 -0.0601527522 -0.7902451764 -0.0604219056 -0.7903112618 0.0135838249 -0.0401776991
780295320.0 0.0124549983 -0.0425313804 -0.0682778498 -0.7893512128 -0.0680679682 -0.7901322212 0.0136741853 -0.041023146
785295290.0 0.0112940859 -0.0429731431 -0.077218169 -0.7881223703 -0.07703987 -0.7888117234 0.0138466429 -0.0404284228
790295260.0 0.0114030988 -0.041961121 -0.0851295466 -0.7883628003 -0.0845280694 -0.7881102209 0.012911198 -0.0410532515
795295230.0 0.0104818616 -0.0424003071 -0.0942295546 -0.7867006693 -0.0938711645 -0.7873658422 0.0123400816 -0.0402146195
800295200.0 0.0095024783 -0.0418645094 -0.1039528151 -0.7860496879 -0.1029968538 -0.786136399 0.0116899053 -0.040612101
805295170.0 0.0091349173 -0.0424374046 -0.1113093864 -0.7844283083 -0.1116505868 -0.7851056034 0.0109090361 -0.0406648572
810295140.0 0.0081736092 -0.0429313625 -0.1197832684 -0.783525844 -0.1196629616 -0.7835960636 0.0111997348 -0.0402494639
815295110.0 0.0079509055 -0.0428731076 -0.1283299289 -0.7820928991 -0.1284272673 -0.782351988 0.010070823 -0.0404284745
820295080.0 0.0068767332 -0.0419090347 -0.1366043086 -0.7798782102 -0.1368601829 -0.7804937269 0.0093475727 -0.0403030368
825295050.0 0.00704949 -0.0421147725 -0.1450488148 -0.7785143757 -0.1449432625 -0.7794667631 0.0094976075 -0.0402809471
830295020.0 0.0060208421 -0.0418749503 -0.1543012119 -0.7773805787 -0.1535850056 -0.7774487276 0.0092804413 -0.0400778455
