!Created with skrf (http://scikit-rf.org).
# Hz S RI R 50.0 
!freq ReS11 ImS11 ReS21 ImS21 ReS12 ImS12 ReS22 ImS22
300000.0 -0.2399364885 -0.0969365959 0.4676956623 0.0631428931 0.469292444 0.0685304298 -0.2377717457 -0.1067142326
5299970.0 -0.2438800061 0.0072596947 0.473908214 0.0051158536 0.4737374952 0.0057298251 -0.2439825914 0.0061785782
10299940.0 -0.2402987757 0.020099698 0.4758953914 0.0063077691 0.4759499625 0.0064975186 -0.2411670024 0.0182575051
15299910.0 -0.2359117887 0.0296611304 0.4793102477 0.0075632966 0.4794331248 0.0080103491 -0.2368386908 0.0275106179
20299880.0 -0.2302309671 0.0373692417 0.4836960465 0.0084244122 0.4842478912 0.0082618704 -0.2323603304 0.0352748728
25299850.0 -0.2247152734 0.0438025543 0.4894799578 0.0071625947 0.4896081849 0.0073029581 -0.2266867536 0.0417684032
30299820.0 -0.2190170675 0.0485576338 0.4953017416 0.0054382859 0.4948417569 0.0054091729 -0.2216178836 0.046963468
35299790.0 -0.2131196629 0.0528018232 0.5005107609 0.0020462013 0.5007854685 0.0023426783 -0.2162465285 0.050910679
40299760.0 -0.2078720538 0.0557149232 0.5055911589 -0.0012597758 0.5056201599 -0.0017184638 -0.2115877361 0.0546661837
45299730.0 -0.2026762669 0.058676288 0.5101030278 -0.0068595455 0.5105337648 -0.0063954846 -0.2069626781 0.0573342055
50299700.0 -0.1979393561 0.0601652912 0.5145600468 -0.012021083 0.5149064054 -0.0123428805 -0.2020370049 0.0597738837
55299670.0 -0.1937577941 0.0617570877 0.5177215204 -0.018240049 0.5182398093 -0.0178339182 -0.1985372348 0.0615997319
60299640.0 -0.1893666446 0.0626155787 0.5209738475 -0.0242546889 0.5213658936 -0.0243478679 -0.1945190883 0.0632753361
65299610.0 -0.1862372321 0.0639831724 0.5242761852 -0.0301148989 0.524792294 -0.0305525629 -0.1911834949 0.0641771984
70299580.0 -0.1827803638 0.0642018986 0.5269389927 -0.0370655778 0.5267124276 -0.0372204229 -0.1881202582 0.0656090298
75299550.0 -0.1793257839 0.0650419419 0.528647866 -0.0441388924 0.5288457639 -0.0441358742 -0.1850529287 0.067034482
80299520.0 -0.1772508359 0.0655455828 0.5310760214 -0.0508897463 0.5305584418 -0.0509479423 -0.1825220978 0.067373032
85299490.0 -0.1747673097 0.0659069241 0.5321069322 -0.0576165096 0.531655185 -0.057910556 -0.1801792313 0.0679831983
90299460.0 -0.1725526217 0.0666274096 0.532881828 -0.0645427055 0.5334219786 -0.0648864099 -0.1779518847 0.0691888515
95299430.0 -0.1706838992 0.0672417622 0.5343868047 -0.0719679209 0.5342151213 -0.0714257238 -0.1760172568 0.0700627304
100299400.0 -0.168926564 0.067785451 0.5344750928 -0.0787529012 0.5346513517 -0.0789284548 -0.1745161076 0.0709469972
105299370.0 -0.1668532635 0.0680206772 0.5343264936 -0.0854239772 0.5350143222 -0.0855439351 -0.172144624 0.0716450972
110299340.0 -0.1656005403 0.06834743 0.5345979591 -0.0919847624 0.534560756 -0.0925447331 -0.1706432991 0.0725927693
115299310.0 -0.1640398644 0.0687774275 0.5346604326 -0.0989739441 0.5348904428 -0.0991282893 -0.1690258911 0.0730503688
120299280.0 -0.1627561304 0.0695056486 0.5349244414 -0.1058339905 0.5349086263 -0.105825565 -0.1680266755 0.0740246209
125299250.0 -0.1618757046 0.0696967954 0.5345840717 -0.1122457018 0.5345805871 -0.1128355448 -0.1664178104 0.0746387031
130299220.0 -0.1606564759 0.0707055994 0.5334786918 -0.1187894473 0.5335541435 -0.1195473234 -0.1651001873 0.0757964152
135299190.0 -0.1593904926 0.0709553606 0.5333031155 -0.125948783 0.5325610948 -0.1262366881 -0.1643598774 0.0770574669
140299160.0 -0.158683267 0.0722508342 0.5325498551 -0.1329254061 0.53269395 -0.1328682729 -0.1629243154 0.0781311241
145299130.0 -0.1576832492 0.0728955427 0.5317577951 -0.1393488805 0.5315674259 -0.1389574865 -0.1622444287 0.0789066381
150299100.0 -0.1565327851 0.0734126128 0.530223632 -0.1459723112 0.5304610685 -0.1459780738 -0.1608783887 0.0799344207
155299070.0 -0.1559719263 0.074640648 0.5292183915 -0.1525024347 0.5290203696 -0.152487704 -0.1601262805 0.0810750299
160299040.0 -0.155039358 0.0751566019 0.5276334402 -0.1587576932 0.5277017227 -0.1589899135 -0.1588974775 0.0825616188
165299010.0 -0.1541396492 0.0761052341 0.5262029042 -0.1653821512 0.5265404864 -0.165219257 -0.1578874276 0.0830905664
170298980.0 -0.1538714553 0.0771924477 0.5238167767 -0.1716539597 0.5245831532 -0.1717267799 -0.156661329 0.0848322306
175298950.0 -0.1529110923 0.0780362466 0.5234539052 -0.177573423 0.5231500535 -0.1781008755 -0.1558426207 0.085641387
180298920.0 -0.151737508 0.0790547864 0.5212982137 -0.1841895387 0.5216713373 -0.1843206583 -0.1548050486 0.0871571642
185298890.0 -0.1509097081 0.0801769627 0.5192628525 -0.1908299939 0.5194911761 -0.1903124082 -0.1539751837 0.0881770533
190298860.0 -0.1502699471 0.0812949425 0.517620215 -0.1967757751 0.5177983595 -0.1966988837 -0.1526847054 0.0896554432
195298830.0 -0.1496554257 0.0822134102 0.5155357242 -0.2026055286 0.5158772836 -0.2029673346 -0.1519282997 0.0904109938
200298800.0 -0.1489338514 0.0834760256 0.513677406 -0.208412424 0.5137094697 -0.2087530892 -0.1509465589 0.0924387813
205298770.0 -0.1482071205 0.0845990592 0.5116490899 -0.2146598031 0.5114098405 -0.2148780943 -0.1500743083 0.0932705267
210298740.0 -0.1476642784 0.0854783047 0.5093920229 -0.2208993069 0.5093433361 -0.2209777677 -0.1491695045 0.0948054253
215298710.0 -0.146646792 0.0868887991 0.5071487843 -0.2269175304 0.5069043595 -0.2271276419 -0.1482579149 0.0961535896
220298680.0 -0.1460858583 0.0880782107 0.5046111022 -0.2327864424 0.5044517619 -0.2327761737 -0.1471460694 0.0975662496
225298650.0 -0.1448978296 0.0893166215 0.5017177115 -0.2383971867 0.5017946757 -0.2384210418 -0.1464511345 0.0991137812
230298620.0 -0.1445412554 0.090566481 0.4996447027 -0.2443052917 0.5001745394 -0.2445238099 -0.1451252748 0.1002755048
235298590.0 -0.143684658 0.0916384214 0.496901721 -0.2501566421 0.4970835422 -0.2501982187 -0.1439740078 0.1015185251
240298560.0 -0.1433177206 0.0929778036 0.4943461868 -0.2555278533 0.4944549662 -0.2556198133 -0.1431316485 0.1032001925
245298530.0 -0.1419737778 0.0942717118 0.4909062526 -0.2614520742 0.49145002 -0.2617755611 -0.1419747413 0.1049133952
250298500.0 -0.1415458739 0.095290092 0.488341913 -0.2664507945 0.4887526719 -0.2664704112 -0.1407504805 0.1061059435
255298470.0 -0.1407574478 0.0967421911 0.485607873 -0.2728478935 0.4857492675 -0.2728210208 -0.1396853866 0.1076434573
260298440.0 -0.1398289955 0.0981027395 0.482722738 -0.2778341714 0.4826148999 -0.2784928512 -0.1380001908 0.1091582731
265298410.0 -0.1386340995 0.0994594488 0.4794055459 -0.2841116926 0.4794204111 -0.2840357747 -0.1370070091 0.110474498
270298380.0 -0.1375788732 0.1005794329 0.4759405048 -0.2891233076 0.4765099912 -0.2892626618 -0.136054781 0.1120217932
275298350.0 -0.1372935021 0.1019974534 0.4731153703 -0.2948879502 0.4737722944 -0.295045425 -0.1348892097 0.1133059334
280298320.0 -0.1361126809 0.1032599554 0.4697012365 -0.2995998642 0.4698915163 -0.2999921862 -0.1339098043 0.1150396173
285298290.0 -0.1351091761 0.1050591268 0.4669567098 -0.30538498 0.466767639 -0.305600574 -0.1325041602 0.116409929
290298260.0 -0.1343667367 0.1059562606 0.46392309 -0.3107078128 0.4633228751 -0.3107851249 -0.1307125688 0.1180637283
295298230.0 -0.133272641 0.1073811991 0.4609478938 -0.3161929239 0.4599546553 -0.316004617 -0.129536214 0.1193742185
300298200.0 -0.1319815372 0.1083258131 0.4564800431 -0.3212264687 0.4567960412 -0.3213332084 -0.1283847513 0.1208670255
305298170.0 -0.1313114801 0.1097182467 0.4533291452 -0.3267107484 0.4535392696 -0.3267485948 -0.1266630345 0.1226985549
310298140.0 -0.1299250393 0.1107699644 0.4498780398 -0.3320007453 0.4498566509 -0.3322453774 -0.1256528938 0.1240608319
315298110.0 -0.1291653799 0.1119956737 0.4459533924 -0.337290579 0.4465134612 -0.3372837164 -0.1238242801 0.124791821
320298080.0 -0.1283308901 0.1132036812 0.4424636343 -0.342002188 0.4426633914 -0.342137001 -0.1228470634 0.1262974878
325298050.0 -0.1272109657 0.1142155794 0.4389737339 -0.3473040593 0.4388338112 -0.3478091709 -0.1214921404 0.1275142754
330298020.0 -0.1261413195 0.1155802675 0.434182647 -0.3521233974 0.4340999747 -0.3519469182 -0.1203240245 0.1287512229
335297990.0 -0.1254361827 0.1165738386 0.4305959118 -0.3570946889 0.4306290364 -0.3570891951 -0.1193083053 0.1302818878
340297960.0 -0.1249417895 0.1182113877 0.4262854276 -0.3619418749 0.4265305915 -0.3619083005 -0.1179638872 0.131942084
345297930.0 -0.1239431551 0.1195873974 0.4225243159 -0.3662631228 0.4217956268 -0.3662001966 -0.1161643466 0.1330603524
350297900.0 -0.1225183781 0.1211955613 0.4180900537 -0.3708476398 0.4184892948 -0.371443892 -0.1150341166 0.135060302
355297870.0 -0.1214505492 0.1221138187 0.4137246634 -0.3755905142 0.4137015377 -0.3759116528 -0.1138953599 0.1364191856
360297840.0 -0.1203180012 0.1236925162 0.4097815891 -0.3803108201 0.4097912924 -0.3802171765 -0.1120218519 0.1380438814
365297810.0 -0.1190221748 0.1245732458 0.4053069897 -0.384729424 0.4055455128 -0.3847625104 -0.1107436986 0.1394348689
370297780.0 -0.1178140416 0.1258652473 0.401185203 -0.388714298 0.4013316271 -0.389480569 -0.1092786818 0.140567809
375297750.0 -0.1170225894 0.1276297043 0.397648944 -0.3936501763 0.3970868904 -0.3940491597 -0.1075206811 0.1423279255
380297720.0 -0.1154738635 0.1282507708 0.3925537694 -0.398116392 0.392739648 -0.3977044339 -0.1062681298 0.1437984498
385297690.0 -0.1143005653 0.129811216 0.3883472796 -0.4015755194 0.3881328696 -0.4027727537 -0.104601948 0.1455518171
390297660.0 -0.1132566671 0.131146173 0.3834668089 -0.4067000668 0.3836165144 -0.4068454521 -0.103057824 0.1460551184
395297630.0 -0.1115792107 0.1320157784 0.3792734456 -0.4102224072 0.3792826998 -0.4107532764 -0.1015954621 0.1478840309
400297600.0 -0.1106451345 0.133527573 0.3746337647 -0.4151012399 0.3752309636 -0.4147266972 -0.1002107056 0.1489385247
405297570.0 -0.1093802798 0.1348861556 0.3700423554 -0.4190097124 0.3702329368 -0.4192062351 -0.0983547843 0.1507883366
410297540.0 -0.1079052622 0.1358248456 0.3653693018 -0.4226317244 0.3653198288 -0.4228752795 -0.0963835733 0.1519086492
415297510.0 -0.1068527741 0.1372486962 0.3610852995 -0.4268396839 0.3610413543 -0.4267948214 -0.0952964029 0.1535272919
420297480.0 -0.1052612149 0.1381726659 0.3561405454 -0.4311563176 0.356405355 -0.4307295762 -0.0935525158 0.1540223857
425297450.0 -0.1037375062 0.1392062109 0.3510941742 -0.4346263018 0.351905693 -0.4348271432 -0.091558707 0.1557622151
430297420.0 -0.1028176068 0.14054626 0.3468439148 -0.4385907008 0.347017022 -0.4387134233 -0.0901378064 0.1565746161
435297390.0 -0.101157793 0.1412348552 0.341785256 -0.4420776115 0.3417862829 -0.442098535 -0.0884158238 0.1583577593
440297360.0 -0.0997184167 0.1424076497 0.3366369466 -0.445613754 0.3366966417 -0.4459092328 -0.0870422019 0.1589696409
445297330.0 -0.0982340082 0.1436472489 0.3314596556 -0.4498606227 0.3315758413 -0.4495268185 -0.0850704222 0.1602110879
450297300.0 -0.0969873075 0.144720948 0.3267553327 -0.453259085 0.3271783029 -0.4533132373 -0.0835883513 0.1615597462
455297270.0 -0.09573069 0.1457581549 0.3221575153 -0.4569522906 0.3223296233 -0.4568324251 -0.0812523304 0.162816772
460297240.0 -0.0944977212 0.1468278845 0.3171198089 -0.4599442437 0.3170314184 -0.4603080022 -0.0798702991 0.1643129736
465297210.0 -0.0925697104 0.1478987482 0.3120992471 -0.4637552508 0.3121506321 -0.4637603216 -0.0780121501 0.1648636721
470297180.0 -0.0914836594 0.1487853823 0.3070742296 -0.4669242101 0.3073859573 -0.4672199056 -0.0769509099 0.1660451935
475297150.0 -0.089993194 0.1495684441 0.3014095995 -0.4698153788 0.3019288528 -0.4697273398 -0.0744565251 0.1672679888
480297120.0 -0.0882387738 0.1504839174 0.2966314584 -0.4733350621 0.2970282915 -0.4734970528 -0.0731112514 0.1683171002
485297090.0 -0.0867935284 0.1518160651 0.2915295049 -0.4763603904 0.2917014955 -0.4766405555 -0.0715154211 0.1689666071
490297060.0 -0.0853831034 0.1525389682 0.2866966864 -0.4799217458 0.286440707 -0.4800123925 -0.0693372852 0.1701941009
495297030.0 -0.0841929848 0.1534753791 0.2809200932 -0.4826418154 0.2809532612 -0.4829402582 -0.0675180748 0.1706699674
500297000.0 -0.0823063811 0.1543111133 0.2755345302 -0.4861569876 0.2756251098 -0.4858079183 -0.0658773862 0.1719281696
505296970.0 -0.0812688735 0.155402996 0.27043492 -0.488651555 0.2703703792 -0.4886539223 -0.0643541102 0.1728583022
510296940.0 -0.0795419621 0.1563568071 0.2653263757 -0.4919406309 0.26526416 -0.4918459994 -0.061969889 0.1739595731
515296910.0 -0.0783278953 0.1574189664 0.2596833106 -0.4940666727 0.2595163059 -0.494379307 -0.0602289449 0.1746671318
520296880.0 -0.0764676354 0.1580690617 0.2539067984 -0.497258723 0.2541636739 -0.4970028505 -0.0581141604 0.1753843246
525296850.0 -0.0750903905 0.1587775047 0.2485338282 -0.499749685 0.2488737374 -0.5003327935 -0.0562872659 0.1763113219
530296820.0 -0.0734501575 0.1596709447 0.2436309185 -0.5020061504 0.2433863897 -0.5022272866 -0.0548944254 0.1767723276
535296790.0 -0.0720256251 0.1608517535 0.2374094651 -0.5053768056 0.23813559 -0.5048870123 -0.0527247107 0.1775696173
540296760.0 -0.0703666054 0.1612059075 0.2324977542 -0.5077590887 0.2321673835 -0.5077300469 -0.0512861592 0.178628339
545296730.0 -0.0688291902 0.1622998187 0.2268090542 -0.5100505683 0.2268097141 -0.5103474828 -0.0490908764 0.1792003348
550296700.0 -0.067654033 0.1629770558 0.2217289262 -0.5123234397 0.2218749171 -0.5125590683 -0.0471475649 0.1802932129
555296670.0 -0.065396172 0.1638934794 0.2159761202 -0.5151901066 0.2160248118 -0.5149019058 -0.0452570085 0.1809724354
560296640.0 -0.0641340832 0.1644726786 0.2101661105 -0.5172929637 0.2103082296 -0.5170634558 -0.0432855224 0.1814887481
565296610.0 -0.0630761334 0.1652518689 0.2044182237 -0.5193861922 0.2043719577 -0.5194596092 -0.0415930657 0.1819703463
570296580.0 -0.0607514916 0.1656310758 0.1986835492 -0.5210360802 0.1991906201 -0.5216259121 -0.0394922509 0.1831487319
575296550.0 -0.0591753522 0.1669766841 0.1929981084 -0.5232205111 0.1938137701 -0.5232061697 -0.0371277961 0.1832737085
580296520.0 -0.0576895848 0.1676481208 0.1878944961 -0.5256175603 0.1879110581 -0.5257632449 -0.0351918547 0.1839099119
585296490.0 -0.056261995 0.1677054266 0.182422553 -0.5274862045 0.1817555188 -0.5276868166 -0.0336766012 0.1840955234
590296460.0 -0.0546764615 0.168557108 0.1760331988 -0.5296940128 0.176044118 -0.5296765874 -0.0311560762 0.1849859846
595296430.0 -0.0529685587 0.1695397238 0.1708290929 -0.5312160637 0.1703777218 -0.5315960163 -0.0292475819 0.1852012083
600296400.0 -0.0513003186 0.1699758858 0.164463197 -0.5331356458 0.1649756738 -0.5334899503 -0.0275809292 0.1861795144
605296370.0 -0.0495531634 0.1709476791 0.1592016387 -0.5349143586 0.1588773324 -0.5347920621 -0.0254605255 0.1861295559
610296340.0 -0.0479396642 0.1714530427 0.1531388632 -0.5363452119 0.1535206044 -0.5365911649 -0.0234701732 0.1869418122
615296310.0 -0.0462286304 0.1722336218 0.1476754858 -0.5377517566 0.1471683569 -0.5380303228 -0.0211625061 0.1873727817
620296280.0 -0.0446972618 0.1726440856 0.1416173802 -0.5394590914 0.1416518086 -0.53940228 -0.0193526574 0.1873127151
625296250.0 -0.0429201506 0.1729877189 0.1351970644 -0.5413753172 0.1354170478 -0.5414228349 -0.0171344258 0.1880703614
630296220.0 -0.0410912479 0.1737758074 0.1295344617 -0.5429313628 0.1299602799 -0.5427696072 -0.0155120595 0.1884928643
635296190.0 -0.0393375879 0.1742067846 0.1239576863 -0.5431825616 0.1237650384 -0.5434781177 -0.0131556935 0.1884100845
640296160.0 -0.0378643179 0.1747301896 0.1181267376 -0.5449721796 0.1179712024 -0.545387237 -0.0107175908 0.1887335999
645296130.0 -0.0361477518 0.1754198314 0.1121215985 -0.5464117079 0.1122920977 -0.5466296783 -0.0096915967 0.1888180509
650296100.0 -0.0346314439 0.1762610092 0.1066683943 -0.5474331592 0.1064846009 -0.547272871 -0.0073275454 0.189443641
655296070.0 -0.0327629575 0.1762523163 0.1005264432 -0.5482358458 0.1002883226 -0.5483131211 -0.0048629942 0.1898137155
660296040.0 -0.0313341647 0.1770382426 0.0945419088 -0.5494631462 0.0945327246 -0.5492349357 -0.0036483628 0.1896730659
665296010.0 -0.0291224691 0.1771375464 0.0887683846 -0.5503592184 0.0890370247 -0.5505510668 -0.0011464143 0.1902442472
670295980.0 -0.0271755627 0.1777967675 0.0826820456 -0.551049564 0.083020664 -0.5515549232 0.000568727 0.1900809281
675295950.0 -0.0257852629 0.1780534628 0.0764975281 -0.552221683 0.0768807487 -0.5527197436 0.0028995528 0.1906089062
680295920.0 -0.0240570662 0.1786782889 0.070730852 -0.5526987237 0.0705023602 -0.5531881923 0.0053772206 0.1903658579
685295890.0 -0.0224188997 0.178933891 0.0649047028 -0.5536424521 0.0643155352 -0.5540794662 0.007264264 0.1904907831
690295860.0 -0.0202689106 0.1792767062 0.0586745175 -0.5539035869 0.0584173339 -0.5538509163 0.0096532075 0.1906195851
695295830.0 -0.0184168625 0.1795464279 0.0518278226 -0.5550174611 0.0524852268 -0.5551456468 0.0111581163 0.1906375366
700295800.0 -0.0166924775 0.1800197751 0.046311643 -0.555371826 0.0465841617 -0.5555958355 0.0134248144 0.1903375491
705295770.0 -0.0149101525 0.1803977776 0.0405032592 -0.5556877061 0.0409741006 -0.5556960808 0.0151208667 0.1902860405
710295740.0 -0.0133264018 0.1808435231 0.034526578 -0.5562588413 0.0343816598 -0.5557243278 0.0169630904 0.1906632966
715295710.0 -0.0118257275 0.1810415495 0.0284166838 -0.5566586306 0.0289625994 -0.5567774092 0.0194386391 0.1901710165
720295680.0 -0.0099346246 0.1811990567 0.0224487392 -0.5563675932 0.0227928936 -0.5569637369 0.0218464696 0.1904217813
725295650.0 -0.0079548801 0.1815784765 0.0161969361 -0.5569600856 0.0167315381 -0.5567881775 0.0235669232 0.1905637213
730295620.0 -0.0063444402 0.1815049127 0.0104990546 -0.5571287639 0.0101944042 -0.5568585168 0.0259505105 0.1900835214
735295590.0 -0.0041500711 0.1818003235 0.0049833155 -0.5570912375 0.0048851976 -0.5574327214 0.0277845236 0.1900905288
740295560.0 -0.0026848344 0.1822811539 -0.0016156525 -0.5567051461 -0.0016229157 -0.5569865911 0.0306196547 0.1898809189
745295530.0 -0.0008075484 0.1820742175 -0.0075501006 -0.5567805098 -0.0071634266 -0.5575019258 0.0320606966 0.190040857
750295500.0 0.0010371399 0.1823233366 -0.0133201418 -0.5566388203 -0.0134416642 -0.5567087491 0.0343865031 0.1890820983
755295470.0 0.0031758413 0.1828341883 -0.0191538132 -0.5566999731 -0.0191188926 -0.5568498897 0.0357933428 0.1895437851
760295440.0 0.0047023087 0.1827082004 -0.0256177614 -0.5561735599 -0.0254158486 -0.5566583154 0.0374141799 0.1890823291
765295410.0 0.0062098009 0.1825560103 -0.0310739542 -0.5552985813 -0.0313267226 -0.5565366717 0.0406445629 0.1891222858
770295380.0 0.0082842231 0.1828665555 -0.0372047794 -0.5553664755 -0.0375212393 -0.5557389733 0.0425623272 0.188632556
775295350.0 0.0098872573 0.183212122 -0.0431337083 -0.5545867353 -0.0430128367 -0.5551531414 0.0440168289 0.1878526439
780295320.0 0.0119436983 0.1826841417 -0.048873405 -0.5542512094 -0.0487454825 -0.5548500298 0.0464024206 0.1882527242
785295290.0 0.0136324405 0.1833327262 -0.0551563258 -0.5533513734 -0.0552392048 -0.5538201219 0.0481017416 0.1875070971
790295260.0 0.0151140258 0.1830053682 -0.0609962419 -0.5532596286 -0.0611160475 -0.5535736449 0.0508735513 0.1870724222
795295230.0 0.0169479033 0.1833998368 -0.0667363893 -0.5524036804 -0.0669601735 -0.5527308736 0.0527728096 0.1872346729
800295200.0 0.0189791955 0.1832855034 -0.0729550375 -0.5521359762 -0.0733185914 -0.552126264 0.0544700394 0.1861640138
805295170.0 0.0206999305 0.1829494284 -0.0789604522 -0.5502510354 -0.0786029471 -0.5507164472 0.0562031922 0.1858322371
810295140.0 0.0226965157 0.1832684713 -0.0848706953 -0.550032115 -0.084595209 -0.5505794938 0.0585517108 0.1856953569
815295110.0 0.02456189 0.1832662647 -0.0910977605 -0.5488038357 -0.0908323122 -0.5489922812 0.0605699891 0.1849672168
820295080.0 0.0261754579 0.1824072283 -0.0965805896 -0.547927901 -0.0968409474 -0.5482250146 0.0622649125 0.1845049308
825295050.0 0.0279686406 0.1826958345 -0.1023530632 -0.5463011909 -0.10254328 -0.5467249917 0.064687341 0.1840437502
830295020.0 0.0295928809 0.1829477707 -0.108724337 -0.5457082349 -0.1089519888 -0.5457112638 0.0665569386 0.1830617456
