!Created with skrf (http://scikit-rf.org).
# Hz S RI R 50.0 
!freq ReS11 ImS11 ReS21 ImS21 ReS12 ImS12 ReS22 ImS22
300000.0 -0.0922123252 -0.0996776271 0.6211427869 0.0926268735 0.6198465072 0.0941863088 -0.0950611245 -0.1057611931
5299970.0 -0.1014429043 0.0114085446 0.6302345282 0.0110856955 0.6310393026 0.0111547795 -0.1017027611 0.0112741755
10299940.0 -0.0969640438 0.0289039825 0.6343468626 0.0158311 0.6344299736 0.016316258 -0.0963434877 0.0283737122
15299910.0 -0.0892472389 0.0422198588 0.6405682554 0.0212364492 0.6407840907 0.0216383787 -0.0896731832 0.0418386803
20299880.0 -0.080344299 0.0536692358 0.6491054774 0.0238561828 0.6491133673 0.0246365863 -0.0809506681 0.0527004457
25299850.0 -0.0701532346 0.0622735817 0.6581424432 0.0255089137 0.6584794014 0.0258286976 -0.0715936617 0.0618757581
30299820.0 -0.0608185032 0.0687307324 0.6677589029 0.0244529005 0.6680573947 0.0241434357 -0.0619021046 0.0683486728
35299790.0 -0.0506754542 0.073581086 0.6772055347 0.0223434531 0.6774064311 0.0215732942 -0.0526705793 0.0737830207
40299760.0 -0.0411401324 0.0766036693 0.6870774494 0.0174722195 0.6871174681 0.0176939342 -0.0425966947 0.0768696855
45299730.0 -0.0318961674 0.0785130912 0.695680373 0.012639242 0.6957695764 0.0122183985 -0.0333649893 0.0791279325
50299700.0 -0.0228704862 0.0790793104 0.703648832 0.0052112624 0.7040268095 0.0049121341 -0.0244875012 0.0803645379
55299670.0 -0.0152542099 0.0790872046 0.7109749418 -0.0017747552 0.7106322369 -0.0026945812 -0.0170988733 0.0803479467
60299640.0 -0.0076751396 0.0787557774 0.7184927094 -0.0110310722 0.7179901939 -0.0109033013 -0.0097318888 0.0796894805
65299610.0 -0.0010978274 0.0772298767 0.7242039859 -0.019477263 0.7243280215 -0.019835222 -0.0027127576 0.0785747236
70299580.0 0.0052815774 0.075187527 0.729576432 -0.0286610489 0.729480788 -0.0292590304 0.0030888415 0.0771846529
75299550.0 0.0107190824 0.0730757104 0.7332136106 -0.0388934069 0.7336624649 -0.0388808865 0.0086321404 0.0755656595
80299520.0 0.015317188 0.0714762858 0.7374621059 -0.0483502145 0.7380892777 -0.048664045 0.0138262604 0.0734028914
85299490.0 0.0199305705 0.0692136213 0.7414298722 -0.0586662679 0.7411993487 -0.058289393 0.0179623836 0.070838473
90299460.0 0.0241612912 0.0666075085 0.7439230425 -0.0685603663 0.7435826545 -0.0684494912 0.0224514681 0.0693218615
95299430.0 0.0279024409 0.0640818446 0.7460555854 -0.0790736385 0.7461716297 -0.0787812808 0.0256281226 0.0664413011
100299400.0 0.0315245052 0.0613096809 0.7473270125 -0.0889631542 0.7477897225 -0.0888439337 0.0291455868 0.0647193689
105299370.0 0.0342667793 0.0593169798 0.7491517803 -0.0987908651 0.7499575888 -0.0989111755 0.0328490568 0.0616700517
110299340.0 0.0374102766 0.0562785537 0.7503575989 -0.1082648268 0.7507712321 -0.1085160366 0.0348874181 0.0595190367
115299310.0 0.0395803209 0.0542147584 0.7518729699 -0.1189295861 0.7511063756 -0.1187620447 0.0372997668 0.0574138302
120299280.0 0.0416367583 0.0521578361 0.7519387286 -0.12946331 0.7515360469 -0.1292740624 0.0397698189 0.0544976313
125299250.0 0.0438311516 0.0497382409 0.7523100637 -0.1387389283 0.752388731 -0.1387660815 0.0419241171 0.0528748958
130299220.0 0.0459021595 0.0471175618 0.7525329914 -0.1491657944 0.7521418045 -0.1492738152 0.0437608287 0.0504882007
135299190.0 0.04676373 0.0456133733 0.7522046617 -0.1584763799 0.7521320897 -0.1586931793 0.0454529285 0.0477578308
140299160.0 0.0488720496 0.0433338471 0.7521187554 -0.1685811409 0.7510734017 -0.168380827 0.0462620666 0.0454086282
145299130.0 0.0492589411 0.0412354592 0.7504585356 -0.1784439757 0.7508668375 -0.1778517876 0.0480233515 0.0437678028
150299100.0 0.050869742 0.0392264377 0.7490127153 -0.1880645155 0.7494456821 -0.1879509755 0.0492192129 0.042276192
155299070.0 0.0524372103 0.0372103338 0.7481393805 -0.1976233724 0.7484706932 -0.1978288216 0.0503551557 0.0395793258
160299040.0 0.0532785259 0.0355209339 0.7468555135 -0.2069366883 0.746523157 -0.2073054232 0.0508949132 0.0381787588
165299010.0 0.054561129 0.0334575753 0.7453968532 -0.2162071007 0.7448246309 -0.2163780615 0.0522435963 0.0360251901
170298980.0 0.0548347379 0.031967561 0.7433186842 -0.2255846717 0.7434349329 -0.2260773305 0.0525382187 0.0341043112
175298950.0 0.0562947222 0.030489934 0.7419222088 -0.235574168 0.74209614 -0.2354284122 0.0532949437 0.0324408462
180298920.0 0.0565067602 0.0287037717 0.7398249522 -0.2447145523 0.7391037297 -0.2447978921 0.0540553962 0.030917827
185298890.0 0.0567823712 0.0273928892 0.7380065141 -0.2530934106 0.7372853004 -0.2530732099 0.0551041781 0.0288730981
190298860.0 0.0577767011 0.0257537646 0.7346637673 -0.2627838488 0.7350335375 -0.2622823908 0.0550542483 0.0274581749
195298830.0 0.0577898936 0.0245240598 0.7329910165 -0.2719589931 0.7328277257 -0.2715930127 0.0556619191 0.0258120337
200298800.0 0.0586490138 0.0222733686 0.7298302593 -0.2815607194 0.7297486398 -0.2807909191 0.0562813843 0.0241855268
205298770.0 0.0581317592 0.0208318828 0.726992586 -0.2895927374 0.7273032261 -0.2890734324 0.0568905122 0.0225447194
210298740.0 0.0590113306 0.0200049075 0.7240038765 -0.2981795173 0.7239019865 -0.2984041546 0.0567374127 0.0208736975
215298710.0 0.0594642435 0.0185351646 0.7207283886 -0.306639022 0.720758677 -0.307140543 0.0571767058 0.0200963326
220298680.0 0.0593443911 0.0175793384 0.7175339241 -0.3156128261 0.7176509893 -0.3158735154 0.0574290675 0.0182192789
225298650.0 0.0598504115 0.0160155643 0.7139515131 -0.3241866416 0.7146509799 -0.3237306937 0.0575786164 0.0166690888
230298620.0 0.0601521805 0.0153259081 0.7114559905 -0.3325175425 0.7113097933 -0.333079375 0.0573359308 0.0152364523
235298590.0 0.0595661324 0.013904946 0.7078441937 -0.3416215026 0.7083709648 -0.3415863701 0.0580443577 0.0143561946
240298560.0 0.060256626 0.0130330212 0.7042981517 -0.3491167734 0.7042038823 -0.3493955272 0.0577316336 0.0128823265
245298530.0 0.0604573974 0.011222289 0.7003500152 -0.3579875692 0.700459404 -0.3579723006 0.0579633637 0.0115801342
250298500.0 0.0602082939 0.0101373211 0.6973662648 -0.3656099291 0.6962436196 -0.3661694597 0.057592086 0.0104868408
255298470.0 0.0604164434 0.0095295949 0.6931092241 -0.3738198748 0.6933094791 -0.3741321117 0.0580501543 0.009844722
260298440.0 0.0606586258 0.008370407 0.6889516845 -0.3815727376 0.6889841077 -0.3822078847 0.0575981723 0.0076802289
265298410.0 0.060055293 0.0074185147 0.6843669472 -0.3907208772 0.6847971524 -0.3909460992 0.0586981209 0.0068861057
270298380.0 0.0601723798 0.0061435369 0.6805364193 -0.3984348532 0.6805114386 -0.3983281323 0.0581517279 0.0057242189
275298350.0 0.0603442057 0.0058088209 0.6757243764 -0.4061085438 0.6756965649 -0.4061361082 0.0577012622 0.0050373827
280298320.0 0.0598598485 0.0040885223 0.6720791739 -0.4137516636 0.6718861688 -0.4138168397 0.0584290688 0.0037965803
285298290.0 0.0600627515 0.0039428766 0.6674540806 -0.4219950367 0.6675615603 -0.4217081682 0.0579306426 0.0027835985
290298260.0 0.0599093707 0.0027727968 0.662889496 -0.429639354 0.6635089068 -0.4292562185 0.0581886394 0.0017135951
295298230.0 0.0599604554 0.0012950092 0.6583799221 -0.4377493711 0.6585615818 -0.4378358003 0.0576247596 0.0002279434
300298200.0 0.0600771196 0.0009745569 0.6538422691 -0.4449549372 0.6538108279 -0.444849875 0.0577234239 -0.0007538209
305298170.0 0.0604204178 -0.0008786387 0.6494599667 -0.4529956533 0.6493969788 -0.4530228688 0.0578092984 -0.0021520755
310298140.0 0.0602606407 -0.0016572493 0.644059859 -0.4603551219 0.64414574 -0.4602272971 0.0579929403 -0.0036179468
315298110.0 0.0597083065 -0.0029074019 0.6391469761 -0.4684656443 0.6393545804 -0.4685193762 0.0577573734 -0.0042094854
320298080.0 0.0597311551 -0.0037463735 0.6333280983 -0.4754668963 0.6342065331 -0.47647489 0.0573728932 -0.0053910357
325298050.0 0.0584358096 -0.0053797711 0.6282995229 -0.4828015554 0.6287983807 -0.4829130733 0.0570405564 -0.0067802728
330298020.0 0.0574159037 -0.0058774291 0.622690256 -0.4905888249 0.6230051579 -0.490841894 0.0561945526 -0.0079083704
335297990.0 0.0575351164 -0.0066395097 0.6173681535 -0.4972844387 0.6175946959 -0.4975451337 0.0556395204 -0.0085082826
340297960.0 0.0571146235 -0.0077015356 0.6115502167 -0.5053571278 0.6110324993 -0.5045735144 0.0550831855 -0.0092490409
345297930.0 0.0564514873 -0.0083150521 0.605880473 -0.5118866615 0.6054507935 -0.511854116 0.0550581863 -0.0102946967
350297900.0 0.0558392364 -0.0091101216 0.6004164916 -0.5177480357 0.6004550348 -0.5179463859 0.0545755513 -0.0113677671
355297870.0 0.0555764667 -0.0096409919 0.5944151549 -0.5239584499 0.594123867 -0.5243407896 0.0546450912 -0.0119051696
360297840.0 0.0552358924 -0.0100469824 0.5881699704 -0.5310573231 0.5885363904 -0.5321190006 0.053406604 -0.0122022379
365297810.0 0.0546012512 -0.0109660292 0.5825078771 -0.537996106 0.582346672 -0.538099913 0.0531608475 -0.0132173961
370297780.0 0.0547760938 -0.011491683 0.5763671194 -0.5444528581 0.5766060788 -0.5444050571 0.0530955997 -0.0141673766
375297750.0 0.0540896896 -0.0121971365 0.5708089656 -0.5506512742 0.5707286268 -0.5511527818 0.0528257704 -0.0146710946
380297720.0 0.0535802636 -0.0126817532 0.5649453772 -0.557766065 0.5641670627 -0.5572432226 0.052040194 -0.0151909261
385297690.0 0.053005381 -0.0138630617 0.5582449694 -0.5631144876 0.5582752981 -0.5642812586 0.0522359972 -0.0155271954
390297660.0 0.0530747407 -0.0145698084 0.5519874057 -0.5692121453 0.5527746568 -0.5696196138 0.0523100785 -0.0167836262
395297630.0 0.0531382966 -0.0150115665 0.5457442749 -0.5753034398 0.5458316954 -0.5755156372 0.0512938302 -0.0169743673
400297600.0 0.0519115163 -0.0157852323 0.5396027649 -0.5821544622 0.5399336737 -0.5818264528 0.0514284916 -0.0173959999
405297570.0 0.0522557738 -0.0167870504 0.5334053704 -0.5874939172 0.5332397614 -0.5878360731 0.0508431071 -0.0176991444
410297540.0 0.0515556255 -0.0167450231 0.5270891102 -0.593637081 0.5270156504 -0.5938087688 0.0503819941 -0.0185790122
415297510.0 0.0508200191 -0.0173741209 0.5199399161 -0.5993095969 0.5205351654 -0.5995982829 0.0503910489 -0.019011693
420297480.0 0.0507324861 -0.0184963892 0.5135840369 -0.6054986092 0.5140141535 -0.605604528 0.0503574234 -0.0196871364
425297450.0 0.0510928539 -0.0189908769 0.5070324824 -0.6108637613 0.5067908795 -0.6109339244 0.0496082279 -0.0206356231
430297420.0 0.0501300579 -0.0194729412 0.5009193028 -0.6164274839 0.5006695173 -0.6164515074 0.0496824636 -0.0209767879
435297390.0 0.0499369941 -0.0201223254 0.4929461203 -0.6230496497 0.4933421472 -0.6221749953 0.0485366499 -0.0213201753
440297360.0 0.0497615845 -0.0209517267 0.4863278653 -0.6278078859 0.4861230806 -0.6278326032 0.0487441074 -0.0218197643
445297330.0 0.0492760157 -0.0220061847 0.4797666366 -0.6327743675 0.4798721956 -0.6329935443 0.0482579045 -0.0223853083
450297300.0 0.0491415493 -0.0222114337 0.472833383 -0.6379237563 0.4729052387 -0.6378836466 0.0482062594 -0.0225866609
455297270.0 0.0479648313 -0.0230339795 0.4658837473 -0.6434567899 0.4660808466 -0.6438896003 0.0480578211 -0.0232977378
460297240.0 0.0481559092 -0.0234419913 0.4590412932 -0.6493922503 0.4588814871 -0.6485546641 0.0472481257 -0.0243272304
465297210.0 0.0478126026 -0.0242202779 0.4509970005 -0.6533733766 0.4506741393 -0.654124919 0.0477892538 -0.0238288854
470297180.0 0.0472824675 -0.0249210686 0.4442932197 -0.6584212202 0.4446719961 -0.658912924 0.0471677145 -0.0251602024
475297150.0 0.0465471315 -0.0251666498 0.4371495948 -0.6637966635 0.4370894901 -0.6639269423 0.0466456948 -0.0256315193
480297120.0 0.0468806729 -0.0250523754 0.4291220369 -0.6683855793 0.4300931369 -0.6681589428 0.0460471217 -0.0263844657
485297090.0 0.0461874289 -0.0268934418 0.4224141371 -0.6731236726 0.4224630078 -0.6727656409 0.0458247019 -0.0264065127
490297060.0 0.0463502169 -0.0266608258 0.4143269185 -0.677392957 0.4146302717 -0.6783278708 0.0453428958 -0.0271340514
495297030.0 0.0453741797 -0.0276237435 0.4077709928 -0.6824079404 0.4079309358 -0.6828213574 0.0456983643 -0.0276420597
500297000.0 0.0448260161 -0.0277563572 0.4001862312 -0.6862989791 0.3998894984 -0.6871427751 0.0451609145 -0.027826648
505296970.0 0.0450443583 -0.0283139018 0.3921956932 -0.6915043626 0.392455665 -0.6912799589 0.0446496287 -0.0290723409
510296940.0 0.0443525165 -0.029095176 0.3848977479 -0.6963420184 0.3853176864 -0.6962827637 0.0444647381 -0.0287247368
515296910.0 0.0437220127 -0.0290816087 0.3762041161 -0.6995141829 0.377087362 -0.7001977903 0.043675868 -0.0304229543
520296880.0 0.0434974874 -0.0294288994 0.3698400201 -0.7038595516 0.3689104213 -0.7034380838 0.0438237565 -0.0296282773
525296850.0 0.0437388592 -0.0302063381 0.3613249354 -0.7077068274 0.3616357829 -0.7079727384 0.043423935 -0.0305466752
530296820.0 0.0424730589 -0.0312156996 0.3539840413 -0.7123669712 0.3540167258 -0.712022716 0.0429170749 -0.0317185397
535296790.0 0.0429810867 -0.0311160659 0.3465728339 -0.7155273561 0.3464122317 -0.715504976 0.0427805929 -0.0313712041
540296760.0 0.0421822816 -0.0314258621 0.3384072082 -0.7195273271 0.3383771361 -0.7193853954 0.0425366368 -0.0324610588
545296730.0 0.0409582358 -0.031763033 0.3302526372 -0.7229911125 0.3303578529 -0.7228313158 0.0419288045 -0.0328196537
550296700.0 0.0414608914 -0.0319886408 0.3226090846 -0.7266444851 0.3225515297 -0.727209461 0.0417315708 -0.032950425
555296670.0 0.0407052094 -0.0326377963 0.3148704988 -0.7306077657 0.3148689678 -0.7303850306 0.0410167514 -0.0339539197
560296640.0 0.0411709975 -0.0328602815 0.3062476901 -0.7331541423 0.30693647 -0.734130623 0.0405774865 -0.0334383797
565296610.0 0.0399419147 -0.0333733116 0.2987538484 -0.73741208 0.2988784186 -0.7364502891 0.0401604654 -0.0342475041
570296580.0 0.039140317 -0.0337789096 0.2903710349 -0.740220024 0.2906620869 -0.7405165761 0.0398250368 -0.0351460629
575296550.0 0.0389322089 -0.0345426417 0.2825309499 -0.7432437731 0.2823837328 -0.7434519701 0.039364322 -0.0349735456
580296520.0 0.0387793804 -0.0342963122 0.2743236761 -0.7466609387 0.2740237936 -0.7466005007 0.0381519816 -0.0358144447
585296490.0 0.038274894 -0.034663831 0.2659154958 -0.7493232718 0.265793296 -0.7491705724 0.0388440841 -0.0358069741
590296460.0 0.0385260981 -0.0350051124 0.2581442941 -0.7517866297 0.2580534691 -0.7522082383 0.0375960674 -0.0360460704
595296430.0 0.0376082048 -0.0353687313 0.2489544391 -0.7551855952 0.2493911606 -0.7546289348 0.0374822637 -0.0369390043
600296400.0 0.0377241576 -0.035593687 0.2407867034 -0.757530131 0.2411285805 -0.7579256931 0.0369917452 -0.0374900365
605296370.0 0.0360486975 -0.0360332842 0.233218887 -0.7601339288 0.2322070442 -0.7602587477 0.0361870574 -0.0375455966
610296340.0 0.0364365153 -0.0358252575 0.2245619247 -0.7618078006 0.2255341672 -0.7627392906 0.0354559342 -0.0378191112
615296310.0 0.0360862892 -0.036440929 0.2159565306 -0.7657031263 0.2158819484 -0.7654408565 0.0354274597 -0.0379268586
620296280.0 0.0350458102 -0.0363533785 0.2071015992 -0.7672842722 0.2079844327 -0.7673141755 0.0344704571 -0.0381347743
625296250.0 0.0347477226 -0.0368889408 0.1996596013 -0.7699711516 0.1992749009 -0.7699259774 0.0334338608 -0.0388524068
630296220.0 0.0343395823 -0.0367151592 0.1903997701 -0.7722127794 0.1907156564 -0.7716554324 0.0337011202 -0.0390566607
635296190.0 0.0332155991 -0.0367562107 0.1825806246 -0.7739130719 0.1829774357 -0.7738925046 0.0332704264 -0.0393421914
640296160.0 0.0328481251 -0.0370403391 0.174396082 -0.7761636485 0.1741293657 -0.7760916019 0.0320780837 -0.0397499663
645296130.0 0.03285868 -0.0366958107 0.165357156 -0.7776793724 0.1659081899 -0.7776752123 0.0315147912 -0.0402721781
650296100.0 0.0321695844 -0.0373089673 0.1569852906 -0.7794424755 0.1571692078 -0.7798323716 0.0321979273 -0.040557386
655296070.0 0.0315744965 -0.0374738589 0.1483008 -0.7811581368 0.148867812 -0.7809480626 0.0304397712 -0.0402596339
660296040.0 0.0309180335 -0.0373960128 0.1398940787 -0.7827612792 0.1401256984 -0.7830065905 0.030034739 -0.0414010467
665296010.0 0.0307804888 -0.0377770583 0.1308558819 -0.7840075447 0.1312555957 -0.7837852467 0.0295796418 -0.0412349861
670295980.0 0.0301926192 -0.0375887069 0.1230137969 -0.7853767401 0.1229073699 -0.7851893825 0.0282821829 -0.0416511369
675295950.0 0.0294261811 -0.0379892413 0.1139631797 -0.7868575982 0.1144052939 -0.7869334316 0.0279630002 -0.0414731292
680295920.0 0.0286718916 -0.0381048669 0.1059856301 -0.7876595616 0.1061117739 -0.7877377088 0.0277244913 -0.0424376735
685295890.0 0.0283675697 -0.0380605341 0.0967666171 -0.7894185098 0.0974615244 -0.7893906305 0.0273075965 -0.0416637719
690295860.0 0.0273525742 -0.038037576 0.0879862775 -0.7901140671 0.0882749299 -0.7905299906 0.0264416013 -0.0422562741
695295830.0 0.0274210409 -0.0386764742 0.0805127631 -0.7913124669 0.0798821089 -0.7906512289 0.0256014422 -0.0423154843
700295800.0 0.0266942146 -0.0381250675 0.0714378307 -0.7919141852 0.0716429331 -0.7915234524 0.0252105215 -0.0422175732
705295770.0 0.0256241981 -0.0382075965 0.0626632578 -0.7932681772 0.0629225274 -0.7922143453 0.024357895 -0.0421115971
710295740.0 0.0254111023 -0.0387916723 0.0543579595 -0.7934897604 0.0539337914 -0.7934142044 0.0241188489 -0.0421269228
715295710.0 0.0246055814 -0.0383208746 0.0451467188 -0.7939048317 0.0459208357 -0.7936533812 0.023120433 -0.0427613174
720295680.0 0.024798563 -0.038438118 0.0366662072 -0.7938196709 0.0368599846 -0.794368538 0.0225296742 -0.04282123
725295650.0 0.0234370111 -0.0380898465 0.0281488309 -0.7943549214 0.0286003925 -0.7947424943 0.0213921716 -0.0423548752
730295620.0 0.0221750174 -0.0388287534 0.0192099641 -0.7943220221 0.019954365 -0.794061425 0.0210654049 -0.0419682784
735295590.0 0.0223127888 -0.038598839 0.0107909756 -0.7949981493 0.0114841236 -0.7950263158 0.0205665623 -0.0429839616
740295560.0 0.0218180516 -0.0389515911 0.0023558992 -0.7951669418 0.0026053368 -0.7949144355 0.0192478922 -0.0426496439
745295530.0 0.0208972267 -0.0383787426 -0.0060749087 -0.7939792998 -0.0055986354 -0.7954955711 0.0181154426 -0.0429360118
750295500.0 0.0201451218 -0.0382074373 -0.0147354976 -0.7946332152 -0.0149004207 -0.7947549546 0.0180701518 -0.0427023433
755295470.0 0.0192553334 -0.038363153 -0.0230100325 -0.7949315056 -0.0230194444 -0.794898919 0.0176751099 -0.04217453
760295440.0 0.0191155986 -0.0378811221 -0.0323931518 -0.79434221 -0.0318088489 -0.7939111662 0.0171677703 -0.0437246359
765295410.0 0.0186616221 -0.0388463188 -0.0405663488 -0.7940644942 -0.040086203 -0.793601417 0.0162730069 -0.0429108492
770295380.0 0.0178016736 -0.0381865557 -0.0487259047 -0.7924496406 -0.0487420998 -0.7936049853 0.0153164273 -0.0428524797
775295350.0 0.0172868687 -0.0387436036 -0.0575286464 -0.7930168359 -0.0571570062 -0.7923526892 0.0151486283 -0.0425141476
780295320.0 0.0163690523 -0.0380565756 -0.0661735105 -0.7912921985 -0.066198222 -0.7916764269 0.0143457836 -0.042816678
785295290.0 0.0157130266 -0.038360008 -0.0747057329 -0.7911535001 -0.0747479508 -0.7910293814 0.0130555283 -0.0422671205
790295260.0 0.0152976511 -0.038439487 -0.0833386453 -0.7900762695 -0.0834319343 -0.7902745137 0.0127905983 -0.0419735674
795295230.0 0.0146524639 -0.0383297132 -0.0920441593 -0.7895453241 -0.0920793651 -0.7895731217 0.0123961943 -0.0430901904
800295200.0 0.0136265788 -0.0378586554 -0.1000416307 -0.7875841852 -0.1003023027 -0.788046935 0.0113430873 -0.042382786
805295170.0 0.0128272546 -0.0381357946 -0.1091996137 -0.7872770614 -0.1085863983 -0.7867345661 0.0116787821 -0.0420211921
810295140.0 0.0127275782 -0.0378419342 -0.1176213889 -0.7856991682 -0.1171761656 -0.7860857013 0.0105511198 -0.0423074139
815295110.0 0.0118030097 -0.0375081321 -0.1261314761 -0.7849264122 -0.125584886 -0.7847221651 0.0096983225 -0.0422843385
820295080.0 0.0116187104 -0.0377681557 -0.1339547585 -0.7826457165 -0.1345177607 -0.7831643285 0.0080626013 -0.0408990399
825295050.0 0.0104268384 -0.0376825243 -0.1430636451 -0.7818172511 -0.1428844697 -0.781204125 0.0088394203 -0.0409531234
830295020.0 0.0099296155 -0.0377408691 -0.1513280819 -0.779907997 -0.151356218 -0.7801753941 0.008023854 -0.0413600744
