!Created with skrf (http://scikit-rf.org).
# Hz S RI R 50.0 
!freq ReS11 ImS11 ReS21 ImS21 ReS12 ImS12 ReS22 ImS22
300000.0 -0.09443391 -0.1024902995 0.6227414181 0.0951891917 0.6212401571 0.0958196802 -0.0959223025 -0.1085311411
5299970.0 -0.1015380554 0.0113069047 0.6306665513 0.011099597 0.6309352681 0.0113173373 -0.1016553375 0.0112785165
10299940.0 -0.0967592956 0.0286600184 0.634732094 0.0164858991 0.6343540444 0.0167630761 -0.0963165273 0.0285400016
15299910.0 -0.0893145446 0.0423428641 0.6405034746 0.0213280933 0.6408389476 0.0212243905 -0.0897759647 0.0418310268
20299880.0 -0.080473356 0.0536056935 0.6487675133 0.0243944993 0.6494636738 0.0241793735 -0.0810463609 0.0528324175
25299850.0 -0.0701159063 0.0622870197 0.6583683004 0.0261106735 0.6581681551 0.0257791478 -0.0716380956 0.061704678
30299820.0 -0.0609405322 0.0687705533 0.6681580897 0.0244915053 0.6680827224 0.0241385644 -0.0617969967 0.0683344412
35299790.0 -0.0504941984 0.0736525338 0.6770510035 0.0219529586 0.6773848751 0.0216624306 -0.0521792972 0.0737566571
40299760.0 -0.0410642899 0.0762542159 0.6869191135 0.0179153189 0.6869823569 0.0176119014 -0.0427578032 0.0768268621
45299730.0 -0.0318640824 0.0782309131 0.6952407942 0.0125939314 0.6961710932 0.0121971089 -0.0332895877 0.0789021335
50299700.0 -0.0229317455 0.0789820379 0.7037089491 0.0052256029 0.7039234621 0.0049073561 -0.024454822 0.0803330364
55299670.0 -0.0151787616 0.0787496168 0.7107307746 -0.0022508537 0.7108801796 -0.0024749782 -0.0172828186 0.0804608091
60299640.0 -0.0077080031 0.0787929733 0.7181204587 -0.0110815411 0.7180841626 -0.0108801645 -0.0096175541 0.0797370685
65299610.0 -0.0010383246 0.0771474263 0.7240758959 -0.0196452886 0.724144371 -0.0197600355 -0.0024563834 0.07895333
70299580.0 0.0051426291 0.074789836 0.729181609 -0.0285578547 0.7293568491 -0.0290921027 0.002961768 0.0771891796
75299550.0 0.0103930677 0.0733724363 0.7331117213 -0.0390230713 0.7337916506 -0.0391521773 0.0089799275 0.0755844995
80299520.0 0.0153196225 0.0714600152 0.7375599915 -0.0485082246 0.7379659152 -0.0484668068 0.0138237785 0.0733948873
85299490.0 0.0199771296 0.0690074248 0.7412728757 -0.0589116901 0.7411990321 -0.0583542505 0.0180766278 0.0710868228
90299460.0 0.0242317917 0.0666556193 0.7430345975 -0.068407203 0.7438395834 -0.068300446 0.0226018827 0.0692458107
95299430.0 0.028035255 0.0644125372 0.746262131 -0.0788894912 0.7464914107 -0.078862683 0.0259389107 0.0667228036
100299400.0 0.0313658699 0.061573624 0.7478411466 -0.0888177955 0.7474724016 -0.0890508007 0.0290926582 0.0646875436
105299370.0 0.0341692008 0.0589512223 0.7489644352 -0.0984123944 0.7497021027 -0.0988207815 0.0327370833 0.0615632542
110299340.0 0.0372448034 0.0564213946 0.7504543443 -0.1083031884 0.7507597648 -0.1083140272 0.0350126798 0.0594443794
115299310.0 0.0395402909 0.0543702448 0.7518770855 -0.1186576116 0.7512201326 -0.1189890252 0.0374975329 0.0576057584
120299280.0 0.0417849207 0.0522135985 0.752268114 -0.1300957794 0.7517865236 -0.1295122532 0.0397623906 0.0546792496
125299250.0 0.0436795933 0.0496779352 0.7523014294 -0.1388670967 0.7522189938 -0.1384974752 0.0421575046 0.0528003318
130299220.0 0.0455934809 0.0472154194 0.7524871857 -0.1488025504 0.7521364739 -0.1491068058 0.0439375648 0.0506902048
135299190.0 0.0471200455 0.0452863228 0.7513778409 -0.1584197816 0.751878867 -0.1588832311 0.0455401883 0.0477333056
140299160.0 0.0489876371 0.0433353232 0.7516672782 -0.1688576722 0.7512438832 -0.1682710219 0.0461502159 0.0456529239
145299130.0 0.0492875899 0.0411421351 0.7500887864 -0.1779935596 0.7505135001 -0.1781186011 0.0479491134 0.0438021435
150299100.0 0.0507816428 0.0391101906 0.7496255358 -0.1876393704 0.7494174271 -0.1877658519 0.0491051988 0.0421102087
155299070.0 0.0526073892 0.0370343521 0.7477897253 -0.1977082874 0.7484010693 -0.1975895581 0.0505302558 0.0397651764
160299040.0 0.0534434416 0.0356084531 0.7469354576 -0.2072855539 0.7469162249 -0.2066603772 0.0509752354 0.0383744286
165299010.0 0.0544462119 0.0334271379 0.7451992881 -0.2161714081 0.7452084955 -0.2166894061 0.052044057 0.0359002917
170298980.0 0.0550638949 0.0320416177 0.7432232398 -0.2255985606 0.7431265232 -0.2260634132 0.0525233506 0.0339035248
175298950.0 0.0560373517 0.0303993195 0.7418776814 -0.235014953 0.7419221243 -0.2358079934 0.0533753836 0.0327387006
180298920.0 0.0563191277 0.028836627 0.7397287835 -0.2446351674 0.7394861856 -0.2444618927 0.0539249549 0.0308585792
185298890.0 0.0566743539 0.0271761608 0.7375773395 -0.2531543255 0.7374820686 -0.2532265101 0.0552348881 0.0289754541
190298860.0 0.0578719101 0.0257656211 0.7344095271 -0.2627577369 0.7351598591 -0.2626733516 0.0554832944 0.0274122434
195298830.0 0.058157356 0.0242220507 0.7324871753 -0.2716133664 0.7327491824 -0.2718293218 0.0555630291 0.0261240943
200298800.0 0.0585594951 0.0224753204 0.7301261973 -0.2808707684 0.7299504161 -0.2807979829 0.0561068764 0.0242947808
205298770.0 0.0581647847 0.0209472284 0.7270619242 -0.2892433583 0.7273191146 -0.2890171699 0.0569488659 0.0227523717
210298740.0 0.0591130129 0.0198673844 0.7241555009 -0.2982780735 0.7234838776 -0.298341228 0.0565376151 0.0207323244
215298710.0 0.0595470535 0.0185325501 0.72121707 -0.3066333765 0.7209759477 -0.3074339841 0.0571604883 0.0199785703
220298680.0 0.0597975735 0.0174030725 0.7175503994 -0.3150389419 0.7175603689 -0.3158525972 0.0573231769 0.018207096
225298650.0 0.0596990286 0.0160987416 0.7141871916 -0.3238249908 0.7146483599 -0.323828242 0.0578804012 0.01642492
230298620.0 0.0603349084 0.0149361719 0.7110616333 -0.332758157 0.7114446984 -0.3327693484 0.0575631303 0.0151834499
235298590.0 0.0599849446 0.0137583785 0.7080195434 -0.3419199311 0.7082403329 -0.3418399458 0.0581803991 0.0144879983
240298560.0 0.0601253589 0.0128175918 0.7043547707 -0.3496973837 0.7036439494 -0.349777423 0.057848675 0.0128219488
245298530.0 0.0603465517 0.0113258825 0.7004021723 -0.3581727853 0.700468711 -0.3581129302 0.0580370142 0.0119692208
250298500.0 0.0602934402 0.0102311204 0.6966174215 -0.3659796809 0.6970782744 -0.366102043 0.0578468776 0.010590376
255298470.0 0.0606351997 0.0095836424 0.6934967625 -0.373832345 0.6930703376 -0.374627585 0.0580564077 0.0095477322
260298440.0 0.0606653329 0.0081391534 0.6890803914 -0.3820265095 0.6891224421 -0.3822548966 0.0578172777 0.0078128597
265298410.0 0.0599240046 0.0077412506 0.6849273609 -0.3904232314 0.6847126166 -0.390677158 0.0586728216 0.0067286595
270298380.0 0.0601295974 0.0063408452 0.6806089443 -0.3982904147 0.6805697734 -0.3981469191 0.0584326936 0.0059380177
275298350.0 0.0604718845 0.0056429966 0.6753636814 -0.4057629441 0.6758169864 -0.4062105445 0.0578283003 0.0050330568
280298320.0 0.0599090073 0.0043417465 0.6721310273 -0.4137763709 0.6718906383 -0.4141870875 0.0583541905 0.0038230696
285298290.0 0.060092688 0.0035578283 0.6672794926 -0.4220138287 0.6674571881 -0.4216876858 0.0581141345 0.0025746523
290298260.0 0.059798829 0.0027914166 0.6636021632 -0.4299015264 0.6634484255 -0.4299094414 0.0583037161 0.001708846
295298230.0 0.05981793 0.0015272383 0.6586641994 -0.4380001956 0.658455872 -0.4377198445 0.0575965372 0.0002503908
300298200.0 0.0601978293 0.0008548599 0.6540689945 -0.4453015983 0.6539560339 -0.4450354181 0.0578273562 -0.0005032735
305298170.0 0.0601060006 -0.0011337397 0.6489756477 -0.4531217284 0.6494243253 -0.4534239798 0.0579161653 -0.0022052405
310298140.0 0.0605863116 -0.0017584826 0.6445455807 -0.4605934176 0.6438110584 -0.4602756613 0.0578961311 -0.0037847102
315298110.0 0.0600648297 -0.0030919012 0.6392839606 -0.4688452841 0.6390977062 -0.468577637 0.0576909627 -0.0045499997
320298080.0 0.0597501682 -0.003825463 0.6333183391 -0.4760036443 0.6345257938 -0.476142034 0.0573334131 -0.0056873345
325298050.0 0.0586851347 -0.005185712 0.6285508185 -0.4828334498 0.6288345755 -0.4829531942 0.0570663034 -0.0068072892
330298020.0 0.0576835296 -0.0060781398 0.622504661 -0.4912103102 0.6235117224 -0.4911315838 0.0561020166 -0.0078860015
335297990.0 0.057676288 -0.0067261509 0.6174007914 -0.4970221155 0.617487247 -0.4976320973 0.0556555151 -0.0087626035
340297960.0 0.0567889993 -0.0078535791 0.6109506819 -0.5047717229 0.6111966924 -0.5050293777 0.0552570622 -0.0089177266
345297930.0 0.0565226256 -0.0083670383 0.6055459737 -0.512004247 0.6055751817 -0.51197176 0.0553232206 -0.0106259394
350297900.0 0.0559611506 -0.0091705585 0.6004193045 -0.5177471183 0.6007531488 -0.5184946474 0.0546249933 -0.0114911696
355297870.0 0.0554640163 -0.0095553776 0.5948078913 -0.5241619739 0.5942246896 -0.5245241805 0.0542537918 -0.0119908911
360297840.0 0.0552476979 -0.0101276156 0.5879370336 -0.5314642184 0.5888081379 -0.5318407816 0.0535126783 -0.0120627805
365297810.0 0.0546628456 -0.0108634862 0.5821458766 -0.5377104412 0.5820581571 -0.5382519882 0.0528637062 -0.0133215244
370297780.0 0.0548811797 -0.0114097277 0.5764835081 -0.5448812683 0.5767404377 -0.5442898158 0.0528937906 -0.0140629112
375297750.0 0.0542270225 -0.0121130032 0.5705152097 -0.5508607546 0.5710163411 -0.5508682108 0.0528535644 -0.0147520124
380297720.0 0.0534323876 -0.0126793822 0.5651035358 -0.5581416714 0.5641881379 -0.5571938936 0.0522910124 -0.0150528268
385297690.0 0.0531545616 -0.0138919377 0.5579383786 -0.5635431924 0.5580837163 -0.5641160995 0.0522283044 -0.0155015521
390297660.0 0.0530018796 -0.0143557704 0.5521262676 -0.5692282119 0.5523535542 -0.5695472423 0.0523088302 -0.0165808232
395297630.0 0.0533264278 -0.0149898304 0.5462390196 -0.5750792074 0.5456929731 -0.57527498 0.0513476575 -0.0171712832
400297600.0 0.0519437918 -0.0159313139 0.5391714108 -0.5816013774 0.5398380212 -0.5814722794 0.0512779684 -0.0173468011
405297570.0 0.0517999134 -0.0166245489 0.5337157696 -0.5877789565 0.5327832533 -0.5877021703 0.0509694241 -0.0176545597
410297540.0 0.0514903705 -0.0166123136 0.5269899991 -0.593940507 0.5270925431 -0.5934201479 0.0504721807 -0.0187233466
415297510.0 0.0509025881 -0.0175209404 0.5199004924 -0.599188823 0.5206504629 -0.599643122 0.0504618081 -0.0192256625
420297480.0 0.0506096417 -0.0183465011 0.5132318382 -0.6051320163 0.51426753 -0.6057453396 0.0503966983 -0.0193767964
425297450.0 0.0510187206 -0.0189093263 0.5071955614 -0.6107371584 0.5067342273 -0.6113737753 0.0499634227 -0.0205205849
430297420.0 0.0502015549 -0.0195109182 0.5007048383 -0.6169935841 0.5009031242 -0.6165801307 0.0500088762 -0.0209471863
435297390.0 0.0499832106 -0.0203081894 0.4929439275 -0.6231658666 0.493705126 -0.62223049 0.0486076471 -0.0211788673
440297360.0 0.0495470296 -0.020830076 0.4862924851 -0.627697561 0.4863868636 -0.6278196179 0.0485663687 -0.0217550997
445297330.0 0.0496456074 -0.0216920322 0.4800139486 -0.632611258 0.4796223707 -0.6330695033 0.0483087665 -0.0220319913
450297300.0 0.0489872868 -0.022191703 0.4724702912 -0.6378322437 0.473093408 -0.6383964676 0.0480697344 -0.0224162644
455297270.0 0.0480304606 -0.0229168706 0.4660653352 -0.6430347507 0.4658401612 -0.6436405672 0.0475466756 -0.0231663774
460297240.0 0.0481914924 -0.0234763841 0.4588689381 -0.6494218835 0.4583376676 -0.6489827644 0.0472309115 -0.0240344403
465297210.0 0.0478058829 -0.024169259 0.4511541517 -0.6535606292 0.4506974696 -0.65378138 0.0476156173 -0.0237514943
470297180.0 0.0472242548 -0.0249949585 0.4440478016 -0.6579724108 0.4446991671 -0.6587522208 0.0472553846 -0.025204095
475297150.0 0.0465091345 -0.0249264985 0.4365252494 -0.6632845909 0.4372183963 -0.663453684 0.0467057702 -0.0257391615
480297120.0 0.0466784265 -0.0250139687 0.4294989295 -0.6683331796 0.4294975416 -0.6684230546 0.0458785172 -0.0261749935
485297090.0 0.0462577526 -0.026880005 0.4222132557 -0.6734168484 0.4224309248 -0.6726321481 0.045669227 -0.0262261222
490297060.0 0.046599068 -0.0266183908 0.4147248847 -0.6777177705 0.414858517 -0.678206632 0.0453799162 -0.0269689466
495297030.0 0.0452418607 -0.0278823781 0.4077868205 -0.6825306795 0.4077046617 -0.6828682891 0.045361178 -0.0276645448
500297000.0 0.0446626116 -0.0278573644 0.4005027902 -0.6863799178 0.400166591 -0.6868387902 0.0449492003 -0.0276767621
505296970.0 0.0449325994 -0.0282291919 0.3927286524 -0.6916942858 0.3925704043 -0.6907512143 0.0444049367 -0.0290949267
510296940.0 0.0443554554 -0.0290378149 0.3848583482 -0.6966594162 0.385450764 -0.6962563161 0.0442599454 -0.028872984
515296910.0 0.0436480428 -0.0291897798 0.3764469232 -0.699910349 0.3769758409 -0.6999542253 0.0437254242 -0.029920799
520296880.0 0.0433144804 -0.0295916417 0.3696085599 -0.7036568557 0.3690751128 -0.7034040704 0.0441559787 -0.0295815502
525296850.0 0.0434091072 -0.0303504064 0.3619208464 -0.7071481319 0.362039351 -0.7080755238 0.0436696099 -0.0304218674
530296820.0 0.0424452574 -0.0310100185 0.353456467 -0.7125990167 0.3543344197 -0.7119818913 0.0428221923 -0.0313958058
535296790.0 0.0429043632 -0.0311561422 0.346260408 -0.7154086486 0.3464913184 -0.7157871658 0.0429754136 -0.0313592719
540296760.0 0.0419592277 -0.0313633268 0.3375115218 -0.7197883948 0.3382330236 -0.7197416056 0.0422927724 -0.0323986893
545296730.0 0.0407361329 -0.031870159 0.3298909025 -0.7230652337 0.3304836758 -0.7226994691 0.0420890569 -0.0328058457
550296700.0 0.0415579441 -0.0322688207 0.3223222533 -0.7268366316 0.322371326 -0.7269872299 0.0419751594 -0.0330548108
555296670.0 0.0407791177 -0.0327893107 0.3141010544 -0.7305073394 0.3150157246 -0.730155084 0.0410860523 -0.0340147391
560296640.0 0.0411878548 -0.033133162 0.3063388603 -0.7336335575 0.3069148352 -0.7338555408 0.0405999278 -0.0336094102
565296610.0 0.0396807215 -0.0335302263 0.2987990505 -0.7368890032 0.2989416232 -0.7363603547 0.0404988767 -0.0341683431
570296580.0 0.0392105651 -0.0337332854 0.2901381967 -0.740433816 0.2908234926 -0.7406997828 0.0396824828 -0.0348920032
575296550.0 0.0391371011 -0.0341195181 0.282614728 -0.7431000411 0.2822257714 -0.7432356806 0.0393061531 -0.0350605899
580296520.0 0.0387718307 -0.0343843915 0.2740304532 -0.7460972379 0.2742467669 -0.7468421336 0.0383402368 -0.0355254324
585296490.0 0.0383070155 -0.0345475188 0.2661614709 -0.7495263183 0.266150319 -0.749142018 0.0384863944 -0.0355025452
590296460.0 0.0384396573 -0.0351248956 0.2581534952 -0.7525546977 0.2578714405 -0.7528973216 0.0374419033 -0.0360362837
595296430.0 0.0377810583 -0.0352588492 0.2489913015 -0.7556191271 0.2492549363 -0.7554493141 0.0374952445 -0.0368002748
600296400.0 0.0377318646 -0.0356765269 0.2409440857 -0.7574220937 0.2415132268 -0.7578633352 0.037222743 -0.0373384449
605296370.0 0.0363122978 -0.0360409714 0.2334983046 -0.7600999754 0.2325710658 -0.7606907269 0.036464868 -0.0373967371
610296340.0 0.0365541082 -0.035829309 0.2245926107 -0.761915959 0.2253420061 -0.7624019387 0.0355640953 -0.0375245334
615296310.0 0.0362724046 -0.0363358806 0.2164231855 -0.7653844797 0.2154896305 -0.7652354285 0.0354743211 -0.0378889358
620296280.0 0.0350087648 -0.0361012025 0.2074626982 -0.7675801553 0.2072778296 -0.767282613 0.0343430716 -0.0381270829
625296250.0 0.0346786965 -0.0368157275 0.1990977394 -0.7701079158 0.1994356156 -0.7701579761 0.0337102397 -0.0385340721
630296220.0 0.034073298 -0.0367507834 0.1905033596 -0.7720146317 0.1907369803 -0.7714653356 0.0336098441 -0.0386385787
635296190.0 0.0332284613 -0.0368033765 0.1827045353 -0.7738672506 0.1828930414 -0.7741990355 0.033068848 -0.0393634
640296160.0 0.0329710872 -0.0368467249 0.1739791155 -0.7759497052 0.1737844173 -0.7758769887 0.0320424436 -0.0397270303
645296130.0 0.0330792848 -0.0367447514 0.1654661234 -0.7775665661 0.1656413436 -0.7776157244 0.0315581443 -0.0404125261
650296100.0 0.0322429485 -0.037327798 0.1568812267 -0.7799401584 0.1567760866 -0.7803208527 0.032040253 -0.0404356968
655296070.0 0.0317788704 -0.0375279548 0.1480731575 -0.7814085789 0.1484716611 -0.7813605707 0.0303685264 -0.0403531558
660296040.0 0.0311811576 -0.0371942183 0.1401229933 -0.7829052207 0.1400411981 -0.783216924 0.0298999616 -0.0413092637
665296010.0 0.030976948 -0.0379835675 0.1304655981 -0.7834923967 0.1314435632 -0.7843470453 0.0296254494 -0.0409996127
670295980.0 0.0302528995 -0.0376220845 0.1226597049 -0.7855269553 0.1223084992 -0.7850575448 0.0283631486 -0.0414874962
675295950.0 0.0295319968 -0.038038143 0.1142533219 -0.7868508492 0.114169518 -0.7867287859 0.027803817 -0.0412065123
680295920.0 0.0289460254 -0.0381015717 0.105242437 -0.787924816 0.1067032495 -0.7879209835 0.0277653335 -0.0421042561
685295890.0 0.0286046464 -0.0378850477 0.096631228 -0.7891361472 0.0972385571 -0.7891922708 0.0273840636 -0.0416363451
690295860.0 0.0276225295 -0.0380736062 0.0880246019 -0.7898170227 0.0883597914 -0.7902743692 0.0263122204 -0.042219004
695295830.0 0.0271767119 -0.0386256436 0.0804696557 -0.7909417208 0.079670593 -0.7910518742 0.025844724 -0.0423205948
700295800.0 0.026937457 -0.0381792772 0.0714949291 -0.7916512413 0.0714888648 -0.7922387779 0.0252407974 -0.042248952
705295770.0 0.0258069516 -0.0383667386 0.0630115004 -0.7930413127 0.0628174729 -0.7924744176 0.0245639428 -0.0422398341
710295740.0 0.0253919883 -0.0385511481 0.054080225 -0.7932172794 0.0538995151 -0.7938247174 0.0238878896 -0.0422958138
715295710.0 0.0247278783 -0.0381395896 0.0454337195 -0.7941945719 0.046005677 -0.7937193832 0.0231631249 -0.0426483942
720295680.0 0.0247312592 -0.0382850527 0.0371205995 -0.7941061873 0.0371023151 -0.7947576816 0.0224783817 -0.042875408
725295650.0 0.0232064872 -0.0383097547 0.0286676157 -0.7944495057 0.0284017038 -0.7944286225 0.0214714578 -0.0422565106
730295620.0 0.0222107936 -0.0386356039 0.0194547831 -0.7948865897 0.0198055114 -0.7941586017 0.0209305106 -0.0419491201
735295590.0 0.0227698419 -0.0385924043 0.0110500639 -0.7951999186 0.0109542108 -0.7953088016 0.0202065881 -0.0430848881
740295560.0 0.0216905635 -0.039053697 0.0026359719 -0.7951256602 0.0024043502 -0.7950646527 0.0190965476 -0.0425179339
745295530.0 0.0208069684 -0.0384728122 -0.0058770235 -0.7939292283 -0.0053457628 -0.7946209034 0.0180224329 -0.0427196681
750295500.0 0.020171638 -0.0386084289 -0.0143680637 -0.7947624347 -0.0149273553 -0.7946500909 0.0179238741 -0.0425129657
755295470.0 0.01921896 -0.0384318146 -0.0227505586 -0.7950437764 -0.023160709 -0.7946800254 0.0178081078 -0.0422060636
760295440.0 0.0189243872 -0.0377982402 -0.0329387048 -0.7942563633 -0.0317688686 -0.7936147051 0.0171215027 -0.0436824819
765295410.0 0.018844699 -0.0386143288 -0.0407858728 -0.793492301 -0.0404248255 -0.7933870197 0.0163306364 -0.042904243
770295380.0 0.0180145109 -0.0382282381 -0.0487520088 -0.7926384365 -0.0492232871 -0.7936382428 0.0152706436 -0.0426270399
775295350.0 0.0171794885 -0.0385154567 -0.0578278583 -0.7927571698 -0.0574760283 -0.7918804823 0.0152316771 -0.0423519884
780295320.0 0.0164299348 -0.0378044032 -0.0664717665 -0.7914458235 -0.0661151672 -0.792013434 0.0144856817 -0.0427359625
785295290.0 0.0157286889 -0.0383463368 -0.0743612437 -0.791176126 -0.0749247428 -0.7910669716 0.0129402487 -0.0422476941
790295260.0 0.01534782 -0.0385364568 -0.0834317255 -0.790360296 -0.0832746093 -0.7902842978 0.0123645542 -0.0418054128
795295230.0 0.0146451069 -0.0384564528 -0.0921649617 -0.7892480016 -0.0920389533 -0.7894772803 0.0123741389 -0.0431023821
800295200.0 0.0136489 -0.0378497872 -0.0999630396 -0.7874388603 -0.1007731489 -0.7882254147 0.011290333 -0.0419683536
805295170.0 0.0128268785 -0.0382615455 -0.10911024 -0.7871950102 -0.1084038552 -0.7867495463 0.011352192 -0.0420085968
810295140.0 0.0128222031 -0.0379094404 -0.117433488 -0.7856418234 -0.1178370935 -0.7859287664 0.0105115233 -0.0423452316
815295110.0 0.0120124907 -0.0375345408 -0.125769718 -0.7837972126 -0.1256084864 -0.7846598007 0.0096111728 -0.0420776854
820295080.0 0.0115302997 -0.0377270612 -0.1337167274 -0.7827326051 -0.1343922563 -0.7834133494 0.0082847171 -0.0412049417
825295050.0 0.0104153105 -0.0377852981 -0.1432810699 -0.781901321 -0.1428322817 -0.781366248 0.0086676235 -0.0410431521
830295020.0 0.0097964036 -0.0377910499 -0.1515704686 -0.7797421074 -0.1511607115 -0.779933251 0.0077230146 -0.0415732612
