!Created with skrf (http://scikit-rf.org).
# Hz S RI R 50.0 
!freq ReS11 ImS11 ReS21 ImS21 ReS12 ImS12 ReS22 ImS22
300000.0 -0.7722689681 -0.1281895568 0.0001591217 0.0007021777 -0.0006057792 -0.0001675999 0.8594961463 -0.0027265586
5299970.0 -0.7851201138 -0.0068523717 -9.33654e-05 0.0001541741 -0.000286535 9.37908e-05 0.8594825369 -0.0102347362
10299940.0 -0.7880607413 -0.0044222724 -0.0002089998 5.79858e-05 3.31074e-05 -0.0001517463 0.8587409188 -0.0188525862
15299910.0 -0.7934605574 -0.0027592395 -5.19886e-05 0.00011327 -0.0001495691 -0.0001652829 0.8574095936 -0.0271270266
20299880.0 -0.8000961218 0.0020731304 -9.4252e-05 -5.778e-05 -6.07878e-05 -6.16159e-05 0.8568419579 -0.0362869949
25299850.0 -0.8066327342 0.0076262357 8.11354e-05 0.000103014 6.78481e-05 -2.12098e-05 0.8564997656 -0.0431258904
30299820.0 -0.812571616 0.015016874 0.0001962459 -1.76901e-05 5.31837e-05 4.61133e-05 0.8554811008 -0.0515294407
35299790.0 -0.8174676744 0.0243539863 -0.0001055331 -5.7606e-06 -3.13164e-05 1.4422e-05 0.8542998245 -0.0597148056
40299760.0 -0.8211191962 0.0334395895 -0.000125807 -0.0001232594 -0.0001207586 6.6233e-06 0.8537905744 -0.0678591153
45299730.0 -0.8241276606 0.0427923981 -1.26221e-05 -6.49184e-05 -0.0002204492 -7.026e-06 0.8526294796 -0.0760992201
50299700.0 -0.8270931947 0.0531111579 -0.0001486733 3.3521e-06 3.73173e-05 -0.0001614068 0.8520440989 -0.0843856971
55299670.0 -0.8299454287 0.0633152175 -5.13163e-05 -0.000134148 0.0001737275 4.6572e-06 0.8506119627 -0.0929066098
60299640.0 -0.8305844938 0.0732618688 -0.0001508343 5.24e-08 4.52964e-05 0.0001880057 0.8498873039 -0.1010115158
65299610.0 -0.8310418476 0.0833053364 -5.69085e-05 5.02308e-05 0.0002230632 4.36827e-05 0.8491821262 -0.1090024927
70299580.0 -0.8315131027 0.0934137274 -7.59569e-05 -2.64829e-05 6.64346e-05 5.0436e-06 0.8473666466 -0.1166137119
75299550.0 -0.8320069314 0.1036815362 -0.0001199889 7.95084e-05 -8.28355e-05 -0.0001108576 0.846093221 -0.1258413048
80299520.0 -0.8318105071 0.1130514127 1.87966e-05 0.0003069608 -4.19415e-05 -0.0001042422 0.8452666609 -0.1335414172
85299490.0 -0.8308961963 0.1226276218 5.62236e-05 -2.97455e-05 -6.63864e-05 -0.0001469694 0.8437291506 -0.1418890159
90299460.0 -0.8301663839 0.1320937683 -0.0001616637 0.0001707264 0.0001068276 -0.0001694577 0.8419853577 -0.1499790161
95299430.0 -0.8293661255 0.1417862164 -2.67633e-05 2.60666e-05 -4.70505e-05 0.0001418868 0.8399903534 -0.1579699627
100299400.0 -0.8284495092 0.1507491696 8.6562e-06 -0.0001473736 -0.0001062234 -3.43536e-05 0.8390900454 -0.1665072877
105299370.0 -0.8274345261 0.160479673 -0.000246336 -0.0002536951 -6.92715e-05 0.0001219456 0.837543354 -0.1749167312
110299340.0 -0.8254087669 0.1692981056 -7.77965e-05 -1.2295e-06 -8.93447e-05 -0.0001794847 0.8360303842 -0.1822451507
115299310.0 -0.8235759767 0.1785502175 1.81374e-05 7.05845e-05 7.23022e-05 -5.80985e-05 0.8339931044 -0.1907386113
120299280.0 -0.8219706806 0.1868200703 0.0001071065 7.33257e-05 -9.27873e-05 -4.31559e-05 0.8324425435 -0.1989181157
125299250.0 -0.820632784 0.1957253509 -1.3587e-06 9.09661e-05 -0.0001524178 0.0002107174 0.830725082 -0.2068376
130299220.0 -0.8188654173 0.2051974125 -5.65826e-05 6.30336e-05 -1.02214e-05 -0.0001155732 0.828661974 -0.2147672711
135299190.0 -0.8168258219 0.2136004929 -2.71081e-05 7.97456e-05 1.79173e-05 1.03733e-05 0.8267320663 -0.2223077587
140299160.0 -0.8144584814 0.2230989294 -3.61533e-05 -7.3494e-06 6.70759e-05 -2.01549e-05 0.8240030161 -0.2302221835
145299130.0 -0.8121836596 0.2323256463 -7.41818e-05 5.15628e-05 1.10972e-05 -7.3951e-05 0.8219788795 -0.2384699172
150299100.0 -0.809845629 0.2408302723 0.0001656289 7.23117e-05 5.36058e-05 -2.5237e-05 0.8198142907 -0.246867931
155299070.0 -0.8079018697 0.2491876375 4.56153e-05 -0.0001767734 0.0001159238 -8.48971e-05 0.8173076293 -0.254612663
160299040.0 -0.8052418648 0.2580149051 2.75469e-05 -2.31875e-05 -0.0001210714 -5.42841e-05 0.8148996379 -0.2617329164
165299010.0 -0.8027608822 0.2666131843 -0.0002993207 -8.14732e-05 9.77337e-05 0.0001286961 0.8114150919 -0.2702337465
170298980.0 -0.8001835352 0.2748987275 -4.84618e-05 -4.08068e-05 -3.12682e-05 0.0001097099 0.808859427 -0.2777790796
175298950.0 -0.7976417843 0.2840469295 -3.41042e-05 -8.563e-06 1.42609e-05 -7.08643e-05 0.8067869432 -0.2858249585
180298920.0 -0.7948332016 0.2927261809 -0.0002398016 -6.42762e-05 -2.51336e-05 5.2004e-05 0.80370361 -0.2942615871
185298890.0 -0.7911787146 0.3010577819 4e-06 4.98358e-05 -6.93513e-05 -0.0001079492 0.8007791039 -0.3015856689
190298860.0 -0.7885162591 0.3096997028 0.000127164 -0.0001467033 -0.0002093233 0.0001220788 0.7973386175 -0.3089536025
195298830.0 -0.7850873023 0.3180404526 -0.0001077589 0.0001024461 2.74955e-05 7.93291e-05 0.7945553718 -0.3166238941
200298800.0 -0.7818387062 0.3258292343 -5.6829e-06 -7.65797e-05 0.0002718577 7.00984e-05 0.7917578219 -0.324573313
205298770.0 -0.778301495 0.3339803975 -0.0001886232 0.0001131364 1.92085e-05 -0.0001021485 0.7881271701 -0.3318783024
210298740.0 -0.7746548398 0.3425110711 4.63207e-05 0.0001456922 0.0002919205 -0.0001202552 0.7844346711 -0.3392483321
215298710.0 -0.7716366461 0.3507667134 -7.48209e-05 -7.1592e-05 -2.08166e-05 -0.0002498141 0.7811862418 -0.347044244
220298680.0 -0.7673244981 0.3591431989 0.0003284144 3.83802e-05 0.0001763386 -3.26456e-05 0.7776218897 -0.3542189871
225298650.0 -0.7643048869 0.3665539323 0.0001177697 0.0001984013 -0.0002531868 -0.0001360893 0.7741898815 -0.3617670973
230298620.0 -0.7604856108 0.3743024146 -0.0001235873 -7.31597e-05 0.0003226639 -6.53454e-05 0.7711133797 -0.3693628055
235298590.0 -0.7564637558 0.3833297403 -5.589e-05 -2.92291e-05 0.0002086194 0.0002060086 0.7667139713 -0.3768360748
240298560.0 -0.752868016 0.39076678 -2.43148e-05 -0.000210055 -0.0001172906 -4.84396e-05 0.7630360726 -0.3844755075
245298530.0 -0.7489881502 0.398873638 0.0003708545 1.61968e-05 0.0001017015 -0.0001283258 0.7595853676 -0.3918875203
250298500.0 -0.7441216327 0.4068862643 0.0001812241 1.24973e-05 -1.91373e-05 -2.3793e-05 0.7558399312 -0.3991015666
255298470.0 -0.7398311193 0.4138171575 7.74706e-05 0.000225745 8.35855e-05 5.84321e-05 0.7518016537 -0.406644866
260298440.0 -0.7357375229 0.4217055015 -1.8489e-06 5.70436e-05 2.87668e-05 -5.38858e-05 0.7480938017 -0.4133698253
265298410.0 -0.7312504135 0.4297983696 -0.0001045563 -0.0001662349 -0.0001625622 3.51133e-05 0.7434904216 -0.4209498545
270298380.0 -0.7271273752 0.4368632017 -0.0001970794 -8.65253e-05 -3.84348e-05 0.0001416292 0.7396899088 -0.4279928051
275298350.0 -0.7224787569 0.4448560451 6.65102e-05 3.03643e-05 -3.27624e-05 0.0001771625 0.7357286537 -0.4355947628
280298320.0 -0.7172667094 0.4524068821 6.8738e-06 3.24446e-05 6.7698e-06 -5.58535e-05 0.7318147999 -0.442640097
285298290.0 -0.7129117961 0.4601338539 1.72387e-05 -4.63641e-05 0.000119526 -0.000120151 0.7282389798 -0.4494033194
290298260.0 -0.7078990875 0.4671466943 -4.79432e-05 0.0002025772 -5.50911e-05 0.0002082781 0.7236369585 -0.457080245
295298230.0 -0.7026584849 0.4743757695 2.23257e-05 5.4181e-05 5.85836e-05 -0.000104046 0.7198998477 -0.4638958855
300298200.0 -0.6977037645 0.4817631062 8.67169e-05 2.53901e-05 8.03891e-05 0.0003240227 0.7153938458 -0.4714068332
305298170.0 -0.6924161139 0.4883400479 -3.22786e-05 8.47305e-05 -8.6944e-06 -0.000216683 0.7120747603 -0.4793756809
310298140.0 -0.6873960571 0.4963388391 -1.53702e-05 -2.00961e-05 -0.0002061388 -5.55917e-05 0.7061231693 -0.4867085065
315298110.0 -0.6826932086 0.5031483349 4.9888e-06 8.53522e-05 -2.13441e-05 0.0001030772 0.7008780453 -0.4939453878
320298080.0 -0.6773456466 0.5101003662 -0.0001663396 -0.000235258 7.88345e-05 1.48935e-05 0.6962716992 -0.5018016131
325298050.0 -0.6715207364 0.5171657277 -1.10466e-05 5.24851e-05 7.77176e-05 2.15863e-05 0.6906269721 -0.5081541436
330298020.0 -0.6668567718 0.5233021645 6.13773e-05 0.0001624303 -0.000110329 -5.72829e-05 0.6844379294 -0.5148356516
335297990.0 -0.6613641861 0.5307038807 -1.54587e-05 4.7949e-05 -3.85755e-05 -1.43294e-05 0.6791124594 -0.5207986222
340297960.0 -0.6561082392 0.5378459379 -0.0001409367 -6.69664e-05 0.0001760968 -3.15157e-05 0.6736515733 -0.5275032742
345297930.0 -0.6503699363 0.5439933297 -6.8855e-06 -9.39417e-05 7.37817e-05 3.43171e-05 0.6676382054 -0.5337031022
350297900.0 -0.6443531485 0.5503947481 -1.35405e-05 -1.64196e-05 0.0001297994 0.0001139009 0.6627768351 -0.5396190009
355297870.0 -0.6380963105 0.5579469161 -0.000156212 -1.2376e-06 7.42333e-05 -7.9044e-05 0.6571423536 -0.5454476736
360297840.0 -0.6322330273 0.5638950088 0.0001089452 -0.0001424679 0.000171263 -4.11403e-05 0.6515286264 -0.5522309795
365297810.0 -0.6278748417 0.5699258779 9.04826e-05 0.0001713888 1.11143e-05 -8.417e-05 0.646040526 -0.5587950645
370297780.0 -0.6211821084 0.5769325195 -0.0001089638 0.0001013712 4.29044e-05 -9.7987e-06 0.6404389251 -0.5642445308
375297750.0 -0.6148307619 0.5830502447 7.35899e-05 -0.000106091 0.000129254 2.30773e-05 0.634818966 -0.570578616
380297720.0 -0.6086048816 0.5890032128 -5.8626e-05 0.0001017602 1.86562e-05 2.72529e-05 0.6282872191 -0.5764215844
385297690.0 -0.6036284211 0.5952894208 1.37076e-05 0.0003176657 0.0001327321 1.43919e-05 0.6230266912 -0.5823264634
390297660.0 -0.5972950768 0.601030818 -7.35055e-05 -3.9882e-06 -6.06349e-05 -6.49901e-05 0.6174333582 -0.5880758066
395297630.0 -0.5903688335 0.6074868427 -0.0001238761 3.53061e-05 -6.44428e-05 -2.81596e-05 0.6115850117 -0.5937638855
400297600.0 -0.5839506701 0.614063213 -7.97386e-05 -0.0004057972 -6.71342e-05 0.0001948181 0.6055910968 -0.599095786
405297570.0 -0.5785018491 0.6196768452 0.0001212291 0.0001626583 -0.0002143359 0.0001989389 0.599845605 -0.605810082
410297540.0 -0.5711128265 0.625167991 -4.82028e-05 -0.0002276849 0.0001526042 -7.53555e-05 0.5938829116 -0.6117514734
415297510.0 -0.5649108222 0.6310281725 1.72025e-05 0.0001469743 0.0001606466 -9.765e-06 0.587263172 -0.617291269
420297480.0 -0.5593634877 0.6371071845 0.000284266 0.0001144552 -8.57891e-05 -9.331e-05 0.5821831627 -0.622392759
425297450.0 -0.5515899019 0.642524835 0.000128261 2.45305e-05 -6.84589e-05 -0.0001121867 0.5754668989 -0.6284488197
430297420.0 -0.5460435698 0.648029751 0.0001430058 -1.354e-05 -0.0001924744 -0.0003152411 0.5693936289 -0.6348546911
435297390.0 -0.539065088 0.6531477276 -0.0001006266 0.0001707723 -9.71315e-05 1.04445e-05 0.5632272569 -0.6395668089
440297360.0 -0.5318549934 0.6588884655 0.0001238366 2.19378e-05 6.99948e-05 0.0001607084 0.5568711531 -0.6449279713
445297330.0 -0.5252436625 0.6638884461 9.56143e-05 -0.0001078171 1.09535e-05 3.13293e-05 0.5508903719 -0.6509199513
450297300.0 -0.5185961523 0.6690464328 -0.0001689068 -0.0001686397 2.76618e-05 -0.000160442 0.5437840053 -0.6556523415
455297270.0 -0.5119929791 0.6741206227 -0.0001399824 0.000126644 8.68684e-05 -6.10474e-05 0.5383117279 -0.6606981162
460297240.0 -0.5050608337 0.6793658543 0.0001065879 6.9147e-05 6.13304e-05 -2.15163e-05 0.5311500898 -0.6662202425
465297210.0 -0.4979566348 0.6846189152 0.0001575065 4.07314e-05 9.30311e-05 5.07118e-05 0.5248558291 -0.6715782406
470297180.0 -0.4904982405 0.6896037469 -7.99404e-05 -3.22061e-05 -0.0001673609 6.0493e-05 0.5179122727 -0.6766235021
475297150.0 -0.4836726017 0.6945740009 8.01526e-05 5.11205e-05 2.9015e-05 -6.4234e-05 0.5113397031 -0.6808640955
480297120.0 -0.4765531205 0.6991325748 5.3578e-06 -3.29721e-05 0.0001054092 0.0001845291 0.5049925701 -0.6855745609
485297090.0 -0.4695905826 0.7040963262 8.9941e-06 -5.65336e-05 -7.546e-05 6.88311e-05 0.4982812728 -0.6906349532
490297060.0 -0.4622391606 0.708519473 -1.29406e-05 -0.0001854988 -5.06901e-05 -1.79457e-05 0.4909306106 -0.6958058202
495297030.0 -0.4553317944 0.7134342663 -0.0001094393 -8.42583e-05 -9.93637e-05 3.43432e-05 0.4843280198 -0.6998726214
500297000.0 -0.4482712385 0.7182472762 -0.0001036424 -6.9614e-06 -4.75153e-05 -5.06982e-05 0.4774577745 -0.7051138957
505296970.0 -0.4398761289 0.7226569074 3.96088e-05 1.90421e-05 4.40129e-05 -0.0001395569 0.4703107851 -0.7092891611
510296940.0 -0.4333756067 0.7265412997 7.2154e-06 -3.67566e-05 4.2994e-05 -0.0001422111 0.4631192097 -0.7141896752
515296910.0 -0.4246465823 0.7304431599 0.0002796876 -8.74234e-05 0.0002115315 0.000100657 0.4566227832 -0.717771135
520296880.0 -0.4182551438 0.7354646881 -0.0003134433 5.10535e-05 -0.0002017549 2.4347e-05 0.4488749445 -0.7229455739
525296850.0 -0.4104236432 0.7393898275 -9.5974e-05 -0.0002299371 -0.0001512927 -0.000305662 0.4420344 -0.7261330222
530296820.0 -0.4029012005 0.7431398161 -0.0001255634 2.55402e-05 -2.01687e-05 0.0001849465 0.4353308518 -0.7306059122
535296790.0 -0.3961365042 0.7469695169 0.0002280663 -0.0002412394 -0.0001692983 7.4168e-05 0.4273016338 -0.7351183039
540296760.0 -0.3883287443 0.7508609075 0.0001384357 0.0001776392 -0.0001642047 -0.0001522804 0.4197837827 -0.7385866793
545296730.0 -0.3807399156 0.7553450892 6.9831e-06 3.5915e-05 -3.81271e-05 -1.13476e-05 0.4128869263 -0.7431308074
550296700.0 -0.3731474903 0.7589165571 -0.0001444947 -9.06008e-05 2.2634e-05 -3.37787e-05 0.4053838051 -0.7474364373
555296670.0 -0.3651543965 0.7616197365 -0.0001785078 0.0001078426 -0.000219949 0.0001930855 0.3983232992 -0.7507155884
560296640.0 -0.3578735941 0.7662474798 0.0002575955 -4.09055e-05 -8.94833e-05 0.0001577972 0.3900997483 -0.7543130127
565296610.0 -0.3498444782 0.7698863831 -8.012e-05 0.0004320294 -0.0001734524 6.77965e-05 0.3828568738 -0.7579794916
570296580.0 -0.3424699174 0.7721556501 -0.0001854016 9.63141e-05 6.9471e-06 -0.000124098 0.375092646 -0.7620231896
575296550.0 -0.3346145527 0.7769070821 -1.57541e-05 6.21564e-05 -0.0001006058 0.0001176458 0.3677826767 -0.7653040529
580296520.0 -0.32656366 0.7800645313 2.99451e-05 2.24741e-05 -5.20155e-05 0.0001995411 0.3603610484 -0.7686466851
585296490.0 -0.3189918086 0.783068582 -0.0002779805 -2.14855e-05 -7.9977e-06 0.0002279287 0.3534897041 -0.7724943549
590296460.0 -0.3109717575 0.7856318438 7.71803e-05 1.38866e-05 0.0001281116 0.0001061482 0.3447697868 -0.7748817816
595296430.0 -0.3030075394 0.7884677338 0.000112562 -6.52193e-05 -1.74845e-05 6.86233e-05 0.3372301676 -0.7789872689
600296400.0 -0.2952383595 0.7919306565 0.0001065582 -0.0001798763 -0.0001029294 0.0001449336 0.3301615802 -0.7824784517
605296370.0 -0.2876523189 0.7948086244 8.02094e-05 9.0976e-06 -7.62898e-05 -0.0002292765 0.3220794593 -0.7851589276
610296340.0 -0.2790335972 0.7972781276 -3.5682e-05 -1.1717e-06 -0.0001696893 -0.0001147084 0.3147391409 -0.7878832027
615296310.0 -0.2705823055 0.8000828248 -3.39587e-05 6.85829e-05 -7.237e-05 -5.02082e-05 0.3064363899 -0.7915735616
620296280.0 -0.2632726232 0.8022367984 1.88784e-05 7.00233e-05 -0.0001359498 7.39027e-05 0.2986592319 -0.7944853018
625296250.0 -0.2550018321 0.805651069 0.0001623898 -0.0001730087 0.0003140733 0.0001816318 0.2914533187 -0.7972483495
630296220.0 -0.2461637219 0.8082260245 -3.12413e-05 0.0001860743 0.000187259 -0.0001135386 0.2829869302 -0.7996480263
635296190.0 -0.239000464 0.8106443821 0.0001264758 5.7894e-06 -0.0002003381 -9.80797e-05 0.275693455 -0.8028776479
640296160.0 -0.2314242319 0.8121669243 0.0001331541 -3.65992e-05 -5.32138e-05 -0.0002905292 0.2668561105 -0.8051841269
645296130.0 -0.2227418696 0.8150596351 1.72051e-05 0.0001334101 -5.9939e-05 -5.4593e-05 0.2594917097 -0.8071995689
650296100.0 -0.2146826639 0.8164943969 -7.64124e-05 -0.0001099113 9.655e-06 -0.0001229574 0.2518224162 -0.8108215771
655296070.0 -0.2059987467 0.8187049178 -0.0001352585 5.13059e-05 -2.95088e-05 -6.56413e-05 0.2443854504 -0.8117996813
660296040.0 -0.198298954 0.8208836426 -0.0001242827 6.23262e-05 -2.28385e-05 -0.0001229185 0.2363646317 -0.8151210936
665296010.0 -0.1901594948 0.8218396975 1.85123e-05 0.0001473095 -6.55334e-05 -1.44129e-05 0.2277691953 -0.8164020526
670295980.0 -0.1819982155 0.8243898273 9.35482e-05 4.54658e-05 2.85707e-05 -0.0002330581 0.2191868974 -0.8190958324
675295950.0 -0.1737743685 0.8262347672 0.0001623955 9.6115e-06 9.77546e-05 -0.0001020694 0.2107448105 -0.8201710388
680295920.0 -0.1651303781 0.8279692122 0.0001475057 9.84917e-05 -0.000141299 -0.0001022764 0.2034466799 -0.8222744329
685295890.0 -0.1569537185 0.8301197535 4.21064e-05 -8.10005e-05 -4.89896e-05 -0.0001290705 0.1953598079 -0.8246760778
690295860.0 -0.1489426952 0.8310495969 0.0001503437 4.07e-05 -7.23518e-05 2.19947e-05 0.186819619 -0.8253839385
695295830.0 -0.1408837163 0.8324795331 0.0001508306 0.0001703388 -0.0001074873 -0.0001292187 0.1789334293 -0.8271344078
700295800.0 -0.1319216814 0.8339066571 0.0003182379 0.0001433338 -0.0001977224 -0.0001344236 0.1704543646 -0.8294259935
705295770.0 -0.1239288927 0.834972262 1.772e-05 4.5928e-06 0.0001554608 -0.0001135427 0.1619449365 -0.829694571
710295740.0 -0.116287521 0.8365141049 -0.0002054264 -9.73297e-05 3.57022e-05 0.0001362333 0.1538490082 -0.8319192044
715295710.0 -0.1074267238 0.8374262979 -0.0002011029 -0.0001462483 -7.85735e-05 0.0001024665 0.145531688 -0.8331084
720295680.0 -0.0992115917 0.8384129595 -0.0001550432 2.59857e-05 -2.52534e-05 0.0001570863 0.1372407746 -0.8343394144
725295650.0 -0.0906526753 0.8402344975 -0.0001086549 3.29733e-05 5.67227e-05 -0.0001003955 0.1286543633 -0.8350937
730295620.0 -0.0826548103 0.8401053481 -6.62977e-05 6.54101e-05 4.90075e-05 -6.9344e-06 0.1199279504 -0.8364821097
735295590.0 -0.0739760276 0.8414931135 -0.0002511156 -0.0001596113 0.0003126351 -0.0001150238 0.1118113594 -0.837630913
740295560.0 -0.0660375075 0.8418140538 6.09202e-05 2.35506e-05 -0.000130923 0.0002201354 0.1038792358 -0.8384970892
745295530.0 -0.0577205334 0.8427210099 -9.1335e-06 -0.0002379022 -0.0001502867 6.90374e-05 0.0954391989 -0.8389959526
750295500.0 -0.0486977142 0.8427485462 3.65618e-05 -7.29963e-05 -2.41243e-05 -1.05859e-05 0.0873181064 -0.8398939167
755295470.0 -0.0409277432 0.8433949071 0.0001457392 7.39477e-05 4.74091e-05 5.37211e-05 0.0793931849 -0.8415865881
760295440.0 -0.0323514769 0.8432411852 -5.42797e-05 -7.14806e-05 -0.0001151772 7.38777e-05 0.0707931738 -0.8416846688
765295410.0 -0.0245842386 0.8437585671 -3.28048e-05 4.89704e-05 0.0001537987 -7.1596e-06 0.062856863 -0.8419422609
770295380.0 -0.0159189042 0.8444098739 2.81103e-05 1.1245e-05 1.05519e-05 0.000118586 0.0536790031 -0.8434472638
775295350.0 -0.0079882323 0.8441067357 0.0001404865 8.75218e-05 -2.12663e-05 -5.92318e-05 0.045098744 -0.8426956322
780295320.0 0.0006247292 0.8444003714 -8.49074e-05 -0.0001637073 6.88775e-05 0.0001259134 0.037513292 -0.8430733374
785295290.0 0.0091297698 0.8434036666 6.69642e-05 6.85589e-05 0.000110839 -9.7509e-06 0.0296673116 -0.8437397232
790295260.0 0.0178328526 0.8442170275 -3.97542e-05 1.9036e-05 -4.79388e-05 3.92558e-05 0.0219518463 -0.8442978201
795295230.0 0.025732117 0.8434043482 -6.8518e-05 -6.8776e-06 9.59532e-05 1.949e-06 0.0125874524 -0.8443730761
800295200.0 0.033824467 0.8429331603 -8.43754e-05 0.0002637773 5.5262e-05 0.0001594348 0.0041052754 -0.8438557088
805295170.0 0.0427543493 0.8428166105 0.0001811153 2.20585e-05 -7.68162e-05 0.000208281 -0.0043496712 -0.8435024208
810295140.0 0.0507198544 0.84272238 -0.0001090017 -3.77881e-05 -8.29783e-05 9.31299e-05 -0.0115692228 -0.8436560714
815295110.0 0.0590325501 0.8422092309 0.0001727862 0.0001213469 -6.50882e-05 2.58285e-05 -0.0215863404 -0.8429267827
820295080.0 0.0671173005 0.841700199 0.0001238708 8.97613e-05 0.0002449173 0.0002271307 -0.0291168421 -0.8426549185
825295050.0 0.0763124229 0.8405215805 0.0001399803 2.65659e-05 -7.6135e-05 -3.66293e-05 -0.0372319711 -0.8422949806
830295020.0 0.0838829351 0.8399170586 -0.0002179888 6.75056e-05 -3.9618e-05 -0.0001114258 -0.0452199114 -0.8419581014
835294990.0 0.0920502706 0.839094653 0.0002278824 -8.31561e-05 0.000140092 -2.9153e-06 -0.0543641649 -0.8408034483
840294960.0 0.1001545079 0.8382476229 -5.81284e-05 -3.73664e-05 -9.83061e-05 4.68284e-05 -0.0626001168 -0.8401156098
845294930.0 0.1083854433 0.8368609524 0.0001897235 -5.18798e-05 1.24584e-05 2.07952e-05 -0.0704751929 -0.8393827879
850294900.0 0.1168273011 0.8361227931 0.0002250207 -0.0001546785 0.0001620954 -9.38892e-05 -0.0795928326 -0.838367684
