!Created with skrf (http://scikit-rf.org).
# Hz S RI R 50.0 
!freq ReS11 ImS11 ReS21 ImS21 ReS12 ImS12 ReS22 ImS22
300000.0 -0.7723442578 -0.1851635527 -0.0007877801 -0.0003064543 5.27168e-05 0.0001522146 0.8599011448 -0.0029119516
5299970.0 -0.7863951763 -0.0097704729 8.11709e-05 -5.70635e-05 6.35897e-05 -1.89669e-05 0.8595177732 -0.0101133571
10299940.0 -0.789643653 -0.0058765801 0.0001812201 -0.0001486398 6.47539e-05 0.000101706 0.8580988378 -0.019094145
15299910.0 -0.7944691917 -0.0029689062 0.0001351391 -5.42039e-05 1.26005e-05 0.0001589602 0.8573832048 -0.0275886918
20299880.0 -0.8013103848 0.000742992 4.99162e-05 -7.84124e-05 0.000113329 -0.0001184722 0.8562721793 -0.0358607385
25299850.0 -0.8078160011 0.0067211207 -0.0001177084 -4.72771e-05 -2.22664e-05 0.0001081577 0.8555395022 -0.0438254975
30299820.0 -0.8137689034 0.0138844886 -0.0001995089 -0.0001871961 3.76503e-05 3.68888e-05 0.8553501683 -0.0527052214
35299790.0 -0.8187514905 0.0231214379 -7.19761e-05 6.06346e-05 -0.0001471717 6.141e-06 0.8548218535 -0.0613081984
40299760.0 -0.823317296 0.0318370866 2.18797e-05 -5.26178e-05 2.96121e-05 -9.49248e-05 0.8540542435 -0.0692428775
45299730.0 -0.8268138328 0.0420420545 -0.0001441002 -5.00054e-05 -0.0001302287 -7.0456e-06 0.8532798282 -0.0775135224
50299700.0 -0.8288770447 0.052129871 -1.11941e-05 -3.6254e-06 -0.0001087225 -0.0002091864 0.8520476793 -0.0854209739
55299670.0 -0.8313753125 0.0613154294 4.15008e-05 -6.71139e-05 -4.17574e-05 -9.4875e-06 0.85102455 -0.0935618418
60299640.0 -0.832814401 0.0718595873 -5.65429e-05 -6.08478e-05 1.30958e-05 -1.3899e-06 0.8497941512 -0.1023585624
65299610.0 -0.8334432451 0.0816872217 -1.6411e-06 -0.0001489655 5.86266e-05 -7.3356e-06 0.8491082561 -0.1107449041
70299580.0 -0.8339109715 0.0916463492 -7.20674e-05 5.57285e-05 5.28437e-05 0.0002606053 0.8478838323 -0.1186651902
75299550.0 -0.8339164825 0.1016584119 -9.6604e-06 -1.252e-05 2.82553e-05 4.25632e-05 0.8457843552 -0.1272318064
80299520.0 -0.8339575632 0.1121868742 0.0001104867 -0.0002148431 2.58119e-05 1.85695e-05 0.8454822632 -0.135609969
85299490.0 -0.8328474705 0.1208300009 -0.0002936761 -6.09655e-05 0.0002176279 -4.17557e-05 0.8440507148 -0.1434187874
90299460.0 -0.8324212028 0.1314017621 8.48268e-05 -7.73748e-05 1.66989e-05 5.11896e-05 0.8425547795 -0.151840637
95299430.0 -0.8315228985 0.1403632961 0.0001255878 0.0002119257 0.0001875078 7.58723e-05 0.8411910651 -0.1604709705
100299400.0 -0.8304009624 0.1497926369 0.000156037 -0.0001297491 0.0001953612 -6.66504e-05 0.8389116963 -0.1685035098
105299370.0 -0.8285441514 0.1591546571 -5.26186e-05 -3.33238e-05 -0.0001011547 7.64984e-05 0.8374406329 -0.1764424815
110299340.0 -0.8277151789 0.1683497492 6.99133e-05 5.02127e-05 5.26735e-05 -1.9588e-05 0.835450945 -0.1849668589
115299310.0 -0.8262163968 0.1779673616 -9.32275e-05 -5.15154e-05 9.94715e-05 0.0001734566 0.8337062974 -0.1929124897
120299280.0 -0.8243970874 0.186860767 0.0003187024 -6.92548e-05 -0.0002033061 -7.48869e-05 0.8317054464 -0.2009882611
125299250.0 -0.8223667174 0.1952849208 -2.37109e-05 0.0002094462 0.0001394367 0.0001160707 0.8299824214 -0.2090046619
130299220.0 -0.8213489598 0.2044876759 8.05055e-05 -9.43069e-05 1.86074e-05 -7.1115e-06 0.8276875061 -0.2165139535
135299190.0 -0.8187996405 0.2143179053 0.0001321379 -6.19463e-05 -5.73976e-05 3.36116e-05 0.825601494 -0.2252052465
140299160.0 -0.8173104904 0.2231622225 0.000137227 8.99492e-05 0.0001394492 1.1415e-05 0.8231803933 -0.2336598478
145299130.0 -0.8146383459 0.2323470273 -7.01116e-05 1.00411e-05 1.21218e-05 2.57211e-05 0.8205851156 -0.2417619557
150299100.0 -0.8118430249 0.2410435101 1.2873e-05 -0.0002202331 -0.0001096773 6.4843e-06 0.8178379224 -0.2491027486
155299070.0 -0.8100856094 0.2499599855 -0.0002131877 0.0001170437 0.0001720795 0.0001605211 0.8155019725 -0.2574754693
160299040.0 -0.8077060698 0.2587902742 -6.93849e-05 9.93331e-05 -3.71119e-05 0.0001357033 0.8129494334 -0.2652393092
165299010.0 -0.8042962371 0.2676170796 -2.94247e-05 0.000153908 0.0002140457 -3.9277e-06 0.8103917285 -0.2734137812
170298980.0 -0.8013430253 0.2762184426 -8.1485e-05 -8.62328e-05 8.8061e-06 -7.5787e-06 0.8072615412 -0.2811938929
175298950.0 -0.7990458216 0.2847459436 0.0002680001 -1.55303e-05 -2.4121e-05 0.0002631576 0.8046022204 -0.2889284409
180298920.0 -0.7960057507 0.2931408636 0.0001272689 2.49393e-05 -8.96321e-05 -0.0001589282 0.8024247989 -0.2970856411
185298890.0 -0.793195913 0.3022656986 -0.0001903003 9.05731e-05 0.0001602951 -1.64035e-05 0.7991082729 -0.3049496987
190298860.0 -0.7895778133 0.3111163903 1.59192e-05 0.0001324442 -9.15064e-05 -0.0002251961 0.7955172778 -0.3129736902
195298830.0 -0.7865374262 0.3192061577 -7.78254e-05 1.3307e-06 0.0001506463 8.72342e-05 0.79282483 -0.3204507046
200298800.0 -0.7822377983 0.3277438929 1.97459e-05 0.0002003018 1.94982e-05 -3.09253e-05 0.7892084103 -0.3280583694
205298770.0 -0.7794290198 0.3362358524 -0.000253963 -3.09777e-05 0.0001352331 0.0001149239 0.786257072 -0.3357775964
210298740.0 -0.7762698118 0.3447912287 -0.0001961456 -3.87602e-05 -0.0001475601 5.30537e-05 0.7829578866 -0.3434111795
215298710.0 -0.77247044 0.3532565503 0.0001156187 -6.48124e-05 0.0001031808 -4.58809e-05 0.7791272664 -0.3513716612
220298680.0 -0.7688831878 0.3608115355 -0.0001614864 0.0001629778 7.48406e-05 4.01417e-05 0.7754635547 -0.3586576896
225298650.0 -0.7650094584 0.369470207 -0.0001182374 0.0001126976 6.08998e-05 0.0001429309 0.7727052348 -0.3665330574
230298620.0 -0.7610297142 0.3778171921 0.0001538347 -7.35009e-05 -0.0002497576 -0.0001620187 0.7690176266 -0.3733489403
235298590.0 -0.7573020377 0.3862950955 -0.0001120964 -9.02471e-05 -0.0003163629 0.0001080165 0.7647437947 -0.3812992938
240298560.0 -0.7528459832 0.3933854345 -4.63459e-05 -8.29011e-05 -2.80087e-05 0.0001728716 0.7615801431 -0.3886834507
245298530.0 -0.7488326642 0.4019116446 -9.4934e-06 0.0001087802 6.96741e-05 0.0002241557 0.7572157236 -0.3957430158
250298500.0 -0.7445606086 0.4093385045 0.0001029963 0.0001413703 8.64449e-05 4.29839e-05 0.7531332069 -0.4033572373
255298470.0 -0.740609778 0.417899163 -0.0001438237 0.0002229026 -4.28843e-05 2.14906e-05 0.749228316 -0.4108237687
260298440.0 -0.7365998427 0.4252608081 0.0001769098 0.0001150725 -5.24843e-05 -0.000121468 0.7454568435 -0.4181871664
265298410.0 -0.7320420738 0.4328562694 -0.0001341721 3.57973e-05 0.0001596714 -4.76977e-05 0.741210775 -0.4253078633
270298380.0 -0.7272546776 0.4403387554 0.0002688157 -7.6741e-06 1.10353e-05 -1.05931e-05 0.737803143 -0.432617037
275298350.0 -0.7232229521 0.4484897361 -2.91237e-05 -0.0001068732 1.3428e-05 7.10985e-05 0.7322493408 -0.440162235
280298320.0 -0.7184954381 0.4558344133 -9.7582e-06 -0.0001483896 6.0619e-05 0.0001114495 0.728166531 -0.4472280909
285298290.0 -0.7133271973 0.4634615629 -0.0002814404 1.00349e-05 4.22576e-05 -5.73508e-05 0.7243742305 -0.4542446521
290298260.0 -0.7089914268 0.4708277538 0.0001186872 8.43167e-05 -4.7571e-05 -2.78431e-05 0.720081113 -0.4607244002
295298230.0 -0.7037715844 0.477744522 3.06925e-05 -4.30937e-05 2.75043e-05 -6.6062e-06 0.7156008091 -0.468148127
300298200.0 -0.6994478489 0.4855898302 -0.0001039675 -0.0001015131 5.30918e-05 0.0001330038 0.7110975512 -0.475608121
305298170.0 -0.6945158795 0.4927005544 9.89169e-05 -0.0001143717 -9.82647e-05 -7.573e-06 0.7058833152 -0.4823908437
310298140.0 -0.6887347937 0.5003692408 1.118e-07 -7.73395e-05 7.52113e-05 0.0001695184 0.7025783652 -0.4898462447
315298110.0 -0.6841689635 0.507324025 4.44939e-05 5.26242e-05 2.22654e-05 -9.58694e-05 0.697476972 -0.4969795205
320298080.0 -0.6785948789 0.5144043853 -0.00018433 -4.31778e-05 0.0001404558 0.0002010418 0.6926051494 -0.5043486381
325298050.0 -0.6735778708 0.5211540006 8.85848e-05 -3.97991e-05 0.0002462625 -2.90157e-05 0.6870568475 -0.512046513
330298020.0 -0.6677378799 0.5278080698 -1.7215e-06 0.0001127441 0.0001359979 -1.3042e-05 0.6816310244 -0.5198248643
335297990.0 -0.6626899852 0.5344539681 0.0001222402 9.06757e-05 -0.0001258605 -4.28588e-05 0.6757291948 -0.525926867
340297960.0 -0.6579728024 0.5412115432 4.75802e-05 -1.99919e-05 7.56692e-05 -3.77813e-05 0.6697868922 -0.5325517084
345297930.0 -0.6519360655 0.5485236257 9.50696e-05 -4.38625e-05 -0.0002224517 -7.84101e-05 0.6640955826 -0.5387119758
350297900.0 -0.6458509559 0.5548114705 -0.0001168977 0.0001712287 9.65757e-05 5.10499e-05 0.6583185067 -0.5450724735
355297870.0 -0.6409907797 0.5615350834 -0.0001758306 -6.11327e-05 2.96045e-05 0.0002920236 0.6528598051 -0.5516388695
360297840.0 -0.6351117106 0.5677801967 0.00021953 -0.0002259572 0.0002551517 -1.371e-06 0.6469547319 -0.5573648841
365297810.0 -0.6292126701 0.5742890879 9.06031e-05 0.0001384547 -6.4394e-05 1.40812e-05 0.6412827053 -0.5637621904
370297780.0 -0.6230420673 0.5807025028 0.0001168421 -0.000132997 -7.95152e-05 5.3501e-05 0.6351084147 -0.5695729836
375297750.0 -0.6180753459 0.5870964264 -6.66906e-05 8.70432e-05 -5.2276e-05 0.0001770428 0.6299472299 -0.5759623412
380297720.0 -0.6123260737 0.5940368772 0.0001529725 0.0001470129 -4.7617e-05 9.99551e-05 0.6239074524 -0.5814914399
385297690.0 -0.6062398654 0.5999391124 7.74296e-05 -0.0001327471 -2.91312e-05 -2.44145e-05 0.617802638 -0.5877255191
390297660.0 -0.5985590078 0.6054490031 0.0001403326 0.0001898352 -0.0001212237 -4.55365e-05 0.611816258 -0.5934739029
395297630.0 -0.5924452804 0.6119384111 3.5956e-05 0.0001503524 -1.34157e-05 -0.0002403698 0.6059383774 -0.5995576893
400297600.0 -0.5865185606 0.618397826 -5.59689e-05 -0.0002846485 9.4896e-06 0.0001248664 0.6004446213 -0.6052434478
405297570.0 -0.5804500241 0.6234643603 -7.0337e-06 1.7469e-05 0.0001523815 -3.49137e-05 0.5944585016 -0.6108471247
410297540.0 -0.5739179818 0.6296062826 -8.6751e-06 -6.63998e-05 5.50756e-05 -0.0001842026 0.588031612 -0.6169420504
415297510.0 -0.5674818218 0.6352742303 -7.35679e-05 -3.84521e-05 5.95435e-05 2.18532e-05 0.5821819864 -0.622363285
420297480.0 -0.5606541793 0.6411990151 0.0001932508 3.77599e-05 -6.07298e-05 2.6506e-06 0.5762482616 -0.6274308731
425297450.0 -0.5544303629 0.64674274 -0.000169973 0.0001668001 1.57361e-05 -8.50298e-05 0.5699487948 -0.6340865447
430297420.0 -0.5473079211 0.6516526619 -9.22137e-05 1.32168e-05 -0.0001296185 1.56861e-05 0.5632128834 -0.6393778675
435297390.0 -0.5408559827 0.6577728032 -8.91024e-05 -0.0001266544 -0.0001055049 -3.15886e-05 0.5567088279 -0.644985188
440297360.0 -0.5337185115 0.6630823131 5.64744e-05 4.36512e-05 0.0001741894 0.0001459226 0.550786316 -0.6495692084
445297330.0 -0.5274447577 0.6678503462 0.0001434193 -4.4978e-05 -5.39417e-05 9.90135e-05 0.5436538324 -0.6543520632
450297300.0 -0.5200038316 0.6736945534 -8.96105e-05 -0.0002522285 -3.40761e-05 0.0001788092 0.5376520117 -0.6600785133
455297270.0 -0.5131212129 0.6784759907 0.0001483996 0.0001980798 0.0001306496 -8.66239e-05 0.5310552156 -0.6650943548
460297240.0 -0.5059107052 0.6844320922 -6.72265e-05 -0.0001128798 6.62662e-05 8.30345e-05 0.5239020291 -0.6703184967
465297210.0 -0.499567541 0.6891554625 -0.0001321264 0.0001227543 -0.000114557 8.76869e-05 0.5171712071 -0.6747661872
470297180.0 -0.4916489332 0.6942845237 -0.0001115733 4.98359e-05 -0.0003106172 -0.0001375977 0.5110523726 -0.6801318125
475297150.0 -0.4846026172 0.6990762255 6.5716e-06 -2.66052e-05 3.72563e-05 -0.0001021053 0.5043272118 -0.6853110345
480297120.0 -0.4769609685 0.7035357178 -0.0002040273 2.53906e-05 -0.0001718672 -0.0001000199 0.4968138711 -0.6899789747
485297090.0 -0.4702994817 0.7086488908 4.55309e-05 -0.0001094291 -5.75649e-05 5.8035e-05 0.4905286693 -0.6953247854
490297060.0 -0.4620950889 0.7136357393 -2.07778e-05 6.84368e-05 -6.00803e-05 -0.0001612202 0.4834153546 -0.6996811419
495297030.0 -0.4548871606 0.7178101596 -7.33965e-05 9.2844e-06 -3.45519e-05 5.28692e-05 0.4764821274 -0.7050146242
500297000.0 -0.4472435196 0.7219842339 7.61048e-05 -0.0002645195 -0.0001019949 0.0001501525 0.4697784537 -0.7088800815
505296970.0 -0.439280784 0.7275270439 -0.0002789276 6.14025e-05 9.83739e-05 3.94286e-05 0.4622111308 -0.7136542919
510296940.0 -0.4317342489 0.7315168879 -0.0002678114 -5.8105e-06 -0.0001583563 2.39078e-05 0.4542227616 -0.7176167979
515296910.0 -0.4243424624 0.7352824186 -5.05091e-05 -0.0002286202 -0.0001404399 -3.35517e-05 0.4480227229 -0.722270889
520296880.0 -0.4163421445 0.7400421472 -6.35903e-05 7.13844e-05 -0.0002162285 -7.53523e-05 0.4412202365 -0.7269647731
525296850.0 -0.4082854893 0.7434790995 -0.0001502557 -0.0002659822 0.0001272318 -1.66892e-05 0.4333730561 -0.730491661
530296820.0 -0.4013129393 0.7480417909 0.0001110155 2.19357e-05 6.72601e-05 0.0001287695 0.4264725971 -0.7352458551
535296790.0 -0.3925812486 0.7516838491 -0.0003110433 0.0001517253 3.94004e-05 0.0001021684 0.4197734939 -0.739019134
540296760.0 -0.3851598289 0.7559137329 6.21842e-05 -0.0002301732 0.0002195819 -0.0001810172 0.4119494802 -0.7430720672
545296730.0 -0.3773880052 0.7605208698 -0.0001633333 2.74935e-05 7.05251e-05 -0.0001162471 0.4044128606 -0.7473565631
550296700.0 -0.3689872947 0.7637012611 -5.9961e-05 -7.54252e-05 0.0001564214 9.30835e-05 0.396814517 -0.75099116
555296670.0 -0.3614733473 0.7672251691 -2.60203e-05 -4.71442e-05 0.0001868486 7.90571e-05 0.3894252416 -0.7548654257
560296640.0 -0.3532445908 0.7702139772 3.35515e-05 -0.0001488034 -0.0001344516 -0.0001578557 0.3813976749 -0.7588593125
565296610.0 -0.3455183431 0.7739563812 -2.7631e-05 -9.31795e-05 0.000164621 -8.56197e-05 0.374571932 -0.7621301003
570296580.0 -0.3373330624 0.7785618645 3.61482e-05 -2.51352e-05 0.000110056 -9.90006e-05 0.3665301205 -0.7658684909
575296550.0 -0.3279053237 0.7810837156 -3.7005e-06 5.61677e-05 -0.0002779629 3.13259e-05 0.3588276615 -0.7689651436
580296520.0 -0.321239707 0.7845487258 -0.0001554549 4.31793e-05 -8.76748e-05 -0.0001396682 0.3512404237 -0.7724233242
585296490.0 -0.3123820745 0.787408869 3.51869e-05 -4.38759e-05 -4.83963e-05 0.0001111497 0.3432497972 -0.7753217194
590296460.0 -0.3034894275 0.7902130587 7.9255e-05 4.32278e-05 -0.0001264112 0.0001336682 0.3356532417 -0.7786064171
595296430.0 -0.2961588713 0.7936870818 9.5472e-06 9.89497e-05 -6.96568e-05 2.95946e-05 0.3281057906 -0.7824223887
600296400.0 -0.2882652056 0.7971344526 9.26309e-05 0.0001085734 7.64398e-05 7.31642e-05 0.3202074524 -0.7851636171
605296370.0 -0.2793411337 0.7997338536 -6.0728e-05 -1.36526e-05 -1.51899e-05 3.45131e-05 0.3127175761 -0.7880761721
610296340.0 -0.2716259798 0.8031711058 -8.1256e-05 7.14805e-05 -2.56502e-05 -8.23812e-05 0.3039407879 -0.7913923686
615296310.0 -0.2632137312 0.8056629309 -0.0001260448 -0.0001198901 0.0001507561 6.871e-07 0.2965163574 -0.7941036786
620296280.0 -0.2551292771 0.8083016708 0.0001155444 -0.0001544144 0.0001654125 6.21482e-05 0.2884297853 -0.796649785
625296250.0 -0.2471465123 0.8102644968 0.0001525819 3.9984e-05 -0.0001499614 -6.09377e-05 0.2806429087 -0.800148288
630296220.0 -0.238747243 0.8133272106 8.9843e-06 0.0001773445 0.0001611926 5.22077e-05 0.2728777728 -0.8023209152
635296190.0 -0.2305797162 0.8157938763 -0.0001282537 -9.5659e-06 0.0002193466 3.11701e-05 0.2648155983 -0.8045093613
640296160.0 -0.2216631367 0.8176944809 0.0002597542 -5.78299e-05 -0.0001179782 0.0002012944 0.2565528812 -0.8071560876
645296130.0 -0.2135258084 0.8201911501 8.37972e-05 -9.38669e-05 2.11592e-05 0.0002124138 0.2481355455 -0.8093900989
650296100.0 -0.205142789 0.8220112701 -0.0002801681 -7.66784e-05 -6.40481e-05 -1.70378e-05 0.2403049723 -0.8118504818
655296070.0 -0.1976611065 0.8248284774 7.20727e-05 -7.94379e-05 0.0002816659 -0.0001803115 0.2323890526 -0.8144270848
660296040.0 -0.1893104112 0.8265701463 -0.0002593543 8.12633e-05 -0.0001763996 0.0001041312 0.224440985 -0.8167077893
665296010.0 -0.1809301731 0.828564806 3.22432e-05 -0.000296598 -3.90531e-05 5.33117e-05 0.2162439743 -0.8182813429
670295980.0 -0.1723725117 0.8301077938 -0.0001266871 7.1387e-05 0.0001173247 2.40533e-05 0.2079299426 -0.8202210978
675295950.0 -0.1640399748 0.832107967 5.52133e-05 -0.0003107506 -0.0001073528 6.923e-07 0.199186253 -0.8223519326
680295920.0 -0.1563676756 0.8338931666 -0.0001366122 1.10691e-05 0.0001276783 -0.0002435394 0.1911955956 -0.823834701
685295890.0 -0.147436645 0.8356424322 -5.11503e-05 -0.0001207921 -0.0001154916 0.0001076087 0.1832328234 -0.8254017215
690295860.0 -0.1391849891 0.8369202276 -7.48765e-05 2.42374e-05 -2.10264e-05 -0.0001056691 0.1749478329 -0.8279844067
695295830.0 -0.1305670361 0.8389018998 -0.0002115276 -4.37971e-05 3.38623e-05 9.66333e-05 0.1667280488 -0.8283530317
700295800.0 -0.1224021794 0.8402331373 -1.73282e-05 -0.0001553102 1.5415e-05 -8.79681e-05 0.1584790865 -0.8300166409
705295770.0 -0.1142179776 0.8413888699 0.0001067284 4.60482e-05 -6.78935e-05 0.000129627 0.1498727797 -0.8313890862
710295740.0 -0.1067240643 0.8419901007 -0.0001166474 0.0002693 2.80743e-05 -0.0002179602 0.1421176318 -0.8327471156
715295710.0 -0.0980350042 0.8437474797 9.80012e-05 -6.34067e-05 -3.63821e-05 0.0001765123 0.1339350748 -0.8343819875
720295680.0 -0.088897224 0.8445079803 -8.73166e-05 -0.0001150937 -7.13253e-05 -2.40754e-05 0.1258141107 -0.8357527323
725295650.0 -0.0814901128 0.8458693109 -0.0001756925 0.0001207799 -1.11934e-05 -5.38871e-05 0.1168688044 -0.8360867683
730295620.0 -0.0736999365 0.8465665113 0.0001914628 -3.4419e-05 -0.0001006132 -0.0001506307 0.10845973 -0.8368673011
735295590.0 -0.0654050725 0.8479386289 -1.92924e-05 -7.51121e-05 -2.08157e-05 0.0001849978 0.1005076784 -0.8376087169
740295560.0 -0.0573375484 0.8479006283 -1.19792e-05 0.0001452207 -0.0001650453 7.23181e-05 0.0920692108 -0.8388691522
745295530.0 -0.0490332719 0.8488004703 2.97668e-05 0.0001174838 0.0001433313 -4.08065e-05 0.0829777747 -0.8396693636
750295500.0 -0.04077683 0.849339007 0.0001458613 -0.0002537221 0.0001727667 -0.0001711632 0.0749514571 -0.8402496049
755295470.0 -0.0325560265 0.84999509 0.0001439114 -2.11007e-05 -3.47431e-05 0.0001037288 0.0669186541 -0.8402760948
760295440.0 -0.0240806919 0.8507834136 0.0002084364 -3.5814e-05 5.80154e-05 -7.38354e-05 0.0587548022 -0.8416212829
765295410.0 -0.0157919935 0.8503672537 5.01549e-05 -5.11989e-05 -6.66789e-05 8.69537e-05 0.0494207925 -0.8413063869
770295380.0 -0.0079580048 0.8510214276 0.0001710948 -1.52444e-05 8.82905e-05 -1.4847e-06 0.0419133424 -0.8418319563
775295350.0 0.0001247649 0.8510536696 0.000156564 -4.11243e-05 5.18706e-05 1.1934e-05 0.0336981183 -0.8426586953
780295320.0 0.0087965544 0.8519254194 2.24289e-05 0.0001027926 0.0001274445 8.53924e-05 0.025097242 -0.8422957543
785295290.0 0.0171571128 0.8512712759 0.0001334474 3.60781e-05 0.0002078553 2.83142e-05 0.0161822453 -0.842749763
790295260.0 0.0251582127 0.8508607648 0.0001478632 -6.51737e-05 5.13773e-05 -5.8761e-06 0.0083372377 -0.8422295367
795295230.0 0.0332657626 0.8507670149 0.0001278852 8.24548e-05 3.89352e-05 0.0001531302 -0.0007707539 -0.8431681714
800295200.0 0.0412136536 0.8505664689 0.0001175128 5.57323e-05 -0.0002343427 -2.1393e-06 -0.0085715349 -0.8426026671
805295170.0 0.0493551012 0.8504304668 7.2618e-06 7.23834e-05 2.78003e-05 -6.37767e-05 -0.0165696928 -0.842140829
810295140.0 0.0580038617 0.8504972817 3.28326e-05 -2.36504e-05 -6.97884e-05 -0.0001844116 -0.0256021012 -0.841409889
815295110.0 0.0653209224 0.8495714377 5.96129e-05 5.99551e-05 7.28786e-05 -0.0001465079 -0.0345260027 -0.8413570479
820295080.0 0.0736536052 0.8490935116 3.80907e-05 -0.0003405639 -7.74601e-05 0.0001045714 -0.0425282256 -0.839575965
825295050.0 0.081967308 0.8483636465 0.0002834385 -9.37301e-05 -3.65515e-05 2.27208e-05 -0.0508588407 -0.8400369062
830295020.0 0.0909365934 0.8469371522 2.63118e-05 5.8649e-06 8.73265e-05 -0.0001864822 -0.0594043563 -0.8396048542
835294990.0 0.0983605886 0.846691503 -8.01234e-05 2.375e-07 0.0001475749 -7.05809e-05 -0.0674852822 -0.8377258163
840294960.0 0.1066977727 0.8451869233 -8.65002e-05 5.96334e-05 2.24921e-05 -0.0001198449 -0.0762464548 -0.8373136048
845294930.0 0.1148669046 0.8445137196 5.62261e-05 -4.81291e-05 0.0002506595 -7.01944e-05 -0.0840858213 -0.8362239495
