!Created with skrf (http://scikit-rf.org).
# Hz S RI R 50.0 
!freq ReS11 ImS11 ReS21 ImS21 ReS12 ImS12 ReS22 ImS22
300000.0 -0.0985860368 -0.0899291981 0.6241987959 0.081986518 0.6255998829 0.085997804 -0.0968128601 -0.0951081017
5299970.0 -0.1004302627 0.0126869741 0.6307399255 0.0107588925 0.6307140621 0.0110774344 -0.1021437011 0.0116957795
10299940.0 -0.0953993255 0.0297059288 0.6345590504 0.0159150406 0.6344318248 0.0162832193 -0.097190424 0.0289634759
15299910.0 -0.0882101278 0.0429002991 0.6403381135 0.0204364766 0.6406128629 0.0206127807 -0.0898936941 0.0421841541
20299880.0 -0.0793617556 0.0541880144 0.648888927 0.0244536681 0.6489549625 0.024322631 -0.0816737725 0.0532402291
25299850.0 -0.0697301517 0.0629555059 0.6581241812 0.0249978613 0.6580473178 0.0253615857 -0.072585463 0.0619944756
30299820.0 -0.0596826225 0.0691046245 0.6676865154 0.0249718022 0.6674134629 0.0244055768 -0.0624429482 0.0690769707
35299790.0 -0.049670725 0.0743126078 0.6773536025 0.0221607842 0.6774122135 0.0217681477 -0.0523911067 0.0734459614
40299760.0 -0.0396446493 0.0769237868 0.686551716 0.0176813899 0.6865973087 0.0174692796 -0.0432884139 0.0772256629
45299730.0 -0.0303658981 0.0795607319 0.6956277602 0.0117143826 0.6959554565 0.0122924314 -0.0339988571 0.0791862689
50299700.0 -0.0216484664 0.0798516826 0.7032766864 0.0045407584 0.7038280787 0.0044303601 -0.0252024989 0.0803810279
55299670.0 -0.0142370248 0.08011613 0.7105705365 -0.0031778206 0.7109952906 -0.0031771219 -0.0176709675 0.080016876
60299640.0 -0.0064217033 0.0786512562 0.7173124925 -0.0117161399 0.717050778 -0.0115536235 -0.0103178737 0.0797814227
65299610.0 -0.0001784329 0.0780123646 0.7234508623 -0.019409566 0.7237944189 -0.0197879066 -0.0036152028 0.0785335085
70299580.0 0.0059965908 0.0758451487 0.7289474971 -0.0289441968 0.7285383934 -0.0290555689 0.0024060279 0.0772782713
75299550.0 0.0116746711 0.0742345285 0.7330425042 -0.0389253917 0.7331282954 -0.0390754204 0.0083190916 0.0758774142
80299520.0 0.0161330009 0.0722050697 0.7375558765 -0.0489972821 0.7376109068 -0.0487817023 0.0132249204 0.0732142513
85299490.0 0.0206177351 0.0695675413 0.7403145982 -0.0589554462 0.7405675281 -0.0589608893 0.0175072826 0.0710832898
90299460.0 0.0246719661 0.0673572039 0.7435091695 -0.0687698683 0.7436949333 -0.068952448 0.0220517907 0.0687868383
95299430.0 0.028169174 0.0652657758 0.746094967 -0.0790436368 0.746045982 -0.0788927474 0.0253913369 0.0665553222
100299400.0 0.0316369771 0.0626972316 0.7476471474 -0.0893158755 0.7473660878 -0.0893026706 0.0282957658 0.0640364415
105299370.0 0.0346145799 0.0601178918 0.7486871294 -0.0993400077 0.7488453314 -0.0993077494 0.0320005633 0.0618280303
110299340.0 0.0371908118 0.0577960545 0.749827911 -0.1090739015 0.7501755161 -0.1099151831 0.0346706612 0.0592458051
115299310.0 0.0397462626 0.0548338532 0.7510151215 -0.1192533024 0.7514543504 -0.1191821074 0.0371173139 0.0565544652
120299280.0 0.0415931098 0.0527229927 0.7520087176 -0.129657512 0.7517533769 -0.1296208627 0.0389616765 0.054397265
125299250.0 0.0432416682 0.0503648982 0.7523744949 -0.1393986629 0.7518251958 -0.1397061587 0.0410081227 0.0513247781
130299220.0 0.0449634719 0.0478379704 0.7514748611 -0.1487637336 0.7516270398 -0.1496205314 0.0431055821 0.0498004939
135299190.0 0.0468375669 0.0452820294 0.7509730789 -0.1588801379 0.751136 -0.1592852947 0.0443316563 0.0475691922
140299160.0 0.0478506664 0.0442569469 0.7509580092 -0.1691206184 0.7506759192 -0.1686362407 0.0461315369 0.0455196496
145299130.0 0.0492800232 0.0418151022 0.7505513035 -0.1788185987 0.7495944052 -0.1783840754 0.0473432676 0.0427168577
150299100.0 0.0506523827 0.0398676776 0.7488766989 -0.1881886887 0.7487839715 -0.1881101687 0.0486476833 0.0407145663
155299070.0 0.0510254383 0.0384447815 0.7477040754 -0.1980904829 0.7478985251 -0.1980291707 0.0494229618 0.038860111
160299040.0 0.0523762319 0.0360301633 0.7460698499 -0.2069577464 0.7463330576 -0.2071495191 0.0506360615 0.0374742612
165299010.0 0.0528637062 0.0342338733 0.7452482974 -0.2169258089 0.7450443796 -0.2170906875 0.0513859164 0.0349140907
170298980.0 0.0534565378 0.0326582876 0.7421429767 -0.2261252705 0.7428785327 -0.2260648733 0.0525010634 0.0327888399
175298950.0 0.0542837966 0.0306907967 0.7417317879 -0.2352939053 0.7413861656 -0.2355639621 0.0530527295 0.0311679951
180298920.0 0.0553146806 0.0291689439 0.7390650405 -0.244497473 0.7389398849 -0.2442090184 0.0536088831 0.0299170874
185298890.0 0.0561753876 0.0272649836 0.7368860431 -0.2540302889 0.7368041115 -0.253943 0.0541265757 0.0276616616
190298860.0 0.0563355669 0.0259502052 0.7344296665 -0.2627825512 0.7341562984 -0.2625198778 0.055525887 0.0259348944
195298830.0 0.0564180016 0.023921135 0.7317220341 -0.2714370412 0.7320489417 -0.2719947485 0.0555931428 0.0242805335
200298800.0 0.0571322087 0.0227860778 0.729482409 -0.2803750617 0.7292174222 -0.2802872157 0.0562776556 0.0230504559
205298770.0 0.0570642937 0.0213399678 0.7268901216 -0.2894219926 0.726743093 -0.2899515441 0.0564566372 0.0208265923
210298740.0 0.0572612337 0.019736222 0.7238199748 -0.2988786178 0.7237306087 -0.2982129687 0.0566141406 0.0199510956
215298710.0 0.057771988 0.018713894 0.7207833955 -0.3068610819 0.7206202111 -0.3070433065 0.0569303478 0.0180654994
220298680.0 0.0583618169 0.0172950246 0.7177463521 -0.3160022726 0.7174807824 -0.3157150592 0.0574115592 0.0172942384
225298650.0 0.0585588562 0.0161511297 0.7136706393 -0.3239310261 0.7139036576 -0.324029463 0.0576105302 0.0153643239
230298620.0 0.0583659949 0.014801926 0.7113930851 -0.3328534995 0.7110832264 -0.3330056763 0.0576360251 0.0141762229
235298590.0 0.0585033148 0.0132833285 0.7074130428 -0.3408228799 0.7073686234 -0.3418288799 0.0580324756 0.0125850421
240298560.0 0.0584645006 0.0122674045 0.7042278242 -0.3493849597 0.703964979 -0.3494678337 0.0581308864 0.0117295566
245298530.0 0.0590436044 0.0112331129 0.699210181 -0.3575512182 0.6997274315 -0.3577834563 0.0584880869 0.0106210474
250298500.0 0.0582218917 0.0098976565 0.6960362119 -0.3653575882 0.6966373232 -0.3657094104 0.058830435 0.008837592
255298470.0 0.0584550237 0.0089043582 0.6920504892 -0.374657909 0.6921039447 -0.3741651093 0.0587478359 0.0074217132
260298440.0 0.0584111038 0.0076288315 0.6880952319 -0.3819428321 0.6881834701 -0.3821871269 0.0593436481 0.0069412525
265298410.0 0.0592368295 0.0069515858 0.6840157481 -0.3911849923 0.6834579123 -0.3904092213 0.0586569994 0.005161703
270298380.0 0.0593513037 0.0056375523 0.6795920377 -0.398669853 0.6798580544 -0.398447785 0.0590402379 0.0050558957
275298350.0 0.0585802578 0.0047653041 0.675280485 -0.4066640071 0.6758196525 -0.4066995811 0.0589380198 0.0034488809
280298320.0 0.0586362651 0.00411879 0.6709271335 -0.4135497212 0.6713369268 -0.4145914319 0.0593261498 0.0027351992
285298290.0 0.0589568596 0.0030197772 0.6666394406 -0.4215950081 0.6663442781 -0.4218625916 0.0589018126 0.0015343739
290298260.0 0.058811796 0.0017312994 0.6623212897 -0.4297190053 0.6624347757 -0.4298121793 0.0597500284 0.0004484978
295298230.0 0.0588981781 0.0006975798 0.6579490725 -0.4378665503 0.6577437196 -0.4376246856 0.0599705546 -0.0002592598
300298200.0 0.0593748642 -0.0002099729 0.652896835 -0.4450868341 0.6529978781 -0.4450340683 0.059179366 -0.0011231137
305298170.0 0.058968009 -0.0013722313 0.6482229155 -0.4530641912 0.6485890212 -0.452534084 0.0599925003 -0.0021187269
310298140.0 0.0596892203 -0.0025028409 0.6439735895 -0.4609870516 0.6436815426 -0.4612301653 0.0597631886 -0.0029158915
315298110.0 0.0586019137 -0.0035624062 0.6380764254 -0.467907405 0.6388753991 -0.4684802249 0.0602476744 -0.0045939884
320298080.0 0.0587905047 -0.004533017 0.6334059397 -0.4755004773 0.6334400164 -0.4759117207 0.0594508041 -0.0059876486
325298050.0 0.0581458654 -0.0058821575 0.6283626838 -0.4831667369 0.6280241176 -0.4835862597 0.0592509497 -0.0069256706
330298020.0 0.0578174221 -0.0063689629 0.6218296169 -0.4907498522 0.6221381803 -0.4906630509 0.0585136333 -0.0080294963
335297990.0 0.0576399918 -0.0077401744 0.6169785972 -0.4982225263 0.6164588781 -0.4981021761 0.0582548567 -0.009123732
340297960.0 0.0565919499 -0.0080411289 0.6106147774 -0.5047567697 0.6107033809 -0.5044713077 0.0574251569 -0.0093591238
345297930.0 0.0562935411 -0.0086108765 0.6048342191 -0.5110903778 0.6040961979 -0.511079886 0.0578884437 -0.0105152702
350297900.0 0.0565855944 -0.0092108347 0.599037148 -0.5174288648 0.5996019025 -0.5181898265 0.0569547382 -0.0105457945
355297870.0 0.0559591988 -0.0103165697 0.5930565499 -0.5249526518 0.5935978779 -0.5248582415 0.0564978381 -0.01123767
360297840.0 0.0560351996 -0.0107025823 0.5877245078 -0.5318379018 0.5874398464 -0.5316078073 0.0562468111 -0.0117938052
365297810.0 0.0557777718 -0.0116612476 0.5813839334 -0.5377143193 0.5816537033 -0.5380154018 0.0557651052 -0.0124750757
370297780.0 0.0557103215 -0.0123648004 0.5757416092 -0.544311363 0.5752439791 -0.5450396285 0.056104287 -0.0127463677
375297750.0 0.0550582018 -0.0123115956 0.5698787802 -0.5510371462 0.5692236377 -0.5510392008 0.0555789063 -0.013596577
380297720.0 0.0550277094 -0.0137670586 0.5639609439 -0.557172741 0.5633554312 -0.5572119191 0.0552044654 -0.0142616301
385297690.0 0.0547693991 -0.0139699855 0.5574621965 -0.5632314361 0.5570641883 -0.563326959 0.0550146392 -0.0148827068
390297660.0 0.0541671345 -0.0148775623 0.5507833487 -0.5701589193 0.5509068563 -0.5703520053 0.0550231864 -0.0157102586
395297630.0 0.0546717678 -0.015706851 0.545065259 -0.5755476244 0.5450365835 -0.5755823167 0.0544112102 -0.0156475673
400297600.0 0.0536869754 -0.0159163404 0.5381951508 -0.5817589717 0.5386471402 -0.5822708918 0.053409965 -0.0165831896
405297570.0 0.0539350885 -0.0164984781 0.5319114198 -0.5878478727 0.5320920756 -0.5882005759 0.0536088049 -0.0170752895
410297540.0 0.0537194289 -0.017247562 0.525097599 -0.5936499241 0.5254998495 -0.5941862583 0.053066605 -0.0176908035
415297510.0 0.0530695136 -0.0173070499 0.5192585019 -0.5993763629 0.5188718506 -0.5994719679 0.0527811762 -0.0181053703
420297480.0 0.0531232018 -0.019057857 0.511806797 -0.605625379 0.5126079304 -0.605822704 0.0529488313 -0.0190747318
425297450.0 0.0533357089 -0.0196904782 0.5055475257 -0.6105784516 0.5062458041 -0.6112842466 0.0521562216 -0.0189299651
430297420.0 0.0524008083 -0.0197346967 0.4991097816 -0.6173392884 0.4990400734 -0.6165753736 0.05158173 -0.0202813199
435297390.0 0.052337264 -0.0207188857 0.4921615996 -0.6218280188 0.4920528882 -0.6222446133 0.0509810293 -0.0202481414
440297360.0 0.0521909834 -0.0216049863 0.4844076627 -0.6278262893 0.4849678524 -0.6278095897 0.0510306278 -0.0214333397
445297330.0 0.0523789405 -0.0219408734 0.4781912278 -0.6336884229 0.4780204163 -0.6335003994 0.0506275685 -0.0214720143
450297300.0 0.0518905209 -0.0224192218 0.4713892496 -0.6385923615 0.4716448187 -0.6386213403 0.0501515859 -0.0220667421
455297270.0 0.0511066421 -0.0232229374 0.4645830671 -0.6431828951 0.4650233001 -0.6435681627 0.0501916815 -0.0225120842
460297240.0 0.0504352224 -0.0238362017 0.4573031722 -0.6483542691 0.4568626919 -0.6489251504 0.0495639605 -0.0225569685
465297210.0 0.0507746676 -0.0246073335 0.4497900539 -0.6538141102 0.4505426136 -0.6539905943 0.0485637744 -0.0237627351
470297180.0 0.0500160329 -0.025145772 0.4427888749 -0.6581417784 0.4433681791 -0.6588226627 0.0480420404 -0.0239427314
475297150.0 0.0495271729 -0.0263424005 0.4353642398 -0.6631671673 0.4358094588 -0.6629766303 0.0483095206 -0.0247968983
480297120.0 0.0500315573 -0.0268106012 0.4284534343 -0.6678968764 0.428366639 -0.6681500845 0.0474570159 -0.0245608908
485297090.0 0.0493918199 -0.0272947463 0.4216464475 -0.6728779368 0.4213397994 -0.673008823 0.046883025 -0.0256196893
490297060.0 0.0489056399 -0.0280607411 0.4136872253 -0.6773787367 0.4141930313 -0.6778473228 0.0469524496 -0.0256256793
495297030.0 0.0480113357 -0.0282831903 0.4056575575 -0.6826304398 0.4060343853 -0.6822753106 0.0464374912 -0.0264946229
500297000.0 0.0480654453 -0.0293963508 0.3982496615 -0.6866231741 0.3988972149 -0.6867109872 0.0455465202 -0.0268922681
505296970.0 0.0472175747 -0.029271289 0.3905123616 -0.6907464525 0.3908038224 -0.6910430738 0.0445952003 -0.0271574146
510296940.0 0.0468338491 -0.0301124818 0.3834735379 -0.6957351042 0.3839377259 -0.695666689 0.0451198303 -0.0271972798
515296910.0 0.0463224032 -0.0305125658 0.3758484528 -0.698876443 0.3755237731 -0.6995504264 0.0439770614 -0.0280165151
520296880.0 0.0459503868 -0.0313797871 0.3682447521 -0.7038174775 0.3678183759 -0.703565887 0.0442760776 -0.0285522406
525296850.0 0.0455068781 -0.0323304524 0.3606495185 -0.7073646673 0.3605995801 -0.7074731378 0.043934324 -0.0289664271
530296820.0 0.0449690184 -0.0323830476 0.3532245573 -0.7105640951 0.3526030008 -0.7116387063 0.0427544596 -0.0299268399
535296790.0 0.0442073897 -0.0331385703 0.3443228392 -0.7149206032 0.3448416921 -0.7149879749 0.0426767714 -0.0302494583
540296760.0 0.0440837374 -0.033992352 0.3373247768 -0.7195661354 0.3366312467 -0.7196924855 0.0414467791 -0.0303128214
545296730.0 0.0434137863 -0.033640377 0.329162017 -0.7224929482 0.3289210626 -0.7230298223 0.041165799 -0.0310194222
550296700.0 0.0426162373 -0.0345721267 0.3218584114 -0.7264580997 0.3216978568 -0.7266463518 0.0407837718 -0.0304904737
555296670.0 0.0426286997 -0.0351814547 0.3134105437 -0.7304810179 0.3137778888 -0.7300057183 0.0402093406 -0.0312085073
560296640.0 0.0418071025 -0.035628604 0.3053183606 -0.7330973744 0.3056586481 -0.7328549317 0.0396459839 -0.0314555385
565296610.0 0.0406457179 -0.0362004827 0.2967067387 -0.7366138611 0.2970565329 -0.7369899249 0.039024319 -0.0324018347
570296580.0 0.0412239138 -0.0366498364 0.2888531193 -0.7394438719 0.2899087556 -0.7401094666 0.0388176065 -0.0319137345
575296550.0 0.0402889608 -0.0361580314 0.2812324998 -0.7421022583 0.2814422733 -0.7428758274 0.0385544426 -0.0328428327
580296520.0 0.0396544864 -0.0371798236 0.2732792235 -0.7458146731 0.2727447987 -0.7460431121 0.0377834478 -0.0334375069
585296490.0 0.0393442399 -0.0379119603 0.2651384682 -0.7493480911 0.2648380536 -0.7490424757 0.0370312026 -0.0338179325
590296460.0 0.0380374207 -0.0386010287 0.2567056956 -0.7519228448 0.2563670809 -0.7518133898 0.0368616553 -0.0335957917
595296430.0 0.0376039737 -0.0384848959 0.248313715 -0.7546064442 0.2486012185 -0.7547242745 0.0361558012 -0.0341980337
600296400.0 0.0371763411 -0.0387937157 0.2403326476 -0.757488623 0.2406616048 -0.7573955792 0.0357716698 -0.0342098143
605296370.0 0.0367799801 -0.0382811938 0.2320217873 -0.7594794114 0.2321058475 -0.7598261384 0.0350600443 -0.0349916212
610296340.0 0.035962438 -0.0395269927 0.2238362572 -0.7620216145 0.2236990152 -0.7628408328 0.0345228965 -0.0345165844
615296310.0 0.0354213569 -0.0396227413 0.2151540663 -0.7644645814 0.2150421022 -0.7649378699 0.0342601074 -0.0352979329
620296280.0 0.0346907548 -0.0402117666 0.2076604414 -0.7666406287 0.2071229236 -0.7667714087 0.0336307931 -0.0359686503
625296250.0 0.0344767394 -0.0404400563 0.1982000847 -0.7693841668 0.198680894 -0.7694454717 0.0333537677 -0.0354962386
630296220.0 0.0336214716 -0.040494283 0.189812126 -0.7717344334 0.1908099587 -0.7712724591 0.0319467911 -0.0358810686
635296190.0 0.0330922949 -0.0409878539 0.181575763 -0.7730892778 0.1812258893 -0.7728351096 0.0317350602 -0.0364667941
640296160.0 0.0323965376 -0.041123877 0.1734194347 -0.7749724909 0.1731016367 -0.7753061975 0.0314295828 -0.0365206892
645296130.0 0.0319650192 -0.0412965624 0.1645652779 -0.7772346653 0.1646099056 -0.7770228542 0.0299847222 -0.037439742
650296100.0 0.030994354 -0.0407972083 0.1571290242 -0.7784016333 0.1564278672 -0.7784352757 0.0298676765 -0.0373131424
655296070.0 0.0301710669 -0.0420688551 0.1477027361 -0.7802858691 0.1477983233 -0.7801575686 0.0300660598 -0.0366953543
660296040.0 0.0292772959 -0.0417763153 0.1392652785 -0.7813022646 0.1398157762 -0.7821137304 0.0286945924 -0.0376191069
665296010.0 0.0293600004 -0.0425877254 0.1311285741 -0.7830229572 0.1317286624 -0.783224059 0.0277648856 -0.0376454126
670295980.0 0.0290551761 -0.0422068351 0.1225724883 -0.784442392 0.1225385308 -0.7848995426 0.0271278613 -0.0379679188
675295950.0 0.028349447 -0.0425512837 0.1137670301 -0.7859748616 0.1141486546 -0.7865619786 0.0273314201 -0.0378079868
680295920.0 0.0274094667 -0.0424131907 0.1054517954 -0.787155892 0.1050430596 -0.7876225469 0.0265508123 -0.0384605099
685295890.0 0.0264763796 -0.0429153807 0.097299009 -0.7882233562 0.0961490181 -0.7887834901 0.0258494324 -0.0378496578
690295860.0 0.0264706925 -0.0429100698 0.0887361921 -0.788496692 0.0876128858 -0.7886107602 0.0253878818 -0.0380685182
695295830.0 0.0264513283 -0.0433230399 0.078906906 -0.7901825128 0.0793329399 -0.7902830553 0.0243266024 -0.0387276275
700295800.0 0.0257094147 -0.0436285935 0.0703104673 -0.7909339312 0.07033402 -0.7913066538 0.0237734118 -0.0390298378
705295770.0 0.0244731392 -0.0434187306 0.0619774917 -0.7920253924 0.0622867956 -0.7914163015 0.022990304 -0.039043965
710295740.0 0.024160897 -0.0432408867 0.0531724924 -0.7915555915 0.0531880593 -0.7917971791 0.0216145764 -0.0387076802
715295710.0 0.0236396039 -0.0439561697 0.0453156741 -0.7931790274 0.0452670065 -0.7928696243 0.0219465965 -0.039923448
720295680.0 0.0229578286 -0.0441559257 0.0360786389 -0.7929443231 0.0366425011 -0.7941170759 0.0214786842 -0.0389374765
725295650.0 0.0225989074 -0.0439488724 0.0273740892 -0.7934906383 0.0278075309 -0.7933398261 0.0209449792 -0.0392694181
730295620.0 0.0212474448 -0.0444307129 0.0186960027 -0.7940233969 0.0188097335 -0.7936970218 0.0204789198 -0.0404763995
735295590.0 0.021356677 -0.0444015906 0.0116761096 -0.7936883712 0.0108483001 -0.7940073202 0.019366382 -0.0394520506
740295560.0 0.0203676518 -0.0442623703 0.0017180075 -0.7932605679 0.0017779821 -0.7938242216 0.0195287898 -0.0401472782
745295530.0 0.0200234309 -0.0450054096 -0.0067233 -0.7940696821 -0.0064115381 -0.7942946934 0.0180782456 -0.0396291616
750295500.0 0.0193106866 -0.0446522254 -0.0154396378 -0.7933348432 -0.0151367049 -0.7936036085 0.0181832445 -0.040364505
755295470.0 0.0192658047 -0.0446554735 -0.0240586263 -0.7935552974 -0.0233761508 -0.7940006852 0.0165317066 -0.0401924775
760295440.0 0.0177938381 -0.0445537192 -0.0326620343 -0.7933197144 -0.0328907689 -0.7932441059 0.015906779 -0.040383479
765295410.0 0.0169520848 -0.0449782768 -0.0407711374 -0.7922094401 -0.0406349134 -0.7928338238 0.0166763571 -0.0399920785
770295380.0 0.0170703185 -0.0448547351 -0.0496756233 -0.79204456 -0.0500804458 -0.7924190781 0.0159880515 -0.039750014
775295350.0 0.0161684822 -0.0449090707 -0.0585501563 -0.7916044786 -0.0582466394 -0.7917835076 0.0146927219 -0.0409702439
780295320.0 0.0157764661 -0.0449464536 -0.0663476787 -0.7912230667 -0.0665943714 -0.791225228 0.0141899246 -0.0399517714
785295290.0 0.0145664428 -0.044556266 -0.0757863461 -0.7890024817 -0.0754044532 -0.7903656005 0.0131569893 -0.0407261596
790295260.0 0.0140210878 -0.0447990433 -0.0838558836 -0.7891625914 -0.084033485 -0.7894909498 0.0130236783 -0.0400901053
795295230.0 0.0133328691 -0.0449702783 -0.0924152596 -0.7876578155 -0.092594354 -0.7883624944 0.0123905244 -0.0394424796
800295200.0 0.0131484461 -0.0443769418 -0.1015187142 -0.7870194898 -0.1017996272 -0.7876241931 0.0119478165 -0.0401747879
805295170.0 0.0119461839 -0.0448690384 -0.1092564775 -0.7854500312 -0.1096678941 -0.7858539803 0.0106341355 -0.0401383958
810295140.0 0.0115704417 -0.0444958377 -0.1186281237 -0.7849626813 -0.1181117228 -0.785102198 0.0105240815 -0.0396204253
815295110.0 0.0107858805 -0.0443069156 -0.1268433443 -0.7830372451 -0.1273820387 -0.7834178968 0.0097076056 -0.0405446654
820295080.0 0.0100548051 -0.044742509 -0.1356510449 -0.7821394005 -0.1355366763 -0.7822652793 0.0091621403 -0.039754095
825295050.0 0.0094809791 -0.0449964259 -0.1441146737 -0.779926963 -0.1439209966 -0.7800280375 0.0087138149 -0.0394283178
830295020.0 0.0088788012 -0.0441654945 -0.1525734589 -0.7790033882 -0.153017813 -0.7790031734 0.0079257777 -0.0402105414
