!Created with skrf (http://scikit-rf.org).
# Hz S RI R 50.0 
!freq ReS11 ImS11 ReS21 ImS21 ReS12 ImS12 ReS22 ImS22
300000.0 -0.2410811588 -0.0930744482 0.4724833248 0.0638843944 0.4688989977 0.0598865712 -0.2369436523 -0.1014130778
5299970.0 -0.2450484723 0.0063093237 0.4747011021 0.0049296786 0.4746508466 0.0049054851 -0.240991556 0.0075003225
10299940.0 -0.2416469803 0.0178547711 0.4766478131 0.0060662759 0.4763198919 0.0062490563 -0.237487755 0.0205263504
15299910.0 -0.2372428885 0.0268164148 0.4805980383 0.0074416394 0.4804324527 0.0071792029 -0.2328445164 0.0301903308
20299880.0 -0.2328094165 0.0340848746 0.4853387055 0.0083708893 0.4850032637 0.0081012608 -0.2276342595 0.0380636562
25299850.0 -0.2278831658 0.0402095747 0.4904976512 0.0069802908 0.4902160281 0.0070701033 -0.2218380952 0.0447228548
30299820.0 -0.222359557 0.0448923222 0.4952565263 0.0049812518 0.4953772722 0.0048173675 -0.2159788504 0.0500828611
35299790.0 -0.2174111819 0.0491465772 0.501153426 0.0016340232 0.5009750331 0.0017049487 -0.2105767194 0.054684292
40299760.0 -0.2125350671 0.0524622075 0.5057342861 -0.0021724109 0.505746113 -0.0021557791 -0.2049350606 0.0575036867
45299730.0 -0.2079748602 0.0548602053 0.5103644934 -0.0072805551 0.5108096613 -0.0070460711 -0.2002038333 0.0609413392
50299700.0 -0.2038277799 0.0565847703 0.5150778062 -0.0127014515 0.514822496 -0.0123232137 -0.1954307672 0.0626300467
55299670.0 -0.1999968192 0.0584531107 0.5190866346 -0.0188221724 0.518456158 -0.0185024924 -0.1914511918 0.0644042864
60299640.0 -0.1958654182 0.0600177262 0.5215393989 -0.0248332834 0.5220292258 -0.0245684866 -0.187277768 0.0654538663
65299610.0 -0.1931442333 0.0608246347 0.5245886477 -0.0311713694 0.5247849515 -0.0311748147 -0.1840894558 0.0665136235
70299580.0 -0.1899203432 0.0620463824 0.5273752351 -0.0379565222 0.526830044 -0.0378936729 -0.1805612081 0.0677232661
75299550.0 -0.1872548375 0.0629839245 0.5289018842 -0.0447888918 0.5290533826 -0.0446191898 -0.1781884711 0.0681038889
80299520.0 -0.1847472311 0.0636711795 0.5310259938 -0.0515654931 0.5309905025 -0.0516269696 -0.1755295406 0.0693416441
85299490.0 -0.1825270971 0.0641111301 0.5322306505 -0.0580337785 0.5320216615 -0.0578859921 -0.1729515041 0.0696473883
90299460.0 -0.1802326508 0.0649030257 0.5328237561 -0.0653443073 0.5335115088 -0.0651798194 -0.1705615497 0.0703722181
95299430.0 -0.1783233583 0.0652179062 0.5340333877 -0.0720183955 0.5340283411 -0.0723882468 -0.1682479711 0.071235791
100299400.0 -0.1766244344 0.0661920412 0.5341129969 -0.079092499 0.5340875905 -0.0790898827 -0.1661302165 0.0714286596
105299370.0 -0.1750424051 0.0671360762 0.5343756577 -0.086203555 0.534691263 -0.0860597709 -0.163926325 0.072437372
110299340.0 -0.1733194335 0.0674853169 0.5349145401 -0.0926284915 0.5346321572 -0.0926597459 -0.1627562789 0.0727532099
115299310.0 -0.1720275244 0.0682047062 0.534838434 -0.099390674 0.5346466292 -0.0995768414 -0.1610380052 0.073951508
120299280.0 -0.1708139142 0.068422388 0.5345366275 -0.106730261 0.5345066701 -0.1063286917 -0.1596219563 0.074431998
125299250.0 -0.1696465341 0.0693435853 0.5340203618 -0.112894441 0.5341378085 -0.1125206879 -0.1583569316 0.0750567921
130299220.0 -0.1687360533 0.0703203387 0.5333394094 -0.1198523924 0.5335167035 -0.1198323296 -0.157239169 0.0756336492
135299190.0 -0.167263059 0.0712003748 0.5328579886 -0.1263616031 0.5328392936 -0.1265826753 -0.1555406122 0.0769114568
140299160.0 -0.1665341475 0.0720174136 0.5319301706 -0.1334988286 0.5317531697 -0.1333084058 -0.1543356805 0.0780011037
145299130.0 -0.1655073187 0.072884262 0.5312795922 -0.1395792093 0.5310380945 -0.1396425163 -0.1533782887 0.0789721502
150299100.0 -0.164308917 0.0737134397 0.5298667351 -0.1460607388 0.530022555 -0.1455596044 -0.1522643494 0.0799753737
155299070.0 -0.1638070618 0.0746322428 0.5290577596 -0.1533873897 0.5287051205 -0.1527284329 -0.1510257974 0.0811411096
160299040.0 -0.1625361973 0.0761059944 0.5272973414 -0.1591134492 0.526950341 -0.1591149372 -0.1506375533 0.0822135393
165299010.0 -0.1620207769 0.0770761719 0.526009028 -0.1658075995 0.5259943486 -0.165687269 -0.1489697093 0.0835428021
170298980.0 -0.161307845 0.0775209402 0.5241250781 -0.1718867861 0.5246142745 -0.1718487597 -0.1481633826 0.0844451253
175298950.0 -0.160654421 0.0790961774 0.5233358462 -0.1782294596 0.5224416155 -0.1782070588 -0.1474492435 0.0861787106
180298920.0 -0.1601149194 0.080122626 0.5211189118 -0.1843975837 0.5209381141 -0.1840739533 -0.1465130112 0.0876510901
185298890.0 -0.1586879993 0.0810001473 0.5192430757 -0.1906715585 0.5188663916 -0.1903993407 -0.1456579363 0.0889719837
190298860.0 -0.1584109117 0.082130259 0.5172893457 -0.1969370213 0.5175070261 -0.1966136553 -0.1445410743 0.0898149045
195298830.0 -0.1575405965 0.0834477217 0.5153666967 -0.203195097 0.5153676636 -0.2024742471 -0.1434526285 0.0910570501
200298800.0 -0.1568968941 0.0847612699 0.5130036462 -0.2090934473 0.5129488546 -0.2090386203 -0.1431800125 0.0922409343
205298770.0 -0.1562289985 0.0860939566 0.5106838575 -0.2152789821 0.5111368912 -0.2149276482 -0.1418438811 0.0933725841
210298740.0 -0.1552700323 0.0869575162 0.5083775956 -0.2206675198 0.5087116564 -0.2203857941 -0.1409273612 0.0951971347
215298710.0 -0.1552334123 0.0884625631 0.5067429956 -0.2272227496 0.5063901334 -0.226985388 -0.1402664208 0.096398856
220298680.0 -0.1539908966 0.0893187541 0.5036656246 -0.2327211 0.504031455 -0.2325593709 -0.13997445 0.0978014719
225298650.0 -0.1534609539 0.090779448 0.5014781577 -0.2387171205 0.5018470794 -0.2387292333 -0.1389707798 0.0989170933
230298620.0 -0.1525743119 0.0923847022 0.4991160607 -0.2444325021 0.4992090803 -0.2445255288 -0.1377540934 0.1001643278
235298590.0 -0.1518008486 0.093718177 0.4966067792 -0.2503156656 0.4961505049 -0.2496939005 -0.1369146299 0.1019655909
240298560.0 -0.1511679349 0.0950402772 0.4937619276 -0.2558454839 0.493135288 -0.2562377416 -0.1358561804 0.1032151223
245298530.0 -0.1502761895 0.0962444677 0.4910985158 -0.261464482 0.4910649195 -0.2617699079 -0.1348422636 0.1038586889
250298500.0 -0.1491770025 0.0979311652 0.4874980221 -0.267649317 0.487662412 -0.2668184649 -0.1338115046 0.1056767668
255298470.0 -0.1483594484 0.098702829 0.4845114204 -0.27248894 0.48496356 -0.2724489043 -0.1327693866 0.1066279629
260298440.0 -0.1481462542 0.1000566642 0.4821143247 -0.2784169524 0.4822122513 -0.2783132787 -0.1317165347 0.1083575897
265298410.0 -0.1464983936 0.1019366384 0.4787775814 -0.2840164995 0.4791519424 -0.2838592266 -0.1305725853 0.1097733766
270298380.0 -0.1461898457 0.102955792 0.4760056121 -0.2890775039 0.4760496628 -0.2890419311 -0.1297001869 0.1109861145
275298350.0 -0.1449397336 0.1045595697 0.4728980721 -0.294872871 0.4730871099 -0.2944460077 -0.128047084 0.112317963
280298320.0 -0.1435115472 0.105853909 0.4697077872 -0.3002863794 0.4696993464 -0.300032952 -0.1267289741 0.1135044886
285298290.0 -0.1431035077 0.1073323133 0.4664415868 -0.3054793237 0.4662907111 -0.3054135824 -0.1255469249 0.1151087891
290298260.0 -0.1419019776 0.108374883 0.46307588 -0.3106187373 0.4631199172 -0.3107941102 -0.1245114766 0.1165096155
295298230.0 -0.1407959814 0.109579135 0.4598708689 -0.3160757067 0.4595473737 -0.3156902902 -0.1227264515 0.1174998195
300298200.0 -0.1399237157 0.1110789643 0.4564609363 -0.3207985743 0.4568345541 -0.3212704532 -0.121679883 0.1187511374
305298170.0 -0.13885421 0.1120676249 0.4526830856 -0.3266036592 0.4528906457 -0.3264341893 -0.1199333038 0.1199107107
310298140.0 -0.1380591047 0.1135346755 0.4494013722 -0.3315353078 0.4494754686 -0.3314259387 -0.1190283924 0.1212611528
315298110.0 -0.1369302242 0.114499317 0.4457952022 -0.3366653842 0.4457554069 -0.3366371257 -0.1176861874 0.1225596101
320298080.0 -0.1359257631 0.1158458675 0.4415591052 -0.3419770436 0.441762136 -0.3417368007 -0.1164957113 0.1243307572
325298050.0 -0.135126164 0.1170817539 0.4379224405 -0.3473745535 0.4381290408 -0.3468297853 -0.1152973999 0.1250997873
330298020.0 -0.134265177 0.1182111287 0.4338345783 -0.3519126725 0.43413045 -0.3518827504 -0.1140364491 0.1264185387
335297990.0 -0.1329250508 0.1194089476 0.4296172244 -0.3564069339 0.4298637152 -0.3567834032 -0.1134972008 0.1283480192
340297960.0 -0.1327918097 0.1209512316 0.4258022237 -0.3615811059 0.4258344496 -0.361873542 -0.1114597281 0.129683005
345297930.0 -0.131510332 0.1228032725 0.4217461948 -0.3665849666 0.4218436523 -0.3661735153 -0.1103299741 0.1310722727
350297900.0 -0.1306226081 0.1236351006 0.4172483332 -0.3710115898 0.4177059992 -0.370434313 -0.1094170951 0.1327759416
355297870.0 -0.129139567 0.1254579223 0.4132365821 -0.3752276277 0.4137851267 -0.374983826 -0.1081380582 0.133831685
360297840.0 -0.1279756431 0.1267226588 0.4093404951 -0.3796287789 0.4101584182 -0.3797006913 -0.1066627443 0.1352318943
365297810.0 -0.1273261707 0.1282581903 0.4051124517 -0.3844708752 0.4054736022 -0.3844875665 -0.1051625434 0.1367534972
370297780.0 -0.1257717426 0.1293957377 0.4007188215 -0.3885078131 0.4009864616 -0.3885725415 -0.1036393014 0.1382096016
375297750.0 -0.1244114046 0.1305873412 0.3966676959 -0.3931749691 0.3969375509 -0.3935113294 -0.1025579177 0.1391941142
380297720.0 -0.1234125024 0.1320273077 0.3919654709 -0.3977293523 0.3926203053 -0.3972101933 -0.1010593712 0.1406362642
385297690.0 -0.1224696434 0.1333955447 0.3877821274 -0.4017949561 0.387624338 -0.4016244195 -0.0997164863 0.1420593826
390297660.0 -0.1213164246 0.1350821692 0.3834405169 -0.4063838518 0.3831182138 -0.4057272919 -0.0983850617 0.1432218661
395297630.0 -0.1198101517 0.1363667885 0.3790351443 -0.4102228553 0.3792327464 -0.4099928774 -0.0962908506 0.1444507458
400297600.0 -0.1189315619 0.137576358 0.3744713281 -0.4149737372 0.3745294237 -0.4145087759 -0.0950164029 0.1461093376
405297570.0 -0.1180333743 0.1388755099 0.3700167377 -0.4183490394 0.3700738431 -0.4181252522 -0.0937683608 0.1468024517
410297540.0 -0.1159891638 0.1400597414 0.3652542892 -0.4223645583 0.3656573767 -0.4225904737 -0.0921566643 0.1482895488
415297510.0 -0.1145914292 0.1410204473 0.360319702 -0.4265167994 0.3608421887 -0.426769869 -0.0907252758 0.149503288
420297480.0 -0.1134051608 0.1425871853 0.3556274943 -0.4303850616 0.3557043351 -0.4304157417 -0.0891723232 0.150083752
425297450.0 -0.1120052626 0.1434621057 0.351403852 -0.4344524402 0.3519945554 -0.4342460829 -0.0877845706 0.1514161641
430297420.0 -0.1105699602 0.144674448 0.3465532211 -0.4376328546 0.346339476 -0.4376081935 -0.0861112384 0.1523973546
435297390.0 -0.1095649209 0.1461372642 0.341196287 -0.4416208289 0.3413794706 -0.4415770057 -0.0839182427 0.1534858506
440297360.0 -0.1076270075 0.1476042106 0.336788 -0.4450890012 0.3370530935 -0.4452259644 -0.082559742 0.1541782256
445297330.0 -0.1065800316 0.1484248004 0.3323306816 -0.4492727191 0.3319217755 -0.4488583556 -0.0807022095 0.1551218751
450297300.0 -0.1051438388 0.1495592025 0.3268707482 -0.4528138337 0.3269556473 -0.4526945137 -0.0790922183 0.155860443
455297270.0 -0.1034861316 0.1506650187 0.3219429222 -0.456139463 0.3223413932 -0.4563324432 -0.0772978539 0.1569505091
460297240.0 -0.1025507605 0.1517434771 0.3170060938 -0.4595621946 0.3172334672 -0.4595027516 -0.0758282758 0.1583118006
465297210.0 -0.1006503208 0.1528794964 0.3123072668 -0.4633872505 0.3120381501 -0.4635228018 -0.0735341625 0.1589869498
470297180.0 -0.0992285637 0.1539946292 0.3064355484 -0.466485822 0.3068283713 -0.4665479367 -0.0716932093 0.1603443999
475297150.0 -0.0976365051 0.1547266507 0.3016472356 -0.469399491 0.3018670271 -0.4694339127 -0.0698532105 0.1608513425
480297120.0 -0.0965176076 0.156397859 0.2966310698 -0.4732951759 0.2966277031 -0.4731893573 -0.067953356 0.1618390201
485297090.0 -0.0949552201 0.1574278417 0.2914714417 -0.4757350413 0.291596263 -0.4759730453 -0.0660728484 0.1626936092
490297060.0 -0.09362023 0.1584494228 0.2860371019 -0.4797002295 0.2865847688 -0.4790768172 -0.0641570615 0.1641234139
495297030.0 -0.0921536686 0.1595950277 0.2807488916 -0.4824730689 0.2814887588 -0.4823609653 -0.0625362236 0.1648165987
500297000.0 -0.0904495204 0.1602356155 0.2754698173 -0.4849150384 0.2756406774 -0.4846768835 -0.0605053263 0.166139982
505296970.0 -0.088763226 0.161182114 0.2704352475 -0.488264164 0.2701579812 -0.4883072337 -0.0586652663 0.1665919618
510296940.0 -0.0872770823 0.1623590102 0.2650590464 -0.4913477576 0.2650060536 -0.491425709 -0.0564791181 0.1676101963
515296910.0 -0.0856100256 0.1632279995 0.2593664565 -0.4940335134 0.2597817064 -0.4939201772 -0.055018882 0.168551051
520296880.0 -0.0843542906 0.1644903677 0.2543838049 -0.4972455427 0.2541927947 -0.4965187471 -0.0535309345 0.1687695443
525296850.0 -0.0824200714 0.164959126 0.2486946041 -0.4993493615 0.2492086913 -0.4993412043 -0.0514280606 0.1700784165
530296820.0 -0.080664787 0.1661587022 0.2432287145 -0.5026001343 0.2433795627 -0.5021962852 -0.0495740777 0.1710386373
535296790.0 -0.0795738892 0.1670145884 0.2380254561 -0.5047304284 0.2378504152 -0.5040573401 -0.0480597596 0.1712368499
540296760.0 -0.0780384617 0.1680391679 0.2324244174 -0.5076450137 0.2322888586 -0.5074698602 -0.0460948708 0.1725612122
545296730.0 -0.076297587 0.1690113342 0.2267088151 -0.5094830629 0.2267918745 -0.5095131759 -0.0442060774 0.1726831431
550296700.0 -0.0741664569 0.170057104 0.2213690329 -0.5121934175 0.2215182782 -0.5122749306 -0.0425857784 0.1736624895
555296670.0 -0.0731400959 0.1706197196 0.2159250141 -0.5143266192 0.2163154418 -0.5144061229 -0.0405839265 0.17450164
560296640.0 -0.0710428949 0.1720310439 0.2103217015 -0.5176033514 0.2106177163 -0.5166518001 -0.038610469 0.1748033533
565296610.0 -0.069764395 0.1727030865 0.2046551555 -0.5191446239 0.2045321832 -0.5189404769 -0.0369190415 0.1748785319
570296580.0 -0.0681108187 0.17351558 0.1992770486 -0.5216966904 0.1983532508 -0.5212424541 -0.0350045095 0.1760201874
575296550.0 -0.0664080728 0.1742147389 0.1935583335 -0.5240908977 0.1931487074 -0.5234690947 -0.032956111 0.1765490515
580296520.0 -0.0646508088 0.1750764766 0.1876429858 -0.5256870776 0.1875046538 -0.5258854506 -0.0310351099 0.1767529562
585296490.0 -0.0630279743 0.175356938 0.1820286636 -0.526942169 0.1822196959 -0.5274128628 -0.0291507307 0.1772711868
590296460.0 -0.0607033997 0.1765732377 0.1762239924 -0.5286714356 0.1763618347 -0.5291365137 -0.0277042631 0.178093284
595296430.0 -0.0593246614 0.1773266879 0.1701094765 -0.5313961052 0.1705001853 -0.5313313653 -0.0254460975 0.1777988125
600296400.0 -0.057942581 0.1779376817 0.1644230543 -0.5330523335 0.1645692018 -0.5323181151 -0.0233398663 0.1785497376
605296370.0 -0.0561910391 0.1786019569 0.1585395992 -0.5345119692 0.1591977039 -0.5344292059 -0.0214515497 0.1788746697
610296340.0 -0.0543501648 0.1791780575 0.1526232284 -0.5363038551 0.1530730725 -0.5361977134 -0.0192886834 0.1790103923
615296310.0 -0.0522939256 0.1795384807 0.1469887019 -0.5374287704 0.1469505072 -0.5380164332 -0.0171693331 0.1793985193
620296280.0 -0.0508230511 0.1802244594 0.1410133965 -0.5392275315 0.141253078 -0.5391252754 -0.015432539 0.179703692
625296250.0 -0.0493120267 0.1804937133 0.1358202587 -0.5410459849 0.135450779 -0.5411236493 -0.0127419091 0.1799359214
630296220.0 -0.046805559 0.1815305475 0.1293909243 -0.5423341706 0.1293738937 -0.5419893334 -0.0110311248 0.1803158924
635296190.0 -0.0459856199 0.1819920822 0.1240594589 -0.5436815247 0.1236438294 -0.5433333507 -0.0089326828 0.1805446124
640296160.0 -0.0440688096 0.1824147486 0.1179388706 -0.544486311 0.1182857848 -0.5448306958 -0.0068566503 0.1807466314
645296130.0 -0.0419214102 0.1834616595 0.1118647056 -0.5456733541 0.1123110497 -0.5459481456 -0.0044844586 0.181123098
650296100.0 -0.0401766634 0.1836455189 0.1054837414 -0.5467415686 0.1059621147 -0.5472220325 -0.0023578666 0.1809340948
655296070.0 -0.0387835922 0.1841599306 0.1002363728 -0.5480142468 0.100181644 -0.5482220907 -0.0005924836 0.1810198066
660296040.0 -0.0373232122 0.1844685641 0.0944854991 -0.5494279488 0.0945119259 -0.5494192007 0.0015748761 0.1813942122
665296010.0 -0.0347455778 0.1849549895 0.0879683452 -0.5499887249 0.0883718932 -0.5501826567 0.0036670637 0.1819862855
670295980.0 -0.0338328051 0.1857000851 0.0823675016 -0.550631764 0.0823803273 -0.5510186982 0.0053100231 0.1819684803
675295950.0 -0.0314844172 0.1860508512 0.076654792 -0.5513984368 0.0768524759 -0.5513806395 0.0073226277 0.1820694481
680295920.0 -0.0297219105 0.1865010202 0.0702902334 -0.5522488275 0.0696210414 -0.55298349 0.0097479307 0.1827902733
685295890.0 -0.0279554342 0.1876152397 0.0646425354 -0.5532995893 0.0642783003 -0.5533887552 0.0117109291 0.1825451099
690295860.0 -0.0257125681 0.1875501775 0.0583526876 -0.55344297 0.0582273481 -0.5541734684 0.0134778347 0.1831849976
695295830.0 -0.0243720469 0.1878117852 0.0531157838 -0.5544953604 0.052384149 -0.5543574362 0.0154869542 0.1830734814
700295800.0 -0.0220763388 0.1880209797 0.0462692527 -0.5547386635 0.0461696967 -0.5545788532 0.0173434974 0.1832141946
705295770.0 -0.0208149527 0.1890092858 0.040540211 -0.5554161999 0.0408788391 -0.555801226 0.0194514971 0.1833891674
710295740.0 -0.0185196918 0.1890590954 0.0346119583 -0.5560357838 0.0349063541 -0.5563805115 0.0217293453 0.1828158811
715295710.0 -0.0171298438 0.1894211971 0.0290673837 -0.5561753919 0.0284173215 -0.5565064067 0.0235830569 0.1830028872
720295680.0 -0.0152329958 0.1898817891 0.0225114977 -0.5568857556 0.0229843439 -0.5564458885 0.0256385246 0.183289116
725295650.0 -0.0131803628 0.1900801278 0.0165031557 -0.5564568075 0.0170474019 -0.5566798355 0.0269487309 0.1832775943
730295620.0 -0.0109752379 0.1903906824 0.0101281793 -0.5561776519 0.0109157226 -0.5567987282 0.0288794507 0.1827730495
735295590.0 -0.0097830551 0.1907481892 0.0047409661 -0.556961106 0.0046323294 -0.5568242866 0.0309430491 0.1822200321
740295560.0 -0.0079309455 0.1910149721 -0.0015571073 -0.5563256575 -0.001309171 -0.5572733164 0.0334747069 0.1823810673
745295530.0 -0.0060747151 0.1913369887 -0.0073594438 -0.5565108756 -0.0075392473 -0.5568318299 0.0352460775 0.1818926734
750295500.0 -0.0038918356 0.1915421754 -0.013658859 -0.5563678588 -0.0130264521 -0.5568441674 0.0372670446 0.18178894
755295470.0 -0.002261083 0.1913482031 -0.0189003978 -0.5561689283 -0.0192446626 -0.5564104243 0.0395153351 0.1809302682
760295440.0 -0.0006767465 0.1919001513 -0.0254565733 -0.556274056 -0.0252420229 -0.5565546906 0.0411163094 0.1807584722
765295410.0 0.0014345232 0.1917848056 -0.0316371433 -0.5556435781 -0.0317759744 -0.555764909 0.0436221381 0.1808544848
770295380.0 0.0032292866 0.191770876 -0.0376257931 -0.5548532417 -0.0375150373 -0.5551309384 0.0449679953 0.1800916864
775295350.0 0.0049070468 0.1914663851 -0.0435901039 -0.5542972982 -0.0431825051 -0.5547062862 0.0467482158 0.1798442121
780295320.0 0.0070363694 0.1918697841 -0.0497321902 -0.5539030392 -0.0486633391 -0.5542998413 0.0488514724 0.1786514799
785295290.0 0.0085792654 0.1915881154 -0.0554244737 -0.5529308234 -0.0548688649 -0.5534785026 0.0514942519 0.1789694572
790295260.0 0.0111692825 0.1921576419 -0.060783533 -0.5531085894 -0.0606147533 -0.5530355475 0.0533541594 0.1785520476
795295230.0 0.0123590414 0.192027163 -0.0670175114 -0.5518051231 -0.066788623 -0.5524699842 0.0555666827 0.177911617
800295200.0 0.014143078 0.192084642 -0.073349307 -0.5512774242 -0.0731824649 -0.5511807817 0.0574791976 0.177218815
805295170.0 0.0162772677 0.1919815362 -0.0791943941 -0.5505237855 -0.0790040816 -0.550732119 0.0590802928 0.1769868573
810295140.0 0.0178568524 0.1917292609 -0.0845895661 -0.5494119721 -0.0847269544 -0.5498740179 0.0617720605 0.1763547532
815295110.0 0.019966673 0.1914857552 -0.0908392596 -0.5480973288 -0.0902317853 -0.5487155119 0.0637669594 0.1759929209
820295080.0 0.0214134357 0.1920011136 -0.0964186364 -0.5472031318 -0.0962397644 -0.5474939646 0.0656320975 0.1753587096
825295050.0 0.0237932026 0.1917316515 -0.1018849746 -0.5462480937 -0.1024694252 -0.5463548209 0.0677024483 0.1748120276
830295020.0 0.0256598929 0.1915061575 -0.1084999207 -0.5449980156 -0.1082074117 -0.5451319125 0.070452065 0.1742956803
