!Created with skrf (http://scikit-rf.org).
# Hz S RI R 50.0 
!freq ReS11 ImS11 ReS21 ImS21 ReS12 ImS12 ReS22 ImS22
300000.0 -0.3204443592 -0.1067777566 0.3719736099 0.0533039164 0.3735669336 0.0573778653 -0.3159451828 -0.1129618815
5299970.0 -0.3236744286 0.0045418074 0.3788390217 0.0028988029 0.3780796243 0.0033904719 -0.3260650312 0.0024221806
10299940.0 -0.3211266373 0.0154605419 0.3799569324 0.0023008312 0.3798200591 0.00226533 -0.3240602327 0.0126659834
15299910.0 -0.3179713231 0.023403629 0.3818867617 0.0022816141 0.3819091771 0.002533398 -0.3213759682 0.0197663787
20299880.0 -0.3141617711 0.0300571192 0.3850073498 0.001662826 0.3850706717 0.0014224662 -0.3185841647 0.0261570955
25299850.0 -0.3106841053 0.0357647092 0.388236055 -0.0002474691 0.3884335825 8.46436e-05 -0.3155755543 0.0311265888
30299820.0 -0.3068550715 0.0405229418 0.3920899036 -0.0024079085 0.3917719256 -0.002266407 -0.3128838136 0.0354437469
35299790.0 -0.3027545353 0.0448557502 0.3951802093 -0.0052116208 0.3950520863 -0.0053280483 -0.3097821774 0.0394286638
40299760.0 -0.2994679497 0.0479254806 0.3982832114 -0.0083014472 0.3983493283 -0.0086728631 -0.3072804024 0.0433694286
45299730.0 -0.2966217612 0.0514211704 0.4013464645 -0.0127635638 0.4011381629 -0.0127503502 -0.3047094143 0.0462812671
50299700.0 -0.2933492197 0.0544350334 0.4036224585 -0.017413642 0.4037615157 -0.0174027563 -0.3019929404 0.0493291609
55299670.0 -0.2907291191 0.0571019953 0.405403102 -0.0222091915 0.4057631927 -0.0219098813 -0.3000105383 0.052108645
60299640.0 -0.288160801 0.059236948 0.4075012012 -0.0269633571 0.4074127704 -0.0268823525 -0.2981103148 0.0545585548
65299610.0 -0.2862321033 0.061659101 0.4092922769 -0.0315726913 0.4094080583 -0.0317740352 -0.2960631806 0.0570372393
70299580.0 -0.2835972516 0.0633818433 0.4104954975 -0.0368761345 0.4103741625 -0.0369523561 -0.2944795096 0.0597313459
75299550.0 -0.2816296815 0.0656605522 0.4110738041 -0.0421913378 0.4116392861 -0.0423933015 -0.2929471994 0.0621299752
80299520.0 -0.2804950169 0.0680022647 0.4126716499 -0.0472655592 0.412565548 -0.0475090139 -0.2915652328 0.0641038202
85299490.0 -0.2784343403 0.0698695372 0.4131428215 -0.0528240516 0.4129604692 -0.0528285457 -0.2904041038 0.0667083853
90299460.0 -0.2770132961 0.0722454403 0.4135518432 -0.0579116287 0.4136301975 -0.0578982066 -0.2887458671 0.0690890482
95299430.0 -0.2756949653 0.0740017233 0.4138906895 -0.0631631773 0.4137874425 -0.0630443312 -0.2874493228 0.0715194812
100299400.0 -0.274239939 0.07643507 0.4136138324 -0.068503764 0.4136486316 -0.0682987027 -0.286575242 0.0732699157
105299370.0 -0.2731374038 0.0785041755 0.4134668431 -0.073418302 0.4137420631 -0.0736915979 -0.2851296073 0.0756513426
110299340.0 -0.2719007525 0.0805000477 0.4131911974 -0.0785296182 0.4131291824 -0.0789874552 -0.2842483769 0.0779197901
115299310.0 -0.2706242425 0.0825663665 0.4130457124 -0.0835688887 0.4133046399 -0.0835950123 -0.2832523121 0.080191359
120299280.0 -0.2697714302 0.0845893066 0.4129349396 -0.0887195847 0.4130634127 -0.0889416637 -0.2824895402 0.082474818
125299250.0 -0.2687397695 0.0867298265 0.4123540548 -0.094024683 0.4122132351 -0.0939367973 -0.2813007417 0.0846413211
130299220.0 -0.2678060913 0.089075188 0.411637604 -0.098400181 0.4114852472 -0.0991220272 -0.2805996816 0.0873919332
135299190.0 -0.2665350966 0.0910538643 0.4110190555 -0.1037244909 0.4107042024 -0.104138602 -0.2796224067 0.0898470149
140299160.0 -0.2658434216 0.0937634394 0.4101780097 -0.1090894264 0.4102877235 -0.1092117177 -0.2786694122 0.0922408431
145299130.0 -0.2648029781 0.096091069 0.4093824105 -0.1143865706 0.4089814272 -0.1135361958 -0.2779424671 0.094522605
150299100.0 -0.2638515068 0.0980367409 0.4080687087 -0.1192447657 0.4081799342 -0.119149198 -0.2769091387 0.0971735154
155299070.0 -0.2627857437 0.101021389 0.4069598491 -0.1241107549 0.4069899506 -0.1241477755 -0.2759693246 0.0994888487
160299040.0 -0.262067244 0.103063051 0.4055488146 -0.128572139 0.4061375825 -0.1285970283 -0.2752886398 0.102102057
165299010.0 -0.2610755286 0.1051059856 0.4048379244 -0.1334566689 0.4046490097 -0.1335838639 -0.2742898418 0.104566633
170298980.0 -0.2600540942 0.1076282451 0.4027678176 -0.1381866671 0.4030359805 -0.1385101847 -0.2731792576 0.1072940795
175298950.0 -0.2593261418 0.1103683537 0.4020868806 -0.1428892124 0.4021729346 -0.1431723307 -0.2723591317 0.1096372438
180298920.0 -0.2577700043 0.1127604891 0.4003865413 -0.1481417929 0.4006964015 -0.1481221941 -0.2710352532 0.1125136674
185298890.0 -0.2568372369 0.1153293611 0.398550222 -0.1527766938 0.3991250476 -0.1527467049 -0.2703741813 0.1148292291
190298860.0 -0.2559632256 0.1177254545 0.397152577 -0.1575965246 0.3974965896 -0.1574186518 -0.2686729973 0.1177888268
195298830.0 -0.2544878158 0.1199927821 0.3954991828 -0.1619479365 0.3954604422 -0.1622326379 -0.2678679935 0.1200155611
200298800.0 -0.2537216188 0.1228795245 0.3943823636 -0.1662786434 0.3939062338 -0.1664281526 -0.2665551154 0.1230447246
205298770.0 -0.2528648727 0.1252838403 0.3923373763 -0.1711160591 0.3923538241 -0.1714866835 -0.2656546172 0.1251653562
210298740.0 -0.2518194978 0.1280818825 0.3905915576 -0.1760065841 0.3903624241 -0.1756603092 -0.2644592958 0.1280839539
215298710.0 -0.2504522484 0.1301243045 0.3886535864 -0.1802773695 0.3884199338 -0.1799524684 -0.263697844 0.1308643309
220298680.0 -0.2491787891 0.1328593721 0.3864323016 -0.1847443675 0.3867042573 -0.1850055426 -0.2622261504 0.1338846147
225298650.0 -0.2475901776 0.1357042214 0.3842857306 -0.1890164881 0.3839399684 -0.1889128067 -0.2612169682 0.1366838035
230298620.0 -0.2465006878 0.1380060573 0.3826438517 -0.1934558266 0.3827785783 -0.1932783072 -0.2595361703 0.1388858146
235298590.0 -0.2454615287 0.1406765405 0.3806145201 -0.1979850353 0.3804495828 -0.1980844342 -0.2585398288 0.1415364703
240298560.0 -0.2443858434 0.1430215367 0.3783798566 -0.2019357989 0.3783234931 -0.2019969339 -0.2571263832 0.1443056619
245298530.0 -0.2426595462 0.1458943197 0.3755614407 -0.206828533 0.3759578709 -0.206818605 -0.255466504 0.1470430775
250298500.0 -0.2415203122 0.1483321211 0.3735515318 -0.2106600386 0.3736098947 -0.2102903131 -0.2540510851 0.1499993859
255298470.0 -0.2402480071 0.151265105 0.3712460372 -0.2154208226 0.3712482954 -0.2150319688 -0.2527319328 0.1521861612
260298440.0 -0.2383975878 0.1536025851 0.3691899561 -0.2191735761 0.3687539508 -0.2193765068 -0.2511706617 0.1550703455
265298410.0 -0.237051558 0.156202071 0.3668237449 -0.2238587452 0.3663791164 -0.2234171736 -0.2498188722 0.1573403492
270298380.0 -0.2354745831 0.1586861854 0.3636252968 -0.2275317251 0.364194285 -0.2278969713 -0.2478579348 0.1604864247
275298350.0 -0.2339617183 0.1612027276 0.3612294205 -0.2320221002 0.3617327889 -0.2320083486 -0.2462314951 0.1630537163
280298320.0 -0.2326826651 0.1637700204 0.3591472609 -0.2356852688 0.3589671447 -0.2359373968 -0.2446908646 0.1658633875
285298290.0 -0.2308716435 0.1664936528 0.3561968405 -0.2398541125 0.3563667537 -0.2399575991 -0.243186579 0.1681426191
290298260.0 -0.2292902435 0.1688052215 0.353932542 -0.2439765872 0.3539832068 -0.2440716248 -0.2408811932 0.1713650402
295298230.0 -0.2276919926 0.171366179 0.3513732122 -0.2476502099 0.3510982272 -0.2480292853 -0.2393188167 0.1737607902
300298200.0 -0.2254501493 0.1736353919 0.3482451207 -0.2521978573 0.3483445286 -0.2519073871 -0.2375408414 0.1764541732
305298170.0 -0.2239125346 0.1766477585 0.3459593886 -0.2564242609 0.3457481483 -0.256202254 -0.2352495091 0.1792337858
310298140.0 -0.2219982293 0.178418003 0.3428134666 -0.259814558 0.3429770956 -0.2602495741 -0.2338605863 0.1818105911
315298110.0 -0.2207674944 0.1810396612 0.3400932547 -0.2639074162 0.3400865384 -0.26409941 -0.2318568831 0.1843422456
320298080.0 -0.218625243 0.1834254845 0.3372574396 -0.2677036848 0.3372285783 -0.2672578806 -0.2302364661 0.1866930209
325298050.0 -0.2171782156 0.1854391214 0.334308119 -0.2717308509 0.3341452158 -0.2719086902 -0.2282236629 0.1895405574
330298020.0 -0.2153879721 0.1879451523 0.3304482075 -0.275555509 0.3305566234 -0.2753110405 -0.2264977316 0.1915442658
335297990.0 -0.2133204314 0.1901443993 0.3275397276 -0.2789304936 0.3274894031 -0.2788689533 -0.2248889347 0.1940740264
340297960.0 -0.2118414642 0.1928474845 0.3242315353 -0.2826412691 0.3246916232 -0.2827230671 -0.2225938062 0.1971847084
345297930.0 -0.2098809115 0.1949097156 0.3208848305 -0.2859786587 0.3210577824 -0.2860186227 -0.2208075937 0.1996295566
350297900.0 -0.2076719849 0.197714744 0.317913017 -0.289400844 0.3180340429 -0.289500015 -0.2186099225 0.2019952698
355297870.0 -0.2058630561 0.1998544423 0.3145395879 -0.2929400942 0.3150733763 -0.2934162086 -0.2166654686 0.2049784339
360297840.0 -0.2038942 0.202508826 0.3117006004 -0.296874896 0.3113661383 -0.2967578346 -0.2145748567 0.2075510577
365297810.0 -0.2016592349 0.2044598198 0.3077220731 -0.2999665689 0.3082374159 -0.2999580368 -0.212401905 0.2100260149
370297780.0 -0.1994649038 0.2064855411 0.304536491 -0.3032293628 0.3048004823 -0.3032478879 -0.2105691282 0.2118552367
375297750.0 -0.1977259798 0.2096570098 0.3020226518 -0.3072059862 0.3010781982 -0.3068671444 -0.2079322232 0.2146167229
380297720.0 -0.1953691911 0.2111560709 0.2979114279 -0.3096568927 0.2978329006 -0.309930067 -0.2055886012 0.2174723529
385297690.0 -0.1933717152 0.2138646936 0.2945518922 -0.3126964814 0.294298032 -0.3133475028 -0.2034723561 0.2196276825
390297660.0 -0.1911049159 0.2159588404 0.2909360145 -0.3168090972 0.2907641833 -0.3165941698 -0.201449782 0.2219533482
395297630.0 -0.1887907278 0.2178566934 0.287730035 -0.3193387322 0.2874216329 -0.3195917301 -0.1989155051 0.2245714065
400297600.0 -0.1867829343 0.2201082137 0.2841825326 -0.3227642073 0.2839908658 -0.3229096853 -0.1971113865 0.2266276141
405297570.0 -0.184146649 0.2225095628 0.280662964 -0.3260246037 0.2804408529 -0.3261537813 -0.1947324071 0.229401474
410297540.0 -0.1819107532 0.2240894727 0.2762617075 -0.328457904 0.2763005237 -0.3289520115 -0.1919144204 0.231494903
415297510.0 -0.1794316192 0.2266172419 0.2733460635 -0.3319379378 0.2729740443 -0.3319453928 -0.189852577 0.2340349109
420297480.0 -0.1770684659 0.228449043 0.2691183646 -0.3350328438 0.2693834024 -0.3349880171 -0.1876428203 0.2356084999
425297450.0 -0.1747294359 0.230564725 0.2655665767 -0.3381076106 0.2659899101 -0.3378629341 -0.184800992 0.2383183672
430297420.0 -0.1723826546 0.232638491 0.2619137529 -0.3410913981 0.2617565184 -0.340904204 -0.1824479744 0.2402702937
435297390.0 -0.1696045501 0.2345119407 0.258063124 -0.3433571903 0.258290451 -0.3433711961 -0.1802463045 0.2424800324
440297360.0 -0.1671596032 0.2364274774 0.2537668036 -0.3462573293 0.25396903 -0.3462627718 -0.1777254463 0.2440131051
445297330.0 -0.1648003095 0.2384896835 0.2501199164 -0.349361309 0.2502481146 -0.3490259713 -0.1751791931 0.2461523043
450297300.0 -0.1622776263 0.2400252482 0.2462721344 -0.3516915621 0.2468194576 -0.3520508394 -0.1728549508 0.2487718996
455297270.0 -0.1599369597 0.2423578338 0.2428047242 -0.354353139 0.2430059145 -0.3543541626 -0.1701924771 0.2505747071
460297240.0 -0.1578402799 0.2442870412 0.2386915122 -0.356701896 0.2385341073 -0.3571576498 -0.1673591436 0.2528337014
465297210.0 -0.1544100207 0.2457476882 0.2348422965 -0.3596893695 0.2348561997 -0.3594875754 -0.1651214808 0.2546116255
470297180.0 -0.1520566252 0.2476612324 0.2309018121 -0.3620027796 0.2310133592 -0.3619480713 -0.1626972408 0.2569697298
475297150.0 -0.1497119048 0.2492535064 0.22687685 -0.3643029644 0.2270328447 -0.3640008696 -0.1598146273 0.2583897766
480297120.0 -0.1470646073 0.2508904287 0.222694016 -0.3667375183 0.2229210965 -0.3665629604 -0.1570373116 0.2607553982
485297090.0 -0.1441908287 0.2527420704 0.218826944 -0.3689314526 0.2189750763 -0.3692702054 -0.1547027436 0.2623240412
490297060.0 -0.1416253168 0.2543223655 0.2150074915 -0.371594452 0.2146238133 -0.3713682876 -0.1515179762 0.2641054462
495297030.0 -0.1391949955 0.2562087823 0.2107043217 -0.3736062509 0.2106232632 -0.373739214 -0.1489554797 0.2654581424
500297000.0 -0.1361512386 0.2575486544 0.2062398062 -0.3762889443 0.2067811677 -0.3761358173 -0.146527135 0.2675923466
505296970.0 -0.133637566 0.2591230296 0.2021778274 -0.3782647754 0.2024382856 -0.3782683462 -0.1441695771 0.2694449739
510296940.0 -0.1307585149 0.2610964567 0.19808223 -0.3808367584 0.198144844 -0.3805123498 -0.1405424135 0.2712513277
515296910.0 -0.1284050739 0.2628178683 0.1940780045 -0.3826559224 0.1941116669 -0.382371872 -0.1379718578 0.272938904
520296880.0 -0.1254968884 0.2636754016 0.1896720805 -0.3846897763 0.189865559 -0.3843683761 -0.13510929 0.2744254206
525296850.0 -0.1226548489 0.2653155695 0.1853709282 -0.3863268523 0.1854550022 -0.3869596059 -0.1321214623 0.2758514252
530296820.0 -0.1198268532 0.2666498831 0.181420226 -0.3879892874 0.1813277316 -0.3884274743 -0.1296945155 0.2776473447
535296790.0 -0.1169394752 0.2679759468 0.1771929371 -0.390035841 0.1772501596 -0.3900944603 -0.1265878242 0.2788623049
540296760.0 -0.1141906569 0.2691758617 0.1731204957 -0.3924581391 0.1725385216 -0.3924449435 -0.124153761 0.2808221837
545296730.0 -0.1113390269 0.2712212596 0.1681747873 -0.3939454457 0.1683344763 -0.3941619746 -0.1211990679 0.2816869587
550296700.0 -0.1088032449 0.2723785785 0.1646322482 -0.3960074318 0.1646894958 -0.3960176217 -0.1184023007 0.2834337027
555296670.0 -0.1053064766 0.2734347373 0.1602209516 -0.3976483965 0.1600720851 -0.3974715532 -0.1155941801 0.284995037
560296640.0 -0.1027378639 0.2746545235 0.1554883221 -0.3996044203 0.1561188251 -0.3992202939 -0.1125017251 0.286259782
565296610.0 -0.1001138629 0.2759548708 0.1512632287 -0.400627401 0.1509991582 -0.400679311 -0.1098219715 0.2873437539
570296580.0 -0.0970486944 0.2769167118 0.1466478956 -0.4023199966 0.1470894402 -0.4025013977 -0.106480091 0.2891272103
575296550.0 -0.0936433259 0.2782402037 0.1422437712 -0.4037655943 0.1427169471 -0.4038050967 -0.1033851659 0.290138033
580296520.0 -0.0911655459 0.2792509133 0.138408097 -0.4049750346 0.1381954826 -0.4054807165 -0.1005896518 0.29140081
585296490.0 -0.0879058622 0.2802577286 0.1334949892 -0.4068132105 0.1335736995 -0.4068871497 -0.0975407304 0.2922078461
590296460.0 -0.0853445752 0.281298892 0.1288472442 -0.4079642633 0.1293436782 -0.4084904639 -0.0943109748 0.2937732905
595296430.0 -0.0821956963 0.2825815631 0.1248626094 -0.4096758571 0.1246398506 -0.4098256272 -0.0917829548 0.2947772557
600296400.0 -0.0794360031 0.2834788834 0.1204406279 -0.4107577031 0.1204739113 -0.4111887795 -0.0884926757 0.2961954291
605296370.0 -0.0764109972 0.2846692093 0.1161961405 -0.4121363776 0.1160030287 -0.4120609971 -0.0856316218 0.2971339686
610296340.0 -0.0733901696 0.2856256378 0.1116184724 -0.4132894503 0.1117560525 -0.4137156145 -0.0821669426 0.2985462964
615296310.0 -0.0703556418 0.2866073736 0.1069664915 -0.4145331745 0.1068872765 -0.4145791938 -0.0796837328 0.2989941611
620296280.0 -0.0671387098 0.2868765757 0.1024299391 -0.4148819958 0.1023741017 -0.415571606 -0.0762977861 0.2997993156
625296250.0 -0.0642480777 0.287866366 0.097731148 -0.4166564402 0.0977206637 -0.4166069127 -0.0731814761 0.3008569788
630296220.0 -0.0612983748 0.2887374008 0.0930148168 -0.4177573082 0.0936657982 -0.4176850335 -0.0701183079 0.3019930562
635296190.0 -0.0584243624 0.289840877 0.088675122 -0.4182100514 0.0887709843 -0.4183811792 -0.0668284308 0.3027815011
640296160.0 -0.0550514494 0.290250149 0.0844158121 -0.4192188308 0.0841727874 -0.4190839612 -0.0633576936 0.3035886941
645296130.0 -0.0522996238 0.2913290838 0.079845142 -0.4204367012 0.0798708678 -0.420203567 -0.0609025636 0.3042274917
650296100.0 -0.048829392 0.2921892054 0.075320828 -0.4209959356 0.0751966548 -0.4209728775 -0.057729084 0.3054137745
655296070.0 -0.0460744173 0.2925233835 0.0707071227 -0.4216213155 0.0703971901 -0.4218493639 -0.0543586464 0.3059847604
660296040.0 -0.0430368182 0.2936621471 0.0664130225 -0.4223872546 0.0660367109 -0.4223492725 -0.0511671691 0.3064089931
665296010.0 -0.0395460605 0.2939106122 0.0616427654 -0.423102468 0.0619207063 -0.4235135752 -0.0480626967 0.3074263322
670295980.0 -0.036113535 0.2944653499 0.0568884216 -0.423894014 0.0573919825 -0.4238501863 -0.0452622527 0.3079973037
675295950.0 -0.0331365488 0.2949925166 0.0520508969 -0.4245812176 0.0525168299 -0.4246053763 -0.0418110293 0.3087958842
680295920.0 -0.0305635556 0.2956939983 0.0479229864 -0.4250075442 0.0473901101 -0.4249021319 -0.038377379 0.3091325337
685295890.0 -0.0272899992 0.296145958 0.0433429238 -0.4250122889 0.0429090696 -0.4253964766 -0.0352147046 0.3096297226
690295860.0 -0.0235996847 0.2965018127 0.0382746683 -0.4252331508 0.038239031 -0.4256652678 -0.0318745152 0.3103782515
695295830.0 -0.0205953615 0.296648411 0.033226358 -0.425743555 0.0338980336 -0.4258462648 -0.0290061638 0.3106510789
700295800.0 -0.0174854335 0.2970005766 0.0289911264 -0.4264423091 0.0290144549 -0.4265902049 -0.025800322 0.3108717361
705295770.0 -0.014361557 0.2976568355 0.0244833492 -0.4267047738 0.024859074 -0.426728897 -0.0227207005 0.3115181309
710295740.0 -0.0114608741 0.2981261485 0.0199435582 -0.426863991 0.0200046162 -0.4266540179 -0.019857473 0.3119284545
715295710.0 -0.0083319903 0.2983839037 0.0153520676 -0.4271789178 0.0153373716 -0.4267931835 -0.0158916855 0.3121454347
720295680.0 -0.0050619134 0.2980866259 0.0103427734 -0.4268384528 0.0106165455 -0.4273655597 -0.0126540705 0.3128069742
725295650.0 -0.0013471737 0.2985953389 0.0055541658 -0.4267471981 0.0059983857 -0.427488332 -0.0096565695 0.3131028665
730295620.0 0.0009610649 0.2985822108 0.0013871566 -0.4270319915 0.0014232529 -0.4267977904 -0.0061498417 0.3130744088
735295590.0 0.0049441411 0.2984914651 -0.0029304834 -0.4268498522 -0.003045591 -0.4273318432 -0.0029574543 0.3133811023
740295560.0 0.0076319402 0.2990091724 -0.0078712129 -0.4263803643 -0.0079828465 -0.4268994261 0.0003417539 0.3132490106
745295530.0 0.0108901829 0.2988810838 -0.012606432 -0.4266264107 -0.0122235921 -0.4268407611 0.0032491029 0.3134765415
750295500.0 0.0137532436 0.2988029257 -0.0170318857 -0.4262291431 -0.0171438082 -0.4265013728 0.0066318317 0.3134667643
755295470.0 0.0176606328 0.2992732137 -0.0217738314 -0.4262898369 -0.0213349225 -0.4267790381 0.0095611102 0.3140369253
760295440.0 0.0205706127 0.2987033436 -0.0264276882 -0.4259144505 -0.0262258337 -0.4259562618 0.0127498002 0.3134293183
765295410.0 0.0235198664 0.2986330992 -0.0304422847 -0.4253387267 -0.0306271108 -0.4257102222 0.0167325512 0.3138634328
770295380.0 0.0271734695 0.2989933977 -0.0356260866 -0.4249414582 -0.0353940526 -0.4255651675 0.0199925398 0.3137964057
775295350.0 0.0298332731 0.2987532367 -0.0402241046 -0.4244580963 -0.0398814439 -0.4247657911 0.0226328364 0.3133546925
780295320.0 0.0331121069 0.2985285951 -0.0443864627 -0.4239840857 -0.0444835339 -0.424626837 0.0258187325 0.3136705585
785295290.0 0.0363439688 0.2983021512 -0.0491944579 -0.4230756858 -0.049108088 -0.4238762522 0.028982081 0.3134106172
790295260.0 0.0392289391 0.2980960294 -0.0538441457 -0.4237041508 -0.0535607588 -0.4234163176 0.0327804731 0.3132186886
795295230.0 0.042837433 0.2982203739 -0.058154722 -0.422247743 -0.0583751493 -0.4224947756 0.0361611946 0.3134617156
800295200.0 0.0456163628 0.2977463416 -0.0629467774 -0.4217552472 -0.0632795971 -0.421894822 0.0392146539 0.3128217328
805295170.0 0.0487630938 0.2971469722 -0.0673035468 -0.4206513702 -0.0671851053 -0.4209870156 0.0419198506 0.3124381294
810295140.0 0.0520004924 0.2968732932 -0.0718282632 -0.4202980998 -0.0719803064 -0.420661361 0.045792835 0.3127067312
815295110.0 0.0549251216 0.2964109643 -0.0767137517 -0.4194790507 -0.07657456 -0.4193147608 0.0486206493 0.3119482554
820295080.0 0.058244583 0.2954537657 -0.0807898822 -0.4186201623 -0.0807895341 -0.4186961586 0.0518494692 0.3116761652
825295050.0 0.0617638368 0.2953711295 -0.0858417974 -0.4172706399 -0.0855170264 -0.4176908753 0.0553564864 0.3112784722
830295020.0 0.0648635934 0.2950843487 -0.0901408522 -0.4166496641 -0.0904498153 -0.4166080166 0.0584170337 0.3107692744
