!Created with skrf (http://scikit-rf.org).
# Hz S RI R 50.0 
!freq ReS11 ImS11 ReS21 ImS21 ReS12 ImS12 ReS22 ImS22
300000.0 -0.0974678315 -0.0801490809 0.6229887679 0.0759010004 0.6241392406 0.0786032771 -0.0957020232 -0.0873318029
5299970.0 -0.1004031439 0.013238635 0.6302790728 0.0101925351 0.6302378742 0.0108199038 -0.1021573048 0.0119477017
10299940.0 -0.0953069268 0.0298367002 0.6345499126 0.015238425 0.6344794603 0.0159934904 -0.0972786216 0.0290623186
15299910.0 -0.0886418775 0.0432009495 0.6404800497 0.0207057425 0.6402308954 0.0210745465 -0.0901779057 0.0420826401
20299880.0 -0.0796027621 0.0542544589 0.6487682916 0.0240542831 0.6490193284 0.0243161323 -0.0818222502 0.0534441786
25299850.0 -0.0695900805 0.0629698427 0.6578280989 0.0250896421 0.6580174725 0.0253457668 -0.0724207972 0.0618985208
30299820.0 -0.05959312 0.0691509019 0.6678988503 0.0245973338 0.667304694 0.0243092463 -0.0626726135 0.0685894531
35299790.0 -0.0493531231 0.0740994209 0.676907288 0.021190382 0.6776368834 0.0217295939 -0.052533241 0.0735455546
40299760.0 -0.0398265907 0.0770158502 0.6869234024 0.0179031501 0.6868321368 0.0178298879 -0.0437479756 0.0772270258
45299730.0 -0.0304056006 0.0796111961 0.6958745114 0.0115141517 0.6959100445 0.0117459947 -0.0340717658 0.0789304895
50299700.0 -0.0218398058 0.0797673665 0.7030305994 0.0049027167 0.7039605451 0.0044874372 -0.025321753 0.0800794075
55299670.0 -0.0142451848 0.0798677626 0.7105969504 -0.0031868768 0.7111126818 -0.0029161933 -0.0176822923 0.0799180834
60299640.0 -0.0066856933 0.0787479059 0.7174304913 -0.0117785898 0.7174464494 -0.0111928062 -0.0104425251 0.0796067228
65299610.0 -0.0004805237 0.0781346731 0.7238822936 -0.0196101335 0.7240501416 -0.0199383865 -0.0036354191 0.0784202387
70299580.0 0.0058857751 0.0758470067 0.7285756009 -0.0287027567 0.7287458664 -0.0293167606 0.0024873752 0.0772788251
75299550.0 0.0117535383 0.0742393258 0.7330616208 -0.0391907882 0.7329491083 -0.0389130412 0.0082125294 0.0754554674
80299520.0 0.0159621111 0.0720326382 0.737445837 -0.0493462676 0.7376711779 -0.0490982046 0.0132268322 0.0728738018
85299490.0 0.0207475206 0.0694666713 0.7407337405 -0.0589472939 0.7408661405 -0.0590380451 0.0175478483 0.0711096898
90299460.0 0.0245656039 0.0672699218 0.7434877347 -0.0684381958 0.7439526788 -0.0692006897 0.02247151 0.0686820216
95299430.0 0.028064602 0.0652514966 0.7460711955 -0.0794408609 0.7457436571 -0.079013813 0.0256212725 0.0664156873
100299400.0 0.0314639756 0.0626821272 0.7473010475 -0.0893516278 0.747350998 -0.0896512901 0.0285600003 0.0637302542
105299370.0 0.0346042189 0.0600391392 0.748412146 -0.0991530228 0.7489962602 -0.0993171173 0.0319156891 0.0619398174
110299340.0 0.0370231075 0.0576848901 0.7498081314 -0.1086800703 0.7501555227 -0.1097046924 0.0347907594 0.0594422533
115299310.0 0.0397297844 0.0548434736 0.750874706 -0.1189929093 0.7511784343 -0.1191937828 0.0373886066 0.056351834
120299280.0 0.0414189657 0.052495498 0.7516903706 -0.1294416516 0.7513136176 -0.12942611 0.0387636658 0.0540669097
125299250.0 0.0431074455 0.0504244971 0.7521945823 -0.139611943 0.7517200666 -0.1395303045 0.0414608481 0.0513967236
130299220.0 0.0449715733 0.0479424917 0.7511050435 -0.1485324666 0.7518588135 -0.1496773096 0.0434492811 0.0494238088
135299190.0 0.0466680482 0.0453573131 0.7508285223 -0.1586319463 0.7507409057 -0.1589923465 0.0443969245 0.047466114
140299160.0 0.0476424603 0.0441737432 0.7508742131 -0.1685416024 0.7510224781 -0.1686384529 0.0460672817 0.0454051285
145299130.0 0.0493834976 0.0419427087 0.7504864953 -0.1788038913 0.7500477696 -0.1781559906 0.0473996273 0.0427442691
150299100.0 0.0507596869 0.039749051 0.7492591498 -0.1882853188 0.7488372363 -0.1882799405 0.0487865042 0.0408547931
155299070.0 0.0511157513 0.0384240424 0.7476454257 -0.1980844537 0.747855831 -0.1982692438 0.0491589429 0.0385118882
160299040.0 0.0523320242 0.0359095735 0.7459023134 -0.2071309953 0.746219373 -0.2074774473 0.0506594499 0.0372749432
165299010.0 0.0529844398 0.0342280866 0.7452386848 -0.2170135861 0.7448024095 -0.2168233613 0.0517500294 0.0348223874
170298980.0 0.0534598569 0.0327570981 0.7419208477 -0.2259196455 0.7428710034 -0.2262814455 0.0527791099 0.0330737455
175298950.0 0.0544597204 0.0306701337 0.7415747236 -0.2352990843 0.7411207066 -0.2356057947 0.0533578511 0.0312810073
180298920.0 0.0552850689 0.0290383967 0.7390713386 -0.2448117222 0.7391953509 -0.2443649864 0.0538282715 0.0297357345
185298890.0 0.0557638714 0.0272242031 0.7367404351 -0.2538646169 0.7363789995 -0.254102234 0.0542563017 0.0276947521
190298860.0 0.0562996976 0.0256863226 0.7340970502 -0.2633431536 0.7349604299 -0.2631577202 0.055303378 0.0261750557
195298830.0 0.056225478 0.0238165058 0.7315047301 -0.2720362936 0.7320139523 -0.2727013611 0.0557454161 0.0242160356
200298800.0 0.0569378423 0.0226050061 0.7299270369 -0.2801479178 0.7294054612 -0.2804827479 0.0562786467 0.0231315086
205298770.0 0.0572080253 0.0212800468 0.7269210128 -0.289792035 0.7270094913 -0.289797555 0.0564498444 0.0209118751
210298740.0 0.0570935102 0.0197605125 0.7237720081 -0.2985203985 0.7237819346 -0.2989999827 0.0565503605 0.0199709853
215298710.0 0.0576377396 0.0186620521 0.7208215857 -0.3072096424 0.7206121866 -0.3070521953 0.0569400567 0.0183898325
220298680.0 0.058179978 0.0170726147 0.7174491733 -0.3161883154 0.717549994 -0.3157255385 0.0574178191 0.0174401128
225298650.0 0.0584499642 0.0161340319 0.7141004135 -0.3239960151 0.7139633601 -0.3241614808 0.0573264488 0.0156421641
230298620.0 0.0579813389 0.0146636845 0.7110351535 -0.3333699341 0.7114446862 -0.3330322574 0.0575166561 0.0145788221
235298590.0 0.0584734786 0.0131436996 0.7071801689 -0.3412279981 0.707474842 -0.3417491607 0.0580694813 0.0128545908
240298560.0 0.0582678058 0.0120802818 0.7040594939 -0.3494042202 0.7040100532 -0.3495243366 0.0582898647 0.0117623255
245298530.0 0.058808079 0.0109397137 0.6992919454 -0.3583915816 0.6995783548 -0.3583447457 0.0582203332 0.0106671754
250298500.0 0.0584043151 0.0096492483 0.6960561876 -0.3655750891 0.6965169362 -0.3658365326 0.0585244428 0.0089309289
255298470.0 0.0583153624 0.0089945965 0.6916744515 -0.3746548138 0.692169372 -0.3745482476 0.0587320693 0.0076283649
260298440.0 0.0581584861 0.0074456715 0.6879162592 -0.3820058544 0.6883893005 -0.3820208218 0.0593055672 0.0069749011
265298410.0 0.0589782626 0.006959712 0.6841361443 -0.3913517976 0.6837491334 -0.3908653426 0.0585223128 0.0053948185
270298380.0 0.0592279702 0.0056284665 0.67931963 -0.3986773374 0.6797993648 -0.3987651934 0.0585293601 0.0050005823
275298350.0 0.058265825 0.0047374473 0.675227238 -0.4063836545 0.6758843255 -0.4066395453 0.0587612042 0.0036956175
280298320.0 0.0587768803 0.0038898799 0.6709830812 -0.413855039 0.6711313225 -0.4144949429 0.0592901042 0.0027381508
285298290.0 0.0587797935 0.002963417 0.6663632802 -0.4221879223 0.666637369 -0.4222949334 0.0586287083 0.0016342015
290298260.0 0.058675141 0.0015714712 0.6622832268 -0.4298313168 0.661921072 -0.4297254249 0.0594215874 0.0005142247
295298230.0 0.058627404 0.000678606 0.6576336203 -0.4376514135 0.6575412247 -0.4376089666 0.0595080289 -0.0005901722
300298200.0 0.0590533548 -9.46047e-05 0.6528193806 -0.4452468972 0.6531616723 -0.4457772687 0.0590504237 -0.0015296579
305298170.0 0.0588702654 -0.0013602308 0.6482284556 -0.4530557342 0.6488887315 -0.4535772508 0.0594589815 -0.0022816633
310298140.0 0.0595915078 -0.0025628991 0.6433796153 -0.4610284431 0.6434752203 -0.4610136552 0.0593999874 -0.0030901454
315298110.0 0.0586666863 -0.0033574734 0.6381103033 -0.4681277897 0.6385640882 -0.4687650892 0.0596672082 -0.0048137497
320298080.0 0.0585463276 -0.0045942661 0.6328906786 -0.4762095063 0.63303904 -0.4758005984 0.0590598214 -0.0060373622
325298050.0 0.0580419059 -0.0057363117 0.6283020258 -0.4832424402 0.6281259208 -0.4836240344 0.0589575026 -0.0072147195
330298020.0 0.0577076159 -0.0067917266 0.6214551276 -0.4904623148 0.6220151753 -0.4908909058 0.0583044743 -0.0082823887
335297990.0 0.0573938101 -0.0079315785 0.6163564067 -0.4978309315 0.6165477885 -0.4980699412 0.057951462 -0.0092636279
340297960.0 0.0563567226 -0.0081669375 0.6099222416 -0.5047131975 0.6104241649 -0.5044703133 0.0571407642 -0.0095075116
345297930.0 0.0563516653 -0.0087425711 0.6047752363 -0.5112480991 0.6043133145 -0.5111953323 0.057508279 -0.0109056452
350297900.0 0.0563187086 -0.0094822422 0.5987907895 -0.5177614653 0.5993828133 -0.5182604425 0.0565313901 -0.0107391774
355297870.0 0.055876714 -0.0103548278 0.5934128731 -0.5246297944 0.59327772 -0.5251499984 0.0559782536 -0.0115684925
360297840.0 0.0557799593 -0.0108872873 0.5873385723 -0.5317607637 0.587096669 -0.5316320165 0.0563165051 -0.0120994274
365297810.0 0.0557025633 -0.0116891101 0.5812323005 -0.5382873431 0.5814281274 -0.5382560637 0.0557589593 -0.0124759292
370297780.0 0.0555070619 -0.0124789894 0.5754910993 -0.5446139056 0.5757441011 -0.5448492706 0.0558626817 -0.0130225972
375297750.0 0.0548615217 -0.0122721345 0.5702842252 -0.5508274018 0.5697590036 -0.5511807709 0.0554173048 -0.0137756568
380297720.0 0.0549453948 -0.0139049033 0.5634698752 -0.5573645358 0.5633270955 -0.5572600246 0.0551579772 -0.0146949469
385297690.0 0.0548551626 -0.0140384275 0.5569240359 -0.5628493124 0.5575998093 -0.5639243695 0.0551170897 -0.0152205985
390297660.0 0.0540812398 -0.0151602011 0.5500808529 -0.570138064 0.5508731032 -0.5702525712 0.0548442488 -0.0160931894
395297630.0 0.0545320852 -0.0159201912 0.5450091449 -0.5754783717 0.5447347332 -0.5758193378 0.0543550268 -0.0161462862
400297600.0 0.0536197785 -0.0159659632 0.5386068694 -0.581962864 0.5388104143 -0.5824507165 0.0531341252 -0.017417838
405297570.0 0.0538564269 -0.0164703276 0.5324165415 -0.5877186896 0.5319709094 -0.588342593 0.0537938813 -0.0171920819
410297540.0 0.053511066 -0.0174791968 0.524691896 -0.5939896816 0.5249335187 -0.5943437841 0.0531825241 -0.01816574
415297510.0 0.0530965663 -0.0175256084 0.5190554569 -0.5996397847 0.5189025223 -0.6002246748 0.0529074301 -0.0183751929
420297480.0 0.0528183477 -0.01908467 0.5125811819 -0.6054781132 0.5123188504 -0.6052805558 0.0529079005 -0.0196043389
425297450.0 0.0530445073 -0.0197363264 0.5050982587 -0.6107613944 0.5061478919 -0.6113440721 0.0520875492 -0.0190318593
430297420.0 0.0524997764 -0.019729609 0.4991370562 -0.617198569 0.4990497313 -0.6172633562 0.0516147395 -0.0202461603
435297390.0 0.0522696263 -0.0208210296 0.4923539903 -0.622127377 0.4919345813 -0.6223389651 0.0511790822 -0.0204020177
440297360.0 0.0520680409 -0.0215232009 0.4851136257 -0.6277495335 0.484765743 -0.6276646746 0.0511184603 -0.0216928219
445297330.0 0.0520480238 -0.0220322366 0.4779733136 -0.6336791883 0.4781345555 -0.6334196841 0.0505819024 -0.0221497091
450297300.0 0.0516554142 -0.0224518493 0.4711936784 -0.6385811741 0.471207017 -0.6387211814 0.0506213528 -0.0222152047
455297270.0 0.0508098663 -0.0235715971 0.4646159417 -0.6435897579 0.4649054721 -0.6438440864 0.0503917943 -0.0227628929
460297240.0 0.0502460697 -0.0237905972 0.4568469874 -0.6484472343 0.4565414115 -0.649136889 0.0496923891 -0.022877666
465297210.0 0.0507769027 -0.0249072992 0.4498143099 -0.654346912 0.4503238478 -0.6540131781 0.0489427246 -0.0238743577
470297180.0 0.0497725883 -0.0251869347 0.4428363709 -0.6587711377 0.44311578 -0.6592035837 0.0482294149 -0.0243650854
475297150.0 0.0491565805 -0.0263625491 0.4349000027 -0.6633030951 0.4359809284 -0.6633587583 0.0483597627 -0.0249173687
480297120.0 0.0495842078 -0.0269849987 0.428189496 -0.6680392676 0.4288492677 -0.6684191618 0.0476480178 -0.0247176297
485297090.0 0.0493088541 -0.0270179257 0.4214778767 -0.6728993826 0.4210856929 -0.6733095685 0.0469680426 -0.0260611961
490297060.0 0.0488296236 -0.0280751931 0.4136175485 -0.677570709 0.4135094332 -0.6781542358 0.0471220782 -0.0255561712
495297030.0 0.0478820279 -0.0279913983 0.4060615748 -0.6824914432 0.4052484415 -0.6826501163 0.0467188864 -0.0263902396
500297000.0 0.0479918094 -0.029281014 0.3987966619 -0.6866757657 0.3984159662 -0.6871573796 0.0452941232 -0.0269754939
505296970.0 0.0469020686 -0.0296121117 0.3906986792 -0.6903120058 0.3909484403 -0.6913339334 0.0449433191 -0.027161185
510296940.0 0.0467463008 -0.0301364112 0.3834009791 -0.6956962113 0.3834717638 -0.695201333 0.0451600927 -0.0268377555
515296910.0 0.0461369687 -0.0305376209 0.3754107149 -0.6990016087 0.3752757144 -0.6994521091 0.044116719 -0.0280088411
520296880.0 0.0458354596 -0.0313939518 0.3678491529 -0.7035259458 0.3681247593 -0.7036086533 0.0443905035 -0.0282491688
525296850.0 0.0449642826 -0.0320307826 0.3604869228 -0.7077422395 0.3603392023 -0.7080098219 0.0438723977 -0.0287799133
530296820.0 0.0450199172 -0.0323667904 0.3526963521 -0.7109687635 0.3525939299 -0.7116831087 0.0427508558 -0.0298395651
535296790.0 0.0442031658 -0.033124067 0.3447631143 -0.7145920745 0.3448502551 -0.7154924714 0.0425094337 -0.0300131462
540296760.0 0.0438115926 -0.033818621 0.3368056923 -0.7199618021 0.3362999991 -0.7198252292 0.0415450824 -0.0300721399
545296730.0 0.0433199557 -0.033646158 0.3287029225 -0.722122645 0.3284888527 -0.72346637 0.0411269099 -0.0308231711
550296700.0 0.0425551678 -0.0346729055 0.3213603727 -0.7265953752 0.3219779116 -0.7271464235 0.0405455386 -0.0305252312
555296670.0 0.0424783355 -0.0351786004 0.3133280542 -0.7301347981 0.3130185751 -0.7301993904 0.0400716118 -0.0310851292
560296640.0 0.0416699413 -0.035736232 0.3052746574 -0.732899821 0.305344914 -0.732701192 0.0397077955 -0.031371563
565296610.0 0.0407364288 -0.0361852684 0.2969933336 -0.7366565856 0.2963333955 -0.7363634335 0.0387868962 -0.0323159002
570296580.0 0.0410626264 -0.0367771189 0.2888892705 -0.7391467532 0.289282952 -0.7394505672 0.0387112633 -0.0312618516
575296550.0 0.0403218687 -0.036172027 0.2809553753 -0.7423094714 0.281128996 -0.7430213 0.0384064757 -0.0325716907
580296520.0 0.03928862 -0.0372238924 0.2729208516 -0.745975942 0.2724523993 -0.7457258016 0.0372251016 -0.0329727217
585296490.0 0.0394117427 -0.0378275135 0.2650518896 -0.749478166 0.2641866345 -0.7487187165 0.0369088373 -0.033822038
590296460.0 0.038054193 -0.038599033 0.2561021755 -0.7517280291 0.2560327075 -0.7519131145 0.0364575712 -0.0333496129
595296430.0 0.037451588 -0.0384288077 0.2485697462 -0.754864305 0.2481078111 -0.754869251 0.0360695617 -0.0338124089
600296400.0 0.0368836957 -0.0385732023 0.2398899602 -0.7570283458 0.2405766533 -0.7577738034 0.0353098044 -0.0339644572
605296370.0 0.0367273743 -0.0385988428 0.2319385156 -0.760083001 0.2318019386 -0.7593641662 0.03473649 -0.035138509
610296340.0 0.0358850611 -0.0393863997 0.2240977073 -0.7625298462 0.2237320953 -0.7623737211 0.0344007338 -0.0342280298
615296310.0 0.0353307597 -0.0394428215 0.2146397462 -0.764135525 0.2148596532 -0.7650946312 0.0338895693 -0.0349463014
620296280.0 0.0347871031 -0.0401454973 0.2066957072 -0.7667869784 0.206929932 -0.7669652835 0.0332131839 -0.0357397973
625296250.0 0.0342688803 -0.0404170828 0.1976635937 -0.7693888211 0.1979583727 -0.7692086706 0.0325722036 -0.0356443367
630296220.0 0.0338884582 -0.0407536437 0.189470877 -0.7713637105 0.1899416226 -0.7715667968 0.031570638 -0.0357530035
635296190.0 0.0332147468 -0.0410988964 0.1813850417 -0.772682365 0.1811818459 -0.7726936432 0.0312762013 -0.0365701474
640296160.0 0.0323297653 -0.0413000841 0.1733184968 -0.7749506765 0.172865813 -0.7752733426 0.0310405806 -0.0365212058
645296130.0 0.0317456406 -0.0411527785 0.1644687393 -0.7768018578 0.1645351212 -0.7771472874 0.0295344809 -0.0373025873
650296100.0 0.030827268 -0.0410728929 0.1569453364 -0.7782541256 0.1567053351 -0.778074722 0.0295758878 -0.0373044145
655296070.0 0.0302479489 -0.0419653543 0.1478308767 -0.7800293938 0.1472274506 -0.7799826588 0.0296472078 -0.0368268091
660296040.0 0.0292059311 -0.0416824806 0.1391827895 -0.7811971227 0.1393632911 -0.7818502012 0.0281610127 -0.038035923
665296010.0 0.0292297752 -0.0425242102 0.1307097746 -0.783303435 0.1311510578 -0.7832712528 0.027539237 -0.0376089265
670295980.0 0.0291084648 -0.0422129034 0.1224152318 -0.7843240063 0.1220654874 -0.7848832956 0.0267877805 -0.0382541155
675295950.0 0.0283339048 -0.0423291318 0.1132684927 -0.7856379247 0.113964597 -0.7865961542 0.0268583035 -0.0377994655
680295920.0 0.0273756605 -0.0421161843 0.104892274 -0.7871201611 0.1044496401 -0.7870579887 0.0261407967 -0.0385502769
685295890.0 0.0265189355 -0.0430452845 0.0967803011 -0.788379334 0.0958427895 -0.7885985108 0.0256075499 -0.0384222919
690295860.0 0.026262217 -0.0432512991 0.0879387826 -0.7885484423 0.0872271735 -0.7886775973 0.0252072497 -0.0382629727
695295830.0 0.0263722322 -0.0433536929 0.0781076255 -0.7899705564 0.0781524459 -0.7901652093 0.0240686252 -0.0387807796
700295800.0 0.0256709389 -0.0433612426 0.0702527973 -0.7909546525 0.0703882083 -0.7913277556 0.0238543693 -0.0395413572
705295770.0 0.0248519622 -0.0437838068 0.0621341266 -0.7912828632 0.0617921243 -0.7920014469 0.0227425607 -0.0391460393
710295740.0 0.0239281163 -0.0433696707 0.0533385754 -0.7919649288 0.0528280528 -0.7919402845 0.0216501236 -0.0392470454
715295710.0 0.0235074263 -0.0438469269 0.0447223342 -0.7923917154 0.0449405115 -0.7930358633 0.021647537 -0.0402824428
720295680.0 0.0224918916 -0.0442454241 0.0356941261 -0.7927335258 0.0356181844 -0.7938843025 0.0214726687 -0.0395233476
725295650.0 0.0221384235 -0.0440581835 0.0268927954 -0.7933265221 0.0274137016 -0.7936522478 0.0206380085 -0.0394705818
730295620.0 0.0209622914 -0.0443183085 0.0183614047 -0.7937044402 0.0188657495 -0.7942014394 0.0201292705 -0.0406465177
735295590.0 0.0211854418 -0.0442507627 0.010426267 -0.7937991374 0.0104322127 -0.7938569074 0.0194526422 -0.0398035281
740295560.0 0.0200545133 -0.0440254953 0.001364037 -0.793596233 0.001285698 -0.7939767712 0.0192562377 -0.0403948152
745295530.0 0.0199597848 -0.0449428129 -0.0070967699 -0.7939157673 -0.0069888502 -0.7943697376 0.0180574113 -0.0398923376
750295500.0 0.0190495911 -0.0447051149 -0.0155819217 -0.7933842599 -0.0157883144 -0.7936332983 0.0184689187 -0.040697589
755295470.0 0.0190705602 -0.0443028084 -0.0239533057 -0.7931756683 -0.0243526623 -0.7936869251 0.0165738984 -0.0403474726
760295440.0 0.0177289442 -0.0444517684 -0.0334690228 -0.7931646625 -0.0333538557 -0.7934310169 0.0156876488 -0.0407804123
765295410.0 0.0169471106 -0.0451383086 -0.040896366 -0.7922634826 -0.0414197584 -0.7928619296 0.0166141998 -0.0398220766
770295380.0 0.0168417238 -0.0447856016 -0.0502982472 -0.7918889969 -0.0501483569 -0.7924069709 0.015953159 -0.040192736
775295350.0 0.0162442895 -0.0444043073 -0.0585909711 -0.7915102476 -0.0584618793 -0.7915838842 0.0146854622 -0.0411650877
780295320.0 0.0155372115 -0.0446815581 -0.0674123333 -0.7906726654 -0.0670049535 -0.790713505 0.014282782 -0.0401557158
785295290.0 0.014531489 -0.0441521963 -0.0757954488 -0.7890916841 -0.0761496971 -0.7905060737 0.0134225019 -0.0407298869
790295260.0 0.0143044499 -0.0445231771 -0.0843159077 -0.7889350629 -0.084522632 -0.7895731725 0.0132244936 -0.0408032855
795295230.0 0.0132558709 -0.044683006 -0.0920014026 -0.7878547469 -0.0927493627 -0.7880629099 0.0124761944 -0.0395795801
800295200.0 0.0129729978 -0.0445336091 -0.1021761896 -0.7872457449 -0.1019650988 -0.7869975854 0.0121713001 -0.0403107666
805295170.0 0.0118239302 -0.044667916 -0.1098507406 -0.7851104217 -0.1106548133 -0.785818375 0.010920656 -0.0405269059
810295140.0 0.0116411227 -0.0445959535 -0.1188394878 -0.7850059864 -0.118429784 -0.7852583135 0.010802465 -0.0399598135
815295110.0 0.0108178924 -0.0443484632 -0.1276753829 -0.7828479743 -0.1278295656 -0.7835027014 0.0100520288 -0.0405084926
820295080.0 0.0104448877 -0.0447721078 -0.1351045417 -0.7821878946 -0.1359619791 -0.7820329441 0.0091992217 -0.0401470698
825295050.0 0.0097269052 -0.0446536685 -0.1440470126 -0.7796006026 -0.144692181 -0.7800840274 0.0088628768 -0.0398777145
830295020.0 0.0090327328 -0.0441290024 -0.1525181012 -0.7781950844 -0.1533012881 -0.7789374738 0.0083261596 -0.0400892336
