!Created with skrf (http://scikit-rf.org).
# Hz S RI R 50.0 
!freq ReS11 ImS11 ReS21 ImS21 ReS12 ImS12 ReS22 ImS22
300000.0 -0.1008829064 -0.0683050775 0.6300472665 0.0648830576 0.6239634053 0.0656962617 -0.0999106205 -0.077828602
5299970.0 -0.1021383261 0.0130061307 0.6304681135 0.0099939551 0.6305051309 0.0103055632 -0.1009596897 0.0127252133
10299940.0 -0.0972935095 0.0291368452 0.6340976497 0.015256383 0.6342496811 0.0157077996 -0.0958826457 0.0301620136
15299910.0 -0.0899524049 0.0422610648 0.6402613827 0.0204043849 0.6404258598 0.0207964088 -0.0884471264 0.0434118552
20299880.0 -0.0816245684 0.0529652413 0.6482717762 0.0240916925 0.6485254539 0.0244246873 -0.0797327817 0.0545816313
25299850.0 -0.0723960587 0.0621680226 0.6575171524 0.0251757877 0.6578970518 0.025795327 -0.0698428174 0.0633360576
30299820.0 -0.0621533716 0.0687564708 0.6672747022 0.0243676325 0.6671744034 0.0245496369 -0.0595308725 0.070112712
35299790.0 -0.0524382878 0.0737720195 0.6773376012 0.0214670219 0.6772319149 0.0215539697 -0.0497715142 0.0747460863
40299760.0 -0.0433831839 0.0774078507 0.6861552478 0.017209155 0.6864041261 0.0172116679 -0.0405030256 0.0774662009
45299730.0 -0.0340651355 0.0792865185 0.694857721 0.0119987409 0.6955872983 0.0121275114 -0.0312127675 0.07976908
50299700.0 -0.0257487469 0.0803259751 0.7036544848 0.0048158557 0.7035608645 0.005686258 -0.0226844816 0.0807209837
55299670.0 -0.0177503725 0.0805398783 0.7108789171 -0.00299798 0.7105865957 -0.0024753367 -0.0147351296 0.0808239679
60299640.0 -0.0100583605 0.0802518619 0.7178974479 -0.0115374601 0.7175982871 -0.0108018485 -0.0077752293 0.079204744
65299610.0 -0.0037233801 0.0787865396 0.7233173933 -0.0202801955 0.723869541 -0.0197959538 -0.0012723732 0.0787117498
70299580.0 0.0025583052 0.0776747213 0.7285439349 -0.0292978486 0.7284991101 -0.0289494035 0.0048669589 0.0767883377
75299550.0 0.0081587191 0.0759106586 0.7325486269 -0.0388461926 0.7329020651 -0.0385638636 0.0101060969 0.0748394001
80299520.0 0.0131972797 0.0737668373 0.7373767335 -0.0490263528 0.7373393723 -0.0487435251 0.0150220317 0.072838475
85299490.0 0.0176990105 0.0713399635 0.7400714072 -0.0583382932 0.7402320261 -0.0580473995 0.0195535857 0.0701004856
90299460.0 0.0219700334 0.0691405891 0.742765679 -0.0692175166 0.7434395263 -0.068513531 0.0235608863 0.0682585648
95299430.0 0.0256078369 0.0666400358 0.7453127549 -0.0788317828 0.7456224617 -0.0788091759 0.0275929107 0.0656319706
100299400.0 0.0290035479 0.0647241726 0.7469516348 -0.0887621708 0.7469219529 -0.08873328 0.0309102718 0.0623727926
105299370.0 0.0323373049 0.0622407036 0.7485134474 -0.0994345387 0.7491490011 -0.098901718 0.0342474054 0.0607625442
110299340.0 0.034875481 0.0596735003 0.7498160842 -0.1091048204 0.7499518521 -0.1088166169 0.0361647498 0.057728649
115299310.0 0.0374863673 0.0573413772 0.7510353503 -0.1193298428 0.750568775 -0.1194190199 0.0388398033 0.0555219034
120299280.0 0.0400706385 0.0547421984 0.7513265643 -0.1292600973 0.7513628774 -0.1293079246 0.0414225286 0.0531579242
125299250.0 0.0419840528 0.0523863712 0.751404958 -0.1392062486 0.7518621335 -0.1386479834 0.0426948575 0.0506658356
130299220.0 0.0436160065 0.0504199398 0.7513886365 -0.1492994717 0.751322891 -0.1493090629 0.0450092224 0.0482458059
135299190.0 0.0451389722 0.0483228682 0.7510241609 -0.158867092 0.7512299195 -0.1587458703 0.0467780361 0.0458931801
140299160.0 0.0466309954 0.0464442148 0.7507791174 -0.1690273387 0.7506040071 -0.1684301983 0.0479172269 0.044614398
145299130.0 0.0482928798 0.04362702 0.7501912696 -0.1784692926 0.7495280474 -0.1781206587 0.0496543911 0.0420445009
150299100.0 0.0496261341 0.0422142973 0.7489140308 -0.187467391 0.7490310307 -0.1872740734 0.0508321658 0.0402534932
155299070.0 0.0505036012 0.0398664769 0.7481289237 -0.1982344593 0.7473747387 -0.1974900638 0.0519902675 0.0385040528
160299040.0 0.0520354043 0.0381465613 0.7468826285 -0.2076713428 0.7458191626 -0.207537642 0.0520660498 0.0364638894
165299010.0 0.0523440257 0.03622271 0.7447742165 -0.2170388307 0.744695504 -0.2167490537 0.0537289549 0.0348220082
170298980.0 0.0533195268 0.033920002 0.7426892588 -0.2262838176 0.7432390215 -0.2260416702 0.0543202965 0.0332820428
175298950.0 0.0535619005 0.0322193212 0.7414272994 -0.2351502753 0.7408914179 -0.235134378 0.0549325358 0.031532095
180298920.0 0.0545559147 0.0305030932 0.738818809 -0.2446917536 0.7391105787 -0.2442678354 0.0554050948 0.0299554161
185298890.0 0.0554743479 0.0288699525 0.7366209459 -0.25361723 0.736273297 -0.2535119737 0.0557478341 0.0286371138
190298860.0 0.0557136215 0.027255079 0.7342252381 -0.262870127 0.7346664906 -0.2630097615 0.0565780572 0.0264059272
195298830.0 0.0559897961 0.025191608 0.7314916963 -0.2719545404 0.7320407488 -0.2713394925 0.0570857529 0.0250979315
200298800.0 0.0561980049 0.0240914476 0.7287393267 -0.2807996731 0.7291956715 -0.2803600888 0.0567421674 0.0236949953
205298770.0 0.0568544454 0.0229433693 0.7261185212 -0.2900938727 0.7263583265 -0.2897300515 0.0575199264 0.0214882684
210298740.0 0.0572977322 0.0210164215 0.7230002516 -0.2981914359 0.7232105029 -0.2978041934 0.0579336839 0.0212144377
215298710.0 0.0568127132 0.0198291211 0.7202700624 -0.3071654223 0.7198843636 -0.3076997079 0.0578536939 0.0198430298
220298680.0 0.0575838006 0.0176623915 0.7167812432 -0.3160232809 0.7167138184 -0.3157219313 0.0575103503 0.0182053769
225298650.0 0.0578390772 0.016676256 0.713785814 -0.3246879008 0.7135469401 -0.3249710181 0.0576929184 0.0166664961
230298620.0 0.0579755189 0.0156780888 0.7104724737 -0.3326447395 0.710964193 -0.3326283601 0.0575658623 0.0152831504
235298590.0 0.0578270821 0.0144980706 0.7068498102 -0.3414296904 0.7067743598 -0.3405375193 0.0577150285 0.0139049215
240298560.0 0.0581666239 0.0135487935 0.7034399777 -0.3499473172 0.7031787844 -0.3502363293 0.0575161431 0.0132228241
245298530.0 0.0577717756 0.0121675016 0.6999469595 -0.3578656073 0.6997913326 -0.3581875641 0.0583162944 0.0112225145
250298500.0 0.0585180567 0.0109884516 0.6949791079 -0.3668168753 0.6950613487 -0.3658505271 0.0579773386 0.0103842718
255298470.0 0.0585277091 0.0094078291 0.6915533612 -0.3740099562 0.6918373274 -0.3744458287 0.0581008543 0.0092172606
260298440.0 0.0579109379 0.0083904412 0.6876916794 -0.3826326954 0.6876181273 -0.3821329043 0.0585340997 0.008084193
265298410.0 0.0588364271 0.0075277694 0.6838119044 -0.3915566161 0.6841124618 -0.3903197857 0.0582373919 0.0067603227
270298380.0 0.0583762099 0.0063493523 0.6795788352 -0.3985385272 0.6796701162 -0.3984825593 0.0580375453 0.0057845647
275298350.0 0.059239997 0.0052459747 0.6756868688 -0.4065526123 0.6755109988 -0.4066577425 0.0582278417 0.0044119265
280298320.0 0.0583761358 0.0043715555 0.6712517847 -0.4143580288 0.6707821239 -0.4142276738 0.0585925553 0.0035046262
285298290.0 0.0586302743 0.0032625956 0.6665555044 -0.4221712106 0.666431842 -0.4222544129 0.0585696831 0.0022207987
290298260.0 0.0591117467 0.0022838217 0.6618072871 -0.4296538299 0.6622891645 -0.4301484596 0.0586954542 0.0016359498
295298230.0 0.0590174251 0.0011833463 0.6574782874 -0.4375766818 0.6573228695 -0.4373753602 0.0594894345 0.0002907875
300298200.0 0.0584879202 -0.0003795241 0.6533762049 -0.4447598168 0.6532850821 -0.4456854347 0.0588785972 -0.0007716399
305298170.0 0.0588749208 -0.0012892037 0.6472920605 -0.4537360877 0.6479823565 -0.4531640995 0.0597448873 -0.0019884682
310298140.0 0.0584678884 -0.0024704569 0.6428351124 -0.4608204249 0.6435211803 -0.4605513885 0.0592611454 -0.0029975491
315298110.0 0.0584070245 -0.0038669426 0.6383956617 -0.4684514439 0.6383728353 -0.4684976785 0.0589806643 -0.0042281113
320298080.0 0.0584318561 -0.0048302481 0.6320930188 -0.4766033414 0.6325249392 -0.4760704977 0.0587774201 -0.0051198218
325298050.0 0.0578432828 -0.0060252888 0.6271968415 -0.4840718832 0.6275696385 -0.4832384943 0.0584676557 -0.0063496508
330298020.0 0.0576424044 -0.0074390304 0.6212325743 -0.4905992046 0.6217361598 -0.4909582863 0.0576827195 -0.0076352841
335297990.0 0.0573660759 -0.0084101461 0.6162568975 -0.4977326517 0.6153819395 -0.4982857669 0.0565651591 -0.0079011181
340297960.0 0.0560099703 -0.0089533803 0.6102729081 -0.5047574693 0.6098458689 -0.5049611205 0.0571728482 -0.0086854726
345297930.0 0.0557549829 -0.0093328355 0.6043659575 -0.5121068869 0.6038241147 -0.5118657838 0.0563478299 -0.0097446407
350297900.0 0.0554273972 -0.0109500124 0.5977260629 -0.5187621836 0.5983081782 -0.5183588629 0.0556070864 -0.0098524634
355297870.0 0.0549959587 -0.0104162655 0.592639239 -0.5248510419 0.5930033472 -0.5247745849 0.0554149872 -0.0107918735
360297840.0 0.0547730473 -0.0116205715 0.5873303266 -0.5314876829 0.587410969 -0.5317027311 0.0549889278 -0.0112328989
365297810.0 0.054142873 -0.0120833665 0.58069842 -0.5388030485 0.5813263461 -0.5382586292 0.0548674572 -0.01158785
370297780.0 0.0544600011 -0.0131441649 0.5745539423 -0.5446375556 0.5753336203 -0.5439958844 0.0542404695 -0.0122405132
375297750.0 0.053763002 -0.0136369241 0.5688533937 -0.5510493569 0.5696457995 -0.5509775322 0.0544135942 -0.0127996939
380297720.0 0.0536615095 -0.0144315883 0.5628636437 -0.5578505697 0.5630760881 -0.5571962218 0.0534732836 -0.0138541865
385297690.0 0.0530708609 -0.0148737914 0.5568050607 -0.5637733627 0.5561984738 -0.5635303006 0.0533347543 -0.0141417676
390297660.0 0.052937157 -0.0151119372 0.5502191838 -0.5702850788 0.5502143029 -0.569372007 0.052754439 -0.0152364896
395297630.0 0.0524855428 -0.0160238333 0.5438576102 -0.5760419793 0.5443166402 -0.5761626623 0.0534333156 -0.0156012668
400297600.0 0.0520090276 -0.0166775885 0.5372258456 -0.5826849558 0.5374362447 -0.582305908 0.0521053851 -0.0160872494
405297570.0 0.0512990378 -0.0173866022 0.5311587899 -0.5878310241 0.5310537388 -0.5875137456 0.0516961035 -0.017015106
410297540.0 0.0512571051 -0.0177654717 0.5249352222 -0.5939017122 0.5253532159 -0.594192901 0.0513573988 -0.0169580663
415297510.0 0.0512289756 -0.0185617913 0.5179662815 -0.5997016384 0.5182208793 -0.59986274 0.0512088818 -0.0178661099
420297480.0 0.0509132453 -0.0190358198 0.5115340497 -0.6055687858 0.5114113221 -0.6061615094 0.0504050654 -0.0192957374
425297450.0 0.0503699934 -0.0204016448 0.5051421275 -0.611077086 0.5051785152 -0.6111114233 0.0497871695 -0.0188522794
430297420.0 0.0499325017 -0.021025537 0.4977447512 -0.616310822 0.4983321457 -0.6159624197 0.0495823216 -0.0201600578
435297390.0 0.049376467 -0.0211186755 0.4912235672 -0.6218717787 0.4913267218 -0.6221205145 0.0500943917 -0.0205853224
440297360.0 0.0496520484 -0.021390457 0.4841625018 -0.6272413848 0.4840457874 -0.6274342874 0.0490150982 -0.0211425529
445297330.0 0.0488029 -0.0228686166 0.477891491 -0.633065496 0.4779587274 -0.6325325215 0.0490265541 -0.0222176621
450297300.0 0.0488678356 -0.0232352732 0.470892478 -0.638555963 0.470924864 -0.6389518017 0.0485448244 -0.0229622213
455297270.0 0.0481540731 -0.0237446643 0.4635902167 -0.6439894645 0.4637540062 -0.6438247555 0.048254413 -0.0236440789
460297240.0 0.0477326544 -0.0243230455 0.4559537081 -0.648365611 0.4563051397 -0.6489856249 0.0476240051 -0.0236180751
465297210.0 0.0476861115 -0.0248827654 0.4492594482 -0.6536902714 0.4498165616 -0.6540507773 0.0479353474 -0.0244883157
470297180.0 0.0469528594 -0.0256603352 0.4415748028 -0.658507368 0.4423028733 -0.6588570431 0.0473251761 -0.0249215252
475297150.0 0.0468341452 -0.0261599223 0.4347312234 -0.663006592 0.4345626262 -0.6630680524 0.0474136672 -0.0258815298
480297120.0 0.0462137142 -0.026084911 0.4272539927 -0.6681439856 0.4271934631 -0.6690863255 0.047024712 -0.0261015746
485297090.0 0.0455701726 -0.0267863207 0.4207105197 -0.672933648 0.4203852299 -0.6725640093 0.0464095203 -0.0269013777
490297060.0 0.0449048567 -0.0278246546 0.4130061241 -0.6783892065 0.4131949158 -0.677269637 0.0461696689 -0.0267348233
495297030.0 0.0446572398 -0.0280333599 0.4054199046 -0.6820398896 0.4056649866 -0.6814790445 0.0451455551 -0.0276832203
500297000.0 0.0441384453 -0.0287072709 0.3975616787 -0.686267451 0.3976944872 -0.6859877357 0.0450366108 -0.0273249957
505296970.0 0.0439841567 -0.0289786477 0.3908081623 -0.6906640479 0.3900214061 -0.6906644932 0.0447525342 -0.0281630107
510296940.0 0.0432193727 -0.0294382886 0.3823773788 -0.6952050489 0.382710683 -0.6953756655 0.0445286226 -0.0282306717
515296910.0 0.0427746674 -0.0296397 0.374331834 -0.6989609135 0.3750409465 -0.6992773827 0.0440091797 -0.0289954405
520296880.0 0.042254111 -0.0302393249 0.3674277784 -0.70399397 0.3674578175 -0.7031406803 0.0431125624 -0.0296998952
525296850.0 0.0421779714 -0.0312788604 0.3587893258 -0.7072535555 0.360138218 -0.7073713259 0.04257491 -0.0299094134
530296820.0 0.0414086544 -0.0311533722 0.3513539056 -0.7117249741 0.3518058715 -0.7111526422 0.0424890117 -0.0298199365
535296790.0 0.0406274597 -0.0314521079 0.3445074103 -0.7151080373 0.3440387081 -0.7146618697 0.0420919083 -0.0312090261
540296760.0 0.0400843406 -0.031507634 0.3360010455 -0.7191093668 0.3361592102 -0.7189384115 0.0409111699 -0.0303421988
545296730.0 0.0397054191 -0.0324503041 0.3276225535 -0.7219777819 0.3279841159 -0.7225742084 0.0405644557 -0.0314908911
550296700.0 0.0399204652 -0.0324575241 0.3202022688 -0.7263174254 0.3198795882 -0.7261560464 0.0399107676 -0.0316331368
555296670.0 0.0387329438 -0.0332254434 0.311727303 -0.7294390741 0.3127067836 -0.7292188787 0.0394520816 -0.0314930393
560296640.0 0.0386971191 -0.0332284292 0.3043034597 -0.7335888578 0.3048354358 -0.7329726209 0.0391304665 -0.0323119693
565296610.0 0.0375751023 -0.0337563471 0.2959877468 -0.7363033097 0.2965465219 -0.7361015247 0.0382504725 -0.0330546259
570296580.0 0.0373790809 -0.0341383379 0.2880663837 -0.7401075317 0.2875713564 -0.7391005308 0.0378259518 -0.0326273413
575296550.0 0.0363928366 -0.033908906 0.2797463439 -0.7428434031 0.2801509358 -0.7425488643 0.0378202238 -0.0336447385
580296520.0 0.0364925055 -0.0344852698 0.2716741565 -0.7457978938 0.2722601137 -0.7453292801 0.0367255319 -0.0338012022
585296490.0 0.0355080322 -0.0358007738 0.2642682521 -0.7478133358 0.2643215243 -0.748437642 0.0359882549 -0.0341541332
590296460.0 0.0355349814 -0.0353512162 0.2558411014 -0.7506560365 0.255560697 -0.7509511882 0.0349964755 -0.0345147191
595296430.0 0.0349797653 -0.035686264 0.2467468567 -0.7544238361 0.2475084858 -0.7540732281 0.0351450493 -0.0351638961
600296400.0 0.0341857181 -0.0363060944 0.2395529663 -0.7569424477 0.2393996016 -0.7562722023 0.0341405006 -0.0353631893
605296370.0 0.0337759094 -0.0364506923 0.2308523272 -0.7595569106 0.23122968 -0.7593871134 0.0335958338 -0.0357899213
610296340.0 0.0330938623 -0.0369067218 0.2217677324 -0.7618728792 0.2229524854 -0.7617119339 0.0338853923 -0.0363546422
615296310.0 0.0328293052 -0.0375263702 0.2140443059 -0.7640673186 0.2138100491 -0.7645623107 0.0333618857 -0.0362675858
620296280.0 0.0323539262 -0.037910279 0.2063037484 -0.7659796671 0.205561199 -0.76610284 0.0322754253 -0.0368313389
625296250.0 0.0312129683 -0.0384466358 0.1980472234 -0.7689879744 0.197437725 -0.7691297753 0.0325562932 -0.0370716437
630296220.0 0.0318971755 -0.0381663092 0.1888759594 -0.7709204656 0.1886991172 -0.7705628982 0.0315541596 -0.0374133691
635296190.0 0.030011773 -0.0390395667 0.1806636791 -0.772472382 0.1805599459 -0.7726119503 0.0310864294 -0.0376626165
640296160.0 0.0297181982 -0.0387923036 0.1722033858 -0.7744242183 0.1727087751 -0.7745474373 0.0305790937 -0.0379499981
645296130.0 0.0293494008 -0.0390229262 0.1633620432 -0.7762696734 0.1640485229 -0.7761767749 0.0301480295 -0.0381912409
650296100.0 0.0286875432 -0.0394583769 0.1547103998 -0.7779326509 0.1554532793 -0.7787570428 0.0301333773 -0.0394169301
655296070.0 0.027798537 -0.0399699139 0.1462469429 -0.7797980792 0.1465976369 -0.779791031 0.0292349482 -0.0386625429
660296040.0 0.0263879662 -0.0404359209 0.1387554963 -0.7810706277 0.1386019416 -0.781661476 0.0289205047 -0.0388869473
665296010.0 0.0271373164 -0.0403252155 0.1292344648 -0.7826100624 0.129692512 -0.7827132256 0.0285051758 -0.0384981523
670295980.0 0.0250934527 -0.0403988427 0.1207014955 -0.784329664 0.1211630196 -0.784489945 0.0274846782 -0.0391271876
675295950.0 0.0252397346 -0.0404017253 0.11286469 -0.7850310226 0.1126015647 -0.7842620498 0.0262774813 -0.0392124487
680295920.0 0.0242141707 -0.0410962995 0.1034351532 -0.7866742497 0.1035108224 -0.7866548225 0.0260796325 -0.0386545263
685295890.0 0.0239859691 -0.0402942786 0.0956605326 -0.7873456455 0.0950274922 -0.7876136429 0.0255350407 -0.0393498255
690295860.0 0.0239332639 -0.040774667 0.0867877844 -0.788001172 0.0866047112 -0.7886099728 0.024767002 -0.0385199355
695295830.0 0.0229331657 -0.0411184851 0.079100974 -0.7894166541 0.0780825107 -0.7893935907 0.024357512 -0.039137863
700295800.0 0.0225986288 -0.0415801585 0.0697654774 -0.7902098464 0.0694375053 -0.7898595989 0.0237706312 -0.0385488834
705295770.0 0.0213618223 -0.0408497932 0.060711807 -0.7905245306 0.0612816688 -0.79108687 0.0227561536 -0.0390534393
710295740.0 0.0212473426 -0.0413513906 0.0527934164 -0.7921354044 0.0528813462 -0.7922402332 0.0225496552 -0.040010778
715295710.0 0.0198681745 -0.0415487135 0.0440166858 -0.7922640136 0.0436738923 -0.7923255055 0.0221809663 -0.0395558874
720295680.0 0.0197129138 -0.0416249378 0.0352309709 -0.7925971292 0.0353379858 -0.7926058254 0.0216357446 -0.0387209529
725295650.0 0.0194987152 -0.0415448662 0.0265360864 -0.7928193875 0.0265918644 -0.7928410876 0.0200708901 -0.0392629184
730295620.0 0.0191020885 -0.0411627469 0.0177483416 -0.7926757304 0.0179132991 -0.7931177962 0.0194944866 -0.0396502591
735295590.0 0.0182061473 -0.041366839 0.0092379338 -0.7936920601 0.0094892528 -0.7932854241 0.0188754738 -0.0401383302
740295560.0 0.0173318674 -0.0414409152 0.0010613776 -0.7929004367 0.0008063837 -0.7932263659 0.0191970152 -0.0399133508
745295530.0 0.0168517392 -0.0414449816 -0.0082258972 -0.7922707702 -0.008087548 -0.7931902219 0.0182020092 -0.0404983083
750295500.0 0.0165776916 -0.0418095955 -0.0165361519 -0.793073766 -0.0163517037 -0.7930465321 0.0172885941 -0.0401285477
755295470.0 0.0158692889 -0.0419584488 -0.0253530018 -0.7926394798 -0.0252541873 -0.792485717 0.0175543092 -0.0405839594
760295440.0 0.0150239115 -0.0417795242 -0.0338135235 -0.7927984413 -0.0339344764 -0.7931013189 0.0164201478 -0.0404809344
765295410.0 0.0145825171 -0.0419402396 -0.0427876383 -0.7915896533 -0.0427761489 -0.7922249092 0.0163120171 -0.0405161747
770295380.0 0.0132840258 -0.0421636401 -0.0519025293 -0.7912215476 -0.0511339524 -0.791509654 0.0149608976 -0.040869073
775295350.0 0.0129489328 -0.0428896374 -0.059999389 -0.7905583792 -0.059152378 -0.7904672346 0.0138913001 -0.040184376
780295320.0 0.0122884758 -0.0421883453 -0.0685905923 -0.7898113508 -0.0678409783 -0.7900343208 0.013379644 -0.0412457996
785295290.0 0.0114401179 -0.042687278 -0.0773823732 -0.7888126339 -0.0768843816 -0.7889578422 0.0138309777 -0.0405951866
790295260.0 0.0115064537 -0.0419580228 -0.0845907829 -0.7882072211 -0.0841705313 -0.7884763551 0.0127578783 -0.0410920987
795295230.0 0.0107400588 -0.0424932122 -0.0939118996 -0.7869412258 -0.0933037917 -0.7873682859 0.0123717727 -0.0405090812
800295200.0 0.0095685249 -0.041732818 -0.1033923881 -0.7858758251 -0.1025424248 -0.7860446957 0.0117578066 -0.0408369119
805295170.0 0.0093690715 -0.0423196386 -0.1110585073 -0.7846399262 -0.1109442469 -0.7855237665 0.0109347524 -0.0407793871
810295140.0 0.0080948042 -0.0429820139 -0.119428977 -0.783449002 -0.1190508751 -0.7844262021 0.0114681402 -0.0407453406
815295110.0 0.0078748634 -0.0429272807 -0.1277951243 -0.7821754229 -0.1278619308 -0.7823913272 0.0099874715 -0.0405021678
820295080.0 0.007052707 -0.041913527 -0.1365075936 -0.7807595013 -0.1361107253 -0.7809098388 0.0097792639 -0.0404029039
825295050.0 0.0072492909 -0.0420728443 -0.14427477 -0.779177438 -0.145099184 -0.7789990088 0.0093386826 -0.0401502859
830295020.0 0.0060786282 -0.0418399189 -0.1538068937 -0.7771506331 -0.1533036607 -0.7772849824 0.0095524212 -0.0400577894
