!Created with skrf (http://scikit-rf.org).
# Hz S RI R 50.0 
!freq ReS11 ImS11 ReS21 ImS21 ReS12 ImS12 ReS22 ImS22
300000.0 -0.240033992 -0.0835510827 0.4715942109 0.0562140995 0.4693609806 0.0521628032 -0.2394304733 -0.089601138
5299970.0 -0.2450581724 0.0067017121 0.4748270494 0.0049071771 0.4751069813 0.0048935714 -0.2414064811 0.0079813728
10299940.0 -0.2420110569 0.0180330565 0.4767244838 0.0059201125 0.4769179858 0.0063089362 -0.2379279185 0.0207036422
15299910.0 -0.2374707342 0.0266634831 0.4803371714 0.0077424634 0.480636325 0.0074052922 -0.2333740524 0.0302075583
20299880.0 -0.2330250583 0.0340300258 0.4850650735 0.008369119 0.4849358134 0.0079937124 -0.2281259564 0.0378902486
25299850.0 -0.2279678503 0.0402704026 0.4901010654 0.0069290019 0.4900376596 0.0073070887 -0.2223222957 0.0443972162
30299820.0 -0.222740518 0.0451884853 0.4956088312 0.0051285777 0.4956379444 0.004934659 -0.216629268 0.0500163189
35299790.0 -0.2176712813 0.0491055263 0.5013736138 0.0013939737 0.5010858691 0.0015794415 -0.2108156707 0.0541814518
40299760.0 -0.2127687422 0.0523008793 0.5057824874 -0.0020662173 0.5064569188 -0.002105483 -0.2053740343 0.0572507202
45299730.0 -0.2078930568 0.0546981876 0.5103366261 -0.0070884114 0.5109796574 -0.0070205784 -0.2005463107 0.0601798805
50299700.0 -0.2036774304 0.0567950223 0.5152468433 -0.0124561239 0.5151367684 -0.0125298766 -0.1956042917 0.0621902313
55299670.0 -0.2001411307 0.0583621996 0.5188312328 -0.0190101054 0.5185498986 -0.0184106465 -0.1914271444 0.063947657
60299640.0 -0.1959967614 0.0598218113 0.5217438528 -0.0250705365 0.5223716415 -0.0247975698 -0.1872533782 0.0655539068
65299610.0 -0.1928880147 0.061064332 0.5246504271 -0.0312423682 0.5249114214 -0.0309821186 -0.1841153148 0.0661131965
70299580.0 -0.189737016 0.0621482707 0.5269703126 -0.0379845621 0.527602015 -0.0375681975 -0.180826569 0.0675442277
75299550.0 -0.1870159639 0.0628988207 0.5289802127 -0.0445212281 0.5287788567 -0.0445281465 -0.1778798972 0.0682398185
80299520.0 -0.1846714646 0.0635906291 0.5306222668 -0.0511626266 0.5315402223 -0.0516581704 -0.1752453277 0.0692927798
85299490.0 -0.1823831705 0.0640580921 0.5320836115 -0.0581782817 0.5325816157 -0.0579734212 -0.1727641609 0.0696248076
90299460.0 -0.1802844813 0.0647494067 0.5329313922 -0.0650207183 0.5336367946 -0.0651434563 -0.1702066325 0.0706318821
95299430.0 -0.1780577618 0.0653907401 0.5339259357 -0.0724029785 0.5340066674 -0.0723372664 -0.1680600497 0.0713307362
100299400.0 -0.1765177917 0.0660264169 0.5340356275 -0.0789284278 0.5343302226 -0.0789854461 -0.1661270978 0.0718590715
105299370.0 -0.1748515549 0.0668405695 0.5347312625 -0.0860623867 0.5350570576 -0.0860322523 -0.1639106923 0.0726704756
110299340.0 -0.1733527551 0.0674553102 0.5350083732 -0.0924670099 0.534805458 -0.0923450392 -0.1626351273 0.0730665861
115299310.0 -0.1720221517 0.0680591699 0.5350639105 -0.099276095 0.5348940644 -0.0994451555 -0.1612255453 0.0738105659
120299280.0 -0.1707754822 0.0684115945 0.5344212366 -0.1061689474 0.5349041303 -0.1064709382 -0.1598902244 0.074701369
125299250.0 -0.1694923948 0.0690663404 0.5343723964 -0.1128451563 0.5346072768 -0.1127202599 -0.1583910857 0.0750411488
130299220.0 -0.1687860482 0.0701509297 0.5337276283 -0.119590189 0.5333462809 -0.1195665294 -0.1569539944 0.0761414885
135299190.0 -0.1675090211 0.0713920849 0.532923542 -0.1264557601 0.5328726762 -0.1262210107 -0.1557571244 0.0770894899
140299160.0 -0.1665684215 0.0718620434 0.5323904064 -0.1331065814 0.532461816 -0.1331373015 -0.1549135408 0.0785420176
145299130.0 -0.1656564649 0.0729195961 0.5315903331 -0.1396761475 0.5311461087 -0.139438305 -0.1537998098 0.0789765693
150299100.0 -0.164725621 0.0741058781 0.529992731 -0.1453875383 0.5301229816 -0.1454482162 -0.1526904521 0.0804252814
155299070.0 -0.1639681743 0.0746893309 0.5291818452 -0.1527209019 0.528932346 -0.1529295577 -0.151577693 0.0816345431
160299040.0 -0.1627461728 0.0760258118 0.5274856713 -0.1590567793 0.5272621505 -0.159064263 -0.151118662 0.0825601688
165299010.0 -0.1621951113 0.0769662683 0.5262700288 -0.1657445153 0.5264712267 -0.1653818391 -0.149593246 0.0837344132
170298980.0 -0.1616176016 0.0779274733 0.5245083751 -0.1718120113 0.5245699287 -0.1718080914 -0.1487256072 0.0850067152
175298950.0 -0.1607678772 0.0789746807 0.5233593554 -0.1782074552 0.5225552765 -0.1781722136 -0.1477770399 0.0860593592
180298920.0 -0.1601253288 0.080247623 0.5211807407 -0.1845749818 0.5208622038 -0.1839893761 -0.1470019724 0.0871787541
185298890.0 -0.1589918353 0.0809929881 0.519660484 -0.1903658352 0.5190811297 -0.1904715322 -0.1460159715 0.0883081971
190298860.0 -0.1582777682 0.0824213275 0.5170957068 -0.1968146375 0.5178620731 -0.1965767268 -0.1450446246 0.0895341118
195298830.0 -0.1577774034 0.0831456896 0.51549146 -0.2027844889 0.515487719 -0.2028385604 -0.1437345306 0.0907942793
200298800.0 -0.1568504825 0.0845032673 0.5129956993 -0.2089563626 0.513625575 -0.2089893001 -0.1433597914 0.0923651643
205298770.0 -0.1562348658 0.0859122431 0.5110167989 -0.2150292636 0.5111204662 -0.2148987407 -0.1424574594 0.0930086556
210298740.0 -0.1556399292 0.086889746 0.5087490065 -0.220548541 0.5088360059 -0.2208169567 -0.1410117368 0.0952270507
215298710.0 -0.1550781381 0.0882608356 0.5067049461 -0.2268134974 0.50680366 -0.2272159458 -0.1407206639 0.0965254718
220298680.0 -0.1541114063 0.0890631624 0.5036618296 -0.2323361288 0.5039953342 -0.2325823389 -0.1395763524 0.0972755327
225298650.0 -0.1532829574 0.0906295184 0.5011591688 -0.2387539065 0.5016723765 -0.2385633483 -0.1389332019 0.0985978436
230298620.0 -0.1523534282 0.0921127489 0.4986869649 -0.2440810006 0.4997822381 -0.2446169518 -0.1379960224 0.0999425405
235298590.0 -0.1516090011 0.0935997257 0.4961756797 -0.2499898426 0.496831538 -0.2494858892 -0.1366940577 0.1015105523
240298560.0 -0.1509380797 0.0947638606 0.4939162744 -0.2561950441 0.4937715963 -0.2558689972 -0.1358666304 0.1031940183
245298530.0 -0.1502538035 0.0962530147 0.491245531 -0.2614518573 0.4911526626 -0.2618247173 -0.1346122109 0.1040064083
250298500.0 -0.1491725376 0.0976446157 0.48774321 -0.2674201263 0.4876780166 -0.2666737504 -0.1337519362 0.105570077
255298470.0 -0.1485674607 0.0984389806 0.4850813799 -0.2722864911 0.4850792209 -0.2725375969 -0.1326162209 0.1067560215
260298440.0 -0.1479519498 0.0998444418 0.4820255482 -0.2783501811 0.4826546387 -0.2781928509 -0.1312106238 0.1085910754
265298410.0 -0.1466265164 0.1016169984 0.4791523787 -0.2838226422 0.4794910268 -0.2835434748 -0.1303551666 0.1096883666
270298380.0 -0.1459156235 0.1029438328 0.476496157 -0.2886914995 0.4765564908 -0.2890520652 -0.1293622973 0.1112540989
275298350.0 -0.1448878816 0.1042352055 0.4731724095 -0.2946301787 0.4733657706 -0.2944836219 -0.128048111 0.1123112694
280298320.0 -0.1440187763 0.1057075678 0.4699124559 -0.3001638741 0.4699073873 -0.3000949807 -0.1267281191 0.1140626623
285298290.0 -0.1429179075 0.1072963179 0.466596762 -0.3052400986 0.4665401049 -0.3052369892 -0.1256336113 0.1151625698
290298260.0 -0.1420316303 0.108570323 0.4631922777 -0.3102335591 0.4633956579 -0.3107357032 -0.1243275395 0.1170170516
295298230.0 -0.1407957 0.109598809 0.4598178949 -0.3160477622 0.4598942854 -0.3159287631 -0.1227643187 0.1179845859
300298200.0 -0.1402824955 0.1108957237 0.4569672573 -0.3205359583 0.456966565 -0.3209461909 -0.1219695618 0.1192780693
305298170.0 -0.1388707421 0.1121259792 0.4528161546 -0.3266121547 0.4528572752 -0.3260854621 -0.1202418398 0.1207482534
310298140.0 -0.1381875344 0.1137113834 0.4497405979 -0.3315970955 0.4498933612 -0.3316542322 -0.1192199158 0.1220375054
315298110.0 -0.1372173134 0.1145187482 0.4461632841 -0.3366330899 0.445961631 -0.3369346099 -0.1178555647 0.1229545601
320298080.0 -0.1359053619 0.1159193314 0.4414858573 -0.341940885 0.4424420198 -0.3415784973 -0.1165800759 0.1244596908
325298050.0 -0.1348892128 0.1172919636 0.4381252353 -0.3468641234 0.4383709768 -0.3467963702 -0.1157196779 0.1257292515
330298020.0 -0.1342860969 0.1181184964 0.4341297676 -0.3516163176 0.4344175455 -0.3518018898 -0.114682697 0.1269022093
335297990.0 -0.133233408 0.1196221307 0.4302645909 -0.356671439 0.4299290909 -0.3565974871 -0.1138482468 0.1288612759
340297960.0 -0.1327064647 0.1212508316 0.425788931 -0.361266719 0.4258432081 -0.3613392882 -0.1120212722 0.1297895579
345297930.0 -0.1315864288 0.1229909002 0.4219915076 -0.3662981894 0.421536313 -0.36626803 -0.110993143 0.130819556
350297900.0 -0.1305924345 0.1237059717 0.4172539184 -0.3709834363 0.4178037743 -0.3705907905 -0.1099254077 0.1326020782
355297870.0 -0.1293813825 0.1257682337 0.4134622189 -0.3755643049 0.4138195576 -0.3750575035 -0.1084437607 0.1338673074
360297840.0 -0.1282219605 0.1269722553 0.4099384239 -0.3798072006 0.4101994532 -0.3794860502 -0.1071610902 0.1352958453
365297810.0 -0.1271518389 0.1283717797 0.4048078141 -0.3845590805 0.4056016468 -0.3845240713 -0.1053800769 0.1365919835
370297780.0 -0.1256825947 0.1293988108 0.4005211433 -0.3883659342 0.401381551 -0.3884978843 -0.104064209 0.1382026219
375297750.0 -0.1244507193 0.1307544187 0.3970485011 -0.3929674622 0.3975033009 -0.3934085494 -0.1025747477 0.139000178
380297720.0 -0.1233657622 0.1320124237 0.3924944825 -0.3973831089 0.3925748059 -0.3969309218 -0.1013314668 0.1403726408
385297690.0 -0.1225047703 0.133506563 0.3882448242 -0.4013265474 0.3880349274 -0.4014274207 -0.0997499725 0.1416706996
390297660.0 -0.121328835 0.1349922888 0.3835620367 -0.4062299377 0.3840627718 -0.4055694378 -0.0989914261 0.1429435851
395297630.0 -0.1199635057 0.1362701662 0.3790889724 -0.4101527925 0.3794370222 -0.4102942012 -0.0964400533 0.1444542629
400297600.0 -0.1186594009 0.137669694 0.3743640797 -0.4148934241 0.3747493845 -0.4144804709 -0.095079323 0.1454459293
405297570.0 -0.1176084597 0.1387452911 0.3704631924 -0.4184372067 0.3702160752 -0.4179906412 -0.0934772121 0.14671484
410297540.0 -0.1159637968 0.1398396234 0.3654749211 -0.4224870086 0.3661972842 -0.4226663585 -0.092037794 0.1480644726
415297510.0 -0.1143328082 0.1410682261 0.3606132798 -0.4267988836 0.3611479701 -0.4265032547 -0.090392684 0.1491267449
420297480.0 -0.1134771579 0.1426439175 0.3563584709 -0.4301439811 0.3562432061 -0.4303588592 -0.0887755656 0.1502105448
425297450.0 -0.1119379355 0.1432999148 0.3515934418 -0.4340405222 0.3520451045 -0.4341886161 -0.0875093502 0.1518362621
430297420.0 -0.1108337737 0.1448486404 0.346718813 -0.4374828244 0.3468823562 -0.4376035649 -0.0860042318 0.1523701325
435297390.0 -0.1095133951 0.1461779048 0.3417205018 -0.441609614 0.3415716376 -0.4417073254 -0.0834039064 0.1534446137
440297360.0 -0.107896851 0.1471621131 0.3364817233 -0.4449653649 0.3373466816 -0.4454113176 -0.0823552758 0.1544244848
445297330.0 -0.1068271877 0.1483866517 0.3324000489 -0.4491715348 0.3323846377 -0.4485058184 -0.0803903827 0.1552422716
450297300.0 -0.105277528 0.1495397529 0.3273531967 -0.4527411816 0.3275823506 -0.4526918151 -0.0789210305 0.1563824567
455297270.0 -0.1037026227 0.1506601096 0.3219127382 -0.4560142162 0.3224849356 -0.4564582552 -0.077161171 0.1576641141
460297240.0 -0.1024421243 0.1519045066 0.3168732841 -0.4595009143 0.3173920081 -0.459381959 -0.075511087 0.1589303889
465297210.0 -0.100969107 0.1529389011 0.3120715028 -0.4634558459 0.3122249759 -0.4633916981 -0.0735682027 0.1593057672
470297180.0 -0.099418485 0.1538366911 0.3069050807 -0.4665390082 0.3068610986 -0.4666744239 -0.0716282459 0.1607995632
475297150.0 -0.0980113541 0.1548333038 0.3017959633 -0.4690869064 0.3020842671 -0.4693915096 -0.0700386977 0.1612540717
480297120.0 -0.0966198186 0.1566166623 0.2969972498 -0.4731739083 0.2970229738 -0.4732173676 -0.0679931228 0.1626635667
485297090.0 -0.0949866528 0.1574479643 0.2920691101 -0.4759855855 0.2916963395 -0.4758749031 -0.0663986288 0.1634163691
490297060.0 -0.09392102 0.1585072742 0.2865019078 -0.4793704751 0.286610469 -0.4790891481 -0.0644447723 0.1643997644
495297030.0 -0.0922915301 0.159482534 0.2811508528 -0.4820867769 0.2814926287 -0.4820877178 -0.0629871584 0.1650352522
500297000.0 -0.0903637501 0.160365152 0.2760702273 -0.485296376 0.2756549015 -0.4851334781 -0.0607962079 0.1664204009
505296970.0 -0.0886359625 0.1616142145 0.2708781257 -0.4881815 0.2705180567 -0.4882203165 -0.0596613166 0.1666531901
510296940.0 -0.0873413361 0.1625250632 0.2652089935 -0.491200211 0.2653897751 -0.49150026 -0.0570150383 0.1680074809
515296910.0 -0.0856696386 0.163446678 0.2598563749 -0.4940374261 0.2600622808 -0.4937779627 -0.0554202648 0.1683955162
520296880.0 -0.0844092052 0.1641812707 0.2543165927 -0.497534219 0.2545071626 -0.4966151531 -0.0537722222 0.1690634626
525296850.0 -0.0826643176 0.164955843 0.2486290049 -0.4993575104 0.2494231978 -0.4995255581 -0.0520396981 0.169923565
530296820.0 -0.0808878231 0.1662736815 0.2436349336 -0.5024538012 0.2436706704 -0.5021579634 -0.0498298405 0.1708509133
535296790.0 -0.0798418585 0.1670869569 0.2386961567 -0.5046529409 0.2384116556 -0.5046405708 -0.0481413298 0.1709714717
540296760.0 -0.0781405736 0.168192063 0.2327883192 -0.507839698 0.2329452383 -0.5077552754 -0.046462363 0.1721434867
545296730.0 -0.0760646464 0.1692136341 0.2270422976 -0.5098320549 0.2270418841 -0.5097118865 -0.0444509354 0.1725925349
550296700.0 -0.0742988796 0.169942233 0.2215001101 -0.5120873266 0.221804962 -0.5124886125 -0.0427546217 0.1733912509
555296670.0 -0.072953604 0.1707359084 0.2161807697 -0.5148152098 0.2164529282 -0.5143072297 -0.0407279146 0.1741877042
560296640.0 -0.0711893559 0.1718797812 0.2103145203 -0.5172271875 0.2107617986 -0.5171196124 -0.0386529967 0.1747057809
565296610.0 -0.0700594486 0.1722958809 0.2049035485 -0.5190333799 0.2050481822 -0.5193539562 -0.0367330857 0.1748145451
570296580.0 -0.068106737 0.1732188735 0.1992103365 -0.5218712154 0.198841613 -0.5218912003 -0.0351704834 0.1761330766
575296550.0 -0.0665251133 0.1743565517 0.1935615674 -0.5237857999 0.1935883341 -0.5235579145 -0.0329436554 0.1762468162
580296520.0 -0.0645955709 0.1748609996 0.1876672244 -0.5253533329 0.1879036555 -0.5254361508 -0.0308228987 0.1769181549
585296490.0 -0.062986884 0.1754492479 0.1821913615 -0.5272898764 0.1822386554 -0.5277586745 -0.0289528977 0.1773149563
590296460.0 -0.0610125372 0.1764648973 0.1764744514 -0.5288490558 0.1766805465 -0.5291225039 -0.0272629898 0.1777490293
595296430.0 -0.0594680978 0.1771088736 0.1704042672 -0.5313247346 0.1707914932 -0.5310861514 -0.0250769869 0.1780139851
600296400.0 -0.0579586947 0.1776252365 0.1649790355 -0.5327027294 0.1650412107 -0.5327240555 -0.0233904348 0.1785238188
605296370.0 -0.0564180889 0.1786063514 0.1591445752 -0.5345115663 0.159753413 -0.5345136106 -0.021157619 0.1789787605
610296340.0 -0.0546766098 0.1794183397 0.1530758707 -0.536401072 0.153462183 -0.5365065397 -0.0191512224 0.1795203515
615296310.0 -0.0525782765 0.1796401133 0.1475974731 -0.537813708 0.1474963903 -0.538586719 -0.0165625618 0.179715256
620296280.0 -0.0510053667 0.1801823945 0.141997228 -0.5392933114 0.1416631333 -0.539420089 -0.015137599 0.1803304499
625296250.0 -0.0493635529 0.1807293069 0.1365961367 -0.5410188583 0.1358716185 -0.5411910676 -0.0125132027 0.1806224429
630296220.0 -0.0469529002 0.1814133711 0.129425456 -0.5422744905 0.129360922 -0.5423697856 -0.0111379151 0.1808536442
635296190.0 -0.0459330444 0.1820104919 0.1243528397 -0.5435170178 0.1243544616 -0.5436728921 -0.0088641454 0.1809731589
640296160.0 -0.0438541289 0.1827294178 0.1181786019 -0.5445485601 0.1183804927 -0.5450450745 -0.0068995765 0.1813531912
645296130.0 -0.0421528057 0.1835581479 0.1122497062 -0.5457480185 0.1127675462 -0.546360116 -0.0049097985 0.1816917545
650296100.0 -0.0402738257 0.1840132884 0.1063485018 -0.5472162354 0.1064235684 -0.5474192705 -0.0025706135 0.1814158526
655296070.0 -0.0387732486 0.184173657 0.100411395 -0.5480097009 0.1009732499 -0.548402054 -0.0008050977 0.1818205836
660296040.0 -0.0371498241 0.1845834153 0.0951255686 -0.5489012747 0.0950744696 -0.5493957204 0.0015423197 0.1822085272
665296010.0 -0.0348160596 0.1850518861 0.0882907699 -0.5501747494 0.0884427833 -0.5502610843 0.0033902467 0.1825724354
670295980.0 -0.0339858574 0.1858465301 0.0828266134 -0.5507012376 0.0825687548 -0.5511515466 0.0053860918 0.1821183866
675295950.0 -0.031519086 0.1864733704 0.0764144968 -0.5517745472 0.0770636729 -0.5513188692 0.0068646757 0.182492844
680295920.0 -0.0298011398 0.1866835727 0.0702019632 -0.5523297324 0.0702109773 -0.552946965 0.009399427 0.1829973795
685295890.0 -0.0278875432 0.1874791404 0.0646508003 -0.5533749712 0.0648940828 -0.5536510165 0.010954996 0.1830010906
690295860.0 -0.0259309381 0.1877975653 0.0589470685 -0.5534252644 0.0591555152 -0.5541064055 0.0130485091 0.1833991864
695295830.0 -0.0242584737 0.1879524034 0.0530734987 -0.5542892085 0.0526317716 -0.554654815 0.0154453914 0.183023875
700295800.0 -0.022221875 0.1879240383 0.046742565 -0.5549315 0.0467078981 -0.5551167071 0.0169749144 0.1835800376
705295770.0 -0.0210046041 0.1891329194 0.0405642824 -0.5554212211 0.0413362857 -0.5556152861 0.0188516223 0.1831422596
710295740.0 -0.0187540701 0.1890877385 0.034807109 -0.5560034573 0.035009618 -0.5562803752 0.0214248851 0.1827160088
715295710.0 -0.017423817 0.1894373561 0.0295124447 -0.5563617573 0.0286527137 -0.5563260382 0.023279324 0.1828390671
720295680.0 -0.0153520157 0.189689204 0.0228803416 -0.5563171686 0.0231917044 -0.5568264531 0.0256980263 0.1831054421
725295650.0 -0.0132951636 0.1899583681 0.0169054684 -0.556666172 0.0167160832 -0.5569543308 0.027100317 0.1829112696
730295620.0 -0.0114112919 0.1907374622 0.0109187188 -0.5565983041 0.0111043357 -0.5567761778 0.0286955565 0.182504951
735295590.0 -0.0095377743 0.1907846826 0.0048042159 -0.5570737197 0.0049039411 -0.556736263 0.0311500492 0.1820185515
740295560.0 -0.0080622638 0.1910217255 -0.0008918275 -0.5565508775 -0.0012574461 -0.5566965198 0.033560101 0.1822333007
745295530.0 -0.0060225815 0.1914151174 -0.0070425807 -0.5564755812 -0.0073192762 -0.556849564 0.0354588117 0.1816528584
750295500.0 -0.0041704142 0.1912327713 -0.0129916647 -0.5563595163 -0.0126732614 -0.5568994416 0.0373521468 0.1816629071
755295470.0 -0.002313453 0.1914051467 -0.0187838731 -0.5561945375 -0.0189683678 -0.5567932625 0.0398766612 0.1809556141
760295440.0 -0.0003415412 0.1916749529 -0.0251133713 -0.5560723051 -0.0249996473 -0.5564660196 0.0415022846 0.1808576653
765295410.0 0.0017218443 0.1918944402 -0.0313528446 -0.5559774942 -0.0315205996 -0.5558798047 0.043776039 0.1808871679
770295380.0 0.003005807 0.1916588598 -0.0373961374 -0.5552894331 -0.0372664562 -0.5553354368 0.0453237521 0.179898662
775295350.0 0.0047374544 0.1916236096 -0.0431524471 -0.5546532291 -0.042613518 -0.5550791884 0.0469047918 0.1799123678
780295320.0 0.0072980043 0.1920205796 -0.0489566111 -0.5540211874 -0.0484416458 -0.5542900871 0.0494626269 0.1792032662
785295290.0 0.0085986135 0.1914243444 -0.0548557963 -0.5532146689 -0.0548542049 -0.5537523434 0.0516605385 0.1792568451
790295260.0 0.0112289823 0.1924945361 -0.0606024108 -0.5528046404 -0.0601072952 -0.5530377955 0.0536127549 0.1788727167
795295230.0 0.0125384533 0.1919369493 -0.0670851184 -0.5521892084 -0.0661841461 -0.5525287233 0.055851603 0.1784176033
800295200.0 0.0140326151 0.1923005644 -0.0733875868 -0.5514576817 -0.0730910572 -0.5517699003 0.0577769589 0.1777718888
805295170.0 0.0160361764 0.1918493173 -0.0785816389 -0.5508295323 -0.0787196254 -0.550667973 0.059547571 0.1774891431
810295140.0 0.0180352083 0.1918510007 -0.0841330889 -0.5495603852 -0.0845355777 -0.5499268426 0.0618596452 0.177207246
815295110.0 0.0200043561 0.1916412052 -0.0903477595 -0.5489408328 -0.0902194523 -0.5489944207 0.06359196 0.1764942216
820295080.0 0.0217438523 0.1922831898 -0.0961599283 -0.5477154981 -0.095795629 -0.5474755714 0.0654522936 0.1762388108
825295050.0 0.0243077378 0.191845328 -0.1020741039 -0.5465702052 -0.1019413828 -0.546654068 0.0675542478 0.1753287846
830295020.0 0.0256563284 0.1919445134 -0.1081081078 -0.5453833681 -0.1079791434 -0.5456541681 0.0701931801 0.1750010438
