!Created with skrf (http://scikit-rf.org).
# Hz S RI R 50.0 
!freq ReS11 ImS11 ReS21 ImS21 ReS12 ImS12 ReS22 ImS22
300000.0 -0.240029535 -0.0988739217 0.4660976443 0.065507108 0.4695663613 0.0704943514 -0.2365818941 -0.1112366374
5299970.0 -0.2436796234 0.0069889308 0.4736244353 0.0054296079 0.4740187066 0.0059308919 -0.243866853 0.0056463273
10299940.0 -0.2405062618 0.0197831401 0.4762799424 0.0060882369 0.4759633654 0.0064928396 -0.2410689316 0.018283198
15299910.0 -0.2360435153 0.029457392 0.4791836439 0.0077622126 0.4791621115 0.0080625598 -0.2365880126 0.0275434746
20299880.0 -0.2304997949 0.0372228729 0.4840582968 0.0081467728 0.4843597303 0.0086150167 -0.2320770261 0.0353599212
25299850.0 -0.2247448563 0.0435497717 0.4895954702 0.0070933133 0.4896226436 0.0075203114 -0.2268048335 0.0416135505
30299820.0 -0.2185856781 0.0484849369 0.4951005269 0.0054983443 0.4946259327 0.0052590456 -0.2216006161 0.0468843978
35299790.0 -0.2130287358 0.0528425397 0.5003086415 0.0023005005 0.5006619271 0.0024234573 -0.2162036166 0.0510425691
40299760.0 -0.2074624329 0.0557612202 0.5055250972 -0.0014673006 0.5056142611 -0.001768044 -0.2113082153 0.0547074436
45299730.0 -0.2024672284 0.05863346 0.5102083054 -0.0069955259 0.5103180789 -0.0065918282 -0.2066823336 0.057361516
50299700.0 -0.1976112795 0.0601939693 0.5143746876 -0.012090969 0.5142261597 -0.0122958442 -0.2020886187 0.0594958094
55299670.0 -0.1936394825 0.0618196583 0.5180511567 -0.0181160216 0.5181696264 -0.0178017057 -0.1984318112 0.0613860664
60299640.0 -0.1895997412 0.0626963493 0.5211578689 -0.0246252019 0.5212211471 -0.0240897042 -0.1944763806 0.0630649043
65299610.0 -0.1860616386 0.0641198446 0.5242196399 -0.0300220273 0.5246731249 -0.0306636077 -0.1911940071 0.0645265239
70299580.0 -0.1826635739 0.0640797506 0.5266965702 -0.0369997957 0.5269026527 -0.0372256193 -0.1878918236 0.0656037932
75299550.0 -0.1795291994 0.0650874899 0.5285363794 -0.0438360508 0.5287577578 -0.0443018005 -0.1849999266 0.0668115948
80299520.0 -0.1774084477 0.0657435205 0.5310267349 -0.0506910393 0.530862667 -0.05093531 -0.1825710612 0.0673862524
85299490.0 -0.1747680345 0.0659524319 0.5318955556 -0.057994319 0.5320591753 -0.057857566 -0.1803933208 0.0682496538
90299460.0 -0.1724998507 0.0664547668 0.5329363223 -0.064528253 0.533174646 -0.0647750666 -0.1777609036 0.0692630901
95299430.0 -0.1705966376 0.067453537 0.5341431852 -0.0718362693 0.5343977652 -0.0716789873 -0.1760415595 0.0702222496
100299400.0 -0.1688738556 0.0676456779 0.5345012746 -0.0786922739 0.534489887 -0.0787715591 -0.174219873 0.0708735953
105299370.0 -0.1669766014 0.0679822286 0.5344819909 -0.0851695852 0.5343589748 -0.0854582103 -0.1719914941 0.0717501076
110299340.0 -0.1653926704 0.0685623285 0.5346456977 -0.0919648926 0.5348009522 -0.0927524347 -0.1707630938 0.0729092806
115299310.0 -0.163836148 0.0687672883 0.5345303408 -0.0988103221 0.5350204302 -0.0990059317 -0.1688830696 0.0731358373
120299280.0 -0.1630352563 0.0693933416 0.534824 -0.1056551571 0.5348341716 -0.1060495523 -0.1680798659 0.0741762471
125299250.0 -0.1617427166 0.0698035264 0.5339754124 -0.1126995759 0.5345820208 -0.1126578695 -0.1665991451 0.0745962698
130299220.0 -0.1607683805 0.0708182558 0.5337225355 -0.1192545041 0.5336353269 -0.1196998819 -0.1651338687 0.0758068079
135299190.0 -0.15935352 0.0710739671 0.5330222531 -0.1257939635 0.5325219684 -0.1257147347 -0.1642042559 0.0768083346
140299160.0 -0.1585998839 0.0720601535 0.5320339425 -0.1323519046 0.5324648623 -0.1326732158 -0.1626077959 0.0777770297
145299130.0 -0.1577428325 0.072798962 0.53180047 -0.1393342076 0.5313914467 -0.1389960675 -0.1622977132 0.0788572413
150299100.0 -0.1564029184 0.0736775544 0.5303527855 -0.1458660047 0.5303179198 -0.1455391186 -0.1608745938 0.0797498026
155299070.0 -0.1557642247 0.074807024 0.5287346153 -0.1531012518 0.5287953343 -0.1522670285 -0.159995171 0.0810580369
160299040.0 -0.1548760835 0.075456759 0.527447475 -0.1582882417 0.5277890363 -0.1589528383 -0.1588046284 0.0823879512
165299010.0 -0.1541794336 0.0764063459 0.5267116362 -0.1653668996 0.5260270878 -0.165236113 -0.1578071742 0.0833104596
170298980.0 -0.1535565966 0.0772906821 0.5241385287 -0.1714006753 0.5244877622 -0.1716468824 -0.156564502 0.0843686849
175298950.0 -0.1526252772 0.0782757424 0.5236947441 -0.1774987996 0.5233256729 -0.1781695535 -0.156118627 0.0854523084
180298920.0 -0.1518041981 0.0789633278 0.5214170771 -0.1846603191 0.5216203526 -0.1838316464 -0.1551448262 0.0870579895
185298890.0 -0.1510266856 0.0803049151 0.5190991469 -0.1905279376 0.5194051182 -0.1901354024 -0.1542540864 0.0879888631
190298860.0 -0.1504298435 0.0812044763 0.5173677846 -0.1967935727 0.5179390655 -0.1968098169 -0.1529151612 0.089377587
195298830.0 -0.1495736656 0.0819776399 0.5154951712 -0.2023137407 0.5160469553 -0.2030236991 -0.152105202 0.0903405104
200298800.0 -0.1490959536 0.0834397112 0.5139274697 -0.2079668964 0.5135751122 -0.2086534082 -0.1506736665 0.0920962217
205298770.0 -0.1479680396 0.0845536513 0.5114449882 -0.2149202131 0.5113543803 -0.2145371095 -0.1499628211 0.0929928713
210298740.0 -0.147712042 0.0853118651 0.5090591423 -0.2211139551 0.5095409279 -0.2210508024 -0.1489432158 0.0947108785
215298710.0 -0.1467645404 0.0869490076 0.507060846 -0.2265575094 0.5067351156 -0.2266036207 -0.1483353194 0.096138471
220298680.0 -0.1459399212 0.0880807858 0.5040707644 -0.2327895954 0.5045461104 -0.2327591712 -0.1470721611 0.0977169861
225298650.0 -0.1448447664 0.089394668 0.5016895453 -0.2382100454 0.5018087295 -0.2385648705 -0.1462588458 0.0991587476
230298620.0 -0.1445234267 0.0906627275 0.4993989252 -0.2446248052 0.4998625089 -0.244205563 -0.1446762059 0.1002735192
235298590.0 -0.1438025454 0.091587112 0.4967983531 -0.2498009006 0.4968605089 -0.2504920839 -0.1438346402 0.1015000818
240298560.0 -0.1430688702 0.0929169523 0.4944843259 -0.2555218081 0.4941562413 -0.2552426806 -0.1431761762 0.1032365864
245298530.0 -0.1420158576 0.0941248026 0.4907439195 -0.2611418043 0.4913649557 -0.2618085517 -0.1418722626 0.1049042327
250298500.0 -0.1412532158 0.0953633839 0.4882134406 -0.2668053533 0.4885603501 -0.2666720328 -0.1406818652 0.1061388227
255298470.0 -0.1406942296 0.0968892778 0.4855115814 -0.2727193728 0.4855619809 -0.2726755192 -0.1393352671 0.1072488561
260298440.0 -0.139618682 0.0981213243 0.4826338954 -0.2778541594 0.4826374753 -0.2783619296 -0.1380871762 0.1089275352
265298410.0 -0.1386214943 0.099536201 0.4795548384 -0.2842381072 0.4795693137 -0.2837918595 -0.1373755367 0.1102616913
270298380.0 -0.1376876957 0.1006802543 0.4760128714 -0.2892662051 0.4762844767 -0.2894464352 -0.1358562172 0.1119311384
275298350.0 -0.1367393525 0.1019433386 0.4730739752 -0.2953307483 0.4734838584 -0.2948791236 -0.1346536862 0.1133357385
280298320.0 -0.1361265285 0.1032814923 0.4700646775 -0.2996316496 0.4700403301 -0.3000955926 -0.1334958607 0.1151239533
285298290.0 -0.1352843784 0.1047115423 0.4669577657 -0.3051122837 0.4666183012 -0.3053980408 -0.1325245126 0.1163632726
290298260.0 -0.1342032649 0.1059981624 0.463786434 -0.3108714167 0.4633995648 -0.3106372335 -0.1308327944 0.1179257587
295298230.0 -0.1333284985 0.1073913874 0.460783587 -0.3160756979 0.4601607945 -0.3162834061 -0.1294794805 0.1193208317
300298200.0 -0.1319810086 0.1084174341 0.4567582058 -0.3213388265 0.456712444 -0.3214419093 -0.1281583647 0.1208086235
305298170.0 -0.131166611 0.1095684301 0.4537210662 -0.3264214227 0.4536487794 -0.3264974026 -0.1266699248 0.1222857134
310298140.0 -0.1296166491 0.110698915 0.4496634719 -0.3316923908 0.4496489409 -0.3322559975 -0.1253997746 0.1241896987
315298110.0 -0.1291127824 0.1119956088 0.4459094675 -0.3368891856 0.4464043341 -0.3368823894 -0.1239052132 0.1248592635
320298080.0 -0.1281197605 0.1132468021 0.4423860989 -0.3421977441 0.4424408756 -0.3421821398 -0.1226525237 0.1262464532
325298050.0 -0.1272424906 0.1140954028 0.4389297725 -0.3472491871 0.4389096627 -0.3473923841 -0.1217191611 0.1276536874
330298020.0 -0.1262143535 0.1154535165 0.4341430288 -0.3521506842 0.4345779096 -0.3523287073 -0.1200640367 0.129064559
335297990.0 -0.1251180367 0.1167409184 0.4302665073 -0.3571693835 0.4302468153 -0.3569823467 -0.1191312051 0.1303140595
340297960.0 -0.1247670291 0.1180673663 0.4262565543 -0.3618933273 0.4265384682 -0.3614683257 -0.1178447661 0.1317377867
345297930.0 -0.1238007282 0.1195895464 0.4222267661 -0.3661610147 0.4223266491 -0.3662259803 -0.1162581712 0.1330804871
350297900.0 -0.1223898779 0.1207350322 0.4178310564 -0.3701388242 0.4183454012 -0.3709084464 -0.1149171198 0.1349822045
355297870.0 -0.121446113 0.1219412124 0.4137461216 -0.3754050496 0.4137997138 -0.3760016321 -0.1135397586 0.1363428844
360297840.0 -0.1199002829 0.1234431314 0.4097704083 -0.3802895866 0.4099095579 -0.3804123023 -0.1120329767 0.1380036404
365297810.0 -0.1188312476 0.1245640042 0.4051005605 -0.3845686685 0.405301962 -0.3845797072 -0.1108330975 0.1392764075
370297780.0 -0.1175293339 0.125655277 0.4008713708 -0.3890036108 0.4012449989 -0.389400057 -0.1092368397 0.1409541666
375297750.0 -0.1167774426 0.1275947225 0.3975285973 -0.3938298406 0.3968901056 -0.3937961081 -0.1075460777 0.1422416071
380297720.0 -0.1154235018 0.128287099 0.3925960657 -0.3979999454 0.392678509 -0.3980500411 -0.1059738944 0.1438565465
385297690.0 -0.1141582179 0.1299546276 0.3879224653 -0.4020486088 0.3881230162 -0.402217794 -0.1045643987 0.1454965903
390297660.0 -0.113174986 0.1310644674 0.3836102302 -0.4067743405 0.3835926148 -0.4068782953 -0.10303737 0.1463634509
395297630.0 -0.1119114767 0.1318184172 0.3794667701 -0.4102912515 0.3792019381 -0.4105415673 -0.1015604219 0.1481712297
400297600.0 -0.1109164859 0.1338804287 0.3746582435 -0.415269022 0.3749772399 -0.4150360827 -0.100367715 0.1491371254
405297570.0 -0.10916335 0.1347254475 0.3702285272 -0.4188369308 0.3702766812 -0.4191164921 -0.0984121911 0.1507008675
410297540.0 -0.1077179817 0.135689861 0.3648172422 -0.4227605257 0.3655420885 -0.4229470791 -0.0969774352 0.1518660424
415297510.0 -0.106595864 0.1372808696 0.3609785137 -0.4267590569 0.3610999809 -0.4271223037 -0.0953113689 0.1534073911
420297480.0 -0.1054740217 0.1380814172 0.3560823207 -0.431161147 0.3558999199 -0.4308794501 -0.0935904014 0.1542716029
425297450.0 -0.1036173427 0.1391035747 0.3509684328 -0.4346954579 0.3517663618 -0.434602188 -0.091847117 0.1559622696
430297420.0 -0.1028286924 0.1406954256 0.3469310726 -0.4388893011 0.3471538974 -0.4384800108 -0.0904023273 0.1568590142
435297390.0 -0.1011952317 0.1414494563 0.3418029509 -0.4417419189 0.3418422378 -0.4420090335 -0.0885790186 0.1585309868
440297360.0 -0.0998998983 0.1426281774 0.3365222726 -0.4458998525 0.3363430587 -0.4459463696 -0.0866152749 0.1588824783
445297330.0 -0.0980537725 0.1435584991 0.3313931287 -0.4498037043 0.3316753907 -0.4494854226 -0.0849687199 0.1602605057
450297300.0 -0.0967317917 0.1447954344 0.3264296861 -0.4533640598 0.3271943226 -0.4534513123 -0.0834981762 0.1614280188
455297270.0 -0.095707936 0.1456340994 0.322186497 -0.4568263348 0.3224596545 -0.4569280462 -0.0813934137 0.1629964998
460297240.0 -0.0945564022 0.1467552866 0.3166608781 -0.4596550097 0.3165413798 -0.4599884341 -0.0795221019 0.1639617253
465297210.0 -0.0924874632 0.1478655346 0.3121551484 -0.463827381 0.3123109589 -0.4638605925 -0.0783717235 0.1647242169
470297180.0 -0.0913877236 0.1486876119 0.3066606331 -0.4663027204 0.307053726 -0.466949163 -0.0768955825 0.1659497866
475297150.0 -0.0900578083 0.1496542202 0.3016603078 -0.469624192 0.3019251021 -0.4696136195 -0.0743330479 0.1668205105
480297120.0 -0.0883147761 0.1505029045 0.2963472288 -0.4730536121 0.2970491089 -0.4733203156 -0.0730819807 0.1682358225
485297090.0 -0.0869235197 0.1515750411 0.2914816271 -0.4765606685 0.2915866708 -0.4767745296 -0.0716933443 0.1689811322
490297060.0 -0.0854293109 0.152644836 0.2860781544 -0.4799077117 0.286400617 -0.4798155857 -0.0691540662 0.1702015992
495297030.0 -0.0843153359 0.1537944583 0.280890548 -0.4827073672 0.2806780633 -0.48267469 -0.0675383394 0.1705862079
500297000.0 -0.0822485413 0.1543342471 0.2757869499 -0.4859553091 0.2759847827 -0.4860886637 -0.0660649463 0.1718541238
505296970.0 -0.0812273573 0.1553062149 0.2701597128 -0.4882910652 0.2702339816 -0.4886900759 -0.0642765135 0.1730770634
510296940.0 -0.0795398446 0.1563142581 0.264930252 -0.4916141741 0.2651111907 -0.4915728359 -0.0619483849 0.1742443338
515296910.0 -0.0782377406 0.1574271102 0.2594257871 -0.4941823825 0.2596908127 -0.4943476302 -0.0603545142 0.1746260018
520296880.0 -0.0765834974 0.1581333776 0.2540224451 -0.4973767771 0.2546308197 -0.4971004281 -0.0581662935 0.1756944199
525296850.0 -0.075093606 0.1589545018 0.2486167927 -0.5000280788 0.2487800936 -0.5000576206 -0.0560974729 0.1764952128
530296820.0 -0.0734570598 0.1598028918 0.2436736099 -0.5019733662 0.2433995985 -0.502068169 -0.0547433187 0.1769218038
535296790.0 -0.0721309372 0.1604388358 0.2374665648 -0.5051175786 0.2380805833 -0.50488699 -0.0525508728 0.1772843514
540296760.0 -0.0703991527 0.1609293765 0.2320718313 -0.50807409 0.232094778 -0.5080546279 -0.0511789334 0.1785236265
545296730.0 -0.0687773197 0.1622385444 0.226631351 -0.5096488146 0.2266488351 -0.5105128635 -0.0491023031 0.1789772819
550296700.0 -0.0673556796 0.1629262268 0.2211626224 -0.5123294334 0.2219892674 -0.5127070284 -0.0470206031 0.1800689463
555296670.0 -0.0654004865 0.1636015031 0.2157076667 -0.5149618983 0.216029621 -0.5150150496 -0.0453523643 0.1806924112
560296640.0 -0.0639465084 0.1643268642 0.2100453999 -0.5171614081 0.210571872 -0.5169857715 -0.0433018148 0.1813963962
565296610.0 -0.0628599843 0.1653871052 0.2046918108 -0.519296279 0.2043625641 -0.5193107304 -0.0415546987 0.1819600572
570296580.0 -0.0606738573 0.1658042397 0.1989267821 -0.5212312296 0.1989872226 -0.5213699671 -0.0392936819 0.1827526255
575296550.0 -0.0592813466 0.1668156756 0.1932777091 -0.5235422114 0.1937200861 -0.5235478372 -0.0370444398 0.1830565639
580296520.0 -0.0578207045 0.1673855685 0.1881358366 -0.5256837634 0.1876639038 -0.5257390605 -0.035065377 0.183712534
585296490.0 -0.0557441257 0.1675991106 0.1819603178 -0.5274674118 0.1817569023 -0.5274983317 -0.0334173067 0.1840146495
590296460.0 -0.0547605514 0.1683374978 0.1760360089 -0.5292948908 0.1758885313 -0.5297283205 -0.0312406641 0.1850166755
595296430.0 -0.0528595492 0.1694596388 0.17042718 -0.5313024217 0.1704157641 -0.5317546321 -0.0288611211 0.1852569632
600296400.0 -0.0512500828 0.1699630125 0.1650348962 -0.5329916348 0.1648778118 -0.5332206713 -0.0274219396 0.1858437758
605296370.0 -0.0496319058 0.1710183279 0.1591164085 -0.5351974753 0.1589535424 -0.5348301044 -0.0253897942 0.1861980326
610296340.0 -0.0479553727 0.1713883459 0.1532099751 -0.5363874336 0.1534918914 -0.537148121 -0.0233600929 0.1872662827
615296310.0 -0.0460678269 0.1719037212 0.1471556665 -0.5380976653 0.1471919649 -0.5384988628 -0.0210620013 0.1872844145
620296280.0 -0.0444678557 0.1723663597 0.1415308501 -0.5396383918 0.1414179455 -0.5396068248 -0.0190543296 0.1872949129
625296250.0 -0.0425346379 0.1729050842 0.1354325684 -0.5411834944 0.1351849964 -0.54130831 -0.0170583256 0.1880474307
630296220.0 -0.0412289447 0.1736902985 0.1295173574 -0.54249802 0.1301130864 -0.5425662977 -0.0154391676 0.1884466765
635296190.0 -0.0394677126 0.1745020725 0.1236520518 -0.5434453263 0.1237880313 -0.5433425734 -0.0132504581 0.1883926852
640296160.0 -0.0378433961 0.174557541 0.1180167669 -0.5449523432 0.1180236706 -0.5452514492 -0.0108103187 0.1885984786
645296130.0 -0.0360556391 0.1755480983 0.1117774436 -0.546504623 0.1120786598 -0.5463982113 -0.0095435662 0.1888781756
650296100.0 -0.0344441352 0.1762197653 0.1065869375 -0.5471639156 0.1064540232 -0.5469638897 -0.006913065 0.189196544
655296070.0 -0.0328805464 0.1762260485 0.1005065564 -0.5483498748 0.1003465518 -0.5486910571 -0.004837286 0.1899471309
660296040.0 -0.0313982561 0.1769791161 0.0946389278 -0.5493046055 0.0943631498 -0.5491645008 -0.0033176817 0.1891825614
665296010.0 -0.0292499819 0.1771250751 0.0887078828 -0.5503572212 0.0890889475 -0.5506355395 -0.0013878124 0.1899138283
670295980.0 -0.0272451257 0.1777411414 0.0827112384 -0.5511815281 0.0834602904 -0.5513362624 0.0003194392 0.1900384808
675295950.0 -0.0255675004 0.1781997211 0.076555899 -0.5520891491 0.0768446341 -0.5525311405 0.0031600704 0.190076228
680295920.0 -0.0240503396 0.178863792 0.0702537645 -0.5529421275 0.0702927939 -0.5529492079 0.0052986095 0.1901850787
685295890.0 -0.0221363897 0.179056548 0.0647486351 -0.5537584172 0.0648179374 -0.5536157877 0.0069936189 0.1905148474
690295860.0 -0.0203349708 0.1790235237 0.0587203989 -0.5539776975 0.0583514724 -0.5541418311 0.0094130126 0.1909465204
695295830.0 -0.018614217 0.1793798595 0.052288161 -0.5544259276 0.0523936258 -0.5546940136 0.0114337662 0.1907646819
700295800.0 -0.0166411577 0.1798534865 0.0461154581 -0.5552582503 0.0466774517 -0.5555764072 0.0135054964 0.1902842381
705295770.0 -0.0150338163 0.1802538772 0.0409069961 -0.5555156531 0.0409465374 -0.5556369982 0.0152004915 0.1904316202
710295740.0 -0.0132332981 0.1808993638 0.0344074974 -0.5562223805 0.0345111205 -0.5560625544 0.0168013423 0.1906386486
715295710.0 -0.011671957 0.1812473679 0.0286563585 -0.5565362445 0.029065824 -0.5565747401 0.0193876233 0.1904462994
720295680.0 -0.0100303502 0.1811796282 0.022629781 -0.5566733949 0.0228803782 -0.5568083714 0.0218703222 0.1905006314
725295650.0 -0.0077498975 0.1812775096 0.0165555077 -0.5564239956 0.0167153496 -0.5567998949 0.0237475384 0.1903273437
730295620.0 -0.006581536 0.1814854448 0.0105199185 -0.5567015908 0.0106505679 -0.5570647579 0.0259621269 0.1898229402
735295590.0 -0.0041531629 0.181939491 0.004827903 -0.5574259348 0.0049107774 -0.5574068923 0.0277750543 0.1902915423
740295560.0 -0.0026918436 0.1823680032 -0.0017212575 -0.5569653235 -0.0016106558 -0.5568395547 0.0301307222 0.1896970864
745295530.0 -0.0007855863 0.1820633112 -0.0075713551 -0.5569733795 -0.0071141128 -0.5568574426 0.0321430543 0.1897254635
750295500.0 0.0008216723 0.1822249046 -0.0131825317 -0.556600139 -0.0133510951 -0.5565692218 0.0342436934 0.1892871498
755295470.0 0.0030873442 0.1825326037 -0.0195235836 -0.5564225067 -0.0190996842 -0.5566804098 0.0358672937 0.1894659353
760295440.0 0.00454209 0.1828501215 -0.0252874326 -0.5563340775 -0.025351509 -0.5564579752 0.0376527886 0.1891070766
765295410.0 0.0062541377 0.1824070953 -0.0310410187 -0.5555434497 -0.0309318174 -0.5559357532 0.0405829764 0.1889784793
770295380.0 0.0082331215 0.1831365663 -0.037304947 -0.5554255473 -0.037220005 -0.555811343 0.0425358928 0.1887343102
775295350.0 0.0099304227 0.1829800692 -0.0430896266 -0.5548257665 -0.0433292468 -0.554900739 0.0440664194 0.1877803399
780295320.0 0.01193459 0.1827614644 -0.0489329832 -0.5541939542 -0.0489168418 -0.5545410161 0.0467264388 0.1880525621
785295290.0 0.0136140192 0.1831669849 -0.055153064 -0.5534671273 -0.0551585857 -0.5541195402 0.0478420935 0.1876834558
790295260.0 0.0152483638 0.1830176475 -0.0609427415 -0.5532832127 -0.0611274265 -0.5532513932 0.050687663 0.1870949858
795295230.0 0.0169657113 0.183354295 -0.0669996189 -0.5520600981 -0.0666963393 -0.5529307178 0.0527103482 0.1869914637
800295200.0 0.0189554927 0.1831350352 -0.0732335996 -0.5518735122 -0.0732262075 -0.5519439461 0.0547358725 0.1864848322
805295170.0 0.0205257255 0.1830762461 -0.0786985598 -0.5501834596 -0.0790953994 -0.5509817133 0.0561931642 0.1859674848
810295140.0 0.0226241193 0.1829475311 -0.0844421173 -0.550149414 -0.0848074436 -0.5506155519 0.0585600073 0.1858190246
815295110.0 0.0243344122 0.183106161 -0.0909528739 -0.5488557287 -0.0910645255 -0.5490956603 0.0603715405 0.1847304886
820295080.0 0.0261226102 0.1827995512 -0.0966322288 -0.5482906331 -0.096570354 -0.5481852047 0.0622705414 0.1844284271
825295050.0 0.0280958219 0.18265363 -0.102705212 -0.5463431984 -0.1023337366 -0.5469912646 0.0648277617 0.184134637
830295020.0 0.0301074354 0.1828491612 -0.10901595 -0.54527876 -0.1088976151 -0.5456160673 0.0663761973 0.1832266048
