!Created with skrf (http://scikit-rf.org).
# Hz S RI R 50.0 
!freq ReS11 ImS11 ReS21 ImS21 ReS12 ImS12 ReS22 ImS22
300000.0 -0.3180251852 -0.1019837461 0.3729323046 0.0525859442 0.3747923976 0.0552834152 -0.3199258302 -0.1144176098
5299970.0 -0.3234238566 0.004941435 0.3783555893 0.0028456374 0.3785189355 0.0029442118 -0.3263105679 0.0028320429
10299940.0 -0.3211671794 0.0155313467 0.3799880171 0.0026645309 0.3795706383 0.0022055086 -0.3238847504 0.0128466394
15299910.0 -0.3178305572 0.0234997485 0.3820881073 0.0024742454 0.3820555278 0.0023648799 -0.3213839624 0.0196552929
20299880.0 -0.3143129503 0.0301928144 0.3848821977 0.0016882646 0.3850283632 0.0016494119 -0.3184088784 0.0260336063
25299850.0 -0.310541809 0.0358281074 0.3886878503 2.4478e-05 0.3886223054 -8.18826e-05 -0.3157554896 0.0309436048
30299820.0 -0.3066235653 0.0402591597 0.3920049697 -0.0017748621 0.3914040056 -0.0023417135 -0.3127289996 0.0357260504
35299790.0 -0.3027211475 0.0447550264 0.394827795 -0.0052573357 0.3950633619 -0.0052705578 -0.3098254362 0.0394368082
40299760.0 -0.29952406 0.0479187515 0.3982031278 -0.0087030825 0.3985443217 -0.0089131685 -0.3070671613 0.0430747375
45299730.0 -0.2964021626 0.0513779997 0.4013229736 -0.0130522071 0.4011807799 -0.0128026207 -0.3047289272 0.0462432444
50299700.0 -0.2933420123 0.0543299296 0.4035022563 -0.0172436145 0.4038764688 -0.0173440801 -0.3023674551 0.0492147761
55299670.0 -0.2907762126 0.0567973187 0.4055623386 -0.0219025764 0.4058361143 -0.0218344856 -0.3002699079 0.0516783708
60299640.0 -0.2881864122 0.0592206811 0.4073948855 -0.0268889495 0.4076002574 -0.0270765765 -0.2981073236 0.0546601008
65299610.0 -0.2859840915 0.0616339773 0.409336065 -0.0312878794 0.4094755294 -0.0316294726 -0.2965845664 0.0570840115
70299580.0 -0.283761896 0.0634687505 0.4105361697 -0.0368561551 0.4103314522 -0.0368080494 -0.2945378896 0.0596373849
75299550.0 -0.2818557073 0.065798975 0.4116725757 -0.0420380713 0.4116636025 -0.0423239693 -0.2929852373 0.0619679805
80299520.0 -0.2802955471 0.0679660103 0.4126387132 -0.0475046872 0.4129161665 -0.0477392204 -0.2918038333 0.0643957869
85299490.0 -0.2784744213 0.0700199988 0.4135302033 -0.0526968472 0.4131198275 -0.0528871964 -0.2903830299 0.0663930759
90299460.0 -0.2771805041 0.0722927884 0.4134716373 -0.0577831453 0.4135286741 -0.0579722868 -0.288541996 0.0686193856
95299430.0 -0.2755668729 0.0743299745 0.4138205319 -0.063324828 0.4137645083 -0.0628849818 -0.2876666843 0.0710883526
100299400.0 -0.2742004713 0.0765125328 0.4139310482 -0.0683219959 0.4139467291 -0.068205966 -0.2867913729 0.0733755162
105299370.0 -0.2729469752 0.0785673002 0.4134937576 -0.0734780911 0.413767017 -0.0735285885 -0.2852621104 0.0754918796
110299340.0 -0.2717958635 0.0805933686 0.4134090968 -0.0787014434 0.4132658798 -0.0788969237 -0.2844200814 0.0778132896
115299310.0 -0.270743098 0.0822179034 0.4130579151 -0.0834107545 0.4133403265 -0.0833837969 -0.2833303509 0.0799789642
120299280.0 -0.2696885329 0.0848682824 0.4128948458 -0.089094134 0.4129998101 -0.08900015 -0.2823537741 0.0823931038
125299250.0 -0.2689013554 0.0868877018 0.4122731092 -0.0939402982 0.4128637094 -0.0940523493 -0.2814488035 0.0849865671
130299220.0 -0.2678997834 0.0891333181 0.4115567217 -0.0987557807 0.411468879 -0.0992006608 -0.2804106363 0.0874713085
135299190.0 -0.2665707917 0.0912431487 0.4108515274 -0.1038206294 0.4106056237 -0.1041013804 -0.2796985077 0.0894964269
140299160.0 -0.2659888102 0.0937484669 0.4103348498 -0.1091953916 0.4103108209 -0.1092277465 -0.2787991048 0.0920997007
145299130.0 -0.2647897575 0.0958517308 0.4095534525 -0.1143600769 0.4092942497 -0.1137322253 -0.278054307 0.0948094154
150299100.0 -0.2639152762 0.0981121295 0.408348159 -0.1188921999 0.4082086117 -0.1190611893 -0.2769438312 0.0969969228
155299070.0 -0.2630767779 0.1010311494 0.406959489 -0.1243192899 0.4072191798 -0.1238506709 -0.2760341367 0.0991411055
160299040.0 -0.2617267146 0.1029073744 0.4055767729 -0.1284096278 0.4058227777 -0.1289384262 -0.2747115852 0.1023448443
165299010.0 -0.2610840034 0.1054381837 0.4046150427 -0.1337803425 0.4045888106 -0.1336174884 -0.2742634536 0.1045840928
170298980.0 -0.2601404219 0.1077381227 0.4028311396 -0.1383252413 0.4031146385 -0.1384805858 -0.2730633893 0.1072515416
175298950.0 -0.2590074135 0.1103430274 0.4021745417 -0.1429605416 0.4019922925 -0.1432647915 -0.272338501 0.1097221547
180298920.0 -0.2578682384 0.1126409521 0.4003312869 -0.1478441705 0.4006393368 -0.1477403868 -0.2709652512 0.1126667132
185298890.0 -0.2570413844 0.114956674 0.3988955369 -0.1525656577 0.3990201657 -0.1525951219 -0.2702036266 0.1146319433
190298860.0 -0.2555948267 0.1176260964 0.3971384017 -0.1571969055 0.3973924036 -0.1577710533 -0.2687143687 0.1179032824
195298830.0 -0.2549042611 0.1198521757 0.3959613408 -0.1615606795 0.3956445666 -0.1620304538 -0.2681504188 0.1200713255
200298800.0 -0.253641873 0.1227214565 0.3941585344 -0.1659794569 0.3939111548 -0.1666811522 -0.2666549621 0.1232927104
205298770.0 -0.2527694155 0.1254037462 0.3922216551 -0.1709077902 0.3926045503 -0.1711006212 -0.2658491985 0.1251632666
210298740.0 -0.2516811677 0.1279000526 0.3908298354 -0.1758077739 0.3906834974 -0.1761140989 -0.2647014241 0.1283324408
215298710.0 -0.2503535905 0.130309264 0.3884222944 -0.1802585123 0.3887175675 -0.1800660488 -0.2636222405 0.1306423433
220298680.0 -0.2491584221 0.1330625612 0.386499149 -0.1846918022 0.3866960539 -0.184734622 -0.2620709122 0.1334853115
225298650.0 -0.2475948324 0.1355924539 0.3842492503 -0.1891399303 0.3845919629 -0.1891837534 -0.2609398855 0.1364603912
230298620.0 -0.2465356199 0.1382845805 0.3824831437 -0.193116507 0.382652237 -0.1936389904 -0.2596837095 0.1388932387
235298590.0 -0.2455188311 0.140366744 0.3804997016 -0.1977120649 0.3807201614 -0.1980497688 -0.258372122 0.1411615645
240298560.0 -0.2443245737 0.1432537717 0.3786314087 -0.2019663101 0.3783705349 -0.2021709908 -0.2570620563 0.144327029
245298530.0 -0.2424751599 0.1456361801 0.3750500982 -0.2067450376 0.3761476309 -0.2064658445 -0.2558589781 0.1469205773
250298500.0 -0.2417062029 0.148235743 0.3738549294 -0.210739638 0.373726931 -0.2104240449 -0.2538949861 0.1497900391
255298470.0 -0.2401946892 0.1510111458 0.3713588432 -0.2152666967 0.3712165555 -0.2150341837 -0.2525899532 0.1522426508
260298440.0 -0.238658511 0.1533260916 0.3692975052 -0.2188783664 0.3690504527 -0.2193210818 -0.2510946569 0.1550211791
265298410.0 -0.2371662349 0.1562016775 0.3667078298 -0.2235492941 0.3662880745 -0.2232953993 -0.2495964565 0.1578107085
270298380.0 -0.2354617042 0.1585607238 0.3634632108 -0.227572201 0.3644402655 -0.2277399399 -0.2480388718 0.1604467083
275298350.0 -0.2341394151 0.1611382609 0.3616222008 -0.2318993652 0.3616981455 -0.2318960988 -0.2461793181 0.162851433
280298320.0 -0.2326475829 0.1639026424 0.3590577959 -0.2355907866 0.3589911228 -0.2360050085 -0.2448771526 0.1656921169
285298290.0 -0.2307585859 0.1665904717 0.3564435396 -0.2399402258 0.3563241165 -0.240150894 -0.2431784927 0.1685083468
290298260.0 -0.2293182587 0.1689585323 0.3540372274 -0.2440869983 0.3538813365 -0.2440192857 -0.2412018981 0.171328394
295298230.0 -0.2276953571 0.1713620294 0.3516486674 -0.2479196437 0.3508940399 -0.2480843045 -0.2395608745 0.173767982
300298200.0 -0.2258333605 0.1736732186 0.3480822382 -0.2516584678 0.3483973628 -0.251576152 -0.2379199023 0.176312124
305298170.0 -0.2240974722 0.1761737097 0.3460054543 -0.2559977161 0.3458223222 -0.2559740492 -0.2358638276 0.1792531047
310298140.0 -0.2220275427 0.1783627195 0.3429688668 -0.2601075877 0.3430147603 -0.2602216415 -0.234164088 0.182382495
315298110.0 -0.2202461722 0.1810584615 0.3398151921 -0.2639380515 0.3400909198 -0.2639947289 -0.2319114982 0.1844095197
320298080.0 -0.2187317701 0.183222392 0.3373430075 -0.2677167444 0.3370991251 -0.267502799 -0.2300487395 0.1866186506
325298050.0 -0.217062743 0.1853022539 0.3345484199 -0.2715398679 0.3342866278 -0.2715775464 -0.2284226315 0.1895031979
330298020.0 -0.2153963661 0.188136329 0.3306871706 -0.2753267065 0.3308750196 -0.2753819408 -0.2265470484 0.1918839449
335297990.0 -0.2135465597 0.1903276132 0.3273404522 -0.2793225862 0.3278471182 -0.2791054219 -0.2247567878 0.1943613474
340297960.0 -0.211881283 0.1928579204 0.3244005677 -0.2827769252 0.3245377058 -0.2824656509 -0.2227522454 0.1970387001
345297930.0 -0.2100460213 0.1953034614 0.3212468456 -0.2858686262 0.3208258573 -0.286111644 -0.2204063957 0.1993332664
350297900.0 -0.2076621207 0.1975051299 0.3177232405 -0.2894133485 0.3180319337 -0.2898935739 -0.2184531594 0.2025418399
355297870.0 -0.2060909114 0.1999018746 0.3149905452 -0.2931962889 0.3146742322 -0.2934411273 -0.2165195785 0.2047545611
360297840.0 -0.2039787853 0.2021576075 0.3118686239 -0.2968318107 0.3111845606 -0.296779513 -0.2142084436 0.207137756
365297810.0 -0.2015451417 0.2046343457 0.3077499593 -0.3000482635 0.3081332749 -0.300081179 -0.2126729533 0.210028289
370297780.0 -0.1995502543 0.2068669738 0.3043790655 -0.3034112199 0.3050133066 -0.3038559869 -0.2105092685 0.212279136
375297750.0 -0.1975425555 0.209315156 0.3015551033 -0.3065569031 0.3014569034 -0.3068465675 -0.2082605353 0.2146236489
380297720.0 -0.1952799036 0.2113237623 0.298157007 -0.3100118998 0.297918375 -0.3100711864 -0.2057409903 0.2177854318
385297690.0 -0.1931423036 0.2138418451 0.29432387 -0.3128697441 0.2944156158 -0.3134993917 -0.2034039154 0.2197095977
390297660.0 -0.1912477908 0.2158941316 0.2911602018 -0.3168410647 0.2911788407 -0.3170274138 -0.201392456 0.2219936728
395297630.0 -0.1883801866 0.2180825059 0.2876031738 -0.3193965884 0.2874051751 -0.3197630905 -0.1991659872 0.2246469999
400297600.0 -0.1864491761 0.2204310803 0.2839491643 -0.3228827691 0.284327137 -0.3230283464 -0.197228024 0.2267693624
405297570.0 -0.184244307 0.22227725 0.2803422097 -0.3260300082 0.280493814 -0.3260823987 -0.1944485465 0.2292748571
410297540.0 -0.1818214196 0.2245196554 0.2761829621 -0.3288706403 0.276365513 -0.3288489777 -0.1923786594 0.2311536532
415297510.0 -0.1795150158 0.2267051318 0.2734019647 -0.3321236575 0.2730664536 -0.3319961327 -0.1899125693 0.2338793462
420297480.0 -0.1770224445 0.228452829 0.2690971738 -0.3350513471 0.2693460978 -0.3348975919 -0.1875184258 0.235786918
425297450.0 -0.1745656011 0.2304254098 0.2655808005 -0.3376371092 0.2657765812 -0.3377595227 -0.1847244521 0.2378856217
430297420.0 -0.1723527402 0.2324374959 0.2620142223 -0.3409160181 0.2619600218 -0.3408824538 -0.1827273095 0.2402216069
435297390.0 -0.1697036711 0.2345657198 0.2579938694 -0.343573998 0.2581984845 -0.3434464272 -0.1801629046 0.242755078
440297360.0 -0.167355262 0.2363813731 0.2540891456 -0.3461159046 0.2541815553 -0.3459003701 -0.1779350536 0.2441550583
445297330.0 -0.1649212074 0.2384578295 0.2500386486 -0.3494733462 0.2502957612 -0.3490470766 -0.1750751362 0.2466212426
450297300.0 -0.1622818961 0.2402126703 0.2462273846 -0.3518854797 0.2469642889 -0.3517438212 -0.173122785 0.2485509209
455297270.0 -0.1598211948 0.2423873299 0.2429860239 -0.3547768184 0.2429349323 -0.3543651908 -0.16974945 0.2510676789
460297240.0 -0.1575257378 0.2441704347 0.2385363129 -0.3568135681 0.2383484365 -0.3568806989 -0.1671795875 0.2529910884
465297210.0 -0.1546220979 0.2459344081 0.235118151 -0.3595845629 0.2349764256 -0.3595731445 -0.1648866538 0.2546554796
470297180.0 -0.1520449101 0.2475604783 0.2309818202 -0.3618145879 0.2312674107 -0.362020152 -0.1631548517 0.256885251
475297150.0 -0.1493925126 0.2491838587 0.2267771968 -0.3644214485 0.2272691449 -0.3639178765 -0.1597588861 0.2587318357
480297120.0 -0.1473213373 0.250829903 0.2229109706 -0.3668595576 0.2230589304 -0.3670283249 -0.1572850348 0.2608553975
485297090.0 -0.1442067869 0.2525513558 0.2188967161 -0.36905128 0.2190921734 -0.3693822559 -0.154625474 0.2621129175
490297060.0 -0.141785833 0.2542856246 0.2147710633 -0.3716660495 0.2146234836 -0.3717317064 -0.1519954796 0.2643374731
495297030.0 -0.1392260662 0.2561206826 0.2106027199 -0.3738805282 0.2102891544 -0.3738444812 -0.1486286922 0.2656131582
500297000.0 -0.1362180188 0.2576448405 0.2065382459 -0.3762945561 0.2066898669 -0.3759574472 -0.1464419165 0.2677141845
505296970.0 -0.1338769306 0.259085052 0.2026271176 -0.3781191667 0.2024163824 -0.3781216141 -0.1442049179 0.2693561814
510296940.0 -0.1308668974 0.2609265834 0.1980121726 -0.3805859709 0.198305081 -0.3802661239 -0.1408164692 0.2710866647
515296910.0 -0.128355391 0.2624850275 0.193847055 -0.3823940701 0.1940678687 -0.3825465043 -0.1380494084 0.2728764838
520296880.0 -0.1253799783 0.263593021 0.1895955824 -0.3844710831 0.1899183478 -0.3841229274 -0.1352730441 0.274631111
525296850.0 -0.1227490884 0.2650727923 0.1855019275 -0.3864706065 0.1858137438 -0.3868580019 -0.1322838751 0.2761589505
530296820.0 -0.1197862862 0.2666793822 0.1817442467 -0.388121685 0.1810430304 -0.3883575523 -0.1300510773 0.2775885529
535296790.0 -0.1171077092 0.2679951091 0.1770307099 -0.3899652858 0.1775528255 -0.3900389006 -0.1268716788 0.278911258
540296760.0 -0.1141269845 0.2691372088 0.1728190153 -0.3925290023 0.1727363129 -0.3928587725 -0.1243415936 0.2807482926
545296730.0 -0.1114579482 0.2708688203 0.1680427801 -0.393882907 0.1685461098 -0.394282661 -0.1211214437 0.2818675163
550296700.0 -0.108734036 0.2722239737 0.1644788429 -0.395733839 0.1646646995 -0.395881628 -0.1183021572 0.2834734188
555296670.0 -0.105232151 0.2733544129 0.1598665507 -0.3976484824 0.159995611 -0.3976159706 -0.1154905572 0.2850456886
560296640.0 -0.1029461611 0.2745161275 0.1559348228 -0.3990843225 0.156052565 -0.3992386682 -0.1122727674 0.2864509304
565296610.0 -0.0999977767 0.275744674 0.1511538082 -0.40067261 0.1512268591 -0.4007404331 -0.1100720837 0.2874853662
570296580.0 -0.0970420989 0.2769879457 0.1468980411 -0.40246351 0.1471906861 -0.4027715156 -0.1068385768 0.2894179496
575296550.0 -0.0940401198 0.2782881959 0.1424074071 -0.4039574915 0.1427680693 -0.4040194355 -0.1039708922 0.2903057565
580296520.0 -0.0913216119 0.2795928642 0.1383860425 -0.4054350411 0.1380931859 -0.4054425707 -0.1005215257 0.2914126838
585296490.0 -0.0881198949 0.2802841351 0.1339868687 -0.4067507892 0.1333785406 -0.4066417423 -0.097842732 0.2921111715
590296460.0 -0.0854724325 0.2810731561 0.1292213815 -0.4080964092 0.1292393817 -0.4084923696 -0.0944471958 0.2938957356
595296430.0 -0.0822304051 0.2827766722 0.1246799821 -0.409577056 0.1249334498 -0.409650397 -0.0915996931 0.2947908901
600296400.0 -0.0793296522 0.2836034554 0.1205325677 -0.410891642 0.1207949763 -0.4108069637 -0.0885045031 0.296243723
605296370.0 -0.0763503226 0.2847282051 0.1161831328 -0.4123643493 0.1163741117 -0.4122298039 -0.085579344 0.2974266761
610296340.0 -0.0732686651 0.2853605275 0.1114355087 -0.4132500031 0.111720652 -0.413745176 -0.0824030805 0.2984787088
615296310.0 -0.0700573776 0.2865326012 0.1066320481 -0.4145294961 0.1067598516 -0.4145737915 -0.0792282765 0.2992216614
620296280.0 -0.067150308 0.2874920546 0.102605342 -0.4153849438 0.1026460518 -0.4158128554 -0.0760599598 0.2998438664
625296250.0 -0.0644168619 0.2884113299 0.0977311429 -0.416692003 0.0979567711 -0.4170108801 -0.073157871 0.3012878439
630296220.0 -0.0610796257 0.2887911495 0.0931054595 -0.417605469 0.0936804878 -0.4178381954 -0.0701418139 0.3021271273
635296190.0 -0.0580610374 0.2896958882 0.0888019961 -0.4179725689 0.0886618331 -0.418331852 -0.0671355755 0.3028875833
640296160.0 -0.0550290399 0.2901804185 0.0843596701 -0.4191357494 0.0842023685 -0.4193756691 -0.0633948648 0.3036312089
645296130.0 -0.0521019296 0.2912868681 0.0795791615 -0.4205562548 0.0798286507 -0.4204999747 -0.0610786054 0.3043023807
650296100.0 -0.0489629574 0.2924392565 0.0759364521 -0.4211115384 0.0750726679 -0.4210326755 -0.0574220585 0.3056064476
655296070.0 -0.0460253433 0.2926484192 0.0708248 -0.4218574364 0.0703492368 -0.4219021975 -0.0540122148 0.3061685065
660296040.0 -0.0430676355 0.2936818531 0.0659164106 -0.4224913173 0.0662230605 -0.4224006626 -0.0511090574 0.3064630963
665296010.0 -0.0394554723 0.2937638743 0.0615236919 -0.4230888147 0.0621551726 -0.4233150378 -0.0483995483 0.3076713625
670295980.0 -0.036371944 0.2943259037 0.0570088512 -0.4238014796 0.0570350885 -0.4238206066 -0.0453221528 0.3080140837
675295950.0 -0.0333032437 0.294932526 0.0520808651 -0.4244722233 0.0525017893 -0.4246819107 -0.0418367849 0.3088984273
680295920.0 -0.0302167214 0.2958286714 0.0477671912 -0.4248937361 0.0477315336 -0.4249227495 -0.0382213578 0.3091603771
685295890.0 -0.0270536818 0.2958262927 0.0434727865 -0.425255578 0.0430937704 -0.425186144 -0.0352467334 0.3098143819
690295860.0 -0.0238479963 0.2965258336 0.0384298455 -0.4253419582 0.0381813758 -0.4258485535 -0.0319637987 0.3104045352
695295830.0 -0.0207144157 0.2966473337 0.0332859006 -0.4259915068 0.0334035044 -0.4263597111 -0.0288000005 0.3110113661
700295800.0 -0.0175033158 0.2970561085 0.0291081293 -0.4264708734 0.0292645479 -0.4264752888 -0.0254641858 0.311100261
705295770.0 -0.0140751799 0.297676225 0.0244683791 -0.4265564107 0.0248270292 -0.4267067025 -0.0227363499 0.3117161603
710295740.0 -0.0113686873 0.2980917667 0.019984948 -0.426695541 0.0202257512 -0.4266117575 -0.0199793841 0.3122377152
715295710.0 -0.0084580139 0.2980467675 0.015285509 -0.4268315201 0.0156493168 -0.4268092527 -0.0164061568 0.3119534404
720295680.0 -0.0053003554 0.2981562801 0.0108147244 -0.4268391004 0.0108846992 -0.4277285168 -0.0127136531 0.3129260217
725295650.0 -0.0015538462 0.2986123875 0.0055496051 -0.4269401548 0.0060119043 -0.4271133773 -0.0096230703 0.3131260907
730295620.0 0.001078838 0.2987096944 0.0013707015 -0.4271804401 0.0013630204 -0.4271278304 -0.0061926766 0.3128371584
735295590.0 0.0048111072 0.2986125287 -0.0032331304 -0.4268889227 -0.0027141606 -0.4271962534 -0.00284465 0.3131824726
740295560.0 0.0077356402 0.2990838692 -0.0080136685 -0.4269732401 -0.0080288978 -0.4269046453 0.0005858482 0.31336865
745295530.0 0.010768209 0.2990795712 -0.0124942053 -0.4267094119 -0.0122246266 -0.4269438666 0.0032085306 0.313684918
750295500.0 0.013806742 0.2986509307 -0.0167378741 -0.4263714101 -0.0169647682 -0.4265410562 0.006615727 0.313361963
755295470.0 0.0175269289 0.2990854716 -0.0217526949 -0.4261218913 -0.0215721671 -0.4264430289 0.0097125533 0.313732438
760295440.0 0.0201532058 0.2990127943 -0.0261424101 -0.4264120429 -0.0262179306 -0.4260658721 0.0129104165 0.3138419262
765295410.0 0.0233785258 0.2989229291 -0.0304476416 -0.4256053327 -0.030610781 -0.426019097 0.0167430323 0.3139473739
770295380.0 0.0267063561 0.2989109314 -0.0355493415 -0.4251351973 -0.0353247583 -0.4254910786 0.0199177467 0.3138638568
775295350.0 0.030063837 0.2988915247 -0.0400192956 -0.4246908728 -0.0399362346 -0.424621287 0.0226014864 0.313203264
780295320.0 0.0330843031 0.2984155639 -0.0443705821 -0.4244763402 -0.0441477517 -0.4244019515 0.0261877139 0.3138736473
785295290.0 0.0362706933 0.2985389271 -0.0493368835 -0.4234322708 -0.0489068011 -0.4239323809 0.0289357008 0.3135698208
790295260.0 0.0391811012 0.2979304678 -0.0537663387 -0.4230159341 -0.0539092267 -0.4237813103 0.0328045787 0.3132014651
795295230.0 0.0426023241 0.2979547145 -0.0581584786 -0.4222098535 -0.058118026 -0.422680544 0.0358279061 0.313589096
800295200.0 0.0456653417 0.2976382965 -0.0631870746 -0.4221232761 -0.0629381132 -0.421965361 0.0392196781 0.3127753533
805295170.0 0.0488155243 0.2971281679 -0.0672292686 -0.4207599692 -0.0673021137 -0.4208172427 0.0418843995 0.3126589793
810295140.0 0.051785785 0.2968837727 -0.0716391326 -0.4205442181 -0.0716683091 -0.4210548363 0.0456344237 0.3126803656
815295110.0 0.055324443 0.2965840438 -0.0766251524 -0.4192622194 -0.0766386104 -0.4196288184 0.0487986491 0.3124141185
820295080.0 0.0583795732 0.2952784465 -0.0810168406 -0.4183395702 -0.0808535411 -0.4188741628 0.0517688939 0.3115436144
825295050.0 0.0614788366 0.2955175116 -0.0854172589 -0.417364913 -0.0851238764 -0.4176788174 0.0553475854 0.3113089152
830295020.0 0.0650305394 0.2949886678 -0.0902576545 -0.4164046771 -0.0902879638 -0.4168267828 0.0583021234 0.3108676179
