!Created with skrf (http://scikit-rf.org).
# Hz S RI R 50.0 
!freq ReS11 ImS11 ReS21 ImS21 ReS12 ImS12 ReS22 ImS22
300000.0 -0.0482640378 -0.0434184028 -0.0002881501 0.0020285146 -0.0001244092 -0.0005665682 -0.7730644519 -0.1388859364
5299970.0 -0.0487769862 0.0154280057 1.84275e-05 0.0003153554 -1.675e-05 3.05852e-05 -0.784302725 -0.0073503907
10299940.0 -0.0431893164 0.0320378713 6.66691e-05 0.0001450679 7.04501e-05 7.9789e-06 -0.7875243133 -0.0038673203
15299910.0 -0.0348761134 0.0460640637 -3.7442e-05 -0.0002998805 -2.41967e-05 -5.2305e-05 -0.7925826209 -0.0013439275
20299880.0 -0.025272853 0.0573727077 5.30545e-05 -1.75971e-05 -3.67162e-05 -8.11055e-05 -0.7995318635 0.002253756
25299850.0 -0.0146013424 0.0665654724 -9.93797e-05 -0.0001659453 0.0001908351 0.0002097382 -0.8057610667 0.0085133533
30299820.0 -0.0034491124 0.0731218832 -0.0002335826 0.000150336 0.0001228938 1.24141e-05 -0.8119693824 0.0160571577
35299790.0 0.0078959263 0.0774511561 -9.70159e-05 -7.37359e-05 0.0001719171 -0.0002552187 -0.8167904161 0.0249427672
40299760.0 0.0190058424 0.0805903804 0.0001649941 0.0001516511 -1.37143e-05 0.0001591355 -0.8209570732 0.03465317
45299730.0 0.0295903714 0.0813838801 -0.0001329119 0.0002142778 -4.22326e-05 -6.17247e-05 -0.8248672277 0.0441299628
50299700.0 0.0392663997 0.0816570303 8.75534e-05 -8.97779e-05 3.87696e-05 -0.0001397411 -0.8271581468 0.0538930593
55299670.0 0.048413171 0.0803757669 9.5261e-05 6.70112e-05 8.18644e-05 -6.83159e-05 -0.8292282113 0.0646183032
60299640.0 0.0569116386 0.0787631575 -7.8327e-05 -0.0001299196 0.0001236592 -5.8953e-06 -0.8301290799 0.0741575437
65299610.0 0.0643224151 0.0761832678 0.0001195087 1.08436e-05 7.1656e-05 -0.0001022615 -0.8322226424 0.0843587348
70299580.0 0.0709085282 0.0733588471 -6.6229e-06 -0.000135573 -8.03849e-05 6.50923e-05 -0.8318878406 0.0950644425
75299550.0 0.0774551503 0.0700743037 3.20896e-05 -0.0001672482 -0.0002368895 -2.31788e-05 -0.8323007301 0.1044389237
80299520.0 0.0828435745 0.0664271394 0.0002012932 -2.9153e-05 -5.3426e-05 0.0001175024 -0.8326623179 0.1139986548
85299490.0 0.0877289016 0.0627667606 -2.27489e-05 0.0001643068 0.0001171269 8.49416e-05 -0.8319798646 0.124370731
90299460.0 0.0922253376 0.0590968405 0.0001244288 -6.58875e-05 -9.81507e-05 -4.74375e-05 -0.8310658017 0.13302148
95299430.0 0.0963666051 0.0547951156 -0.0001188372 -8.89595e-05 0.0003580427 -1.50695e-05 -0.8292449138 0.143431688
100299400.0 0.0994956341 0.0511089717 -3.094e-07 3.1426e-05 0.0001123091 8.30153e-05 -0.8285256316 0.1525042092
105299370.0 0.1030011943 0.0472784168 4.39058e-05 7.8869e-06 4.0161e-05 7.463e-07 -0.8267464245 0.1613772001
110299340.0 0.1057732477 0.0432176929 -3.43266e-05 -8.76127e-05 6.63432e-05 0.0001247786 -0.8256144608 0.170890978
115299310.0 0.1083929046 0.039094383 0.0002236585 -6.31208e-05 0.000138383 0.0001327305 -0.8240052321 0.1798516591
120299280.0 0.1105216852 0.035199926 4.69249e-05 0.0002373403 3.09387e-05 0.0001732528 -0.8222400279 0.1890912257
125299250.0 0.1120806465 0.0313789141 0.000218482 -2.22942e-05 -5.08316e-05 6.3795e-05 -0.8208290528 0.1977588918
130299220.0 0.1137488487 0.0276161713 -6.24826e-05 -0.0001301296 5.25123e-05 7.19326e-05 -0.8185585351 0.2068420738
135299190.0 0.1151384852 0.0243359078 1.1899e-05 0.0001472039 -9.98777e-05 5.69001e-05 -0.8164186105 0.2160639446
140299160.0 0.116164984 0.0207944712 -4.60467e-05 -0.000376224 -4.78e-05 0.0001362274 -0.8142849134 0.2247158509
145299130.0 0.1174541979 0.0170091186 0.0001308687 -4.40742e-05 -0.000142921 0.0001192295 -0.8120137955 0.2341570182
150299100.0 0.1183522548 0.0135999832 -6.02041e-05 4.49302e-05 -3.14835e-05 0.0001988673 -0.8107851035 0.2432302623
155299070.0 0.1188828685 0.0103089732 -0.0002227685 -0.0002096637 0.0001383104 0.000113816 -0.807030598 0.2519585459
160299040.0 0.1193490177 0.0070943907 -1.75657e-05 -8.1343e-06 0.0002204639 0.000113733 -0.8047545964 0.2604782274
165299010.0 0.1198805334 0.0038443522 0.0002833639 0.0001286816 0.000217558 -5.2471e-06 -0.8022881861 0.2694972212
170298980.0 0.1198978855 0.0008146779 -3.05159e-05 6.07264e-05 -0.0001687089 -1.7763e-06 -0.7992757813 0.2781686716
175298950.0 0.1205763471 -0.0021136269 0.000239845 0.00016044 -0.0001689449 3.15022e-05 -0.7963850214 0.2869156581
180298920.0 0.1203670902 -0.0054569247 0.0001755056 -2.35025e-05 -4.9656e-06 -1.411e-06 -0.7935457118 0.2948322787
185298890.0 0.1206692678 -0.0083097883 -9.95218e-05 -3.91935e-05 0.0001240924 0.0001399908 -0.7901363271 0.3036345327
190298860.0 0.1205014705 -0.0109893842 3.95483e-05 -8.3353e-05 0.0001271746 0.0001542607 -0.7877853011 0.3122781883
195298830.0 0.1203928324 -0.0138811033 -9.08334e-05 -0.000124809 6.64771e-05 -3.404e-05 -0.784452667 0.3209255993
200298800.0 0.1202024305 -0.0163337477 0.0001127914 0.0001519054 -8.76343e-05 0.0001263755 -0.7816159283 0.3292836097
205298770.0 0.1197093268 -0.0191919324 -4.61818e-05 0.000294499 -4.63484e-05 7.75358e-05 -0.7775912944 0.3374378925
210298740.0 0.1192199946 -0.0219389865 -1.05845e-05 0.0001445745 -7.03038e-05 6.464e-07 -0.7742705061 0.3460961543
215298710.0 0.1187668589 -0.0241511542 0.0002519716 2.4298e-06 5.97959e-05 -8.64778e-05 -0.7710404053 0.3544223579
220298680.0 0.1181889666 -0.026867967 0.000133603 0.0002238151 -4.89342e-05 7.57811e-05 -0.7671324156 0.3620853998
225298650.0 0.1176393821 -0.0294413219 0.0002879134 3.79902e-05 0.0002256698 0.0001087617 -0.7640950763 0.3701298316
230298620.0 0.116775714 -0.0314017841 7.37054e-05 0.0001217857 0.0001534038 -3.65271e-05 -0.7598783432 0.3785393033
235298590.0 0.1165499157 -0.0338178346 5.37266e-05 -5.11298e-05 -7.50538e-05 -2.9246e-06 -0.7558841519 0.3875213793
240298560.0 0.1158146558 -0.0362544262 -0.0001153992 -0.0003947848 -3.5844e-05 0.0002122753 -0.7512812057 0.3948849179
245298530.0 0.1149641255 -0.0385995015 -1.27139e-05 9.21885e-05 -6.87483e-05 -0.0001038641 -0.7475970752 0.4024948604
250298500.0 0.1141303507 -0.0407105724 3.11278e-05 0.0003048043 6.83007e-05 -0.0001141901 -0.7439210557 0.4099654774
255298470.0 0.112987186 -0.0431779245 5.30379e-05 -5.29939e-05 -6.29144e-05 0.000103091 -0.738600156 0.4179152673
260298440.0 0.1123592352 -0.0448713796 -7.19448e-05 6.09472e-05 0.0001906918 -1.01968e-05 -0.7345560813 0.4259262754
265298410.0 0.1114905592 -0.0469252077 -6.04e-05 0.0001924306 -2.5221e-05 -4.9826e-05 -0.7299604414 0.4334525504
270298380.0 0.1104779231 -0.0491897654 0.0001022653 -0.0002388418 -2.74945e-05 -0.0001169664 -0.7253440144 0.441162716
275298350.0 0.1094929135 -0.0512304498 -0.0001706472 -1.97871e-05 0.0001111522 -0.0001498426 -0.7210973162 0.4487604925
280298320.0 0.1089672979 -0.053090361 -6.45781e-05 0.0001769871 -3.93641e-05 -8.08817e-05 -0.7157389587 0.4563443213
285298290.0 0.10791426 -0.0547515615 -5.99535e-05 -1.73076e-05 -0.0001156525 5.2111e-05 -0.7104037469 0.4636169705
290298260.0 0.1071753546 -0.0568381549 0.0001539431 6.29942e-05 7.49356e-05 0.000113422 -0.7061886805 0.4710218635
295298230.0 0.1061136142 -0.0587251009 -1.4133e-05 -6.64453e-05 0.000280571 0.0001825923 -0.70094348 0.4775596008
300298200.0 0.1050256238 -0.0606868491 3.16113e-05 0.0001444231 0.0002200981 0.000312669 -0.6960546018 0.4854822401
305298170.0 0.1041297124 -0.0623054317 0.0001848689 0.0001220642 7.16829e-05 -0.0001933701 -0.6901244484 0.4930519484
310298140.0 0.1031742787 -0.0643441702 0.0001126085 -0.000160775 -3.49357e-05 1.67373e-05 -0.6854126107 0.4996949368
315298110.0 0.1019595922 -0.0661553367 0.0001543493 0.0001738453 0.000140563 -0.0002394779 -0.6797201234 0.5068367201
320298080.0 0.1008513518 -0.0681284231 0.0002463179 6.98563e-05 0.0001021176 -0.0002143485 -0.6747035163 0.5144047312
325298050.0 0.0995833824 -0.0699293801 9.5866e-05 -0.0001218905 -0.0001819746 6.24456e-05 -0.6689799874 0.5210462967
330298020.0 0.09801949 -0.0716544567 0.0002742508 -6.98633e-05 0.0002260633 2.78263e-05 -0.6635803271 0.5283006649
335297990.0 0.0966369873 -0.0730557062 0.0002125291 0.0001405604 -1.90127e-05 4.63636e-05 -0.658464877 0.535548536
340297960.0 0.0949988979 -0.0746833724 -9.62901e-05 -0.0001290045 0.0001812227 -0.0001689045 -0.6522723941 0.5425030903
345297930.0 0.0934216931 -0.076186924 -0.0001839389 1.5816e-06 1.49726e-05 4.66349e-05 -0.6469233754 0.5481135186
350297900.0 0.0921201528 -0.0773572916 -0.0001011067 -0.0001684825 -1.01941e-05 0.0001436273 -0.6411367956 0.555335404
355297870.0 0.090921995 -0.0787922353 5.92788e-05 0.0001503293 9.12577e-05 -0.0001409092 -0.6359040111 0.5618371801
360297840.0 0.0892934081 -0.0802481985 0.0001258554 0.0001380127 -3.13539e-05 -2.83198e-05 -0.6293503292 0.5685964212
365297810.0 0.0878891758 -0.0810561093 7.22072e-05 0.0001399871 0.0002138438 0.0002268804 -0.6231529595 0.5750439048
370297780.0 0.0864352486 -0.0823551535 3.20533e-05 -7.87066e-05 5.0851e-05 6.05304e-05 -0.6175980841 0.5821105015
375297750.0 0.0854702409 -0.0837282649 0.000156729 0.0001543243 2.5141e-06 -0.000124851 -0.6114646193 0.5877379951
380297720.0 0.0837228539 -0.0850818601 -8.98849e-05 -1.22547e-05 0.0002713143 7.81064e-05 -0.6057218308 0.5941369039
385297690.0 0.0822543587 -0.0859716169 1.88665e-05 -7.712e-07 -1.93446e-05 2.94781e-05 -0.5989203071 0.6008470049
390297660.0 0.08090271 -0.0869969165 0.0001583347 -1.03366e-05 0.0002828742 -6.10297e-05 -0.593391181 0.606565455
395297630.0 0.079533956 -0.0883274607 -5.39255e-05 -0.0001214303 0.0002965077 -7.38651e-05 -0.5863278504 0.6133819249
400297600.0 0.0780713489 -0.0892850244 0.0001146157 -2.02102e-05 0.0002623437 -7.71904e-05 -0.5804895715 0.6191693614
405297570.0 0.0761895655 -0.0907646839 2.25555e-05 0.0001017846 0.0001713332 -7.21619e-05 -0.573928472 0.6246717817
410297540.0 0.0750513212 -0.0917623311 0.0001583175 0.0001187117 -7.52518e-05 0.0001048224 -0.5677132978 0.6311253353
415297510.0 0.0734528076 -0.0931495024 0.0001376245 0.0001082578 -9.99092e-05 -3.2937e-06 -0.5611731097 0.6364974438
420297480.0 0.0721803707 -0.0935522582 7.3527e-06 -9.08311e-05 -4.153e-07 0.0001873692 -0.5544706115 0.6425737453
425297450.0 0.070655598 -0.0946798851 -1.8004e-05 0.0001034662 3.6095e-05 1.91937e-05 -0.5481050271 0.647843374
430297420.0 0.0690462207 -0.0958334855 0.0003426128 0.0003248985 -0.0001513894 0.0001075406 -0.5412119973 0.6529197333
435297390.0 0.0675673705 -0.096705077 8.30442e-05 -8.97696e-05 0.0001021829 6.58621e-05 -0.5338546183 0.6587001435
440297360.0 0.0659273453 -0.0980032743 0.0002690836 5.59285e-05 -2.71586e-05 0.0001313396 -0.5273653402 0.6639256391
445297330.0 0.0645503479 -0.098491324 0.0003796701 0.0001285344 -6.69889e-05 6.0621e-06 -0.5203489903 0.6684981671
450297300.0 0.0629363372 -0.0996976734 -3.78234e-05 -0.0001110028 0.0002690665 2.43074e-05 -0.5131242745 0.6740823074
455297270.0 0.061309468 -0.1002210179 0.0001375118 -2.52291e-05 0.0002283763 -9.0239e-06 -0.506209267 0.6785964354
460297240.0 0.0595870958 -0.1012024944 -7.48676e-05 0.0001682953 0.0001107352 2.86412e-05 -0.4993621497 0.6838312421
465297210.0 0.0583429295 -0.1017399834 -5.73145e-05 3.77695e-05 -1.60989e-05 4.1359e-06 -0.4915768678 0.6886603494
470297180.0 0.0567115597 -0.102424094 9.65102e-05 7.58402e-05 -6.175e-07 7.99789e-05 -0.4845860392 0.6940600687
475297150.0 0.0551689243 -0.1034539134 0.0001643204 8.84303e-05 7.9553e-05 -0.0001237012 -0.4775582973 0.6983947263
480297120.0 0.0536152505 -0.1039992464 0.0002601199 -0.0001998874 -3.9516e-06 8.92145e-05 -0.4700752852 0.7032649735
485297090.0 0.0520260044 -0.1047161187 7.84831e-05 6.15494e-05 0.0002585421 -3.1806e-06 -0.4630313049 0.7080768418
490297060.0 0.0503214295 -0.1052241778 4.04825e-05 -0.0001027968 5.55064e-05 4.1993e-06 -0.4554015468 0.7123213829
495297030.0 0.0486732602 -0.1058856791 4.40528e-05 5.18154e-05 0.0002586322 5.50276e-05 -0.4487613101 0.7179514328
500297000.0 0.0469500016 -0.1067321299 0.0002023492 7.43586e-05 0.0001599983 2.48308e-05 -0.4405060453 0.7220861208
505296970.0 0.0457992299 -0.1072702048 0.0001140954 0.0001134092 0.0001718749 -0.0002036262 -0.4335705248 0.7263407433
510296940.0 0.04380658 -0.1079625181 4.11451e-05 -1.71257e-05 0.0004142625 0.0002206506 -0.4262014452 0.7307026135
515296910.0 0.0423913083 -0.1083657403 0.0002351062 0.0002333336 3.39906e-05 4.85057e-05 -0.4183277001 0.7347081605
520296880.0 0.0404200922 -0.1088671649 0.00015004 -3.40995e-05 0.0001883581 -6.5276e-06 -0.4110481636 0.7390051133
525296850.0 0.0390039895 -0.1096940905 0.0003151069 -0.0002772514 6.2964e-06 7.89438e-05 -0.403535713 0.7435643594
530296820.0 0.0374773741 -0.1100279079 0.0004053692 2.74804e-05 0.0001335991 0.0001299264 -0.3964260643 0.7474913879
535296790.0 0.0355145043 -0.1102476117 0.0002725408 6.871e-05 9.93491e-05 -7.26081e-05 -0.3892412523 0.7517729249
540296760.0 0.0337370168 -0.1104552733 0.0002952634 0.0001587048 6.31635e-05 -8.4299e-05 -0.3811555724 0.7556577181
545296730.0 0.031911165 -0.1107211911 0.0002446031 -5.381e-05 0.0002243923 0.0001164828 -0.3737054653 0.7589864875
550296700.0 0.0311378863 -0.1112281212 9.74326e-05 0.0003161546 2.34575e-05 6.27711e-05 -0.3657966442 0.7636114905
555296670.0 0.0289374449 -0.111894893 0.0001055556 6.34747e-05 0.0004044883 -0.0001305233 -0.3579678941 0.7671678656
560296640.0 0.0274297699 -0.1121164346 0.0001288446 0.0002545016 7.14489e-05 -0.0003356667 -0.3498803292 0.7707077299
565296610.0 0.0256725908 -0.1122401686 3.352e-06 -3.54991e-05 0.0001792179 -7.5507e-06 -0.3417979962 0.7737132396
570296580.0 0.0239457877 -0.1126329813 -6.73285e-05 3.81677e-05 -2.36249e-05 -4.7541e-06 -0.3346672971 0.7776283216
575296550.0 0.0222353319 -0.1126518174 1.937e-07 5.75284e-05 0.0001403403 -8.75944e-05 -0.3264278136 0.7812731461
580296520.0 0.0206448335 -0.1130204061 0.0001193547 -7.15256e-05 0.0002176997 -8.46039e-05 -0.3175535008 0.7841591483
585296490.0 0.0188679281 -0.1135488519 6.50936e-05 -0.0001350943 0.0002036879 0.0001842763 -0.3102009611 0.787489309
590296460.0 0.0173641569 -0.1131301415 7.14778e-05 6.60504e-05 0.000163087 0.000106207 -0.3026841756 0.7905296202
595296430.0 0.0154708556 -0.113538172 0.0002357712 6.34895e-05 0.000283017 9.71513e-05 -0.2943274824 0.7929837436
600296400.0 0.014033696 -0.1136827426 0.000241687 0.0001274975 -2.70187e-05 2.08676e-05 -0.2866362341 0.795432085
605296370.0 0.0120575953 -0.1139707905 0.0001301608 -4.2838e-05 0.0001295987 1.29937e-05 -0.2778228594 0.7986503584
610296340.0 0.0105165391 -0.1139697644 0.0002527547 -4.43285e-05 -1.161e-07 -1.00323e-05 -0.2705365161 0.8010852029
615296310.0 0.0090575235 -0.1139796499 6.05905e-05 -0.0001057114 7.85273e-05 0.0002287735 -0.2615227854 0.8034598332
620296280.0 0.0069280978 -0.1142321669 0.0002895233 0.0001203467 0.0002002535 9.33564e-05 -0.2538178289 0.8062655507
625296250.0 0.0054556132 -0.1142428946 0.0002522599 -0.0001395808 0.0001610816 2.52081e-05 -0.2450940481 0.8078211521
630296220.0 0.0041995969 -0.1144137059 -0.0001137601 -1.59225e-05 4.07444e-05 -0.0002322443 -0.2374019851 0.8107976846
635296190.0 0.0018657115 -0.1140116559 0.000259618 0.0001539161 0.0001853662 -0.0001427476 -0.2294924451 0.8126232458
640296160.0 0.0003844825 -0.1140629517 0.0001489562 4.29777e-05 0.0002623966 9.81033e-05 -0.2209214052 0.8150893418
645296130.0 -0.0014123415 -0.1138034729 0.0001258761 -5.94109e-05 0.0001062916 -0.0001144088 -0.212968718 0.8173044879
650296100.0 -0.0031665789 -0.113552617 0.0002162744 -0.0003072 0.0002071532 -9.4571e-06 -0.2045636002 0.8191821898
655296070.0 -0.00471169 -0.1136525484 -4.72734e-05 -0.0001542707 0.0003093898 -3.29626e-05 -0.1959750896 0.8205252754
660296040.0 -0.0063135509 -0.1135002692 0.0002509483 -1.15584e-05 0.0003040111 8.6618e-06 -0.1875755659 0.8228170932
665296010.0 -0.0077304591 -0.1136504147 6.95613e-05 0.000159631 0.0001748751 -3.52264e-05 -0.1792143475 0.8253536682
670295980.0 -0.0098735402 -0.112898486 0.0002106066 -7.57329e-05 8.74113e-05 0.000162825 -0.1714588907 0.8269382781
675295950.0 -0.0112919551 -0.1127087684 0.0001365913 3.99911e-05 3.11735e-05 0.0001255535 -0.163030689 0.82889669
680295920.0 -0.0132079146 -0.1126514971 -7.44797e-05 8.72834e-05 5.41531e-05 -0.0002469859 -0.1550426306 0.8310342791
685295890.0 -0.0145856069 -0.1122329414 0.0001633167 -4.01015e-05 0.0002434797 -0.0001194569 -0.1459975425 0.8316539766
690295860.0 -0.0161080321 -0.1117426204 0.0001322567 4.5357e-05 -3.948e-06 -0.0001271542 -0.1376150523 0.8334091197
695295830.0 -0.0179173379 -0.111688667 -5.97749e-05 0.0001917719 -3.11023e-05 6.6253e-05 -0.1290151053 0.8346721361
700295800.0 -0.0193630687 -0.1112530528 0.0001977402 -0.0001316478 -9.16089e-05 -0.0001259902 -0.1216265236 0.8361410911
705295770.0 -0.0212529554 -0.1108383092 0.0001334842 2.88487e-05 0.0001006228 0.0002533422 -0.1129516965 0.8379000023
710295740.0 -0.0228803484 -0.1105307029 8.3196e-05 0.0001445413 8.6098e-05 0.0001406194 -0.1043671575 0.8382841593
715295710.0 -0.0243453644 -0.1101975596 0.000126622 -4.79329e-05 0.0001687807 -0.0002278031 -0.0960314921 0.8393222228
720295680.0 -0.026076347 -0.1096016476 -0.0001831056 2.15053e-05 0.0002583889 -9.48267e-05 -0.0876802005 0.8405307371
725295650.0 -0.0276686253 -0.1091361668 0.0001255151 1.41417e-05 -7.98677e-05 -0.0001078148 -0.0794765206 0.8421392263
730295620.0 -0.0292115326 -0.108456456 1.1248e-06 -9.51349e-05 0.000288642 0.0001825791 -0.0722092104 0.8421744334
735295590.0 -0.0309421083 -0.1079932299 0.0001273756 -0.0001479055 0.0001150409 -3.43132e-05 -0.0631287441 0.8424574257
740295560.0 -0.0327807642 -0.1074532474 0.0001076038 -5.81017e-05 0.0002328628 3.2208e-05 -0.0542735995 0.8439839113
745295530.0 -0.0343857314 -0.1072497114 0.0001592107 -0.0001956542 0.0002653261 3.4396e-06 -0.045465207 0.8436344977
750295500.0 -0.0356500772 -0.1066261193 0.0003168676 3.9656e-05 0.0002470799 -0.0001635058 -0.0376892781 0.8439812884
755295470.0 -0.0374252985 -0.1059464068 0.000181876 6.9685e-05 0.000209946 0.0001010358 -0.0289271159 0.8434758276
760295440.0 -0.0388798899 -0.1053385902 0.0001463427 -4.68759e-05 0.0001826847 0.0001661786 -0.0204127484 0.8443456997
765295410.0 -0.039948943 -0.1046259652 -1.09538e-05 6.65634e-05 5.90967e-05 -1.03864e-05 -0.0123126914 0.84496012
770295380.0 -0.0419714637 -0.1039943485 9.4611e-05 -0.0001232609 0.0003811586 5.1826e-06 -0.0039399842 0.8443392904
775295350.0 -0.043821376 -0.1034827718 -6.14198e-05 -4.71601e-05 0.0002552921 -0.0001005869 0.0039629748 0.8440580066
780295320.0 -0.0451860717 -0.1024965097 0.0001127577 -0.0001580051 0.0003425905 7.7508e-06 0.0125725784 0.8444172141
785295290.0 -0.0467895599 -0.102382398 7.97416e-05 -0.0002383022 6.75192e-05 -2.72928e-05 0.0209112677 0.8437594726
790295260.0 -0.0478742819 -0.1010277771 0.0004352771 -7.68324e-05 0.000276377 -0.0002050797 0.0304513546 0.8442566148
795295230.0 -0.0496936988 -0.1005965027 0.0003183458 -0.0001711146 -0.0001030802 0.0002328443 0.0389945892 0.8425972339
800295200.0 -0.0511859759 -0.0998538925 -0.0001812141 -4.39031e-05 0.0002335593 4.17627e-05 0.0471780205 0.8427071489
805295170.0 -0.0525118697 -0.0992882273 0.0002221884 0.0001150795 -7.77792e-05 3.58007e-05 0.0550152259 0.842526726
810295140.0 -0.053908307 -0.0984741569 0.0003262035 -4.67424e-05 0.0003165747 -0.0001307723 0.063545382 0.8414995595
815295110.0 -0.0558068167 -0.0975761528 0.0002145442 4.40107e-05 5.51346e-05 8.18247e-05 0.072171144 0.8404876752
820295080.0 -0.0570390346 -0.0964714635 0.0002002352 0.0001071293 0.0001073318 -0.0001414451 0.0805373616 0.8405376888
825295050.0 -0.0583240229 -0.0957488595 0.0001743361 3.36388e-05 0.000302358 -1.23692e-05 0.0885850526 0.839353752
830295020.0 -0.0597733869 -0.0946786892 -2.39416e-05 -0.0001619719 0.0001269008 0.0001004587 0.0974817117 0.8388638605
835294990.0 -0.0614252597 -0.0936535719 0.0002969983 -8.26001e-05 -3.10711e-05 -0.0001243341 0.1052733609 0.8372999766
840294960.0 -0.0627737473 -0.0927658429 0.0001560533 4.84209e-05 0.0002083654 -0.0002003116 0.1142885655 0.8358094583
845294930.0 -0.0642274869 -0.0920189451 0.0001893232 -5.10974e-05 0.0002457152 -0.0001188669 0.1218495295 0.834994226
850294900.0 -0.0650529294 -0.090791729 9.5972e-06 -8.93599e-05 0.0001122673 5.2919e-06 0.1302541765 0.8336838888
