!Created with skrf (http://scikit-rf.org).
# Hz S RI R 50.0 
!freq ReS11 ImS11 ReS21 ImS21 ReS12 ImS12 ReS22 ImS22
300000.0 -0.777778218 -0.1329942872 -0.0006264927 0.000561491 -1.83656e-05 0.0003697051 0.8595149054 -0.0027458071
5299970.0 -0.785092109 -0.0067732444 0.0002109309 -7.70842e-05 1.73814e-05 -1.05585e-05 0.8597769015 -0.0101395538
10299940.0 -0.7879770088 -0.004517932 -3.7714e-06 1.42524e-05 -0.0001309994 -9.10154e-05 0.8587814524 -0.0190295049
15299910.0 -0.7931105503 -0.0024951682 8.35568e-05 -0.0001291718 -0.0001464897 -7.09661e-05 0.8574155552 -0.0271196375
20299880.0 -0.8003363835 0.0017964938 7.58917e-05 -0.0001760976 -4.0762e-05 -0.0001119429 0.8571617755 -0.0357555692
25299850.0 -0.8062479984 0.0076005056 -3.8566e-05 -1.40373e-05 0.0001436846 0.000143928 0.8565571861 -0.0434147707
30299820.0 -0.8124174986 0.0150398582 4.0151e-06 -0.0001760097 7.07572e-05 1.30377e-05 0.8553290033 -0.052440506
35299790.0 -0.8173518673 0.0242629181 -3.11698e-05 -0.0001134706 7.65015e-05 2.84898e-05 0.8545357204 -0.0595727285
40299760.0 -0.821713374 0.0340462979 0.0001973608 -0.0001015742 2.61894e-05 1.10958e-05 0.8534533393 -0.0679726598
45299730.0 -0.8244545782 0.0424900571 9.67106e-05 8.67476e-05 2.98723e-05 6.75763e-05 0.8527789169 -0.0760797536
50299700.0 -0.8273258705 0.0530664695 -8.91279e-05 -7.93606e-05 -4.82226e-05 8.89453e-05 0.8517244049 -0.0843620609
55299670.0 -0.8291157896 0.0631887926 0.0001272885 8.90337e-05 7.61159e-05 -0.0001702197 0.8506423831 -0.09276747
60299640.0 -0.8305076216 0.0727953237 0.0001592028 8.5044e-06 0.0001759768 5.12941e-05 0.850063374 -0.1007756817
65299610.0 -0.8311741755 0.0833456091 -4.95737e-05 0.0002914438 2.63186e-05 8.33593e-05 0.8490557241 -0.1088649011
70299580.0 -0.8315170838 0.0933790305 9.86646e-05 -7.16299e-05 8.32982e-05 -9.311e-06 0.8474431998 -0.1166955184
75299550.0 -0.831999243 0.1037789063 1.20301e-05 0.0002149312 -6.9104e-06 7.33604e-05 0.8460980526 -0.1257950355
80299520.0 -0.831682932 0.1133606926 2.6009e-06 0.0001737802 6.57515e-05 5.38748e-05 0.8449785137 -0.1337557169
85299490.0 -0.8312451712 0.1223198992 5.4005e-05 -2.31187e-05 6.44023e-05 -0.0001321999 0.843846257 -0.1416472564
90299460.0 -0.8303367042 0.1321975846 -8.02839e-05 0.0001252 8.85721e-05 4.70082e-05 0.842204849 -0.1500332281
95299430.0 -0.8291950467 0.1417348638 0.0001209069 5.3447e-05 0.0001239784 9.8797e-06 0.8403933032 -0.1579010353
100299400.0 -0.8281711319 0.150806659 -1.09965e-05 0.0001237406 -0.0001684961 0.0001877668 0.8394698442 -0.1663956456
105299370.0 -0.8272259754 0.1601217631 9.38323e-05 -0.0001101375 3.43926e-05 2.14106e-05 0.8378564979 -0.1751550981
110299340.0 -0.8255960733 0.1692088807 -5.31036e-05 -2.26936e-05 0.0001039804 -8.54341e-05 0.835711276 -0.1828325912
115299310.0 -0.8235383747 0.1784627676 5.89743e-05 -0.0001529585 -6.70055e-05 0.0001008183 0.8341630099 -0.1908675322
120299280.0 -0.8216756804 0.1868345755 -4.5258e-05 -0.0001173097 -0.0001489223 -2.2594e-06 0.8321890548 -0.198550993
125299250.0 -0.8202727628 0.1958650297 -6.02811e-05 -0.0001429262 8.6479e-05 0.0001496039 0.8301083795 -0.2067007037
130299220.0 -0.8188350348 0.2056619678 0.000140176 -0.0001696699 5.94815e-05 -0.0002036999 0.828629413 -0.2151493684
135299190.0 -0.8166078414 0.2137696177 0.0001507799 -0.000160625 5.8322e-06 -0.0001829926 0.8264994758 -0.2227706901
140299160.0 -0.8152451593 0.2231341439 7.98598e-05 -2.428e-05 -0.0001517307 -7.86076e-05 0.8239177635 -0.2304287707
145299130.0 -0.8129876846 0.2317101945 8.09871e-05 -8.93019e-05 -8.29243e-05 -7.1217e-06 0.8220901787 -0.2385773676
150299100.0 -0.8103278176 0.2405400613 -4.96547e-05 2.57083e-05 -5.77606e-05 -0.0001336983 0.8195371551 -0.2468280448
155299070.0 -0.8074237404 0.2494479588 -0.0001642069 -6.48409e-05 0.0001140545 3.97633e-05 0.8177375934 -0.2542658059
160299040.0 -0.8048659631 0.2580007253 -8.90337e-05 -0.0001962776 -9.57129e-05 1.40947e-05 0.8146430372 -0.262227793
165299010.0 -0.8029968263 0.266407207 7.70772e-05 0.000142966 -4.87068e-05 -4.84746e-05 0.8115322139 -0.2705906429
170298980.0 -0.8001439498 0.2752573614 -0.0001109379 4.10095e-05 -9.30606e-05 6.03975e-05 0.8094173159 -0.2773938233
175298950.0 -0.7974320729 0.2844591816 2.18413e-05 3.2992e-05 0.0001060053 0.0001286867 0.8068789939 -0.2856915419
180298920.0 -0.7948246003 0.2931102518 3.12917e-05 -7.6892e-05 0.0001092269 7.45152e-05 0.8035788279 -0.2940321968
185298890.0 -0.7913132708 0.3007873466 1.296e-07 -7.99018e-05 -0.0001148815 0.0001280174 0.8004730416 -0.3016218451
190298860.0 -0.7885327001 0.3093779056 8.38742e-05 -0.0001330812 -0.0001787454 -6.84763e-05 0.7976902917 -0.3088076204
195298830.0 -0.7852689798 0.3181033519 3.03176e-05 0.0001218836 -3.25295e-05 -6.41673e-05 0.7946734183 -0.3163074934
200298800.0 -0.7810628586 0.3255967595 -4.94305e-05 4.36898e-05 -4.92298e-05 -0.0001658636 0.7911543174 -0.3245677135
205298770.0 -0.7786954928 0.3338714829 0.000288578 8.06657e-05 9.26215e-05 -0.0002671004 0.7877988204 -0.3318128609
210298740.0 -0.7748457433 0.3422460267 -0.0002047812 7.8332e-06 0.0001902404 1.14218e-05 0.7841345565 -0.3391234792
215298710.0 -0.772225434 0.3505702957 2.2479e-06 0.0001512757 0.0001260921 -2.73996e-05 0.7811782271 -0.3468570399
220298680.0 -0.7671678374 0.358681352 -9.16752e-05 -9.69031e-05 -8.72796e-05 0.0001719783 0.777341649 -0.3541563425
225298650.0 -0.7642322945 0.3663190676 3.62605e-05 9.59e-06 1.09781e-05 9.65733e-05 0.7739796706 -0.3617317028
230298620.0 -0.76041107 0.3747033388 -0.0001411072 3.1274e-06 -0.0001499117 3.6483e-06 0.7701804408 -0.369242224
235298590.0 -0.7562590669 0.3826993423 -5.19391e-05 -0.0001388983 0.0002577838 1.60278e-05 0.7663141984 -0.3767605923
240298560.0 -0.7520607088 0.3911675698 9.95461e-05 0.0002487438 -4.5551e-06 0.0001515859 0.7632070539 -0.3848469624
245298530.0 -0.7485640055 0.3987611168 0.0001630728 -8.99747e-05 3.46717e-05 -0.0001573451 0.7594659712 -0.3920825184
250298500.0 -0.7440362251 0.4067782149 -9.09835e-05 -0.0001245515 1.5177e-06 -0.0001515087 0.7549951995 -0.3990454943
255298470.0 -0.7396961956 0.4138617576 2.99381e-05 3.61918e-05 -7.93587e-05 -3.87622e-05 0.7517397864 -0.406976052
260298440.0 -0.7358669645 0.4212862636 -0.0001159996 -8.26559e-05 -8.33533e-05 -9.95083e-05 0.7477861259 -0.4133428049
265298410.0 -0.7317201063 0.4300596592 0.0001067602 -2.91367e-05 -3.71777e-05 -0.0001366265 0.7436255953 -0.4211402285
270298380.0 -0.7266734229 0.4373867945 6.9126e-06 0.0001824863 5.21089e-05 -6.72934e-05 0.7395075117 -0.4280691578
275298350.0 -0.7219204544 0.4447310298 0.000124192 -1.758e-06 -7.89197e-05 0.0001646198 0.735785293 -0.4352860779
280298320.0 -0.7171544473 0.4520988347 -0.0001691516 -6.45984e-05 6.47924e-05 -0.0001887028 0.7315938668 -0.4428077688
285298290.0 -0.7130836341 0.4597898024 -9.45107e-05 9.6542e-06 -0.0001605469 -1.64036e-05 0.7276838753 -0.4498184183
290298260.0 -0.7081426538 0.4673431852 -2.35982e-05 -4.34051e-05 -5.20953e-05 -0.0002793997 0.7236039437 -0.4569740964
295298230.0 -0.7023123593 0.4742458755 -8.496e-05 4.71569e-05 0.0001990404 8.81336e-05 0.7197835891 -0.4639078976
300298200.0 -0.6977447807 0.4814497324 -0.0002359865 -2.10732e-05 0.0001395054 -4.55951e-05 0.7154322862 -0.4716258089
305298170.0 -0.6925443087 0.4882846262 -0.0003718129 -3.32314e-05 0.0001004026 -0.0001646223 0.7115057566 -0.4792548448
310298140.0 -0.6876023605 0.4963321719 6.85931e-05 0.0001720844 3.26314e-05 -9.45801e-05 0.706124281 -0.4867281542
315298110.0 -0.6827198119 0.5032695285 4.88885e-05 -0.0001192762 -0.0002146176 0.0001448113 0.7010162705 -0.4940362646
320298080.0 -0.6774140974 0.51012518 0.0002197519 0.0001374704 4.31586e-05 6.74826e-05 0.6961751629 -0.5015643208
325298050.0 -0.6721376821 0.5171405114 -0.0001467795 -0.0002241042 -0.0001168565 -2.901e-06 0.6903882953 -0.5088402913
330298020.0 -0.6664405628 0.5238008935 6.53595e-05 0.0001244888 -8.6649e-06 -1.22119e-05 0.6839593053 -0.5150579746
335297990.0 -0.6605397783 0.5301212175 5.13836e-05 -6.1276e-05 0.00011717 -0.0001057716 0.6788810617 -0.5211354686
340297960.0 -0.6563978546 0.5378093907 -3.2967e-05 -6.79379e-05 -0.0001078928 -0.0001094071 0.6737302342 -0.5272675557
345297930.0 -0.6501992595 0.5441597885 6.0364e-06 -0.0001344914 2.49834e-05 -7.79658e-05 0.6676413439 -0.5342034802
350297900.0 -0.6447651135 0.5509244141 9.34792e-05 -8.85286e-05 4.79336e-05 -9.7895e-06 0.6623231628 -0.5392018357
355297870.0 -0.6378985675 0.5584569252 1.3152e-06 0.0001215679 -0.0001025948 0.000169475 0.6569392795 -0.545951163
360297840.0 -0.6324464287 0.56382982 -0.0001157387 -3.51351e-05 0.0001094566 0.0002006654 0.6516695516 -0.5525839602
365297810.0 -0.6273936751 0.5709282252 5.26369e-05 2.13933e-05 -0.000104127 0.000214102 0.6464250889 -0.5586507839
370297780.0 -0.6210468486 0.5767252159 6.00904e-05 1.53154e-05 -4.88398e-05 2.63355e-05 0.6408411288 -0.563959674
375297750.0 -0.6151935821 0.5832366483 -9.14584e-05 -0.0001237596 -0.0001645566 -0.0001194996 0.635113314 -0.5699999822
380297720.0 -0.6088177845 0.589324704 -3.67747e-05 -0.0001426525 0.0001612328 -0.0001465266 0.6284099328 -0.5762453076
385297690.0 -0.6033523745 0.5955599458 -0.000434928 0.0001436974 0.0001138403 0.0001894212 0.623293563 -0.5822505827
390297660.0 -0.5969543845 0.6012998965 1.88937e-05 0.0001796957 -0.0002111796 -0.0003529883 0.6168179144 -0.5880203199
395297630.0 -0.5904055024 0.608234181 0.0001394475 -0.0001951009 0.00016095 0.0001138787 0.6113129088 -0.5939713032
400297600.0 -0.5844400995 0.6138169149 -0.0003065452 -9.94717e-05 9.68834e-05 -1.601e-07 0.6056710685 -0.5991639358
405297570.0 -0.5780685056 0.6196320333 -0.0001279704 0.0002416187 -0.0002034104 -0.0001327952 0.5998318027 -0.6053058513
410297540.0 -0.5712635862 0.6255421388 0.0001237401 -0.0003277211 -0.0001455728 -6.55786e-05 0.593798988 -0.6115585437
415297510.0 -0.5645568334 0.6308563929 -7.04948e-05 -5.439e-05 -0.0001907482 -8.49882e-05 0.5873917243 -0.6170119643
420297480.0 -0.5587729957 0.6370705783 0.000276252 -0.0001308426 -4.6291e-06 -7.56473e-05 0.5818565208 -0.6223854742
425297450.0 -0.5517645952 0.6423045791 0.0001267103 6.1706e-06 -0.0001563584 -9.7855e-06 0.5756011881 -0.6283659743
430297420.0 -0.5452261031 0.6480652179 0.0003524161 0.000113016 1.53115e-05 4.76752e-05 0.5691896869 -0.6341809261
435297390.0 -0.5388474739 0.6533140672 -5.83232e-05 -0.0001407189 0.0001215549 8.77359e-05 0.5630642875 -0.6397638949
440297360.0 -0.5317624196 0.6588304243 -5.7108e-05 5.08212e-05 4.1966e-06 0.0001796897 0.5564856135 -0.6452441318
445297330.0 -0.5251823453 0.6643456472 5.53827e-05 -1.10283e-05 -2.83066e-05 -7.21349e-05 0.551054987 -0.6509739321
450297300.0 -0.5184581453 0.6691682416 8.38791e-05 2.82951e-05 -1.85547e-05 -0.0001723371 0.5442342637 -0.6556105499
455297270.0 -0.5115228148 0.674091253 3.7255e-06 -1.99668e-05 0.0001354324 -6.0882e-05 0.5375563613 -0.6613240197
460297240.0 -0.5051331743 0.6789700815 -0.0002373351 6.72718e-05 -4.06133e-05 0.0001106944 0.5308045468 -0.6666653253
465297210.0 -0.4981694316 0.6848497192 -7.97024e-05 -1.24955e-05 -0.0001741131 2.90028e-05 0.524531654 -0.6710994084
470297180.0 -0.4901221116 0.6898465278 -2.01722e-05 6.52672e-05 -5.7388e-06 -0.0001953902 0.5177721884 -0.6759313555
475297150.0 -0.4837636738 0.6942044727 -2.77655e-05 7.76546e-05 4.90843e-05 8.95376e-05 0.5110159038 -0.6814864771
480297120.0 -0.4763746423 0.6992281635 -0.0001332746 -3.81639e-05 9.21019e-05 -1.21667e-05 0.504861429 -0.6857309103
485297090.0 -0.4692797448 0.7039848645 -4.09309e-05 -5.46886e-05 7.68406e-05 8.63163e-05 0.4983079346 -0.6910849254
490297060.0 -0.4623400145 0.7085326428 9.35882e-05 -0.0002188338 7.04697e-05 -0.0001463752 0.4908558598 -0.6959039054
495297030.0 -0.4548491201 0.7132977127 7.0775e-06 5.13906e-05 0.0002621948 -0.0001013313 0.4837285651 -0.6998590499
500297000.0 -0.447760226 0.7182350827 4.4633e-06 0.0002041789 1.56651e-05 -7.25868e-05 0.4773568965 -0.7049012442
505296970.0 -0.4399150585 0.7225097292 -8.0221e-06 6.54554e-05 2.9066e-05 -3.17887e-05 0.4702435178 -0.7092509432
510296940.0 -0.4332922632 0.7263878736 -0.000221053 -6.0765e-06 0.0001370684 -5.03932e-05 0.4629595252 -0.7141563526
515296910.0 -0.4247610602 0.7306704916 -5.93779e-05 -0.0001786443 -4.22272e-05 -1.78814e-05 0.4564300956 -0.7179340636
520296880.0 -0.4183386706 0.7355057603 1.71398e-05 2.11747e-05 -0.0002228524 -4.5117e-05 0.4487150478 -0.7232879392
525296850.0 -0.4100987938 0.7391622783 -1.16349e-05 4.39122e-05 -8.2453e-05 0.0001024689 0.4417950381 -0.7266263895
530296820.0 -0.4030053563 0.7435429702 0.0002153633 -0.0001149662 -5.46823e-05 6.71374e-05 0.4350509356 -0.7306469174
535296790.0 -0.3958320913 0.7467405924 0.0001103509 3.3825e-05 4.1915e-06 7.53702e-05 0.4275696607 -0.7352979135
540296760.0 -0.3884356709 0.75077912 -6.5364e-06 -6.91373e-05 5.13251e-05 -8.7903e-06 0.4200755097 -0.7385953143
545296730.0 -0.3808395122 0.7550642514 -0.0003786636 -4.22968e-05 -5.57568e-05 6.63131e-05 0.4129994007 -0.7430727737
550296700.0 -0.3734611809 0.7589376503 -9.66978e-05 0.0002570953 -9.8396e-06 9.1339e-05 0.4055175443 -0.747603604
555296670.0 -0.3649515471 0.7613973055 -0.0001668147 -8.45689e-05 -7.30346e-05 -9.98026e-05 0.3980525788 -0.7508428333
560296640.0 -0.3576400394 0.766236758 -9.7057e-06 -0.0001253576 -1.59789e-05 -9.87722e-05 0.389840392 -0.7537754908
565296610.0 -0.3497699052 0.7696640711 4.4796e-05 0.0001942069 -0.0001318141 1.3702e-06 0.3824519265 -0.7579267578
570296580.0 -0.3421840218 0.7721003397 -6.07367e-05 -7.65166e-05 5.3656e-06 6.23013e-05 0.3750368028 -0.7613841326
575296550.0 -0.3346171375 0.7767029958 -9.4138e-05 -5.49641e-05 7.20243e-05 -6.82573e-05 0.367807348 -0.7646298758
580296520.0 -0.3262355319 0.7794852979 -0.0001058788 -0.0001628363 1.21508e-05 -0.0001722953 0.3607462038 -0.7688354565
585296490.0 -0.3186604206 0.7826248927 -0.0002122258 -2.81684e-05 0.0001716829 9.10216e-05 0.3528440364 -0.7724172332
590296460.0 -0.3106051871 0.7856639935 -9.31014e-05 -3.35784e-05 4.04422e-05 0.000148803 0.3447868584 -0.7751068444
595296430.0 -0.3028108339 0.7885504395 3.36144e-05 3.43104e-05 -0.0001488162 9.91837e-05 0.3373679775 -0.7788770402
600296400.0 -0.2950254879 0.7923245641 -3.58821e-05 0.0001046163 0.0001395861 -7.4338e-06 0.3300001747 -0.7824662452
605296370.0 -0.2874485609 0.794847825 0.000178794 -7.94484e-05 2.09401e-05 0.0001078751 0.3217374345 -0.7850556964
610296340.0 -0.2790995956 0.7973712873 6.22307e-05 9.13599e-05 -4.93539e-05 0.0001123244 0.3143578957 -0.7880763058
615296310.0 -0.2703366956 0.8003433371 -0.000193821 -0.0002220076 -4.1445e-06 0.0002036003 0.3061969217 -0.7912899434
620296280.0 -0.2629295677 0.8026246885 3.26927e-05 0.0002748749 0.0001148552 -0.0002081728 0.2988660722 -0.7946479987
625296250.0 -0.2552166624 0.805277829 -0.000127005 0.0002396316 -7.50582e-05 -0.0001151519 0.2907395622 -0.7972719568
630296220.0 -0.2460550299 0.8078584001 0.0002131197 -4.74494e-05 -8.53253e-05 -0.0002518431 0.2826914543 -0.7996121851
635296190.0 -0.2391405422 0.8103593843 0.0001379153 -0.0002787396 -0.0002177215 3.65166e-05 0.2757871843 -0.8021691227
640296160.0 -0.2311765683 0.8123470255 -0.0001341449 -2.56297e-05 -3.67468e-05 2.73873e-05 0.2670982473 -0.8054386624
645296130.0 -0.222894313 0.8149466011 -9.09314e-05 -0.0001119257 0.000171224 -0.0001401049 0.2589386711 -0.8069643719
650296100.0 -0.2146346043 0.8168344134 -2.81591e-05 -0.0001493403 -0.0002112077 -7.01319e-05 0.2521251516 -0.8108660906
655296070.0 -0.2063794858 0.819251746 3.48528e-05 5.2569e-05 -5.87436e-05 -2.06605e-05 0.2440853232 -0.8120631973
660296040.0 -0.1978220029 0.8202400215 -6.8137e-05 6.71115e-05 0.0001362062 -1.4312e-05 0.2363412023 -0.8149562867
665296010.0 -0.1900365024 0.8220565986 -0.0001314592 6.25473e-05 -0.0001047543 -1.29346e-05 0.2273694615 -0.816645758
670295980.0 -0.1821343731 0.824475994 -0.0001260383 -0.0001729119 -5.90346e-05 0.0001474977 0.2193107291 -0.818981195
675295950.0 -0.1733837737 0.825870082 0.0001042923 -2.60324e-05 -0.0001150126 -0.0001609053 0.210740212 -0.8204001594
680295920.0 -0.1653752921 0.82800132 -8.43558e-05 -0.0001461904 2.05267e-05 0.0001305937 0.2034459571 -0.8219714826
685295890.0 -0.1567459495 0.8302324494 6.0589e-05 9.88398e-05 -0.0001199196 -0.0001401311 0.1949119137 -0.8240351385
690295860.0 -0.1488553309 0.8308469275 -5.10599e-05 9.16418e-05 -6.88358e-05 1.66532e-05 0.1864825155 -0.8254431068
695295830.0 -0.1408911116 0.8323270917 -3.71394e-05 0.0001131098 2.66459e-05 4.91346e-05 0.1785652921 -0.8273035398
700295800.0 -0.1317135325 0.8334540469 0.0001225169 9.8067e-05 7.1062e-05 0.0002438698 0.1704603459 -0.8293943843
705295770.0 -0.1236264502 0.8353239437 7.02649e-05 -0.0001387115 5.01836e-05 0.0001109269 0.1614742272 -0.8294381294
710295740.0 -0.1159269497 0.8360852929 -6.31592e-05 6.09596e-05 0.0001499064 -0.0002345237 0.1535597479 -0.8315511054
715295710.0 -0.1074491956 0.8374845014 -3.76267e-05 7.5383e-06 -0.0001542499 0.0002092687 0.145213617 -0.8326988582
720295680.0 -0.0988810399 0.8384373476 4.74176e-05 2.73891e-05 -5.83315e-05 2.38211e-05 0.137078087 -0.8343397941
725295650.0 -0.0911272166 0.8393287964 -0.0001493345 3.36189e-05 9.17308e-05 -4.73781e-05 0.1287345072 -0.8348200658
730295620.0 -0.0821567117 0.8405356969 3.6457e-05 0.0001340346 -8.31245e-05 0.0003676883 0.1196213146 -0.8363846786
735295590.0 -0.0741445976 0.8413482407 7.87075e-05 -3.19354e-05 -9.28216e-05 -0.0001220133 0.111987936 -0.8381075706
740295560.0 -0.0657157732 0.842445451 0.0001285301 3.60468e-05 -1.67638e-05 -1.5465e-05 0.1036073661 -0.837851475
745295530.0 -0.0576582158 0.8423549761 -0.0001692164 0.0002066848 -0.0001416407 2.9847e-06 0.0959649449 -0.8387335284
750295500.0 -0.0489621753 0.8430752821 -9.6098e-06 8.9661e-05 4.37693e-05 5.6821e-05 0.0868044834 -0.8395389365
755295470.0 -0.040920338 0.8434651442 0.0001531812 4.18841e-05 -5.77313e-05 -0.0001168776 0.0794286892 -0.841064591
760295440.0 -0.0324438087 0.8431857188 8.7986e-05 4.71764e-05 5.60931e-05 9.4534e-06 0.0703600169 -0.8418942737
765295410.0 -0.0242754005 0.8443483688 0.000127894 0.0001291789 6.43044e-05 0.000206672 0.0622246978 -0.8420757865
770295380.0 -0.0159397276 0.8446340952 3.53362e-05 -1.94507e-05 -0.000154754 3.09757e-05 0.0536925436 -0.8432092551
775295350.0 -0.00817905 0.8440434072 -5.94512e-05 -0.0001998445 7.3919e-06 0.0001991515 0.0449228766 -0.8430299069
780295320.0 0.0007520029 0.8439930192 0.0001500059 3.09752e-05 -0.0001721892 -2.51612e-05 0.0370748864 -0.8435553777
785295290.0 0.0088926578 0.8439468764 -4.31216e-05 -0.0001601527 -0.000441211 -4.27924e-05 0.0285647437 -0.8435211686
790295260.0 0.0181464393 0.844089674 -4.14677e-05 -0.0001379992 0.0001017367 3.58667e-05 0.0212722384 -0.8440769462
795295230.0 0.0256014908 0.8440692841 1.259e-07 -5.40572e-05 -8.1276e-06 0.0001998174 0.0126744451 -0.8440651542
800295200.0 0.0341219651 0.8434978196 5.18734e-05 -0.0001672597 -3.44057e-05 -8.32015e-05 0.0036000045 -0.8436875461
805295170.0 0.0429010819 0.8431776959 -5.50225e-05 0.0001497789 0.0002006173 7.38468e-05 -0.0045122799 -0.8436173647
810295140.0 0.0508763119 0.8423686384 -4.01865e-05 -0.000236614 4.51395e-05 -0.0001667654 -0.0121531714 -0.8434316716
815295110.0 0.0593737253 0.8415086271 0.0001363456 5.61642e-05 5.19676e-05 3.57235e-05 -0.0210334926 -0.8434765742
820295080.0 0.0672244178 0.8413139073 0.000193159 1.98788e-05 0.0001548936 -6.40642e-05 -0.0292220526 -0.8429102203
825295050.0 0.0762188457 0.8402830133 -1.43286e-05 8.27336e-05 0.000275228 8.49157e-05 -0.0371601017 -0.842627724
830295020.0 0.0834923727 0.839635651 5.66498e-05 0.0001003352 -3.17538e-05 0.0001532455 -0.045663218 -0.8415664277
835294990.0 0.0920996467 0.8387310312 9.53168e-05 0.0001401203 0.0002981587 5.21893e-05 -0.0540818049 -0.8415687099
840294960.0 0.0999067153 0.8387265642 0.0001127122 -4.94329e-05 -2.07686e-05 -0.00015653 -0.0623030885 -0.8401985931
845294930.0 0.1085904982 0.8360655053 -0.0001523753 7.61536e-05 0.0002218078 3.29044e-05 -0.070597419 -0.8391540187
850294900.0 0.1164422699 0.8359530864 -2.11288e-05 -8.34953e-05 -0.0002144403 -0.0002072507 -0.0793549435 -0.8381042859
