!Created with skrf (http://scikit-rf.org).
# Hz S RI R 50.0 
!freq ReS11 ImS11 ReS21 ImS21 ReS12 ImS12 ReS22 ImS22
300000.0 -0.1015195 -0.0703528784 0.6310861722 0.0641472896 0.623793482 0.066507328 -0.1011506573 -0.0766130873
5299970.0 -0.1019315372 0.0129980693 0.6302871469 0.0102157762 0.6305629445 0.0103275737 -0.1005717746 0.0130876684
10299940.0 -0.0970741459 0.0292785246 0.6338206696 0.0152572217 0.6339479209 0.0158264356 -0.0953665652 0.030183728
15299910.0 -0.0897366051 0.042541529 0.6405229999 0.0203135684 0.6403112679 0.0205083015 -0.0883107779 0.0435968707
20299880.0 -0.0814847312 0.0529360899 0.6482772516 0.0244324221 0.6482860498 0.023875512 -0.0793293281 0.0546102131
25299850.0 -0.0720510926 0.0623582033 0.657752962 0.0249386149 0.6575176356 0.0254033138 -0.0695715648 0.0634350277
30299820.0 -0.0620974948 0.0689268464 0.6672010465 0.024233988 0.6669821445 0.0245582361 -0.0595281986 0.0701654284
35299790.0 -0.0524599919 0.0737296111 0.6768547223 0.0213532545 0.677312821 0.0214865655 -0.0494951453 0.0751808218
40299760.0 -0.0432103129 0.0771461331 0.6862256381 0.0171777247 0.686399267 0.0175424613 -0.0403451257 0.0777290848
45299730.0 -0.0342851748 0.0792993212 0.6952743712 0.0120332363 0.695226636 0.0120446102 -0.0312668613 0.0799912417
50299700.0 -0.0255631124 0.0802044393 0.7037179901 0.0045382954 0.7033956729 0.0054361302 -0.022575599 0.0808455354
55299670.0 -0.0175132289 0.0804869914 0.7108137267 -0.0035391377 0.7104970556 -0.0027101653 -0.0147424582 0.0807230372
60299640.0 -0.0101357414 0.0800003017 0.7170903006 -0.011649712 0.7177087751 -0.011405325 -0.0078644903 0.0794611598
65299610.0 -0.0037519821 0.0788970944 0.723282408 -0.0205989615 0.7232770891 -0.0200991295 -0.001183608 0.0785612562
70299580.0 0.002370692 0.0776588936 0.728544438 -0.0293361222 0.7281712083 -0.0291109822 0.0046345488 0.0768187428
75299550.0 0.0080602908 0.0759282584 0.7326065011 -0.0392640199 0.7325489743 -0.0389336241 0.0100177383 0.0747558783
80299520.0 0.0130366572 0.0737485664 0.7369299906 -0.0489617897 0.7371204696 -0.0490327017 0.0145486409 0.0726909724
85299490.0 0.0176951272 0.0713196799 0.7399741716 -0.0588473665 0.74041038 -0.0585841192 0.0190999595 0.070019584
90299460.0 0.0215943745 0.0689544514 0.742706305 -0.0694503606 0.7430523751 -0.0691214847 0.0233481194 0.0679170553
95299430.0 0.0256980799 0.0663570708 0.7454400836 -0.078929379 0.7456596183 -0.0793192652 0.0273586689 0.0653441009
100299400.0 0.0289656098 0.0647445231 0.7464514597 -0.0889718005 0.7467595507 -0.0893755909 0.030828614 0.0624214285
105299370.0 0.0321568601 0.0620759154 0.7485227867 -0.0999880338 0.7489409958 -0.0993555989 0.0342104517 0.0603591096
110299340.0 0.0350408894 0.0599114816 0.749808529 -0.1097314592 0.7493263631 -0.1089280437 0.036049924 0.0577449651
115299310.0 0.0374558732 0.0571208173 0.7506603007 -0.1194059254 0.7506211656 -0.1195017843 0.0390071467 0.0553539648
120299280.0 0.0397645 0.0546452734 0.7511028118 -0.1296322072 0.7510537605 -0.1294477762 0.041273192 0.0528068223
125299250.0 0.0418853322 0.0522072521 0.75145445 -0.1388539615 0.7512571022 -0.1389202917 0.0428019884 0.0501385923
130299220.0 0.0437037258 0.0502932162 0.7509199447 -0.1493289464 0.7512221225 -0.1493376947 0.0449785461 0.0480234129
135299190.0 0.0453881731 0.0483388727 0.751190982 -0.1592863384 0.7510851156 -0.158860808 0.046695459 0.0458415844
140299160.0 0.046962556 0.0464276252 0.7511047113 -0.1690299719 0.7506740937 -0.1690000317 0.0479963625 0.0441225895
145299130.0 0.0484619162 0.0436883369 0.7498312649 -0.1785957676 0.7494843514 -0.1783150838 0.0495786007 0.0419731963
150299100.0 0.0500175139 0.0421511673 0.7486160115 -0.1872812049 0.7485838221 -0.1882833673 0.0509552233 0.0399439103
155299070.0 0.0505905732 0.0397594645 0.7478361553 -0.1981207828 0.7471895153 -0.1981674791 0.0520365896 0.0380744127
160299040.0 0.0519635884 0.0379257196 0.7460188935 -0.2068899861 0.7458497319 -0.20756077 0.052380589 0.0360324607
165299010.0 0.0527328167 0.0362727742 0.7438979667 -0.2171502383 0.7444445417 -0.2171868849 0.0537271083 0.0349518646
170298980.0 0.053560013 0.0337338791 0.742713862 -0.226286471 0.7427943563 -0.2264242495 0.0544057204 0.0328148389
175298950.0 0.0541038046 0.0318603227 0.7410785283 -0.2352477048 0.740437374 -0.2356105338 0.0549915827 0.0311024876
180298920.0 0.0544703937 0.0305454792 0.7386071863 -0.2451353431 0.738310269 -0.2448547182 0.0557038909 0.0295179265
185298890.0 0.055606764 0.0285783712 0.7366738694 -0.254106409 0.7358259052 -0.2539985995 0.0562203683 0.0282811318
190298860.0 0.0553949695 0.0273195701 0.7342859163 -0.2630206383 0.7341533241 -0.2632928484 0.0565642711 0.0264871924
195298830.0 0.0562618492 0.0251205728 0.7316125337 -0.2722690073 0.7316877469 -0.2719976506 0.057495664 0.0251537316
200298800.0 0.0564547656 0.0241926515 0.7284089025 -0.2813160137 0.7286710134 -0.2809002458 0.0568312347 0.0238649335
205298770.0 0.0568046345 0.0225543785 0.7257139484 -0.2902648155 0.7257302833 -0.2898882878 0.057360836 0.021457149
210298740.0 0.0570464844 0.0205336659 0.7225689952 -0.2984839549 0.7223289096 -0.2979056124 0.0579506352 0.0214518177
215298710.0 0.0569339003 0.0196061602 0.7201114101 -0.307599556 0.7197375271 -0.3077903026 0.0577862534 0.0197212037
220298680.0 0.0575828923 0.0177921108 0.7162617497 -0.3158697711 0.7165059391 -0.3159375858 0.0573293312 0.0180336984
225298650.0 0.057761204 0.0164461809 0.7135582417 -0.3249323777 0.7136586507 -0.3249137099 0.0574327254 0.0166927823
230298620.0 0.0577874928 0.0156240841 0.710843512 -0.3329790414 0.7106832369 -0.3332590085 0.0572709137 0.0152184734
235298590.0 0.0577199917 0.0148356689 0.7066610917 -0.3417525392 0.7063902922 -0.3411280226 0.0574258523 0.013933123
240298560.0 0.0577595638 0.0132394027 0.7034431368 -0.3502925661 0.7028993219 -0.3498737838 0.0576779278 0.0130499874
245298530.0 0.0577438137 0.0121148853 0.6997609861 -0.3586695398 0.6993305342 -0.3585782688 0.0580268573 0.0111659188
250298500.0 0.0583900658 0.0112680916 0.6951579117 -0.3669686812 0.6948088967 -0.3663266269 0.057771869 0.0104989504
255298470.0 0.0582656739 0.0093310841 0.6907506157 -0.37417924 0.6917262188 -0.3744465153 0.0579734727 0.0092129515
260298440.0 0.057804941 0.0082056269 0.687336817 -0.383440265 0.6872936786 -0.3825431107 0.0580854509 0.0079106499
265298410.0 0.0586378981 0.0077995458 0.6835587705 -0.3911260902 0.6835183769 -0.3904741359 0.0581656491 0.0067761478
270298380.0 0.0586225178 0.0063565551 0.6797542073 -0.3982779369 0.679607963 -0.3984328331 0.0578269936 0.0056760712
275298350.0 0.058887625 0.0051864363 0.6753650226 -0.4066904605 0.6750167172 -0.4069535245 0.0580118212 0.0041813248
280298320.0 0.0586694807 0.0044649377 0.6704236319 -0.4144476044 0.6703841517 -0.4142600781 0.0584020255 0.0033014074
285298290.0 0.0586750841 0.0028820391 0.6662375258 -0.4225472277 0.6660690751 -0.422500031 0.0583752793 0.0019351987
290298260.0 0.0591312949 0.0019414929 0.6617629649 -0.4296030599 0.6616102999 -0.4304306551 0.0585113569 0.0012805125
295298230.0 0.0590000902 0.0006683539 0.6571866683 -0.4376713252 0.6570983401 -0.4375313442 0.0591599237 0.0002428473
300298200.0 0.0584094767 -0.0004323763 0.652385754 -0.4448725293 0.6526793001 -0.4463710202 0.0587727121 -0.0011265273
305298170.0 0.0589546092 -0.0016771383 0.6475243646 -0.4538350467 0.6472091712 -0.4531348714 0.0595717489 -0.0024166699
310298140.0 0.0585265025 -0.0025191223 0.6426073482 -0.4606996113 0.6428854983 -0.4605929531 0.0594673536 -0.0035120157
315298110.0 0.0583962152 -0.0041146205 0.6377660917 -0.4688748878 0.6375445728 -0.4685388632 0.0590915663 -0.0046946678
320298080.0 0.0585361195 -0.0050794687 0.6320942469 -0.476450881 0.6327286869 -0.4761506013 0.0590013678 -0.0056415208
325298050.0 0.0579325875 -0.0063136564 0.6265644602 -0.4841982759 0.6269544642 -0.4837772832 0.0582970194 -0.0066098477
330298020.0 0.0574853187 -0.0077696704 0.6208538147 -0.4908862765 0.621620686 -0.4913705614 0.0579373203 -0.0078945871
335297990.0 0.0572051634 -0.009039051 0.6155282401 -0.4979876689 0.6152387987 -0.4981967632 0.0568495251 -0.0078477249
340297960.0 0.0562490474 -0.0092761493 0.6101114932 -0.5052536434 0.6091874189 -0.5053949465 0.0569499001 -0.0090043691
345297930.0 0.0556300218 -0.0093986521 0.6037083317 -0.5122492046 0.6036496728 -0.5122773265 0.0567290022 -0.0099796909
350297900.0 0.0551980762 -0.0111492618 0.5974599403 -0.5191240494 0.597572505 -0.5188066746 0.0556506492 -0.00996068
355297870.0 0.0552249274 -0.0107607658 0.5920894602 -0.525196433 0.5928326849 -0.5251956164 0.0555325813 -0.0107006737
360297840.0 0.0545413863 -0.0117632848 0.5873533921 -0.5317691516 0.5872852137 -0.531786703 0.055160358 -0.0110751146
365297810.0 0.0540861182 -0.0123802879 0.5801193169 -0.5382965316 0.580695883 -0.5384146653 0.0548839129 -0.0117093787
370297780.0 0.0541795534 -0.0133446936 0.5740168602 -0.5446431885 0.5744975022 -0.5443456405 0.0543708454 -0.0121789269
375297750.0 0.0537462864 -0.0139573615 0.5684550088 -0.5514616093 0.5689472574 -0.5513188001 0.0544731906 -0.0131438672
380297720.0 0.0535196549 -0.0143355306 0.5621634186 -0.5577214028 0.5625300422 -0.5570069275 0.0533598223 -0.0139230805
385297690.0 0.0528082926 -0.0152447209 0.5557359707 -0.5639941107 0.5559834063 -0.5632683487 0.0533939757 -0.0141379906
390297660.0 0.052630652 -0.0154248798 0.5498591135 -0.5703553006 0.5499527042 -0.5700358808 0.0526110163 -0.0151316022
395297630.0 0.0520022764 -0.0159422674 0.5436385015 -0.5761482426 0.5435894899 -0.5761914983 0.0529718317 -0.015553255
400297600.0 0.0517009262 -0.0166016349 0.5365336925 -0.5829042105 0.5370296705 -0.5822914641 0.0524643458 -0.0161010166
405297570.0 0.0511479553 -0.0174172433 0.5306886376 -0.5877629964 0.5307238629 -0.5874073438 0.0513919562 -0.0167789936
410297540.0 0.0515040187 -0.0180952904 0.5245090245 -0.5945097537 0.5250640894 -0.5941776983 0.0506912744 -0.0169582359
415297510.0 0.0512170704 -0.0188352055 0.5172064699 -0.599818265 0.5182260681 -0.5999726423 0.0510697821 -0.0179942614
420297480.0 0.0506461596 -0.0189823226 0.5105239012 -0.6056013735 0.5108837655 -0.606162825 0.0503201298 -0.0188331956
425297450.0 0.050093305 -0.0203208162 0.5045250554 -0.611188353 0.5042613502 -0.6114531459 0.0494646104 -0.0189466696
430297420.0 0.0497405045 -0.0207974884 0.4977597006 -0.6165296341 0.4976637221 -0.6163213993 0.0490309651 -0.0200067567
435297390.0 0.0493612948 -0.0210213695 0.4905535567 -0.6223926532 0.4904463753 -0.6223806675 0.0499464965 -0.0202429294
440297360.0 0.0493461265 -0.0216587263 0.4835785875 -0.627699593 0.483460726 -0.6278650966 0.0483787064 -0.0215206463
445297330.0 0.0488081902 -0.0228649796 0.4773445387 -0.633093214 0.4772294994 -0.6325759742 0.0488417575 -0.0222551099
450297300.0 0.0488905422 -0.0232384059 0.4699598029 -0.6385905271 0.4699519086 -0.6385288218 0.0479421708 -0.0230605328
455297270.0 0.048464125 -0.0236977482 0.462713781 -0.6434165949 0.4629789917 -0.6438540783 0.0477746361 -0.0233725758
460297240.0 0.0476178314 -0.0245054807 0.4557957883 -0.6488244034 0.4561795315 -0.6486936981 0.0475710849 -0.0237151144
465297210.0 0.0476534188 -0.0249773165 0.449326257 -0.6540427038 0.448248531 -0.6541945241 0.0472535655 -0.0250434585
470297180.0 0.0470595233 -0.0260039251 0.4412460798 -0.6585558991 0.4418063956 -0.6587891769 0.0469398865 -0.025051563
475297150.0 0.0467551291 -0.0268656321 0.4343828648 -0.6631635965 0.4347188425 -0.6628652351 0.0471441702 -0.0262189484
480297120.0 0.0459760657 -0.0264423288 0.426652691 -0.6688280447 0.4271149941 -0.6687547863 0.0469202644 -0.0263920111
485297090.0 0.0455534641 -0.0271948354 0.4200438656 -0.6725550918 0.4196219717 -0.6726402428 0.0461424608 -0.0273160819
490297060.0 0.0445806025 -0.0278941271 0.4122227983 -0.6781358034 0.4124160474 -0.6771633267 0.0460551907 -0.0269359495
495297030.0 0.0446091846 -0.0283244259 0.4050125747 -0.6822324635 0.4053586792 -0.6823382588 0.0455574428 -0.0279897944
500297000.0 0.0443056708 -0.029247499 0.3969776994 -0.6860680854 0.3966271953 -0.6861384152 0.045199129 -0.027866776
505296970.0 0.043656999 -0.0294683572 0.3904234662 -0.6904321623 0.3892603013 -0.6908162637 0.0447919309 -0.0282751312
510296940.0 0.0429909744 -0.02976089 0.3816726996 -0.6950935043 0.3819045694 -0.695222357 0.0446596246 -0.0282597839
515296910.0 0.0424745643 -0.0299839643 0.3739450143 -0.699317785 0.3743969099 -0.6992397356 0.0439569131 -0.0288021076
520296880.0 0.0421986127 -0.0305685034 0.36651516 -0.7042249636 0.3665608642 -0.7036558383 0.0436785938 -0.0296306746
525296850.0 0.0420076112 -0.0318545465 0.35840871 -0.7073121326 0.3592038323 -0.7071459859 0.0425768786 -0.0299712163
530296820.0 0.0412416066 -0.031441815 0.3507627673 -0.7113649795 0.3513034301 -0.7113203115 0.042634577 -0.0298977379
535296790.0 0.0403564771 -0.0319264391 0.3434331807 -0.715328177 0.343590931 -0.7147501608 0.0420310656 -0.0311756827
540296760.0 0.0398175105 -0.03212556 0.3354410384 -0.7193075787 0.3351720133 -0.7186540968 0.0409676109 -0.030327843
545296730.0 0.0394950162 -0.0325931461 0.327227452 -0.7226087533 0.3273246147 -0.7223482717 0.0405699631 -0.0309608928
550296700.0 0.0396667037 -0.0326715515 0.3194963708 -0.7259192012 0.3194652235 -0.7263565085 0.0398222331 -0.0314610394
555296670.0 0.0383868915 -0.033141437 0.3116251629 -0.7297602324 0.3119267184 -0.7293136571 0.0394453697 -0.0317002242
560296640.0 0.0384629345 -0.033178722 0.3037709006 -0.73282809 0.3040070135 -0.7327442413 0.0387772271 -0.0321126419
565296610.0 0.0377059209 -0.033909537 0.2950053051 -0.7361586122 0.295873623 -0.7361403012 0.037896119 -0.0326722398
570296580.0 0.0370477585 -0.034013821 0.2878330859 -0.7399301318 0.2866718451 -0.7394794535 0.0372725998 -0.0322389773
575296550.0 0.0362745742 -0.0340450249 0.279375197 -0.7428134081 0.2793600637 -0.7425836118 0.0373212486 -0.0336044517
580296520.0 0.0360349273 -0.0347332272 0.271510499 -0.7462035539 0.2714383509 -0.7457274635 0.0363468675 -0.0338848526
585296490.0 0.0354568143 -0.0358723046 0.2642097425 -0.7481380226 0.2633845653 -0.7486244906 0.0358674868 -0.0339907414
590296460.0 0.0353752758 -0.0355097993 0.2548843457 -0.7506180208 0.2548599452 -0.7511657059 0.0342138138 -0.0340979022
595296430.0 0.0349844315 -0.035575611 0.2462803008 -0.7541382365 0.2464839819 -0.7543413459 0.0345904887 -0.0350531638
600296400.0 0.0341357057 -0.0362515343 0.2386084054 -0.7569960964 0.2383885095 -0.756254571 0.0338757068 -0.0355258747
605296370.0 0.033587296 -0.036550213 0.2300265725 -0.7593939934 0.2304081444 -0.7592683924 0.0333413047 -0.0357480018
610296340.0 0.0332006625 -0.0369337634 0.2213282997 -0.7615210393 0.2223891339 -0.7618481976 0.0333264285 -0.0364047259
615296310.0 0.032820296 -0.037828233 0.2133668382 -0.7637512562 0.2131749217 -0.7646341559 0.0328867557 -0.0365607306
620296280.0 0.0322392188 -0.0380628379 0.2055130841 -0.7663054014 0.20482812 -0.765761426 0.0319179961 -0.0369402124
625296250.0 0.0309689136 -0.0389994543 0.1975897089 -0.7689261526 0.1969042344 -0.7686349088 0.0321441602 -0.0372218547
630296220.0 0.0317153169 -0.0382864054 0.1877901035 -0.7711207367 0.1878868812 -0.770303948 0.0315307467 -0.0372858017
635296190.0 0.029640074 -0.0393883348 0.1800903185 -0.7728203683 0.1802868513 -0.7728140903 0.0312500145 -0.0378756754
640296160.0 0.029333697 -0.039016774 0.1711667749 -0.7736352835 0.1716178075 -0.7746597058 0.0302677085 -0.0381744742
645296130.0 0.0290035839 -0.0392785934 0.1623610182 -0.776005567 0.1632228543 -0.776329882 0.0297973858 -0.0384712287
650296100.0 0.0286159623 -0.0396831605 0.1543278122 -0.7778886504 0.1546652339 -0.7780516377 0.0300224068 -0.0394792305
655296070.0 0.027502237 -0.0401904667 0.1458527837 -0.7795705776 0.1459394788 -0.7799835185 0.0292379076 -0.0390764976
660296040.0 0.0262239904 -0.040891508 0.1373334911 -0.7812648387 0.1377344101 -0.7815002811 0.0289941322 -0.0391179167
665296010.0 0.0267315688 -0.0404948466 0.1285894903 -0.78260475 0.129056769 -0.7828062328 0.0284473082 -0.0387593372
670295980.0 0.0248978706 -0.0405645578 0.1202896648 -0.784092847 0.1204825178 -0.7838307176 0.0272403561 -0.0391904575
675295950.0 0.0248051648 -0.0405928075 0.112439876 -0.7850431757 0.1121354262 -0.784527401 0.0265785321 -0.0394282943
680295920.0 0.0237570136 -0.0411707142 0.1032210969 -0.7863735877 0.102484827 -0.786746468 0.0262079117 -0.0389613021
685295890.0 0.0238344357 -0.0404755253 0.0946246412 -0.7873804604 0.0941801102 -0.7877820602 0.025666787 -0.039389501
690295860.0 0.023269129 -0.0409319168 0.0861202983 -0.7880763062 0.0860394139 -0.7888067178 0.0249615491 -0.0384834851
695295830.0 0.0224473297 -0.0415918576 0.0779721385 -0.7892799558 0.0767772276 -0.7891097231 0.024500141 -0.0389444027
700295800.0 0.0219683837 -0.0418147444 0.0686690055 -0.7895602368 0.068112134 -0.7898845715 0.023823904 -0.0382717282
705295770.0 0.0211223589 -0.0407844532 0.0597487632 -0.7906739826 0.0601571397 -0.7908941719 0.023325084 -0.0389060139
710295740.0 0.0208019369 -0.0412576871 0.0516420864 -0.7918019574 0.0519872221 -0.7918393424 0.0227060181 -0.0398510583
715295710.0 0.0197892181 -0.041456813 0.0437568217 -0.7920073917 0.0427160594 -0.7919645779 0.0222871936 -0.0393899869
720295680.0 0.0193817783 -0.0416211143 0.0344687957 -0.7928906576 0.0348418792 -0.7920527489 0.0215120963 -0.0386045999
725295650.0 0.0190756584 -0.0417050662 0.0257067189 -0.792825803 0.0261045524 -0.7927038265 0.0201395839 -0.0389515866
730295620.0 0.0189214981 -0.041365889 0.0170327786 -0.7928760653 0.0172157958 -0.792902647 0.0193333363 -0.039423247
735295590.0 0.0178728868 -0.0415288814 0.0086413113 -0.7929743631 0.0080705126 -0.7931838772 0.0189761467 -0.0398023066
740295560.0 0.017196806 -0.0415532872 -0.0002726786 -0.7925855186 -0.0002056973 -0.7928877305 0.0189154299 -0.0393735713
745295530.0 0.016813908 -0.0414479077 -0.0089221835 -0.7924588895 -0.0087531037 -0.7925317301 0.0181948676 -0.039980057
750295500.0 0.0162322243 -0.0418175395 -0.0171998463 -0.7923089877 -0.0173295598 -0.792565668 0.0174595893 -0.0397209887
755295470.0 0.0156724832 -0.0420682527 -0.0253106457 -0.7925285461 -0.0257588933 -0.7925474399 0.0174195363 -0.040319541
760295440.0 0.0150086788 -0.0419329756 -0.0344598658 -0.7921830159 -0.0348692778 -0.7925643232 0.0160590102 -0.0404124492
765295410.0 0.014415751 -0.042228894 -0.0428223629 -0.7919421619 -0.0438328489 -0.7919952564 0.0158268812 -0.0404316569
770295380.0 0.0131577003 -0.0424766368 -0.0520934847 -0.7915862973 -0.0521129401 -0.7910405442 0.014928847 -0.0407825926
775295350.0 0.0130667012 -0.0426867221 -0.0609166769 -0.7899491655 -0.0604212367 -0.7902148748 0.0135053405 -0.0403252363
780295320.0 0.0123853676 -0.042515392 -0.0691578516 -0.7896415102 -0.0678806909 -0.7896303348 0.013370715 -0.0414597898
785295290.0 0.0112502517 -0.0429093098 -0.0781553269 -0.788294455 -0.0774372884 -0.7887812068 0.0135419869 -0.0407493973
790295260.0 0.0114747563 -0.0420575773 -0.0857814726 -0.7879530508 -0.0851452653 -0.787782422 0.0125042232 -0.0411535104
795295230.0 0.0105394638 -0.0425537418 -0.0942745937 -0.7867130899 -0.0939442929 -0.7869243081 0.0122819487 -0.0408009604
800295200.0 0.0094845097 -0.0420679798 -0.1041067803 -0.7854901917 -0.1030110023 -0.785860779 0.0117633433 -0.0408713198
805295170.0 0.0091201935 -0.0425221908 -0.1118672246 -0.7847818296 -0.1121394003 -0.7853041684 0.0109188138 -0.0407348321
810295140.0 0.0082066292 -0.0428399883 -0.119859427 -0.7831922015 -0.1205712771 -0.7832316257 0.0109212877 -0.0405066814
815295110.0 0.007798307 -0.0431363707 -0.1287195743 -0.7819316243 -0.1287770003 -0.7816961159 0.0100885229 -0.0405301194
820295080.0 0.0061727311 -0.0419074941 -0.1376739247 -0.7801679673 -0.1368172015 -0.7804401051 0.0094239982 -0.0405308763
825295050.0 0.0066977245 -0.0420168596 -0.1449600334 -0.7789868899 -0.1455297997 -0.7786520565 0.009418706 -0.040411786
830295020.0 0.0058281161 -0.0420595362 -0.1546968287 -0.7770640584 -0.1540957128 -0.7767378847 0.00926149 -0.0405307237
