!Created with skrf (http://scikit-rf.org).
# Hz S RI R 50.0 
!freq ReS11 ImS11 ReS21 ImS21 ReS12 ImS12 ReS22 ImS22
300000.0 -0.2130298869 -0.067304577 9.99797e-05 0.0017324422 -0.0004495122 0.0014328518 -0.7736447971 -0.1425316484
5299970.0 -0.2166797274 0.008033758 0.0004389242 3.3314e-05 8.90312e-05 0.0001259788 -0.7836537354 -0.0073232072
10299940.0 -0.2134087078 0.019239196 7.35448e-05 -9.63117e-05 -4.98386e-05 -3.2921e-06 -0.786564888 -0.0037443919
15299910.0 -0.2086588445 0.0284317469 1.18815e-05 8.59366e-05 -9.58957e-05 0.000124024 -0.7923877534 -0.0012202518
20299880.0 -0.2033578302 0.0361262404 0.0001592295 2.48106e-05 3.56579e-05 0.0001949416 -0.7988447253 0.0026545892
25299850.0 -0.197450898 0.0421124123 0.0003713513 0.0001294452 -2.8087e-06 -4.37324e-05 -0.8055282996 0.0085586328
30299820.0 -0.1921835108 0.0467128556 1.02111e-05 -0.0001615035 4.01686e-05 -7.95934e-05 -0.8114405125 0.0167504429
35299790.0 -0.1862693942 0.0506000551 7.69606e-05 8.35445e-05 0.00012577 -7.62995e-05 -0.8167613771 0.0251767496
40299760.0 -0.1807643743 0.0535812653 0.0001128402 6.74391e-05 1.2326e-06 -6.40786e-05 -0.820485659 0.0351340235
45299730.0 -0.1756105975 0.0556949412 4.0684e-05 -4.89866e-05 0.0001079727 -4.16576e-05 -0.8249026353 0.0442685176
50299700.0 -0.1709618154 0.0571912369 9.40653e-05 6.43602e-05 8.43903e-05 -0.0002534852 -0.8269957362 0.0542771239
55299670.0 -0.1665811055 0.0578089476 -7.02152e-05 -7.29216e-05 3.63503e-05 -3.27411e-05 -0.8294409142 0.0645564207
60299640.0 -0.1624279394 0.0588867302 -9.24513e-05 1.4205e-06 -3.1244e-05 0.0002074231 -0.830178306 0.0743982522
65299610.0 -0.1587531303 0.0593300287 -0.000102209 -0.0001503397 9.55146e-05 -3.05869e-05 -0.8316986921 0.0843697228
70299580.0 -0.1556285446 0.0596789636 8.4118e-05 3.62557e-05 0.0001248704 0.0001453382 -0.8316336479 0.0947749218
75299550.0 -0.1525080433 0.0599156281 -4.82944e-05 0.0003048338 -9.04104e-05 -8.01783e-05 -0.8322343659 0.1038843207
80299520.0 -0.1497708379 0.0600954684 3.79045e-05 0.0001503241 3.87086e-05 0.0001793064 -0.8318649713 0.1137295596
85299490.0 -0.1477875274 0.0599740983 -9.66121e-05 2.14209e-05 -0.0001047324 0.0001040445 -0.831441509 0.1236550986
90299460.0 -0.1457181721 0.0598349358 0.0001508574 8.58132e-05 5.098e-07 -9.09729e-05 -0.8308724025 0.1331763412
95299430.0 -0.1433427083 0.0596287383 -6.05877e-05 0.0001184848 -7.21535e-05 3.73356e-05 -0.8294264176 0.1430862191
100299400.0 -0.1416479697 0.0600191192 5.53082e-05 -2.73815e-05 -8.32683e-05 -9.95127e-05 -0.8280757985 0.1521432116
105299370.0 -0.1401310781 0.0600496146 -0.0002666104 -0.000224765 3.97036e-05 -2.52975e-05 -0.826604833 0.1611715613
110299340.0 -0.1383987378 0.0601935824 -8.99494e-05 -8.34844e-05 0.0001611994 5.9884e-06 -0.8255653855 0.1708470047
115299310.0 -0.1369734195 0.0598973182 0.0001301082 4.98105e-05 2.6034e-06 0.0002894352 -0.8238020596 0.1798469535
120299280.0 -0.1362092954 0.0598470559 7.29164e-05 0.0001110097 -0.0001206667 1.61415e-05 -0.8220510462 0.1895304033
125299250.0 -0.1349586646 0.0598243644 -0.0001869172 0.0002792459 5.83263e-05 -5.39975e-05 -0.8203277921 0.1975233789
130299220.0 -0.134001167 0.0602443786 7.31847e-05 -0.000179202 4.84133e-05 0.0001827935 -0.8184161713 0.2071425219
135299190.0 -0.1331690503 0.0607664944 4.3285e-05 4.28494e-05 0.0001519825 -9.1275e-06 -0.8161425244 0.2157187255
140299160.0 -0.1324749554 0.0609381171 3.21097e-05 0.0002849398 1.98543e-05 0.00010391 -0.8134041744 0.2247037697
145299130.0 -0.1314409969 0.0611187275 -0.0001107263 -0.0001743511 -6.44673e-05 5.03439e-05 -0.8119032738 0.2336802204
150299100.0 -0.1306525871 0.0613216907 4.00084e-05 0.0002250038 5.27789e-05 0.0001180028 -0.8094138714 0.2429598702
155299070.0 -0.1302167477 0.061814567 0.0001831633 7.58983e-05 -5.95055e-05 0.0001843479 -0.8062122401 0.2513779662
160299040.0 -0.1297351587 0.0626474233 0.0001794204 -2.74361e-05 -1.743e-07 -4.85914e-05 -0.8044656895 0.2604243693
165299010.0 -0.1289406011 0.062883963 0.000207169 -4.37167e-05 0.0001917213 7.84489e-05 -0.8017070747 0.2696160423
170298980.0 -0.1284602953 0.0635483378 -1.05388e-05 -0.0001225703 -0.0001512232 0.0002114322 -0.7987159513 0.2778414522
175298950.0 -0.1278456106 0.0640362471 -0.0001163162 0.0001074207 0.0001316866 0.0001650254 -0.796225292 0.286652351
180298920.0 -0.1273481837 0.0647232106 -0.000252672 0.0001454063 3.14564e-05 0.0001429754 -0.7924725411 0.2951256893
185298890.0 -0.1264708727 0.0650837743 0.0002723572 7.02318e-05 -3.149e-07 3.4223e-05 -0.7895387027 0.303926784
190298860.0 -0.125986186 0.0661100984 -9.3006e-06 -0.0001384964 -0.0001325702 0.0002317378 -0.7873418591 0.3124429221
195298830.0 -0.1258034767 0.0667999168 0.0001221425 8.13316e-05 0.0002676796 0.0001022983 -0.7837879019 0.3210970853
200298800.0 -0.1249396357 0.0676551343 0.0001355952 6.779e-06 9.8391e-05 0.0001571242 -0.7811781206 0.3291003702
205298770.0 -0.1248487367 0.0680952201 -0.0001140347 2.75982e-05 0.0001781091 -0.0001028564 -0.7770873537 0.3374854526
210298740.0 -0.1244405205 0.069104647 0.0001707217 -5.6482e-06 0.0002063298 0.000158085 -0.7739252265 0.3464704179
215298710.0 -0.1240102576 0.0696950551 9.82021e-05 3.71847e-05 0.0002420732 -8.54992e-05 -0.7703849267 0.3542040853
220298680.0 -0.123594929 0.0704511075 1.89956e-05 -2.43521e-05 0.0001222541 0.0002371031 -0.7672361475 0.3622038709
225298650.0 -0.1233906586 0.0711241277 0.0001975514 6.2536e-06 -9.3269e-06 7.79962e-05 -0.7636837853 0.3703740413
230298620.0 -0.1227373665 0.0724169843 7.672e-06 -4.745e-06 -6.32322e-05 0.0001748256 -0.7594614692 0.3789627371
235298590.0 -0.1222091769 0.0735282728 0.0001197346 0.0001461402 0.0001641475 7.44155e-05 -0.7557986726 0.3876023049
240298560.0 -0.1218265844 0.073874521 7.06815e-05 -5.32356e-05 0.0001697686 4.86788e-05 -0.7511424644 0.3955740429
245298530.0 -0.1214023729 0.0750190996 -7.22866e-05 9.04929e-05 0.0001187345 0.000203108 -0.7476341622 0.4030723007
250298500.0 -0.1208748246 0.075832885 0.0001086337 0.0001095942 5.73298e-05 -2.65951e-05 -0.7434621418 0.4104538634
255298470.0 -0.1206260367 0.0762922644 -1.25379e-05 0.0002858409 0.0001719225 5.88734e-05 -0.7384872254 0.4182677698
260298440.0 -0.120050882 0.0778469323 4.7147e-06 0.0002811731 0.0001755359 -5.41332e-05 -0.7347039263 0.4265120965
265298410.0 -0.1194138123 0.0789140051 8.6655e-06 0.0001169492 7.76261e-05 -1.8283e-05 -0.7300404836 0.4338821013
270298380.0 -0.1190749938 0.0797798129 5.15117e-05 0.0001192253 0.0001646943 1.72857e-05 -0.7254920953 0.4411361729
275298350.0 -0.1185324145 0.0808785269 0.000242602 5.3442e-06 0.0001153304 0.0001993645 -0.7206884957 0.4488999929
280298320.0 -0.1175888958 0.0817216281 0.0001245032 0.0002596004 0.000175709 -0.0001037456 -0.715659043 0.4558989285
285298290.0 -0.1171292994 0.0828544101 0.0001474359 3.02071e-05 -2.49711e-05 8.60137e-05 -0.7103885539 0.4639004949
290298260.0 -0.116557504 0.083972316 8.37992e-05 -1.36962e-05 -3.76649e-05 0.0002160974 -0.7057884216 0.4709907315
295298230.0 -0.1159008872 0.084729425 3.56787e-05 -3.8534e-06 0.0001065162 9.48214e-05 -0.7008404904 0.4776200382
300298200.0 -0.1154540465 0.0859963764 0.0002412114 -4.35227e-05 -8.69283e-05 -3.93209e-05 -0.6954806418 0.4852046484
305298170.0 -0.1144083863 0.0867177988 3.45109e-05 -1.21403e-05 -0.0002230779 0.0002281566 -0.6896927468 0.4926805738
310298140.0 -0.1141272746 0.0878780402 6.26294e-05 0.0001291687 0.000134561 9.11179e-05 -0.6853291965 0.4998157286
315298110.0 -0.1134340504 0.0888524802 4.75841e-05 -1.81885e-05 0.0002202776 -2.8261e-05 -0.6794532015 0.5064018564
320298080.0 -0.1126826397 0.0895379445 4.51391e-05 0.0001798996 1.83768e-05 -1.14177e-05 -0.6737759468 0.5141313085
325298050.0 -0.1120803281 0.0907025245 -2.28671e-05 4.21646e-05 -3.92047e-05 6.63846e-05 -0.6682731588 0.5206301826
330298020.0 -0.1114559287 0.0913559416 0.0003707493 0.0002160282 -6.28074e-05 7.54935e-05 -0.6631700265 0.528038244
335297990.0 -0.1110037688 0.0924945336 0.0001582729 0.000143194 -3.52523e-05 0.0001820427 -0.6578660029 0.5348383778
340297960.0 -0.1104863986 0.0935112178 9.65215e-05 -5.27181e-05 5.76785e-05 0.000148351 -0.6517822137 0.5419794216
345297930.0 -0.1098848517 0.0945762697 0.000102857 0.0002256391 -1.623e-07 0.0001554095 -0.6461394982 0.5483942033
350297900.0 -0.1093098377 0.0957900574 6.92467e-05 2.05571e-05 0.0001841967 0.0001634799 -0.640938333 0.5551943993
355297870.0 -0.1082265859 0.0967630765 -1.48278e-05 6.82981e-05 0.0001344237 7.5964e-06 -0.6346937547 0.5618708472
360297840.0 -0.1074046529 0.0982990847 0.000163572 0.0002529097 0.0002170138 8.29902e-05 -0.6290794525 0.5685760272
365297810.0 -0.1072928347 0.0996914064 0.0001695353 0.0001002126 0.0001961462 0.0001205138 -0.6224239123 0.5753091426
370297780.0 -0.1063556015 0.1005045221 0.0001638575 -1.78845e-05 0.0001479682 1.9867e-06 -0.6171816421 0.5821642486
375297750.0 -0.1050430436 0.1016586909 0.0001884458 0.000215044 0.000415487 6.62351e-05 -0.6113357421 0.5874486008
380297720.0 -0.1048402838 0.102306275 0.0001451112 5.12487e-05 0.0001351452 -4.72726e-05 -0.6051824723 0.594737191
385297690.0 -0.1041202206 0.1037367961 -1.2321e-06 8.28723e-05 0.0001021043 6.494e-05 -0.5986488386 0.6009973038
390297660.0 -0.1033385315 0.1050700273 -3.95439e-05 6.41551e-05 0.0001574362 0.0001161635 -0.5931841085 0.6069773067
395297630.0 -0.1021412818 0.1060162922 2.04089e-05 9.9835e-05 7.44539e-05 0.0001582133 -0.5859546717 0.6133538511
400297600.0 -0.1014521949 0.1071690169 0.0001614481 8.14623e-05 0.000101231 9.83435e-05 -0.5803426924 0.619331858
405297570.0 -0.1008520754 0.108276757 0.0002942401 0.0003149219 0.0001505907 5.52498e-05 -0.5735529685 0.6248260904
410297540.0 -0.0998423518 0.1091922642 -1.28012e-05 0.0001460226 0.0002261947 0.0001135772 -0.5670509436 0.6308830713
415297510.0 -0.0990259012 0.1100878041 -3.16872e-05 2.51123e-05 0.0002389263 0.0003166759 -0.5610275961 0.6361083363
420297480.0 -0.0981312276 0.111476425 0.0003007776 0.0001234676 4.51147e-05 5.93329e-05 -0.5538413619 0.6422241801
425297450.0 -0.0972224416 0.112556106 0.0003247087 6.31062e-05 -6.68807e-05 0.0001619015 -0.5479056076 0.647774194
430297420.0 -0.0963021284 0.1134516487 0.0001902626 0.000148137 2.88472e-05 9.03098e-05 -0.5406371481 0.6526701616
435297390.0 -0.0954380949 0.1146975771 -5.84416e-05 6.50897e-05 -1.70293e-05 0.0001053141 -0.5335759813 0.658673769
440297360.0 -0.0946318411 0.1155036911 0.0002371993 2.1229e-06 0.000132819 0.0002120142 -0.5269894612 0.6636676353
445297330.0 -0.0935353689 0.1165664784 6.69089e-05 4.64423e-05 0.0002084022 -1.92018e-05 -0.5201793556 0.6682974576
450297300.0 -0.0926791163 0.1175360083 0.0001378631 9.3854e-05 0.000374661 -4.67875e-05 -0.5129502616 0.6740531273
455297270.0 -0.0915659345 0.1185123307 0.0001420233 0.0002135712 1.01492e-05 0.0002542543 -0.5058091857 0.6783799808
460297240.0 -0.0906652591 0.1195366474 0.0001994945 -8.41543e-05 -6.4691e-06 5.96075e-05 -0.4990894889 0.68402716
465297210.0 -0.0893100139 0.1206849237 1.45293e-05 0.0001138453 0.0002967169 0.0001850177 -0.4914817221 0.6885451586
470297180.0 -0.0883748327 0.1215252284 0.0002760077 -0.0001145323 0.0002202682 9.42243e-05 -0.4840872761 0.6945878767
475297150.0 -0.0877076441 0.1223529903 0.0002193568 -9.08341e-05 3.6409e-05 6.09826e-05 -0.4773296279 0.6977782261
480297120.0 -0.0864168942 0.1237223591 3.97832e-05 -1.91166e-05 0.0001615221 0.0002049213 -0.4695247533 0.7035610665
485297090.0 -0.0854011092 0.1245605854 0.0001219064 -0.0001199784 0.0001076429 0.000115078 -0.4622953853 0.7075824854
490297060.0 -0.0842106518 0.1258029777 0.0003080701 4.1379e-06 0.0001457393 -6.055e-07 -0.4548891903 0.7117960758
495297030.0 -0.0832299487 0.1264707375 3.47247e-05 -2.29087e-05 0.0002994426 -0.0001497406 -0.4479099941 0.717350402
500297000.0 -0.0821659444 0.1274294434 8.82714e-05 -2.45798e-05 9.5835e-05 8.83596e-05 -0.4399062811 0.7220082433
505296970.0 -0.0808971115 0.1281301186 4.91632e-05 -0.0001089456 -4.00484e-05 0.0001136958 -0.433057924 0.7260094413
510296940.0 -0.0796838132 0.1292546055 0.0003291807 0.0002648158 -1.19805e-05 0.0001214861 -0.4257060109 0.7303894284
515296910.0 -0.0784970972 0.13010299 9.13572e-05 -2.46366e-05 0.0005432245 3.84814e-05 -0.4178319585 0.734639816
520296880.0 -0.0777021176 0.1310709852 0.0003523516 2.73277e-05 0.0003966771 0.0002186881 -0.4102611589 0.7386317038
525296850.0 -0.0762274794 0.1317637345 0.0002514639 0.0001452679 0.0004308367 0.0002068694 -0.4031873312 0.743587639
530296820.0 -0.0751099346 0.132927274 0.0003793803 0.0001423811 0.0001600763 0.0001658472 -0.3954849237 0.7474859921
535296790.0 -0.074093665 0.1337663414 0.0001063623 0.0001971795 0.0003323969 -6.67821e-05 -0.3887282886 0.7513737599
540296760.0 -0.0726765752 0.1345094943 5.95986e-05 2.561e-06 0.0001347494 -0.0001031215 -0.3807416627 0.7557676153
545296730.0 -0.071905852 0.1355575568 8.25463e-05 -6.42331e-05 0.0002715392 -2.26965e-05 -0.3729347248 0.7593407931
550296700.0 -0.0701059111 0.1364042254 0.0001201006 0.0002110934 0.0001041274 -3.56036e-05 -0.3652027018 0.7632902199
555296670.0 -0.069309176 0.1370573123 -1.60098e-05 4.29657e-05 0.0003089076 0.0001253259 -0.3570609181 0.7675167424
560296640.0 -0.0676754854 0.1382246883 8.36013e-05 0.000125513 0.0001344021 0.0001056911 -0.3493740397 0.7707146953
565296610.0 -0.0668710361 0.1390049662 0.0003158524 6.93995e-05 2.29117e-05 4.46904e-05 -0.3416369759 0.774165217
570296580.0 -0.0658026095 0.1397315372 0.0003036543 7.86466e-05 9.8533e-05 -4.70794e-05 -0.3344661561 0.7780408381
575296550.0 -0.0644137044 0.1406955206 -3.96959e-05 -7.36106e-05 0.0002898963 6.18558e-05 -0.3262270264 0.7814061416
580296520.0 -0.0630419419 0.1412034956 0.0002889212 -1.78456e-05 8.29438e-05 0.0001252634 -0.3175141922 0.7840287932
585296490.0 -0.0621711398 0.1420325139 0.0001776522 -0.0001109668 6.78151e-05 -0.0001175673 -0.3097012822 0.7874811269
590296460.0 -0.0606094387 0.1426014509 0.0002534488 0.0002972491 7.2727e-05 0.0001327535 -0.3027007041 0.7900285109
595296430.0 -0.0594260022 0.1434463403 0.0002970146 -2.87278e-05 7.76168e-05 -0.000112777 -0.294126146 0.792414152
600296400.0 -0.0582299564 0.1443619754 0.0003184962 -2.85141e-05 0.0001156565 -6.86827e-05 -0.2863656421 0.7951467462
605296370.0 -0.0570626199 0.1449703539 6.74813e-05 -0.0002394431 0.0002837021 6.4925e-05 -0.2778161227 0.7982650611
610296340.0 -0.0554631262 0.1460922203 0.00019165 4.12146e-05 0.0003674146 -5.62742e-05 -0.2698866908 0.8007771488
615296310.0 -0.0538848634 0.1463764862 0.0002783317 -0.0001739983 5.28049e-05 5.64348e-05 -0.261469758 0.8032493849
620296280.0 -0.052968255 0.1471849755 0.0003301073 -0.0001308848 0.0001519518 0.0002163214 -0.2539831563 0.8053285987
625296250.0 -0.051578292 0.1476853485 0.0003073619 2.88803e-05 0.0002911548 1.09182e-05 -0.2451621632 0.8075484867
630296220.0 -0.0499911731 0.1483063192 0.0002659462 6.30008e-05 0.0002834253 -5.86347e-05 -0.2368853119 0.8100914433
635296190.0 -0.0489103665 0.1492385683 0.0002373857 0.0001066792 0.0002809538 5.69836e-05 -0.2288259968 0.8121598384
640296160.0 -0.0475538689 0.1498554297 0.0002948909 -7.83968e-05 0.0003809649 -4.1262e-06 -0.2206480697 0.8145455473
645296130.0 -0.0462027227 0.1506268592 0.0004240552 -7.52316e-05 7.53112e-05 0.0002632867 -0.2126825787 0.8172445892
650296100.0 -0.0448671947 0.1511675727 0.0004090424 4.17271e-05 0.0001421601 9.49943e-05 -0.2038680974 0.8183995909
655296070.0 -0.0433832424 0.151612621 4.97391e-05 1.79949e-05 0.0001032645 0.0002768249 -0.1954286902 0.8199458203
660296040.0 -0.0421319096 0.1521081405 0.0002990873 0.000106024 0.0004005029 9.96068e-05 -0.1871607574 0.8223267395
665296010.0 -0.0405423579 0.1524319388 0.0001047869 0.0002187299 0.0002364897 -0.0001120877 -0.1787049254 0.8244773802
670295980.0 -0.0393071853 0.1536603247 0.0003384894 -0.0001448789 0.0002836807 -0.0001040741 -0.1706725395 0.8259272581
675295950.0 -0.0377709422 0.1540816736 0.0001984437 -0.0002120837 0.0001669308 3.96915e-05 -0.1630320052 0.8288443319
680295920.0 -0.0363010181 0.1547324395 0.0005898176 -0.0001348404 0.0003146674 -5.86488e-05 -0.1541797684 0.8305924127
685295890.0 -0.0347395976 0.1553902899 0.0003254077 4.62781e-05 0.0004068285 -4.61214e-05 -0.1450680521 0.8310589944
690295860.0 -0.0334919082 0.1555782847 0.0002841393 6.78971e-05 0.0002932927 -4.27569e-05 -0.1378096414 0.8330152115
695295830.0 -0.0319437641 0.1563350818 0.000401664 0.0001373206 0.000211933 3.66114e-05 -0.1283148933 0.8339880089
700295800.0 -0.0306725207 0.1564091691 0.0001435721 5.63332e-05 0.0001907638 0.0001336132 -0.1214436309 0.835681253
705295770.0 -0.0292590063 0.1572024621 0.0004987542 -0.000114161 0.0004442115 -0.0001625165 -0.1125442911 0.8377034651
710295740.0 -0.027746282 0.1575824346 0.0002688957 -9.95752e-05 0.0002837244 0.000168256 -0.1042118705 0.8383834785
715295710.0 -0.0262469725 0.1581374321 0.0003026523 -0.0002188288 8.40999e-05 3.75152e-05 -0.0957702077 0.8395023963
720295680.0 -0.0247831909 0.1587392891 0.0001243505 -0.0001806061 0.0003157085 5.3142e-05 -0.0869033438 0.8404345071
725295650.0 -0.023171606 0.1591025774 0.0003534635 4.94405e-05 0.0003231006 0.0001793034 -0.0790628281 0.8415893584
730295620.0 -0.021744205 0.1596794558 0.0001798326 -2.08441e-05 0.0001514281 0.0001310636 -0.0712550101 0.8423159673
735295590.0 -0.0203113124 0.1598409046 0.0002634496 4.18231e-05 8.9284e-05 -5.34361e-05 -0.062460582 0.8426478966
740295560.0 -0.0190425358 0.1604165907 8.2632e-05 0.0001255918 0.0001987452 2.65097e-05 -0.0534662653 0.8437155864
745295530.0 -0.0175950416 0.1605053421 -2.30695e-05 -7.66535e-05 0.0003036863 6.65216e-05 -0.0452561667 0.8441291032
750295500.0 -0.0155396017 0.1611426934 0.0002894267 -0.0002297142 0.000296688 -0.0001501454 -0.0371882297 0.8441974325
755295470.0 -0.0143975607 0.1614474633 0.0002358606 -8.57916e-05 0.0002634192 9.27811e-05 -0.0282706704 0.8434969657
760295440.0 -0.0130911959 0.1617448745 0.0001195993 -0.00024421 0.0002384503 -0.0002666464 -0.0202575123 0.844254063
765295410.0 -0.0112130486 0.1622589156 0.0003643149 -0.0001682383 0.0001804799 -5.85819e-05 -0.0119117027 0.8446447232
770295380.0 -0.0100081831 0.1622770372 0.0002992258 0.0001815124 0.0003394475 -0.0001388991 -0.0036248312 0.8438688596
775295350.0 -0.0087113233 0.1625201739 2.95693e-05 4.52719e-05 0.0001736796 6.84038e-05 0.003801149 0.8434842313
780295320.0 -0.0069668143 0.1631005048 0.000319422 -0.0001280578 0.0004808132 0.0002148368 0.0124916509 0.8439133071
785295290.0 -0.0057157859 0.1628142753 3.89417e-05 1.81888e-05 0.0001928349 0.0001192468 0.0218995578 0.842985434
790295260.0 -0.0036288168 0.1635855548 0.0002011078 -0.0001368376 0.0003708498 -3.54383e-05 0.0303768945 0.8437104699
795295230.0 -0.0026387497 0.1637968217 0.0003973536 -6.90693e-05 0.0002018569 -6.78007e-05 0.0393654826 0.8422891822
800295200.0 -0.0009520263 0.1639015011 0.0001776502 0.0001918412 0.0002858135 7.76851e-05 0.047791734 0.8421116879
805295170.0 0.0007187876 0.1638095629 0.0003694853 0.0002177696 0.0003811377 -0.000156737 0.0555491906 0.8417553058
810295140.0 0.002426497 0.1641418858 0.0005386986 4.59231e-05 0.0003066441 0.0001619508 0.0640988709 0.8403207752
815295110.0 0.0034544126 0.1640898824 0.0002835264 -0.0003622906 0.0004423668 1.45192e-05 0.0729099805 0.8397725067
820295080.0 0.0051066884 0.1644891121 0.0006656421 -0.0001674806 0.0004842265 -9.52397e-05 0.0805829663 0.8396813132
825295050.0 0.006942989 0.1645684082 2.07677e-05 -5.29606e-05 0.0004083293 -4.72213e-05 0.0894643573 0.8388533792
830295020.0 0.0084536157 0.1646420283 0.0003911659 -0.0001951497 0.0004895096 0.000103863 0.0983455136 0.8378327102
835294990.0 0.0098338848 0.1649859311 0.0002712935 -3.54728e-05 0.0004020227 -0.0001402365 0.10575699 0.8367867152
840294960.0 0.0115220599 0.1652175746 0.0003998118 -0.0003455716 0.0003173702 0.0001068123 0.1144074974 0.8359100558
845294930.0 0.0129677671 0.1650848834 0.0001268152 -0.0001094037 0.0005067409 -6.48567e-05 0.1223718877 0.8340245319
850294900.0 0.0147577573 0.1654261973 0.0002536836 -0.0001076329 0.0002342805 -3.28823e-05 0.1306383067 0.83308004
