!Created with skrf (http://scikit-rf.org).
# Hz S RI R 50.0 
!freq ReS11 ImS11 ReS21 ImS21 ReS12 ImS12 ReS22 ImS22
300000.0 -0.2423871772 -0.0889421986 0.4733145661 0.0593591016 0.4730660553 0.0560244571 -0.241232715 -0.0975153028
5299970.0 -0.2449253572 0.0068290033 0.4746071103 0.0047251569 0.4748539705 0.0049001184 -0.2409812333 0.0074471638
10299940.0 -0.2416141695 0.0181139726 0.4764279869 0.0058347988 0.4768085733 0.0061587433 -0.2374818596 0.0206579288
15299910.0 -0.2372919531 0.0268892174 0.4804046803 0.0071882984 0.4806504928 0.0074711503 -0.2329921646 0.030279608
20299880.0 -0.2329168968 0.0338821519 0.4849949873 0.0082864363 0.4850777466 0.0077189794 -0.2277558468 0.0381279905
25299850.0 -0.2278478318 0.0404301671 0.4902707555 0.0067130608 0.4902029162 0.0069269465 -0.2217402676 0.044769164
30299820.0 -0.2225608675 0.0450615176 0.4957011576 0.0048705107 0.495230382 0.0046373074 -0.2160469465 0.0503883781
35299790.0 -0.2173616996 0.0490902277 0.500939474 0.0014092897 0.5006154225 0.0013856789 -0.2106128619 0.0546712551
40299760.0 -0.2126416852 0.0523346094 0.505754399 -0.0024867658 0.505970769 -0.0024428512 -0.2052155689 0.0575675221
45299730.0 -0.2079223737 0.0548098929 0.5101965088 -0.0068986454 0.5109863764 -0.0070771573 -0.2004762009 0.0606232891
50299700.0 -0.203820781 0.0568044655 0.5149737385 -0.0127038617 0.5150707254 -0.0124409583 -0.1954525573 0.0625323057
55299670.0 -0.2002211507 0.0583679453 0.5186209214 -0.0190224025 0.5186887659 -0.0187884678 -0.1911889928 0.064465819
60299640.0 -0.1958400344 0.060078238 0.5218938326 -0.0251092356 0.521925404 -0.0248354388 -0.187348179 0.0654412639
65299610.0 -0.193001348 0.0610722865 0.5247648728 -0.0313407039 0.5246315705 -0.031348346 -0.1839672753 0.0666787353
70299580.0 -0.1899543864 0.0619992578 0.5269470522 -0.0378344495 0.5272770946 -0.0378235683 -0.1807375621 0.0674022996
75299550.0 -0.1871938526 0.0628760637 0.5289273248 -0.0449335805 0.5285301565 -0.0449280863 -0.177873795 0.0683115218
80299520.0 -0.184563204 0.0638170621 0.5309563924 -0.0516915011 0.5310427965 -0.0519125881 -0.1752349447 0.0692136686
85299490.0 -0.1824156157 0.0642594281 0.5318910409 -0.0583621473 0.5321582195 -0.0579704428 -0.1731172132 0.0694068841
90299460.0 -0.1802586284 0.0650848014 0.5325221919 -0.0656905174 0.5331324897 -0.0653056194 -0.1703475174 0.0701816805
95299430.0 -0.1782511101 0.0652825203 0.5341798749 -0.0721502005 0.534189035 -0.0727341467 -0.168224284 0.0711995607
100299400.0 -0.1768482995 0.0664683661 0.5338217726 -0.0792908563 0.5344870219 -0.0791636718 -0.1663975858 0.0715432887
105299370.0 -0.1749230429 0.0670093024 0.5346356935 -0.0866457118 0.5350477602 -0.086274882 -0.1643825617 0.0721943375
110299340.0 -0.1734578749 0.0676253611 0.5347870378 -0.0929855364 0.5347172294 -0.0926847168 -0.163077074 0.0728426299
115299310.0 -0.1716622931 0.0681082599 0.5346227994 -0.0996281251 0.5344429413 -0.0995583493 -0.1610648024 0.0735301062
120299280.0 -0.1708029749 0.0685326189 0.5345610978 -0.1066822961 0.5345219331 -0.1067371964 -0.1596347848 0.0746185387
125299250.0 -0.1694904598 0.0691093523 0.534322316 -0.1130740495 0.5341655093 -0.1127384995 -0.1584576395 0.0748314971
130299220.0 -0.1685282747 0.07054728 0.5330734091 -0.119969673 0.533404606 -0.1200724898 -0.1572618525 0.0754618342
135299190.0 -0.1675580199 0.0712141852 0.5328702091 -0.126637928 0.5327436417 -0.1266570632 -0.1556364793 0.0765913763
140299160.0 -0.1666328499 0.0721699288 0.5320848689 -0.1332557329 0.5318599274 -0.1333563437 -0.1543230182 0.0780791327
145299130.0 -0.1656578525 0.0727937373 0.531508038 -0.1397017577 0.5306560222 -0.1399815389 -0.1533072897 0.078809886
150299100.0 -0.1645093435 0.0739628679 0.5296416158 -0.1462103471 0.5298964451 -0.1458428273 -0.152307992 0.0800537252
155299070.0 -0.1636566392 0.0746958349 0.5289236217 -0.1533193286 0.5283999374 -0.1524309484 -0.1509964052 0.0811126702
160299040.0 -0.1627170362 0.075932409 0.527324925 -0.1594353576 0.5270975727 -0.159720112 -0.1505025836 0.0822741042
165299010.0 -0.1622987669 0.076858223 0.5257277767 -0.1659587967 0.5257944741 -0.1659948063 -0.1490303993 0.0835118494
170298980.0 -0.1615043164 0.0775611921 0.5241504474 -0.1721472299 0.5242555934 -0.1721318746 -0.147893715 0.0848133652
175298950.0 -0.1605699995 0.078772016 0.5231424989 -0.1781764388 0.5224497146 -0.1783123342 -0.1473576657 0.0858769412
180298920.0 -0.1599998526 0.0799724869 0.5211432632 -0.1849972372 0.5209334991 -0.1844938678 -0.1463577199 0.0872909376
185298890.0 -0.1589475899 0.0809861043 0.5193025848 -0.1905275611 0.5188756158 -0.1905674332 -0.1453973326 0.0886503173
190298860.0 -0.1584224544 0.0822809807 0.5169929979 -0.1969806367 0.5172542079 -0.1969001668 -0.1446721249 0.0896096588
195298830.0 -0.1578707233 0.0830225009 0.5151081894 -0.2032300229 0.5152664555 -0.2029623216 -0.1435128703 0.0912238506
200298800.0 -0.1565372524 0.0846083783 0.5127476972 -0.2095827539 0.5127974191 -0.2093354363 -0.1429672729 0.0924472586
205298770.0 -0.156148941 0.0859258586 0.5107632225 -0.2156371321 0.5106372577 -0.215075045 -0.1417955418 0.0932229765
210298740.0 -0.1552101276 0.0868818851 0.5084574363 -0.2209684779 0.5086231365 -0.221400928 -0.1406768052 0.0958376196
215298710.0 -0.1550467812 0.0882016161 0.5066305708 -0.2272270722 0.506137635 -0.2277403734 -0.1404225857 0.0970031366
220298680.0 -0.1540569138 0.0891676013 0.5036401108 -0.232746895 0.5038580609 -0.2329768528 -0.139825078 0.0975716939
225298650.0 -0.1531800096 0.0905528143 0.5010861576 -0.2388405566 0.5015052387 -0.2387531347 -0.1389053385 0.0987505955
230298620.0 -0.1525079726 0.0923392686 0.4988207468 -0.2445661815 0.4992427194 -0.2447865217 -0.1379754456 0.1000835696
235298590.0 -0.1517559202 0.0937639044 0.4959911421 -0.2501549866 0.496284927 -0.2502244728 -0.1372623838 0.1017587312
240298560.0 -0.1510540957 0.0949121776 0.4934172556 -0.2561951178 0.4932330551 -0.2565945553 -0.1360015888 0.1036071219
245298530.0 -0.1505044076 0.0962763453 0.4913728113 -0.2617037216 0.490901065 -0.2617497121 -0.1347692472 0.1040051088
250298500.0 -0.1493219214 0.0977279539 0.4873282997 -0.2675861104 0.4871126133 -0.2670779461 -0.1340710788 0.1054434286
255298470.0 -0.1484982308 0.0986931844 0.48427543 -0.2728028326 0.4849411302 -0.2726746949 -0.1325570825 0.1071582861
260298440.0 -0.1479731567 0.1000792889 0.4816619558 -0.2786167322 0.4822542656 -0.2782274116 -0.131549712 0.1082255127
265298410.0 -0.146740908 0.1018805959 0.4786851592 -0.2844863878 0.4793104485 -0.2839145131 -0.1308972767 0.1097232677
270298380.0 -0.1459324258 0.1029434999 0.4760996986 -0.2893471862 0.4761006346 -0.2894139828 -0.1295835289 0.1111268351
275298350.0 -0.1449111881 0.1042282057 0.4725590293 -0.2950925597 0.4730072089 -0.295222504 -0.1285063472 0.1123531066
280298320.0 -0.1439982755 0.1056472531 0.4696924836 -0.3002340272 0.4696455738 -0.2998962896 -0.1270748606 0.1134985886
285298290.0 -0.1431167422 0.1071579507 0.4666769306 -0.3054232447 0.4662382226 -0.3055015164 -0.1260305291 0.1147624586
290298260.0 -0.1420506436 0.1083857798 0.4626990306 -0.3106980876 0.4632818455 -0.3106911934 -0.1245132466 0.1165935937
295298230.0 -0.1409001714 0.1096743457 0.4597390694 -0.3157922974 0.459352671 -0.3158934319 -0.1228892869 0.117525484
300298200.0 -0.1402963215 0.1108621089 0.4565631886 -0.321148176 0.4565474805 -0.3216635939 -0.1217947966 0.1189409933
305298170.0 -0.1389866311 0.112251574 0.4525787691 -0.3270760434 0.4526298477 -0.326615898 -0.120093025 0.1201042333
310298140.0 -0.1378590705 0.1135736237 0.4491810579 -0.331765601 0.44929915 -0.33146569 -0.1189588661 0.1214534025
315298110.0 -0.13704881 0.1142843003 0.4458850156 -0.3369214282 0.4455429224 -0.3367774582 -0.1174323484 0.1228943449
320298080.0 -0.1359009589 0.1158270348 0.4414929753 -0.3424617729 0.4416574585 -0.3419026292 -0.1164854618 0.123943968
325298050.0 -0.1351339043 0.1170813759 0.4381428183 -0.3474054815 0.4379616581 -0.3471301341 -0.1151873668 0.1251020928
330298020.0 -0.1340788827 0.1181864214 0.4337950262 -0.3525896829 0.4339389272 -0.3523066526 -0.1142241945 0.1267153744
335297990.0 -0.1329789013 0.1193744787 0.4298125195 -0.3566346051 0.4296297722 -0.3569817828 -0.1131466226 0.1282804715
340297960.0 -0.1327442307 0.1209851765 0.4256720425 -0.3615966663 0.4252016363 -0.3617427089 -0.111253234 0.1295166172
345297930.0 -0.131326633 0.1226586446 0.4213122542 -0.3663534933 0.4213296589 -0.3668162593 -0.1102640271 0.1307796064
350297900.0 -0.1304936233 0.12350549 0.4168690375 -0.3710205493 0.4173296917 -0.3710635585 -0.1093723768 0.1325891616
355297870.0 -0.129270232 0.125645658 0.4130227327 -0.3754156599 0.4138371202 -0.3755310114 -0.1081099633 0.1338926763
360297840.0 -0.1281199984 0.1267023114 0.4096407048 -0.3799718399 0.4098066925 -0.3800602029 -0.1064107248 0.1354280124
365297810.0 -0.1270494207 0.1281662662 0.4053002935 -0.3847182883 0.4050773133 -0.3847617368 -0.1048190207 0.1365055574
370297780.0 -0.1258910549 0.1294418434 0.4003357611 -0.3888504226 0.401125772 -0.3886548924 -0.1039243817 0.1382894953
375297750.0 -0.1243046667 0.1304577133 0.3963776374 -0.3932470191 0.3967304646 -0.3934050529 -0.1022384288 0.1392713346
380297720.0 -0.1234796963 0.132026575 0.3919059761 -0.3977369655 0.3920180246 -0.3968920471 -0.101407746 0.1405184192
385297690.0 -0.1225307096 0.1333892688 0.3873837773 -0.4019517642 0.3874401666 -0.4016413667 -0.0994887547 0.1420691967
390297660.0 -0.1212538265 0.134909296 0.3835124737 -0.4059784509 0.383312617 -0.4057360468 -0.0985547607 0.1431966759
395297630.0 -0.1199948951 0.1363817293 0.3788843802 -0.4107496745 0.3791124001 -0.4107049597 -0.0963924499 0.1444900491
400297600.0 -0.1186258576 0.137788775 0.3741487609 -0.4150021319 0.3743425809 -0.4147849592 -0.0949493517 0.1458641457
405297570.0 -0.1175534967 0.138784284 0.3695076234 -0.4183468775 0.3695834419 -0.4185272203 -0.0937047619 0.1471884998
410297540.0 -0.1161337936 0.1399945332 0.3651040556 -0.4228540994 0.3654498591 -0.4226669022 -0.0921758523 0.1482203393
415297510.0 -0.114553529 0.1410956953 0.3603309174 -0.4267354523 0.3606128144 -0.4269996375 -0.0906319852 0.1493376239
420297480.0 -0.1136290095 0.1427554897 0.3558036879 -0.4305611213 0.3553838013 -0.4312132373 -0.0890490466 0.1504695803
425297450.0 -0.1119425657 0.1434758504 0.3510347184 -0.4342569219 0.3511670761 -0.4346932004 -0.0878670865 0.1517211975
430297420.0 -0.1106626107 0.1446009566 0.3463470785 -0.4377662211 0.3458145091 -0.4380199798 -0.0861714147 0.1522077548
435297390.0 -0.1095353734 0.1462728254 0.3411978883 -0.4418602309 0.3411170972 -0.4421677928 -0.0840610834 0.1531855641
440297360.0 -0.1077810743 0.1474697527 0.3363795796 -0.4457311017 0.3361900268 -0.4459517811 -0.0825443987 0.1543964128
445297330.0 -0.1067321546 0.1481657937 0.3319738445 -0.4492014683 0.3315334837 -0.4487706014 -0.0809313981 0.1550799966
450297300.0 -0.1051110026 0.1492032231 0.3265598836 -0.4526886887 0.3268138007 -0.4532737339 -0.0790514037 0.1558396788
455297270.0 -0.1037470897 0.1505562846 0.3216616904 -0.4561998708 0.322120185 -0.4566899421 -0.0774243915 0.1572729435
460297240.0 -0.1026273753 0.1517001488 0.3163392314 -0.4596619505 0.3169590636 -0.4598533913 -0.0757434927 0.1584476323
465297210.0 -0.1007402668 0.1528975222 0.3115565672 -0.4633789275 0.3117399183 -0.4636859455 -0.0737009919 0.1590854199
470297180.0 -0.0992593618 0.1538877194 0.3064354292 -0.4667466943 0.3067013079 -0.4666949698 -0.0718542257 0.1602117921
475297150.0 -0.0979711738 0.1547389529 0.3013349303 -0.4694759434 0.3014924658 -0.4696527363 -0.0699179311 0.1606504328
480297120.0 -0.0963351836 0.1563763627 0.29644551 -0.4732871333 0.2959620571 -0.4734034277 -0.0677719811 0.1618037076
485297090.0 -0.094772691 0.1571717951 0.2912292647 -0.4760692749 0.2914165673 -0.4763056193 -0.066205889 0.162613348
490297060.0 -0.0940324141 0.1581612019 0.2862333998 -0.4798000457 0.2860001549 -0.4792386129 -0.0644278867 0.1638090422
495297030.0 -0.0922184463 0.1592967725 0.2808104128 -0.4824683684 0.2811673568 -0.4824743393 -0.0628186312 0.1644485528
500297000.0 -0.0904512643 0.1601497295 0.2757357716 -0.4852126175 0.2750969502 -0.4851910387 -0.0607747477 0.1659806986
505296970.0 -0.088775905 0.1612752456 0.2703234705 -0.4883787158 0.2698214005 -0.4886338187 -0.0588712382 0.1665973557
510296940.0 -0.087360632 0.1624474579 0.2647747721 -0.4917196417 0.2645020686 -0.4915835497 -0.0570927854 0.1678174568
515296910.0 -0.0856567744 0.1633213474 0.2593495927 -0.4945215207 0.259283721 -0.4939392594 -0.0551132759 0.1682229938
520296880.0 -0.0844642569 0.1640430987 0.2539459352 -0.4973287408 0.2538974865 -0.4970893238 -0.0531405064 0.1689238993
525296850.0 -0.0823721868 0.1647222907 0.2481356222 -0.4997362708 0.248864437 -0.4998327423 -0.051373338 0.170315898
530296820.0 -0.0809336318 0.1661412184 0.2430870693 -0.5027357597 0.2431549604 -0.5025050515 -0.0495230121 0.1707855763
535296790.0 -0.0796760298 0.1670583796 0.2380029152 -0.5046725289 0.2376722059 -0.5044870904 -0.0475890075 0.1711267412
540296760.0 -0.07785914 0.1678127768 0.2322699489 -0.5076937591 0.232081474 -0.5077167175 -0.0462134055 0.1725717965
545296730.0 -0.0763167342 0.1688699006 0.2266424727 -0.5098961877 0.2264377524 -0.5099660008 -0.0443270911 0.1727259716
550296700.0 -0.0741643582 0.1699403431 0.2207960005 -0.5125454176 0.2210144403 -0.5125408484 -0.042444645 0.1735526766
555296670.0 -0.0733770858 0.1702805439 0.2156066297 -0.5144945774 0.2154210107 -0.5149071885 -0.0406057617 0.1746115111
560296640.0 -0.0708758171 0.1716918232 0.2099971734 -0.517207943 0.2099001109 -0.5169859636 -0.0383702235 0.1748257233
565296610.0 -0.0697910088 0.1725401427 0.2038448366 -0.5195794548 0.2044806858 -0.5192806097 -0.0369374213 0.1751216436
570296580.0 -0.0678433899 0.1732990419 0.1983352406 -0.5218625245 0.1982672371 -0.5215078434 -0.0347248082 0.1764827091
575296550.0 -0.0667860831 0.1741611767 0.1931506094 -0.5238486627 0.1926866268 -0.5236975198 -0.0329314177 0.1766660574
580296520.0 -0.0643258352 0.1749493791 0.1868894244 -0.5261354418 0.1874210835 -0.5257063825 -0.0312628969 0.1769932782
585296490.0 -0.0632052043 0.1753879031 0.1820007898 -0.5274420687 0.1812446081 -0.5277814539 -0.0290680972 0.1777092728
590296460.0 -0.0609303179 0.1761173939 0.1760206444 -0.5286992052 0.1758518279 -0.529371619 -0.0277919612 0.178205992
595296430.0 -0.0592121327 0.1770143839 0.1694467365 -0.5313244677 0.1699295143 -0.531044062 -0.0254514433 0.1780626011
600296400.0 -0.0580977293 0.1777099772 0.1641036177 -0.5328298293 0.1642539298 -0.5327000864 -0.0237069242 0.1784817635
605296370.0 -0.0561952228 0.1783830268 0.1584682285 -0.5348292385 0.1585440623 -0.5346700428 -0.0212769113 0.178968386
610296340.0 -0.0543892978 0.1788989795 0.1522773012 -0.5362569521 0.1526306496 -0.5365122311 -0.019247186 0.1792940819
615296310.0 -0.052085091 0.1794549613 0.1464994156 -0.5378865682 0.1465257506 -0.5382058838 -0.0170755958 0.1794419965
620296280.0 -0.0505944634 0.1798972267 0.1411915423 -0.5391709833 0.1410975941 -0.5393777073 -0.0155330416 0.1797811444
625296250.0 -0.0493665166 0.1805557733 0.1356995899 -0.5411311433 0.1347442873 -0.5412845096 -0.0129002391 0.1799372138
630296220.0 -0.0467127848 0.1813722227 0.1286051854 -0.5423240821 0.1286655425 -0.5419287675 -0.0111779546 0.1804632131
635296190.0 -0.0461291849 0.1816675274 0.1232712046 -0.5433243986 0.1230954996 -0.5435306937 -0.0087179814 0.1805604107
640296160.0 -0.04413782 0.1824305758 0.1174124575 -0.544477143 0.1178568425 -0.5446068189 -0.0067668236 0.1808643479
645296130.0 -0.0420629217 0.1831864206 0.1112266686 -0.5457595098 0.1120782698 -0.5460371332 -0.004639426 0.181334801
650296100.0 -0.0403189647 0.1836460797 0.1056758539 -0.5469108332 0.105777219 -0.5473480117 -0.0027831579 0.1808750073
655296070.0 -0.0390052906 0.1837932739 0.1000338534 -0.5483502642 0.0998354457 -0.5482669209 -0.000671634 0.1815055222
660296040.0 -0.0373307222 0.1842395851 0.0943396118 -0.5491599863 0.093839881 -0.5493666126 0.0018370261 0.1814987795
665296010.0 -0.0349235645 0.1846274441 0.0875591632 -0.5501579924 0.087959916 -0.5500932203 0.0038485094 0.1820590752
670295980.0 -0.0338806408 0.1855695225 0.0820622936 -0.5508426005 0.0819536486 -0.5511682001 0.0054752343 0.1818256262
675295950.0 -0.0317786226 0.1859210421 0.0760592046 -0.551596949 0.075837472 -0.5513739907 0.0073915678 0.1821448227
680295920.0 -0.0300292079 0.1862396461 0.0698884457 -0.5527305672 0.0697705692 -0.5533667045 0.009777506 0.182810235
685295890.0 -0.0278972024 0.1871295648 0.0641855603 -0.5534026264 0.0636593448 -0.5535205603 0.0116254984 0.1824890529
690295860.0 -0.0259604108 0.1875777841 0.0581110584 -0.553370478 0.0582439079 -0.5542997857 0.0133016697 0.1833185885
695295830.0 -0.024339879 0.1876001015 0.0525827904 -0.5543166603 0.0518534632 -0.5547163249 0.0154638396 0.1833040345
700295800.0 -0.0222922059 0.1876925197 0.0459188102 -0.5547290663 0.0458565765 -0.5548173374 0.0175703564 0.1833103985
705295770.0 -0.0206675894 0.1889010329 0.0397594488 -0.5556276992 0.0402719629 -0.5558065043 0.019621748 0.1835511128
710295740.0 -0.0185903989 0.1889907278 0.0344149061 -0.5564605981 0.0342980626 -0.55584728 0.0216685656 0.1827662341
715295710.0 -0.0173262534 0.1890089662 0.0285598073 -0.5561737867 0.0279492555 -0.5566467876 0.0239601303 0.1832670643
720295680.0 -0.0151264839 0.1893499806 0.022513672 -0.5565387292 0.0223631405 -0.5565300836 0.0257367126 0.1830483624
725295650.0 -0.0131772109 0.1897843029 0.0161505855 -0.5564022569 0.0163710441 -0.5568493986 0.0273602188 0.1832422274
730295620.0 -0.0113598462 0.1903464262 0.0099877101 -0.5566443405 0.0102346511 -0.5566596751 0.0292026245 0.1826797466
735295590.0 -0.0094821981 0.1904700664 0.0042657487 -0.5570021846 0.0040635658 -0.556877346 0.0308222971 0.1824829938
740295560.0 -0.0079045047 0.1906555157 -0.0015857821 -0.5565922217 -0.001789765 -0.5567405934 0.0337690669 0.1824392451
745295530.0 -0.0059771037 0.1910501228 -0.0080496518 -0.5562912071 -0.0083306854 -0.5567399311 0.0354186071 0.1820723248
750295500.0 -0.0037762237 0.1911521719 -0.0139391795 -0.5564331258 -0.0138863354 -0.556831569 0.0372703086 0.181424977
755295470.0 -0.0021473077 0.1909417235 -0.0196195495 -0.5562478813 -0.019801978 -0.55616185 0.0396235937 0.1810405306
760295440.0 -0.0003903315 0.1913938485 -0.0258364225 -0.5562726442 -0.0259110284 -0.556238491 0.0411128546 0.1807546684
765295410.0 0.0016073837 0.1915442123 -0.0320566833 -0.5558907235 -0.032207931 -0.5558318962 0.0435983442 0.180810386
770295380.0 0.0032606483 0.1913360406 -0.0379544762 -0.5552519552 -0.0381635617 -0.5552121686 0.0451600023 0.1802008999
775295350.0 0.0049452327 0.1911898089 -0.0441415004 -0.5541958895 -0.0431726957 -0.5545542561 0.0466297824 0.1798951383
780295320.0 0.0069078102 0.1916639302 -0.050001354 -0.553714376 -0.0493475065 -0.5541636067 0.0489740706 0.1790226608
785295290.0 0.0086029686 0.1911931838 -0.0560797511 -0.5529279355 -0.0561342022 -0.5536571049 0.0513122193 0.178801971
790295260.0 0.011191837 0.1918603052 -0.0615535219 -0.5528020164 -0.060983776 -0.5527729298 0.0531855418 0.1784832757
795295230.0 0.0125672252 0.1916954239 -0.0674615699 -0.5521722515 -0.0673051254 -0.5521536623 0.0553701657 0.1778439917
800295200.0 0.0143738428 0.1919761489 -0.0740368571 -0.5516577446 -0.0736074974 -0.5509808516 0.0574246185 0.1772941642
805295170.0 0.0162919119 0.191535116 -0.0793105737 -0.5502232366 -0.0795401214 -0.550608555 0.0592771112 0.1770717177
810295140.0 0.0179260839 0.1913531133 -0.0849529216 -0.5494425644 -0.0852484302 -0.5494423427 0.0620295927 0.1767672688
815295110.0 0.0199851865 0.1912636166 -0.091465748 -0.5480737469 -0.0910591533 -0.5484441837 0.0635275285 0.1756752045
820295080.0 0.0212901213 0.1917846009 -0.0968838941 -0.5470905088 -0.0968541637 -0.5474150961 0.0654278352 0.1754149133
825295050.0 0.0240760381 0.1914563578 -0.1024612195 -0.5461300009 -0.1030171223 -0.5463591157 0.0675253353 0.1746395388
830295020.0 0.0253994227 0.1915997846 -0.1086974863 -0.5446363861 -0.10913725 -0.5449447813 0.0701564984 0.1741467547
