!Created with skrf (http://scikit-rf.org).
# Hz S RI R 50.0 
!freq ReS11 ImS11 ReS21 ImS21 ReS12 ImS12 ReS22 ImS22
300000.0 -0.096100485 -0.1044219435 0.6233235364 0.0965167028 0.6216456752 0.096221321 -0.0952018267 -0.1093019556
5299970.0 -0.1016281308 0.011301393 0.6303666372 0.0113257861 0.631070551 0.0114154056 -0.1014789768 0.0112793426
10299940.0 -0.096669737 0.0286327354 0.6350166803 0.0159429821 0.634059134 0.0165233236 -0.0962960728 0.028190638
15299910.0 -0.0892044009 0.0423296878 0.6406451882 0.0214228389 0.6406428157 0.0213613991 -0.0896179254 0.0417923486
20299880.0 -0.0801292431 0.0533660485 0.6487964483 0.0243321041 0.649009567 0.0246814017 -0.0806721617 0.0528298979
25299850.0 -0.0699944475 0.0621837534 0.6582554935 0.0255641624 0.6581296193 0.0254975371 -0.0715400738 0.0619531506
30299820.0 -0.0607109975 0.068755705 0.6681275023 0.0241080102 0.6679158525 0.0244995685 -0.0617134119 0.0684745181
35299790.0 -0.0503454533 0.0734939939 0.6769095363 0.0220882403 0.677640607 0.0216172896 -0.0522004165 0.0736439261
40299760.0 -0.0411033206 0.0761763025 0.686701267 0.0181692225 0.6868245505 0.0175489692 -0.0424202656 0.0767055868
45299730.0 -0.031842984 0.0784462184 0.6960569999 0.0126396718 0.6958346075 0.0121007553 -0.0332669635 0.0790945922
50299700.0 -0.0227383293 0.0790524582 0.7039037885 0.0049255282 0.7041076681 0.0047273162 -0.0245179724 0.0803451416
55299670.0 -0.0152073699 0.0789381397 0.7113961442 -0.0021633014 0.7107844968 -0.0025064728 -0.0171782147 0.0804060898
60299640.0 -0.0077174522 0.0786227353 0.717844537 -0.0109510888 0.7180562712 -0.0111186401 -0.009472228 0.079779404
65299610.0 -0.0010483049 0.0772727011 0.7242693043 -0.0198081832 0.724411787 -0.0199731651 -0.0024954382 0.0786452377
70299580.0 0.0054075635 0.0750477323 0.7288379404 -0.0285070857 0.7295141367 -0.0288589899 0.0032326211 0.0774921337
75299550.0 0.0105596744 0.0731377016 0.7336456807 -0.0397016337 0.7333124703 -0.0389279555 0.0088940809 0.0753673596
80299520.0 0.0155724547 0.0717017513 0.7373606938 -0.048766959 0.7378369469 -0.0487060616 0.0138421925 0.0736023275
85299490.0 0.0200729185 0.069127332 0.7409104249 -0.0585976287 0.7412052513 -0.058666102 0.0182953616 0.0711174346
90299460.0 0.0239110143 0.0666945694 0.7432159839 -0.0685581336 0.743566489 -0.068162131 0.0227008373 0.0693238577
95299430.0 0.0279551306 0.0640472628 0.7458836129 -0.0786678449 0.746616402 -0.0789315421 0.0260105954 0.066592334
100299400.0 0.0310886396 0.0614080345 0.7475821631 -0.0887453413 0.7478082672 -0.088829715 0.0292093375 0.0647657955
105299370.0 0.0344527868 0.0590514707 0.7489462592 -0.0989305953 0.7498113829 -0.0991963982 0.0331499909 0.0617451981
110299340.0 0.0372858175 0.0563941126 0.7510722226 -0.1080890447 0.7508849912 -0.1081035353 0.0351328215 0.0593955843
115299310.0 0.0396937417 0.0543346425 0.7510299864 -0.118863896 0.7510780565 -0.1188218489 0.0376184765 0.0575700783
120299280.0 0.0415920806 0.0522927793 0.7518848267 -0.1295530763 0.7518480502 -0.1297312627 0.0399281656 0.0547858887
125299250.0 0.0439894554 0.0497079385 0.7523646162 -0.1391753383 0.751620183 -0.1387315293 0.042186877 0.0529501231
130299220.0 0.0458491647 0.0469462722 0.7519077214 -0.1491292053 0.751697569 -0.1493297794 0.0439957823 0.0506905736
135299190.0 0.0469207548 0.0452787736 0.75169115 -0.1587162855 0.752029885 -0.1587240329 0.0455876702 0.0480017289
140299160.0 0.0489299816 0.0431827498 0.7515257527 -0.1686960273 0.7513987516 -0.1680415014 0.0463742944 0.0455444747
145299130.0 0.0493338592 0.0409751793 0.7502037335 -0.1783676237 0.7503877929 -0.1777029908 0.0480637876 0.0439837582
150299100.0 0.0511169027 0.0393137884 0.7490707739 -0.1879552543 0.749498442 -0.1878767601 0.0495426277 0.042108569
155299070.0 0.0527978026 0.0371870362 0.7473474837 -0.1983299308 0.748234218 -0.1974446748 0.0506673321 0.0397113677
160299040.0 0.0533190995 0.0353528895 0.7472496253 -0.2071420196 0.7468342986 -0.2070350452 0.05098229 0.0382271217
165299010.0 0.0544979106 0.0334002324 0.7457032234 -0.2160543275 0.7451020792 -0.2166185483 0.0521235154 0.0359550583
170298980.0 0.055110025 0.0319594402 0.7431137494 -0.225678834 0.7432857745 -0.2261212773 0.0528197637 0.0339480237
175298950.0 0.0559470504 0.0304580644 0.7418907878 -0.2355516525 0.7419824609 -0.2353402458 0.0537091545 0.0327026667
180298920.0 0.0562861728 0.0287621013 0.7395489367 -0.2446351315 0.7395429 -0.244612142 0.0542066368 0.0309562898
185298890.0 0.0567736656 0.0269832698 0.7379896558 -0.2537397933 0.737411133 -0.2532244875 0.0552369887 0.029173192
190298860.0 0.0579190749 0.0255459492 0.7344315013 -0.2629417296 0.7349969351 -0.2623123951 0.0552707786 0.0275801577
195298830.0 0.0579382132 0.0238463542 0.7328959585 -0.2718686334 0.7325265425 -0.2716999069 0.0557606318 0.0260680416
200298800.0 0.0587616341 0.0223208542 0.7298548149 -0.2811778278 0.7296513222 -0.2810708607 0.0564569371 0.0240629257
205298770.0 0.0583991902 0.0206986902 0.7264810162 -0.2892176551 0.7273249948 -0.2889978573 0.0572265281 0.0229901611
210298740.0 0.0591570138 0.0198414132 0.7243055024 -0.2980762716 0.7233105772 -0.2985841281 0.056895533 0.0208746171
215298710.0 0.0593826327 0.0187156003 0.7208575266 -0.3069155286 0.7208513587 -0.3072879166 0.0572128834 0.0202301378
220298680.0 0.0596937327 0.0176878682 0.7176451973 -0.3155011254 0.7174641531 -0.316050742 0.0575752991 0.0182223104
225298650.0 0.0598676264 0.0159605792 0.7141610376 -0.3238214214 0.7144434955 -0.3237951056 0.0577450056 0.0167486105
230298620.0 0.0603971768 0.0149056209 0.7116322084 -0.3329233588 0.7112359699 -0.3330749547 0.0575015597 0.0154081492
235298590.0 0.0600123246 0.0138771267 0.7082911039 -0.3421434565 0.7079051375 -0.3411847106 0.0578679173 0.0143527447
240298560.0 0.0603140187 0.0129049606 0.703922835 -0.3496762832 0.7039564871 -0.3491616676 0.0579210138 0.0127270917
245298530.0 0.0603744378 0.0110820243 0.7006251509 -0.3583071887 0.7001796283 -0.3583278932 0.0579390864 0.0119408974
250298500.0 0.060262478 0.0100510121 0.6964188438 -0.3665298037 0.6964314978 -0.365941016 0.0581096273 0.0106646431
255298470.0 0.0602701844 0.0094839988 0.693115664 -0.37410658 0.6931641443 -0.3748013551 0.0580828144 0.0099772631
260298440.0 0.0607694301 0.0081425013 0.6892122899 -0.3816449309 0.6888450991 -0.3819313325 0.0578726179 0.0079868176
265298410.0 0.060067346 0.0073643278 0.6846550848 -0.3908278201 0.6844930743 -0.3906876892 0.0589348826 0.0067416
270298380.0 0.0602517866 0.0061109599 0.6805294644 -0.3984847799 0.6805426056 -0.3975496036 0.0584083338 0.0061417585
275298350.0 0.0603547459 0.0054831756 0.6752229578 -0.4060190571 0.6755706906 -0.4062295259 0.0579519261 0.0048376218
280298320.0 0.0596857596 0.0042478052 0.6721859418 -0.4133569742 0.6725036182 -0.4136282897 0.0583897232 0.0038027882
285298290.0 0.0599271274 0.0033788119 0.6677338798 -0.4221006989 0.6676658926 -0.4213522982 0.0580376981 0.0026160846
290298260.0 0.0598772797 0.0025125975 0.6631858674 -0.4293310356 0.6633602813 -0.429714254 0.0581664071 0.0015113999
295298230.0 0.0600881701 0.0013780514 0.6584277773 -0.4378235498 0.6583188573 -0.4378447705 0.0582451419 0.0002920786
300298200.0 0.0603003987 0.0007330103 0.6540180443 -0.4452329298 0.6537396429 -0.4449726995 0.0579700065 -0.0003712022
305298170.0 0.0600907286 -0.0009603891 0.649109037 -0.4535475567 0.6493118185 -0.4532344177 0.0578537335 -0.0020819212
310298140.0 0.0602093195 -0.0018500344 0.6444262223 -0.4603110899 0.6443184622 -0.4604593326 0.0581771083 -0.0035934721
315298110.0 0.0598345551 -0.0030494827 0.6396115054 -0.4688700793 0.6390399058 -0.4685658141 0.0576891918 -0.0044810902
320298080.0 0.0598483021 -0.0038278967 0.633617347 -0.4759798165 0.6343684901 -0.47629366 0.0575000562 -0.005730633
325298050.0 0.0586975379 -0.0052327127 0.6286452458 -0.4830320721 0.6288776415 -0.4831197067 0.0573469889 -0.006686483
330298020.0 0.0572993233 -0.0058832326 0.6226104828 -0.4908518315 0.6233123145 -0.4908134446 0.0562716074 -0.0080202171
335297990.0 0.0577279233 -0.0069105601 0.6172791343 -0.4975198838 0.6172528292 -0.4975254561 0.0558843837 -0.0089121891
340297960.0 0.0570346748 -0.0077727823 0.6115906354 -0.5050128033 0.6105338518 -0.5049029099 0.0553849285 -0.0092474848
345297930.0 0.0561952614 -0.0083878707 0.605672814 -0.5116429951 0.6056970067 -0.5117619605 0.0551847816 -0.0103823659
350297900.0 0.0557962007 -0.0092293661 0.6003841253 -0.5177642582 0.6002862369 -0.5179342269 0.0546415492 -0.0113167444
355297870.0 0.0555212085 -0.0098181394 0.594862033 -0.5239992153 0.5941619741 -0.5242432333 0.0546115914 -0.0119745772
360297840.0 0.0550419597 -0.0107106094 0.588346057 -0.5313489809 0.5883783079 -0.531704542 0.0533861802 -0.0122505012
365297810.0 0.0547795648 -0.0109280819 0.5823253653 -0.5377554196 0.5821773042 -0.5384219535 0.053135705 -0.0129624741
370297780.0 0.05483767 -0.0112826325 0.576586092 -0.5446956255 0.5769889591 -0.5442687752 0.0528455385 -0.0139750073
375297750.0 0.0542381646 -0.0121109375 0.5708865737 -0.5507418562 0.5705376298 -0.5512458939 0.0530019474 -0.0145987313
380297720.0 0.0534037885 -0.0128980844 0.5645478896 -0.5579173162 0.5638518893 -0.5578129271 0.0524349749 -0.0148482197
385297690.0 0.0530540464 -0.0139411848 0.5586091932 -0.5634014985 0.5584882528 -0.5641878125 0.0523840247 -0.0154528372
390297660.0 0.0530388412 -0.0144284073 0.5523437357 -0.5694687658 0.5521975918 -0.5699335414 0.0521028642 -0.0164931338
395297630.0 0.0530991572 -0.0149233027 0.5464073331 -0.5752272536 0.5456409093 -0.5754455273 0.0511045322 -0.0168112198
400297600.0 0.0520270907 -0.0158329846 0.5395651282 -0.5819451799 0.5400391772 -0.5821222896 0.0512361812 -0.0169820754
405297570.0 0.0519171417 -0.016876587 0.5334449686 -0.5874993303 0.5331786023 -0.5877514651 0.0511754645 -0.0179661376
410297540.0 0.0515634276 -0.0168519769 0.5263496513 -0.5934855114 0.5267184047 -0.593712365 0.0505441827 -0.0186251466
415297510.0 0.0509250887 -0.0173071232 0.5204975988 -0.5995843531 0.5202667196 -0.5998008291 0.0504720974 -0.0189289271
420297480.0 0.0506893367 -0.0187099619 0.5134294633 -0.6049503281 0.5136985211 -0.6054994665 0.0503096729 -0.019544645
425297450.0 0.050816993 -0.0188545124 0.507100215 -0.6105446245 0.5069113904 -0.6114431712 0.0496095398 -0.0203881478
430297420.0 0.0499555392 -0.0193872679 0.5012039977 -0.617290655 0.5009654422 -0.6163105503 0.0499380049 -0.020917408
435297390.0 0.0497015078 -0.0202634358 0.4930741176 -0.6231047526 0.4933311917 -0.6222975808 0.0488279189 -0.0210381302
440297360.0 0.0494927054 -0.0210326902 0.4861987346 -0.6280064773 0.4862172525 -0.6274102547 0.0488197089 -0.0218830557
445297330.0 0.0494292473 -0.0217848835 0.4801646768 -0.6324768032 0.4795602989 -0.6330008605 0.0484197794 -0.022052113
450297300.0 0.0487375489 -0.0222761467 0.4728054118 -0.6383404922 0.4727924962 -0.637896708 0.0480766763 -0.0227437552
455297270.0 0.048057313 -0.0229909515 0.4660293562 -0.6436059887 0.4657909871 -0.6436454072 0.0477709227 -0.0233822682
460297240.0 0.0480112075 -0.0234953506 0.4586381898 -0.649121972 0.4580824371 -0.6488640883 0.047355223 -0.0238698078
465297210.0 0.0476126284 -0.024151229 0.4508478056 -0.6539788607 0.4508060152 -0.6537213027 0.047468923 -0.0238058581
470297180.0 0.0473374197 -0.0250584842 0.4441231105 -0.6581887364 0.4447279149 -0.6587226127 0.0471974216 -0.0249726661
475297150.0 0.0463759437 -0.0248722354 0.4365593916 -0.6634797233 0.4372163598 -0.6638834842 0.046674821 -0.0254482526
480297120.0 0.0467233323 -0.0251680907 0.4299449431 -0.6682995905 0.4297571097 -0.668609223 0.0460435772 -0.0260498521
485297090.0 0.0462643104 -0.0266586058 0.422313608 -0.6734187578 0.4221889831 -0.6725302601 0.0455984668 -0.0262990644
490297060.0 0.0462690681 -0.0268064712 0.4141571167 -0.6777555012 0.4151056906 -0.6778840076 0.0452429896 -0.0271579739
495297030.0 0.04521269 -0.0278809622 0.4076335377 -0.6827060992 0.4075135664 -0.6828752289 0.0456460751 -0.0276440427
500297000.0 0.0446912796 -0.0277769058 0.4001294555 -0.6862995437 0.399834797 -0.6869075558 0.0449052875 -0.0276265152
505296970.0 0.0450941986 -0.0283392558 0.3925312863 -0.6915277566 0.3923036019 -0.6908454458 0.0442252699 -0.0291061378
510296940.0 0.0443736932 -0.0291804556 0.3846851587 -0.6961965465 0.3848548696 -0.6963616253 0.0444593675 -0.028859136
515296910.0 0.043619039 -0.0293974273 0.3763672782 -0.700107829 0.3767264726 -0.6999401346 0.0435514714 -0.0299728722
520296880.0 0.0434810719 -0.0297636662 0.3695478923 -0.7036131426 0.3691664313 -0.7038151381 0.0438583125 -0.0295900551
525296850.0 0.0432297544 -0.0305811833 0.3615126311 -0.7075780597 0.3616114057 -0.7080222376 0.0434614409 -0.0305022865
530296820.0 0.042469151 -0.0312513289 0.3536919947 -0.7117964158 0.3540533299 -0.7118925809 0.0427118521 -0.0313867443
535296790.0 0.0428791061 -0.0311538663 0.3463095266 -0.7156920032 0.3463709302 -0.7155325328 0.0429823882 -0.0309802551
540296760.0 0.0421073682 -0.0313525532 0.3382042535 -0.7192464821 0.3382602359 -0.7193342954 0.0422639107 -0.0323047881
545296730.0 0.0408986662 -0.0317732314 0.3299821118 -0.7229285107 0.3300523387 -0.7229846065 0.0418931285 -0.0324337172
550296700.0 0.0415290478 -0.0325282001 0.3221564516 -0.7267691973 0.321958071 -0.7272208683 0.0416939286 -0.0328267184
555296670.0 0.0406460242 -0.0326227923 0.3144886733 -0.7308770559 0.3144758714 -0.7307365014 0.0409947788 -0.0339792832
560296640.0 0.0410850557 -0.0332885651 0.3063662083 -0.7334943682 0.3068970309 -0.7334778193 0.040497794 -0.0337242923
565296610.0 0.0395814774 -0.0336240993 0.2989928464 -0.7371700572 0.2989068843 -0.7365979112 0.0402860832 -0.0339184758
570296580.0 0.0393537627 -0.0336773902 0.2898832537 -0.7399345592 0.2902803956 -0.7406083031 0.0395095115 -0.0349938878
575296550.0 0.0390274819 -0.0345506016 0.2827898264 -0.7437970891 0.2820806708 -0.7432383135 0.0389685615 -0.0350418961
580296520.0 0.0386367775 -0.0342592689 0.2738295313 -0.746601016 0.2739918744 -0.7467819757 0.038096588 -0.0355504991
585296490.0 0.0382958491 -0.034665008 0.2665503193 -0.7496860683 0.265630306 -0.7489946349 0.0387224659 -0.0356995529
590296460.0 0.0383900366 -0.0349152668 0.257474689 -0.7523152605 0.2578910692 -0.7524382107 0.0375276038 -0.0360144745
595296430.0 0.0380223043 -0.0353934505 0.2494253037 -0.7550683662 0.2489636944 -0.7551585539 0.037499416 -0.0367706021
600296400.0 0.0377085398 -0.0356036531 0.2410948671 -0.7577147413 0.2409079052 -0.7580576791 0.0369124223 -0.0372157605
605296370.0 0.0362106558 -0.0361225831 0.2331365186 -0.7604480585 0.2325378567 -0.7606769432 0.0362095834 -0.0371407295
610296340.0 0.0364221991 -0.0358723771 0.2244581283 -0.7621152963 0.225005997 -0.7627863874 0.0354475007 -0.037558133
615296310.0 0.0361201992 -0.0362232053 0.2159538073 -0.7651825033 0.2154002229 -0.7649808338 0.0354442332 -0.0378662096
620296280.0 0.0352813609 -0.0361168013 0.2076662055 -0.7678976763 0.2076678686 -0.7672870778 0.0344383601 -0.0379709573
625296250.0 0.0345933439 -0.036678976 0.1991641045 -0.7697692346 0.1995300155 -0.7698244207 0.0336439369 -0.0387287429
630296220.0 0.034344567 -0.0367052011 0.1902199502 -0.7721545459 0.1908068499 -0.7717837259 0.0336827646 -0.0387491853
635296190.0 0.0333487639 -0.0367870347 0.182284578 -0.7737919624 0.1823774013 -0.773607072 0.0329121776 -0.0390262672
640296160.0 0.0329862803 -0.0371051155 0.1742034234 -0.7759987792 0.1736757942 -0.776122986 0.0323791019 -0.0392959123
645296130.0 0.0331617339 -0.0366849763 0.1654431424 -0.7777253175 0.1653455262 -0.7775733832 0.0315462724 -0.0405710384
650296100.0 0.0322875095 -0.0372252723 0.1572302201 -0.7795993327 0.1569622041 -0.7798755365 0.0319807675 -0.040390312
655296070.0 0.0317404523 -0.0375949959 0.1481095998 -0.7814627123 0.1485265295 -0.7807593436 0.0302647054 -0.0403007421
660296040.0 0.031252149 -0.0375543193 0.1399003062 -0.78259014 0.1398659073 -0.7829348632 0.0296405611 -0.0412625532
665296010.0 0.0308404353 -0.0378185954 0.1305616815 -0.7839802245 0.1313220055 -0.7841945855 0.029331288 -0.0409464071
670295980.0 0.0303893739 -0.0378564673 0.1224705913 -0.7859595953 0.1221778243 -0.7848471221 0.0282491711 -0.0414036523
675295950.0 0.0294905731 -0.0381975474 0.1137267809 -0.7865385927 0.1145711071 -0.7867494718 0.0278258108 -0.0413785548
680295920.0 0.0289283778 -0.0381001007 0.1054901714 -0.7881474566 0.1061365396 -0.7877453291 0.0278794593 -0.0421044335
685295890.0 0.0285520173 -0.0378970695 0.0963820603 -0.7893848939 0.097466513 -0.7892720229 0.0270368464 -0.0414952458
690295860.0 0.0274604561 -0.0379918441 0.0883862042 -0.7900607214 0.0881895599 -0.7903979528 0.0262266078 -0.0422249577
695295830.0 0.0273525554 -0.0383986033 0.0799962902 -0.7911640537 0.0799613136 -0.7905017679 0.0257227313 -0.0418582552
700295800.0 0.0270615756 -0.0382078996 0.0715827514 -0.7922726496 0.071637249 -0.7916923614 0.0248441736 -0.0422645457
705295770.0 0.0259181267 -0.0383076376 0.0624653129 -0.7927292442 0.0627138854 -0.7922733398 0.0243109795 -0.0421051592
710295740.0 0.0256919115 -0.0384831763 0.0542179798 -0.7932524007 0.053978718 -0.7932538784 0.0238290181 -0.0421247752
715295710.0 0.0248169132 -0.0380480794 0.0449360872 -0.7936209979 0.0455487577 -0.7940009466 0.0232188708 -0.0429045994
720295680.0 0.0248488333 -0.0381935724 0.0367011671 -0.7940558403 0.0366404621 -0.7946049868 0.0223909735 -0.0427523867
725295650.0 0.0232581065 -0.0385011222 0.0281894378 -0.7942222003 0.0281080451 -0.7942532163 0.0214605006 -0.0423713832
730295620.0 0.02219824 -0.0387747037 0.0191606966 -0.7945703848 0.019391841 -0.7935864557 0.0208301908 -0.0422581321
735295590.0 0.0226332448 -0.0385801435 0.0111595678 -0.7953349442 0.0107844841 -0.7947017086 0.0202917249 -0.043016519
740295560.0 0.0217038339 -0.0388642911 0.0024364855 -0.7954888289 0.0024484831 -0.7950806758 0.0190608186 -0.0425650588
745295530.0 0.0210238333 -0.0385476134 -0.0063244184 -0.7938898955 -0.0055984412 -0.7950406555 0.0177038269 -0.0428516445
750295500.0 0.0200907534 -0.0384319348 -0.0143708339 -0.7948227728 -0.015094184 -0.7945100102 0.0180403853 -0.0423206026
755295470.0 0.0193964643 -0.0385236685 -0.0229676125 -0.7949523184 -0.0232462747 -0.794895072 0.0174160517 -0.0423042343
760295440.0 0.0187873239 -0.0379054407 -0.0327526331 -0.7943008913 -0.0324094828 -0.7937395799 0.016973992 -0.0436209111
765295410.0 0.0187777535 -0.0385795558 -0.0406201119 -0.7933857216 -0.0404348476 -0.7933301116 0.0162780627 -0.042956462
770295380.0 0.0178648127 -0.0381395396 -0.0491830513 -0.7927756079 -0.0487783287 -0.7936158009 0.0149554561 -0.0428258541
775295350.0 0.017251968 -0.0387126355 -0.0576374016 -0.7927432033 -0.0572394897 -0.7917628053 0.0152391201 -0.0426400261
780295320.0 0.0165148011 -0.0381093989 -0.0661303517 -0.7916951197 -0.0658211625 -0.7914977967 0.0147895713 -0.042955486
785295290.0 0.0157687085 -0.0382745103 -0.0751308689 -0.7913949941 -0.0748197382 -0.7908369496 0.0126590968 -0.0422342372
790295260.0 0.0155465995 -0.0386563202 -0.0837004253 -0.790555557 -0.0833417863 -0.7901950682 0.0124835622 -0.0416700349
795295230.0 0.0146969031 -0.0385455244 -0.0920160075 -0.7894752378 -0.0921368963 -0.7896581747 0.0120007956 -0.0428630879
800295200.0 0.0134681781 -0.0380743886 -0.100117226 -0.787440501 -0.1006303005 -0.7884284202 0.0109564776 -0.0423102273
805295170.0 0.012808152 -0.0380614368 -0.1092726887 -0.7872442903 -0.1081414173 -0.7872891771 0.0114224201 -0.0422206056
810295140.0 0.0128218287 -0.0378377912 -0.1174611778 -0.7854899191 -0.1174118172 -0.7860109364 0.0102378164 -0.0424128952
815295110.0 0.0118667794 -0.037753249 -0.1259751419 -0.784578095 -0.1255520213 -0.7847073344 0.0094272766 -0.0419705611
820295080.0 0.0114339758 -0.0379328999 -0.1337463859 -0.7826287102 -0.1342575014 -0.7831411448 0.0080984496 -0.0412224189
825295050.0 0.0105536679 -0.0380938865 -0.1430124005 -0.7817566109 -0.1428588404 -0.7812200101 0.008706764 -0.0408718994
830295020.0 0.0096854237 -0.0379252833 -0.1516265723 -0.7801192564 -0.1515847748 -0.7800793787 0.0076279485 -0.0417654637
