!Created with skrf (http://scikit-rf.org).
# Hz S RI R 50.0 
!freq ReS11 ImS11 ReS21 ImS21 ReS12 ImS12 ReS22 ImS22
300000.0 -0.0471495108 -0.042101252 0.0002356542 -0.0003540512 0.0003843984 0.0005258647 -0.7730294676 -0.1306648974
5299970.0 -0.0485274334 0.0157429119 0.0002492597 -1.66735e-05 -3.65386e-05 0.0001792571 -0.7845594149 -0.0067747189
10299940.0 -0.0432747347 0.0317971545 -4.22415e-05 0.0001542025 -8.85069e-05 1.86991e-05 -0.7877949395 -0.0034165524
15299910.0 -0.035219898 0.0461886384 0.0001482335 0.0002563162 -1.81959e-05 6.13714e-05 -0.7931561936 -0.0013977603
20299880.0 -0.0250008098 0.0574527485 0.0001526682 0.0001199924 -8.61283e-05 0.0001159849 -0.7996907643 0.0022198328
25299850.0 -0.0145359012 0.0666313817 -9.29398e-05 0.0001172161 0.0001551632 5.5116e-05 -0.8061177961 0.0080247096
30299820.0 -0.0033764214 0.0730161978 -0.0001206946 0.0001547452 5.0219e-06 5.08926e-05 -0.8119277137 0.0165847621
35299790.0 0.0077982058 0.0775276134 8.45577e-05 -5.3929e-05 -0.0001176558 -5.70109e-05 -0.8168550253 0.0253023679
40299760.0 0.0190612492 0.0804398628 1.14216e-05 1.82403e-05 -5.68429e-05 -0.0001244867 -0.8213655982 0.0344968749
45299730.0 0.0295293851 0.0815569069 -5.18026e-05 -0.0001482721 2.35121e-05 0.0001107046 -0.8254747162 0.0446491416
50299700.0 0.0391417507 0.0815405979 -0.0001888023 6.61783e-05 -6.4429e-06 -1.961e-05 -0.8271395667 0.0541064446
55299670.0 0.0482787711 0.0803194175 6.69296e-05 9.8441e-05 -9.2087e-05 -2.49218e-05 -0.8295614033 0.0641437167
60299640.0 0.0567048614 0.0785334705 8.05832e-05 -0.0002515385 -5.76925e-05 5.16596e-05 -0.8308769634 0.0741408496
65299610.0 0.064388164 0.0762103112 -0.0001269894 -0.0001207202 0.0001123384 0.0001492623 -0.831721881 0.0839832247
70299580.0 0.0711126396 0.0732119057 5.17454e-05 -9.3591e-05 0.0001041272 -1.02804e-05 -0.8319837356 0.0948649886
75299550.0 0.0773689742 0.0701410418 0.0001449294 -0.0001187967 0.0001126697 -0.0001972194 -0.8323963321 0.1040456793
80299520.0 0.0828951199 0.0665145227 -0.0001838087 4.7404e-05 0.0001054303 3.48195e-05 -0.8319859326 0.1142804968
85299490.0 0.087612383 0.0628325962 -1.95103e-05 -9.95457e-05 -6.60726e-05 6.66244e-05 -0.8317348472 0.1238282342
90299460.0 0.0921558322 0.0592137691 1.34922e-05 -0.0001204032 3.27345e-05 0.0002310948 -0.8311938892 0.1334360597
95299430.0 0.0965531329 0.0547784123 2.41575e-05 -0.000113911 -0.0001057647 0.0001807812 -0.8288809863 0.142906695
100299400.0 0.0997284429 0.0511971468 9.55404e-05 -1.47614e-05 8.93936e-05 0.0002196824 -0.8288202454 0.152565783
105299370.0 0.1030346013 0.0471981547 -5.8702e-05 6.01142e-05 7.06944e-05 -0.0001026047 -0.827147225 0.1611573465
110299340.0 0.1059161539 0.0429461238 -1.77969e-05 -7.86943e-05 7.88005e-05 4.84914e-05 -0.8255760012 0.1711010937
115299310.0 0.1084087659 0.039077345 5.38164e-05 0.0002146184 -0.0001328249 6.30425e-05 -0.8243970701 0.1800274397
120299280.0 0.11031817 0.035319649 -7.4659e-06 5.15278e-05 -0.0001102333 9.32787e-05 -0.822489966 0.1892736512
125299250.0 0.1119830714 0.0313678144 -8.41537e-05 7.11043e-05 -0.0001457414 -1.44651e-05 -0.8209034121 0.1978423502
130299220.0 0.1133461889 0.0278558826 -3.88194e-05 0.0001068225 4.16691e-05 -3.28344e-05 -0.8186449994 0.2071731257
135299190.0 0.1151856325 0.0241774759 4.72453e-05 5.00751e-05 0.0002007125 9.25957e-05 -0.8168031304 0.215865068
140299160.0 0.1162959312 0.0204754514 -0.0002051044 -9.38281e-05 0.0001098999 0.0001667322 -0.8144863748 0.2251830772
145299130.0 0.1174002709 0.0169209895 -2.56385e-05 1.13559e-05 -8.15775e-05 4.04063e-05 -0.8123343398 0.2341335236
150299100.0 0.1185712717 0.013526329 0.0001478696 -4.36375e-05 -4.69413e-05 -0.0001083215 -0.8104031501 0.2431918751
155299070.0 0.1187633184 0.0102007015 -4.0228e-05 -8.26435e-05 -7.62788e-05 4.9398e-06 -0.8070232032 0.2519476162
160299040.0 0.1194430584 0.0069872672 4.34e-05 2.42929e-05 0.0002186119 -0.0001011212 -0.8049073465 0.2606039255
165299010.0 0.1198897515 0.0036827809 0.0002623291 0.000126001 0.0001262548 -2.57433e-05 -0.8024402206 0.2694163719
170298980.0 0.1199315393 0.0006834052 2.88548e-05 3.06064e-05 0.0002563646 -0.0001320327 -0.7992804902 0.2780536424
175298950.0 0.1202264676 -0.0022381721 3.66742e-05 0.0001879899 -0.0001103729 0.0001981586 -0.7970366972 0.2866605827
180298920.0 0.1203886185 -0.0052752194 -0.0001821446 -0.0001071893 -4.39079e-05 0.0001314704 -0.7933031285 0.2951597527
185298890.0 0.1203840378 -0.0084278536 -0.0002312338 3.96716e-05 -8.58705e-05 0.0001382183 -0.7903547384 0.3041157599
190298860.0 0.1205696471 -0.0111826128 8.731e-05 -0.000142996 -1.0354e-06 -6.30666e-05 -0.7878070883 0.312566451
195298830.0 0.1199963896 -0.0139359437 8.5272e-06 6.84286e-05 0.0002522205 3.55837e-05 -0.7845377367 0.3209361287
200298800.0 0.1197519556 -0.0165661301 1.5062e-06 -0.0001294099 3.24298e-05 -0.0001780361 -0.7819040111 0.3293265627
205298770.0 0.1198000182 -0.0191276046 -0.0001009311 0.0001196643 0.0001440267 4.68529e-05 -0.7777907161 0.3378293447
210298740.0 0.1190512051 -0.0217542507 0.0001801163 0.0001191592 -5.36455e-05 7.80707e-05 -0.7745678937 0.3457588453
215298710.0 0.1186937344 -0.0243756364 4.5246e-05 0.0001173949 5.5352e-05 0.0001972297 -0.7711280921 0.3540552405
220298680.0 0.1180823774 -0.0271681381 2.19914e-05 4.3153e-06 5.84067e-05 -0.0001429851 -0.7672448654 0.3618992409
225298650.0 0.1173545731 -0.0292650594 -0.0002087524 -5.8345e-05 -2.25416e-05 -0.0001416716 -0.7639985419 0.3706001869
230298620.0 0.1170536776 -0.0316394339 8.91937e-05 -5.34162e-05 4.37071e-05 3.11734e-05 -0.759992922 0.3789244499
235298590.0 0.1165401194 -0.0340398363 0.0001125363 0.0001117856 -0.0001681359 0.0001434166 -0.7561200091 0.3873760947
240298560.0 0.1157807578 -0.0366074028 -8.79271e-05 2.77792e-05 -9.73567e-05 -0.0001491434 -0.7516334767 0.3959391103
245298530.0 0.1151576212 -0.0387605184 -0.0001315965 -0.000188831 -2.50387e-05 9.13269e-05 -0.7479634277 0.4025167407
250298500.0 0.1140897333 -0.0407447536 2.26504e-05 -2.93587e-05 0.0001576448 -6.55174e-05 -0.7437825617 0.4105287668
255298470.0 0.1129840285 -0.0432427868 6.39936e-05 0.0001420774 0.0001060687 0.0001364117 -0.7389106278 0.4186824788
260298440.0 0.1122629769 -0.0452702609 1.64827e-05 6.3007e-06 6.14118e-05 6.21531e-05 -0.7347664449 0.4263102183
265298410.0 0.111528775 -0.0471682158 0.0001940326 0.0003223786 2.00627e-05 0.0002859739 -0.730579784 0.4342892608
270298380.0 0.1104046774 -0.0489436128 9.6289e-05 -0.0001834898 -6.31974e-05 -0.0001431159 -0.7254486234 0.440935314
275298350.0 0.1093908128 -0.0509449786 7.37289e-05 4.02754e-05 -0.0001615283 9.22631e-05 -0.7209753048 0.4487287535
280298320.0 0.1090373181 -0.0532621986 0.0001651327 -7.60728e-05 5.6221e-05 0.0001082869 -0.7156867408 0.4565098833
285298290.0 0.1081393565 -0.0546210659 -0.0001202596 -8.03053e-05 -1.31809e-05 4.57896e-05 -0.7105155643 0.4639085899
290298260.0 0.1070996206 -0.0569236051 -9.2018e-06 0.0002722092 0.000102823 3.40546e-05 -0.7059179044 0.4711605155
295298230.0 0.1059920175 -0.0587955693 0.000198648 6.25335e-05 -1.34149e-05 4.6674e-05 -0.7011203616 0.4779300276
300298200.0 0.1049056431 -0.0605849329 0.0001397062 -1.29101e-05 5.27609e-05 6.95843e-05 -0.6959983553 0.4856061475
305298170.0 0.1040268839 -0.06257787 1.59743e-05 0.0001272867 8.49102e-05 1.84276e-05 -0.6904518701 0.4930341643
310298140.0 0.1028288587 -0.0641883036 5.01445e-05 7.20556e-05 0.0001728994 2.89589e-05 -0.6859017884 0.5001814299
315298110.0 0.1019339515 -0.0659737176 -1.55708e-05 0.000193006 5.43588e-05 7.27584e-05 -0.6801191698 0.5070054695
320298080.0 0.1008173289 -0.0680139055 0.0003196648 3.88084e-05 -0.0001357439 0.0001049272 -0.6746715271 0.51435396
325298050.0 0.0995372707 -0.0698753286 0.0003227821 3.66798e-05 -2.50759e-05 -2.76557e-05 -0.6689644266 0.5208542579
330298020.0 0.098110825 -0.0720963016 5.51318e-05 0.0001275339 -1.55804e-05 0.0002023004 -0.6638855877 0.5287036693
335297990.0 0.0963520035 -0.0732399337 0.0001087747 1.35008e-05 -6.22897e-05 4.3096e-05 -0.658642435 0.5355590148
340297960.0 0.0948064873 -0.0745029447 0.0001842911 -1.28674e-05 0.000220519 -3.7595e-06 -0.6520961539 0.5424550446
345297930.0 0.0934950521 -0.0760891793 -0.0001340712 -2.15999e-05 -3.96631e-05 6.67201e-05 -0.6470202524 0.5486553126
350297900.0 0.0919012136 -0.0773875353 -7.59862e-05 0.0001569979 -2.84329e-05 9.79514e-05 -0.6412694746 0.555689975
355297870.0 0.0907678376 -0.0789548446 0.0003303104 -4.3316e-06 -2.99372e-05 0.0001706835 -0.6357087031 0.5620160764
360297840.0 0.0893120986 -0.0801075993 0.0001014615 -4.27466e-05 -4.26361e-05 0.0002360805 -0.6294177838 0.5692893566
365297810.0 0.0878841912 -0.0811475492 2.87566e-05 -4.3545e-06 -2.95727e-05 -7.10518e-05 -0.622986906 0.5749128358
370297780.0 0.0868311772 -0.0826576385 7.86964e-05 0.0001905915 0.0002083008 5.01419e-05 -0.6175660479 0.582072418
375297750.0 0.0852431908 -0.0837968319 0.0003314035 -3.21298e-05 7.271e-06 -5.9084e-06 -0.6114287658 0.5880830633
380297720.0 0.0836000882 -0.0852576203 0.0003078704 0.0001328748 0.0003304785 0.0001320591 -0.605323194 0.5946979826
385297690.0 0.0821971141 -0.0862970984 0.0001254473 0.000145285 7.05329e-05 7.03152e-05 -0.5990472988 0.6012209001
390297660.0 0.0809430656 -0.0873299043 -4.0245e-06 -2.25341e-05 -3.71216e-05 0.0001857897 -0.5929553692 0.6070323708
395297630.0 0.0796424085 -0.0887022056 2.00629e-05 -7.858e-07 -4.78634e-05 -0.0001766447 -0.586486016 0.6137128437
400297600.0 0.0781946089 -0.0896321739 0.0002046588 1.18307e-05 0.000152832 1.63092e-05 -0.5805926208 0.6192707388
405297570.0 0.0761978067 -0.0905458059 0.0001384789 0.0002004239 0.0002316659 9.82138e-05 -0.5742391582 0.6252016316
410297540.0 0.0748929547 -0.091666005 0.0001219558 2.4643e-05 0.0002444377 7.51325e-05 -0.5674302635 0.6311947759
415297510.0 0.0734973882 -0.0929394346 -3.12886e-05 -7.51828e-05 2.88475e-05 -0.0002435889 -0.5608441994 0.6368669643
420297480.0 0.0719572815 -0.0936760121 5.79327e-05 5.36531e-05 -0.0001204764 -8.18813e-05 -0.5543112525 0.6429039114
425297450.0 0.0705781593 -0.0948260995 0.0002151662 0.0001428858 0.0002494834 0.0001914089 -0.548134937 0.6479989149
430297420.0 0.0692606477 -0.0958545673 8.04545e-05 -6.73123e-05 0.0001384314 4.55627e-05 -0.5414549334 0.6533599982
435297390.0 0.0674924484 -0.0966719374 0.000142006 6.6195e-06 4.59848e-05 1.07896e-05 -0.533938233 0.6588674213
440297360.0 0.0657328369 -0.0977209761 4.73465e-05 -5.523e-06 0.0001463788 0.0001201563 -0.5273628764 0.6639820369
445297330.0 0.0643985077 -0.0987459652 -0.0001165115 -0.0001140237 9.60393e-05 8.61577e-05 -0.5203531294 0.6686971707
450297300.0 0.0629358125 -0.0994488621 0.0001585802 6.1181e-06 7.32396e-05 6.04388e-05 -0.5131072284 0.6743162035
455297270.0 0.0611117533 -0.100254136 -3.19914e-05 -7.17878e-05 -0.0001030938 2.15014e-05 -0.5063802918 0.6787591138
460297240.0 0.0595448031 -0.1014357977 0.0004760277 -7.86902e-05 -2.25095e-05 0.0002447671 -0.4998274874 0.6843656538
465297210.0 0.0581705333 -0.1018988659 0.0002212839 0.0001079485 -5.32351e-05 -9.66949e-05 -0.4917939332 0.6890193148
470297180.0 0.0566786331 -0.1027576363 9.10058e-05 0.000131095 0.0003952595 -8.69538e-05 -0.4850795488 0.6943550898
475297150.0 0.0550517244 -0.1036526371 6.95336e-05 1.55584e-05 0.0003068205 3.141e-05 -0.4776161087 0.698787972
480297120.0 0.0535688652 -0.1040261187 9.60316e-05 0.0001866189 0.0002125015 -1.38789e-05 -0.4704401672 0.7036731395
485297090.0 0.0517755886 -0.1048127961 6.71509e-05 -0.0001189852 -4.376e-05 1.33214e-05 -0.4635008413 0.7085009932
490297060.0 0.0501357292 -0.1051451135 0.0001484352 0.0001010087 5.38705e-05 -5.45563e-05 -0.455835573 0.7124459708
495297030.0 0.0486119029 -0.1059790442 7.00122e-05 -2.19121e-05 3.84302e-05 4.35181e-05 -0.4482660691 0.7181334404
500297000.0 0.0467481162 -0.1066560389 0.0001244545 0.0001373678 6.31727e-05 -8.90727e-05 -0.4407420574 0.7224353707
505296970.0 0.0457787675 -0.1074058178 0.0001682486 -1.66144e-05 -0.0001196953 -4.0873e-05 -0.4336179321 0.726569282
510296940.0 0.0437742044 -0.1079465593 9.43793e-05 -1.3973e-06 0.0002647383 3.1451e-06 -0.4259052148 0.7310022309
515296910.0 0.0424511421 -0.1085010769 -0.000114419 -0.0001541949 0.0002813089 6.09686e-05 -0.4182179473 0.7351067193
520296880.0 0.0402253984 -0.1090348055 0.000132715 3.0165e-05 1.288e-06 7.13926e-05 -0.410635882 0.7392061442
525296850.0 0.0390050935 -0.1097382655 8.16337e-05 1.44338e-05 0.0001634328 2.27373e-05 -0.4036969301 0.7443604722
530296820.0 0.0373274684 -0.1098522526 9.5142e-06 5.33204e-05 0.0002392762 -2.40226e-05 -0.3967193795 0.7479045512
535296790.0 0.035663633 -0.1103446247 1.74592e-05 8.02006e-05 -3.95186e-05 -2.72354e-05 -0.3888381791 0.7514695546
540296760.0 0.0339272029 -0.1108344065 0.0004239547 -0.0001205722 0.0003151336 -3.17115e-05 -0.3811675233 0.7559182074
545296730.0 0.0320167245 -0.1109934328 3.7443e-05 7.85309e-05 0.000134625 0.0001293186 -0.3731417816 0.7597848659
550296700.0 0.0309674132 -0.1114369728 0.0001366801 0.0002022458 0.0001438727 0.0001808725 -0.3651989183 0.7630900993
555296670.0 0.0289148088 -0.1118044308 -9.9403e-06 -1.86654e-05 0.0001269375 -2.0337e-05 -0.3579915706 0.7675379719
560296640.0 0.0273990654 -0.1119198195 4.09926e-05 0.0003008302 -7.05047e-05 -5.03522e-05 -0.3499858983 0.7708865318
565296610.0 0.0255112379 -0.1121700472 0.0002343153 3.84609e-05 0.0001607108 -0.000136868 -0.3417808089 0.7740655239
570296580.0 0.0239642997 -0.1125961893 9.56239e-05 -4.41597e-05 0.000310297 -7.5759e-05 -0.3344779127 0.7782193248
575296550.0 0.0221721685 -0.112631639 0.0001418984 -5.87285e-05 0.0001401193 0.0001366016 -0.3263972287 0.7813739647
580296520.0 0.0204725546 -0.1130963654 -3.06485e-05 8.82119e-05 0.0001326834 -0.000118666 -0.3179273063 0.7845903845
585296490.0 0.0186336549 -0.1132647857 6.22693e-05 -0.0001026212 0.0001601348 8.81188e-05 -0.3101058264 0.7876505357
590296460.0 0.0175674837 -0.1134460883 0.0001392555 0.000133925 0.0002171524 0.0001223639 -0.3031621847 0.7903529269
595296430.0 0.0155670149 -0.1134617786 9.90207e-05 -6.65219e-05 1.05656e-05 0.0001786541 -0.2943550743 0.7928474371
600296400.0 0.0137116004 -0.1137335252 8.82676e-05 8.90325e-05 0.0002422445 2.84575e-05 -0.2867171616 0.7958384537
605296370.0 0.0120096804 -0.1138529868 -3.77257e-05 -3.31943e-05 3.9413e-05 0.0001365131 -0.2782258702 0.7986730863
610296340.0 0.0101892166 -0.1140535014 0.0001523861 -0.0002225035 0.000147346 0.0001287434 -0.2696282156 0.8010675862
615296310.0 0.008956546 -0.1140335165 0.0002127271 0.0001903058 0.0001470857 -0.0002947984 -0.2616514788 0.8032709118
620296280.0 0.0068469257 -0.1140193901 0.0001411838 0.0001483632 0.0001083808 -1.19993e-05 -0.2542945222 0.806354526
625296250.0 0.0052705514 -0.114248502 7.3735e-06 -9.8494e-06 0.0001570829 0.0001132483 -0.2451310381 0.8081974956
630296220.0 0.0038939654 -0.1142657013 4.57503e-05 -0.0002355688 0.0002151088 -1.9236e-06 -0.2373048642 0.8108007202
635296190.0 0.0018574019 -0.1139243754 0.0003395422 6.1985e-05 0.0001083252 8.37956e-05 -0.2294020654 0.8128216528
640296160.0 0.0002834448 -0.1142786077 6.94078e-05 0.0001463868 0.0001523517 3.86742e-05 -0.2208227098 0.815414449
645296130.0 -0.0012362479 -0.1136866172 0.0003329722 9.7981e-05 0.0002138365 -2.24347e-05 -0.2127892754 0.8176193437
650296100.0 -0.0031162917 -0.1135923587 0.0002202693 -1.47316e-05 0.0002208819 0.0001022364 -0.2043732133 0.8190587925
655296070.0 -0.0046595349 -0.1137565171 1.1704e-06 -0.0001032957 9.65819e-05 0.0001002714 -0.1959574706 0.8213982492
660296040.0 -0.0065279772 -0.1137315307 0.0003600167 1.78202e-05 8.5885e-05 0.0001935006 -0.1873066286 0.8231473796
665296010.0 -0.0079518977 -0.1135891569 0.0002460689 1.79122e-05 -8.58963e-05 2.2155e-06 -0.1788375406 0.8254914544
670295980.0 -0.0100769073 -0.1130179948 8.69529e-05 0.0001785353 -2.79e-06 -0.0002572043 -0.1710792736 0.8267551835
675295950.0 -0.0114635673 -0.1127809596 8.11328e-05 -8.26e-05 -0.00010949 -0.0001745879 -0.1632118121 0.828413873
680295920.0 -0.0132572956 -0.1126629128 0.0003312995 -0.0001467125 -6.3775e-06 6.94475e-05 -0.1546404658 0.8306507794
685295890.0 -0.0143813033 -0.1121716585 0.0004059862 6.75215e-05 0.0001151081 -8.0108e-06 -0.145851387 0.8313319973
690295860.0 -0.0161679281 -0.1120037908 0.000277412 -0.0001789831 -0.0001523925 5.26887e-05 -0.1382418068 0.8335408204
695295830.0 -0.0180661666 -0.1116348097 0.0002398831 -0.0001542432 0.0002152123 3.45459e-05 -0.1287461209 0.8347420497
700295800.0 -0.0193337111 -0.1115766947 2.4866e-06 0.0001499329 0.0003271072 1.33386e-05 -0.1217694645 0.8366324396
705295770.0 -0.0212835875 -0.110821004 0.0002374203 2.87678e-05 0.0001860491 -9.65427e-05 -0.1131917311 0.8380665047
710295740.0 -0.0228009434 -0.1105719065 0.0001282781 -3.18949e-05 2.96036e-05 2.57131e-05 -0.1044477907 0.8387267164
715295710.0 -0.0247563535 -0.1101934787 -9.7318e-05 -9.42334e-05 6.43894e-05 -5.36482e-05 -0.095745754 0.839890962
720295680.0 -0.0262297609 -0.1098932541 0.0002108326 9.98932e-05 0.0001536821 -0.0002023433 -0.0876163595 0.8407011592
725295650.0 -0.0278307236 -0.1091203345 0.000164033 -0.000190656 5.85778e-05 0.0001336769 -0.079413711 0.8424517996
730295620.0 -0.0291127756 -0.1088023244 2.71249e-05 2.2774e-05 0.000337216 -8.55676e-05 -0.0717252944 0.8420284743
735295590.0 -0.0307185537 -0.1082728405 0.0001225401 0.0001442751 0.0001208805 7.49933e-05 -0.0628400261 0.8432650888
740295560.0 -0.0326508357 -0.1074753606 0.0002553572 9.14458e-05 0.0001978189 -6.5045e-06 -0.0536980753 0.8436321568
745295530.0 -0.0343735057 -0.1071212976 0.0002433503 1.22337e-05 0.0002032746 -2.25485e-05 -0.0453178361 0.8435371668
750295500.0 -0.0358680481 -0.106550502 0.0002276231 0.0001531931 6.93333e-05 2.98501e-05 -0.037579081 0.8442246564
755295470.0 -0.0374681987 -0.1060577553 0.0001263479 -0.0001451766 0.0001631798 9.65321e-05 -0.0289113188 0.8443751344
760295440.0 -0.0388540212 -0.1052985714 0.0001048595 -0.0001516977 0.0001347923 0.0001146129 -0.0205386945 0.8444620214
765295410.0 -0.040333044 -0.1047490931 -6.60641e-05 -0.0001682995 8.43057e-05 -1.8377e-06 -0.0117956952 0.8451000871
770295380.0 -0.0420090861 -0.1041818829 8.37333e-05 -0.0001657645 2.26307e-05 -8.442e-06 -0.0039389344 0.8451919622
775295350.0 -0.0438576952 -0.1034744464 4.75311e-05 0.0001512495 0.0002135512 -6.84607e-05 0.0042279432 0.8439866068
780295320.0 -0.0450496977 -0.1027592469 0.0001153492 -0.0001637647 8.64326e-05 6.45401e-05 0.0127986626 0.8444314848
785295290.0 -0.0470449493 -0.1024059268 0.0002396999 0.00013103 0.000224059 -9.55999e-05 0.0215132819 0.8443567261
790295260.0 -0.0484471598 -0.1014594581 0.0001033265 8.3628e-06 0.000190244 -0.0001484637 0.0302541651 0.8440393848
795295230.0 -0.049813772 -0.100692611 0.0001278289 -0.0001350829 8.26878e-05 -1.28477e-05 0.038844833 0.8434710867
800295200.0 -0.0514909256 -0.0995688928 0.0001038929 -0.0001917 0.0002952133 -0.0001141544 0.0473269656 0.8428362375
805295170.0 -0.0528415667 -0.0993247465 0.0001013796 0.0001140309 0.0001105314 0.0001261299 0.0550878001 0.842377818
810295140.0 -0.0540190612 -0.0985233608 0.0001053967 -3.9704e-05 0.0001764006 -1.0186e-05 0.0639832419 0.8420451502
815295110.0 -0.0557930911 -0.0976515522 0.0001385722 -0.0001381005 0.0002556561 -9.9262e-06 0.0724362727 0.841115243
820295080.0 -0.0571057899 -0.0964459538 9.9658e-05 2.62797e-05 7.76285e-05 -0.0001911588 0.0806017632 0.8402736677
825295050.0 -0.0583105346 -0.0958927335 -5.11264e-05 -9.47656e-05 0.0002014154 -3.02468e-05 0.0887472402 0.8394842826
830295020.0 -0.0599103543 -0.0946748876 0.0001592476 -0.0001366065 0.000174491 -4.154e-06 0.0980899089 0.8386753328
835294990.0 -0.0615932996 -0.0938607692 4.27379e-05 3.5792e-05 0.0002841217 -5.46708e-05 0.1054820477 0.8376582215
840294960.0 -0.0627594483 -0.0928473055 -9.9806e-06 -9.8151e-05 0.0001891178 5.8117e-05 0.1142265877 0.8369151515
845294930.0 -0.064371627 -0.0918642132 0.0001378099 -0.0001186123 0.000215071 4.13941e-05 0.1220919613 0.834822469
850294900.0 -0.0652607401 -0.0911490945 0.0002072469 -0.0001182357 6.90372e-05 4.41772e-05 0.1305816741 0.8338485134
