!Created with skrf (http://scikit-rf.org).
# Hz S RI R 50.0 
!freq ReS11 ImS11 ReS21 ImS21 ReS12 ImS12 ReS22 ImS22
300000.0 -0.2384630688 -0.0923374525 0.4680373804 0.061288791 0.468982173 0.0654235269 -0.2364764479 -0.104008981
5299970.0 -0.2436114415 0.0075330256 0.4738479793 0.0052200483 0.4739557395 0.0053047881 -0.2441226087 0.0061558996
10299940.0 -0.2403230399 0.0200170681 0.4762956671 0.0061612209 0.47564184 0.0064925388 -0.2411041365 0.0183534829
15299910.0 -0.2359112563 0.0294283946 0.479155935 0.0080848072 0.4792180958 0.0079102764 -0.236835152 0.0274941808
20299880.0 -0.2304486633 0.0372388868 0.4839353183 0.0082719504 0.4843762243 0.0085958123 -0.2320903388 0.0355196938
25299850.0 -0.2247159248 0.0436342377 0.4893816766 0.0070780409 0.4897307688 0.0071735557 -0.2270649007 0.0416869372
30299820.0 -0.2188896419 0.04843372 0.4952742098 0.0054326058 0.4947148119 0.005431231 -0.2215604658 0.0469004838
35299790.0 -0.21298989 0.0529845549 0.5006292124 0.0023113464 0.5003689318 0.0021171709 -0.2163257111 0.0509942282
40299760.0 -0.2074859902 0.0558557876 0.5054980627 -0.0014744581 0.5052576079 -0.0018639055 -0.2118184776 0.0544496172
45299730.0 -0.2023570442 0.0585088515 0.5102893921 -0.0068628826 0.5103305179 -0.0066039548 -0.2066830037 0.0574427126
50299700.0 -0.1978384097 0.0599829634 0.5140958866 -0.0119207972 0.5143102856 -0.0120475837 -0.2020895296 0.0596022028
55299670.0 -0.1936093084 0.061898446 0.5178728428 -0.0182173856 0.5179927271 -0.0178806516 -0.1985771402 0.0613804816
60299640.0 -0.1895565284 0.0625805707 0.5212105496 -0.0241849173 0.5213778945 -0.0244604357 -0.1944889899 0.0631947146
65299610.0 -0.1861085099 0.0639469808 0.5242860819 -0.0303132941 0.5246352459 -0.0306449877 -0.1908837928 0.0647064868
70299580.0 -0.1828130904 0.0644399955 0.5269075054 -0.0370022456 0.526835944 -0.0372913536 -0.188085742 0.0656556966
75299550.0 -0.179695295 0.0651962025 0.5287395441 -0.0439549665 0.5289115973 -0.0440805822 -0.1850157309 0.0667228004
80299520.0 -0.1772993687 0.0658738295 0.5306948997 -0.0509308318 0.5305593401 -0.0508682713 -0.1825179841 0.0672881589
85299490.0 -0.1747452557 0.0659269878 0.5324770388 -0.0580102567 0.5317667402 -0.0583017493 -0.1801151507 0.0684877464
90299460.0 -0.172606009 0.0666219397 0.5329935812 -0.0648540882 0.5336187259 -0.0648209846 -0.1777525028 0.0693854405
95299430.0 -0.1704547087 0.0673870161 0.5340305518 -0.0720389809 0.5341884073 -0.0715920883 -0.1758264367 0.0699866292
100299400.0 -0.1688294006 0.0677574585 0.5344477582 -0.0788796297 0.5343757665 -0.0784881766 -0.1743279738 0.0707282379
105299370.0 -0.1670372885 0.0679389378 0.5346151269 -0.0852408071 0.5349911542 -0.0856230225 -0.1718958622 0.0715811452
110299340.0 -0.1656037594 0.0685639688 0.5344886124 -0.0921264056 0.5349557446 -0.0926707638 -0.1709739998 0.0726412208
115299310.0 -0.1639673724 0.0686305647 0.5344640984 -0.0986851344 0.5353283041 -0.0989439497 -0.1690707678 0.0729452641
120299280.0 -0.1629153358 0.0694771991 0.5348421161 -0.1059891434 0.5346718339 -0.1062160268 -0.1676632084 0.0742352526
125299250.0 -0.1619610561 0.0697412799 0.5341832701 -0.1128109131 0.534539783 -0.1128490065 -0.1663646601 0.0747988682
130299220.0 -0.1605418397 0.0707013322 0.5340011405 -0.1195240989 0.5337854589 -0.1196422703 -0.1649352969 0.0761817361
135299190.0 -0.1592852091 0.0709251896 0.5326568931 -0.1256997225 0.5330191799 -0.1259624399 -0.1640725236 0.0767239453
140299160.0 -0.1587413526 0.0722513869 0.5320997804 -0.1329582095 0.5327090345 -0.1330270738 -0.1629554287 0.0782731399
145299130.0 -0.1575163188 0.072791925 0.5315972055 -0.1395075391 0.5315552776 -0.1390995725 -0.1621511312 0.0789256835
150299100.0 -0.1565976778 0.0733737166 0.5303899505 -0.1458842118 0.5303100763 -0.1455790313 -0.1608820798 0.0797429723
155299070.0 -0.1559560977 0.0748999766 0.5289643033 -0.1527142367 0.5289674215 -0.1523705955 -0.1598376431 0.0810303517
160299040.0 -0.1546671318 0.0751918794 0.5273951186 -0.1584039707 0.5276236694 -0.159041864 -0.1586995036 0.0826049598
165299010.0 -0.1542360124 0.0761371855 0.5266539393 -0.1650929431 0.5264135567 -0.1654527916 -0.1576891672 0.0832245932
170298980.0 -0.1535959332 0.0771532287 0.5239614096 -0.1714754528 0.5246034311 -0.171610514 -0.1567316874 0.0846207536
175298950.0 -0.1528138215 0.0782539972 0.5234668686 -0.1777965599 0.5230683981 -0.1779439109 -0.1559823489 0.0856915685
180298920.0 -0.1519330007 0.0790157948 0.5211858138 -0.1845910571 0.5213393576 -0.1841324125 -0.1547561818 0.0872651777
185298890.0 -0.1510024607 0.0802762935 0.5192882695 -0.1906914198 0.5192322211 -0.1903404617 -0.1542842365 0.0879239097
190298860.0 -0.1503147051 0.0811807779 0.5173899648 -0.196408147 0.517505469 -0.1967785861 -0.1523831956 0.0896928532
195298830.0 -0.1492349093 0.0819727419 0.5155344913 -0.2026790122 0.5160528581 -0.2033273035 -0.1518092505 0.0906788147
200298800.0 -0.148888757 0.083626847 0.5135293345 -0.208399682 0.5132983645 -0.2086031291 -0.1505344018 0.0922049712
205298770.0 -0.1483610349 0.0845915194 0.5115885646 -0.214770222 0.5114415045 -0.214735254 -0.1499455525 0.093215435
210298740.0 -0.1476050619 0.0857871827 0.5096616456 -0.2214696592 0.5093136271 -0.2214268002 -0.149154114 0.0948360972
215298710.0 -0.146667528 0.0868961194 0.5069138741 -0.2268453564 0.5069663484 -0.2268966913 -0.1483751286 0.0960784734
220298680.0 -0.1461211398 0.0880609022 0.504482476 -0.2328827914 0.5045387279 -0.2329880058 -0.1469130575 0.0980075466
225298650.0 -0.1448574024 0.0894696398 0.5020683357 -0.2384838825 0.5015844214 -0.2383640926 -0.1462506622 0.0991641419
230298620.0 -0.1444298518 0.0905793267 0.4996148677 -0.2444176495 0.4998460518 -0.2445666161 -0.1450069515 0.1004777096
235298590.0 -0.1438245736 0.0914505961 0.4965583639 -0.2498648774 0.4967798409 -0.2502616568 -0.1440561314 0.1014793199
240298560.0 -0.1429242823 0.0928220653 0.4941432905 -0.2554972821 0.4942731906 -0.2557141529 -0.142947482 0.1035576895
245298530.0 -0.1418701334 0.0942694447 0.4908196767 -0.2617721001 0.4912629193 -0.2617479697 -0.1421393968 0.1050715624
250298500.0 -0.141435904 0.0953981889 0.488296557 -0.2667992229 0.4888466974 -0.2668770516 -0.1406548187 0.1060843601
255298470.0 -0.1405888666 0.0966842124 0.485304268 -0.2727455147 0.4856903476 -0.2727758167 -0.1396257649 0.1072736542
260298440.0 -0.1398094727 0.0979699479 0.482780777 -0.2780419804 0.4827312748 -0.2785927147 -0.1381758031 0.1093017601
265298410.0 -0.1387641126 0.099599437 0.4795206207 -0.2844215659 0.4794057284 -0.2838326136 -0.1375682723 0.1103150778
270298380.0 -0.1378881092 0.1002819946 0.4761745369 -0.2888833217 0.4765454625 -0.2894354421 -0.1360285968 0.1121907613
275298350.0 -0.1371326526 0.1018052332 0.4732901989 -0.2950382471 0.4736443989 -0.2952046001 -0.1347411775 0.1134417746
280298320.0 -0.1363793242 0.1031837802 0.469894739 -0.3001017991 0.4701842928 -0.3000693272 -0.133629218 0.1151539648
285298290.0 -0.1354505542 0.1048925232 0.4666384787 -0.3052209611 0.4667203284 -0.3054341903 -0.1325611525 0.1164674191
290298260.0 -0.1342808601 0.10598024 0.4635917456 -0.3109078076 0.4635355135 -0.3107460381 -0.1309543562 0.1180816539
295298230.0 -0.1332646244 0.1071200271 0.460336323 -0.3160962147 0.4601173575 -0.3162152252 -0.129829989 0.1192122459
300298200.0 -0.1321324414 0.1083400124 0.4568085548 -0.3211204384 0.456489495 -0.3215177111 -0.1285684972 0.1207823226
305298170.0 -0.131181006 0.1097394554 0.4534773709 -0.3268633605 0.4533359509 -0.3268309515 -0.1267400167 0.1221888722
310298140.0 -0.1299238381 0.1104858765 0.4498255287 -0.3320194189 0.4498709962 -0.332499679 -0.125459725 0.1239887484
315298110.0 -0.1292400664 0.1117604217 0.4462182402 -0.3367873935 0.4461887642 -0.3369523282 -0.1239349882 0.1249919274
320298080.0 -0.1282549439 0.1128747742 0.442212848 -0.3420814706 0.4425969316 -0.3424488651 -0.1227741038 0.1262043578
325298050.0 -0.1272799959 0.1140853799 0.43875183 -0.3474384465 0.4387233493 -0.3474894648 -0.1216053659 0.1273283859
330298020.0 -0.1262646648 0.1155487867 0.4339949425 -0.3523039027 0.4343061489 -0.3523879245 -0.1205630135 0.1289774907
335297990.0 -0.1253807348 0.1165110377 0.4303868827 -0.3572804425 0.4302984275 -0.3571627031 -0.1191442724 0.1301811036
340297960.0 -0.1246422989 0.1182143285 0.4257378403 -0.3619284864 0.4262821967 -0.3618796988 -0.117933076 0.1319268409
345297930.0 -0.1237634849 0.1193671609 0.4220413093 -0.3659270206 0.4220127325 -0.3662448147 -0.1164716914 0.1332927341
350297900.0 -0.1223854509 0.1208571437 0.4179686468 -0.3709887076 0.4181848494 -0.3712303899 -0.1150683324 0.1347176445
355297870.0 -0.1216376579 0.1220302369 0.4136741895 -0.3758389325 0.4135617557 -0.3759749395 -0.1137450922 0.1364080906
360297840.0 -0.120110671 0.1234194639 0.4096212537 -0.3804538948 0.4097894515 -0.3801822689 -0.111961471 0.1377050166
365297810.0 -0.1192186499 0.1245648504 0.4054570534 -0.3850308551 0.4052732445 -0.3847042342 -0.1108480694 0.1394093568
370297780.0 -0.1179252245 0.1257992085 0.4013169568 -0.3890384088 0.4011210861 -0.389586741 -0.1090904494 0.1409619429
375297750.0 -0.1170141111 0.1273986046 0.3972250708 -0.3937077595 0.3967374768 -0.3942571574 -0.1075530566 0.1419868289
380297720.0 -0.1155334293 0.1283698435 0.3926009924 -0.3975218038 0.3927329754 -0.3977684702 -0.1058703043 0.1434620365
385297690.0 -0.1143855632 0.129954999 0.3881151115 -0.4021911074 0.3879329353 -0.4022272197 -0.1048517525 0.14505376
390297660.0 -0.1131924116 0.1308638576 0.3835631076 -0.4066651669 0.3836453202 -0.4069686973 -0.1028001444 0.1462316674
395297630.0 -0.1118255574 0.1320965574 0.3792504275 -0.410515829 0.3792563903 -0.4105373824 -0.1014875299 0.1476556345
400297600.0 -0.1108107471 0.1336275993 0.3746451826 -0.4149437602 0.3750817456 -0.4147961882 -0.1003464411 0.1485948816
405297570.0 -0.109307676 0.134743826 0.370114427 -0.4187880599 0.3702178622 -0.4195732509 -0.0984349445 0.1509314469
410297540.0 -0.10775329 0.135928276 0.365190636 -0.4229003852 0.3652013267 -0.4228409179 -0.0968255493 0.1516196968
415297510.0 -0.1067796448 0.1373485607 0.3606580851 -0.4269305 0.3610830279 -0.4268647092 -0.0952938359 0.1534765075
420297480.0 -0.1052466097 0.1379285092 0.3556396538 -0.4312277694 0.3558904114 -0.4309266878 -0.0932786973 0.1542284463
425297450.0 -0.1037358269 0.1390499374 0.3510365642 -0.4347158387 0.3515153419 -0.4347597461 -0.0915609763 0.1557662701
430297420.0 -0.1027677817 0.1407009968 0.3464482371 -0.4392770657 0.3468705837 -0.4390417496 -0.0903375864 0.1566078487
435297390.0 -0.1012347403 0.1414666257 0.3415896417 -0.4425502219 0.3419113983 -0.4422215152 -0.0883033523 0.1583160087
440297360.0 -0.099745861 0.1426125942 0.336498941 -0.4460428875 0.3364980868 -0.4462955271 -0.0869147803 0.1587530211
445297330.0 -0.0985073008 0.1435720074 0.3311834858 -0.4496878923 0.3318737967 -0.449601801 -0.0851494192 0.1599696305
450297300.0 -0.0970570453 0.1446628875 0.3268319365 -0.4531353964 0.326881707 -0.4534884219 -0.0834568087 0.1615925281
455297270.0 -0.0957676409 0.1460184062 0.3223196672 -0.4571693158 0.3222547916 -0.4567493383 -0.0810285964 0.162848817
460297240.0 -0.094368969 0.1469228518 0.316793782 -0.4600606207 0.3161856807 -0.4604466248 -0.0793141838 0.164065953
465297210.0 -0.092746799 0.1478337177 0.3122972802 -0.4637167102 0.3121120553 -0.4636113038 -0.0779995855 0.1646085771
470297180.0 -0.091710126 0.1490093386 0.3068488985 -0.466783708 0.3069968898 -0.4671338591 -0.0767904172 0.1660540742
475297150.0 -0.0901946258 0.1495971691 0.3013049314 -0.4700720632 0.3020826355 -0.469852669 -0.0744402574 0.1668889202
480297120.0 -0.0881943544 0.150555191 0.2961075468 -0.4734600781 0.2966341168 -0.4736169909 -0.0726202444 0.1682869661
485297090.0 -0.0869247789 0.1516091175 0.2911089071 -0.4768288073 0.2913181122 -0.4770556302 -0.0710546513 0.1690061367
490297060.0 -0.0852833095 0.1526642484 0.2862422752 -0.479745569 0.2859681126 -0.4799594711 -0.0690788422 0.1702707278
495297030.0 -0.0842711269 0.1535394384 0.2803581171 -0.4829471968 0.2806262613 -0.4829220366 -0.0672281413 0.1705418813
500297000.0 -0.0824826026 0.1543716661 0.2755978029 -0.4856704534 0.2759904571 -0.4856963602 -0.0658476315 0.1715460534
505296970.0 -0.0812270688 0.1551443414 0.2696030618 -0.4882238646 0.2701559984 -0.4883836622 -0.0641714569 0.1727295965
510296940.0 -0.0795335317 0.1562895854 0.2645920388 -0.4917627173 0.2650110264 -0.4922393969 -0.0617749287 0.174166307
515296910.0 -0.0784448648 0.1575050785 0.2592186518 -0.4945644423 0.2599480508 -0.4946096941 -0.0602163424 0.174706753
520296880.0 -0.0765213849 0.1578725133 0.2539272823 -0.4972520629 0.2540199088 -0.4970185345 -0.0578905565 0.1754206335
525296850.0 -0.0750650009 0.1589841646 0.248817546 -0.5001286512 0.2489134613 -0.5000854077 -0.0559497698 0.1763028679
530296820.0 -0.0734963701 0.1595469544 0.2434159686 -0.5019982733 0.2431064093 -0.5026440634 -0.0548726625 0.1767420019
535296790.0 -0.0718719859 0.1604964284 0.2374636984 -0.5047996518 0.237845695 -0.5050680365 -0.0525122799 0.1776866491
540296760.0 -0.0705593077 0.1612042469 0.2320149453 -0.5079248406 0.2321308608 -0.5078038382 -0.0507677974 0.1786381609
545296730.0 -0.0687978028 0.1624054295 0.2263009768 -0.5099257579 0.2265971843 -0.5104533378 -0.0490124232 0.1789322677
550296700.0 -0.0675295618 0.1628805872 0.221129894 -0.5126703153 0.2216181883 -0.5126112161 -0.0470421673 0.1800633619
555296670.0 -0.0655049356 0.1633510214 0.2157059281 -0.5146852558 0.215701561 -0.5150930851 -0.0450031952 0.1808597326
560296640.0 -0.0641102545 0.1643175147 0.2102363053 -0.5168126477 0.2102075683 -0.5171447345 -0.0429608322 0.1816327476
565296610.0 -0.0627963169 0.1650465 0.2042523679 -0.5193000337 0.2037055412 -0.5193610085 -0.0413915446 0.181935039
570296580.0 -0.060735948 0.1658743563 0.1984265196 -0.5212561673 0.1990020547 -0.5217470956 -0.0392160081 0.1829949682
575296550.0 -0.0593080041 0.1669755521 0.1932319826 -0.523558975 0.1935479016 -0.5238090867 -0.0369470259 0.183537803
580296520.0 -0.0576345912 0.1674746877 0.1875296551 -0.5257390785 0.1873553646 -0.5258876578 -0.0355697585 0.1838984749
585296490.0 -0.0560541153 0.1679791195 0.1820811492 -0.5275517327 0.1816352704 -0.5274760846 -0.0334691094 0.1839618178
590296460.0 -0.0547844316 0.1683841404 0.1757113569 -0.5296536699 0.1760255951 -0.5299311306 -0.0310930397 0.1852479141
595296430.0 -0.052746394 0.1693872028 0.1699051813 -0.5313980705 0.1699992558 -0.5320112453 -0.0294527911 0.1853348641
600296400.0 -0.0512785633 0.1700913438 0.1646025549 -0.5332562162 0.1648456835 -0.5334366996 -0.0273926117 0.1861802131
605296370.0 -0.0494087699 0.1708494729 0.158519105 -0.5351899549 0.1586062438 -0.5350042891 -0.0253434823 0.1864598873
610296340.0 -0.0481046084 0.1714152568 0.1534272471 -0.5364864457 0.1532159826 -0.5368299009 -0.0233040756 0.1871859093
615296310.0 -0.0462901915 0.1717377927 0.1467489028 -0.537803847 0.1469448222 -0.5383322597 -0.0212476012 0.1872615184
620296280.0 -0.044649743 0.1722443449 0.1413908634 -0.5394719058 0.1412355189 -0.5396707329 -0.0193851005 0.1872169301
625296250.0 -0.0427422044 0.1730061992 0.1352142622 -0.5411980152 0.135396156 -0.5412385161 -0.0174885034 0.1877395492
630296220.0 -0.0411580595 0.1737076337 0.1291565733 -0.542680243 0.1298377595 -0.5424823809 -0.0154115659 0.1883013875
635296190.0 -0.0395268741 0.1740516663 0.1235030701 -0.5432741874 0.1235659806 -0.5436130234 -0.0133994894 0.1885259714
640296160.0 -0.0378154038 0.1746438209 0.1181303607 -0.5452713411 0.1179857287 -0.5452511396 -0.0107922758 0.1884819409
645296130.0 -0.0362238698 0.1752088941 0.111450823 -0.5465826992 0.1121689341 -0.5464712561 -0.0095667448 0.1888048678
650296100.0 -0.0345765695 0.176109468 0.1064099536 -0.5473346943 0.1061353471 -0.547358253 -0.0071912735 0.189034869
655296070.0 -0.0327843139 0.1761128407 0.1001057475 -0.5484526572 0.0999024842 -0.5481591372 -0.0046122367 0.1893514923
660296040.0 -0.0309850163 0.1768114185 0.0940473056 -0.5491491081 0.0944280011 -0.5492959447 -0.003045312 0.1895091614
665296010.0 -0.0293278404 0.1769902923 0.0881714785 -0.5503727376 0.0884608781 -0.550716526 -0.0011060923 0.1903109207
670295980.0 -0.02723083 0.1777501414 0.0820039151 -0.5514240788 0.0823918981 -0.5515483087 0.0007950092 0.1900101454
675295950.0 -0.0257486697 0.1779011965 0.0761431711 -0.5520297368 0.0764485522 -0.5526615645 0.0031786979 0.1898532415
680295920.0 -0.0240157074 0.1786577042 0.0703932365 -0.5529101978 0.0699657521 -0.5531367107 0.0052006716 0.1901250252
685295890.0 -0.0223432838 0.1788791794 0.0642221447 -0.5536330284 0.0641909855 -0.5541136021 0.0072407948 0.1904166807
690295860.0 -0.0205457913 0.1792701636 0.0584849331 -0.5540950451 0.0580132459 -0.5542448054 0.0096585276 0.1904710707
695295830.0 -0.0185567689 0.1793610925 0.0519113887 -0.5545234812 0.0520634755 -0.5550615343 0.0111730777 0.1907119719
700295800.0 -0.0164665449 0.1799777466 0.0461760052 -0.5550730835 0.0464341056 -0.5555730994 0.013390239 0.1899405331
705295770.0 -0.0149437013 0.1804762752 0.040194318 -0.5556980339 0.0403145263 -0.5556574439 0.0151180717 0.1904296426
710295740.0 -0.0132598145 0.180807208 0.0342928732 -0.5561570386 0.0346924642 -0.5559804332 0.0167301695 0.1908612902
715295710.0 -0.0117057251 0.1807409417 0.028373242 -0.5565103997 0.0285424189 -0.5565806893 0.0194705191 0.190387259
720295680.0 -0.0101022181 0.1811869465 0.0222849101 -0.5566988879 0.0221152386 -0.5569680271 0.022011088 0.190360456
725295650.0 -0.0077668754 0.181394208 0.015888048 -0.5567757488 0.0162984887 -0.5569382319 0.0239148844 0.1902947011
730295620.0 -0.0065626328 0.1816521618 0.01039401 -0.5571745239 0.0100024143 -0.5571301376 0.026308273 0.1898592541
735295590.0 -0.0042974002 0.1816334537 0.0044332234 -0.5569492212 0.0044783532 -0.5573254888 0.0279394777 0.1901169559
740295560.0 -0.002975666 0.1821790362 -0.001677627 -0.5566691426 -0.0016241064 -0.5568664534 0.0302437737 0.1894727391
745295530.0 -0.0007970284 0.1820524163 -0.0078140316 -0.5567065802 -0.0076942219 -0.5569814883 0.0318833172 0.1897001317
750295500.0 0.000722569 0.1823799213 -0.0136623288 -0.5567325222 -0.0138915273 -0.5565105684 0.0343360638 0.1887947268
755295470.0 0.003143296 0.182492775 -0.0193181207 -0.55637865 -0.0197128977 -0.556928021 0.0359205969 0.1892796122
760295440.0 0.0045319775 0.1828493721 -0.0255923447 -0.5562956001 -0.0255413669 -0.556236555 0.0379508768 0.1889732177
765295410.0 0.0061233833 0.182385385 -0.0311383482 -0.5557199764 -0.031525867 -0.5560554702 0.0409263822 0.188655188
770295380.0 0.0081618875 0.1829660031 -0.0377103512 -0.555124066 -0.0378645899 -0.5560045331 0.0428595088 0.1884957008
775295350.0 0.0099362915 0.1829009037 -0.0434518949 -0.5548435386 -0.0431973809 -0.555332189 0.0443083539 0.1874526157
780295320.0 0.012090948 0.1827412088 -0.0493073779 -0.5542152981 -0.0492175857 -0.5547287855 0.0467590913 0.1877441429
785295290.0 0.0136516936 0.1832744845 -0.0556981851 -0.5532801226 -0.055643843 -0.5536503009 0.0485023078 0.1872706753
790295260.0 0.0154959346 0.182905414 -0.0616563931 -0.5530173949 -0.0614242345 -0.5537988564 0.0508529857 0.1866938445
795295230.0 0.0173165723 0.1832198838 -0.0673257329 -0.5522285224 -0.0673618369 -0.5524152281 0.0526015599 0.1870263791
800295200.0 0.018975867 0.1830875312 -0.0736481767 -0.5520014222 -0.0737009036 -0.5517153976 0.0548695448 0.1861186377
805295170.0 0.0204691848 0.1833132138 -0.0794362647 -0.5503720947 -0.0794004146 -0.550767443 0.0565062437 0.1851238315
810295140.0 0.0224497246 0.1830619441 -0.0849662246 -0.5500985323 -0.0849997343 -0.5503921969 0.0590949301 0.1854320844
815295110.0 0.0243645969 0.1828602445 -0.0911906236 -0.5486320926 -0.0915088664 -0.5488987214 0.060726125 0.1844319259
820295080.0 0.0262443437 0.1827069912 -0.0969457255 -0.5482185751 -0.0971760213 -0.5482531842 0.0624369394 0.1838040759
825295050.0 0.0281151522 0.1829219126 -0.102724748 -0.5467103648 -0.1028358905 -0.5470791738 0.0650087644 0.1838031655
830295020.0 0.0298320451 0.1826804494 -0.1089750079 -0.5457024069 -0.1093882275 -0.545853945 0.0667639141 0.1828759548
