!Created with skrf (http://scikit-rf.org).
# Hz S RI R 50.0 
!freq ReS11 ImS11 ReS21 ImS21 ReS12 ImS12 ReS22 ImS22
300000.0 -0.7757498619 -0.0992131877 0.0001494716 0.0012220112 9.96788e-05 0.0007489865 -0.0504010664 -0.062373717
5299970.0 -0.785245376 -0.0057930017 2.82818e-05 7.57415e-05 -1.18374e-05 1.19693e-05 -0.0497905499 0.0156079128
10299940.0 -0.7880197754 -0.0040680647 0.0001089785 8.74608e-05 -5.10759e-05 2.37975e-05 -0.044140348 0.0337618155
15299910.0 -0.7934585218 -0.0021367842 2.2862e-05 -0.0001227488 2.2251e-05 1.53001e-05 -0.0358338589 0.0481305112
20299880.0 -0.7999464332 0.0020682175 -6.85835e-05 -0.0001832625 -2.02744e-05 1.89367e-05 -0.0252978312 0.0599767298
25299850.0 -0.8063158289 0.0080113981 1.05646e-05 9.94946e-05 -4.1352e-06 3.81337e-05 -0.0142206477 0.0693215691
30299820.0 -0.81254601 0.0154884392 9.70761e-05 -0.0001523882 -1.90349e-05 0.0001996744 -0.0022703234 0.0760713036
35299790.0 -0.8173547441 0.0246341404 -0.0003269166 0.0001797027 9.60494e-05 -0.0001951524 0.0092814982 0.0808848552
40299760.0 -0.8213445707 0.0342898214 0.0001206415 4.0515e-05 -1.03562e-05 5.35058e-05 0.0203963557 0.0835554232
45299730.0 -0.8245281374 0.0429333059 8.08381e-05 8.034e-07 -2.0786e-06 0.0001122966 0.0314241036 0.0850427859
50299700.0 -0.8273895353 0.0531418618 1.0966e-06 0.0001363394 -0.0001467189 -4.85329e-05 0.0416972123 0.0847419141
55299670.0 -0.828900681 0.0633327975 -0.0001764213 -3.00796e-05 0.0001808063 1.29728e-05 0.0506701598 0.0837227164
60299640.0 -0.8307266029 0.0735308662 0.0001662496 5.19519e-05 -4.77049e-05 -2.70809e-05 0.0594447072 0.0815628986
65299610.0 -0.8312013712 0.0836566945 -0.0002041313 0.0001645198 4.97381e-05 9.36672e-05 0.0670746191 0.0789647062
70299580.0 -0.8318116401 0.0936103296 -8.16423e-05 0.0001591724 1.47351e-05 0.0001156544 0.0739008589 0.0761372132
75299550.0 -0.8315534281 0.1035938998 -0.0001620996 4.78683e-05 9.65935e-05 -7.51284e-05 0.0804133354 0.0720674875
80299520.0 -0.831737139 0.1138074578 3.78818e-05 7.43308e-05 -0.0001146675 -4.38168e-05 0.0859627117 0.0689507511
85299490.0 -0.8308214469 0.1226909379 3.63151e-05 -7.97014e-05 -9.05434e-05 1.14603e-05 0.091031751 0.065123686
90299460.0 -0.8301152826 0.1321902158 -0.0001614176 -3.1722e-05 -0.0001213399 -0.0001821542 0.095842582 0.0607878282
95299430.0 -0.8294050905 0.1415769828 0.0001653385 1.78125e-05 1.71589e-05 7.96247e-05 0.0995771655 0.0571099251
100299400.0 -0.828004446 0.15061446 0.0001760061 5.78234e-05 0.0001826172 8.92142e-05 0.1037743028 0.0527107387
105299370.0 -0.8270917674 0.1603263595 -0.0001683798 -0.0001285439 8.03848e-05 -2.62696e-05 0.107099965 0.0486614789
110299340.0 -0.825256809 0.1696397622 -5.47411e-05 -0.0001203442 -0.0001211744 -0.0001226368 0.1095259146 0.0447651129
115299310.0 -0.8239993143 0.1784152468 0.0001054964 4.96053e-05 6.338e-05 -1.67668e-05 0.1126080007 0.0407231871
120299280.0 -0.8221465386 0.1871352801 5.64239e-05 0.0001689248 1.04113e-05 0.0001178309 0.1146828238 0.0365426138
125299250.0 -0.820139231 0.1962443158 5.4567e-06 3.36425e-05 5.47145e-05 -2.26493e-05 0.1166603744 0.0325738107
130299220.0 -0.8189511864 0.2056044599 -0.000173694 5.14172e-05 9.86037e-05 -2.86162e-05 0.1182680937 0.0284660681
135299190.0 -0.8168926306 0.2140004168 -0.0001483933 -6.30673e-05 -0.0001035339 -5.03977e-05 0.1196865607 0.0252190433
140299160.0 -0.8145754692 0.2230534036 0.0001141982 6.43028e-05 -8.55926e-05 4.01816e-05 0.1210120038 0.0216990743
145299130.0 -0.8124332025 0.2325659656 -0.0001543107 3.40362e-05 7.77015e-05 -7.44333e-05 0.1220461872 0.0180829954
150299100.0 -0.8107583683 0.2410701192 -6.5096e-05 -6.90102e-05 -0.0001092323 -4.73315e-05 0.123177699 0.0148289794
155299070.0 -0.8076827381 0.2492831414 -0.0001715226 2.9543e-05 -0.0001152574 0.0001465759 0.1237811265 0.0111923417
160299040.0 -0.8054019836 0.2578024045 0.0002606565 -9.15866e-05 0.0001160192 -3.73106e-05 0.123991389 0.0077948041
165299010.0 -0.8027714529 0.2668871539 9.58599e-05 -6.7966e-05 -0.0002871312 0.0002499427 0.1249929541 0.0048338383
170298980.0 -0.7995635359 0.2755218546 1.05318e-05 0.0001909401 -0.0002412823 4.22912e-05 0.1251926355 0.0015749618
175298950.0 -0.7972420658 0.2841309199 -3.15402e-05 -4.94973e-05 -1.61466e-05 0.0001741763 0.1253417344 -0.0013466732
180298920.0 -0.7949321627 0.292943962 -8.634e-07 -1.58337e-05 2.93156e-05 -3.69524e-05 0.1252843704 -0.0044112874
185298890.0 -0.7911575386 0.3011376076 -7.39152e-05 6.97231e-05 6.8159e-05 2.92958e-05 0.1254576242 -0.0071873206
190298860.0 -0.788443188 0.3098436402 0.0002109472 0.0001018214 7.35914e-05 -0.0001646327 0.125542414 -0.0101097085
195298830.0 -0.7849573221 0.3181023478 0.0001490181 3.46487e-05 -8.83517e-05 9.71376e-05 0.1254087507 -0.0130666311
200298800.0 -0.7813158736 0.3261769495 0.0001183214 -8.9698e-06 6.26448e-05 0.0001551161 0.1248117241 -0.0157165329
205298770.0 -0.7781771607 0.3342249982 5.08638e-05 -1.21591e-05 0.0001384413 0.0001535498 0.124571345 -0.0188738634
210298740.0 -0.7746856731 0.3422145333 0.0001524501 -2.02034e-05 4.6916e-06 -4.49208e-05 0.1245030076 -0.0208648157
215298710.0 -0.7716343661 0.350620375 2.73651e-05 0.0001402385 -3.56552e-05 0.0002578114 0.1233332446 -0.0239888363
220298680.0 -0.7679426008 0.3588384465 0.000296354 -9.71816e-05 2.09748e-05 -8.66854e-05 0.1227486542 -0.0263247802
225298650.0 -0.764137993 0.3663828483 0.0001242263 0.000103572 -0.0001288418 8.69577e-05 0.1222810377 -0.0289289638
230298620.0 -0.7600073524 0.3747218663 3.19968e-05 0.0001458711 -7.38617e-05 1.18726e-05 0.1218805647 -0.0312471086
235298590.0 -0.7563092499 0.3836600995 -8.13408e-05 -8.78999e-05 0.0003479522 9.19851e-05 0.1209319239 -0.033607456
240298560.0 -0.7523647421 0.391347984 0.0001338944 0.0001281677 9.75437e-05 -0.0001275168 0.120300317 -0.0360580107
245298530.0 -0.7486939882 0.3989017765 3.8142e-06 -4.81672e-05 -1.6171e-06 4.32278e-05 0.1195564489 -0.0386501994
250298500.0 -0.7445397443 0.4067015201 -0.0001539565 -0.0001598359 0.0001057602 3.2667e-06 0.1185610949 -0.0408118288
255298470.0 -0.7396559878 0.4138790906 -7.4721e-05 0.0001396651 9.99068e-05 5.05382e-05 0.1179159971 -0.0433452543
260298440.0 -0.735162625 0.4214382583 1.5323e-06 0.0001149593 8.85659e-05 -0.0001677578 0.1174654703 -0.045462577
265298410.0 -0.7313003174 0.4298773878 0.0002399148 0.0001079707 -3.74933e-05 0.0001397618 0.11625574 -0.0474417061
270298380.0 -0.7266953705 0.4372959346 7.52811e-05 1.7599e-05 -9.653e-06 -0.0002477498 0.1155273838 -0.0494505735
275298350.0 -0.721993026 0.4453082998 -0.0001207037 0.0002686751 0.0001910193 0.0002878822 0.1147694204 -0.0512290343
280298320.0 -0.7171246331 0.4521704821 -8.39293e-05 0.0001767152 -3.35136e-05 0.0001155672 0.1140400527 -0.053454099
285298290.0 -0.7129397067 0.460047588 -5.23625e-05 0.0002467842 4.88405e-05 0.0001160936 0.1130921048 -0.0555190507
290298260.0 -0.7077070195 0.4674358941 0.0001906045 -9.55387e-05 3.8104e-06 -1.98725e-05 0.1119526901 -0.0571610533
295298230.0 -0.7021438894 0.474365315 -2.51116e-05 -0.0001030394 0.0001176845 0.0002416458 0.1113494089 -0.0595854402
300298200.0 -0.6974515578 0.4821105931 0.0003258765 6.40879e-05 6.48302e-05 0.0002062893 0.1104699449 -0.0613313279
305298170.0 -0.6924316443 0.4884378119 0.0002657336 0.0001054656 -3.27191e-05 0.0001604929 0.1096818924 -0.0636735252
310298140.0 -0.6875639307 0.4965646788 7.15151e-05 0.0001558468 -7.5223e-06 5.8659e-06 0.1080393911 -0.0653332137
315298110.0 -0.6825532377 0.5034333929 0.0001432985 0.000173942 -1.15418e-05 0.0001769018 0.1069884512 -0.0672746368
320298080.0 -0.6775766876 0.5100550077 0.0001106109 -5.10687e-05 -1.47781e-05 -1.98354e-05 0.1059251703 -0.0692090297
325298050.0 -0.6719056307 0.5172518506 -0.0001792943 0.0001107064 -5.64219e-05 0.000139116 0.104267683 -0.0710393683
330298020.0 -0.6660959883 0.5241947781 1.59496e-05 0.0001558738 -4.3141e-05 9.70699e-05 0.1025066214 -0.0723492184
335297990.0 -0.6610326277 0.5305874029 9.69932e-05 -7.37187e-05 0.0001885321 0.0001341544 0.1013948915 -0.0736733839
340297960.0 -0.6557591498 0.5378531035 0.0001513483 0.0001737111 0.0001184004 0.000100991 0.1003165729 -0.0754689466
345297930.0 -0.6501709103 0.5441092981 7.77549e-05 2.0154e-05 0.0002626082 0.0002740863 0.0988175736 -0.0768746013
350297900.0 -0.6444737173 0.5511813913 1.95434e-05 0.0001458627 -0.0001346342 -0.0002026293 0.0972817755 -0.0777626646
355297870.0 -0.6381386532 0.5578362693 -0.0001983602 -2.05934e-05 -1.53915e-05 9.25484e-05 0.095763007 -0.0795674065
360297840.0 -0.6326099824 0.5636042837 -3.17201e-05 0.0001190789 0.0001322558 -0.0002157185 0.0943636868 -0.0809136775
365297810.0 -0.6271377769 0.5706801849 0.0001978371 -8.85297e-05 0.0001264891 7.21778e-05 0.0930057381 -0.08194076
370297780.0 -0.6211494733 0.5767152847 0.0002395139 -0.0001031496 0.0001306385 -4.52653e-05 0.0921079973 -0.0830364942
375297750.0 -0.61450665 0.5836230228 8.27166e-05 9.13022e-05 -0.000158575 6.35221e-05 0.0901385894 -0.0845223371
380297720.0 -0.6082409223 0.589153425 -6.79295e-05 0.0001242979 0.0001014294 2.0522e-06 0.0885622624 -0.0857097591
385297690.0 -0.6026667241 0.5954808284 -7.90387e-05 0.000205026 3.16105e-05 1.81832e-05 0.0872639113 -0.0873063786
390297660.0 -0.5970928458 0.6011316615 -0.0001374631 -3.9118e-06 -5.7242e-06 7.87859e-05 0.0851823861 -0.0880488719
395297630.0 -0.5905891948 0.6081365488 7.4672e-06 -3.92782e-05 0.0002970725 -4.0878e-06 0.0848262268 -0.0891262456
400297600.0 -0.5837904583 0.6141246394 0.000145523 0.0002134461 0.0001234869 0.0001058002 0.0826339503 -0.0905515734
405297570.0 -0.5775512548 0.6193937202 -0.0002442801 0.0001231946 6.71755e-05 -1.18711e-05 0.0810699788 -0.0918641521
410297540.0 -0.5712730075 0.6254386009 8.21086e-05 0.0002243591 0.0002915937 0.0001109127 0.0797453808 -0.0927945104
415297510.0 -0.563958581 0.6312188676 0.0003088876 -0.0001956008 -1.69942e-05 8.74544e-05 0.0783245051 -0.0939112378
420297480.0 -0.5589290019 0.6370943173 0.0001744518 -0.0001764961 0.0001079062 5.47772e-05 0.0767721526 -0.0952108442
425297450.0 -0.5516601383 0.6428892117 -0.0001863231 3.18149e-05 3.58232e-05 9.1646e-06 0.0755588931 -0.0963305462
430297420.0 -0.5449801726 0.6484028864 0.0001521506 0.0001694946 7.90342e-05 0.0001332682 0.0734665776 -0.0972907492
435297390.0 -0.5391236014 0.6536672949 0.0002515113 7.60057e-05 0.0001976453 4.02623e-05 0.0723397162 -0.0982988522
440297360.0 -0.5315244155 0.6591158203 -3.27652e-05 0.0001609544 0.0002312228 2.47972e-05 0.0708491836 -0.0989778915
445297330.0 -0.525037191 0.6645932798 0.0002317941 4.54794e-05 -6.23563e-05 5.32395e-05 0.0689597921 -0.1008183552
450297300.0 -0.5183029236 0.6690403062 -7.40443e-05 -5.60992e-05 8.28156e-05 9.4996e-06 0.0676163567 -0.1013584863
455297270.0 -0.5111389803 0.6750125705 0.0001870358 0.0002276621 0.0001268187 -0.0001287215 0.0662118462 -0.1020024593
460297240.0 -0.5046668104 0.6795781099 0.0001618538 0.0002468353 5.1619e-05 8.62584e-05 0.0646993387 -0.1027304674
465297210.0 -0.497451959 0.6854085326 -0.0001417008 -0.0001437739 1.19786e-05 3.2233e-05 0.0631574727 -0.1037015823
470297180.0 -0.4902517316 0.6898644634 0.0002178949 2.08635e-05 0.0001361565 -2.5071e-05 0.0616073817 -0.1045031869
475297150.0 -0.4832447246 0.6942757841 0.0001867311 4.8828e-05 -9.13748e-05 3.52798e-05 0.0599947663 -0.1056620597
480297120.0 -0.4762998171 0.6996482671 -3.53434e-05 -0.0002139145 1.59393e-05 -1.71581e-05 0.0586607824 -0.1059603612
485297090.0 -0.4689904498 0.7043100399 0.0001301007 0.0001923476 -4.87272e-05 -7.03372e-05 0.0572708592 -0.106806497
490297060.0 -0.4622247631 0.7084848786 0.0001772803 4.0986e-06 0.000371189 -1.9479e-06 0.0553066676 -0.1074284115
495297030.0 -0.4547810336 0.7129396487 5.18339e-05 0.0001974963 0.0002250843 -8.8493e-06 0.0536216697 -0.1078692408
500297000.0 -0.447576722 0.7179018416 7.97078e-05 0.0001157445 0.0001027572 6.4383e-05 0.0523020643 -0.1085144089
505296970.0 -0.4400480563 0.7221487177 3.33028e-05 -3.6389e-06 0.0001415542 -0.0001151545 0.0506693178 -0.109357883
510296940.0 -0.43265853 0.7265069615 0.0001286439 7.09675e-05 4.56668e-05 -0.0003086911 0.0491084832 -0.1096659326
515296910.0 -0.4242619676 0.7305206111 0.0001056642 0.000123466 6.53165e-05 -9.99674e-05 0.0474451698 -0.1104115401
520296880.0 -0.41847155 0.7352379985 0.0001333532 -3.6965e-06 2.6439e-05 -1.49783e-05 0.0454712874 -0.1112219956
525296850.0 -0.4098343558 0.7393099063 0.0001245496 -0.0001184889 0.0001377483 0.0001517952 0.044040184 -0.1111178081
530296820.0 -0.4026677364 0.7430879891 -2.4489e-06 2.52453e-05 0.0002765347 -1.2048e-06 0.0424859719 -0.111379773
535296790.0 -0.3957306373 0.7474192664 2.17241e-05 -8.59562e-05 0.0004485821 -1.00893e-05 0.0404160561 -0.1121572369
540296760.0 -0.3877099134 0.751064727 8.6432e-06 8.84877e-05 5.70149e-05 6.00214e-05 0.0388512777 -0.1122918344
545296730.0 -0.380465632 0.7560303837 9.96144e-05 -0.0001341715 0.0001884478 -0.0001041436 0.0368983933 -0.1133059825
550296700.0 -0.3731517864 0.7590681292 9.23312e-05 0.0001771925 5.8748e-06 0.0001658826 0.0353139841 -0.1132049467
555296670.0 -0.3650514708 0.7618496832 6.93371e-05 0.0002274072 -8.03152e-05 0.0001021035 0.0337126523 -0.1133257823
560296640.0 -0.3571869809 0.7664476456 0.000229141 -0.0002035843 -0.0001502267 -1.07628e-05 0.031944583 -0.1142020777
565296610.0 -0.3496130782 0.7698060433 0.0001924677 -4.59583e-05 0.0001640614 3.0761e-05 0.0302736364 -0.1142155606
570296580.0 -0.3424022951 0.7725421963 0.0002593315 6.9351e-05 -9.0353e-06 0.0001234965 0.028531842 -0.1147061227
575296550.0 -0.3344794182 0.7767070222 0.0001278922 0.000160923 1.00968e-05 1.13556e-05 0.0268935315 -0.1147771373
580296520.0 -0.3259014254 0.7797729633 0.0001233633 7.28372e-05 0.0001920669 0.0001171153 0.0251855147 -0.1153136045
585296490.0 -0.3185569079 0.7824805825 0.0001053485 -0.0001102631 0.0002109801 0.0001141544 0.0235190939 -0.1156735473
590296460.0 -0.3098584558 0.7855512845 3.71198e-05 9.20973e-05 0.0001174206 2.3948e-05 0.0211871037 -0.1157411791
595296430.0 -0.3026338983 0.7879847389 -4.06696e-05 -6.57423e-05 0.0002012204 -7.71564e-05 0.0198042265 -0.1160092551
600296400.0 -0.2945675238 0.7919513151 5.84322e-05 8.82167e-05 0.0001688437 8.25589e-05 0.0182334628 -0.1168046899
605296370.0 -0.2871685143 0.7944194371 0.0003169556 -0.0002357776 0.000274319 -7.91216e-05 0.0166531507 -0.1165982051
610296340.0 -0.2786981129 0.7974710008 0.0002264033 4.58796e-05 0.0001624718 -6.44224e-05 0.0147968028 -0.1164115649
615296310.0 -0.270012605 0.8005145282 0.0001223823 -1.89185e-05 0.0002501108 -3.598e-07 0.0136417974 -0.1167218915
620296280.0 -0.2625236236 0.8023702115 0.0003696534 -6.65502e-05 0.0002462184 -5.16411e-05 0.0115566102 -0.1169247069
625296250.0 -0.2545141786 0.8054146375 0.0001379216 3.48207e-05 0.0002598696 0.0001708969 0.0099394101 -0.1170662668
630296220.0 -0.2457043389 0.8082160184 8.72782e-05 -4.21139e-05 0.0001584893 0.0001555359 0.0081794464 -0.1166785594
635296190.0 -0.2384214492 0.8103899647 0.0003171662 -0.0001516518 8.4151e-06 2.86921e-05 0.0068044598 -0.1169519218
640296160.0 -0.2307857406 0.8123009232 0.0002068644 -4.90338e-05 0.0001256838 0.0001042513 0.0051321137 -0.1169204223
645296130.0 -0.2224678604 0.815785642 0.0001853008 5.27893e-05 0.0002316185 0.0001366816 0.0035257159 -0.1169663361
650296100.0 -0.2140930242 0.8168739526 -3.1876e-05 0.0001197113 0.0002699531 -6.87904e-05 0.0020935229 -0.1170721279
655296070.0 -0.2061448696 0.8187288798 0.000231869 7.14251e-05 0.0001975121 0.0001859817 0.0003575088 -0.1167574165
660296040.0 -0.1976581756 0.8206471249 0.0003890997 -6.84352e-05 7.78739e-05 5.24755e-05 -0.0010641059 -0.1168071828
665296010.0 -0.1895535386 0.8219857948 0.0002040629 -1.37367e-05 8.62359e-05 1.19357e-05 -0.0030342306 -0.1163046355
670295980.0 -0.1814821547 0.8246901167 0.000269688 -0.0001121652 -7.31001e-05 -9.88674e-05 -0.0049541797 -0.1159958486
675295950.0 -0.173241886 0.8259968616 0.0002682685 0.0001961483 0.0002934779 0.0001099251 -0.0064698503 -0.1156839137
680295920.0 -0.1649370173 0.827974392 0.0001573877 -2.07502e-05 0.0002339252 1.16485e-05 -0.0079848064 -0.1151684133
685295890.0 -0.1564806315 0.8300940996 0.0003461346 -0.0001175949 -3.02528e-05 -4.78407e-05 -0.0096149078 -0.1149733121
690295860.0 -0.1483434617 0.830868232 0.0001903207 5.98708e-05 0.0001846253 3.48723e-05 -0.0112246991 -0.1142827094
695295830.0 -0.139941517 0.8321100644 0.0001954259 -8.0721e-05 0.000103018 0.000128205 -0.0129870577 -0.1142457345
700295800.0 -0.1316863723 0.8341237388 6.83908e-05 -0.0001080077 6.53653e-05 2.28721e-05 -0.0148083655 -0.1140421274
705295770.0 -0.1236635125 0.8354777064 -1.99883e-05 -1.74681e-05 8.2296e-05 -0.0001091865 -0.0161754636 -0.1132282561
710295740.0 -0.1155187762 0.8364892971 0.0001798979 0.0001151792 5.69065e-05 5.3406e-05 -0.018238306 -0.1133204297
715295710.0 -0.1070549889 0.8369926034 0.0001473651 -5.33016e-05 0.0001047376 -0.000119855 -0.0197597217 -0.1130360504
720295680.0 -0.0986453803 0.8388268381 0.0002121669 -0.0001006814 0.0001372966 -1.39521e-05 -0.0213638886 -0.1120537197
725295650.0 -0.0903325601 0.839423022 0.0002500348 -1.7649e-05 0.0001710589 -0.0001340815 -0.0232068178 -0.1115191506
730295620.0 -0.0817513551 0.8405006268 -2.83989e-05 0.0001714574 1.68904e-05 -9.18586e-05 -0.024920852 -0.1113461909
735295590.0 -0.07418467 0.8414358854 0.000266861 -0.0002140715 0.0002471084 0.0001207263 -0.0268790279 -0.1111162935
740295560.0 -0.0657978039 0.8421936735 0.0001434773 -0.0001834374 3.73602e-05 -0.0001461679 -0.0278825728 -0.1107040428
745295530.0 -0.0571093085 0.8422252983 0.000106734 0.0001627931 4.97117e-05 3.07754e-05 -0.0295687549 -0.1100903479
750295500.0 -0.0486447086 0.8427208013 0.0002822535 -5.68847e-05 0.0002154957 0.000118235 -0.0311321543 -0.109659872
755295470.0 -0.039921774 0.8430267489 6.92749e-05 -0.0001722348 0.0003595905 -0.0001743183 -0.0327590469 -0.1093261838
760295440.0 -0.0322313572 0.843323866 0.0004145317 0.0002992657 0.0001502012 -1.5148e-05 -0.034514148 -0.1087134594
765295410.0 -0.0238695177 0.8440931168 0.0002171177 -0.0003293695 -2.81573e-05 -5.4993e-05 -0.0359726964 -0.1081895386
770295380.0 -0.0150209653 0.844106314 3.39974e-05 5.6897e-06 0.0002601998 -0.0001234192 -0.0378465304 -0.1078325743
775295350.0 -0.0070727976 0.8440510417 0.0003133587 -0.0001894236 0.0001382127 -0.0001551117 -0.0395709696 -0.1068323705
780295320.0 0.0012210464 0.8441902316 0.0001620086 -2.6472e-06 0.0001678461 -5.63468e-05 -0.0409066366 -0.1062608192
785295290.0 0.0093596618 0.843683139 7.23248e-05 -0.0003322141 0.0001761207 6.48159e-05 -0.0420976769 -0.1057451929
790295260.0 0.0182989016 0.8437527607 0.0002387696 -0.0002710807 0.0001182105 0.0001283289 -0.0432551784 -0.1050585299
795295230.0 0.0261542984 0.8434118955 7.36518e-05 -0.0001017493 0.0001439063 -1.46212e-05 -0.0450427221 -0.1043158498
800295200.0 0.0343258489 0.8430596812 0.0001516498 -0.0001661112 0.0001742267 -4.1995e-05 -0.0465458768 -0.1033571832
805295170.0 0.0432969001 0.8428198308 0.0001034587 7.68675e-05 3.96956e-05 -8.22178e-05 -0.047881475 -0.1030132834
810295140.0 0.0513107223 0.8422609696 0.0001776266 -0.0001576599 5.69658e-05 -0.0001401296 -0.049181022 -0.1020358568
815295110.0 0.0591740951 0.8419385176 0.0002173289 -0.0005196724 -6.74563e-05 1.58074e-05 -0.0510087153 -0.1011460853
820295080.0 0.067864547 0.84130755 0.0002918431 0.0002149796 9.83894e-05 -0.0001069265 -0.0521672374 -0.100494452
825295050.0 0.0773290941 0.8401961944 0.000209221 2.8591e-05 2.1938e-05 -0.0001187375 -0.0533917185 -0.0996883855
830295020.0 0.0845725253 0.8399287883 0.0001632675 -1.02359e-05 2.14837e-05 -4.38588e-05 -0.0547219232 -0.0985492155
835294990.0 0.092843696 0.839014026 9.98306e-05 0.0002436569 0.0001555641 -0.0002006919 -0.0564319291 -0.0977118268
840294960.0 0.100307904 0.8383521971 2.38485e-05 9.7122e-06 9.8131e-06 -0.0001861969 -0.0578293176 -0.0969547986
845294930.0 0.1089080295 0.8367829038 0.0001747337 -0.0001116075 -1.21009e-05 -0.0001695726 -0.0593763211 -0.0959412733
850294900.0 0.1172440674 0.8363602454 -2.32177e-05 -6.66277e-05 0.0002918343 -5.59093e-05 -0.0607449083 -0.0949637583
