!Created with skrf (http://scikit-rf.org).
# Hz S RI R 50.0 
!freq ReS11 ImS11 ReS21 ImS21 ReS12 ImS12 ReS22 ImS22
300000.0 -0.0965718002 -0.0860066057 0.6224339198 0.0806921206 0.6236615103 0.0838762158 -0.0957540718 -0.093255045
5299970.0 -0.1004892592 0.0128102477 0.6305873975 0.0104430048 0.6308333393 0.010674921 -0.1021417966 0.0118678089
10299940.0 -0.0952303392 0.0298642796 0.6346420311 0.0155470608 0.6343739749 0.0157696892 -0.0972204828 0.0290785245
15299910.0 -0.088659814 0.0430936344 0.6404617737 0.0206563735 0.6403842408 0.0208628736 -0.0902289649 0.0419906757
20299880.0 -0.0794127813 0.0543233418 0.648593937 0.0238425675 0.648844579 0.0242847509 -0.0817985918 0.0534217546
25299850.0 -0.0697220954 0.0627727203 0.6579214599 0.0250936635 0.6580406523 0.0250841901 -0.0724121583 0.0620935958
30299820.0 -0.0598879277 0.0691977634 0.6677940115 0.0246402377 0.6676356128 0.0245817902 -0.0625391168 0.0686110868
35299790.0 -0.0494754411 0.0743608345 0.6769359908 0.0216333533 0.6775950233 0.0220180591 -0.0526143282 0.0734764922
40299760.0 -0.0395533465 0.0771934561 0.6865732032 0.017785943 0.6864668581 0.0175648985 -0.0435598513 0.0771123488
45299730.0 -0.030341664 0.0795242032 0.695547713 0.0116981873 0.6959483712 0.0124357502 -0.0342753963 0.0793541124
50299700.0 -0.0216584109 0.0798513078 0.7033151882 0.0048348121 0.7035601459 0.0047644911 -0.0255007482 0.0798422053
55299670.0 -0.0142165081 0.0797760207 0.709895985 -0.0031034697 0.7110363734 -0.002864737 -0.0176454212 0.079924982
60299640.0 -0.0066785416 0.078777828 0.7174598237 -0.0114797892 0.7173793996 -0.0111497181 -0.0103537756 0.0796221967
65299610.0 -0.0002921059 0.0779207925 0.7234925881 -0.0194521562 0.7238380294 -0.0195984519 -0.0035762141 0.0786604415
70299580.0 0.0060178274 0.0758643229 0.728744728 -0.0291292592 0.7285076597 -0.0296201833 0.0024273958 0.0772167646
75299550.0 0.0116517321 0.0744866578 0.7327338724 -0.0389561567 0.7331154259 -0.0388946064 0.0080865426 0.0759825907
80299520.0 0.0159520531 0.0721922643 0.7376331132 -0.0491760475 0.7376036554 -0.0489503429 0.0130349841 0.0727812407
85299490.0 0.0209687566 0.0697207814 0.7408925777 -0.058702127 0.7407731603 -0.0584359642 0.0176884704 0.0710151543
90299460.0 0.0245819534 0.0672344088 0.7433625016 -0.0683119948 0.7435975069 -0.0688884183 0.022330317 0.0686602824
95299430.0 0.0282870193 0.0651911979 0.7458918245 -0.0792773018 0.7460252516 -0.0789444298 0.0253581322 0.0664255911
100299400.0 0.031524628 0.0626463885 0.7478731966 -0.0890762153 0.747285085 -0.0891257857 0.028351283 0.0639906561
105299370.0 0.0346200841 0.0600959915 0.7486606389 -0.0989221407 0.7491512379 -0.0991946445 0.0319593922 0.0620495586
110299340.0 0.0370199609 0.0578532469 0.7495759811 -0.1090795792 0.7501010623 -0.1096118407 0.0344904307 0.0595154264
115299310.0 0.0397568114 0.0547730934 0.750549242 -0.1191184253 0.7510417362 -0.1187462241 0.0374831837 0.0561439476
120299280.0 0.0414387233 0.0526643363 0.7516744002 -0.129264672 0.751132624 -0.1292913681 0.0391062893 0.05439354
125299250.0 0.0431312071 0.0506151513 0.7517596466 -0.1391374779 0.7519887761 -0.1393506705 0.0412880538 0.0514499198
130299220.0 0.0453038345 0.0479433667 0.751655015 -0.1493853919 0.7514979002 -0.1495184599 0.043407209 0.04947161
135299190.0 0.0468885086 0.0455119878 0.7514403444 -0.1584810208 0.7509863079 -0.1585043577 0.0443712562 0.0475415021
140299160.0 0.0477731947 0.0441292577 0.7506935764 -0.168854535 0.7510410045 -0.168879773 0.0462730716 0.0453419546
145299130.0 0.0493710687 0.0420681928 0.7505012918 -0.178499244 0.7503891769 -0.1782509413 0.0474046036 0.0427201815
150299100.0 0.0505531664 0.0399275673 0.7487879352 -0.1883199221 0.749257646 -0.1876865455 0.0484653956 0.040828414
155299070.0 0.0512655896 0.0383765154 0.747434538 -0.1983814751 0.7479399388 -0.1980194593 0.0492758675 0.0385684826
160299040.0 0.0522844009 0.0362056438 0.7460458341 -0.2063992632 0.7463967421 -0.2072374689 0.0505870278 0.0372989456
165299010.0 0.0527713083 0.0342658314 0.7451163875 -0.2167991013 0.7454107299 -0.2170249918 0.0517187318 0.0350387137
170298980.0 0.0534729145 0.0326522681 0.7421129784 -0.2261747046 0.7423043937 -0.2265081194 0.0526531026 0.0329264138
175298950.0 0.0547388214 0.0306387522 0.7414800471 -0.2350304459 0.7419126358 -0.2352933061 0.0532939765 0.0312759913
180298920.0 0.0552455177 0.0290930067 0.7390875676 -0.2450285918 0.7390796579 -0.2443627279 0.0536540203 0.0299086473
185298890.0 0.0559947796 0.0272241096 0.7367953481 -0.2543617748 0.7370438394 -0.2537318044 0.0542013282 0.0278645707
190298860.0 0.0561794233 0.0258322745 0.7346450664 -0.2634642548 0.7350458417 -0.2627240548 0.0556412625 0.0259998228
195298830.0 0.0562468467 0.0241478129 0.7318265898 -0.2713678579 0.7319502124 -0.2720959999 0.0558063227 0.0240769606
200298800.0 0.0570365088 0.0228884144 0.7294307508 -0.2798138231 0.7291043562 -0.2803199826 0.0563847334 0.0233677772
205298770.0 0.0570419703 0.0214873647 0.7268161256 -0.2895508709 0.7264708035 -0.2902780153 0.056365267 0.0210526321
210298740.0 0.0571341766 0.0197936112 0.7238821343 -0.2987360706 0.7238076926 -0.2990185924 0.0567567766 0.0198424617
215298710.0 0.0577852392 0.0185683635 0.720376908 -0.3067999649 0.7205668459 -0.3066274395 0.0568996013 0.0183194317
220298680.0 0.0582952376 0.0172351281 0.7173839704 -0.3159428006 0.7175537688 -0.3157438779 0.0576704365 0.017299876
225298650.0 0.0584534841 0.0162882757 0.7138093168 -0.3238535377 0.7138512163 -0.324150976 0.0573916028 0.0158549511
230298620.0 0.0581680858 0.014851385 0.710897268 -0.3326365364 0.7112718833 -0.33312481 0.0577182616 0.0142411788
235298590.0 0.0587747262 0.0131984304 0.7072586988 -0.3412295255 0.7075654494 -0.3412564729 0.0581266521 0.0126742477
240298560.0 0.0583523598 0.0119011193 0.7041073819 -0.3491043382 0.704050823 -0.3489187255 0.0583837727 0.0119542659
245298530.0 0.0590212549 0.0112021151 0.6994732875 -0.3580330213 0.6997572888 -0.3580211837 0.0585302853 0.0108273848
250298500.0 0.0583597022 0.009809221 0.6961072577 -0.3654398684 0.6965057053 -0.3656151007 0.058708935 0.0088062839
255298470.0 0.0583526354 0.0088995453 0.6915493766 -0.374464778 0.6920844713 -0.3743557559 0.0588201223 0.0075433805
260298440.0 0.0584774381 0.0078584297 0.6880548361 -0.3819832656 0.6885954236 -0.3819931051 0.0593444548 0.0068876681
265298410.0 0.0590308606 0.0072041823 0.6840558 -0.3909574691 0.6840980644 -0.3908414621 0.059108667 0.0052522867
270298380.0 0.059419064 0.0055919758 0.6796003909 -0.3986277516 0.6798812541 -0.3980595647 0.0588802143 0.0051546282
275298350.0 0.0584042884 0.004694576 0.6753357037 -0.4064816689 0.6760125312 -0.4065975426 0.0591420002 0.0036029309
280298320.0 0.0585160697 0.004079403 0.6709798906 -0.4137819934 0.6713124075 -0.4146417907 0.0592284271 0.0027181661
285298290.0 0.0586770781 0.003058608 0.6665759963 -0.421349505 0.6667517444 -0.4218644805 0.0587041846 0.0016045878
290298260.0 0.0587806569 0.0018232174 0.662368499 -0.4299325451 0.6624251209 -0.4297557582 0.059625649 0.0005325968
295298230.0 0.0589229354 0.0007722812 0.6578436378 -0.4371676436 0.6575779376 -0.4373407433 0.0597045149 -0.0001548733
300298200.0 0.0590864725 -8.39113e-05 0.6531227607 -0.4450854707 0.6531412376 -0.44553421 0.059189376 -0.0014302666
305298170.0 0.0589280842 -0.0012131927 0.6481256817 -0.4527098607 0.6489325064 -0.4529103603 0.0598931021 -0.0019976295
310298140.0 0.0594476926 -0.0022059993 0.6438604742 -0.4603108344 0.6437896073 -0.4607605535 0.0597570407 -0.0027124046
315298110.0 0.0588734497 -0.003493987 0.6385359627 -0.468212705 0.6385017434 -0.4682866209 0.060004717 -0.0046787944
320298080.0 0.0584738835 -0.0043539639 0.6332529035 -0.4754725506 0.633196073 -0.4758942786 0.0594510178 -0.0058093802
325298050.0 0.0581394537 -0.0058669126 0.6282244066 -0.4832176197 0.6279369729 -0.4835199519 0.0591752999 -0.0068372637
330298020.0 0.0579625692 -0.0065189109 0.6214436427 -0.4900244893 0.6219016055 -0.4904057608 0.0583072944 -0.0080688428
335297990.0 0.0575646625 -0.0076061439 0.6163256071 -0.4975870604 0.6166312861 -0.497420626 0.0581461394 -0.0087261958
340297960.0 0.0566735115 -0.0081777615 0.6105408388 -0.5048550968 0.6107672902 -0.5043843558 0.0575365344 -0.009406843
345297930.0 0.0563585927 -0.0084457621 0.6046505757 -0.5106281946 0.6043901206 -0.511114765 0.0576047627 -0.0107753985
350297900.0 0.056575781 -0.0091748891 0.5985076581 -0.5174968021 0.5992520405 -0.5181262275 0.0569240423 -0.010809193
355297870.0 0.0561261673 -0.0104693301 0.5933283744 -0.5244919726 0.5933064267 -0.525040673 0.0560919987 -0.0114368497
360297840.0 0.0561780335 -0.0106126167 0.5879882987 -0.53169882 0.5875700911 -0.5314681815 0.0564908394 -0.0115848365
365297810.0 0.0558118657 -0.0114436587 0.5814885269 -0.5381713887 0.5817665138 -0.5381993857 0.0557036759 -0.0123750263
370297780.0 0.0557434299 -0.0124132282 0.575658142 -0.5437423724 0.5760455377 -0.5449049548 0.0561947261 -0.0129755502
375297750.0 0.055091887 -0.0122461112 0.5703035158 -0.550711904 0.5696911403 -0.5512822655 0.0557808258 -0.0136253972
380297720.0 0.0552615416 -0.0137026076 0.5637926188 -0.5567798382 0.5637596042 -0.557334251 0.055215227 -0.0141584459
385297690.0 0.0549753714 -0.0141631672 0.5573338621 -0.5629291384 0.5570238745 -0.5634557223 0.0550930482 -0.0147219465
390297660.0 0.054279786 -0.0146632002 0.5507497094 -0.5701429993 0.5511713044 -0.5701981799 0.0549328329 -0.0156527948
395297630.0 0.0546093039 -0.0156524751 0.5454254226 -0.5755483285 0.5448698461 -0.5755351587 0.0545125087 -0.0157728952
400297600.0 0.0540691389 -0.0159922293 0.5384269424 -0.5817716401 0.5388001525 -0.5820481512 0.0532394302 -0.0168464351
405297570.0 0.0540654016 -0.0166144639 0.5320995552 -0.5881597261 0.5326978029 -0.5885799785 0.0536767198 -0.0168795691
410297540.0 0.0538164577 -0.0174748395 0.5249062684 -0.5937566654 0.5250603425 -0.5938430843 0.0532774396 -0.0178813731
415297510.0 0.053112114 -0.0173755993 0.5188292591 -0.5991424789 0.5195099806 -0.5994148422 0.0527222905 -0.0182084256
420297480.0 0.0530544057 -0.0190378231 0.5120101533 -0.6058312793 0.5124099135 -0.6060585916 0.0529060125 -0.019223554
425297450.0 0.0534357105 -0.0196745111 0.5062778495 -0.6108498458 0.5061935657 -0.6114788183 0.0521872481 -0.0189850122
430297420.0 0.0526073254 -0.0195483218 0.4989075512 -0.6169524398 0.4993038862 -0.617019015 0.0516129693 -0.020125455
435297390.0 0.0522330718 -0.0206086761 0.4924407196 -0.6212983071 0.4928633273 -0.6218159004 0.0512446355 -0.0201347101
440297360.0 0.0523970537 -0.0214463586 0.4854322618 -0.6277233701 0.4849474128 -0.6279530439 0.0508568967 -0.0215117643
445297330.0 0.052266623 -0.0221379118 0.4780474587 -0.6331231985 0.4783439351 -0.6330767454 0.0508003601 -0.0216543241
450297300.0 0.0518087276 -0.0224957506 0.4716092078 -0.6383954875 0.471988203 -0.6383553485 0.0503459271 -0.0219738349
455297270.0 0.0509321113 -0.0233858126 0.4648185718 -0.6437398943 0.4650631209 -0.6438991449 0.0501317587 -0.0226376495
460297240.0 0.0504547991 -0.023785514 0.4572998946 -0.6479714086 0.4572039453 -0.6485365765 0.0494703843 -0.0226055322
465297210.0 0.0508651242 -0.024616257 0.4502030941 -0.6536765198 0.4509765483 -0.6535846484 0.0491088764 -0.0237160454
470297180.0 0.050010624 -0.0253369053 0.4433658707 -0.6586710234 0.4437944293 -0.6590586386 0.0480102127 -0.0241889334
475297150.0 0.0491548472 -0.026333509 0.4355618508 -0.6633012706 0.4364104943 -0.6631260225 0.0483193945 -0.024482299
480297120.0 0.0499641361 -0.0267783575 0.4288219671 -0.6682793433 0.4287977796 -0.6679600149 0.0476532333 -0.0244908866
485297090.0 0.0493239665 -0.0274953784 0.4212292182 -0.6728351931 0.4213640497 -0.6733894607 0.0472385644 -0.0257574399
490297060.0 0.0490058118 -0.0280616269 0.4139939213 -0.6775382283 0.4142417477 -0.6775867797 0.046923614 -0.0257106141
495297030.0 0.0480029872 -0.028366342 0.4064819477 -0.6817848062 0.4063762465 -0.6825216872 0.046496752 -0.0263168434
500297000.0 0.0482321602 -0.0292888893 0.3988039929 -0.6865508611 0.3988755296 -0.686786972 0.0454622071 -0.0267633095
505296970.0 0.0472269856 -0.0296385504 0.3909896985 -0.690359069 0.3906362778 -0.6908912971 0.0450228209 -0.0270213335
510296940.0 0.0469559218 -0.0300766849 0.3838823415 -0.6957729116 0.3840593348 -0.6953272072 0.0449662107 -0.0271807611
515296910.0 0.0463453509 -0.0304550615 0.3756622921 -0.6991318274 0.3761213927 -0.6998713322 0.044171483 -0.0281336518
520296880.0 0.0460324491 -0.0315304151 0.3681221168 -0.7036767885 0.3685622637 -0.7033489442 0.0440809117 -0.0283806428
525296850.0 0.0451249632 -0.0320863338 0.3608545429 -0.7076185286 0.3607499073 -0.7074929096 0.0440939051 -0.0289351289
530296820.0 0.0450832582 -0.032397203 0.3531417486 -0.7105474703 0.3528290986 -0.7112338525 0.042771968 -0.0299674331
535296790.0 0.0443151804 -0.0329327912 0.3444147294 -0.7147856571 0.3458252545 -0.7149253788 0.0428601895 -0.0304198876
540296760.0 0.0439284253 -0.033727917 0.3374479609 -0.7193392548 0.3367677623 -0.7195559738 0.0413608005 -0.0301534361
545296730.0 0.0434699263 -0.0336041288 0.3291705549 -0.7229285861 0.3293930164 -0.7232201065 0.0411865569 -0.0308269761
550296700.0 0.0426431702 -0.0344543819 0.3217323323 -0.7264665656 0.3220017479 -0.7269093483 0.0408070039 -0.0306022337
555296670.0 0.0426400986 -0.0353167667 0.3133186416 -0.7296920594 0.31372505 -0.7298792737 0.0402312541 -0.0313876287
560296640.0 0.0419144619 -0.0356746541 0.3055396501 -0.7325727333 0.3056129652 -0.7326395841 0.039776704 -0.031463004
565296610.0 0.0407705226 -0.0362208462 0.2973364251 -0.7362948749 0.2968584484 -0.7370424461 0.0390721113 -0.0322942127
570296580.0 0.0412798143 -0.036642076 0.2894434816 -0.7399160962 0.2896138895 -0.7397996516 0.0387510505 -0.0317315289
575296550.0 0.040097621 -0.0362851704 0.2813004974 -0.7424176628 0.2816750308 -0.7427040979 0.0384189452 -0.0325101445
580296520.0 0.0395365871 -0.037090157 0.2735675846 -0.7457400431 0.2727624729 -0.7462450355 0.0373697054 -0.0331601991
585296490.0 0.0393069858 -0.0379773844 0.2651894854 -0.7488804207 0.264860075 -0.7487168788 0.0370509828 -0.034055437
590296460.0 0.0380242416 -0.0384715562 0.2566930526 -0.7520313242 0.2569020887 -0.7518716964 0.0369119742 -0.0335204417
595296430.0 0.0376066714 -0.0382606046 0.2490824661 -0.7546028623 0.2483023931 -0.7552076391 0.0363347383 -0.034064707
600296400.0 0.0373091991 -0.038685053 0.2402859448 -0.757272865 0.240617947 -0.7575826634 0.0357256106 -0.0341025972
605296370.0 0.0369248253 -0.0385830261 0.2322461627 -0.7593071816 0.2322592634 -0.7596899359 0.0351726667 -0.0348880281
610296340.0 0.0359087287 -0.0395312282 0.2244748592 -0.7623214525 0.224303939 -0.7625607545 0.0347140855 -0.0345034456
615296310.0 0.0355347595 -0.0394329561 0.2148810972 -0.7642305875 0.2157073678 -0.7646081673 0.0342450341 -0.0348159476
620296280.0 0.0346961659 -0.0402384829 0.2072039449 -0.7668886743 0.2074726916 -0.7668577291 0.0333250715 -0.0356843902
625296250.0 0.0345543018 -0.0404144159 0.1979863344 -0.7697796332 0.1989231055 -0.7695219365 0.0332380719 -0.0352428576
630296220.0 0.0335961251 -0.0405933196 0.1902544537 -0.7714112735 0.1909323645 -0.7714068591 0.0316215818 -0.035987057
635296190.0 0.0330480267 -0.0410115145 0.1819763143 -0.7726953808 0.1816271018 -0.7724569513 0.0315163661 -0.0364430418
640296160.0 0.0324926077 -0.0413928191 0.1740024203 -0.7748207054 0.1736914021 -0.7751356884 0.0314732237 -0.0364425873
645296130.0 0.0319323682 -0.0410110574 0.1651142723 -0.77754017 0.1652007341 -0.7769432284 0.0296189719 -0.0370020183
650296100.0 0.0309557247 -0.0411425362 0.156939687 -0.7786079797 0.1566794472 -0.7784807563 0.0297365025 -0.0373726423
655296070.0 0.0305457774 -0.0419640333 0.1484205402 -0.7805004205 0.148324287 -0.780414363 0.0300139923 -0.0369634311
660296040.0 0.0292099577 -0.0418186846 0.1398734618 -0.7813591157 0.1396430682 -0.7815010487 0.0285705005 -0.0379373174
665296010.0 0.0294397602 -0.0425450691 0.1312152867 -0.7833751637 0.1320952092 -0.7832818384 0.0278258117 -0.0374322397
670295980.0 0.0292444002 -0.0423667685 0.1228208305 -0.7844192236 0.1228419226 -0.7845627561 0.0269630577 -0.0382171231
675295950.0 0.0284324104 -0.0426000081 0.1139604565 -0.7858832491 0.114560236 -0.7864231222 0.0269168061 -0.0378102593
680295920.0 0.0275222671 -0.042327059 0.1051722208 -0.7873119744 0.1053775488 -0.7874185661 0.0265204462 -0.0384207951
685295890.0 0.0268440529 -0.0427442148 0.0971003437 -0.7880305166 0.0967520406 -0.7883772692 0.0259360785 -0.0381944833
690295860.0 0.0265994733 -0.0432694933 0.088696591 -0.7886122911 0.088080145 -0.7888295554 0.025701531 -0.0380532895
695295830.0 0.0263979196 -0.043379002 0.0787346247 -0.789976043 0.0791168774 -0.7899880139 0.0241829606 -0.0385020944
700295800.0 0.025806816 -0.0431722122 0.0710697266 -0.7910174069 0.0711647726 -0.7913449531 0.0237660561 -0.039474157
705295770.0 0.0247654691 -0.0437405298 0.0627640648 -0.7913542232 0.0625581821 -0.7918051494 0.0228557545 -0.0390885615
710295740.0 0.0243567789 -0.0436140717 0.0534507651 -0.7921634462 0.0534771734 -0.7917342326 0.021772529 -0.0387570785
715295710.0 0.0234481295 -0.04387021 0.0455194611 -0.7930011972 0.0452034175 -0.7929717479 0.0219777442 -0.0400115738
720295680.0 0.0227277082 -0.0440459856 0.0363734857 -0.7929357514 0.0363050264 -0.7936575676 0.0217437534 -0.0393685823
725295650.0 0.0225026206 -0.0439516097 0.0273691438 -0.7935852518 0.0279370684 -0.7933960075 0.0208673872 -0.0393234037
730295620.0 0.0212120885 -0.0446712436 0.0187218492 -0.7936366623 0.0195781529 -0.7940584932 0.020792709 -0.0403030602
735295590.0 0.0214712065 -0.0441343378 0.0108561594 -0.794161121 0.0108684146 -0.7942098009 0.019546326 -0.0393565101
740295560.0 0.0202673204 -0.0443368883 0.0016975484 -0.7936422426 0.0018880704 -0.7936823097 0.0196392699 -0.0399624194
745295530.0 0.0198372403 -0.0449073177 -0.0065473114 -0.7943629882 -0.0063253426 -0.7942339255 0.0182377528 -0.0399340631
750295500.0 0.0192175411 -0.0448055879 -0.0149634387 -0.7934708628 -0.0147677304 -0.7936701678 0.0182971907 -0.0403155626
755295470.0 0.0189976894 -0.0448346035 -0.0239972312 -0.7932816338 -0.0238843965 -0.7938676596 0.0170119589 -0.0399301231
760295440.0 0.0178599778 -0.0443741121 -0.0328817698 -0.7932448583 -0.0327016012 -0.7932454185 0.0160380809 -0.0403701758
765295410.0 0.0169548172 -0.0452113545 -0.040595269 -0.7922104306 -0.0406932403 -0.7930510738 0.0166094381 -0.0399112089
770295380.0 0.0170884744 -0.044680987 -0.0500007818 -0.7918642585 -0.0496784699 -0.7926401598 0.0158834375 -0.0396349284
775295350.0 0.0160590823 -0.0448338172 -0.0582802745 -0.7913045767 -0.0582246615 -0.7922499049 0.0146469123 -0.0406985365
780295320.0 0.0156548371 -0.0449690696 -0.0663689705 -0.7911391089 -0.0667974161 -0.7911817962 0.0144217394 -0.0397286492
785295290.0 0.0145607741 -0.0443182059 -0.075487692 -0.789328217 -0.0752424632 -0.7903850162 0.0132235625 -0.0403651661
790295260.0 0.0140872901 -0.0444805628 -0.0836931812 -0.789359592 -0.0840970967 -0.7895118336 0.0134226495 -0.040196406
795295230.0 0.0131974284 -0.0447046102 -0.09191328 -0.7879495287 -0.0919194078 -0.7886126762 0.0125724891 -0.0394288015
800295200.0 0.0131159197 -0.0442199818 -0.1017154297 -0.7873964933 -0.1018008542 -0.7877900187 0.0119925742 -0.040238919
805295170.0 0.0118251673 -0.0447594591 -0.1095624803 -0.7855455648 -0.1098196069 -0.7860271268 0.0107096658 -0.040340343
810295140.0 0.0115910803 -0.0446023009 -0.1180649082 -0.7844679775 -0.1176795027 -0.7852962027 0.0105376416 -0.0394696751
815295110.0 0.0109211608 -0.0447033064 -0.1272017213 -0.7830511836 -0.1269355348 -0.7835772653 0.0098673081 -0.040615331
820295080.0 0.0102062388 -0.0447736418 -0.1349727304 -0.7820680827 -0.1352644462 -0.7823028064 0.0091668714 -0.039701942
825295050.0 0.0096156509 -0.0447414763 -0.1438580981 -0.779935299 -0.1437499326 -0.780270237 0.0089205404 -0.0394918594
830295020.0 0.0086924216 -0.0441086898 -0.1525015563 -0.7787185601 -0.1525633237 -0.7791641103 0.0081485979 -0.0399798748
