!Created with skrf (http://scikit-rf.org).
# Hz S RI R 50.0 
!freq ReS11 ImS11 ReS21 ImS21 ReS12 ImS12 ReS22 ImS22
300000.0 -0.7700609663 -0.1789104938 5.135e-05 0.0001472664 0.0004968441 0.0012890572 -0.7640283227 -0.1945838284
5299970.0 -0.7861752729 -0.0093583617 1.45792e-05 -0.0001235493 -0.0002060711 -5.35185e-05 -0.7846508146 -0.0098630931
10299940.0 -0.7893601648 -0.0058917596 -2.42425e-05 2.08425e-05 5.00041e-05 -0.000178106 -0.7871088856 -0.0056596136
15299910.0 -0.7944670974 -0.0032533643 -7.27236e-05 0.00019795 7.54421e-05 -1.8919e-06 -0.7925858509 -0.0025927631
20299880.0 -0.8010771679 0.0004336663 -6.2535e-05 -0.0004331342 0.0001759381 9.3916e-06 -0.7989993826 0.001453898
25299850.0 -0.8074553109 0.0066809569 -0.0001057594 -3.36437e-05 -1.45479e-05 4.21384e-05 -0.8059384517 0.0080916852
30299820.0 -0.8142032349 0.0140930128 -0.0001926672 6.1217e-05 -7.72073e-05 4.247e-05 -0.8112011935 0.0153155573
35299790.0 -0.8185802196 0.023125564 -2.89169e-05 -5.10409e-05 -7.96302e-05 5.6746e-06 -0.8167173651 0.0246378232
40299760.0 -0.8233620079 0.0322463483 8.40872e-05 0.0001880494 -1.27039e-05 -4.08527e-05 -0.8211473294 0.0338110467
45299730.0 -0.8264548516 0.0422443427 3.9831e-06 5.81429e-05 -1.48188e-05 -3.44045e-05 -0.823850164 0.0434923282
50299700.0 -0.8293367382 0.0521259368 5.30663e-05 0.0001620748 0.0002063871 -1.15818e-05 -0.8258556172 0.0537407263
55299670.0 -0.8310746475 0.0612354547 -0.0001488462 8.80965e-05 -0.0001291121 -2.77004e-05 -0.8284248106 0.0640451724
60299640.0 -0.8320909205 0.0717990645 2.12541e-05 0.0002142639 0.0003135572 4.64337e-05 -0.829246384 0.0739499196
65299610.0 -0.8332213782 0.0816368672 0.0001144534 6.06168e-05 -0.0001230654 -8.9457e-05 -0.830077529 0.0838947801
70299580.0 -0.833490447 0.0915244281 2.61761e-05 0.0001335966 0.0001011409 0.0002914451 -0.8306890903 0.0937946627
75299550.0 -0.8339739133 0.1018431829 8.201e-05 4.89567e-05 6.6291e-05 -0.0001169869 -0.8305524986 0.1041723346
80299520.0 -0.8335802477 0.1119306048 -0.0003280064 0.0001036741 8.8746e-05 0.0001203501 -0.8304825779 0.1139370073
85299490.0 -0.8326583608 0.1215214024 0.0002211901 8.0975e-06 0.000127412 -7.08251e-05 -0.8294238738 0.1235841856
90299460.0 -0.8322233486 0.1314727589 7.72294e-05 2.84198e-05 -0.0001133147 -3.0544e-05 -0.8285305236 0.1326545509
95299430.0 -0.8319246416 0.1405743225 2.43201e-05 0.0001120457 0.0001100537 5.0469e-06 -0.8281338722 0.1426589044
100299400.0 -0.8308180783 0.1497099998 3.81756e-05 0.0003458504 -6.731e-06 8.3989e-06 -0.8266299737 0.152049136
105299370.0 -0.8289691182 0.1597705006 -0.0001284244 -9.05897e-05 0.0002557297 5.15e-08 -0.8256414875 0.1607063914
110299340.0 -0.8276162242 0.1683897663 -3.95311e-05 -7.9695e-05 6.73851e-05 0.0001094674 -0.8240554436 0.1695968932
115299310.0 -0.8259135555 0.1777378287 -4.77581e-05 7.64042e-05 0.0002349816 -3.07369e-05 -0.8228953157 0.1791378803
120299280.0 -0.8250635875 0.1865629405 -2.72623e-05 -7.66092e-05 3.9299e-06 8.46188e-05 -0.8205031241 0.1881394326
125299250.0 -0.8229809002 0.195738863 -0.0001003435 -0.0001653828 -0.00012691 -6.08088e-05 -0.8190703078 0.1976280788
130299220.0 -0.820777566 0.205403571 6.06686e-05 9.7748e-05 -8.03955e-05 -7.76414e-05 -0.8172806612 0.2056407092
135299190.0 -0.8186747838 0.2144227811 7.35942e-05 9.49268e-05 2.82671e-05 -2.02552e-05 -0.815615093 0.2147385858
140299160.0 -0.8174219221 0.2235434807 -0.0001432044 -0.0001256745 -3.96529e-05 -8.54167e-05 -0.8138482526 0.2230123296
145299130.0 -0.8152428674 0.2326163548 1.505e-07 -0.0001096525 9.54561e-05 4.62878e-05 -0.8115068067 0.2322733585
150299100.0 -0.8119619773 0.2410438273 -0.0001954973 -0.0001415082 -0.0002418901 -0.0001629689 -0.8091994619 0.2413609457
155299070.0 -0.8102926937 0.2503318584 -4.57237e-05 0.0001278246 -1.28258e-05 0.0001508977 -0.8067037218 0.2501500895
160299040.0 -0.8076350194 0.2595626193 1.76194e-05 6.13764e-05 3.579e-06 -0.0001723698 -0.8041759373 0.2591496388
165299010.0 -0.8045187149 0.2676302909 -0.0002069179 -0.0002124218 7.57162e-05 -0.000164538 -0.8014322794 0.2674093791
170298980.0 -0.8007972985 0.2767060128 0.0001964374 0.0001800287 6.98578e-05 -2.24295e-05 -0.7990962356 0.2755699279
175298950.0 -0.7993822981 0.2845924156 2.49354e-05 -8.94343e-05 1.3338e-05 6.51383e-05 -0.7964649081 0.2847712213
180298920.0 -0.7961104207 0.2934078741 -2.9715e-05 -7.9617e-06 1.95755e-05 7.78299e-05 -0.7931819306 0.2935719723
185298890.0 -0.7926325206 0.3019645306 -6.19612e-05 -6.63634e-05 4.81687e-05 3.106e-05 -0.7901433762 0.3017457381
190298860.0 -0.7897049859 0.3109745558 -1.39958e-05 0.0002594436 -0.0001464535 -0.0001016609 -0.7869014662 0.3097821664
195298830.0 -0.7866628347 0.3193579312 -0.0001207905 8.62177e-05 0.0001128442 -0.0002203252 -0.7837964766 0.318463589
200298800.0 -0.7827228083 0.3278353796 -5.19427e-05 0.0001088228 -0.0001071474 7.28509e-05 -0.7802593032 0.3264377193
205298770.0 -0.7792541245 0.3364544165 4.88452e-05 0.0001367193 -6.19943e-05 -3.0572e-06 -0.7771686328 0.3349745816
210298740.0 -0.7761566677 0.3448795026 -4.52128e-05 -5.45313e-05 -1.13813e-05 -7.98583e-05 -0.773692102 0.3430410805
215298710.0 -0.7722482217 0.35324451 0.0001286633 7.08618e-05 7.78e-07 -8.89419e-05 -0.7699470879 0.3513049698
220298680.0 -0.7690773295 0.3609816897 4.33997e-05 2.21953e-05 5.10019e-05 8.17827e-05 -0.7663350995 0.3594181393
225298650.0 -0.7645089776 0.3695472345 -0.0001042509 -0.0001153083 -9.5279e-06 3.7904e-06 -0.7624391163 0.367903661
230298620.0 -0.76132077 0.3781568018 0.0001108578 6.90233e-05 -1.3785e-05 -5.36493e-05 -0.7586416566 0.3755669312
235298590.0 -0.7571042703 0.3862214129 9.05325e-05 -0.0001644223 -1.73575e-05 -3.0937e-06 -0.7545888383 0.3831913867
240298560.0 -0.7526622844 0.3936120782 9.32436e-05 3.15829e-05 7.73662e-05 3.76464e-05 -0.7504022893 0.391271065
245298530.0 -0.7488512357 0.4015674726 0.0001398585 0.0001210967 -7.5068e-05 -0.0002301316 -0.7471465258 0.3986135979
250298500.0 -0.7447279983 0.4093856802 9.96177e-05 1.58136e-05 2.74619e-05 -0.0001101638 -0.742806559 0.4071746051
255298470.0 -0.7405562067 0.4175887642 1.454e-06 -9.62216e-05 0.000106515 -1.77352e-05 -0.7388265029 0.4150452595
260298440.0 -0.7361214498 0.4248560164 -0.0001364629 -0.0001549113 -4.15126e-05 -0.0001245972 -0.7338378127 0.4222433922
265298410.0 -0.7318199181 0.4327783545 -4.56396e-05 1.4445e-06 -7.37126e-05 -9.32721e-05 -0.7296587796 0.4302206516
270298380.0 -0.7271642934 0.4405930195 -4.91011e-05 -6.14974e-05 0.0001374097 -5.66991e-05 -0.7250051404 0.4382476156
275298350.0 -0.7232976351 0.44816992 0.0001070453 3.80449e-05 0.0001298306 0.0002085096 -0.720510205 0.4460924036
280298320.0 -0.7181047789 0.455570646 0.0002207197 -0.0001572956 9.92313e-05 7.56242e-05 -0.716350883 0.4528118454
285298290.0 -0.7138718934 0.4637953621 -8.33688e-05 4.07129e-05 -0.0002185841 8.11838e-05 -0.7114849873 0.4608382231
290298260.0 -0.708332399 0.4709764351 0.0002215805 0.0001920661 7.08377e-05 -1.73859e-05 -0.7064736134 0.4673411722
295298230.0 -0.7040929066 0.4776806626 8.76008e-05 7.5575e-06 0.0001386466 2.91387e-05 -0.7013083189 0.4751691359
300298200.0 -0.6995597202 0.4858041172 0.0002201232 0.0001275441 0.0002794661 -5.41546e-05 -0.696382158 0.482211427
305298170.0 -0.6946954818 0.4927915349 -1.9836e-05 0.0001007952 1.89921e-05 0.000137714 -0.6911604754 0.4895928538
310298140.0 -0.6888292866 0.4998216539 -9.13787e-05 6.41957e-05 7.2811e-06 -3.90069e-05 -0.6863454214 0.4967234564
315298110.0 -0.6846939017 0.5070236842 7.04549e-05 7.48296e-05 9.4341e-06 -0.0001130282 -0.6808015568 0.503850705
320298080.0 -0.6789469884 0.5145043365 3.47872e-05 -3.72063e-05 -1.91851e-05 -8.12066e-05 -0.6758651813 0.5106508139
325298050.0 -0.6728072055 0.5210457458 0.0002544211 4.90535e-05 0.0001478302 2.50515e-05 -0.669960891 0.5173759206
330298020.0 -0.6682721569 0.5277956302 0.0001101454 -6.94263e-05 7.0268e-05 -1.1622e-06 -0.6645110744 0.52438862
335297990.0 -0.6630439564 0.5346153874 -0.0001559736 -2.93632e-05 0.0001175811 3.14793e-05 -0.6589555521 0.5318166237
340297960.0 -0.6582269722 0.5414619739 -4.66437e-05 -9.39497e-05 -7.23569e-05 3.06482e-05 -0.6541928262 0.5384798904
345297930.0 -0.6517273123 0.5481199071 -7.15449e-05 8.05502e-05 -1.41794e-05 -5.40424e-05 -0.6489083252 0.5449517143
350297900.0 -0.6466517541 0.5548498794 0.0002575698 4.71263e-05 4.57392e-05 -0.0001832188 -0.6427462155 0.5520308979
355297870.0 -0.6408057709 0.5616013854 -2.69351e-05 0.000162159 7.21219e-05 6.98021e-05 -0.6364922932 0.5587720274
360297840.0 -0.635003292 0.5680766151 -0.0001494544 -3.76261e-05 0.0001120198 -5.59356e-05 -0.6305921625 0.5650318476
365297810.0 -0.6294957364 0.5747980934 -0.0002492821 -3.27458e-05 1.06232e-05 -4.78751e-05 -0.6254004004 0.5710233797
370297780.0 -0.6232846866 0.5805849225 -0.0001343665 -0.0001415526 -8.58893e-05 -0.0003573937 -0.6190523764 0.5778393082
375297750.0 -0.6182005398 0.5873547831 8.31634e-05 0.0002371791 3.46407e-05 -7.39973e-05 -0.6129498238 0.5841409523
380297720.0 -0.6123559946 0.5937846167 -0.0001141519 -0.0001055522 -5.57551e-05 -8.19035e-05 -0.6067851678 0.5903825166
385297690.0 -0.60571599 0.5992306299 0.0001347568 0.0001160351 0.0003175303 -1.21717e-05 -0.6011740616 0.5967126643
390297660.0 -0.5987579981 0.6055806246 -0.0001493262 -0.0001094925 -4.80417e-05 6.33825e-05 -0.5943603549 0.6016522904
395297630.0 -0.5929687116 0.6120850165 0.0001080317 -9.20333e-05 2.43123e-05 6.67788e-05 -0.587995053 0.607541782
400297600.0 -0.5869925871 0.6179637795 -0.000167066 -9.04138e-05 0.0001395438 -4.8e-05 -0.58249303 0.6145664976
405297570.0 -0.5809317598 0.6236359891 2.16818e-05 -0.0001886152 -3.7772e-05 9.6705e-06 -0.5751885853 0.6201821202
410297540.0 -0.5734655012 0.6294869568 0.0001391483 -0.0002662529 6.63495e-05 0.0001174809 -0.5689506627 0.6262833941
415297510.0 -0.5676807842 0.6356319281 0.0001042701 0.0001726873 -4.70693e-05 -5.26437e-05 -0.563002798 0.6313236644
420297480.0 -0.5612220583 0.6412304453 3.32083e-05 -7.93995e-05 0.0001003571 -6.20392e-05 -0.5560641517 0.638071039
425297450.0 -0.5547013878 0.646657169 0.0001463853 0.0001419749 -0.0001010551 -0.0001170914 -0.5491197542 0.6425371115
430297420.0 -0.5485217056 0.6519580784 0.0001150967 0.0001389659 -5.30782e-05 9.98643e-05 -0.5429051661 0.6485197398
435297390.0 -0.5414643188 0.6573019901 0.0002116579 -2.92732e-05 -0.0001094659 3.54603e-05 -0.5364195274 0.654131296
440297360.0 -0.5341426327 0.6628504219 -9.61073e-05 8.64662e-05 -2.87056e-05 0.0001501808 -0.5301703652 0.6595686041
445297330.0 -0.5271575634 0.6683749775 -7.46759e-05 5.42539e-05 -0.0001063778 9.87267e-05 -0.5225340636 0.6651709261
450297300.0 -0.520549599 0.6741260636 0.0001171159 -8.1531e-05 4.37808e-05 8.2693e-06 -0.5155258192 0.6699321021
455297270.0 -0.5135758454 0.678414449 0.0002271412 -5.02687e-05 -0.0001384085 1.3963e-06 -0.5090552666 0.6751234321
460297240.0 -0.5060971681 0.6843424613 -0.0001260236 2.68888e-05 -1.89668e-05 0.0001004757 -0.5021993232 0.6802034607
465297210.0 -0.4995262999 0.6896580454 -0.0001250613 -9.2312e-05 5.02271e-05 -9.64031e-05 -0.4946643367 0.6862013399
470297180.0 -0.4920739724 0.6943233704 6.39721e-05 -0.0001849083 6.84491e-05 -0.0001586024 -0.4874556139 0.6908110082
475297150.0 -0.4846650958 0.699207007 0.0001206994 -1.7539e-05 7.61434e-05 6.34224e-05 -0.4810418834 0.6956771524
480297120.0 -0.4768332785 0.7041745057 0.000221833 -2.0019e-06 -0.0002400329 4.59641e-05 -0.4741789754 0.7003057047
485297090.0 -0.4699151133 0.7083709104 9.28659e-05 -1.93364e-05 -1.34967e-05 0.0001034739 -0.4668492957 0.7055275468
490297060.0 -0.4619165549 0.7136826625 -9.75062e-05 0.0001228644 -9.85591e-05 6.65779e-05 -0.4595116358 0.7089048361
495297030.0 -0.4550700312 0.7181896789 0.0001480852 3.5644e-05 1.89561e-05 3.63045e-05 -0.4520749373 0.7138985191
500297000.0 -0.4473901029 0.7221727074 5.04725e-05 -1.35726e-05 9.85715e-05 -0.0001079082 -0.4449231485 0.7183714356
505296970.0 -0.4390043737 0.7273417587 1.85099e-05 -3.26339e-05 9.56995e-05 -6.71042e-05 -0.4373842126 0.7231127078
510296940.0 -0.4323115 0.7316582952 -0.0001788642 -9.87852e-05 -7.54035e-05 0.0001347579 -0.4296115082 0.7275445138
515296910.0 -0.4241781547 0.7361914358 -2.11853e-05 -0.0001550185 -2.07188e-05 7.09241e-05 -0.4229417652 0.7310982273
520296880.0 -0.4162800384 0.739773215 0.0001581038 -7.39012e-05 -1.01655e-05 0.0001381213 -0.4152744184 0.7362315019
525296850.0 -0.4087058187 0.7442746772 -0.0001151651 -6.64556e-05 -3.18439e-05 3.434e-07 -0.4081424504 0.7395670677
530296820.0 -0.4013906003 0.7482827085 -3.9682e-06 0.0002429044 -2.93718e-05 0.0002026415 -0.4004907127 0.7438806973
535296790.0 -0.3928742086 0.7522019812 -5.5966e-06 -1.38752e-05 -8.58675e-05 -0.0001327769 -0.3932824696 0.7480095081
540296760.0 -0.3847694907 0.7562102765 -9.13304e-05 1.1316e-06 3.44683e-05 3.53148e-05 -0.3847962657 0.7513657372
545296730.0 -0.3774741248 0.760185933 -5.34384e-05 -5.93381e-05 -2.506e-06 -5.21563e-05 -0.3776921032 0.7557788517
550296700.0 -0.3689734833 0.7638231263 2.75779e-05 5.9082e-05 5.807e-06 -8.51777e-05 -0.3696461485 0.7593192923
555296670.0 -0.3612894668 0.7672514692 2.88522e-05 0.0001386738 0.0001129306 -2.23871e-05 -0.3625214673 0.7623333309
560296640.0 -0.3536740269 0.7707575463 1.63189e-05 -7.31848e-05 -2.5159e-06 3.4044e-05 -0.3544900231 0.7665466884
565296610.0 -0.3458261154 0.7748300839 5.50165e-05 9.11464e-05 0.0003447902 -2.40398e-05 -0.3465592096 0.7697934371
570296580.0 -0.3368590904 0.7781797174 -5.04221e-05 -0.000151696 -4.72354e-05 3.3888e-05 -0.338923324 0.7730552829
575296550.0 -0.3282108106 0.7812156553 -7.6761e-06 0.0001187158 2.88655e-05 0.0001353061 -0.3309493128 0.7761600925
580296520.0 -0.3212295069 0.7842088091 0.0001750074 -2.79736e-05 -5.3136e-06 9.36965e-05 -0.3237921034 0.7795584519
585296490.0 -0.3123175178 0.7877932819 3.9497e-06 9.8015e-05 0.0001590843 -0.0001044388 -0.3148255213 0.7835963624
590296460.0 -0.3037261519 0.7909604346 -3.45316e-05 0.0001166413 0.0001429054 -0.0001948147 -0.3076398885 0.7862700397
595296430.0 -0.2961552517 0.7937497333 -3.38382e-05 -2.08636e-05 0.0001476276 -0.0001267016 -0.2996936698 0.7895379202
600296400.0 -0.2879035382 0.7964877944 -0.0001260148 0.0001064064 3.5478e-06 -3.85253e-05 -0.2914624708 0.7917076783
605296370.0 -0.2802523349 0.7996857514 8.43579e-05 8.51518e-05 4.6162e-06 8.07328e-05 -0.2836638423 0.7955156476
610296340.0 -0.2715527822 0.802624925 1.95101e-05 -8.1884e-05 -1.52943e-05 0.0002380895 -0.2756059188 0.7980966737
615296310.0 -0.2627409394 0.805384466 -8.9878e-05 -7.41094e-05 -3.97753e-05 -6.10608e-05 -0.2674966974 0.8007021454
620296280.0 -0.2552122682 0.8082955302 -0.00012264 0.0001188382 -3.15672e-05 8.86805e-05 -0.2599161024 0.8037328727
625296250.0 -0.2471650382 0.8101931968 -3.8543e-06 4.33143e-05 -3.25547e-05 3.07724e-05 -0.2516690805 0.8054248781
630296220.0 -0.2389136302 0.8127699408 9.23829e-05 -0.0001934233 -0.0001996777 0.0001517155 -0.2431998186 0.807967662
635296190.0 -0.2302338334 0.8156608928 -8.097e-05 3.69116e-05 -5.73504e-05 -5.11643e-05 -0.2356416285 0.8100513863
640296160.0 -0.2215448142 0.8177173691 -2.49808e-05 2.14547e-05 -6.69638e-05 -8.76629e-05 -0.2271203236 0.8129446806
645296130.0 -0.2138773651 0.8204648559 0.0001040639 4.13447e-05 -0.0001418848 -1.12396e-05 -0.2195150005 0.8147154596
650296100.0 -0.2054185094 0.8222724085 -1.2165e-05 -6.11443e-05 4.70478e-05 -2.0202e-05 -0.2107144977 0.8168627614
655296070.0 -0.1978363739 0.8245133967 -0.0001210863 -8.49252e-05 -6.90769e-05 1.81375e-05 -0.202599284 0.8191917712
660296040.0 -0.1888145578 0.8261615978 -1.81767e-05 -7.70092e-05 -8.9017e-05 6.69044e-05 -0.1941338292 0.8211270445
665296010.0 -0.1805698114 0.8283661427 2.75563e-05 -2.88859e-05 -0.0001547469 4.1818e-05 -0.1860580516 0.8225967106
670295980.0 -0.1728330837 0.8307348777 1.85401e-05 -5.68055e-05 -1.8284e-06 0.0001437937 -0.1782671374 0.8244280328
675295950.0 -0.16387103 0.8320140044 -0.0001658685 -3.59688e-05 2.21188e-05 0.0001391204 -0.1696762452 0.8263883349
680295920.0 -0.1562732893 0.8332459294 0.0001154002 -0.0001277174 -0.0002751985 -3.84505e-05 -0.1611362929 0.8278921503
685295890.0 -0.1469307787 0.8356930735 -9.29003e-05 0.0001513546 9.11402e-05 -0.0001552491 -0.1531649971 0.8295862725
690295860.0 -0.1394138209 0.8368831555 0.0003771613 -5.62912e-05 8.57087e-05 -4.17526e-05 -0.1453712628 0.8312857009
695295830.0 -0.1304455689 0.8384592393 -0.0001147625 5.48756e-05 -5.41371e-05 -6.4348e-06 -0.1368177995 0.8331631233
700295800.0 -0.1224730524 0.8403028938 0.0002338537 0.0003003206 -0.0002251816 6.26799e-05 -0.1283736292 0.8332954073
705295770.0 -0.11442574 0.8416611815 0.0003100951 5.78816e-05 7.32783e-05 -0.0001043826 -0.1203795333 0.8353071284
710295740.0 -0.10601883 0.8416840022 0.0001032358 -0.0003140576 8.7109e-06 6.80679e-05 -0.111277964 0.8361948504
715295710.0 -0.0974933138 0.8440957402 4.01614e-05 -0.0001809255 -0.0001153528 3.6598e-05 -0.1029461821 0.8368695676
720295680.0 -0.0888630405 0.8442083985 -0.0001620188 6.82209e-05 -4.57384e-05 -4.57604e-05 -0.0943665352 0.8376765549
725295650.0 -0.0811916615 0.8459679338 -0.0001108892 -0.0001482561 -3.47857e-05 -6.07375e-05 -0.087113191 0.8393475128
730295620.0 -0.0733130296 0.8462805067 -5.01267e-05 -7.4822e-06 -6.40202e-05 0.0002283314 -0.0785149553 0.8398575044
735295590.0 -0.0655827788 0.848390889 -3.04481e-05 -6.95095e-05 -4.42719e-05 1.34466e-05 -0.0697355108 0.8408456233
740295560.0 -0.0576710965 0.8475304381 6.57132e-05 -6.05567e-05 -1.07612e-05 -3.85696e-05 -0.0616615982 0.8416403379
745295530.0 -0.0486153815 0.8486385448 9.9979e-05 6.7932e-06 0.0001157843 -2.87549e-05 -0.0533932572 0.8420337912
750295500.0 -0.0404305231 0.849705413 7.99247e-05 4.98575e-05 4.19944e-05 0.0001739468 -0.0446304635 0.8423453532
755295470.0 -0.0322293729 0.8499581117 -3.03381e-05 -5.84897e-05 -9.82492e-05 6.69964e-05 -0.0364491035 0.8426951655
760295440.0 -0.0241246664 0.8509843814 1.35089e-05 4.41099e-05 4.33163e-05 7.9901e-05 -0.0278140694 0.8428912077
765295410.0 -0.0161879626 0.8505698117 0.0001252323 -2.25784e-05 -3.86235e-05 5.27156e-05 -0.0193668068 0.8437917347
770295380.0 -0.0082300939 0.8513601238 0.0002182146 -9.1359e-06 -7.15019e-05 -4.81572e-05 -0.0112091742 0.8430488065
775295350.0 0.0001559993 0.8511060732 7.44588e-05 -0.0002010006 -2.12918e-05 -3.43e-06 -0.0032563731 0.8428981523
780295320.0 0.0090079613 0.8516503221 -4.49241e-05 2.22599e-05 8.85783e-05 5.66449e-05 0.0055886575 0.8437159318
785295290.0 0.0169405272 0.8509434191 -0.0001265389 0.0001202129 -7.42063e-05 4.63935e-05 0.0136292502 0.8436503031
790295260.0 0.0251741516 0.8508983533 0.0001250967 -3.25753e-05 -1.1901e-06 6.74428e-05 0.0221300659 0.8428265638
795295230.0 0.0333979626 0.8505089564 0.000142823 -0.0001787988 4.7569e-06 -5.5175e-05 0.0297792771 0.8424143675
800295200.0 0.0412500281 0.8507311426 0.0001622683 -5.04583e-05 9.38182e-05 0.0001041052 0.0382667945 0.8419302379
805295170.0 0.0492087456 0.851078991 -0.0002026009 -0.0001144926 -0.0001006313 5.39079e-05 0.0475591042 0.8418544009
810295140.0 0.0578717101 0.8506074533 0.0001019926 -4.03581e-05 5.07672e-05 2.62071e-05 0.0558021291 0.8412561985
815295110.0 0.0650553665 0.8498869931 -0.0001939024 0.0001848052 5.07631e-05 6.36376e-05 0.0636151084 0.8411689779
820295080.0 0.0737603021 0.8491025358 2.52197e-05 0.0001731024 -6.14263e-05 8.43832e-05 0.0716305303 0.8400593709
825295050.0 0.0820363752 0.8481351029 3.64053e-05 0.0001623696 0.0001145536 2.03027e-05 0.0804047683 0.8395134309
830295020.0 0.0905431918 0.8476257375 0.0001055472 4.05482e-05 -0.000115271 -1.30911e-05 0.0877682523 0.837728432
835294990.0 0.0981692711 0.8470284177 -0.0002463739 -0.0001467701 -0.0001132956 -0.0001021002 0.0970785781 0.8375801948
840294960.0 0.1070767641 0.8451781402 8.45885e-05 -9.13753e-05 -0.00017081 -8.81233e-05 0.1054167453 0.8365885682
845294930.0 0.1147947752 0.8444258411 -3.15249e-05 -0.0001024893 -0.0001035944 -0.0001520666 0.1141458798 0.8353566052
850294900.0 0.1240090957 0.8434564573 0.0001319542 0.0001396567 -0.000243188 0.000165048 0.1213552383 0.8343874639
