!Created with skrf (http://scikit-rf.org).
# Hz S RI R 50.0 
!freq ReS11 ImS11 ReS21 ImS21 ReS12 ImS12 ReS22 ImS22
300000.0 -0.1003563428 -0.0702692927 0.62992001 0.0643579994 0.6242771042 0.0653215434 -0.1009623138 -0.0762092153
5299970.0 -0.1019558286 0.0128694789 0.6305187454 0.0101683671 0.6309293246 0.0108752834 -0.1007102391 0.0131422587
10299940.0 -0.0971824346 0.0292569427 0.6338909225 0.0152447876 0.6339686991 0.0158654544 -0.0957687269 0.0303531105
15299910.0 -0.0898313995 0.0424440313 0.6403294531 0.0208577052 0.6406670234 0.020534626 -0.0886343072 0.0433563348
20299880.0 -0.0817046401 0.0531282282 0.6485701784 0.0244215747 0.6487337169 0.0241280255 -0.0797837225 0.0545196581
25299850.0 -0.0722305913 0.0621864521 0.6581861934 0.025446537 0.6576069306 0.0255990286 -0.0698970528 0.0631360504
30299820.0 -0.0621390669 0.0689800035 0.6677174184 0.0243218732 0.6671829189 0.0245004615 -0.0599194937 0.0699579897
35299790.0 -0.0525679868 0.0737888697 0.6774308786 0.0214623442 0.6768955939 0.0214908692 -0.0501267374 0.0749722852
40299760.0 -0.0432565971 0.0771835044 0.686408586 0.0174884191 0.6867631756 0.0176312031 -0.0402783129 0.0775836222
45299730.0 -0.0340310037 0.0794105946 0.6952166292 0.0117861952 0.6957961644 0.011949344 -0.0312617843 0.0797685848
50299700.0 -0.0257045908 0.0800864376 0.703821696 0.0048394567 0.7034783715 0.0053998066 -0.0225732544 0.0806112272
55299670.0 -0.0175535597 0.0803254696 0.7107783176 -0.0035061698 0.7106255897 -0.0026018324 -0.0148052533 0.0805653786
60299640.0 -0.0100066149 0.0802464758 0.717020222 -0.0113467036 0.7176570828 -0.0106983696 -0.0079126944 0.0795672786
65299610.0 -0.0037421482 0.078858165 0.7233209535 -0.0200040579 0.7236267735 -0.0199372591 -0.0009854482 0.0785970096
70299580.0 0.002670426 0.0778081819 0.7288535511 -0.0292836581 0.7288260173 -0.0288365662 0.0047481366 0.0768767087
75299550.0 0.0079511372 0.0757831919 0.7327018764 -0.0388391127 0.7323995483 -0.0389982222 0.0101292128 0.074794457
80299520.0 0.0127694653 0.0736692774 0.7369570278 -0.0489572577 0.7376251404 -0.048588981 0.0149674936 0.0728845962
85299490.0 0.0178410315 0.0716718034 0.7401953057 -0.0579743321 0.7403488598 -0.0581176051 0.0194056539 0.0699710197
90299460.0 0.0217486105 0.0690624883 0.7428636683 -0.0687242842 0.7434924489 -0.0685769805 0.0236138931 0.0680117147
95299430.0 0.0257493422 0.0665976263 0.7458155508 -0.0787177342 0.74555607 -0.078890536 0.0275759302 0.0655516842
100299400.0 0.0290043615 0.0646089376 0.746536269 -0.0892038334 0.7472647034 -0.0889035568 0.0310727402 0.0625237898
105299370.0 0.0321544978 0.0621385358 0.7482939998 -0.0996928955 0.7492831362 -0.0989305661 0.0342227125 0.0606816109
110299340.0 0.034848354 0.0597409972 0.7497077408 -0.1088356729 0.7497404732 -0.1086503567 0.0360906666 0.0577840228
115299310.0 0.0373222844 0.0571546304 0.7506733542 -0.1189393902 0.7508673704 -0.1191836207 0.0391101833 0.0555471748
120299280.0 0.0399082633 0.0545669928 0.7510760932 -0.1293735684 0.7515958526 -0.1290773882 0.0414591097 0.0529385454
125299250.0 0.0420278117 0.052419856 0.7515599017 -0.1391327613 0.7516931656 -0.1383993006 0.0431022239 0.0502858681
130299220.0 0.0435856675 0.0504853851 0.751019322 -0.1491714645 0.7512522107 -0.1491107378 0.0449122042 0.0480900595
135299190.0 0.0451698512 0.0482756741 0.7516492002 -0.1589842632 0.7512078164 -0.1586676961 0.0466585303 0.046034829
140299160.0 0.0466394035 0.0463394888 0.7509462411 -0.1689884983 0.7507905679 -0.1689490281 0.0483101093 0.0444598478
145299130.0 0.0482051103 0.0439960711 0.7498053391 -0.1785293378 0.749844169 -0.178250531 0.0495884961 0.0423412976
150299100.0 0.0496438312 0.0421678595 0.7488414072 -0.1871788866 0.7490286067 -0.1874887055 0.0508824845 0.0400782142
155299070.0 0.050215032 0.0397568712 0.7478810513 -0.1981466023 0.7479983155 -0.1978696253 0.0520952371 0.0386064182
160299040.0 0.0519133446 0.0381039708 0.7464357261 -0.2074375243 0.7457610534 -0.2068672467 0.0520018571 0.0363443602
165299010.0 0.0525432105 0.0364705656 0.7443348313 -0.2168193042 0.7448733066 -0.2169692151 0.0535482791 0.0351372353
170298980.0 0.0534127809 0.0341465541 0.7426957229 -0.2261777935 0.7430829802 -0.226080713 0.0545631113 0.0331176503
175298950.0 0.0538410497 0.0324361426 0.7412786982 -0.2352875219 0.7404453002 -0.2351135324 0.0545422756 0.0314663661
180298920.0 0.0543747651 0.0305706745 0.7389213863 -0.2448584463 0.7391335409 -0.2440649521 0.0554790266 0.0299583495
185298890.0 0.0555602386 0.0286624168 0.7362799005 -0.2536233244 0.7366438693 -0.2536580422 0.0560548331 0.0281986814
190298860.0 0.0556745346 0.0274817384 0.7340334774 -0.2630087011 0.7346498045 -0.2630332946 0.0562692734 0.0261576136
195298830.0 0.0561604138 0.0253657384 0.7319126853 -0.2716038608 0.7320401426 -0.2713433668 0.0573419415 0.0252067596
200298800.0 0.0565049612 0.0242292881 0.7286367611 -0.281194916 0.7291717287 -0.2813377377 0.0570579708 0.0239186889
205298770.0 0.0570113783 0.0227311865 0.7255019352 -0.2906444648 0.726389172 -0.289471892 0.0575565437 0.0215201658
210298740.0 0.0572165762 0.0209874481 0.7235011083 -0.2984725907 0.7233071772 -0.2980266529 0.0578403676 0.0214526434
215298710.0 0.0569803539 0.019670053 0.7200594806 -0.3073761474 0.7203028088 -0.3075450581 0.0577759236 0.0199691165
220298680.0 0.0577574906 0.0178756635 0.7168660853 -0.3159035594 0.7169110684 -0.3158377176 0.0574966231 0.0181791752
225298650.0 0.057897464 0.0167509523 0.7139563627 -0.3247547119 0.7140528457 -0.3245851543 0.0573710919 0.0165578025
230298620.0 0.0578467196 0.0158313651 0.7105839906 -0.3325634127 0.7112301124 -0.3328756011 0.0574023641 0.0152249092
235298590.0 0.0578628481 0.0149684787 0.7071014803 -0.3412250682 0.7069666748 -0.3402948355 0.0576528473 0.0138260853
240298560.0 0.0579598548 0.013440945 0.7038945411 -0.3498257014 0.7025696772 -0.3499015845 0.0578709011 0.0127754499
245298530.0 0.05803829 0.0120813728 0.7003636906 -0.3580701122 0.699720321 -0.3581934784 0.0582263929 0.011000263
250298500.0 0.0585463449 0.0110909341 0.6947241546 -0.3667367038 0.6949848165 -0.3656258468 0.0580168742 0.0104110365
255298470.0 0.0583593943 0.0094376889 0.691619799 -0.3745667212 0.6919852785 -0.3743229276 0.0584105743 0.0088571643
260298440.0 0.0581301116 0.0083937384 0.6877162079 -0.3830180248 0.6879416594 -0.3822302525 0.0585187244 0.0079923386
265298410.0 0.0589777444 0.0078318947 0.6840665181 -0.39085589 0.6840006352 -0.3903258484 0.0583802587 0.0071075492
270298380.0 0.0586742689 0.0062732052 0.6800464586 -0.3985710779 0.6794457573 -0.3984477404 0.0581311139 0.0056921877
275298350.0 0.0589331208 0.0050296988 0.6753732677 -0.4065901361 0.6756068898 -0.406451367 0.0585005591 0.0043134463
280298320.0 0.0587144287 0.0044571861 0.6711782542 -0.4141918508 0.6711051866 -0.4141825025 0.0586613962 0.003401025
285298290.0 0.0588888238 0.0033114544 0.6668584934 -0.4219363944 0.6661471739 -0.4224734644 0.0585438124 0.0023081916
290298260.0 0.0590446043 0.0022149093 0.6619693525 -0.4296225573 0.6621819095 -0.4297180744 0.0586994656 0.001911285
295298230.0 0.0590955491 0.0009428909 0.658099467 -0.4375047745 0.6575897788 -0.4374180075 0.0596633632 0.0002588307
300298200.0 0.0585275131 3.15405e-05 0.6530540314 -0.4451846919 0.6530137371 -0.4455536025 0.058877567 -0.0008661216
305298170.0 0.0589673545 -0.0012214797 0.6475974919 -0.4534878033 0.6477455391 -0.4527584419 0.0597843553 -0.0021227987
310298140.0 0.0585006037 -0.0023355442 0.6429303285 -0.4609055555 0.6435702288 -0.4603230013 0.0593304722 -0.0031061625
315298110.0 0.0586935627 -0.003880353 0.6383207214 -0.4685676387 0.6383018885 -0.468200672 0.0589812473 -0.004309691
320298080.0 0.0587118926 -0.0047267749 0.632273995 -0.4761933027 0.6329945635 -0.4755468221 0.0587669328 -0.0052798846
325298050.0 0.0578349272 -0.0062046018 0.6273646584 -0.483662495 0.6275069286 -0.4833864518 0.0583270891 -0.006461977
330298020.0 0.0572703504 -0.00731754 0.6217676631 -0.4911147257 0.6213745657 -0.4908910637 0.0574454817 -0.0075540907
335297990.0 0.0572264519 -0.0085409461 0.6163431844 -0.4974404392 0.615583529 -0.4977111806 0.056624912 -0.007809922
340297960.0 0.0561295457 -0.0088976536 0.6102891177 -0.5046180691 0.6095116242 -0.5049188181 0.057234749 -0.0087491796
345297930.0 0.0557522398 -0.0090898788 0.604742885 -0.5122472395 0.6041825158 -0.5119965149 0.056603385 -0.0098810054
350297900.0 0.0550358087 -0.0107306222 0.597819378 -0.5186824186 0.5981368062 -0.5184687726 0.0554113805 -0.0096501651
355297870.0 0.0548886884 -0.0105305156 0.5922957745 -0.5251529174 0.5928605042 -0.5243419047 0.055206457 -0.010653101
360297840.0 0.0548257391 -0.0114045619 0.5872750272 -0.5315738861 0.5877979195 -0.5315449145 0.0551990903 -0.0112347043
365297810.0 0.0540619137 -0.0119518415 0.580580581 -0.538511227 0.5818221833 -0.5382129118 0.0549176997 -0.0116872268
370297780.0 0.0543233935 -0.0134179456 0.5746044983 -0.5446830011 0.5751038218 -0.544220007 0.0543653618 -0.0120967013
375297750.0 0.0538653155 -0.0137942218 0.5688491535 -0.5513333209 0.5694343297 -0.5511728923 0.0544192242 -0.0129443745
380297720.0 0.0535378411 -0.014100689 0.5624439514 -0.5576288482 0.5632423703 -0.5564662565 0.0534941315 -0.0139026995
385297690.0 0.0528296568 -0.0148549461 0.5562906609 -0.5633868477 0.5562960469 -0.5633443727 0.0532286874 -0.0139353582
390297660.0 0.053057156 -0.0150389577 0.5509770831 -0.5704184715 0.5505676842 -0.5691395591 0.0524898938 -0.015083844
395297630.0 0.0522796236 -0.0159579461 0.5441793694 -0.5758860899 0.5442957784 -0.5763197056 0.0530875734 -0.0157823659
400297600.0 0.0517662999 -0.0166385572 0.5374619877 -0.5827226581 0.5376368363 -0.5821151502 0.0521983957 -0.0162274229
405297570.0 0.051303867 -0.0174697084 0.5310127187 -0.5880949321 0.5313304444 -0.58745405 0.0515842924 -0.0167049956
410297540.0 0.0515513263 -0.0179057928 0.524550038 -0.594127512 0.5256797615 -0.5938616763 0.0514184796 -0.0172000545
415297510.0 0.0515018803 -0.0187131578 0.5180900627 -0.6000666052 0.5187734915 -0.5998360863 0.0510902978 -0.0178555313
420297480.0 0.0510204265 -0.01899585 0.5111800815 -0.6055995071 0.5116169224 -0.6058752412 0.0505524326 -0.019076224
425297450.0 0.0504162411 -0.0202667096 0.5052226937 -0.611180852 0.5053494039 -0.6111204205 0.0494715154 -0.0189140011
430297420.0 0.0500157772 -0.0205476584 0.4983016171 -0.6161248052 0.4983673875 -0.6158037463 0.0495409958 -0.0200300906
435297390.0 0.0494887958 -0.0210679956 0.4913425045 -0.6223613385 0.4910894456 -0.6224501278 0.0499247455 -0.0206359102
440297360.0 0.0496065933 -0.0215148923 0.4842063379 -0.6281667641 0.4846795766 -0.6278131969 0.0490468486 -0.021531472
445297330.0 0.0487649337 -0.0229917393 0.4780557246 -0.6333016867 0.4779227534 -0.6325907438 0.0490207337 -0.0223090839
450297300.0 0.0487843375 -0.0228716999 0.4703109171 -0.6383757382 0.4707231022 -0.6386576699 0.0484708392 -0.0229534929
455297270.0 0.0482044937 -0.0237252873 0.4635840192 -0.643701706 0.4637489317 -0.6438683029 0.0481522758 -0.0233590218
460297240.0 0.0477905144 -0.0243999302 0.4560659309 -0.6485806888 0.4567100836 -0.6483855456 0.0477900397 -0.0236907097
465297210.0 0.0477368836 -0.0247485386 0.4499748978 -0.6540072449 0.4492873717 -0.6542347429 0.0476164689 -0.0247415736
470297180.0 0.0471161662 -0.0254435305 0.4417485064 -0.658201884 0.4422521693 -0.6588364867 0.0471640219 -0.0249574304
475297150.0 0.0468661292 -0.0264158486 0.4348486573 -0.6629876148 0.4353397691 -0.6631646676 0.0476239557 -0.0259506386
480297120.0 0.0459160888 -0.0263419858 0.4273767753 -0.6686626473 0.4276510911 -0.6686645037 0.0470488986 -0.0258721297
485297090.0 0.0455285196 -0.0269674212 0.4205232539 -0.6724572306 0.4204581974 -0.6725803639 0.0465972929 -0.0267162063
490297060.0 0.045012232 -0.0274165731 0.4130406757 -0.678179554 0.4129820721 -0.6772136466 0.0462071818 -0.0267795295
495297030.0 0.0447953225 -0.027901288 0.4049381133 -0.6824087375 0.4062907148 -0.6820472653 0.0453687936 -0.0274457854
500297000.0 0.0439819064 -0.0287520245 0.3974134437 -0.6863263753 0.3973520068 -0.6860708573 0.045272561 -0.0271875162
505296970.0 0.0438972329 -0.0294985238 0.3903638772 -0.6904953315 0.389968072 -0.6907837324 0.0447825156 -0.0282187044
510296940.0 0.0435163535 -0.029504376 0.3825006226 -0.6952122066 0.3826780241 -0.6948607653 0.0446862866 -0.0284464444
515296910.0 0.0425899276 -0.0297131029 0.3743932391 -0.699080025 0.3750633611 -0.6993192426 0.0441247006 -0.0288411081
520296880.0 0.0422423713 -0.0305097071 0.3672492133 -0.7039755841 0.3674001359 -0.7029062908 0.043197425 -0.0293913694
525296850.0 0.0419961803 -0.031470012 0.3587533504 -0.7073674134 0.3600226431 -0.7073089988 0.0427856361 -0.0296053423
530296820.0 0.0415924036 -0.0309405583 0.3515595412 -0.7117185088 0.3520197885 -0.7114762909 0.0427037894 -0.0297868887
535296790.0 0.0402937244 -0.0316670258 0.3443175771 -0.7150097903 0.3443542592 -0.7146872074 0.0420177964 -0.0311723015
540296760.0 0.0402591151 -0.0318434916 0.3359717847 -0.7192568366 0.3363747244 -0.719063686 0.0407471816 -0.0302614088
545296730.0 0.0396593003 -0.0325502322 0.3276206028 -0.722158749 0.3280501595 -0.7227637984 0.0406221761 -0.031095666
550296700.0 0.0399294365 -0.0325149219 0.3203415135 -0.7255493536 0.3202632686 -0.7261260093 0.0398655725 -0.0316558953
555296670.0 0.0386835785 -0.0329420249 0.3124212125 -0.7296722495 0.3125936449 -0.7292317052 0.0395571207 -0.0315864948
560296640.0 0.0388515738 -0.0331583502 0.3040261665 -0.733026805 0.3045044383 -0.7325814715 0.0390587145 -0.032669088
565296610.0 0.0375402501 -0.0337503087 0.2958768875 -0.7359998033 0.296079582 -0.7364397821 0.0378592611 -0.033091637
570296580.0 0.0370335363 -0.0338794795 0.288512921 -0.7399201509 0.287407873 -0.7396069625 0.0377588903 -0.0322995174
575296550.0 0.0362837146 -0.0341000253 0.280277419 -0.7426414241 0.2798475296 -0.7428348778 0.0376992975 -0.0336417953
580296520.0 0.0362459507 -0.0345574798 0.2718200967 -0.7464255931 0.2722285635 -0.7457393094 0.0366744337 -0.0338987372
585296490.0 0.0355404733 -0.0359774946 0.2641454993 -0.7484935237 0.2645022904 -0.7482182854 0.0362727411 -0.0343126111
590296460.0 0.0356830961 -0.0354718898 0.2557841175 -0.7504100563 0.2562260628 -0.7513229636 0.0350376452 -0.0345504174
595296430.0 0.0350197868 -0.0356431184 0.2473893776 -0.7548516602 0.2474746417 -0.7540797352 0.0348242738 -0.0353730357
600296400.0 0.0339809556 -0.0363729668 0.2390744748 -0.7568123851 0.2393786781 -0.7569589597 0.0341880385 -0.0358379111
605296370.0 0.0337241952 -0.0365643784 0.2306426527 -0.7591111709 0.2311030265 -0.7593128199 0.0336582789 -0.0357935135
610296340.0 0.033159092 -0.0367078112 0.2219213326 -0.7615983386 0.2226328841 -0.7619545224 0.0337240178 -0.0365113172
615296310.0 0.0329039794 -0.0373606729 0.2139926315 -0.7637709774 0.2141072739 -0.7647982204 0.0332812457 -0.0364567892
620296280.0 0.0322721562 -0.0378031193 0.2062828875 -0.7663964148 0.2056988931 -0.7662006253 0.0321082442 -0.0370738416
625296250.0 0.0313139359 -0.0383372699 0.1979092199 -0.769390521 0.1978414997 -0.7692185777 0.0325693414 -0.0371160086
630296220.0 0.0319151623 -0.0382302691 0.1890294681 -0.7708452313 0.1884673335 -0.7706502856 0.0315746521 -0.0370756681
635296190.0 0.0300794446 -0.0389665954 0.1804777275 -0.7723864891 0.1806769565 -0.7733085499 0.0313603183 -0.0375192035
640296160.0 0.0296133024 -0.0389410804 0.1725392986 -0.7741176317 0.1723313027 -0.7744584707 0.0306027344 -0.0378995038
645296130.0 0.0293090132 -0.0390326324 0.1632673097 -0.7759851703 0.1640905964 -0.7764564604 0.0301386537 -0.0379356491
650296100.0 0.0290793271 -0.0396379284 0.1549722736 -0.7782671166 0.1558592301 -0.7785383969 0.0302309309 -0.0393356573
655296070.0 0.0275820341 -0.040059002 0.1464026695 -0.78016622 0.1469680512 -0.7797915318 0.0291660443 -0.0385940974
660296040.0 0.0267537065 -0.040465191 0.1385180018 -0.7821521904 0.1387254035 -0.7814382541 0.0290648179 -0.0389736534
665296010.0 0.02723079 -0.0402699121 0.1290192529 -0.7830771709 0.1299718123 -0.7831406159 0.028614767 -0.0388222814
670295980.0 0.024982058 -0.0404005022 0.1210150374 -0.7838743125 0.1209916958 -0.7840419714 0.0272900213 -0.0392602199
675295950.0 0.0249417892 -0.0404353966 0.1125928512 -0.7854527987 0.1128626386 -0.7844980321 0.0266492038 -0.0391378957
680295920.0 0.0239045565 -0.0409956506 0.1038616367 -0.7866653849 0.1033682173 -0.7863468269 0.0263402178 -0.0386334768
685295890.0 0.0240605784 -0.0402643087 0.0953812261 -0.7874338654 0.0950166296 -0.7876940472 0.0255233091 -0.0390123833
690295860.0 0.0238605151 -0.0406814911 0.0869734638 -0.788192686 0.0867895239 -0.7889417629 0.0246549327 -0.0384292121
695295830.0 0.0229496849 -0.0413971654 0.0789524408 -0.7895099616 0.077876258 -0.7895365978 0.0245277913 -0.0390620163
700295800.0 0.0226664294 -0.0418524251 0.0695477986 -0.7901562027 0.0694149225 -0.7901262754 0.0237381849 -0.0384591516
705295770.0 0.0215402602 -0.0406135595 0.0607059114 -0.7907955277 0.0613394018 -0.7913328016 0.0229206908 -0.0389334455
710295740.0 0.0213184703 -0.0412582151 0.0528203468 -0.7928668914 0.0526003439 -0.7918805791 0.0228735306 -0.0398810561
715295710.0 0.0200629037 -0.0416715653 0.0443735216 -0.792380426 0.0438667202 -0.7920506003 0.0223970868 -0.0397143838
720295680.0 0.0198396314 -0.0414640796 0.0357634041 -0.7929719396 0.0357971076 -0.7925625152 0.0215706809 -0.0390936355
725295650.0 0.0194501864 -0.0417105496 0.0265467524 -0.792958499 0.0267301326 -0.7931475973 0.0203890889 -0.0392763727
730295620.0 0.0191969588 -0.0410935896 0.0175226721 -0.7928390616 0.0176671987 -0.7932879535 0.0196774409 -0.0399028006
735295590.0 0.0181080169 -0.0412470598 0.0094848017 -0.7936465275 0.0093164462 -0.7931909462 0.0190336777 -0.0400339196
740295560.0 0.0171596741 -0.0415087094 0.0006581343 -0.7927178684 0.000882016 -0.7928938095 0.0191383621 -0.0397064439
745295530.0 0.016955986 -0.0413797218 -0.0076647982 -0.7928964658 -0.0080530498 -0.7930068983 0.0184108609 -0.0403557102
750295500.0 0.0165560697 -0.0416921333 -0.016761754 -0.7927870734 -0.0159997529 -0.7929610144 0.0173933094 -0.0402584264
755295470.0 0.0160199226 -0.0420884385 -0.025096786 -0.7927076447 -0.0246694941 -0.7931698593 0.0174564166 -0.0407317893
760295440.0 0.0150086873 -0.0420565989 -0.0337350233 -0.7931023428 -0.0334786981 -0.7931717983 0.0164228955 -0.0405225159
765295410.0 0.0143748199 -0.0419447743 -0.042939444 -0.792153132 -0.0423660062 -0.7924835835 0.0160554185 -0.0405037911
770295380.0 0.0134283511 -0.0421676537 -0.0514653896 -0.7916360943 -0.0513027686 -0.7915196167 0.0149965828 -0.0412871124
775295350.0 0.0129581266 -0.0428080094 -0.0597759919 -0.7906926951 -0.0586893522 -0.7906211306 0.0135942098 -0.0405949194
780295320.0 0.0124216409 -0.0422000445 -0.0679849988 -0.7900554402 -0.0675633877 -0.7901521052 0.0134806063 -0.041304878
785295290.0 0.011742464 -0.0425352686 -0.0775454429 -0.7885094765 -0.0764984854 -0.7893417528 0.0137233758 -0.0409853865
790295260.0 0.0116784164 -0.0417146536 -0.0846984577 -0.7881729433 -0.0844133989 -0.7880408908 0.0125062989 -0.0410220613
795295230.0 0.0110340186 -0.0424170383 -0.0938250089 -0.7871482974 -0.0934191417 -0.7877501227 0.0126083517 -0.0404606225
800295200.0 0.0095887894 -0.0418887341 -0.1035367169 -0.7862855705 -0.1021793421 -0.7860677078 0.0118997334 -0.0409856448
805295170.0 0.0093491653 -0.0422328914 -0.1110728215 -0.7848237297 -0.1110965215 -0.7855048337 0.0112284633 -0.0407104948
810295140.0 0.0083061878 -0.0426806584 -0.1193660674 -0.7837115672 -0.119147375 -0.784004048 0.0114765104 -0.0405050891
815295110.0 0.0081791461 -0.0428750615 -0.1281761292 -0.782102059 -0.1276335322 -0.7825449925 0.0099699729 -0.0406657651
820295080.0 0.006728688 -0.0417505034 -0.1366609919 -0.7808749708 -0.1360938272 -0.7803043115 0.0092913739 -0.0404335386
825295050.0 0.0071661533 -0.0421798473 -0.1445907017 -0.7790833775 -0.1447383369 -0.779457627 0.0095625392 -0.0403704237
830295020.0 0.0060330708 -0.0416877137 -0.1534067892 -0.7774018001 -0.1531718684 -0.7775665775 0.0095061435 -0.0403323819
