!Created with skrf (http://scikit-rf.org).
# Hz S RI R 50.0 
!freq ReS11 ImS11 ReS21 ImS21 ReS12 ImS12 ReS22 ImS22
300000.0 -0.2360743508 -0.1197704926 0.466493799 0.0785763184 0.4639748908 0.0787002356 -0.2334506559 -0.1254541542
5299970.0 -0.2449060874 0.0054209983 0.4735573089 0.0056160594 0.4738701687 0.0059393251 -0.2436171201 0.0051189029
10299940.0 -0.2418712568 0.0187140364 0.4760530123 0.0066720902 0.4759071796 0.0070023456 -0.2402238135 0.0179667378
15299910.0 -0.2368380831 0.0283740475 0.4794636685 0.0084182385 0.4795602027 0.0082843295 -0.236138231 0.0275940675
20299880.0 -0.2316169517 0.0361376674 0.4844014699 0.0084326205 0.4843063594 0.0086489934 -0.2312017876 0.0352776971
25299850.0 -0.2255659671 0.0428711482 0.4896113306 0.0080774284 0.4897213266 0.0076880165 -0.2261913579 0.0417902993
30299820.0 -0.2203203383 0.047637557 0.4950269676 0.0055226711 0.4950919823 0.0055630242 -0.2208213531 0.047104373
35299790.0 -0.2141994569 0.0518586811 0.5000204499 0.0023620941 0.5005516197 0.0021014856 -0.2155001743 0.0515725832
40299760.0 -0.2092761458 0.0548119478 0.5057506974 -0.0017551285 0.5057621188 -0.0018811426 -0.2107683796 0.0546958181
45299730.0 -0.2041715645 0.0571363706 0.5103646111 -0.0060220463 0.5107168871 -0.0062665807 -0.2058443534 0.0578804411
50299700.0 -0.1989525635 0.0589311584 0.5142523019 -0.0118832729 0.5147147884 -0.0117453968 -0.2013536723 0.0600656623
55299670.0 -0.19501166 0.0605345252 0.5182509344 -0.0176278226 0.5180675236 -0.0179203973 -0.1974295638 0.0619320479
60299640.0 -0.1909182935 0.0618214507 0.5218014042 -0.0238746495 0.521945391 -0.0244686554 -0.1935780752 0.0631890408
65299610.0 -0.1872745738 0.0627579502 0.5252682981 -0.0303678384 0.5248610018 -0.0304783259 -0.1901202767 0.0647475614
70299580.0 -0.183935103 0.0630547184 0.5270175853 -0.0368242057 0.5273584428 -0.0370432424 -0.1872588292 0.0657644678
75299550.0 -0.1812180958 0.0637902504 0.5287976805 -0.0442970111 0.5292492873 -0.0441129753 -0.1839128546 0.0671921535
80299520.0 -0.1785670914 0.0642631047 0.5310178351 -0.0503873817 0.5313441297 -0.0506463648 -0.1815774766 0.0680777251
85299490.0 -0.1757240064 0.064772735 0.5321290724 -0.0577496151 0.5325689138 -0.0579827276 -0.1793286438 0.0686969382
90299460.0 -0.1734962311 0.0653857557 0.5329974989 -0.0643697876 0.5335384489 -0.0644454748 -0.1769769044 0.069966454
95299430.0 -0.1716711915 0.0658519656 0.534444346 -0.0714571254 0.5345857288 -0.0716898087 -0.1752222146 0.0708554639
100299400.0 -0.1694330643 0.0660901133 0.534555024 -0.0781089167 0.5348033212 -0.0787978504 -0.1732619189 0.0716451446
105299370.0 -0.1676303712 0.066385458 0.5345391994 -0.0847981356 0.5352917646 -0.0853036346 -0.170997367 0.0721118065
110299340.0 -0.1656906618 0.0667422381 0.5351725269 -0.0916619882 0.5355942711 -0.0922530409 -0.1698147383 0.0730692931
115299310.0 -0.1646512706 0.0672641989 0.5352222286 -0.0986969332 0.5351684368 -0.0988921538 -0.1682058817 0.0740549148
120299280.0 -0.1630715311 0.0681992085 0.5349178001 -0.1061382072 0.5348406824 -0.1061160042 -0.1667998167 0.074621687
125299250.0 -0.1618571137 0.0687918266 0.5346328494 -0.1127775638 0.5346745453 -0.1124599494 -0.1654746191 0.0760030297
130299220.0 -0.1608109215 0.0691280888 0.5340918407 -0.1193292904 0.533916827 -0.119950628 -0.1640916149 0.076873272
135299190.0 -0.1597666831 0.0701254704 0.5334216123 -0.1255876754 0.5337035955 -0.1259005385 -0.1629435332 0.0776638138
140299160.0 -0.158310116 0.0708196979 0.5328708389 -0.1326181108 0.5324343436 -0.1321400989 -0.1622240415 0.0782675476
145299130.0 -0.157990876 0.0714093498 0.5319374088 -0.1389282124 0.5317814886 -0.1392665795 -0.1610817364 0.079676957
150299100.0 -0.1569132858 0.0723347706 0.53053126 -0.1454848227 0.5304073855 -0.1460397477 -0.1598317344 0.0814787017
155299070.0 -0.1556402854 0.0733856002 0.529081075 -0.1522624376 0.5294269098 -0.1524749865 -0.158689393 0.0820203545
160299040.0 -0.1547394185 0.0747668563 0.5281436193 -0.1590481105 0.5279107684 -0.1589146671 -0.1578245965 0.0837346698
165299010.0 -0.154000474 0.0754661147 0.5265277977 -0.1648948106 0.526179151 -0.1651372569 -0.1566650614 0.0843967354
170298980.0 -0.1533292073 0.0761990643 0.5246195977 -0.171518109 0.5249699383 -0.1715189759 -0.1562666507 0.0856254118
175298950.0 -0.1521932839 0.0774345437 0.5237221042 -0.1774539024 0.5237635526 -0.1781354094 -0.1549837093 0.08732689
180298920.0 -0.1516631947 0.0783543343 0.5215736678 -0.1844838197 0.5218227181 -0.1842189212 -0.1542096104 0.0883200652
185298890.0 -0.1506636921 0.0796166432 0.5200228425 -0.190320415 0.5201224471 -0.1902796563 -0.1529848172 0.0894368221
190298860.0 -0.1498240338 0.0808828349 0.5176942929 -0.1967604347 0.518278015 -0.1966472498 -0.1522017911 0.0909535742
195298830.0 -0.1489414626 0.0820350421 0.515890796 -0.2026673176 0.5161325474 -0.2028721225 -0.1512077306 0.0921925023
200298800.0 -0.1480973665 0.0828380138 0.5140103035 -0.2093948089 0.5139979254 -0.2089533229 -0.1504029675 0.0934513854
205298770.0 -0.1482028603 0.0838878795 0.5116036898 -0.214624482 0.5121141717 -0.2145714742 -0.1492973006 0.0950348396
210298740.0 -0.1469475746 0.0856822067 0.5092718827 -0.2206706852 0.5092102602 -0.2207363446 -0.148640433 0.0960735685
215298710.0 -0.1461375702 0.0864351365 0.5070819961 -0.2262432261 0.5068329279 -0.227131916 -0.1472323295 0.0975172771
220298680.0 -0.1453911838 0.0879475709 0.504853423 -0.2328320211 0.50467218 -0.232768571 -0.1464149219 0.0987990654
225298650.0 -0.1447424493 0.0890377547 0.5020167221 -0.2381809177 0.5019592105 -0.2381823759 -0.1454315559 0.1001859909
230298620.0 -0.1437167067 0.0905018248 0.4998563143 -0.2443445213 0.49977672 -0.2443639599 -0.1447572032 0.1017093589
235298590.0 -0.1431381185 0.0918727776 0.497066916 -0.2507977061 0.4973376225 -0.2501216164 -0.1435634645 0.1032215246
240298560.0 -0.1421978538 0.0930530612 0.4942345375 -0.255787848 0.4946276436 -0.255684277 -0.1424916591 0.1044501953
245298530.0 -0.1415508531 0.0941196111 0.4917364699 -0.2617167918 0.4914228598 -0.2615008338 -0.1413656161 0.1058591076
250298500.0 -0.1409572615 0.0956599008 0.4887026003 -0.2671951532 0.4890233368 -0.2667666185 -0.1406555516 0.107565266
255298470.0 -0.1398484666 0.0971633354 0.4860300975 -0.2724755176 0.4861449204 -0.2730054113 -0.1394238267 0.1091843815
260298440.0 -0.1390098836 0.0980542368 0.483155924 -0.2772871694 0.4830766568 -0.2780981412 -0.1385112456 0.1103310634
265298410.0 -0.1387284697 0.0995809138 0.4798642161 -0.2842064539 0.4794646064 -0.2838799956 -0.1367380616 0.1116453748
270298380.0 -0.1378953704 0.1010015174 0.4771734447 -0.289276539 0.476940044 -0.2894293122 -0.1360075279 0.1135088751
275298350.0 -0.1367485917 0.1025500475 0.4731816269 -0.2944814517 0.4735926872 -0.2945991028 -0.1349727417 0.1150694273
280298320.0 -0.1360617891 0.1038057335 0.4706316207 -0.2992575385 0.4708860309 -0.2997028439 -0.1337930275 0.1164044918
285298290.0 -0.1352223409 0.1050142891 0.4668439008 -0.3053576499 0.4678615842 -0.3051175165 -0.1326618597 0.1180587514
290298260.0 -0.1341692693 0.1064455198 0.4642307842 -0.3105654136 0.464034 -0.3105781151 -0.1313998471 0.1194394429
295298230.0 -0.1335059063 0.1076689883 0.4602228855 -0.3162472473 0.461028789 -0.3161607957 -0.130136964 0.120442201
300298200.0 -0.1323665751 0.109010101 0.4573616477 -0.321134817 0.4573696536 -0.3212042406 -0.1286223874 0.1221780428
305298170.0 -0.1315359034 0.1099669372 0.4539185973 -0.3260850118 0.4540572326 -0.3265635769 -0.1273858844 0.1229323428
310298140.0 -0.130268049 0.1111187612 0.4501663012 -0.3313726767 0.4505134487 -0.3313953292 -0.1256542661 0.1244919989
315298110.0 -0.1295511431 0.1121911476 0.4465991219 -0.3368920688 0.4469054216 -0.3370306774 -0.1248883024 0.1257831461
320298080.0 -0.1286224536 0.1135090196 0.4422279728 -0.3423888461 0.4433891796 -0.3418183603 -0.1233823293 0.1270843336
325298050.0 -0.1281457683 0.1143942325 0.4390416026 -0.346697637 0.4394943611 -0.3470221635 -0.1221782602 0.1281992168
330298020.0 -0.1277253775 0.116011138 0.4352115101 -0.3520446749 0.4355001837 -0.3519152258 -0.1215885115 0.1295109733
335297990.0 -0.126537336 0.1171662537 0.4307491477 -0.3565702574 0.4315519361 -0.3569064296 -0.1198774978 0.1310730655
340297960.0 -0.1259566172 0.1185142986 0.4267031518 -0.3617073317 0.4265893878 -0.3616826294 -0.1186782518 0.1326162709
345297930.0 -0.1250074788 0.1198512965 0.4230761858 -0.3664776349 0.422696833 -0.3664825314 -0.1173329594 0.1337763122
350297900.0 -0.124195301 0.1209686467 0.418865379 -0.3701685931 0.4192232944 -0.370863907 -0.1162972373 0.1348496993
355297870.0 -0.1230847189 0.1224259742 0.4148396392 -0.3751558405 0.4148684236 -0.3754057792 -0.1148578929 0.1369071442
360297840.0 -0.1220704402 0.1239236972 0.4104322638 -0.3800152666 0.4107447216 -0.3801596512 -0.113673326 0.1379774133
365297810.0 -0.1212195689 0.1253936588 0.4062337682 -0.3844691451 0.4065066627 -0.3843677881 -0.1123346671 0.1392621536
370297780.0 -0.1200777056 0.1261608692 0.4017396325 -0.3890546488 0.402105908 -0.3888736826 -0.1106709556 0.1408551642
375297750.0 -0.118831755 0.1276986998 0.3977541241 -0.3931412798 0.3978962907 -0.3932219416 -0.1090267568 0.1422629451
380297720.0 -0.1180928528 0.1291834101 0.3937539172 -0.3978177195 0.3932665617 -0.3978447089 -0.1075651084 0.1435630098
385297690.0 -0.117115431 0.1303792781 0.3891095506 -0.4021117568 0.3891361963 -0.4021436842 -0.105692179 0.1450148428
390297660.0 -0.1155617037 0.1316328276 0.3845259539 -0.405997433 0.3849153995 -0.4063428349 -0.104102221 0.1459678976
395297630.0 -0.1143171719 0.1326096607 0.3801338787 -0.4102542929 0.3799983584 -0.4099452724 -0.1027524898 0.1468757719
400297600.0 -0.1134609684 0.1341087566 0.3757838929 -0.4145579606 0.3759554423 -0.414522075 -0.1011109688 0.1487376844
405297570.0 -0.1121863359 0.1345162337 0.3713932268 -0.4181396949 0.3714372306 -0.4187329732 -0.0995196074 0.150046232
410297540.0 -0.1111152968 0.136335583 0.366589327 -0.4227737148 0.3669126602 -0.4226006949 -0.0979670512 0.1514178548
415297510.0 -0.1101143499 0.1371964619 0.3618423828 -0.4267445788 0.3620799372 -0.4269096472 -0.0959435974 0.152472099
420297480.0 -0.1084972233 0.1383483157 0.3568204589 -0.4308736115 0.3575496346 -0.4309564318 -0.0941551691 0.1541986893
425297450.0 -0.1068973307 0.1394550398 0.3528321496 -0.4345007832 0.3525066473 -0.4344553014 -0.0928964011 0.1546102744
430297420.0 -0.1062169664 0.14069485 0.348095663 -0.4384718721 0.3482761699 -0.4380562608 -0.0908603463 0.1560390739
435297390.0 -0.1047476868 0.1416010521 0.3427063226 -0.4426961563 0.3430053429 -0.4420701141 -0.0897988825 0.1576190714
440297360.0 -0.1033128994 0.1426145056 0.3377255357 -0.4459451854 0.3377311181 -0.4460336797 -0.0876183658 0.1586762879
445297330.0 -0.1017855286 0.1434572439 0.3334250554 -0.4493563517 0.3332621889 -0.4500188042 -0.085772144 0.160043994
450297300.0 -0.1006654207 0.1448329544 0.3283077993 -0.4530500636 0.3286242343 -0.4530401026 -0.0842550274 0.1608012374
455297270.0 -0.099535883 0.1458471151 0.3234642437 -0.456910705 0.323712437 -0.4566774091 -0.0822064374 0.1616076306
460297240.0 -0.0977003111 0.1469910037 0.3186067514 -0.461054519 0.3183268815 -0.4605778971 -0.0806658137 0.1628995334
465297210.0 -0.0965243002 0.1480976756 0.3132042658 -0.4636749285 0.3129373987 -0.4640417662 -0.0786702879 0.1644690746
470297180.0 -0.0950444681 0.1489493788 0.3079792091 -0.4665732034 0.3087814692 -0.4669599908 -0.0768167936 0.1647978866
475297150.0 -0.0938503059 0.1500678146 0.3031799934 -0.4702108193 0.3030295837 -0.4705094173 -0.0748948366 0.1657036249
480297120.0 -0.0918096169 0.1513102908 0.2975958532 -0.4735162173 0.2978858891 -0.4735015624 -0.073373535 0.1667637171
485297090.0 -0.0905703201 0.1516086121 0.2924752943 -0.4768559716 0.2923537856 -0.4768437263 -0.0715513122 0.1680474878
490297060.0 -0.0886592722 0.1529908086 0.2866978096 -0.4802445572 0.2875287689 -0.4802739336 -0.0695455692 0.1685162637
495297030.0 -0.0876927494 0.1536193796 0.2825963673 -0.4833258795 0.282002175 -0.4836061675 -0.0675696729 0.1694019371
500297000.0 -0.0860397346 0.1549218507 0.2768347764 -0.4863495393 0.2769035116 -0.4866639841 -0.0653552106 0.1707969297
505296970.0 -0.0840533905 0.1559829071 0.2719231621 -0.4889762931 0.2716535459 -0.4891777701 -0.0634792931 0.1710081079
510296940.0 -0.0827278461 0.1567635773 0.2664251423 -0.492666947 0.2664309576 -0.4926098026 -0.061374348 0.1723197991
515296910.0 -0.0810841598 0.1578539733 0.2605219726 -0.4953079072 0.260768368 -0.4949906397 -0.0595687627 0.172583374
520296880.0 -0.0794295702 0.158689663 0.255400227 -0.4975323476 0.2551760649 -0.4979126583 -0.057215874 0.1741878825
525296850.0 -0.0779813185 0.159499806 0.2499895105 -0.5003983942 0.2498115864 -0.5005673759 -0.0554967574 0.1746022502
530296820.0 -0.0767276212 0.1603422932 0.2441265316 -0.503352099 0.2442760414 -0.502931248 -0.0537977593 0.1748607571
535296790.0 -0.0741609906 0.1613171514 0.2388178586 -0.5055216382 0.2390286841 -0.5059925655 -0.0515727962 0.1763010763
540296760.0 -0.0728918509 0.1623194352 0.2330835105 -0.5085114941 0.2332484967 -0.508268432 -0.049606089 0.1762432417
545296730.0 -0.0721436824 0.1633240401 0.2280876513 -0.5107122212 0.2274573844 -0.51053242 -0.0474242597 0.177337081
550296700.0 -0.0693727969 0.1641920111 0.2220289872 -0.5132757881 0.2221226131 -0.513539339 -0.0454339108 0.1778450471
555296670.0 -0.0681652054 0.1649325869 0.2167778995 -0.5162031759 0.2163727469 -0.5155748323 -0.0438467864 0.1782006242
560296640.0 -0.0659536415 0.1654175387 0.2108273638 -0.5183821295 0.21103197 -0.5178897737 -0.0416497975 0.1791108818
565296610.0 -0.064775663 0.1664819603 0.2057852483 -0.5201177035 0.2054675035 -0.5200017875 -0.039176518 0.1801868545
570296580.0 -0.0628953957 0.1674293021 0.1994739695 -0.5220853846 0.1997188153 -0.5224851758 -0.0377361529 0.1802199037
575296550.0 -0.0612232238 0.1681575306 0.1943176456 -0.5245819381 0.193701154 -0.5242702475 -0.0354842769 0.1806108281
580296520.0 -0.0598611749 0.1692194705 0.1883985588 -0.5266912259 0.1880184969 -0.5265664129 -0.0338367198 0.1813143549
585296490.0 -0.0575638275 0.1697099384 0.182891451 -0.5281402491 0.1819362437 -0.5287270381 -0.0312027818 0.182180055
590296460.0 -0.0553528537 0.1707252472 0.1766510473 -0.5303794637 0.1767103172 -0.5305563556 -0.0297035503 0.1827728652
595296430.0 -0.0540181591 0.1713244266 0.1708356249 -0.5320922136 0.1705303293 -0.5321796271 -0.0273441653 0.182651462
600296400.0 -0.0522941642 0.1721935793 0.1648215451 -0.5337095012 0.1649629121 -0.5341548089 -0.0252905374 0.183247072
605296370.0 -0.0509086352 0.172860723 0.1596905818 -0.5354881698 0.1592777014 -0.5358835974 -0.0233442012 0.1836887216
610296340.0 -0.048592565 0.1737921809 0.1534127523 -0.5370291632 0.1538591734 -0.5370511803 -0.0214656834 0.1840037743
615296310.0 -0.046735933 0.1742370155 0.1477730419 -0.5392170186 0.1473523211 -0.5390293593 -0.0189742541 0.1845690556
620296280.0 -0.0454834307 0.1752726116 0.1416249196 -0.5406927565 0.1414021791 -0.5406099408 -0.0174319978 0.1851840548
625296250.0 -0.0438590094 0.1755830228 0.1359827878 -0.5420339154 0.1360355702 -0.5424054746 -0.0152749741 0.1851155451
630296220.0 -0.0418377267 0.1764287123 0.1298063276 -0.5434263887 0.1297169315 -0.5433683143 -0.0128568346 0.1856530622
635296190.0 -0.0402035092 0.1774032445 0.1242672428 -0.544440349 0.1239716529 -0.5441483246 -0.0109926027 0.185506651
640296160.0 -0.0384695636 0.1778637215 0.1182072484 -0.5463151523 0.1181407424 -0.546303619 -0.0092285968 0.1857855254
645296130.0 -0.0363245134 0.1788223612 0.1122469753 -0.5473494946 0.1120823325 -0.5467846882 -0.006903488 0.1858464829
650296100.0 -0.0345337633 0.1790079552 0.1061675969 -0.5484241744 0.1061423948 -0.5484939711 -0.0045185444 0.1862439842
655296070.0 -0.0329934084 0.1794982223 0.1003476772 -0.5492650964 0.1004103308 -0.549293382 -0.0030184193 0.1866413044
660296040.0 -0.0310551144 0.1805374234 0.0943843862 -0.5507784129 0.0944275303 -0.5507509173 -0.0005508578 0.1863820168
665296010.0 -0.0294492074 0.1809492695 0.0879437408 -0.5512852799 0.0879848634 -0.5511968639 0.0013613044 0.1867350495
670295980.0 -0.0276819405 0.1813318244 0.082337167 -0.5521804473 0.0825331814 -0.5516918948 0.0032061406 0.1867574647
675295950.0 -0.0258216904 0.1819089267 0.0762644179 -0.5531245689 0.0768195937 -0.5531820972 0.0053921532 0.1870011391
680295920.0 -0.0244865626 0.1824053456 0.0708803691 -0.5537225626 0.0706132113 -0.5536363409 0.0078064884 0.1866372614
685295890.0 -0.0222434478 0.1831683261 0.0642537253 -0.5551939139 0.0642786379 -0.5544675088 0.0096401402 0.1874185372
690295860.0 -0.0208551449 0.1836947432 0.058577475 -0.555593882 0.0580528898 -0.5553506122 0.0115150857 0.1870337035
695295830.0 -0.018658866 0.1837769838 0.0526999438 -0.5557514189 0.0527563366 -0.5553278126 0.0134774789 0.1874538414
700295800.0 -0.0170794319 0.1847894376 0.0469299116 -0.5560097597 0.0466814852 -0.5564302889 0.0157455685 0.187138077
705295770.0 -0.0155024517 0.1849485777 0.0404953251 -0.5569906299 0.0404542072 -0.5563160335 0.0180435577 0.1874099828
710295740.0 -0.0137050973 0.1852446353 0.0348038366 -0.5568740126 0.0342693887 -0.5571309455 0.0201305959 0.1873410888
715295710.0 -0.0116095171 0.1860749201 0.0287154451 -0.5574452981 0.0285502383 -0.5574317984 0.022084254 0.1872106852
720295680.0 -0.0097516503 0.1861937736 0.0225552322 -0.5578879956 0.022428647 -0.5580029032 0.0242107343 0.1870344016
725295650.0 -0.0083216851 0.1868935568 0.0171889179 -0.5578584025 0.0167010226 -0.5579007904 0.0259127101 0.1873719943
730295620.0 -0.0071364977 0.1868634261 0.0106354771 -0.557664917 0.0107660327 -0.5574492375 0.0279288274 0.1873629396
735295590.0 -0.0049959716 0.1872698249 0.0048990032 -0.5581211094 0.0045540322 -0.5576953116 0.0301597559 0.1866167712
740295560.0 -0.0033778385 0.1872067084 -0.0012955761 -0.55815926 -0.0011801342 -0.5578527679 0.0319641759 0.186587706
745295530.0 -0.0018348088 0.1877554414 -0.0071866676 -0.5572832178 -0.0066864591 -0.5578026677 0.0337126179 0.1864373374
750295500.0 -0.0001297941 0.1882511899 -0.0125968618 -0.5578978171 -0.0133478318 -0.5578266774 0.0356943721 0.1860921371
755295470.0 0.0015863561 0.1879742666 -0.0188365696 -0.557618319 -0.0193227591 -0.5581490283 0.0385120282 0.1864662744
760295440.0 0.0034866028 0.1887937516 -0.0254798339 -0.5575947719 -0.0253889069 -0.5568548801 0.040199644 0.1854577424
765295410.0 0.0056513876 0.1884460966 -0.0313117846 -0.5570865301 -0.0310774833 -0.5568824248 0.0423359018 0.1853199113
770295380.0 0.0070809734 0.1890995316 -0.0367758747 -0.5564125523 -0.0371999575 -0.5568338256 0.0440693098 0.1851076282
775295350.0 0.0088804074 0.1891320153 -0.0430023466 -0.5559864913 -0.0428863211 -0.5557411091 0.046605626 0.1849477015
780295320.0 0.0105220689 0.1894850794 -0.0489894478 -0.5551135358 -0.0488769196 -0.5554195688 0.0484299839 0.1843985858
785295290.0 0.0121343225 0.1892766983 -0.0549498957 -0.5549513516 -0.0546968801 -0.5550893209 0.0502412382 0.1843903427
790295260.0 0.013856366 0.189120075 -0.0604909874 -0.5540221936 -0.060649136 -0.5546637332 0.0521047212 0.1840169373
795295230.0 0.0153495238 0.18927723 -0.0666946928 -0.5542004366 -0.0670916964 -0.5538405955 0.0542569395 0.1832092282
800295200.0 0.0170652452 0.1896879606 -0.0720430883 -0.5526814846 -0.072933792 -0.5530655988 0.0559629802 0.1828963271
805295170.0 0.0188684816 0.1895236609 -0.0786559071 -0.5518613127 -0.0785245269 -0.5523094198 0.0587770989 0.1824687837
810295140.0 0.0208734576 0.1897651296 -0.0843462371 -0.5510172655 -0.0849276741 -0.551221013 0.0606067852 0.1820473327
815295110.0 0.0223824745 0.1896727329 -0.0901401037 -0.5502961688 -0.0901478901 -0.5505390433 0.0622940409 0.1815537825
820295080.0 0.0240713704 0.1897810964 -0.0957126241 -0.5487302182 -0.095970118 -0.54963051 0.0639269711 0.1813850391
825295050.0 0.0256642868 0.189346516 -0.1021610982 -0.5481826594 -0.1021393439 -0.548319117 0.06680478 0.1806890563
830295020.0 0.0275319604 0.1894617398 -0.1078371953 -0.5468806745 -0.1074918752 -0.5470183369 0.0681817234 0.1794476773
