!Created with skrf (http://scikit-rf.org).
# Hz S RI R 50.0 
!freq ReS11 ImS11 ReS21 ImS21 ReS12 ImS12 ReS22 ImS22
300000.0 -0.2362139664 -0.1180057366 0.4675220676 0.0782732671 0.4658074092 0.0802175274 -0.2360170818 -0.1257060505
5299970.0 -0.2446880373 0.0054805308 0.4740020209 0.0058050082 0.4742105043 0.005992144 -0.2438259495 0.0052444381
10299940.0 -0.2419707496 0.0186926439 0.476188202 0.0070007371 0.4758520814 0.0074002434 -0.2402269946 0.0179537163
15299910.0 -0.2369102582 0.0286078896 0.479578489 0.008041484 0.4798136378 0.0084379315 -0.2360967013 0.0273510903
20299880.0 -0.2316446078 0.036239385 0.4841312621 0.0085538352 0.4846298278 0.008780197 -0.231324265 0.0356402664
25299850.0 -0.2255380436 0.0428193874 0.4893970451 0.0081393408 0.4900314178 0.0079132654 -0.2259960509 0.0416040914
30299820.0 -0.2202176158 0.0477741633 0.4951074936 0.005576561 0.4953144548 0.0052016365 -0.2208385691 0.046982951
35299790.0 -0.2142470421 0.0516995668 0.4997569276 0.0023546719 0.5003583157 0.002489115 -0.2156300915 0.0514206688
40299760.0 -0.209212486 0.0545261015 0.5056105302 -0.001492658 0.5059330075 -0.0017834484 -0.2108173069 0.0545647862
45299730.0 -0.2040378516 0.0572090587 0.5103355568 -0.0060261158 0.5105421577 -0.0063262872 -0.2055502632 0.0577728644
50299700.0 -0.1988845926 0.0590826179 0.5146531806 -0.0119072458 0.5146779926 -0.0121303733 -0.2012534995 0.0600257722
55299670.0 -0.1949105524 0.0605527974 0.5182211815 -0.0177987791 0.5182552575 -0.0177423037 -0.1976173774 0.06178399
60299640.0 -0.1907702678 0.0620100113 0.5218166216 -0.0238547951 0.5219574181 -0.0240263432 -0.1936509711 0.0634559645
65299610.0 -0.187313265 0.0623828944 0.5250776704 -0.0304427431 0.5247680221 -0.0303536118 -0.1900283184 0.0647455628
70299580.0 -0.184250279 0.0630825784 0.5270299779 -0.0362611539 0.5270536494 -0.0372161231 -0.187228492 0.0659755798
75299550.0 -0.1811830929 0.0636046603 0.5286714456 -0.0437070545 0.529423659 -0.0438867255 -0.184170648 0.067036278
80299520.0 -0.1784804293 0.0645669433 0.5312965896 -0.0506888455 0.5311557628 -0.0507219254 -0.1815319628 0.0680492864
85299490.0 -0.1756216458 0.0648217034 0.5324605392 -0.0576384379 0.5325668815 -0.0572927343 -0.1793232384 0.0686482843
90299460.0 -0.1734911933 0.0656482232 0.5333088474 -0.0648506656 0.533059822 -0.0643495932 -0.1768818071 0.0699070464
95299430.0 -0.1712382101 0.0656876887 0.5343131117 -0.0716140131 0.5346080362 -0.0716771819 -0.1749714792 0.0706728859
100299400.0 -0.1692510909 0.0659823418 0.5348742495 -0.0785577823 0.5347625731 -0.0784537522 -0.1730221529 0.0718486696
105299370.0 -0.1674824095 0.0667423988 0.5347505514 -0.0852754117 0.5354651823 -0.0853222432 -0.1712764517 0.0722451588
110299340.0 -0.1658202987 0.0669628498 0.5353442666 -0.0915875682 0.5352587999 -0.0919200728 -0.1696897762 0.0729710174
115299310.0 -0.1645370987 0.0676678695 0.534801492 -0.0987068637 0.5351053127 -0.0988441676 -0.1681915805 0.0741695107
120299280.0 -0.1635185236 0.0681798424 0.5355233833 -0.1061050973 0.5349045259 -0.1060194187 -0.1667149509 0.074835674
125299250.0 -0.1618454886 0.0685762179 0.5347496509 -0.1123162545 0.5348032984 -0.1122916524 -0.1655493965 0.0760944035
130299220.0 -0.1608353516 0.0692416567 0.5341682264 -0.1194392461 0.5339450284 -0.1198063672 -0.1642388898 0.0771536946
135299190.0 -0.1596960733 0.0700957612 0.5336260901 -0.1255675876 0.5338808381 -0.1260812594 -0.1626191118 0.0777906102
140299160.0 -0.1584466425 0.0708162941 0.5327986893 -0.1331294833 0.5325244679 -0.1322661622 -0.1622699378 0.0788728697
145299130.0 -0.1579480388 0.0717645712 0.5317886549 -0.1389812224 0.531905379 -0.1391932961 -0.1611019528 0.0797612777
150299100.0 -0.156687294 0.0723519426 0.530657862 -0.1453954762 0.530103853 -0.1459134714 -0.1595743182 0.0812743913
155299070.0 -0.155440017 0.0734944234 0.5290727032 -0.1521983804 0.5295015404 -0.1522662885 -0.158900387 0.0821230094
160299040.0 -0.1548466952 0.0746825185 0.5283209074 -0.1587777263 0.5277799364 -0.1587852003 -0.1580315508 0.0835880811
165299010.0 -0.153900063 0.0750219265 0.526787143 -0.1649518452 0.5262646002 -0.165464204 -0.1568007712 0.0844909262
170298980.0 -0.1532426925 0.0760866996 0.5248309716 -0.1717817858 0.5250916088 -0.1714169229 -0.1560644877 0.0855705799
175298950.0 -0.1521435193 0.0770678994 0.5235902407 -0.1775926457 0.5236303217 -0.1779688088 -0.1549846365 0.0872914683
180298920.0 -0.1515112033 0.0784808963 0.5214571989 -0.1842073285 0.5216921204 -0.1842290947 -0.1539617288 0.0883276609
185298890.0 -0.1507712387 0.0793482311 0.5201677228 -0.190211108 0.5198884502 -0.1904047834 -0.1529455081 0.0895696617
190298860.0 -0.1496885666 0.0809033621 0.5176220093 -0.1966499178 0.5180223555 -0.1963487351 -0.1520412275 0.0909900948
195298830.0 -0.1492024055 0.081893895 0.5162891416 -0.2024496746 0.5160602641 -0.2025146037 -0.151287545 0.0924715023
200298800.0 -0.148108189 0.0825922133 0.5136997138 -0.2090447124 0.5141237348 -0.2092648321 -0.1499986132 0.0936839107
205298770.0 -0.1479629103 0.0841639068 0.5116724749 -0.2148336357 0.5121930063 -0.2144985608 -0.1493389659 0.0953013816
210298740.0 -0.1468057439 0.085437289 0.5094464958 -0.2211035641 0.5095506783 -0.2209027068 -0.1486414229 0.0960646608
215298710.0 -0.1462651168 0.08646267 0.5067452119 -0.2265723352 0.5069737673 -0.2271003114 -0.1473817837 0.0978804684
220298680.0 -0.14502347 0.0880040602 0.5044889429 -0.2326377517 0.5045999198 -0.2325666628 -0.1465152471 0.0988582517
225298650.0 -0.1445854681 0.0890771728 0.5018400076 -0.2382105221 0.5020784747 -0.2379465468 -0.1455186929 0.1003559486
230298620.0 -0.1434501251 0.0906231071 0.4997887525 -0.2443613559 0.500017255 -0.2446390798 -0.1447275763 0.101678105
235298590.0 -0.1432414107 0.091768419 0.4972611011 -0.2505454929 0.4973310543 -0.2503249468 -0.1434278658 0.1033832582
240298560.0 -0.1422902691 0.0933408544 0.4942177823 -0.25576073 0.4943526316 -0.2556120063 -0.1426754334 0.1042657286
245298530.0 -0.1416130624 0.0942192299 0.4915905865 -0.2616468368 0.4916381311 -0.2618101661 -0.1415889853 0.1060195256
250298500.0 -0.1407394448 0.0954274572 0.4891463858 -0.2671812736 0.4887612259 -0.2671293198 -0.1405527542 0.1077264261
255298470.0 -0.1399357436 0.0972475714 0.4859786023 -0.2724076716 0.4865794888 -0.2727784902 -0.139466441 0.1092924749
260298440.0 -0.1391910997 0.0981069646 0.4829135444 -0.2777229781 0.4833402797 -0.2778717011 -0.1385792377 0.1102044532
265298410.0 -0.1385239515 0.0996679646 0.4796104507 -0.2837868462 0.4797179844 -0.2840147409 -0.1367025563 0.1117286783
270298380.0 -0.1378969718 0.1006465604 0.4767160339 -0.2887485432 0.4770926651 -0.2890118728 -0.1358666278 0.1137271435
275298350.0 -0.1366170705 0.1026830577 0.4733699104 -0.2942849525 0.4736774971 -0.2943600312 -0.1349017099 0.1151035351
280298320.0 -0.1361738333 0.1037256335 0.4706928779 -0.299707085 0.4705168058 -0.3000101894 -0.1333843846 0.116309543
285298290.0 -0.1350890545 0.1050691798 0.4670551461 -0.3050780181 0.4675372454 -0.3049690617 -0.1327198631 0.1179810734
290298260.0 -0.1341628407 0.1063110861 0.4640126056 -0.3104953682 0.4643979902 -0.3105167832 -0.1311721446 0.1192627463
295298230.0 -0.1333551395 0.1075444888 0.4607355315 -0.3156988109 0.4606498624 -0.3160060261 -0.1298966713 0.1205070576
300298200.0 -0.1325820899 0.1091396607 0.4574655153 -0.3212288391 0.4575024286 -0.3208520391 -0.1287944149 0.1217811169
305298170.0 -0.1315519525 0.1098394845 0.4541963038 -0.3262842335 0.4542507539 -0.3262060753 -0.1272783229 0.1231122276
310298140.0 -0.1303752624 0.1112551115 0.4504002117 -0.3312482378 0.4509473189 -0.3312129551 -0.1260027521 0.1246490143
315298110.0 -0.1296492446 0.1121628508 0.4472589881 -0.3367064063 0.4468666054 -0.3369207662 -0.1247068541 0.1258883224
320298080.0 -0.1288418525 0.1137070374 0.4425864648 -0.3418468983 0.443366509 -0.3420964157 -0.1236454441 0.1270996877
325298050.0 -0.1283378853 0.1144838212 0.4391795883 -0.3467376377 0.4397136908 -0.3468012126 -0.1223024289 0.128550866
330298020.0 -0.1276328506 0.1161267404 0.4349557556 -0.3517227496 0.435687591 -0.3520506547 -0.1214728314 0.1296993426
335297990.0 -0.126458588 0.1172798085 0.4313811785 -0.3565912248 0.4314775155 -0.3567498001 -0.1199671576 0.1309384906
340297960.0 -0.1259358637 0.1184220899 0.426849128 -0.3612708097 0.426775302 -0.3617564421 -0.1185359962 0.1329547829
345297930.0 -0.1249631119 0.1197032727 0.4230907094 -0.3660924852 0.4229414489 -0.3664752803 -0.1172828351 0.1337129141
350297900.0 -0.1241782104 0.1211321136 0.4192347185 -0.3703970467 0.4192880371 -0.3708489368 -0.1160420563 0.1352268964
355297870.0 -0.1231535049 0.1224246209 0.4150625007 -0.3750105522 0.4149970682 -0.3748468194 -0.1145481152 0.1364194837
360297840.0 -0.1220056695 0.1238962323 0.410298141 -0.3799482099 0.4104881303 -0.3801986828 -0.1133483442 0.1378216543
365297810.0 -0.1211590324 0.1251961039 0.4060958336 -0.3842060752 0.4061263329 -0.3845628383 -0.1121553601 0.1392897259
370297780.0 -0.1200086486 0.1265962027 0.4016528811 -0.3889977664 0.4023651894 -0.3890458324 -0.1106022332 0.1407414224
375297750.0 -0.1190482072 0.127547287 0.3981209442 -0.3933317087 0.3980766575 -0.3934252087 -0.1089303561 0.1420936184
380297720.0 -0.1179312385 0.1291111336 0.393429092 -0.3977633447 0.3937167128 -0.3977734793 -0.1076922327 0.1436799551
385297690.0 -0.1170482118 0.1302761568 0.3888299779 -0.4020278528 0.3890843963 -0.4023844732 -0.1061048322 0.1450343108
390297660.0 -0.1157620818 0.1314176668 0.3849002795 -0.4057303856 0.3847522091 -0.4060710384 -0.1040258178 0.1460939334
395297630.0 -0.1142284516 0.1325990356 0.3806488233 -0.4099770707 0.3799676564 -0.4100236491 -0.1027407573 0.1471690296
400297600.0 -0.1135303958 0.1336528543 0.3760423696 -0.4144799506 0.3762507505 -0.4148839731 -0.100842961 0.1490922706
405297570.0 -0.1123564446 0.1346509255 0.3711458055 -0.4182195454 0.3715722539 -0.4188527887 -0.099326322 0.1502895913
410297540.0 -0.1108983105 0.1363914339 0.3666621714 -0.4231246248 0.3671039435 -0.4227932082 -0.0979491555 0.1516149258
415297510.0 -0.1098432135 0.137638708 0.3617720568 -0.4267097723 0.3625190059 -0.4269473852 -0.096033988 0.1524302488
420297480.0 -0.1087357267 0.1381947538 0.357441598 -0.4307311195 0.3577022913 -0.4311634113 -0.0942239993 0.1542822412
425297450.0 -0.1070418748 0.1396089371 0.3529707557 -0.4345206967 0.3523865107 -0.4344464135 -0.0928452902 0.1546238322
430297420.0 -0.1062790181 0.1405563617 0.3485676665 -0.4384065169 0.3481995872 -0.438139256 -0.0910803489 0.1560143874
435297390.0 -0.1050049736 0.1418228566 0.3430514061 -0.4427076175 0.3431774326 -0.4421589448 -0.0899391182 0.1575891671
440297360.0 -0.1031437977 0.1425966841 0.3378448835 -0.4457219082 0.3382925832 -0.4456925259 -0.0877679573 0.1584962077
445297330.0 -0.101879007 0.1434742703 0.3334813329 -0.4491220108 0.3333089091 -0.4497529185 -0.0858068857 0.159887195
450297300.0 -0.1005666119 0.1447913283 0.3283616169 -0.4529064871 0.3286470771 -0.4530777798 -0.0841942544 0.1607411528
455297270.0 -0.0995346765 0.1457317894 0.3234062666 -0.4567221083 0.3238531448 -0.4569009343 -0.0823770607 0.1619546701
460297240.0 -0.0977040428 0.1469349374 0.3185178393 -0.4606498201 0.3185235425 -0.460136473 -0.0805056584 0.1627332189
465297210.0 -0.0964103502 0.1477452903 0.3128527973 -0.4638428143 0.313064383 -0.4639439055 -0.0785198964 0.1645167065
470297180.0 -0.0949952877 0.1488150261 0.3081125797 -0.4666513918 0.3086051771 -0.4671979675 -0.0766521746 0.1648918611
475297150.0 -0.0938949744 0.1502070344 0.3030716868 -0.4703702591 0.30335387 -0.4706749235 -0.0750621864 0.1661888468
480297120.0 -0.0920175314 0.1516673292 0.2980413715 -0.4740477425 0.2978959715 -0.4735999886 -0.0731354226 0.1670491693
485297090.0 -0.0905081944 0.1516701937 0.2926457865 -0.4769307444 0.2927133211 -0.4770690953 -0.0715525902 0.1680908679
490297060.0 -0.0884723926 0.1531813774 0.2867509358 -0.480485353 0.2875861037 -0.480248375 -0.0697145429 0.1687256284
495297030.0 -0.0876217274 0.1536356245 0.2825898262 -0.4835144118 0.2823453092 -0.4833352623 -0.0673551622 0.1697005459
500297000.0 -0.0860700865 0.1549425134 0.2771808858 -0.4861369499 0.2769880196 -0.4862649201 -0.0656234106 0.1707587728
505296970.0 -0.0842595997 0.1559488381 0.2717779423 -0.4893812847 0.2716244878 -0.4889747243 -0.0634008879 0.1711839005
510296940.0 -0.0827292427 0.1567572435 0.2662772999 -0.4927769835 0.2668776734 -0.4928182917 -0.0616631238 0.1726716124
515296910.0 -0.0813094407 0.1577727377 0.2606672454 -0.4949996753 0.2606541365 -0.494992374 -0.0597156111 0.1726991677
520296880.0 -0.0797724702 0.1586226983 0.2553559708 -0.4975919948 0.255132647 -0.4975806998 -0.0573349863 0.1740848088
525296850.0 -0.0781395583 0.1594202622 0.2501015312 -0.5004547214 0.2495963972 -0.5005090632 -0.055625631 0.1747751067
530296820.0 -0.0766133743 0.1603238598 0.2445904456 -0.503229859 0.2445899077 -0.5029942953 -0.0537134693 0.1752423959
535296790.0 -0.0741877707 0.1611611752 0.2386160266 -0.5055161469 0.2389749661 -0.5057710096 -0.0514109834 0.1764662775
540296760.0 -0.0728438101 0.1624193656 0.2330475186 -0.5084571006 0.2330467545 -0.5082168033 -0.0496336542 0.1764300966
545296730.0 -0.0717251724 0.1634766441 0.2277697472 -0.5108522471 0.2276491537 -0.5106623646 -0.0477197979 0.1773769781
550296700.0 -0.0694294506 0.1640714754 0.2220156063 -0.5132272401 0.2220047253 -0.5135593661 -0.0454990498 0.1780144386
555296670.0 -0.0682511202 0.1647465107 0.2169105423 -0.5159016717 0.216500529 -0.5156138388 -0.0439001275 0.1782769581
560296640.0 -0.0659219419 0.1654682011 0.2108889018 -0.5176567416 0.211224856 -0.5179721981 -0.0414173565 0.1793405694
565296610.0 -0.0650441177 0.1665370262 0.2058265547 -0.5200022037 0.2056330241 -0.5196703958 -0.0394674273 0.1800794003
570296580.0 -0.062812571 0.1674015834 0.1994022837 -0.5220694027 0.1994889684 -0.5221199474 -0.0376740924 0.1800279308
575296550.0 -0.0611936164 0.168052446 0.1939320939 -0.5247372525 0.1941131928 -0.5243692622 -0.0355055779 0.1808062835
580296520.0 -0.0593136734 0.1690735486 0.1884771699 -0.5259930352 0.1877534729 -0.5266857687 -0.0334025525 0.1814172726
585296490.0 -0.0578330088 0.1699491797 0.182931163 -0.5284668118 0.1824301275 -0.5284518285 -0.0309422433 0.1820146513
590296460.0 -0.0556580753 0.1705110443 0.1769517016 -0.5304022167 0.1770503842 -0.5304764204 -0.0296932759 0.182463602
595296430.0 -0.0539801746 0.1713384079 0.1706580067 -0.5322548524 0.1707884889 -0.5320698656 -0.0273724775 0.1827981702
600296400.0 -0.0522884561 0.1719844861 0.1647217336 -0.5341179478 0.1650255908 -0.533832429 -0.0252649051 0.1833704679
605296370.0 -0.0506600823 0.172594684 0.1596737874 -0.5353300247 0.1591330952 -0.5359255417 -0.0231685375 0.1836467241
610296340.0 -0.0486389353 0.1737432795 0.1533796627 -0.5370383691 0.1543472865 -0.5374546641 -0.0215545455 0.1843480786
615296310.0 -0.0466329053 0.174334216 0.147907029 -0.5390337337 0.1476609549 -0.5390714686 -0.0191078274 0.1846870425
620296280.0 -0.0453380568 0.175236072 0.1415665783 -0.5402734346 0.1416806154 -0.5406607579 -0.0170790603 0.1852250741
625296250.0 -0.0436161136 0.1755754768 0.1361636799 -0.5417522337 0.1361451199 -0.5422501109 -0.0155601941 0.1853457768
630296220.0 -0.0417607573 0.1766414836 0.1297614685 -0.5438225703 0.129813946 -0.543259326 -0.0129044287 0.1855229966
635296190.0 -0.0404460833 0.1772227245 0.1244875688 -0.5445003228 0.1243522856 -0.5445779904 -0.0111718017 0.185926901
640296160.0 -0.0382676422 0.1776275326 0.1182871704 -0.5461213312 0.1179909926 -0.5460965792 -0.0092660234 0.1862416682
645296130.0 -0.0363773281 0.1787356802 0.1126945325 -0.5470083047 0.1121855824 -0.5468904877 -0.0071753783 0.1858462732
650296100.0 -0.0349241474 0.1790454084 0.1065522867 -0.5485625927 0.1058677256 -0.548510583 -0.0043834483 0.186368108
655296070.0 -0.0330349593 0.179633055 0.1000625409 -0.5498164293 0.1001603317 -0.549081847 -0.0028199699 0.1868752398
660296040.0 -0.0312347707 0.1800474719 0.0946639882 -0.5507197547 0.0946034128 -0.5506185467 -0.0007914305 0.1863784608
665296010.0 -0.0295507898 0.1807494563 0.0882061441 -0.5509885269 0.088572776 -0.5511454311 0.0014066275 0.1866504286
670295980.0 -0.0277272934 0.1814461331 0.0825688211 -0.5521578991 0.0821098965 -0.5518029951 0.0031498177 0.1867756996
675295950.0 -0.0257851837 0.1818874798 0.0766762821 -0.5527722873 0.0765121176 -0.5529113829 0.0052498931 0.187229643
680295920.0 -0.0242628019 0.182631673 0.0708467201 -0.5536164724 0.0705298223 -0.5536485045 0.0077239494 0.1868961038
685295890.0 -0.0220986137 0.1831738036 0.0644733718 -0.5547948513 0.0646269491 -0.5544924812 0.0097221119 0.1872614587
690295860.0 -0.0206512367 0.1836984957 0.0588281799 -0.5552035101 0.058476559 -0.5552009965 0.0114664381 0.1874179179
695295830.0 -0.0188237333 0.1841387835 0.0531890812 -0.5558517713 0.0525482256 -0.555259684 0.0135492667 0.1873611405
700295800.0 -0.0170186721 0.184535671 0.0470794496 -0.5562254451 0.0466791399 -0.556433781 0.015529926 0.1874604488
705295770.0 -0.0156608277 0.184843297 0.040615256 -0.5569764757 0.0406572606 -0.5565416074 0.0178744248 0.1875911916
710295740.0 -0.0136267269 0.1852963645 0.0350848989 -0.5569564512 0.0344654312 -0.556873795 0.0201898376 0.1874449012
715295710.0 -0.0118404299 0.1859026036 0.0287378265 -0.5576413218 0.0285051654 -0.5574996066 0.0218568448 0.187244424
720295680.0 -0.0098110178 0.1860635426 0.0227435344 -0.5576893236 0.0229285062 -0.5579044381 0.0238079454 0.1872643713
725295650.0 -0.00851839 0.1865831293 0.0171227756 -0.5575374116 0.0168885971 -0.5580745768 0.025779555 0.1874669405
730295620.0 -0.0071352474 0.1866672018 0.0107864934 -0.5577119345 0.0104195754 -0.5573551306 0.0279221055 0.1874279824
735295590.0 -0.0050148793 0.1874406349 0.0048709072 -0.5579495832 0.0044359194 -0.5579862896 0.0303377771 0.1868747583
740295560.0 -0.0031484317 0.1872482966 -0.000910465 -0.5582498657 -0.0012108017 -0.5581996816 0.0318998113 0.1869057507
745295530.0 -0.0014719533 0.1879374006 -0.0071685633 -0.5571749581 -0.0066449973 -0.5580407763 0.0336531158 0.1863599123
750295500.0 -0.0001279521 0.1881336533 -0.0128625488 -0.5578816968 -0.0131536995 -0.5576697742 0.036077166 0.1862362471
755295470.0 0.0016733207 0.1884061697 -0.0188568107 -0.5579601383 -0.0190660925 -0.5577850032 0.038131266 0.1866505263
760295440.0 0.0033555634 0.1890052657 -0.0253896907 -0.5576066378 -0.0255303232 -0.5573110264 0.0402008056 0.1852146634
765295410.0 0.0054930344 0.1886190882 -0.0311198428 -0.5571223425 -0.0307247075 -0.5573053152 0.0424109828 0.1856313353
770295380.0 0.0068963594 0.1892211959 -0.0369568171 -0.5561624664 -0.0367195485 -0.5570484779 0.0439044276 0.1853930254
775295350.0 0.0087078179 0.1890977882 -0.0430690376 -0.5566653904 -0.0428114882 -0.5557938852 0.0464621496 0.1850591907
780295320.0 0.0103138728 0.1894644612 -0.048709278 -0.5554275354 -0.0489970353 -0.5555782275 0.0484223666 0.1845211357
785295290.0 0.0121927919 0.1892068901 -0.0547188167 -0.5548368215 -0.0548377743 -0.5550301886 0.0499880812 0.1844964076
790295260.0 0.0140725291 0.1892813835 -0.0608296422 -0.5544325668 -0.0604289265 -0.5547669187 0.0523745088 0.184267409
795295230.0 0.0156359282 0.1894682007 -0.0666882813 -0.5538093083 -0.0668612479 -0.553823838 0.0542279368 0.1831480853
800295200.0 0.0170357763 0.189663479 -0.0719544124 -0.5524836774 -0.0728086057 -0.553223571 0.0560649617 0.1829976289
805295170.0 0.0187347385 0.1893661992 -0.0783331773 -0.5516685326 -0.0785723124 -0.5523963836 0.0586865389 0.1825170975
810295140.0 0.0208985824 0.1897148609 -0.0844203665 -0.5512739992 -0.0844094451 -0.5510823612 0.0605704329 0.1820567561
815295110.0 0.0224837385 0.1899103364 -0.0904261439 -0.5504896868 -0.089897442 -0.5502904581 0.0623051128 0.1814437482
820295080.0 0.024217113 0.1897273438 -0.0959013304 -0.5490839246 -0.09604262 -0.5492951774 0.0635592864 0.181688373
825295050.0 0.0258157656 0.1896343045 -0.1021446066 -0.5479262883 -0.1020902162 -0.5482087222 0.0665074449 0.1811331053
830295020.0 0.0275586876 0.1894602477 -0.1078819001 -0.5470583578 -0.1078471016 -0.5472646358 0.0683184511 0.1798879419
