!Created with skrf (http://scikit-rf.org).
# Hz S RI R 50.0 
!freq ReS11 ImS11 ReS21 ImS21 ReS12 ImS12 ReS22 ImS22
300000.0 -0.0978145596 -0.0829659566 0.6227324606 0.0778697053 0.625112556 0.0824280247 -0.0961506492 -0.0928921199
5299970.0 -0.1004203847 0.0127923997 0.6308554972 0.0102309458 0.6306394874 0.0111888842 -0.1021061457 0.011880651
10299940.0 -0.0953617892 0.0296950824 0.6344905033 0.0159035742 0.6342287167 0.0161588367 -0.0970340145 0.0289892754
15299910.0 -0.0884348662 0.0431508542 0.6403166608 0.020739083 0.6402801855 0.0208853256 -0.0898630677 0.0420452494
20299880.0 -0.0793537041 0.0544290545 0.649039818 0.0244431107 0.6490264634 0.0241725706 -0.0816630374 0.0532831794
25299850.0 -0.069685341 0.0626771956 0.657937421 0.0248388364 0.6579456436 0.0253210063 -0.0724133226 0.0619049754
30299820.0 -0.0595585321 0.0692533091 0.6679852511 0.0243171304 0.66726172 0.0245442973 -0.0627575738 0.0688122307
35299790.0 -0.0493631259 0.0742748434 0.6772779215 0.0220329232 0.6774719465 0.0219686711 -0.052410908 0.0732818993
40299760.0 -0.0397307815 0.0768924518 0.6864128469 0.0177908574 0.687067847 0.0177323417 -0.0434452582 0.0773147509
45299730.0 -0.0303634571 0.0794759813 0.6958291262 0.0113516958 0.6957043247 0.0120510104 -0.0339633254 0.0790123215
50299700.0 -0.0215532124 0.0797399835 0.703462522 0.0046847955 0.7034866811 0.0045733858 -0.0253308215 0.0801451799
55299670.0 -0.0141468476 0.0798610945 0.7103137741 -0.0030370806 0.7106573948 -0.0027911722 -0.0176981636 0.0798935486
60299640.0 -0.0068465902 0.0788851103 0.7172930794 -0.0115399937 0.7177133417 -0.0115023316 -0.0103381011 0.0796916973
65299610.0 -0.000281433 0.0780422818 0.7238839033 -0.0192383085 0.7235394796 -0.0201330523 -0.0033020526 0.0785050674
70299580.0 0.0061815008 0.0758627549 0.7287200776 -0.0289513548 0.7286387201 -0.0293715173 0.0024395814 0.0770652546
75299550.0 0.0118607058 0.0742958247 0.7327174362 -0.0388299113 0.7330800532 -0.0389136999 0.0084659775 0.0757496613
80299520.0 0.0160982528 0.0719524573 0.7375607081 -0.0489567944 0.7380012226 -0.0488584146 0.0132906116 0.0729038527
85299490.0 0.0208692496 0.0694001565 0.7410141564 -0.0589598741 0.7404281228 -0.058757861 0.0176264709 0.0709073454
90299460.0 0.0246432941 0.0671492667 0.7432592729 -0.0685644111 0.7438859915 -0.0693066855 0.0222735388 0.068528396
95299430.0 0.0281867967 0.0650572718 0.7461866481 -0.0794038246 0.7459467591 -0.0790936032 0.02539203 0.0664231871
100299400.0 0.0315159354 0.062587359 0.747466865 -0.0891370123 0.7475742938 -0.0890206197 0.0284191009 0.0638685469
105299370.0 0.0346138623 0.059949592 0.748834023 -0.0993009417 0.7490202597 -0.0990926101 0.032038719 0.0617807374
110299340.0 0.0371421074 0.0576286323 0.7498606624 -0.1089042508 0.7501962605 -0.1096061065 0.0345543072 0.0594236355
115299310.0 0.0398110233 0.0547927702 0.7509572287 -0.1189765285 0.7512602316 -0.1198309232 0.0374555824 0.0563925017
120299280.0 0.0414497063 0.0526922677 0.7517660609 -0.1297005099 0.7513561608 -0.1295394408 0.0389170316 0.0542859781
125299250.0 0.0431493998 0.050434807 0.7520030232 -0.1386025916 0.7520670481 -0.1393757311 0.0412940992 0.0509756231
130299220.0 0.0451306084 0.0477772112 0.7516352491 -0.1489639524 0.751632781 -0.1495351478 0.0432643515 0.0495983331
135299190.0 0.0467317654 0.045429045 0.7512045474 -0.1586225345 0.750959384 -0.1592336043 0.0442421424 0.0475667248
140299160.0 0.0476842684 0.0442354184 0.7507292431 -0.1690662612 0.7511599674 -0.1686821734 0.0462626714 0.0454953742
145299130.0 0.0491701166 0.0419321269 0.7502291356 -0.1787576858 0.7496602336 -0.1785320084 0.0473331244 0.0427536688
150299100.0 0.0506319244 0.039905256 0.7491675937 -0.1883375594 0.7490193937 -0.1884942299 0.0486030871 0.0408826029
155299070.0 0.0512458287 0.0383713993 0.7478231815 -0.1983580026 0.7478871463 -0.1983954961 0.0493030546 0.0387681596
160299040.0 0.052289265 0.0357967969 0.7457855089 -0.2068537045 0.7460470862 -0.2075152002 0.050524906 0.0370474025
165299010.0 0.052758718 0.0340754148 0.7449003654 -0.2170330976 0.744966324 -0.2171473162 0.0515984028 0.0346771789
170298980.0 0.0534643788 0.03267269 0.7418220455 -0.225924466 0.7425485908 -0.2263744231 0.052820012 0.0329615651
175298950.0 0.0545068627 0.0305653938 0.7416572169 -0.235187575 0.7412642357 -0.235249904 0.0534105716 0.0310356763
180298920.0 0.0553708198 0.0292750227 0.7390917654 -0.2443719053 0.7389647751 -0.2444005964 0.0537720842 0.0300229475
185298890.0 0.0558888073 0.0270493784 0.7362699597 -0.2543174139 0.7363539975 -0.2539791903 0.0540485761 0.0276967197
190298860.0 0.0561347295 0.0257077722 0.7342801338 -0.2631497597 0.7342137507 -0.2630335607 0.0555298952 0.0260358927
195298830.0 0.0561093972 0.0240679943 0.73235036 -0.2713431652 0.7322655407 -0.2724453457 0.0556475497 0.0242429087
200298800.0 0.0572584268 0.0227121963 0.7296257545 -0.2803974132 0.7291755469 -0.279957666 0.0562123484 0.0230159725
205298770.0 0.0571550604 0.0212216239 0.7268684371 -0.2894108374 0.7267153951 -0.2892410224 0.0565359378 0.0209643503
210298740.0 0.057142857 0.0196944109 0.7237737642 -0.298904183 0.7235885332 -0.2988702733 0.0566045308 0.0198898647
215298710.0 0.0579766882 0.0187707642 0.720787801 -0.307190083 0.7206925172 -0.3070340082 0.0569199659 0.0182878139
220298680.0 0.0582595634 0.0170077237 0.7174244564 -0.3162588991 0.7171219588 -0.3156727851 0.0574656253 0.0171969095
225298650.0 0.058517902 0.0160252724 0.7137161545 -0.3239853434 0.7139715713 -0.3240607286 0.057611248 0.0155584941
230298620.0 0.0580552102 0.0150070633 0.7110034366 -0.3326127927 0.7106772878 -0.3328918512 0.0576638708 0.0139354385
235298590.0 0.0586421493 0.0133520139 0.7076963176 -0.3408595747 0.7074385801 -0.3417788662 0.0579388579 0.0127931094
240298560.0 0.0582161928 0.0121939453 0.7041616654 -0.3493940989 0.703789239 -0.3491567009 0.0580922559 0.0117769726
245298530.0 0.0592364866 0.0111492209 0.6991528245 -0.3577481876 0.699852565 -0.3583079643 0.058315811 0.0107585444
250298500.0 0.0583896149 0.0097274184 0.6957828177 -0.3657487794 0.6961396328 -0.3655692797 0.0588090579 0.0089928811
255298470.0 0.0581331582 0.0086356665 0.6914715517 -0.3748245875 0.6922415041 -0.3741873784 0.0588741423 0.0075091361
260298440.0 0.0581896628 0.0076652641 0.6879302175 -0.3825024345 0.6884507227 -0.3831167362 0.0594232752 0.0069185979
265298410.0 0.0588668595 0.0069319364 0.684092332 -0.3907953523 0.6838896738 -0.3905845698 0.0587855439 0.0053093872
270298380.0 0.0593068471 0.0056678915 0.6794358685 -0.3985749799 0.6801549111 -0.3984496966 0.0589494175 0.0050693417
275298350.0 0.0585217313 0.0049549708 0.6754104346 -0.4063908423 0.6757648784 -0.4068795456 0.0591048845 0.0036323773
280298320.0 0.0586365076 0.0038527292 0.6707591135 -0.4138658084 0.6710133128 -0.4144476021 0.0592367632 0.0025780847
285298290.0 0.0588266831 0.0032006772 0.6664414969 -0.4217076625 0.6666819433 -0.422124848 0.0588390357 0.0013674372
290298260.0 0.0587458954 0.0019212386 0.6625111477 -0.4301586402 0.6620622262 -0.4300197029 0.0594383639 0.0004999611
295298230.0 0.0585270205 0.0006163477 0.6579850255 -0.4373865136 0.6572624603 -0.4378413092 0.0596903545 -0.0004492736
300298200.0 0.0593672618 8.14844e-05 0.6530591953 -0.4450164602 0.653016007 -0.445870411 0.059358626 -0.0016821756
305298170.0 0.0589821549 -0.0013985785 0.6484397909 -0.4525640136 0.6487499405 -0.4530779446 0.0597812375 -0.0022284291
310298140.0 0.0595887048 -0.0025164234 0.643785268 -0.4605221213 0.6429818764 -0.4611245896 0.0597381113 -0.0031648247
315298110.0 0.0587470975 -0.003666839 0.6378279263 -0.4684509731 0.6385845986 -0.4681908317 0.0599305319 -0.0046256537
320298080.0 0.0586026268 -0.0045825227 0.6330189899 -0.475808595 0.6335468383 -0.4756995684 0.0594744938 -0.0055974048
325298050.0 0.058235207 -0.0059284012 0.6288348279 -0.4834310601 0.6281600581 -0.4837691299 0.0590785649 -0.0070691026
330298020.0 0.0578473362 -0.0066030134 0.6213578419 -0.4907291109 0.6215245253 -0.4911665366 0.058569978 -0.0082470668
335297990.0 0.0573508437 -0.0077526058 0.6167702177 -0.4980921296 0.6164248438 -0.4979661197 0.0582242939 -0.008959764
340297960.0 0.0565463812 -0.0083230544 0.610134185 -0.5049277601 0.6102401937 -0.5046405552 0.0573909949 -0.0097283994
345297930.0 0.0561376355 -0.0088978398 0.6045550122 -0.5107005908 0.6042825091 -0.510988782 0.057618859 -0.0106847992
350297900.0 0.056472614 -0.0091973407 0.5988351765 -0.5179463711 0.5992245141 -0.5179112071 0.0566297751 -0.0109117746
355297870.0 0.055826837 -0.0103257418 0.5929577377 -0.5246450832 0.5931275715 -0.5252824723 0.056715009 -0.0115388537
360297840.0 0.0559921662 -0.010758062 0.5876609202 -0.5319011307 0.5872253923 -0.5318609135 0.0564682659 -0.0119861779
365297810.0 0.0557513836 -0.0114935907 0.5813251268 -0.5381074425 0.5814939026 -0.5382498863 0.0558051656 -0.0123824203
370297780.0 0.0556941292 -0.0123223388 0.5756639235 -0.5444471127 0.5757442851 -0.5448047928 0.0556211022 -0.0127655885
375297750.0 0.0549639568 -0.0122124252 0.5701879418 -0.5511745941 0.5693553941 -0.5513321874 0.0556371654 -0.0134652428
380297720.0 0.0548671538 -0.0138070986 0.5632536575 -0.5570098877 0.563421763 -0.5567735307 0.0553224052 -0.0143210715
385297690.0 0.0549002036 -0.0140604518 0.5571093511 -0.5633454444 0.5572692717 -0.5634817847 0.0548699525 -0.0147950838
390297660.0 0.0539645401 -0.0150325555 0.5504844184 -0.5701496603 0.5511103868 -0.5705347755 0.0548183361 -0.015979719
395297630.0 0.0545013944 -0.0156805265 0.5450250175 -0.5758824666 0.5448698749 -0.5754861609 0.0543455262 -0.0159896295
400297600.0 0.0536046765 -0.0159675899 0.5382681288 -0.5820872207 0.5387688773 -0.5822621511 0.0533820865 -0.01685013
405297570.0 0.0538288471 -0.0166299479 0.5317828426 -0.5881237539 0.5315796176 -0.5883413348 0.0537686638 -0.0170952805
410297540.0 0.0537367166 -0.0173726451 0.5248801935 -0.5941068724 0.5252508301 -0.5939566574 0.0529878668 -0.0179887947
415297510.0 0.0532012938 -0.0174210033 0.519285742 -0.598954174 0.5188847057 -0.5999607834 0.0529301865 -0.0182946964
420297480.0 0.052930451 -0.0188447603 0.5122656025 -0.6061080162 0.5122125571 -0.6055023817 0.052910448 -0.0191695835
425297450.0 0.0533219334 -0.0196118149 0.5057871701 -0.6113366375 0.5057153384 -0.6113268495 0.052162313 -0.0189317367
430297420.0 0.0524897967 -0.019555531 0.499073478 -0.6171015287 0.4991340335 -0.6169171492 0.0513412018 -0.0203797821
435297390.0 0.0523993835 -0.0207740389 0.4921570772 -0.6220346596 0.4922468069 -0.6222769291 0.0510375288 -0.0200295499
440297360.0 0.0520843883 -0.0215164067 0.4850475446 -0.6277470187 0.4847405906 -0.62789963 0.0511912789 -0.0215649419
445297330.0 0.0522067813 -0.0221137691 0.4780418838 -0.6334744535 0.4779895493 -0.6334610432 0.0505296423 -0.0217852712
450297300.0 0.05175019 -0.0224959202 0.4712974026 -0.6382056002 0.4711404836 -0.6386610214 0.0504503328 -0.0221797705
455297270.0 0.0509628161 -0.0235118526 0.4644385574 -0.644003247 0.4649158393 -0.6440235177 0.0502310967 -0.0227179419
460297240.0 0.0502528214 -0.0239401524 0.4571182413 -0.6480876079 0.4564866746 -0.6486149652 0.0496044871 -0.0228614563
465297210.0 0.0506150516 -0.0247533514 0.4502929152 -0.6538693379 0.4504151633 -0.6539841511 0.0485974901 -0.0240357575
470297180.0 0.0498511151 -0.0250305988 0.4431893818 -0.6584380652 0.4432378937 -0.6587771853 0.0480030686 -0.0241609046
475297150.0 0.0491131671 -0.02659058 0.4358265005 -0.6636451356 0.4354074379 -0.6627425847 0.0485442105 -0.0247809337
480297120.0 0.0496408595 -0.0268082687 0.4282521735 -0.6684042172 0.428679755 -0.6679381942 0.0474330337 -0.024756354
485297090.0 0.0492141598 -0.0273086538 0.4214205472 -0.672811124 0.4213156312 -0.6733573323 0.0469343539 -0.0260870894
490297060.0 0.0487320268 -0.0281719491 0.4138123826 -0.6775471965 0.4137186507 -0.6778762487 0.0468782889 -0.0256555026
495297030.0 0.0478359259 -0.0281042647 0.40546921 -0.6824290156 0.4058501353 -0.6826109991 0.0465316336 -0.0265340006
500297000.0 0.0480197918 -0.0294716749 0.3986489584 -0.6868558141 0.3983886722 -0.6866720599 0.0453397452 -0.0271007235
505296970.0 0.0470911717 -0.0298600015 0.3907180391 -0.6907835236 0.3904213041 -0.6908081142 0.0446644444 -0.0271474373
510296940.0 0.0468414724 -0.0300562423 0.3836147478 -0.6959041403 0.3837351345 -0.6952687315 0.0452859651 -0.02707231
515296910.0 0.0459718623 -0.030450016 0.3756201458 -0.6993843778 0.3756108403 -0.6996037429 0.0437449849 -0.0279828079
520296880.0 0.0458564478 -0.0312931037 0.3677024773 -0.7036702121 0.368175612 -0.7033328491 0.044047051 -0.0285521125
525296850.0 0.0452834725 -0.0320623422 0.3603100438 -0.7081273678 0.3605115117 -0.7080384822 0.0440550586 -0.0290199751
530296820.0 0.0447849054 -0.0325613064 0.3526638537 -0.7112432819 0.3524247415 -0.7115328153 0.0426256417 -0.0301448474
535296790.0 0.0440597234 -0.0329625971 0.34450905 -0.7151947372 0.3450834625 -0.7149480471 0.0426844724 -0.0303208854
540296760.0 0.0437551266 -0.0338237472 0.3369657956 -0.719268429 0.3365401651 -0.7190916916 0.0414496144 -0.0300153299
545296730.0 0.0434069057 -0.0335851678 0.3289686672 -0.7224660319 0.3289300564 -0.7229042278 0.0412043598 -0.0311774457
550296700.0 0.0423619487 -0.0346108364 0.3209930613 -0.726337612 0.3217544683 -0.7266068454 0.0406771876 -0.0306452149
555296670.0 0.0426128873 -0.0352647677 0.3136430189 -0.7303401099 0.313200442 -0.7300684325 0.0400212679 -0.0312148354
560296640.0 0.0417643372 -0.0355514823 0.3055004446 -0.7332017603 0.3051852525 -0.732953535 0.0395195007 -0.0316019135
565296610.0 0.0407785949 -0.036183563 0.2967488985 -0.73645048 0.2968899443 -0.7370187186 0.0390797193 -0.0325731362
570296580.0 0.0411737517 -0.0366926035 0.2889284588 -0.7396440238 0.2891778461 -0.7398041496 0.0387274477 -0.0318004897
575296550.0 0.0401761351 -0.036374764 0.2811099363 -0.7426772253 0.281111747 -0.7429763854 0.0383877647 -0.032829449
580296520.0 0.0395496271 -0.0372394324 0.273249239 -0.7461215378 0.2725724572 -0.7461530417 0.0373470137 -0.033287344
585296490.0 0.0391856245 -0.0381202977 0.2653171565 -0.7493749984 0.2646590741 -0.7488694274 0.0369058835 -0.0336397404
590296460.0 0.037945936 -0.0387544291 0.2563393159 -0.7521501551 0.256174802 -0.7518213134 0.0365688729 -0.033579449
595296430.0 0.0376220867 -0.0383309958 0.2487419553 -0.7548658926 0.2479756137 -0.7546361163 0.0361972362 -0.0340596064
600296400.0 0.0371039293 -0.0387863867 0.2401386617 -0.757187719 0.2400024223 -0.7567210505 0.0354802203 -0.0342129096
605296370.0 0.0365265866 -0.038832239 0.2321067782 -0.7593491479 0.2317984587 -0.7597852611 0.0350533921 -0.0352638231
610296340.0 0.0356780161 -0.0394128641 0.2243291746 -0.7617993451 0.2236630308 -0.7619937488 0.0343404475 -0.0343434123
615296310.0 0.0353600113 -0.0396536686 0.2152980602 -0.7644325162 0.2150624498 -0.7646869857 0.0342941893 -0.0352339043
620296280.0 0.0345399013 -0.0400642167 0.2066788313 -0.7666818094 0.2066420008 -0.7670717515 0.0335000935 -0.0360733922
625296250.0 0.0343095667 -0.0404310622 0.1982172771 -0.7695652637 0.1982371064 -0.769432585 0.0331091354 -0.0354832411
630296220.0 0.0334968264 -0.040529621 0.1895928136 -0.7717541793 0.1900633515 -0.7712458381 0.0316355544 -0.0360663958
635296190.0 0.0331267132 -0.0409298197 0.181281797 -0.7727304718 0.1810148578 -0.7726082758 0.0313496065 -0.0365140786
640296160.0 0.0322414788 -0.0411032504 0.1734153956 -0.775095646 0.1731620343 -0.7749985577 0.031578382 -0.0365583396
645296130.0 0.0318165526 -0.0411266982 0.164615595 -0.7772936793 0.1642802429 -0.777246983 0.0298652803 -0.0374268569
650296100.0 0.0308725975 -0.0409606725 0.1567291965 -0.7787305595 0.1567244619 -0.778398909 0.0297239611 -0.0372967351
655296070.0 0.0302064137 -0.0417756783 0.1474416579 -0.7801397528 0.1479438194 -0.7802307879 0.0297161349 -0.036898114
660296040.0 0.0292474629 -0.0417716917 0.1394317706 -0.7817818976 0.1394560505 -0.781663747 0.0285862709 -0.0377884342
665296010.0 0.0292115579 -0.0423844341 0.1310355744 -0.7833478326 0.1313549509 -0.7831535366 0.0276333616 -0.0374679476
670295980.0 0.0291637173 -0.042259658 0.1221492577 -0.7846622298 0.1227023056 -0.7842843306 0.0268421457 -0.0381751473
675295950.0 0.0282890903 -0.0424714002 0.1136782747 -0.7861996062 0.1142884588 -0.7862861866 0.0268118786 -0.0379343204
680295920.0 0.0273771115 -0.0423808312 0.1049432554 -0.7873456798 0.1045570208 -0.7872131637 0.0266341323 -0.0386041237
685295890.0 0.0266662891 -0.042889124 0.0970346387 -0.7883964629 0.0960571623 -0.7885922378 0.0257375151 -0.0380170485
690295860.0 0.026680944 -0.0430216434 0.0885560158 -0.7885749122 0.0876064226 -0.7891463201 0.0255437569 -0.0382572278
695295830.0 0.0263869945 -0.0433484521 0.0786192813 -0.7904326883 0.0785067699 -0.7901930892 0.0240314344 -0.0386908661
700295800.0 0.0258264222 -0.0433451947 0.0710791638 -0.7907709613 0.0706000926 -0.7908487815 0.0237608831 -0.0393801055
705295770.0 0.0247234144 -0.0433628348 0.061735791 -0.7912813605 0.0616771557 -0.7917226711 0.0228083633 -0.0394250626
710295740.0 0.0240300509 -0.0432994095 0.0533160978 -0.7919417129 0.0533047502 -0.7918604542 0.0216116448 -0.0388861219
715295710.0 0.0234564636 -0.0438341635 0.0446178031 -0.7928159155 0.044906414 -0.7928964115 0.021834851 -0.0400498262
720295680.0 0.0227176763 -0.044148487 0.0359845075 -0.7932039207 0.0361524094 -0.7935885956 0.021404864 -0.0391783811
725295650.0 0.0223962142 -0.0440082771 0.0276489023 -0.7932800074 0.0272438151 -0.7931383682 0.0210226904 -0.0393756477
730295620.0 0.0212929538 -0.0445659379 0.0190029963 -0.7938373886 0.0184488665 -0.7940668184 0.0203589193 -0.0401459963
735295590.0 0.0212054771 -0.0442436728 0.0105879049 -0.7942103874 0.010287489 -0.7941746768 0.0191754197 -0.0396033421
740295560.0 0.0201894225 -0.0442106989 0.0015696809 -0.7935992643 0.001317077 -0.7936482726 0.0195142826 -0.0399856014
745295530.0 0.0198912882 -0.0445527702 -0.006931523 -0.7936278367 -0.0070526172 -0.7937915291 0.0181931798 -0.0397491661
750295500.0 0.0193043773 -0.0448293303 -0.0153704874 -0.7931963386 -0.0155020837 -0.7940326637 0.0181105584 -0.0406281445
755295470.0 0.0189508712 -0.0443990405 -0.0243654351 -0.7937198214 -0.0240564244 -0.793583068 0.0167112392 -0.0400594258
760295440.0 0.0176678149 -0.0442796297 -0.0336216114 -0.7927345238 -0.0329711608 -0.7936036638 0.0158234597 -0.040721958
765295410.0 0.0168827157 -0.0452002248 -0.0405377909 -0.7924886549 -0.0413708904 -0.7927290468 0.0165952473 -0.039798749
770295380.0 0.0170270694 -0.0446784744 -0.0500304429 -0.7920392252 -0.0503349601 -0.7924258183 0.0158378773 -0.0401073789
775295350.0 0.0159749697 -0.0443444048 -0.0588506682 -0.7913961953 -0.0584942559 -0.7917796801 0.0147433864 -0.0413456366
780295320.0 0.0157919108 -0.0450922325 -0.0673662585 -0.7910003978 -0.0667962971 -0.7911104082 0.0139464404 -0.0400589957
785295290.0 0.0145837468 -0.04443353 -0.0755430061 -0.789362356 -0.0763025857 -0.7907230912 0.0128814491 -0.0404356792
790295260.0 0.0142885581 -0.0446403134 -0.0845656259 -0.7892518174 -0.084202557 -0.7895803582 0.0131483645 -0.0404156867
795295230.0 0.0132569489 -0.0448889446 -0.092457581 -0.7885928283 -0.0929105187 -0.7880679116 0.0123568586 -0.0397541513
800295200.0 0.0127853209 -0.0445472966 -0.1016207067 -0.7869060017 -0.1019764233 -0.7872499555 0.0118551822 -0.0401325374
805295170.0 0.0118314998 -0.0448245988 -0.1100263484 -0.7856996213 -0.1100988136 -0.7855926452 0.010855372 -0.040275642
810295140.0 0.0119485125 -0.0446375154 -0.1181398733 -0.7845608617 -0.1187554993 -0.7848811118 0.0106078252 -0.0402163187
815295110.0 0.0108866092 -0.0443648776 -0.1272779017 -0.7829392238 -0.1274561003 -0.7832251468 0.009720117 -0.0402787626
820295080.0 0.0101984174 -0.0446603331 -0.1356879841 -0.7818045337 -0.1357698331 -0.7822342765 0.0090619065 -0.040195887
825295050.0 0.0094573132 -0.044696436 -0.1444974745 -0.7800518247 -0.1440295282 -0.7804364991 0.0091372037 -0.0396771313
830295020.0 0.0086834047 -0.0441587475 -0.1530790539 -0.7786947335 -0.1534656594 -0.7788730113 0.0080405213 -0.0403004529
