!Created with skrf (http://scikit-rf.org).
# Hz S RI R 50.0 
!freq ReS11 ImS11 ReS21 ImS21 ReS12 ImS12 ReS22 ImS22
300000.0 -0.3181375631 -0.0849690829 0.3755013311 0.0456131664 0.3718228053 0.0438999612 -0.3177833013 -0.1008788633
5299970.0 -0.326443329 0.0041019443 0.3782842848 0.0027859675 0.3783143976 0.0025318865 -0.3236668439 0.0046107871
10299940.0 -0.323996119 0.0133732069 0.3792736598 0.0017235543 0.3793031485 0.0021632254 -0.3212998251 0.015817494
15299910.0 -0.3214685158 0.0203720281 0.3818100934 0.0019116158 0.3820227528 0.0021852862 -0.3179711302 0.023594616
20299880.0 -0.3186349537 0.0261763508 0.3846287969 0.0016907206 0.3848556602 0.0016268911 -0.3143674495 0.030466754
25299850.0 -0.315697228 0.0315185531 0.3881831027 0.0003269972 0.3879219048 0.00020281 -0.3105758446 0.0362366236
30299820.0 -0.3129584521 0.0359248576 0.3911285602 -0.0023131097 0.3914165422 -0.0024300088 -0.3069904665 0.0412469304
35299790.0 -0.3101970729 0.0399933853 0.3947571902 -0.0055953392 0.3949967222 -0.0057419626 -0.3031672672 0.0454955101
40299760.0 -0.3071109882 0.0435258045 0.3977264065 -0.0088738446 0.3978527643 -0.0090500219 -0.3000315029 0.0484968083
45299730.0 -0.3044985572 0.0465379751 0.4004054612 -0.0125063789 0.401032441 -0.0127225593 -0.2967628861 0.0520565116
50299700.0 -0.3023475264 0.0493467112 0.4035367796 -0.0172465053 0.4035410364 -0.0172723893 -0.2943808715 0.0547803263
55299670.0 -0.3001031008 0.0523805647 0.4057153867 -0.0227370021 0.4052503399 -0.0219115883 -0.2916139276 0.0573417456
60299640.0 -0.2978235834 0.0553425787 0.4074053772 -0.0274645572 0.4075501851 -0.0267716581 -0.2889607043 0.0595709328
65299610.0 -0.2962217751 0.0575362429 0.4094091978 -0.0321258781 0.4092710736 -0.0320311488 -0.287046228 0.062020315
70299580.0 -0.2948060573 0.0600173192 0.4104711714 -0.0371301286 0.4102262728 -0.0371976841 -0.2848782064 0.0641143592
75299550.0 -0.2929264695 0.0626669013 0.4110811941 -0.0422157442 0.4112424244 -0.0426204087 -0.283021815 0.0658856206
80299520.0 -0.2916061889 0.0648425619 0.4121942019 -0.0474248194 0.4124976179 -0.0474616907 -0.2817891579 0.0681555252
85299490.0 -0.290367359 0.0667980394 0.4127864279 -0.0524717194 0.4125278568 -0.0525798631 -0.27995991 0.0698713131
90299460.0 -0.2888985768 0.0692993829 0.4131185852 -0.0579464188 0.4132892921 -0.0579905358 -0.2782207765 0.0721777996
95299430.0 -0.2872120551 0.0716003114 0.4133909188 -0.063106092 0.4133106977 -0.0634104193 -0.2767517233 0.0742228253
100299400.0 -0.2862956619 0.0741921714 0.4131453653 -0.0685278682 0.4132800054 -0.0685642584 -0.2754453166 0.0758880947
105299370.0 -0.2853147089 0.0765009678 0.4132166992 -0.0739372538 0.4133904265 -0.0735959989 -0.2736898953 0.0780125445
110299340.0 -0.2838734191 0.0788770692 0.4131331786 -0.0786442538 0.4131061639 -0.0787312372 -0.2728882026 0.080103483
115299310.0 -0.2829351204 0.0809944134 0.4127862077 -0.0838364769 0.4126385341 -0.0838842672 -0.2717469216 0.0823048535
120299280.0 -0.2819145646 0.0829550646 0.4121260785 -0.0889325439 0.4121297304 -0.0890278153 -0.2701041977 0.0845734738
125299250.0 -0.280972249 0.0853327133 0.4115912615 -0.0935521911 0.4118616285 -0.0937051623 -0.2694042835 0.0860440599
130299220.0 -0.2803318714 0.0883476796 0.4109306016 -0.0993656681 0.411162216 -0.099092331 -0.2680594362 0.0884637344
135299190.0 -0.2791509797 0.0907010141 0.4105392146 -0.1039756007 0.4104176272 -0.1039987505 -0.2669203811 0.0907255556
140299160.0 -0.2782699436 0.0932303071 0.4094878688 -0.1093162696 0.4094180819 -0.1093431471 -0.2657630099 0.0933369566
145299130.0 -0.2773712762 0.0958412698 0.4087980212 -0.1142493353 0.4083770583 -0.1137717583 -0.2650758212 0.0957237173
150299100.0 -0.2761705238 0.0984759658 0.407552593 -0.1190706793 0.4077688953 -0.1188729486 -0.2640675649 0.0983319702
155299070.0 -0.2757226904 0.100777643 0.406893105 -0.1242785788 0.4062511966 -0.1241269308 -0.2629066092 0.1007942508
160299040.0 -0.2745036613 0.1035122708 0.4051866432 -0.1289781162 0.4048943331 -0.1289320134 -0.2624652242 0.1031276757
165299010.0 -0.2736008025 0.1059443877 0.4040505807 -0.1339061047 0.4042211882 -0.1337296326 -0.2606746417 0.1056278425
170298980.0 -0.2728754716 0.1086847634 0.4026080968 -0.1385476844 0.4027445936 -0.1384427261 -0.259792271 0.1080369015
175298950.0 -0.2716785005 0.1113393572 0.4014681599 -0.1431968056 0.4010829852 -0.1432317035 -0.2593475173 0.1104254551
180298920.0 -0.2707830835 0.1139667989 0.3996917593 -0.1481151143 0.3995174633 -0.1476117054 -0.257840733 0.1131451995
185298890.0 -0.2694159796 0.1165242851 0.3983406095 -0.1527317473 0.3980538581 -0.1527303088 -0.2570518194 0.1158825466
190298860.0 -0.2686536948 0.1194059239 0.3967822553 -0.1574016043 0.3968280799 -0.1574705953 -0.2559166242 0.1182235838
195298830.0 -0.2676361837 0.1218452464 0.3955340385 -0.1620566654 0.3953335506 -0.1618621033 -0.2550123625 0.1209894899
200298800.0 -0.2663370118 0.1245770704 0.3934809715 -0.1665907246 0.3936580207 -0.1667888884 -0.2542534692 0.1234106397
205298770.0 -0.2654702008 0.1274716901 0.3914837857 -0.1714159726 0.3915865355 -0.1711043046 -0.2527742768 0.1258372362
210298740.0 -0.2641957393 0.1298479721 0.3894794871 -0.1752482266 0.3893901506 -0.1755264381 -0.2515116465 0.1289224884
215298710.0 -0.2633994426 0.1328969877 0.3880418334 -0.1804745446 0.3877697657 -0.1804884331 -0.2512896801 0.1312230313
220298680.0 -0.2620544982 0.1353429729 0.3855032434 -0.1843620759 0.3858811687 -0.1845733334 -0.2498661919 0.1332716738
225298650.0 -0.2612413516 0.1380172392 0.3836024874 -0.1891044756 0.3838623835 -0.1893268502 -0.2488743526 0.1360899772
230298620.0 -0.2600319937 0.1406057568 0.3817904951 -0.1933555593 0.3822869001 -0.1937555485 -0.247923523 0.1385767985
235298590.0 -0.2584264413 0.1437515437 0.3798253115 -0.197998463 0.3797243488 -0.1975472763 -0.2463602923 0.1411760276
240298560.0 -0.2571912898 0.1461622189 0.3777049747 -0.2023178432 0.3774771007 -0.2025189423 -0.2451024755 0.1440592522
245298530.0 -0.2557352348 0.1488668947 0.3755762368 -0.2067657487 0.3752699846 -0.2067236526 -0.24363891 0.1460090885
250298500.0 -0.2542487324 0.1518193044 0.3729710841 -0.2112330719 0.3729333945 -0.2106161006 -0.2428124553 0.1483018049
255298470.0 -0.2529349352 0.1540670327 0.3702015018 -0.2147740746 0.3705628843 -0.2147965862 -0.2412543748 0.1508178827
260298440.0 -0.2519434793 0.1570232705 0.3685118196 -0.2196621994 0.3681489777 -0.2192723707 -0.2399151527 0.1537869851
265298410.0 -0.249922051 0.1598852926 0.3655626481 -0.2240676955 0.3661988664 -0.2231998133 -0.2383166322 0.1559749883
270298380.0 -0.2486022367 0.1624368141 0.3634773844 -0.2276244495 0.3633993105 -0.2274250403 -0.2369749414 0.1584454355
275298350.0 -0.2466475874 0.1652564624 0.3607674918 -0.2318897641 0.36090862 -0.2318078828 -0.2349762582 0.1610251463
280298320.0 -0.2450506517 0.1680912421 0.3582749104 -0.2358376949 0.3584289107 -0.2359792109 -0.2334187407 0.1635851516
285298290.0 -0.2433217314 0.1707455688 0.356006543 -0.2396177542 0.3558994295 -0.2395987955 -0.2317105712 0.1656926768
290298260.0 -0.2419245734 0.1731189165 0.3529296954 -0.2438847426 0.3530660761 -0.2438441493 -0.2299412743 0.16866705
295298230.0 -0.2400258877 0.175373713 0.3503520954 -0.247915781 0.3505607946 -0.2475822152 -0.2282365832 0.170460353
300298200.0 -0.2384926172 0.1780985432 0.3479666216 -0.2513017282 0.3478878085 -0.2519702001 -0.2265212889 0.1731675942
305298170.0 -0.2364409802 0.1804508268 0.3449158039 -0.2559530365 0.3447584082 -0.2557185609 -0.2244942228 0.1755179443
310298140.0 -0.2349637489 0.1834326 0.3423552748 -0.2598327238 0.3421587394 -0.2598005109 -0.2228908266 0.1779032642
315298110.0 -0.2329915139 0.1856839626 0.3390700098 -0.2635184158 0.339219926 -0.2635068042 -0.2211584346 0.180250508
320298080.0 -0.2309431204 0.1881398073 0.3358800486 -0.2677928351 0.3364071186 -0.267406951 -0.2193535997 0.1828345951
325298050.0 -0.2291152252 0.1906728225 0.3331688623 -0.2715203239 0.3332172261 -0.2714211981 -0.2179474838 0.1850427925
330298020.0 -0.227253095 0.1929741787 0.3299292117 -0.2750603294 0.330021084 -0.2750519333 -0.2158767118 0.1874888966
335297990.0 -0.2256030828 0.1953993682 0.3272693736 -0.278485451 0.3269505222 -0.2786370808 -0.2143740242 0.1904143035
340297960.0 -0.2238965896 0.1981478782 0.3237243673 -0.2821994635 0.3234279712 -0.2824236162 -0.2117711571 0.1930382502
345297930.0 -0.222145777 0.2005218273 0.3205201322 -0.2857235111 0.3202200127 -0.2858405355 -0.2102475218 0.1947664778
350297900.0 -0.2199773374 0.2030762585 0.3167840208 -0.2895599598 0.3173618008 -0.289496711 -0.2083970459 0.1978002461
355297870.0 -0.2178584305 0.2059707269 0.3135916253 -0.2929744167 0.3142467976 -0.2928618564 -0.2070295698 0.2000205335
360297840.0 -0.215872291 0.2084263692 0.3109039146 -0.2964758304 0.3112965075 -0.2958900431 -0.2048709804 0.2026474499
365297810.0 -0.2141077645 0.2109418548 0.3074245981 -0.300095719 0.3078020839 -0.2999175111 -0.2023399035 0.2050679846
370297780.0 -0.2116866675 0.2128248295 0.3039601006 -0.3025880568 0.3043589387 -0.3029524914 -0.2005508412 0.2075598849
375297750.0 -0.2094174651 0.2155441972 0.3009207071 -0.3067047254 0.3011181024 -0.3064778853 -0.1986675962 0.2096441522
380297720.0 -0.2074756803 0.2175398525 0.2973000008 -0.3100411351 0.2974509953 -0.3093498061 -0.1969306784 0.2118394947
385297690.0 -0.2053967923 0.2202302537 0.2939897622 -0.3131507853 0.2936902725 -0.3129171469 -0.1944798943 0.2145515036
390297660.0 -0.2030531101 0.2229553074 0.2904325186 -0.3165083731 0.2904893885 -0.3158453285 -0.1930608237 0.2163118009
395297630.0 -0.2009975039 0.2249946278 0.2872506414 -0.3193447899 0.2868591909 -0.3194801649 -0.1898300321 0.2187909971
400297600.0 -0.1984088738 0.2275137301 0.2832697934 -0.3230228887 0.2837083022 -0.3225024851 -0.1882194415 0.2206624213
405297570.0 -0.1961879023 0.2296556667 0.2798774151 -0.3255128702 0.279825282 -0.3253273834 -0.1863107145 0.2232339639
410297540.0 -0.1938590813 0.2314758422 0.2763526204 -0.3284856531 0.2766701881 -0.3287122566 -0.1838745528 0.2253966421
415297510.0 -0.190984433 0.2335688579 0.2723360607 -0.3318450153 0.2727667221 -0.3319765706 -0.1816673927 0.2272988373
420297480.0 -0.189144264 0.2362487552 0.2686643594 -0.3344482439 0.2689893361 -0.3347570008 -0.1793338303 0.229371761
425297450.0 -0.1864028724 0.2384139795 0.2651006662 -0.3375879145 0.2654612029 -0.3376544856 -0.1771696287 0.2314263638
430297420.0 -0.1840418673 0.2405885727 0.2612262346 -0.3401274004 0.2614646868 -0.340189822 -0.1750222897 0.2329245037
435297390.0 -0.1818295063 0.2425768285 0.2574347488 -0.3430036338 0.2574183123 -0.3432288153 -0.1718331957 0.2348348921
440297360.0 -0.1792352029 0.2448779427 0.253729011 -0.3458184688 0.2538387743 -0.3459187718 -0.1698478929 0.2369921064
445297330.0 -0.1766386441 0.2463437036 0.2502901606 -0.3486994574 0.250168379 -0.3486374116 -0.1672312245 0.2380968158
450297300.0 -0.1741385224 0.2484071421 0.2462309786 -0.3511637845 0.24621006 -0.3516262108 -0.1646345951 0.240399711
455297270.0 -0.1716418164 0.2505037375 0.24219011 -0.3538726565 0.2424880173 -0.3538339675 -0.1619382297 0.2420474483
460297240.0 -0.1688744323 0.2524738789 0.2382914444 -0.356579915 0.2384282141 -0.3564636715 -0.1594517019 0.2440701557
465297210.0 -0.1661385428 0.2544214729 0.2343302821 -0.3591881006 0.2344552464 -0.3595599714 -0.1569511983 0.2456256909
470297180.0 -0.1633706125 0.2562033524 0.2303387511 -0.3618847012 0.2303389125 -0.3618959126 -0.1542038093 0.248015292
475297150.0 -0.1608772255 0.2578002652 0.2264980284 -0.3636156535 0.2266345362 -0.363607247 -0.1512463664 0.248924656
480297120.0 -0.1583119558 0.2598099784 0.2224574509 -0.3668408748 0.2222389303 -0.3669191361 -0.1484695051 0.251195521
485297090.0 -0.1556249907 0.2616479453 0.2186941448 -0.3687976657 0.2184674316 -0.3685978869 -0.1459766727 0.2529115386
490297060.0 -0.1530639545 0.263559252 0.214641477 -0.3712361416 0.2145205431 -0.3709907308 -0.143313166 0.254666865
495297030.0 -0.1501472813 0.2650683762 0.2100070528 -0.3733054209 0.2106144247 -0.3735529858 -0.1408437619 0.2566613955
500297000.0 -0.1472884928 0.266757537 0.2059765367 -0.3754222495 0.2059581445 -0.3755553239 -0.1377570199 0.2586725825
505296970.0 -0.1441841824 0.2683884356 0.201846572 -0.3775485446 0.2017808681 -0.3781642752 -0.1351335559 0.2600236582
510296940.0 -0.1417077066 0.2702388101 0.1978986526 -0.3801716487 0.1974065848 -0.3800215037 -0.1322433689 0.2615367662
515296910.0 -0.1386356611 0.2719175075 0.1937461597 -0.3824474275 0.1933238985 -0.381843131 -0.1293703621 0.2630690835
520296880.0 -0.1362676181 0.2738318317 0.1898467509 -0.3845896008 0.1895667943 -0.3841876879 -0.1271435592 0.2645162973
525296850.0 -0.1328625971 0.2746170265 0.1848036581 -0.3861218571 0.1852001524 -0.3865853431 -0.1244321042 0.2664937953
530296820.0 -0.1300749726 0.2765303469 0.1810114449 -0.3882446732 0.1807383995 -0.3882831625 -0.1213877674 0.2679940575
535296790.0 -0.1274907738 0.2782269973 0.1769237041 -0.390230016 0.1765628966 -0.3899782446 -0.119061121 0.2690932068
540296760.0 -0.1246186417 0.2796447126 0.172504323 -0.3922465648 0.1725121404 -0.3920406761 -0.116303673 0.2710880244
545296730.0 -0.1217601859 0.2814065243 0.1678819527 -0.3939340936 0.1679459204 -0.3940013376 -0.1131706971 0.2721023278
550296700.0 -0.1185813905 0.2825915239 0.1635551383 -0.3958646859 0.1636732022 -0.3960344509 -0.1103436697 0.2738688405
555296670.0 -0.1156726679 0.2837527391 0.1595863188 -0.39729862 0.1596580187 -0.3974845952 -0.1079497804 0.2753229021
560296640.0 -0.11258374 0.2857480514 0.15495272 -0.3993006678 0.1549824986 -0.3990516237 -0.1047377364 0.276385717
565296610.0 -0.1097447214 0.2867992117 0.1505535178 -0.4011141541 0.1507294348 -0.4007036258 -0.1019755597 0.2775510499
570296580.0 -0.1067065997 0.2878723963 0.14641105 -0.4028084794 0.1461590115 -0.4026840375 -0.0995671716 0.2794795279
575296550.0 -0.1039720125 0.2897655325 0.1421801261 -0.4043813196 0.1418534971 -0.4038347179 -0.0962900139 0.2799775003
580296520.0 -0.1004798716 0.2906679355 0.1373826435 -0.4056438421 0.1376151618 -0.4056551968 -0.0932277507 0.2813997753
585296490.0 -0.0977852583 0.2917354194 0.1331113332 -0.4066266136 0.1331511828 -0.4071027303 -0.0905009188 0.2824287427
590296460.0 -0.0945049593 0.2930166059 0.1286406727 -0.407823569 0.1287297866 -0.4080220601 -0.0878362869 0.2835519897
595296430.0 -0.0912990579 0.2940774168 0.1237737309 -0.4098899736 0.1242733223 -0.4094166984 -0.0847558276 0.2839821228
600296400.0 -0.0883543125 0.294962306 0.1197254253 -0.410681113 0.1199465479 -0.4106158249 -0.0820051491 0.2850706678
605296370.0 -0.0857002999 0.2960957645 0.115551871 -0.4120965701 0.1153245226 -0.4120956047 -0.078793454 0.2862249555
610296340.0 -0.0820973792 0.2973355354 0.110118769 -0.4133132374 0.1108799003 -0.4130815986 -0.0756903141 0.2868351719
615296310.0 -0.0788216977 0.298045894 0.1057632342 -0.4141219145 0.1057761875 -0.4147258959 -0.0724540205 0.2877594683
620296280.0 -0.0759166392 0.2984638846 0.1018371584 -0.4153997411 0.1016381279 -0.4149909473 -0.069885868 0.2885238756
625296250.0 -0.0729614847 0.2997601215 0.0976255249 -0.4165865892 0.0972893986 -0.4168697553 -0.0662499818 0.2892760679
630296220.0 -0.0691200025 0.3007512709 0.0920139321 -0.4175749559 0.092418399 -0.4175245096 -0.063306537 0.290631613
635296190.0 -0.0666671108 0.3015845766 0.0883856064 -0.4181997541 0.0881225238 -0.4182290321 -0.0603223869 0.2908949285
640296160.0 -0.0637114689 0.3023865159 0.0837491695 -0.4186884095 0.0839963511 -0.4193414927 -0.0570498969 0.2919255448
645296130.0 -0.0604032518 0.3033910272 0.0788542419 -0.4199776627 0.0791368151 -0.4200716373 -0.0539893673 0.2925319227
650296100.0 -0.0569232942 0.3040789932 0.0741628584 -0.4207989301 0.0744969504 -0.4208911978 -0.0505549983 0.2933764111
655296070.0 -0.0537519988 0.3047357838 0.0696764006 -0.4214374587 0.0699388566 -0.4215977479 -0.0474327864 0.2938393507
660296040.0 -0.0510644021 0.3047416097 0.0653357366 -0.4219615619 0.0653141427 -0.4224670393 -0.0441607565 0.2947209547
665296010.0 -0.0474927368 0.3058168117 0.0605117545 -0.4230863959 0.060686065 -0.4229933621 -0.0408551102 0.2956163823
670295980.0 -0.0448248752 0.3068764109 0.0561809255 -0.4235562979 0.0561225353 -0.4232581231 -0.0381263239 0.2960345248
675295950.0 -0.0414422861 0.30738812 0.0516778814 -0.4239491901 0.0519546053 -0.4236840405 -0.035185935 0.2963543755
680295920.0 -0.0379199345 0.3077250677 0.0468672798 -0.4245496565 0.0468705023 -0.4248873743 -0.0318937325 0.2981334465
685295890.0 -0.0344696692 0.3088049916 0.0425327425 -0.4251119881 0.0420937098 -0.4252452887 -0.0285091647 0.2980188237
690295860.0 -0.031461486 0.3089724366 0.0376894711 -0.4254513721 0.0376954103 -0.4255089915 -0.025637143 0.2989325837
695295830.0 -0.02841381 0.309099606 0.0332072612 -0.4255858181 0.0325521898 -0.4258358708 -0.0221588454 0.2993293596
700295800.0 -0.0248850061 0.3097197066 0.0284062145 -0.4259660909 0.0282973564 -0.4259657084 -0.0195147995 0.3000265822
705295770.0 -0.0221841056 0.3103886483 0.0239455624 -0.4264153885 0.0239236699 -0.4262508606 -0.0162657526 0.3003702674
710295740.0 -0.0186596358 0.3105528382 0.0193939917 -0.4270102459 0.0197311053 -0.4267379798 -0.0135807807 0.3002365459
715295710.0 -0.0156191007 0.3108844586 0.0151640342 -0.4266432504 0.0143714525 -0.4264954936 -0.0099770893 0.3007553322
720295680.0 -0.0124495693 0.3113883193 0.0102658927 -0.4269201595 0.0099440081 -0.4268303333 -0.0066937817 0.301029043
725295650.0 -0.0089202157 0.3115910806 0.0052204599 -0.4269609244 0.0054604948 -0.4271349323 -0.0039732225 0.3017307229
730295620.0 -0.0054064331 0.3119259828 0.0007869351 -0.4269447355 0.0007305179 -0.4269409434 -0.0012197441 0.3016581635
735295590.0 -0.0023516919 0.3122719715 -0.0035416098 -0.4270134435 -0.0037495759 -0.426756168 0.0020929347 0.3011156318
740295560.0 0.000819614 0.3124156905 -0.0085538306 -0.4269207888 -0.0082458121 -0.4267459125 0.0056946844 0.3016971357
745295530.0 0.0040546691 0.3123565291 -0.0132655603 -0.4262520905 -0.0136005632 -0.4265219505 0.0086306508 0.3015823045
750295500.0 0.0077410602 0.3121976735 -0.0178695472 -0.4264868981 -0.01779609 -0.426574807 0.0118413397 0.3022674526
755295470.0 0.0107175986 0.3122273531 -0.0219092073 -0.4257468829 -0.022031244 -0.4259891772 0.014633764 0.3012671339
760295440.0 0.0139756051 0.3123114924 -0.0268908468 -0.4258776329 -0.0270306567 -0.4258318483 0.0177976052 0.3014707498
765295410.0 0.0172444725 0.3124524545 -0.031655654 -0.4254058892 -0.0319135979 -0.4256136257 0.021272565 0.3016206363
770295380.0 0.020433502 0.3120994215 -0.0366092989 -0.4247972229 -0.036090537 -0.4246900269 0.0237032986 0.3013687536
775295350.0 0.0233632356 0.3120379439 -0.0410041573 -0.4244760617 -0.040300226 -0.424535069 0.0266879575 0.3011922117
780295320.0 0.0268238919 0.3119792743 -0.0454886315 -0.423482163 -0.0451126566 -0.4238480603 0.0301513858 0.3007257842
785295290.0 0.0296617148 0.3111669724 -0.0498927345 -0.4228893282 -0.049577159 -0.4233895978 0.033980032 0.3004940053
790295260.0 0.0335686193 0.311610517 -0.0541736885 -0.4226626082 -0.0538499526 -0.4228808344 0.0370227941 0.3005068244
795295230.0 0.0365486676 0.3112448935 -0.0591478367 -0.4218554267 -0.0589432209 -0.4224279773 0.0402556143 0.2998133277
800295200.0 0.0399553228 0.3111225917 -0.0640250879 -0.4211053426 -0.0635740546 -0.4211343881 0.0432269174 0.299649215
805295170.0 0.0429931497 0.3103346643 -0.0679059198 -0.4206131844 -0.0684904846 -0.4204728457 0.0463399858 0.2994340116
810295140.0 0.0460016622 0.3101612962 -0.0721370745 -0.4195090848 -0.0727211074 -0.4200602122 0.0499657425 0.2989922781
815295110.0 0.0496522778 0.3096128133 -0.0774172644 -0.4184860943 -0.0770598353 -0.4188806567 0.053070627 0.2984152633
820295080.0 0.0526622636 0.3098819585 -0.0815434929 -0.4178584645 -0.0816307185 -0.4180067 0.0564447726 0.298385484
825295050.0 0.0564728559 0.3091259649 -0.0859289936 -0.4168145681 -0.0859821934 -0.4171995255 0.059566402 0.2981352691
830295020.0 0.0589677411 0.3086347643 -0.0904648209 -0.4159636357 -0.0905252889 -0.4160556576 0.0631550195 0.2973548984
