!Created with skrf (http://scikit-rf.org).
# Hz S RI R 50.0 
!freq ReS11 ImS11 ReS21 ImS21 ReS12 ImS12 ReS22 ImS22
300000.0 -0.7800742292 -0.1068949411 -0.0007722177 9.4664e-05 -0.0001137452 -0.0006382295 -0.0466004792 -0.0625616453
5299970.0 -0.7853360831 -0.0056888822 -0.0001859956 5.5501e-05 -8.85849e-05 3.93001e-05 -0.0456457745 0.0154591574
10299940.0 -0.7881407866 -0.0041061139 -7.54233e-05 -7.75187e-05 4.68873e-05 0.0001936672 -0.0399335121 0.0339184803
15299910.0 -0.7935243474 -0.0018942572 -4.3639e-06 5.46424e-05 0.0001124496 0.000151243 -0.0313186095 0.048193581
20299880.0 -0.8000245283 0.002144532 -1.11747e-05 -0.0001668284 -6.34124e-05 -0.0001113662 -0.0212412505 0.0605650536
25299850.0 -0.8065862051 0.0076235707 -9.11013e-05 0.0002103392 -8.25673e-05 -5.14014e-05 -0.0096791886 0.0696461467
30299820.0 -0.8129941731 0.0151720851 -0.0001298644 0.0001693131 -4.69384e-05 6.58268e-05 0.0018602076 0.0765543363
35299790.0 -0.8172381091 0.0243484159 -0.00022824 -9.11997e-05 -6.44377e-05 5.60286e-05 0.0133427504 0.0815719732
40299760.0 -0.8220654298 0.0339094395 7.93576e-05 -3.1453e-05 8.90952e-05 1.65544e-05 0.0246365795 0.0840657331
45299730.0 -0.8244191657 0.0428261931 -7.23687e-05 5.46102e-05 -4.3043e-05 9.4527e-06 0.0352775147 0.0856301642
50299700.0 -0.8270900518 0.0531144289 0.0001099885 7.61748e-05 -5.0377e-05 4.19062e-05 0.0452516527 0.0856261347
55299670.0 -0.8299616599 0.063181368 -0.0001094937 -0.000154352 2.80536e-05 0.0001444246 0.0543605214 0.084532729
60299640.0 -0.8306690122 0.073651636 0.0001430832 0.0001077749 -5.82551e-05 0.0001001788 0.0629364405 0.0824686529
65299610.0 -0.8321121088 0.0828295471 3.27582e-05 9.56662e-05 1.24426e-05 -2.21009e-05 0.0705385565 0.0803386813
70299580.0 -0.8316419681 0.0933417891 0.0001741883 4.4695e-05 0.0001017865 0.0001334137 0.0774091536 0.0773267029
75299550.0 -0.831968999 0.1039530175 1.84712e-05 0.0001172704 -4.19916e-05 2.3042e-06 0.0838824397 0.0736748148
80299520.0 -0.8322975778 0.1130139755 -0.0001106528 0.0002436947 4.6591e-05 0.0001576956 0.0893189229 0.0706056316
85299490.0 -0.8312186899 0.122987091 -0.0001119064 2.69699e-05 -0.0001684836 8.8783e-05 0.0942283961 0.0665134613
90299460.0 -0.8305229787 0.1324207301 0.0002388725 0.0001156904 -3.83875e-05 0.0001561504 0.0991057964 0.0629878734
95299430.0 -0.8298175159 0.1419069412 -6.3272e-05 7.81345e-05 5.89949e-05 0.0001185103 0.1030282023 0.0589547555
100299400.0 -0.8285611836 0.1512639341 2.9715e-06 0.000222613 -2.1961e-06 -0.000188461 0.1071627986 0.0548856419
105299370.0 -0.8274125296 0.160502049 0.0002003348 -3.44734e-05 7.00461e-05 3.11034e-05 0.1103963898 0.0510769338
110299340.0 -0.8259461224 0.1694591032 0.0001048719 3.16065e-05 0.0001031566 4.45636e-05 0.1131028296 0.0468436702
115299310.0 -0.8242347479 0.1791525889 -0.0001727999 0.0001557308 -0.0001412716 -2.6171e-06 0.1159056712 0.0433290365
120299280.0 -0.8221994672 0.1873382848 8.3177e-06 -0.0001141816 0.0002303187 -2.17932e-05 0.1180862399 0.0396215892
125299250.0 -0.8207548385 0.1960408153 -0.0002548934 0.000100442 -1.8668e-06 9.8873e-06 0.1199616985 0.0356346696
130299220.0 -0.8190029748 0.205638955 -5.63069e-05 7.81656e-05 -2.50422e-05 0.0001658633 0.1221128515 0.0315954864
135299190.0 -0.8168349148 0.21426473 -6.95947e-05 -1.94341e-05 -5.97546e-05 0.000255687 0.1238434549 0.028003969
140299160.0 -0.8148255626 0.223327375 0.0001354406 -5.6789e-05 0.0002358114 0.0002075762 0.1248775435 0.0249178351
145299130.0 -0.8126550192 0.2325041975 5.34372e-05 6.16716e-05 -4.94865e-05 5.5953e-05 0.1259463925 0.0216805262
150299100.0 -0.8101212857 0.2415497387 1.10043e-05 8.99884e-05 -6.53745e-05 7.6016e-05 0.1273588257 0.0188727065
155299070.0 -0.8078184022 0.2497463631 -4.88811e-05 -6.3102e-05 -0.0003160013 0.0002153843 0.1280550667 0.0152911753
160299040.0 -0.8054286347 0.2581214376 9.70875e-05 -0.0001238965 4.6207e-06 0.0003030336 0.1283906158 0.0124436172
165299010.0 -0.8029008724 0.2668846185 8.60222e-05 6.46425e-05 0.000234125 0.0001008108 0.1292741849 0.0091636796
170298980.0 -0.8002801861 0.275822102 0.0001158903 6.85225e-05 -0.0001056601 -0.0001230809 0.1294164649 0.0062772439
175298950.0 -0.7973111857 0.2840626923 4.04258e-05 2.87166e-05 8.64677e-05 0.0001080544 0.1297123845 0.0034033319
180298920.0 -0.7952156333 0.2928083343 -6.8866e-05 -0.0002145185 0.0001355322 7.56795e-05 0.1303394018 0.0007954366
185298890.0 -0.7915159878 0.3006488659 7.24745e-05 6.57549e-05 1.28122e-05 2.10038e-05 0.1306162391 -0.0021220245
190298860.0 -0.7884977189 0.3098056127 -5.9737e-06 0.0001338498 0.0002280114 0.0001894363 0.130311676 -0.0045780013
195298830.0 -0.7856914353 0.3181194509 0.0001653409 0.000139539 0.0001952964 0.0001978353 0.1301982359 -0.0075056351
200298800.0 -0.7813229686 0.326088277 0.0001153471 0.0001125354 0.0001363754 8.99053e-05 0.1300899761 -0.0100534578
205298770.0 -0.7790262878 0.3342177536 0.0002354147 8.76827e-05 0.0002891901 0.0002039321 0.1298482022 -0.0130112683
210298740.0 -0.775270104 0.3422071713 0.0001038961 -0.0001589839 -3.4372e-06 7.43121e-05 0.129330823 -0.0154113793
215298710.0 -0.7718395949 0.3507649906 0.0003520477 0.000372331 6.2888e-06 0.0001052914 0.1290867599 -0.0178028132
220298680.0 -0.7676129944 0.3584458815 0.0001515365 0.0002469237 -1.16769e-05 0.0001213455 0.1283787642 -0.019919047
225298650.0 -0.7649470374 0.3665678427 5.47009e-05 0.0001195652 0.0001247668 -0.0001838178 0.1280268574 -0.022649876
230298620.0 -0.7606829806 0.3747225268 0.0001998797 -4.4164e-06 6.10915e-05 6.15735e-05 0.127552916 -0.0250243448
235298590.0 -0.7571720773 0.3835263419 0.0001780958 -0.0001044033 7.11426e-05 0.0001143619 0.127119369 -0.0271849733
240298560.0 -0.7526587817 0.3915019203 -0.0001153893 0.0001716576 0.0001231611 0.0001111756 0.1264208208 -0.0295099393
245298530.0 -0.7489796011 0.3989575431 0.0002124163 0.000242375 0.0001008916 7.04169e-05 0.1258245271 -0.0320135293
250298500.0 -0.744901607 0.4069220555 0.0002071027 0.0001179615 -4.00522e-05 0.0002355193 0.1250872485 -0.0341003211
255298470.0 -0.7395989515 0.4139514157 1.00724e-05 5.25309e-05 0.0001544847 -5.89088e-05 0.124333857 -0.0366362472
260298440.0 -0.7353946058 0.4219890353 2.37618e-05 -1.58308e-05 -3.68067e-05 0.0002678396 0.1239441036 -0.0381005942
265298410.0 -0.7315454483 0.4295667697 -3.15312e-05 4.45549e-05 4.13111e-05 0.0001924754 0.1233235417 -0.0402507959
270298380.0 -0.7270269255 0.437432304 4.8595e-05 -6.81474e-05 0.0001601948 -1.39637e-05 0.1225864557 -0.0421867677
275298350.0 -0.7223339095 0.4450343258 0.0001420529 7.20435e-05 0.000203559 8.65761e-05 0.1220608313 -0.0440590747
280298320.0 -0.7174177625 0.4524512569 9.82579e-05 0.0002272282 0.0001967766 0.0001416396 0.1215483019 -0.0463416801
285298290.0 -0.7129196966 0.4603070344 0.0003158206 1.60855e-05 -9.25609e-05 0.0002235064 0.1206470425 -0.0478999796
290298260.0 -0.7081321023 0.4675874443 0.0001113257 4.09125e-05 0.0001367086 9.10451e-05 0.120081867 -0.0498909405
295298230.0 -0.7023101211 0.4735713153 1.2834e-05 0.0001572775 0.0002233968 4.90978e-05 0.1195309361 -0.0518509363
300298200.0 -0.6981482329 0.4816654501 0.000133077 6.1999e-05 1.74922e-05 8.23518e-05 0.1186689344 -0.0536685766
305298170.0 -0.6924375377 0.488335963 -0.0001148916 9.92883e-05 8.66636e-05 3.034e-05 0.1180609905 -0.0559100373
310298140.0 -0.6879771453 0.4962727575 -1.52755e-05 0.0002090337 0.0001363686 0.0001123199 0.11704752 -0.057619253
315298110.0 -0.6827071215 0.5029222765 -5.41092e-05 7.0028e-05 -7.6145e-06 -5.707e-05 0.1159317574 -0.0595810543
320298080.0 -0.6774657167 0.5105043324 0.0002044863 4.28098e-05 0.000157579 0.000196419 0.1151526056 -0.0612669172
325298050.0 -0.6717295322 0.5175122103 0.0001515534 4.89758e-05 0.0002326903 0.000135386 0.1138573848 -0.0632529322
330298020.0 -0.6665765321 0.5238651335 3.71713e-05 1.14089e-05 0.0001275033 5.04201e-05 0.1125706999 -0.0642484958
335297990.0 -0.6609804669 0.5311382889 4.37201e-05 -5.2409e-06 0.0004040475 0.0001540904 0.1112787261 -0.0655688815
340297960.0 -0.6560343801 0.5377765594 0.0001661132 -1.23816e-05 0.0002823547 0.0002416619 0.1106472826 -0.0670138813
345297930.0 -0.6500961866 0.5444200038 0.0001978205 0.0001302396 0.0003192159 0.0001440272 0.1087945126 -0.0685310992
350297900.0 -0.6446622946 0.5511565487 6.39413e-05 0.0001576182 0.0001451069 0.0001290674 0.1076598855 -0.0691383283
355297870.0 -0.6380630121 0.5582399319 0.0002906019 0.0002042357 2.59996e-05 0.0002766153 0.106660973 -0.0707780758
360297840.0 -0.6328226947 0.5636937601 0.0001782362 0.0001214283 -2.22753e-05 0.0001779726 0.1053095554 -0.0719223893
365297810.0 -0.6273092941 0.5709287911 0.0001242285 0.0001404617 7.24513e-05 8.07455e-05 0.1042187419 -0.0734403885
370297780.0 -0.6209369938 0.5771527017 0.000293506 4.25602e-05 0.0002739061 -4.67625e-05 0.1032479029 -0.074656934
375297750.0 -0.6143670069 0.5839912223 0.0001551419 0.0001371771 4.42992e-05 0.0002175169 0.1017336097 -0.0759393078
380297720.0 -0.6087927562 0.5894261013 9.76307e-05 0.0001324377 0.0001624206 0.0003757018 0.1003465309 -0.0769077529
385297690.0 -0.6032968453 0.5958239192 0.0002081908 -4.69336e-05 0.0001630275 0.0003119567 0.0991775445 -0.07840878
390297660.0 -0.5971757263 0.6013017352 0.0001171028 0.0001822577 7.70436e-05 0.0003030657 0.0977381264 -0.0791723236
395297630.0 -0.5903462373 0.6086523681 -0.0001562934 0.0001041378 0.0002345423 -3.60599e-05 0.0966876531 -0.0805709715
400297600.0 -0.5843699997 0.6138778921 8.6021e-06 -3.08642e-05 0.0002776692 0.0003158817 0.0955609348 -0.0816026901
405297570.0 -0.5781958465 0.6200596001 0.0002819689 0.0001963856 2.71308e-05 0.0001544448 0.0940504206 -0.082929018
410297540.0 -0.5712696761 0.6250494651 0.0002143834 1.17249e-05 0.0001693048 0.0001914836 0.0930680769 -0.0840574454
415297510.0 -0.5647782121 0.6311326776 0.0002158749 5.34109e-05 -6.63244e-05 0.0002984756 0.0914859798 -0.0852651618
420297480.0 -0.5593525636 0.6377348551 0.0003441213 5.217e-06 0.0002332305 0.000173707 0.0903256783 -0.0863602565
425297450.0 -0.5517522248 0.6426568481 0.0002349492 -5.8698e-06 0.0001558199 -0.0001861679 0.0891812421 -0.0873742035
430297420.0 -0.5452419598 0.6487988995 0.0002535163 -2.09256e-05 0.0001205556 3.46522e-05 0.0874696042 -0.0885024411
435297390.0 -0.5388606115 0.6536489958 0.0002449264 0.0001212438 0.0001816402 -7.7767e-05 0.0864122758 -0.0898353259
440297360.0 -0.5317892286 0.6594472991 0.0001892341 9.37459e-05 3.48141e-05 0.0001703927 0.0851790036 -0.0904939011
445297330.0 -0.5248316925 0.6647300437 0.0001432335 -9.3648e-06 0.0002790941 4.44051e-05 0.0839357313 -0.0920596597
450297300.0 -0.5183043119 0.6695203372 0.000214385 0.0003208118 3.43871e-05 9.23834e-05 0.0826475932 -0.0927853579
455297270.0 -0.5117504057 0.6748608937 6.34685e-05 7.23438e-05 0.0002548666 0.0001526133 0.0811734665 -0.0936771751
460297240.0 -0.5053453668 0.6799726545 7.76521e-05 -0.0001218795 0.0003181231 0.0001478949 0.0800350358 -0.0943744615
465297210.0 -0.4976747371 0.6850873219 9.86135e-05 6.85648e-05 0.0002408922 5.83928e-05 0.0787520621 -0.0955697639
470297180.0 -0.4906491484 0.6903214785 0.0002811114 0.0001922024 0.0002401715 0.0002127797 0.0778902114 -0.0962657615
475297150.0 -0.4834549427 0.6944074431 0.0003577935 0.0002205697 0.0001898693 -2.2166e-05 0.0764980969 -0.0973371203
480297120.0 -0.4764875791 0.6996829362 0.0001442129 -2.82929e-05 0.0002994856 0.0002426001 0.0749150944 -0.0981651898
485297090.0 -0.4695337769 0.7045660708 0.0002779322 9.25549e-05 0.0002400456 7.32978e-05 0.074110216 -0.0987423855
490297060.0 -0.4620283556 0.7087956702 0.0003488712 0.000276087 7.34179e-05 7.05938e-05 0.0724555632 -0.0995691891
495297030.0 -0.4553396784 0.7134226397 0.0005180588 -6.73456e-05 -0.0001021767 -8.10962e-05 0.0713243918 -0.1002366235
500297000.0 -0.447581122 0.7184383044 0.0002556321 0.0002741362 0.0004338106 0.0001690345 0.0701488321 -0.1005434043
505296970.0 -0.440209963 0.7230978957 0.0002503746 -1.23622e-05 0.0003084857 -5.913e-05 0.0683694914 -0.1015369231
510296940.0 -0.4331074285 0.7269936446 0.0004029224 9.72971e-05 0.0003521801 0.000188968 0.0671452214 -0.102018816
515296910.0 -0.4245641591 0.7308533853 0.0002334732 0.0002009274 0.0002466143 0.0001176855 0.0657922331 -0.1027707873
520296880.0 -0.4183692536 0.7357202663 0.0004073706 0.0002079029 0.0003694767 0.0001332886 0.0645252994 -0.1034601852
525296850.0 -0.4103261672 0.7393606048 0.0002535125 0.000205185 0.0001287829 0.0002961026 0.0627344296 -0.1035756926
530296820.0 -0.4029084556 0.7438161501 0.0001869943 6.93519e-05 0.0002188499 4.80482e-05 0.0615916715 -0.1040210433
535296790.0 -0.3963137533 0.7472802915 0.0001956361 8.07924e-05 0.0002721441 -0.0001049645 0.0597391227 -0.1049201869
540296760.0 -0.3879344019 0.7511388453 0.0004450933 0.0002333321 0.0003372666 9.45762e-05 0.0584601615 -0.1052095574
545296730.0 -0.3807418541 0.7551573741 0.0001229791 0.0002433398 0.0001290826 0.0003313149 0.0568664369 -0.1058725562
550296700.0 -0.3731648324 0.7593550993 0.0002150063 0.0002653369 0.0002274103 0.0001559642 0.0556316686 -0.1065026749
555296670.0 -0.3651420192 0.7619536546 0.0004166702 1.89569e-05 0.0004351038 7.71282e-05 0.0541991608 -0.1063952988
560296640.0 -0.3579242246 0.7669279931 0.0002638749 2.94014e-05 0.000103186 0.000270305 0.0524534727 -0.1071053402
565296610.0 -0.3499796649 0.7699021814 0.0002029094 7.65884e-05 0.0001972764 -1.47595e-05 0.0510467687 -0.107753043
570296580.0 -0.3421593756 0.7729032664 0.0003071835 4.44426e-05 0.0005153498 5.41165e-05 0.0492663809 -0.1081385743
575296550.0 -0.3341942815 0.7769881676 0.0003283181 6.71089e-05 0.0001117912 -4.34065e-05 0.0481048336 -0.1086111794
580296520.0 -0.3260225177 0.7798969413 0.00027002 3.1722e-05 0.0002538785 0.0001477483 0.0465836729 -0.1092816744
585296490.0 -0.3193872316 0.7826509477 0.0001829177 -3.2833e-06 0.0003567234 4.5394e-05 0.045314013 -0.1096513097
590296460.0 -0.3105615357 0.7862160082 0.0001964946 0.0002196862 0.0001906564 -6.25988e-05 0.0433530887 -0.1097531329
595296430.0 -0.3031955352 0.7887781678 0.0002324352 0.0001833821 0.0002619563 -2.23404e-05 0.0418764936 -0.1105521318
600296400.0 -0.2949458671 0.7919246724 0.0004159555 -2.7331e-06 0.0001748031 0.0001782726 0.0404103159 -0.1106531538
605296370.0 -0.2876462733 0.794985107 0.0002157518 3.62262e-05 0.0002824881 -9.34318e-05 0.0392829303 -0.1113790572
610296340.0 -0.2792194929 0.7978773986 6.48558e-05 -5.872e-06 0.0002537868 6.88392e-05 0.0378596518 -0.1112105346
615296310.0 -0.2703993526 0.8006556671 0.0001101786 -9.95294e-05 0.0003202759 -2.0849e-06 0.0365438215 -0.1120476629
620296280.0 -0.2629708636 0.8023816255 0.0005782438 6.69684e-05 0.0002826963 -6.83182e-05 0.0348846163 -0.1122347304
625296250.0 -0.2547448173 0.8058714663 0.0003377223 -0.0001991139 0.0001297898 5.3054e-06 0.0340515344 -0.1123418176
630296220.0 -0.2461425425 0.8083448159 0.0004298784 0.0002428012 0.000171177 0.0001452445 0.0323667597 -0.1126306928
635296190.0 -0.2386667548 0.8101269342 0.0003340998 0.0001595985 0.0005117689 -2.3424e-06 0.0308441806 -0.1131429552
640296160.0 -0.2310223289 0.8123668061 0.0001625613 0.0002557312 6.17366e-05 -6.27378e-05 0.0294325244 -0.1133428277
645296130.0 -0.2226013967 0.8153956996 0.000155507 4.4291e-05 0.000445161 4.16277e-05 0.0281015039 -0.112873204
650296100.0 -0.2142815903 0.8169159164 0.0002089722 0.0002181723 0.0004647461 -9.87651e-05 0.0266807843 -0.1135751794
655296070.0 -0.2056476903 0.8194138656 0.0003600234 -0.0001781244 0.0003145737 5.47894e-05 0.0255675966 -0.1133588629
660296040.0 -0.1977633775 0.8208569261 0.0004157404 0.0001154682 0.0004797053 -1.30423e-05 0.0239729324 -0.1134195668
665296010.0 -0.1893917917 0.8224628117 0.0001472422 0.0001963751 0.0003679322 4.1783e-06 0.0223720423 -0.11316129
670295980.0 -0.1818160332 0.8252797974 0.0004307307 -0.000224226 0.0002804936 0.0001028539 0.0212742218 -0.1133582782
675295950.0 -0.1732304742 0.8262345074 5.90943e-05 -0.0003703437 0.000366328 1.79582e-05 0.0196044117 -0.1133867275
680295920.0 -0.1649920442 0.8281628041 0.0006231556 -0.000163446 0.0003834536 -3.50066e-05 0.0182167267 -0.113083267
685295890.0 -0.1564492414 0.8305164784 7.92312e-05 9.5409e-06 0.0002637707 -9.36055e-05 0.01714538 -0.113140693
690295860.0 -0.1487424063 0.8310877623 0.0001543541 -0.0001808155 0.0003745294 -0.0001235679 0.0155979125 -0.1126802352
695295830.0 -0.1404889628 0.8324846754 0.0004700957 -2.21966e-05 0.0002966646 -5.34322e-05 0.0138771343 -0.1128510689
700295800.0 -0.1312848321 0.8338439859 0.0003018752 4.89774e-05 0.0001908879 -0.0001437766 0.0123911963 -0.1128218672
705295770.0 -0.1238343239 0.8356040711 0.000558501 5.51947e-05 0.0002750308 -5.05042e-05 0.0110360899 -0.1121692577
710295740.0 -0.1155765998 0.8368822385 0.0004818633 0.0001923709 0.0004778568 -4.92519e-05 0.0091464879 -0.112324311
715295710.0 -0.1074250626 0.8377908913 0.0002706054 1.76125e-05 0.0003022794 5.91737e-05 0.0080718998 -0.1123471897
720295680.0 -0.099078448 0.8385582937 0.0004218652 6.977e-07 0.0004255228 -1.4918e-05 0.0064304443 -0.11220932
725295650.0 -0.0907270664 0.8394683488 0.0002803441 9.53242e-05 0.0004387899 -1.12955e-05 0.0048672364 -0.1116827722
730295620.0 -0.0817852266 0.8406241115 0.0001384557 -1.42215e-05 0.0002284156 8.81462e-05 0.0030657353 -0.1115694881
735295590.0 -0.0741597683 0.8413966969 0.0005059494 -7.61897e-05 0.0003781605 1.60585e-05 0.0015123344 -0.1117003682
740295560.0 -0.0653774416 0.8425339967 -9.85354e-05 -1.72419e-05 0.0006021306 2.36275e-05 0.0007254802 -0.111206635
745295530.0 -0.0576842244 0.8425494111 0.0004573664 -0.0001148601 0.0002780353 -2.67902e-05 -0.0011153811 -0.1112236684
750295500.0 -0.0484471235 0.8432176715 0.0004488586 1.46703e-05 0.000459458 -0.0001508888 -0.00270042 -0.1109944817
755295470.0 -0.0401277256 0.8437972494 0.0006489225 0.0001787134 0.0001876361 -2.79021e-05 -0.0039546311 -0.1110886263
760295440.0 -0.032508345 0.8432847418 0.0002315957 -7.134e-07 0.0004823936 -6.42765e-05 -0.0053878796 -0.1110112577
765295410.0 -0.0239596712 0.8441272047 0.0003090625 -0.0002684112 0.0003485373 1.18733e-05 -0.0071313117 -0.1104469769
770295380.0 -0.015925574 0.8443796178 0.0003298745 -0.0003176692 0.0004228047 -0.000156539 -0.0083354417 -0.1100671626
775295350.0 -0.007410534 0.8444359571 0.0004552557 -5.29292e-05 0.0003021446 -0.0001520814 -0.0098765359 -0.1101300233
780295320.0 0.0010752009 0.8445881443 0.0004404949 -4.7432e-05 0.0004568946 -0.0001140477 -0.0109077086 -0.1096048622
785295290.0 0.0090150468 0.8435132304 0.000470646 -0.0002120332 0.0002779492 -7.40103e-05 -0.0123110291 -0.1094932017
790295260.0 0.0182778054 0.8437701223 0.0001360079 -0.0001418987 0.0005083129 -0.0001986922 -0.0132173649 -0.1089919642
795295230.0 0.0256946713 0.8439300132 0.0005025942 -3.16893e-05 0.0004988676 7.3859e-06 -0.0147000006 -0.1087664972
800295200.0 0.0341292818 0.8435340458 0.0003816777 -5.0704e-05 0.0004611458 7.50299e-05 -0.0161587259 -0.1082905795
805295170.0 0.0431833184 0.843056249 0.0003718424 -0.0002152741 0.0002411399 -0.0001545946 -0.0176440698 -0.1080338472
810295140.0 0.0513187638 0.8425757115 0.0004879823 -0.0003251201 0.0004506758 -3.57363e-05 -0.018273749 -0.107400342
815295110.0 0.0592004385 0.842424383 0.0005709009 -0.0001328033 0.0003804244 -0.000193316 -0.0200398854 -0.1068021541
820295080.0 0.0675121167 0.841530967 0.0004351901 -0.0001130425 0.0004805344 -0.0001239385 -0.0210469859 -0.106704064
825295050.0 0.0767096232 0.8404070746 0.0005598224 -6.78875e-05 0.0003216577 -0.0002053233 -0.0221300868 -0.1059659268
830295020.0 0.0844401357 0.8403252414 0.0002261654 -2.93546e-05 0.000173347 -0.0001699042 -0.0233055661 -0.1054542794
835294990.0 0.0927687195 0.8389917398 0.0003189232 2.77036e-05 0.0006285144 8.53172e-05 -0.0248701735 -0.1047458732
840294960.0 0.1009866606 0.8387862328 0.0004010703 2.49894e-05 0.0004769897 -0.0001618862 -0.0259378819 -0.1039596211
845294930.0 0.108814002 0.837027305 0.000483289 0.0001175009 0.0003217179 -0.0002183885 -0.0275905475 -0.1037256054
850294900.0 0.1171582342 0.8362111117 0.0002956339 -7.09692e-05 0.0002188462 -0.0002963224 -0.0285761496 -0.102945538
