!Created with skrf (http://scikit-rf.org).
# Hz S RI R 50.0 
!freq ReS11 ImS11 ReS21 ImS21 ReS12 ImS12 ReS22 ImS22
300000.0 -0.0498660049 -0.0476195299 -5.57055e-05 0.0006440558 0.0018927295 0.0004722571 -0.7746406757 -0.1410270008
5299970.0 -0.0487997575 0.0155656 -7.21481e-05 -7.9595e-05 -7.2611e-06 -1.44729e-05 -0.7854321686 -0.0074162522
10299940.0 -0.0430860065 0.0318177529 0.0003608274 -2.89113e-05 3.2893e-05 -1.10401e-05 -0.7882393785 -0.003521545
15299910.0 -0.0350025761 0.0460006694 6.14311e-05 0.0003635547 -1.48177e-05 -6.68329e-05 -0.7931220842 -0.0013758713
20299880.0 -0.0251651118 0.057241948 0.0002027139 -1.88878e-05 3.42236e-05 -5.35718e-05 -0.7999129503 0.0021124861
25299850.0 -0.014578241 0.0666565417 0.0001520804 -0.0001076141 0.0001646141 0.0001671273 -0.8060822915 0.0082901719
30299820.0 -0.0034412845 0.0730195042 1.5379e-05 0.0001120663 0.0001128181 6.5026e-05 -0.8125668392 0.0161516069
35299790.0 0.0078340218 0.077551606 2.02532e-05 -0.0001809589 -4.26956e-05 3.93184e-05 -0.8168491333 0.0251627782
40299760.0 0.0190081628 0.0806926538 -3.86553e-05 0.0001451377 -9.86747e-05 4.04217e-05 -0.8208782957 0.0342938101
45299730.0 0.0295043925 0.0816284507 -6.248e-07 7.45492e-05 5.07911e-05 -3.52099e-05 -0.8251379581 0.0436131455
50299700.0 0.0394490301 0.0814821564 7.39187e-05 -7.67923e-05 -6.0527e-06 2.21946e-05 -0.8270218933 0.053936055
55299670.0 0.0482195549 0.0803047126 0.0001559901 4.70187e-05 -3.05648e-05 6.284e-07 -0.8295967535 0.0643909111
60299640.0 0.0568168978 0.0787855813 6.87022e-05 0.0001435779 7.98649e-05 -4.05761e-05 -0.830395158 0.0738989297
65299610.0 0.0642757361 0.0760738757 8.31497e-05 0.0001675224 2.6163e-06 -1.24136e-05 -0.8319207346 0.0842088259
70299580.0 0.0712253935 0.073396585 8.19263e-05 0.0001523381 -0.0001085939 -8.64246e-05 -0.8317318192 0.0947038231
75299550.0 0.0774879638 0.0701618152 0.000137716 3.37925e-05 7.88454e-05 4.5989e-05 -0.8318602597 0.1037606437
80299520.0 0.0830382776 0.0667688082 -1.64493e-05 0.0001713866 0.0001401385 0.0001496339 -0.8320916224 0.1137482137
85299490.0 0.0875721015 0.0628423461 9.1982e-06 3.54422e-05 -6.07156e-05 0.0001624744 -0.8314142684 0.1236575484
90299460.0 0.0918755051 0.0591137595 -0.0001256955 -0.0001671377 0.0001705778 -2.75081e-05 -0.8304215231 0.1330136288
95299430.0 0.0965002558 0.054823438 -5.93451e-05 0.0001069741 -5.38443e-05 1.69983e-05 -0.8294635064 0.1429173566
100299400.0 0.0996466522 0.051217684 -0.0002017017 -0.0001570008 0.0001101476 -6.45378e-05 -0.828642177 0.1520604111
105299370.0 0.1031907395 0.0472303508 0.0002549088 -0.0001192878 0.0001812486 3.46335e-05 -0.8268888071 0.1610581704
110299340.0 0.1060218337 0.0433000683 -2.93226e-05 0.0001259444 -0.0001211336 -3.27797e-05 -0.8256410866 0.1705976003
115299310.0 0.1084535688 0.0392639017 -4.49994e-05 4.0229e-05 -0.0001303106 -3.95703e-05 -0.8245239607 0.1797099281
120299280.0 0.1102906952 0.0352879491 -4.96056e-05 -0.0001887324 3.56325e-05 -4.9982e-06 -0.8220088237 0.1891127555
125299250.0 0.1118675195 0.0314073638 -0.0002578175 3.67835e-05 5.123e-05 -6.07513e-05 -0.8207931322 0.1977741229
130299220.0 0.1137893352 0.0279652079 -2.68992e-05 -0.0001642497 8.60557e-05 -0.0001049144 -0.8189538424 0.2066594815
135299190.0 0.1152045724 0.0243941527 -4.4595e-05 -1.90873e-05 -9.75752e-05 -0.000173521 -0.8168653215 0.2161559323
140299160.0 0.116258202 0.0206634903 0.000154615 -4.03058e-05 6.06513e-05 0.0001024633 -0.8141602839 0.2251847003
145299130.0 0.1175141017 0.0172271199 8.97642e-05 -0.000141657 0.0001134892 0.0002034031 -0.8120868926 0.2340647958
150299100.0 0.1184168619 0.013550684 0.0001257608 0.0002113349 0.0001273723 3.37013e-05 -0.8104131966 0.2429258951
155299070.0 0.1188962792 0.0104057146 0.0001468886 0.0001170832 4.33764e-05 -8.97781e-05 -0.8073439365 0.2517786444
160299040.0 0.1193025813 0.0073726423 4.62291e-05 -5.88466e-05 0.0002376984 9.33416e-05 -0.8052148281 0.2605371341
165299010.0 0.1200192349 0.0037946612 1.21293e-05 6.62465e-05 -5.3269e-05 3.0383e-06 -0.8029198534 0.2692986079
170298980.0 0.1201631179 0.0009440829 -3.24167e-05 3.45827e-05 0.0001098192 0.000338364 -0.7996002742 0.2778456226
175298950.0 0.1204355295 -0.0024343936 -8.09947e-05 0.0001249525 2.33336e-05 -4.4358e-05 -0.7966655819 0.286483353
180298920.0 0.1203710187 -0.0049325678 0.0001079259 -0.0001773201 -8.00484e-05 -0.0001724701 -0.793840948 0.2952188391
185298890.0 0.1207432111 -0.0080609153 -0.0001510124 0.0001343125 -0.0001508843 0.000149951 -0.7902774146 0.3035862603
190298860.0 0.1206503045 -0.0109054666 3.64056e-05 0.0001446461 0.0001194892 0.0001008188 -0.7881029139 0.3121832546
195298830.0 0.1200755082 -0.0137930688 2.90011e-05 9.60073e-05 1.35944e-05 0.000130663 -0.7847852024 0.3210622973
200298800.0 0.1200831397 -0.016319026 9.98911e-05 -0.0001092936 6.4969e-06 -8.4544e-06 -0.7820927431 0.3290382915
205298770.0 0.1197660878 -0.018947224 0.0001358218 -4.67252e-05 1.08407e-05 -0.0002217814 -0.7775643378 0.3369663784
210298740.0 0.1192834522 -0.0215025334 -0.0001092626 4.70674e-05 7.58125e-05 2.65778e-05 -0.773987524 0.3456875974
215298710.0 0.1188282629 -0.0242488791 -8.66691e-05 -3.80416e-05 3.43427e-05 0.0001544562 -0.7706132472 0.3536262401
220298680.0 0.1181171662 -0.0268182513 2.27018e-05 0.0002668077 -2.56758e-05 8.68071e-05 -0.7672811483 0.3621333568
225298650.0 0.1175595085 -0.0292581551 2.42949e-05 1.53382e-05 -0.0001515349 0.0002046992 -0.7637114652 0.3701047851
230298620.0 0.1170523855 -0.0314855392 5.1794e-06 -1.93457e-05 0.0001683068 0.0001647917 -0.7600808161 0.3781756011
235298590.0 0.116453455 -0.0337382452 3.222e-07 5.5211e-06 0.0002913001 -0.0001883517 -0.7555530644 0.3865593852
240298560.0 0.1157416421 -0.036329504 0.0001939098 0.0001103486 2.52274e-05 0.0001089547 -0.7513066821 0.3946270142
245298530.0 0.1150082794 -0.0385589005 0.0001770258 -3.01861e-05 -0.0002700562 0.0001224745 -0.74765342 0.4023707836
250298500.0 0.1141281619 -0.0403557792 -2.6176e-05 2.86292e-05 1.7943e-05 -0.0001556602 -0.7432147191 0.4093348477
255298470.0 0.1131430038 -0.0431196932 -5.88307e-05 4.25591e-05 3.08305e-05 0.0001245957 -0.7385040018 0.4179703874
260298440.0 0.1127069293 -0.0449414505 -3.5795e-05 0.0002499697 -0.0002118345 5.7799e-06 -0.7349376734 0.4259341232
265298410.0 0.1116689833 -0.0468481258 0.0002425452 0.0001455703 5.8662e-05 4.04865e-05 -0.7304144813 0.4336409794
270298380.0 0.1109258317 -0.0488619625 0.0003252298 0.0001808626 8.8152e-05 6.9704e-05 -0.725705402 0.4411872268
275298350.0 0.1097561028 -0.0508733185 -8.29101e-05 -6.54154e-05 0.000169859 -4.17339e-05 -0.7207960304 0.4484072335
280298320.0 0.1091016966 -0.0528643038 -8.77075e-05 -2.35332e-05 0.0001054126 -8.636e-06 -0.7158594031 0.4556961572
285298290.0 0.1083224654 -0.0543433081 9.57235e-05 0.0003858291 3.07978e-05 -5.66385e-05 -0.7109334243 0.4635886297
290298260.0 0.1071725723 -0.0566548501 0.0001488177 6.05377e-05 -3.5236e-06 4.74166e-05 -0.7062626995 0.470823033
295298230.0 0.10582512 -0.0586957877 0.0001786868 0.0001836592 5.18943e-05 4.58351e-05 -0.701354467 0.4775933574
300298200.0 0.1051091032 -0.0601028063 0.0001708498 0.0001983272 0.0001864365 0.0001088341 -0.6958263777 0.4854829099
305298170.0 0.1040879223 -0.0622762171 -1.63469e-05 0.0001939304 3.22135e-05 0.0002328014 -0.6904250658 0.4927803445
310298140.0 0.1029927263 -0.0637802456 0.0001174435 -4.31912e-05 -3.99819e-05 0.0001328353 -0.685702079 0.4996696241
315298110.0 0.1019227706 -0.0660107867 3.66426e-05 1.27611e-05 0.0001010612 4.72037e-05 -0.680213755 0.5067469536
320298080.0 0.1012322343 -0.0679744444 4.34567e-05 -0.0001744867 9.66468e-05 -7.2774e-06 -0.6747725577 0.5142223617
325298050.0 0.0993670186 -0.0695032591 -0.0001205987 -7.6374e-06 -0.0001485661 2.49906e-05 -0.6688976946 0.5210166906
330298020.0 0.0979403127 -0.0715160294 7.71588e-05 -8.20306e-05 0.000112657 8.47905e-05 -0.6638831018 0.5282457728
335297990.0 0.0966013566 -0.0734343129 0.0001800326 6.59348e-05 6.5051e-05 0.0001841453 -0.659219207 0.5350497726
340297960.0 0.0948706223 -0.074394171 6.13955e-05 0.000263152 2.8983e-06 3.22256e-05 -0.652764009 0.5424614716
345297930.0 0.0935186478 -0.0758824305 0.0002018635 0.0003027923 -1.53335e-05 -5.38157e-05 -0.6467407418 0.5483820695
350297900.0 0.0923104212 -0.0771911348 8.50969e-05 -9.9088e-06 2.55615e-05 4.89514e-05 -0.6414150906 0.5551695361
355297870.0 0.0907850433 -0.0786729758 -8.52087e-05 4.07027e-05 4.49211e-05 -9.2675e-05 -0.6359870995 0.5616257053
360297840.0 0.0894510338 -0.0798414071 0.0001069824 7.22736e-05 0.0001447948 -0.0001611178 -0.629719118 0.5690278238
365297810.0 0.0880564896 -0.0809989481 0.0001673691 -6.22034e-05 6.37656e-05 0.0001320636 -0.6231780353 0.5748284311
370297780.0 0.0866684961 -0.0824006523 3.63053e-05 2.89665e-05 0.0001225308 -4.98091e-05 -0.6174618819 0.5816926188
375297750.0 0.0854443125 -0.0838359529 -2.33931e-05 0.0002624823 6.37445e-05 0.0001427718 -0.6120764618 0.5879099822
380297720.0 0.0840186525 -0.0849277765 6.26704e-05 -2.73444e-05 0.000107249 0.000183242 -0.606004969 0.5941856643
385297690.0 0.0822273377 -0.0859470565 3.99099e-05 1.09233e-05 0.0001310831 1.17265e-05 -0.5993325327 0.600705164
390297660.0 0.0807643516 -0.0869298578 -0.0001755531 9.61113e-05 8.0617e-05 3.93869e-05 -0.5932678338 0.606607882
395297630.0 0.0794892825 -0.0881154071 2.62391e-05 3.53496e-05 7.45949e-05 -3.09629e-05 -0.5865902849 0.6131001656
400297600.0 0.0781759601 -0.0893920699 0.0003192923 -8.11119e-05 0.0002342728 -7.22987e-05 -0.5809611587 0.6185639837
405297570.0 0.0764603783 -0.090279811 -0.0001101299 0.0001677031 -8.8528e-05 -5.19844e-05 -0.5745682233 0.6243279382
410297540.0 0.0749717943 -0.0913513108 1.99188e-05 -9.04546e-05 -5.3499e-06 -3.48195e-05 -0.5677177501 0.6306953077
415297510.0 0.0738158914 -0.0929347436 0.0001723741 -4.0075e-06 1.60622e-05 -1.55615e-05 -0.5610021816 0.6362359716
420297480.0 0.0720591837 -0.093579513 0.0001005539 0.0002384215 -6.99313e-05 -5.6735e-06 -0.5543609308 0.642552585
425297450.0 0.0706354116 -0.0944863496 0.0002446741 0.0001619592 3.83824e-05 -2.09769e-05 -0.5479358711 0.6478593438
430297420.0 0.0692892245 -0.0955988633 0.0002043298 -7.77387e-05 0.0001679574 -0.0001175077 -0.5413149278 0.6526241479
435297390.0 0.0677786612 -0.0963067589 0.0002586073 -0.0001598472 0.0001556396 -5.49416e-05 -0.5339276929 0.6585193274
440297360.0 0.0660216117 -0.0974562515 -5.92065e-05 -6.50578e-05 0.0001306354 -0.00011521 -0.5273308705 0.663764917
445297330.0 0.0648080175 -0.0983288935 0.0002006171 0.0002545745 -8.41813e-05 0.00023772 -0.5204650011 0.6682080046
450297300.0 0.0634284026 -0.0992268043 2.32059e-05 -7.62387e-05 0.0001468916 -2.29214e-05 -0.5133636763 0.6744462233
455297270.0 0.0615666772 -0.0999355179 0.0001846227 -7.82793e-05 0.0001046761 6.50723e-05 -0.5064764434 0.678280369
460297240.0 0.0598441557 -0.1008307688 0.0002284959 0.0002454163 -1.51323e-05 0.0001365694 -0.4996107219 0.6839855409
465297210.0 0.0584980551 -0.1015314202 3.37893e-05 -0.0003076126 6.215e-07 5.54204e-05 -0.4918889984 0.6892487847
470297180.0 0.0569748597 -0.1027241866 0.0001839296 -0.0001290635 0.0001025313 5.06077e-05 -0.4850446542 0.694338193
475297150.0 0.0552668022 -0.1033331316 2.0143e-06 0.0002513078 6.39533e-05 2.99116e-05 -0.4776891493 0.6986939054
480297120.0 0.053938521 -0.1037195716 -6.88272e-05 3.32074e-05 0.0003185955 1.02904e-05 -0.4705304203 0.7036633652
485297090.0 0.0521355226 -0.1045208786 -4.85477e-05 -0.0001022341 6.57597e-05 4.93009e-05 -0.4632007373 0.7085351815
490297060.0 0.0503933332 -0.1048348334 0.0001950464 5.6173e-06 -3.54797e-05 0.0001091654 -0.4560871851 0.7125195629
495297030.0 0.0487563758 -0.1057506022 0.0001748033 0.0001848848 0.000349629 -2.34915e-05 -0.448847566 0.7182036427
500297000.0 0.047098533 -0.1062250178 9.84169e-05 6.5729e-06 0.00021279 5.54621e-05 -0.4411768793 0.7223369375
505296970.0 0.0457475293 -0.1069770623 0.0002403187 -0.0001287012 0.0001711448 6.25738e-05 -0.4343749871 0.726443146
510296940.0 0.0440702271 -0.1075344798 -5.7961e-05 1.61719e-05 3.85093e-05 -0.0001263978 -0.4261227481 0.7310704976
515296910.0 0.0423138204 -0.1081414323 0.0001912769 -0.0001330341 -5.49301e-05 -0.000123171 -0.4190941527 0.735328222
520296880.0 0.0407966681 -0.1085500476 0.0003305847 -6.48713e-05 2.49463e-05 4.67448e-05 -0.4117854047 0.7391918475
525296850.0 0.03927767 -0.1093796928 0.0002047021 0.0001371756 5.0556e-06 0.0001480593 -0.4043920011 0.7436223909
530296820.0 0.0372982937 -0.1094712936 7.91472e-05 9.383e-07 0.0001163103 5.27747e-05 -0.3968573605 0.7476170986
535296790.0 0.0359567273 -0.1100717304 0.0001517916 0.0002680842 8.90796e-05 -0.0001167284 -0.3894889355 0.751811006
540296760.0 0.0340507491 -0.1104000872 0.0001535047 0.0001698909 0.0001169336 0.0002154409 -0.381023647 0.7554464816
545296730.0 0.03224564 -0.1107439436 0.0001845575 -2.45247e-05 0.0001193333 9.7236e-06 -0.3733638075 0.759020808
550296700.0 0.0311521989 -0.1112464852 6.36573e-05 -1.70585e-05 -4.36244e-05 0.0001017333 -0.3656848305 0.7630044984
555296670.0 0.0290441952 -0.1115374453 4.30607e-05 -2.8035e-06 0.0002000148 -5.00689e-05 -0.3582635234 0.767196617
560296640.0 0.0278048422 -0.1118133205 0.0001504607 6.55046e-05 3.80723e-05 -5.78329e-05 -0.3506226655 0.7703643007
565296610.0 0.0258979113 -0.1120120368 0.0002118224 -6.5622e-05 0.000261666 -4.47787e-05 -0.3423281972 0.773605815
570296580.0 0.0240050905 -0.1121474751 0.0003975918 0.0001127928 0.0002127279 2.01937e-05 -0.3354007446 0.7777333837
575296550.0 0.022410095 -0.1122835007 -1.7607e-05 -4.90675e-05 0.0001348689 1.19066e-05 -0.3270758839 0.7806644578
580296520.0 0.020942073 -0.112800555 0.0001689667 0.0001623474 2.28848e-05 3.79841e-05 -0.3187978723 0.7839812489
585296490.0 0.0190398814 -0.1132626929 0.000152183 -0.0001123715 0.0003092763 2.87811e-05 -0.3105570722 0.7869364512
590296460.0 0.0177026368 -0.1131738426 0.0002154711 -0.0001176009 4.69391e-05 4.61444e-05 -0.3028982276 0.7905384792
595296430.0 0.0156809631 -0.1132412828 0.0004384631 0.0001516939 0.0001400243 6.19959e-05 -0.294645458 0.7924064059
600296400.0 0.0139917802 -0.1134677363 6.75698e-05 0.0001403801 0.0002364947 2.30746e-05 -0.2872264172 0.7956009488
605296370.0 0.0123607722 -0.1137584345 6.58538e-05 -2.0459e-05 -8.5413e-06 -7.72256e-05 -0.2781622896 0.7985246205
610296340.0 0.010531991 -0.1137180878 4.15464e-05 -0.0001212053 0.0001852847 2.9913e-05 -0.270295853 0.8010756201
615296310.0 0.0092187076 -0.1139241773 0.000253843 0.0001135177 9.87728e-05 0.0002104554 -0.2621214664 0.8032274354
620296280.0 0.0072805956 -0.1137350641 0.0002683256 0.0002191701 7.46273e-05 0.0001909652 -0.2544182468 0.8059149307
625296250.0 0.0058596663 -0.1141606952 0.0003226588 4.31149e-05 0.0001444822 7.80997e-05 -0.2456278035 0.8082489704
630296220.0 0.0043243445 -0.1141193009 0.0002006158 -5.40516e-05 -2.70145e-05 -7.30825e-05 -0.2375901901 0.8109717618
635296190.0 0.0021758736 -0.1139396546 -3.10905e-05 -6.41139e-05 -7.44588e-05 -2.42563e-05 -0.2299441133 0.8126931544
640296160.0 0.0008271119 -0.1139558778 1.75465e-05 -0.0001629918 -0.0001020156 -4.16594e-05 -0.2214309931 0.8157658619
645296130.0 -0.0011127492 -0.1135303301 0.0002995022 0.0001486232 0.0001147313 -1.82422e-05 -0.2133748962 0.8174182627
650296100.0 -0.0025884192 -0.1134504299 0.0001938704 3.17372e-05 0.0001292716 -4.72563e-05 -0.2052653402 0.8192308786
655296070.0 -0.0043127297 -0.1133966772 -1.41337e-05 4.08779e-05 0.0001444496 1.28203e-05 -0.1963664345 0.8206533674
660296040.0 -0.0060969037 -0.1134777375 0.0002404502 0.0001261024 0.0002342588 -3.05336e-05 -0.1876922485 0.8232428209
665296010.0 -0.0074309113 -0.1133171314 -3.06075e-05 -2.83448e-05 0.0001406079 1.576e-05 -0.1792109825 0.8256363718
670295980.0 -0.0096681066 -0.1128697748 0.0001371879 -2.36377e-05 0.0002067402 5.57798e-05 -0.1715800381 0.826691964
675295950.0 -0.0112754476 -0.1124966056 8.75375e-05 0.0001607283 0.0002592363 7.00751e-05 -0.1639159624 0.8287208093
680295920.0 -0.0127437157 -0.1124344968 -4.8937e-05 -2.77687e-05 0.0001557874 -0.0001129303 -0.1554135541 0.8306407896
685295890.0 -0.0141417509 -0.1118941184 0.0001954032 -6.49504e-05 -4.029e-05 -0.0001067947 -0.1464315554 0.8317333768
690295860.0 -0.0157011647 -0.111752671 0.0001375038 1.9934e-05 0.0003398004 0.0002233538 -0.1392030129 0.8337885686
695295830.0 -0.0174935915 -0.1111488137 7.67684e-05 0.0001438313 -5.3948e-06 -0.0001373715 -0.1296067579 0.8350172342
700295800.0 -0.019336723 -0.1112572271 0.0001707784 0.0001775381 0.0002542659 -3.892e-07 -0.1222902011 0.8365714349
705295770.0 -0.0211078307 -0.1105856412 0.0001043931 -0.0001719436 3.02044e-05 -5.7273e-06 -0.1138873428 0.8387117941
710295740.0 -0.0225270659 -0.110328264 -2.0491e-05 0.0001428367 -5.74127e-05 -7.5774e-05 -0.1051874119 0.8386223265
715295710.0 -0.0243982308 -0.1100314427 2.24998e-05 9.40146e-05 0.0001319465 -0.0002510102 -0.0967092108 0.8391410732
720295680.0 -0.0258114474 -0.1092780676 0.0002328754 1.12231e-05 -3.11833e-05 -0.0001966239 -0.0880733412 0.8407383308
725295650.0 -0.0273669147 -0.108965464 0.0002860002 1.11721e-05 0.0001158758 -2.15951e-05 -0.0797609971 0.8418481387
730295620.0 -0.0289113887 -0.1085120731 3.57235e-05 1.31881e-05 0.000331329 -8.61751e-05 -0.0726252812 0.8420155059
735295590.0 -0.0306755195 -0.1078046099 9.20241e-05 -1.30345e-05 -3.79038e-05 -8.79387e-05 -0.0637344281 0.8427144594
740295560.0 -0.0323632477 -0.107575461 5.35747e-05 2.92021e-05 -5.17776e-05 4.43003e-05 -0.0545468914 0.8435851439
745295530.0 -0.0339434886 -0.1069978387 2.15966e-05 1.65899e-05 9.30752e-05 2.13487e-05 -0.045957382 0.8434752773
750295500.0 -0.0354090192 -0.1061325874 2.99834e-05 -0.0002004259 0.0001907806 -0.0001288236 -0.0379241791 0.8437205599
755295470.0 -0.0370371353 -0.1055882121 0.0001948575 -0.0001429431 7.65891e-05 -3.99834e-05 -0.0291329976 0.8436218195
760295440.0 -0.0385640647 -0.1052045185 2.75199e-05 -0.0002137215 -1.57961e-05 5.67622e-05 -0.0211474463 0.8444354974
765295410.0 -0.0399854988 -0.104496999 0.0004367842 -0.0002067752 0.0001390911 -0.0002009114 -0.0127341338 0.8452918465
770295380.0 -0.0419242412 -0.1039331536 -0.0001485007 -3.58237e-05 0.0001300656 0.0002110805 -0.0043123104 0.8446234381
775295350.0 -0.043698226 -0.1034177672 -2.50659e-05 3.52888e-05 -5.5721e-06 9.54331e-05 0.003426446 0.8442889455
780295320.0 -0.0447418755 -0.1026186374 0.0002605768 -0.0001648289 6.97331e-05 -4.49476e-05 0.0122362095 0.8441393263
785295290.0 -0.0466726909 -0.1020710163 0.0001051838 0.0002860404 0.0002305777 -0.000239625 0.0211342194 0.8441174777
790295260.0 -0.0478165208 -0.101198176 6.85176e-05 -3.40152e-05 4.31068e-05 0.0002706316 0.0296039855 0.8439953258
795295230.0 -0.0493354508 -0.1003347114 8.71906e-05 -0.0002988271 -2.8074e-05 -8.7481e-06 0.0386683577 0.8428004096
800295200.0 -0.0512105397 -0.099512949 0.0002999593 7.018e-05 0.0001398688 2.52907e-05 0.047057194 0.8428562328
805295170.0 -0.0524509533 -0.0990366552 2.03468e-05 -0.0002302882 0.0001683275 -5.10304e-05 0.0545007029 0.8429966446
810295140.0 -0.0537559313 -0.0982713477 7.88547e-05 -7.94853e-05 0.0003956061 0.0001355379 0.0634181224 0.8413556072
815295110.0 -0.0553348726 -0.097445399 0.00012077 -0.0002182702 1.3942e-06 -0.0001968929 0.0715771632 0.8415083416
820295080.0 -0.0567321553 -0.0963499223 0.0003263346 -0.0002490476 -6.48797e-05 6.85719e-05 0.0798660191 0.8407160532
825295050.0 -0.0579246341 -0.0956751497 0.0001176534 -0.0002875029 -8.2184e-06 0.0001168251 0.0886924496 0.8400423351
830295020.0 -0.0595143522 -0.094773291 -0.000103564 -4.96595e-05 0.0001703129 -0.0001003728 0.0974103999 0.8386223132
835294990.0 -0.0610296472 -0.0936273444 0.0001507451 -2.75301e-05 0.0001878563 9.12739e-05 0.1050876593 0.8380716896
840294960.0 -0.0623680038 -0.0926286032 0.0002096527 0.0002325712 7.27794e-05 -1.13035e-05 0.1142307757 0.8362688429
845294930.0 -0.0636102482 -0.0918177619 9.39422e-05 0.0001006504 0.0001503264 -0.0001202103 0.1216650179 0.8350557716
850294900.0 -0.0648465519 -0.0905273182 -0.0001199986 -0.0001622111 -0.0001046988 -0.0001285376 0.1296001957 0.834390533
