!Created with skrf (http://scikit-rf.org).
# Hz S RI R 50.0 
!freq ReS11 ImS11 ReS21 ImS21 ReS12 ImS12 ReS22 ImS22
300000.0 -0.2395348946 -0.0697739075 0.4719552723 0.0466098858 0.4669579783 0.0468216849 -0.2411305922 -0.084166579
5299970.0 -0.2443705397 0.0076773452 0.4737194704 0.0050953051 0.4739764196 0.0050152171 -0.2446625797 0.0076096392
10299940.0 -0.2409350508 0.0189632809 0.4756941753 0.0057736999 0.4755657665 0.0062925323 -0.2412918422 0.0204523207
15299910.0 -0.2370123717 0.0281016177 0.4795395218 0.0076984275 0.479647123 0.0075616039 -0.2367390452 0.0296497801
20299880.0 -0.2324589805 0.0355005713 0.4842652452 0.0085869547 0.4841094376 0.0083602718 -0.2313237093 0.0371219448
25299850.0 -0.2268971508 0.041920293 0.489376168 0.0076653271 0.488963673 0.007519604 -0.2251917571 0.0439977569
30299820.0 -0.2216527568 0.046927085 0.4947326567 0.0052870395 0.4945094068 0.0055016053 -0.2194666015 0.0488184003
35299790.0 -0.2165160489 0.0512294664 0.499844361 0.0018550089 0.5002342431 0.002309003 -0.2139134668 0.0531714834
40299760.0 -0.2116705157 0.0550609597 0.5049800314 -0.0019339422 0.5051396151 -0.0017175583 -0.2085999616 0.0558658103
45299730.0 -0.2066104864 0.0577114351 0.5097949948 -0.006453307 0.5099368267 -0.0063867764 -0.2035659007 0.0585934113
50299700.0 -0.2025478555 0.0596988077 0.5144281292 -0.0118144758 0.5143720431 -0.0121421703 -0.1986800094 0.0604159499
55299670.0 -0.1984706557 0.0616984208 0.5179696747 -0.0184390904 0.5178572778 -0.0180359046 -0.1945528816 0.0620456425
60299640.0 -0.19423396 0.0635485046 0.5212692556 -0.0242169445 0.5217957533 -0.02413258 -0.1905370452 0.0629349456
65299610.0 -0.1911777335 0.0651295526 0.5240400587 -0.0307086628 0.5245223279 -0.0304405352 -0.187029615 0.0637782271
70299580.0 -0.1876147511 0.0660990468 0.5266963865 -0.0374050463 0.5267263956 -0.0369551687 -0.1838565432 0.064438869
75299550.0 -0.1849770592 0.0673657856 0.5287161839 -0.0439609001 0.5285492126 -0.0437417326 -0.1808074206 0.0650721483
80299520.0 -0.1823444161 0.0680999318 0.5304339543 -0.0512219847 0.5306161547 -0.0508390293 -0.1784938366 0.0659440719
85299490.0 -0.1800933254 0.0687925585 0.5316676283 -0.057615319 0.5319722501 -0.0571446484 -0.176056603 0.0658311913
90299460.0 -0.1779704154 0.069659429 0.5326559571 -0.064838649 0.5328883631 -0.064735894 -0.1735643388 0.0667742859
95299430.0 -0.1755899766 0.0703076036 0.5340901131 -0.0715792199 0.5336068568 -0.0716228553 -0.1712037219 0.0673965123
100299400.0 -0.1739098463 0.0714426112 0.5336861451 -0.0783754661 0.5340590614 -0.0786349848 -0.1692773084 0.0675191699
105299370.0 -0.1720071117 0.072202843 0.5341766734 -0.0856876847 0.5347809415 -0.0852875229 -0.1672924851 0.0681373677
110299340.0 -0.1703441708 0.0732489701 0.5350330124 -0.091875661 0.5343627838 -0.0919217069 -0.1666389293 0.0686089083
115299310.0 -0.168827608 0.074093455 0.5345744014 -0.0992054539 0.5341784188 -0.0991774684 -0.1647226778 0.0692375889
120299280.0 -0.1675719838 0.0746481782 0.5344024853 -0.1059446182 0.5345430779 -0.1061328327 -0.1636762993 0.0698411335
125299250.0 -0.1662442209 0.0754720235 0.533961534 -0.1121552138 0.5342920765 -0.1124406453 -0.1624466635 0.0701147413
130299220.0 -0.1651646514 0.0768028498 0.5335399893 -0.1193936782 0.5333910423 -0.1191057138 -0.1612790429 0.0704699763
135299190.0 -0.163631055 0.0779854225 0.5330384694 -0.1256644409 0.5329237394 -0.1256683249 -0.1600219599 0.0712802941
140299160.0 -0.1627956723 0.079176464 0.5318699702 -0.1326742938 0.5322098514 -0.132486949 -0.1590230975 0.0724082662
145299130.0 -0.1616563967 0.0799567505 0.531135685 -0.1387212682 0.5309316397 -0.1391448804 -0.1583639066 0.0731130516
150299100.0 -0.1601383543 0.0811698652 0.5296667873 -0.1452255396 0.529997176 -0.1452750238 -0.1571917485 0.0742093993
155299070.0 -0.1596746695 0.0822605046 0.5291162067 -0.1529820036 0.528780795 -0.1522064714 -0.1563680405 0.0748274164
160299040.0 -0.1583631992 0.0835435278 0.5274698103 -0.1586548398 0.5269021814 -0.1590955624 -0.1557989026 0.075636622
165299010.0 -0.1576610471 0.0849190402 0.5263361635 -0.1652912404 0.5261262672 -0.1654501606 -0.1549854347 0.0769465061
170298980.0 -0.1566253649 0.0856603679 0.5242695511 -0.1714577877 0.5244896617 -0.1717524317 -0.1537359141 0.0776856355
175298950.0 -0.1557253278 0.0870073284 0.5228858675 -0.1777116513 0.5227596664 -0.1777977943 -0.1534732306 0.0788468696
180298920.0 -0.1548438571 0.0882939838 0.5210739375 -0.1843210427 0.5209935928 -0.183936112 -0.1525448818 0.0796692417
185298890.0 -0.153439212 0.0894067885 0.5193030746 -0.1903790502 0.5191182531 -0.1900475976 -0.1517882243 0.0808849199
190298860.0 -0.1528298205 0.0911261374 0.5174766024 -0.1967757101 0.5174398742 -0.1966522521 -0.1509441197 0.0814210191
195298830.0 -0.1520336988 0.0921674416 0.5152032126 -0.2024136504 0.5154279142 -0.202478512 -0.1500313984 0.082801807
200298800.0 -0.1508006157 0.0936210476 0.5129851289 -0.20893093 0.5136177766 -0.2089399505 -0.1497645555 0.0839044643
205298770.0 -0.1499384328 0.0951589669 0.510971037 -0.2151088595 0.510863086 -0.2145596228 -0.1488040372 0.0846373768
210298740.0 -0.1490731224 0.0963959074 0.508458711 -0.2206570206 0.5090119346 -0.2205896121 -0.147727 0.0864771639
215298710.0 -0.1480677663 0.0977862901 0.5061014244 -0.2267898503 0.506395416 -0.2271071466 -0.1473904213 0.0874501473
220298680.0 -0.1471329426 0.0987152523 0.503515078 -0.2324259525 0.5035660796 -0.2323641719 -0.1468462778 0.08831366
225298650.0 -0.1461124958 0.1002156848 0.5015013862 -0.2386021418 0.5017949223 -0.2383045915 -0.146500866 0.0893575643
230298620.0 -0.1452881329 0.1021620402 0.4990202764 -0.2441841335 0.4995711608 -0.2441344616 -0.145641034 0.0904582102
235298590.0 -0.1443134533 0.1038279192 0.4964668939 -0.250085125 0.4964096035 -0.2495833852 -0.1444501692 0.0920684299
240298560.0 -0.1432274234 0.1048756625 0.4939090463 -0.2559188407 0.4938633569 -0.2559620707 -0.1439801854 0.0934106494
245298530.0 -0.1424988454 0.1063642889 0.4914138761 -0.2617414613 0.4908041787 -0.2616071048 -0.1427525208 0.0940191452
250298500.0 -0.1408648518 0.1078235617 0.4876236513 -0.2672598877 0.4877801986 -0.26669973 -0.1422765945 0.0954327587
255298470.0 -0.1399977686 0.1090681103 0.4845311726 -0.2723596729 0.4854226534 -0.2722628016 -0.1412917571 0.0965194124
260298440.0 -0.1392018783 0.1105672114 0.4820258876 -0.2782575064 0.4821809365 -0.2781055246 -0.1403073396 0.0979161692
265298410.0 -0.1377554912 0.1125765975 0.4794072073 -0.2840650944 0.4792260392 -0.2837358777 -0.1395878935 0.0994696066
270298380.0 -0.1370518547 0.1136112956 0.4764179889 -0.2892937506 0.4762404354 -0.2890351629 -0.1389505934 0.100968917
275298350.0 -0.1350100866 0.1149801728 0.4728074653 -0.2948766726 0.4734373388 -0.2944663368 -0.1376967443 0.101976956
280298320.0 -0.1342353886 0.1169555099 0.4699603906 -0.3001856001 0.4698435069 -0.2997978625 -0.1366559284 0.1035295194
285298290.0 -0.1329227231 0.1181959417 0.4666128278 -0.3051892945 0.4665217731 -0.3055326958 -0.1359134763 0.104452628
290298260.0 -0.1315091826 0.1195953941 0.4628202649 -0.3106064375 0.4635630369 -0.3107838468 -0.1349293028 0.1061451565
295298230.0 -0.1304031751 0.1210398008 0.4598502625 -0.3156543741 0.4599048442 -0.3155858707 -0.1338182477 0.1068246247
300298200.0 -0.1293202001 0.1223726414 0.456867844 -0.3206820027 0.4568747273 -0.3213128325 -0.1330662037 0.1082867378
305298170.0 -0.1278937313 0.1237659303 0.4527655023 -0.3262887775 0.4529578691 -0.3263979687 -0.131258633 0.1094783016
310298140.0 -0.1269279621 0.125272914 0.4494750187 -0.3313512044 0.4496850001 -0.3314882831 -0.1306923055 0.1107602566
315298110.0 -0.1253303676 0.1263241739 0.4462023202 -0.3367764403 0.4458204811 -0.3364702909 -0.1299390613 0.1116751031
320298080.0 -0.1239487679 0.1278197556 0.4416339152 -0.3422311995 0.4419089471 -0.3419502953 -0.1287737402 0.1129748688
325298050.0 -0.1227577962 0.1290922871 0.4380827658 -0.3469595377 0.4383066139 -0.3471995674 -0.1284467577 0.1141995956
330298020.0 -0.1214491479 0.1303137807 0.4338329332 -0.3519703118 0.4342780952 -0.3518945096 -0.1277001391 0.1152448546
335297990.0 -0.1202874398 0.1312384931 0.4300338795 -0.3565821679 0.4299716801 -0.3567160729 -0.126770542 0.11705803
340297960.0 -0.1194402314 0.1330764462 0.4256387902 -0.3612865967 0.4252358693 -0.3616000516 -0.1253672544 0.118420225
345297930.0 -0.1182250841 0.134670031 0.4215282025 -0.3664369929 0.4217402754 -0.3664275371 -0.1245828204 0.1192097779
350297900.0 -0.1167081513 0.1356377366 0.4169388718 -0.3708181265 0.4174889068 -0.370851928 -0.1241231258 0.1210423895
355297870.0 -0.1150308592 0.1377100396 0.4132516792 -0.3754808283 0.4138001278 -0.3753165742 -0.122927553 0.1223801318
360297840.0 -0.1137466166 0.1388112308 0.4098058214 -0.3797952795 0.4098921823 -0.3798221862 -0.1219303742 0.1235530508
365297810.0 -0.1126491368 0.1403400189 0.4051844237 -0.3845263135 0.4055564373 -0.3845217002 -0.1206432112 0.1249282764
370297780.0 -0.1107329884 0.1416355466 0.4007288637 -0.3892443889 0.4014848141 -0.3886838646 -0.1191992364 0.1262241945
375297750.0 -0.1093578713 0.1429204318 0.3969967387 -0.3932509073 0.3968994998 -0.3938011272 -0.118009055 0.1272543525
380297720.0 -0.1078064168 0.144465292 0.3919922672 -0.3977143439 0.3926346851 -0.3971484387 -0.1173329108 0.128663238
385297690.0 -0.1066022586 0.1456232072 0.3878625356 -0.4017672365 0.3877233173 -0.4018955789 -0.1158222014 0.130041905
390297660.0 -0.104925046 0.1471447569 0.3833784027 -0.4060339683 0.3832905667 -0.4061218379 -0.1149819806 0.131195688
395297630.0 -0.1029228827 0.1483251905 0.3789911558 -0.4102920613 0.3788750757 -0.4102105132 -0.1128801177 0.1321730041
400297600.0 -0.1020022392 0.1496413018 0.3741560013 -0.4148785331 0.3743419 -0.4146060452 -0.1121017103 0.1335256675
405297570.0 -0.1002073278 0.1507323368 0.3700084335 -0.4183967905 0.3701618334 -0.4184664718 -0.1114256399 0.1348791123
410297540.0 -0.0983401416 0.1519555072 0.3652553854 -0.4230750616 0.3659215367 -0.422681336 -0.1099760462 0.1365354287
415297510.0 -0.0966842623 0.1529534404 0.3602531355 -0.4267666443 0.3607340147 -0.427036057 -0.1085684758 0.1376718285
420297480.0 -0.0953222916 0.1546788825 0.355580291 -0.4305237734 0.3560675986 -0.4309719144 -0.1071975892 0.1383226236
425297450.0 -0.0934671041 0.1553320912 0.3512830432 -0.434173026 0.3517505407 -0.4346213296 -0.1064909791 0.1400614708
430297420.0 -0.0920379582 0.1565684291 0.346284345 -0.4376685662 0.3463142032 -0.4381450372 -0.1053612756 0.14081618
435297390.0 -0.0903058783 0.1579374038 0.3416126082 -0.4423532903 0.341181999 -0.4421614722 -0.1031258538 0.1420079104
440297360.0 -0.0884831073 0.1590475366 0.3370302195 -0.4451939026 0.3365894224 -0.4459766956 -0.1024080647 0.1429027645
445297330.0 -0.0870350277 0.1598377114 0.3321883822 -0.4494888844 0.3320238311 -0.4490753557 -0.1008836368 0.1438861287
450297300.0 -0.0848970911 0.1606304601 0.3271374603 -0.4531254469 0.3270918542 -0.452934701 -0.0993558779 0.1450841472
455297270.0 -0.0833076159 0.1621743939 0.321278679 -0.4568566432 0.3220212478 -0.4563299922 -0.098054599 0.1463667877
460297240.0 -0.0817116318 0.1633117368 0.3166580728 -0.4595912536 0.3170334257 -0.4599741365 -0.0966750089 0.147471217
465297210.0 -0.0796262302 0.1642182347 0.3120693444 -0.4631765484 0.3119093419 -0.4638990608 -0.0952113786 0.1483313317
470297180.0 -0.0779740178 0.1651530237 0.3063124059 -0.4666774789 0.3065331055 -0.4667939667 -0.093641752 0.1498833021
475297150.0 -0.0760703692 0.1663117726 0.3011732929 -0.4695651042 0.3014138196 -0.4692916809 -0.0919683709 0.1502140793
480297120.0 -0.0741806282 0.1674187508 0.2964720223 -0.4733916251 0.2965320829 -0.4735037288 -0.090603651 0.1514200289
485297090.0 -0.0724661581 0.1684255826 0.2914753747 -0.4760154515 0.291283995 -0.4761351284 -0.0891747335 0.1525633839
490297060.0 -0.0709531224 0.169364059 0.2865611567 -0.4798382218 0.2864348877 -0.4792583069 -0.08753211 0.1539278143
495297030.0 -0.0689427702 0.1700459147 0.2804690479 -0.4824486787 0.2811581343 -0.4824072757 -0.0869434143 0.1544940014
500297000.0 -0.0670191997 0.1710881728 0.275390596 -0.4853173346 0.2753556751 -0.4854350313 -0.0849171497 0.1564444328
505296970.0 -0.0649177115 0.1717772612 0.270067031 -0.4881351735 0.2700049807 -0.4885023651 -0.0836999154 0.1568556266
510296940.0 -0.0630696864 0.1727998675 0.2647703939 -0.4917420401 0.2647322107 -0.4916510084 -0.0818052185 0.1579679646
515296910.0 -0.0610499174 0.1736999798 0.2593638791 -0.4945840408 0.2591363884 -0.4940943189 -0.0803781639 0.1588382842
520296880.0 -0.0594494098 0.1744682904 0.2540939943 -0.4976224195 0.2540435488 -0.4968797714 -0.0790557312 0.1592649075
525296850.0 -0.0571064393 0.1747608107 0.2481435266 -0.4998456006 0.2490696883 -0.4995787495 -0.0776944392 0.1603584973
530296820.0 -0.0554834174 0.1760115646 0.2431998245 -0.5027331692 0.2432639929 -0.5024470768 -0.0758327923 0.1614831044
535296790.0 -0.0541814383 0.1767661845 0.2381219895 -0.5046636555 0.2381581888 -0.5044961532 -0.0745222633 0.1618470202
540296760.0 -0.0517041263 0.1775130083 0.2319413452 -0.5078995106 0.2321190604 -0.5077564582 -0.0729303159 0.163298657
545296730.0 -0.0498934863 0.178011749 0.2263998186 -0.509597573 0.2267389872 -0.5100252908 -0.0714859797 0.1637176412
550296700.0 -0.047655808 0.1790501857 0.2210871986 -0.5122023941 0.2212868844 -0.5125118105 -0.0700396346 0.1646093991
555296670.0 -0.0461563756 0.179309176 0.2156601454 -0.5145613627 0.2155773703 -0.5145360335 -0.0680833387 0.165702336
560296640.0 -0.043624788 0.1801618927 0.2100202805 -0.5172385294 0.2099635981 -0.5170549344 -0.0665213662 0.1663339449
565296610.0 -0.0419356757 0.1810833607 0.2040963123 -0.51927376 0.2042703727 -0.519465833 -0.0649829095 0.1667793678
570296580.0 -0.0401488716 0.1814598335 0.1983494551 -0.5219182766 0.1983639518 -0.5217482254 -0.063514878 0.1686457261
575296550.0 -0.038473227 0.182153033 0.1930523548 -0.5237277712 0.192920371 -0.5237084851 -0.0618524946 0.1689884324
580296520.0 -0.035844434 0.1826050677 0.1870080091 -0.5260662753 0.1873692389 -0.5256369767 -0.0598531501 0.1694933798
585296490.0 -0.0339904816 0.1826339966 0.1817096488 -0.527129031 0.1816603968 -0.5276138105 -0.0583430574 0.170063601
590296460.0 -0.0315562543 0.1837141161 0.1757547858 -0.5292319756 0.1758259859 -0.5291782736 -0.0572417193 0.1710066215
595296430.0 -0.0295820271 0.1841404479 0.1697767927 -0.5313534237 0.1698643038 -0.5317515059 -0.0554305398 0.1716125205
600296400.0 -0.0280074314 0.1846178881 0.164578495 -0.533227646 0.1645122971 -0.5329645441 -0.0537237205 0.1723942826
605296370.0 -0.026098971 0.1852915586 0.1583050219 -0.534922782 0.1588926432 -0.5345718064 -0.051609289 0.1730583888
610296340.0 -0.0238112832 0.1853441321 0.1522593176 -0.5365135276 0.1526679748 -0.53670792 -0.0501226448 0.1735373361
615296310.0 -0.02183453 0.1856131745 0.1464587836 -0.5381119209 0.1469249501 -0.5383463871 -0.0482257121 0.174231358
620296280.0 -0.0196459473 0.1857072131 0.1410679428 -0.5394122987 0.140850995 -0.5391289508 -0.0469951392 0.1749576813
625296250.0 -0.0178741357 0.1861597978 0.1353546772 -0.541299129 0.135248866 -0.5410441186 -0.0445173141 0.1755505136
630296220.0 -0.0150025225 0.1869314442 0.1285175887 -0.5423169222 0.1289486008 -0.542319632 -0.0432365366 0.176229018
635296190.0 -0.0136882757 0.1869288904 0.1234245251 -0.5434162966 0.1231202297 -0.5436234073 -0.0416693771 0.1765687909
640296160.0 -0.0114683683 0.187291811 0.1173984874 -0.5445865461 0.1176138358 -0.5447489199 -0.0396922094 0.1773423916
645296130.0 -0.0094097993 0.187639478 0.1109805069 -0.5459510064 0.111818963 -0.54594558 -0.0381776736 0.177774519
650296100.0 -0.0071844279 0.1877904356 0.1055953383 -0.5472414186 0.1057100043 -0.5471687446 -0.0361308066 0.1779984745
655296070.0 -0.0053594456 0.1879471193 0.099553051 -0.5484946703 0.1000621749 -0.5486024188 -0.0343971228 0.1786999982
660296040.0 -0.0036265338 0.1881360549 0.0938511575 -0.5494032414 0.0940835526 -0.5494718281 -0.0326535154 0.1790431884
665296010.0 -0.0009264985 0.1881202722 0.0874390072 -0.5500032963 0.0877152987 -0.5501583596 -0.0308868553 0.1801411164
670295980.0 0.0003444209 0.1886794257 0.081795854 -0.5510921428 0.0822751413 -0.5511433077 -0.0294914881 0.1804225408
675295950.0 0.0026754725 0.1886455914 0.0760467063 -0.5518013254 0.0760975621 -0.5515846866 -0.0281777489 0.1806746323
680295920.0 0.0048776468 0.1883622718 0.0695014208 -0.5522866321 0.0695069159 -0.5531432881 -0.0259779252 0.1813830791
685295890.0 0.0068677774 0.1891366814 0.063742108 -0.5535056349 0.0640727997 -0.5531524902 -0.0244405302 0.181985795
690295860.0 0.0093098178 0.1890769882 0.0576097336 -0.5533043836 0.0581803268 -0.5544956065 -0.0227899574 0.1826612556
695295830.0 0.0111254736 0.1889347208 0.052247276 -0.5544999329 0.0517486199 -0.5544295449 -0.0209280077 0.1825995128
700295800.0 0.0130517131 0.1885940815 0.0460447098 -0.5549650855 0.0458333297 -0.5548567167 -0.0191436742 0.1834545025
705295770.0 0.0149177436 0.1890726614 0.0398017892 -0.5552958743 0.0402177811 -0.5557592564 -0.017239388 0.183754971
710295740.0 0.017505707 0.1890456366 0.0343321668 -0.5563971289 0.0341462465 -0.556164754 -0.0151300384 0.1833363928
715295710.0 0.0191726793 0.188616206 0.0284267354 -0.5560622574 0.027706995 -0.5564060832 -0.0136825066 0.1838811958
720295680.0 0.0214424661 0.1886922136 0.022310784 -0.5566704065 0.0222856429 -0.5566008106 -0.0117147964 0.184450943
725295650.0 0.0236760164 0.1885610317 0.015922691 -0.5565463935 0.0161812696 -0.5569438374 -0.0104300248 0.1851168044
730295620.0 0.0256867401 0.1887840943 0.0101630683 -0.5566383391 0.010077552 -0.5567654945 -0.0085907278 0.1846058726
735295590.0 0.0276405472 0.1886898768 0.0041942127 -0.5567853789 0.0040017455 -0.5568640898 -0.0069427656 0.1848117658
740295560.0 0.0293184274 0.1884754824 -0.0019177328 -0.5567584342 -0.001636642 -0.556864293 -0.004597366 0.1853210764
745295530.0 0.0316079622 0.1881882281 -0.0077921753 -0.5562649741 -0.0080359476 -0.5569288871 -0.0030031147 0.185161571
750295500.0 0.0340727644 0.187801041 -0.0139722236 -0.5566659035 -0.013922581 -0.556490645 -0.0010597734 0.1854685283
755295470.0 0.0359218809 0.1875495178 -0.0196805433 -0.5560756018 -0.0195363943 -0.5566755506 0.000863803 0.1854674161
760295440.0 0.0378789585 0.1876401607 -0.0260530905 -0.5563890663 -0.026258538 -0.5563556398 0.0026867891 0.1856761516
765295410.0 0.0400355118 0.1874227157 -0.0320376668 -0.5556848237 -0.0322848213 -0.5560067683 0.0047348212 0.1859663597
770295380.0 0.0417068247 0.1868550021 -0.0380762146 -0.5552987443 -0.0380038726 -0.5549792319 0.0059092473 0.1856481558
775295350.0 0.043745435 0.185958113 -0.0438842916 -0.5546507845 -0.0436968607 -0.5545281968 0.0075891806 0.1860197259
780295320.0 0.0461374251 0.1861869751 -0.0495726789 -0.5539262313 -0.049587851 -0.5541057452 0.0096372905 0.185666933
785295290.0 0.0478603077 0.1852717561 -0.0563626111 -0.5531647907 -0.0559218386 -0.553463305 0.0120262081 0.1861404966
790295260.0 0.0507586998 0.1854800527 -0.06157506 -0.5529024628 -0.0609116196 -0.5526878127 0.0137167098 0.1863162055
795295230.0 0.052278376 0.1847539708 -0.0676365683 -0.5520905645 -0.0670680113 -0.5524536464 0.0156572226 0.1864636467
800295200.0 0.0542241145 0.1845809302 -0.0739057106 -0.5512959947 -0.0736167031 -0.5515699092 0.0174559654 0.1862614923
805295170.0 0.0563763099 0.1838545434 -0.0798415948 -0.5504859002 -0.0795364877 -0.5506902973 0.0190098387 0.1862700263
810295140.0 0.0582142055 0.1830696729 -0.0851691866 -0.5492319463 -0.0850932405 -0.5498578168 0.0210465014 0.186419645
815295110.0 0.0604403246 0.1823111007 -0.0915619347 -0.54814679 -0.0911202117 -0.5490034218 0.022767157 0.1864183548
820295080.0 0.0620539756 0.1825218102 -0.0973982615 -0.5467989578 -0.0970009874 -0.547451327 0.0246001501 0.1864275521
825295050.0 0.0647057395 0.1817562512 -0.1028717089 -0.5462071647 -0.1030942506 -0.5466428683 0.0265193199 0.1866173195
830295020.0 0.0665078429 0.1811860104 -0.1091590366 -0.5446123953 -0.1090074954 -0.5448954452 0.0290707257 0.1864278908
