!Created with skrf (http://scikit-rf.org).
# Hz S RI R 50.0 
!freq ReS11 ImS11 ReS21 ImS21 ReS12 ImS12 ReS22 ImS22
300000.0 0.860261067 -0.002062604 -0.0002241199 2.47425e-05 -0.0003568217 -8.39228e-05 -0.7722943632 -0.1660388297
5299970.0 0.8593752177 -0.0101166351 5.02422e-05 9.16754e-05 0.0002226445 -9.8088e-05 -0.7843532909 -0.008613449
10299940.0 0.8587189309 -0.0190675383 9.2699e-06 9.2371e-06 -7.89059e-05 -0.0002065568 -0.7880356862 -0.005070727
15299910.0 0.8582554833 -0.0278526765 0.0001287394 4.55306e-05 8.94832e-05 -5.74001e-05 -0.7935980882 -0.0030459811
20299880.0 0.8574378534 -0.0360026342 2.17111e-05 2.12271e-05 0.0001354583 -2.3061e-06 -0.8003506511 0.0017996783
25299850.0 0.8567966491 -0.0435834906 -0.0002569505 -9.84777e-05 -4.44443e-05 0.0002900139 -0.8062972009 0.0071699932
30299820.0 0.8557967328 -0.0521534737 -7.12002e-05 8.69443e-05 -0.0001646862 -7.3135e-05 -0.8123821417 0.0150482598
35299790.0 0.8550108332 -0.0603772298 -0.0001879582 0.000258843 -2.22625e-05 0.000152641 -0.817791914 0.0240735835
40299760.0 0.8544935825 -0.0682679293 -4.93066e-05 -4.605e-07 8.93602e-05 2.36492e-05 -0.8217061158 0.0333793521
45299730.0 0.8534728514 -0.0767077691 0.0001590304 -1.6442e-06 6.14489e-05 0.0001254868 -0.8250347076 0.0424738169
50299700.0 0.85243707 -0.0855189769 -0.0001405179 8.3862e-05 -4.74574e-05 -0.0001432063 -0.8279220645 0.0523736455
55299670.0 0.8515022678 -0.093257922 0.0001214666 8.79587e-05 -0.0001521496 -4.78356e-05 -0.8300627985 0.0628794806
60299640.0 0.850670998 -0.1013072897 -0.0001155221 0.0001917967 -0.0001481796 -9.29032e-05 -0.830641414 0.0733084523
65299610.0 0.8497795265 -0.109398862 4.45655e-05 -6.50076e-05 -0.0001824294 5.9336e-06 -0.8315046242 0.0827753818
70299580.0 0.8487220367 -0.1176397022 0.0001254853 -0.0002234991 6.4455e-06 4.47594e-05 -0.8322656185 0.0931562108
75299550.0 0.8476161084 -0.1262895826 0.0001283783 -9.3128e-06 -4.18177e-05 0.0002110742 -0.8320687914 0.1028205027
80299520.0 0.845430029 -0.1348926155 6.86958e-05 -0.000103369 -0.0001751429 0.0002020246 -0.8320608712 0.1122499689
85299490.0 0.8452270853 -0.1423608776 -5.02048e-05 -0.0002094397 0.0001466116 -3.12047e-05 -0.8320718861 0.1216944672
90299460.0 0.8435863918 -0.1502868636 3.118e-07 2.23082e-05 5.43256e-05 -0.0001497707 -0.8312020989 0.1312388606
95299430.0 0.8415400301 -0.1589733973 9.07482e-05 -0.0001339669 -0.0001922004 4.71894e-05 -0.8298943122 0.1414405018
100299400.0 0.8394295275 -0.1665575108 -1.60864e-05 -1.18634e-05 5.95732e-05 5.57861e-05 -0.8290026769 0.1494864333
105299370.0 0.8380422948 -0.1754303579 0.0001012926 0.0001270715 7.33754e-05 -2.74812e-05 -0.8275980565 0.1587424777
110299340.0 0.8361802944 -0.1833306237 -2.71658e-05 -0.0001414767 3.73848e-05 3.77787e-05 -0.8271020102 0.1681811247
115299310.0 0.8345679187 -0.1920505419 7.16684e-05 -5.8587e-05 -9.98513e-05 -7.97144e-05 -0.8247922718 0.1772727513
120299280.0 0.8329823116 -0.1995863993 -0.0001090935 0.0001809834 0.0001383481 8.2696e-05 -0.8236045055 0.1857606783
125299250.0 0.8302929698 -0.2083996991 -8.61433e-05 6.00986e-05 -7.06955e-05 7.77685e-05 -0.8217028158 0.1952837733
130299220.0 0.8286046104 -0.2156251287 0.0001150485 3.7324e-05 0.0002439904 -5.837e-05 -0.8205352555 0.2042397873
135299190.0 0.8260726819 -0.2236012963 -0.0002053699 -4.8057e-06 6.15098e-05 -0.0001372957 -0.8178336167 0.2128768715
140299160.0 0.824596421 -0.2315907667 -3.68776e-05 5.0658e-05 0.0002122169 -3.84171e-05 -0.815509125 0.2220963421
145299130.0 0.8218315105 -0.239234146 -1.59556e-05 3.00913e-05 4.6642e-06 -0.0001920772 -0.813714264 0.2305933059
150299100.0 0.8192423738 -0.2473266057 0.0001516962 0.000162136 -6.95165e-05 -1.51312e-05 -0.8117238254 0.2387129159
155299070.0 0.8165709749 -0.2557360986 2.92338e-05 -9.03497e-05 -8.084e-07 -0.0001229336 -0.8094607903 0.2476182284
160299040.0 0.8145423297 -0.2638118829 -8.5797e-06 6.59701e-05 -0.000183163 -0.0001033401 -0.8074658255 0.2561464896
165299010.0 0.8118742103 -0.2710854711 8.44176e-05 0.0001884623 3.5984e-06 3.12499e-05 -0.8044482435 0.2647751474
170298980.0 0.8090173736 -0.2795062178 -2.9433e-06 0.0001063911 -0.0001410187 -0.0001285206 -0.8014892411 0.2737877127
175298950.0 0.8066571734 -0.2871014036 7.79704e-05 7.75682e-05 3.62409e-05 8.10673e-05 -0.7990207665 0.2818609248
180298920.0 0.8032743101 -0.294942589 -0.0001297972 -1.87997e-05 -0.0001790175 0.0001268111 -0.7953816132 0.2905626874
185298890.0 0.7999973065 -0.3028364361 2.01569e-05 2.40416e-05 -1.38178e-05 -3.94718e-05 -0.7931206564 0.2986898119
190298860.0 0.7976685843 -0.3103553301 4.19022e-05 5.98621e-05 -0.0001074309 -0.0001276255 -0.7896060078 0.3072977276
195298830.0 0.79458311 -0.3182257822 -6.4453e-06 -0.0001087221 -7.26872e-05 5.6014e-05 -0.7866593222 0.3157840273
200298800.0 0.7912361471 -0.3263926006 -0.0001355611 -0.0001382481 4.16049e-05 -0.0001155287 -0.7829760446 0.3239196907
205298770.0 0.7880231253 -0.3338966258 -2.92656e-05 2.03039e-05 -3.06625e-05 -0.0001566767 -0.7798467922 0.3321909103
210298740.0 0.7853921985 -0.341624226 0.0001013879 0.0001601632 -7.71685e-05 0.0001663853 -0.7766785932 0.3408129942
215298710.0 0.7816305547 -0.3483406107 -0.0002457351 0.0001811331 -5.1144e-06 -9.03818e-05 -0.7730566504 0.3484147672
220298680.0 0.778161665 -0.3568541742 2.48776e-05 -0.0002672362 -8.09367e-05 2.70165e-05 -0.7693855607 0.356765077
225298650.0 0.7740806488 -0.3634348036 -0.0001029499 -0.0002287291 -2.20864e-05 -0.0001081472 -0.7656567939 0.364846058
230298620.0 0.7708641248 -0.37193687 3.43233e-05 0.0001361169 2.95126e-05 0.0001022811 -0.7616336107 0.3725695621
235298590.0 0.7671295017 -0.378905346 1.70226e-05 -0.0002472314 0.00017375 -2.49464e-05 -0.7577609634 0.3807141571
240298560.0 0.7631798537 -0.3868632463 7.03924e-05 -5.13515e-05 0.0002552336 -1.29368e-05 -0.7537707516 0.3887781552
245298530.0 0.7597673983 -0.3935577712 0.0002915211 9.4585e-06 -0.0001755827 0.0001094409 -0.7495756898 0.3966362547
250298500.0 0.7560078896 -0.4011814979 -3.26823e-05 0.0001227735 -0.0001000334 -7.89429e-05 -0.7455123158 0.4045145502
255298470.0 0.7520585634 -0.408138893 0.0001566989 -5.67811e-05 4.5513e-06 -0.0001090519 -0.7409193799 0.4124590035
260298440.0 0.7472345203 -0.4153714519 6.05537e-05 2.406e-05 9.26783e-05 0.0001275266 -0.736402209 0.4198390162
265298410.0 0.7440041794 -0.4225804701 2.8476e-06 -4.68869e-05 4.68157e-05 -8.12452e-05 -0.7322639911 0.42764591
270298380.0 0.7400527962 -0.4300478871 0.0001583795 0.0001267306 3.63145e-05 -0.0001225232 -0.727554051 0.435651067
275298350.0 0.7359033582 -0.4370881371 0.0001189654 1.717e-05 -0.0001323207 -0.0002133227 -0.7228507604 0.4428941558
280298320.0 0.7320309294 -0.4443717685 -6.25041e-05 0.0003757226 3.82113e-05 -3.93321e-05 -0.7181270348 0.4499987223
285298290.0 0.726897827 -0.4515487405 -5.93931e-05 -0.0002087899 -3.552e-07 0.0001162634 -0.7132088384 0.4579410168
290298260.0 0.7236463458 -0.4583142585 -0.0001302776 -0.0001798552 5.8309e-05 6.53987e-05 -0.7085533992 0.4657475415
295298230.0 0.7190018218 -0.4661143371 -4.4515e-06 -8.93303e-05 -1.7774e-06 0.0001347217 -0.7034639423 0.4729371897
300298200.0 0.7149258678 -0.4735882749 -4.52116e-05 2.23545e-05 0.0003154927 3.85572e-05 -0.6985101271 0.4801582096
305298170.0 0.7104103809 -0.4797011464 -4.39075e-05 -1.07675e-05 -0.0002628125 6.93528e-05 -0.6932199846 0.4876780424
310298140.0 0.7059395602 -0.4882938656 6.18996e-05 -7.39962e-05 0.0002995267 0.000279588 -0.688645685 0.495083789
315298110.0 0.7006465589 -0.4957330893 -0.0002437678 -0.0001944204 -4.83625e-05 -9.9741e-06 -0.6828918118 0.5021010086
320298080.0 0.6949541477 -0.5025712135 7.89617e-05 -0.0002273392 -0.0001586059 -4.78354e-05 -0.6774188135 0.5095585785
325298050.0 0.6896324419 -0.5103378182 -0.000228655 2.52993e-05 -0.0001438839 1.38742e-05 -0.6721971876 0.5161192956
330298020.0 0.6837786413 -0.5164579888 -0.0002379242 8.50352e-05 -3.49235e-05 -9.4278e-05 -0.666592597 0.5233255745
335297990.0 0.6778047975 -0.5232700893 -6.52923e-05 -0.0001065587 -0.0002008347 9.56061e-05 -0.6613211642 0.5302098279
340297960.0 0.6724023579 -0.5290066813 -0.0001054567 0.0001472256 5.87001e-05 0.0001673463 -0.6557816072 0.5372448584
345297930.0 0.666806178 -0.5359534233 5.09034e-05 -3.26243e-05 0.0001389558 0.0001656585 -0.6499827126 0.5441546831
350297900.0 0.6617360062 -0.5424703151 1.62126e-05 -2.0517e-05 0.0002028707 0.0002082034 -0.6438896137 0.5510717309
355297870.0 0.6556708101 -0.5481800364 -1.67187e-05 -2.60161e-05 3.116e-07 -4.1442e-06 -0.6381831993 0.5574988603
360297840.0 0.6512602068 -0.5545869261 -4.61891e-05 -1.91488e-05 1.48015e-05 1.77865e-05 -0.6321735798 0.563793818
365297810.0 0.6459838541 -0.5606697979 -0.0001435516 9.08238e-05 -5.76394e-05 4.20616e-05 -0.6256220237 0.5702757775
370297780.0 0.6396576939 -0.5665839831 5.43117e-05 2.61681e-05 0.000146356 0.000124592 -0.6207417717 0.5766009292
375297750.0 0.633704376 -0.5723271882 6.15129e-05 -7.93979e-05 -7.62422e-05 8.71507e-05 -0.6140367452 0.5832301062
380297720.0 0.6289766379 -0.5782059679 -7.89039e-05 -3.5715e-06 9.14706e-05 2.81908e-05 -0.6079808525 0.5902832829
385297690.0 0.6216866156 -0.5849113978 1.16667e-05 0.0002188858 2.7456e-05 -0.0001215131 -0.6021744036 0.596373896
390297660.0 0.616970885 -0.5907391542 0.0001163186 3.76294e-05 0.0001391065 -7.3112e-05 -0.5956162282 0.6015215196
395297630.0 0.6110914707 -0.5965864158 0.0002448778 0.0001396265 -3.10527e-05 4.2895e-06 -0.5893217282 0.6084781307
400297600.0 0.604596661 -0.6021876759 -1.47014e-05 5.9967e-05 -7.41745e-05 -8.78314e-05 -0.5830789264 0.614173417
405297570.0 0.5993199285 -0.6075718311 2.30406e-05 0.0001912714 -0.0001147306 -3.29587e-05 -0.5768913395 0.6203612138
410297540.0 0.5925344762 -0.6137102146 -3.09234e-05 5.75091e-05 4.53661e-05 -4.99275e-05 -0.5699334079 0.6256952465
415297510.0 0.5873025648 -0.6190790963 0.0002113943 -3.76857e-05 0.0001459774 6.7924e-06 -0.563550734 0.6321269175
420297480.0 0.5805762484 -0.6252843995 -3.56399e-05 0.0001085254 8.6276e-05 -0.0001677681 -0.5567849031 0.6365683647
425297450.0 0.5743789873 -0.6304658767 -1.54719e-05 0.0001019238 5.30681e-05 -0.0001509166 -0.5499645561 0.6434855536
430297420.0 0.5682996965 -0.6360814577 -0.0001260872 1.91572e-05 -0.0001050787 7.352e-06 -0.5438777938 0.6489342746
435297390.0 0.5618990876 -0.6416850469 -7.68393e-05 -8.01851e-05 0.0001240764 -7.9444e-06 -0.5369164147 0.6540977496
440297360.0 0.5561392408 -0.6473622487 -8.6039e-05 -2.9764e-06 -0.0001132116 8.55981e-05 -0.5298620274 0.6586942268
445297330.0 0.5494032016 -0.6520875689 -1.92895e-05 0.0001917695 -6.58666e-05 0.0001549619 -0.523427634 0.6641480406
450297300.0 0.5430712053 -0.6579114448 5.1274e-06 -2.25703e-05 1.78864e-05 0.0001761764 -0.5170279476 0.6700029716
455297270.0 0.5359009883 -0.6626746619 0.0001849011 6.5829e-06 -1.08192e-05 -5.98523e-05 -0.5096565727 0.6744395166
460297240.0 0.5296644913 -0.6675444275 8.45678e-05 2.25696e-05 2.70101e-05 -2.24563e-05 -0.5023562188 0.6802349467
465297210.0 0.5233126656 -0.6724462559 -9.185e-05 -1.76297e-05 0.0001081485 -0.0001963646 -0.4961955145 0.6852930428
470297180.0 0.5167298061 -0.6781953289 1.73149e-05 2.219e-05 -7.41796e-05 -0.0001078514 -0.4893737746 0.6895894177
475297150.0 0.510134746 -0.6828193553 -0.0001219753 -0.0001274394 -3.70323e-05 0.0002620303 -0.4820215192 0.6949310876
480297120.0 0.5033249065 -0.6879525842 -0.0001675858 2.5897e-06 -2.14051e-05 9.94487e-05 -0.4750580776 0.6999115
485297090.0 0.496707497 -0.6921523918 7.24854e-05 5.84411e-05 -8.44284e-05 -1.58026e-05 -0.4677055835 0.7042015186
490297060.0 0.4900209484 -0.6974878005 -0.0001956877 4.3072e-06 5.05232e-05 -2.66671e-05 -0.461208742 0.7086092176
495297030.0 0.4826795742 -0.7026300222 -0.0001310235 0.0001527679 6.21245e-05 -0.0001269031 -0.4533040067 0.7128466579
500297000.0 0.4763700158 -0.7067445012 -5.54722e-05 2.46602e-05 -1.09935e-05 0.0002103085 -0.4468609785 0.7176684158
505296970.0 0.4682472381 -0.7112736243 0.0001137999 0.0002146146 -5.97544e-05 -9.68033e-05 -0.43974617 0.7222943998
510296940.0 0.4614607263 -0.7156441025 8.3908e-06 -7.83303e-05 0.0001213575 -5.61229e-05 -0.4315976832 0.7261891224
515296910.0 0.4547241292 -0.7201845104 -7.16535e-05 -6.89063e-05 -0.0001778285 0.0001591406 -0.424340956 0.7309337417
520296880.0 0.4473267761 -0.7242724306 -1.84323e-05 4.3849e-05 -6.85916e-05 -8.18254e-05 -0.4171785121 0.7345228415
525296850.0 0.4403897443 -0.7285387121 -0.0001021333 2.83801e-05 -7.57701e-05 -0.0002248221 -0.4096093362 0.7398455051
530296820.0 0.4328408119 -0.7327184907 -5.85658e-05 0.0002161701 -8.272e-07 0.0001413051 -0.4026622359 0.7422434292
535296790.0 0.4260470003 -0.736589314 -3.54138e-05 -0.000139856 -0.0001302938 0.0003570381 -0.3955277336 0.7463296914
540296760.0 0.4187402969 -0.7412683404 -6.95239e-05 -9.83826e-05 6.96707e-05 7.8426e-06 -0.3880947164 0.7511921288
545296730.0 0.4112584615 -0.7444145763 -5.92261e-05 8.64641e-05 0.0001676759 -0.0002103561 -0.3805786671 0.7537132579
550296700.0 0.4038325372 -0.7485631422 4.769e-07 0.0002081523 -0.0002777584 2.72306e-05 -0.3727352379 0.7578546526
555296670.0 0.3965097219 -0.75289222 -0.0001066323 -0.000112752 -9.71144e-05 -9.54612e-05 -0.3652623514 0.7618097056
560296640.0 0.3893515317 -0.7569279229 0.0001297991 6.95403e-05 -7.57033e-05 2.78529e-05 -0.3575428623 0.7655950704
565296610.0 0.3811165088 -0.7607570658 0.0001992486 -6.5819e-05 4.45207e-05 4.0054e-06 -0.3499000298 0.7688366338
570296580.0 0.3744578513 -0.7641680824 2.39871e-05 6.51425e-05 8.754e-07 -0.0001693194 -0.3424879183 0.7725387375
575296550.0 0.366835449 -0.7674661478 6.0252e-06 0.0001226829 -0.0001133088 1.5336e-06 -0.3344483823 0.7756450495
580296520.0 0.3593955745 -0.7703823084 1.93352e-05 -0.0001928246 -2.61968e-05 -9.43729e-05 -0.3269752113 0.7786072393
585296490.0 0.3510896088 -0.7738696537 -1.42407e-05 -0.0001072668 0.0001727653 4.87886e-05 -0.319431118 0.781793507
590296460.0 0.3433019576 -0.7777772755 -3.92749e-05 -3.24085e-05 2.81713e-05 5.91936e-05 -0.3111606374 0.7848431035
595296430.0 0.3358059124 -0.7808803898 5.43848e-05 -0.0001226784 -3.72168e-05 9.19304e-05 -0.3032380867 0.7875428404
600296400.0 0.3281027632 -0.7837157988 -1.20322e-05 1.81768e-05 -8.64994e-05 7.15292e-05 -0.2959727088 0.7908538221
605296370.0 0.3209009657 -0.7870724557 0.0001437357 4.53582e-05 9.27383e-05 -4.06756e-05 -0.2882559542 0.7940671309
610296340.0 0.3132819657 -0.7906541696 7.1531e-06 -0.0001453429 0.0001053437 -0.0001879529 -0.2798474505 0.796818358
615296310.0 0.3044920742 -0.7924642502 7.6002e-06 -0.0001833489 5.60898e-05 -0.000194159 -0.2721981066 0.799233733
620296280.0 0.2969881572 -0.7958905131 -0.0001176251 0.0001470389 -0.0001404353 3.448e-05 -0.2647712723 0.8017910089
625296250.0 0.2892203322 -0.7985694405 4.59105e-05 2.5574e-05 4.1262e-06 0.0001254833 -0.2566395354 0.8051267113
630296220.0 0.2808375209 -0.8012358142 -5.92618e-05 -3.7808e-06 2.01348e-05 0.0001977185 -0.2484594047 0.807400545
635296190.0 0.2735095365 -0.8044903684 -2.9344e-05 -7.5868e-05 -0.0001408954 -9.66787e-05 -0.2405091208 0.8094917032
640296160.0 0.2652096144 -0.8056513867 -0.0002296071 5.33251e-05 -6.6458e-06 0.0001373936 -0.23205382 0.8114877722
645296130.0 0.2574834068 -0.8088785941 7.2276e-05 7.11801e-05 2.51705e-05 0.000146175 -0.2245491807 0.8137431223
650296100.0 0.2491535393 -0.8109949588 -0.0001658874 2.36942e-05 1.72481e-05 -0.0001641415 -0.2166113862 0.8169307385
655296070.0 0.2417959555 -0.8133708766 9.75418e-05 6.91319e-05 9.65022e-05 6.9447e-05 -0.2082921178 0.8175190597
660296040.0 0.2324290416 -0.8155975476 -6.8796e-05 0.0001038005 0.000105683 -3.59436e-05 -0.2002690683 0.8198846854
665296010.0 0.2251854475 -0.8179673478 6.6724e-05 -1.98339e-05 -2.32723e-05 -2.41521e-05 -0.1924103269 0.8224149422
670295980.0 0.2176823539 -0.8201348745 0.0002031089 -0.0001224834 5.00435e-05 -8.86535e-05 -0.1848672684 0.8241337564
675295950.0 0.2090551478 -0.8218570191 0.000124176 3.97355e-05 -0.0001196882 -6.5583e-06 -0.175750759 0.8260638192
680295920.0 0.2004584603 -0.8236401597 -3.45069e-05 4.60316e-05 -5.72561e-05 0.0001184979 -0.1671486901 0.8279207417
685295890.0 0.1927032851 -0.8254621324 0.000152215 1.48227e-05 8.3263e-05 6.05143e-05 -0.1593212655 0.8293490532
690295860.0 0.1845956761 -0.8268988555 -8.40494e-05 -4.70354e-05 -1.3681e-06 -4.5597e-06 -0.1514353664 0.8308175882
695295830.0 0.1762436077 -0.8286726988 0.0001811417 6.91e-07 -0.0001736681 -7.76974e-05 -0.1433791628 0.8326052925
700295800.0 0.1683709565 -0.8304003196 0.0001150953 5.1545e-05 -0.000111552 8.1629e-06 -0.1343352823 0.833506369
705295770.0 0.1602982705 -0.8320705588 0.0001711299 6.38565e-05 0.0002114287 0.0001465036 -0.1266499738 0.8350604411
710295740.0 0.1513865017 -0.8332009434 -0.0001566859 -1.01019e-05 -6.46077e-05 0.0001733698 -0.1192243745 0.836271325
715295710.0 0.1434288196 -0.8346361904 -0.0002392304 7.573e-05 -0.0001020975 -2.8397e-06 -0.110489826 0.8372251241
720295680.0 0.1355807187 -0.8360197183 5.46242e-05 0.0001527705 0.0001125582 0.0001218165 -0.1019501754 0.8387007107
725295650.0 0.1267941296 -0.8370986723 2.34582e-05 0.000152304 8.6546e-06 1.18703e-05 -0.0937363789 0.8397526315
730295620.0 0.1189402231 -0.83858839 -0.0001506249 -8.77981e-05 0.0001478481 0.0001728845 -0.085350009 0.8400461485
735295590.0 0.1105583811 -0.838667394 0.0001500313 -9.46014e-05 2.55507e-05 6.45652e-05 -0.0764846797 0.8403882844
740295560.0 0.1024260008 -0.8405356164 -1.22068e-05 -1.34399e-05 2.95665e-05 -1.51895e-05 -0.0693271656 0.841221994
745295530.0 0.093745496 -0.8408023009 -0.0002084194 -0.00013838 -3.4486e-06 0.0001395335 -0.0608132043 0.8424656103
750295500.0 0.0855005715 -0.8414660909 7.35137e-05 5.12016e-05 -1.62342e-05 -0.0001236668 -0.0522459202 0.842313059
755295470.0 0.0772124448 -0.8424785287 8.02912e-05 0.0002556683 -8.93901e-05 8.73809e-05 -0.044015582 0.8432239871
760295440.0 0.0687087869 -0.8427138526 3.93243e-05 0.0001674925 8.9904e-06 5.78915e-05 -0.0357925947 0.8435510563
765295410.0 0.060612901 -0.8435345802 0.0002288486 3.49454e-05 0.0001184907 -0.0001240777 -0.0271121545 0.8442151994
770295380.0 0.0526424009 -0.8441206933 6.11594e-05 -0.0001300324 0.0001040459 0.0001338005 -0.0184536428 0.8439303678
775295350.0 0.0438353914 -0.844398414 -2.05187e-05 7.9592e-06 -0.0001276134 0.0001620559 -0.0111036974 0.8435627594
780295320.0 0.0352274767 -0.8448667008 8.73628e-05 -0.0001543823 7.58377e-05 1.34231e-05 -0.0021490168 0.8442857078
785295290.0 0.0275329532 -0.8447078853 0.000258998 -0.000104617 -2.61191e-05 -4.4679e-06 0.0056680384 0.8443830358
790295260.0 0.018663497 -0.8447724868 -0.0001854975 -0.0001960554 0.000118508 -7.04125e-05 0.0147701355 0.8440547512
795295230.0 0.0104755761 -0.8446110215 5.47872e-05 -0.0002032007 0.0001098129 6.86267e-05 0.0228382974 0.8442984942
800295200.0 0.002185513 -0.8440393715 -0.0002651127 0.0001041022 9.32124e-05 7.47027e-05 0.0311292692 0.8436184877
805295170.0 -0.0060423385 -0.844718226 0.000172184 -8.5954e-05 -9.66325e-05 -2.93264e-05 0.0390192221 0.8431430931
810295140.0 -0.0149164092 -0.8442988082 -0.0001141925 3.36765e-05 0.0001599829 0.0001815803 0.047233316 0.8436267341
815295110.0 -0.0224794386 -0.8437417474 -0.0001989767 -6.17565e-05 -7.4367e-05 0.0002697631 0.055974776 0.842544432
820295080.0 -0.0313071337 -0.8435639127 6.90511e-05 -0.0001704031 0.0001480679 0.0002798877 0.0641251341 0.8420479732
825295050.0 -0.0396401125 -0.8429866183 -0.0001369818 0.0001773036 -0.0001563561 -5.78753e-05 0.0721514511 0.8412686391
830295020.0 -0.0479157329 -0.8423658164 -3.05907e-05 0.0001744666 0.000229914 2.5058e-06 0.0802425358 0.8404346172
835294990.0 -0.055620023 -0.8416106379 0.0001653867 9.90895e-05 -1.9801e-05 -1.8231e-05 0.0884975011 0.8396164856
840294960.0 -0.0637660638 -0.840786542 -8.9531e-05 0.0003345678 3.96992e-05 -0.0001549332 0.0967318807 0.8390285689
845294930.0 -0.0727494747 -0.8404368264 6.66739e-05 -6.83988e-05 0.0001803184 -4.85387e-05 0.104903272 0.8375696707
850294900.0 -0.0812506213 -0.8389432063 -6.96131e-05 0.000143761 -6.23634e-05 -5.51459e-05 0.1133794386 0.8369377134
