!Created with skrf (http://scikit-rf.org).
# Hz S RI R 50.0 
!freq ReS11 ImS11 ReS21 ImS21 ReS12 ImS12 ReS22 ImS22
300000.0 -0.2355112372 -0.1205458152 0.4650992309 0.0788178356 0.4647785036 0.0793579038 -0.2346163145 -0.1250571878
5299970.0 -0.2449165785 0.0053635077 0.4732615515 0.0060074063 0.4740124941 0.0059369017 -0.2437321211 0.0050388691
10299940.0 -0.2420207263 0.0182859594 0.4760708267 0.0071545843 0.4760130078 0.007365782 -0.2402394463 0.0181165248
15299910.0 -0.2370209083 0.0282299146 0.4790666516 0.0082769372 0.4796787005 0.0083115455 -0.2361531843 0.0274457563
20299880.0 -0.2315989196 0.0361838409 0.4838454591 0.0085527964 0.4846464895 0.0087636582 -0.2309980552 0.0351906705
25299850.0 -0.2255895041 0.0427046074 0.4897331162 0.0081977962 0.4897419341 0.0079612239 -0.2262176856 0.0416642075
30299820.0 -0.2204862402 0.047723853 0.4953227697 0.0053701574 0.495351346 0.0055871635 -0.2208183248 0.0468113733
35299790.0 -0.2141782702 0.0516685934 0.4998295983 0.0026963919 0.5003542923 0.0023823791 -0.2159068806 0.0516324928
40299760.0 -0.2092133363 0.0547194423 0.5057561542 -0.0016792495 0.5057086052 -0.0014569503 -0.2106666618 0.054874949
45299730.0 -0.2042039904 0.0572153272 0.5103818567 -0.0059900027 0.510624456 -0.0060114475 -0.2056885894 0.0576232509
50299700.0 -0.1990596532 0.0587790627 0.5146505657 -0.0118597021 0.5144656544 -0.0118656585 -0.201319474 0.0601930079
55299670.0 -0.1948130871 0.0602613634 0.5180685408 -0.0172594379 0.5182669804 -0.0176543126 -0.19740495 0.0620235331
60299640.0 -0.1907896545 0.0619310737 0.5219777207 -0.0242597515 0.5221569934 -0.0241199695 -0.1935992834 0.0631487768
65299610.0 -0.1872325201 0.0626392305 0.5253271338 -0.0299066122 0.5250833006 -0.0304899955 -0.1897039596 0.0648232713
70299580.0 -0.1840538437 0.0630463046 0.5272103847 -0.0370377586 0.5274551549 -0.0369478393 -0.187274309 0.0660597988
75299550.0 -0.1811068468 0.0638920028 0.5290999931 -0.0443691508 0.529154807 -0.0439238744 -0.1839105189 0.0667571825
80299520.0 -0.1782670357 0.0644172614 0.5309866322 -0.0507292404 0.5313927132 -0.0507748762 -0.1815273268 0.0681496847
85299490.0 -0.175578917 0.0647334139 0.5321963862 -0.0578100944 0.5326119111 -0.0577721195 -0.1791341977 0.0688346344
90299460.0 -0.1734638667 0.0653184224 0.5331113501 -0.0645385462 0.5333578228 -0.0645934346 -0.1765729162 0.0699420687
95299430.0 -0.171268926 0.0658298962 0.5344141314 -0.0715190021 0.5343893193 -0.0717319254 -0.1750870488 0.070796362
100299400.0 -0.1694174417 0.0658862896 0.534388415 -0.0781795017 0.5350240893 -0.0785209135 -0.1730704566 0.0719729329
105299370.0 -0.1674079604 0.0665158611 0.5349737696 -0.0851775535 0.5352160862 -0.0850369829 -0.1710026346 0.0723957033
110299340.0 -0.16583513 0.0667488544 0.5353847883 -0.091366915 0.5353600095 -0.0920780961 -0.1699740133 0.0729902991
115299310.0 -0.1643407505 0.0677652584 0.5351126642 -0.098760173 0.5350732304 -0.0988713103 -0.1683106673 0.0746230731
120299280.0 -0.1633112363 0.0681823865 0.5352828225 -0.1057419272 0.5347137138 -0.1060727289 -0.1665860631 0.0747086359
125299250.0 -0.1618535998 0.0687747118 0.5348340262 -0.1126687101 0.5349095936 -0.112062818 -0.165201717 0.0761525442
130299220.0 -0.160818893 0.0690353884 0.5344560421 -0.1194751127 0.5343944418 -0.1196421148 -0.1640954392 0.0773082291
135299190.0 -0.1598456983 0.0699678418 0.5336455552 -0.1255201134 0.5339924186 -0.1260163998 -0.1630546577 0.0775482577
140299160.0 -0.1583931759 0.0707486837 0.5327683881 -0.1324051596 0.5326538992 -0.1322277518 -0.1623726389 0.0786251638
145299130.0 -0.1578186373 0.0716340394 0.5317321783 -0.1391782277 0.5320440965 -0.1387468946 -0.1610626643 0.0799025518
150299100.0 -0.1565650064 0.0724802198 0.5306493043 -0.1460922043 0.5306334796 -0.1457425442 -0.1601217505 0.0814137135
155299070.0 -0.155412803 0.0733119988 0.5289491975 -0.1525191593 0.5292762912 -0.1524691071 -0.1587021828 0.082451187
160299040.0 -0.1549274178 0.0744597424 0.5281300041 -0.1587903303 0.5282410118 -0.1587766615 -0.1581663583 0.083557573
165299010.0 -0.1536955101 0.0751978829 0.5269071143 -0.1648329016 0.5267455026 -0.1651947235 -0.1569002859 0.0844491198
170298980.0 -0.1528873329 0.0763536084 0.5245858319 -0.1714773634 0.5254175377 -0.1714895588 -0.1560501814 0.0857051935
175298950.0 -0.1522765929 0.0774480145 0.5233547095 -0.1775927264 0.523934957 -0.1783345231 -0.1548352941 0.0873728531
180298920.0 -0.1513936906 0.0782919729 0.5218964941 -0.1840236316 0.5218561686 -0.1842278295 -0.1538434156 0.0885254153
185298890.0 -0.1509204579 0.0791752734 0.5202697129 -0.1900123872 0.5199328636 -0.1901265205 -0.1528815137 0.0892043174
190298860.0 -0.1499920774 0.0807896504 0.5176794891 -0.1964965151 0.5183368189 -0.19628682 -0.1521919863 0.0912426442
195298830.0 -0.1491841999 0.0818950562 0.5164113291 -0.2023033502 0.5158395367 -0.2025231162 -0.1513181566 0.0923744881
200298800.0 -0.1480057168 0.0826637694 0.5139020791 -0.2092376167 0.5139070913 -0.2090075674 -0.1502669064 0.0937266483
205298770.0 -0.1478854785 0.0839732602 0.5117097543 -0.214481144 0.5119202958 -0.2142837754 -0.1493406903 0.0949643601
210298740.0 -0.1469281931 0.085373928 0.5096864898 -0.2208487229 0.5092256798 -0.2206047571 -0.1481472667 0.0961595617
215298710.0 -0.1459784624 0.0866290752 0.5068125159 -0.2262650097 0.5072974581 -0.226851524 -0.1473402995 0.0978615574
220298680.0 -0.1453256414 0.0878604157 0.5045296857 -0.2327403581 0.5047943527 -0.2324007074 -0.1465489544 0.0987498537
225298650.0 -0.1444035147 0.0892600916 0.5017749888 -0.2381939757 0.5023268668 -0.2379075853 -0.1455579158 0.1004511531
230298620.0 -0.1436238252 0.0907423668 0.4997064434 -0.2444454631 0.5000163699 -0.2444887644 -0.1445639513 0.1018363526
235298590.0 -0.1432015451 0.091872388 0.4971734297 -0.2505610054 0.4972406651 -0.2499992005 -0.14357909 0.1033279973
240298560.0 -0.1421679003 0.0931306362 0.4942626661 -0.2558351913 0.4942721514 -0.2555545229 -0.1425501694 0.1045579385
245298530.0 -0.1414630769 0.0941186525 0.4914940207 -0.2615862955 0.4916161674 -0.2616580248 -0.1412110455 0.1061413356
250298500.0 -0.1409211977 0.0954664028 0.4889880771 -0.2668860966 0.4888877428 -0.266989358 -0.1405450188 0.107666287
255298470.0 -0.1399726916 0.0971296876 0.4862011509 -0.2724266253 0.4866150412 -0.27287634 -0.1393683719 0.1092068637
260298440.0 -0.1390565233 0.0981027464 0.4832257733 -0.2774382171 0.4830591434 -0.2780040056 -0.1384235031 0.1101233317
265298410.0 -0.1384737132 0.0999363472 0.4801221313 -0.2839776883 0.4796223739 -0.2836895802 -0.1366757512 0.1118475993
270298380.0 -0.1376292816 0.1009658437 0.4769312237 -0.289187878 0.4771992365 -0.2892511839 -0.1358559859 0.1135724796
275298350.0 -0.1365790674 0.1024980954 0.4732005228 -0.2942268082 0.4736027319 -0.2945357009 -0.1347398773 0.1152002501
280298320.0 -0.1362180797 0.103662057 0.4709381228 -0.2995811406 0.4712222974 -0.2999562316 -0.1333315299 0.1163805939
285298290.0 -0.135130673 0.1052925233 0.467389543 -0.3050373676 0.4678921423 -0.305154385 -0.1326274052 0.1181848802
290298260.0 -0.1341386181 0.1065063849 0.4644355465 -0.3104358714 0.464489427 -0.3104183712 -0.131228511 0.1193003746
295298230.0 -0.1335257424 0.1074558641 0.4613569265 -0.3155988209 0.4608886945 -0.3160997024 -0.1298785784 0.1204772944
300298200.0 -0.1323042687 0.1093411789 0.4572710066 -0.3208892596 0.4578165832 -0.3207044475 -0.1290077661 0.1221191069
305298170.0 -0.1314568746 0.1101405607 0.4538042686 -0.3264728425 0.4543847002 -0.3262389966 -0.1275181716 0.1229574635
310298140.0 -0.1302969052 0.1113584312 0.4502501765 -0.3314135354 0.4506411511 -0.3310973078 -0.1256961071 0.1243269631
315298110.0 -0.1297360902 0.1123215017 0.4471442487 -0.3368003148 0.4467516904 -0.3367203418 -0.1245373197 0.1257440622
320298080.0 -0.1285362777 0.1134759552 0.4423002493 -0.3417036152 0.4432378883 -0.3420238026 -0.1234711082 0.1273654146
325298050.0 -0.1281385222 0.1144605512 0.4391389184 -0.3466448632 0.4397734355 -0.3467927168 -0.122052544 0.1284723757
330298020.0 -0.1275668147 0.1162563997 0.4355196684 -0.3519065489 0.4359146544 -0.3521325863 -0.1213905204 0.1298758381
335297990.0 -0.1266249179 0.1175818993 0.4312711897 -0.3564487828 0.4315596865 -0.3569151106 -0.1201516862 0.1311342823
340297960.0 -0.1260333157 0.1185456901 0.4270736092 -0.3615590662 0.4271532639 -0.361643616 -0.1184877104 0.1325222433
345297930.0 -0.1249367383 0.1198695319 0.4229237491 -0.3666477054 0.423092411 -0.3661750725 -0.1173426159 0.1336276243
350297900.0 -0.1241061615 0.1208835664 0.4192029607 -0.370518528 0.4191973859 -0.3707086762 -0.1159077218 0.1350987446
355297870.0 -0.1230770658 0.1224251062 0.4148895491 -0.3747779632 0.4150651292 -0.3750425218 -0.1145473896 0.1366695715
360297840.0 -0.1221682285 0.1238107439 0.4104740642 -0.3796351472 0.4109729148 -0.3801941936 -0.1132560365 0.1381982849
365297810.0 -0.1211875051 0.1252965223 0.406331762 -0.3843181521 0.4064449958 -0.3845426773 -0.1120033857 0.1394004071
370297780.0 -0.1197114545 0.1265387379 0.4015398796 -0.3889003367 0.4022285718 -0.3891306149 -0.1105610354 0.1407759609
375297750.0 -0.1190070253 0.1279966547 0.3979546184 -0.3933553984 0.3981991747 -0.3933206349 -0.1090334186 0.1421419553
380297720.0 -0.1182272844 0.1291520577 0.3940808783 -0.3980995856 0.3935651784 -0.3976196256 -0.1077429486 0.1435701359
385297690.0 -0.1169402997 0.1302383994 0.3891081724 -0.4018059308 0.3895646165 -0.4021439727 -0.105927845 0.1452740485
390297660.0 -0.1156830894 0.1314054559 0.3845645506 -0.4056533319 0.3852174048 -0.406425718 -0.1044115074 0.1463284789
395297630.0 -0.1143354935 0.1328286746 0.3809031785 -0.4099754688 0.3802360119 -0.4098152256 -0.1026861178 0.1472259176
400297600.0 -0.1133768306 0.1338952701 0.3761075558 -0.4143395883 0.3764060752 -0.4146420339 -0.1011922288 0.1488606176
405297570.0 -0.1123115773 0.1345774559 0.3715069388 -0.4181430661 0.3713725502 -0.4186500073 -0.0993880633 0.1499330911
410297540.0 -0.1110636842 0.1360763865 0.3670106912 -0.4225187916 0.3669887489 -0.4222934585 -0.0981299226 0.151137834
415297510.0 -0.1101243865 0.1371767947 0.3618635913 -0.4264045556 0.3624175244 -0.4266532521 -0.096110195 0.1526729066
420297480.0 -0.108859623 0.1383985348 0.3573199013 -0.4306617054 0.3574024047 -0.4306022542 -0.0940503842 0.1541272342
425297450.0 -0.1071481702 0.1394945125 0.3528681128 -0.4340515952 0.3529113547 -0.4344110413 -0.0928008981 0.1547827686
430297420.0 -0.1060135178 0.1408475944 0.3482463571 -0.4379962046 0.3485077555 -0.4383241821 -0.0907626447 0.1562998997
435297390.0 -0.1049845402 0.1415421961 0.3430293235 -0.4424770232 0.3433885981 -0.442047381 -0.0898580931 0.1576496909
440297360.0 -0.1033074451 0.1424905217 0.3379647294 -0.4458525065 0.3380191023 -0.4461019074 -0.0877769993 0.1587863324
445297330.0 -0.1019092545 0.1432436616 0.3334149305 -0.4490145057 0.333428914 -0.4498929538 -0.0858598975 0.1597923866
450297300.0 -0.1008200024 0.1448634088 0.3284260564 -0.4529079719 0.3291703237 -0.4529408803 -0.0840767926 0.160998541
455297270.0 -0.0996870975 0.1459345593 0.3239630322 -0.4567007007 0.3234947863 -0.4570659895 -0.0820334481 0.1621544506
460297240.0 -0.0978282698 0.1468584654 0.3186558562 -0.4605183135 0.3186048313 -0.4603865889 -0.0805792065 0.1629061919
465297210.0 -0.0963208788 0.1476879277 0.3132470148 -0.4636650249 0.3128598686 -0.46409296 -0.0780608515 0.1644327446
470297180.0 -0.0948378512 0.1488009267 0.3081136614 -0.46694855 0.3090005322 -0.4670099478 -0.0766763322 0.1650458877
475297150.0 -0.0937535021 0.1500712653 0.3031670154 -0.4700369257 0.3036105281 -0.4705486733 -0.0748755297 0.1662415952
480297120.0 -0.0919024419 0.1511996634 0.2977884238 -0.4737580949 0.2981706121 -0.4734944803 -0.0732931702 0.167015856
485297090.0 -0.090752305 0.1517747243 0.2927156605 -0.476893821 0.2927947131 -0.4767474691 -0.0714687737 0.1682571281
490297060.0 -0.0886325661 0.1529520741 0.2873460979 -0.4799300131 0.2876189634 -0.4800544671 -0.0693231517 0.1687694207
495297030.0 -0.0875052602 0.1535591297 0.2825126035 -0.4832675238 0.2825063229 -0.4832716296 -0.067173317 0.1698427068
500297000.0 -0.0862449872 0.1548106444 0.2773364261 -0.4856859823 0.2771473373 -0.4863123023 -0.0654509822 0.1707951726
505296970.0 -0.0840878232 0.1556778738 0.2720232403 -0.4892347309 0.2717185947 -0.4889936134 -0.0634593586 0.1712501429
510296940.0 -0.0825469377 0.1565924708 0.2666386738 -0.4924433838 0.2668946594 -0.4927867565 -0.0615237578 0.1726343569
515296910.0 -0.0814476642 0.1579441289 0.2606916802 -0.4949873185 0.2605120783 -0.4950761885 -0.0595506338 0.173021572
520296880.0 -0.0796194055 0.1585938097 0.2558984527 -0.4976062574 0.2552816821 -0.4976648626 -0.0574600361 0.174225935
525296850.0 -0.0778308415 0.1593225552 0.2499099159 -0.5003697786 0.2498148602 -0.5002030895 -0.055511348 0.1749421113
530296820.0 -0.0766594353 0.1602739036 0.2444366516 -0.5032520955 0.2447374502 -0.503124057 -0.0538829424 0.1752832564
535296790.0 -0.0741459742 0.161243443 0.2390685183 -0.5055351802 0.2390858168 -0.505705612 -0.0513929745 0.176402749
540296760.0 -0.0730772629 0.1623518035 0.2336881613 -0.508501116 0.2332780198 -0.5082640121 -0.0497088431 0.1768500358
545296730.0 -0.0714433687 0.1633216986 0.2280242447 -0.5103451796 0.2278061279 -0.5103877139 -0.047434477 0.1776213258
550296700.0 -0.0694464012 0.1639255087 0.222284866 -0.5131284555 0.2222542729 -0.5136473563 -0.0453761894 0.1781026412
555296670.0 -0.0679042575 0.1648727431 0.2164732342 -0.5155361288 0.2168242067 -0.5154281107 -0.0438094727 0.1784751974
560296640.0 -0.0657697132 0.1653240252 0.2109487417 -0.5174481073 0.2114059069 -0.5179813468 -0.0415453925 0.1796266529
565296610.0 -0.0648921119 0.1662670952 0.205723599 -0.519775022 0.2056048548 -0.5200446629 -0.039247051 0.1803803855
570296580.0 -0.0630664302 0.1672639456 0.1999043896 -0.5220320112 0.1998437429 -0.5222850561 -0.0376485887 0.1805653135
575296550.0 -0.0608987328 0.1679366391 0.1944567724 -0.5243169412 0.1941960506 -0.5240536058 -0.0355458964 0.1809410954
580296520.0 -0.0595733654 0.1689479229 0.1886057413 -0.5263414172 0.1885165027 -0.5263685609 -0.0338705722 0.1817184267
585296490.0 -0.0579089478 0.1698065483 0.1829876313 -0.5282348515 0.1825244452 -0.5284878089 -0.0310895258 0.1822580392
590296460.0 -0.0552840217 0.1705205742 0.1768906966 -0.5303727965 0.1771300599 -0.5306611329 -0.0298348623 0.1829096889
595296430.0 -0.0537217115 0.1709686137 0.17092706 -0.5320404575 0.1707748459 -0.5320612417 -0.027371913 0.1828483377
600296400.0 -0.0520841177 0.171704715 0.1649905706 -0.5334860876 0.165184002 -0.534098343 -0.0252718171 0.1834005684
605296370.0 -0.0506010638 0.17276336 0.1597931042 -0.535545993 0.15939867 -0.5357591352 -0.0234457215 0.1841318406
610296340.0 -0.0486471254 0.173863206 0.1539159184 -0.5370042433 0.1541457426 -0.5371180186 -0.0214646248 0.1842358455
615296310.0 -0.0466328567 0.1742572033 0.147717195 -0.5390538323 0.1477047739 -0.5391506582 -0.0191059156 0.1849667152
620296280.0 -0.0452570615 0.1750437454 0.1420123663 -0.5398864806 0.1419159974 -0.5404680438 -0.0174516719 0.1853342123
625296250.0 -0.0435026255 0.1755128383 0.1355552783 -0.5422378775 0.1361859433 -0.5420488415 -0.0154204888 0.1853694132
630296220.0 -0.0415811381 0.1766101391 0.1298001677 -0.5433562282 0.1302957368 -0.5430970165 -0.0129493535 0.1854573893
635296190.0 -0.0402175419 0.1771035156 0.1245759079 -0.5446806294 0.1246918111 -0.5445138475 -0.0110015389 0.1859773611
640296160.0 -0.0383947389 0.1777365583 0.1186970492 -0.5461707927 0.1182746543 -0.5464187416 -0.0088529314 0.1863002512
645296130.0 -0.0361275837 0.1785324239 0.1122776657 -0.5467511129 0.1125585461 -0.5468291123 -0.0070111414 0.186107913
650296100.0 -0.0345541488 0.1787459673 0.1066373969 -0.5484472536 0.1064486635 -0.548421357 -0.0040660697 0.186383526
655296070.0 -0.0328506188 0.1796689383 0.1003280871 -0.5494920629 0.1003768351 -0.5493544633 -0.003058286 0.1868655122
660296040.0 -0.0311901208 0.1802108052 0.0945734726 -0.5505214938 0.094635921 -0.5506203374 -0.0007277726 0.1866315034
665296010.0 -0.0293738797 0.1807613567 0.0881364819 -0.5510831464 0.0884487204 -0.5512072323 0.0015933053 0.1868691421
670295980.0 -0.0274890018 0.1815572686 0.0827720131 -0.5521010252 0.0825902929 -0.5516415025 0.002969771 0.1867376759
675295950.0 -0.0258267472 0.1817321859 0.0762167418 -0.5526153452 0.0768698528 -0.5532126744 0.0056037305 0.1874533814
680295920.0 -0.0243127751 0.1827897576 0.0708943104 -0.5539286023 0.070924535 -0.5539586477 0.0076929855 0.1873716244
685295890.0 -0.0223078492 0.1831174772 0.0646140899 -0.5545142138 0.0649579462 -0.5548135323 0.0094677577 0.1875308573
690295860.0 -0.0207291662 0.183671782 0.0589132752 -0.5550396161 0.0586128778 -0.5555409395 0.0116340113 0.1875206933
695295830.0 -0.0188156993 0.1834985891 0.0533597231 -0.5558431869 0.0529301614 -0.5555860023 0.0139683628 0.1876984829
700295800.0 -0.0168625584 0.1845766679 0.0471485117 -0.5560947101 0.0471267862 -0.5562732279 0.0156439623 0.1876009284
705295770.0 -0.0154972577 0.1849706928 0.0408324811 -0.5571865969 0.0412393278 -0.5567583687 0.0177465016 0.187602271
710295740.0 -0.0136889142 0.1851804703 0.0351164045 -0.5570742528 0.0344809201 -0.5572101285 0.0202949943 0.1877887107
715295710.0 -0.0117089224 0.1858302669 0.0288190954 -0.5576546302 0.0290889972 -0.5575802793 0.0220058065 0.1871719055
720295680.0 -0.0098034208 0.1861345312 0.0228974392 -0.557477637 0.0225508056 -0.5579860511 0.0241082232 0.1873117226
725295650.0 -0.0086968445 0.1866433468 0.0170669273 -0.5579424581 0.0170658054 -0.5577742207 0.0259676838 0.1876545493
730295620.0 -0.0072353448 0.1867306118 0.0113484078 -0.5577232388 0.0107607226 -0.5576495653 0.0279777133 0.1879008884
735295590.0 -0.0051165749 0.187279928 0.0051102568 -0.5579122612 0.004819877 -0.5580831803 0.0300185722 0.1869286582
740295560.0 -0.0033065945 0.1872624896 -0.000712637 -0.558037539 -0.0007069272 -0.5582120871 0.0319404724 0.1869720662
745295530.0 -0.0016908958 0.1877549803 -0.0066716443 -0.5571489236 -0.0062965086 -0.558207158 0.0335753611 0.1867682779
750295500.0 -0.0001648804 0.1881623782 -0.0122244003 -0.5577294116 -0.013161233 -0.5580639569 0.035977958 0.18659549
755295470.0 0.0016333653 0.1882918895 -0.01841305 -0.5580045569 -0.0189077135 -0.5580490306 0.0384426604 0.1868735105
760295440.0 0.0034481644 0.1889057596 -0.0251438292 -0.5574480419 -0.0250115658 -0.5571888134 0.0404018399 0.1857495304
765295410.0 0.0052150127 0.1884617733 -0.0307489785 -0.556819258 -0.0307963773 -0.5573915559 0.0423163261 0.1857540489
770295380.0 0.0070372964 0.1891882308 -0.0365975331 -0.5563764436 -0.0368256377 -0.5571869074 0.0439977637 0.1855443601
775295350.0 0.0086785406 0.1891293464 -0.0427714712 -0.5562382789 -0.0425972645 -0.5558788264 0.0464238223 0.1850773444
780295320.0 0.010303139 0.1893864971 -0.0483719596 -0.5552443587 -0.0486013377 -0.5556703207 0.0487272566 0.1846610985
785295290.0 0.0119441787 0.1892049263 -0.0546792712 -0.5549713599 -0.0544329531 -0.5551972896 0.0500368987 0.1848029434
790295260.0 0.0138271887 0.1891212022 -0.0606228868 -0.5544038696 -0.06017147 -0.5547875709 0.0521825523 0.1845471417
795295230.0 0.0154616992 0.1890119802 -0.0664888903 -0.5536606133 -0.0664805876 -0.5539884078 0.0543189978 0.1832463403
800295200.0 0.0169588617 0.1897348254 -0.0719773763 -0.5524295279 -0.0724266296 -0.5529921936 0.0560050852 0.183166537
805295170.0 0.0185742264 0.1896969151 -0.078194637 -0.5520620822 -0.0780609606 -0.5525814093 0.0588928245 0.1828131738
810295140.0 0.0205702447 0.1899231105 -0.0840660421 -0.5505716575 -0.0843643844 -0.5509777415 0.060679604 0.1823769787
815295110.0 0.0222294084 0.1896834106 -0.0900418775 -0.5501977115 -0.0895654148 -0.5504119322 0.0623207714 0.1817782554
820295080.0 0.023950037 0.1895973633 -0.095407717 -0.5489493728 -0.0957932447 -0.5495117334 0.0635163994 0.1818336834
825295050.0 0.0256606303 0.189246939 -0.1019828367 -0.548277209 -0.1018497313 -0.5482017421 0.0665858323 0.1812429761
830295020.0 0.0274992456 0.1895165666 -0.1077035751 -0.5469165011 -0.1077175464 -0.5472185488 0.0682579655 0.1799709948
