!Created with skrf (http://scikit-rf.org).
# Hz S RI R 50.0 
!freq ReS11 ImS11 ReS21 ImS21 ReS12 ImS12 ReS22 ImS22
300000.0 0.8605338989 -0.0017540967 -0.0009245283 -8.63775e-05 -0.0003446533 0.0006734486 -0.7652737422 -0.1982893947
5299970.0 0.8597829665 -0.0099104858 -0.0001003655 0.0002036314 0.0001245468 2.78855e-05 -0.7851992721 -0.0098410644
10299940.0 0.8585190233 -0.0182976617 0.0003312714 -2.11682e-05 0.0001058795 -0.0001061988 -0.7875582429 -0.0052296932
15299910.0 0.8577041217 -0.0274617111 -0.000131393 9.2321e-06 -0.0001127043 2.55068e-05 -0.7930418247 -0.002541913
20299880.0 0.8571620175 -0.0352506037 -3.84777e-05 0.0001057763 -0.0001044921 0.0001174396 -0.7996603935 0.0017372122
25299850.0 0.8556557672 -0.0435198561 8.78274e-05 2.83948e-05 -5.11038e-05 -3.84832e-05 -0.8062811141 0.0077078312
30299820.0 0.8559832141 -0.0523865887 5.61341e-05 1.3536e-05 2.53772e-05 -1.45101e-05 -0.8120831405 0.0157808986
35299790.0 0.8553142786 -0.0601340153 6.3073e-05 0.0001053761 -8.5741e-05 -5.90896e-05 -0.8173564489 0.0246459971
40299760.0 0.8544217319 -0.0683399389 6.47329e-05 1.0849e-06 3.75842e-05 9.73923e-05 -0.821309398 0.0337971224
45299730.0 0.8540804264 -0.0764541297 8.57317e-05 0.0003827331 -0.0001045734 -2.60648e-05 -0.8239100236 0.0433520729
50299700.0 0.8528828178 -0.0841823679 0.0002081397 0.0001303437 -0.0001926545 -8.13984e-05 -0.8268635286 0.0540972104
55299670.0 0.851691044 -0.0928354422 -9.9681e-05 -0.0002377203 -3.51372e-05 -4.65773e-05 -0.8291974925 0.0635499478
60299640.0 0.8510280505 -0.1009284265 -0.0001853426 1.12285e-05 0.0001390108 2.11281e-05 -0.8297373704 0.0736741899
65299610.0 0.8500527297 -0.1090078125 9.64575e-05 8.26885e-05 0.0001133939 4.6218e-06 -0.8303643316 0.0840504041
70299580.0 0.8487509532 -0.1171204414 -1.49179e-05 -0.0001017854 -5.01966e-05 6.87173e-05 -0.831548127 0.0934064109
75299550.0 0.848122716 -0.1257141965 0.0001124803 -0.0003154085 -0.0001050629 -0.0002247254 -0.8310361403 0.1039264735
80299520.0 0.8464979525 -0.1340880508 8.2259e-05 7.309e-05 -7.0172e-05 -0.0001139629 -0.8309924977 0.1140917731
85299490.0 0.8450047633 -0.1419358202 -7.60822e-05 0.0002428697 0.0001063458 -1.6057e-05 -0.8302408709 0.1229877863
90299460.0 0.8441083909 -0.1501932005 8.09758e-05 -8.2588e-05 0.0001003422 0.0002549034 -0.8291711975 0.1327612311
95299430.0 0.8424704357 -0.1580579651 0.0001346695 -6.31369e-05 -0.0001157823 -8.77433e-05 -0.8282035757 0.14254631
100299400.0 0.8406768806 -0.1660676338 -4.4756e-05 2.78858e-05 0.0001498761 -8.12554e-05 -0.8273220686 0.1518729751
105299370.0 0.8391794866 -0.1743749875 3.62667e-05 -2.29207e-05 -6.14041e-05 -5.51126e-05 -0.8259555203 0.1607407763
110299340.0 0.8377579156 -0.1831457394 -0.0001419404 -4.16065e-05 -0.0002658933 -0.0002021781 -0.82468454 0.1696126305
115299310.0 0.836139676 -0.1904018278 2.47233e-05 -0.0002981647 6.47788e-05 -7.50386e-05 -0.8234140274 0.1787576562
120299280.0 0.8338785434 -0.1986324295 0.0001081557 5.7784e-06 7.9178e-06 4.4472e-06 -0.8215604381 0.1879691273
125299250.0 0.8318045611 -0.2060173257 -5.27402e-05 -7.27923e-05 2.07008e-05 5.758e-05 -0.8198184087 0.1971706366
130299220.0 0.8301032264 -0.2147562307 -3.69994e-05 -6.57601e-05 -4.08679e-05 -2.61822e-05 -0.8175909522 0.2053069986
135299190.0 0.8284745988 -0.2227913225 8.60847e-05 -4.0002e-05 -0.0001493381 9.0323e-05 -0.8164086418 0.2146136446
140299160.0 0.825878831 -0.2299974606 6.26754e-05 -4.83302e-05 -3.66939e-05 1.84073e-05 -0.8139329796 0.2235559057
145299130.0 0.8232202818 -0.2382707658 -3.65142e-05 0.0002208793 -4.38853e-05 -1.69745e-05 -0.8120055485 0.2323292731
150299100.0 0.8207876319 -0.2462257279 0.0001267364 -5.3681e-06 -1.4807e-05 -6.72306e-05 -0.8095951735 0.241659071
155299070.0 0.8185704148 -0.2541223609 -0.0001696606 7.65194e-05 -1.77803e-05 -7.41722e-05 -0.8070494365 0.2504859769
160299040.0 0.8159504466 -0.2618213425 8.37148e-05 -3.73755e-05 0.0001872641 2.36698e-05 -0.804437323 0.2588262527
165299010.0 0.8137485191 -0.2694858688 -6.53892e-05 -4.08734e-05 5.262e-06 1.52807e-05 -0.8020511796 0.2677245868
170298980.0 0.8116789154 -0.2775050856 -2.63455e-05 -0.0001005329 7.5345e-05 0.0002481004 -0.7995500214 0.275602561
175298950.0 0.8088649983 -0.2853546181 -0.0001236525 -4.50359e-05 -1.77445e-05 -1.75396e-05 -0.7969113486 0.2848380146
180298920.0 0.8057348026 -0.292653177 -1.57867e-05 -0.0001639202 0.0001276275 -5.2592e-05 -0.7936625216 0.2931614053
185298890.0 0.8030129345 -0.3009017259 7.28305e-05 0.0001545243 -0.0001547427 0.000120753 -0.7903065608 0.3014963426
190298860.0 0.799755254 -0.308561431 0.0001569713 -1.40845e-05 -5.3934e-06 0.0001546249 -0.7876117165 0.3096652885
195298830.0 0.7967359385 -0.3156527113 -9.413e-06 5.2989e-06 6.8274e-06 -3.9724e-05 -0.784149537 0.3179600022
200298800.0 0.7937683469 -0.3237728782 -1.79341e-05 9.829e-06 0.0001604313 3.43459e-05 -0.7808110162 0.3264591034
205298770.0 0.7910029139 -0.3316046333 4.86369e-05 -6.59192e-05 0.0002138701 -9.99986e-05 -0.7781517074 0.3349631589
210298740.0 0.7881334959 -0.3389539839 -3.69151e-05 -0.0001218627 5.31877e-05 -0.0001666594 -0.7740101038 0.3433186555
215298710.0 0.7847963702 -0.3468574061 -8.76878e-05 4.1425e-05 3.38452e-05 -0.0001862539 -0.7706315928 0.3512666521
220298680.0 0.7814583306 -0.3536235957 9.56134e-05 4.97217e-05 2.43734e-05 -4.96419e-05 -0.7669124953 0.3595973384
225298650.0 0.7771082516 -0.3617903095 0.0001856977 -8.55858e-05 4.04245e-05 -9.65337e-05 -0.7633957258 0.3672774852
230298620.0 0.7735564784 -0.3689196173 -0.0001298235 -0.0002601658 0.0002281173 -0.0001944764 -0.7590563343 0.3752832939
235298590.0 0.7707215886 -0.3764602682 1.59266e-05 6.50023e-05 7.94251e-05 -4.97802e-05 -0.7552135255 0.3834792648
240298560.0 0.7668267861 -0.3833173099 0.0001251967 -4.57913e-05 -0.0002494553 -0.000178436 -0.7511731527 0.3907200586
245298530.0 0.7625601766 -0.3908140036 -0.0001571349 0.000128747 -4.43537e-05 -0.0001082849 -0.7473391458 0.3988640098
250298500.0 0.759379559 -0.3982827684 1.96877e-05 -5.59031e-05 4.70334e-05 -1.85851e-05 -0.742913031 0.4070847995
255298470.0 0.7548805975 -0.4047609384 0.0001538009 -8.16696e-05 0.0001591676 -4.90939e-05 -0.7389948056 0.414634546
260298440.0 0.7515793675 -0.4124547159 0.0001177112 -0.0001967585 7.49547e-05 -0.000133709 -0.7345445658 0.4221647703
265298410.0 0.7468823878 -0.4194825867 -0.0001824918 -1.93171e-05 -4.1413e-06 -5.18446e-05 -0.7297955661 0.4300701112
270298380.0 0.7437262366 -0.4266965269 -0.0001497983 -6.96161e-05 -0.0001050207 5.90646e-05 -0.7252653816 0.4378217277
275298350.0 0.738877875 -0.4335573856 -3.97719e-05 -5.55811e-05 9.23263e-05 -0.0001634862 -0.7206048211 0.4452399855
280298320.0 0.7346736636 -0.4411004077 8.37408e-05 4.95833e-05 7.1241e-06 0.0001089193 -0.7160473125 0.4527054986
285298290.0 0.7308725082 -0.4478874921 -0.0001460019 0.0001925168 6.41745e-05 0.0001371991 -0.7121925321 0.4609120015
290298260.0 0.7261090743 -0.4556058146 -7.64359e-05 0.0001760702 -6.66711e-05 0.0001334513 -0.7065501413 0.4677388593
295298230.0 0.7224711715 -0.4624039024 1.20856e-05 0.0001379977 -6.87059e-05 -7.30064e-05 -0.7018055291 0.4745802431
300298200.0 0.7178717531 -0.4691980824 -9.54213e-05 7.86331e-05 0.0001649431 2.41079e-05 -0.6971653911 0.4820712927
305298170.0 0.7141247033 -0.4767398632 1.5146e-05 6.20322e-05 -0.0002418148 -0.0002239416 -0.6911564126 0.4892552374
310298140.0 0.7083288144 -0.4850417478 9.9469e-06 -9.42144e-05 -6.60322e-05 5.55508e-05 -0.6860504858 0.4967699671
315298110.0 0.703670686 -0.4917879358 8.93173e-05 -5.48783e-05 6.38454e-05 0.0001310841 -0.6811588935 0.5042214402
320298080.0 0.6989357188 -0.4996944446 0.0001474458 8.86241e-05 -3.25203e-05 0.000117876 -0.6762448075 0.5106652017
325298050.0 0.6924097036 -0.5063704667 -0.0002092414 -9.66598e-05 -1.84148e-05 -0.0001004875 -0.6703290355 0.5176890691
330298020.0 0.6866642993 -0.5134737608 -0.0002073437 9.60938e-05 -0.0001596775 0.0001144123 -0.6648454403 0.5245312428
335297990.0 0.6808647026 -0.5190473947 7.27907e-05 -0.0001056008 -9.09967e-05 -0.0001148398 -0.6594795211 0.5314171223
340297960.0 0.6757126634 -0.525634569 -8.90472e-05 -4.7639e-06 2.49818e-05 0.0001661598 -0.6539278068 0.5387740192
345297930.0 0.6705453463 -0.5315906678 -7.51454e-05 0.0001666983 -4.53417e-05 -7.10649e-05 -0.6489676416 0.5449787579
350297900.0 0.6653065539 -0.5383661408 -6.00961e-05 -3.08923e-05 6.61786e-05 -0.0001336708 -0.6432903337 0.5511374624
355297870.0 0.6599694787 -0.5445495707 0.000225518 0.0001427388 0.0001360767 -3.43973e-05 -0.6372515779 0.5583168813
360297840.0 0.6538141756 -0.5507789111 -0.0002293096 0.0001548461 0.0001592209 -0.0002019056 -0.6306187989 0.564895771
365297810.0 0.6490522525 -0.5570883283 -1.79143e-05 2.47214e-05 -9.47125e-05 1.89795e-05 -0.625971067 0.5707552363
370297780.0 0.6435194299 -0.5628325208 -5.56009e-05 2.20918e-05 -6.05449e-05 -0.0001165857 -0.6197921654 0.5776702472
375297750.0 0.6379029223 -0.5686096364 6.42195e-05 7.84358e-05 -2.50358e-05 -3.44446e-05 -0.6130788461 0.584186499
380297720.0 0.6320092915 -0.5744788293 -7.78992e-05 4.2777e-06 0.0001077088 1.44958e-05 -0.606929577 0.5905378727
385297690.0 0.6265665519 -0.5808094906 3.57275e-05 -2.05718e-05 5.3947e-05 0.0001327115 -0.6013605894 0.5964729817
390297660.0 0.621308846 -0.5869201 -3.54396e-05 -0.0001738557 -3.14785e-05 0.0001503205 -0.5948520168 0.6020978636
395297630.0 0.6147043136 -0.5922816489 -3.49248e-05 -1.88197e-05 6.9114e-06 -0.0001117509 -0.5884315347 0.6077336707
400297600.0 0.6086770461 -0.5990017555 4.75802e-05 0.0001603077 -9.24274e-05 -4.16341e-05 -0.5825281185 0.6145161853
405297570.0 0.6036554175 -0.6046099898 -0.0001207455 -3.0146e-05 -0.0001742259 -1.06925e-05 -0.5760331613 0.6198300265
410297540.0 0.5981065011 -0.6097808043 -1.76843e-05 -1.23783e-05 0.0001699695 -6.7743e-06 -0.5697780634 0.6261777282
415297510.0 0.5919347495 -0.6157801476 -6.76126e-05 -6.13345e-05 0.0002151931 -1.6523e-05 -0.5626922997 0.6318509251
420297480.0 0.5857448844 -0.6219351219 -0.0001542819 7.12174e-05 0.0001175678 4.94725e-05 -0.5562591063 0.638059045
425297450.0 0.579652271 -0.6271251993 -3.0976e-05 -7.21673e-05 3.89922e-05 1.26389e-05 -0.5498956386 0.642372484
430297420.0 0.5733578459 -0.6328542406 -2.36791e-05 -6.6385e-06 5.53441e-05 -8.57051e-05 -0.5432388006 0.6485247905
435297390.0 0.5670292984 -0.6384316352 0.0001549361 6.18942e-05 -0.000200788 9.99796e-05 -0.5371086383 0.6544248476
440297360.0 0.5611881953 -0.6436054819 -5.12319e-05 0.0002156702 6.28172e-05 -6.31295e-05 -0.5297439244 0.6593602065
445297330.0 0.5555186214 -0.6493018729 -6.86231e-05 -8.24673e-05 0.000114549 7.74274e-05 -0.5228304221 0.6650440985
450297300.0 0.5494105763 -0.655006949 4.86013e-05 -9.7355e-06 -6.1499e-06 0.0002221342 -0.5160157435 0.6698285436
455297270.0 0.5425374799 -0.6601570378 0.0001343846 -3.83389e-05 4.40771e-05 9.16303e-05 -0.5090792901 0.6749336491
460297240.0 0.5360223045 -0.6645324632 4.93242e-05 -0.0001311127 1.95932e-05 0.0002008655 -0.5023485868 0.6796582726
465297210.0 0.5296307233 -0.6696005392 -4.4186e-05 -4.36268e-05 -0.0002090237 -0.000124312 -0.4952179459 0.6857735255
470297180.0 0.5229055408 -0.6749443106 -0.0001199143 5.21146e-05 1.36675e-05 -7.24179e-05 -0.4882825215 0.6898455361
475297150.0 0.5158290319 -0.6801509385 2.78469e-05 3.97634e-05 -0.0001019203 0.0001564935 -0.4813266816 0.695626828
480297120.0 0.5102854544 -0.6850212532 8.87089e-05 0.0001817894 -5.98694e-05 7.66913e-05 -0.4747124749 0.6998346789
485297090.0 0.5032974569 -0.690173458 2.09182e-05 0.0001087507 0.0001686349 6.7971e-05 -0.4674607621 0.7048954
490297060.0 0.4973022733 -0.694128527 9.61549e-05 0.0003331617 8.04363e-05 8.29562e-05 -0.4598815466 0.7092910611
495297030.0 0.4894976345 -0.6997028523 5.23551e-05 -0.0002738128 3.55345e-05 0.0002069328 -0.4528032603 0.7135959035
500297000.0 0.4837466545 -0.704026626 0.0001569334 8.94941e-05 6.1423e-05 -4.21833e-05 -0.4450015714 0.7181920955
505296970.0 0.4764104837 -0.7084207469 -0.0001023426 -3.8423e-05 -7.3412e-06 -4.3894e-06 -0.4378560607 0.7228553851
510296940.0 0.4694349932 -0.7134668542 6.76553e-05 0.0002151984 0.0001749171 -1.4097e-05 -0.4303571987 0.7273164558
515296910.0 0.4624057013 -0.7177625074 -4.1936e-05 -3.76303e-05 -0.0001689913 5.68584e-05 -0.4235305637 0.7312068877
520296880.0 0.4564331183 -0.7228081516 -6.6046e-05 -7.10567e-05 4.16814e-05 -9.8333e-06 -0.414740659 0.7360605936
525296850.0 0.4495674928 -0.727114486 -8.30713e-05 -0.0001235622 0.0001971039 -4.46871e-05 -0.408311279 0.7394384497
530296820.0 0.4422882506 -0.7318757206 -0.0002029476 0.000135724 2.31059e-05 -0.0001534243 -0.4008237375 0.7436225207
535296790.0 0.4354049636 -0.7353072968 6.19593e-05 0.0001356174 -0.0001505932 0.000238961 -0.3934332629 0.74767826
540296760.0 0.4288112928 -0.7392844376 -1.26439e-05 -4.4194e-05 4.31295e-05 0.0001296743 -0.3853815672 0.7515871001
545296730.0 0.4196824019 -0.7441552468 0.0001363456 -5.53403e-05 0.0001123438 -9.69802e-05 -0.3777531634 0.7555446701
550296700.0 0.4137605312 -0.7472654984 4.22426e-05 0.0001136172 -5.23338e-05 5.97901e-05 -0.3702419023 0.759123215
555296670.0 0.4062016403 -0.7513887496 0.0001013872 0.0001668553 -5.62725e-05 -0.0001376107 -0.3626013596 0.7625102212
560296640.0 0.3988977358 -0.7548562744 -0.0001346969 0.0001178122 -0.0001878749 6.20945e-05 -0.3548104503 0.7667203647
565296610.0 0.3914087353 -0.7591413526 -0.0001216417 4.57255e-05 0.0001136597 -0.0001326849 -0.3470038649 0.7698148132
570296580.0 0.383887206 -0.7627787452 -0.000190472 -3.81511e-05 0.0001524591 -2.0732e-06 -0.3392621943 0.7729030379
575296550.0 0.3771663491 -0.765977824 -0.0001215626 -8.48612e-05 0.0001243154 0.0001056245 -0.3312046752 0.7761333795
580296520.0 0.3698687372 -0.7692627818 5.26421e-05 -8.744e-07 5.17649e-05 0.0001103187 -0.3239681211 0.7796947952
585296490.0 0.3620669066 -0.7729160872 0.0001398629 0.0001015406 -3.86796e-05 -0.0001379098 -0.3155392611 0.7829063767
590296460.0 0.3542412745 -0.7759504709 -5.36922e-05 3.6166e-06 -0.0001827504 5.67239e-05 -0.3081073092 0.7854002105
595296430.0 0.3464909043 -0.7796956135 0.0001043461 -0.0001065748 7.61233e-05 9.56099e-05 -0.3000849102 0.7892283168
600296400.0 0.339402877 -0.7836724769 2.79508e-05 0.0001469131 0.0001346017 -0.0001494211 -0.2919782875 0.7915506502
605296370.0 0.3309610146 -0.7862908168 -8.09915e-05 -8.4482e-06 -0.0001338267 6.82728e-05 -0.2836585829 0.7956329411
610296340.0 0.3231714167 -0.7898760171 0.0001321216 8.10545e-05 -2.69069e-05 3.27364e-05 -0.2764445672 0.7975715996
615296310.0 0.3159603474 -0.792421076 6.17945e-05 0.0001499737 -0.00013992 3.50935e-05 -0.267675732 0.8004596988
620296280.0 0.3081373849 -0.7951346742 0.0001949929 3.7228e-05 2.82993e-05 -0.000182592 -0.260257422 0.8033335849
625296250.0 0.3001626474 -0.7977232725 -5.95097e-05 7.67266e-05 8.11716e-05 6.17443e-05 -0.251994231 0.8048609352
630296220.0 0.2917366808 -0.8004923931 -0.0001813173 -6.20036e-05 -5.7012e-05 0.0001892822 -0.2439088369 0.8077880332
635296190.0 0.2843525012 -0.8029860508 9.08752e-05 9.875e-05 -0.0002278935 0.0001126115 -0.2355502454 0.8104086521
640296160.0 0.2762035636 -0.8056096123 -0.0002066137 6.40205e-05 -7.29978e-05 -0.0001192921 -0.2272272623 0.8125155963
645296130.0 0.2691525088 -0.8079145869 -0.0001645824 -0.0002004034 -2.9684e-06 0.0001708304 -0.2198208529 0.8144063733
650296100.0 0.2603208058 -0.8105902917 0.0001315424 4.34103e-05 1.80034e-05 -5.98139e-05 -0.2109724981 0.8168114328
655296070.0 0.252318153 -0.8129585279 4.41843e-05 0.00018887 -5.97128e-05 -7.68397e-05 -0.2035043593 0.8191722442
660296040.0 0.2440412154 -0.8152755858 -0.0001260096 -0.0002197402 -0.0001288925 -0.0001474603 -0.1947124097 0.8210822488
665296010.0 0.2357937219 -0.8172173022 0.0002178478 -0.0002065561 -1.05882e-05 4.02005e-05 -0.1866326009 0.8223417677
670295980.0 0.2282277314 -0.8195829359 0.0001608644 0.0001997098 3.00696e-05 0.0001727962 -0.1787821976 0.824435647
675295950.0 0.2196288082 -0.8217380863 0.0001057045 -9.79466e-05 -0.000210146 8.94323e-05 -0.1699308593 0.8261250548
680295920.0 0.2114467575 -0.8230127042 2.61125e-05 5.74833e-05 0.0001534922 0.0001079369 -0.1617680517 0.8277940058
685295890.0 0.2029706279 -0.8245631135 -1.4725e-05 -9.60308e-05 -3.8466e-05 0.0001058054 -0.1532694661 0.8298709219
690295860.0 0.1952827753 -0.8264738832 1.01417e-05 -0.0002012907 -0.0001945432 0.0001310913 -0.1457557353 0.8312394721
695295830.0 0.1869065827 -0.8284928285 -3.46302e-05 0.0002609179 -1.36773e-05 8.2491e-05 -0.1376709445 0.8327866333
700295800.0 0.1787545366 -0.8300420855 0.0001309555 -0.0002373856 2.94147e-05 -2.64136e-05 -0.1284392031 0.8336656347
705295770.0 0.1703944949 -0.8315127842 -0.0002254722 6.59237e-05 3.6446e-05 3.5484e-05 -0.1204409982 0.8356368874
710295740.0 0.1623419042 -0.8320580485 -1.38529e-05 2.29328e-05 -2.05048e-05 1.34997e-05 -0.1122872997 0.8361828272
715295710.0 0.1538148315 -0.8338966565 0.000244683 0.0001733056 8.8203e-06 7.74485e-05 -0.1034817631 0.8366435879
720295680.0 0.1457915953 -0.8348683077 -2.18541e-05 0.0001514617 5.95212e-05 -3.73678e-05 -0.0948370486 0.8377188955
725295650.0 0.136676394 -0.8363395559 7.201e-07 -0.0002106152 0.0001070247 -8.76113e-05 -0.0869714733 0.8396289772
730295620.0 0.1280039132 -0.8377475114 0.000127763 -5.44973e-05 -5.14141e-05 -0.0002620529 -0.0790097129 0.8405513188
735295590.0 0.1206589634 -0.8383642342 -9.28519e-05 -0.0001242816 -9.12796e-05 -0.000122903 -0.0701170236 0.8405424063
740295560.0 0.1116360048 -0.839564612 7.67511e-05 -7.96412e-05 0.0002212678 0.0001760327 -0.0618769936 0.8416316624
745295530.0 0.1036916105 -0.8400822033 2.6226e-05 -6.94014e-05 9.72478e-05 -0.0001304051 -0.0542050586 0.8418804172
750295500.0 0.0947599846 -0.8404180505 -5.04457e-05 -5.68798e-05 6.89889e-05 -3.80531e-05 -0.0453885582 0.8425259737
755295470.0 0.0870567227 -0.8409430629 -0.0002185544 -7.0869e-06 -6.198e-07 -9.0044e-06 -0.0373218711 0.8430294391
760295440.0 0.078276284 -0.8414551057 -7.13389e-05 -3.5841e-05 0.0002512241 -2.1638e-06 -0.0286409691 0.8427250358
765295410.0 0.0703150609 -0.8421065883 -2.9574e-06 -8.04599e-05 -5.255e-05 2.77419e-05 -0.0196328808 0.8436317411
770295380.0 0.0610785666 -0.8420506073 4.68135e-05 -0.0002092388 -3.95088e-05 7.40307e-05 -0.0116105415 0.8434767766
775295350.0 0.0533144384 -0.8428615489 7.85363e-05 9.71037e-05 1.79777e-05 3.08758e-05 -0.0037107986 0.8437657437
780295320.0 0.0446370175 -0.8431498958 -8.79207e-05 -0.0001814327 -7.89752e-05 1.55937e-05 0.0050935228 0.843656924
785295290.0 0.0360665386 -0.8431763693 0.0001260878 -0.0002372576 -0.0001323149 3.53657e-05 0.0131431751 0.843549904
790295260.0 0.0285279065 -0.8430547097 3.24402e-05 3.91596e-05 -6.87005e-05 0.0001847263 0.0218025192 0.8430121309
795295230.0 0.0196918234 -0.8434483347 0.0001025436 0.0001123666 -4.43994e-05 6.74562e-05 0.0298438138 0.842453538
800295200.0 0.0110565841 -0.8435567509 0.0001109565 1.61773e-05 -9.98758e-05 2.25875e-05 0.038137786 0.8421018376
805295170.0 0.0022434683 -0.8432199712 0.0002117467 7.70139e-05 0.0001183795 0.0001160622 0.0469714446 0.8424841391
810295140.0 -0.0053356718 -0.8427922222 0.0001271427 -4.7815e-05 4.15444e-05 -0.0001603694 0.055181871 0.8415266888
815295110.0 -0.0142824442 -0.8424911203 -2.64739e-05 -5.542e-07 4.53007e-05 -0.000123197 0.0630154981 0.8408661974
820295080.0 -0.0223040004 -0.8425406861 0.0001497111 8.05805e-05 4.36622e-05 -4.53047e-05 0.0714031295 0.840929687
825295050.0 -0.0317645405 -0.8423264974 5.777e-06 0.000243119 -3.64345e-05 -5.03023e-05 0.0801270575 0.839387192
830295020.0 -0.0389032589 -0.8411289028 -6.47589e-05 9.39889e-05 -6.29234e-05 0.000184012 0.0879917702 0.8382730815
835294990.0 -0.0468198921 -0.8411647371 0.0002489252 -0.0001059553 -4.20594e-05 0.0001379387 0.0964080555 0.838140159
840294960.0 -0.0551089511 -0.8403786814 -0.0001191842 -7.18421e-05 -6.85652e-05 -7.5314e-05 0.1051876242 0.8371523689
845294930.0 -0.0641482264 -0.8387955512 -0.0003428352 0.0002555153 -1.75961e-05 0.0001752436 0.1137073009 0.8356185751
850294900.0 -0.0717241673 -0.8388035407 -2.7382e-05 6.80178e-05 -0.0001189896 7.43969e-05 0.1207947143 0.8351117623
