!Created with skrf (http://scikit-rf.org).
# Hz S RI R 50.0 
!freq ReS11 ImS11 ReS21 ImS21 ReS12 ImS12 ReS22 ImS22
300000.0 -0.3155503407 -0.1367521785 0.3714630294 0.0678416934 0.3712765799 0.0680415903 -0.3163776716 -0.1367578155
5299970.0 -0.32480117 0.0024724233 0.3783042064 0.0032446487 0.3787377039 0.003181598 -0.3255330806 0.0019841608
10299940.0 -0.3224509114 0.0143517193 0.3800423557 0.0026653236 0.3795027306 0.0030848103 -0.3228560755 0.0127056654
15299910.0 -0.3190339018 0.0223068511 0.3815622802 0.0025381802 0.3823193152 0.0028728088 -0.3204773308 0.0197897399
20299880.0 -0.3157178961 0.029082423 0.384658627 0.0016068493 0.3853373993 0.0019664134 -0.3177315177 0.025896869
25299850.0 -0.3114446161 0.0347351492 0.3887518894 0.0003290697 0.3884712058 0.0003202161 -0.3146825279 0.031209719
30299820.0 -0.3081776895 0.0394615567 0.3918753226 -0.0021142897 0.3920628038 -0.0019480404 -0.3114990507 0.0357510968
35299790.0 -0.3044301062 0.0435891794 0.3948955514 -0.0047738906 0.3955076982 -0.0052871386 -0.3091365216 0.0397065728
40299760.0 -0.3010266863 0.046909009 0.3982387321 -0.0087434476 0.3987691274 -0.00865454 -0.3063594255 0.0435189246
45299730.0 -0.2980209763 0.0500372232 0.4009849444 -0.0124048595 0.4016233662 -0.0126883693 -0.3033250744 0.0464449065
50299700.0 -0.2949504079 0.0527939064 0.4038261477 -0.0171768866 0.4036775409 -0.017094564 -0.3009939391 0.0497365013
55299670.0 -0.2922389224 0.0551812053 0.4058432014 -0.0213457216 0.4059484944 -0.0219685505 -0.2991521511 0.0523568631
60299640.0 -0.2896972132 0.0578380379 0.4079870877 -0.0268710961 0.4082808696 -0.0268661227 -0.2969612641 0.054698932
65299610.0 -0.2873445971 0.0601677497 0.4097153472 -0.0315824442 0.4095836315 -0.031668013 -0.2947862883 0.0573973044
70299580.0 -0.2851900839 0.0619508013 0.4106127752 -0.0364395304 0.4111965007 -0.037018217 -0.2934081702 0.0600117346
75299550.0 -0.2832754947 0.064155814 0.4112914808 -0.042166132 0.4119317728 -0.0419408515 -0.2917111644 0.0624745699
80299520.0 -0.2816511948 0.066656723 0.4127858041 -0.0474571563 0.4132659923 -0.0473984965 -0.2903920982 0.0650735268
85299490.0 -0.2797410307 0.0686663846 0.4135136217 -0.0527841943 0.4134928424 -0.0523114109 -0.2891500041 0.0670828818
90299460.0 -0.2782336138 0.0705258607 0.4135069859 -0.0575078993 0.4134368941 -0.0577555456 -0.2872594597 0.0693588039
95299430.0 -0.2768101176 0.072486122 0.4138405696 -0.063041299 0.4141891909 -0.0632930947 -0.286209657 0.0719992411
100299400.0 -0.2753457184 0.0748166906 0.4138969019 -0.0682168978 0.4142006695 -0.068538558 -0.2850494751 0.0746331591
105299370.0 -0.2737446663 0.0767877092 0.4139745902 -0.0733694891 0.4144503419 -0.0734360516 -0.2838498408 0.0762404296
110299340.0 -0.2724722064 0.0785744824 0.413855052 -0.0781006431 0.4143197883 -0.0783177021 -0.2828628242 0.0786276636
115299310.0 -0.2715822089 0.0809905192 0.4132381812 -0.0834873671 0.4134998478 -0.083697811 -0.2818149094 0.0814401897
120299280.0 -0.2702088153 0.0834323997 0.4131449068 -0.089315441 0.4131156747 -0.0890832954 -0.2807101593 0.0835671445
125299250.0 -0.2693318058 0.0853137098 0.4126163827 -0.0939201409 0.4126438192 -0.0940923236 -0.2798637375 0.0861465116
130299220.0 -0.268307575 0.0874299262 0.4121202746 -0.0990491627 0.4118948167 -0.0995138532 -0.2788525939 0.0883286272
135299190.0 -0.2673332864 0.0898094363 0.4113679634 -0.1036243793 0.4116107254 -0.1041006143 -0.2779919225 0.0909009698
140299160.0 -0.2661768347 0.0922619715 0.4105713179 -0.1090906038 0.4103602618 -0.1090655239 -0.2774906006 0.0930591728
145299130.0 -0.2654052596 0.0948774278 0.4097637269 -0.1140359366 0.4097443452 -0.1139998615 -0.2761238641 0.0959397363
150299100.0 -0.2641859192 0.097039791 0.4083620329 -0.1187937662 0.4079901428 -0.1191370235 -0.2752776517 0.0984388484
155299070.0 -0.2631854565 0.0994787794 0.406859076 -0.1237420672 0.4072584293 -0.1238602879 -0.2743065656 0.1010171054
160299040.0 -0.2623195415 0.1020603941 0.4059509815 -0.1287057654 0.406182496 -0.1289964241 -0.2738338733 0.1037738277
165299010.0 -0.2610730846 0.1042800254 0.4046885377 -0.1332645484 0.404882091 -0.1332292833 -0.2725548154 0.1060356878
170298980.0 -0.2601823648 0.1070655252 0.4032852688 -0.1384036321 0.4036146334 -0.1384978477 -0.2717537706 0.1088348845
175298950.0 -0.2590984772 0.1093137637 0.401969795 -0.1429856949 0.4026247225 -0.1432902127 -0.2708322878 0.1116352352
180298920.0 -0.258355883 0.1120184877 0.4006097989 -0.1480409288 0.4006420021 -0.1482678442 -0.2696072117 0.1140971568
185298890.0 -0.2571133597 0.1142779484 0.3993474462 -0.1527469454 0.3989617412 -0.1525652209 -0.2684164007 0.1166604102
190298860.0 -0.2557899806 0.1171091943 0.3968262719 -0.1574839192 0.3980305767 -0.1572562617 -0.2676092633 0.1192617384
195298830.0 -0.2547493245 0.1196220551 0.3961666406 -0.1619537539 0.3959821844 -0.1619412102 -0.2667043664 0.1219510126
200298800.0 -0.2533815084 0.1219084359 0.3942120429 -0.1665775967 0.3943291751 -0.1667924813 -0.2653943745 0.124638279
205298770.0 -0.2527143946 0.1247832324 0.3923310084 -0.1708205827 0.3925284131 -0.1710926265 -0.2644545407 0.1275780935
210298740.0 -0.2513625061 0.1273046052 0.3905662049 -0.1755304973 0.3903444698 -0.1756605226 -0.2636854068 0.1300237048
215298710.0 -0.2503456407 0.1299294425 0.3878681879 -0.179933356 0.3886619242 -0.1803696687 -0.2620467403 0.1328061648
220298680.0 -0.2489598164 0.1321925003 0.3865024576 -0.1842909934 0.3866486462 -0.184550926 -0.2608857283 0.1355235154
225298650.0 -0.2477625477 0.1353512818 0.384409659 -0.1890477741 0.3847843614 -0.1886723627 -0.2597319103 0.1382334052
230298620.0 -0.2464325859 0.1380511038 0.3828602583 -0.1934009539 0.3829524234 -0.1935218203 -0.2585428735 0.1408406575
235298590.0 -0.2453126467 0.1405130002 0.3807845096 -0.1981984544 0.3807281145 -0.1976321228 -0.257197807 0.14357081
240298560.0 -0.2440863986 0.1429946254 0.3783802551 -0.2018484189 0.3783920914 -0.2022574853 -0.2560185338 0.1459306817
245298530.0 -0.2427025041 0.1455253028 0.3759534144 -0.2065720774 0.3763417197 -0.2068834207 -0.2546349253 0.1491295693
250298500.0 -0.2415518591 0.1483349185 0.3740168233 -0.2107561866 0.3740770163 -0.2106149391 -0.2533543975 0.1516774178
255298470.0 -0.2398857449 0.151109847 0.3719552677 -0.2146484878 0.3721581843 -0.2151772397 -0.2517229012 0.1540061901
260298440.0 -0.2388274573 0.1535162936 0.3694862019 -0.2187744724 0.3694102704 -0.2191229746 -0.2502970083 0.1569236625
265298410.0 -0.2374622057 0.1561697615 0.3668703671 -0.2236693873 0.3666638511 -0.2238503994 -0.2488009494 0.1593789065
270298380.0 -0.235957639 0.1583690786 0.3641898626 -0.2271304768 0.3645817206 -0.2278127997 -0.2474614934 0.1623371756
275298350.0 -0.2341693951 0.1615040183 0.3612700638 -0.2313522614 0.3618601624 -0.2314890458 -0.2458511364 0.1652130892
280298320.0 -0.2331891451 0.1639767653 0.3592723708 -0.2352454041 0.3597165894 -0.2360865404 -0.2442232362 0.1679957098
285298290.0 -0.2316986636 0.166744564 0.3566773594 -0.2395513128 0.3568282146 -0.2393895369 -0.2426340582 0.1703518708
290298260.0 -0.2298696744 0.1692879819 0.3544650978 -0.2435511876 0.3541413509 -0.2439428845 -0.2408086307 0.1731857997
295298230.0 -0.2284070405 0.1717347363 0.3518774602 -0.2480893237 0.3514596603 -0.2479863452 -0.2391414944 0.1753277888
300298200.0 -0.2268283571 0.1740627993 0.3485644453 -0.25170751 0.348972023 -0.2513972372 -0.237611266 0.1781415837
305298170.0 -0.2251223791 0.1766096533 0.3459170114 -0.2557438977 0.346550658 -0.2560760809 -0.235668716 0.180508124
310298140.0 -0.2231666277 0.1789100957 0.3432865354 -0.2594434374 0.343548312 -0.2591916367 -0.2335866968 0.1828750051
315298110.0 -0.2219682279 0.1811641537 0.3407055682 -0.2638517641 0.3404950505 -0.2636757995 -0.231827689 0.1856474009
320298080.0 -0.2199514248 0.1839005438 0.3370218732 -0.2675200697 0.3377683825 -0.2676604709 -0.2302244669 0.1882568649
325298050.0 -0.2186506196 0.185783684 0.3345244653 -0.2708205063 0.3349164789 -0.271412257 -0.2279673853 0.1902030882
330298020.0 -0.2169890474 0.1884752422 0.3313948937 -0.2749595686 0.3319278342 -0.2751917079 -0.2267910107 0.1930354459
335297990.0 -0.2151372603 0.1907841849 0.328155522 -0.2787683317 0.3285790943 -0.2785926213 -0.2248232027 0.1956276489
340297960.0 -0.2139552641 0.193221249 0.3252138812 -0.2824929514 0.3249723236 -0.282263149 -0.2228650516 0.1982034195
345297930.0 -0.2118398274 0.1954758874 0.321926332 -0.2857776731 0.3219743613 -0.2857484065 -0.2210325292 0.2003880413
350297900.0 -0.2099437323 0.1979335569 0.3187361245 -0.2891680197 0.3188954038 -0.2892671493 -0.2190616755 0.2026131532
355297870.0 -0.2079696701 0.2002945379 0.3154357562 -0.292824613 0.3154782799 -0.2922625882 -0.2171282078 0.2053699351
360297840.0 -0.206367325 0.2029335967 0.312109491 -0.2963379681 0.3125481771 -0.2966616606 -0.2153907046 0.2079460729
365297810.0 -0.2046149803 0.2051996169 0.309164351 -0.2994884877 0.3090855267 -0.2997919148 -0.2132661524 0.2103276003
370297780.0 -0.2025446718 0.2072336815 0.3053872524 -0.303107338 0.3056167466 -0.3029737022 -0.2108661926 0.2128889552
375297750.0 -0.2005961291 0.2096753865 0.302325385 -0.3063376782 0.3022932962 -0.3062591009 -0.2085172472 0.2151750133
380297720.0 -0.1985612657 0.2120101269 0.2990300462 -0.3098446659 0.2988493335 -0.3098411868 -0.2064413434 0.2176508095
385297690.0 -0.1967126094 0.2140358748 0.2952685206 -0.3128921699 0.2954983657 -0.3133464468 -0.2041359862 0.2200035449
390297660.0 -0.1940262213 0.2160984449 0.2918713548 -0.3162291973 0.2921396661 -0.3160981844 -0.2019050323 0.221766528
395297630.0 -0.1916874132 0.2185301687 0.2882216284 -0.3190956134 0.2882827067 -0.3190640298 -0.1995550828 0.2241575802
400297600.0 -0.1900881825 0.2207999636 0.2849993244 -0.3225930402 0.2852398249 -0.3225126267 -0.1974711962 0.2269154164
405297570.0 -0.1879284136 0.2224390169 0.2816724585 -0.3254998664 0.2813542388 -0.3259556856 -0.1948358164 0.2292120897
410297540.0 -0.1856008669 0.2249173641 0.2779403598 -0.3289858062 0.2779045044 -0.3287760587 -0.1927085639 0.2315083189
415297510.0 -0.1836974561 0.2269942435 0.2743216548 -0.331537906 0.2744600876 -0.3318987313 -0.1902597328 0.2338554391
420297480.0 -0.1809179825 0.228767638 0.2703287285 -0.334897527 0.2707700087 -0.3350864124 -0.1876681813 0.2361571258
425297450.0 -0.1785875279 0.2310136731 0.266997908 -0.3375873087 0.2666516852 -0.3375581312 -0.1854774741 0.237709213
430297420.0 -0.1766810992 0.2330422899 0.2637150937 -0.3405678541 0.2633040192 -0.3402266001 -0.1826371886 0.240108967
435297390.0 -0.1742579252 0.2345386124 0.259037686 -0.3436198857 0.259515695 -0.3433513015 -0.1810998397 0.2425315417
440297360.0 -0.1715845002 0.2365358325 0.2556419057 -0.3461507142 0.2556181213 -0.3462756816 -0.1782040142 0.244414379
445297330.0 -0.1690122132 0.2385930715 0.2518150957 -0.3487146809 0.251630954 -0.3493901119 -0.1752587448 0.2467324644
450297300.0 -0.1666967094 0.2401261994 0.2477826982 -0.3516191358 0.2480077416 -0.3517846281 -0.172461022 0.2484312048
455297270.0 -0.1645360915 0.2421240451 0.2444593096 -0.3542702043 0.2441569341 -0.3545692382 -0.1701397293 0.2503093338
460297240.0 -0.1615632954 0.244283213 0.2399104236 -0.3574673032 0.2401899622 -0.3572628121 -0.1674510602 0.2522652205
465297210.0 -0.1590281007 0.2458966579 0.2357004657 -0.3597397486 0.2357477532 -0.3601261907 -0.1646898516 0.2545312183
470297180.0 -0.1566205727 0.2475980109 0.2322570765 -0.3617496798 0.2323539104 -0.3621723853 -0.1621305848 0.2561579462
475297150.0 -0.1540163577 0.2498460957 0.2278743642 -0.3646657604 0.2285542448 -0.3648229317 -0.1595518671 0.2583794822
480297120.0 -0.150904087 0.2514351045 0.2238055138 -0.3670841702 0.2241869779 -0.3670260456 -0.1571245833 0.2599957883
485297090.0 -0.14847817 0.2526710847 0.2198041524 -0.3693039063 0.2199570339 -0.3693165209 -0.1542809487 0.2617061551
490297060.0 -0.1449308545 0.2546673086 0.2155089032 -0.371958108 0.2161975836 -0.3717845396 -0.1518338485 0.2631561248
495297030.0 -0.142794538 0.2560440944 0.2119950939 -0.3742632975 0.212012831 -0.3743731762 -0.148313036 0.2650443981
500297000.0 -0.1404528818 0.2576867038 0.2080870748 -0.3762660471 0.2078582742 -0.3768780189 -0.1456538463 0.2668865759
505296970.0 -0.1370247723 0.2593979456 0.2036614622 -0.3787761832 0.2033289799 -0.3784318395 -0.1425477742 0.2682763654
510296940.0 -0.1346699343 0.2608995767 0.1996050806 -0.3812042491 0.1997048926 -0.3814089641 -0.1396453767 0.2703672582
515296910.0 -0.1319254843 0.2629524477 0.1953650913 -0.3832131605 0.1947594689 -0.3829303206 -0.1373439904 0.271321672
520296880.0 -0.128719903 0.2642205997 0.190991826 -0.3852691312 0.1908575116 -0.3853347706 -0.1339109394 0.2738723832
525296850.0 -0.126059358 0.2656037506 0.1865743896 -0.3874991701 0.1867136749 -0.3872293586 -0.1314630107 0.275110456
530296820.0 -0.1231612532 0.2669318025 0.1819132379 -0.3890449159 0.1824616593 -0.3891546657 -0.1284935608 0.2763875342
535296790.0 -0.1197656115 0.268294458 0.1782155197 -0.3909108506 0.1779187107 -0.3913388821 -0.1252060145 0.2780909902
540296760.0 -0.1171603488 0.2700749205 0.1736298529 -0.3928964592 0.1734412364 -0.3925915684 -0.1222822626 0.2791876647
545296730.0 -0.1145435212 0.2717679507 0.1697907281 -0.3946696798 0.1694151332 -0.3947224075 -0.1192840226 0.2810523974
550296700.0 -0.1114837432 0.2728453432 0.1653729771 -0.3968252325 0.1647716955 -0.3968824636 -0.1163545489 0.2822131881
555296670.0 -0.1083052477 0.2741893195 0.1607822611 -0.3984900344 0.1607267927 -0.3982397739 -0.1138461146 0.2831948314
560296640.0 -0.1050473955 0.2752939398 0.1561002052 -0.3999444468 0.1565441996 -0.4000149745 -0.1105249158 0.2851967842
565296610.0 -0.1027483717 0.2769729493 0.1524298326 -0.4017938335 0.1521701171 -0.4015004456 -0.1072911145 0.2861927065
570296580.0 -0.0993943904 0.2784191046 0.1474928003 -0.4032290906 0.1474200849 -0.4031509009 -0.1045710152 0.287304972
575296550.0 -0.0958766646 0.2792586607 0.1433326004 -0.4047782451 0.1431563786 -0.4048804993 -0.1015922021 0.2885110937
580296520.0 -0.0932777607 0.2805280979 0.138620806 -0.4064881582 0.1383642907 -0.4065086794 -0.0985798902 0.2898385067
585296490.0 -0.0901858619 0.282127781 0.1350438756 -0.4074800881 0.1339136998 -0.4077051344 -0.0952934842 0.2911522798
590296460.0 -0.0865271776 0.2829626195 0.1299202707 -0.4090034237 0.1298793721 -0.4091557876 -0.0923872342 0.2922315829
595296430.0 -0.0837449567 0.284078369 0.1247832732 -0.4103408891 0.1251051249 -0.4103998045 -0.0894513083 0.2929914883
600296400.0 -0.08082983 0.2851243879 0.1207992966 -0.4114272731 0.1205412845 -0.4116895267 -0.0860213043 0.2943288213
605296370.0 -0.0777955052 0.286511863 0.1167797919 -0.4127361911 0.1161027884 -0.4131620954 -0.0830300611 0.2954466986
610296340.0 -0.0742324492 0.2876439261 0.1119097538 -0.4136733125 0.112394523 -0.4140796238 -0.0802807109 0.2963983944
615296310.0 -0.0710627573 0.2883221338 0.1072522543 -0.4153031628 0.1071944507 -0.4153657831 -0.0764731495 0.2975349353
620296280.0 -0.0683015311 0.2897219159 0.1024160743 -0.4164880296 0.1025894116 -0.4163602213 -0.0738097909 0.2985999424
625296250.0 -0.0654916456 0.2903516204 0.0985188751 -0.4176383862 0.098138235 -0.4176283097 -0.0706051336 0.2991284366
630296220.0 -0.0623248391 0.2914001339 0.0937099421 -0.4181976691 0.0934174518 -0.4184264286 -0.0674571217 0.3003618663
635296190.0 -0.0591188636 0.2925679048 0.0893567042 -0.4193122586 0.0889939407 -0.4192632726 -0.0644609481 0.3007641157
640296160.0 -0.0556969214 0.2930374863 0.0844502851 -0.4201827928 0.0845204296 -0.4206483444 -0.0613681926 0.3017159511
645296130.0 -0.0527023214 0.2943893515 0.0800962208 -0.4210015785 0.0798351584 -0.4208084876 -0.0581807614 0.3021002537
650296100.0 -0.0497165949 0.2946216131 0.0754624817 -0.4218872666 0.0751020588 -0.4222651838 -0.0544876971 0.3030942268
655296070.0 -0.0466205302 0.2959747978 0.0708297561 -0.4230114441 0.0707491585 -0.4225712195 -0.0519777732 0.3041462173
660296040.0 -0.0436908785 0.2964757264 0.0663520019 -0.4234965394 0.0661671141 -0.4238835475 -0.0485888757 0.3045311988
665296010.0 -0.0402987603 0.297217298 0.0612844637 -0.4234302411 0.0615318352 -0.4240883329 -0.0452453443 0.3050589777
670295980.0 -0.037176439 0.298039572 0.0567095012 -0.4245050601 0.0569113592 -0.4240797837 -0.0420681583 0.3052475431
675295950.0 -0.0339799933 0.2985071601 0.0523633344 -0.4248233464 0.0521882814 -0.4253414254 -0.0387355261 0.3063755383
680295920.0 -0.0311082222 0.2995489478 0.04774712 -0.425545749 0.0474707593 -0.4254776481 -0.0354525898 0.3067047815
685295890.0 -0.0277995734 0.3000383737 0.043455834 -0.4260984403 0.0431281139 -0.4262909863 -0.032233448 0.3074709863
690295860.0 -0.0247648968 0.3007300431 0.0385000885 -0.4266247504 0.0383814779 -0.4265289444 -0.0292938867 0.3079413402
695295830.0 -0.0218555968 0.301187337 0.0341324663 -0.4272412412 0.0338554835 -0.4268065087 -0.0259746751 0.3085528179
700295800.0 -0.0183988145 0.3019407389 0.0297103017 -0.4271800534 0.0293573792 -0.4273434365 -0.0229917262 0.3086383359
705295770.0 -0.0154634556 0.3021314572 0.024651452 -0.4276968973 0.024618756 -0.4274981422 -0.0195700944 0.3093209595
710295740.0 -0.0126061814 0.3023637332 0.0202509316 -0.4278461713 0.0197639484 -0.4279037693 -0.0162503169 0.3095157883
715295710.0 -0.0088224852 0.3030479571 0.0156626179 -0.4279419788 0.0153908736 -0.4278908995 -0.0126857508 0.3095060498
720295680.0 -0.0057528726 0.3030738784 0.0107516906 -0.4276083312 0.0105770548 -0.4282722495 -0.009815776 0.3100405429
725295650.0 -0.0031840205 0.3038828409 0.0063940715 -0.4280157738 0.0063969604 -0.4280574176 -0.0067377695 0.3105857641
730295620.0 -0.0002566317 0.3040071781 0.0016410677 -0.4276243078 0.0014595193 -0.427636572 -0.0032437802 0.3107203578
735295590.0 0.0031384615 0.3041752688 -0.0028390564 -0.4278693727 -0.0031773212 -0.4281972743 0.0001729399 0.3109366058
740295560.0 0.0057515424 0.3041139569 -0.0073780479 -0.4276833632 -0.0075336461 -0.4280079272 0.0031677564 0.3111983028
745295530.0 0.0092245107 0.3047037888 -0.012129931 -0.4270957767 -0.0117471034 -0.4279061024 0.0061980489 0.311011579
750295500.0 0.01203047 0.3050607442 -0.016411406 -0.4274527417 -0.0171633118 -0.4276388979 0.0098867434 0.3112360889
755295470.0 0.015341325 0.3048176999 -0.0211191513 -0.4272100472 -0.0213413048 -0.4275247339 0.0129618075 0.3116302892
760295440.0 0.018398429 0.3053168488 -0.0259541449 -0.4269592785 -0.0262506057 -0.4266386397 0.0164086735 0.3106826054
765295410.0 0.0216383392 0.3049857762 -0.0304816637 -0.4265356692 -0.0302269337 -0.4267167872 0.0194865229 0.3110804596
770295380.0 0.0242105478 0.3054255409 -0.0347448814 -0.4261583092 -0.0351274697 -0.4263644561 0.0223577027 0.3109548144
775295350.0 0.0275032417 0.3048325033 -0.0394598442 -0.4259066062 -0.0395811788 -0.4256784812 0.0261577672 0.3106995141
780295320.0 0.0306676084 0.304942352 -0.0437638257 -0.425034537 -0.0441155418 -0.4251788019 0.0293370716 0.3105572404
785295290.0 0.0335782753 0.3048149272 -0.0486588 -0.4249286754 -0.0487897311 -0.4252706973 0.0321797277 0.3109169073
790295260.0 0.0367038996 0.3046496432 -0.0533051038 -0.4243015151 -0.0531700474 -0.424376807 0.0354827517 0.3107922316
795295230.0 0.0398851042 0.3042476744 -0.058011373 -0.4237678873 -0.0580340838 -0.4238009559 0.0389344876 0.3098586209
800295200.0 0.0425161117 0.3042504994 -0.0619816529 -0.4226892485 -0.0623620394 -0.4232001931 0.0419936298 0.3096577588
805295170.0 0.0455905201 0.3043984136 -0.0668502259 -0.422246783 -0.0671100572 -0.4225103869 0.0458255607 0.3091922097
810295140.0 0.0491860357 0.3036719938 -0.0716449262 -0.4211282875 -0.0718401896 -0.4215808298 0.0488076969 0.3092311337
815295110.0 0.0516562933 0.3035564849 -0.0758017211 -0.4207947433 -0.0759169647 -0.4207176796 0.0514799464 0.3090559108
820295080.0 0.0547130329 0.3033055094 -0.0800464562 -0.4196364483 -0.0803418537 -0.4201785774 0.0545193759 0.3088492432
825295050.0 0.0576437957 0.3024582977 -0.0851426879 -0.4188154612 -0.0850554982 -0.4189896458 0.0583906126 0.308122358
830295020.0 0.0609671523 0.3022046537 -0.0891778539 -0.4179824928 -0.0892634458 -0.4180002604 0.0612543252 0.3073110803
