!Created with skrf (http://scikit-rf.org).
# Hz S RI R 50.0 
!freq ReS11 ImS11 ReS21 ImS21 ReS12 ImS12 ReS22 ImS22
300000.0 -0.2407882835 -0.0746038188 0.4730069755 0.0502177144 0.4678803529 0.0476376251 -0.2420594302 -0.084537033
5299970.0 -0.2443877835 0.0074248327 0.4739551299 0.0048430525 0.4736918637 0.0049885982 -0.2444375824 0.0074182756
10299940.0 -0.2410263062 0.0189512439 0.4755938942 0.0061366661 0.4755971883 0.0065076282 -0.2412725266 0.020360427
15299910.0 -0.2369386574 0.0279525936 0.4793934544 0.0077790476 0.4794635673 0.0079440727 -0.2366056189 0.0295421759
20299880.0 -0.2320895527 0.0356073716 0.4839480082 0.0085700784 0.4841622838 0.0082400448 -0.2312345422 0.0375017313
25299850.0 -0.2269065297 0.0421447203 0.4891722841 0.0073397474 0.4889008269 0.0075067645 -0.2251316628 0.0436665148
30299820.0 -0.2214121534 0.0468741158 0.4942027824 0.0054864184 0.4944928883 0.0054751257 -0.2191940947 0.048511645
35299790.0 -0.2163101753 0.0512731703 0.4999212038 0.0021491725 0.5001072487 0.0022451627 -0.2138282826 0.053134716
40299760.0 -0.2116483564 0.0548327273 0.504878766 -0.001633916 0.5051483927 -0.0018853051 -0.2085054071 0.0560890484
45299730.0 -0.2065794145 0.0580204886 0.5098506721 -0.0063163195 0.5099425612 -0.0065021383 -0.2032744284 0.0588564479
50299700.0 -0.2023863101 0.0601009381 0.5143273239 -0.0121408148 0.5142536617 -0.0116063297 -0.1985098165 0.0604251532
55299670.0 -0.1981802637 0.061721694 0.517699155 -0.0182045339 0.5182034053 -0.0178196268 -0.194365536 0.0620755401
60299640.0 -0.194410303 0.0634256853 0.5211813409 -0.0245505446 0.5214202379 -0.0238608195 -0.1905517566 0.0628839247
65299610.0 -0.1910386618 0.0646201235 0.5241946508 -0.0305311437 0.5244874473 -0.0301783948 -0.1870139239 0.0638420985
70299580.0 -0.1879943618 0.0662591208 0.5267737745 -0.037186773 0.5266224332 -0.0369781492 -0.1837115728 0.064811752
75299550.0 -0.1851652725 0.0671383991 0.5282356828 -0.0438709098 0.5285359109 -0.0439932429 -0.1810728876 0.065257159
80299520.0 -0.1824514441 0.0681557438 0.5305839514 -0.0510409019 0.5307474967 -0.0510312332 -0.1783275545 0.0660025086
85299490.0 -0.1800024901 0.0688526381 0.5315929466 -0.0573471611 0.5319189334 -0.0572180799 -0.1758556611 0.0659466946
90299460.0 -0.178004998 0.0697644739 0.5324457825 -0.0646281981 0.5329935192 -0.064421897 -0.1735295506 0.0668113918
95299430.0 -0.1756108988 0.0703685723 0.5337659913 -0.0714295012 0.5339116621 -0.0714827036 -0.1713959965 0.0672164097
100299400.0 -0.1737904839 0.0714197585 0.5335809303 -0.0783609033 0.5341044165 -0.0784569059 -0.1693124989 0.0675735641
105299370.0 -0.1721358202 0.0722787096 0.5345074145 -0.0856695035 0.5343914281 -0.0852470645 -0.1675915544 0.0681812092
110299340.0 -0.1705842429 0.0732097353 0.5350772953 -0.0919093642 0.5344034263 -0.0922884097 -0.1664018506 0.0685743807
115299310.0 -0.1685280925 0.0740472353 0.5346761746 -0.099161373 0.5347596363 -0.0988239427 -0.1645708692 0.0691061231
120299280.0 -0.167409416 0.074558862 0.534198733 -0.1058601536 0.5344792175 -0.1058980831 -0.1633609971 0.0697355725
125299250.0 -0.166139542 0.0753460466 0.5339114735 -0.1122807259 0.5343028582 -0.112359594 -0.1622992754 0.0699020657
130299220.0 -0.1649987071 0.076671116 0.533303878 -0.1190793224 0.5333697007 -0.1193368415 -0.1610132237 0.070356167
135299190.0 -0.1637683271 0.0777760988 0.5328678222 -0.1260908035 0.5328733127 -0.1258655841 -0.1600578729 0.0714396468
140299160.0 -0.1627381153 0.0789922743 0.5318608975 -0.1327179885 0.5320288437 -0.1323716627 -0.1588791525 0.0726122892
145299130.0 -0.1613943863 0.0798168851 0.531489459 -0.1389836895 0.5309447333 -0.1390398224 -0.158105832 0.073064288
150299100.0 -0.1602649915 0.0812407826 0.5296918217 -0.1452474816 0.5299699458 -0.145374475 -0.1570370216 0.0738905751
155299070.0 -0.1593837874 0.0821636687 0.5287586524 -0.1527130793 0.5289159443 -0.1525357204 -0.1560716062 0.0750519884
160299040.0 -0.1583744149 0.0834070907 0.5275340757 -0.1587787001 0.5268077747 -0.1589466746 -0.1557780425 0.0755818429
165299010.0 -0.1577481273 0.0847252535 0.5263510778 -0.1656532063 0.526082071 -0.1653505083 -0.1546732346 0.0766631704
170298980.0 -0.1564363832 0.0857536762 0.5242371656 -0.1716456758 0.52460645 -0.1714846795 -0.1539143334 0.0775219806
175298950.0 -0.1554287577 0.087077925 0.5232225574 -0.1778767624 0.5228400564 -0.1777842679 -0.1533931552 0.0787136662
180298920.0 -0.1549080423 0.0884312443 0.5214131844 -0.184150038 0.5206549961 -0.1838948325 -0.1523846989 0.0798674661
185298890.0 -0.1534039244 0.0896208856 0.5188714496 -0.1902698072 0.5190155009 -0.1902213609 -0.1515203247 0.0807484896
190298860.0 -0.152787465 0.0909838848 0.5176086685 -0.1964258157 0.5176590016 -0.1963961498 -0.1510094271 0.0816643898
195298830.0 -0.151837384 0.0920692492 0.5152413497 -0.2024765038 0.5155977617 -0.2024129313 -0.1499122338 0.0830827106
200298800.0 -0.1508237062 0.0936548804 0.5130394554 -0.2090809917 0.5132389301 -0.2088772568 -0.1495253156 0.0839425176
205298770.0 -0.1499248443 0.095204701 0.5106434562 -0.2149071752 0.5107238174 -0.2147147544 -0.148543794 0.08456958
210298740.0 -0.1489225748 0.0961787756 0.5086295105 -0.2206724803 0.5088184529 -0.2204568683 -0.1477456104 0.0863482607
215298710.0 -0.1483348319 0.0978078176 0.5065079489 -0.2271256084 0.5062613721 -0.2270157957 -0.1474637608 0.0871882957
220298680.0 -0.1470368822 0.099001949 0.5035077905 -0.2324145849 0.5038924308 -0.2323721998 -0.146888706 0.0885078491
225298650.0 -0.1462724645 0.100194399 0.5014559301 -0.2385413168 0.501536893 -0.2386576975 -0.1462825473 0.0893548082
230298620.0 -0.1450972425 0.1020052376 0.4992075004 -0.2441696617 0.4995586348 -0.244237448 -0.1456376822 0.090653079
235298590.0 -0.1442065246 0.1033833794 0.4965039866 -0.2497974342 0.4962915546 -0.2498386499 -0.1445760184 0.0920349922
240298560.0 -0.1432450231 0.1050525079 0.4936730007 -0.2561149154 0.4935828528 -0.25595866 -0.143822604 0.0936883902
245298530.0 -0.1420679249 0.1065356255 0.4910440501 -0.2616123404 0.4909022455 -0.2616209191 -0.1429452697 0.0944198028
250298500.0 -0.1407846816 0.1081105074 0.4876348445 -0.2672459871 0.4873694128 -0.2668808842 -0.1424545871 0.0954602893
255298470.0 -0.1400257285 0.109209042 0.484861952 -0.2723962664 0.4849396661 -0.2723358183 -0.141077743 0.0970679123
260298440.0 -0.1387842749 0.1104727715 0.4817333744 -0.2782770794 0.4823896667 -0.2782192015 -0.1401476091 0.0982621801
265298410.0 -0.1374830328 0.1124702082 0.4790092022 -0.2838893243 0.479787686 -0.2834838478 -0.1396524721 0.099216406
270298380.0 -0.1367155804 0.1136835178 0.4764981378 -0.2888148814 0.4763013903 -0.2890147002 -0.1388231162 0.1007326888
275298350.0 -0.1352080046 0.1151499742 0.4727887506 -0.2947063109 0.4732579421 -0.2945595308 -0.1377332623 0.1018366258
280298320.0 -0.1339843874 0.1167966735 0.4699001296 -0.3001879876 0.4694975048 -0.2998381481 -0.1367893602 0.1034478676
285298290.0 -0.1330698363 0.1182942465 0.4666171562 -0.305227836 0.4663255642 -0.3054912785 -0.1357005525 0.1045358612
290298260.0 -0.1317214883 0.1195746997 0.4630407956 -0.3102059685 0.4633913929 -0.3106736557 -0.1350435638 0.1060039141
295298230.0 -0.1301566658 0.1208293947 0.4597519248 -0.3159295713 0.4599479694 -0.315940584 -0.1337192968 0.1070407244
300298200.0 -0.1294774955 0.1222696187 0.4567836988 -0.3208946925 0.4566837787 -0.3212593644 -0.1329411863 0.1083789471
305298170.0 -0.1276980793 0.1235026953 0.4525601105 -0.3264314382 0.452930751 -0.3261225663 -0.1315335162 0.1092732643
310298140.0 -0.1266380064 0.1251767201 0.4495063239 -0.3317796448 0.4495105548 -0.3314236864 -0.1308028937 0.1107888288
315298110.0 -0.1252617934 0.126331629 0.4456988202 -0.3368169399 0.4456603159 -0.3368055103 -0.1299266985 0.1117073595
320298080.0 -0.1237757134 0.1278122422 0.4417577059 -0.341996957 0.4417792108 -0.341856491 -0.1287653141 0.1132582692
325298050.0 -0.1225997657 0.1287735194 0.4379343523 -0.3470354679 0.4378926932 -0.3467977 -0.1284898245 0.1140763971
330298020.0 -0.1214036414 0.1299882739 0.43381633 -0.3518651628 0.4340569233 -0.3517005598 -0.1275957068 0.11546599
335297990.0 -0.1201545537 0.1313679908 0.4301294119 -0.3564961466 0.4300072142 -0.3570592816 -0.1266665057 0.1169227342
340297960.0 -0.1194288326 0.1328059857 0.4257835012 -0.3612260047 0.4256357424 -0.3613565585 -0.1253676336 0.1182857236
345297930.0 -0.1180471716 0.1346450832 0.4219763075 -0.3665123255 0.4219447411 -0.3664296743 -0.1244859911 0.119193965
350297900.0 -0.1167013454 0.1356417736 0.4171765252 -0.3706262154 0.4173480713 -0.3709606264 -0.1239493955 0.1211909893
355297870.0 -0.115153232 0.1375019359 0.4130461882 -0.3754993349 0.4134325323 -0.3752669477 -0.1228757885 0.1220431011
360297840.0 -0.1134732795 0.1385546292 0.409557007 -0.3798470292 0.4095873371 -0.3798064388 -0.1215182526 0.1235521316
365297810.0 -0.1126858194 0.1402148086 0.4051760721 -0.3844567947 0.4051447362 -0.3844226411 -0.1202460978 0.1248650862
370297780.0 -0.1107711583 0.1414231413 0.4005980185 -0.3889204596 0.4011901345 -0.3882622327 -0.1194991499 0.1259382963
375297750.0 -0.1090436598 0.1427358819 0.3966185624 -0.3931414958 0.3970319626 -0.3935552036 -0.1182836599 0.1274003193
380297720.0 -0.1075936455 0.1440026368 0.3917579602 -0.3975601509 0.392232286 -0.3970799884 -0.1172586752 0.1283496148
385297690.0 -0.1064510752 0.145635576 0.3875879138 -0.4020795627 0.3874294471 -0.4019422614 -0.1158249212 0.1299511992
390297660.0 -0.1049214928 0.1469166319 0.3836632777 -0.4062853814 0.3833381758 -0.4058991819 -0.1152528105 0.130951404
395297630.0 -0.1029144779 0.1482854648 0.3784309596 -0.410652641 0.378792737 -0.4103415867 -0.1132825023 0.1323315212
400297600.0 -0.1019038232 0.1495524063 0.3739992864 -0.4150321765 0.3742321247 -0.4142936473 -0.1119518468 0.1336132959
405297570.0 -0.100308132 0.1507979701 0.3695967667 -0.4184534548 0.3699046714 -0.4180185698 -0.1113928355 0.1348092315
410297540.0 -0.0984701101 0.1520580334 0.3655502242 -0.4224526676 0.3655688324 -0.4224845374 -0.109952717 0.1362767937
415297510.0 -0.0965012125 0.1530641369 0.3605616884 -0.4270554671 0.3608494926 -0.4264402124 -0.1085683196 0.1372031761
420297480.0 -0.0952300204 0.1545233785 0.355577408 -0.4304041709 0.3557926584 -0.4305150835 -0.1075436565 0.1380608052
425297450.0 -0.0934346756 0.155306324 0.3512940501 -0.4344613164 0.3516427892 -0.4343612913 -0.1063822463 0.139997079
430297420.0 -0.0917997999 0.1564303147 0.346095215 -0.4376432319 0.3462551133 -0.4377658169 -0.1048846599 0.1406273382
435297390.0 -0.0902434244 0.1577760751 0.3408934355 -0.4418008305 0.3411915048 -0.4418610356 -0.1032336948 0.1417806801
440297360.0 -0.0884033855 0.1589633945 0.3363678902 -0.4454948309 0.3367648187 -0.4453422414 -0.1023349938 0.143035093
445297330.0 -0.0868445539 0.1600087276 0.3319680321 -0.4494508825 0.3320092571 -0.4488949328 -0.1006466683 0.1438140701
450297300.0 -0.0849715117 0.1609328869 0.3269567452 -0.452583575 0.326696226 -0.4530156542 -0.0993744001 0.1449016557
455297270.0 -0.0830882505 0.1624243543 0.3219035374 -0.456195023 0.3219184442 -0.4565968289 -0.098025315 0.1463015018
460297240.0 -0.0814096748 0.1631741354 0.3166656555 -0.4597129929 0.3169962563 -0.4599060748 -0.0966721979 0.1474685979
465297210.0 -0.0795218747 0.1646145903 0.3121662419 -0.4634612566 0.3115945314 -0.4634952399 -0.094916025 0.1479217883
470297180.0 -0.0778930395 0.1650109377 0.3068788823 -0.4664731224 0.3068669578 -0.4666344999 -0.0939183937 0.149798151
475297150.0 -0.0759147205 0.1661035021 0.3012075895 -0.4695968891 0.3015488887 -0.4697926749 -0.0919844912 0.1500705312
480297120.0 -0.0743833261 0.167461086 0.2963812801 -0.4736591528 0.29594681 -0.4735492717 -0.09067625 0.1515388724
485297090.0 -0.0723893918 0.168254851 0.2913200721 -0.4762457092 0.2914354239 -0.4759487326 -0.0890908168 0.1522583042
490297060.0 -0.0710526105 0.1691938271 0.2860669749 -0.479736906 0.2861832982 -0.4793537454 -0.0876556402 0.1538043751
495297030.0 -0.0689519145 0.1700468871 0.2803455049 -0.4826054837 0.2812098441 -0.4824840873 -0.0864818421 0.154741185
500297000.0 -0.0667846768 0.1710788522 0.2750813898 -0.4852183778 0.2750353124 -0.485304835 -0.0849686795 0.1561456867
505296970.0 -0.064722712 0.1715581535 0.2698734865 -0.4879287416 0.2697872862 -0.4886841928 -0.0834025292 0.1566100004
510296940.0 -0.0631750141 0.1726238567 0.2646447062 -0.4916105434 0.2644989781 -0.4919062534 -0.0816588166 0.1578722449
515296910.0 -0.0613643073 0.1734905296 0.2591180602 -0.494149974 0.2595071707 -0.4940906069 -0.0802386386 0.1586571843
520296880.0 -0.0595051223 0.1741763945 0.2539506399 -0.4971093615 0.2540161358 -0.4969210274 -0.0789692721 0.1593438541
525296850.0 -0.0571778587 0.1746864494 0.2483653702 -0.4995335075 0.2485813255 -0.4998195883 -0.0773978827 0.1604268871
530296820.0 -0.0553225587 0.1757555966 0.2429153304 -0.5024016646 0.2429675275 -0.5024228891 -0.0759724407 0.1612050087
535296790.0 -0.053866991 0.1763419448 0.2377221039 -0.5046847666 0.2377302337 -0.5043905209 -0.0744946091 0.1619643474
540296760.0 -0.0517520397 0.177371337 0.2318423574 -0.5075196322 0.2322824218 -0.5074506706 -0.0730806632 0.1633371614
545296730.0 -0.0499138613 0.1780198435 0.2261780973 -0.5100699347 0.2266096861 -0.509824998 -0.0715368354 0.1635843522
550296700.0 -0.0471853574 0.1786035733 0.2208975726 -0.5121373654 0.2210973952 -0.5126776604 -0.0699103728 0.1646293723
555296670.0 -0.0461090038 0.1793236055 0.2155873598 -0.5147667236 0.2157607021 -0.5145796353 -0.0683098667 0.1658663001
560296640.0 -0.0435114622 0.1801600904 0.2097562494 -0.5172455696 0.2098349281 -0.5169721132 -0.0668778271 0.166336887
565296610.0 -0.0420458672 0.1807693899 0.204331516 -0.5192915262 0.2042497081 -0.5190588748 -0.0651000085 0.1667995321
570296580.0 -0.0401608872 0.1813631213 0.1982310111 -0.521446203 0.1979166902 -0.5214487839 -0.06322062 0.1683362487
575296550.0 -0.0381597662 0.1820226306 0.1925931136 -0.5235331849 0.1928088536 -0.5238671657 -0.0614749023 0.1687135576
580296520.0 -0.0358082612 0.1824438819 0.186576777 -0.5259918652 0.1871658527 -0.5255627055 -0.060032136 0.1696097792
585296490.0 -0.0341075684 0.1826396196 0.1818675048 -0.5270280439 0.1816471015 -0.5275587588 -0.0586795483 0.1702994437
590296460.0 -0.0317530059 0.1833001547 0.1757499853 -0.5289302933 0.1759673594 -0.5291469293 -0.0574721562 0.170889596
595296430.0 -0.0295063659 0.183944069 0.1696610294 -0.5313650817 0.1701464373 -0.5311394388 -0.0550965095 0.1715105031
600296400.0 -0.0281415723 0.1844786343 0.1644044906 -0.5331181194 0.1640794517 -0.5326218857 -0.0539005764 0.1720628777
605296370.0 -0.0258137126 0.1848718488 0.1581124977 -0.5346451618 0.1586270526 -0.534632576 -0.051857594 0.1728111447
610296340.0 -0.0237530576 0.1854367214 0.1521591843 -0.5363867287 0.1531112641 -0.5363949785 -0.050023549 0.1734344671
615296310.0 -0.0215247086 0.1853791623 0.1462739953 -0.5376445674 0.1466419594 -0.5383982615 -0.0481936127 0.1741359057
620296280.0 -0.0194885056 0.1857197531 0.1405565685 -0.5391386801 0.1410114821 -0.5392608465 -0.0467083067 0.174702526
625296250.0 -0.0177806369 0.1862106912 0.1355612769 -0.5411260347 0.1349815912 -0.5409930781 -0.0448170361 0.1752318192
630296220.0 -0.0148413835 0.1865621828 0.1285295814 -0.5425059752 0.1289065446 -0.5422879412 -0.0432823166 0.1763133262
635296190.0 -0.0138822522 0.186959066 0.1230883144 -0.5435955614 0.1233687049 -0.5437538415 -0.0416811705 0.1765977338
640296160.0 -0.0117080299 0.1872665102 0.1172380844 -0.5447050577 0.1176826222 -0.5445802885 -0.0397701421 0.1770953573
645296130.0 -0.0093295922 0.1876896851 0.1114070033 -0.5459335153 0.111812487 -0.5462362478 -0.0381695386 0.1779654764
650296100.0 -0.0071506008 0.187780205 0.1053297953 -0.5472489689 0.1057384689 -0.54715553 -0.0360579299 0.1775978472
655296070.0 -0.0054172889 0.187798636 0.0994747717 -0.5481416736 0.0998294717 -0.5482144685 -0.034112822 0.1787167315
660296040.0 -0.0037244987 0.1876511053 0.0939849754 -0.5493105598 0.093989218 -0.5495275942 -0.0326503941 0.1792946402
665296010.0 -0.0010137902 0.1881727512 0.0871540292 -0.5502063883 0.0880938274 -0.5501945818 -0.0308946939 0.1803376028
670295980.0 0.0003405205 0.1884131496 0.0817507022 -0.5508841587 0.0818808464 -0.5510202912 -0.0294167578 0.1803039453
675295950.0 0.002778529 0.1886349371 0.0757130622 -0.5517361516 0.0762958551 -0.5514187994 -0.0279438389 0.1806540044
680295920.0 0.0045838144 0.1883446249 0.0699646536 -0.5521081408 0.0694077923 -0.5529619334 -0.0258372454 0.1814878224
685295890.0 0.0068674623 0.1889934331 0.063852216 -0.5533619062 0.0636636024 -0.5534155177 -0.0242918973 0.1818059525
690295860.0 0.0092977151 0.1889098629 0.0578506007 -0.5535899535 0.0580209208 -0.5542855384 -0.0227793072 0.1829271496
695295830.0 0.0110160843 0.1888635347 0.052141714 -0.554220112 0.0520440146 -0.5543011248 -0.0205535655 0.1826738625
700295800.0 0.0133232862 0.1885345922 0.0458578062 -0.5548094012 0.0456469468 -0.5548701999 -0.0190678776 0.1835065512
705295770.0 0.0152940402 0.1892102845 0.0394066038 -0.5554495658 0.0401977996 -0.5555746064 -0.0174612372 0.1836495069
710295740.0 0.0174579066 0.188821895 0.0338629683 -0.556045634 0.0343152553 -0.5561514018 -0.0155734044 0.1834196658
715295710.0 0.0190171645 0.1884340125 0.0285074276 -0.5560709564 0.0279731611 -0.5560044546 -0.0134003171 0.183631403
720295680.0 0.0214759694 0.1886637038 0.0219415796 -0.5565969055 0.0222389906 -0.5563488837 -0.0117703463 0.1843075998
725295650.0 0.0234065205 0.1887992983 0.0158857645 -0.5562266478 0.0161439255 -0.5567436216 -0.0104970203 0.1848031183
730295620.0 0.0254824404 0.1887862359 0.0099512733 -0.5563706387 0.0101339936 -0.5565999101 -0.008805088 0.1848363647
735295590.0 0.0276454822 0.1885216706 0.003994445 -0.5569941061 0.0039821739 -0.5565177339 -0.0070579339 0.1847663937
740295560.0 0.029564985 0.1885488734 -0.0018434803 -0.5565316283 -0.0021979286 -0.5562092369 -0.004580892 0.185252493
745295530.0 0.031416593 0.1882582865 -0.0082442377 -0.5562551678 -0.0082567208 -0.5560794222 -0.0029252074 0.185019159
750295500.0 0.0336258464 0.1877620225 -0.0137443991 -0.5561622187 -0.0138076814 -0.5568889923 -0.0011243975 0.1854447861
755295470.0 0.0361411983 0.187299854 -0.0197550991 -0.5560333092 -0.0200384663 -0.556157171 0.000830417 0.1854158204
760295440.0 0.0377962774 0.18748012 -0.0259234137 -0.5564791997 -0.0258597931 -0.5563489087 0.002542058 0.18548877
765295410.0 0.0400275018 0.1870794239 -0.0319513591 -0.5554216838 -0.0320934653 -0.5558570298 0.0042541903 0.1859314202
770295380.0 0.0418246025 0.1867754739 -0.0379320195 -0.5547079656 -0.0380991147 -0.5553472946 0.0060715084 0.1857592031
775295350.0 0.0438699144 0.1861263401 -0.0444014579 -0.5545312208 -0.0434947015 -0.5545526701 0.0072960686 0.1862574081
780295320.0 0.0462065944 0.1859248872 -0.0500354923 -0.5540713577 -0.0494642855 -0.5539798572 0.009680758 0.1857079134
785295290.0 0.048019343 0.1850695889 -0.0563212301 -0.5529231638 -0.055963929 -0.5534161971 0.0117990221 0.1860621815
790295260.0 0.0505699366 0.1853312137 -0.0614853787 -0.5528992473 -0.0612104971 -0.5531225255 0.0134943898 0.1861672668
795295230.0 0.0524162583 0.1844704777 -0.0679310114 -0.5520926105 -0.0673663559 -0.5522239973 0.0156619025 0.186401581
800295200.0 0.0541021096 0.1845158645 -0.0742191094 -0.5510971804 -0.0737229681 -0.5512194307 0.017099981 0.1863124058
805295170.0 0.0562831542 0.1837937072 -0.0795008654 -0.5503324042 -0.0796457144 -0.5506261293 0.0191550721 0.1863299737
810295140.0 0.0582676048 0.1829420759 -0.085296509 -0.5492263761 -0.0854546336 -0.5494569595 0.0211944173 0.1862262548
815295110.0 0.0605472608 0.1825301996 -0.0915710744 -0.5483098491 -0.0908365276 -0.5485506245 0.0227883941 0.1864335031
820295080.0 0.0620885105 0.1825510424 -0.0971256191 -0.5474181085 -0.0968913404 -0.5473322383 0.0246140568 0.1861106145
825295050.0 0.0647331029 0.1815720541 -0.1029326491 -0.5459360537 -0.1031524568 -0.546661264 0.0266066874 0.1864198591
830295020.0 0.0662038302 0.1810144936 -0.1091668807 -0.5447469277 -0.108835174 -0.5453291257 0.0289182078 0.1863953545
