!Created with skrf (http://scikit-rf.org).
# Hz S RI R 50.0 
!freq ReS11 ImS11 ReS21 ImS21 ReS12 ImS12 ReS22 ImS22
300000.0 -0.2397824227 -0.1017112475 0.4679327015 0.0655178463 0.4686142967 0.0707291007 -0.2366332871 -0.1092810442
5299970.0 -0.2435212677 0.0072164136 0.4738451273 0.0052001012 0.473771085 0.0055264182 -0.2442202823 0.0057380895
10299940.0 -0.2404226087 0.0197897479 0.4761100377 0.0065651743 0.475572707 0.0065366385 -0.2408287484 0.0183346486
15299910.0 -0.2360863448 0.0294685099 0.479203782 0.0074981269 0.479568841 0.0079747276 -0.2367566174 0.0276977818
20299880.0 -0.2306204904 0.0372636909 0.4840713657 0.0083731987 0.4843472354 0.0085921308 -0.2320975078 0.0353602955
25299850.0 -0.2246792417 0.0435422715 0.4896842539 0.0072804261 0.4896394068 0.0074945445 -0.2267740765 0.0418545496
30299820.0 -0.2187409239 0.0483820665 0.495092927 0.0057105955 0.4947423088 0.0054849452 -0.22169356 0.0469104055
35299790.0 -0.2128948314 0.0528945949 0.5001996388 0.0018561791 0.5002962152 0.0023128607 -0.2162035928 0.0512187104
40299760.0 -0.2076109593 0.0555298122 0.5051233429 -0.0013142189 0.5056078565 -0.0016365973 -0.2115655083 0.0545315062
45299730.0 -0.2023758654 0.0585265226 0.5102430394 -0.0069934666 0.5102502882 -0.0064755602 -0.2070182325 0.057342502
50299700.0 -0.1976254033 0.0601532566 0.5142672599 -0.0121113263 0.5143670105 -0.0120568958 -0.2021526312 0.0594626055
55299670.0 -0.1934807805 0.0616824937 0.517800657 -0.0177708904 0.5180609521 -0.0184243141 -0.1982094076 0.0614719388
60299640.0 -0.1893179928 0.0627998856 0.5214805188 -0.0246369085 0.5216166267 -0.024056983 -0.1946882076 0.0631871197
65299610.0 -0.1862361824 0.0638909802 0.524679189 -0.0299815516 0.5244837196 -0.030490274 -0.190815507 0.0645812321
70299580.0 -0.182786183 0.0643695974 0.5269198139 -0.0371500844 0.5268499484 -0.0367187076 -0.1881936316 0.0654835314
75299550.0 -0.1794915893 0.0651183262 0.5288870905 -0.0439580052 0.5286152334 -0.0442062868 -0.1849415568 0.066943177
80299520.0 -0.1773518989 0.0658215976 0.5310470639 -0.0511281075 0.5312514461 -0.050690228 -0.1826966333 0.0674103507
85299490.0 -0.1746471859 0.0659923722 0.5320316277 -0.0577844465 0.5320904255 -0.0578826769 -0.1800564818 0.0683321331
90299460.0 -0.1724227838 0.0665030127 0.5328630465 -0.0643954846 0.5333069534 -0.0646582707 -0.177885999 0.0693400109
95299430.0 -0.1704013736 0.0671036913 0.5338348246 -0.0722306231 0.5344096617 -0.0715195748 -0.1762110134 0.0701791992
100299400.0 -0.1687053963 0.0677401795 0.5342916231 -0.0785703665 0.5342697214 -0.0785143345 -0.1741670118 0.0706335317
105299370.0 -0.1669639896 0.0679766356 0.5344619228 -0.0855021404 0.5346542033 -0.0854572233 -0.1721818145 0.0716530608
110299340.0 -0.1654217385 0.0684855104 0.5348556765 -0.0923973693 0.5347121646 -0.092566251 -0.1705597926 0.0727067878
115299310.0 -0.1640154189 0.0687599324 0.5348668721 -0.0989219133 0.5347491193 -0.0988074131 -0.1690226758 0.0729793516
120299280.0 -0.1628914926 0.0694431937 0.5349493842 -0.1059131163 0.5350326338 -0.1062257919 -0.1680478565 0.0741516249
125299250.0 -0.1618922431 0.0697372245 0.5344146833 -0.1124867676 0.5345248973 -0.1126987587 -0.1665744892 0.0745418533
130299220.0 -0.160685892 0.0707269485 0.5339341052 -0.11895239 0.533603126 -0.1195403374 -0.1650843139 0.075969539
135299190.0 -0.1593302079 0.071073533 0.5331506585 -0.1257181572 0.5326745291 -0.1260684147 -0.1640868626 0.0767822259
140299160.0 -0.1588517422 0.0723871108 0.5323528628 -0.1325230447 0.5326340347 -0.1326696725 -0.1629297218 0.0777798967
145299130.0 -0.1574853734 0.072787423 0.531525524 -0.1392345695 0.5313198281 -0.1388538428 -0.1620792289 0.078721786
150299100.0 -0.156561688 0.0736740147 0.5302790192 -0.1460402762 0.5302439162 -0.1457882733 -0.1608053769 0.0798841515
155299070.0 -0.155945213 0.0746347235 0.5292921074 -0.1527724645 0.5292706193 -0.1526606642 -0.1601144603 0.0808946803
160299040.0 -0.1548493609 0.0754749048 0.5274670419 -0.1585360126 0.5277851238 -0.1589432507 -0.1590892364 0.0822249733
165299010.0 -0.1544294559 0.0762852877 0.5267894544 -0.1653065415 0.5265266335 -0.165286924 -0.1581667164 0.0833438297
170298980.0 -0.153795056 0.0773324265 0.5239738301 -0.1716485429 0.5245638226 -0.1715099183 -0.1567629141 0.0844596309
175298950.0 -0.1525975983 0.0781923109 0.5232929882 -0.1779878234 0.5234526585 -0.1779469028 -0.1558846305 0.0852739507
180298920.0 -0.1519136492 0.0793052343 0.5215715472 -0.1844969403 0.5213759219 -0.1841168979 -0.1546603196 0.0871706298
185298890.0 -0.1510485049 0.080288684 0.5193211304 -0.1908272513 0.5197028537 -0.1902225816 -0.1542981533 0.0878690525
190298860.0 -0.1503040611 0.0812926281 0.5172126663 -0.1965820514 0.5177658064 -0.1966982293 -0.1528834448 0.0892536147
195298830.0 -0.1495767805 0.0821780096 0.5157655407 -0.2022916665 0.5158759558 -0.20277755 -0.1521066582 0.0905836845
200298800.0 -0.1488025351 0.0834139996 0.5137079893 -0.208365702 0.5137214305 -0.2086691328 -0.1506181883 0.0919914752
205298770.0 -0.1481176191 0.0845933872 0.5116220191 -0.2143124247 0.5116068398 -0.2149731383 -0.1502777734 0.092988993
210298740.0 -0.1474928917 0.0857338714 0.5093156087 -0.2210750545 0.5092711043 -0.2213468901 -0.1490608538 0.0949855934
215298710.0 -0.1467701606 0.0868462488 0.5069365973 -0.2263635427 0.5069801733 -0.2269886003 -0.1485645219 0.0960127378
220298680.0 -0.1460548716 0.088025875 0.5042036825 -0.2326348535 0.5042342397 -0.2329669781 -0.1470258991 0.0978247211
225298650.0 -0.1448021383 0.0892742749 0.5018383572 -0.2380936674 0.5017280672 -0.2381534844 -0.1460898589 0.0991285516
230298620.0 -0.1446472202 0.0906554879 0.4998179477 -0.2440114118 0.4996521369 -0.2446582376 -0.1451010554 0.1002496817
235298590.0 -0.1438681573 0.0914136689 0.4969386068 -0.2499366642 0.4971151511 -0.2505321475 -0.1441899315 0.1014519316
240298560.0 -0.1430315281 0.0930934237 0.4942616647 -0.2556803879 0.4944599659 -0.2554084261 -0.1430469404 0.1031193026
245298530.0 -0.1419913365 0.0943393108 0.4910717093 -0.2618137509 0.4913648093 -0.2614492351 -0.1417964092 0.1048449668
250298500.0 -0.1415340744 0.0954339739 0.4884218896 -0.266531402 0.4887619479 -0.2667616072 -0.1405249108 0.1059773822
255298470.0 -0.1407090361 0.0966212523 0.4852835272 -0.2728456137 0.4855866238 -0.2728483123 -0.1395133457 0.1072804759
260298440.0 -0.1400587105 0.0980400343 0.4825964594 -0.2779605425 0.482555731 -0.2782766272 -0.1378613478 0.1090839994
265298410.0 -0.1387199458 0.099539705 0.4795075713 -0.2840770014 0.4795155461 -0.2837030949 -0.1372567915 0.1100372968
270298380.0 -0.1376086932 0.1007049751 0.4760739633 -0.2890253405 0.4767038515 -0.2894434185 -0.1357938508 0.1119438301
275298350.0 -0.1371452584 0.1019543675 0.4732433016 -0.2949585026 0.4737491063 -0.2951712135 -0.1345934544 0.1132781461
280298320.0 -0.1364482891 0.1033840039 0.4704571059 -0.299721082 0.4701681458 -0.3005591037 -0.133183974 0.115092876
285298290.0 -0.1350859283 0.1049297413 0.4667102585 -0.3053545297 0.4670678725 -0.3054136758 -0.1325903046 0.1162352968
290298260.0 -0.1340865062 0.1058969039 0.4634706463 -0.3108869332 0.4635807548 -0.3106478659 -0.1306370302 0.1178666783
295298230.0 -0.1332863698 0.1072073367 0.4607136027 -0.3158142076 0.459937271 -0.3160348141 -0.1292194628 0.1195053495
300298200.0 -0.1318592395 0.1083219952 0.456598987 -0.3216685722 0.4566561927 -0.3214545205 -0.1285159307 0.1209260067
305298170.0 -0.1308213391 0.1096885925 0.4531195366 -0.3266149673 0.4535848405 -0.3265212065 -0.1264605969 0.1223749838
310298140.0 -0.1295483881 0.1105272661 0.4495843943 -0.3317143905 0.4499175863 -0.3322925138 -0.1254547526 0.123912828
315298110.0 -0.1290883645 0.1118447511 0.4459695438 -0.3369359623 0.4463500174 -0.3368782939 -0.1239811982 0.1251083669
320298080.0 -0.1281232996 0.1131696062 0.4423341777 -0.3421887915 0.4428748088 -0.3421504167 -0.1225827977 0.1261685483
325298050.0 -0.1274951035 0.1140098128 0.4389109898 -0.3468157265 0.4390403138 -0.3470711719 -0.1216479675 0.1273366863
330298020.0 -0.1263898469 0.1157493746 0.4341707786 -0.3527141596 0.4344479246 -0.3522932442 -0.1203395432 0.1289189264
335297990.0 -0.1254523794 0.1166682932 0.4306416946 -0.3572264804 0.4304858797 -0.3572423147 -0.1191149052 0.1304603638
340297960.0 -0.1248028603 0.118105913 0.4261128081 -0.3618486309 0.4265669529 -0.361934676 -0.117859403 0.131945874
345297930.0 -0.123810008 0.1193450116 0.4221137135 -0.3662434632 0.4218328294 -0.3665072508 -0.1161257907 0.1331850694
350297900.0 -0.1222317645 0.12084373 0.4179825278 -0.3708533277 0.4181676545 -0.3710578532 -0.1149766327 0.1349324149
355297870.0 -0.1215615969 0.1222650122 0.4138265914 -0.3757727689 0.4139674796 -0.3756667398 -0.1138067298 0.136518292
360297840.0 -0.1202848908 0.1234729135 0.4098662813 -0.3806853639 0.4098024563 -0.380523236 -0.1118415357 0.1379700195
365297810.0 -0.1188037868 0.1245740186 0.4050555454 -0.3851410537 0.405595628 -0.3848024361 -0.1107040478 0.1393479175
370297780.0 -0.117855426 0.1257464705 0.4009855037 -0.3889182771 0.4013034519 -0.3894013484 -0.1091096326 0.1409968512
375297750.0 -0.1166093408 0.1275298576 0.3972276033 -0.3939285109 0.3967717299 -0.3938763651 -0.1076695311 0.14227612
380297720.0 -0.115289384 0.1285559187 0.3926848087 -0.3978752516 0.3926665784 -0.3978819994 -0.1060453146 0.1438291759
385297690.0 -0.114307421 0.1297526162 0.3882364883 -0.4016593815 0.3881715456 -0.4022599595 -0.1047944285 0.1454777782
390297660.0 -0.1129605647 0.1310898202 0.3832566527 -0.4066717287 0.3839097137 -0.406724305 -0.1030932504 0.1460824572
395297630.0 -0.1117821855 0.1319421202 0.3795288986 -0.4103405381 0.3792575629 -0.4106689687 -0.1018223278 0.1480261609
400297600.0 -0.1106465867 0.1334366202 0.3743822924 -0.4147680372 0.3749197649 -0.4149503284 -0.1002782916 0.148718525
405297570.0 -0.1094404178 0.1347581151 0.3700998309 -0.4188538093 0.3702425704 -0.418845563 -0.098451404 0.1506361612
410297540.0 -0.1080629141 0.1360908229 0.3649531747 -0.4229114057 0.3651599897 -0.422980955 -0.0968081831 0.1519824912
415297510.0 -0.1067774836 0.1373713005 0.3608803596 -0.4269248065 0.3608879999 -0.4267134789 -0.0953594567 0.15339084
420297480.0 -0.1052256815 0.1380678455 0.3560323567 -0.4312296513 0.3563822379 -0.4307628523 -0.0934039764 0.1540665966
425297450.0 -0.1036161225 0.1391690811 0.3509976133 -0.434511567 0.3515550002 -0.4347384745 -0.0917606223 0.1559134412
430297420.0 -0.1028199631 0.1407328313 0.3469155353 -0.4392062225 0.346725038 -0.4387536998 -0.0904083634 0.1565797649
435297390.0 -0.1011125793 0.1414838526 0.3417166751 -0.442060169 0.3420863151 -0.4420881103 -0.0886783032 0.1582328322
440297360.0 -0.0997394094 0.1423078206 0.3365264389 -0.4458006247 0.3363687621 -0.4455858135 -0.0866389409 0.1587881187
445297330.0 -0.0981069994 0.1436815288 0.3315825813 -0.45004368 0.3319250832 -0.4496101601 -0.0851221986 0.1603110194
450297300.0 -0.0971094355 0.1445375283 0.3269951739 -0.4530312668 0.3272451821 -0.4531027253 -0.0834058859 0.1612856697
455297270.0 -0.0953845145 0.146116194 0.3218978243 -0.456849666 0.3224139272 -0.4565097273 -0.0813831044 0.1628411714
460297240.0 -0.0943379534 0.1469224736 0.3167432132 -0.4603538181 0.3165298381 -0.460278701 -0.079870774 0.1642192676
465297210.0 -0.0925494461 0.1477207398 0.3122263493 -0.4634779415 0.3121241586 -0.4637005634 -0.0784626506 0.164622156
470297180.0 -0.091304516 0.1489438232 0.3070153297 -0.4667596698 0.3071839086 -0.4670257221 -0.0769053223 0.1658335017
475297150.0 -0.0900334771 0.1494574445 0.3016087622 -0.4702046081 0.3018970749 -0.4699604947 -0.074720162 0.1670125117
480297120.0 -0.0882638791 0.1506262676 0.2964618184 -0.4735227437 0.2971881373 -0.4734236633 -0.0733170992 0.1682536802
485297090.0 -0.0870374138 0.151608822 0.2918590379 -0.4767270168 0.2916401305 -0.4765304548 -0.0712495902 0.1689570781
490297060.0 -0.0855690024 0.1524779932 0.2862611115 -0.4798255468 0.2865604748 -0.4800146971 -0.069251473 0.1700078539
495297030.0 -0.0844277745 0.1539088501 0.281453494 -0.4829775572 0.2808008138 -0.4829870165 -0.0676527807 0.1708281397
500297000.0 -0.0824619517 0.1544321856 0.2754846383 -0.4859798843 0.2758510069 -0.4857471874 -0.0662330638 0.1717149397
505296970.0 -0.0812179463 0.1553686661 0.2704393432 -0.4883160236 0.2699097919 -0.4884773966 -0.0643769067 0.1730598915
510296940.0 -0.0795620699 0.1563603818 0.2648531953 -0.4917426878 0.2655023748 -0.4918606518 -0.0619735135 0.1739145854
515296910.0 -0.0782945145 0.1575131281 0.259215203 -0.4942146393 0.2594920819 -0.4945429923 -0.0604549747 0.1747719674
520296880.0 -0.0765032093 0.1582584506 0.2543037515 -0.4972301274 0.2542578376 -0.4969707316 -0.0582296639 0.1755737357
525296850.0 -0.0751842936 0.1587730008 0.2489874128 -0.4998460334 0.2490470452 -0.5002218575 -0.0562349285 0.176291938
530296820.0 -0.0735699337 0.1597117912 0.2434807933 -0.5018206755 0.2435291769 -0.5021910958 -0.0548928951 0.1768285351
535296790.0 -0.0721106039 0.1607170042 0.2376165266 -0.5049067325 0.2379683437 -0.5048921057 -0.0524953549 0.1774044275
540296760.0 -0.0705597407 0.1610802507 0.2322496595 -0.507952662 0.2320287436 -0.5078200657 -0.0510719869 0.1784592017
545296730.0 -0.06899416 0.1623144713 0.2267710496 -0.5098167978 0.2265665186 -0.5103859809 -0.0489949391 0.1789862623
550296700.0 -0.0675564679 0.1630365822 0.221449775 -0.5126852297 0.2219062759 -0.5127376173 -0.0473021702 0.1802503994
555296670.0 -0.0654593259 0.1636347545 0.215608479 -0.5149697952 0.2158710013 -0.5147474445 -0.0452447845 0.1808850184
560296640.0 -0.064195881 0.1644538608 0.2104993092 -0.5167451369 0.2105016158 -0.5169288408 -0.0430424574 0.1813413603
565296610.0 -0.0629823991 0.1651116305 0.2046416079 -0.5190370322 0.2042078884 -0.519209864 -0.0414540139 0.1818500996
570296580.0 -0.0607392257 0.1657622466 0.1986191612 -0.5215289349 0.1993135088 -0.5216513456 -0.0392993084 0.1830905026
575296550.0 -0.059449965 0.1668574974 0.1932291466 -0.5234712331 0.1937007192 -0.5233968795 -0.0369319465 0.1832790168
580296520.0 -0.0577132006 0.1672958371 0.1876502414 -0.5256589986 0.1874535684 -0.525896553 -0.0351951697 0.1837699143
585296490.0 -0.0561596228 0.1677832462 0.1818655007 -0.5275294024 0.1819175606 -0.5275140796 -0.0334100788 0.183905286
590296460.0 -0.0546051534 0.1684731735 0.1761663637 -0.5293227825 0.1762223842 -0.5294178616 -0.0313342757 0.1847805221
595296430.0 -0.0528281308 0.1693284946 0.1704678131 -0.5312935515 0.1703733539 -0.5320460013 -0.0291879255 0.1849944322
600296400.0 -0.0513779071 0.1700473554 0.1645219579 -0.533230606 0.1649818241 -0.5333022985 -0.027317189 0.1858232327
605296370.0 -0.0496062435 0.1710531361 0.1592214688 -0.5353028369 0.1592215534 -0.5345860432 -0.0252066222 0.1861773084
610296340.0 -0.0481251394 0.1713470229 0.153594652 -0.5365395972 0.153282631 -0.5370663044 -0.0231077254 0.1871177287
615296310.0 -0.0466236804 0.1720691107 0.1472084895 -0.5377656617 0.1469756276 -0.5380566528 -0.021157486 0.186999788
620296280.0 -0.044626555 0.1726613061 0.1416982105 -0.5395822687 0.141475 -0.5397620001 -0.0192609367 0.1873372467
625296250.0 -0.0426886641 0.1731178808 0.1351368596 -0.541427716 0.1354120218 -0.5413051378 -0.0170264353 0.188085838
630296220.0 -0.0409233572 0.1739091906 0.1295147612 -0.5428217269 0.129926998 -0.5426079564 -0.0150902923 0.1884516563
635296190.0 -0.0395127992 0.1744420741 0.1235515756 -0.5432430137 0.1233902118 -0.5434445144 -0.0132824002 0.1885336676
640296160.0 -0.0378575038 0.1747860087 0.1184529336 -0.5453042734 0.1177409994 -0.5452735667 -0.0107866647 0.1886234337
645296130.0 -0.0362955699 0.1754087798 0.1120644368 -0.5464138354 0.1118742389 -0.5461753171 -0.0095871804 0.1887023666
650296100.0 -0.0344710016 0.176090697 0.1064241521 -0.5472915184 0.1063711091 -0.5475335416 -0.0072826081 0.1895031385
655296070.0 -0.0327655715 0.1762182893 0.1002967242 -0.5484840732 0.1003247265 -0.5486074928 -0.0047019299 0.1898283465
660296040.0 -0.0317208271 0.1771502597 0.0948695194 -0.5491455795 0.0944904524 -0.5491829162 -0.0028072899 0.1896292888
665296010.0 -0.0294193793 0.1771465717 0.0884750674 -0.5505284622 0.0890525795 -0.550448881 -0.0013222772 0.1901770725
670295980.0 -0.0273342146 0.1775820308 0.0824831592 -0.5514614975 0.0828216342 -0.5512541926 0.0005777138 0.1900928204
675295950.0 -0.025651265 0.1779880439 0.0764138476 -0.552271301 0.0768089205 -0.5526623318 0.0035101543 0.1902854918
680295920.0 -0.0241340418 0.1787587074 0.0704968271 -0.5528024229 0.0705550483 -0.5529785559 0.0053454022 0.1902885002
685295890.0 -0.0224188133 0.1792345927 0.064609891 -0.5534344937 0.0641294728 -0.554040947 0.0074080064 0.1905104098
690295860.0 -0.0203871195 0.1793254568 0.0585822173 -0.5541545257 0.0582702379 -0.5539463687 0.0096769563 0.1910425935
695295830.0 -0.0185331469 0.1793167948 0.0519545435 -0.5549269886 0.052681944 -0.55535073 0.0107194413 0.190830263
700295800.0 -0.016587773 0.1798861333 0.0463242868 -0.555535518 0.0465962891 -0.5555202626 0.0135375293 0.1904549677
705295770.0 -0.0149320745 0.1804774495 0.0405007152 -0.555966758 0.0408950371 -0.5559876888 0.0151398099 0.1905290612
710295740.0 -0.0133604342 0.1806255055 0.034876674 -0.555970499 0.0348395396 -0.5560349732 0.0169196114 0.1907522674
715295710.0 -0.0115501268 0.1809015004 0.0286627215 -0.556236027 0.0288812387 -0.556729894 0.0194379734 0.1904476145
720295680.0 -0.0099031468 0.1808187332 0.0223845032 -0.5562316131 0.0224426803 -0.5572357462 0.0218769117 0.1906633262
725295650.0 -0.0079478742 0.1814438777 0.0161687185 -0.556933114 0.0165666242 -0.5567905544 0.0237578133 0.1907362136
730295620.0 -0.006497868 0.1814716429 0.0107619889 -0.557136267 0.0106223735 -0.5569437179 0.0259528078 0.1896252636
735295590.0 -0.0041850475 0.1818088943 0.0045781742 -0.5570911443 0.004858434 -0.5571397538 0.0279329707 0.1902071296
740295560.0 -0.0026066057 0.182249749 -0.0015061891 -0.5564532397 -0.0014566328 -0.556885337 0.0301959187 0.1896489983
745295530.0 -0.0006379768 0.1818682152 -0.0076187937 -0.5570188587 -0.0071551387 -0.5568872522 0.031887246 0.1898264188
750295500.0 0.0008419086 0.1821272257 -0.0136051559 -0.5565887882 -0.0133819138 -0.5565343296 0.0341508643 0.189314539
755295470.0 0.0032401297 0.182734298 -0.0195277861 -0.5562484403 -0.0191248474 -0.5570537932 0.0358676249 0.1895775368
760295440.0 0.0045288269 0.1828101391 -0.025721201 -0.5561440403 -0.0257669933 -0.5565276036 0.0378111908 0.1891010088
765295410.0 0.0060926674 0.1826467249 -0.0310075989 -0.5556043077 -0.031256542 -0.5564537617 0.0407626312 0.1890555384
770295380.0 0.0082884349 0.1828124939 -0.0373418151 -0.5556680069 -0.0374320995 -0.5558837407 0.0427604039 0.1885706486
775295350.0 0.0099006216 0.1831889821 -0.0431023749 -0.5549482536 -0.0432504316 -0.5552314396 0.0437950062 0.1875050602
780295320.0 0.0119082161 0.1829023438 -0.0490511422 -0.5545086745 -0.0493928069 -0.5545709487 0.0462795096 0.1880537162
785295290.0 0.0135061621 0.1832135767 -0.0548899315 -0.5534931223 -0.0549365828 -0.5538086297 0.0479876936 0.1877144159
790295260.0 0.0153265373 0.1831403831 -0.06109784 -0.5535501999 -0.0612236841 -0.5536262411 0.0506887317 0.1872517867
795295230.0 0.0171129529 0.1831905441 -0.0667344227 -0.5523693236 -0.0667628213 -0.5526284852 0.0524810462 0.187219347
800295200.0 0.0192406327 0.1832851233 -0.0735091136 -0.5516761185 -0.0733950208 -0.5519470138 0.0548291598 0.1862013623
805295170.0 0.0206071891 0.1828487903 -0.078868695 -0.5504284071 -0.0789218917 -0.5506446098 0.0565224724 0.1856368047
810295140.0 0.0225347534 0.1832300663 -0.0845967915 -0.5498282155 -0.0848329725 -0.5504181568 0.0587964606 0.1857093309
815295110.0 0.0240452907 0.1830262306 -0.0909129605 -0.5486838459 -0.0912102965 -0.5488656734 0.0605900582 0.1846803102
820295080.0 0.0262486494 0.1827353218 -0.0965423086 -0.5477753615 -0.096840882 -0.5483986553 0.0626196284 0.1844827941
825295050.0 0.0280168709 0.182631636 -0.1023416308 -0.5466312788 -0.1025619166 -0.5470031386 0.0646544991 0.1842637965
830295020.0 0.0298835143 0.1828144205 -0.1087837084 -0.5457724005 -0.108716505 -0.5460150938 0.06621696 0.1828750034
