!Created with skrf (http://scikit-rf.org).
# Hz S RI R 50.0 
!freq ReS11 ImS11 ReS21 ImS21 ReS12 ImS12 ReS22 ImS22
300000.0 -0.2360731086 -0.1204657943 0.4668432562 0.0792278422 0.4647776438 0.0792986842 -0.2339079381 -0.1249552421
5299970.0 -0.2449578186 0.0055675703 0.4738462857 0.0058444925 0.4742094218 0.005733928 -0.2437372942 0.0053199271
10299940.0 -0.2419355356 0.0185910019 0.4765080365 0.0070884659 0.4759484299 0.0070989977 -0.2401216202 0.0180337302
15299910.0 -0.2366715344 0.028225093 0.4791214406 0.007949115 0.4797880155 0.008127375 -0.2360705838 0.0276128209
20299880.0 -0.2316720382 0.036284532 0.4840439965 0.0082369318 0.4845618626 0.0084613839 -0.2313741288 0.0353744513
25299850.0 -0.2256628466 0.0430806957 0.4896129163 0.0080905498 0.4899687298 0.0075820833 -0.2261990167 0.0418368601
30299820.0 -0.2202447734 0.0475435396 0.4948862063 0.0055959928 0.4953338542 0.0054525559 -0.2208813017 0.0470667202
35299790.0 -0.21440436 0.0516767235 0.4999517349 0.0023856332 0.5007321435 0.0022346387 -0.2156730391 0.0514430914
40299760.0 -0.20935625 0.0547083071 0.5055271217 -0.0015194918 0.5057776488 -0.0014418112 -0.2107058548 0.0549515261
45299730.0 -0.2042384054 0.0570224938 0.5100502826 -0.0059194779 0.510833354 -0.0065526733 -0.2055935636 0.0577959374
50299700.0 -0.1992544328 0.0588398826 0.5142721906 -0.0120658303 0.5144426943 -0.0119770277 -0.2011701095 0.0602613372
55299670.0 -0.1950087596 0.0605255806 0.5184521652 -0.0173348521 0.5183051512 -0.0176098805 -0.1977194368 0.0620438414
60299640.0 -0.1908237277 0.0617330906 0.5219805653 -0.0239356051 0.521871146 -0.0240008909 -0.19388929 0.0633938968
65299610.0 -0.1874162417 0.0626833607 0.5250923133 -0.0300002761 0.5247939403 -0.0304684 -0.1901683784 0.0647121729
70299580.0 -0.1840903137 0.0631904408 0.5267779317 -0.0366837065 0.5273002103 -0.036903565 -0.1873616014 0.0659599479
75299550.0 -0.1812687679 0.0637719281 0.5288423465 -0.0436936803 0.5293730886 -0.0435981308 -0.1840865878 0.0666800186
80299520.0 -0.178519293 0.0643227011 0.5307638806 -0.0503931619 0.531398989 -0.0508033941 -0.1814949462 0.0680932633
85299490.0 -0.1759564511 0.0648157391 0.5325072751 -0.0577635111 0.5326892578 -0.057686592 -0.1791868668 0.0687310825
90299460.0 -0.1735117179 0.0653153478 0.5334761128 -0.0649840689 0.5331401182 -0.0643940326 -0.1769899548 0.0697446767
95299430.0 -0.1712739401 0.0656948633 0.5337868119 -0.0713216465 0.5346912829 -0.0717585935 -0.175089387 0.0707331359
100299400.0 -0.1693578386 0.0659854157 0.5345636259 -0.0782096388 0.5346684736 -0.0783573331 -0.1732270317 0.0717605358
105299370.0 -0.1677510721 0.0665425558 0.5349704272 -0.0850115682 0.5356355209 -0.0855663342 -0.1710829303 0.0722011611
110299340.0 -0.165904336 0.0667705743 0.5352478433 -0.0916209858 0.5354454394 -0.0919140851 -0.16982527 0.0731747467
115299310.0 -0.1645676604 0.0675886401 0.5351450796 -0.0985056499 0.5353987954 -0.0989290069 -0.168387057 0.0742942285
120299280.0 -0.1633253945 0.068095909 0.5350753817 -0.1058729516 0.5351100067 -0.1060430327 -0.1666496889 0.0745461606
125299250.0 -0.1620791821 0.0685975394 0.5346501595 -0.1124721347 0.534756061 -0.112012344 -0.1654281649 0.0762145095
130299220.0 -0.1608032512 0.0691244488 0.5337910261 -0.1191232305 0.5340515944 -0.1197212519 -0.1640587712 0.0770107201
135299190.0 -0.159608306 0.0701594176 0.5336332146 -0.1257133227 0.533738114 -0.1263272019 -0.1629414346 0.0776982116
140299160.0 -0.1585020784 0.0710659947 0.5330784576 -0.1327531484 0.5325928731 -0.1321676403 -0.1624779038 0.0786143727
145299130.0 -0.157901169 0.0713746258 0.5317162071 -0.1387547 0.5318159001 -0.1392002282 -0.1609850514 0.0799457764
150299100.0 -0.1564922389 0.0724943145 0.5302790107 -0.1457568322 0.5304915501 -0.1459040824 -0.1600280137 0.0812622986
155299070.0 -0.1554559416 0.0735001138 0.5289257853 -0.1522043045 0.5297834957 -0.1523917116 -0.1588396673 0.0821395346
160299040.0 -0.1548011437 0.0745209726 0.5282069351 -0.1584766559 0.5278477781 -0.1590610349 -0.1580350405 0.0836634248
165299010.0 -0.1537579305 0.0751090858 0.5268223603 -0.1651828949 0.5264711193 -0.1653793723 -0.1568654886 0.0845564042
170298980.0 -0.1531462576 0.0763990538 0.5247387234 -0.1715264385 0.5253533426 -0.1715651924 -0.1562005788 0.0859475111
175298950.0 -0.15233544 0.0774284524 0.5236322542 -0.1777175959 0.523681152 -0.1780383639 -0.154901402 0.0872159008
180298920.0 -0.151411423 0.0785134751 0.521420417 -0.1845064014 0.5218003255 -0.1844367775 -0.1540759924 0.0882022465
185298890.0 -0.1507046455 0.0795632803 0.5203521221 -0.1902346125 0.5199679352 -0.1903782681 -0.1530833359 0.0895584236
190298860.0 -0.1496730587 0.0808480384 0.517454811 -0.1967994102 0.5181463406 -0.1963975408 -0.1524535007 0.0909762318
195298830.0 -0.1490363498 0.0819621015 0.5162561594 -0.2026159236 0.5165313089 -0.2028188481 -0.151504856 0.0923144336
200298800.0 -0.1481000665 0.082713872 0.5141457644 -0.2091339812 0.5139223542 -0.2089590337 -0.1504094735 0.0936610847
205298770.0 -0.1480202706 0.0840976202 0.5117997833 -0.2147028664 0.512055698 -0.2146404639 -0.1491919409 0.0950068009
210298740.0 -0.1468168484 0.085340442 0.5095112167 -0.2208651083 0.5093639908 -0.220827108 -0.1486817084 0.0960609908
215298710.0 -0.1460366562 0.0867205878 0.506994397 -0.2266516351 0.5071912467 -0.2266333068 -0.1473408914 0.0979350933
220298680.0 -0.1451374668 0.0881648332 0.5042893484 -0.2328585477 0.5043066673 -0.2329786162 -0.1463632858 0.0991098927
225298650.0 -0.1449217002 0.0894203343 0.5020448554 -0.2382907815 0.5021680886 -0.2381583221 -0.1455587787 0.1002907026
230298620.0 -0.1434877415 0.0905153568 0.4998952573 -0.2445992921 0.4999384103 -0.2445575995 -0.1447916791 0.1016991292
235298590.0 -0.1433256752 0.0919726184 0.4971048826 -0.250385857 0.4973152868 -0.2502625144 -0.143368596 0.1034344885
240298560.0 -0.1423302116 0.0932192637 0.4942303686 -0.2557202919 0.4942323519 -0.2558552804 -0.1425924419 0.1047604812
245298530.0 -0.1417664813 0.0939620003 0.4917731431 -0.2612665169 0.4916276195 -0.2613103465 -0.1416926009 0.1062686332
250298500.0 -0.1409015917 0.0954913088 0.4886756492 -0.2669268949 0.4887585208 -0.2666767984 -0.1408208698 0.1078301544
255298470.0 -0.1398079508 0.0971990946 0.4858797553 -0.2724720997 0.4867819366 -0.2727724152 -0.1395029704 0.1091324765
260298440.0 -0.1391815532 0.0981768127 0.4833877322 -0.2774483645 0.4832077126 -0.2781203463 -0.1388246856 0.1102993655
265298410.0 -0.1384739512 0.099770752 0.4799183808 -0.2835688178 0.4798538224 -0.2839388279 -0.1369149762 0.1116845366
270298380.0 -0.1377172906 0.1008785166 0.4767604195 -0.288734807 0.4771555455 -0.2892523265 -0.1359406514 0.1135831381
275298350.0 -0.1365061294 0.1025944455 0.4733066062 -0.2944606612 0.4734551125 -0.2942180387 -0.1348990385 0.1149582136
280298320.0 -0.1362351645 0.103644093 0.4708612737 -0.2993081209 0.4709980719 -0.3000730661 -0.1335968644 0.1165089556
285298290.0 -0.1351651458 0.1050628636 0.4671799395 -0.3051280514 0.4676999186 -0.305108995 -0.1325743148 0.1178860313
290298260.0 -0.1342529906 0.1066300605 0.4641700497 -0.3106272638 0.4641715864 -0.310509866 -0.131168456 0.1194215614
295298230.0 -0.1335469614 0.1075257425 0.4608099802 -0.3156381452 0.4609838938 -0.3160120095 -0.1300613168 0.1206296258
300298200.0 -0.1325161469 0.1092783266 0.4572763758 -0.3212043722 0.4576344128 -0.3210177254 -0.1288997287 0.1222241921
305298170.0 -0.1314541785 0.1099365475 0.4541567704 -0.3263918933 0.4539689227 -0.3263563805 -0.1274888968 0.1230353527
310298140.0 -0.1301698696 0.1113393535 0.4503619789 -0.3313829935 0.4510001686 -0.3314342133 -0.126147723 0.1246210155
315298110.0 -0.1299971336 0.1125102615 0.4470055855 -0.3367996479 0.4470078716 -0.3370204844 -0.1246997903 0.1260189679
320298080.0 -0.1287515523 0.1135838097 0.4425954032 -0.3417426678 0.4431654863 -0.341984644 -0.1238878929 0.127132105
325298050.0 -0.1282856009 0.114542669 0.4388170587 -0.3467940725 0.4395459912 -0.3469662761 -0.1223850763 0.1282621792
330298020.0 -0.1276116004 0.1161792838 0.4352817028 -0.3521357802 0.4357981723 -0.3519007039 -0.121469654 0.1296691143
335297990.0 -0.126632896 0.1174001389 0.4314100437 -0.3566050227 0.4313419189 -0.3568053049 -0.1199222291 0.1309636374
340297960.0 -0.1261222197 0.1187354994 0.4269119926 -0.361559343 0.4270130305 -0.3613989989 -0.1189623888 0.1326025101
345297930.0 -0.1249412643 0.1198442192 0.4227305113 -0.3662893932 0.422692316 -0.3661881843 -0.1170275644 0.1339998912
350297900.0 -0.1240337417 0.1211104354 0.4192631205 -0.370437588 0.4195069434 -0.3706000499 -0.1163111485 0.1349302963
355297870.0 -0.1231019779 0.1225364204 0.4148559932 -0.3751086536 0.4150230683 -0.3754874703 -0.1144206115 0.1368212447
360297840.0 -0.1219147019 0.1239714633 0.4104450575 -0.3797171098 0.4108925194 -0.3803496611 -0.1133888732 0.138287138
365297810.0 -0.12106514 0.1252925008 0.4056896731 -0.3845171974 0.4066833409 -0.384575631 -0.112392467 0.1394515262
370297780.0 -0.1199680575 0.1265029688 0.4017502832 -0.3888026172 0.4025594229 -0.3892966039 -0.1105280577 0.1410034531
375297750.0 -0.1189151444 0.1280842402 0.3981790746 -0.3933304885 0.3981176677 -0.3931551151 -0.1091185687 0.1420070255
380297720.0 -0.1181215518 0.1292255131 0.393940129 -0.3980061864 0.3936968712 -0.3976483969 -0.1076527008 0.1435570839
385297690.0 -0.1173027538 0.1302066548 0.3890722328 -0.4019771938 0.3892615548 -0.4024729767 -0.1060264569 0.14511247
390297660.0 -0.1156817764 0.1315135692 0.3847106262 -0.4058584006 0.3848657126 -0.406318516 -0.1042177348 0.1460713743
395297630.0 -0.1143630618 0.1327464922 0.3807011081 -0.4098652017 0.3803854626 -0.4100169974 -0.1028612615 0.1473162938
400297600.0 -0.1134789174 0.13369671 0.3755717126 -0.4146226782 0.3760916642 -0.4147995523 -0.1011184724 0.1489809676
405297570.0 -0.112385909 0.1346258682 0.3714941875 -0.4184728108 0.3716100644 -0.4185673304 -0.0994648505 0.1502600627
410297540.0 -0.1113243126 0.1362844043 0.3670697315 -0.4228378879 0.3667817944 -0.4225318201 -0.0980427519 0.1514153088
415297510.0 -0.1103566975 0.1373832547 0.3620468887 -0.4267171048 0.3623735553 -0.4268135228 -0.0960465395 0.1523576376
420297480.0 -0.1085903338 0.1381670529 0.3572648807 -0.4305404065 0.3576310586 -0.4308598668 -0.0943611342 0.1541801435
425297450.0 -0.1072962823 0.1393724198 0.3527926812 -0.4341370262 0.3527440293 -0.4344472681 -0.0928475779 0.1550985575
430297420.0 -0.106067572 0.141034966 0.3487286911 -0.4384443803 0.3483822709 -0.4380363835 -0.0908047553 0.1561336557
435297390.0 -0.1048126907 0.1417939137 0.343222535 -0.4427449988 0.3430422 -0.4419934765 -0.0896506908 0.1575864774
440297360.0 -0.1031008254 0.1427154716 0.3382512587 -0.4458644242 0.3380495337 -0.4456991921 -0.0879258958 0.1588336259
445297330.0 -0.1019140653 0.1434405113 0.3332164604 -0.4493522273 0.3332792757 -0.4498912288 -0.0856936925 0.1598026299
450297300.0 -0.1006486888 0.1449372958 0.3284819797 -0.4530711565 0.3287277197 -0.4531278865 -0.0839305018 0.16076963
455297270.0 -0.0996118376 0.1455516167 0.3235721461 -0.456491207 0.3233995021 -0.456725398 -0.0823435603 0.1619721513
460297240.0 -0.0976644998 0.1471727834 0.3186609163 -0.460686937 0.3185076975 -0.460285413 -0.0808216476 0.1626008259
465297210.0 -0.0965556856 0.1478109571 0.3130670416 -0.463808596 0.3132275284 -0.4640235645 -0.0789157463 0.1643281098
470297180.0 -0.0950318404 0.1487515022 0.308110417 -0.4667587344 0.3084553368 -0.4670328667 -0.0767529837 0.1649511945
475297150.0 -0.0938150695 0.1501404884 0.3032786741 -0.4702800636 0.3030849505 -0.4704618425 -0.0747558993 0.1660528591
480297120.0 -0.0918640579 0.1513166114 0.2978335179 -0.4733225845 0.2979787809 -0.4735766739 -0.0733932372 0.1667698021
485297090.0 -0.0904931394 0.1515389417 0.2926668547 -0.4768786968 0.2929190115 -0.4767784595 -0.0712509039 0.1678987505
490297060.0 -0.0885132893 0.1531665573 0.2870830387 -0.4800853221 0.2872232222 -0.4799151812 -0.0694049471 0.1688081077
495297030.0 -0.0878334075 0.1538468588 0.2825437814 -0.4830548696 0.282346345 -0.4832293924 -0.067275474 0.1694899647
500297000.0 -0.0860912674 0.1549798868 0.2771122311 -0.4860926358 0.2769401141 -0.4864365253 -0.0655119032 0.1710296436
505296970.0 -0.0840899033 0.1559069035 0.2716734918 -0.489586727 0.2716395535 -0.4890906426 -0.0637757627 0.1710169596
510296940.0 -0.0826283633 0.1564975959 0.266344559 -0.4924938632 0.2665924184 -0.4929494509 -0.0614142472 0.1728126125
515296910.0 -0.0814104276 0.1577956602 0.2608227272 -0.4951381717 0.2605171326 -0.4950531486 -0.059936215 0.1727296094
520296880.0 -0.0795344278 0.1588865282 0.2553193304 -0.497834416 0.2554524626 -0.497726086 -0.0576421852 0.1740855432
525296850.0 -0.0780565722 0.1594218226 0.250105866 -0.5004305001 0.2497108222 -0.5002968867 -0.0554028469 0.1748922679
530296820.0 -0.0766986616 0.1603502821 0.2444351526 -0.5032158285 0.2446059523 -0.5033056549 -0.0534790089 0.1751350094
535296790.0 -0.0742851452 0.1614129065 0.2392414459 -0.5055013629 0.2392173771 -0.5057423836 -0.051421008 0.1761511522
540296760.0 -0.0729096716 0.1621554094 0.2332673489 -0.50825081 0.2332307316 -0.5082636379 -0.0495579102 0.1765569732
545296730.0 -0.0718323284 0.163268361 0.2282674553 -0.5104337978 0.2277190988 -0.5105754614 -0.0475723498 0.1774343551
550296700.0 -0.0692683187 0.1640852007 0.2225271261 -0.5134005032 0.2219442757 -0.5135986946 -0.0455470728 0.1781562904
555296670.0 -0.0681124813 0.1650031889 0.2167991176 -0.5157179629 0.2169224756 -0.5154831211 -0.0439618018 0.178516134
560296640.0 -0.0657186157 0.1653682471 0.2108692215 -0.5174603578 0.2114018865 -0.5178996983 -0.0418249417 0.1795150857
565296610.0 -0.0648920715 0.1664909491 0.2057455344 -0.5202745214 0.2055246228 -0.5201873027 -0.0395512035 0.1802186881
570296580.0 -0.0631611984 0.1673598152 0.1995099651 -0.5221091841 0.1997997544 -0.5223322202 -0.0377079256 0.1804746575
575296550.0 -0.0610921268 0.1681897271 0.1945181152 -0.5244699715 0.1942341079 -0.5242549288 -0.0355939307 0.1810662532
580296520.0 -0.0593129286 0.1692022381 0.1885708169 -0.5264309673 0.1883529192 -0.5266506721 -0.0337412497 0.1814656571
585296490.0 -0.0577437978 0.1699088759 0.1830183454 -0.5283096576 0.182427713 -0.528400718 -0.0312579813 0.1820722139
590296460.0 -0.0555328424 0.1704855067 0.1769396089 -0.5304264276 0.1770013701 -0.5308812088 -0.0296989838 0.1825960948
595296430.0 -0.0538853013 0.1713776269 0.1706937777 -0.5319259945 0.1706547466 -0.5323137103 -0.0275091534 0.182996931
600296400.0 -0.0521545075 0.1720388748 0.1648493011 -0.5336140185 0.1652180039 -0.5341094762 -0.0253947631 0.1833008949
605296370.0 -0.0508359116 0.1728150314 0.1597738694 -0.5357338169 0.1593233577 -0.5356149328 -0.0232936336 0.1835063153
610296340.0 -0.0485015479 0.1735752705 0.1537836946 -0.5368153475 0.1539348841 -0.5372859905 -0.0213500084 0.1842191046
615296310.0 -0.0465643426 0.1742832159 0.1478049895 -0.5393253944 0.1477139305 -0.5390411364 -0.0190643525 0.1844705833
620296280.0 -0.0453567154 0.175325855 0.141732009 -0.5404696921 0.1416506819 -0.5401909331 -0.0171916718 0.1850506047
625296250.0 -0.0436270658 0.1758208734 0.1359427241 -0.5424650791 0.1359774411 -0.5419997825 -0.0155631728 0.1850828342
630296220.0 -0.0418818567 0.1764116547 0.1300142906 -0.5433147889 0.1299873235 -0.5434862421 -0.0130428944 0.185722612
635296190.0 -0.0403618203 0.1772925935 0.1244234581 -0.5444488161 0.1239929312 -0.5445516778 -0.0109634978 0.1859448449
640296160.0 -0.0383353839 0.1774840961 0.1183670898 -0.5459297559 0.1182941203 -0.5460402702 -0.0089458858 0.1861801555
645296130.0 -0.0363682526 0.1788052464 0.1123788984 -0.5471549672 0.1120960636 -0.5471413254 -0.0071630167 0.1862555545
650296100.0 -0.0348020847 0.1788330025 0.106336679 -0.5483572835 0.1062514243 -0.548347928 -0.0043871626 0.1862881519
655296070.0 -0.0329058061 0.1793453518 0.1000798578 -0.549591178 0.1003791354 -0.5493062386 -0.0031080364 0.1868984339
660296040.0 -0.0314434175 0.1802111381 0.0947674909 -0.550424532 0.0943974062 -0.5506686364 -0.0007814135 0.1865925204
665296010.0 -0.0293124487 0.1808535844 0.0882813278 -0.551245947 0.0883490199 -0.5510730209 0.0014050404 0.1869686138
670295980.0 -0.0277096853 0.1816147072 0.0825064462 -0.5524051529 0.0825557798 -0.5519573174 0.0032861519 0.1869857233
675295950.0 -0.0257641939 0.1817186389 0.0766112737 -0.5531036573 0.0769630924 -0.5529854691 0.0051681607 0.1873981827
680295920.0 -0.0243619082 0.1825928414 0.0710663659 -0.5534759144 0.0706602525 -0.5537266478 0.007695811 0.1869809619
685295890.0 -0.0224575378 0.1831739164 0.0643877847 -0.5548588583 0.0646227184 -0.5545970516 0.0095851422 0.1874951137
690295860.0 -0.0207956209 0.1836502623 0.0588177272 -0.5550207439 0.058384973 -0.5553886476 0.011749476 0.1877311016
695295830.0 -0.0187245783 0.1839143519 0.0533505252 -0.5561346479 0.0527184826 -0.5554688072 0.0137353123 0.1875792998
700295800.0 -0.016950261 0.1845016734 0.0474122123 -0.5562542302 0.0468668791 -0.5562012098 0.0158338821 0.187472268
705295770.0 -0.0153970291 0.1849676746 0.0404230375 -0.556868562 0.0406358313 -0.5566557181 0.0178898383 0.1876544383
710295740.0 -0.0136247837 0.185095412 0.0349820315 -0.5570234401 0.0346757728 -0.557542519 0.0200761819 0.1875748365
715295710.0 -0.0116909912 0.1860219454 0.0288013241 -0.5575080218 0.028573519 -0.5576780598 0.0220818921 0.1871890846
720295680.0 -0.009863007 0.1861498636 0.0228123274 -0.5577239173 0.0227453256 -0.5578251917 0.0242287413 0.1871464892
725295650.0 -0.0085288314 0.1868321828 0.0171480583 -0.5581162984 0.016785514 -0.5578934601 0.0258633236 0.1874480333
730295620.0 -0.0073879307 0.1866944734 0.0109963278 -0.5574762152 0.0104166552 -0.5576992566 0.0279126687 0.1877306653
735295590.0 -0.0049488078 0.1870300495 0.004943354 -0.5581905729 0.0047005645 -0.5581979816 0.030331189 0.1868803681
740295560.0 -0.0033668578 0.1873534111 -0.001097722 -0.558156291 -0.0008632353 -0.5583720016 0.0321336032 0.1869471629
745295530.0 -0.0017887337 0.1877600029 -0.0071007292 -0.5573981908 -0.0066957377 -0.5579929614 0.0337575416 0.1866178214
750295500.0 -8.52248e-05 0.1882098854 -0.0122986996 -0.5577884043 -0.0131833128 -0.5576070141 0.0359538687 0.1862943699
755295470.0 0.0019089393 0.18822388 -0.0189286448 -0.5581068776 -0.0190831345 -0.5578785511 0.0381795706 0.1867204189
760295440.0 0.0036103686 0.1890537342 -0.0254817598 -0.5571207245 -0.025192233 -0.5568470379 0.0405827623 0.1854331981
765295410.0 0.0055092749 0.1885513208 -0.0311997594 -0.5566543602 -0.0309948927 -0.5567722597 0.0424001494 0.1857407647
770295380.0 0.0069500142 0.1891239023 -0.0368254618 -0.5564245023 -0.0367305003 -0.5568306214 0.044011533 0.1855212198
775295350.0 0.0088462753 0.189233282 -0.0428204566 -0.5562526739 -0.0426159484 -0.5559952529 0.0465073403 0.1850658545
780295320.0 0.0102906133 0.189525853 -0.04863501 -0.5552280635 -0.0487745106 -0.5556668035 0.0487268958 0.1846396397
785295290.0 0.0120410346 0.1895871446 -0.0546347884 -0.5553114579 -0.0545388407 -0.5551889615 0.0501788793 0.1847786146
790295260.0 0.0141606818 0.1893366323 -0.0608456924 -0.5543824942 -0.0607505783 -0.5547479501 0.0523636695 0.1843462666
795295230.0 0.0156357269 0.1893509285 -0.0666115752 -0.553678381 -0.0667110187 -0.5541515515 0.0544266688 0.1831442662
800295200.0 0.0169328489 0.1895238923 -0.0717716969 -0.5524875393 -0.0727066279 -0.5531114004 0.0562090725 0.1830648464
805295170.0 0.0187898923 0.189811837 -0.0786567513 -0.5522386906 -0.07833074 -0.552221836 0.0588463002 0.1826027704
810295140.0 0.020743315 0.1899161954 -0.0840130823 -0.551299934 -0.0844520339 -0.5514468398 0.0605237158 0.1819943851
815295110.0 0.0224288342 0.1898276372 -0.0903922555 -0.5500231712 -0.090256792 -0.5506663763 0.0623602208 0.1818954866
820295080.0 0.0242896686 0.189747718 -0.095941966 -0.5489113059 -0.0956816058 -0.5496648177 0.0635873419 0.1820587459
825295050.0 0.0255435817 0.1897804632 -0.1020353112 -0.5483357914 -0.1020364069 -0.5482402332 0.0666179435 0.1810377738
830295020.0 0.0276478051 0.1895292454 -0.1082707806 -0.5472438488 -0.1077872227 -0.5471518411 0.0682314904 0.1801084191
