!Created with skrf (http://scikit-rf.org).
# Hz S RI R 50.0 
!freq ReS11 ImS11 ReS21 ImS21 ReS12 ImS12 ReS22 ImS22
300000.0 -0.7764090362 -0.0856212378 0.000407092 0.0016649755 0.0008988296 0.001318867 -0.7745713494 -0.1323748581
5299970.0 -0.7848526288 -0.005395816 -0.0002628482 -0.0001174908 -0.000109241 8.48837e-05 -0.7841807226 -0.0072591393
10299940.0 -0.787832767 -0.0035624237 -9.66551e-05 0.0001121499 0.0001315591 7.17285e-05 -0.7878071316 -0.0034125208
15299910.0 -0.7938999317 -0.0015463884 -0.0002123117 8.79326e-05 -0.0001489765 -0.0001370511 -0.7931801846 -0.0019235703
20299880.0 -0.8000113659 0.0023939385 -1.71865e-05 -2.65849e-05 0.0001416247 -4.1531e-05 -0.7996901187 0.0024374433
25299850.0 -0.8066242768 0.0080327873 -0.0001364537 -6.93636e-05 9.27522e-05 0.0003119982 -0.8058889798 0.0081618128
30299820.0 -0.8125409064 0.0156166797 -1.46643e-05 0.0001067434 -0.0001641412 -4.24278e-05 -0.8124393224 0.0162200906
35299790.0 -0.8175355932 0.0249871282 8.8426e-06 0.0002291034 -7.85275e-05 -8.24426e-05 -0.8169672451 0.0252260927
40299760.0 -0.8212282753 0.0339454337 -2.99559e-05 -7.03909e-05 3.19529e-05 0.0002262976 -0.8215275072 0.0345187486
45299730.0 -0.8239509301 0.0427683573 -0.0001001241 -0.0002196772 0.0001644329 -5.20451e-05 -0.825103006 0.0441022065
50299700.0 -0.8270681882 0.053002458 -7.28409e-05 -5.32268e-05 -0.0001276573 2.30503e-05 -0.8269762118 0.0540097663
55299670.0 -0.8293268571 0.0629871785 -5.49583e-05 0.0002512982 0.0001070753 -7.10951e-05 -0.829477599 0.0646521617
60299640.0 -0.8300578159 0.0735698992 0.0001068115 -7.13315e-05 0.0003463084 -0.0002018226 -0.8304385625 0.0734990907
65299610.0 -0.8315072431 0.0834051003 -2.8303e-06 -2.12005e-05 9.77619e-05 -9.06608e-05 -0.8317620474 0.0836666547
70299580.0 -0.8311571726 0.0932049188 -8.29064e-05 -5.05571e-05 -4.6246e-06 2.24596e-05 -0.8320951701 0.0942201315
75299550.0 -0.8320266361 0.1039233455 5.84401e-05 -4.8603e-05 4.90586e-05 4.34403e-05 -0.8326186596 0.1040088392
80299520.0 -0.8319270838 0.1131995613 1.56209e-05 3.80349e-05 -2.36339e-05 -6.24801e-05 -0.8324186153 0.113975257
85299490.0 -0.8310214497 0.122430371 0.0001406615 5.98502e-05 -0.0001163748 -0.0001416017 -0.8316680005 0.1238088995
90299460.0 -0.8302644502 0.1324407484 -0.0001388157 -4.88464e-05 0.0002106921 0.0001512907 -0.8307996528 0.1329195233
95299430.0 -0.8293049942 0.141522808 4.36989e-05 -8.58579e-05 -1.06383e-05 -6.84719e-05 -0.8292848997 0.1428408389
100299400.0 -0.8280529939 0.1508208491 -8.31494e-05 0.0001220945 9.6369e-05 -8.75251e-05 -0.828533669 0.1524286483
105299370.0 -0.8266865762 0.1607920137 -5.03192e-05 2.06622e-05 1.73804e-05 -0.0002120001 -0.8267573278 0.161082815
110299340.0 -0.8259841184 0.1691032329 -9.16869e-05 -0.0002166636 2.25654e-05 -5.92194e-05 -0.8254613215 0.1709209496
115299310.0 -0.8238785514 0.1788923245 0.0002025367 -8.111e-07 -2.54256e-05 0.0002404692 -0.823870862 0.1801318963
120299280.0 -0.822296517 0.186904968 -0.0001221652 0.0001391351 -8.38507e-05 -0.0001277511 -0.8219158554 0.188839704
125299250.0 -0.8201105708 0.1961859425 0.0001132014 2.01189e-05 0.0001640402 -0.000120317 -0.8209725332 0.197763802
130299220.0 -0.8188069151 0.2055624762 8.87804e-05 4.19604e-05 -0.0002115817 -0.0002424052 -0.8190336299 0.2067628415
135299190.0 -0.8171094572 0.2145635544 -2.56751e-05 -0.0002620657 7.31672e-05 9.25582e-05 -0.8166412303 0.2162723209
140299160.0 -0.8148235133 0.2238736588 -8.99325e-05 -5.97303e-05 -0.000114906 -5.26212e-05 -0.8142255685 0.2250260338
145299130.0 -0.8121456147 0.2322959921 6.01574e-05 -9.98563e-05 -6.064e-07 7.7457e-05 -0.8122513461 0.234231517
150299100.0 -0.8100286441 0.2413004598 0.0001649316 6.92441e-05 0.0002103931 0.0001314618 -0.8107009413 0.2430943081
155299070.0 -0.8078041596 0.249219539 0.0001415593 -5.60747e-05 1.36397e-05 -9.4957e-05 -0.8073296347 0.2519666763
160299040.0 -0.8051850762 0.2582887371 -0.0001314171 -0.0001189617 0.0002372938 -0.0001112663 -0.805467282 0.2610253113
165299010.0 -0.8027430472 0.267382646 0.0001587795 -1.73788e-05 0.0001943951 -6.1597e-05 -0.802259563 0.2694726172
170298980.0 -0.7999603717 0.2749654771 -0.000164644 8.21981e-05 -0.0001195536 -7.81785e-05 -0.7997281301 0.2780949112
175298950.0 -0.7973936498 0.2842861256 -0.0001743343 -1.35429e-05 3.36043e-05 -2.00268e-05 -0.7972051631 0.2867826055
180298920.0 -0.7947750197 0.2925430703 -4.0066e-05 -0.0002258541 -3.5899e-05 6.20018e-05 -0.7938670211 0.2952184185
185298890.0 -0.7908459131 0.300666265 0.0002055717 -0.0001004535 -3.2371e-06 -0.0002134754 -0.7905214905 0.3037249268
190298860.0 -0.7884024181 0.3093931403 0.0001168731 -0.0001452072 -2.4815e-05 0.0001580986 -0.7883382695 0.3126400225
195298830.0 -0.7852426897 0.3179286263 7.88051e-05 -7.4914e-06 -0.0001537812 -3.40272e-05 -0.7847118683 0.3207983227
200298800.0 -0.7814842747 0.3259259974 2.55651e-05 3.87687e-05 -6.33385e-05 4.22964e-05 -0.7812518816 0.3287990269
205298770.0 -0.7783918019 0.3343304727 0.0001030131 0.0001168378 -0.0002640306 0.000103238 -0.7778645989 0.3380740451
210298740.0 -0.7747367184 0.3422889473 0.000143537 0.000115594 6.43278e-05 -0.0001165945 -0.7750412502 0.3460672328
215298710.0 -0.7717585676 0.3509003243 3.4301e-05 -0.0002604957 -0.0001238308 0.0003646169 -0.7715257839 0.3542265882
220298680.0 -0.7673448967 0.3587542816 -0.0002600976 0.0001914221 6.32646e-05 1.34354e-05 -0.7674072028 0.3620645079
225298650.0 -0.7639648856 0.3673451234 8.56914e-05 -7.4149e-06 -0.0001259843 -0.0001342571 -0.7632421491 0.3705338506
230298620.0 -0.7603100027 0.3747459193 0.0001060669 -0.0001321737 -8.93614e-05 1.09943e-05 -0.7599742325 0.3788094967
235298590.0 -0.7563082172 0.3833044738 -0.000187403 0.0001799124 0.0001016082 0.0002126481 -0.7559735492 0.3870384926
240298560.0 -0.7523062178 0.3916416326 -8.83134e-05 3.33086e-05 -3.09228e-05 4.72626e-05 -0.7517700163 0.3950620277
245298530.0 -0.7485461829 0.3989239993 -0.0001069399 -4.89308e-05 -7.15918e-05 2.70497e-05 -0.7476447128 0.4020419414
250298500.0 -0.7441822759 0.4068743237 -3.9746e-06 -0.0001466173 4.50241e-05 0.0001476399 -0.7433295515 0.4104887926
255298470.0 -0.7395329399 0.4144828783 3.73477e-05 2.53341e-05 -9.618e-07 0.0001273138 -0.7388054409 0.4177529282
260298440.0 -0.7353551938 0.4214040505 2.69284e-05 0.0001251678 0.0001353133 -5.12645e-05 -0.7348148781 0.4260493344
265298410.0 -0.7312490389 0.4301343979 -0.0001163008 -0.0002132717 -7.95631e-05 2.8088e-05 -0.7298248965 0.433736522
270298380.0 -0.7268598443 0.4372921731 0.0001859728 -0.0002452173 5.41132e-05 6.63244e-05 -0.7256458258 0.440865551
275298350.0 -0.7217404504 0.4444920208 -0.0001837012 4.2816e-05 -3.23023e-05 -0.0002853657 -0.7211463168 0.4484889601
280298320.0 -0.7168375703 0.4525122111 3.47069e-05 -4.24977e-05 2.98541e-05 2.56483e-05 -0.7160661787 0.4561303234
285298290.0 -0.7127318173 0.4603604812 -7.7605e-06 -0.0001364243 0.0001389661 7.22503e-05 -0.7105971128 0.4638696863
290298260.0 -0.7081239718 0.4674314891 1.03969e-05 5.73438e-05 6.2295e-05 -9.14948e-05 -0.7058114976 0.4709266383
295298230.0 -0.7026441219 0.4744597015 0.0001250742 -0.0002123532 6.39613e-05 0.0002078959 -0.7009451108 0.4777514494
300298200.0 -0.6976170788 0.4819808914 6.42594e-05 -4.39577e-05 -0.0002035415 -0.0001236774 -0.6957937069 0.4852827958
305298170.0 -0.6922079022 0.4887101032 0.000126884 -0.0003027355 8.40447e-05 -8.98097e-05 -0.6906111659 0.4932325957
310298140.0 -0.6870445667 0.4963920546 5.92311e-05 0.0001438083 -4.24095e-05 2.79273e-05 -0.6858775483 0.5000376788
315298110.0 -0.6826703432 0.5034146466 7.64166e-05 0.0001091876 3.33887e-05 -7.44063e-05 -0.6799492303 0.5069840097
320298080.0 -0.6772456555 0.5105329421 0.0001546221 1.59352e-05 -2.4395e-05 9.5363e-06 -0.6750472186 0.5145733614
325298050.0 -0.6716485696 0.517623461 1.05573e-05 -0.0001251458 9.34488e-05 3.68641e-05 -0.6691173674 0.5213830228
330298020.0 -0.6664410016 0.5234844619 -0.0002054759 0.0001599396 -6.6141e-06 -3.55707e-05 -0.6634180585 0.5280444562
335297990.0 -0.6611505189 0.5307583292 9.16801e-05 4.9116e-05 -5.11692e-05 1.39493e-05 -0.6586707184 0.5352330081
340297960.0 -0.6557295264 0.5380989289 -8.59318e-05 5.24219e-05 0.0001305739 -0.0001234141 -0.6527079191 0.5422594958
345297930.0 -0.6498664897 0.5443466511 4.45935e-05 -1.59513e-05 -0.0001136402 -0.0001386671 -0.6466053164 0.5484922953
350297900.0 -0.6446445134 0.5514793839 -0.0002437088 3.88627e-05 2.66011e-05 -9.62932e-05 -0.6416100371 0.555578969
355297870.0 -0.6379153939 0.5580648229 6.9749e-06 2.66498e-05 -0.0001549644 9.7252e-06 -0.6358536467 0.5622097204
360297840.0 -0.6324246566 0.5635974071 0.0002249344 0.0001632542 -0.0001137656 0.0001101242 -0.6293941658 0.5685866036
365297810.0 -0.6276617916 0.5705606637 -9.85216e-05 4.4552e-06 3.9665e-06 -7.16154e-05 -0.6230115691 0.575220321
370297780.0 -0.6208553326 0.5767835596 -8.13007e-05 0.0001146035 7.84217e-05 -4.4479e-05 -0.6175502228 0.5818504439
375297750.0 -0.6148147029 0.5840031707 0.000236163 -4.31554e-05 9.69429e-05 -0.0002543802 -0.6119504884 0.5873153933
380297720.0 -0.6091750262 0.588563422 5.25213e-05 -0.0001837109 -9.68125e-05 0.0001453522 -0.6055687177 0.5945084835
385297690.0 -0.6033775072 0.5952101433 7.49114e-05 0.0001396198 -0.0001058509 7.33151e-05 -0.5993195425 0.6011017314
390297660.0 -0.5968176299 0.6013875465 0.0001333835 0.0001378324 8.52999e-05 -4.6932e-06 -0.5931750466 0.6068585437
395297630.0 -0.5903564325 0.6074968702 5.92195e-05 -1.87357e-05 8.63492e-05 0.0002928265 -0.5864367754 0.6132894902
400297600.0 -0.5836885635 0.6143325831 0.0001271697 -7.38484e-05 -0.0001366272 -3.25957e-05 -0.5810098684 0.6186399894
405297570.0 -0.5778777929 0.6199175034 -0.0001091486 3.6758e-06 -4.86043e-05 1.9001e-06 -0.5740987112 0.6248671846
410297540.0 -0.5710039701 0.6254750638 5.77635e-05 0.0002019699 2.51727e-05 -5.81e-05 -0.5675921358 0.6304075795
415297510.0 -0.5639798536 0.6310387831 9.01398e-05 8.71749e-05 -7.66433e-05 -5.61106e-05 -0.5610863822 0.6366612753
420297480.0 -0.5590395791 0.6370950815 3.947e-06 -0.0002489682 0.0001200854 -8.60784e-05 -0.5541569556 0.6427427159
425297450.0 -0.5515460647 0.6425285067 -0.0001219926 -0.0002326464 -0.0001113104 -0.0002284566 -0.5479552934 0.6479435953
430297420.0 -0.5455629644 0.6487104519 -3.64999e-05 -9.09113e-05 2.1733e-06 3.72869e-05 -0.541216363 0.6532150608
435297390.0 -0.5385292399 0.6533556654 -4.10365e-05 0.0001617319 -0.0001086706 0.0001395863 -0.5338937608 0.6588717173
440297360.0 -0.5315921758 0.6588818812 -0.0001201622 -0.0001127709 -2.23977e-05 -4.07682e-05 -0.5275047503 0.6637431556
445297330.0 -0.5242559639 0.6645913089 -7.91557e-05 -9.2878e-06 7.79466e-05 4.47796e-05 -0.5203400745 0.6688184084
450297300.0 -0.5181550374 0.6695531233 0.0001504446 0.0001342332 -0.0001827559 -8.97815e-05 -0.5130071038 0.674303507
455297270.0 -0.5113872319 0.6745321311 -0.0001086844 -0.0001599947 -6.5403e-06 -0.0001142891 -0.5063769412 0.6789582576
460297240.0 -0.5045790239 0.6792364266 6.61988e-05 0.0001980253 0.0001541753 -2.8092e-05 -0.4995927245 0.6843924824
465297210.0 -0.4973560449 0.6851114075 -0.0001288475 -0.0001309815 -0.0001686523 -4.83912e-05 -0.491860539 0.6889395489
470297180.0 -0.4905209979 0.6903473238 0.0001511367 1.5123e-05 -6.66338e-05 -3.77408e-05 -0.4849997136 0.6943589733
475297150.0 -0.4832657422 0.6943560923 0.0001680255 9.51955e-05 7.7741e-05 7.65838e-05 -0.4778366285 0.6987427403
480297120.0 -0.4762772585 0.6995106003 -5.44642e-05 -1.72598e-05 0.000173382 -8.07698e-05 -0.4702809318 0.704024562
485297090.0 -0.4694536077 0.7041193091 -0.0001014632 -0.0002320971 -2.69369e-05 3.10054e-05 -0.4631391203 0.708358136
490297060.0 -0.4618883239 0.7087382476 -1.11161e-05 -5.02559e-05 -9.1536e-06 2.07728e-05 -0.4558151344 0.7127339778
495297030.0 -0.4548299045 0.7132924686 -3.00646e-05 -0.0001116065 0.0001236904 1.04482e-05 -0.4484431158 0.7179454564
500297000.0 -0.447674082 0.7181476023 4.7096e-05 -8.15203e-05 -0.0001947198 1.39422e-05 -0.4409905226 0.722584044
505296970.0 -0.4398870042 0.7223324009 -6.98543e-05 0.0002393981 1.06519e-05 1.9555e-06 -0.4334799995 0.7269128889
510296940.0 -0.4325847107 0.726843108 2.71998e-05 -0.0002054788 1.17057e-05 -0.0001662206 -0.4259799154 0.7313165811
515296910.0 -0.4247572667 0.7301191114 -2.5043e-05 0.0002460256 -0.0002584214 -0.0001801125 -0.4182171173 0.7355124962
520296880.0 -0.4181038681 0.7350751431 -7.47029e-05 -0.0001445817 -8.72821e-05 -4.57029e-05 -0.4107246267 0.738894901
525296850.0 -0.4100787531 0.7394691841 -1.72019e-05 4.9283e-05 -6.94877e-05 5.31647e-05 -0.4036588881 0.7433674667
530296820.0 -0.4026101411 0.7434202074 0.0001316091 -0.0001209711 -0.0001553239 -0.0001677075 -0.396305755 0.7476668234
535296790.0 -0.3956422211 0.7470192746 -9.03834e-05 -5.27073e-05 -0.0001212132 6.87685e-05 -0.3890118489 0.751756164
540296760.0 -0.3876725197 0.7511073758 0.000180103 8.13595e-05 0.0002023653 -1.65025e-05 -0.3813884907 0.7553178475
545296730.0 -0.3804177928 0.7551561948 -0.0001001337 0.000204898 0.0001290688 -5.58845e-05 -0.373457732 0.7592609907
550296700.0 -0.3729143671 0.7591076272 -6.07523e-05 -3.68121e-05 5.70094e-05 -4.75077e-05 -0.3658556924 0.7628765913
555296670.0 -0.364919067 0.7621478881 -3.28171e-05 9.78462e-05 -5.052e-07 -3.02885e-05 -0.3581320015 0.7669931603
560296640.0 -0.3571391377 0.7667119179 -0.0001385895 0.0001241454 1.88478e-05 -7.52396e-05 -0.3501876008 0.7706309837
565296610.0 -0.3498142253 0.7694743228 -0.0001396724 0.0002319376 -0.0001556506 0.0002410757 -0.3420341169 0.7738171236
570296580.0 -0.3423394652 0.7721139191 0.0002769169 4.4599e-05 6.58498e-05 0.0001775267 -0.3350693039 0.777897448
575296550.0 -0.3341576413 0.776999483 -8.82924e-05 0.0004294226 -0.0002039629 0.0001389537 -0.3263338786 0.7814185547
580296520.0 -0.3257550108 0.7793513682 -9.32246e-05 -7.33594e-05 -9.47339e-05 4.83926e-05 -0.3179036138 0.783904354
585296490.0 -0.3186633017 0.7826689013 -8.06311e-05 -3.98276e-05 1.92156e-05 -0.0001255828 -0.3104671383 0.7874534454
590296460.0 -0.3109550861 0.7859346191 1.09325e-05 7.0798e-06 -3.5752e-05 2.08215e-05 -0.3024831266 0.7902110079
595296430.0 -0.3028083256 0.7882543411 4.521e-05 5.62869e-05 0.0001310939 0.0001115605 -0.2946031897 0.7927982904
600296400.0 -0.294338032 0.7919454549 -0.0001895261 0.0002045337 -4.12927e-05 1.65931e-05 -0.2866536657 0.7956855738
605296370.0 -0.2873486465 0.7941021608 0.0001231964 0.0002243476 2.1821e-05 3.8711e-06 -0.2779203121 0.7986094258
610296340.0 -0.2788628887 0.7970564238 6.51943e-05 0.000137781 0.000136637 -7.57321e-05 -0.2703917275 0.8009916489
615296310.0 -0.270394534 0.8000497967 -9.44739e-05 1.77434e-05 -8.87741e-05 -8.95688e-05 -0.2613526914 0.8037647609
620296280.0 -0.2627506185 0.8022606546 -3.0159e-05 -1.03532e-05 0.0002403118 -1.42931e-05 -0.2543441921 0.8065213263
625296250.0 -0.2546337904 0.8052891552 6.08906e-05 7.71927e-05 3.465e-06 -0.000108058 -0.245510507 0.8083114191
630296220.0 -0.2454939193 0.8082036475 6.28016e-05 -0.0001184005 0.0001851496 -9.66274e-05 -0.2377774153 0.8108451339
635296190.0 -0.238438021 0.8103054467 -7.80735e-05 -0.0001025482 -2.62607e-05 -1.07705e-05 -0.2298299078 0.8131135008
640296160.0 -0.2308563904 0.8123219394 -0.0001033871 0.000196961 5.18985e-05 6.62798e-05 -0.2211133654 0.8154916635
645296130.0 -0.2222742608 0.8151495591 -4.23378e-05 2.70852e-05 5.65798e-05 2.08981e-05 -0.213422501 0.8177408511
650296100.0 -0.2141492374 0.816647511 5.95306e-05 -0.0001261053 -0.0001749373 4.19455e-05 -0.2041821308 0.8193996609
655296070.0 -0.2059869791 0.8192730748 -6.05674e-05 4.7725e-06 7.70918e-05 -0.0001356447 -0.1960065116 0.8208277543
660296040.0 -0.1975732825 0.8202000559 0.0001848905 -2.01586e-05 8.6039e-06 -0.0002029595 -0.1872107286 0.8235804012
665296010.0 -0.1889824796 0.8220889333 1.75892e-05 -0.00010991 -0.0001252388 0.0001204348 -0.1792010987 0.8252851503
670295980.0 -0.1821538872 0.8242222869 3.36174e-05 0.000176161 -6.94503e-05 -1.27944e-05 -0.171552063 0.8270654668
675295950.0 -0.1728921661 0.8260015812 -4.35127e-05 4.294e-07 0.0002601291 -0.0001694898 -0.1635639545 0.8289816088
680295920.0 -0.164739529 0.8282629954 5.42574e-05 3.39181e-05 9.4636e-06 6.42317e-05 -0.1545717932 0.8310484844
685295890.0 -0.1563297864 0.8302422831 0.0003123085 -0.0001982409 -0.0001024747 2.53455e-05 -0.1457320912 0.8320545428
690295860.0 -0.1487375723 0.8308077916 0.0001267759 0.0001321205 -0.0001326533 8.65877e-05 -0.1382202182 0.8338499896
695295830.0 -0.1401225739 0.831601102 0.0001596404 7.08491e-05 8.51329e-05 0.0001431764 -0.1294125773 0.8349494197
700295800.0 -0.1313324434 0.8332363501 7.5731e-05 3.09886e-05 -0.0001622997 0.00018196 -0.1218041977 0.8362882771
705295770.0 -0.1232347932 0.835124349 0.0001072527 -0.0001483086 0.0001208241 -1.3553e-06 -0.1133363634 0.837972168
710295740.0 -0.1151522714 0.8367005705 -7.04819e-05 -0.0001547042 1.85574e-05 0.0003238586 -0.1045651 0.8384461959
715295710.0 -0.1067014104 0.8368096855 -0.0001042955 -2.66705e-05 -4.6236e-05 -0.0001335746 -0.0958349253 0.8392932953
720295680.0 -0.0989312709 0.8388531452 3.90041e-05 0.0002550942 5.17023e-05 6.90689e-05 -0.0872479672 0.8407795289
725295650.0 -0.0897137437 0.8392556686 -0.0002314692 6.04189e-05 -7.00227e-05 -2.45121e-05 -0.0798232103 0.8417419533
730295620.0 -0.0818860919 0.8401867579 9.89239e-05 -6.0508e-06 3.24947e-05 -1.63e-08 -0.0717349998 0.8421262544
735295590.0 -0.0739745302 0.8413070761 -8.7708e-05 8.60938e-05 -0.0001057601 -9.39639e-05 -0.0630619628 0.8426797939
740295560.0 -0.0652053777 0.8419557266 -8.1856e-06 3.5583e-05 -0.0001523781 0.0001485831 -0.0540112247 0.8438726834
745295530.0 -0.0568735967 0.8424545683 2.50076e-05 -0.000129398 7.49505e-05 0.0001699761 -0.0455324387 0.8440686841
750295500.0 -0.0482050849 0.842966025 -8.06201e-05 -0.0001916893 1.33177e-05 9.47542e-05 -0.0375420676 0.8445362619
755295470.0 -0.0401859087 0.8427831352 0.0002329431 -0.0001470563 -7.1458e-05 0.0001443408 -0.0290576625 0.8438642424
760295440.0 -0.0320136943 0.8431900326 7.16157e-05 -1.67636e-05 9.0453e-06 0.0001580606 -0.0208126674 0.8441944907
765295410.0 -0.023782372 0.8436099333 -0.0001006641 -0.0003405343 -2.15717e-05 -9.63751e-05 -0.0124477067 0.8452371017
770295380.0 -0.0156244674 0.8443603852 0.0001272212 -0.0001221453 5.79564e-05 -0.0001354002 -0.0039813179 0.8445830691
775295350.0 -0.0072474728 0.8438106564 -4.5877e-05 0.0002145896 0.0001690721 0.0001490359 0.0035096178 0.8444633353
780295320.0 0.0012703796 0.8439244902 0.0002192337 0.0001308021 -4.45289e-05 9.65419e-05 0.0122864062 0.844456742
785295290.0 0.0093089147 0.8431545099 0.0001077027 -1.2355e-05 -0.0001544693 -0.0001312091 0.0214274708 0.8439641095
790295260.0 0.0186404227 0.8436806212 9.0467e-05 -3.6736e-05 7.23136e-05 -1.55523e-05 0.0303400948 0.8446352153
795295230.0 0.0258881293 0.843655997 -0.0002198694 1.99808e-05 -1.5495e-06 6.20914e-05 0.0387458979 0.8428985875
800295200.0 0.0342724766 0.8428213304 0.0001969716 8.34481e-05 -0.0001636117 5.99153e-05 0.0468221491 0.8429423391
805295170.0 0.043068668 0.8424782063 0.0002241777 -9.48481e-05 -1.4562e-06 -3.66063e-05 0.0552305893 0.8420059182
810295140.0 0.0513678644 0.8425045822 -0.0001338304 -4.29053e-05 1.057e-06 1.78908e-05 0.0638322014 0.8417069609
815295110.0 0.0592035007 0.8415824379 5.16323e-05 3.89671e-05 -0.0001437408 -4.22537e-05 0.0725109374 0.8409194859
820295080.0 0.0674109589 0.8411329331 5.58674e-05 0.0001510609 0.000233934 0.0001401959 0.0808555823 0.8401309826
825295050.0 0.0768416128 0.8404029476 7.5097e-05 0.0002785861 0.0002357012 0.0001325702 0.0887083051 0.83951361
830295020.0 0.0846210558 0.8401209209 5.53275e-05 -2.78987e-05 2.262e-05 8.17719e-05 0.0979226375 0.8386117744
835294990.0 0.0924008308 0.838768756 -8.61621e-05 -6.62666e-05 -0.0001435359 -0.0002145803 0.1054089643 0.8378253486
840294960.0 0.1011474782 0.8380991086 4.52165e-05 -5.06574e-05 2.54861e-05 -2.58888e-05 0.1138969828 0.836560346
845294930.0 0.1087061837 0.8368118457 -1.49852e-05 -0.0001562354 -1.74557e-05 4.22829e-05 0.1221126474 0.8352042162
