!Created with skrf (http://scikit-rf.org).
# Hz S RI R 50.0 
!freq ReS11 ImS11 ReS21 ImS21 ReS12 ImS12 ReS22 ImS22
300000.0 -0.0971296777 -0.0819432079 0.6217481373 0.0767664613 0.6234065018 0.080481136 -0.0943187493 -0.0896563035
5299970.0 -0.1004567994 0.0128718633 0.6307821615 0.0103166627 0.6305299228 0.0111710265 -0.1021616607 0.0120290972
10299940.0 -0.0951320979 0.0298679379 0.6343549899 0.0152233062 0.6340272894 0.0162598809 -0.0971464821 0.0289474394
15299910.0 -0.0888963263 0.0431575228 0.6406493323 0.0208018187 0.6404253948 0.0213250334 -0.0901311553 0.0420191001
20299880.0 -0.0794890945 0.0542739983 0.6485592805 0.0240298996 0.6486878208 0.0241740475 -0.0817416485 0.0530696623
25299850.0 -0.0697052809 0.0628226355 0.6580657621 0.0249606938 0.658038233 0.0255904152 -0.0728222579 0.0619318633
30299820.0 -0.0595693382 0.0691455388 0.6678344307 0.024939067 0.6674379482 0.0243901822 -0.0626779752 0.0687970183
35299790.0 -0.0494589298 0.0741537739 0.6773806272 0.0217528619 0.6777531043 0.021905002 -0.0523040658 0.073397997
40299760.0 -0.0396955914 0.0771869631 0.6868164238 0.0181786846 0.6868341552 0.0178173121 -0.0436613543 0.0771032925
45299730.0 -0.0303348431 0.0793627487 0.6953780958 0.0112691962 0.6958405508 0.0119309976 -0.0341787095 0.0793390067
50299700.0 -0.0218205044 0.0799063572 0.7031703999 0.0043456371 0.7037751549 0.0046306176 -0.025425302 0.0800221765
55299670.0 -0.0141464806 0.0799071713 0.7106094643 -0.0029966642 0.7110382611 -0.0027446658 -0.0179257804 0.080041449
60299640.0 -0.0068253538 0.0789326075 0.717761418 -0.0118503659 0.7177332724 -0.0111873357 -0.0103732274 0.0795937359
65299610.0 -0.0004821555 0.0779962511 0.723399816 -0.0198619125 0.7237940874 -0.0199500362 -0.0035715213 0.0784195616
70299580.0 0.0058574832 0.0760031869 0.7286102314 -0.0290045347 0.7286974446 -0.0291418142 0.0024354808 0.0771414006
75299550.0 0.0114218131 0.0743289869 0.733241926 -0.0385323614 0.7331468175 -0.0389962609 0.0079855485 0.0758560774
80299520.0 0.0162237198 0.0723071752 0.7378223245 -0.049139824 0.7374375172 -0.0488406602 0.0132084857 0.072707735
85299490.0 0.0208699128 0.0696938323 0.7408581104 -0.0585522817 0.7408904788 -0.0588800703 0.017591424 0.0711295721
90299460.0 0.0247616397 0.0673561825 0.7433702316 -0.0688006302 0.744217851 -0.0689484455 0.0218223102 0.0689264992
95299430.0 0.0282835781 0.0652093593 0.7464518943 -0.0790557734 0.7457382583 -0.0786541688 0.025236519 0.0662319434
100299400.0 0.0315213699 0.0628652542 0.7478366661 -0.0894528085 0.7470564275 -0.0890246761 0.0283108136 0.0636616954
105299370.0 0.0347936043 0.0603021416 0.748950996 -0.0988076659 0.7491312116 -0.0990366047 0.0318365214 0.0615684764
110299340.0 0.0368287388 0.0575795503 0.7499208867 -0.1092447685 0.7499628863 -0.1097771902 0.0348565241 0.0592545354
115299310.0 0.0397219009 0.054923698 0.7507070234 -0.1193041727 0.7515671768 -0.1188152261 0.0373927201 0.0562034191
120299280.0 0.0413493039 0.0527853706 0.7517388483 -0.1296862055 0.7513313376 -0.1294854653 0.0389108009 0.0540848653
125299250.0 0.0433954657 0.0505831616 0.7519926302 -0.138931528 0.7520858536 -0.1391916568 0.0413718931 0.0512817817
130299220.0 0.0449777353 0.0478787322 0.7513397955 -0.1489957418 0.7516801492 -0.1492775539 0.0433318233 0.0494188511
135299190.0 0.0469454577 0.0454963306 0.7514791792 -0.158625501 0.7508140797 -0.1587335318 0.0444057878 0.0474424644
140299160.0 0.0479337103 0.044149866 0.7504004841 -0.1685797968 0.7510608049 -0.1687831529 0.0462226767 0.0454070572
145299130.0 0.0493860575 0.0420499574 0.7505813515 -0.1781394535 0.7498341198 -0.1782393744 0.047144295 0.042592394
150299100.0 0.0508042505 0.0399103618 0.74944803 -0.1881912435 0.7488996717 -0.1879751167 0.0486369619 0.0409427057
155299070.0 0.0513335013 0.0383198483 0.7475280297 -0.1985170908 0.7474190497 -0.1984030932 0.0494469897 0.0388526631
160299040.0 0.0525280585 0.0358862184 0.746061578 -0.2068715821 0.7463155127 -0.2070230934 0.0507000469 0.0373629358
165299010.0 0.0531545973 0.0343893689 0.7456378878 -0.216918405 0.7448581721 -0.2168164894 0.0517667879 0.0349067589
170298980.0 0.0533936098 0.0327021715 0.7423535343 -0.2260895562 0.7428187237 -0.2260931962 0.0530075223 0.0328165312
175298950.0 0.0544220735 0.0304769836 0.7418826123 -0.2354159831 0.7416207725 -0.2352473972 0.0530588941 0.0312720864
180298920.0 0.0552921614 0.0292743196 0.739203069 -0.2444306359 0.7391374777 -0.2446399951 0.0536635186 0.0299973274
185298890.0 0.0561156568 0.0272094501 0.7359783452 -0.2539565878 0.736979532 -0.2544114192 0.054182548 0.027763147
190298860.0 0.0561209187 0.025924439 0.7342250831 -0.2630529823 0.7345490792 -0.2626168472 0.0555185406 0.0261795555
195298830.0 0.056302294 0.0240412137 0.7316821115 -0.2716617874 0.7319000458 -0.2719011436 0.0560011432 0.0242950631
200298800.0 0.056995298 0.0226274819 0.7294302105 -0.2801182053 0.729575543 -0.2802868124 0.0562528619 0.023269964
205298770.0 0.0571766081 0.0215189923 0.7269791842 -0.28890028 0.7268871442 -0.2898324963 0.0564165819 0.0210778382
210298740.0 0.0572257701 0.0196519455 0.7239925567 -0.2988297202 0.723555244 -0.2989532471 0.0567722821 0.0200886211
215298710.0 0.0578684276 0.0186421859 0.720609057 -0.3070143521 0.7206084784 -0.3070751792 0.0569653433 0.0183505077
220298680.0 0.0581594557 0.0171439624 0.7175220192 -0.3158073368 0.7171126681 -0.3156732993 0.0575034803 0.0175221227
225298650.0 0.0584691643 0.0161063961 0.7137965061 -0.3236023388 0.7140103565 -0.324588142 0.0576420216 0.0156347121
230298620.0 0.0579898445 0.0148855518 0.7112652565 -0.332879856 0.7110533429 -0.3330632363 0.0577676715 0.0144085138
235298590.0 0.0582986707 0.0132604463 0.7070078997 -0.3409099178 0.7076389414 -0.3416829535 0.0580234964 0.0127437598
240298560.0 0.0583525077 0.0119519309 0.7040729606 -0.3493515537 0.7041062631 -0.349092561 0.0582225797 0.0118455619
245298530.0 0.0589459587 0.011277 0.6995976755 -0.3575473777 0.6999869031 -0.3581428231 0.0584865222 0.0107060802
250298500.0 0.0584030759 0.0099023551 0.6957995293 -0.3659172898 0.6964142391 -0.3653556674 0.0588609994 0.0093652695
255298470.0 0.058064731 0.0088092773 0.691803888 -0.3744956887 0.6922655402 -0.373825175 0.0587765949 0.0075477831
260298440.0 0.0580802279 0.0077986209 0.6880727608 -0.3818825397 0.6885134413 -0.3825499704 0.059264929 0.0070180363
265298410.0 0.0589470471 0.0070153781 0.6839811244 -0.3909410042 0.6841434154 -0.3906188532 0.0588592094 0.0055667351
270298380.0 0.0590033171 0.0057592454 0.6793799681 -0.398313545 0.6803696918 -0.398493918 0.0590162375 0.0052945134
275298350.0 0.0585119733 0.0048546197 0.6757554599 -0.4068902649 0.6758484247 -0.4068906552 0.0592284157 0.0035899726
280298320.0 0.058464349 0.0039150986 0.6708973599 -0.4135808982 0.671032896 -0.4143738566 0.0594302943 0.002634826
285298290.0 0.0587674498 0.0030786889 0.6669581173 -0.4220438034 0.6666686218 -0.4218522962 0.0587273736 0.0018690794
290298260.0 0.0586164003 0.0019779536 0.661958662 -0.4299309042 0.6627362212 -0.4294602747 0.0594826253 0.000676292
295298230.0 0.0587156141 0.0007290576 0.6579833404 -0.4378581096 0.6576180337 -0.4372298753 0.0595528695 -6.67787e-05
300298200.0 0.0593192107 9.34711e-05 0.6531988511 -0.4447788964 0.653155001 -0.4454644321 0.0591883611 -0.0015489242
305298170.0 0.0589204716 -0.0012221338 0.6484544462 -0.4530737171 0.6486849106 -0.4530926911 0.0598393128 -0.0019494683
310298140.0 0.0594858529 -0.0023761702 0.6439180394 -0.4606880051 0.6435963658 -0.4608788074 0.0595892883 -0.0030962973
315298110.0 0.0586857366 -0.0033465981 0.6380743934 -0.468124642 0.6389267172 -0.4684188841 0.059752555 -0.0045950258
320298080.0 0.0586249347 -0.0042109381 0.6332886154 -0.4756471361 0.6332482005 -0.4755971291 0.0592225215 -0.0056417644
325298050.0 0.0583641663 -0.0057951745 0.628209242 -0.4829253827 0.6282380015 -0.4838770281 0.0591854318 -0.0071774139
330298020.0 0.0579887654 -0.0064618988 0.6215553387 -0.4907375664 0.6220379716 -0.490630589 0.0582283682 -0.0082746445
335297990.0 0.0572985758 -0.0077616197 0.6161857154 -0.4974923472 0.6164273964 -0.4976833676 0.0580333562 -0.0088549052
340297960.0 0.0565904678 -0.0080737743 0.6100966388 -0.5050257919 0.6108885065 -0.504336147 0.057376964 -0.0096285886
345297930.0 0.0564068194 -0.0083026624 0.6053116669 -0.5108758559 0.604724444 -0.5113116276 0.0579437486 -0.0106850692
350297900.0 0.0564651 -0.0093963701 0.59893607 -0.5176024663 0.599441803 -0.5182298856 0.0566674796 -0.0107360092
355297870.0 0.0560305221 -0.0102008775 0.5930259745 -0.5246836661 0.5929247608 -0.5250481733 0.0564256159 -0.011575071
360297840.0 0.0561168203 -0.0106797615 0.5873171383 -0.5317462622 0.5871659446 -0.5313188887 0.0565202795 -0.0119396284
365297810.0 0.0557797147 -0.0112948732 0.5815643887 -0.5373501075 0.5813908881 -0.5378319931 0.0557142552 -0.0124045893
370297780.0 0.055842213 -0.0122693389 0.5758481357 -0.5438483842 0.5759783507 -0.544601395 0.0559035745 -0.0129682437
375297750.0 0.0551569397 -0.0124991864 0.5701885174 -0.5506465599 0.569865922 -0.5511255919 0.0555214337 -0.0134970803
380297720.0 0.0551051645 -0.0139015366 0.563865635 -0.5572812508 0.5635536054 -0.5567707424 0.0553188357 -0.0145553314
385297690.0 0.0549446005 -0.013932952 0.5576587895 -0.5629754286 0.5572666697 -0.5635596753 0.0548309159 -0.0148062951
390297660.0 0.0541698975 -0.0146603304 0.5510239291 -0.5697896742 0.5511487832 -0.5701186319 0.0550901458 -0.0156857429
395297630.0 0.0545546084 -0.0157280117 0.5448828287 -0.5758672353 0.5445798451 -0.575510222 0.0545170641 -0.0157933769
400297600.0 0.0537667508 -0.0159981818 0.5384067697 -0.581928115 0.5391428485 -0.5822219395 0.0533579492 -0.0169152588
405297570.0 0.0537900906 -0.0165115076 0.5325969857 -0.5871906118 0.532495908 -0.5881736486 0.0537023607 -0.0171075199
410297540.0 0.053765322 -0.0175553369 0.5248123883 -0.5936137611 0.5253795361 -0.5936976671 0.0533513575 -0.017823893
415297510.0 0.0533938852 -0.0173718818 0.5193680369 -0.5992032211 0.5189954834 -0.5997775189 0.0530239068 -0.0180625801
420297480.0 0.0528221644 -0.019009149 0.5118731956 -0.6056335933 0.512363196 -0.6053943311 0.0529518085 -0.0193889856
425297450.0 0.0535693769 -0.0196906947 0.5059374286 -0.6110954013 0.5062479492 -0.6108569584 0.0522629769 -0.0189129782
430297420.0 0.0525544982 -0.0198144459 0.4987824011 -0.6170463332 0.4994705251 -0.6169561852 0.0518459585 -0.0203853979
435297390.0 0.0524014515 -0.0207589089 0.4923098096 -0.6217778207 0.4923396123 -0.6217974639 0.0511879128 -0.0201227477
440297360.0 0.0520952486 -0.0215292083 0.4845964751 -0.6276340889 0.4853468242 -0.6276910512 0.0512086182 -0.0214434982
445297330.0 0.052348136 -0.0221189401 0.4779420081 -0.6333907036 0.4780839631 -0.632977131 0.0511002319 -0.0216424873
450297300.0 0.0518680177 -0.022391124 0.4710919316 -0.638011642 0.4718037569 -0.6383271198 0.0505428732 -0.0220993457
455297270.0 0.0509292682 -0.0232261028 0.464798068 -0.6434776442 0.4645341395 -0.6435875489 0.0504158578 -0.022501257
460297240.0 0.0504958271 -0.0239020874 0.4573511995 -0.6483704056 0.4567144933 -0.6485428558 0.0497611048 -0.0225914947
465297210.0 0.0506669128 -0.0245846159 0.4498831518 -0.6540686694 0.4505404108 -0.6536850358 0.0488930575 -0.0235928902
470297180.0 0.0498125758 -0.0251239263 0.4431140535 -0.6581224452 0.4433157755 -0.6591183025 0.0481808852 -0.024037548
475297150.0 0.0493008666 -0.0264229236 0.4352594232 -0.6635744143 0.4358297413 -0.6629400049 0.0486116314 -0.0244635643
480297120.0 0.0499358699 -0.0269641629 0.4287249994 -0.6677218854 0.4290961712 -0.6678858806 0.0479295468 -0.0246482323
485297090.0 0.0492275095 -0.0270807101 0.4214930193 -0.6730240958 0.4211879312 -0.6729542343 0.0471431097 -0.0254841036
490297060.0 0.0489640385 -0.0281035256 0.4141452954 -0.6777542164 0.4145214416 -0.6777615442 0.0472440373 -0.025592559
495297030.0 0.0479578148 -0.0283450072 0.4064273506 -0.6819284339 0.4062696586 -0.6821569734 0.0467648028 -0.0264174281
500297000.0 0.048009318 -0.0291732423 0.3987350439 -0.6862851632 0.399002352 -0.6867985761 0.0455304688 -0.026860379
505296970.0 0.0472648773 -0.0295637407 0.3910037309 -0.6906213738 0.3907464592 -0.6906955542 0.0449808781 -0.0273817275
510296940.0 0.04689817 -0.0300809987 0.3837232372 -0.6949504848 0.3836602212 -0.6952852404 0.0451438058 -0.0270536414
515296910.0 0.0462104962 -0.0305175961 0.375528778 -0.6988052477 0.3760471293 -0.699711111 0.0439854007 -0.028080836
520296880.0 0.0457976582 -0.0311753267 0.3685823894 -0.7035684069 0.3685727231 -0.7034595909 0.0445484234 -0.0282647115
525296850.0 0.045237038 -0.0323244393 0.3606681237 -0.707652689 0.360815862 -0.7078392585 0.0439966388 -0.0288004237
530296820.0 0.0448065734 -0.0323706699 0.3533331895 -0.7103399801 0.3526636191 -0.7115449093 0.0429064631 -0.0296832998
535296790.0 0.0441225598 -0.0330700561 0.3448660188 -0.7148833018 0.3454794021 -0.7150038419 0.0426285331 -0.0298817857
540296760.0 0.0439139944 -0.0337337902 0.3372450476 -0.7192896295 0.3365022789 -0.7194346036 0.0414658933 -0.0300216513
545296730.0 0.0434752493 -0.0334260775 0.3290848165 -0.7217400031 0.3291815534 -0.7231849905 0.0414072334 -0.0309615576
550296700.0 0.042772026 -0.0346289534 0.3219606157 -0.7265675965 0.3219432154 -0.7265780674 0.040406092 -0.0303753445
555296670.0 0.0426813802 -0.0352832696 0.3137230549 -0.7299886434 0.3135664963 -0.7297819468 0.0400436823 -0.0307855245
560296640.0 0.0419352488 -0.0353915475 0.305843591 -0.7330438602 0.3055078442 -0.7329865404 0.0397082436 -0.0316414721
565296610.0 0.0408177174 -0.0361061393 0.2972297821 -0.7367321888 0.2972972742 -0.7365973387 0.0389050321 -0.0320579503
570296580.0 0.0411500325 -0.036531427 0.2894406402 -0.7396114808 0.289760339 -0.7396445176 0.0386403467 -0.0315755393
575296550.0 0.0402285821 -0.0362814433 0.2811843336 -0.7424090364 0.2817808669 -0.742497266 0.0382700354 -0.03284285
580296520.0 0.0394615559 -0.03699627 0.2737470529 -0.7458645277 0.2730002317 -0.7458681914 0.0376289793 -0.0332051331
585296490.0 0.0394125643 -0.0377025354 0.265448542 -0.749065743 0.2652325202 -0.7490054445 0.0368374435 -0.033725648
590296460.0 0.0380871124 -0.0382453118 0.2569670635 -0.7515624506 0.2567568896 -0.7517541714 0.0369573874 -0.0334502615
595296430.0 0.0375751708 -0.0383501431 0.248644781 -0.754875925 0.2486509203 -0.7544098057 0.0361070351 -0.0338671796
600296400.0 0.0371192686 -0.0386686191 0.2400872283 -0.7573467388 0.2406482121 -0.7571976309 0.0353201389 -0.0339886113
605296370.0 0.0367652597 -0.0385996625 0.2319010809 -0.7597170932 0.2319340828 -0.7598694963 0.0349495448 -0.0350029091
610296340.0 0.0359101416 -0.0394208665 0.2243953421 -0.7622192674 0.224162155 -0.7625456302 0.0343773579 -0.0342726144
615296310.0 0.035532473 -0.0394922082 0.2151852319 -0.7647578291 0.2149374259 -0.7648841184 0.0339118118 -0.0352114788
620296280.0 0.0348465159 -0.0400915884 0.2069803977 -0.766653796 0.2072789049 -0.7668777373 0.033404759 -0.0359629807
625296250.0 0.0346106299 -0.0401500785 0.1982286013 -0.7692052391 0.1986730938 -0.7694862898 0.0330920935 -0.0356875663
630296220.0 0.0338663482 -0.0406676171 0.1899522042 -0.7715448197 0.1908014005 -0.7715201269 0.0318329073 -0.0357603266
635296190.0 0.0333512773 -0.0409419774 0.1822885822 -0.772123033 0.1817012902 -0.7728645504 0.0314486776 -0.036660846
640296160.0 0.0324585386 -0.0411716541 0.1734501721 -0.774505029 0.1738262024 -0.7751934283 0.0315028199 -0.0367140993
645296130.0 0.0318916549 -0.0413529403 0.1650067798 -0.7771748506 0.1650596828 -0.7772370419 0.0297303754 -0.037264507
650296100.0 0.0309239443 -0.0410293854 0.157022566 -0.7781258147 0.1565585533 -0.778682168 0.0297511293 -0.0374038183
655296070.0 0.0303731439 -0.0422583507 0.1486369376 -0.7803927371 0.1476423314 -0.7802932124 0.0299094956 -0.0372251365
660296040.0 0.0292954959 -0.0416715962 0.1395351212 -0.781732037 0.1399962383 -0.781500411 0.0285206882 -0.037869645
665296010.0 0.0293435704 -0.0426068733 0.1310708448 -0.7832485688 0.1317367448 -0.7833346305 0.027660259 -0.0375289696
670295980.0 0.0291537941 -0.0422583809 0.1229225499 -0.7845754228 0.1231379841 -0.7843731432 0.0268277366 -0.0380892364
675295950.0 0.0284118261 -0.0425287066 0.1138613523 -0.7852541559 0.1143558831 -0.7863408451 0.0268800254 -0.0378517776
680295920.0 0.027527837 -0.0425167789 0.1050392422 -0.7871383544 0.1051773261 -0.786983592 0.0267626381 -0.0386446747
685295890.0 0.0268572917 -0.0427387201 0.0970607985 -0.7878796335 0.0967463654 -0.7887466508 0.0257131034 -0.0383249834
690295860.0 0.0268403174 -0.0430687779 0.0883345783 -0.7890662196 0.0878617863 -0.7888633745 0.025613673 -0.0382032312
695295830.0 0.026213514 -0.0434973487 0.0790731263 -0.7900393851 0.0789373703 -0.7902451679 0.0243708117 -0.0386269274
700295800.0 0.0255366023 -0.0434088926 0.0709306604 -0.7907822842 0.0707669246 -0.7908104079 0.0236482156 -0.0393220967
705295770.0 0.0249652415 -0.0435083073 0.0621244886 -0.7919084419 0.0626163703 -0.7914818974 0.0228350253 -0.0392257631
710295740.0 0.0240208723 -0.0433193523 0.0534987065 -0.7918447886 0.053455155 -0.7919028089 0.0216811681 -0.039168809
715295710.0 0.0236688106 -0.0438345034 0.0456911718 -0.7928562725 0.0453281834 -0.7929729306 0.0218814995 -0.0400833567
720295680.0 0.0227589579 -0.0441394022 0.0363761027 -0.7925818881 0.0364558665 -0.7936196503 0.0218107102 -0.0391209568
725295650.0 0.022428287 -0.0441794983 0.0273347444 -0.7935647493 0.0276617238 -0.7932694992 0.0209790072 -0.0393111966
730295620.0 0.0213993635 -0.0446127943 0.0191471831 -0.7934671162 0.0191609131 -0.7939430521 0.0202759274 -0.0403544982
735295590.0 0.0214697732 -0.0442489031 0.0108624637 -0.7937049803 0.0107364091 -0.7938444129 0.0196669901 -0.0397345534
740295560.0 0.0201432689 -0.0441713205 0.0017627967 -0.7935567176 0.0020639274 -0.79379874 0.0197375786 -0.0401783031
745295530.0 0.0199195634 -0.0448640993 -0.0066329801 -0.7939982128 -0.0063637251 -0.7939115923 0.0183585131 -0.0397381858
750295500.0 0.0190962714 -0.0445377707 -0.0154996263 -0.7936048829 -0.0152413042 -0.7936739712 0.0183843419 -0.0403717167
755295470.0 0.0190073374 -0.0445623481 -0.0236197553 -0.7932971797 -0.0239351712 -0.7934629106 0.0167583289 -0.0401189094
760295440.0 0.0176320703 -0.0445346686 -0.032818616 -0.7933730901 -0.0330476153 -0.7933658066 0.015966492 -0.0405245922
765295410.0 0.016871373 -0.0451437413 -0.0405948976 -0.7921722396 -0.0408506089 -0.7931388106 0.0165723564 -0.0397473246
770295380.0 0.0169345589 -0.0448389978 -0.0497036127 -0.7917344501 -0.0497925554 -0.7923662728 0.0160824591 -0.0397048416
775295350.0 0.0161808009 -0.0444329173 -0.0583516322 -0.7913420369 -0.0583742808 -0.7919077764 0.0147256429 -0.0409983454
780295320.0 0.0155552581 -0.0450381657 -0.0665544544 -0.7909691405 -0.0665928946 -0.7914584955 0.0144932966 -0.0400681279
785295290.0 0.0146794122 -0.0444848661 -0.075428646 -0.7894114677 -0.0758064866 -0.7904795077 0.0133201461 -0.0402337585
790295260.0 0.013955867 -0.0443521347 -0.0838016571 -0.7891127878 -0.0841580765 -0.7897409156 0.0133067782 -0.0401677906
795295230.0 0.0133287248 -0.0447032821 -0.092393511 -0.7882676867 -0.0925822639 -0.7880971898 0.0122496888 -0.0395293849
800295200.0 0.0130930754 -0.0445785434 -0.1010917309 -0.7876387113 -0.1018301161 -0.7877970962 0.0119949514 -0.039927945
805295170.0 0.011841685 -0.0448539812 -0.1098259401 -0.7857005255 -0.1096326867 -0.7855531723 0.0108934007 -0.0403635012
810295140.0 0.0115070558 -0.0445646958 -0.1180834393 -0.7843592574 -0.1177448275 -0.7852346102 0.0110007477 -0.0396505979
815295110.0 0.0108949865 -0.044296234 -0.1275673937 -0.7830852441 -0.1273886352 -0.7835552919 0.0099455953 -0.0403858995
820295080.0 0.0101429225 -0.0447314205 -0.1350429772 -0.7819716333 -0.1351598199 -0.7824887667 0.0088593275 -0.0399711067
825295050.0 0.0095156392 -0.0447467975 -0.143737843 -0.7800275478 -0.1437911236 -0.7802805782 0.0090183709 -0.039582917
830295020.0 0.0088201758 -0.0442215185 -0.1526959822 -0.7786006627 -0.1526472295 -0.77927728 0.0083443314 -0.039976552
