!Created with skrf (http://scikit-rf.org).
# Hz S RI R 50.0 
!freq ReS11 ImS11 ReS21 ImS21 ReS12 ImS12 ReS22 ImS22
300000.0 -0.093508812 -0.0984884566 0.6213521192 0.0918270508 0.6196427302 0.0919145875 -0.0934177679 -0.1032506732
5299970.0 -0.101555461 0.0115574344 0.6305187638 0.0111231811 0.6309244643 0.0110722945 -0.1018104791 0.0114513307
10299940.0 -0.0968102352 0.0289609276 0.6346354123 0.0158684664 0.6343001673 0.0164993689 -0.0963928416 0.0283491809
15299910.0 -0.0890361511 0.042491 0.640409863 0.0212184812 0.640879821 0.0214468691 -0.0897238635 0.0416757935
20299880.0 -0.0805890991 0.0535746043 0.6487356692 0.0240135218 0.6487803715 0.0242015775 -0.0811002351 0.0532393839
25299850.0 -0.0701904082 0.0621729105 0.658225161 0.025815144 0.6583818503 0.0260027436 -0.0718743612 0.0618075737
30299820.0 -0.0608798677 0.0688933391 0.6680224118 0.0245993606 0.6676297092 0.0244416889 -0.0618236854 0.0685573217
35299790.0 -0.0505111899 0.073554605 0.6772468178 0.0223116933 0.677672959 0.0220746911 -0.0523224002 0.0734523733
40299760.0 -0.0410281386 0.0764999502 0.6870265367 0.0175207688 0.6869395721 0.0174935577 -0.0426463655 0.0769322452
45299730.0 -0.0317517331 0.0785385295 0.6957483085 0.0126147886 0.696061214 0.0118714641 -0.0332965849 0.0791194464
50299700.0 -0.0229363502 0.0790170514 0.7038948347 0.004623065 0.7037074482 0.0051218475 -0.0244842754 0.0801132825
55299670.0 -0.0152158857 0.0789535763 0.7112351496 -0.002307771 0.7106845602 -0.0025593959 -0.0174060708 0.0804176913
60299640.0 -0.0076525604 0.0787838144 0.7178492857 -0.0111656987 0.7176836501 -0.011272444 -0.0096635846 0.0797002354
65299610.0 -0.0011258698 0.0772678719 0.7240462848 -0.0195916518 0.7243145081 -0.0196982259 -0.002879614 0.0784668535
70299580.0 0.0053628063 0.0753139404 0.7293735773 -0.0287628673 0.7293182006 -0.0287653215 0.0030943069 0.0770076788
75299550.0 0.0105862078 0.0733667082 0.7332143805 -0.0389553429 0.7333145661 -0.0387392017 0.0086145996 0.0752890559
80299520.0 0.0153783412 0.0716456161 0.7376568736 -0.0483235556 0.738075554 -0.0490815924 0.0138631404 0.0734599564
85299490.0 0.0199553369 0.069086726 0.7410067855 -0.058841464 0.7412774562 -0.058305227 0.0180127042 0.0709645014
90299460.0 0.0240110311 0.0666128066 0.7432575261 -0.068543351 0.7434126495 -0.0681756471 0.0224977089 0.0691402146
95299430.0 0.0277913592 0.0641641072 0.7461159014 -0.07868261 0.7463688282 -0.0790366607 0.0258891302 0.0666561884
100299400.0 0.0313372013 0.0616393636 0.7478926334 -0.0884518829 0.7477373463 -0.0889512635 0.0291270757 0.0644813787
105299370.0 0.0344200898 0.0592004352 0.7493050468 -0.098954262 0.7495169425 -0.0990768046 0.0329589247 0.0617891189
110299340.0 0.037278866 0.0566527709 0.7508072489 -0.1083064458 0.7510737449 -0.108903006 0.0349004696 0.0593494135
115299310.0 0.0396307204 0.0543338415 0.7510326138 -0.1188944442 0.7511718159 -0.1188343015 0.0375701634 0.0575705449
120299280.0 0.0415090512 0.0520912143 0.751835851 -0.1293092464 0.7517865922 -0.1292832741 0.0396746871 0.0546005005
125299250.0 0.0438385191 0.0498568307 0.7518246094 -0.1388491912 0.7518953417 -0.138547847 0.0421353095 0.0527231947
130299220.0 0.0456972991 0.047012692 0.7522216753 -0.1494632021 0.7519894178 -0.149424646 0.0437297831 0.0508920853
135299190.0 0.046907864 0.0454586876 0.7520175533 -0.1586837977 0.7519159385 -0.1588877988 0.0456005712 0.0479691743
140299160.0 0.0488040924 0.0431682803 0.7516122489 -0.1687439549 0.7513821372 -0.1684616995 0.0461969303 0.0455279739
145299130.0 0.0491932153 0.0412226922 0.7503349559 -0.1780040024 0.7507177849 -0.1780278158 0.0481165761 0.0437649544
150299100.0 0.0507327065 0.0391088454 0.7492486797 -0.1877151691 0.7493607181 -0.1880041597 0.0492781905 0.0419340734
155299070.0 0.052424221 0.0370576059 0.7475847585 -0.1978321574 0.7485750397 -0.197536237 0.0506071838 0.0395011291
160299040.0 0.0532896161 0.03566249 0.7467658197 -0.207000934 0.7463852104 -0.2070972733 0.0509049867 0.0379462413
165299010.0 0.0544604933 0.0335807456 0.7452878372 -0.216239208 0.7448967504 -0.2170115427 0.0522950132 0.0356148258
170298980.0 0.0549395909 0.0319060516 0.7427648567 -0.2257876238 0.7429666074 -0.2259024401 0.0525360036 0.0337823686
175298950.0 0.0560497958 0.0303689296 0.7419204416 -0.2354364689 0.7417969823 -0.235781615 0.0535227573 0.0325593986
180298920.0 0.056028671 0.0288362883 0.7393666685 -0.2446773005 0.7390663266 -0.2445330372 0.0539747239 0.0307544859
185298890.0 0.0566309136 0.0270071616 0.7376294998 -0.2535531566 0.7371114009 -0.2535563942 0.0551189522 0.0289251096
190298860.0 0.0576983691 0.0255987269 0.7344465692 -0.262931506 0.7349653751 -0.2625191516 0.0551016052 0.0271967256
195298830.0 0.0578943462 0.024286354 0.7326964015 -0.2713753885 0.7324087279 -0.271766833 0.0556324169 0.0257591834
200298800.0 0.0585094212 0.0224484836 0.7303182279 -0.2813928865 0.7293378204 -0.2811555191 0.0562175115 0.0237380884
205298770.0 0.0583234909 0.0206471149 0.7267804861 -0.2896929946 0.7270695895 -0.2892859913 0.056751127 0.0223324589
210298740.0 0.0587286558 0.0200339685 0.723858897 -0.2980827292 0.7233383354 -0.2983627187 0.0565200177 0.0207118786
215298710.0 0.0593667267 0.0187518146 0.7207627514 -0.3068881406 0.7209102692 -0.3069232413 0.057204887 0.0197470991
220298680.0 0.0596544645 0.017525908 0.7174272378 -0.3160327204 0.7173621276 -0.3159770661 0.0573950691 0.0179314732
225298650.0 0.0596488363 0.0160075906 0.7141603628 -0.3239644036 0.7141841371 -0.324248289 0.0574824749 0.0162486974
230298620.0 0.0601576263 0.0150749025 0.7113763619 -0.3331665651 0.71117593 -0.3332435357 0.0569786189 0.0150169552
235298590.0 0.0597552468 0.0138526979 0.707800248 -0.3420505744 0.7073996953 -0.3418250974 0.0578407657 0.0140473708
240298560.0 0.0603058 0.0129374946 0.7041145388 -0.3493424388 0.7037012626 -0.3495679972 0.0575309548 0.0128688746
245298530.0 0.0600600825 0.0111560717 0.7005603878 -0.3582400674 0.700360164 -0.3581052011 0.0577296465 0.0121407291
250298500.0 0.0600518132 0.0101274167 0.6968308038 -0.3663857836 0.6963275042 -0.3662234965 0.0576268933 0.0105535866
255298470.0 0.0604312608 0.0096330464 0.6927509196 -0.3741372808 0.6931204797 -0.3745982285 0.0578365401 0.0097204591
260298440.0 0.0605813731 0.0080980421 0.6890014483 -0.3823489639 0.6889463067 -0.3821231156 0.0574038291 0.0078224851
265298410.0 0.0599083057 0.0074838638 0.6842305029 -0.3909310779 0.6843674671 -0.3908690127 0.0586696681 0.0065113479
270298380.0 0.0599647826 0.006243568 0.6805381882 -0.3981159937 0.680134078 -0.3984597528 0.0582164332 0.0058203186
275298350.0 0.0602157986 0.0057329173 0.6755054495 -0.4058670655 0.6753086912 -0.4059568088 0.057556219 0.0050542921
280298320.0 0.059671374 0.0043799156 0.6717267492 -0.4141010214 0.6722582006 -0.4143908855 0.0586111924 0.0040030518
285298290.0 0.0599160922 0.0035280108 0.6667557612 -0.4219262367 0.6677364547 -0.4217622676 0.0581213466 0.0027993722
290298260.0 0.0596288155 0.0027715531 0.6635635989 -0.4295179591 0.6631221359 -0.4294019595 0.0579428101 0.0015682379
295298230.0 0.0597931459 0.0013151747 0.6583467572 -0.4381285729 0.6581695113 -0.4378066309 0.0576577144 0.000503622
300298200.0 0.0600956469 0.0009966982 0.6537832582 -0.4449409352 0.6534046726 -0.4452521103 0.0578861428 -0.0008526936
305298170.0 0.0599168757 -0.0008604434 0.6493803012 -0.4529494607 0.6486831085 -0.4532418194 0.0579381719 -0.0023174738
310298140.0 0.0603236718 -0.0019049409 0.6444260351 -0.4605461504 0.6440165448 -0.4604697934 0.057856918 -0.003673325
315298110.0 0.0596464884 -0.0029655491 0.6390634249 -0.468699598 0.6387660437 -0.4686489062 0.0577141842 -0.0045280022
320298080.0 0.0593440057 -0.0040600162 0.6329890695 -0.4761166536 0.6341887827 -0.4762836929 0.0569120169 -0.0056995551
325298050.0 0.0583563708 -0.0054177322 0.6278895375 -0.4827131737 0.6285755651 -0.4832768284 0.0567343783 -0.0068424788
330298020.0 0.0572374139 -0.0058180865 0.6226419892 -0.4907223126 0.6226911533 -0.4910445675 0.0558975428 -0.0080356523
335297990.0 0.0573938933 -0.0068424136 0.6167152246 -0.4979415482 0.6168164939 -0.4980156638 0.0556837311 -0.0088760168
340297960.0 0.0569904174 -0.0077291845 0.6109913644 -0.5049824596 0.6107804618 -0.5047237761 0.0550342393 -0.0091302103
345297930.0 0.0561695741 -0.0085106298 0.6050899534 -0.5122070438 0.6053178416 -0.5119658369 0.0552343249 -0.0104827501
350297900.0 0.0558009086 -0.0090744248 0.6005420264 -0.5176548186 0.600428517 -0.5184791401 0.0544386919 -0.0115432739
355297870.0 0.0554507533 -0.0097071971 0.5943746472 -0.5242243135 0.5938731285 -0.5244143003 0.0545597532 -0.0118803298
360297840.0 0.0551193106 -0.0103272729 0.5877757003 -0.5312867574 0.5881418579 -0.5315261468 0.0533734783 -0.0123230352
365297810.0 0.0544170036 -0.0111218477 0.5822071134 -0.5386917195 0.5817616304 -0.538124169 0.0528654382 -0.013509632
370297780.0 0.0545657427 -0.0113890446 0.5756809671 -0.5444049405 0.5760597585 -0.5442594758 0.052726184 -0.0141883907
375297750.0 0.0543403915 -0.0122261495 0.5703674076 -0.5506075811 0.5703486683 -0.5510911508 0.0529133625 -0.0149912917
380297720.0 0.0532618319 -0.0130035324 0.5645888981 -0.5576784539 0.5639812598 -0.5579448899 0.052264871 -0.0153600743
385297690.0 0.0532181726 -0.0138336842 0.5576286268 -0.5634483362 0.5578743277 -0.5641514001 0.052180283 -0.0156459017
390297660.0 0.0531311858 -0.0143257389 0.5521208626 -0.5691125604 0.5520832041 -0.5698811437 0.0518696233 -0.016981439
395297630.0 0.0530977036 -0.0147517447 0.5460347936 -0.57510877 0.5455031462 -0.575399836 0.0512725989 -0.0171093734
400297600.0 0.0520177419 -0.015826309 0.5394051101 -0.5821220293 0.5396014121 -0.58198049 0.0514572774 -0.0175769016
405297570.0 0.0517382779 -0.0166642608 0.5331526288 -0.5870839939 0.5329539413 -0.5877822994 0.0507558435 -0.0181381612
410297540.0 0.0514244903 -0.0165861601 0.5266551259 -0.5939984288 0.5264469403 -0.5939642391 0.0506360917 -0.0189533328
415297510.0 0.0508772346 -0.0173967976 0.5196540871 -0.5995458531 0.5203253293 -0.5999156778 0.0503748765 -0.0194156518
420297480.0 0.0504233808 -0.0184866794 0.5130012434 -0.6057593369 0.5136602818 -0.6054221603 0.0502024205 -0.0196946045
425297450.0 0.0508464729 -0.0188516101 0.5065504696 -0.610935242 0.5061277556 -0.610834914 0.0497991301 -0.0207722642
430297420.0 0.0497487867 -0.0190516631 0.5002367334 -0.6169536198 0.5001541512 -0.6162799352 0.0498377821 -0.021414648
435297390.0 0.0496092672 -0.0203507437 0.4926841831 -0.6233354959 0.4932152786 -0.6221824186 0.0487061265 -0.0216672016
440297360.0 0.0496942456 -0.0210424507 0.48586357 -0.6281904951 0.4856504394 -0.6281601756 0.0486471493 -0.0220941871
445297330.0 0.0490771037 -0.0220124331 0.4796080502 -0.6323897675 0.4787197117 -0.6328024991 0.0483246715 -0.0224384973
450297300.0 0.0490686375 -0.0220660306 0.4726834524 -0.6379223828 0.4724394557 -0.6377463213 0.0478728429 -0.0230507854
455297270.0 0.047890791 -0.0226859475 0.4656765271 -0.6436010644 0.4657116921 -0.6436265797 0.0476123419 -0.0235442615
460297240.0 0.0479539091 -0.0233107327 0.4580490044 -0.6492879359 0.4582797273 -0.6489010822 0.0471263764 -0.0243434879
465297210.0 0.0478061039 -0.0240571503 0.4507451852 -0.6537659601 0.450609898 -0.6538816165 0.0476759992 -0.02411695
470297180.0 0.0471624551 -0.0246603905 0.4438911805 -0.6588264535 0.4445634598 -0.6585708954 0.0467749277 -0.0256277055
475297150.0 0.0464188887 -0.0249241152 0.436516619 -0.6632117267 0.4367574914 -0.663674402 0.0465011457 -0.0259803948
480297120.0 0.0467900859 -0.0250256924 0.429363106 -0.6684437844 0.4296490069 -0.6683178669 0.0457904609 -0.0266889161
485297090.0 0.0460233268 -0.0268859703 0.4216272926 -0.6737055573 0.4221081972 -0.6729712548 0.0457956601 -0.0267355852
490297060.0 0.0461809213 -0.0264303034 0.4139063635 -0.6776510889 0.4143583287 -0.6781848726 0.0452283669 -0.0275359271
495297030.0 0.0450374386 -0.0275542344 0.4074055804 -0.6825074147 0.4072186663 -0.6828321619 0.04537658 -0.0280549201
500297000.0 0.0446790911 -0.0278297448 0.4000601131 -0.6866566602 0.3996499071 -0.6874633894 0.0444532093 -0.0280732698
505296970.0 0.0446735904 -0.028219434 0.3924191965 -0.6912227886 0.3919679766 -0.6912879043 0.0443810444 -0.0295309887
510296940.0 0.0444352499 -0.0291591063 0.3844162977 -0.6961098075 0.3847129821 -0.6963502795 0.0441528094 -0.0292492307
515296910.0 0.0437026202 -0.0289227631 0.3766512842 -0.6999231047 0.3765669119 -0.699912977 0.0435970699 -0.0306599928
520296880.0 0.0435554975 -0.0293790257 0.369131144 -0.7040338538 0.369000462 -0.7036625884 0.043799682 -0.029770799
525296850.0 0.043173013 -0.030255418 0.3614846204 -0.7078219824 0.3611565368 -0.7080789228 0.0433278745 -0.0308812532
530296820.0 0.0423475555 -0.0309486693 0.35338212 -0.7122559624 0.3533774073 -0.712002755 0.0429625709 -0.0316567692
535296790.0 0.0430009037 -0.0310254882 0.3456841617 -0.7154151458 0.3460421022 -0.7154706067 0.043009371 -0.0316030447
540296760.0 0.0419057588 -0.0312419526 0.3375560045 -0.7194763486 0.3377944274 -0.719823358 0.0420901342 -0.0328555372
545296730.0 0.0407390572 -0.0318562356 0.330148742 -0.72289654 0.3299214683 -0.7228411891 0.0419762451 -0.0328103956
550296700.0 0.0414453398 -0.0320861701 0.3223826778 -0.7265214548 0.3217163627 -0.7271614912 0.0416042767 -0.0334690368
555296670.0 0.040428499 -0.0326167487 0.3138104 -0.7304711135 0.3141512164 -0.7303936957 0.0407736551 -0.0343846934
560296640.0 0.040954266 -0.0331050978 0.3059557436 -0.7334068926 0.3064401024 -0.7336960374 0.0403017863 -0.0339037137
565296610.0 0.0395639152 -0.0334749969 0.298640558 -0.7375414153 0.2983331366 -0.7365561456 0.0400826644 -0.0344686299
570296580.0 0.0392316178 -0.0335523187 0.2896881333 -0.7401082499 0.2901174826 -0.7407340167 0.0395070446 -0.0352863103
575296550.0 0.0387993887 -0.0343814714 0.282466566 -0.7435137721 0.2819414792 -0.7435860434 0.0388906155 -0.0353618847
580296520.0 0.0388131763 -0.0342683605 0.2738058566 -0.7461290034 0.2735812816 -0.7464728948 0.0382708659 -0.0361256315
585296490.0 0.0380581678 -0.0343656229 0.2658655645 -0.7491125413 0.2654136564 -0.7493021133 0.0383636575 -0.0359922369
590296460.0 0.038232996 -0.03492823 0.2575733652 -0.7517795127 0.2574499835 -0.7525274848 0.037435371 -0.0363246639
595296430.0 0.03756843 -0.0351415209 0.2484672373 -0.7547258858 0.2487660972 -0.7550126696 0.0373207133 -0.0372439752
600296400.0 0.0372650176 -0.0355703738 0.240216278 -0.7575674967 0.2404175936 -0.7576265142 0.0371681062 -0.0373035671
605296370.0 0.0361725404 -0.0357050111 0.2332359267 -0.760208914 0.232465 -0.7601252769 0.0360619838 -0.0377510385
610296340.0 0.0365902987 -0.0353743738 0.2242270425 -0.7620507839 0.2245722506 -0.7628029927 0.0351185334 -0.0379433358
615296310.0 0.0361896724 -0.0360987287 0.2156026676 -0.7656190704 0.2155746097 -0.7649087053 0.0354644033 -0.038210099
620296280.0 0.0349104284 -0.0359370502 0.2069289042 -0.7675917701 0.2069760803 -0.767379999 0.0343984287 -0.0383005482
625296250.0 0.0344878142 -0.0365213585 0.1984932562 -0.7701611306 0.1992914815 -0.7698852167 0.033485488 -0.0390333497
630296220.0 0.0340486642 -0.0365188344 0.1899653638 -0.7722566848 0.1903333736 -0.771884922 0.033353331 -0.0392488281
635296190.0 0.0328557617 -0.0364624355 0.1823158648 -0.7737370557 0.1823235855 -0.7739602638 0.0327664763 -0.0394023638
640296160.0 0.0325999532 -0.0369018626 0.1733940441 -0.7759650388 0.1734252452 -0.7756126741 0.0319705428 -0.0399217089
645296130.0 0.032835133 -0.0367313594 0.1650570593 -0.7777297988 0.1649971457 -0.7774414802 0.03133652 -0.0405776173
650296100.0 0.0319244812 -0.0370892074 0.1566127651 -0.7799636839 0.1564219912 -0.7799607124 0.0319394396 -0.04047035
655296070.0 0.0313744992 -0.0373254639 0.1477724061 -0.7813521762 0.1480500998 -0.7806092333 0.0302547844 -0.0405922977
660296040.0 0.0309731115 -0.037177086 0.1395457225 -0.7830597366 0.1393097544 -0.782789121 0.0297244259 -0.0416092183
665296010.0 0.0302548398 -0.0378401359 0.130568801 -0.7840693267 0.1307105009 -0.7838718774 0.0293600758 -0.0412578362
670295980.0 0.0298038256 -0.0375114274 0.1221647868 -0.7856718521 0.1220891772 -0.7849443679 0.0282080927 -0.0419230539
675295950.0 0.0291170237 -0.0377460235 0.1135963417 -0.7868553955 0.1140542298 -0.7868630537 0.0278213829 -0.0416668694
680295920.0 0.0287224359 -0.0377198924 0.1049800299 -0.7874472134 0.1051693602 -0.7879168899 0.0273072339 -0.0423699408
685295890.0 0.0285061469 -0.0376591491 0.0960850486 -0.7891959889 0.0970517031 -0.7890192265 0.0271516093 -0.0418977582
690295860.0 0.0273347981 -0.0377919251 0.088190979 -0.7897765679 0.0876261639 -0.7902744928 0.0261187061 -0.0423687958
695295830.0 0.027015514 -0.0384082313 0.0800097365 -0.7908839442 0.0796856642 -0.7906817379 0.0258412643 -0.0422551755
700295800.0 0.0267600845 -0.0380134563 0.0715311639 -0.7917101984 0.0709855915 -0.7913428213 0.0248367039 -0.0422420058
705295770.0 0.0256457113 -0.0383233074 0.0620181201 -0.7929940719 0.0629401352 -0.7919647551 0.0242910193 -0.0425143416
710295740.0 0.0253272547 -0.0382775396 0.0535411236 -0.7929579443 0.0533774813 -0.7936972955 0.0236403049 -0.0424624902
715295710.0 0.0246527821 -0.0381281165 0.0450966399 -0.7936996924 0.0451127546 -0.7935434052 0.0231094279 -0.0428923918
720295680.0 0.0247612102 -0.037910539 0.0365131819 -0.7940418737 0.036419948 -0.7937442285 0.0225022785 -0.043015266
725295650.0 0.0230489039 -0.0380857496 0.028477925 -0.7943809253 0.0280229311 -0.7940068292 0.0213156837 -0.0427646449
730295620.0 0.0223180644 -0.0387052567 0.0189984055 -0.7941938816 0.0192365496 -0.7936313296 0.0207657553 -0.0421475147
735295590.0 0.0226283159 -0.0382786965 0.0102764124 -0.7950367056 0.0102186823 -0.7947248079 0.0200750431 -0.0432352006
740295560.0 0.021548981 -0.0387832403 0.0019331979 -0.7950917696 0.0019152984 -0.7950528738 0.0189650827 -0.0426356138
745295530.0 0.0206934805 -0.0381682134 -0.0063857068 -0.7938943497 -0.0058392171 -0.7943184932 0.0178874205 -0.0435803164
750295500.0 0.0199174375 -0.038220798 -0.015272942 -0.7948523312 -0.0151703731 -0.7947718043 0.0177123124 -0.042852126
755295470.0 0.0192535401 -0.0385565315 -0.0233975748 -0.7943908861 -0.0232482975 -0.7942638585 0.0177729987 -0.0423812584
760295440.0 0.0188765465 -0.0376344744 -0.0333011325 -0.7941309622 -0.0325099232 -0.7935542535 0.0169923221 -0.0437710483
765295410.0 0.0188237158 -0.0383566623 -0.041235816 -0.7929562875 -0.0407725778 -0.7933720901 0.0163360876 -0.0431632186
770295380.0 0.0176962012 -0.0379972902 -0.0492294514 -0.7923869909 -0.0494999289 -0.7931160545 0.0152041761 -0.0431034916
775295350.0 0.017194937 -0.0382593021 -0.0584090709 -0.792745562 -0.0576986961 -0.7916851271 0.0149884023 -0.0427441999
780295320.0 0.0162826152 -0.0377203256 -0.0664717253 -0.7914309828 -0.0663431057 -0.7914235605 0.0147664351 -0.0431720043
785295290.0 0.0157744965 -0.038049056 -0.075074311 -0.7907467582 -0.0750856456 -0.7908051246 0.0128891845 -0.0424657859
790295260.0 0.0155713935 -0.0383049098 -0.0835129733 -0.7898891244 -0.0838507859 -0.7902791835 0.0123093347 -0.0420517661
795295230.0 0.0146399178 -0.0384280109 -0.0925128205 -0.7897554944 -0.0922723402 -0.7896872575 0.0121539377 -0.0434118989
800295200.0 0.0135540605 -0.0375898339 -0.1006226655 -0.7874068458 -0.1010932873 -0.7882147673 0.0112760618 -0.0426302193
805295170.0 0.012938523 -0.0379164011 -0.1093822386 -0.7868419234 -0.1090111159 -0.7872566385 0.0114105583 -0.0423644313
810295140.0 0.0129310062 -0.0379692092 -0.1184344346 -0.7856003627 -0.1178801497 -0.7852083309 0.0104522642 -0.0423970831
815295110.0 0.0121544588 -0.037312266 -0.1263845768 -0.7842028715 -0.1257140987 -0.7843896808 0.0095642509 -0.0423240901
820295080.0 0.0115342046 -0.0375629141 -0.1340398202 -0.7824133374 -0.1342475991 -0.7833286896 0.0079944258 -0.0415464755
825295050.0 0.0103667325 -0.0374461468 -0.1437712033 -0.7809674467 -0.1429703253 -0.7811874483 0.0087390468 -0.0414252998
830295020.0 0.0098237458 -0.0374713032 -0.1516377422 -0.7795942169 -0.151939762 -0.7795407754 0.0077205381 -0.0421029534
