!Created with skrf (http://scikit-rf.org).
# Hz S RI R 50.0 
!freq ReS11 ImS11 ReS21 ImS21 ReS12 ImS12 ReS22 ImS22
300000.0 -0.3191557304 -0.1046976568 0.3725331938 0.0527150535 0.3746420689 0.0569534907 -0.3175696001 -0.1152449716
5299970.0 -0.3236886072 0.0048940234 0.3783892766 0.0026099987 0.3785293519 0.0030650223 -0.3260435895 0.0029318994
10299940.0 -0.3210163979 0.0154311219 0.3798787968 0.0024027786 0.3796921947 0.0023979138 -0.3241507854 0.0128678586
15299910.0 -0.3179215662 0.0235689464 0.381551944 0.0023202442 0.3818654254 0.0020880684 -0.3213270152 0.0198604666
20299880.0 -0.3142362297 0.030344398 0.38522745 0.0014508057 0.3851632131 0.0018505637 -0.3186775892 0.0261339875
25299850.0 -0.3104804126 0.0357998801 0.3881873089 -0.00019561 0.3884433102 -0.0004321545 -0.3154584102 0.0311704861
30299820.0 -0.3068051845 0.0402168743 0.3919431335 -0.0020987119 0.3914766109 -0.0023991263 -0.3125318067 0.03581605
35299790.0 -0.3028932422 0.0449823739 0.3949761567 -0.0054230993 0.3953627906 -0.0055143417 -0.3099044802 0.0395838194
40299760.0 -0.2995458991 0.047975966 0.3983315797 -0.008396 0.3982527542 -0.0088310046 -0.3070272846 0.0429567743
45299730.0 -0.2962965225 0.0513108707 0.4014645287 -0.0129958419 0.4011832835 -0.0127024606 -0.3048879695 0.0461975212
50299700.0 -0.2932812523 0.0543038393 0.4034523796 -0.0173344078 0.4034912481 -0.017288716 -0.3019011365 0.0489933182
55299670.0 -0.2907246156 0.0565860603 0.4051291713 -0.0220112182 0.405694405 -0.0217855839 -0.3003379235 0.0519308587
60299640.0 -0.2880644014 0.0589872177 0.4074590542 -0.0268845897 0.4076925068 -0.0272392605 -0.297958938 0.0545598368
65299610.0 -0.2857537701 0.0617411491 0.4090834472 -0.0318063988 0.4097361752 -0.0317662542 -0.2962178986 0.0570030314
70299580.0 -0.283678213 0.063476649 0.410404332 -0.0367978684 0.4106892243 -0.0367550871 -0.294742714 0.0595357639
75299550.0 -0.2815692034 0.0657765378 0.4113470989 -0.0420498704 0.4115541805 -0.0425556378 -0.2929835698 0.0622386098
80299520.0 -0.2803700487 0.0681215686 0.4125798779 -0.0475576621 0.4123526565 -0.0473541385 -0.2915773619 0.0641366314
85299490.0 -0.2785455761 0.0697505484 0.4129205945 -0.0524703393 0.4130999922 -0.0526106093 -0.2902357479 0.0664074382
90299460.0 -0.2770900291 0.0722906247 0.4134988485 -0.0578129728 0.4135888086 -0.0577957788 -0.2885282938 0.0686069773
95299430.0 -0.2755553103 0.0741518685 0.4138652115 -0.0634826261 0.4140926212 -0.063381107 -0.2875930942 0.0713097424
100299400.0 -0.2741955116 0.0765645111 0.4136477548 -0.0681415967 0.4136593787 -0.0683111799 -0.2867086101 0.0733453021
105299370.0 -0.2728320106 0.0782732031 0.4134372797 -0.0734926738 0.4139498069 -0.0735531553 -0.2852338112 0.0757695575
110299340.0 -0.2717202141 0.0804589205 0.4130035835 -0.078417304 0.4135099391 -0.0788844665 -0.2844432713 0.0781413913
115299310.0 -0.2706176297 0.082223001 0.4131865752 -0.0834315744 0.4131180803 -0.0837362229 -0.2831106853 0.080037681
120299280.0 -0.2696538706 0.0846381039 0.4131597766 -0.0889137253 0.4130140744 -0.0890791575 -0.2824714344 0.0826010089
125299250.0 -0.2686412655 0.0867013084 0.4123338117 -0.0939585332 0.4125664537 -0.0939708912 -0.281432152 0.0848249996
130299220.0 -0.2675200292 0.0890858483 0.4114952161 -0.0988632296 0.4117205141 -0.0990514263 -0.281028684 0.0872657917
135299190.0 -0.266713267 0.0910786316 0.4111636684 -0.1038958821 0.4104155627 -0.1040948802 -0.2797052769 0.0899028526
140299160.0 -0.2661243218 0.0936437688 0.410374368 -0.1091563917 0.4102959818 -0.1088758533 -0.2787348923 0.0918726125
145299130.0 -0.2647263929 0.0956719019 0.4095733086 -0.1143444391 0.4092389252 -0.1137649046 -0.2781487236 0.0944512066
150299100.0 -0.2639869549 0.0981467036 0.4082372095 -0.1190865584 0.4079576896 -0.1187394538 -0.2765740025 0.0967203446
155299070.0 -0.2628515984 0.1009133911 0.4070463464 -0.1240703098 0.407403661 -0.1242831308 -0.276277579 0.0996367469
160299040.0 -0.2619160764 0.1029944853 0.4054817926 -0.1286184864 0.4059017903 -0.1287127642 -0.2750696653 0.1020996012
165299010.0 -0.2611951507 0.1051655434 0.404996172 -0.1335801808 0.4050330956 -0.1336630769 -0.274306423 0.1044641621
170298980.0 -0.2601610856 0.1077098144 0.4028294821 -0.1383911409 0.4033035856 -0.1380914306 -0.2730984058 0.107134886
175298950.0 -0.2592037363 0.1103737182 0.4025068557 -0.1429875819 0.4021445417 -0.1430304641 -0.2724841604 0.109701702
180298920.0 -0.2578414264 0.1126697687 0.400453804 -0.1482326776 0.4004547717 -0.1478443134 -0.2708604758 0.1124308672
185298890.0 -0.2570138304 0.1154196028 0.3985549438 -0.1528054339 0.3987730558 -0.1524874122 -0.2703393426 0.1147548383
190298860.0 -0.2558979635 0.1177591175 0.3970124056 -0.157426021 0.3974293811 -0.157480404 -0.2688295447 0.1176400746
195298830.0 -0.2543759438 0.1200569108 0.3957414465 -0.1617337792 0.395647412 -0.1622646579 -0.2681994067 0.1200921489
200298800.0 -0.2538018877 0.1229963987 0.3941012719 -0.1662997854 0.393793072 -0.1665931412 -0.2663460047 0.1232426358
205298770.0 -0.2526403526 0.1252539522 0.3922108156 -0.1712697566 0.3922829087 -0.1710904315 -0.265597428 0.1250879698
210298740.0 -0.2513239428 0.1278455015 0.3902514827 -0.1757125724 0.3905677799 -0.1758394682 -0.2643991721 0.1279267561
215298710.0 -0.2503275528 0.130121321 0.3885847012 -0.1800527608 0.3884788298 -0.1803278071 -0.263795085 0.1309405132
220298680.0 -0.2492337296 0.1329070604 0.3863438734 -0.1845596092 0.3866638952 -0.1848914542 -0.2620949491 0.1335755458
225298650.0 -0.2476444399 0.1355928455 0.3847441891 -0.1888820714 0.3844683364 -0.1888970841 -0.2610303789 0.1364365393
230298620.0 -0.2465578125 0.1382337838 0.3824780877 -0.1936451107 0.3823860795 -0.1933668299 -0.2595441027 0.1388460476
235298590.0 -0.2452385249 0.1406274465 0.3803259677 -0.1977948966 0.3804357919 -0.198056073 -0.2583730562 0.1411803175
240298560.0 -0.2443002433 0.1432254914 0.3785162715 -0.2017083668 0.3783029082 -0.2016649638 -0.2573799844 0.1442090303
245298530.0 -0.2425397418 0.1457136149 0.3752487151 -0.2065548683 0.3758819967 -0.2064700506 -0.2555768984 0.147056751
250298500.0 -0.2415597157 0.1484531122 0.3737699001 -0.2106066907 0.3738458594 -0.2103032936 -0.2540079679 0.1497564894
255298470.0 -0.2402704212 0.1510172823 0.3714821093 -0.2154656666 0.3713594421 -0.2151578366 -0.2526583675 0.1521749573
260298440.0 -0.2385947317 0.1536072973 0.369145684 -0.2193151106 0.3690388277 -0.2192050037 -0.2507654287 0.1550914375
265298410.0 -0.2372038812 0.1563105902 0.3664390044 -0.2238050598 0.3663230979 -0.2235870283 -0.2495641979 0.1574802872
270298380.0 -0.2357021063 0.1585262638 0.3640461249 -0.2274134669 0.3643350339 -0.2278807507 -0.2481220753 0.1604973982
275298350.0 -0.2340900466 0.161322513 0.3615870503 -0.2322157828 0.3617475455 -0.2319133338 -0.2461999753 0.1630610402
280298320.0 -0.2327249791 0.1635466819 0.3593329534 -0.2351995314 0.3588962526 -0.2358180661 -0.2447809519 0.1657319842
285298290.0 -0.2307257216 0.1665054531 0.3563102297 -0.2394064896 0.3565117895 -0.2399434196 -0.2430421351 0.1686574656
290298260.0 -0.2294562432 0.1690596363 0.3542433208 -0.2437584428 0.3540726392 -0.244029364 -0.2408492938 0.1714692175
295298230.0 -0.2276269499 0.1712385041 0.3515297707 -0.2476411546 0.3511710133 -0.2478382521 -0.2394270288 0.1736198388
300298200.0 -0.2259407456 0.173854755 0.3484753832 -0.2519522407 0.3484518535 -0.2518278184 -0.2375773418 0.1765647667
305298170.0 -0.2238093671 0.1762532674 0.345843022 -0.2558921188 0.3457452608 -0.2559833426 -0.2355450755 0.1791255805
310298140.0 -0.222188897 0.1785014034 0.3429526126 -0.2600297627 0.3431258082 -0.2601451862 -0.2338807317 0.1821033579
315298110.0 -0.2202798457 0.1807028576 0.3398127249 -0.2635816319 0.3401363705 -0.263680571 -0.2316863603 0.1842487018
320298080.0 -0.2187421706 0.1834176343 0.3371502867 -0.2675892601 0.3373067871 -0.2676545601 -0.2301253881 0.186862159
325298050.0 -0.2169201259 0.1852731258 0.3344373521 -0.2717849675 0.3338596259 -0.2716477078 -0.2283351238 0.1893032984
330298020.0 -0.2154597089 0.18786073 0.3306989387 -0.2753831515 0.3307360265 -0.2749376711 -0.226781113 0.1917516945
335297990.0 -0.2133907291 0.1903219689 0.3275199056 -0.2789224227 0.3278501263 -0.2790416692 -0.2249489505 0.1939096164
340297960.0 -0.2119066782 0.1928070358 0.3244061945 -0.2828566555 0.3246135191 -0.282429842 -0.2226172019 0.1970119993
345297930.0 -0.2101634686 0.1950167393 0.3212990275 -0.2858585317 0.3208920851 -0.2859511661 -0.2206040628 0.1992832043
350297900.0 -0.2076045998 0.1977119857 0.3176220038 -0.2895400886 0.3181595978 -0.2898083549 -0.2186023206 0.2023511663
355297870.0 -0.2060524539 0.1997045391 0.3145531452 -0.2934068734 0.3148292323 -0.2929559327 -0.2167239299 0.2047144846
360297840.0 -0.2036532183 0.2023242336 0.3113981061 -0.2967494435 0.3115908933 -0.2967784094 -0.2147030806 0.2073263014
365297810.0 -0.2015654313 0.204560037 0.3077377864 -0.3002568459 0.3083623167 -0.3000481274 -0.2127987001 0.2098265456
370297780.0 -0.1997557915 0.2067971103 0.304647704 -0.3034753534 0.3046626041 -0.3036049576 -0.2102597285 0.2120347388
375297750.0 -0.1975343867 0.2091713304 0.3016133316 -0.3066294649 0.3015351512 -0.3071839695 -0.2084040331 0.2146903806
380297720.0 -0.1953978962 0.2113096035 0.2979401627 -0.3100400182 0.2977895171 -0.3099233898 -0.2056470154 0.2174000034
385297690.0 -0.1932231449 0.2136960051 0.2945480002 -0.3128920143 0.2942514425 -0.3131491067 -0.2036218644 0.2198121491
390297660.0 -0.1911438913 0.2159237746 0.2910908131 -0.3168909865 0.2909694377 -0.3165884937 -0.2013438304 0.2216492641
395297630.0 -0.1885507347 0.2180373607 0.287561077 -0.3195536646 0.2874038915 -0.3198273605 -0.1992475611 0.2246662278
400297600.0 -0.1864671616 0.2205104206 0.2839993725 -0.3230185169 0.2841997894 -0.3230902029 -0.19678373 0.2267799825
405297570.0 -0.1842031446 0.2224647072 0.280495124 -0.3260543198 0.280483623 -0.3262768319 -0.1946896887 0.2289161833
410297540.0 -0.1815240942 0.2243491054 0.2764427231 -0.328953226 0.2765319772 -0.329003776 -0.1923493058 0.2313587383
415297510.0 -0.1794360292 0.2265553059 0.2729984722 -0.3318749635 0.2729116431 -0.3317881355 -0.1899859328 0.2337757362
420297480.0 -0.1769815303 0.228416909 0.269368368 -0.3350370475 0.2694433109 -0.3349960515 -0.1871750546 0.2359861695
425297450.0 -0.1745795369 0.2304967671 0.2654795825 -0.3376697865 0.2657282177 -0.3380164749 -0.1848656199 0.2384419178
430297420.0 -0.1724202748 0.2325554894 0.2621561804 -0.340593424 0.2619536456 -0.3404971358 -0.1825464882 0.2402483281
435297390.0 -0.1696670269 0.2343832244 0.2582233948 -0.3434115112 0.2581593056 -0.3435247198 -0.1799624878 0.2427261761
440297360.0 -0.1671859633 0.2364666719 0.2537968997 -0.3460729613 0.2538852837 -0.3462688838 -0.1777852727 0.2441614321
445297330.0 -0.1648115839 0.2382799134 0.2499592564 -0.3493716626 0.2504183628 -0.3490916553 -0.1751487955 0.2465733573
450297300.0 -0.162427234 0.2402306367 0.2463858168 -0.3517392551 0.2464747144 -0.3517524795 -0.1724188123 0.2484541321
455297270.0 -0.1598799914 0.2421953664 0.2429342544 -0.3545596251 0.2430971013 -0.35437255 -0.1701398688 0.250876638
460297240.0 -0.1578999112 0.2441186646 0.2386854694 -0.3567223356 0.238504463 -0.3569161643 -0.1670709174 0.2531298608
465297210.0 -0.1544273597 0.245826363 0.2346858349 -0.3597051242 0.2351048861 -0.3597403809 -0.1650957207 0.2543989522
470297180.0 -0.1520914884 0.2473606297 0.2306666943 -0.3617400271 0.2308525357 -0.3620454146 -0.1625013865 0.2568424874
475297150.0 -0.1497237318 0.249293231 0.2266655598 -0.364339426 0.2268149672 -0.3639444153 -0.1592856314 0.2586350295
480297120.0 -0.1469655459 0.250700272 0.2226631711 -0.3664390575 0.2230289662 -0.3667703207 -0.1571383362 0.2609498251
485297090.0 -0.1441094873 0.2526043546 0.2189597993 -0.3693754783 0.2185824381 -0.3691155832 -0.15448479 0.2622151515
490297060.0 -0.1413282208 0.2544781771 0.2147121169 -0.3718090067 0.2149300977 -0.371442632 -0.1515550445 0.2643161801
495297030.0 -0.1394096993 0.2562303496 0.2107635121 -0.3738869265 0.2102441626 -0.3740197278 -0.1487790383 0.2657654943
500297000.0 -0.1359673838 0.2574701322 0.2066714489 -0.3763429081 0.2068851487 -0.3763554049 -0.1464695038 0.2678617545
505296970.0 -0.1336800425 0.2591786508 0.2019125438 -0.3780619054 0.2024179174 -0.3781188601 -0.1439899444 0.2695703693
510296940.0 -0.1308085986 0.2606909433 0.1979883812 -0.3805953219 0.1980454267 -0.3804491539 -0.140756835 0.2711169708
515296910.0 -0.128199673 0.2625588598 0.193733125 -0.382328066 0.1942632623 -0.3823531667 -0.1381006157 0.2726478161
520296880.0 -0.125078015 0.264043457 0.1895247477 -0.3847544799 0.1899651593 -0.3846986422 -0.1350448188 0.2742805652
525296850.0 -0.1227886891 0.2651202214 0.1858148694 -0.3863833065 0.1855020671 -0.3870107116 -0.132173848 0.2760096602
530296820.0 -0.1199088174 0.2666296051 0.1816330808 -0.3880352728 0.1811583885 -0.3882659285 -0.1299172012 0.2774525322
535296790.0 -0.1172864611 0.2680748228 0.1773244127 -0.3902577331 0.1771449166 -0.3901504085 -0.1268757077 0.2787684437
540296760.0 -0.1142574998 0.2692179704 0.1726270796 -0.3923497399 0.1727647755 -0.3922604195 -0.1243131774 0.2806900795
545296730.0 -0.1114255487 0.2707363456 0.1684892461 -0.3938028377 0.168602835 -0.3940007768 -0.1211059429 0.2818418812
550296700.0 -0.1091934774 0.2720919637 0.1645943725 -0.3957203682 0.1646665179 -0.3961838354 -0.1184244089 0.2835429008
555296670.0 -0.1056071564 0.2732098576 0.1603067678 -0.3974794657 0.1601800017 -0.3975553161 -0.115660927 0.2850595722
560296640.0 -0.1029083448 0.2745573946 0.1555325398 -0.3989383119 0.1558392665 -0.3992246804 -0.1125493099 0.286258336
565296610.0 -0.1001878284 0.2759195592 0.1513512627 -0.4010186357 0.1508542369 -0.4006740219 -0.1095211507 0.2872952363
570296580.0 -0.0972348785 0.2769574097 0.1468259719 -0.4024822781 0.1472624381 -0.4026453014 -0.1065625592 0.2893393247
575296550.0 -0.0937975241 0.2782302156 0.1418832689 -0.4036056526 0.1430987561 -0.403763903 -0.1035500656 0.2903442883
580296520.0 -0.0909875746 0.279412747 0.13821619 -0.4055216103 0.1382445685 -0.4055509524 -0.1005801156 0.2912766168
585296490.0 -0.0882010882 0.2802719453 0.1339510601 -0.4068603386 0.1337045234 -0.4065919817 -0.0976791334 0.2924223321
590296460.0 -0.0853987189 0.2814849928 0.1290771187 -0.4086525972 0.1290373993 -0.4083844249 -0.0946236839 0.2937478203
595296430.0 -0.0822384971 0.2826978918 0.1249546968 -0.4097166199 0.1248999199 -0.4096234696 -0.0915338793 0.2946367924
600296400.0 -0.0793683374 0.28367693 0.1204983089 -0.4110998051 0.1207517525 -0.4107620244 -0.0884955506 0.2957933719
605296370.0 -0.0763605462 0.2849474206 0.1158392227 -0.4123870017 0.1159538945 -0.4118604219 -0.0854374633 0.2970484342
610296340.0 -0.0732428467 0.285615139 0.1116911882 -0.4139541053 0.1117011112 -0.413445505 -0.0823157226 0.2986800051
615296310.0 -0.0700901369 0.2865827988 0.1067238695 -0.4142488008 0.1068582523 -0.4144553205 -0.079234616 0.298863305
620296280.0 -0.0672211682 0.28719711 0.1025004188 -0.4154126575 0.102203936 -0.4155826198 -0.0762457611 0.2998945467
625296250.0 -0.0641589015 0.288004228 0.0979711328 -0.4167558612 0.0978120803 -0.4169536631 -0.0732429241 0.3011012865
630296220.0 -0.0610903141 0.2892481493 0.0929931056 -0.4179907568 0.09349138 -0.4180016371 -0.0698850763 0.3021907521
635296190.0 -0.058348942 0.2898405029 0.0887793654 -0.4185528256 0.0887492889 -0.4181603122 -0.0671562645 0.3027726022
640296160.0 -0.0552641719 0.2901259576 0.08447748 -0.4192475224 0.084188791 -0.419642375 -0.0634029208 0.3035708081
645296130.0 -0.0522812859 0.2914446927 0.0795604154 -0.4205016531 0.0799500185 -0.4203024016 -0.0611247295 0.303925871
650296100.0 -0.0488668688 0.2922461358 0.0755064776 -0.4209750088 0.0753815023 -0.4207135196 -0.0576826206 0.3054571882
655296070.0 -0.0459993544 0.2924837573 0.0707038238 -0.4217659185 0.0708647662 -0.4221423823 -0.0543785499 0.3062708226
660296040.0 -0.0433081796 0.2934891327 0.0664796365 -0.4223640876 0.0659781198 -0.422339205 -0.0510844448 0.3064759171
665296010.0 -0.0399049628 0.2938322922 0.0616270509 -0.4233184534 0.0618217234 -0.4231355142 -0.0482796046 0.3074668447
670295980.0 -0.0362860207 0.2944731409 0.0569821718 -0.4236397197 0.0573488867 -0.4235916965 -0.0453984864 0.3079904554
675295950.0 -0.0334688414 0.2950694907 0.0521262442 -0.4245929912 0.0525476277 -0.4247071639 -0.0414309262 0.3087756401
680295920.0 -0.0303712353 0.2959439233 0.0475705071 -0.424901825 0.0476322718 -0.4251311717 -0.0383134573 0.3094790355
685295890.0 -0.0271676361 0.2961547332 0.0433671773 -0.4254445038 0.0431145337 -0.4255451469 -0.0353303347 0.3097854851
690295860.0 -0.0238279025 0.2965355553 0.0385463809 -0.4254168325 0.0383801734 -0.4255606929 -0.0321037829 0.3098888127
695295830.0 -0.020481667 0.2963521582 0.0333835638 -0.4259076085 0.0336731751 -0.4264016155 -0.0290493911 0.3110632575
700295800.0 -0.0175240563 0.297086588 0.0288273889 -0.4262480802 0.0292369126 -0.4265453904 -0.0257362996 0.3108482329
705295770.0 -0.0143282239 0.2976703286 0.0242014908 -0.4263787669 0.0247756025 -0.4266214179 -0.0224441831 0.3117577706
710295740.0 -0.0110851697 0.2981591517 0.0199707346 -0.4269068538 0.0200638308 -0.4265982681 -0.0200336477 0.3122006867
715295710.0 -0.0085028102 0.298265669 0.0153039413 -0.4270648144 0.0155816977 -0.4271610876 -0.016449678 0.3121694267
720295680.0 -0.0050479343 0.2982007568 0.0107664935 -0.4270888162 0.0108075787 -0.427408692 -0.01285118 0.3128888235
725295650.0 -0.0017517115 0.2985949665 0.0058285512 -0.4270964346 0.0062380423 -0.4269232557 -0.0096148869 0.3128172589
730295620.0 0.0011550935 0.2986549979 0.0013081034 -0.4268234016 0.0013741112 -0.426980122 -0.0061030532 0.3128899961
735295590.0 0.0047068299 0.2988829319 -0.0029993226 -0.4274010596 -0.0028453887 -0.4272505559 -0.0029607894 0.3134661727
740295560.0 0.0078416796 0.2989345494 -0.0081153282 -0.426807535 -0.0078567693 -0.4269660024 0.0003565575 0.3132176691
745295530.0 0.01089496 0.2988776282 -0.0124455762 -0.4266202749 -0.0120501434 -0.4271096294 0.0034313118 0.3137292315
750295500.0 0.0139669373 0.2988900602 -0.0168430871 -0.4264905589 -0.0171754173 -0.4264503438 0.0067039059 0.3133786903
755295470.0 0.0178446756 0.2989395363 -0.0218055808 -0.4261236778 -0.0213665665 -0.4265696641 0.0094523809 0.3139559684
760295440.0 0.0202645411 0.2990495604 -0.0264863451 -0.4258745098 -0.0261158486 -0.4259849133 0.012685371 0.3137131645
765295410.0 0.0233974263 0.2986711985 -0.0305275443 -0.4255109278 -0.0305875923 -0.4258468721 0.0169628375 0.3141614468
770295380.0 0.0269478089 0.298934165 -0.0357217464 -0.4250250848 -0.0355317704 -0.4253740248 0.0201838303 0.3137825422
775295350.0 0.0299688407 0.2989349153 -0.040240134 -0.4246544905 -0.0400813215 -0.4244444538 0.0227462921 0.3129816585
780295320.0 0.0329557656 0.2982962979 -0.0445290398 -0.4243977697 -0.0442009174 -0.4244379398 0.0260666472 0.313676819
785295290.0 0.0360437466 0.2986389237 -0.0491081322 -0.4233645797 -0.049102693 -0.4234633447 0.0291257882 0.3134335264
790295260.0 0.0392408352 0.2979215965 -0.0537128476 -0.4232674544 -0.0538158482 -0.423463137 0.0326567453 0.3134703759
795295230.0 0.0424210794 0.298011903 -0.0579852561 -0.4221090788 -0.0578531147 -0.4226675847 0.0360102279 0.3133735362
800295200.0 0.0459233676 0.2978055329 -0.0632341408 -0.4219641311 -0.0631258027 -0.4221069329 0.0389825899 0.3130531924
805295170.0 0.0486349068 0.2975375202 -0.0674530437 -0.4211044269 -0.0675787321 -0.4209923973 0.0420522874 0.3125560627
810295140.0 0.0520466265 0.2970649024 -0.0718064454 -0.4203445975 -0.0718728726 -0.4203926723 0.0456702845 0.3125023773
815295110.0 0.0551196936 0.2965960811 -0.0766004982 -0.4193784991 -0.0765678667 -0.4197126449 0.0486781003 0.3119942267
820295080.0 0.0583433372 0.2956994214 -0.0811711854 -0.4185536428 -0.0810899342 -0.4186125285 0.0517085514 0.31165081
825295050.0 0.0616557546 0.2950826233 -0.0855233042 -0.4172581916 -0.0856291817 -0.4177645074 0.0555954505 0.3113198966
830295020.0 0.0646127066 0.2949561481 -0.0902499407 -0.4166435449 -0.0903322273 -0.4169722011 0.0583742139 0.3107265673
