!Created with skrf (http://scikit-rf.org).
# Hz S RI R 50.0 
!freq ReS11 ImS11 ReS21 ImS21 ReS12 ImS12 ReS22 ImS22
300000.0 0.8593541888 -0.0024584388 -0.0001057654 0.0012566869 5.11451e-05 0.000518449 -0.7756621895 -0.1310036223
5299970.0 0.8595857971 -0.0101842395 -0.0001855149 -3.74533e-05 -2.0867e-06 6.11594e-05 -0.7845558793 -0.0070083894
10299940.0 0.8577310458 -0.0185077053 -0.0002076568 0.0001159818 3.4796e-06 -8.19904e-05 -0.7877763454 -0.0034694811
15299910.0 0.8570775433 -0.0267405983 -0.0001968384 -9.79878e-05 -5.75898e-05 9.99439e-05 -0.7930611238 -0.0013089675
20299880.0 0.8562067294 -0.0356211156 0.0001035155 5.49202e-05 -0.0002032127 0.0001338081 -0.799992777 0.0019905553
25299850.0 0.8560846699 -0.0439069338 -5.6027e-05 5.82821e-05 5.28831e-05 0.0001563309 -0.8060802258 0.0084460271
30299820.0 0.8546289643 -0.0525949102 -0.0001708787 -9.82067e-05 -0.0001212963 -3.14593e-05 -0.8121387097 0.0159616011
35299790.0 0.8538966877 -0.0605349976 -0.0001838777 -3.87824e-05 0.0001470665 -7.00586e-05 -0.8170302955 0.0248346206
40299760.0 0.8530113189 -0.0691719326 0.0002357055 -1.40963e-05 9.73384e-05 3.629e-05 -0.8213025779 0.0340912902
45299730.0 0.8527069452 -0.077260038 0.0001702932 0.0002409036 1.34141e-05 -5.81239e-05 -0.8251327707 0.0437871762
50299700.0 0.851840653 -0.0853948297 -3.0668e-05 2.43382e-05 -4.29408e-05 0.0001121555 -0.8271806279 0.0541494152
55299670.0 0.850435668 -0.0940259233 4.88609e-05 -3.74755e-05 -4.99795e-05 -6.75956e-05 -0.8297670505 0.0643021837
60299640.0 0.8493189926 -0.1016467438 0.0001082227 4.9819e-06 2.65055e-05 2.87334e-05 -0.8312604871 0.074139164
65299610.0 0.8479549455 -0.1101337264 -0.0001102732 -0.0001346969 9.76759e-05 -7.78886e-05 -0.8323590909 0.0842365563
70299580.0 0.8474717149 -0.1185597837 7.15803e-05 -4.01028e-05 3.3004e-06 -9.07131e-05 -0.8322891822 0.0940045437
75299550.0 0.8465236501 -0.1268059118 -1.29776e-05 1.16509e-05 -6.51128e-05 -1.4032e-05 -0.8326631095 0.1042757379
80299520.0 0.8446898813 -0.1353221922 -9.25127e-05 4.92444e-05 -4.75789e-05 -2.4889e-05 -0.8317756486 0.1134240181
85299490.0 0.8433446389 -0.1431089634 8.22764e-05 -8.0447e-05 -6.08651e-05 -0.0002157179 -0.8319327951 0.1237291795
90299460.0 0.8418263359 -0.1514599234 -0.0001825508 -1.74695e-05 -1.40417e-05 6.9892e-06 -0.8308729698 0.1330853354
95299430.0 0.8400046895 -0.1602651892 -9.52856e-05 0.0001018105 -0.0001826389 -0.0001314189 -0.8296066059 0.1431114732
100299400.0 0.838274869 -0.1675451624 -5.20734e-05 5.31557e-05 -0.0001029936 5.40712e-05 -0.8285611009 0.1524321726
105299370.0 0.8371682096 -0.1752638345 -3.96569e-05 7.61942e-05 8.75513e-05 6.33762e-05 -0.8274474872 0.1609765329
110299340.0 0.8357019644 -0.1840095342 0.0002755938 -1.59041e-05 2.6619e-06 -0.000209159 -0.8257346048 0.1712004594
115299310.0 0.8331983685 -0.1924059957 2.49173e-05 -0.0002696624 -0.000131615 -1.27119e-05 -0.8241124026 0.180241296
120299280.0 0.8313304542 -0.2005825801 -7.2495e-05 -7.83378e-05 -3.3116e-05 3.822e-07 -0.8225767077 0.1888516048
125299250.0 0.8292831446 -0.2086334288 9.93895e-05 0.0001445447 0.0001732345 -7.6756e-06 -0.8208287437 0.1977890838
130299220.0 0.8274235748 -0.216883149 8.40085e-05 0.0001270133 2.46158e-05 5.11724e-05 -0.8190581955 0.2065985925
135299190.0 0.8251050904 -0.224845319 6.07786e-05 8.633e-07 -0.0001186819 1.2529e-06 -0.8165077613 0.2163741434
140299160.0 0.8228428936 -0.2328818249 5.66798e-05 -4.36795e-05 9.8578e-06 0.0001607039 -0.814557638 0.2248566909
145299130.0 0.8204103379 -0.2410660409 2.24813e-05 -3.19476e-05 0.0001394053 -5.0071e-06 -0.812632064 0.2342177191
150299100.0 0.8180874738 -0.248702624 -0.0001232697 9.30445e-05 -0.0001107639 -9.99774e-05 -0.8107674777 0.2432622495
155299070.0 0.8151285565 -0.2566029604 0.0001704109 0.0003244038 -5.91254e-05 2.4331e-06 -0.8072310878 0.2516692466
160299040.0 0.8125157927 -0.2646655532 -0.0002548607 -4.1098e-05 -0.0002159579 -6.1731e-06 -0.8049218305 0.2607184901
165299010.0 0.8104169464 -0.2729017952 8.6663e-06 0.0002589872 5.08107e-05 -4.00353e-05 -0.8027473549 0.2690021096
170298980.0 0.8073708009 -0.280101339 8.42846e-05 -0.000377589 -3.00371e-05 -5.83185e-05 -0.7994748066 0.2778955927
175298950.0 0.8043934887 -0.2886899895 -8.19985e-05 -1.92544e-05 5.598e-06 -0.0001230947 -0.7969733439 0.2864361162
180298920.0 0.8018025873 -0.2958515322 0.000129733 -2.36155e-05 0.0001045515 -7.6147e-06 -0.7935760784 0.2952546938
185298890.0 0.7985000243 -0.3042890027 -2.734e-05 -0.0003223034 3.40731e-05 -4.36022e-05 -0.7903616395 0.3039698559
190298860.0 0.7955774979 -0.3116582156 -0.0001886285 -2.91555e-05 -0.0002359141 -1.44912e-05 -0.7880249015 0.3125126082
195298830.0 0.7931346635 -0.3192196615 -0.0001073637 5.4719e-06 -7.10351e-05 0.0001756864 -0.7849653358 0.3211148431
200298800.0 0.7884175041 -0.3267004166 2.46913e-05 -7.61779e-05 -0.0001834305 -0.0001437863 -0.7819126795 0.3292471281
205298770.0 0.7859609271 -0.3347700707 2.80625e-05 4.45336e-05 -2.80319e-05 6.41434e-05 -0.7775090358 0.337930439
210298740.0 0.7825899629 -0.3423026743 -0.0002183698 -6.84192e-05 -0.0001532689 -7.9796e-06 -0.7746746968 0.3454054282
215298710.0 0.7790900918 -0.350746152 0.0002428081 -5.71613e-05 -7.02605e-05 -0.0001249367 -0.7709648496 0.3543976141
220298680.0 0.7757128974 -0.3579937958 -7.0065e-06 -6.1769e-06 3.43894e-05 5.8146e-05 -0.7674889311 0.3620599581
225298650.0 0.7720729728 -0.3661189663 1.24618e-05 -0.0001419239 -4.86805e-05 1.46362e-05 -0.7637820624 0.370075787
230298620.0 0.7681386781 -0.3730403072 -0.0002237022 3.23643e-05 -7.43164e-05 6.41667e-05 -0.7600863855 0.3783701893
235298590.0 0.7647389641 -0.3801338951 8.82376e-05 -6.47198e-05 0.0001311489 -5.86162e-05 -0.7558908993 0.3871785614
240298560.0 0.7613923785 -0.3879772658 0.0001158187 -0.0001225403 -9.16504e-05 2.10482e-05 -0.7515164789 0.3952742134
245298530.0 0.7569260856 -0.3951486817 0.0001170534 2.50352e-05 -7.95048e-05 -2.04867e-05 -0.7479133319 0.4025115408
250298500.0 0.7530819078 -0.4022969897 0.0001186288 -0.0002451687 7.46842e-05 -3.4e-05 -0.7432009291 0.4104409845
255298470.0 0.7486410108 -0.410338552 3.5905e-06 -5.51227e-05 6.76116e-05 3.04373e-05 -0.7387738654 0.4182994583
260298440.0 0.7447409272 -0.4172983113 2.70992e-05 9.69662e-05 -8.30357e-05 -8.12425e-05 -0.7345824937 0.4264433942
265298410.0 0.7410765693 -0.4245219642 -1.02253e-05 5.17026e-05 -3.90049e-05 -0.0001519213 -0.730516475 0.4337783726
270298380.0 0.7373226067 -0.4314173503 0.000202626 -0.0001852822 5.2597e-06 -0.0001640601 -0.7255904628 0.4410669862
275298350.0 0.7329195947 -0.4390102004 9.46006e-05 2.54559e-05 -2.46042e-05 -0.0001685419 -0.7211570126 0.4486837576
280298320.0 0.7282699679 -0.4459720771 9.27702e-05 -4.06841e-05 1.0969e-06 -0.0001846293 -0.7159019808 0.4560734987
285298290.0 0.7243684253 -0.4533667924 -2.02036e-05 4.73697e-05 -0.0001535514 6.85483e-05 -0.7109328745 0.4638359549
290298260.0 0.7196026984 -0.4599856791 -0.0001220027 -7.82876e-05 -0.0001298081 8.53418e-05 -0.7062447612 0.4713150487
295298230.0 0.7157456058 -0.4670397426 -3.60328e-05 -0.0001385271 0.0002338725 -6.2321e-05 -0.7012370036 0.4781846916
300298200.0 0.711063286 -0.4744346195 0.000339611 7.31545e-05 6.50986e-05 7.5657e-06 -0.6960079583 0.485463726
305298170.0 0.7067245195 -0.4814433454 0.0003003247 -0.0001232375 -5.42024e-05 0.000129625 -0.6900438939 0.4931363488
310298140.0 0.7022214191 -0.4883840233 -0.0002173655 -3.63803e-05 -0.0001579643 6.64204e-05 -0.685672302 0.5000099642
315298110.0 0.6978255288 -0.4963576199 2.992e-07 -0.0002633251 8.9556e-06 7.37491e-05 -0.6804425466 0.5067943141
320298080.0 0.6930087519 -0.5034446158 -6.17266e-05 -0.0004010358 3.75404e-05 -0.0001420316 -0.674830483 0.5148190186
325298050.0 0.6872487914 -0.5107428243 0.0002003594 -8.24463e-05 -0.0001083436 -9.00499e-05 -0.6688577441 0.5214384739
330298020.0 0.6818754495 -0.5182446568 0.0001646097 0.0001266593 -0.0001167479 -4.52686e-05 -0.6633970442 0.528734892
335297990.0 0.6757048848 -0.5250812981 3.32392e-05 -7.28473e-05 -0.0001742158 6.24101e-05 -0.6589961752 0.5357340167
340297960.0 0.6694157141 -0.5320414775 -0.0002011456 0.0001063654 0.0002338293 0.000196473 -0.6524980111 0.5429866276
345297930.0 0.6635121943 -0.5377131453 4.83367e-05 -0.0001409025 -0.0001599049 -3.59952e-05 -0.6465258521 0.5484428389
350297900.0 0.6577838077 -0.5440408728 6.9686e-05 1.74593e-05 4.77386e-05 -0.0001012688 -0.6419236052 0.5554500733
355297870.0 0.6525268585 -0.5500917898 4.71508e-05 -1.33641e-05 0.0003247939 0.0002078987 -0.6361663566 0.5621657273
360297840.0 0.6470172423 -0.5564826381 -5.9542e-06 0.0001384583 -3.14424e-05 0.0001335248 -0.6299938384 0.5691370403
365297810.0 0.6408605404 -0.5624062157 0.0001081365 -6.12949e-05 -5.6164e-05 3.18865e-05 -0.6232193202 0.5755389536
370297780.0 0.6357928206 -0.5688447577 4.32641e-05 0.0001377641 -3.97941e-05 -0.0002300277 -0.617229264 0.581983613
375297750.0 0.6296582134 -0.574686168 -3.48371e-05 2.63939e-05 -8.98566e-05 2.52873e-05 -0.6111663497 0.5880822501
380297720.0 0.6237466978 -0.5810382651 -0.0001039 -0.0001955918 -0.0001043794 1.91082e-05 -0.6055100496 0.5945124945
385297690.0 0.6180421296 -0.5866405575 -5.8141e-06 3.7777e-06 0.0001311797 3.60413e-05 -0.5991057242 0.601072347
390297660.0 0.6118884339 -0.5923207997 4.03316e-05 0.0001222497 5.14509e-05 -8.1316e-05 -0.5929354904 0.6059874788
395297630.0 0.605923725 -0.5987964639 1.05069e-05 -5.65644e-05 0.0001101214 8.01106e-05 -0.5864337418 0.6133106083
400297600.0 0.6004652181 -0.6039697807 -1.87027e-05 -5.47304e-05 0.0001812884 -0.0001870763 -0.5809186641 0.6190398487
405297570.0 0.5941493607 -0.609398593 9.42445e-05 -0.0001573501 -0.0001601997 0.0001701978 -0.5744740892 0.6251318744
410297540.0 0.5877805025 -0.6160059079 0.000139433 0.0001196185 -3.20819e-05 -0.0001301907 -0.5673723922 0.6310825811
415297510.0 0.5823259925 -0.6218591257 -0.0001482407 2.0005e-06 9.82448e-05 -0.0001844479 -0.5612487712 0.6364016458
420297480.0 0.575660296 -0.6270471901 0.0001148682 1.06682e-05 -4.80374e-05 -7.134e-06 -0.5546510854 0.6427688157
425297450.0 0.5689706777 -0.6326266601 4.67947e-05 -0.000159163 -1.62688e-05 -7.05712e-05 -0.5478871098 0.6482316313
430297420.0 0.5630428497 -0.6378564658 0.0002485966 -0.0001036 -2.5092e-05 -0.0001118763 -0.5413542688 0.6527528769
435297390.0 0.5571921975 -0.643369907 6.5942e-06 6.03976e-05 0.0001287502 -0.0002860197 -0.5342371915 0.6583611576
440297360.0 0.550198235 -0.6493991898 -2.57416e-05 -5.8437e-05 0.0001038572 3.0167e-05 -0.5275583636 0.6640174624
445297330.0 0.5438976577 -0.6545021525 0.0001678078 -0.0001727244 0.0001757994 3.1952e-05 -0.5202729863 0.6691472044
450297300.0 0.5378025163 -0.6589787943 0.0001136608 -7.71013e-05 4.5875e-05 -4.206e-05 -0.5129984386 0.6741607844
455297270.0 0.5312464323 -0.6645522835 -0.0001042828 0.0001025646 2.79804e-05 -2.9805e-05 -0.5068007637 0.6785158379
460297240.0 0.5242885813 -0.6696505685 2.14565e-05 7.03999e-05 0.0001176283 0.0001302544 -0.4997502923 0.6844974572
465297210.0 0.5176104061 -0.6748016565 -0.0001779512 -6.59421e-05 0.0001109741 -9.15595e-05 -0.4918255071 0.6894107624
470297180.0 0.51026249 -0.6796395112 0.0002538504 0.0002031752 8.32015e-05 6.86804e-05 -0.484713412 0.6946990198
475297150.0 0.5043069993 -0.6847422542 0.0002267659 0.0002655723 -4.09932e-05 6.4626e-05 -0.4774840181 0.6986309392
480297120.0 0.4970393177 -0.6895836175 -6.90991e-05 0.0001814567 -7.82996e-05 4.4992e-06 -0.4704710578 0.7038570351
485297090.0 0.4908137878 -0.6942558354 0.0002571269 0.0001488912 -8.6877e-05 0.000134521 -0.4633896025 0.708803277
490297060.0 0.4828491944 -0.699045364 2.1227e-06 0.0001645168 -0.0001220515 0.0001548444 -0.4557945903 0.7127611491
495297030.0 0.4762129963 -0.7034330699 6.24704e-05 -7.75968e-05 -0.0001177057 -0.0001932608 -0.448772103 0.718055665
500297000.0 0.4691052309 -0.7081003965 0.0002743137 5.81109e-05 -0.0001025155 2.72247e-05 -0.4409558261 0.7225526955
505296970.0 0.4624829601 -0.7125917952 -0.0001183763 -0.0001796638 0.0001045263 5.84621e-05 -0.4334426133 0.7269806251
510296940.0 0.4546165537 -0.7175891725 -0.000127467 0.0002095644 -0.0001979909 -5.0162e-05 -0.425980918 0.7311287546
515296910.0 0.4485764854 -0.7214727477 0.0002190924 -6.816e-07 9.82616e-05 -2.57934e-05 -0.418564538 0.7352975284
520296880.0 0.4403164455 -0.7260586764 0.000128533 -0.0001139085 -4.95509e-05 -0.0002878544 -0.4108787784 0.7396102164
525296850.0 0.4335374376 -0.7304318648 -9.65625e-05 -2.70706e-05 1.87807e-05 -9.80617e-05 -0.4042192012 0.74350814
530296820.0 0.4259899983 -0.7336678338 5.40997e-05 -2.57352e-05 -0.0002279026 6.15448e-05 -0.3966694596 0.7474254373
535296790.0 0.4188669254 -0.7385611375 4.63066e-05 6.08788e-05 2.68055e-05 -0.0001073475 -0.388848581 0.7514926072
540296760.0 0.4115892445 -0.7425196991 -3.51207e-05 -4.08022e-05 7.179e-06 -7.78669e-05 -0.380927397 0.7555394143
545296730.0 0.4037986712 -0.7459995764 0.0001047393 -3.10857e-05 4.73675e-05 -0.0001790862 -0.3733203799 0.7592927411
550296700.0 0.3970601697 -0.7494899877 9.23373e-05 -5.3783e-06 4.2069e-06 5.25071e-05 -0.3657767514 0.7634498549
555296670.0 0.388725984 -0.7538925047 -9.00133e-05 2.34202e-05 -5.854e-05 6.62598e-05 -0.3580526765 0.7672444454
560296640.0 0.3816399272 -0.7572195115 0.0001501576 -0.0002599659 -8.44832e-05 3.5506e-06 -0.3498210789 0.7709443746
565296610.0 0.3740372427 -0.7605345068 -0.0001122324 0.0001431499 8.34675e-05 0.0002070405 -0.3419260398 0.7739988754
570296580.0 0.3664294469 -0.7645803067 -9.53851e-05 8.69494e-05 -0.0001214427 1.50424e-05 -0.3349077591 0.7777044014
575296550.0 0.3589318107 -0.7677491946 7.89652e-05 8.86172e-05 1.9112e-05 -2.5342e-06 -0.3265228067 0.7811473991
580296520.0 0.3513057529 -0.771436281 -0.0002866217 -5.89171e-05 9.07734e-05 2.91776e-05 -0.3181021193 0.7842939897
585296490.0 0.3430659345 -0.7755447814 0.0001555245 0.0002336015 0.0001421446 9.28283e-05 -0.3104320864 0.7874540239
590296460.0 0.3359386324 -0.7775541392 6.49585e-05 -0.0002222325 0.0002307818 -0.0001130025 -0.3026261572 0.7899840518
595296430.0 0.3278003278 -0.781430298 -1.99615e-05 2.90843e-05 -4.59378e-05 -2.72792e-05 -0.2947950034 0.7930214927
600296400.0 0.3201504879 -0.7843770169 -0.0001084959 9.55258e-05 6.8178e-05 0.0001735156 -0.2866913395 0.795688342
605296370.0 0.312232473 -0.7869758752 1.03868e-05 6.776e-07 -1.53743e-05 -6.80423e-05 -0.2780923823 0.7988618428
610296340.0 0.3043513908 -0.7903303557 -7.75545e-05 0.000191836 8.61993e-05 -6.92522e-05 -0.2701544396 0.8009925392
615296310.0 0.2966632355 -0.7934247913 0.0001150849 9.8629e-05 -8.1715e-06 -0.000264082 -0.2619565217 0.8037140083
620296280.0 0.287971465 -0.7959363024 4.33153e-05 0.0002570558 -0.0001653248 -0.0001002369 -0.2542450554 0.8066365103
625296250.0 0.2810173848 -0.7987989652 0.0003541249 0.0001925768 -5.0893e-06 -3.98908e-05 -0.245406473 0.8079630696
630296220.0 0.2728559792 -0.80181438 -0.0001075929 -8.963e-05 4.59507e-05 -0.0001129231 -0.2372940588 0.8110552138
635296190.0 0.2643745556 -0.8033264661 0.0001517188 -0.0001191426 -0.0001435586 -7.05788e-05 -0.2295187334 0.8127837979
640296160.0 0.2567710158 -0.8066746958 6.22892e-05 0.0001212724 -5.29197e-05 -2.80323e-05 -0.2211746136 0.8154499303
645296130.0 0.2487532452 -0.8086447192 0.000112363 7.1604e-06 -1.2512e-06 -6.8324e-06 -0.2131806307 0.8178106933
650296100.0 0.2403838306 -0.8107558414 -1.1138e-05 0.0001398285 -0.0001330509 0.0001329582 -0.2048213685 0.8189866695
655296070.0 0.2317905113 -0.8136514279 -0.0002131214 2.5903e-06 -0.0001235832 -0.000168158 -0.1961006956 0.8207404554
660296040.0 0.2243289509 -0.8157610002 4.67708e-05 2.17272e-05 -1.387e-07 -0.0001537769 -0.1876055966 0.8233895353
665296010.0 0.2163717034 -0.8178978152 4.25962e-05 0.0001414356 -4.75546e-05 -5.3356e-05 -0.179303818 0.8256689352
670295980.0 0.2075383777 -0.8199654033 5.79253e-05 2.14454e-05 -0.0002243388 2.44375e-05 -0.1719977765 0.8267385684
675295950.0 0.1995833328 -0.8213690603 0.0001583047 -0.0001741315 -0.0001865585 0.0002059909 -0.1635090055 0.8291683914
680295920.0 0.1912295106 -0.8230643733 3.39722e-05 2.04983e-05 0.0001478161 -8.73099e-05 -0.1550165518 0.8309830121
685295890.0 0.1836943294 -0.8242804788 2.18846e-05 0.0001096081 3.54062e-05 8.88692e-05 -0.1457247332 0.8313214249
690295860.0 0.1753849269 -0.8267222163 2.18364e-05 -7.41169e-05 7.24844e-05 -5.04589e-05 -0.1381117813 0.8338186161
695295830.0 0.1668576603 -0.827870141 0.0001847432 -2.78842e-05 -5.62492e-05 -0.0002631279 -0.1294967503 0.834478811
700295800.0 0.1589328166 -0.8294143898 3.86115e-05 0.0001217985 1.524e-07 7.42008e-05 -0.1215978808 0.8359483235
705295770.0 0.1499658482 -0.8304111201 7.71107e-05 -0.0001829894 9.41377e-05 -0.000108214 -0.1137315493 0.8384699628
710295740.0 0.1415159473 -0.8323396125 3.99222e-05 0.0001146308 4.84911e-05 -1.24203e-05 -0.1047589687 0.8390192656
715295710.0 0.1335477928 -0.8342437049 1.0098e-05 5.86064e-05 6.7321e-05 -6.30497e-05 -0.0962216087 0.8398023835
720295680.0 0.1254635093 -0.8349541394 0.0001089258 5.48384e-05 3.20927e-05 -1.82001e-05 -0.0881237842 0.8404667933
725295650.0 0.1169594772 -0.8355989555 -9.89939e-05 -6.32662e-05 -6.7656e-05 -0.0001225263 -0.0797011614 0.8421599401
730295620.0 0.1088125965 -0.8360919303 -8.46637e-05 -8.13424e-05 -0.0001071714 2.57311e-05 -0.0715587769 0.8420760465
735295590.0 0.1001834334 -0.8368541871 8.85956e-05 -4.94628e-05 7.31906e-05 -2.55108e-05 -0.0629329992 0.8428733453
740295560.0 0.0914691695 -0.8375505817 0.0001562409 -0.0001256839 -0.0001080251 0.0001730111 -0.0540770811 0.8440656108
745295530.0 0.0833370947 -0.8389950421 4.21846e-05 -5.56262e-05 -8.93343e-05 4.37001e-05 -0.0460979843 0.8443390374
750295500.0 0.0748394722 -0.8392728703 -0.0001797121 9.63803e-05 0.0001244807 0.0001165005 -0.0374793143 0.8444123514
755295470.0 0.0659807228 -0.8400465587 0.0001167945 -5.19109e-05 -0.0002144704 0.0001130068 -0.028824509 0.8439560908
760295440.0 0.0577569055 -0.8404375784 0.0001003934 3.30124e-05 -4.2353e-06 1.33239e-05 -0.0209566691 0.8441030381
765295410.0 0.0497019668 -0.8411863008 -0.0001795566 -0.0001155342 3.83388e-05 6.4264e-05 -0.0120628486 0.8449923425
770295380.0 0.0411811709 -0.8410214729 -5.71184e-05 0.0001144245 -2.3314e-05 6.71365e-05 -0.0040965294 0.8448456272
775295350.0 0.0327994845 -0.8414770923 -1.0295e-06 -0.0001103103 3.38326e-05 9.72877e-05 0.0041206913 0.8444746631
780295320.0 0.0245077349 -0.8413533133 0.0002727303 -0.0001693035 0.0001872614 7.07303e-05 0.0126267875 0.8446219266
785295290.0 0.0155351679 -0.8419129691 -0.0001062305 -5.36498e-05 7.95303e-05 2.16743e-05 0.0212535984 0.8437604556
790295260.0 0.0073602115 -0.8417057769 -0.0001758926 0.0001845175 -1.97097e-05 -0.0001178206 0.0299287092 0.8443167431
795295230.0 -0.0010104803 -0.8413232367 0.000240504 -9.41052e-05 -2.7512e-05 -0.0001635307 0.0390914164 0.8433086665
800295200.0 -0.0091576027 -0.8409067694 -0.0001611264 -4.83793e-05 -9.15935e-05 -0.0001451962 0.04736497 0.8426926556
805295170.0 -0.0178215052 -0.8413043368 -4.48027e-05 -2.23351e-05 0.000112926 8.92716e-05 0.0549881503 0.8426436946
810295140.0 -0.0257147534 -0.8407319363 -0.0001044773 0.0001181481 2.46722e-05 0.0001552577 0.0636337148 0.8412841895
815295110.0 -0.0340276901 -0.840584688 0.0001751388 5.72871e-05 -8.40642e-05 -8.47631e-05 0.0723597884 0.8408504426
820295080.0 -0.0420955079 -0.8397097194 -0.0003749474 3.2324e-05 -6.78962e-05 -0.0001269992 0.0806606948 0.8406702621
825295050.0 -0.0509338707 -0.8392679183 -3.65313e-05 -9.09642e-05 8.6527e-05 5.40482e-05 0.0889909092 0.8400231202
830295020.0 -0.0594684421 -0.8383894279 0.0002850684 -8.56533e-05 -0.0001863496 5.97454e-05 0.0979828676 0.8387497317
835294990.0 -0.0679906082 -0.8373746899 0.0001454209 -0.0001306053 -1.65382e-05 -0.0001867853 0.1055540223 0.837823225
840294960.0 -0.0761301968 -0.836694523 -5.14028e-05 8.92886e-05 -8.072e-06 0.0002093795 0.114012519 0.8370269649
845294930.0 -0.0845633967 -0.8353345984 -0.0001783474 3.3755e-05 -1.44194e-05 0.0001673932 0.1221822294 0.8348568251
850294900.0 -0.0916720621 -0.8346215015 3.60006e-05 1.26653e-05 -0.0001669379 0.0001592534 0.1305469087 0.8337612277
