!Created with skrf (http://scikit-rf.org).
# Hz S RI R 50.0 
!freq ReS11 ImS11 ReS21 ImS21 ReS12 ImS12 ReS22 ImS22
300000.0 -0.0984674242 -0.0852795579 0.6242921379 0.0793744452 0.6258678818 0.082715052 -0.0976020398 -0.0920076794
5299970.0 -0.1004649776 0.0129655288 0.6308578618 0.0102879281 0.6305261033 0.0109006338 -0.1020270839 0.0120167106
10299940.0 -0.095467324 0.0297738785 0.63452387 0.0155192838 0.6347827117 0.0160340035 -0.0972435239 0.0291475082
15299910.0 -0.088523019 0.0430074353 0.6403762953 0.020647608 0.6405342789 0.0208615104 -0.0902187523 0.0422370128
20299880.0 -0.0794566329 0.0541612121 0.6483021456 0.0239478295 0.6490691553 0.0244339745 -0.0818418561 0.0533987849
25299850.0 -0.0696878002 0.0629282454 0.6580273355 0.0247518949 0.6582369126 0.0255987578 -0.0725839934 0.0619539616
30299820.0 -0.0596417641 0.0692614564 0.6680550196 0.0250919782 0.6676047044 0.0247745367 -0.0624603249 0.0687139135
35299790.0 -0.0492657294 0.0743613274 0.6774773154 0.0215019448 0.67754907 0.0215982122 -0.052558119 0.0732270133
40299760.0 -0.0400270043 0.0770077224 0.6872381903 0.0179796285 0.6870551921 0.0176990459 -0.0435672539 0.0771227848
45299730.0 -0.0303905823 0.0795191986 0.6957061286 0.0117767422 0.6959338239 0.0120876942 -0.0340504819 0.0790778879
50299700.0 -0.0218739852 0.0797192152 0.7032022576 0.0049209807 0.7037054462 0.0045119196 -0.0254920854 0.0798591122
55299670.0 -0.0142360293 0.0799015717 0.7102684542 -0.0030154009 0.7109887964 -0.0024009978 -0.0177278401 0.0799300616
60299640.0 -0.006552144 0.0787991901 0.7173157251 -0.0113298345 0.7173368905 -0.0113056678 -0.0106566418 0.0796199727
65299610.0 -0.0003829275 0.0781103005 0.7236038708 -0.0193997687 0.7239017602 -0.0200713907 -0.0036024145 0.0786476794
70299580.0 0.0061760438 0.075939315 0.7288942387 -0.0295744986 0.728470727 -0.029288355 0.0022558889 0.0771064544
75299550.0 0.0115284785 0.0742800713 0.7326098864 -0.038767426 0.733051611 -0.038861243 0.0078335318 0.075716541
80299520.0 0.0161886295 0.0721638208 0.737551915 -0.04904497 0.737822885 -0.0493045888 0.0132353981 0.0730033015
85299490.0 0.0206595087 0.0695706164 0.7404670596 -0.058887827 0.7405059332 -0.0589249619 0.0177106631 0.0709343973
90299460.0 0.0246704991 0.0674094947 0.7432848044 -0.0681059669 0.7438600199 -0.0687277019 0.022206434 0.0688991378
95299430.0 0.028219561 0.0653361735 0.7462626288 -0.0794428019 0.7460685749 -0.0786341967 0.0253020661 0.06632589
100299400.0 0.0315687853 0.0628435639 0.7471670945 -0.0890284462 0.7476887247 -0.0892345294 0.0283867343 0.0640114295
105299370.0 0.0347000259 0.0601896172 0.7486909544 -0.099071376 0.7491786076 -0.0992574634 0.0318181973 0.061805481
110299340.0 0.0369913323 0.0577807226 0.7499909853 -0.1090853728 0.7500837065 -0.1097386277 0.0345944562 0.0592710102
115299310.0 0.0396142097 0.0549789508 0.7508645485 -0.1187398055 0.7516207629 -0.1190022673 0.0372657532 0.0563657515
120299280.0 0.0415840568 0.0526947536 0.7518082944 -0.1292397569 0.7517190983 -0.1297237849 0.0388931212 0.0541612988
125299250.0 0.0433139214 0.0503997753 0.7519516453 -0.1391990609 0.7519959294 -0.1394122326 0.0413094395 0.0511814277
130299220.0 0.0450373347 0.0481253829 0.7515699384 -0.148707143 0.7515857128 -0.1495473467 0.0435172671 0.0494712573
135299190.0 0.0469237998 0.045525542 0.7510897095 -0.1589153167 0.7508817439 -0.1587513669 0.0445657953 0.0474955516
140299160.0 0.04782654 0.0443542873 0.7510354475 -0.1683189724 0.751046822 -0.1685970052 0.046311247 0.0454016593
145299130.0 0.0493033409 0.0418864387 0.7502656574 -0.1785805373 0.7500018067 -0.1784257984 0.0475187818 0.0428216251
150299100.0 0.0505509539 0.0399401582 0.7495466837 -0.1879458096 0.749121067 -0.1879865452 0.0489731349 0.0409604178
155299070.0 0.0511175684 0.038397412 0.747849182 -0.1978983804 0.7479320386 -0.1982670215 0.0493510603 0.0387445819
160299040.0 0.0524358727 0.0357977025 0.7463572614 -0.2069006345 0.7465746715 -0.2068563554 0.0509637488 0.0373877232
165299010.0 0.0531330756 0.0341413788 0.7451077999 -0.2172376313 0.7448701664 -0.2166421375 0.0518713335 0.0351229073
170298980.0 0.0534118133 0.0326656482 0.7422780289 -0.2259724965 0.742553523 -0.2258272958 0.0527407845 0.0329486431
175298950.0 0.0544860845 0.0305860483 0.7415718786 -0.2351071984 0.741765579 -0.2352786736 0.0533479036 0.0312602123
180298920.0 0.0553670133 0.0291732564 0.7396027798 -0.2446013482 0.7393947491 -0.2443570702 0.0538643151 0.0297880659
185298890.0 0.0560633309 0.0272336564 0.7365065383 -0.254120316 0.7369593074 -0.2536242416 0.0541191655 0.0277790653
190298860.0 0.0562168872 0.0258350602 0.7341320779 -0.2628484328 0.7346786324 -0.2632453686 0.0554051711 0.0262979958
195298830.0 0.0562500306 0.0242367355 0.7317566465 -0.2713967694 0.7320579858 -0.2722332167 0.055835927 0.0242827118
200298800.0 0.0570327312 0.0226477638 0.7295158128 -0.280202643 0.7289800517 -0.2802110083 0.0561758931 0.0234072607
205298770.0 0.0571571939 0.0213146167 0.7266354281 -0.2894152143 0.7266574902 -0.2895222143 0.0563105798 0.02109595
210298740.0 0.0570099813 0.0195100525 0.7239153176 -0.2990814968 0.7237935861 -0.2984818068 0.0569906819 0.0200210063
215298710.0 0.0580229879 0.0188532931 0.7205810374 -0.307305819 0.7209769283 -0.3065546097 0.0569636159 0.0184971381
220298680.0 0.0580049213 0.017310127 0.7176633329 -0.3158768245 0.7175955795 -0.3155090339 0.0574384398 0.0175195037
225298650.0 0.0584586897 0.0161744546 0.7139530898 -0.3239952072 0.7143239482 -0.3241576007 0.0575611572 0.0157392552
230298620.0 0.0580063256 0.0146622715 0.7110662313 -0.3330399025 0.7109606546 -0.3330045572 0.0576969241 0.0143011123
235298590.0 0.0584363095 0.0130306311 0.7075340746 -0.3406763371 0.707420646 -0.3418980629 0.0580890433 0.0127164132
240298560.0 0.0582554617 0.0120953054 0.7038040525 -0.3492399027 0.7040791471 -0.3491597691 0.0582633284 0.0120025999
245298530.0 0.0588068622 0.0113492934 0.6992669147 -0.3578163153 0.7000821505 -0.3578955388 0.0583353468 0.010812662
250298500.0 0.0583698201 0.0096661566 0.6961298474 -0.365658005 0.6964630926 -0.3652517423 0.058622413 0.0091260291
255298470.0 0.0583494641 0.0089636044 0.6915784185 -0.3747805906 0.6923394652 -0.3739076123 0.0586092252 0.007511574
260298440.0 0.0583196641 0.0078911664 0.6877327404 -0.3823642568 0.6883667839 -0.3824660867 0.0593966862 0.0068525413
265298410.0 0.0590967659 0.0072406373 0.6838728205 -0.3909692534 0.6840693198 -0.3902282658 0.0587982131 0.0057088916
270298380.0 0.0590974647 0.0057835794 0.679404792 -0.3987905809 0.6801538237 -0.3981386371 0.0591369924 0.0053211574
275298350.0 0.0584392439 0.0048772141 0.6754623506 -0.4066719211 0.6761513932 -0.4065082009 0.0586773343 0.003975675
280298320.0 0.0585033136 0.0041297777 0.6712959524 -0.4137325317 0.6712509946 -0.4147308183 0.0593687561 0.0028372717
285298290.0 0.0586024826 0.0030497699 0.6665423703 -0.4217691788 0.6667685562 -0.4220223304 0.0586950293 0.001846119
290298260.0 0.0587195617 0.0017562788 0.6624095422 -0.4293908691 0.6625610235 -0.4294664882 0.0592419812 0.0008124022
295298230.0 0.0586003539 0.0008042016 0.6579616536 -0.4375451876 0.6577850981 -0.437353624 0.0597110114 -0.000177982
300298200.0 0.0591108247 -0.000271675 0.6526327965 -0.4450581613 0.6534431365 -0.4453509414 0.0591848111 -0.0013829989
305298170.0 0.0588017511 -0.0014177289 0.6481615779 -0.4529509983 0.6489455356 -0.4530476994 0.0597051194 -0.0020173378
310298140.0 0.0593042123 -0.0023916106 0.6433190695 -0.4607086102 0.6437131662 -0.4605345719 0.0598288939 -0.0029870749
315298110.0 0.0587000993 -0.0035295253 0.6382921077 -0.4682202014 0.6387670384 -0.468344326 0.0597738563 -0.0046192787
320298080.0 0.058402577 -0.0044126648 0.6329765908 -0.475342216 0.6333044145 -0.475427016 0.0593431939 -0.0059194959
325298050.0 0.0582746014 -0.0058313566 0.6282868425 -0.4837093265 0.6282327681 -0.4834959238 0.0591739581 -0.0070676237
330298020.0 0.0577183934 -0.0065069407 0.6217157885 -0.49037267 0.6220517071 -0.4907727566 0.058426759 -0.008074177
335297990.0 0.0575710819 -0.0076306184 0.6169262555 -0.497532584 0.6165119975 -0.4979086204 0.0579796697 -0.009125742
340297960.0 0.0564699191 -0.00798324 0.6104792237 -0.5045749784 0.6110957623 -0.5045856856 0.0575553901 -0.0093696507
345297930.0 0.0560174001 -0.0084749391 0.6053348792 -0.5109158529 0.6048230594 -0.5109070042 0.0575658196 -0.0107402638
350297900.0 0.0563780817 -0.0094213371 0.5990801905 -0.5174944288 0.5992386675 -0.5179952508 0.0567654218 -0.0107301525
355297870.0 0.0560755043 -0.0101779745 0.5934777317 -0.524058987 0.5935595829 -0.5246034732 0.0562382452 -0.0112671184
360297840.0 0.0560934051 -0.0107212906 0.5878243295 -0.531899259 0.5871285149 -0.5314343575 0.056408104 -0.0120458197
365297810.0 0.0558076778 -0.0115415111 0.5816395733 -0.5376467562 0.5815512817 -0.5376513811 0.0561293063 -0.0125120239
370297780.0 0.0557875686 -0.0121519196 0.5754714527 -0.5440109261 0.5763126923 -0.5449449821 0.055917991 -0.0127759848
375297750.0 0.0552175929 -0.0123421369 0.5701566051 -0.5506948161 0.569824304 -0.5512649926 0.055727657 -0.0136129252
380297720.0 0.0552536619 -0.0139333028 0.5638336802 -0.5572685934 0.5637123808 -0.5572345917 0.0551680684 -0.0143190028
385297690.0 0.0548548711 -0.0139451091 0.5571469523 -0.5629091131 0.5573298881 -0.563424274 0.0550343668 -0.0147473013
390297660.0 0.0543442982 -0.0148630955 0.5509905526 -0.5699846853 0.5514165607 -0.570562184 0.0550701822 -0.0157024401
395297630.0 0.0545899188 -0.0157970672 0.544945525 -0.575410066 0.5454061427 -0.5756442853 0.0544409375 -0.0158917404
400297600.0 0.0536812867 -0.015840393 0.5380998487 -0.5817912097 0.5390842192 -0.5820624862 0.0534512376 -0.017077735
405297570.0 0.0542500236 -0.0168162424 0.5324808947 -0.5876442529 0.5323425013 -0.5882420612 0.0536442312 -0.0168908089
410297540.0 0.0538963476 -0.0174772489 0.5250345341 -0.5935107295 0.5258211076 -0.5939651802 0.0533638175 -0.0180867139
415297510.0 0.0532818736 -0.0171655645 0.5189819475 -0.5988852224 0.5193799765 -0.5994643474 0.0528945462 -0.0180497066
420297480.0 0.0530182723 -0.0187519711 0.5119004326 -0.6052791124 0.5128316337 -0.605613042 0.0528171435 -0.0194363435
425297450.0 0.0533574941 -0.019806762 0.5052052257 -0.6107630978 0.5065724144 -0.6108661938 0.0524889214 -0.0191872006
430297420.0 0.052427819 -0.0197421474 0.4992819921 -0.6166663451 0.4992446168 -0.6171564754 0.0516650075 -0.0203095776
435297390.0 0.0523346326 -0.0207088612 0.4924256543 -0.6221657367 0.4923575083 -0.6221098926 0.0512308923 -0.0200732352
440297360.0 0.0521894655 -0.0214017837 0.4849465008 -0.6277237026 0.4847010965 -0.6276310053 0.0510632074 -0.0215109176
445297330.0 0.0522241645 -0.0220696437 0.4778241991 -0.633725367 0.4783609796 -0.6333459503 0.0506918553 -0.0216687511
450297300.0 0.0517219787 -0.0226524358 0.4716341447 -0.6383031623 0.4716438979 -0.6390207641 0.0503683436 -0.0218976518
455297270.0 0.0508762914 -0.0232036171 0.4646987324 -0.6438812951 0.4649445599 -0.6432555807 0.0504082075 -0.0224072364
460297240.0 0.0505433786 -0.0240053286 0.4571050537 -0.6481132989 0.4571299892 -0.6490503973 0.0497856246 -0.0226169611
465297210.0 0.0505997526 -0.0246838159 0.4500879358 -0.6537327776 0.4502796838 -0.6541857664 0.0491039667 -0.0234780258
470297180.0 0.0498444972 -0.0252229659 0.443247101 -0.6584098235 0.4434327131 -0.6590826714 0.0481307418 -0.0241862956
475297150.0 0.0493154604 -0.0263303132 0.4359779318 -0.6633967519 0.4362059447 -0.662929573 0.0483860247 -0.0245442553
480297120.0 0.049934795 -0.0268739126 0.4287573266 -0.6679339558 0.4289793998 -0.6680861806 0.0477530355 -0.0244774692
485297090.0 0.0494603445 -0.0272945291 0.4213432186 -0.6732034261 0.4211995412 -0.6735619749 0.0471182086 -0.0255282128
490297060.0 0.0488897825 -0.0282331493 0.41404122 -0.6776393735 0.4140602158 -0.6780739769 0.0468992289 -0.0254578596
495297030.0 0.0478683255 -0.0282786315 0.4062858833 -0.6816625821 0.4063623894 -0.682251676 0.046761159 -0.0261998512
500297000.0 0.0478154782 -0.0291442309 0.398584005 -0.686267047 0.3986935471 -0.6870980168 0.0455147217 -0.0270249863
505296970.0 0.0471938578 -0.0296894391 0.391221579 -0.6902422351 0.3909465486 -0.6907616853 0.04479668 -0.0269724992
510296940.0 0.0467736167 -0.0298691226 0.3839144008 -0.6956582345 0.3836755931 -0.6952189816 0.0451618347 -0.0268840057
515296910.0 0.0463152808 -0.0303186996 0.3756401464 -0.699149503 0.3761711693 -0.6992717043 0.0443249539 -0.0281382782
520296880.0 0.0459602978 -0.0312656234 0.3680612144 -0.7033137043 0.3687066234 -0.703675466 0.0444099918 -0.0282822641
525296850.0 0.0451929485 -0.0323777468 0.3607289668 -0.7074250098 0.3606904669 -0.7079131471 0.0438593039 -0.0288255104
530296820.0 0.0448273885 -0.0324331517 0.35336513 -0.7105630226 0.3531155953 -0.7111156008 0.0429862453 -0.0299573153
535296790.0 0.0442553369 -0.0329695811 0.3447693033 -0.7145966442 0.3455676799 -0.7150113546 0.0427093923 -0.0299781075
540296760.0 0.0439852212 -0.0338534106 0.3371358776 -0.7198223497 0.3371413085 -0.7194232335 0.0417230032 -0.0301077117
545296730.0 0.0432321225 -0.0333768212 0.3291124938 -0.7221586294 0.3294727827 -0.7232014453 0.0413437302 -0.0307624554
550296700.0 0.0425251512 -0.0345074966 0.32123639 -0.7264401306 0.3219623141 -0.7265251714 0.0405552762 -0.0304963794
555296670.0 0.0425668106 -0.0352962891 0.3136991846 -0.7299332431 0.3138723218 -0.7299826769 0.0401683866 -0.0309975249
560296640.0 0.0418237604 -0.0354516638 0.305712144 -0.7327153571 0.305681069 -0.7329006586 0.0398464783 -0.031506471
565296610.0 0.0406339049 -0.0359872069 0.2970977353 -0.7362451383 0.2972136448 -0.7368703984 0.0391524674 -0.0322803046
570296580.0 0.041099256 -0.036691854 0.2895928959 -0.7396784936 0.2898459099 -0.7396879239 0.0387288105 -0.0317005657
575296550.0 0.0401513607 -0.0362947636 0.2811092702 -0.7423335954 0.2818059713 -0.742570531 0.0384327122 -0.0325298435
580296520.0 0.0396436483 -0.0369773287 0.2735396887 -0.7457957831 0.2730165263 -0.7459942433 0.0377282405 -0.0333208155
585296490.0 0.0393964921 -0.038019588 0.2659015073 -0.7492256286 0.2646989784 -0.7489007383 0.0367702837 -0.0338725159
590296460.0 0.0381539428 -0.03846696 0.2569959744 -0.751996347 0.256570781 -0.751925298 0.0367297574 -0.0334038483
595296430.0 0.0376010873 -0.0384009822 0.2491117826 -0.7546410177 0.2482746908 -0.7545627175 0.0362730762 -0.0340633353
600296400.0 0.0371584037 -0.0387130118 0.2403067486 -0.7568829936 0.2404930843 -0.7574495174 0.0354718518 -0.0340612419
605296370.0 0.0367938367 -0.0384624408 0.2324937358 -0.7601109492 0.2324183966 -0.7596290896 0.0349218007 -0.0349604229
610296340.0 0.0358647973 -0.0394113342 0.2243184876 -0.76215923 0.2238271943 -0.7624156187 0.0345306561 -0.0343669079
615296310.0 0.0353807355 -0.039482806 0.2150462513 -0.7645453354 0.2152454256 -0.7648738737 0.0339251966 -0.0350607247
620296280.0 0.0347088039 -0.0400637814 0.2075183586 -0.7666875027 0.2069935819 -0.7670706606 0.0333299794 -0.0357346756
625296250.0 0.0343939782 -0.04036801 0.1984299425 -0.7692289244 0.1988248906 -0.7692430583 0.0330770302 -0.035586471
630296220.0 0.0335437134 -0.0407104797 0.190062793 -0.7714313104 0.1909416821 -0.7708898231 0.0315736101 -0.0355661797
635296190.0 0.0331918591 -0.0408255498 0.1818647043 -0.7726131586 0.1817219358 -0.7725635916 0.0313230643 -0.0365104116
640296160.0 0.0325278903 -0.0412868754 0.1736492716 -0.7751018473 0.1732376022 -0.7751033539 0.0315460096 -0.0369339946
645296130.0 0.0319010805 -0.0412958508 0.1648629224 -0.7773798045 0.1651756483 -0.777189614 0.0295226232 -0.0373169302
650296100.0 0.0311298151 -0.0409318562 0.1574012141 -0.7784027182 0.1570566719 -0.7781187754 0.0297534365 -0.0372561714
655296070.0 0.0304112506 -0.041999847 0.1484680758 -0.7799379239 0.1481766405 -0.7804720098 0.029845985 -0.0368180449
660296040.0 0.0292266832 -0.0416983178 0.1396594427 -0.7813471512 0.1398354724 -0.7817588045 0.0285348886 -0.0377872776
665296010.0 0.029538076 -0.0425757804 0.1309678835 -0.7831670648 0.1317888376 -0.7833430907 0.0276168867 -0.0374179073
670295980.0 0.0292032474 -0.0425292133 0.1228010099 -0.7849000527 0.1226616067 -0.7845375224 0.0269872419 -0.0382571103
675295950.0 0.0282901748 -0.0425175935 0.1137473407 -0.7856720118 0.1145114561 -0.7864718723 0.0268265023 -0.0379364617
680295920.0 0.0274965371 -0.0424511832 0.1056219128 -0.7873659135 0.1052647653 -0.787183873 0.0267049628 -0.0386496509
685295890.0 0.0267995536 -0.0428155077 0.0971087852 -0.7883685124 0.096514924 -0.7884142853 0.0258262726 -0.038380767
690295860.0 0.0266990041 -0.0432585587 0.0883165835 -0.7883749408 0.0879306256 -0.7889402921 0.0255624772 -0.0381466877
695295830.0 0.0262508605 -0.0437242974 0.0783170472 -0.7900385259 0.0792599065 -0.7901158933 0.0242388297 -0.0388650278
700295800.0 0.0257858173 -0.0433096875 0.0707475309 -0.7906848672 0.0710456998 -0.7911791729 0.0239841306 -0.0395294507
705295770.0 0.0248388773 -0.0438054053 0.0620090869 -0.7917330664 0.0621945644 -0.7916205918 0.0230772704 -0.0394107693
710295740.0 0.0240458686 -0.0435730825 0.0535311283 -0.7920659909 0.0535635634 -0.7918098453 0.0216551269 -0.0391203739
715295710.0 0.0236292258 -0.04378381 0.0450599621 -0.7928211789 0.0458608713 -0.7934154611 0.0218628997 -0.0398501384
720295680.0 0.0226854254 -0.0444423247 0.0366879869 -0.7929541583 0.0363835936 -0.7940118348 0.0217059507 -0.0392674038
725295650.0 0.0224345012 -0.044215645 0.0273008429 -0.7931825335 0.0279304079 -0.793401063 0.0210000454 -0.0393968095
730295620.0 0.0213648115 -0.0443546985 0.0192679379 -0.7940185143 0.0192416681 -0.7940128505 0.0207744767 -0.0404209433
735295590.0 0.0211930805 -0.0444052509 0.0107491195 -0.7938899841 0.0108819023 -0.7938294357 0.0197895439 -0.0397323282
740295560.0 0.0203420571 -0.0442459104 0.0019514259 -0.7932965753 0.0022718524 -0.7939077881 0.0196701302 -0.0400949205
745295530.0 0.019687224 -0.0449147011 -0.0065374565 -0.7940846105 -0.0067333379 -0.7946247535 0.0183589557 -0.0398130515
750295500.0 0.0193517787 -0.0447264532 -0.0150459666 -0.7932866056 -0.0151950244 -0.7939464348 0.0180466178 -0.0404447204
755295470.0 0.0189740629 -0.0445693313 -0.0239580001 -0.7936302827 -0.0236249994 -0.7939988035 0.0170257316 -0.0400669344
760295440.0 0.0177607444 -0.0443394012 -0.0327341102 -0.7930497216 -0.0326755862 -0.7933460452 0.0160856179 -0.0405346593
765295410.0 0.0169068762 -0.0449948449 -0.0407220663 -0.7924766029 -0.0404465474 -0.7930800279 0.0168401677 -0.0398385045
770295380.0 0.0169481303 -0.0449156063 -0.0499884374 -0.7919874245 -0.0495776985 -0.7922586439 0.0156004791 -0.0400719137
775295350.0 0.0161614681 -0.0447006709 -0.0582291076 -0.7914689662 -0.0583665411 -0.7919106891 0.014936232 -0.0409165074
780295320.0 0.0156462576 -0.0447928274 -0.0663427071 -0.7906542483 -0.0668806736 -0.7913345582 0.014125526 -0.0399479691
785295290.0 0.0145824696 -0.0443820836 -0.0756111778 -0.7891913474 -0.0757882792 -0.7904263253 0.0133772301 -0.0405245953
790295260.0 0.0141217161 -0.0443820549 -0.0839422762 -0.7892073409 -0.0838410044 -0.7896799229 0.0132464607 -0.0401489505
795295230.0 0.0133167278 -0.0446346028 -0.0922175058 -0.7880146922 -0.0919559306 -0.7879827604 0.0126877375 -0.0393242374
800295200.0 0.0129878114 -0.0444846916 -0.1015701055 -0.7873968124 -0.1014575012 -0.7872581239 0.0120988787 -0.0398618399
805295170.0 0.0116777752 -0.0446971487 -0.1097281316 -0.7855734771 -0.1095063258 -0.7859280942 0.0110447964 -0.0403619566
810295140.0 0.0114772309 -0.0446021332 -0.1181028053 -0.7848740285 -0.1180795687 -0.7856243834 0.0108401191 -0.0397145009
815295110.0 0.0108155696 -0.0443521125 -0.127027904 -0.7830702807 -0.1272384231 -0.7835154959 0.0097969363 -0.0401699997
820295080.0 0.0103507608 -0.0448082524 -0.1353447312 -0.7823774293 -0.1355347325 -0.7822675953 0.0091297728 -0.039899717
825295050.0 0.0097209468 -0.0446792803 -0.1437171671 -0.7797767038 -0.1438899151 -0.7802660807 0.0090866489 -0.0396738019
830295020.0 0.008882738 -0.0440606878 -0.1524308924 -0.7786727314 -0.1526650654 -0.7790775784 0.0083679554 -0.039959596
