!Created with skrf (http://scikit-rf.org).
# Hz S RI R 50.0 
!freq ReS11 ImS11 ReS21 ImS21 ReS12 ImS12 ReS22 ImS22
300000.0 -0.2384728758 -0.0774626245 0.473580676 0.0524839598 0.4678554731 0.0504755218 -0.2414372551 -0.0895882784
5299970.0 -0.2442545982 0.0075275437 0.4737436766 0.0046604618 0.4734776832 0.0048660711 -0.2439110285 0.0074076102
10299940.0 -0.2410568347 0.0188315775 0.475303002 0.0061607994 0.4753394221 0.0060899692 -0.2408188966 0.0202063963
15299910.0 -0.2366988041 0.0281349723 0.4794677349 0.0077949582 0.4793668745 0.0074332886 -0.2361983254 0.0296474305
20299880.0 -0.2319698863 0.0355409253 0.4837930778 0.008445552 0.4840777621 0.0084428239 -0.2307968154 0.0373473855
25299850.0 -0.2270850832 0.0421649902 0.489283699 0.0073454744 0.4890494828 0.0076756326 -0.2249450536 0.0439361915
30299820.0 -0.2216554623 0.0469375619 0.4943873197 0.0052436315 0.4943771325 0.0054665326 -0.2189966755 0.0491498257
35299790.0 -0.2164496277 0.0512812298 0.5000306474 0.0020057318 0.4998569178 0.00191339 -0.2133332755 0.053251182
40299760.0 -0.2113167888 0.0549424718 0.5048018557 -0.001904429 0.5052250872 -0.0018246732 -0.208374353 0.0560576147
45299730.0 -0.2067014663 0.0577678527 0.5099281427 -0.0065752873 0.5098320302 -0.0065492676 -0.2031669153 0.0588513558
50299700.0 -0.2023827181 0.059963075 0.5139557225 -0.0119832589 0.5140445847 -0.0118316835 -0.1984396758 0.0607115739
55299670.0 -0.1984173654 0.0614910769 0.5181309372 -0.0181482981 0.5178621108 -0.018102959 -0.1943851878 0.0622623669
60299640.0 -0.1942456802 0.0636049632 0.5216631922 -0.0245023861 0.5211050531 -0.023848487 -0.1904656133 0.0631078696
65299610.0 -0.1912774754 0.0648306767 0.5243010568 -0.0305408987 0.5242509576 -0.0308112155 -0.1868837859 0.0641042583
70299580.0 -0.1880846328 0.06606709 0.5264510928 -0.0372093976 0.5266648521 -0.0372317127 -0.18392834 0.0648214735
75299550.0 -0.1850476723 0.0673115623 0.5281786982 -0.0439575168 0.528338712 -0.0441879375 -0.1809908206 0.0653150749
80299520.0 -0.1825422222 0.0680431707 0.5305169887 -0.0510517692 0.530457261 -0.0509248448 -0.1784385238 0.0659170625
85299490.0 -0.1800930196 0.0689172245 0.5319179628 -0.0578336619 0.5318950225 -0.057532123 -0.176253694 0.0659914826
90299460.0 -0.1778025371 0.0697015003 0.532432 -0.0651004699 0.532889396 -0.0646482578 -0.1736116546 0.0667580161
95299430.0 -0.175499208 0.0704863339 0.5335868753 -0.0718700632 0.5337657103 -0.0718595783 -0.1716416129 0.0673609621
100299400.0 -0.1738115842 0.0715617206 0.5333759835 -0.0784772497 0.5338980593 -0.0785501849 -0.1693035237 0.0672698621
105299370.0 -0.1721099821 0.0724832069 0.5339157026 -0.0857810352 0.5348235778 -0.0855285774 -0.1676737989 0.0677901139
110299340.0 -0.1704306443 0.0733807234 0.5349108787 -0.0922348028 0.5346850433 -0.0921568585 -0.1664491294 0.0684403061
115299310.0 -0.168659512 0.0740854231 0.5344371168 -0.0994502668 0.53428831 -0.099273443 -0.1648151062 0.0692214429
120299280.0 -0.1674837688 0.0744651625 0.5340731918 -0.1061702491 0.5340111735 -0.1061677172 -0.1635288673 0.0694014219
125299250.0 -0.1661419104 0.0753450783 0.5337908667 -0.1124406343 0.5340807881 -0.1123702776 -0.1623804405 0.069576954
130299220.0 -0.1649068338 0.0768883644 0.5326758769 -0.1198046464 0.5332783798 -0.1194587891 -0.1609767985 0.0702637889
135299190.0 -0.1640032286 0.0777821501 0.5329278874 -0.1262055299 0.5326106181 -0.1259425441 -0.1598535466 0.0710809595
140299160.0 -0.1628379378 0.0788962074 0.5317960484 -0.1328731462 0.5318973098 -0.1329811909 -0.1587539092 0.0721832194
145299130.0 -0.1613872365 0.0800302265 0.5313442454 -0.13981799 0.5307925759 -0.1392285312 -0.1579166049 0.0728601061
150299100.0 -0.1600381695 0.0809848684 0.5299030186 -0.1453616175 0.5297351064 -0.1453319169 -0.1568759152 0.0737868531
155299070.0 -0.1594644327 0.0819292395 0.5291865216 -0.1525981934 0.5284029502 -0.1524211957 -0.1561520653 0.0746485708
160299040.0 -0.1584016982 0.0834741592 0.5274703578 -0.1585399144 0.5270066477 -0.1588384309 -0.1555591063 0.0753766559
165299010.0 -0.1573795114 0.0845466043 0.5259152619 -0.1654699328 0.5256608501 -0.1655860497 -0.1541029041 0.0766583783
170298980.0 -0.1565063635 0.0857303419 0.5241488031 -0.1719854933 0.5246305726 -0.1715955625 -0.1533361289 0.0775626264
175298950.0 -0.1556096463 0.0869647275 0.5228668914 -0.1782062881 0.5222008078 -0.1778959796 -0.152952233 0.0784461791
180298920.0 -0.1546748432 0.0884632838 0.5211260107 -0.1843332229 0.5209784143 -0.1840583532 -0.1520203086 0.079626949
185298890.0 -0.153246226 0.0896340189 0.519209317 -0.1906694263 0.5188881358 -0.1904996722 -0.1511507322 0.0808539688
190298860.0 -0.1526645472 0.0910762505 0.5174880786 -0.1965515651 0.5171416309 -0.1968296056 -0.1506256661 0.0816976059
195298830.0 -0.1516822499 0.0920606359 0.5154288936 -0.2028087431 0.5151299374 -0.2024242406 -0.1496700974 0.0830485294
200298800.0 -0.1507316323 0.0935370339 0.5131416908 -0.209092094 0.513377146 -0.2090102341 -0.149479865 0.0839167129
205298770.0 -0.149740931 0.0951179219 0.5107783101 -0.2151949337 0.5109640444 -0.2145732039 -0.1485147557 0.0846537082
210298740.0 -0.148901272 0.0961830886 0.5084389032 -0.2207580392 0.5085409406 -0.2208269828 -0.1475880663 0.0865394548
215298710.0 -0.1482980196 0.0977780674 0.5065240638 -0.2268857273 0.5062505525 -0.2270769417 -0.1470902446 0.0876610793
220298680.0 -0.147046653 0.0987375264 0.5032972218 -0.2326919559 0.5037836418 -0.2327097772 -0.1467821202 0.0885634215
225298650.0 -0.1461450342 0.100251371 0.5010228911 -0.2388107534 0.5011619181 -0.23871728 -0.1461189729 0.0896482915
230298620.0 -0.1450512588 0.1019877393 0.4990538882 -0.24420292 0.4993495008 -0.2445955042 -0.1453008557 0.0909597616
235298590.0 -0.1440428081 0.1037104175 0.496040714 -0.2504643947 0.4961936603 -0.2499749967 -0.1445744107 0.0921279163
240298560.0 -0.1430995348 0.1050079884 0.4934852124 -0.2559934376 0.4930828356 -0.2562079467 -0.1438943787 0.0938562354
245298530.0 -0.1424464064 0.1065236811 0.49126581 -0.2616449048 0.4909913134 -0.2617607846 -0.143091118 0.0940603467
250298500.0 -0.141032448 0.1079855342 0.4874179316 -0.267549957 0.4874964614 -0.2669243034 -0.1425426416 0.0955264407
255298470.0 -0.139914748 0.1090853695 0.4842596164 -0.2724675744 0.4848207337 -0.2728147387 -0.1414910008 0.0969605538
260298440.0 -0.1388868564 0.1104345098 0.4816309245 -0.2787089952 0.4820984058 -0.2780301272 -0.1404966876 0.0982443891
265298410.0 -0.1374363202 0.1124939223 0.4789438007 -0.2842903154 0.479218783 -0.284130374 -0.1398201278 0.0993444093
270298380.0 -0.1366526752 0.1137366175 0.4759060023 -0.2889854407 0.4764032961 -0.2893469828 -0.1394878797 0.1007258585
275298350.0 -0.1352215132 0.1151554003 0.4728284177 -0.294752524 0.4732588726 -0.2949239656 -0.1383995511 0.1018777024
280298320.0 -0.133850738 0.1167675413 0.4697362987 -0.3004807534 0.4698038679 -0.3002964903 -0.1367594903 0.1029829632
285298290.0 -0.1327352003 0.1181980263 0.4664632818 -0.3053075345 0.4660419432 -0.3055596636 -0.1359913539 0.1042645613
290298260.0 -0.1312497658 0.1194975432 0.4626781586 -0.3104524741 0.4629275485 -0.3111188484 -0.1346797523 0.1057812762
295298230.0 -0.1302202275 0.1208777032 0.4591560019 -0.3158260644 0.45956295 -0.3159726098 -0.1336377068 0.106612307
300298200.0 -0.1294773097 0.1224194816 0.4566134194 -0.3210252505 0.456537453 -0.3213903392 -0.1330819695 0.1081370525
305298170.0 -0.1277370373 0.1237018534 0.4524454615 -0.3270692041 0.4524164761 -0.3265756737 -0.1315004269 0.1091254126
310298140.0 -0.1265918525 0.1250549775 0.4491097295 -0.3316399388 0.4493719868 -0.3315954098 -0.1305241024 0.1100706995
315298110.0 -0.125237849 0.1261056537 0.4456966929 -0.3365324141 0.4457272164 -0.3367420303 -0.1297791791 0.1115199133
320298080.0 -0.1238642199 0.1273933583 0.4413792726 -0.3423114655 0.4418776552 -0.3421123629 -0.1286158861 0.1127732396
325298050.0 -0.122634056 0.1290083865 0.4376533915 -0.3474747591 0.4378745884 -0.3468752355 -0.1281310556 0.1141181074
330298020.0 -0.1216151194 0.1299793088 0.4335686396 -0.3520431021 0.433704059 -0.3519375635 -0.1272063965 0.1152019737
335297990.0 -0.1200342354 0.1309495169 0.4297692951 -0.3567510396 0.4296736274 -0.3569821875 -0.1265274691 0.1169002635
340297960.0 -0.1192556781 0.1328775212 0.4256851674 -0.36161818 0.4251949751 -0.3617005449 -0.1249957106 0.1181765834
345297930.0 -0.1179957455 0.1343191134 0.4211347833 -0.36636566 0.4211426807 -0.3664088467 -0.1240679057 0.1189457211
350297900.0 -0.1166085685 0.1355429411 0.416821967 -0.3711980028 0.4171778917 -0.3711077266 -0.123570881 0.1209222374
355297870.0 -0.1150734433 0.1374322406 0.4132241877 -0.3757966731 0.4135786337 -0.3756745562 -0.122681936 0.1221526039
360297840.0 -0.1135568197 0.1390495871 0.4094818684 -0.3803274974 0.4096056333 -0.3800189764 -0.1214431245 0.1236623819
365297810.0 -0.1124181799 0.1405213995 0.4049169667 -0.3848335937 0.4052404136 -0.3846503992 -0.1203311579 0.124932114
370297780.0 -0.1104204703 0.1415598239 0.400371499 -0.3892723688 0.4011641351 -0.3890070868 -0.1191483258 0.1265746992
375297750.0 -0.109198807 0.1427006778 0.3962421433 -0.3934293636 0.3967323838 -0.3935098096 -0.1180194066 0.1273448468
380297720.0 -0.1078085483 0.1440955092 0.3917725413 -0.3980265682 0.3919844491 -0.3969999582 -0.1170913798 0.1283760143
385297690.0 -0.1064335535 0.1454906054 0.387396273 -0.4019305041 0.387262466 -0.4019639284 -0.1156596003 0.1304726263
390297660.0 -0.1051400079 0.1468930404 0.3832818988 -0.406158651 0.3829988047 -0.4060166011 -0.1146355847 0.1312269779
395297630.0 -0.1033376203 0.1483416239 0.3788316648 -0.410447522 0.3786146297 -0.4106188145 -0.1130782409 0.1326425847
400297600.0 -0.1016689713 0.1495004552 0.3738665381 -0.4149612459 0.3739158835 -0.4148620959 -0.1120147126 0.1336925716
405297570.0 -0.1005450429 0.1504747973 0.3696680477 -0.4186256707 0.369244446 -0.4183248536 -0.1112903773 0.1350367823
410297540.0 -0.0984273836 0.151819216 0.3647344152 -0.4229775551 0.3652733234 -0.4226599897 -0.1101710914 0.1364158667
415297510.0 -0.0967215601 0.153160622 0.3598676029 -0.4267979714 0.3602813566 -0.4268966008 -0.1086907622 0.1375807041
420297480.0 -0.0951466496 0.154755669 0.3550683145 -0.4308460783 0.3552870641 -0.431272962 -0.1077520903 0.1384358076
425297450.0 -0.093482257 0.1553697402 0.350710861 -0.4343635582 0.3512831074 -0.4348801617 -0.1070009364 0.1399124247
430297420.0 -0.0918421063 0.1565766284 0.345980918 -0.4379014265 0.3461704096 -0.4379121517 -0.1050590556 0.1408939183
435297390.0 -0.0902248862 0.1578398187 0.3408154332 -0.4422455572 0.3409161136 -0.4423909178 -0.1034212437 0.141983298
440297360.0 -0.0883554027 0.1590117878 0.336356904 -0.4456126837 0.3363461912 -0.4458413067 -0.102401011 0.1428700685
445297330.0 -0.0866317659 0.1597225419 0.3314821903 -0.4492970309 0.3310996753 -0.4490428679 -0.1010103807 0.1438404464
450297300.0 -0.0848964572 0.1610430178 0.3263438158 -0.4531847245 0.3263334893 -0.4530747318 -0.0995576772 0.1447658226
455297270.0 -0.0830050633 0.1620276386 0.3216936076 -0.4566058278 0.3217924916 -0.4564419354 -0.0980039451 0.1457280099
460297240.0 -0.0815763631 0.1631906902 0.3160653021 -0.4595503386 0.31646175 -0.4602145182 -0.0966757613 0.1473569462
465297210.0 -0.0794821008 0.1641740849 0.3113357144 -0.4633171438 0.3114451051 -0.4638486104 -0.0950949139 0.1479571294
470297180.0 -0.0775827638 0.1649162366 0.3061716358 -0.4667281808 0.3064011748 -0.4665080084 -0.093768575 0.1493503918
475297150.0 -0.0761389623 0.165680447 0.3010845572 -0.4696203771 0.3009659118 -0.4697132105 -0.0919880997 0.149697353
480297120.0 -0.074242548 0.1674007939 0.2962029071 -0.4733860875 0.2957317857 -0.4736091693 -0.090037217 0.151382816
485297090.0 -0.0726031023 0.1681780168 0.2907933976 -0.4760584914 0.2912422581 -0.4762769535 -0.0891043895 0.1522812699
490297060.0 -0.0708525639 0.1690124777 0.2860175553 -0.4794917712 0.2861458764 -0.4793514989 -0.0876234491 0.1533782072
495297030.0 -0.0689100494 0.1700182265 0.2799579447 -0.4823723724 0.2810818066 -0.4822711704 -0.0862271534 0.1543744906
500297000.0 -0.0670426489 0.170709236 0.2749358262 -0.4854123914 0.2746841974 -0.4852324973 -0.0844731544 0.1558606749
505296970.0 -0.0648967329 0.1715950754 0.2698621558 -0.4882005075 0.2695983722 -0.4884235294 -0.0830927749 0.1562088637
510296940.0 -0.0632100543 0.1725797825 0.2640039439 -0.4912779689 0.2641850593 -0.4915181172 -0.0814987994 0.157564085
515296910.0 -0.0613874562 0.1733800171 0.2590865965 -0.4943625576 0.2590962209 -0.4941696173 -0.0800919779 0.1585161555
520296880.0 -0.0593457892 0.1739453129 0.2535316785 -0.4973294256 0.2535277017 -0.4970102378 -0.0787305848 0.1590325429
525296850.0 -0.0571221722 0.1744193305 0.2476043577 -0.4996210112 0.2479232636 -0.4996733732 -0.0773762582 0.1602672618
530296820.0 -0.0552442264 0.1757881796 0.2428853576 -0.5026192056 0.2425030306 -0.5024525357 -0.0756519757 0.1613809311
535296790.0 -0.0535721477 0.1763340869 0.2376039109 -0.5048559488 0.2374323283 -0.5045586539 -0.0742847436 0.1618190711
540296760.0 -0.051740803 0.1771823525 0.2317937148 -0.5078179498 0.2314479268 -0.5075053711 -0.0725396498 0.1633260252
545296730.0 -0.0500315772 0.1778953397 0.2259129849 -0.5098790539 0.2261785478 -0.5101721417 -0.0715174708 0.1638387535
550296700.0 -0.0476180135 0.1790712325 0.2208603405 -0.5125120984 0.2206072788 -0.5126550749 -0.0700657537 0.1649212904
555296670.0 -0.0458499159 0.1791918653 0.2148857148 -0.5147420719 0.2152464079 -0.5147080811 -0.0679596337 0.1658283368
560296640.0 -0.0435868726 0.1801375069 0.2095296914 -0.5174786299 0.2093286007 -0.5174312212 -0.0663663785 0.1668538791
565296610.0 -0.0419565964 0.1808090246 0.2036064893 -0.5194679448 0.2038331519 -0.5193690377 -0.0650975035 0.167309746
570296580.0 -0.0400004665 0.18134155 0.1982081217 -0.5218004361 0.1976368983 -0.5213433215 -0.0635081237 0.1684373027
575296550.0 -0.0379753079 0.1821725648 0.1926465669 -0.5238583681 0.1921803807 -0.5237201788 -0.0617145214 0.169027772
580296520.0 -0.0358055233 0.1824680407 0.1866749332 -0.5255916442 0.1866836637 -0.5256510906 -0.0599493158 0.1695630325
585296490.0 -0.0340651198 0.1826198475 0.1811614878 -0.5272416006 0.1812596937 -0.5277260084 -0.0584829358 0.170494188
590296460.0 -0.0316478606 0.183274109 0.175468649 -0.528972065 0.1750711258 -0.5295581282 -0.0574765405 0.1712431646
595296430.0 -0.029400755 0.1839139004 0.1691539627 -0.5312386447 0.1692444754 -0.5312989539 -0.0554542323 0.1714877186
600296400.0 -0.0281227031 0.184523237 0.163757827 -0.5332519872 0.1638116822 -0.5327339638 -0.0541295199 0.172162513
605296370.0 -0.025798445 0.1846790831 0.1577830651 -0.5344714083 0.1582553654 -0.5347948815 -0.0518747388 0.1728006952
610296340.0 -0.0238352904 0.1853518841 0.1516854993 -0.5363166487 0.1520873332 -0.5365872215 -0.0504637222 0.1733484611
615296310.0 -0.0215099562 0.1852837968 0.1460643885 -0.5378302022 0.1463228805 -0.5381959478 -0.0481464664 0.1738485257
620296280.0 -0.0196131959 0.1855829804 0.1407024008 -0.5391140025 0.1403532848 -0.5393652411 -0.0471314678 0.1745273703
625296250.0 -0.0176519279 0.1858829602 0.1350957817 -0.5410956612 0.1345837006 -0.541204638 -0.044630873 0.1752080935
630296220.0 -0.0148380952 0.1862768208 0.1282342925 -0.5426499519 0.1284142672 -0.5422622613 -0.0434586513 0.1759609548
635296190.0 -0.0139536991 0.1865609633 0.1227120716 -0.5434666862 0.1226568659 -0.5434462261 -0.0417860986 0.1763169077
640296160.0 -0.011608825 0.1868418367 0.1169622858 -0.5442666138 0.1172097737 -0.5447987447 -0.0397844608 0.1767163717
645296130.0 -0.009388034 0.1872999984 0.1111060164 -0.5455832809 0.1113226352 -0.5461288006 -0.0379192266 0.1772049154
650296100.0 -0.0072834832 0.1875476469 0.1050647421 -0.5471794492 0.1051038156 -0.5470577431 -0.0359693668 0.1775515458
655296070.0 -0.0054764248 0.1875375481 0.0994422961 -0.548193754 0.0993922443 -0.5483795989 -0.034226519 0.17819627
660296040.0 -0.0035367178 0.1875107867 0.0933120475 -0.5491088502 0.093494029 -0.549574779 -0.0323310673 0.1786988847
665296010.0 -0.0008694188 0.1879694711 0.0868226772 -0.5505069034 0.0874291422 -0.5501476558 -0.0308574796 0.1798451875
670295980.0 0.0002163061 0.1882757862 0.0814659295 -0.5507570544 0.0815908509 -0.5509903537 -0.0293990333 0.1797935433
675295950.0 0.002485433 0.1883465369 0.0756158474 -0.5515632014 0.075792197 -0.5512214659 -0.0279671693 0.180404892
680295920.0 0.0047269344 0.1881290317 0.0691397357 -0.5526640383 0.069048382 -0.5529260063 -0.0257552122 0.1814647679
685295890.0 0.0069132766 0.1889738781 0.0633643935 -0.5532701586 0.0631158565 -0.5536217373 -0.0238837176 0.1812718632
690295860.0 0.009349182 0.1884720284 0.0567649021 -0.5536253043 0.0573921021 -0.5539493054 -0.02216045 0.1823471612
695295830.0 0.0110167162 0.1885847677 0.0522958041 -0.554463556 0.0512881211 -0.5543784776 -0.020298464 0.1824397358
700295800.0 0.0133481555 0.1883566598 0.0453448957 -0.5547467322 0.0450587504 -0.5548486063 -0.0189499004 0.1832350084
705295770.0 0.0151500493 0.1889601064 0.0393798789 -0.5553355244 0.0398928081 -0.5554107278 -0.016989347 0.1837809352
710295740.0 0.0177534585 0.1887747466 0.0334658349 -0.5562030817 0.0339674109 -0.5560582819 -0.0152859939 0.1834695591
715295710.0 0.0190157373 0.1885483577 0.0278669943 -0.5563869858 0.0273268849 -0.5562255281 -0.0134139137 0.1838206629
720295680.0 0.0214674585 0.1883347302 0.0215363149 -0.5564033634 0.021837346 -0.5565153523 -0.0116011867 0.1846484268
725295650.0 0.0234555531 0.18815032 0.0155630483 -0.5563436031 0.0156508664 -0.5566132207 -0.0102731574 0.1849281848
730295620.0 0.0259277505 0.1887656423 0.0092625127 -0.5563602525 0.0096296135 -0.5566936935 -0.0084281688 0.1847667309
735295590.0 0.0277702866 0.188477975 0.0037809489 -0.5566782682 0.0035029464 -0.5567728043 -0.006897604 0.1850883587
740295560.0 0.02980341 0.1884087413 -0.0024853792 -0.5566409815 -0.0026157308 -0.5566415265 -0.0042871457 0.1855371968
745295530.0 0.0319066076 0.1879648925 -0.0087389496 -0.5559912876 -0.0085257681 -0.5560202007 -0.0028845312 0.1850926973
750295500.0 0.0342087837 0.187742074 -0.0144839962 -0.5562877501 -0.0143547713 -0.5561917257 -0.0009919027 0.185595005
755295470.0 0.0360813799 0.1875486221 -0.0201068757 -0.5562925966 -0.0206272767 -0.5564422272 0.0007288911 0.1854321336
760295440.0 0.0379811799 0.1871068439 -0.026517388 -0.5563440368 -0.0264971747 -0.5560971231 0.0024972707 0.1855898127
765295410.0 0.0400846071 0.1868696513 -0.0323394352 -0.5553111657 -0.0329767059 -0.5555217028 0.0042813849 0.1859827094
770295380.0 0.0420274498 0.1864508424 -0.0388685063 -0.5548774559 -0.0384288662 -0.5548212391 0.0059214564 0.1857060925
775295350.0 0.0437724212 0.1858687644 -0.044539957 -0.5542796795 -0.044155912 -0.5547319784 0.0071784092 0.1860336788
780295320.0 0.0462665504 0.1859108403 -0.050447451 -0.5536738155 -0.050022452 -0.5539570823 0.009173268 0.1856187977
785295290.0 0.0479768943 0.1848586724 -0.0563247884 -0.5530274119 -0.0564787624 -0.5532416543 0.0116722984 0.1858715622
790295260.0 0.0505219056 0.185333423 -0.0619707501 -0.5528746422 -0.061588508 -0.552629965 0.0133963195 0.1861519369
795295230.0 0.0524213617 0.1845497332 -0.0683210242 -0.551586964 -0.0676416816 -0.5521010302 0.0153157811 0.1861053812
800295200.0 0.0539832086 0.1840427101 -0.0745308143 -0.5507810876 -0.0740875074 -0.551308609 0.0172514439 0.1861471396
805295170.0 0.0562207691 0.1832105311 -0.0797418652 -0.5500281082 -0.0802217633 -0.5505525531 0.0189261089 0.186086394
810295140.0 0.0580062042 0.1828480154 -0.0855898167 -0.5492059668 -0.0861909857 -0.5495197723 0.0210729993 0.1863067472
815295110.0 0.0602479974 0.182165946 -0.0921263046 -0.5479633786 -0.0916535771 -0.5482322644 0.0225456555 0.1857339656
820295080.0 0.0618518128 0.1820569587 -0.0978757929 -0.5470584341 -0.0971669046 -0.5473815329 0.0249561698 0.1860532882
825295050.0 0.0646373662 0.1814795281 -0.1030558062 -0.5459350053 -0.103837386 -0.546105461 0.0263998804 0.1856667682
830295020.0 0.0663686455 0.1809232047 -0.1097270318 -0.5447515253 -0.1095973379 -0.5450849927 0.0293501229 0.1860437916
