!Created with skrf (http://scikit-rf.org).
# Hz S RI R 50.0 
!freq ReS11 ImS11 ReS21 ImS21 ReS12 ImS12 ReS22 ImS22
300000.0 0.8596728379 -0.0029517315 0.0001225464 0.000212915 -0.0004296648 0.0004659161 -0.7792456353 -0.1270886866
5299970.0 0.8593668281 -0.0098094571 3.5003e-05 -0.000148513 3.98093e-05 -7.60173e-05 -0.7844751617 -0.0066725875
10299940.0 0.8580834388 -0.0185546777 -9.9421e-06 -1.56056e-05 -6.47117e-05 2.9612e-06 -0.7875863955 -0.0034393389
15299910.0 0.8572469704 -0.027158148 8.02303e-05 -0.0002871048 0.0001740885 -7.4643e-05 -0.7928731706 -0.0014763475
20299880.0 0.8566279592 -0.0358180305 2.64724e-05 -0.0002774361 0.0001096411 0.0001749331 -0.7997280586 0.0024898568
25299850.0 0.8556710272 -0.0442008462 -7.71454e-05 -0.0001546575 2.62875e-05 -0.0001408361 -0.8059084214 0.0086012619
30299820.0 0.8548484064 -0.0523707027 -0.0001363478 -3.33164e-05 0.0001922202 0.0001416804 -0.8119821451 0.0166247458
35299790.0 0.85457241 -0.0602929742 -6.02876e-05 -0.0001354196 5.99975e-05 5.28259e-05 -0.8171513659 0.0254322098
40299760.0 0.8527605983 -0.0696582108 0.0001933794 -5.9762e-06 5.25414e-05 8.1723e-06 -0.8214013573 0.034222329
45299730.0 0.8532960549 -0.0775886319 -0.0002011242 1.98005e-05 -6.38198e-05 -1.53154e-05 -0.825314493 0.0442221682
50299700.0 0.8521837691 -0.0853497875 -9.49318e-05 -7.62975e-05 0.0001650941 6.38593e-05 -0.8275213676 0.054169273
55299670.0 0.850645574 -0.0936610457 0.0001200914 7.09289e-05 5.18272e-05 -0.0002107846 -0.8295845638 0.064290422
60299640.0 0.8498734505 -0.1017579649 -0.0001317502 -2.8935e-05 2.99439e-05 6.9215e-05 -0.8305441187 0.0746048882
65299610.0 0.8487260292 -0.1102791479 0.0001416433 -4.08364e-05 0.0001302842 -5.77146e-05 -0.8319633746 0.0841374768
70299580.0 0.8476821964 -0.118985682 -0.0001027918 -8.77251e-05 0.000104656 3.2256e-05 -0.8322499639 0.0946438844
75299550.0 0.8462744743 -0.1269964344 4.70418e-05 3.90129e-05 0.0001480404 -0.0001730669 -0.8320743471 0.1042867949
80299520.0 0.8445942679 -0.1352988914 0.0001753023 -3.95614e-05 -0.0001379687 4.36258e-05 -0.8325239698 0.1138516588
85299490.0 0.8432476337 -0.1435047056 -7.20363e-05 -0.0001079884 -3.01475e-05 0.00013334 -0.8322466269 0.1239724819
90299460.0 0.8419427336 -0.1510219845 9.04138e-05 8.2951e-05 -7.19539e-05 9.73179e-05 -0.8308160938 0.1334616798
95299430.0 0.8398950287 -0.1605113317 0.0001098046 -0.0001895617 6.9814e-06 0.0002899268 -0.8291868114 0.1432539011
100299400.0 0.8383490867 -0.1679121355 3.00518e-05 8.10292e-05 -9.33404e-05 -8.10991e-05 -0.8286053771 0.1524986156
105299370.0 0.837208479 -0.1758798825 -0.0001399112 -0.0001077565 -5.29604e-05 -0.0001034551 -0.8272790194 0.1613860631
110299340.0 0.8355284675 -0.184464705 -9.78324e-05 0.0001263471 0.0001095998 -0.0003032775 -0.8257444399 0.1708530799
115299310.0 0.833318608 -0.1926197176 -0.0001290478 -0.0001754936 5.26143e-05 5.63252e-05 -0.8243780655 0.180154935
120299280.0 0.8311921448 -0.2005336768 5.88674e-05 -2.87732e-05 -3.893e-05 8.29543e-05 -0.8225010963 0.1891337585
125299250.0 0.8291893153 -0.2089462254 0.000149328 -0.0001275214 -3.7154e-05 9.54388e-05 -0.8208606328 0.1981854179
130299220.0 0.8272837615 -0.2165437567 1.48752e-05 -0.0001597626 -0.0001604584 5.53258e-05 -0.8188632768 0.206957824
135299190.0 0.8250798145 -0.2245622925 2.48463e-05 -0.0002156759 -0.0001776562 3.09833e-05 -0.8165037867 0.2163158931
140299160.0 0.8225506075 -0.2322618649 -6.8645e-05 -2.52129e-05 -8.62741e-05 8.4861e-06 -0.8144976558 0.2251549066
145299130.0 0.8200448478 -0.2410940227 -0.0001771747 0.0001397128 0.0001233593 -0.000102637 -0.8123852446 0.2343190191
150299100.0 0.8179360984 -0.2490624248 -3.84808e-05 -0.0002052693 6.27823e-05 8.80189e-05 -0.8108461137 0.2430343222
155299070.0 0.8154185925 -0.2572864144 -0.0002092474 -0.0001022579 3.61326e-05 -0.0001086726 -0.8070764485 0.2520790611
160299040.0 0.8127750093 -0.2651740473 0.000236777 0.0002203054 4.17874e-05 4.54625e-05 -0.8050468922 0.2612302543
165299010.0 0.8104580379 -0.2730259657 3.03301e-05 0.0001795848 0.0001028583 -2.73157e-05 -0.8024023681 0.2691195408
170298980.0 0.807262783 -0.2805343215 3.65002e-05 4.10268e-05 -4.20718e-05 7.78476e-05 -0.7990988843 0.2783104291
175298950.0 0.804342535 -0.2887281951 -4.48679e-05 -0.0002018543 -8.08487e-05 -6.83833e-05 -0.797300148 0.2869663961
180298920.0 0.8022344366 -0.2965625397 -0.0001517338 9.22377e-05 -0.0001341739 -1.01048e-05 -0.7936936397 0.295240777
185298890.0 0.7987344615 -0.3048085672 8.53756e-05 0.0002898539 8.4762e-06 0.000170628 -0.7902731923 0.3042791838
190298860.0 0.7955857964 -0.3120051436 -2.55387e-05 0.0001127306 -3.2443e-05 -8.30827e-05 -0.7879643022 0.3120713137
195298830.0 0.7928665112 -0.3197777241 2.0104e-06 -3.98973e-05 -2.46228e-05 -4.15452e-05 -0.7845997236 0.3210540101
200298800.0 0.7890226385 -0.3272067466 0.0001656524 0.0001567881 -0.0001176952 -1.11145e-05 -0.781552269 0.3298702471
205298770.0 0.7857709595 -0.335138029 2.41326e-05 5.656e-05 -8.12525e-05 2.53565e-05 -0.7778105294 0.3371323556
210298740.0 0.7824398212 -0.342640259 2.54527e-05 0.0001473854 9.3835e-06 -9.39635e-05 -0.774196868 0.3462025537
215298710.0 0.7786727067 -0.3506486568 -9.9596e-06 4.39955e-05 -6.0212e-05 0.000143609 -0.770717908 0.3541565683
220298680.0 0.7756651595 -0.3582410256 -0.0001649889 6.05103e-05 8.962e-07 -0.0001833667 -0.7671112965 0.3622837575
225298650.0 0.772268825 -0.3662317547 -7.07546e-05 -4.958e-07 -1.00133e-05 -0.0001184082 -0.7637485091 0.3706615914
230298620.0 0.7685588642 -0.373306683 -5.38436e-05 -4.56005e-05 -4.19461e-05 -7.59072e-05 -0.7597593329 0.3795325604
235298590.0 0.7643692159 -0.3805054937 -8.6031e-06 -7.06011e-05 8.29021e-05 -0.0001191856 -0.75546818 0.3871035273
240298560.0 0.7609273581 -0.3880914342 -0.0001843649 1.40021e-05 -2.5606e-06 0.0001113689 -0.7517660385 0.3951890456
245298530.0 0.7565524395 -0.3959279711 -0.0001400439 -0.0001706358 8.01206e-05 3.04651e-05 -0.7480104503 0.4028490684
250298500.0 0.7527819706 -0.4026372332 -6.47776e-05 -6.05128e-05 5.98275e-05 0.0001317336 -0.743601277 0.4104482279
255298470.0 0.7490275747 -0.4105656244 -8.99815e-05 -6.0286e-05 -3.29338e-05 0.0001853108 -0.7390059959 0.4178234412
260298440.0 0.7448634666 -0.417705144 0.0001425069 -9.26377e-05 0.0001154107 -3.38277e-05 -0.7348040995 0.4264191201
265298410.0 0.7409247748 -0.424613712 -9.40885e-05 6.25355e-05 2.7197e-05 -9.26525e-05 -0.7304826004 0.4340505877
270298380.0 0.736683212 -0.431851397 -8.3963e-06 0.0001351463 0.0001111747 -8.92187e-05 -0.7252397058 0.4413300493
275298350.0 0.7325452645 -0.4395631307 -6.59629e-05 -2.59915e-05 -1.76357e-05 -8.11073e-05 -0.7203672757 0.4488798003
280298320.0 0.7274987076 -0.4462827745 -6.50679e-05 -0.0002216681 -5.01257e-05 -7.22517e-05 -0.7159409375 0.4562520987
285298290.0 0.7244571446 -0.4537596021 2.44175e-05 -0.0002520672 -0.0001405412 0.0001544034 -0.7107034304 0.4638730338
290298260.0 0.7191244151 -0.4603585009 -0.0001693526 -3.99604e-05 -0.0002242926 1.94603e-05 -0.7062098737 0.4714418388
295298230.0 0.715616081 -0.4677497208 -0.0001317468 0.0001619157 7.8715e-05 -6.74365e-05 -0.701165716 0.4782279936
300298200.0 0.7113095698 -0.4750789443 0.000180393 1.35067e-05 -0.0001613048 -0.0001708477 -0.6957937408 0.4859197529
305298170.0 0.7066604363 -0.4818649891 0.0002484428 -5.89123e-05 -2.05385e-05 -2.02232e-05 -0.6902046039 0.4930029962
310298140.0 0.7020271323 -0.4889361145 0.0001663056 0.0001108173 0.0001124217 -0.0002182054 -0.6856317672 0.5002489397
315298110.0 0.6980021444 -0.4969877545 -8.36381e-05 -0.0001250045 -0.0001717988 -5.62446e-05 -0.6799299314 0.5067851744
320298080.0 0.6928992065 -0.5040399419 0.0003449858 0.0001526144 -2.5118e-06 -0.0001972725 -0.674390234 0.5147399638
325298050.0 0.6874224703 -0.5110437641 -2.2099e-05 9.07804e-05 -9.68067e-05 1.46652e-05 -0.6686038848 0.5211469719
330298020.0 0.6813939448 -0.5188491764 -0.0002599901 2.72676e-05 0.0001388548 -4.98246e-05 -0.6631831617 0.5285388838
335297990.0 0.6754706364 -0.525891759 -0.0003618344 -4.46097e-05 -0.0003246522 -4.7165e-05 -0.6579693711 0.5353573924
340297960.0 0.6694996357 -0.5321591073 -0.0002224878 2.12679e-05 -0.0001779526 0.0001714174 -0.6524063841 0.5423809434
345297930.0 0.6633778563 -0.5384815289 6.79702e-05 -4.74935e-05 6.22202e-05 0.0001414532 -0.6467125256 0.5488304641
350297900.0 0.6579113258 -0.5443229537 8.56162e-05 -0.0002100098 -7.5786e-05 1.52381e-05 -0.6413341451 0.5556970462
355297870.0 0.6524492462 -0.5503936605 -8.89453e-05 8.4273e-06 -3.74092e-05 -2.67735e-05 -0.6356988889 0.562072679
360297840.0 0.6463856106 -0.5567297018 -2.31959e-05 5.85016e-05 -4.79582e-05 -0.0001080042 -0.6291872756 0.5685622945
365297810.0 0.6403603577 -0.5628626762 -7.1709e-05 0.0002061322 2.98769e-05 0.0001856851 -0.6230703291 0.5750633342
370297780.0 0.6357596046 -0.5688124642 -0.0001171348 0.000257843 -6.86628e-05 -7.22873e-05 -0.6170772881 0.5821951475
375297750.0 0.6291930402 -0.5747766181 -7.71248e-05 0.0002036579 -4.121e-07 -0.0002490211 -0.6113649203 0.5875867526
380297720.0 0.6234723186 -0.5809111533 -1.3221e-05 -9.31525e-05 7.4047e-06 0.0001417744 -0.6053461059 0.5945205534
385297690.0 0.6177720131 -0.5870263718 -3.84935e-05 4.50752e-05 -0.0001084885 -1.84379e-05 -0.5988990894 0.600850708
390297660.0 0.6115522322 -0.5927883885 -2.95349e-05 -5.42346e-05 6.76124e-05 4.39381e-05 -0.5930312365 0.6072509505
395297630.0 0.606523432 -0.5985803905 0.0001175285 0.0001665256 -0.0001431288 -3.65195e-05 -0.5862210746 0.6131467083
400297600.0 0.6002734859 -0.6045461011 2.16414e-05 -5.5086e-06 -9.35473e-05 -6.12657e-05 -0.5804199569 0.6195021241
405297570.0 0.5939868964 -0.6100406883 0.0002847432 -0.0001481816 0.0001332493 -2.72767e-05 -0.5738140837 0.6251873655
410297540.0 0.5876072357 -0.6161683769 -2.44138e-05 -0.0001606945 -0.0002174179 -1.93865e-05 -0.5671992236 0.6309053647
415297510.0 0.5814016873 -0.6218230326 -5.75575e-05 5.50436e-05 6.68944e-05 -3.57121e-05 -0.561163509 0.6368066706
420297480.0 0.5754267553 -0.6272010389 -3.18942e-05 -3.58486e-05 6.2602e-06 -6.36341e-05 -0.5543111888 0.6427460162
425297450.0 0.5689760481 -0.633011059 2.53224e-05 5.97997e-05 0.0001589583 9.30689e-05 -0.5481463128 0.6486284678
430297420.0 0.5622335516 -0.6378856596 -2.33728e-05 -2.0584e-06 1.2718e-05 0.0001523415 -0.5415113192 0.6533064557
435297390.0 0.5568415538 -0.6435576792 0.0001088014 -0.0002256221 -4.5315e-06 -1.33747e-05 -0.5339438689 0.6588008546
440297360.0 0.5498349123 -0.649762853 -0.0002386374 3.26143e-05 7.69918e-05 -0.0001043985 -0.5273190486 0.6640087935
445297330.0 0.5435032814 -0.6546695564 -0.0001458902 -9.17014e-05 5.42285e-05 0.0001915326 -0.5205427665 0.6687094698
450297300.0 0.5371081577 -0.6592550307 3.50592e-05 -1.71969e-05 -8.95333e-05 0.0001086509 -0.5132682187 0.6741484338
455297270.0 0.5304776248 -0.664922167 2.58249e-05 -9.86301e-05 8.07645e-05 -6.87218e-05 -0.5060662844 0.6788041613
460297240.0 0.5240104403 -0.6697724001 -3.81143e-05 0.0001260329 1.32505e-05 0.0002136507 -0.4997543876 0.6839223921
465297210.0 0.5170883356 -0.6752499924 -6.25863e-05 -9.59691e-05 -8.79532e-05 9.5759e-06 -0.4920964658 0.6896047568
470297180.0 0.5099173411 -0.6797712416 -0.0001810636 0.0001173904 6.29325e-05 7.94918e-05 -0.4844584093 0.694467608
475297150.0 0.5039823718 -0.6853481083 4.10629e-05 -7.26062e-05 -0.0004143992 -0.0002556625 -0.4775012398 0.6985759041
480297120.0 0.4964752781 -0.6898516473 0.0002042901 0.0001082996 -8.43733e-05 -0.0002250708 -0.4698727615 0.7034574095
485297090.0 0.4895422724 -0.6948093173 -5.35016e-05 -0.0001742864 -0.0001054571 9.54442e-05 -0.4628193354 0.708667823
490297060.0 0.4825804633 -0.6990907571 0.0001894241 -0.0001683434 5.54364e-05 0.0001076782 -0.4557369653 0.7129307217
495297030.0 0.4760576797 -0.7038129635 -8.95254e-05 4.40614e-05 -0.0001023919 0.0001929033 -0.4483177458 0.7181503529
500297000.0 0.468927707 -0.7084440333 0.0001301769 -0.0001887229 -6.76114e-05 0.0002830984 -0.4404661988 0.7226698629
505296970.0 0.4620173531 -0.7129739715 0.0002301214 3.95156e-05 -0.0001139772 7.63401e-05 -0.4330839673 0.7264811821
510296940.0 0.4541166733 -0.7182148395 2.27163e-05 6.46253e-05 -5.43651e-05 -4.28103e-05 -0.425830622 0.7309859615
515296910.0 0.4477922722 -0.721775658 7.72726e-05 -0.0001037289 -1.96161e-05 3.50468e-05 -0.4184777346 0.735464057
520296880.0 0.4401973966 -0.7264100087 0.0003105112 7.37353e-05 -0.0001950438 0.0001238598 -0.4112114115 0.7390978369
525296850.0 0.4331639273 -0.7306005869 0.0001732811 4.22707e-05 -7.01577e-05 -0.0001855944 -0.4035722689 0.7439948379
530296820.0 0.4255455383 -0.7341991617 -4.05688e-05 -0.0002024246 -9.71223e-05 8.4399e-06 -0.3961100629 0.7479437999
535296790.0 0.4183684686 -0.7384584211 0.0001327465 -0.0001992081 1.5308e-06 -5.87013e-05 -0.3884059667 0.7516549901
540296760.0 0.4110995254 -0.7427969707 2.17202e-05 0.0001451882 -0.000110434 0.0001606095 -0.3806299897 0.7561329007
545296730.0 0.4031646907 -0.7463937329 -2.32907e-05 -6.5771e-06 -5.40439e-05 -5.09695e-05 -0.3727999423 0.7598423782
550296700.0 0.3965838254 -0.749504172 -0.0001696682 0.0001184599 -0.0003311938 0.0001271012 -0.3653026956 0.7632950183
555296670.0 0.3890637281 -0.7539048115 -0.0001071517 -4.70549e-05 2.48432e-05 0.0002738043 -0.3579345811 0.7677988739
560296640.0 0.3810069102 -0.7577082215 0.0001265394 0.0001602619 -0.0001134238 0.0001310459 -0.3499868662 0.7714332549
565296610.0 0.3732679638 -0.7611536881 -4.10447e-05 7.68359e-05 -0.0001137909 -5.5375e-06 -0.3418568271 0.7741298497
570296580.0 0.365947248 -0.764622172 -0.000177327 6.46663e-05 -6.59993e-05 7.97941e-05 -0.3344684331 0.7781601652
575296550.0 0.358452613 -0.7677703391 -3.39519e-05 3.23981e-05 8.6969e-05 -5.08203e-05 -0.3267693791 0.7808879283
580296520.0 0.3508803639 -0.7720856162 0.0001371471 2.82856e-05 -3.64633e-05 0.0002197232 -0.3181090023 0.7842167599
585296490.0 0.3426663286 -0.7754504846 4.02573e-05 -6.87752e-05 -6.18755e-05 3.65984e-05 -0.3103133231 0.787951947
590296460.0 0.3354692342 -0.7776289182 -4.36631e-05 0.0001158733 -0.0001179063 0.000109886 -0.3027641573 0.7904497601
595296430.0 0.3269397852 -0.7815696315 -9.39633e-05 4.15079e-05 0.0001328423 -0.0002003709 -0.2946192595 0.792839619
600296400.0 0.3194919174 -0.7839521324 -0.000134524 -8.31056e-05 0.0001052325 2.38023e-05 -0.2865684871 0.7958246978
605296370.0 0.311411977 -0.7877186209 0.0001495345 3.02927e-05 -0.000110492 -3.18558e-05 -0.2778762327 0.7987114694
610296340.0 0.3039329562 -0.7901923351 0.0001374172 2.72291e-05 -3.64055e-05 0.0001851774 -0.2700211038 0.8013705633
615296310.0 0.29661301 -0.7936480546 -0.0001922674 -4.10997e-05 -7.33945e-05 -0.0001830382 -0.2616606199 0.8038265792
620296280.0 0.2882426294 -0.7959276846 6.99996e-05 3.60779e-05 -3.04471e-05 3.72118e-05 -0.2540934269 0.8065458044
625296250.0 0.2803261547 -0.7983599983 0.0001602484 -2.32684e-05 -2.21041e-05 -7.07968e-05 -0.2450114026 0.8082426723
630296220.0 0.2725368051 -0.8012100264 8.50119e-05 2.49015e-05 7.24073e-05 -8.96164e-05 -0.2371267035 0.8109256978
635296190.0 0.2641787953 -0.8043797875 2.49734e-05 -0.0003910631 -0.0001402126 -0.0001038881 -0.2294105795 0.8129467921
640296160.0 0.2558062756 -0.8069747475 3.5846e-05 4.6194e-06 -0.0001320393 -0.0001006401 -0.2210656135 0.8152647911
645296130.0 0.247711761 -0.8083217657 9.6465e-05 9.67261e-05 -0.0002396252 0.0001367856 -0.2128483295 0.817379087
650296100.0 0.2394192806 -0.8108841836 -0.0001843384 3.9325e-05 -9.04492e-05 -1.62957e-05 -0.204819294 0.8189195189
655296070.0 0.2314214859 -0.8134514526 -0.0002713814 9.42669e-05 0.0001172519 0.0001352924 -0.1957642777 0.8207090242
660296040.0 0.2231977518 -0.8156700135 0.0003346335 -1.2929e-05 4.2759e-06 -0.0001088131 -0.1873165204 0.8235180077
665296010.0 0.2159590448 -0.8172373531 0.0001142614 -0.0001208956 -0.0002600435 0.000167419 -0.1788220044 0.8252018237
670295980.0 0.2074071779 -0.8197470147 1.68792e-05 0.0001422413 -0.000190222 1.40324e-05 -0.1717470933 0.8270278398
675295950.0 0.1992801518 -0.8211337297 7.73687e-05 -0.0003510758 0.0001151282 -4.02441e-05 -0.1627531895 0.828498355
680295920.0 0.1911394868 -0.8230380904 0.0001534859 0.0002128901 1.23241e-05 4.04463e-05 -0.1544215873 0.8311971734
685295890.0 0.1832731949 -0.8243596294 0.0001404155 -8.61593e-05 -0.0001530084 0.0001292757 -0.1462388395 0.8315065895
690295860.0 0.1740895498 -0.826367856 -5.28578e-05 0.0001764183 -0.000137532 0.0001870432 -0.1379631376 0.8337703963
695295830.0 0.1665509918 -0.8281451497 -0.0001047161 0.0001551958 0.0001268281 1.44818e-05 -0.1291070618 0.8348299713
700295800.0 0.1582534133 -0.8294013474 -5.67624e-05 6.03846e-05 -1.54521e-05 -0.000123264 -0.1214057143 0.8361089089
705295770.0 0.1497047111 -0.8304597275 1.41636e-05 -1.09673e-05 0.0001384752 -0.000129227 -0.1130167223 0.8385695768
710295740.0 0.1408596903 -0.8319496567 4.089e-05 -0.0002996101 -4.22959e-05 7.45074e-05 -0.1042679451 0.8383479561
715295710.0 0.1329724535 -0.8341201527 -2.9559e-05 -6.932e-06 5.7405e-06 -9.63895e-05 -0.0963826203 0.8398203858
720295680.0 0.1250340962 -0.8351125069 0.0001628837 1.20334e-05 -8.41096e-05 7.26455e-05 -0.0873042671 0.840756742
725295650.0 0.1162858968 -0.8353328492 0.000109609 -5.03598e-05 -0.0001866567 -0.000105902 -0.0792354627 0.8419818879
730295620.0 0.1079476814 -0.8361181195 1.23027e-05 -0.0001889987 -4.39587e-05 -4.81495e-05 -0.0712975158 0.842543108
735295590.0 0.0998500242 -0.8368283989 -3.86156e-05 0.0002374729 -1.062e-06 -4.88518e-05 -0.0625492474 0.8430227425
740295560.0 0.0911556175 -0.8382063688 0.0001006398 -0.0003562153 5.00997e-05 1.768e-07 -0.0535443578 0.8443596454
745295530.0 0.0826997944 -0.8389343584 -3.94725e-05 2.19645e-05 2.79416e-05 -1.03867e-05 -0.045250544 0.8443149596
750295500.0 0.0745835755 -0.8395041961 1.86994e-05 1.99982e-05 0.0001694939 -7.61134e-05 -0.0374470448 0.8443514066
755295470.0 0.0658416203 -0.8397180573 0.0001801517 9.54848e-05 -9.4744e-06 -4.99683e-05 -0.0284953806 0.8443616549
760295440.0 0.0575390826 -0.8404049211 -8.0766e-06 5.5824e-06 -0.0001788935 1.3143e-05 -0.0202762119 0.8445417252
765295410.0 0.0494235544 -0.8409177079 -0.0002150049 -9.31002e-05 -8.29558e-05 -0.0001269075 -0.0119592604 0.8448491967
770295380.0 0.0406755574 -0.8412035795 0.0001375265 9.71342e-05 -6.38088e-05 0.0001571384 -0.003717025 0.8448217678
775295350.0 0.0322136612 -0.8416271903 0.0001476636 -8.08449e-05 -5.37524e-05 -7.39834e-05 0.0045031754 0.8443153725
780295320.0 0.0237591265 -0.8414291869 -7.26254e-05 -0.0002251614 1.57357e-05 -6.56629e-05 0.0125950324 0.84383812
785295290.0 0.015322279 -0.842143502 8.87801e-05 -2.1235e-05 -6.95369e-05 1.06454e-05 0.0217006434 0.8438538905
790295260.0 0.0071365232 -0.841070338 -0.0001532977 -0.0002574431 7.67998e-05 -4.56183e-05 0.030229544 0.8439815994
795295230.0 -0.001333102 -0.8414237449 -7.50076e-05 5.9755e-06 -0.0001637374 0.0002054206 0.0387805081 0.8429795124
800295200.0 -0.0098097631 -0.8414157823 -0.0001866385 0.0002289872 0.0001069441 0.0001269509 0.0477612855 0.8427208765
805295170.0 -0.0186451018 -0.8411253879 6.14781e-05 -0.0003433686 0.0001704645 -7.19049e-05 0.0551755028 0.842226235
810295140.0 -0.026218398 -0.8404689302 1.01931e-05 0.0002612444 2.6292e-06 0.0001038523 0.0641938042 0.8410796875
815295110.0 -0.035054617 -0.8401581285 0.00028533 -0.0002317219 0.0002097885 0.0003814562 0.0719869876 0.8406615426
820295080.0 -0.0432410781 -0.8392843776 0.0001221666 -5.10665e-05 0.0001226585 -9.15223e-05 0.0804899741 0.840228276
825295050.0 -0.0520381247 -0.8386123082 5.3447e-05 5.74259e-05 0.0002449489 -9.59809e-05 0.089207922 0.8394861398
830295020.0 -0.0601784952 -0.8382253159 -3.22852e-05 -4.16514e-05 -1.20727e-05 -0.0001508677 0.0982505449 0.8382300628
835294990.0 -0.0686112676 -0.8373563419 0.00016133 -0.0002701163 0.000167166 -0.000257166 0.1056664428 0.8375916501
840294960.0 -0.0764948065 -0.8365286852 -4.4311e-06 -2.74706e-05 2.68092e-05 6.38292e-05 0.1146591916 0.8364288496
845294930.0 -0.0848831566 -0.8362515729 -4.26374e-05 -0.0001444827 7.86614e-05 -0.0001464242 0.1224513551 0.8345942715
