!Created with skrf (http://scikit-rf.org).
# Hz S RI R 50.0 
!freq ReS11 ImS11 ReS21 ImS21 ReS12 ImS12 ReS22 ImS22
300000.0 -0.2428060423 -0.0864012371 0.4737944637 0.0593037311 0.4710955022 0.0546295669 -0.2406527131 -0.0953824196
5299970.0 -0.2449921567 0.0067373098 0.4746244553 0.0049880872 0.4748807585 0.0045607815 -0.2407860617 0.0077228909
10299940.0 -0.2417093102 0.0181726719 0.4766948982 0.0058133254 0.4767051948 0.0058137017 -0.2375286131 0.0207852476
15299910.0 -0.2376194134 0.02695686 0.4802911405 0.0072216683 0.4806155739 0.0072229629 -0.2329484592 0.0300327982
20299880.0 -0.2328205106 0.0340856476 0.4849575252 0.0079499741 0.4850846012 0.0076795976 -0.2279956266 0.0382006367
25299850.0 -0.2277545454 0.0402744339 0.4900211769 0.0072611566 0.4902358538 0.0070687456 -0.2217828049 0.0447053576
30299820.0 -0.2227225957 0.0450672388 0.4955208132 0.0045678978 0.4957005139 0.004749475 -0.2160123969 0.0502314506
35299790.0 -0.2174490635 0.0492076665 0.5008139477 0.0011899439 0.5011825289 0.0014109733 -0.2108365294 0.0546776772
40299760.0 -0.2124082348 0.0524805723 0.5058359417 -0.0026245605 0.5059347975 -0.0024007795 -0.2050386178 0.0576511546
45299730.0 -0.2082409608 0.0550214363 0.5104447403 -0.0069544915 0.5109281823 -0.0070101432 -0.1999956729 0.0606149698
50299700.0 -0.2039260019 0.0568046954 0.5151176796 -0.0127106242 0.5151731876 -0.0125013552 -0.1956343015 0.0625740851
55299670.0 -0.1997263087 0.0584384584 0.5188296995 -0.0191249657 0.5186094485 -0.0185004203 -0.1913710623 0.0644521596
60299640.0 -0.19568514 0.0601377864 0.5217488132 -0.0253336841 0.5222367843 -0.0248919325 -0.1871499382 0.0655627295
65299610.0 -0.192870197 0.0610635983 0.5242809685 -0.0314149613 0.5247557225 -0.0313624358 -0.1840692868 0.0666735526
70299580.0 -0.1898305272 0.0622223618 0.5273345983 -0.0378660121 0.5269484227 -0.0378645551 -0.1806658516 0.0677608404
75299550.0 -0.1872147556 0.0629420595 0.5284208405 -0.0448005263 0.5290647745 -0.044775358 -0.178019397 0.0684332622
80299520.0 -0.1849069848 0.0636694648 0.5311435648 -0.0515144256 0.530932208 -0.0519056085 -0.175190859 0.069379735
85299490.0 -0.1824753065 0.0641573339 0.5317632184 -0.0584281741 0.5322951923 -0.0582324282 -0.1731636059 0.0695362177
90299460.0 -0.1801491183 0.0647362939 0.5327032932 -0.0657181165 0.5337401171 -0.0654172347 -0.1704975646 0.0701782751
95299430.0 -0.1782765903 0.0654769003 0.5339392133 -0.0722361993 0.5340798924 -0.0726072967 -0.1683098009 0.0711919987
100299400.0 -0.1765893937 0.0663887801 0.5335281963 -0.0789734487 0.5337106467 -0.0794230961 -0.1658125643 0.0714421884
105299370.0 -0.1747161993 0.0671132172 0.5345542047 -0.0866581467 0.5345959007 -0.0859592723 -0.1641673583 0.0721952324
110299340.0 -0.1735663209 0.0675353218 0.5348942449 -0.0928008371 0.5346336916 -0.0927838221 -0.162784098 0.0728086959
115299310.0 -0.171879252 0.068121815 0.5348468622 -0.0996848775 0.5347843977 -0.0999988471 -0.1611962656 0.0739490603
120299280.0 -0.1706538751 0.0686312321 0.5346880641 -0.1066715599 0.5343123699 -0.1066908755 -0.1593928841 0.0744865338
125299250.0 -0.1694763271 0.0691695767 0.5340315659 -0.1130766751 0.5341281097 -0.113058873 -0.1586318111 0.0747725986
130299220.0 -0.1685198197 0.0701191073 0.5334765108 -0.1201076812 0.5334850676 -0.1200683076 -0.1571101471 0.0755040334
135299190.0 -0.1677442189 0.0714250864 0.5331735653 -0.1267083457 0.5327338461 -0.1259884155 -0.155696572 0.0764554024
140299160.0 -0.1667836318 0.0720800068 0.5320109404 -0.1333344684 0.5319016683 -0.1334331342 -0.1547259961 0.0782269004
145299130.0 -0.1656233652 0.0728200897 0.5315124594 -0.1399499145 0.5306893971 -0.1393653903 -0.1535219025 0.0786489359
150299100.0 -0.1644407169 0.0739069807 0.5297415338 -0.1461425855 0.5298945684 -0.1459375413 -0.1521667135 0.0802065973
155299070.0 -0.163799256 0.0748147219 0.5285156055 -0.1530661673 0.5285869718 -0.1532051047 -0.1509812785 0.081179544
160299040.0 -0.1628335775 0.0760217533 0.5274599463 -0.159114513 0.5267800607 -0.1591345427 -0.1506075834 0.0822796404
165299010.0 -0.1621342057 0.0768270604 0.5256839161 -0.1661281618 0.5257705673 -0.1658595768 -0.1492229846 0.0837984425
170298980.0 -0.1614814247 0.0777107086 0.5242403379 -0.172183035 0.5243309741 -0.1719719014 -0.1483613479 0.0848148622
175298950.0 -0.1605467042 0.0789773079 0.5227764424 -0.1782195223 0.5224159633 -0.1785854171 -0.1475096512 0.0859394851
180298920.0 -0.1600069381 0.0802838536 0.5209514906 -0.1847456387 0.5206725605 -0.1842860775 -0.1464577387 0.0871173468
185298890.0 -0.1588437949 0.0808566144 0.5192498869 -0.1906622716 0.5190453502 -0.1906221047 -0.1455834424 0.0887860112
190298860.0 -0.158449211 0.0823027358 0.5172432864 -0.197271204 0.5174631985 -0.1971227284 -0.1447005506 0.0898158617
195298830.0 -0.157639839 0.0833988177 0.5153528837 -0.2032959994 0.5154566853 -0.2027534109 -0.14380956 0.0911643658
200298800.0 -0.1568367141 0.0847742205 0.5131733917 -0.2094244504 0.5130954698 -0.2092968657 -0.1430938952 0.0927158732
205298770.0 -0.1560397661 0.0858258503 0.5104420947 -0.2153800457 0.5109972725 -0.2150640819 -0.1421598132 0.0932627166
210298740.0 -0.1552693895 0.0869667604 0.5084844034 -0.2210309184 0.5083827838 -0.2208004139 -0.1408537548 0.0951373868
215298710.0 -0.1549758392 0.0883587401 0.5063552244 -0.227000604 0.5062403464 -0.227335537 -0.1403083493 0.0962078595
220298680.0 -0.153777217 0.0893402445 0.5035076716 -0.23277729 0.5034979767 -0.2330510519 -0.1395850657 0.0977415101
225298650.0 -0.1533406638 0.0909017541 0.5013112629 -0.2393348043 0.5017469751 -0.2386005525 -0.1388748418 0.0990295883
230298620.0 -0.1526930847 0.0924270159 0.4991166954 -0.2444752875 0.499359584 -0.2444926855 -0.1377632704 0.1001004355
235298590.0 -0.1519212259 0.0935337012 0.4964280628 -0.2505894426 0.4963465592 -0.2501290421 -0.1370994267 0.1017789329
240298560.0 -0.1510366318 0.0949652033 0.4938730862 -0.2562359545 0.4932878918 -0.2564135328 -0.1357861425 0.1033073681
245298530.0 -0.1503938285 0.0960147382 0.49123305 -0.2621012838 0.4908467838 -0.2619845551 -0.134963748 0.1039469622
250298500.0 -0.1491893125 0.0976740685 0.487478954 -0.2672384949 0.4876377597 -0.2671694481 -0.1342026636 0.1054115553
255298470.0 -0.1486220676 0.098682994 0.484677608 -0.2727500429 0.4846586996 -0.2728776059 -0.1327176134 0.1067084753
260298440.0 -0.1480187617 0.0997975703 0.481979947 -0.2787619514 0.4819468246 -0.2782944131 -0.1314790329 0.108413539
265298410.0 -0.1465868793 0.1018902332 0.4787551381 -0.284145556 0.4788448745 -0.2838365262 -0.1304588911 0.1097017533
270298380.0 -0.1460702134 0.1029101072 0.4762859207 -0.2893639947 0.475913294 -0.2892409205 -0.1298263428 0.1108296499
275298350.0 -0.1446926283 0.1042931315 0.4724283309 -0.2945211631 0.4730279418 -0.2950090968 -0.1285112516 0.1121550243
280298320.0 -0.1439773112 0.105847749 0.4699816429 -0.3005560487 0.4698331938 -0.2999998426 -0.1270221486 0.1135222438
285298290.0 -0.143142354 0.1070688287 0.4663898494 -0.3052606033 0.4663287688 -0.3055023219 -0.1257390901 0.1148978434
290298260.0 -0.1418676984 0.1085480535 0.4630590602 -0.3103962367 0.4628484357 -0.3111305474 -0.1246043503 0.1166466685
295298230.0 -0.1410328546 0.1095414809 0.4598614344 -0.316071153 0.4596324223 -0.3157512463 -0.122803255 0.1176574551
300298200.0 -0.140229557 0.1109602251 0.456665585 -0.3211585006 0.4561821754 -0.321399508 -0.1216912867 0.1189817811
305298170.0 -0.1389376483 0.1121845952 0.4523532328 -0.3268829916 0.4525334632 -0.3264368887 -0.1199653398 0.1199930436
310298140.0 -0.1380658612 0.1135985743 0.4494604579 -0.3316503962 0.4496708185 -0.3319893468 -0.1190409887 0.1211898313
315298110.0 -0.1370670398 0.1147033494 0.4457815394 -0.3368831794 0.4458021149 -0.3368889276 -0.1175961738 0.1226451213
320298080.0 -0.1357840357 0.1159323362 0.4414585346 -0.3420569656 0.4415529419 -0.3421738416 -0.116383404 0.123685229
325298050.0 -0.1349838365 0.1171833222 0.4378112353 -0.3469906117 0.4376674669 -0.346950541 -0.1154503852 0.1253054227
330298020.0 -0.1339618507 0.1180943573 0.4337018405 -0.3519913677 0.4339804374 -0.3519406581 -0.1143369553 0.126653518
335297990.0 -0.1331613019 0.1193868745 0.4301889416 -0.3565951423 0.4298529101 -0.3571919181 -0.1134114606 0.1285230747
340297960.0 -0.1325329105 0.1211804709 0.4258781386 -0.3617148157 0.4253075781 -0.3620569653 -0.1113274687 0.1297239238
345297930.0 -0.131651398 0.1224848509 0.4216853483 -0.3664532946 0.4213871605 -0.3664310019 -0.1103473789 0.1306138584
350297900.0 -0.1302045925 0.1236511976 0.4166971482 -0.3710523877 0.4172561449 -0.3711843866 -0.1091486728 0.1325870092
355297870.0 -0.1293514598 0.1256244038 0.4136465369 -0.3755714913 0.4133557751 -0.3753128504 -0.1082593325 0.1336619536
360297840.0 -0.1280786439 0.1264831941 0.4094574358 -0.37983962 0.4096201878 -0.379808458 -0.1067765473 0.1355822408
365297810.0 -0.1271745298 0.1284773108 0.4048355301 -0.3846966155 0.4050768454 -0.3849537488 -0.1051419751 0.1365681265
370297780.0 -0.1258877681 0.1294463833 0.4007462538 -0.3888199119 0.4013083455 -0.3884200704 -0.1037485996 0.1380425082
375297750.0 -0.1245175363 0.130544403 0.3964465931 -0.3932863502 0.3967046992 -0.3932935047 -0.1022090009 0.139088073
380297720.0 -0.1233001435 0.1319409043 0.3921587317 -0.3977894307 0.3919983507 -0.3970357249 -0.101184423 0.1406163512
385297690.0 -0.1225673078 0.1332216223 0.3877590349 -0.4017949854 0.387421568 -0.4020204215 -0.0996256028 0.1419343098
390297660.0 -0.1212620681 0.1348875757 0.3834138506 -0.4062053984 0.3832461312 -0.4061438253 -0.0983701372 0.1433335368
395297630.0 -0.1198970735 0.136153982 0.3789944135 -0.4106232291 0.3788572068 -0.4105349016 -0.0961828651 0.1443018037
400297600.0 -0.1188210334 0.137657591 0.3737884402 -0.414875308 0.3747084151 -0.4144946359 -0.0953193806 0.1458922447
405297570.0 -0.1178424894 0.138662585 0.3699176754 -0.418400547 0.3698252242 -0.4184679568 -0.0938046179 0.146744118
410297540.0 -0.116031366 0.1399635058 0.3649442635 -0.4227088983 0.365288918 -0.4227052124 -0.0922114318 0.1483764333
415297510.0 -0.1144832583 0.1410438341 0.3600318106 -0.4268515268 0.3607862353 -0.426919947 -0.090685288 0.1495874969
420297480.0 -0.1132866378 0.1425618395 0.3554745507 -0.4307570054 0.3556970704 -0.4308731756 -0.0891492245 0.1503874326
425297450.0 -0.1119829209 0.1433769679 0.3515520018 -0.4343089414 0.3515470919 -0.4347268369 -0.0878409976 0.1518783341
430297420.0 -0.110878634 0.1448043684 0.34639934 -0.4378467323 0.3461947959 -0.4376492583 -0.0861916311 0.1521611679
435297390.0 -0.1093530581 0.1459993031 0.3412629757 -0.4418342164 0.3411966156 -0.4422194031 -0.0838754633 0.1535004073
440297360.0 -0.1078029595 0.147388484 0.3361889137 -0.445545509 0.3364869529 -0.4455913814 -0.0826572506 0.1542415532
445297330.0 -0.1066018557 0.1481734215 0.3318040817 -0.4490859916 0.3319966531 -0.4489473664 -0.0809496703 0.1550812185
450297300.0 -0.10496556 0.1492861092 0.3267744306 -0.4528297866 0.3265121199 -0.4527671369 -0.0788852934 0.1561768486
455297270.0 -0.1038436008 0.1504495919 0.3213312138 -0.4561114594 0.3222553181 -0.4564693804 -0.0776578872 0.1570998024
460297240.0 -0.102337913 0.1519437436 0.3167008545 -0.4599991863 0.3166843936 -0.4598245057 -0.0756034149 0.1582779748
465297210.0 -0.1006897339 0.1528448947 0.3121952871 -0.4631955918 0.3116879581 -0.463649249 -0.0736928172 0.1589138809
470297180.0 -0.0993846467 0.1536233197 0.3063292635 -0.466713502 0.3065706949 -0.4665891839 -0.0719089236 0.1601777721
475297150.0 -0.0979271964 0.1547478476 0.3012696582 -0.4698708278 0.3014792061 -0.4692982994 -0.0697898132 0.160906249
480297120.0 -0.0965012811 0.1563737081 0.2964922131 -0.473670051 0.2957991533 -0.4737493131 -0.0679425333 0.1620578644
485297090.0 -0.0949960039 0.1572846319 0.2916070407 -0.4762175 0.2913231594 -0.476059601 -0.0661158477 0.1626680757
490297060.0 -0.0939084526 0.1581894479 0.286361159 -0.4795811881 0.2863593817 -0.4789372451 -0.064582256 0.1639070369
495297030.0 -0.0920249057 0.15908071 0.280553826 -0.4825747704 0.2810346444 -0.4823236578 -0.0630023363 0.1646621137
500297000.0 -0.0904604212 0.1602445689 0.2754148956 -0.4851891161 0.2751893102 -0.4853612316 -0.060548632 0.1657856282
505296970.0 -0.0886438728 0.1611587265 0.2702375599 -0.4880821459 0.2697260268 -0.488421669 -0.0588320181 0.1663839623
510296940.0 -0.0871286649 0.162394167 0.2646993323 -0.4915850075 0.2649899673 -0.4913293504 -0.0567432611 0.1675372215
515296910.0 -0.0855573923 0.1632346361 0.2595123555 -0.4941834181 0.2595683043 -0.4941710378 -0.0548346722 0.1685439111
520296880.0 -0.0842144193 0.1642249351 0.2540125602 -0.497164861 0.2536842787 -0.4971245798 -0.0532077444 0.1689856906
525296850.0 -0.0824792332 0.1646942025 0.2480067154 -0.4997845147 0.2489044625 -0.4995661168 -0.0515458532 0.1697410067
530296820.0 -0.0808634779 0.1658518552 0.2429968029 -0.5029308075 0.2430985249 -0.5025498197 -0.0495680172 0.1707604088
535296790.0 -0.079243774 0.1669049308 0.2376367753 -0.5051237021 0.2376138263 -0.5045165422 -0.0476965373 0.1708399537
540296760.0 -0.0780261114 0.1679380367 0.2320668682 -0.5077188955 0.2320471626 -0.5076507204 -0.0460640745 0.1723386007
545296730.0 -0.0763933008 0.1687074881 0.2264331607 -0.5095903089 0.2265136956 -0.5100170641 -0.0443523037 0.173176722
550296700.0 -0.0741481201 0.1696799848 0.2209566013 -0.5124445618 0.221127053 -0.5125757719 -0.0423068033 0.173906795
555296670.0 -0.0732052932 0.1706625193 0.2155750996 -0.5148910194 0.2156947957 -0.5148544281 -0.040689742 0.1748055438
560296640.0 -0.0710130122 0.1718229596 0.2100557255 -0.5169762185 0.2100940947 -0.5171263725 -0.0387327313 0.1749601019
565296610.0 -0.0698469968 0.1724678242 0.2041312969 -0.5193937926 0.2042046041 -0.5190942921 -0.036617291 0.175023183
570296580.0 -0.0682593047 0.1731497183 0.1983696423 -0.5219422032 0.1983426448 -0.5212608209 -0.0348722337 0.176495532
575296550.0 -0.0666868742 0.1743741033 0.1929969921 -0.5238237486 0.192817208 -0.5235986466 -0.0328886774 0.1766470921
580296520.0 -0.0646310786 0.1750141766 0.1871769892 -0.5260711835 0.1872420905 -0.52551857 -0.0310421589 0.1769061709
585296490.0 -0.0631372565 0.1752825245 0.181872662 -0.527019469 0.181527467 -0.5280358241 -0.0290454402 0.1777021414
590296460.0 -0.0609588302 0.176543214 0.176140877 -0.5289907439 0.1756202349 -0.5292971223 -0.0276358146 0.178233364
595296430.0 -0.0592675544 0.1770119629 0.1697429626 -0.5315855718 0.1701321605 -0.5310277641 -0.0254072389 0.1779128677
600296400.0 -0.0576565124 0.1777474485 0.1642673646 -0.5332264638 0.1642948127 -0.5328622513 -0.0235305267 0.1786993088
605296370.0 -0.056289186 0.1783835125 0.158715213 -0.5347925478 0.1588661024 -0.5346174437 -0.0213481349 0.1788508104
610296340.0 -0.0545002048 0.1792095074 0.1525660185 -0.5363697549 0.1526351267 -0.5365993789 -0.0192711865 0.1793979783
615296310.0 -0.0522631966 0.1792470982 0.1466629976 -0.5375830141 0.146687442 -0.5381056874 -0.0170687467 0.1794372353
620296280.0 -0.0508951888 0.1799582327 0.1408620931 -0.5391828606 0.1409538355 -0.5390815185 -0.0154128772 0.179612628
625296250.0 -0.0492607744 0.1804664433 0.1356922625 -0.5411450768 0.1349434036 -0.5412298869 -0.0125153556 0.1799984998
630296220.0 -0.0467230943 0.1814214468 0.1285935227 -0.542511273 0.1289996745 -0.5420212115 -0.0109780435 0.1805542843
635296190.0 -0.046179446 0.1819223063 0.1235596108 -0.5433825218 0.1234790889 -0.5435664134 -0.0088922522 0.180606164
640296160.0 -0.0441471639 0.1822748928 0.1175945677 -0.5443687004 0.1176746737 -0.5450230958 -0.0066794417 0.1807156271
645296130.0 -0.042034872 0.1833033582 0.1114106194 -0.5459409102 0.1120973173 -0.5462210013 -0.0048367053 0.1812726545
650296100.0 -0.04013577 0.1835719834 0.1054460074 -0.5468998497 0.1057139291 -0.5473483796 -0.002617119 0.1808856842
655296070.0 -0.0388640484 0.1837287794 0.0999426242 -0.5479835375 0.0998264217 -0.5483317802 -0.0005072632 0.18126818
660296040.0 -0.0371833622 0.1842877523 0.0939034297 -0.5495858597 0.0940948568 -0.5497529189 0.001660568 0.1816083241
665296010.0 -0.0346990922 0.1846417695 0.0876857666 -0.5501764683 0.0877712629 -0.5502411964 0.0038826471 0.1821747591
670295980.0 -0.0338355272 0.1858171434 0.0820528808 -0.5510738314 0.0815711851 -0.5508530554 0.0053377149 0.1820648456
675295950.0 -0.0317872948 0.186101117 0.0764729432 -0.5515983844 0.0760741211 -0.5515372443 0.0073358589 0.1821098394
680295920.0 -0.0303216013 0.1863285276 0.0702796684 -0.5523463037 0.0696505567 -0.553053387 0.0095049655 0.1829975211
685295890.0 -0.0279851458 0.1870798231 0.0640744074 -0.5534109179 0.0638292832 -0.5532401606 0.0113341632 0.1825323922
690295860.0 -0.0260947966 0.18734335 0.05810348 -0.5536756336 0.0578576506 -0.5542456278 0.0132633515 0.183057642
695295830.0 -0.0242404867 0.1876554083 0.0524399697 -0.5542152641 0.0518668351 -0.5545672709 0.0158344659 0.1827486395
700295800.0 -0.0226247714 0.1880061173 0.0461280383 -0.5549602675 0.0459966529 -0.5547846638 0.017162968 0.1834904988
705295770.0 -0.0209218951 0.188980509 0.0401469845 -0.555381577 0.0404348471 -0.5555941035 0.0193327851 0.1834921116
710295740.0 -0.0186455067 0.1888662904 0.0340890846 -0.5563237774 0.0347082049 -0.5562942254 0.0215402209 0.1829650983
715295710.0 -0.0176787184 0.1891888199 0.028644009 -0.5566037084 0.0281366479 -0.5563095314 0.0236058904 0.183081241
720295680.0 -0.0152318131 0.1895145586 0.0223044139 -0.5565427148 0.0223763361 -0.5565790779 0.0255597981 0.1830882379
725295650.0 -0.0133510721 0.1897414836 0.0163421554 -0.556732814 0.0164871799 -0.5570330732 0.0270794666 0.1831411263
730295620.0 -0.0112543197 0.1902985517 0.0101169344 -0.5566674184 0.0103289406 -0.5565691258 0.0291254107 0.1827327793
735295590.0 -0.0096924121 0.1905903596 0.0043494255 -0.5571609243 0.0039951209 -0.5568226877 0.0307920136 0.1822114951
740295560.0 -0.0079134996 0.1908577933 -0.0017274388 -0.5567905827 -0.0017191238 -0.5567078148 0.0336685363 0.1824944684
745295530.0 -0.0062158712 0.1910851907 -0.0076816788 -0.5562952798 -0.0081252783 -0.55671597 0.035542284 0.1817965539
750295500.0 -0.0038837362 0.1910824866 -0.0138869594 -0.5564804179 -0.0139339442 -0.5568805075 0.0372962639 0.1816395273
755295470.0 -0.0020005373 0.1913312161 -0.0198737371 -0.5562583778 -0.0196728413 -0.5562515054 0.0393844613 0.1809061573
760295440.0 -0.0005348912 0.1913487029 -0.0255901728 -0.5559390347 -0.0261022174 -0.5562606717 0.0414298908 0.18077475
765295410.0 0.0014268259 0.1916746409 -0.0316881313 -0.5556482023 -0.0321036342 -0.5559594957 0.0431762581 0.1807793113
770295380.0 0.0031640854 0.1916248214 -0.0383976917 -0.5551526049 -0.038072559 -0.5551624183 0.0452062179 0.1801846488
775295350.0 0.0049501474 0.191475504 -0.0438992973 -0.5548087372 -0.0432063484 -0.5548259087 0.0465798186 0.18003664
780295320.0 0.0070239223 0.1915082733 -0.049836521 -0.5538091561 -0.0491639557 -0.5541549586 0.0489540188 0.1789191871
785295290.0 0.0084631146 0.1910126189 -0.0560105949 -0.5531308655 -0.0559516679 -0.5534116837 0.0515259926 0.1789392486
790295260.0 0.0109165555 0.1921131277 -0.0612022678 -0.5529572662 -0.0605057316 -0.552881842 0.0535037875 0.1783770109
795295230.0 0.0126310906 0.1917581594 -0.0675819976 -0.5519922726 -0.0674673742 -0.5524104785 0.0555788118 0.1780219439
800295200.0 0.0144134663 0.1919659648 -0.0740584108 -0.5508244633 -0.0735409057 -0.5509887572 0.0575486998 0.1775541477
805295170.0 0.0163088881 0.1916539669 -0.0794550781 -0.5504107721 -0.0794290523 -0.5504898646 0.059423363 0.1771049358
810295140.0 0.017837217 0.1915668494 -0.0849928543 -0.5494759779 -0.0852852467 -0.5497643408 0.0617870997 0.1767263695
815295110.0 0.0200158764 0.1912674341 -0.0914967172 -0.548451029 -0.090941593 -0.5485229951 0.0633748454 0.1758306535
820295080.0 0.021489278 0.1920925378 -0.0966984897 -0.5475974686 -0.0965749997 -0.547640517 0.0655112307 0.1754566827
825295050.0 0.0238108564 0.1914375716 -0.1027740073 -0.5461969348 -0.102767408 -0.5464234913 0.0677173231 0.1749754231
830295020.0 0.0254977136 0.1914831129 -0.1089012149 -0.5451912783 -0.1088188255 -0.5450203323 0.0702830833 0.1742237568
