!Created with skrf (http://scikit-rf.org).
# Hz S RI R 50.0 
!freq ReS11 ImS11 ReS21 ImS21 ReS12 ImS12 ReS22 ImS22
300000.0 -0.7761384537 -0.1122761009 -0.000197381 0.0005202853 0.0001416588 0.0005731574 -0.0502120924 -0.0641054117
5299970.0 -0.7849502122 -0.0062171136 0.0001790017 -0.0001240953 2.75531e-05 0.0003245431 -0.0497918569 0.0154525813
10299940.0 -0.7879326608 -0.0042172064 4.81448e-05 -3.3472e-06 -8.21848e-05 5.7565e-05 -0.0439303791 0.0334953458
15299910.0 -0.7933677859 -0.0022918971 4.6254e-06 -0.0001423106 2.52288e-05 -6.9254e-05 -0.0357384338 0.0481007068
20299880.0 -0.8004441299 0.0019397347 6.65225e-05 0.0001226165 -0.0001482548 -5.85028e-05 -0.0254227197 0.0599063139
25299850.0 -0.8064053245 0.0075898413 -3.14199e-05 -8.55935e-05 0.0001105749 -4.69647e-05 -0.0141258642 0.0693919429
30299820.0 -0.8124036153 0.015081896 -2.92417e-05 7.87262e-05 7.77533e-05 0.000100008 -0.0020825364 0.0760100157
35299790.0 -0.8171821498 0.0246284354 3.66268e-05 -7.73585e-05 0.0001361096 0.0001008257 0.009085124 0.0810808953
40299760.0 -0.8214457088 0.033229143 -0.0002144556 0.0003432362 0.0001269455 -2.35173e-05 0.0209048789 0.0835447513
45299730.0 -0.8247518133 0.0426641814 0.0002600444 -0.0001425549 -8.07208e-05 -8.2828e-05 0.0311570201 0.0851997122
50299700.0 -0.8275537171 0.0523449663 -0.0002326385 2.70584e-05 2.9566e-06 -4.07756e-05 0.0414255548 0.084802555
55299670.0 -0.829497319 0.0629029094 8.4161e-05 -0.0001427286 4.84402e-05 5.55797e-05 0.0507018122 0.0835422014
60299640.0 -0.8301704906 0.0732781298 -1.66558e-05 -1.4853e-06 -2.67344e-05 -8.45e-08 0.0596945264 0.0814852471
65299610.0 -0.8312099432 0.0830042939 2.34768e-05 -0.0002701419 5.22237e-05 -4.60277e-05 0.0671324281 0.0790389946
70299580.0 -0.8317741279 0.0933624311 9.90982e-05 4.30751e-05 -3.63868e-05 -0.0001427761 0.0739277594 0.0758316876
75299550.0 -0.8319810568 0.1036628699 0.0001513037 5.72992e-05 -5.73339e-05 0.0001362168 0.0805706841 0.0722711874
80299520.0 -0.8318188352 0.1131783191 -7.5195e-06 9.4566e-05 -6.18693e-05 -0.0001184822 0.0859326047 0.0690781005
85299490.0 -0.8311733645 0.122732236 6.28493e-05 7.74274e-05 6.26785e-05 5.32753e-05 0.0910379685 0.0649501249
90299460.0 -0.8304520545 0.132208711 4.09179e-05 -0.0001007829 0.0001949543 1.73156e-05 0.0957399053 0.0612129535
95299430.0 -0.8296414392 0.1416304419 0.0002058342 -8.29518e-05 -3.0766e-05 -8.41656e-05 0.099852397 0.0571028014
100299400.0 -0.8281088762 0.1506447442 0.0002145114 -0.000235959 0.0001730546 -0.0001858699 0.1036711105 0.052741142
105299370.0 -0.8270725039 0.1602905213 6.63597e-05 0.0001551267 0.0001003185 8.38013e-05 0.1071003294 0.048669693
110299340.0 -0.8255144958 0.1693400894 -9.42039e-05 0.0002368752 -6.02156e-05 2.61304e-05 0.1096620603 0.0447488872
115299310.0 -0.82381889 0.1785346196 -1.15648e-05 -8.58577e-05 -8.0063e-06 1.5564e-05 0.1122437283 0.0409058317
120299280.0 -0.8220347199 0.1872760648 6.88585e-05 0.0001139897 0.0001078229 -1.20618e-05 0.1145084969 0.0370410636
125299250.0 -0.8203455406 0.1961890449 -0.0001276124 0.0002415857 5.20233e-05 6.9029e-05 0.1165049307 0.032653383
130299220.0 -0.8185090017 0.204809466 -0.000191228 0.0002225486 2.57417e-05 3.06337e-05 0.1182680441 0.0288462191
135299190.0 -0.8168506355 0.2137966346 0.0001346491 -0.000121877 0.0001947946 0.0002067827 0.1198310788 0.0251584342
140299160.0 -0.8145282862 0.2229075138 1.64462e-05 0.0001721723 0.000223808 9.99694e-05 0.1209152595 0.021510922
145299130.0 -0.8129093032 0.2321891351 2.48527e-05 -1.50677e-05 -0.0001429634 1.23493e-05 0.1218811535 0.017899523
150299100.0 -0.8103245083 0.2409971078 5.85653e-05 9.73892e-05 -0.0001533338 -2.07526e-05 0.1227388417 0.0149982381
155299070.0 -0.8079985948 0.2492533817 -4.66164e-05 6.11473e-05 0.0002178285 -0.0001059825 0.1238357589 0.0115344916
160299040.0 -0.8050822381 0.2582310398 -0.0001133566 9.35703e-05 0.0001013725 -0.0001763098 0.1242068983 0.0082663999
165299010.0 -0.803163748 0.2668745649 0.0001183241 0.0001291854 3.6526e-06 -1.9939e-05 0.1247084238 0.0047231932
170298980.0 -0.8001661112 0.2753073482 0.0001957963 0.0001249344 -0.0001197759 9.03091e-05 0.1250686732 0.0017495645
175298950.0 -0.7969435441 0.2839132603 0.0001218887 4.40478e-05 -0.0001136574 -1.1617e-06 0.1253818707 -0.0010091207
180298920.0 -0.7947783574 0.2926485618 -0.0001691739 0.0002503614 -2.7329e-06 0.0001653665 0.1252282086 -0.004156765
185298890.0 -0.7913595219 0.3005867158 -0.0001090754 0.0002414355 -3.56828e-05 4.98978e-05 0.1256665913 -0.0072796964
190298860.0 -0.7887474925 0.3096036497 -0.0001335863 -2.44548e-05 4.233e-05 0.0002885949 0.1252827381 -0.0096006064
195298830.0 -0.7853524186 0.3177260881 -4.01379e-05 7.12007e-05 4.96093e-05 -5.49449e-05 0.1252198605 -0.0130219317
200298800.0 -0.7818197883 0.3263838459 0.0001314706 -2.69384e-05 -6.67748e-05 2.09013e-05 0.1248987713 -0.015856817
205298770.0 -0.7781964532 0.3343610336 0.0002472862 9.45736e-05 4.3229e-06 -1.40036e-05 0.1245454825 -0.0186722598
210298740.0 -0.7753513056 0.3423226138 -5.2426e-06 4.28827e-05 -2.31002e-05 2.8551e-06 0.124212265 -0.0212656534
215298710.0 -0.7717589089 0.3499468506 0.0002000907 -7.09438e-05 6.52233e-05 -9.4869e-05 0.1234565772 -0.0235896874
220298680.0 -0.76762824 0.3586688439 0.000210376 -2.43038e-05 -1.7646e-06 -3.01977e-05 0.1227048855 -0.0263324185
225298650.0 -0.7647930171 0.3662864852 0.0002024755 0.0001332722 0.00010338 8.42848e-05 0.1223304989 -0.0287478264
230298620.0 -0.7600924561 0.3747212036 -4.70501e-05 0.0002683472 -8.39015e-05 5.1412e-06 0.1217403713 -0.0312113214
235298590.0 -0.756431061 0.3830878231 0.0001987792 3.7671e-05 8.78497e-05 2.33212e-05 0.1210984963 -0.0337223831
240298560.0 -0.7522029015 0.3915417555 0.0001571831 -0.0001157112 7.06292e-05 0.0001209224 0.120271507 -0.0358963771
245298530.0 -0.748756179 0.3988699547 -0.000193044 -2.12829e-05 0.0001336427 -5.30028e-05 0.1195415822 -0.0384625594
250298500.0 -0.7444483142 0.4067831995 -1.27125e-05 0.0001266296 -9.43604e-05 9.99622e-05 0.1186640678 -0.0409910913
255298470.0 -0.7393570653 0.4136184163 3.667e-07 -4.21992e-05 -5.73838e-05 0.0002117517 0.1178337062 -0.0434565703
260298440.0 -0.7358502567 0.4219344831 5.89112e-05 -1.84236e-05 -9.58786e-05 0.0003214367 0.1173277752 -0.0451529543
265298410.0 -0.7315850743 0.4295977884 1.97233e-05 -1.99896e-05 -0.0001335634 3.86898e-05 0.1164656721 -0.0474036104
270298380.0 -0.7269682288 0.4375309924 0.0001326378 -9.26586e-05 -7.43223e-05 0.0001834755 0.1155592243 -0.049262217
275298350.0 -0.7223854858 0.4445644856 0.0001405499 0.0001126385 -5.4474e-05 0.0003039625 0.1149673636 -0.0514145464
280298320.0 -0.7172077076 0.4524028699 0.0001380417 0.0001681777 -1.34698e-05 -2.65099e-05 0.114038587 -0.0534642683
285298290.0 -0.7130934419 0.4605543886 2.3933e-06 6.2853e-05 0.0001384403 -9.73716e-05 0.1132723229 -0.0556249853
290298260.0 -0.708047624 0.4674424395 9.85019e-05 -0.0001484457 0.0001953774 0.0001838602 0.1124272545 -0.0572908124
295298230.0 -0.7027812107 0.4746054688 6.18907e-05 -5.12727e-05 -0.0001459291 2.67077e-05 0.1115455122 -0.0595273052
300298200.0 -0.6981133953 0.4812096157 0.0001116752 9.436e-07 -0.0001384776 0.0001606081 0.1107507855 -0.0612557509
305298170.0 -0.6928744659 0.4883435297 0.0001395052 3.3141e-06 0.0001309823 8.5027e-05 0.1095851044 -0.0636840184
310298140.0 -0.6876136505 0.4962012928 8.83671e-05 2.49094e-05 0.0002191387 0.0002717402 0.1081145644 -0.0653883785
315298110.0 -0.6829929732 0.5031328716 9.73871e-05 -0.0001347869 -0.0001043482 0.0003593818 0.1068541235 -0.0672733424
320298080.0 -0.6772855696 0.5100460402 0.0001802622 0.0001150106 -0.00010731 6.5307e-05 0.1055645082 -0.0689980301
325298050.0 -0.6718657668 0.5168898162 1.90125e-05 9.72967e-05 -3.90099e-05 -5.05784e-05 0.1043787122 -0.0709709763
330298020.0 -0.6667954224 0.5238007243 1.0619e-06 0.0001624454 0.0001304422 0.0001727098 0.1027232267 -0.0721763739
335297990.0 -0.6611241481 0.5308403942 4.88682e-05 -5.77128e-05 -2.89559e-05 0.0001006302 0.1012948021 -0.0735436274
340297960.0 -0.6561163121 0.5375825378 0.0001502624 0.0001659305 8.021e-06 8.05265e-05 0.10038033 -0.0749694774
345297930.0 -0.6499075338 0.5438703621 0.000170682 -0.0002310335 6.83663e-05 0.0001565867 0.0984568449 -0.0766249324
350297900.0 -0.6442936312 0.5508826729 -4.46277e-05 1.26864e-05 0.0001635083 0.000132811 0.0973349668 -0.077673701
355297870.0 -0.6379333645 0.5581775573 -2.46354e-05 3.07209e-05 -5.9875e-05 0.0001042689 0.0957651452 -0.0791242307
360297840.0 -0.6327107636 0.5638973219 9.99213e-05 -9.40406e-05 -0.0001364217 -4.90862e-05 0.0944515279 -0.0807450576
365297810.0 -0.6277935379 0.5703285431 -2.90962e-05 -0.0001472871 2.40034e-05 3.2933e-06 0.0929921584 -0.0819789201
370297780.0 -0.6210636878 0.5766572579 3.16694e-05 4.77246e-05 0.0003072966 -2.4566e-06 0.0919733011 -0.0830606959
375297750.0 -0.6147772143 0.5831506781 7.876e-07 6.48509e-05 0.0002331073 9.67214e-05 0.0904598208 -0.0846541013
380297720.0 -0.6091630326 0.5886809068 3.08853e-05 -0.0001642081 0.0001471225 -5.11861e-05 0.0884425664 -0.085690151
385297690.0 -0.6036021391 0.5950568627 0.0001485892 5.9308e-06 0.0001604 -0.0001441371 0.0875277639 -0.0871631434
390297660.0 -0.5965623133 0.6016361221 0.000437736 -4.56452e-05 2.77629e-05 0.0001472559 0.0855984405 -0.0879477721
395297630.0 -0.5906788632 0.6073394772 0.0001675145 5.74011e-05 9.63997e-05 1.08167e-05 0.0844589869 -0.0892054551
400297600.0 -0.5840548619 0.6139894717 0.0001696734 -0.0001476539 0.0002646727 -0.0002277045 0.0829882987 -0.0905913886
405297570.0 -0.5784379178 0.6192339256 -3.36697e-05 -0.0001756683 0.0001215887 0.0001483942 0.0814078835 -0.0915864069
410297540.0 -0.5713161226 0.6250132781 0.000196871 6.43904e-05 0.0001439389 0.0001295195 0.07972981 -0.0925620829
415297510.0 -0.5646645233 0.630759852 -2.1139e-05 3.51561e-05 0.0002513554 6.71527e-05 0.0785822107 -0.0940202447
420297480.0 -0.559248621 0.6368476088 0.0001759604 -6.83325e-05 1.63668e-05 -6.6169e-05 0.0767260542 -0.0947103093
425297450.0 -0.5520006878 0.642134526 4.58348e-05 -2.86425e-05 0.0001428519 0.0001496319 0.0756838596 -0.0964159606
430297420.0 -0.545963508 0.6486217781 -4.77109e-05 0.0001742748 0.0001400647 8.79906e-05 0.0735139308 -0.097316505
435297390.0 -0.538989546 0.6530540355 0.0001105908 0.0001307756 0.0004486911 0.0001096946 0.0723912075 -0.0981277878
440297360.0 -0.5320436084 0.6588999628 0.0001102662 3.3291e-05 0.0001559509 8.0836e-06 0.0708541782 -0.0990813577
445297330.0 -0.5253544651 0.6643685297 0.0002183891 0.0001468365 0.0001500436 -3.67716e-05 0.0692085811 -0.100382923
450297300.0 -0.5182566412 0.6691065659 -5.73348e-05 0.0001087991 0.0001409669 -5.0159e-06 0.067856975 -0.1009572992
455297270.0 -0.5115266087 0.6743692295 0.0002224754 1.15057e-05 0.0002316609 -9.754e-07 0.0661902106 -0.1022208721
460297240.0 -0.5051455214 0.6797405962 0.0001159837 0.0001057221 0.0001695805 9.83723e-05 0.0647591777 -0.1025967743
465297210.0 -0.4984332418 0.6849242176 -4.33475e-05 -4.65546e-05 0.0001356989 -1.10746e-05 0.063010139 -0.1038630417
470297180.0 -0.4904059774 0.6894966323 0.0002284385 4.74206e-05 -3.25528e-05 5.51258e-05 0.0617247352 -0.1044954002
475297150.0 -0.4835780575 0.6941869942 -1.11104e-05 -6.6025e-06 0.0002026502 0.0001645539 0.0602435502 -0.105253355
480297120.0 -0.4767891594 0.6996570898 0.0001621519 5.22974e-05 -2.2328e-06 0.0001166869 0.0585933852 -0.1059260316
485297090.0 -0.4692831324 0.7041223839 0.0001288889 6.63762e-05 9.40868e-05 4.67327e-05 0.0572469571 -0.106785503
490297060.0 -0.4623237608 0.7083923405 0.0001750964 -0.0001930872 -9.9396e-06 8.89507e-05 0.0554056834 -0.1074410329
495297030.0 -0.4552806717 0.7130716914 0.0002484861 -0.0003377156 5.07664e-05 0.0001473189 0.0540247622 -0.1080065972
500297000.0 -0.4475394181 0.7182028981 -4.3878e-05 -0.0001419033 3.8378e-05 -0.0001681528 0.0522608796 -0.1081322514
505296970.0 -0.4404573993 0.7222572573 7.49277e-05 5.96795e-05 2.99947e-05 -7.4774e-06 0.0505113469 -0.1090902073
510296940.0 -0.4329533718 0.7272073516 0.0003353875 4.19541e-05 1.31473e-05 -0.0001575372 0.0490714026 -0.1098757569
515296910.0 -0.4247116467 0.7306531896 0.0002369755 0.0001208194 0.0002229781 4.21267e-05 0.047622242 -0.1102134241
520296880.0 -0.4183413293 0.7354125862 0.0001387494 -5.78311e-05 -9.05938e-05 0.0001050026 0.04554295 -0.1108854674
525296850.0 -0.4107765039 0.7387874216 2.80035e-05 8.2849e-05 0.0001635434 4.85534e-05 0.0442821958 -0.1108441159
530296820.0 -0.4031002451 0.7433512772 0.0001795344 -0.0002291637 7.89612e-05 0.0003419063 0.0425610125 -0.1115458238
535296790.0 -0.3960238127 0.7469254097 0.0001290163 3.57103e-05 -5.08679e-05 -5.29426e-05 0.0403409056 -0.1121929751
540296760.0 -0.3884805815 0.7510619106 -1.08201e-05 1.51034e-05 3.85638e-05 2.89142e-05 0.0390251627 -0.1122524845
545296730.0 -0.3812787765 0.7549068423 9.04791e-05 -2.45991e-05 -6.447e-07 0.000135523 0.0368654393 -0.1134621918
550296700.0 -0.3729051016 0.7588393901 -0.0001220623 0.0001483491 -0.0001503434 3.13878e-05 0.0352718112 -0.1133442766
555296670.0 -0.3653748703 0.7618755554 0.000244703 1.52272e-05 0.0001894267 1.14681e-05 0.0337672228 -0.1132607888
560296640.0 -0.3576912852 0.7666035398 0.0001797772 9.782e-07 8.62068e-05 0.0001150507 0.0320708591 -0.1139543312
565296610.0 -0.3498347807 0.7697235458 -0.0002583941 0.0001282737 0.000257181 -8.8739e-05 0.0303113231 -0.1143978696
570296580.0 -0.3425309963 0.7727464036 -0.0001131195 3.70823e-05 6.42912e-05 -0.0001875901 0.0283843739 -0.114658494
575296550.0 -0.3349167824 0.7765590863 0.0001396378 -5.54364e-05 3.43691e-05 3.35285e-05 0.0266585392 -0.1148946213
580296520.0 -0.3265510307 0.7796251696 0.0001966192 0.0002463246 -5.71898e-05 4.00025e-05 0.0251951043 -0.1153178723
585296490.0 -0.3189658709 0.7823710607 0.0001685122 -7.80122e-05 0.0001391909 1.18e-07 0.0235218897 -0.1158338597
590296460.0 -0.3109605278 0.7853412669 0.0002098095 2.21291e-05 0.0002262106 -1.52818e-05 0.0217561571 -0.1154661594
595296430.0 -0.3033269817 0.7885699067 0.0002473358 -0.0001006371 5.24663e-05 -3.99886e-05 0.0198728548 -0.116043684
600296400.0 -0.2949750245 0.7917018368 5.76818e-05 -0.0001090724 0.0001245366 0.0002360533 0.0184841043 -0.1163657052
605296370.0 -0.2878294898 0.7943938998 9.06903e-05 -4.56341e-05 0.0002250771 8.53888e-05 0.0168869412 -0.1163317253
610296340.0 -0.2789588821 0.7973341628 0.000196326 -0.0001447183 -0.0001823554 4.43946e-05 0.0148055488 -0.1166383484
615296310.0 -0.2710323497 0.800332917 2.99742e-05 6.24465e-05 0.0002239487 2.1255e-05 0.0134696734 -0.116806314
620296280.0 -0.2632890335 0.8023698463 -2.49964e-05 0.0001070327 -9.54234e-05 5.09147e-05 0.0117006283 -0.1168712958
625296250.0 -0.2547338287 0.8050482077 0.0001209697 6.97468e-05 -8.0367e-06 3.28357e-05 0.0101018355 -0.1168066088
630296220.0 -0.2461993229 0.8078387119 0.0001135208 -0.0001906616 0.0002247565 7.99265e-05 0.0084596291 -0.1166119925
635296190.0 -0.238722779 0.8106227147 8.53601e-05 -3.95517e-05 0.000326686 0.0001892696 0.0071199378 -0.1169285801
640296160.0 -0.2309846605 0.8125665563 0.0001404077 1.18548e-05 0.0001828825 4.56987e-05 0.0051496731 -0.1169192602
645296130.0 -0.2229793895 0.8151128748 0.0001518878 -2.55984e-05 1.81589e-05 6.96004e-05 0.0035396349 -0.1168237696
650296100.0 -0.214351553 0.8165289982 0.0002104484 -7.04675e-05 0.0001302298 8.28682e-05 0.0018734199 -0.11706577
655296070.0 -0.2068176205 0.8188800852 0.0001523509 5.3543e-05 0.0001239244 4.34619e-05 0.0005062399 -0.1164506645
660296040.0 -0.1980476091 0.82069446 0.000109092 0.0001820571 -5.14045e-05 0.0001668303 -0.0009957988 -0.1162485753
665296010.0 -0.190159765 0.8225675664 -1.60561e-05 -0.0002637196 0.0002583883 3.098e-06 -0.002762031 -0.1162296091
670295980.0 -0.1819522879 0.8246729536 0.0001396955 0.0001426168 0.0001796239 9.15958e-05 -0.0046726887 -0.1158220182
675295950.0 -0.1736486194 0.8259268268 0.0001770235 2.5266e-05 0.0001697001 2.80341e-05 -0.0062496527 -0.115508743
680295920.0 -0.1651299072 0.8284212035 -0.0001208701 -0.0001417062 9.88604e-05 0.0001170947 -0.0077160688 -0.1152117862
685295890.0 -0.1568730982 0.8304678648 0.0001951606 9.17082e-05 0.0003080038 4.68209e-05 -0.0095376158 -0.1150234035
690295860.0 -0.1486021526 0.8310940527 6.38317e-05 -0.0002383916 0.0002592167 -8.66765e-05 -0.0112004755 -0.1143366641
695295830.0 -0.1404317292 0.832471777 0.0004504047 -0.0001085872 0.0002592184 -0.0001633057 -0.0127431562 -0.1143236936
700295800.0 -0.1319556487 0.833793046 8.97159e-05 6.69388e-05 7.0923e-05 -1.90133e-05 -0.0148747152 -0.1138287031
705295770.0 -0.1242153937 0.8358234748 0.0001713765 3.09468e-05 -8.9954e-05 -1.6038e-05 -0.0163306934 -0.1132298152
710295740.0 -0.1158064877 0.83615114 0.0002012593 6.63955e-05 -7.56219e-05 -9.01295e-05 -0.018215523 -0.1132779691
715295710.0 -0.1079954588 0.8369373467 0.00010703 -0.0001021293 0.000300356 0.0001253477 -0.0196177933 -0.1127469223
720295680.0 -0.0989550891 0.8384890389 0.0002418747 -0.0003147714 0.0001636509 1.858e-06 -0.021128604 -0.112329318
725295650.0 -0.0905503123 0.840174294 2.04985e-05 1.62437e-05 0.000148324 0.0003143271 -0.0231100642 -0.1114926539
730295620.0 -0.0819213066 0.8406221773 -2.99362e-05 6.72604e-05 8.98702e-05 1.2363e-05 -0.024761225 -0.1114729319
735295590.0 -0.0744414769 0.8412006604 0.0001573765 6.43654e-05 0.0001596156 -1.85198e-05 -0.0264878236 -0.1109762602
740295560.0 -0.0662803131 0.8422013719 -1.68344e-05 -0.0002724809 3.84937e-05 -0.0001159161 -0.027803628 -0.1104554997
745295530.0 -0.057840061 0.8426183395 7.14236e-05 0.0001274306 0.0001692328 9.43206e-05 -0.0298235058 -0.1102160135
750295500.0 -0.0488789727 0.842707891 0.0002197769 -0.0001343309 0.0002114492 2.7302e-06 -0.0311483519 -0.1098861003
755295470.0 -0.0403706179 0.8429711843 0.0002545909 -8.75604e-05 9.141e-07 1.59173e-05 -0.0327691787 -0.1095800538
760295440.0 -0.0324558346 0.8431084613 9.39743e-05 0.0001189903 0.0001530486 0.0001534614 -0.0343768323 -0.1087124695
765295410.0 -0.024559802 0.8440658615 -0.0001490432 -4.41454e-05 -8.60505e-05 -3.27e-07 -0.0359022078 -0.1080530756
770295380.0 -0.0160578442 0.844340492 0.0001013716 1.11236e-05 0.0002009332 -1.04302e-05 -0.0378700821 -0.1076900161
775295350.0 -0.0074848603 0.8440111884 0.0002347934 0.0001609416 2.75333e-05 3.42007e-05 -0.0392988417 -0.1068982615
780295320.0 0.0006194231 0.8445879681 1.63032e-05 -0.0001119279 0.0002648779 7.1517e-06 -0.0407088939 -0.1064977323
785295290.0 0.0086183645 0.8436152942 0.0001274526 -0.0001334664 0.0003161859 -2.02232e-05 -0.041863095 -0.1058100698
790295260.0 0.0178175906 0.8439968045 0.0001617857 0.0001789521 0.0002764936 -0.0001202913 -0.0431660309 -0.1048209176
795295230.0 0.0254821208 0.843728242 0.0001426243 -4.45381e-05 0.0002661194 -3.6729e-06 -0.0448390676 -0.104330448
800295200.0 0.0338267888 0.8431319842 0.0002474155 -7.11095e-05 0.0004139489 5.17875e-05 -0.0463665663 -0.1033967049
805295170.0 0.0427228711 0.84322707 0.0002002592 7.56206e-05 7.76799e-05 -6.86881e-05 -0.048006521 -0.1026779573
810295140.0 0.0506864904 0.8425261378 0.0001149103 -0.0001276988 9.06994e-05 -0.0001088142 -0.048820131 -0.1017848163
815295110.0 0.0590526503 0.841895621 0.0002515282 1.13228e-05 0.0001512641 -3.22678e-05 -0.0507948107 -0.1012639534
820295080.0 0.0670673168 0.8416744153 0.0003226628 -0.0003118113 0.0002376828 -0.0002546235 -0.0520986193 -0.100158444
825295050.0 0.076540265 0.8404006465 2.75098e-05 -0.0001203535 0.0002098318 -0.000343654 -0.0533074514 -0.0994627458
830295020.0 0.0837732489 0.8400780479 0.0001336288 -0.000183881 0.0002093285 2.2922e-05 -0.0541890664 -0.0986889076
835294990.0 0.0919076284 0.8393336217 0.0003427526 0.0002164619 0.0002361687 1.93939e-05 -0.0563341131 -0.097508664
840294960.0 0.1000505112 0.8384162784 0.0002315943 -0.0001369945 0.0003065637 -9.62204e-05 -0.0575475659 -0.0966766263
845294930.0 0.1085618269 0.8369504808 0.0001038882 0.0002671727 0.0001977664 6.31279e-05 -0.0587455999 -0.0958881873
850294900.0 0.1162294207 0.8365084865 0.0002696942 -0.0002685746 2.18749e-05 2.20426e-05 -0.0603195846 -0.0948181739
