!Created with skrf (http://scikit-rf.org).
# Hz S RI R 50.0 
!freq ReS11 ImS11 ReS21 ImS21 ReS12 ImS12 ReS22 ImS22
300000.0 0.8592585491 -0.0030677789 -0.0002876767 -0.0004877848 5.32261e-05 0.000686747 -0.7705720417 -0.1388905585
5299970.0 0.8586691728 -0.0094179628 -2.50569e-05 -9.23678e-05 0.0001434239 -0.0002876634 -0.7844239907 -0.0075804509
10299940.0 0.8581560439 -0.0186972329 6.42523e-05 6.23119e-05 -2.72589e-05 -0.0001118141 -0.7876494451 -0.0037686188
15299910.0 0.857339327 -0.0268169335 3.49046e-05 -5.49494e-05 -4.60472e-05 -0.0002190195 -0.7928109522 -0.0015090664
20299880.0 0.8563347597 -0.0356396512 -4.50395e-05 4.99784e-05 3.70398e-05 -0.0001654559 -0.8001522843 0.0021356028
25299850.0 0.8560538669 -0.0437085106 -0.0002384308 -2.15122e-05 8.15725e-05 2.1234e-06 -0.8057359676 0.0084667892
30299820.0 0.8548054881 -0.0521215724 0.0001520664 -0.0001772397 -0.0001673834 0.000221117 -0.8122994756 0.0162775703
35299790.0 0.8542320697 -0.0605155185 0.0001435677 -2.28814e-05 0.0002877082 0.0001564709 -0.8168164334 0.0254248887
40299760.0 0.8531728341 -0.0687041014 -6.89805e-05 4.07334e-05 -0.0001926438 -2.03206e-05 -0.8213327174 0.0349212388
45299730.0 0.8529051818 -0.0769231997 -0.0001398287 7.5649e-06 -0.0001082937 -2.11063e-05 -0.8250877412 0.0438803302
50299700.0 0.8523212335 -0.0847494155 -0.0001201159 0.0001738203 1.77982e-05 -1.75321e-05 -0.8270878137 0.0538509693
55299670.0 0.8512412385 -0.0932667082 -3.72929e-05 -0.0001165162 -0.0002249005 6.87414e-05 -0.8296680694 0.0647256298
60299640.0 0.8496782375 -0.1013281869 -9.68048e-05 -2.81326e-05 -9.92358e-05 0.000135495 -0.8300011347 0.0744980418
65299610.0 0.8479920506 -0.1105729914 -0.0001178299 -3.03723e-05 -4.0966e-06 -1.44445e-05 -0.8318327581 0.0844278016
70299580.0 0.8474407815 -0.118579833 0.0001092233 -5.7275e-06 2.00858e-05 8.05697e-05 -0.8319265479 0.0947254509
75299550.0 0.8463814178 -0.12639262 -0.000140928 9.5455e-06 -3.00652e-05 -0.0001070197 -0.8323264978 0.1039386296
80299520.0 0.8445504324 -0.1347644177 5.6333e-05 6.89026e-05 -2.08002e-05 0.0001294885 -0.8320280922 0.1139066613
85299490.0 0.8437956538 -0.1432932071 0.0001708245 -5.40432e-05 -3.52355e-05 5.1707e-05 -0.8314219106 0.1236461091
90299460.0 0.8419039418 -0.1508077526 0.0001873858 8.60462e-05 1.4463e-05 -0.0003067637 -0.8304940997 0.1327719841
95299430.0 0.8400653462 -0.1594401768 5.17953e-05 6.85562e-05 0.0001573976 7.98943e-05 -0.8292426359 0.1432362004
100299400.0 0.8380579404 -0.1671190427 0.0001863621 -0.0002635351 2.66277e-05 -0.0001077707 -0.8283292531 0.1520807787
105299370.0 0.8372612479 -0.1755667558 6.85659e-05 0.0001337854 5.5904e-06 -0.0002362475 -0.8274113476 0.1612522178
110299340.0 0.8351949767 -0.1840073669 0.0001634717 6.27757e-05 2.53534e-05 4.44399e-05 -0.8255939813 0.1707927519
115299310.0 0.8333870181 -0.1922955445 -0.0001733684 2.06155e-05 0.000153523 0.0001751887 -0.8241046855 0.1800060507
120299280.0 0.83183464 -0.2000889661 -6.60716e-05 -0.0001224971 3.938e-06 7.98247e-05 -0.8219929916 0.1886803383
125299250.0 0.8291766502 -0.2083267967 0.0001697028 -0.0001267725 -5.91684e-05 -0.0001770572 -0.8207373577 0.1981076986
130299220.0 0.8277331257 -0.2163002759 0.0002452367 0.000164979 9.64532e-05 2.24111e-05 -0.8184750064 0.2063273855
135299190.0 0.8252729281 -0.2243522254 -4.26898e-05 -0.0001821794 -8.34667e-05 -2.17811e-05 -0.8166227706 0.2157893477
140299160.0 0.8231447847 -0.2328505546 0.0003278556 1.74363e-05 0.000109308 3.0357e-06 -0.8138269376 0.2252480452
145299130.0 0.8206288494 -0.2405912676 -0.0001572363 0.0002308943 -0.0001694192 0.0001578827 -0.81215994 0.234005004
150299100.0 0.8182926134 -0.2483504868 -1.27685e-05 -9.72573e-05 -0.0001157037 -1.45985e-05 -0.8103014242 0.2430667455
155299070.0 0.8156073325 -0.2565757019 2.00722e-05 -1.08462e-05 -1.76097e-05 1.51608e-05 -0.806998257 0.2520347334
160299040.0 0.8130459497 -0.2645984964 0.0001861419 4.42808e-05 -0.0001418545 1.01309e-05 -0.8051557437 0.2610064436
165299010.0 0.8107816004 -0.2720406583 -2.71638e-05 -7.53144e-05 8.34435e-05 4.34173e-05 -0.8024284138 0.26948044
170298980.0 0.8077564024 -0.2804199961 0.0002146997 7.04237e-05 3.80623e-05 7.50279e-05 -0.7987875468 0.2781048727
175298950.0 0.8048073599 -0.2881708532 -6.14836e-05 0.0003570224 -4.65443e-05 -0.000106691 -0.7965314789 0.286518626
180298920.0 0.8026819065 -0.2955563474 8.842e-05 -0.0001502439 -4.8123e-05 -0.0001568163 -0.7936221249 0.2949476446
185298890.0 0.7993509271 -0.3037319537 -1.97268e-05 6.80517e-05 9.31059e-05 -2.8473e-06 -0.7899337495 0.3038383503
190298860.0 0.7958183656 -0.3116925483 -6.2433e-05 -5.09665e-05 -5.93579e-05 4.75503e-05 -0.7878046579 0.312396
195298830.0 0.7930078752 -0.318796562 -6.81481e-05 -0.0001591258 -0.0001767545 0.0001507943 -0.7840890532 0.3210235208
200298800.0 0.7895287736 -0.3265473116 -0.0001455324 9.85422e-05 3.06138e-05 -8.4743e-06 -0.7815053474 0.329268206
205298770.0 0.7861411196 -0.3346207023 -3.48542e-05 4.63204e-05 0.0002171646 -0.0001161151 -0.7775165825 0.3375392765
210298740.0 0.7828724689 -0.3419361 -0.0001565163 0.0001411248 -4.58383e-05 8.35454e-05 -0.7742267523 0.3458273519
215298710.0 0.7795576123 -0.3506056429 -0.000204295 8.8732e-06 2.28142e-05 -4.40223e-05 -0.7707258613 0.3539061799
220298680.0 0.7757568755 -0.3577618978 8.1149e-06 -0.0001291865 2.64381e-05 8.73515e-05 -0.767283317 0.3623808149
225298650.0 0.7724698531 -0.3660356434 6.88095e-05 7.60386e-05 -0.0001277745 -0.0001123368 -0.7634893307 0.3700327951
230298620.0 0.7687219882 -0.3728509519 -0.0001218196 -0.0001350392 -7.82953e-05 0.0001131602 -0.7598082296 0.3785099718
235298590.0 0.7647328627 -0.3797682169 -2.04565e-05 6.71466e-05 5.33722e-05 -8.58529e-05 -0.7560703855 0.3865774296
240298560.0 0.7611357661 -0.3875706256 5.22298e-05 1.63028e-05 -1.81487e-05 0.0001080203 -0.7515572302 0.3955487756
245298530.0 0.7573359562 -0.3947512544 0.0002055946 4.9904e-05 2.25976e-05 0.0001371778 -0.747445627 0.4023225573
250298500.0 0.7534872437 -0.4024230831 -2.80304e-05 3.84694e-05 -7.5951e-05 -0.0001223316 -0.7437231132 0.4101820533
255298470.0 0.7492539199 -0.4095030543 -6.16874e-05 -0.0002499143 2.31266e-05 0.0001060647 -0.7385866009 0.4173628026
260298440.0 0.7449824141 -0.4168433022 0.0001068279 -3.0468e-06 -9.66052e-05 0.0001445254 -0.7343746795 0.4262403404
265298410.0 0.7411758675 -0.424173438 -3.69803e-05 -0.0001207678 0.0001121926 4.33011e-05 -0.7300347381 0.4334468705
270298380.0 0.7366798898 -0.4314885429 0.000121049 5.83619e-05 0.0001858728 5.63528e-05 -0.7252963447 0.4409503445
275298350.0 0.7330755008 -0.438618711 0.0001711763 -0.0001253073 -2.11226e-05 0.0001125645 -0.7208958057 0.448234433
280298320.0 0.7280599166 -0.4452586803 1.33225e-05 -3.31904e-05 0.0001478184 0.0001047301 -0.7159179788 0.4560487541
285298290.0 0.7246108492 -0.4528045943 -4.40388e-05 8.25842e-05 -7.5386e-06 -0.0001404425 -0.7109005666 0.4635606089
290298260.0 0.7202709318 -0.4595758948 1.96208e-05 2.98466e-05 6.2103e-06 0.0001836736 -0.7057954033 0.4711529248
295298230.0 0.7157741101 -0.4667432043 -3.518e-05 0.000178861 -8.21417e-05 -0.0001262311 -0.7009239842 0.477780192
300298200.0 0.7119747278 -0.4747312221 -0.0002559549 0.0001962384 2.7811e-06 -8.55989e-05 -0.6954489379 0.4851904759
305298170.0 0.7069656575 -0.4812204909 9.3023e-06 -9.65478e-05 3.5566e-05 -1.0723e-05 -0.689967399 0.4931670603
310298140.0 0.7023931014 -0.4888176503 -0.0001748171 -9.3668e-06 0.0001758505 -0.0001322902 -0.6859058334 0.4997957499
315298110.0 0.6979483123 -0.4963935861 -0.0002199283 -8.6244e-06 -0.0002355388 0.0001288628 -0.6797034895 0.5068068825
320298080.0 0.6934571977 -0.5037212998 -0.0001540743 1.35825e-05 -4.7066e-06 -0.0001136919 -0.6747894118 0.5142423352
325298050.0 0.6882077446 -0.5105258135 3.44904e-05 -0.0001086454 7.19101e-05 3.4803e-05 -0.6691373794 0.5207401811
330298020.0 0.6818763594 -0.5179733805 -0.000111402 5.23818e-05 -2.63574e-05 -0.0001597909 -0.6632764858 0.5279157206
335297990.0 0.6755732477 -0.5253274672 -0.0001457539 -0.0001860509 0.0001396699 8.7314e-06 -0.6581905843 0.5353642445
340297960.0 0.6703212035 -0.532078502 -9.04505e-05 -0.000343091 -5.09943e-05 -0.0001159645 -0.6524711631 0.5420601284
345297930.0 0.6643143457 -0.5378500039 -0.0002258638 -0.0002385979 0.0002331059 -0.0002203468 -0.6470155028 0.5484489077
350297900.0 0.6587070664 -0.5441059155 -6.50406e-05 3.6891e-06 8.48117e-05 4.03767e-05 -0.641104661 0.5551700178
355297870.0 0.6530230903 -0.5497900481 5.2922e-05 8.4241e-06 -9.22985e-05 -3.85036e-05 -0.6353920697 0.5618584826
360297840.0 0.6475271672 -0.5557907129 -0.0003436851 3.13524e-05 9.171e-05 5.4629e-05 -0.6295674956 0.5684879693
365297810.0 0.6411379877 -0.5623348054 5.20892e-05 0.0001012755 0.000102609 -7.25532e-05 -0.6229450635 0.5750131621
370297780.0 0.6360852115 -0.568679057 0.0001038217 0.0002660998 1.61649e-05 -2.82593e-05 -0.6177003555 0.5821439614
375297750.0 0.6299684081 -0.5741748061 -0.0001724644 -7.83633e-05 0.0002281367 -8.53827e-05 -0.6113800007 0.5877061681
380297720.0 0.624411119 -0.5803694626 -2.39566e-05 4.90936e-05 1.75828e-05 0.0001096316 -0.606152095 0.5938674373
385297690.0 0.6187332829 -0.5864332824 0.0001839311 -0.0001944892 0.0001695537 0.0001828036 -0.5989071021 0.6009744389
390297660.0 0.6118490332 -0.592216114 -3.09149e-05 -0.0001108978 5.47335e-05 -0.0001910222 -0.5932785181 0.6070202902
395297630.0 0.6065471911 -0.5981853894 8.702e-06 -1.73955e-05 1.8721e-06 -2.79557e-05 -0.5863439076 0.6130935066
400297600.0 0.600704077 -0.6037006592 -0.0001336424 1.56933e-05 -0.0002708793 -0.0001000934 -0.5806656803 0.6186792094
405297570.0 0.5945017891 -0.6091957888 0.0001378999 -8.66263e-05 0.0002164272 -0.0001823151 -0.5742932106 0.6244913185
410297540.0 0.5881583138 -0.6153537495 3.64577e-05 6.2204e-05 -5.55959e-05 0.0001539821 -0.5676113658 0.6304449691
415297510.0 0.5825464543 -0.6212337487 -0.0002680064 -2.02366e-05 5.16032e-05 -1.64581e-05 -0.5610181969 0.6363868754
420297480.0 0.57588057 -0.6261734987 -0.0001256103 -8.18348e-05 -0.0001880742 0.0001966626 -0.5547599493 0.6422783072
425297450.0 0.5698697137 -0.632267971 -8.4578e-06 0.0001562136 8.20061e-05 -0.000119303 -0.5480684408 0.6477279821
430297420.0 0.5640157272 -0.6374170102 4.03559e-05 0.0001200793 -9.06402e-05 6.64175e-05 -0.5411153498 0.6529007087
435297390.0 0.5573754877 -0.6427699539 0.0003008976 0.0001583179 -2.0205e-05 -0.0001854747 -0.5338172725 0.6585671126
440297360.0 0.5510551436 -0.6490029003 2.43693e-05 -0.0002203714 -0.0002538912 6.31623e-05 -0.5274100598 0.663648291
445297330.0 0.5438701991 -0.6537719595 -7.066e-06 -1.56282e-05 0.0001030934 0.0002229209 -0.5202448841 0.6679530475
450297300.0 0.5387560209 -0.6591950304 -0.0002721948 9.12086e-05 9.80945e-05 -0.000226918 -0.5128663807 0.6736075269
455297270.0 0.5314754827 -0.6643286458 -0.0003375908 6.44718e-05 -0.0002579777 -3.3582e-05 -0.5060298424 0.6784391131
460297240.0 0.5244924402 -0.6698503297 0.0001803103 -5.2409e-05 2.86739e-05 -6.44014e-05 -0.4993391067 0.6835128874
465297210.0 0.5179102465 -0.6747242555 -0.0002067008 4.68879e-05 -3.84217e-05 9.4793e-05 -0.4919037518 0.6889064991
470297180.0 0.5111978332 -0.679467682 5.62713e-05 3.60106e-05 7.69136e-05 0.0001826209 -0.4843223047 0.6942908017
475297150.0 0.5048447818 -0.6847803435 -3.97221e-05 0.000178862 -0.0002505023 -9.10574e-05 -0.4774315531 0.6984249593
480297120.0 0.4970055809 -0.6892900741 -0.0001243342 3.3927e-05 9.99424e-05 3.243e-07 -0.4701230845 0.7034207578
485297090.0 0.4913141473 -0.6938121406 -4.59628e-05 4.38064e-05 -0.0001504923 -4.41748e-05 -0.4631297557 0.7081519505
490297060.0 0.4840848943 -0.6986807298 -0.0001211716 0.0001354623 -9.72068e-05 -4.24944e-05 -0.4557040748 0.7126331594
495297030.0 0.4773514309 -0.7034774256 6.91591e-05 -0.0001462719 -0.0003536463 0.000246847 -0.4484557919 0.7176771968
500297000.0 0.4703040123 -0.7081267363 -8.7731e-05 0.0001422332 0.0001447363 -0.0001098713 -0.4406880405 0.7220036919
505296970.0 0.4631456657 -0.7125204951 -3.36418e-05 0.0002323925 9.61564e-05 0.0001760372 -0.4335006704 0.7263128575
510296940.0 0.4560231298 -0.7171328335 0.0002416368 0.0001289601 -5.6125e-06 5.82414e-05 -0.4259644604 0.7303865073
515296910.0 0.4493613947 -0.7210429556 -0.0002323711 4.55387e-05 3.448e-05 0.0002016265 -0.4185093152 0.7352309579
520296880.0 0.4411714113 -0.7256803964 -0.0001916763 -9.3477e-05 -0.0002016582 -0.0002758147 -0.4112860417 0.7392940141
525296850.0 0.4344350014 -0.7299720522 8.94549e-05 4.40232e-05 -4.90636e-05 5.33491e-05 -0.4040793173 0.7438570753
530296820.0 0.4269305294 -0.7340091579 0.0002807095 -7.83756e-05 1.57693e-05 5.51599e-05 -0.3962691745 0.7474782275
535296790.0 0.4193829105 -0.7378484945 6.67503e-05 0.0003140538 -0.0001902468 0.0003094676 -0.3894062893 0.75138519
540296760.0 0.4119382651 -0.7419820594 -1.8076e-05 -9.169e-07 5.55153e-05 -1.66245e-05 -0.3811272912 0.755597456
545296730.0 0.4044159295 -0.7461125529 2.30099e-05 0.0002183176 -3.6011e-06 5.10434e-05 -0.3738452482 0.75927003
550296700.0 0.3979016644 -0.749021746 5.92568e-05 -2.17083e-05 -8.78364e-05 -0.0001928411 -0.3658516723 0.7627151433
555296670.0 0.389911253 -0.7539862154 4.21001e-05 0.0001192766 -8.20974e-05 -6.51564e-05 -0.3580626479 0.7673496716
560296640.0 0.3822581792 -0.7572736858 -5.88223e-05 1.51934e-05 3.28984e-05 -4.3492e-05 -0.3497771167 0.7702810801
565296610.0 0.3748113848 -0.7601691086 1.38051e-05 0.0001017967 6.8658e-06 -0.0001637591 -0.3426191444 0.7738196632
570296580.0 0.3670232522 -0.7645507373 3.12612e-05 -4.89953e-05 0.0002659906 6.43552e-05 -0.3349960806 0.7776147973
575296550.0 0.3593567554 -0.7675238119 -1.86421e-05 -5.75451e-05 -4.43634e-05 7.94363e-05 -0.3268355246 0.7809828175
580296520.0 0.3521612685 -0.7712355349 -0.0001139113 -0.0001408656 9.9969e-05 2.99874e-05 -0.3180301921 0.7840046585
585296490.0 0.3436585403 -0.7749003548 9.07104e-05 0.0001888635 0.0001386226 0.0002084602 -0.3108175102 0.787307468
590296460.0 0.3363409678 -0.7766962291 0.0002367112 7.0005e-05 -0.0001955295 7.07264e-05 -0.3031363774 0.7901523192
595296430.0 0.3286534744 -0.7814237056 0.0001175303 -0.0001134602 -0.0001454132 3.257e-06 -0.2950001186 0.7926865313
600296400.0 0.3207098594 -0.7840471396 -0.0001283545 -9.70337e-05 -0.0001338775 -7.34357e-05 -0.286787713 0.7955291025
605296370.0 0.3125894932 -0.7870763561 0.000180811 -0.0001932089 -0.000125821 0.0001782281 -0.278057243 0.7986365009
610296340.0 0.304724939 -0.7901870656 6.78149e-05 0.0001961526 0.0001887845 2.71638e-05 -0.2709949226 0.8007856633
615296310.0 0.2978880856 -0.7930870233 0.0001260147 -0.0002785874 -9.75095e-05 0.0001107326 -0.2619495177 0.8036797174
620296280.0 0.2892956951 -0.7960022642 -0.000168847 -3.82274e-05 5.41253e-05 -0.0001305867 -0.2544121859 0.8061309295
625296250.0 0.2812125468 -0.7984405319 -0.0002490519 4.00722e-05 6.398e-07 -1.77972e-05 -0.2452932082 0.8079023938
630296220.0 0.2737718391 -0.8016186904 -4.77154e-05 0.000278507 -1.76321e-05 0.0001268687 -0.2372346086 0.8106725022
635296190.0 0.2652368638 -0.8037324886 -9.90808e-05 9.38389e-05 3.25108e-05 3.58038e-05 -0.2293593032 0.8124127261
640296160.0 0.2573521079 -0.8066040305 -6.646e-06 0.0003277693 -0.0001632539 0.0001671275 -0.221324573 0.8150890891
645296130.0 0.2496146162 -0.8083338041 -0.0001224498 -5.52728e-05 7.84046e-05 -9.19726e-05 -0.2132316821 0.8174941221
650296100.0 0.2412692374 -0.8115369147 -9.8403e-05 0.0001990053 3.31377e-05 -3.3408e-06 -0.2046706775 0.8188008018
655296070.0 0.2326870329 -0.8138157439 -0.0001910926 1.25e-07 -0.0002693889 6.58693e-05 -0.1965108346 0.8209978577
660296040.0 0.2246852281 -0.8158113098 2.19935e-05 -0.000188946 0.0001261286 9.2889e-05 -0.1875531187 0.8227508742
665296010.0 0.2173609972 -0.8174221991 -4.85056e-05 -6.61246e-05 0.0002328035 -2.34937e-05 -0.1788626365 0.8252953697
670295980.0 0.2082929172 -0.8194255359 -2.4931e-06 -5.99271e-05 -0.0001285896 3.65949e-05 -0.1719366185 0.8266499107
675295950.0 0.2005244469 -0.8211268453 4.34221e-05 5.2465e-05 5.19011e-05 -3.75006e-05 -0.1638330624 0.8288478352
680295920.0 0.1921094713 -0.8231786258 -0.0001342328 3.13412e-05 -4.30034e-05 6.27111e-05 -0.1554333095 0.8307442135
685295890.0 0.1840915153 -0.8241169573 2.39283e-05 -0.0001129128 9.35382e-05 0.0002554816 -0.1464560394 0.8318807656
690295860.0 0.1759670063 -0.8262221289 -0.0003084912 -0.0001215782 4.0364e-05 -3.322e-05 -0.1381689676 0.8337273504
695295830.0 0.1678989871 -0.8282262924 0.0001772081 0.0001810553 1.69405e-05 0.0001697976 -0.1296876321 0.834814126
700295800.0 0.159508672 -0.8293607642 0.0001401601 1.39246e-05 -1.92435e-05 0.0001769081 -0.1218251777 0.8363147168
705295770.0 0.1508163843 -0.8309407972 0.0001833443 3.09962e-05 0.0002800067 -0.0001531988 -0.113286468 0.8382219162
710295740.0 0.1423898579 -0.8317286439 -6.18666e-05 -0.0001130453 -2.96981e-05 -5.20234e-05 -0.105001589 0.8383854768
715295710.0 0.1338553082 -0.8339820759 0.000193485 8.01868e-05 -0.000178728 0.0001286797 -0.0965491065 0.8399352425
720295680.0 0.1262598211 -0.8347263149 -8.24537e-05 2.98678e-05 -7.46118e-05 1.33728e-05 -0.0881317565 0.840845494
725295650.0 0.1175988113 -0.8350844669 -6.40752e-05 0.0001328918 9.83532e-05 -2.19166e-05 -0.0794991661 0.8416807616
730295620.0 0.1091947805 -0.8358229478 0.0001434117 8.80154e-05 -1.34262e-05 0.0001347364 -0.0715617365 0.8421755151
735295590.0 0.1010274721 -0.8367961132 0.0002400849 0.0001783239 0.0001191057 -0.0001170616 -0.0633654516 0.842940172
740295560.0 0.09274924 -0.8377172989 -5.90823e-05 2.59625e-05 -5.14937e-05 -8.9015e-06 -0.0539208806 0.8437404566
745295530.0 0.0840003954 -0.8390043422 -8.6462e-05 -5.8133e-06 1.40051e-05 -0.000142865 -0.0460952183 0.84384083
750295500.0 0.0757430665 -0.8393430027 -3.7604e-06 -0.0001956979 -0.0001199111 2.95751e-05 -0.0377354552 0.8443615025
755295470.0 0.0674945326 -0.8398243315 -2.94699e-05 -1.38363e-05 6.32442e-05 -4.75009e-05 -0.0293023712 0.844205607
760295440.0 0.0586467649 -0.8405052047 -7.195e-05 -2.94952e-05 -0.0001213868 -9.32662e-05 -0.0206098251 0.844208259
765295410.0 0.0504375829 -0.8407049256 -5.66381e-05 8.59749e-05 -9.43662e-05 -5.3226e-06 -0.0126776835 0.8448096931
770295380.0 0.0418199963 -0.8414866868 0.0001392047 -0.0003301369 -9.66289e-05 -1.8763e-05 -0.0045126677 0.8448764062
775295350.0 0.0332885569 -0.8414297709 3.70676e-05 0.0001305203 3.37799e-05 1.46315e-05 0.0038462674 0.843978877
780295320.0 0.0247598107 -0.8412152536 -1.74911e-05 0.0002066805 -5.53049e-05 5.5909e-05 0.0121267702 0.8440403576
785295290.0 0.0167715349 -0.8422373407 -0.0001664885 7.00121e-05 -0.0002871514 1.97877e-05 0.0208414015 0.8436519842
790295260.0 0.0080599278 -0.841437762 -4.36393e-05 0.0002496944 -0.0001351259 5.98965e-05 0.029369457 0.8435215021
795295230.0 1.9631e-05 -0.8414436762 -8.86738e-05 -9.94781e-05 -5.6366e-06 -4.90995e-05 0.0387140437 0.8424960378
800295200.0 -0.0084164999 -0.8415663088 1.5156e-05 -0.0001358443 -2.56076e-05 -8.21577e-05 0.0470112727 0.8426316551
805295170.0 -0.0170805384 -0.8410597987 -0.0003084158 -0.0002851629 3.33e-07 6.74084e-05 0.0546189808 0.8421637693
810295140.0 -0.0249344267 -0.8404623459 -8.06489e-05 -4.07554e-05 0.0003219247 8.3157e-05 0.0635749692 0.8414143059
815295110.0 -0.0332139708 -0.8403106009 0.0001665744 6.52807e-05 0.0001674451 -0.0001050133 0.0718004331 0.8407579066
820295080.0 -0.0420072024 -0.839512921 6.53792e-05 -0.0001551898 -8.77333e-05 0.0001474685 0.0801202293 0.8401032207
825295050.0 -0.0501579385 -0.8395453426 -0.0002226282 0.0002000546 -0.0001388908 0.0003944826 0.0884614894 0.8393711015
830295020.0 -0.0586368214 -0.8388473302 -0.0001373773 5.89543e-05 4.9071e-06 0.0001563345 0.0978235909 0.8387325198
835294990.0 -0.0667060755 -0.8372303249 -4.97336e-05 -0.0001068545 0.00010336 -3.65735e-05 0.1054071001 0.837645959
840294960.0 -0.07538699 -0.8371796387 -3.80448e-05 0.0001725419 3.5881e-06 5.86464e-05 0.1139426784 0.8363055838
845294930.0 -0.0835413931 -0.8357072218 -0.0001164728 -8.0315e-06 -7.07257e-05 -0.0001140263 0.1218335081 0.834972134
