!Created with skrf (http://scikit-rf.org).
# Hz S RI R 50.0 
!freq ReS11 ImS11 ReS21 ImS21 ReS12 ImS12 ReS22 ImS22
300000.0 -0.2411775764 -0.0863963971 0.4722095998 0.0590147361 0.4707569418 0.0550494926 -0.2397596351 -0.0947520136
5299970.0 -0.2451086921 0.0067314623 0.4749536896 0.0045781468 0.4750062616 0.005007516 -0.2409045085 0.0077094293
10299940.0 -0.2418322111 0.0181290358 0.4766494797 0.0057258859 0.4768043396 0.0061475218 -0.2376025413 0.0207107558
15299910.0 -0.2374161446 0.0267914998 0.4804094632 0.0076809353 0.4803604549 0.0074345911 -0.233266025 0.0301468591
20299880.0 -0.2327843004 0.0338562302 0.4848533796 0.008274243 0.4847098754 0.0078177743 -0.2276816147 0.0381936886
25299850.0 -0.2278276474 0.0403324079 0.4898175361 0.0072280504 0.4901597831 0.0072284574 -0.2217487815 0.044686733
30299820.0 -0.2224520666 0.0449131248 0.4955913837 0.0050722649 0.4953950688 0.0045731577 -0.2160255591 0.0501094856
35299790.0 -0.2175914743 0.04937712 0.5010182482 0.0011056904 0.5011038928 0.0013333081 -0.2108158999 0.0545556222
40299760.0 -0.2129302591 0.05236835 0.5060714882 -0.0022221387 0.5059075497 -0.002178033 -0.2053549551 0.0573677453
45299730.0 -0.2082459806 0.0550024876 0.5105513695 -0.0071906017 0.5108266687 -0.0070580649 -0.2005045533 0.060498725
50299700.0 -0.2042158885 0.0567313745 0.5152073648 -0.0124658904 0.5149871647 -0.0123382334 -0.1958495284 0.0626503416
55299670.0 -0.1997980881 0.0584725507 0.5187822482 -0.0191430621 0.5185861508 -0.0189031843 -0.1913960233 0.0645011694
60299640.0 -0.1958538028 0.0599796846 0.5216352826 -0.025199165 0.521878508 -0.0250629905 -0.187224084 0.0655557633
65299610.0 -0.1928652968 0.0609919912 0.5248349697 -0.0314115018 0.524722358 -0.0314326075 -0.1840507005 0.0667497656
70299580.0 -0.1898523895 0.0622262627 0.5274228367 -0.0378469233 0.5270241156 -0.0379616917 -0.180755648 0.0676901331
75299550.0 -0.1871564307 0.0630393106 0.5287690047 -0.0446081419 0.5289935357 -0.0444889303 -0.1779370793 0.068261516
80299520.0 -0.1848066878 0.0637370668 0.5310036103 -0.0519363952 0.5310241825 -0.0517028495 -0.1752288125 0.0692260832
85299490.0 -0.1825400086 0.0641442914 0.5316154227 -0.0583510945 0.5320206266 -0.058103522 -0.172832197 0.0693877006
90299460.0 -0.1805676553 0.0650151197 0.5324133111 -0.0653325903 0.5331762839 -0.0652001107 -0.1706824634 0.0702565184
95299430.0 -0.1782004718 0.0654767376 0.5342723306 -0.0719796851 0.5340587206 -0.0723713104 -0.1681384919 0.0711593464
100299400.0 -0.1769480355 0.0663216141 0.5338980669 -0.0791284248 0.534373035 -0.0793535402 -0.1660132784 0.0713445142
105299370.0 -0.1750597525 0.0669594548 0.5345955244 -0.0865246407 0.5348349003 -0.0859945405 -0.1640396099 0.0724560838
110299340.0 -0.1735576079 0.0673309288 0.5346418033 -0.0930337745 0.5347379913 -0.0925174583 -0.1628922308 0.0729812731
115299310.0 -0.1721186575 0.0679555205 0.5348375294 -0.099539756 0.5345284642 -0.0998998922 -0.1609935226 0.0740109579
120299280.0 -0.1709452418 0.068590039 0.5340176374 -0.1066098815 0.5343676731 -0.1065776255 -0.1594750005 0.0743886508
125299250.0 -0.1697058702 0.0693344927 0.5341361758 -0.113140687 0.5342444098 -0.1129813779 -0.1585473354 0.0748222028
130299220.0 -0.1686600881 0.0702728363 0.5334631586 -0.1201135857 0.5334861257 -0.1201044488 -0.1572344944 0.0756418136
135299190.0 -0.1675178369 0.0714121885 0.5328882089 -0.126805452 0.5327229963 -0.1263424049 -0.155607077 0.0769242053
140299160.0 -0.1667461124 0.0720675073 0.5322970045 -0.1333009485 0.5321409856 -0.1332751363 -0.1546039467 0.0780579226
145299130.0 -0.165538388 0.0728463461 0.5311124419 -0.1400214376 0.530841389 -0.1396046502 -0.1535674574 0.0787657591
150299100.0 -0.1644112419 0.0740399814 0.5300045531 -0.1458557885 0.5301660049 -0.1458342942 -0.1523394902 0.0800838734
155299070.0 -0.1639713196 0.0748487553 0.5290039486 -0.1534749518 0.5286346632 -0.1527953676 -0.1510695977 0.0812715265
160299040.0 -0.1629703974 0.075889615 0.5273860982 -0.1593088965 0.5271008082 -0.1594041352 -0.1506096883 0.0822354068
165299010.0 -0.1622937279 0.0769080547 0.525773741 -0.1658931227 0.5260158573 -0.1656518898 -0.1491218641 0.083506809
170298980.0 -0.1614748747 0.077644493 0.5241136125 -0.1719083445 0.5246173739 -0.1718537888 -0.1483823035 0.0846539602
175298950.0 -0.1607098754 0.0788884921 0.5229443393 -0.1781095431 0.5222022625 -0.1784112628 -0.1474028229 0.0859049932
180298920.0 -0.1598998805 0.0798083223 0.521273219 -0.1844726463 0.5210154924 -0.1842060074 -0.1465278477 0.0872437842
185298890.0 -0.1589236899 0.0812753241 0.5189858444 -0.1906068492 0.5189982031 -0.1907876085 -0.1456058497 0.0885546007
190298860.0 -0.1583650818 0.0824186734 0.5173809066 -0.1973178155 0.5174317812 -0.1968614537 -0.1446722423 0.0896927261
195298830.0 -0.1578866958 0.0832512981 0.5153510533 -0.2030070035 0.5151312095 -0.2029754842 -0.1436815163 0.091011342
200298800.0 -0.1566527408 0.0846261629 0.5131069427 -0.2094916393 0.5133438562 -0.2093886256 -0.1430277668 0.092593684
205298770.0 -0.1560846389 0.08607099 0.5107381496 -0.2154369868 0.5108624198 -0.2148887993 -0.1421099282 0.0930916635
210298740.0 -0.1555620441 0.0869723194 0.5086747781 -0.2206143349 0.5086223861 -0.2211053922 -0.1404922911 0.0953955658
215298710.0 -0.1550938869 0.0885191252 0.5064476824 -0.2272436764 0.5063321352 -0.2274370013 -0.1403882035 0.0965310016
220298680.0 -0.154159309 0.0890957455 0.5038540585 -0.2328023584 0.5037135828 -0.233156526 -0.1397350981 0.0976151469
225298650.0 -0.1536380728 0.0907183721 0.5015192995 -0.2391434206 0.5014293836 -0.2387674629 -0.1389501135 0.0989619246
230298620.0 -0.1526843503 0.0921293701 0.4990129075 -0.2444172602 0.4992822282 -0.2446211416 -0.1377896701 0.1002771553
235298590.0 -0.151775709 0.0936888894 0.4959812043 -0.2503633217 0.4961443343 -0.2499326815 -0.1368956684 0.1016556898
240298560.0 -0.1511986225 0.0950964207 0.4938012226 -0.2559934663 0.4936202938 -0.2562203551 -0.1360804408 0.1034251027
245298530.0 -0.1502723055 0.0960059625 0.4913170872 -0.2616635287 0.4910258677 -0.2618968391 -0.135000176 0.1039288613
250298500.0 -0.1491307026 0.0976606194 0.4873975601 -0.2676450515 0.4874999627 -0.2671541128 -0.1338452478 0.1057364549
255298470.0 -0.1485015433 0.098641507 0.4844356898 -0.272775877 0.4847736207 -0.2726729945 -0.1326125753 0.1070974398
260298440.0 -0.1478604341 0.1000257129 0.4817578708 -0.2788130994 0.4822384014 -0.2784573391 -0.1316528102 0.1083840574
265298410.0 -0.1469240402 0.101954391 0.4789382278 -0.2842230105 0.4787361937 -0.2838657314 -0.1306557918 0.1100846361
270298380.0 -0.1461382626 0.10299203 0.4758794252 -0.2890941678 0.4760265777 -0.2892373306 -0.1300717846 0.1109063774
275298350.0 -0.1448560389 0.1044727267 0.4729190328 -0.2947265514 0.4729971683 -0.2947414139 -0.1282010701 0.1124249474
280298320.0 -0.1439317963 0.1057950327 0.4699016181 -0.3002410111 0.4696767196 -0.3001780605 -0.126849487 0.1136515563
285298290.0 -0.1429613645 0.1071617791 0.4665329372 -0.3050918001 0.4662913577 -0.3055824536 -0.1259373257 0.1147626123
290298260.0 -0.1419771646 0.1084222358 0.4627661781 -0.3104116481 0.4630208245 -0.3111785381 -0.1245420897 0.1163861338
295298230.0 -0.140800866 0.1095035091 0.4598994567 -0.3156423354 0.4595588289 -0.3164130034 -0.1229857863 0.1175726622
300298200.0 -0.1401734838 0.111222396 0.4565557344 -0.3210532393 0.4566014933 -0.3217049335 -0.1219917631 0.1189111576
305298170.0 -0.1390232593 0.1120380344 0.4522865958 -0.326802558 0.4525973813 -0.3265528681 -0.1202044695 0.1203070274
310298140.0 -0.1381937077 0.1136320824 0.4492842949 -0.3314194576 0.4492001118 -0.3315677338 -0.1189782838 0.1213640193
315298110.0 -0.1369193863 0.1143969606 0.4457357436 -0.3367703515 0.4459368226 -0.3368346074 -0.1178352074 0.1225880732
320298080.0 -0.1359106813 0.1160495972 0.4414101071 -0.3423463597 0.4422798725 -0.3421050581 -0.1166728962 0.1240877378
325298050.0 -0.1349231181 0.1169437463 0.4379255628 -0.3472215447 0.4376848999 -0.3472064079 -0.1153292543 0.125110956
330298020.0 -0.134284911 0.11821227 0.4337582898 -0.3520290397 0.4336222749 -0.352113574 -0.114398424 0.1263291419
335297990.0 -0.1331018252 0.1193648088 0.4296845381 -0.3567161701 0.4300553233 -0.3568621829 -0.1133332832 0.1284251905
340297960.0 -0.1326329278 0.120893545 0.4254722988 -0.36144458 0.4251678195 -0.3614438862 -0.1115412512 0.1296379237
345297930.0 -0.1317919986 0.1225699172 0.4218215094 -0.3664299251 0.4216186264 -0.3665451065 -0.1105333804 0.1307832798
350297900.0 -0.1303513833 0.1235195984 0.4171111113 -0.3709753001 0.4170973968 -0.3708778376 -0.1095434755 0.1323189886
355297870.0 -0.1292696782 0.1255699678 0.4133605451 -0.3753799021 0.4133276366 -0.3752457618 -0.1082580936 0.1338868573
360297840.0 -0.128096314 0.1267522425 0.4092974375 -0.3798687457 0.4095799053 -0.3797826844 -0.1066961945 0.1354503043
365297810.0 -0.1273313737 0.1283160318 0.4048798387 -0.3847406157 0.4053953751 -0.3845820716 -0.1051516176 0.1366662039
370297780.0 -0.1256576606 0.1293674676 0.4004234396 -0.3887844277 0.4009909266 -0.388520271 -0.1040265808 0.1381715299
375297750.0 -0.1245755602 0.1307217017 0.3964111716 -0.3933076845 0.3968278851 -0.3934821358 -0.1023255766 0.1391750458
380297720.0 -0.1235055811 0.1320899956 0.3923491258 -0.3978388196 0.392259316 -0.3972240547 -0.1013325412 0.1408389944
385297690.0 -0.1224031273 0.1332524877 0.3875776892 -0.4020468462 0.3874059298 -0.4020038916 -0.099525714 0.1419136802
390297660.0 -0.121091252 0.1348501424 0.3833897783 -0.4061871917 0.3832046034 -0.4058507336 -0.0984814767 0.1432696139
395297630.0 -0.1198491585 0.136222513 0.3784664283 -0.4104181986 0.3788242756 -0.4104932978 -0.0962064533 0.1444636001
400297600.0 -0.118584341 0.1376609204 0.3738880223 -0.4153585496 0.374284273 -0.4147312361 -0.0950347868 0.1456610933
405297570.0 -0.1177856708 0.1385918107 0.3699549368 -0.4183413802 0.3694678522 -0.4184576897 -0.0937229666 0.1467706662
410297540.0 -0.1161061783 0.1399693463 0.3652664315 -0.4225663579 0.3656600513 -0.4226306335 -0.0922393378 0.1483946893
415297510.0 -0.1146661175 0.1411684255 0.3601266223 -0.426741935 0.3607452676 -0.4266197254 -0.090749042 0.1492307593
420297480.0 -0.1136246342 0.1429328739 0.3558956405 -0.4307714674 0.3554071883 -0.4307070719 -0.0890316484 0.1501305731
425297450.0 -0.1120817844 0.1436759946 0.3512031108 -0.4346073995 0.3515399984 -0.4344220752 -0.0878593498 0.1518514272
430297420.0 -0.1105689455 0.1448428996 0.3459372633 -0.4379673842 0.3463239375 -0.4376753641 -0.0859909614 0.152061472
435297390.0 -0.1097478319 0.1460725364 0.3413501268 -0.441910847 0.3412802168 -0.4418588711 -0.0838847346 0.1531959073
440297360.0 -0.1079235419 0.1474355225 0.3362953866 -0.4455765438 0.3368592706 -0.4459415353 -0.082659468 0.1544419724
445297330.0 -0.1068399379 0.1481424172 0.3321899096 -0.4492147717 0.3320241747 -0.448934214 -0.0806350243 0.1552683014
450297300.0 -0.1051691546 0.1493362501 0.3266255271 -0.4529818161 0.3267644548 -0.4528853817 -0.078947752 0.1560191084
455297270.0 -0.1037147146 0.15037711 0.3214604483 -0.4561997261 0.3219272956 -0.4560761282 -0.0774233344 0.1569988886
460297240.0 -0.1025770996 0.1518483885 0.3170203548 -0.459922313 0.3170806364 -0.4598166112 -0.0754874135 0.1583655909
465297210.0 -0.1007993215 0.1531161209 0.3116774902 -0.4632069855 0.3120293975 -0.4634857182 -0.0734900135 0.1588873159
470297180.0 -0.0993191306 0.1538466548 0.3064063037 -0.4667588545 0.3065671465 -0.466916211 -0.071969085 0.1602897865
475297150.0 -0.0978868447 0.1547080209 0.3012282198 -0.4697602504 0.3013164173 -0.4698036584 -0.0699048388 0.1610720018
480297120.0 -0.0963716875 0.1563378532 0.2961702633 -0.4736956908 0.2964035778 -0.4733732213 -0.0675678881 0.1620423484
485297090.0 -0.0949608824 0.1571798822 0.291363649 -0.4761711656 0.2913235439 -0.4764824311 -0.0660525042 0.1623501286
490297060.0 -0.0939280559 0.1584852531 0.2862078611 -0.4798829177 0.2861983273 -0.4792604662 -0.0644916241 0.1638582499
495297030.0 -0.0918401897 0.1591171067 0.2806404334 -0.4823870286 0.2811860914 -0.4826062285 -0.0627310936 0.1648629944
500297000.0 -0.0905666129 0.16011614 0.2754389335 -0.4850442741 0.275451733 -0.4849616404 -0.0607758919 0.1659405299
505296970.0 -0.0888059857 0.1611233991 0.2702694228 -0.488322037 0.2698293416 -0.4887031715 -0.0588962628 0.1667383842
510296940.0 -0.0873209654 0.1621899495 0.2650196068 -0.4913036608 0.2648570532 -0.4916601703 -0.0568583587 0.1675865256
515296910.0 -0.0856339141 0.1634460618 0.2592724662 -0.494170845 0.2593727378 -0.494127525 -0.0549787709 0.1686287659
520296880.0 -0.0843376407 0.1640238273 0.2540044628 -0.496902715 0.2542472422 -0.4968569045 -0.053643279 0.1688061166
525296850.0 -0.0825099501 0.1645812261 0.2482198854 -0.4996125604 0.248739884 -0.4995252027 -0.0516168965 0.1700100221
530296820.0 -0.0807681404 0.1660862246 0.243087858 -0.5026608406 0.2432015489 -0.5024216986 -0.0493027659 0.1709620337
535296790.0 -0.079696865 0.167097194 0.2382104214 -0.5047539961 0.2376903108 -0.5046638476 -0.048106841 0.1709770922
540296760.0 -0.078228024 0.1680621879 0.2323232611 -0.5075360268 0.2317153832 -0.5076248533 -0.04613172 0.1722891125
545296730.0 -0.0763678118 0.1689166189 0.2263523501 -0.5096487395 0.2267810598 -0.5098440396 -0.0441314789 0.173087776
550296700.0 -0.0742337357 0.1699385658 0.221012105 -0.512615288 0.2214649649 -0.5126628839 -0.0427542107 0.1737513478
555296670.0 -0.0731864841 0.1706624288 0.2158734853 -0.5148972033 0.215442296 -0.5145536959 -0.0404509681 0.1747636693
560296640.0 -0.0710474314 0.171689668 0.2101393766 -0.5170361921 0.2102167293 -0.5167705382 -0.0386426376 0.1747255092
565296610.0 -0.0698771522 0.1725484298 0.2044520738 -0.5193740024 0.2046521938 -0.5190232081 -0.0369785859 0.1754225398
570296580.0 -0.0683292416 0.1732455069 0.1985605687 -0.5217805303 0.1983301356 -0.5211883896 -0.0350117674 0.1761163445
575296550.0 -0.0664024095 0.1741939529 0.1930626655 -0.5243535837 0.1928914457 -0.5238380103 -0.0327906341 0.1765316939
580296520.0 -0.0643949843 0.1748420333 0.187227587 -0.5260068216 0.187298222 -0.5254594431 -0.0309571006 0.1768084307
585296490.0 -0.0631135779 0.175132622 0.1815100967 -0.5270722345 0.181664143 -0.5279778321 -0.0293538948 0.1776139836
590296460.0 -0.0610401209 0.1761990919 0.1761883727 -0.5289525082 0.175854047 -0.5292661252 -0.0275880605 0.1780114417
595296430.0 -0.0595050789 0.1772091601 0.1698118071 -0.5313719009 0.1697691158 -0.5313612726 -0.0252946762 0.1780527109
600296400.0 -0.058120596 0.1777317511 0.1642929704 -0.5332970166 0.1644224869 -0.5327995542 -0.0236075329 0.1786468993
605296370.0 -0.056435832 0.1782122466 0.1586064711 -0.5347819814 0.1586489872 -0.5347516514 -0.0214946589 0.1790480321
610296340.0 -0.0546599173 0.1789885996 0.1525955768 -0.5359630108 0.152911144 -0.5364543181 -0.0191947619 0.1792173013
615296310.0 -0.0523419214 0.1794547504 0.1463388444 -0.5374749712 0.146560313 -0.5384107424 -0.0172088427 0.1791510036
620296280.0 -0.0508827679 0.1801341286 0.1412152244 -0.5390736581 0.1411458683 -0.5395055831 -0.0155032387 0.1799220762
625296250.0 -0.049417047 0.1803954871 0.1357997617 -0.5410126231 0.1352518568 -0.5415233896 -0.0127698074 0.179876656
630296220.0 -0.0467930546 0.1814411007 0.1290191222 -0.5424526772 0.1288030537 -0.5422317298 -0.0110588681 0.1804177771
635296190.0 -0.0461873918 0.1819235998 0.1236802337 -0.5436599374 0.1234125382 -0.5435006981 -0.009162793 0.1807598224
640296160.0 -0.0441265361 0.1826409273 0.1177775401 -0.5446244167 0.1176421564 -0.544680337 -0.0067136199 0.1808434531
645296130.0 -0.0422874298 0.1833728549 0.1115375648 -0.546211827 0.1117320782 -0.5462382499 -0.0048981662 0.1814322871
650296100.0 -0.0403472657 0.1835917036 0.1057249508 -0.5471718519 0.1055819216 -0.5472334288 -0.0025603811 0.180938431
655296070.0 -0.038698921 0.1838965773 0.0999402847 -0.5482150694 0.1000745617 -0.5484575749 -0.0003650918 0.1812943493
660296040.0 -0.0372553826 0.1842996052 0.0942186317 -0.5493888052 0.0942475026 -0.5495584067 0.001837179 0.1813670348
665296010.0 -0.0347883225 0.1846717258 0.0878318431 -0.5501908786 0.0877888449 -0.5502502427 0.0037981486 0.181886631
670295980.0 -0.0338429527 0.1854941015 0.0823475468 -0.5509122107 0.0819359597 -0.5509729658 0.0052421043 0.1819612732
675295950.0 -0.0315769935 0.1863272044 0.0762236595 -0.5519208427 0.075978085 -0.5514927238 0.0070551159 0.1820806545
680295920.0 -0.0299320664 0.1863782543 0.0701500789 -0.5527533647 0.0697534395 -0.5532859869 0.0093378102 0.1830966434
685295890.0 -0.0278044 0.1873851347 0.0642860004 -0.5536509868 0.0639359289 -0.5536416367 0.011535988 0.182463602
690295860.0 -0.0260852056 0.1874632589 0.0583903298 -0.5534308963 0.0582996806 -0.5543442716 0.0136066987 0.1832151247
695295830.0 -0.0244649503 0.1878160749 0.0527801113 -0.5542110516 0.0519252396 -0.5545017288 0.0154276583 0.1829993185
700295800.0 -0.0223828582 0.187760505 0.0457650834 -0.5548868976 0.0459640047 -0.5546418105 0.0171597124 0.1834751848
705295770.0 -0.0210590461 0.188927702 0.0401643999 -0.5552154064 0.0406364205 -0.5555505378 0.0193873878 0.1833876179
710295740.0 -0.0188006979 0.188971281 0.0341314455 -0.5561226266 0.0346229451 -0.5561806627 0.0215475373 0.1827046806
715295710.0 -0.0172955867 0.1893185812 0.0287870581 -0.5563620094 0.0279592697 -0.5563796402 0.023982821 0.1829403386
720295680.0 -0.0151536808 0.1893760708 0.0223239617 -0.556652291 0.0224654432 -0.5563281813 0.025755421 0.1834595656
725295650.0 -0.013252795 0.1896573512 0.0163118743 -0.5565465118 0.0166499269 -0.556683806 0.02703464 0.1832510192
730295620.0 -0.0112651227 0.1903045832 0.0101966163 -0.5564938319 0.0103146188 -0.5568464216 0.0294076112 0.1827315957
735295590.0 -0.0096107116 0.1906044497 0.0043379011 -0.5570968253 0.0042506431 -0.5568390744 0.0309235638 0.182368102
740295560.0 -0.0078987049 0.1908109031 -0.0019940245 -0.5565805327 -0.001496528 -0.5568410598 0.0335479492 0.1824323715
745295530.0 -0.0058219128 0.1909958074 -0.0079092878 -0.5559458447 -0.0077916772 -0.5568590132 0.0355171208 0.1818664297
750295500.0 -0.0039595881 0.1910343689 -0.0135154428 -0.5564509885 -0.0136964992 -0.5566840407 0.0375692665 0.1817543782
755295470.0 -0.0021287196 0.1912884047 -0.0196792996 -0.5562229616 -0.0199260462 -0.5561983961 0.0399119068 0.1809982312
760295440.0 -0.0005145867 0.1916450576 -0.0254150849 -0.5566402452 -0.0259808198 -0.5561641391 0.0415834959 0.1808314199
765295410.0 0.0015504275 0.1917327904 -0.0317243379 -0.5555082178 -0.0320892003 -0.5560168224 0.0434998503 0.1806282055
770295380.0 0.0029225279 0.191452866 -0.0381229386 -0.5552454375 -0.0378937149 -0.5550441574 0.0451162546 0.1800358674
775295350.0 0.0050029652 0.1914357013 -0.0439855893 -0.5547001362 -0.0436457963 -0.5545188618 0.0465055535 0.1800576152
780295320.0 0.0069188823 0.1915961785 -0.0497710823 -0.5541460678 -0.04922168 -0.5541859171 0.0488803201 0.179029144
785295290.0 0.0085757099 0.1912840497 -0.0558075835 -0.5532597739 -0.0555866259 -0.5532264362 0.0514453479 0.1789771552
790295260.0 0.0110258401 0.1922090238 -0.0610218591 -0.55301396 -0.0607913607 -0.5527763727 0.0532998839 0.178232652
795295230.0 0.012659108 0.191834968 -0.0673283824 -0.55227914 -0.0667975372 -0.5522493439 0.055482564 0.1781145558
800295200.0 0.0142138327 0.1920070576 -0.0736009186 -0.5514093281 -0.0735636596 -0.5515416111 0.0573509105 0.1776400764
805295170.0 0.0162721726 0.1916610928 -0.0792096396 -0.5506029774 -0.0792862746 -0.5506718722 0.0592842793 0.176968512
810295140.0 0.0179922679 0.191470273 -0.0848972841 -0.549188199 -0.085079093 -0.549390184 0.0616070029 0.1768058875
815295110.0 0.0201353879 0.1914555227 -0.0914756461 -0.5481606241 -0.0909999824 -0.5484925643 0.0632420505 0.1760293514
820295080.0 0.0214884354 0.1920430351 -0.0968585751 -0.5478895822 -0.0967853278 -0.5477087081 0.065505454 0.1755267385
825295050.0 0.0240941392 0.1916136323 -0.1024737856 -0.5463858168 -0.1025497569 -0.5465607813 0.0677977112 0.1749166438
830295020.0 0.0257432518 0.1917036943 -0.1090093373 -0.5453628326 -0.1088580572 -0.5449774146 0.0703428525 0.1744611579
