!Created with skrf (http://scikit-rf.org).
# Hz S RI R 50.0 
!freq ReS11 ImS11 ReS21 ImS21 ReS12 ImS12 ReS22 ImS22
300000.0 -0.2366787838 -0.1182452175 0.4674436797 0.0769311015 0.4658593692 0.0777482823 -0.2365190239 -0.1217718497
5299970.0 -0.2450506611 0.0056092925 0.4735267708 0.0059269203 0.4739216873 0.0059289042 -0.2436635336 0.0051540481
10299940.0 -0.2417470356 0.0186426701 0.4764190443 0.0068558489 0.4759597178 0.0069695467 -0.2400680842 0.0182422771
15299910.0 -0.2368841144 0.0282307039 0.4792552664 0.0087843119 0.4798971565 0.0083572409 -0.2362836373 0.0274458013
20299880.0 -0.2314037963 0.0364431195 0.4841177766 0.0081725462 0.4842521466 0.0086082166 -0.231141457 0.0351611751
25299850.0 -0.2255041515 0.0427558786 0.4896604004 0.0080069028 0.489643742 0.0078850955 -0.2260682456 0.0419452283
30299820.0 -0.2201796608 0.0476321055 0.4952318196 0.0056799828 0.4950759561 0.0055267551 -0.2207052824 0.0470189727
35299790.0 -0.2145332807 0.0519320998 0.5003742005 0.0021925152 0.5003165092 0.0022020824 -0.2157634921 0.0513855721
40299760.0 -0.209321913 0.0546809342 0.505808657 -0.0016821739 0.505729087 -0.0016150048 -0.2108653311 0.0546672253
45299730.0 -0.2040600385 0.0571332125 0.5102206243 -0.0059863017 0.5107255018 -0.0061826985 -0.2057399959 0.0576782103
50299700.0 -0.1989762121 0.0591535072 0.5148810457 -0.0119426494 0.5143160422 -0.0117582532 -0.2013434281 0.0599965637
55299670.0 -0.1945915829 0.0602945152 0.518129474 -0.0174537364 0.5181382124 -0.0179062979 -0.197490526 0.0618968224
60299640.0 -0.1907427102 0.0616344127 0.5215698841 -0.0238012343 0.5217940104 -0.0239387001 -0.1938030014 0.0631592745
65299610.0 -0.186980865 0.0626673728 0.5246025163 -0.0302606577 0.5248563369 -0.0303773671 -0.1902422108 0.0646413608
70299580.0 -0.1838771805 0.0631501496 0.5268646218 -0.0367360019 0.5273852959 -0.0367777594 -0.1869435998 0.0657762401
75299550.0 -0.1811537381 0.0637378396 0.529182518 -0.0440763641 0.5288882969 -0.0438189844 -0.1839640798 0.0666874659
80299520.0 -0.1782371425 0.0646748893 0.5310337851 -0.0509164831 0.5312237835 -0.0508363961 -0.1815013794 0.0680367554
85299490.0 -0.1757285445 0.0646805077 0.5323793559 -0.0576084763 0.5323859513 -0.0575842446 -0.1792325848 0.0687583328
90299460.0 -0.1736154131 0.0655027226 0.5332128695 -0.0644829352 0.5336280769 -0.0644052974 -0.1765625539 0.0699655744
95299430.0 -0.1713575847 0.0657145966 0.534256059 -0.0717378741 0.5345241292 -0.0719010532 -0.1750021092 0.0708359442
100299400.0 -0.1693368822 0.0659445644 0.5348038124 -0.078232496 0.5345946261 -0.0782898364 -0.1732594837 0.0718026852
105299370.0 -0.167820029 0.0665680565 0.5346819569 -0.0848793787 0.535350882 -0.085430315 -0.17089003 0.0719238684
110299340.0 -0.1658192371 0.0668786555 0.5350345629 -0.0918803799 0.5353030455 -0.0917809108 -0.1697154701 0.0731207274
115299310.0 -0.1644733966 0.067500705 0.5352417485 -0.0983542938 0.535027692 -0.0987154355 -0.1682070163 0.0742347126
120299280.0 -0.1631441634 0.0682337207 0.5354492904 -0.1062522048 0.534950046 -0.1061024546 -0.1668553596 0.0745531724
125299250.0 -0.1617425582 0.0685887068 0.5343180055 -0.1124358143 0.5344230959 -0.1124517056 -0.1653980025 0.0759866435
130299220.0 -0.1608454562 0.0690716878 0.5342900929 -0.1192975142 0.5341461512 -0.1196678733 -0.1639505212 0.0771677845
135299190.0 -0.1597728866 0.0702536345 0.5335925606 -0.1258798738 0.5337536942 -0.1264223795 -0.1627894582 0.0777400567
140299160.0 -0.158697906 0.0708821264 0.5331130527 -0.1325111321 0.532657861 -0.1323771528 -0.1624407833 0.0787883681
145299130.0 -0.1578679007 0.0716919738 0.5315278255 -0.1388237388 0.532037094 -0.1389353689 -0.1608022786 0.0800678639
150299100.0 -0.156710506 0.0725169453 0.5304755293 -0.1455843093 0.5307102569 -0.1459624506 -0.1598267691 0.0812401253
155299070.0 -0.155530824 0.0733043264 0.5290720494 -0.1525567917 0.5293488585 -0.1522161631 -0.1587952338 0.0822423076
160299040.0 -0.1549456774 0.0743261881 0.5280222109 -0.1585622956 0.5282397285 -0.1588306035 -0.1581570354 0.0835863007
165299010.0 -0.1538133934 0.0753415552 0.5266097317 -0.1649786694 0.5263177884 -0.1651661497 -0.1568040159 0.0844361956
170298980.0 -0.153113116 0.0762674996 0.5247859917 -0.1713482007 0.5253321431 -0.1715475198 -0.156106297 0.0857619542
175298950.0 -0.1523596604 0.0771561024 0.5235343759 -0.1776710941 0.5237092869 -0.1782753454 -0.1549897499 0.08742023
180298920.0 -0.1518078703 0.0784187765 0.5219358754 -0.1844354693 0.5217110502 -0.1846261083 -0.1540433662 0.0885509009
185298890.0 -0.1509170267 0.0793570928 0.5200951772 -0.1902993537 0.5197231266 -0.1904608358 -0.1527912016 0.0897760759
190298860.0 -0.1495758622 0.0809686626 0.5172339589 -0.1966067148 0.5182810578 -0.1964528448 -0.1520954851 0.0910702048
195298830.0 -0.149299649 0.0819166604 0.5160155885 -0.2021131402 0.5162626529 -0.2029107143 -0.1510729144 0.0922556091
200298800.0 -0.1480181313 0.0827087608 0.5139399249 -0.2090073964 0.5138663929 -0.2090070948 -0.1502914413 0.0933050671
205298770.0 -0.1480006033 0.0838890429 0.5116988954 -0.2146488088 0.511963618 -0.2144786537 -0.1491246719 0.0948278185
210298740.0 -0.1468776131 0.0852139521 0.5090978464 -0.220595781 0.509450978 -0.2208014801 -0.1485264396 0.0961886294
215298710.0 -0.1461129607 0.0865918161 0.5066385024 -0.2266937897 0.5070033201 -0.2271060029 -0.1472645838 0.0976396343
220298680.0 -0.1451148245 0.0878329072 0.5044196971 -0.2326872459 0.504774864 -0.2327951347 -0.1464913005 0.099021456
225298650.0 -0.1445492958 0.0891025227 0.5018857327 -0.2384924715 0.5022942474 -0.2378153723 -0.1455690466 0.100171882
230298620.0 -0.1436688664 0.0907876073 0.4994980352 -0.2443360741 0.4997754836 -0.2445531891 -0.1446454042 0.1018261169
235298590.0 -0.143286614 0.091778972 0.4970839838 -0.2503575994 0.4970772933 -0.250055599 -0.1435129778 0.1033425918
240298560.0 -0.142291438 0.0932135855 0.4945213836 -0.2556140438 0.4944595732 -0.2558475317 -0.1426803163 0.1048272826
245298530.0 -0.1416244628 0.0942915937 0.4914797184 -0.2617848162 0.4916277367 -0.2618330259 -0.141311159 0.1062893142
250298500.0 -0.1410095323 0.095652888 0.4889416279 -0.2671596712 0.4888816264 -0.2667649064 -0.1404651222 0.1077126784
255298470.0 -0.1398213434 0.0970353051 0.4861073106 -0.2723943146 0.4862614868 -0.2731439059 -0.1395736883 0.1092710438
260298440.0 -0.1388986869 0.0981426711 0.4830988672 -0.2778538603 0.4828504076 -0.2778326188 -0.1384800275 0.1102359928
265298410.0 -0.138843248 0.0996965385 0.4798620895 -0.283951969 0.4800209444 -0.2840222354 -0.1369383281 0.1115669006
270298380.0 -0.137848178 0.1007217675 0.4768858216 -0.2891706119 0.4772266555 -0.2890254317 -0.1359429067 0.1133648001
275298350.0 -0.1367447351 0.1023421026 0.4730416735 -0.2943810303 0.4733806658 -0.2946104166 -0.1346427126 0.1151122392
280298320.0 -0.1361585074 0.1036657654 0.4705468777 -0.2993528677 0.4707540402 -0.2999926427 -0.1334901827 0.1164821935
285298290.0 -0.135105052 0.1050506728 0.46700332 -0.3050671738 0.4673968021 -0.305163082 -0.1324547692 0.1181711672
290298260.0 -0.1341874007 0.1065285993 0.4644981811 -0.310662342 0.4641195236 -0.3104528839 -0.1313073323 0.1192782271
295298230.0 -0.133508684 0.1075234613 0.4609328005 -0.315797964 0.4610314886 -0.3161812949 -0.1300112184 0.1206340994
300298200.0 -0.132339429 0.1092641318 0.4571103242 -0.3210344113 0.4571757075 -0.3207240834 -0.1288770634 0.1219100079
305298170.0 -0.1314459975 0.110158252 0.4539461499 -0.3263797202 0.4541144553 -0.3265745036 -0.1273606739 0.1233329245
310298140.0 -0.1301897392 0.11096095 0.4504814479 -0.3312741781 0.4505224453 -0.3311442459 -0.1261365752 0.1241746014
315298110.0 -0.1296648378 0.1122264732 0.4467593637 -0.3370149135 0.4466909692 -0.3368416431 -0.1246520435 0.1260658682
320298080.0 -0.1286046026 0.1136558886 0.4424635074 -0.3421288715 0.4432534625 -0.3421636339 -0.1240221156 0.1271286858
325298050.0 -0.1282022502 0.1144847116 0.4389196865 -0.3465923021 0.4394671897 -0.3470147005 -0.1222983381 0.1285007151
330298020.0 -0.1274919722 0.1161741323 0.43452273 -0.3517984621 0.4353318604 -0.3520545922 -0.1212142728 0.1295821348
335297990.0 -0.1266725802 0.1174028333 0.4311682529 -0.3564592571 0.4312809728 -0.3566695229 -0.120053681 0.1311121168
340297960.0 -0.1259262965 0.1183372157 0.4265846786 -0.3615976731 0.4270503672 -0.3617963694 -0.1188168015 0.1327763514
345297930.0 -0.1250077063 0.1199251117 0.4229679591 -0.366444829 0.4227053982 -0.3665493224 -0.1173349051 0.1337295285
350297900.0 -0.1240176733 0.1211273212 0.4188460055 -0.3704157107 0.4191313219 -0.3709386993 -0.1162300517 0.1353925256
355297870.0 -0.1229897409 0.1223055407 0.41472177 -0.3751642614 0.4146532887 -0.3751539997 -0.1144044296 0.1366643705
360297840.0 -0.1219066617 0.1239698025 0.4104389326 -0.3800744571 0.4107501855 -0.3802617283 -0.1132658829 0.1381141298
365297810.0 -0.1213049385 0.1252588193 0.4064715641 -0.384404667 0.4065035481 -0.3841583572 -0.1123803016 0.1393029268
370297780.0 -0.1201254861 0.1265025475 0.4016059654 -0.3890899469 0.4021811885 -0.388992674 -0.1104667519 0.140844946
375297750.0 -0.1189976479 0.1277008023 0.3979815349 -0.3934620936 0.3982862034 -0.3932414261 -0.1088676394 0.1421316884
380297720.0 -0.1180811852 0.1293094563 0.3937116842 -0.3980567294 0.3935947747 -0.3979694318 -0.1077130871 0.1438022622
385297690.0 -0.1171329924 0.1303796456 0.3892575228 -0.4023126591 0.3894226389 -0.4025154709 -0.1059090374 0.1449808162
390297660.0 -0.1154286815 0.1313026135 0.3843006447 -0.4058638823 0.3850383417 -0.4063150115 -0.1044170651 0.1459662233
395297630.0 -0.1143301057 0.1329267961 0.3804640496 -0.4100818592 0.3801539555 -0.4101406381 -0.1026973123 0.1474031009
400297600.0 -0.1134700992 0.1339041059 0.3755939739 -0.4145810231 0.3760145629 -0.4147012611 -0.1012430652 0.1489738912
405297570.0 -0.1122925958 0.1347104692 0.3713747261 -0.4182401538 0.3714829507 -0.4185900179 -0.0993408944 0.1500521303
410297540.0 -0.1109534313 0.1362058203 0.3666376859 -0.4230587963 0.366657333 -0.4227237311 -0.0980506418 0.1516118024
415297510.0 -0.1099060122 0.1377346232 0.3619884464 -0.4269300962 0.3624158393 -0.4268017353 -0.0961033105 0.1527504552
420297480.0 -0.1087262388 0.1381466345 0.3571749714 -0.4306250456 0.3575765001 -0.4309414469 -0.0942959275 0.1540525535
425297450.0 -0.1070763383 0.1396431698 0.3524484209 -0.4345763693 0.3525818836 -0.4345932848 -0.0929454188 0.1550309146
430297420.0 -0.106313642 0.1408062156 0.3488020261 -0.4385552188 0.3482720597 -0.4380484448 -0.0910446546 0.1561657105
435297390.0 -0.1047454803 0.1416213711 0.3428081411 -0.4424800311 0.3430858969 -0.4423069019 -0.0897351223 0.1575696009
440297360.0 -0.1031509204 0.1427875244 0.3379111848 -0.4460296634 0.3378361797 -0.4458954736 -0.0877527652 0.1586330285
445297330.0 -0.1020004 0.1434913898 0.3334847107 -0.4492889816 0.3333073514 -0.4498919261 -0.0857633 0.159922716
450297300.0 -0.1006349869 0.144747271 0.3284407787 -0.4528036621 0.3284295352 -0.4530627592 -0.0839944865 0.1608626162
455297270.0 -0.0995629796 0.145807095 0.3232955216 -0.4567491001 0.3233075535 -0.4568970428 -0.0820750105 0.1619220859
460297240.0 -0.0975612891 0.1469264084 0.3183656101 -0.4606819748 0.3185940558 -0.46036412 -0.0807481205 0.1627753121
465297210.0 -0.0962649084 0.1480508149 0.312922272 -0.4640042234 0.3128368199 -0.4640756652 -0.0784327853 0.1645744712
470297180.0 -0.0948049502 0.1487704831 0.3076781339 -0.4664751895 0.3082487482 -0.4670395571 -0.0765019008 0.1651492074
475297150.0 -0.0939220948 0.1502474524 0.3029611696 -0.4705593661 0.3031203805 -0.4704835578 -0.0747813579 0.1659057727
480297120.0 -0.0917932488 0.1514939094 0.2976615153 -0.474022998 0.2980334936 -0.4732346381 -0.0733573155 0.1666170867
485297090.0 -0.0904910561 0.1518955066 0.2923968183 -0.4772492521 0.2926046271 -0.4769932342 -0.0714428314 0.1683392051
490297060.0 -0.0883135548 0.1531347168 0.2868703044 -0.480410621 0.2876247337 -0.480090639 -0.0695448495 0.1686543208
495297030.0 -0.0876882028 0.1537362228 0.2827048169 -0.4829960709 0.2820200628 -0.4831996034 -0.0670100808 0.1696135151
500297000.0 -0.0862837745 0.1549592596 0.2769793685 -0.4858885833 0.2768930971 -0.4865128854 -0.0654035042 0.1707255787
505296970.0 -0.0841890909 0.1557959485 0.2715144746 -0.4893518575 0.2717251232 -0.4890279375 -0.0636466499 0.1710390525
510296940.0 -0.082599445 0.1566909647 0.2666787562 -0.4923794127 0.2662906454 -0.4925715671 -0.0613692133 0.1721196212
515296910.0 -0.0813230781 0.1579218737 0.2605296488 -0.4949641885 0.2603955489 -0.4951213692 -0.0598763242 0.1728543091
520296880.0 -0.0796095675 0.1589180666 0.2554034693 -0.4976197821 0.2552048396 -0.4979342912 -0.0572113588 0.1742238343
525296850.0 -0.0779533963 0.1594667267 0.2495951253 -0.5002926419 0.2496438576 -0.5003709819 -0.0556432154 0.1744397142
530296820.0 -0.076713381 0.1604175728 0.2442249766 -0.5033340604 0.2443792908 -0.5029335062 -0.0537128723 0.1749685484
535296790.0 -0.0743461882 0.1612515894 0.2387041053 -0.5057104865 0.2392470236 -0.5059124956 -0.0513761433 0.1763512117
540296760.0 -0.0728709018 0.1622667241 0.2331882489 -0.508113457 0.2331273535 -0.5082017651 -0.0495371097 0.1765988777
545296730.0 -0.0718848886 0.1632518465 0.2280698707 -0.5104853536 0.2276968881 -0.5105546702 -0.0476447276 0.1772444347
550296700.0 -0.0695652655 0.1641482854 0.2224172174 -0.5132019984 0.2219676029 -0.5133804225 -0.0455245944 0.1780730103
555296670.0 -0.0679570364 0.164824503 0.2162911033 -0.5156265207 0.2167271873 -0.515346228 -0.0438755442 0.1781071904
560296640.0 -0.0659357954 0.1655337645 0.2108471498 -0.5174686867 0.2109281493 -0.5176790622 -0.0417731567 0.1791490947
565296610.0 -0.0649018314 0.1664650636 0.2056459828 -0.5202613471 0.2055930179 -0.5197483746 -0.0394919063 0.1801043968
570296580.0 -0.0628750017 0.1674570432 0.1993784953 -0.5220564262 0.1995067008 -0.5220857702 -0.0375257793 0.1801038688
575296550.0 -0.0609845342 0.1678856707 0.1941638096 -0.5242202575 0.193854229 -0.5243833026 -0.0355609307 0.1808290819
580296520.0 -0.0594970653 0.1688381956 0.188375305 -0.5264300033 0.1882371813 -0.5266253359 -0.0338248416 0.1812052392
585296490.0 -0.0576110696 0.1697944978 0.1829678431 -0.5280086696 0.1819930872 -0.5281739768 -0.0310177124 0.1823677301
590296460.0 -0.0554507647 0.1703813217 0.1771874185 -0.5303953633 0.1768791768 -0.5306224948 -0.0298029399 0.1827042565
595296430.0 -0.0540602886 0.1713408775 0.1706252447 -0.5319893713 0.1704645806 -0.5321043479 -0.0272517869 0.1827603395
600296400.0 -0.0520374397 0.1718696569 0.1648346834 -0.5338352178 0.1648902501 -0.5340424948 -0.0251600074 0.1831863935
605296370.0 -0.0505733567 0.1727780918 0.1594409791 -0.5353895717 0.1592311336 -0.5358823344 -0.0232675225 0.1838832477
610296340.0 -0.0487145848 0.1739457528 0.1533139654 -0.5372002619 0.1537630469 -0.5369695255 -0.0215567238 0.1842836949
615296310.0 -0.0469965913 0.1743138384 0.1478065121 -0.5392499082 0.1474754072 -0.5391043604 -0.0191542496 0.1844930242
620296280.0 -0.0451068245 0.1754078795 0.1415960224 -0.5405167522 0.1416236061 -0.5401256542 -0.0174520718 0.1851404818
625296250.0 -0.043508269 0.1758521813 0.135986203 -0.5420459335 0.1359350642 -0.5417407005 -0.0152615066 0.1854585963
630296220.0 -0.0418551254 0.1766874868 0.1296717785 -0.5433951869 0.1299064112 -0.5434663129 -0.0130576032 0.1855593763
635296190.0 -0.0401980399 0.1773959155 0.1239348877 -0.5449196335 0.1239197148 -0.544506475 -0.0109113884 0.1855993617
640296160.0 -0.0383844012 0.1775744581 0.1182117244 -0.545947761 0.11803528 -0.5460599291 -0.0091163827 0.1859464161
645296130.0 -0.0363755222 0.1787461752 0.1124739446 -0.5468846272 0.1123327146 -0.5468756644 -0.0074061187 0.1860112426
650296100.0 -0.0347326808 0.1788963989 0.1066259847 -0.5486575192 0.1058980825 -0.5484568867 -0.004358052 0.1862089945
655296070.0 -0.0329740674 0.1798434893 0.1000592639 -0.5497981431 0.100043808 -0.5489406215 -0.0028719506 0.1867951064
660296040.0 -0.0311473219 0.1805064877 0.0945040984 -0.5508087517 0.0944984623 -0.55073168 -0.0007573665 0.1865817734
665296010.0 -0.0292645878 0.1806490259 0.0878584821 -0.5512399202 0.0881461371 -0.5510863954 0.0012767606 0.1868814135
670295980.0 -0.0275602037 0.1814318879 0.0826106159 -0.5519375138 0.0824068141 -0.551953122 0.0032230399 0.1867121748
675295950.0 -0.0262152169 0.1818283657 0.0765935675 -0.5529319997 0.0766988991 -0.5531582844 0.0054912385 0.1873200871
680295920.0 -0.024287835 0.1825243628 0.0708070169 -0.5534094415 0.0706897962 -0.5535409 0.0074802252 0.1868384574
685295890.0 -0.0222499716 0.1831677571 0.0643556976 -0.5547100885 0.0644445929 -0.554608895 0.0096097079 0.1876015393
690295860.0 -0.020819128 0.183587174 0.0587150162 -0.5552706631 0.0581982913 -0.5551612387 0.0114992107 0.1873856787
695295830.0 -0.0189284117 0.1839380799 0.0529119167 -0.5558514301 0.0525541805 -0.5559268199 0.0135493887 0.1875363132
700295800.0 -0.0171077471 0.1846924972 0.0470635463 -0.5559077833 0.0467680307 -0.5559099505 0.01587858 0.1871930462
705295770.0 -0.0155399005 0.1849227307 0.0405343919 -0.556956261 0.0404999234 -0.5567369679 0.0178207319 0.1876634265
710295740.0 -0.0138711401 0.1853271791 0.0349120221 -0.5573087065 0.0344417989 -0.5574921343 0.0200410148 0.1872905295
715295710.0 -0.0117834667 0.1859735129 0.0288129072 -0.5577256005 0.0283138101 -0.5575987213 0.0218816211 0.1868534512
720295680.0 -0.0097519602 0.1862378419 0.0228856543 -0.5574892606 0.0225043119 -0.5579666981 0.0241345099 0.1868971912
725295650.0 -0.008444941 0.1868456019 0.016817651 -0.5575095289 0.0166075844 -0.557626666 0.0260412655 0.1875876704
730295620.0 -0.0074028476 0.186725928 0.011113893 -0.5577708175 0.0102623732 -0.5574655827 0.0280781946 0.1872193326
735295590.0 -0.0049194612 0.1873488538 0.0047262807 -0.5579104407 0.0044139191 -0.5578934371 0.0301081612 0.186793536
740295560.0 -0.0033106493 0.1871442923 -0.0008864216 -0.5577903893 -0.0013662353 -0.5579363584 0.0320425742 0.1869614473
745295530.0 -0.0014549177 0.1878791904 -0.0066902937 -0.5572648667 -0.0067271129 -0.5578836295 0.0336253241 0.1867013464
750295500.0 0.0001320667 0.1879517701 -0.0127895456 -0.5574136621 -0.0132438205 -0.5576655171 0.0360972169 0.1861670736
755295470.0 0.0017587285 0.1882940616 -0.0188303614 -0.557757527 -0.019256464 -0.5579885892 0.0382966227 0.1868477513
760295440.0 0.0032291838 0.1889079559 -0.0255911888 -0.5571527388 -0.0251665771 -0.5571356409 0.0401603567 0.1853884595
765295410.0 0.0052968278 0.1884203916 -0.0309130568 -0.5565058374 -0.0313170758 -0.5569380299 0.042510332 0.1856066978
770295380.0 0.0070662734 0.1892796967 -0.0367114897 -0.5563002989 -0.0370441556 -0.5568316351 0.0439534831 0.1852613837
775295350.0 0.0085032473 0.1890473977 -0.0429223857 -0.5562021285 -0.0431113589 -0.5557386604 0.0466094048 0.1850312802
780295320.0 0.0103740239 0.1895136536 -0.0486977404 -0.5554307688 -0.0491494773 -0.5552237017 0.0485471827 0.1844857422
785295290.0 0.0123827207 0.1891809551 -0.054863714 -0.5549220914 -0.0548229976 -0.555269015 0.0500160638 0.1846650744
790295260.0 0.0139911174 0.1891736977 -0.0605889461 -0.5543095237 -0.0606303004 -0.5545686088 0.0521313353 0.1841870481
795295230.0 0.0155723438 0.1894035615 -0.0665619372 -0.5538267719 -0.0669501337 -0.5535100363 0.0543115923 0.1829363623
800295200.0 0.0170285897 0.1898982554 -0.0724496133 -0.5528308825 -0.0727653157 -0.5530897626 0.0558959872 0.1829774646
805295170.0 0.0188023981 0.189648822 -0.0782508382 -0.552103134 -0.0786359384 -0.552430729 0.0589062221 0.1825164223
810295140.0 0.0209300964 0.1896085521 -0.0842414315 -0.5511451607 -0.0845619194 -0.5510915268 0.0605617194 0.1819502623
815295110.0 0.0225098716 0.1897469906 -0.0902268367 -0.5498835585 -0.0902277433 -0.5501716951 0.0621531626 0.181369926
820295080.0 0.024070583 0.1898111261 -0.095599517 -0.5487204798 -0.0957648814 -0.5497288633 0.0637810545 0.1816231729
825295050.0 0.0255709627 0.1896859592 -0.1024210465 -0.5485172538 -0.1023492093 -0.5483993511 0.066700256 0.1807161458
830295020.0 0.027666027 0.1893868219 -0.1083584998 -0.546705742 -0.108287569 -0.5471666151 0.0681699953 0.1798208383
