!Created with skrf (http://scikit-rf.org).
# Hz S RI R 50.0 
!freq ReS11 ImS11 ReS21 ImS21 ReS12 ImS12 ReS22 ImS22
300000.0 -0.0485493115 -0.0465970581 -0.0015373565 -0.0008336087 0.0009305797 -0.0001472933 -0.7684602615 -0.1423148727
5299970.0 -0.0486710489 0.0152249703 1.56777e-05 8.70826e-05 0.0001618278 6.28711e-05 -0.7837249156 -0.00726606
10299940.0 -0.0429804189 0.0318129754 -6.05441e-05 0.0001218436 2.48892e-05 0.0001506496 -0.7868697514 -0.0038335739
15299910.0 -0.0349612522 0.0458934611 -7.24438e-05 -6.0395e-06 5.41674e-05 -3.5542e-05 -0.7922548608 -0.0015618525
20299880.0 -0.0249944456 0.0574301041 8.9761e-06 -3.81684e-05 -0.0001778786 -3.67601e-05 -0.7989575231 0.0024361757
25299850.0 -0.0143853331 0.0666473636 6.73921e-05 -8.05004e-05 2.64141e-05 -3.32801e-05 -0.8053774724 0.0086013184
30299820.0 -0.0031550528 0.0730186263 -2.29457e-05 0.0002083787 -6.4266e-06 9.993e-07 -0.811107349 0.0165396833
35299790.0 0.0079606101 0.0776884322 -2.17592e-05 1.077e-05 -4.51647e-05 -0.000171816 -0.8161169561 0.0254857696
40299760.0 0.0191441468 0.0805799815 -8.1559e-05 9.78171e-05 -1.66113e-05 9.5766e-06 -0.8207487207 0.0345496035
45299730.0 0.0297197183 0.0816046259 -9.32798e-05 0.0001023832 -8.42004e-05 -8.15522e-05 -0.8249078375 0.0444260388
50299700.0 0.0391261734 0.0816019364 -0.000232197 5.36111e-05 9.27524e-05 -3.64777e-05 -0.8268863365 0.0542196714
55299670.0 0.0483979938 0.0804386363 -4.3376e-05 -0.0001756143 2.49984e-05 0.0001156855 -0.829199504 0.0643944131
60299640.0 0.0568663014 0.0790037524 -0.0001757995 1.2836e-06 -8.2227e-05 8.31972e-05 -0.8304241512 0.0743860807
65299610.0 0.0643190146 0.0759927056 -4.37305e-05 -7.79536e-05 -7.77356e-05 8.60192e-05 -0.8323837223 0.0842640943
70299580.0 0.0710692783 0.0734498722 -1.39233e-05 8.72643e-05 -0.0001132638 -2.2322e-05 -0.8317197966 0.0945552861
75299550.0 0.0773502123 0.0702908882 8.86533e-05 5.9102e-05 -5.02852e-05 -2.18968e-05 -0.8320793252 0.1043004776
80299520.0 0.0828629215 0.0667622935 3.44346e-05 -7.71798e-05 5.10871e-05 1.07292e-05 -0.8321628477 0.114251197
85299490.0 0.0876424812 0.0625983331 -2.28139e-05 4.9433e-05 9.53891e-05 -2.99728e-05 -0.8317889744 0.124049453
90299460.0 0.0922859668 0.05885602 4.47618e-05 9.61588e-05 3.13339e-05 -3.27121e-05 -0.8310822623 0.133668462
95299430.0 0.0964799055 0.0546285875 3.90432e-05 0.0001325535 -9.2392e-06 2.6238e-05 -0.8289407624 0.1429773438
100299400.0 0.0996301493 0.0510754484 5.00209e-05 9.77402e-05 0.0002369401 4.54679e-05 -0.8284260745 0.1524966987
105299370.0 0.1029404521 0.0470345465 -6.51294e-05 -7.36296e-05 5.28372e-05 3.30075e-05 -0.8261722091 0.1613591241
110299340.0 0.1056777683 0.0432244194 2.00824e-05 9.31602e-05 2.52187e-05 -3.12136e-05 -0.825451622 0.1707807712
115299310.0 0.1083695016 0.0390531296 -6.20419e-05 -2.20213e-05 3.62223e-05 7.50309e-05 -0.8237072238 0.1796337763
120299280.0 0.11056025 0.0351892001 -1.54179e-05 0.0001361959 -9.45251e-05 0.0001542224 -0.8219759859 0.1889554243
125299250.0 0.1119390622 0.0313643428 4.11329e-05 2.21756e-05 9.8738e-06 6.85078e-05 -0.8204871345 0.1978652085
130299220.0 0.1136831003 0.0278928238 8.70812e-05 0.0003262586 -1.20245e-05 -0.0001838544 -0.8185647739 0.206542041
135299190.0 0.1154144348 0.0243503058 -0.0001597185 -1.89068e-05 -5.55733e-05 0.0001243753 -0.8160613904 0.2156477108
140299160.0 0.1163608604 0.0205579803 -3.56004e-05 0.0001126233 0.0001532719 -6.70104e-05 -0.813607182 0.2250332443
145299130.0 0.117442911 0.0169171633 7.00634e-05 0.0002457007 -0.0001805195 -8.98996e-05 -0.811867789 0.233885859
150299100.0 0.1184461881 0.0134434802 -4.6423e-06 -0.0001710382 0.0001368829 -9.56929e-05 -0.8097586958 0.2429218247
155299070.0 0.1190958881 0.0103994241 -0.0001187505 -6.69466e-05 -0.0001042518 0.0001671655 -0.8061741288 0.2516467965
160299040.0 0.1194108934 0.0073150327 -0.0001662402 0.0002096147 -3.3543e-06 -7.3962e-06 -0.8043675233 0.2603339526
165299010.0 0.1199527981 0.0037762944 -7.99207e-05 0.0001701855 4.1706e-06 -1.95578e-05 -0.8013837172 0.2693074855
170298980.0 0.1201621858 0.0009288854 8.39167e-05 -7.67825e-05 0.0001223163 -0.0001692341 -0.7984344623 0.2780833137
175298950.0 0.1202870755 -0.0024348651 3.54647e-05 0.0001071011 0.0002362564 0.0001802492 -0.7967337411 0.2867478663
180298920.0 0.1207132009 -0.0052869406 -1.20329e-05 -2.15079e-05 8.6596e-06 7.34509e-05 -0.7926881333 0.2950127371
185298890.0 0.1207654875 -0.0084542928 0.0001901794 2.82522e-05 4.0569e-05 0.0001717207 -0.7895812426 0.3041818425
190298860.0 0.1205933879 -0.0112079811 -1.84781e-05 -4.79918e-05 0.0001830507 -3.35762e-05 -0.7870782742 0.312732312
195298830.0 0.1203073761 -0.0139149084 0.0001469336 0.0001419742 0.0001377635 -2.86041e-05 -0.7839069077 0.3210337609
200298800.0 0.1200003109 -0.0164367951 2.26308e-05 -5.70772e-05 7.7755e-05 7.54131e-05 -0.7812590993 0.3288044049
205298770.0 0.1196457575 -0.0193602687 -4.49497e-05 5.82292e-05 -5.43608e-05 3.9018e-05 -0.7770954407 0.3377194507
210298740.0 0.1193893876 -0.022007802 -3.9711e-06 -4.34131e-05 3.79619e-05 -0.0001808433 -0.7740696129 0.3462891189
215298710.0 0.1185643634 -0.024415886 -4.189e-05 9.08676e-05 8.09831e-05 0.0001766395 -0.7710012043 0.3543373396
220298680.0 0.1181565381 -0.0270222561 0.0001991102 -3.59024e-05 -5.97026e-05 7.97217e-05 -0.7675297289 0.3624829817
225298650.0 0.1175486306 -0.0293689482 0.0001672033 0.0001546183 -8.01224e-05 0.0001928027 -0.76389785 0.3705198445
230298620.0 0.1167765904 -0.0319992697 -4.4022e-05 -6.9357e-06 -0.0001320746 0.0001169169 -0.7597117565 0.3791049846
235298590.0 0.1163413761 -0.0339444591 0.0001479442 4.60331e-05 -3.26521e-05 3.8472e-06 -0.7554269861 0.3872253803
240298560.0 0.1158326759 -0.0364239815 0.0001750481 0.0003025436 8.38595e-05 6.42381e-05 -0.7514771626 0.3957556742
245298530.0 0.1149481144 -0.0387777232 0.0001071997 -0.0002061226 0.0001053603 5.84706e-05 -0.7476619367 0.4025921296
250298500.0 0.1140464874 -0.0408269309 0.0003696821 0.0001228909 -4.15437e-05 8.28974e-05 -0.7431634904 0.4104141133
255298470.0 0.1129040943 -0.0431644395 4.85673e-05 5.94458e-05 -3.31766e-05 0.0001508566 -0.7388212599 0.4181551714
260298440.0 0.1122319191 -0.0450856344 0.0001739528 0.0002096232 -0.0001311423 0.0001417671 -0.7346114705 0.4265074957
265298410.0 0.1113675182 -0.0471233263 -7.18933e-05 -5.0873e-06 -2.0287e-06 -9.74725e-05 -0.7302262452 0.4339302011
270298380.0 0.1103541856 -0.0490651485 -0.0001060354 6.38449e-05 7.15239e-05 -7.15705e-05 -0.7251095241 0.4415858476
275298350.0 0.1095050843 -0.0509203568 -9.4505e-06 0.0002506897 8.48369e-05 0.0001527628 -0.7208387515 0.4484396796
280298320.0 0.1086617504 -0.0531273601 0.0001631057 -0.0001674254 9.12992e-05 8.81487e-05 -0.715505525 0.4560989247
285298290.0 0.1081774577 -0.0549642221 6.62147e-05 -5.394e-06 0.0001066021 0.0002712747 -0.7102469228 0.4633538927
290298260.0 0.1070511412 -0.0569229466 -1.41009e-05 0.0002365096 2.17903e-05 -6.6988e-05 -0.7056801517 0.4709116992
295298230.0 0.1060390209 -0.0588130982 0.0001720835 0.0001211217 5.38318e-05 -4.51147e-05 -0.7007729925 0.4777031353
300298200.0 0.104998255 -0.0603964606 0.0002163739 9.12355e-05 0.0001777608 -0.0003441523 -0.6954494808 0.4850985793
305298170.0 0.1038694509 -0.0625200577 0.0001543295 0.0001801679 -0.0001232071 -6.146e-07 -0.6896165577 0.4924601305
310298140.0 0.1029077751 -0.0642543188 0.0002126455 0.0001075122 -2.60858e-05 0.0001497956 -0.6850502006 0.499265325
315298110.0 0.1019347311 -0.0659575303 0.0002640815 -4.43121e-05 4.9339e-05 4.79152e-05 -0.6793674186 0.5063907841
320298080.0 0.1010782938 -0.0678861245 0.0001599708 0.0001667712 -6.685e-06 4.96912e-05 -0.6739030637 0.5143098765
325298050.0 0.0995270487 -0.0698476647 -0.0002242064 -0.0001455101 0.0002993045 -1.499e-07 -0.6682047877 0.5207000109
330298020.0 0.0981201416 -0.0717614742 0.0001673822 -0.0002880158 -3.36554e-05 6.39637e-05 -0.6627596189 0.5280583995
335297990.0 0.0965327854 -0.0732834529 0.0002045415 0.0001526688 -7.94594e-05 6.63278e-05 -0.6572565718 0.5350500542
340297960.0 0.0948618945 -0.0749109062 9.82495e-05 0.0001221524 0.0001217949 -2.99311e-05 -0.6515101327 0.5423343862
345297930.0 0.0934684717 -0.0759096623 9.10526e-05 8.63109e-05 0.0001868694 7.4859e-05 -0.6462083518 0.5481851338
350297900.0 0.0922591262 -0.0774639572 0.000138303 4.67615e-05 4.1176e-05 0.0001621293 -0.6406974348 0.5548632013
355297870.0 0.0910281561 -0.0789589311 0.0001249117 0.0001746039 -9.90376e-05 0.0001008925 -0.6348642091 0.5613912663
360297840.0 0.0894705233 -0.0801321129 -7.39944e-05 0.0001044494 0.0001882067 -9.71084e-05 -0.6290699358 0.5685593085
365297810.0 0.0877688799 -0.0811810833 5.83218e-05 1.65001e-05 9.22084e-05 7.2149e-06 -0.6220938976 0.5752238729
370297780.0 0.0865409284 -0.0824064144 -0.000253903 2.7892e-05 0.0003175105 -0.0002436975 -0.6167808129 0.5819024615
375297750.0 0.0854113519 -0.0837160142 -7.40821e-05 2.50539e-05 0.0001628576 0.0001354268 -0.6109400491 0.5881537385
380297720.0 0.0839139601 -0.0852163969 -0.0001304502 -0.0001017484 0.0001418298 2.65733e-05 -0.6053501249 0.5945536594
385297690.0 0.0823664447 -0.0860187556 -5.22727e-05 0.0001055283 8.4671e-05 0.0001191226 -0.5989830862 0.6010338734
390297660.0 0.080867719 -0.0870995005 0.0001730008 -0.0001141875 0.0002106666 -2.3355e-05 -0.5927125145 0.607163574
395297630.0 0.0795140944 -0.0888191557 -0.0001160215 7.13281e-05 4.94346e-05 5.19604e-05 -0.5861790425 0.61330881
400297600.0 0.0781627731 -0.0897693652 9.33128e-05 0.0002005046 1.35416e-05 2.73347e-05 -0.580468221 0.6193436748
405297570.0 0.07659714 -0.0904880165 -7.13358e-05 -9.71328e-05 -2.5e-07 2.90128e-05 -0.5738649062 0.6251751802
410297540.0 0.074793327 -0.0918599681 6.40601e-05 -1.85048e-05 0.0001935116 -7.45034e-05 -0.56755948 0.6311613382
415297510.0 0.0736513501 -0.0931583946 0.0002045532 0.0001360648 0.0001961467 7.9673e-05 -0.5611861653 0.6369898546
420297480.0 0.0718932228 -0.0935970737 9.8168e-05 -3.20888e-05 0.0001045091 -0.0002377878 -0.5540510255 0.6422659828
425297450.0 0.0704645646 -0.0949918863 0.0001607376 -0.0001016152 7.85027e-05 0.0001911168 -0.5481137961 0.6480301391
430297420.0 0.0690137809 -0.095780074 4.54063e-05 0.0001392044 2.3083e-05 -5.84577e-05 -0.540737486 0.6529168465
435297390.0 0.0675240293 -0.0965397345 9.88154e-05 0.0001859508 3.33451e-05 -1.2215e-05 -0.5330984947 0.6585603252
440297360.0 0.0657434007 -0.0977399907 0.0001309568 8.93395e-05 -0.0001054133 -2.94026e-05 -0.5271328382 0.6636718592
445297330.0 0.064390189 -0.0984691486 8.1098e-06 7.0003e-05 1.1796e-06 0.0001117378 -0.5201819193 0.6684663635
450297300.0 0.0629102472 -0.0995822714 6.09894e-05 -6.4388e-06 6.96438e-05 7.7558e-06 -0.5129016752 0.6737904966
455297270.0 0.0611219246 -0.1003162629 5.4982e-05 -0.0001008054 0.0001634577 0.0001434178 -0.5056809329 0.6782737147
460297240.0 0.059634533 -0.1013105968 6.7844e-05 6.3788e-05 8.10956e-05 4.68706e-05 -0.4991156996 0.6839553804
465297210.0 0.058218933 -0.1017404382 0.0003381053 -0.0003136408 0.0002454866 1.45214e-05 -0.49160531 0.6887244694
470297180.0 0.0566316762 -0.1026938954 0.0001337708 0.0002454772 -6.55458e-05 0.0002376009 -0.4838279016 0.6940935724
475297150.0 0.054741622 -0.1036822222 0.000180536 2.44813e-05 4.38586e-05 0.0001437041 -0.4768265959 0.6981695094
480297120.0 0.0533171765 -0.1039458745 5.02915e-05 3.72566e-05 5.2894e-06 8.9387e-06 -0.469409275 0.7029166919
485297090.0 0.0517046146 -0.1047600056 0.0001711001 0.0002270421 2.23405e-05 4.21374e-05 -0.4624004053 0.7078351413
490297060.0 0.0501096083 -0.1051730578 0.0001609049 0.0001099567 -7.3608e-05 4.52342e-05 -0.4549924883 0.712297095
495297030.0 0.0484794356 -0.1062645179 0.0003316683 7.56027e-05 9.54957e-05 7.25687e-05 -0.4470272476 0.7171858503
500297000.0 0.0469743314 -0.1067717957 -0.0001277483 8.76733e-05 -2.42989e-05 -3.11985e-05 -0.4404982827 0.7218802746
505296970.0 0.0457136746 -0.1075523468 0.0001170301 0.0002422069 5.75716e-05 -9.70755e-05 -0.4324649015 0.7263743643
510296940.0 0.0439815415 -0.1080891293 5.82208e-05 -6.33086e-05 0.0002182392 0.0002172406 -0.4252663889 0.7307558001
515296910.0 0.0424228741 -0.1085150834 0.0003977575 1.8243e-06 -8.62256e-05 0.000160603 -0.4176698342 0.7350233777
520296880.0 0.0405540582 -0.1087204029 0.0001933909 -0.0002817612 0.0001953195 -0.0001383093 -0.4103525647 0.7391058986
525296850.0 0.0391154356 -0.1096932769 0.0003451707 -2.43762e-05 5.22968e-05 -6.90018e-05 -0.4031336418 0.7432330629
530296820.0 0.0373348179 -0.1097479328 -0.0001154156 6.01644e-05 4.142e-06 -9.94847e-05 -0.3956064789 0.7473065303
535296790.0 0.0356424477 -0.110309315 0.0001580647 -2.89456e-05 0.0002254038 -0.0001580803 -0.3881887432 0.7515136286
540296760.0 0.033838322 -0.1106726901 -0.0003147688 0.0001139232 0.0003183477 0.0001337893 -0.3806969983 0.7555503162
545296730.0 0.0322138366 -0.1110046511 5.33954e-05 0.0002137798 0.0002809332 -4.6927e-05 -0.3729015467 0.759575095
550296700.0 0.0309875443 -0.1115859356 0.0001427693 0.0001876214 0.000152054 0.0001517794 -0.3647964902 0.7634891834
555296670.0 0.0289637571 -0.1117282184 0.0001744175 -6.52689e-05 2.01704e-05 -0.0001551252 -0.3576900647 0.7673333168
560296640.0 0.0276179708 -0.1118713627 0.0002823759 -0.0002024018 -0.0001292725 -1.59591e-05 -0.3497421779 0.7705150849
565296610.0 0.0256771404 -0.1121652663 2.96531e-05 0.0001424984 7.55739e-05 -0.0001750143 -0.3420066093 0.7742075196
570296580.0 0.0239679606 -0.1125190579 0.0002818097 0.0001053006 -4.12088e-05 -6.57871e-05 -0.3342184846 0.7779725221
575296550.0 0.0223966124 -0.1127111699 1.36968e-05 0.0001069421 0.0001653908 -0.0001100473 -0.3262744835 0.7814282012
580296520.0 0.0207079513 -0.1128436495 0.0002787529 -0.0001333557 0.0001144423 -0.0001695503 -0.3177243244 0.7841556128
585296490.0 0.018870161 -0.113426922 0.0001327634 -4.6214e-05 5.06037e-05 8.33701e-05 -0.3099828095 0.7876517315
590296460.0 0.0174959764 -0.1132842585 -9.55172e-05 9.53841e-05 0.0002736481 -3.91032e-05 -0.3028939575 0.7901035165
595296430.0 0.0153930577 -0.1133235256 0.0002449929 7.0803e-05 0.0004233265 3.44758e-05 -0.2939952204 0.7924109282
600296400.0 0.0136182771 -0.1136854877 0.0001565125 2.87769e-05 0.0002182523 0.0001141874 -0.2863693365 0.7957605199
605296370.0 0.0120232895 -0.1135816794 9.01144e-05 0.0003059777 -0.0001256903 -0.0002159179 -0.2776157676 0.798533383
610296340.0 0.0104789453 -0.1137549424 6.70828e-05 -0.0001324361 0.0001027344 -6.64442e-05 -0.2701588991 0.8004432644
615296310.0 0.0089323427 -0.1139205889 0.0002002546 9.1355e-05 2.98052e-05 3.5065e-05 -0.2613793791 0.8030750078
620296280.0 0.0072160332 -0.1141199094 0.0001480213 -0.0001164371 2.76406e-05 -0.0001272072 -0.2537825848 0.8058008931
625296250.0 0.0051086185 -0.1140695174 0.0001355532 -2.91774e-05 -0.0001055237 -0.0002262188 -0.2447539825 0.8075505229
630296220.0 0.0038656935 -0.1141637397 0.000111155 -9.19902e-05 0.0002279548 9.87446e-05 -0.2369556852 0.8105206232
635296190.0 0.0019190989 -0.1140405235 0.0001758753 -0.0001578962 6.2857e-06 -0.0001802776 -0.2287102263 0.8121870399
640296160.0 0.0002398165 -0.1140542514 0.000135516 -5.64664e-05 0.0001246578 6.45463e-05 -0.2204551741 0.8148261769
645296130.0 -0.0012955688 -0.1137061805 0.000155206 -5.46291e-05 0.0001564345 3.24944e-05 -0.2124773123 0.8168590903
650296100.0 -0.0030266757 -0.1137002445 0.0002426739 -0.0001007301 0.0001542071 -2.6373e-05 -0.2041143616 0.8180649081
655296070.0 -0.0045498857 -0.1135580912 9.26e-07 -7.11788e-05 0.000126773 -7.07335e-05 -0.1954538497 0.8204903173
660296040.0 -0.0064275172 -0.1135665031 0.0001007666 -0.0001698535 -7.23178e-05 5.33455e-05 -0.187188737 0.8225685901
665296010.0 -0.0079609668 -0.1135497882 -5.965e-06 -0.0001218805 0.0002895123 -0.0001689676 -0.1783262657 0.8247565382
670295980.0 -0.0096105979 -0.1130411689 0.0001751834 0.0003141502 0.0001405957 -4.94722e-05 -0.1712561088 0.8259849995
675295950.0 -0.0113578683 -0.1129260478 0.0002352855 8.58095e-05 0.0003834369 -0.0001321573 -0.1625050225 0.8280768544
680295920.0 -0.0130725366 -0.1126581181 0.0002950865 0.0001836882 0.0003532288 2.39244e-05 -0.1537667754 0.8303302978
685295890.0 -0.0145329144 -0.1121847178 2.22102e-05 0.0001560039 0.0001262429 -2.32412e-05 -0.145513554 0.8313146847
690295860.0 -0.0162724231 -0.1119774022 9.42656e-05 6.78415e-05 0.0002042516 1.95467e-05 -0.1374866533 0.8331497599
695295830.0 -0.0178067147 -0.1115454354 0.0001976365 -8.62202e-05 2.59301e-05 -5.60756e-05 -0.1287900998 0.8346458372
700295800.0 -0.0196544874 -0.111697995 0.0001026366 -0.0001065568 0.0002454324 7.40015e-05 -0.121576156 0.8360112532
705295770.0 -0.0212246674 -0.1108698313 0.0001739427 -0.0001672443 0.0003667562 -6.45038e-05 -0.1124920304 0.8372348429
710295740.0 -0.0229796427 -0.110118629 -1.39313e-05 9.57871e-05 0.0002170341 -8.6617e-05 -0.1034892571 0.8387777172
715295710.0 -0.0248417161 -0.1102032526 -4.83481e-05 -1.14172e-05 9.39091e-05 2.04975e-05 -0.0958421106 0.8397189712
720295680.0 -0.026089836 -0.1098855806 0.0002132977 7.65801e-05 0.0001639955 -2.744e-05 -0.0873920022 0.8406735626
725295650.0 -0.027667002 -0.10918825 0.000169452 -0.0001098062 0.0001907331 -7.22566e-05 -0.0793283129 0.8419588745
730295620.0 -0.0294282539 -0.1086615649 0.0003791972 -0.0001783147 0.0002011608 4.91985e-05 -0.071454213 0.8425012355
735295590.0 -0.0307995671 -0.1080808434 0.0001153735 2.34802e-05 8.25508e-05 0.000158799 -0.0625828601 0.8426453861
740295560.0 -0.0326694475 -0.1075054449 0.000267033 5.44699e-05 0.0001114263 -2.40922e-05 -0.0532908318 0.8439900569
745295530.0 -0.0343483977 -0.1069967494 3.43576e-05 -4.69255e-05 -6.61744e-05 -9.32258e-05 -0.0455681494 0.8437789956
750295500.0 -0.0355184544 -0.1063265382 0.0001696972 -0.0001475735 3.97628e-05 -8.98691e-05 -0.0372272079 0.8443427182
755295470.0 -0.0372021712 -0.1060533287 0.0002495002 -2.74713e-05 0.0001363933 -0.0001066204 -0.0286026802 0.8438857361
760295440.0 -0.0387319758 -0.1054132644 0.0003104749 -9.5404e-05 0.0002344008 5.76799e-05 -0.0204546126 0.8440093295
765295410.0 -0.0403012742 -0.1045775766 0.0002410305 -2.52772e-05 0.000128449 9.85296e-05 -0.0117575505 0.8443154928
770295380.0 -0.0420362744 -0.1038625251 0.0001804628 1.09067e-05 0.000370098 -3.63957e-05 -0.0037380409 0.844089145
775295350.0 -0.0439081129 -0.1035229809 0.0003579174 -9.16371e-05 0.000122135 -0.0001656418 0.0042921734 0.8439288631
780295320.0 -0.0453017305 -0.1026636348 4.0871e-05 -9.04174e-05 0.0001336216 1.86661e-05 0.0128901439 0.8437038551
785295290.0 -0.046926716 -0.102425646 0.0002230281 0.000121155 0.0001629372 -0.00021587 0.0219990212 0.8431565456
790295260.0 -0.0480848897 -0.1011412406 6.53784e-05 -6.85606e-05 2.5486e-05 -0.0001716687 0.0306844255 0.8433782385
795295230.0 -0.0497603878 -0.1004105416 9.64927e-05 -0.0001257209 0.0001888422 -5.65505e-05 0.0391600732 0.8420040403
800295200.0 -0.051530844 -0.0997406431 0.0002963371 -0.0001225548 -1.30064e-05 -0.0001938838 0.0473187977 0.8418097491
805295170.0 -0.0526029653 -0.0990038881 -5.79598e-05 -0.0001193251 0.000200321 2.29487e-05 0.0549192373 0.8414328166
810295140.0 -0.0541066835 -0.0985305973 0.0002737104 -0.0003125373 1.0664e-06 3.22345e-05 0.0637574814 0.8407309894
815295110.0 -0.0557873647 -0.0975856454 0.0001734132 -4.84478e-05 0.0002377579 -0.000162325 0.0722632523 0.8400236896
820295080.0 -0.0570775704 -0.0965109862 0.000246663 7.32264e-05 7.3891e-06 -3.70815e-05 0.0807563719 0.8390963891
825295050.0 -0.0583712626 -0.0954429563 0.0003796214 -3.5491e-06 2.80023e-05 0.0001217823 0.0891564666 0.8384417104
830295020.0 -0.0600581688 -0.0946610931 0.0001855642 -6.17647e-05 0.0002640724 4.81957e-05 0.098203343 0.8374389597
835294990.0 -0.0612947391 -0.0936503778 0.0002462911 -7.61365e-05 -1.77337e-05 0.0001985125 0.1058144947 0.8368250481
840294960.0 -0.0626750394 -0.0929800564 -3.24283e-05 -6.47611e-05 8.76813e-05 9.62276e-05 0.1146805048 0.8358249998
845294930.0 -0.0641434724 -0.0919398881 0.0001057516 -0.0002907846 0.0001011491 -6.16619e-05 0.1222571302 0.8339535031
850294900.0 -0.0655083938 -0.0909276569 0.0003010209 -0.000203238 0.0002128454 7.91211e-05 0.1306285254 0.8334305163
