!Created with skrf (http://scikit-rf.org).
# Hz S RI R 50.0 
!freq ReS11 ImS11 ReS21 ImS21 ReS12 ImS12 ReS22 ImS22
300000.0 -0.0979211027 -0.0860503942 0.6235623293 0.078791563 0.6250137538 0.0835877302 -0.0969352821 -0.091323074
5299970.0 -0.1003567003 0.0127010721 0.6305730004 0.0103083656 0.6304993214 0.0108883736 -0.1020291651 0.0118800368
10299940.0 -0.0951175941 0.0296130213 0.6340757513 0.0152585281 0.6343617226 0.0162546999 -0.0970814092 0.0288772635
15299910.0 -0.0885373302 0.0431513067 0.64071499 0.0206866287 0.6403600452 0.0207529427 -0.0900254011 0.0421567301
20299880.0 -0.079397808 0.0542242188 0.6486321257 0.0241740299 0.6489418437 0.0243367746 -0.0817262832 0.0531050324
25299850.0 -0.0697899025 0.0628750409 0.6577357371 0.0249423241 0.657667347 0.0252951377 -0.0723145764 0.0618481985
30299820.0 -0.059482862 0.0690401652 0.6678300122 0.0243290638 0.6671072532 0.0244432095 -0.0621871489 0.0687420504
35299790.0 -0.0493984098 0.0741604061 0.6775035183 0.02201932 0.6773993215 0.0219060757 -0.0523305468 0.0735160911
40299760.0 -0.0396497632 0.0768608737 0.6864971249 0.0176864211 0.6865886578 0.0173941436 -0.0435282076 0.0771921309
45299730.0 -0.0302793678 0.0793993194 0.6955921171 0.011456853 0.6956877344 0.0120291587 -0.0340543834 0.0790900077
50299700.0 -0.0217341163 0.0799173426 0.7037640498 0.0047131191 0.7035027837 0.0046984928 -0.0252627963 0.0801428393
55299670.0 -0.014025637 0.0800660849 0.7102061879 -0.0034899998 0.7111270227 -0.0031467176 -0.0174885336 0.0801273243
60299640.0 -0.006516379 0.0788276823 0.7171903777 -0.0115229307 0.7177642477 -0.0114230852 -0.0103005521 0.0798483707
65299610.0 -0.0004151028 0.0779665888 0.7233759945 -0.0196054763 0.7240604818 -0.0201247105 -0.003635038 0.0787833302
70299580.0 0.006102594 0.0758852088 0.7289273064 -0.0293512786 0.7284403489 -0.0294700461 0.00250919 0.0773809698
75299550.0 0.011688039 0.0743253746 0.7327101064 -0.0388940551 0.7326675421 -0.0390011492 0.0081481951 0.0757030879
80299520.0 0.0160138755 0.0718575327 0.7376903575 -0.0488349748 0.7376090743 -0.0485699779 0.0134092478 0.0729605804
85299490.0 0.0207633046 0.0694661757 0.7408353225 -0.0587824353 0.7405651663 -0.0591103842 0.0173615019 0.0711131837
90299460.0 0.0245201735 0.067469978 0.7436386536 -0.0689036448 0.7433710341 -0.0689011361 0.0220941049 0.068845358
95299430.0 0.0282238634 0.0651225793 0.7461725891 -0.0793356087 0.7456089164 -0.0790481156 0.0252677583 0.0663763749
100299400.0 0.0315794112 0.0625454594 0.7475232451 -0.0893612838 0.7476558285 -0.089782853 0.0286778311 0.0641903585
105299370.0 0.0344940755 0.0600412635 0.7485870002 -0.0988249974 0.7488719241 -0.0992462766 0.0319592437 0.0617175146
110299340.0 0.0371903282 0.0576980657 0.749971127 -0.1089849322 0.7501655096 -0.1096035028 0.0347254338 0.0591971164
115299310.0 0.0396101929 0.0547929543 0.7508818241 -0.1192215338 0.7510412274 -0.1189114027 0.037190617 0.0563761472
120299280.0 0.0413565123 0.0526328143 0.7515820713 -0.1300028769 0.7514309947 -0.1298744705 0.0389525641 0.0542497315
125299250.0 0.0431452558 0.0504400972 0.7521668887 -0.1391120572 0.751907521 -0.1396698217 0.0414261153 0.0514861674
130299220.0 0.045041889 0.0479258683 0.751568352 -0.1490584855 0.7515183065 -0.1495053289 0.0432416931 0.0495406147
135299190.0 0.0468341892 0.0454652562 0.7512959881 -0.1585775994 0.7508425449 -0.1590660227 0.0446338805 0.04765477
140299160.0 0.0477691369 0.0442070389 0.7505843367 -0.1689250041 0.7509328191 -0.1691280095 0.0461847667 0.0454275433
145299130.0 0.049015724 0.0420665908 0.7504571656 -0.1779795808 0.7500366369 -0.1786117814 0.0471364152 0.0428910281
150299100.0 0.0508203758 0.0400310903 0.7492779399 -0.1878754267 0.7487067009 -0.1880140589 0.0487099814 0.0411103662
155299070.0 0.0512979009 0.0382663773 0.7477744792 -0.1981314354 0.7474244799 -0.1982675219 0.0492813303 0.0387886572
160299040.0 0.0523971401 0.0359997245 0.7459699236 -0.2066329324 0.7465725002 -0.2073223271 0.0505133049 0.0373099378
165299010.0 0.0527651948 0.0340515429 0.7449297127 -0.2171074813 0.7450491252 -0.2170671664 0.0514278855 0.0348622009
170298980.0 0.0532611521 0.0324821959 0.741854652 -0.2260683085 0.7423823738 -0.2259814966 0.0527702814 0.0329093487
175298950.0 0.0545777491 0.0307133698 0.7416959786 -0.2351479286 0.741647393 -0.2351617584 0.0530137559 0.030941176
180298920.0 0.0551818304 0.0292117426 0.738921525 -0.2445992914 0.7391048376 -0.244141698 0.0535611988 0.0298610448
185298890.0 0.0558859375 0.0272945448 0.7366865456 -0.2539131304 0.736921176 -0.2537974676 0.0542746542 0.0274402054
190298860.0 0.0564389697 0.025721942 0.7347178265 -0.2629651299 0.7345946938 -0.2628240151 0.0552317151 0.026012896
195298830.0 0.056521838 0.0239613365 0.7313251789 -0.2720410015 0.7319481466 -0.2723771601 0.0557715004 0.0241436291
200298800.0 0.0569854838 0.0227475106 0.7296666947 -0.2800700384 0.7292312387 -0.2804244363 0.0560089032 0.0231929936
205298770.0 0.0571849764 0.0215303286 0.726632802 -0.2893887298 0.7267844345 -0.2896959438 0.0564151836 0.0206424116
210298740.0 0.0570795756 0.0196404787 0.7238692526 -0.2991295529 0.7234766592 -0.2990772674 0.0568289115 0.0197794619
215298710.0 0.0576742791 0.0187256879 0.7202887904 -0.306898893 0.7204470573 -0.3072896318 0.0569229804 0.0180577452
220298680.0 0.0583057152 0.0173964668 0.717047068 -0.3157791829 0.717081031 -0.3157477927 0.0573691075 0.0171961473
225298650.0 0.0585335431 0.0160745739 0.7134922976 -0.3237142431 0.7137983913 -0.3242863645 0.0575894415 0.0155796384
230298620.0 0.0580523542 0.014945363 0.7107965506 -0.3327277073 0.7111631908 -0.3331343573 0.0576064291 0.014269659
235298590.0 0.0586194121 0.0132727998 0.7069579738 -0.3409758916 0.7073410619 -0.3417482626 0.0580993928 0.0126834291
240298560.0 0.0581849581 0.0121863296 0.7039850722 -0.3491546256 0.703960819 -0.3493396869 0.0582863149 0.0114929939
245298530.0 0.0588861733 0.0111373693 0.6990028831 -0.3577602099 0.6997803773 -0.3579678919 0.0583827643 0.0106759726
250298500.0 0.0584597922 0.0096550396 0.6960556509 -0.365845717 0.6961480216 -0.3652638145 0.0589790787 0.0088488858
255298470.0 0.0582118022 0.0088743331 0.6916960649 -0.3743404058 0.6917156578 -0.3741523073 0.0587406896 0.0074783887
260298440.0 0.0583306339 0.0078305825 0.6880286313 -0.3822486807 0.6883216729 -0.38269857 0.0595153665 0.0068583844
265298410.0 0.0590129407 0.0070458433 0.6839591674 -0.3908364165 0.6836757835 -0.3904381994 0.0588342982 0.0053951406
270298380.0 0.059156014 0.0056874667 0.6796235895 -0.3986493059 0.6798139933 -0.3982345129 0.0588349609 0.0048984758
275298350.0 0.0585459078 0.0048464697 0.6753065887 -0.4066827062 0.6758056682 -0.4065712497 0.059072065 0.0033864866
280298320.0 0.0586295914 0.0041292274 0.6711339778 -0.4133565088 0.6706458478 -0.4142979985 0.0592151502 0.0027255731
285298290.0 0.0589069014 0.0030695034 0.6665991896 -0.4220861173 0.6665302971 -0.4223695253 0.0588886473 0.0015165106
290298260.0 0.058638413 0.001892475 0.6627119613 -0.4295148782 0.6623555191 -0.430119498 0.059676274 0.0007591172
295298230.0 0.0586746498 0.000773219 0.6579823153 -0.437602446 0.6575642591 -0.4372922617 0.0600018921 -0.0003344015
300298200.0 0.0592511901 -2.88468e-05 0.6528873214 -0.4451115855 0.6528881705 -0.4451555622 0.0593333615 -0.0012993323
305298170.0 0.0590184171 -0.0013994308 0.6481975872 -0.4533213116 0.6485394117 -0.4534870637 0.0597920728 -0.0023671951
310298140.0 0.0594455955 -0.0025146923 0.6432720824 -0.460438284 0.6434132763 -0.4611910817 0.0599052585 -0.0027930367
315298110.0 0.0588897539 -0.0034853632 0.6382129373 -0.4676378886 0.6385109762 -0.4686592046 0.06022518 -0.004602695
320298080.0 0.0586348201 -0.0042796129 0.6330854525 -0.4755190093 0.6332203577 -0.4756099632 0.0595402196 -0.0058661143
325298050.0 0.058168991 -0.0060361608 0.6283836406 -0.4837519186 0.6280671264 -0.4837041857 0.0591475324 -0.0071321763
330298020.0 0.0577311724 -0.0066327853 0.6220240509 -0.4905171477 0.6220040101 -0.4905363821 0.0584381109 -0.0080668627
335297990.0 0.0575688534 -0.0078793878 0.6161841931 -0.4978524833 0.6163297686 -0.4981831541 0.0581494523 -0.0085984649
340297960.0 0.0564315634 -0.0079764714 0.6102511652 -0.5046738786 0.6110413151 -0.5044928586 0.057369258 -0.0093964018
345297930.0 0.0561079195 -0.008758082 0.6049439665 -0.5107213138 0.6043622942 -0.5114570856 0.0578249872 -0.0107737342
350297900.0 0.0562916034 -0.0094424023 0.598936453 -0.51750919 0.599325038 -0.5180892551 0.0565003407 -0.0107682675
355297870.0 0.0559530794 -0.0102773577 0.5933852395 -0.5243182 0.5930228321 -0.5250931632 0.0563607821 -0.0114145876
360297840.0 0.0559729803 -0.01095784 0.5868733006 -0.5315723816 0.5874714456 -0.5314207885 0.0564917075 -0.0118634344
365297810.0 0.0555944133 -0.0116152776 0.5810868751 -0.538149687 0.5814579571 -0.5380131941 0.0557324056 -0.0121626859
370297780.0 0.0557280428 -0.0123733747 0.5754283272 -0.5439690205 0.5756361747 -0.5446211052 0.0560370537 -0.0127400105
375297750.0 0.0550205613 -0.0125600024 0.5702550908 -0.5511991105 0.5696107909 -0.5512819077 0.055679181 -0.0134010151
380297720.0 0.0549401716 -0.0140497969 0.5635742735 -0.5571529394 0.5634052379 -0.5573456304 0.0551915196 -0.0143334647
385297690.0 0.0546677156 -0.0141726814 0.5575788235 -0.5629027688 0.5569272949 -0.5637960237 0.0549525195 -0.01489353
390297660.0 0.0541218199 -0.0147970407 0.5507649677 -0.5695593574 0.5505208526 -0.5705080102 0.0548908761 -0.0157826515
395297630.0 0.054607835 -0.0155477646 0.5451556599 -0.5757988238 0.5447964684 -0.5758925084 0.0544255743 -0.0158394321
400297600.0 0.0538931152 -0.0159236854 0.5381911373 -0.5823921305 0.5386631883 -0.5825196834 0.0531452917 -0.0168442964
405297570.0 0.0538772517 -0.0163367399 0.5324033824 -0.5875930332 0.5319067094 -0.5881984788 0.0537046027 -0.0168459869
410297540.0 0.0539017175 -0.0174605943 0.5243725885 -0.5938638184 0.5252569098 -0.5940162241 0.0529794669 -0.0177049764
415297510.0 0.0530281562 -0.0171990008 0.5189287805 -0.5992960726 0.51914908 -0.5994813203 0.0527793131 -0.0178309994
420297480.0 0.0528311073 -0.018770491 0.5119346487 -0.6056609483 0.5123627449 -0.6057968522 0.0527486891 -0.019039757
425297450.0 0.053372423 -0.0198408833 0.5059375626 -0.6111335649 0.5060008959 -0.6111786329 0.051932237 -0.0190486451
430297420.0 0.0524574847 -0.0195729435 0.4989282722 -0.617020493 0.499031055 -0.6173759213 0.0515073178 -0.0204297814
435297390.0 0.0525030965 -0.0206839158 0.492006984 -0.6220538763 0.4919799881 -0.6219116235 0.0511323437 -0.0202726891
440297360.0 0.0521791449 -0.0215193047 0.4846976751 -0.627971877 0.4846862752 -0.6276038088 0.0509628275 -0.0214110554
445297330.0 0.0523595397 -0.0222040294 0.4779133088 -0.6336888601 0.4779153807 -0.6335529802 0.0504732087 -0.0217224276
450297300.0 0.0519491099 -0.0225564977 0.4712983503 -0.6385050571 0.4711485949 -0.6385424191 0.0502645474 -0.0221648098
455297270.0 0.0509384384 -0.0231493951 0.4646294934 -0.643792518 0.4646311694 -0.6437383986 0.0500942179 -0.0226080501
460297240.0 0.0504879413 -0.0237407086 0.4567961505 -0.6486007916 0.4564038453 -0.648702459 0.04981125 -0.0226940753
465297210.0 0.0507073792 -0.0247729047 0.4501988072 -0.6537802676 0.4502994538 -0.6544350766 0.0487958189 -0.0237562346
470297180.0 0.0499222783 -0.0251930765 0.4430205232 -0.6583150123 0.4432177563 -0.6590051605 0.0475722434 -0.0239322358
475297150.0 0.0491159413 -0.0264467087 0.4354252279 -0.6629745292 0.4358103466 -0.6634318845 0.0479987494 -0.0247682618
480297120.0 0.0498685631 -0.0268963315 0.4283106934 -0.6682267772 0.4287985244 -0.6685591879 0.0474842323 -0.0245524071
485297090.0 0.0492240836 -0.0272350643 0.4213619742 -0.6729282141 0.4209922711 -0.6738527253 0.0465858671 -0.0259976156
490297060.0 0.0489649292 -0.0283355396 0.4139064326 -0.6779781437 0.4138365594 -0.6776361803 0.0468515708 -0.0257290191
495297030.0 0.047658877 -0.0281628877 0.405573663 -0.6822170631 0.4059062709 -0.6825493112 0.0463961193 -0.0265145143
500297000.0 0.0479800995 -0.0291432203 0.398883057 -0.6864922692 0.3985009583 -0.6868868315 0.0453079219 -0.0269009564
505296970.0 0.0472915616 -0.0297488245 0.3905228325 -0.6904799324 0.3907294019 -0.6908056071 0.0447782502 -0.0273366911
510296940.0 0.0468961443 -0.0301894005 0.3831133064 -0.6951440962 0.383640851 -0.6952541775 0.0450519967 -0.0271290801
515296910.0 0.0462213146 -0.0304425467 0.3753681215 -0.6996822671 0.3757606522 -0.6990244016 0.0439383692 -0.02837578
520296880.0 0.0457413636 -0.0312965573 0.3677205359 -0.7036602389 0.3681860069 -0.7037796211 0.0441665479 -0.0283770886
525296850.0 0.0453144676 -0.0321671444 0.3603869951 -0.7079290317 0.3604845865 -0.7075799739 0.0438728201 -0.0289216035
530296820.0 0.0451788878 -0.0327330513 0.3527407913 -0.7105482818 0.3521143337 -0.7112661924 0.0424129703 -0.0299164268
535296790.0 0.0442532226 -0.0328830847 0.3445848685 -0.7150447597 0.3452943316 -0.7152839283 0.0424847613 -0.0304395571
540296760.0 0.0438486145 -0.0339361275 0.3375070744 -0.7192586263 0.3361028756 -0.7192684426 0.0413820149 -0.0303175697
545296730.0 0.04331755 -0.0336597561 0.3289275496 -0.7223271979 0.3284581216 -0.7233586301 0.0409252993 -0.0309051059
550296700.0 0.0426363513 -0.0344741655 0.3215935825 -0.7267975557 0.3218158769 -0.7265385809 0.0405197824 -0.0306966343
555296670.0 0.0426907184 -0.0351663037 0.3135601681 -0.730644175 0.3131988321 -0.7300500178 0.0400703545 -0.0314767541
560296640.0 0.0417338121 -0.0358054633 0.3053979579 -0.733050068 0.3051719632 -0.7331105218 0.0398289779 -0.032057137
565296610.0 0.0408118626 -0.0362519987 0.2970465271 -0.7367893694 0.2965687372 -0.7369590173 0.0387036567 -0.0324061461
570296580.0 0.0410448361 -0.0367071626 0.2889245239 -0.7398046554 0.2893682517 -0.7399419777 0.0385666986 -0.0317383435
575296550.0 0.0402128624 -0.0361434669 0.2807288513 -0.7420527503 0.2812329297 -0.7424094403 0.0384420513 -0.0325763768
580296520.0 0.0393547514 -0.0371619412 0.2732901748 -0.7459333517 0.2728862011 -0.7463282953 0.037792853 -0.0332567182
585296490.0 0.0393196259 -0.0377925392 0.2653029467 -0.7492109288 0.264574246 -0.74819918 0.0369053235 -0.0338718364
590296460.0 0.0378742359 -0.0385762525 0.2565889838 -0.7518501998 0.2562159041 -0.7518212625 0.0367863506 -0.0334329149
595296430.0 0.0376870917 -0.0384391427 0.2487600912 -0.754945605 0.2482374874 -0.754574993 0.0363570864 -0.0342545727
600296400.0 0.0370306391 -0.0387964211 0.2398335007 -0.7573519129 0.240418466 -0.7571134725 0.03537139 -0.0342415599
605296370.0 0.0367728406 -0.038771002 0.232304263 -0.759744718 0.2315141254 -0.7595700648 0.0348356209 -0.0352775827
610296340.0 0.0359613386 -0.0394534308 0.2238911291 -0.7621464504 0.2236810726 -0.7621653066 0.0343700048 -0.0340783728
615296310.0 0.0353346444 -0.0395214658 0.2151333283 -0.764342466 0.2151438545 -0.7645531368 0.0341784113 -0.035026148
620296280.0 0.0346276207 -0.0399435038 0.2071401073 -0.7670849658 0.2066427299 -0.7668074365 0.0333337907 -0.0359397436
625296250.0 0.0345382812 -0.0405711855 0.1978916755 -0.7695007682 0.1985247582 -0.7694447783 0.0330446809 -0.0354951918
630296220.0 0.0337763888 -0.0405786108 0.1898025922 -0.7715663981 0.190203545 -0.7712574689 0.0319453233 -0.0361473065
635296190.0 0.0331580078 -0.0410755576 0.181266884 -0.7730109084 0.1814379089 -0.77282233 0.0315796245 -0.0366049923
640296160.0 0.0322946529 -0.0414509346 0.1735654275 -0.7754281402 0.1728040833 -0.7752363419 0.0316832504 -0.0368454571
645296130.0 0.0318107738 -0.0411479725 0.1647147048 -0.7768524606 0.1646651901 -0.7769022823 0.0298142855 -0.0373266548
650296100.0 0.0309803357 -0.0410431835 0.1569050467 -0.7789649149 0.15647778 -0.778345108 0.0297386587 -0.0375797449
655296070.0 0.0303484388 -0.0419934088 0.1472975299 -0.7804204566 0.147804743 -0.7798903916 0.0299208694 -0.0369795568
660296040.0 0.0291740718 -0.0415388189 0.1390871604 -0.7818817573 0.1395008693 -0.7817465193 0.0286028806 -0.0378662989
665296010.0 0.0293317504 -0.0424813342 0.1307116217 -0.7831586894 0.1314099301 -0.7833571312 0.0279140176 -0.0372230404
670295980.0 0.0292623239 -0.0423221643 0.1227022388 -0.7846453284 0.1225485122 -0.7843902461 0.0269108432 -0.0381282886
675295950.0 0.028281972 -0.0422111629 0.1137297773 -0.7861009629 0.1142426152 -0.7862304661 0.0269470094 -0.0376957362
680295920.0 0.0273320146 -0.0425063549 0.1053179881 -0.7870777509 0.1050324209 -0.7873879471 0.0266728394 -0.0382333016
685295890.0 0.0266704551 -0.0427200657 0.09682843 -0.7884639365 0.096148757 -0.7881143402 0.0257223756 -0.0382343337
690295860.0 0.0264069273 -0.0430984226 0.0881446052 -0.7887385973 0.0874595067 -0.7889214401 0.0255217913 -0.0381478275
695295830.0 0.0262296496 -0.0433599317 0.0786281735 -0.7900063921 0.0790556944 -0.7903934102 0.0243739724 -0.0383919937
700295800.0 0.0257815097 -0.0432916717 0.0710698628 -0.7912393102 0.0700512017 -0.791593965 0.0238273538 -0.0392067278
705295770.0 0.0245007312 -0.0436006603 0.062211348 -0.7916355774 0.0621925499 -0.7919459293 0.0229799465 -0.0389790834
710295740.0 0.0242345955 -0.04341671 0.05403305 -0.7921365727 0.05269211 -0.791698498 0.021674643 -0.0388976109
715295710.0 0.0235209567 -0.0437123944 0.044725731 -0.7927073822 0.0455286178 -0.793111849 0.021857651 -0.0397165534
720295680.0 0.0229680402 -0.0441669351 0.0358698952 -0.7929201386 0.0365830528 -0.793285674 0.0215560553 -0.0392511138
725295650.0 0.0225244297 -0.0440665643 0.026754067 -0.7935489905 0.0271684162 -0.793354453 0.0209723908 -0.0392264569
730295620.0 0.0213910507 -0.0445061185 0.0187206515 -0.7940645743 0.018971965 -0.7939775327 0.0204278603 -0.0404368907
735295590.0 0.0213898481 -0.0443431273 0.0106398714 -0.7939063548 0.0105483594 -0.7939867794 0.0192781922 -0.0397581842
740295560.0 0.0201584246 -0.0442888019 0.001431338 -0.7934230346 0.0016043156 -0.7935724344 0.0193716141 -0.0400073771
745295530.0 0.0199759367 -0.044957826 -0.007057419 -0.7937781807 -0.0068274976 -0.7943020033 0.0182800019 -0.0399867062
750295500.0 0.0191438856 -0.0449182113 -0.01523673 -0.7933345777 -0.0153468468 -0.7937814878 0.0180481195 -0.0405725148
755295470.0 0.0190135353 -0.0443621837 -0.0240571185 -0.7937579931 -0.0244389197 -0.7935473996 0.0166997176 -0.0401568377
760295440.0 0.0178741036 -0.0443241339 -0.0331811293 -0.7931209591 -0.0330890746 -0.7932926541 0.0158812208 -0.0404432988
765295410.0 0.016862575 -0.0449964007 -0.0406115673 -0.792230705 -0.0411425754 -0.7925952529 0.0165378045 -0.0395208607
770295380.0 0.0168916134 -0.0448563582 -0.0501247675 -0.7919576737 -0.050097547 -0.7927505008 0.0158701788 -0.0399286372
775295350.0 0.0162968793 -0.0448475474 -0.0584914728 -0.7908238463 -0.0586707516 -0.7920234628 0.0145381128 -0.0410849585
780295320.0 0.0155065342 -0.0448733429 -0.0672575366 -0.7909532165 -0.0667934106 -0.7910229461 0.0143310911 -0.0401209823
785295290.0 0.014480728 -0.0443410586 -0.0756055306 -0.7895183726 -0.0760566256 -0.7905892366 0.0129468028 -0.0404871384
790295260.0 0.0140222373 -0.0448140972 -0.0841847014 -0.7891093417 -0.0843712066 -0.7898700969 0.0130379867 -0.0401991063
795295230.0 0.0134744733 -0.0449551379 -0.0925970843 -0.787804364 -0.0925104562 -0.7880654212 0.0122639493 -0.0394664553
800295200.0 0.0130536765 -0.0444904032 -0.1016291076 -0.7877008681 -0.102252514 -0.7875675707 0.0115198309 -0.0401650609
805295170.0 0.0117351771 -0.0445596837 -0.1098174956 -0.7853537209 -0.1098583355 -0.7858172285 0.0108918503 -0.0402854684
810295140.0 0.0116578653 -0.0446242331 -0.1183462304 -0.7852679045 -0.1183118893 -0.7853068914 0.0104766633 -0.0399512896
815295110.0 0.0108632303 -0.0442558525 -0.1276499758 -0.7830149106 -0.1277685039 -0.7833816438 0.009450184 -0.0406157775
820295080.0 0.0102061824 -0.0447087141 -0.1352141158 -0.7817705172 -0.1359318586 -0.7821274413 0.0089349177 -0.0397150324
825295050.0 0.0098159084 -0.0448124394 -0.1440410709 -0.7802186075 -0.1441164399 -0.7805534449 0.0086842443 -0.0396116747
830295020.0 0.0090723367 -0.0443193837 -0.1528368037 -0.7786350456 -0.1532962806 -0.778989592 0.0079518539 -0.0402020652
