!Created with skrf (http://scikit-rf.org).
# Hz S RI R 50.0 
!freq ReS11 ImS11 ReS21 ImS21 ReS12 ImS12 ReS22 ImS22
300000.0 -0.2361609354 -0.1096268185 0.4666263325 0.0727810676 0.4712781575 0.0747097636 -0.2375285329 -0.1158099668
5299970.0 -0.240806861 0.0070017585 0.4752591929 0.0053029522 0.4748843719 0.0058700797 -0.2444454519 0.0051740863
10299940.0 -0.2371052646 0.0199442974 0.4774309454 0.0064437976 0.4766845441 0.0067516554 -0.2413405022 0.0174386285
15299910.0 -0.2328608796 0.0297154775 0.480745222 0.0075205579 0.480393953 0.0076616629 -0.2372102921 0.0263310589
20299880.0 -0.227471058 0.0377593607 0.4851454746 0.0081444707 0.4854868952 0.0080385071 -0.2326843558 0.0340249087
25299850.0 -0.2217852646 0.0443320149 0.4904779599 0.006606463 0.490542067 0.007125057 -0.2276145131 0.0399812089
30299820.0 -0.2155457259 0.0493278386 0.4958021239 0.0051789741 0.4959483464 0.0050289467 -0.2224749472 0.0450055221
35299790.0 -0.209991859 0.053751376 0.5009828272 0.001566657 0.5013673627 0.0018478656 -0.217079647 0.0487180048
40299760.0 -0.2045661428 0.0570029021 0.5062099758 -0.0015943881 0.5061824697 -0.002223318 -0.2124696366 0.0518649976
45299730.0 -0.1995292755 0.0601587576 0.5113446299 -0.0069842307 0.5112010526 -0.006877464 -0.2081102619 0.0543820564
50299700.0 -0.1946104602 0.0621305493 0.5149263604 -0.0128901321 0.515146925 -0.0130604884 -0.2032846973 0.0567311624
55299670.0 -0.1905321147 0.0637654224 0.5183022928 -0.0185414799 0.5185890342 -0.0186153706 -0.1999397215 0.0581033883
60299640.0 -0.1862877171 0.064837593 0.5215772751 -0.0248258563 0.5220520358 -0.0246954525 -0.196217587 0.05939797
65299610.0 -0.182978321 0.0663602939 0.5248524112 -0.0310049196 0.5250996025 -0.0313078074 -0.1926506618 0.0607522932
70299580.0 -0.1794067442 0.0672296565 0.527219314 -0.0378520757 0.5271973161 -0.0377742768 -0.18989692 0.0618672475
75299550.0 -0.176395856 0.0680298067 0.5290392619 -0.0445045463 0.5292233219 -0.0448506078 -0.1870548523 0.0626784953
80299520.0 -0.1740898826 0.0692321605 0.5316186438 -0.0516888628 0.5313067742 -0.0514493647 -0.1846810783 0.0629393388
85299490.0 -0.1715889258 0.0694224709 0.532364022 -0.0585132318 0.532502349 -0.0584651313 -0.1826095346 0.0639143551
90299460.0 -0.1692853681 0.0702070386 0.5337669985 -0.0651505791 0.5336055698 -0.065328032 -0.1799473713 0.0644657821
95299430.0 -0.1673343425 0.0708545546 0.534320073 -0.0723619379 0.5342208108 -0.0720846019 -0.1783686263 0.065179843
100299400.0 -0.1650902684 0.0717244188 0.5345741349 -0.0793209208 0.5349507419 -0.0790030579 -0.1772008464 0.0654765342
105299370.0 -0.1632056837 0.0724110697 0.5346339736 -0.0861246064 0.5349022891 -0.0860276507 -0.1750845444 0.0662524473
110299340.0 -0.1619961857 0.0730759484 0.5348583543 -0.0926066676 0.5352739671 -0.0933470236 -0.1734965503 0.0673203274
115299310.0 -0.1603078647 0.0735953361 0.5351341811 -0.0995270931 0.5353352491 -0.0992726537 -0.172089245 0.0672237294
120299280.0 -0.1591837659 0.0744528399 0.534806857 -0.1066464386 0.5349299498 -0.1065318472 -0.1713606625 0.068070889
125299250.0 -0.1577346574 0.0751400498 0.534329472 -0.1128584707 0.5346710408 -0.1130758576 -0.169639578 0.0682717356
130299220.0 -0.1565542862 0.0762470543 0.534059794 -0.1196547438 0.533905552 -0.1199386276 -0.1689545035 0.0696071783
135299190.0 -0.155228575 0.0767666754 0.5334099849 -0.1264658291 0.5327779959 -0.1268498489 -0.16771059 0.07031168
140299160.0 -0.1541433583 0.0784084682 0.5323149558 -0.1328413289 0.53299314 -0.1331802289 -0.1669937575 0.0713754401
145299130.0 -0.1532233843 0.0790747785 0.5318101918 -0.139978978 0.5312209335 -0.139404698 -0.1662122991 0.0717659527
150299100.0 -0.1521914638 0.0797119285 0.530431781 -0.1462376564 0.5305028702 -0.1460703699 -0.1653482256 0.0724918333
155299070.0 -0.151229723 0.0813845057 0.5295261972 -0.1531585806 0.5290491501 -0.1532619062 -0.1644808128 0.0737719611
160299040.0 -0.1499610714 0.0820990967 0.5279062293 -0.1586437005 0.527942182 -0.1591846439 -0.164041859 0.0748279199
165299010.0 -0.1494217295 0.0830323757 0.5260979166 -0.1657664745 0.5266009982 -0.1657250155 -0.1626863957 0.0754969521
170298980.0 -0.1484842513 0.0845098239 0.5242880793 -0.171918275 0.5247414243 -0.1722294916 -0.1620422888 0.0766117719
175298950.0 -0.1474053873 0.0856348806 0.5237109713 -0.1779401516 0.5235365481 -0.1783106713 -0.1611658221 0.0776839176
180298920.0 -0.1463020764 0.086652972 0.521388939 -0.1843044197 0.5216406223 -0.1843430482 -0.1603462637 0.078647715
185298890.0 -0.1451573175 0.0877085839 0.5192520296 -0.1909434331 0.519739286 -0.190739932 -0.1597850318 0.0794314437
190298860.0 -0.1444405896 0.0892221537 0.5178831788 -0.1970967112 0.5178662439 -0.1968303617 -0.1583290203 0.0808138915
195298830.0 -0.1434636455 0.0903373229 0.5154597952 -0.2026857136 0.5157649153 -0.2032816001 -0.1581404207 0.0815834184
200298800.0 -0.1423194333 0.0919391255 0.5134335903 -0.2086360401 0.513276197 -0.2088510513 -0.1566934573 0.0835365628
205298770.0 -0.1416827991 0.092878192 0.5115861675 -0.2148864564 0.5114241135 -0.2151985061 -0.1564323219 0.0840225608
210298740.0 -0.1407826965 0.0942180533 0.5092943169 -0.2214252322 0.5093293064 -0.2212290442 -0.1556366527 0.0855353849
215298710.0 -0.1398204555 0.0957604758 0.5068923503 -0.22690061 0.5070966983 -0.2268104004 -0.1549526644 0.0864395574
220298680.0 -0.1387814678 0.0971127176 0.5046045324 -0.2332001516 0.5047642966 -0.2329948514 -0.1542172646 0.0879169069
225298650.0 -0.1376239385 0.0985750872 0.5018294679 -0.2386592997 0.5017969167 -0.2387870576 -0.1534860952 0.0892297526
230298620.0 -0.1368774859 0.0999987575 0.499465938 -0.2446182151 0.4996206948 -0.2442841147 -0.1523382843 0.0902103154
235298590.0 -0.1359893055 0.1010922207 0.4969176261 -0.2502809167 0.4969863435 -0.2506078402 -0.1515521234 0.0914520208
240298560.0 -0.1349464298 0.1023280305 0.494322704 -0.2556511389 0.4942693085 -0.2556125395 -0.1509280613 0.0931227323
245298530.0 -0.1338778454 0.1039152208 0.4912364508 -0.2619406495 0.491210097 -0.261826537 -0.1502629162 0.0944523057
250298500.0 -0.1329647778 0.1051791331 0.4886916546 -0.2665628591 0.4887903742 -0.2666344301 -0.1490130206 0.095429375
255298470.0 -0.1317302487 0.106798992 0.4854760717 -0.2725791977 0.4856505209 -0.2729161186 -0.1482391125 0.0966395015
260298440.0 -0.1307450074 0.1081819799 0.4829259566 -0.2781422443 0.4827274053 -0.2781835977 -0.1469141089 0.098360512
265298410.0 -0.1294767224 0.1096093153 0.4792229053 -0.2841599152 0.4794361882 -0.2839849435 -0.1464126778 0.0993452093
270298380.0 -0.1281568837 0.1109736644 0.4763248951 -0.2892191412 0.4768326137 -0.2894796452 -0.1452147154 0.1011918532
275298350.0 -0.1273261725 0.112497751 0.4731513164 -0.2950862325 0.4738927184 -0.2948577268 -0.1442894479 0.1024738641
280298320.0 -0.1260609436 0.1139686486 0.4702984372 -0.2998422183 0.4700870995 -0.3000776629 -0.1435196917 0.1037554091
285298290.0 -0.1248099702 0.115378421 0.4668024018 -0.3054410449 0.466920742 -0.3050558249 -0.1424623476 0.1049927996
290298260.0 -0.1236625491 0.1166011195 0.463867022 -0.3106287379 0.4638217479 -0.3107447198 -0.1411795103 0.1067799924
295298230.0 -0.1223595624 0.1180806373 0.4604804478 -0.3160372693 0.459973459 -0.3160234149 -0.1398884686 0.1079370993
300298200.0 -0.1209167089 0.1195946277 0.4565580316 -0.3212714145 0.4570130145 -0.3212960259 -0.1393172202 0.1094212884
305298170.0 -0.11948094 0.1204648846 0.4535884542 -0.326580209 0.4534706333 -0.3267002 -0.1376218291 0.1108876446
310298140.0 -0.1180796867 0.1218628311 0.4500028843 -0.3320203957 0.4499914523 -0.3321895814 -0.1367267301 0.1123697973
315298110.0 -0.11743864 0.1232573864 0.4464717157 -0.3367930048 0.4463661278 -0.3369607976 -0.1356550614 0.113281557
320298080.0 -0.1159699515 0.1245248041 0.4426766267 -0.3421501178 0.442705393 -0.3421004407 -0.134963199 0.1145067818
325298050.0 -0.114735893 0.1255911646 0.4389765557 -0.3470287968 0.4387086769 -0.3471235315 -0.1339103362 0.1154661683
330298020.0 -0.11359409 0.1270390137 0.4340523935 -0.3521150902 0.434416084 -0.3524821624 -0.1330342942 0.1170897152
335297990.0 -0.1121653757 0.1280133585 0.4306233684 -0.3570883404 0.4305485673 -0.3570222244 -0.1318004897 0.1182441128
340297960.0 -0.1116066657 0.1296810618 0.4266117369 -0.3619361416 0.4267842412 -0.3616604331 -0.1311421358 0.120225167
345297930.0 -0.1098194613 0.1310595682 0.4225162713 -0.3662892374 0.4219225325 -0.3660995638 -0.1297900631 0.1213298857
350297900.0 -0.1082242839 0.1325266633 0.4184510809 -0.370621865 0.4186967875 -0.3710012138 -0.1287636581 0.1228627136
355297870.0 -0.1071577657 0.1335635542 0.4137264844 -0.3752460682 0.414326147 -0.375772855 -0.1282050201 0.1246868272
360297840.0 -0.1055727342 0.135231072 0.4101682976 -0.3803791537 0.409740814 -0.38017487 -0.1264997954 0.1259103115
365297810.0 -0.1040524849 0.1364193282 0.4053820995 -0.3846369729 0.405337145 -0.3847617308 -0.1253126298 0.1272312154
370297780.0 -0.1025742543 0.1375267845 0.4010658137 -0.3889179753 0.4016766439 -0.3894993468 -0.1240645022 0.1288305301
375297750.0 -0.1013770306 0.1392555984 0.3976904329 -0.3936951911 0.3971410133 -0.3934927347 -0.1231683117 0.1301498777
380297720.0 -0.099696637 0.1403437789 0.3928083184 -0.3977629544 0.3929207061 -0.3977376463 -0.1217437035 0.1316225805
385297690.0 -0.0980676422 0.1415719117 0.38837428 -0.4016471223 0.3880505237 -0.4020734717 -0.1205769899 0.1331449613
390297660.0 -0.0966400797 0.1426625402 0.384131767 -0.4062993761 0.3840815514 -0.4068014392 -0.1192983586 0.1343581711
395297630.0 -0.0947199942 0.143688809 0.3794640464 -0.4100786403 0.379709509 -0.4103857617 -0.1181673161 0.1359828781
400297600.0 -0.0935286337 0.1455749232 0.3748432798 -0.4148295789 0.3754401331 -0.4150307106 -0.1172936031 0.1370572072
405297570.0 -0.0916729728 0.1463016523 0.3706946705 -0.4190409891 0.3703696376 -0.4189919585 -0.1159199759 0.1385166491
410297540.0 -0.090200917 0.1476019072 0.3657109326 -0.4226612382 0.3655767102 -0.4227051759 -0.1145309799 0.1398710635
415297510.0 -0.0887908496 0.1490201174 0.3612011316 -0.4265551343 0.3611241919 -0.4269846595 -0.1131715262 0.1414977787
420297480.0 -0.0867460007 0.1497912203 0.356055112 -0.431117543 0.3562159964 -0.4306465837 -0.1116558341 0.1422735987
425297450.0 -0.0848616501 0.1507090379 0.3515818185 -0.434950585 0.3520309207 -0.4346472482 -0.1101175385 0.1439286685
430297420.0 -0.0836918983 0.1524029246 0.3471782293 -0.4390176406 0.3471116746 -0.4383761999 -0.1090584884 0.1448251597
435297390.0 -0.0816600416 0.1529332545 0.3421018561 -0.4416714545 0.3421460163 -0.4420925927 -0.1076520388 0.146427325
440297360.0 -0.0798166728 0.1539768491 0.3371150509 -0.4458586947 0.3368828446 -0.4457569205 -0.1065397671 0.1472766646
445297330.0 -0.0780933776 0.1549661732 0.3317866727 -0.4500117523 0.3319429909 -0.4492840974 -0.1049593974 0.1486649492
450297300.0 -0.0762304438 0.1560240501 0.3270851746 -0.4529628885 0.3275836992 -0.4531382486 -0.1038136612 0.1497547444
455297270.0 -0.0749824154 0.1571074015 0.322326324 -0.4568349777 0.3230187205 -0.4567967106 -0.1020518303 0.1510576981
460297240.0 -0.0733662313 0.1582807091 0.3174755445 -0.4598835764 0.3169556972 -0.4602897446 -0.1004902125 0.1527476929
465297210.0 -0.0707564691 0.1587176584 0.312288817 -0.4633561562 0.3126605574 -0.4635060752 -0.0996154804 0.1531259128
470297180.0 -0.0694005022 0.15980112 0.3073053866 -0.4671418571 0.3075671635 -0.4665560571 -0.0985071251 0.1544802879
475297150.0 -0.0676923604 0.1605288403 0.3018781109 -0.4699596274 0.3023618041 -0.4696356013 -0.096448285 0.1557097312
480297120.0 -0.0659076309 0.1613781836 0.2969153974 -0.4733733361 0.2974735863 -0.4733059392 -0.0953111498 0.1573440121
485297090.0 -0.0639557255 0.1623196741 0.2920120513 -0.4766735458 0.2917094899 -0.4764923098 -0.0937541178 0.157917973
490297060.0 -0.062229692 0.1631996704 0.2865822219 -0.4798954157 0.2868631312 -0.4798495463 -0.0920695473 0.1591142784
495297030.0 -0.0607786495 0.1640772635 0.2812720402 -0.4825236485 0.2809159213 -0.4828822606 -0.0906974934 0.1599532902
500297000.0 -0.0583510789 0.1645496148 0.2760565559 -0.4860297825 0.2761488759 -0.4858216099 -0.089515331 0.1613712151
505296970.0 -0.0570438821 0.1653718176 0.270571545 -0.4883396363 0.270299434 -0.4885775573 -0.088282766 0.1623301855
510296940.0 -0.0548056939 0.1662648685 0.2652929454 -0.4917408007 0.265754906 -0.4914805279 -0.0861329567 0.1636153483
515296910.0 -0.0534064581 0.1673153612 0.2599897683 -0.4943846378 0.2601117537 -0.4945494311 -0.0847834368 0.1643437908
520296880.0 -0.0512076692 0.1675684391 0.2541426963 -0.4969602844 0.2547945589 -0.4970728228 -0.0830256815 0.1651820457
525296850.0 -0.049401561 0.1682833688 0.2490090514 -0.499934004 0.2492389134 -0.5001762907 -0.0813314661 0.1663585951
530296820.0 -0.0474363283 0.1691193094 0.2441489005 -0.501882839 0.2437596788 -0.5023401533 -0.0803345763 0.1667133539
535296790.0 -0.0455952887 0.1699342132 0.2381373986 -0.5049426849 0.2384361947 -0.5046597273 -0.0785314903 0.1680887141
540296760.0 -0.0437930603 0.1700266911 0.2328733373 -0.5076157312 0.2324811281 -0.5077361494 -0.0770945163 0.169468027
545296730.0 -0.0418765475 0.1711146531 0.2269796408 -0.5099407669 0.2271387462 -0.5102462332 -0.0757404513 0.1697272672
550296700.0 -0.0402656347 0.1717540805 0.2216944782 -0.5127817637 0.2223522247 -0.5129505096 -0.0738587028 0.1711975173
555296670.0 -0.0377820938 0.1719076992 0.2160288914 -0.5147430831 0.2162895294 -0.5146942429 -0.0721673395 0.172064185
560296640.0 -0.0362293913 0.1724833633 0.2109342485 -0.5169074024 0.2106754203 -0.5169820563 -0.0706539685 0.1726171917
565296610.0 -0.0345620872 0.1733237486 0.2050315289 -0.5192052498 0.2046642926 -0.5195441062 -0.0690186221 0.1730861575
570296580.0 -0.0321982993 0.1733807651 0.1990798708 -0.5213072377 0.1995743117 -0.5215130222 -0.0673542198 0.1746189229
575296550.0 -0.0303842647 0.1742823357 0.1933518392 -0.5231668156 0.1940700216 -0.5233118974 -0.0655862958 0.1751600903
580296520.0 -0.0285688029 0.1748152865 0.1883066242 -0.5258608764 0.1877271248 -0.52571037 -0.0637592082 0.1762090021
585296490.0 -0.0262835341 0.174784636 0.1826240764 -0.5272669652 0.1821278102 -0.5275321624 -0.0625481871 0.1764966748
590296460.0 -0.0248513467 0.1753509014 0.1766386643 -0.5294687447 0.1765020051 -0.5296876147 -0.0605464356 0.1776606817
595296430.0 -0.0224996833 0.1759919911 0.1710289463 -0.5314878221 0.1707792631 -0.5312871691 -0.0590213721 0.1780072092
600296400.0 -0.0208572191 0.1761379948 0.1652306099 -0.5330726731 0.165621742 -0.5327995413 -0.0574054853 0.1789673679
605296370.0 -0.018669837 0.1767927021 0.1592249787 -0.5347863209 0.1594595297 -0.5348380671 -0.0555253851 0.1799342628
610296340.0 -0.0170081014 0.1770326743 0.1541738905 -0.5363142103 0.1534148022 -0.5364802696 -0.0539700304 0.1808080111
615296310.0 -0.01476367 0.1778065519 0.1473686763 -0.538190662 0.1476900702 -0.5382487457 -0.0522784605 0.1809115239
620296280.0 -0.0128915854 0.17764985 0.1422043185 -0.5393172432 0.1418906675 -0.5396140818 -0.0505196454 0.1814224928
625296250.0 -0.0105701 0.1779641563 0.1355488428 -0.5412675617 0.1358904802 -0.5414952342 -0.0484376611 0.1823542451
630296220.0 -0.0089401746 0.1783879049 0.1301286152 -0.5428881182 0.1306616479 -0.5427611191 -0.047077723 0.1831018475
635296190.0 -0.0066639096 0.1784772388 0.1241305061 -0.5434988455 0.1242980652 -0.5435489202 -0.0453484111 0.1836910106
640296160.0 -0.0049484826 0.1785257988 0.1187057084 -0.5450566704 0.1182671741 -0.5452876753 -0.0432104545 0.1839787266
645296130.0 -0.0030338477 0.178892708 0.1125179771 -0.5464538727 0.1124746149 -0.5462899746 -0.042183806 0.1844852341
650296100.0 -0.0010481935 0.179424181 0.1073859511 -0.547259943 0.1068448539 -0.547297029 -0.0401734732 0.1851289363
655296070.0 0.000833192 0.1792992153 0.1009142215 -0.5484994771 0.1009001531 -0.5485625424 -0.038108717 0.1859141916
660296040.0 0.0025477728 0.1797057302 0.0950529139 -0.5492879751 0.0947996382 -0.5491343424 -0.0363169129 0.186244085
665296010.0 0.0051630169 0.1795321358 0.0892616245 -0.5501958 0.0896156739 -0.5504420072 -0.034895043 0.1870650192
670295980.0 0.0074428772 0.1797118976 0.0828331412 -0.5512251485 0.083337259 -0.5512573848 -0.0332269586 0.187176028
675295950.0 0.0092615467 0.1798770736 0.0769622949 -0.552139747 0.0774135778 -0.5529143705 -0.0314624753 0.1880910124
680295920.0 0.0112223302 0.1802572434 0.071000771 -0.5533096988 0.0710069646 -0.5531022952 -0.0293873421 0.1881859238
685295890.0 0.013097743 0.179918127 0.065084204 -0.5540412969 0.0648888992 -0.5539384396 -0.0277137752 0.1890454642
690295860.0 0.0152771475 0.1800502879 0.0593677754 -0.5542076554 0.0588944374 -0.5542147243 -0.025468212 0.1893097461
695295830.0 0.0175731751 0.1798105003 0.0526933736 -0.5550545655 0.0529753574 -0.555208507 -0.0246436539 0.1896013137
700295800.0 0.0195700498 0.179695248 0.0466722309 -0.5552348763 0.0469433515 -0.5555190435 -0.0223207524 0.1894206356
705295770.0 0.0213454542 0.1798651218 0.0408489012 -0.5557581491 0.0411963316 -0.5560207426 -0.0206929014 0.1902278294
710295740.0 0.0235421677 0.1797022584 0.0353522916 -0.5559144938 0.0352161531 -0.5560563957 -0.0193605035 0.1909302659
715295710.0 0.0253112914 0.1797399667 0.0293192026 -0.5567643897 0.0294279492 -0.5566596436 -0.0169589394 0.1907291622
720295680.0 0.0271709352 0.1792721969 0.023095444 -0.5566390684 0.0230490547 -0.5569733693 -0.0147684773 0.1912179949
725295650.0 0.0292849193 0.1793498306 0.0170923157 -0.5566876991 0.0172332641 -0.5567040519 -0.0132989771 0.1916623883
730295620.0 0.0312658208 0.179097472 0.0111195675 -0.5570810876 0.0110932025 -0.5567776439 -0.0113774436 0.1915680075
735295590.0 0.0336874079 0.1788425005 0.0054210137 -0.5570449178 0.0051089244 -0.5572784271 -0.0092107658 0.1921647699
740295560.0 0.0354141626 0.1790233238 -0.0009503055 -0.5568299503 -0.0010168126 -0.5573551091 -0.0075226303 0.1919581458
745295530.0 0.0373752408 0.1784938182 -0.0068154263 -0.5570284496 -0.006572442 -0.5571931365 -0.0061583834 0.1926788445
750295500.0 0.0393605311 0.1779988469 -0.0123165278 -0.5566661307 -0.0127619479 -0.5568647925 -0.0039426433 0.1924424202
755295470.0 0.0419692308 0.1778486557 -0.0187050451 -0.5564290991 -0.018749495 -0.5566724414 -0.0024529141 0.1927089967
760295440.0 0.0432452672 0.1776970386 -0.0249721338 -0.5564403708 -0.0249719594 -0.5563609247 -0.0006874662 0.1928544593
765295410.0 0.0453523688 0.1770465556 -0.0307742673 -0.5556174842 -0.0305819622 -0.5563840747 0.0020178629 0.1934390453
770295380.0 0.0476569076 0.176739278 -0.0366122845 -0.5550502013 -0.0368006654 -0.5562231686 0.0038375901 0.1931329673
775295350.0 0.0496555541 0.1767131028 -0.042783885 -0.5551775259 -0.0426468935 -0.5550639275 0.0051118015 0.1928300806
780295320.0 0.0518659988 0.176088208 -0.0484499854 -0.5550329059 -0.0484213739 -0.5548698246 0.0071892297 0.1936980813
785295290.0 0.0535604784 0.1758752516 -0.0549061343 -0.5533935991 -0.0549193952 -0.5543038541 0.0086813831 0.1934588
790295260.0 0.0555813345 0.1753944516 -0.0605522033 -0.5533842826 -0.0608544291 -0.5538276945 0.0108401082 0.1935381025
795295230.0 0.0573010262 0.1750851447 -0.0659203754 -0.5524718734 -0.0663985293 -0.5528029098 0.0126502836 0.1942365165
800295200.0 0.0593604256 0.174629155 -0.0727795315 -0.5519917387 -0.0727602513 -0.5523987105 0.0146779695 0.1938612857
805295170.0 0.0610013106 0.1739279467 -0.078142794 -0.550642513 -0.0783076119 -0.5508991137 0.016219358 0.1933509098
810295140.0 0.0632617558 0.1732118993 -0.0838763953 -0.5500230734 -0.08433815 -0.5509380562 0.0184250792 0.194102924
815295110.0 0.0650761373 0.172883545 -0.0902563406 -0.5489027313 -0.0904596585 -0.5490670799 0.0198781979 0.1933963281
820295080.0 0.0671571345 0.1719876039 -0.0960313615 -0.5480335392 -0.0961905951 -0.5483264587 0.0218421615 0.193665715
825295050.0 0.0690425454 0.1715599873 -0.1021183835 -0.5467402918 -0.1019741927 -0.5469008158 0.023980416 0.193494288
830295020.0 0.0706703185 0.1712490186 -0.1075816569 -0.5455508862 -0.1078675151 -0.5463977966 0.0254967171 0.1935150172
