!Created with skrf (http://scikit-rf.org).
# Hz S RI R 50.0 
!freq ReS11 ImS11 ReS21 ImS21 ReS12 ImS12 ReS22 ImS22
300000.0 -0.2319279739 -0.1315117164 0.4651426024 0.0851481231 0.4673736097 0.0844567971 -0.2348969463 -0.1289936885
5299970.0 -0.2418269792 0.0053273267 0.4748266131 0.0058481404 0.4755966057 0.0060536615 -0.2444610715 0.0050476851
10299940.0 -0.2387513684 0.0186987483 0.4772667388 0.0071572448 0.4770722993 0.0070666459 -0.2408739079 0.0173498156
15299910.0 -0.2338868716 0.0286575175 0.4807243528 0.0085904628 0.480815436 0.0081599355 -0.2368850004 0.0263603909
20299880.0 -0.2285652576 0.0369207098 0.4855493323 0.0082149819 0.4860041862 0.0083159863 -0.2320645714 0.0339340111
25299850.0 -0.2227212688 0.0434208225 0.490820247 0.007564475 0.4909340662 0.0073754112 -0.2272466249 0.0401239883
30299820.0 -0.2171300826 0.0487176524 0.4961743039 0.0048994359 0.4961892184 0.0049602835 -0.2216296876 0.0448188329
35299790.0 -0.2113408987 0.0528202603 0.5006906513 0.0022372188 0.5014467754 0.0016675098 -0.2167287885 0.0488811672
40299760.0 -0.2061793335 0.0560146186 0.5064067833 -0.0019474211 0.5065270349 -0.0022491713 -0.2122057812 0.052136568
45299730.0 -0.2010851725 0.0586931493 0.5108567659 -0.0066806625 0.5113270812 -0.0067793908 -0.2071600532 0.0549386598
50299700.0 -0.1960478355 0.0608646346 0.5153684326 -0.0124994904 0.515533011 -0.0125075621 -0.2030062944 0.057143559
55299670.0 -0.1921163284 0.0625853955 0.5193866249 -0.0178962194 0.5188883656 -0.0183056844 -0.1994061553 0.0584033694
60299640.0 -0.1878399371 0.0641485202 0.5222817633 -0.024794915 0.5224586834 -0.0249334472 -0.1954896039 0.0598186367
65299610.0 -0.1841621185 0.0651321109 0.5252380566 -0.0308976824 0.5255807349 -0.0307111199 -0.1920028558 0.0610380531
70299580.0 -0.1809006449 0.0659986603 0.5277016114 -0.0373484582 0.5279055882 -0.0377842209 -0.1894808238 0.0618917936
75299550.0 -0.1780064702 0.0667871286 0.5293717645 -0.0445146148 0.5297024687 -0.0445612947 -0.1860369331 0.0626245257
80299520.0 -0.1754518432 0.0677877711 0.5317766467 -0.0511881942 0.5315428335 -0.0514963822 -0.1839277404 0.0634201079
85299490.0 -0.1724526257 0.0682523478 0.5325894522 -0.0584167646 0.533199923 -0.0578293507 -0.1817165268 0.0638781861
90299460.0 -0.170264866 0.068862241 0.5335958468 -0.0650313338 0.5336760442 -0.0648205644 -0.1793562828 0.065208853
95299430.0 -0.1679764005 0.0694339434 0.5345698038 -0.0717988515 0.5348433667 -0.0724402646 -0.1776591612 0.0652673388
100299400.0 -0.1659287829 0.07025494 0.5348145938 -0.0790450323 0.5351409586 -0.0792373136 -0.1759247564 0.0665179291
105299370.0 -0.1641181325 0.0708805587 0.5351199383 -0.0856452814 0.5357053312 -0.0856382001 -0.1739653555 0.0667483692
110299340.0 -0.1623749875 0.0713897982 0.535437296 -0.0918861441 0.535840101 -0.0920034163 -0.1729147451 0.0673357715
115299310.0 -0.1608273465 0.0726587903 0.5353942629 -0.098997763 0.5355062159 -0.0993766261 -0.1712482922 0.0683079233
120299280.0 -0.1595907033 0.0734950346 0.5354575208 -0.1067320251 0.535238576 -0.1064707459 -0.1701726954 0.0686561632
125299250.0 -0.157987661 0.0741003265 0.5347153206 -0.1131457406 0.53478235 -0.1126269239 -0.1689116483 0.0697600705
130299220.0 -0.1567320313 0.0744794111 0.5345544471 -0.1197245102 0.53413926 -0.1199293332 -0.167759555 0.0705925961
135299190.0 -0.1554723637 0.0758402347 0.5336257229 -0.1260560994 0.5339675814 -0.1265952894 -0.1665061267 0.0711466553
140299160.0 -0.1540601699 0.0770362707 0.5330554583 -0.1331864336 0.5324125318 -0.1326867188 -0.1659546624 0.0718294857
145299130.0 -0.1536433523 0.0778763899 0.5317896789 -0.1393181353 0.532147272 -0.1393820291 -0.1649486097 0.0728922855
150299100.0 -0.1521558011 0.0791194659 0.5305129642 -0.1459958241 0.5308446227 -0.1460781902 -0.1641700451 0.0740657635
155299070.0 -0.1511417259 0.0801802113 0.5290124847 -0.1525804755 0.5298078995 -0.1524930703 -0.1632307639 0.0745714957
160299040.0 -0.1500390265 0.0812586532 0.5279828914 -0.1589993511 0.5282342992 -0.1590808329 -0.1626142404 0.0759469306
165299010.0 -0.1488133171 0.0822488152 0.5269465542 -0.1651636401 0.5266811929 -0.1655035385 -0.1615443614 0.0767380629
170298980.0 -0.147902814 0.0836039827 0.5249743775 -0.1719101236 0.5250876776 -0.1717717137 -0.1609342127 0.0779858664
175298950.0 -0.1467559423 0.0846227132 0.5238095422 -0.1779470557 0.5238734235 -0.1782149487 -0.1603073395 0.0791568281
180298920.0 -0.145969148 0.0861013674 0.52156083 -0.1845260842 0.5215612461 -0.1847701558 -0.1591778945 0.0800263954
185298890.0 -0.1451983284 0.0873586924 0.5208059021 -0.1901690794 0.5199646518 -0.1903777297 -0.1585629073 0.0808879266
190298860.0 -0.1439937721 0.0888046517 0.5177383869 -0.1964747512 0.5183455216 -0.1965841653 -0.1579621063 0.0823470322
195298830.0 -0.1429354252 0.0901138441 0.5158556367 -0.2026693632 0.5161116947 -0.2027833849 -0.1572390667 0.0836866395
200298800.0 -0.1417782146 0.0911687051 0.5138727833 -0.2095409722 0.514164366 -0.2092157683 -0.1565752969 0.0846000545
205298770.0 -0.1413002941 0.0926337748 0.5113817951 -0.2150152572 0.5119763468 -0.2148262595 -0.1555476424 0.0859108121
210298740.0 -0.1401903253 0.0940136353 0.5100024734 -0.220623211 0.5092718278 -0.2208785267 -0.1552809158 0.0868569355
215298710.0 -0.139319117 0.095453112 0.5067332103 -0.2265877259 0.5071637745 -0.2272490186 -0.1542186054 0.0881865408
220298680.0 -0.1380514126 0.0967872012 0.5044797785 -0.2328496991 0.5047069222 -0.2326697754 -0.1533339389 0.0892806501
225298650.0 -0.1372292233 0.0983046323 0.5022378326 -0.2387618459 0.5024135281 -0.2379758122 -0.1527764033 0.0902918619
230298620.0 -0.136219459 0.0998281618 0.4995678982 -0.2440886371 0.5003667336 -0.2444547698 -0.1521701831 0.0918984463
235298590.0 -0.13555126 0.1013724365 0.4974242235 -0.2502545252 0.4975959094 -0.250236355 -0.1511571034 0.0935931766
240298560.0 -0.1342793115 0.1028130225 0.4942286742 -0.2554871894 0.4944269752 -0.2556480401 -0.1507336846 0.0942688702
245298530.0 -0.1332964445 0.1040011522 0.4917782386 -0.2617817847 0.4918443805 -0.261716297 -0.1498214925 0.0959442413
250298500.0 -0.132274541 0.1055380831 0.4889186122 -0.2669786929 0.4887793398 -0.2668322373 -0.1487833766 0.0975120408
255298470.0 -0.1311081427 0.1072236657 0.4862094402 -0.2722429856 0.4865762146 -0.2729449612 -0.1480799541 0.0988648204
260298440.0 -0.1301252863 0.1082901336 0.4835518013 -0.2777191403 0.4833774064 -0.2780249539 -0.1473126753 0.0997557555
265298410.0 -0.1293281908 0.1099790182 0.4799540886 -0.2839263052 0.4798745325 -0.2842904504 -0.1457238293 0.1012237213
270298380.0 -0.1284735374 0.111188812 0.4768754595 -0.2894865777 0.4771989339 -0.2891879753 -0.1452441186 0.1025998688
275298350.0 -0.1270183716 0.1131552078 0.4733371818 -0.294236651 0.4737557908 -0.2943326529 -0.1446159041 0.1041325145
280298320.0 -0.1262940245 0.1147077086 0.4709641418 -0.2994455544 0.4710379746 -0.3000255088 -0.1432484901 0.1053362639
285298290.0 -0.1249822445 0.115982005 0.466969588 -0.3047618694 0.4675971628 -0.3049406253 -0.1427299464 0.1066511315
290298260.0 -0.123934721 0.1175839496 0.4650105723 -0.3105784816 0.4644745196 -0.3106797423 -0.1417981576 0.1080800636
295298230.0 -0.1227082069 0.1185756883 0.4607071334 -0.3160193106 0.4611179147 -0.3159352459 -0.1407216874 0.1094101356
300298200.0 -0.1211699051 0.1204225904 0.4574888866 -0.3210467402 0.4575558664 -0.3208150453 -0.1397668717 0.1106699501
305298170.0 -0.1201200366 0.1211973282 0.4544972483 -0.326147355 0.4542138288 -0.3266224778 -0.1384605754 0.1117598628
310298140.0 -0.118632401 0.1225193577 0.4504757029 -0.3316114515 0.4505689155 -0.3311679677 -0.137435827 0.1129546151
315298110.0 -0.1175212829 0.1237220632 0.4471848511 -0.3372017104 0.4469092128 -0.3369833524 -0.1365162371 0.1142932167
320298080.0 -0.1164082063 0.125166725 0.4427718763 -0.3416862566 0.4435357938 -0.3420369103 -0.1359062769 0.1157399606
325298050.0 -0.1155190579 0.1259186016 0.4388873869 -0.3467007428 0.4398849837 -0.3472016184 -0.1346737807 0.1169254945
330298020.0 -0.1147905881 0.1275030616 0.4354430219 -0.3518273121 0.4358264113 -0.3519997665 -0.1343226403 0.1178355493
335297990.0 -0.1136891762 0.1290704202 0.4316735169 -0.3565343668 0.4313490169 -0.3564359609 -0.1328485287 0.1189791287
340297960.0 -0.1126051401 0.1303207431 0.4270608122 -0.361717705 0.4272179302 -0.3615348397 -0.1320869534 0.1207263727
345297930.0 -0.1113790579 0.131679822 0.4234165422 -0.3664829708 0.4232065201 -0.3663443298 -0.1308886076 0.1217627701
350297900.0 -0.1100766374 0.1328874037 0.4194640298 -0.3705129938 0.4195632718 -0.3707876627 -0.1299151809 0.1231713476
355297870.0 -0.1087702178 0.134325736 0.4150289519 -0.37517672 0.4152810313 -0.3748658073 -0.1288844155 0.1247951909
360297840.0 -0.1075272877 0.1357931549 0.4106783671 -0.3798052263 0.411114078 -0.3800282228 -0.1279588159 0.1260892987
365297810.0 -0.1064441885 0.1371936756 0.406826168 -0.3842598886 0.4065586378 -0.3844305995 -0.1269101495 0.1273128719
370297780.0 -0.1046197401 0.1385803872 0.4017332836 -0.3888406604 0.4026858012 -0.3886700142 -0.1258408814 0.1290017286
375297750.0 -0.1034598994 0.1399800112 0.3983080908 -0.3931233062 0.3985246313 -0.3931793656 -0.12464433 0.1300343171
380297720.0 -0.1022439015 0.1411569595 0.3939415136 -0.3974708372 0.3939058492 -0.3974916016 -0.1233115662 0.1318145295
385297690.0 -0.1008431327 0.1420885826 0.389587602 -0.4017296634 0.3898004207 -0.4021429274 -0.1220095846 0.1329426492
390297660.0 -0.0989094006 0.1433874384 0.3848317564 -0.4060187147 0.3854169071 -0.4061575995 -0.120561214 0.133844389
395297630.0 -0.0976380503 0.1446478556 0.3810353018 -0.409510965 0.380559516 -0.4100210377 -0.1195913801 0.1351650859
400297600.0 -0.0964071684 0.1457057957 0.3758556735 -0.4143511919 0.376424766 -0.4143606953 -0.1182205377 0.1368563487
405297570.0 -0.0949305039 0.1463100466 0.371640201 -0.4182045942 0.3719723219 -0.4185388033 -0.1170795895 0.1383801204
410297540.0 -0.0932497376 0.1483609973 0.3671714055 -0.42271244 0.3674673338 -0.4226248567 -0.1161031035 0.1395118267
415297510.0 -0.0918466264 0.1493281553 0.3623510556 -0.426412309 0.3631110522 -0.427039674 -0.1141661534 0.14061551
420297480.0 -0.0903148604 0.1501278007 0.3575657566 -0.4304940227 0.3578423869 -0.430750193 -0.1123084892 0.1422525853
425297450.0 -0.0881032349 0.1514129415 0.35341472 -0.4340769376 0.3529715066 -0.4343511176 -0.1114780131 0.1428400722
430297420.0 -0.0870254599 0.152353365 0.3488497063 -0.4382380208 0.3485027843 -0.4379341462 -0.1096884087 0.1445147216
435297390.0 -0.0854966175 0.1534013576 0.3435422455 -0.4425345509 0.3436068575 -0.442103823 -0.1091555782 0.1459675293
440297360.0 -0.0833654242 0.1545428659 0.3382875931 -0.4457941726 0.3385612076 -0.4458089663 -0.1077922863 0.1470250313
445297330.0 -0.0816236924 0.155043869 0.3333321162 -0.4490832279 0.3339056905 -0.4496160389 -0.1057274838 0.1484421646
450297300.0 -0.0802089266 0.1562766813 0.3288297556 -0.4530311952 0.3291558927 -0.4529917885 -0.104389274 0.1496245968
455297270.0 -0.0786612293 0.1571757942 0.3237198364 -0.4565275376 0.3244665015 -0.4567547365 -0.1031125587 0.1506183515
460297240.0 -0.0765214726 0.1586073928 0.3188930531 -0.4606440497 0.3191358386 -0.4602995336 -0.101414345 0.1516030356
465297210.0 -0.0749443053 0.1592549834 0.3136449518 -0.463664693 0.3135729315 -0.4638131807 -0.0997354307 0.1531751972
470297180.0 -0.0730439493 0.1599318953 0.3084153055 -0.4661921058 0.3088068302 -0.4668313276 -0.0981853027 0.1538872797
475297150.0 -0.0717138027 0.161449922 0.3035605295 -0.470384557 0.3037820025 -0.4705362615 -0.0967329141 0.1547779091
480297120.0 -0.0694498022 0.1626068751 0.2982408545 -0.473650231 0.2988214021 -0.4734434023 -0.0955475942 0.1559465846
485297090.0 -0.0674868378 0.1624405494 0.2929734434 -0.4764033168 0.2932472867 -0.4765985779 -0.0937910499 0.1573398614
490297060.0 -0.0654933845 0.1638544745 0.2876979319 -0.480198827 0.287896083 -0.4800110748 -0.0924363855 0.1580353952
495297030.0 -0.0641302655 0.1643250624 0.2829911244 -0.4829843487 0.2826462423 -0.4833646924 -0.0904526634 0.159125673
500297000.0 -0.0620315203 0.165547074 0.2776469818 -0.4855709731 0.2776528985 -0.4863239998 -0.0893513515 0.1603403292
505296970.0 -0.0598782655 0.1663783683 0.2723172192 -0.4893772218 0.2720917684 -0.4889937125 -0.0873439501 0.1607844997
510296940.0 -0.0579630536 0.1666868776 0.2669557804 -0.4922847781 0.2669870552 -0.4925023726 -0.0855861588 0.1622541112
515296910.0 -0.0563066254 0.1681366139 0.2611851789 -0.4950776168 0.2614086582 -0.4948333361 -0.0844994863 0.1630759468
520296880.0 -0.0542864107 0.168418749 0.2563108495 -0.4973671664 0.255579084 -0.4978032689 -0.0822593473 0.1644434571
525296850.0 -0.0522487859 0.1690101884 0.2505815101 -0.49988987 0.2505413758 -0.5001129769 -0.0807721458 0.1648680328
530296820.0 -0.0507728536 0.1697388584 0.2450203366 -0.5029986724 0.2450321216 -0.5028358234 -0.0791679367 0.1656120286
535296790.0 -0.0479333353 0.170628877 0.2395240839 -0.5049741215 0.2398213035 -0.5057954024 -0.0774661908 0.1671370288
540296760.0 -0.0464332868 0.1713612728 0.2338924775 -0.5079332041 0.2341383357 -0.5082655699 -0.0757618906 0.1674116633
545296730.0 -0.0447056331 0.1724565873 0.2284199894 -0.5103281487 0.2284783113 -0.5104392823 -0.0741020739 0.1685417909
550296700.0 -0.0421048808 0.1727524688 0.2227628445 -0.5128204376 0.2228341966 -0.5131793682 -0.0724321105 0.1692467598
555296670.0 -0.0404137801 0.1732927679 0.2172740476 -0.515745004 0.2172519365 -0.5153820361 -0.0708805279 0.1697656112
560296640.0 -0.0376461995 0.1740525203 0.2114290912 -0.5175400058 0.2120634013 -0.5178131216 -0.0692971764 0.1712107237
565296610.0 -0.0364209015 0.1746144452 0.2061613213 -0.5202056578 0.2061163796 -0.5198527748 -0.0671146704 0.1718132961
570296580.0 -0.0344677001 0.1754575738 0.2001871446 -0.5215145672 0.2002891777 -0.5222104318 -0.065913533 0.1722286753
575296550.0 -0.0321688118 0.1756304748 0.1952110453 -0.5241414755 0.1944587896 -0.5243046329 -0.0637775738 0.173206436
580296520.0 -0.0302138821 0.1763421167 0.1890714478 -0.5264105037 0.1887880167 -0.5266891814 -0.0625854063 0.1738979538
585296490.0 -0.0283482877 0.176956957 0.1839352584 -0.5280295479 0.1829214417 -0.5282559859 -0.0603408127 0.174757569
590296460.0 -0.0253233257 0.1772648349 0.1775413673 -0.5299388653 0.1776510871 -0.5304661571 -0.0590171355 0.1756309808
595296430.0 -0.0237928028 0.1779998508 0.1712317035 -0.5317776475 0.1711918493 -0.5321823829 -0.0571867323 0.1759175906
600296400.0 -0.0217771968 0.178484457 0.165982373 -0.5337252692 0.1656169623 -0.533781326 -0.0551644084 0.1765155143
605296370.0 -0.0199776275 0.1790359782 0.1606716408 -0.5354632753 0.1597531775 -0.5359976653 -0.0536841628 0.1777413301
610296340.0 -0.0174179503 0.1797747747 0.154544572 -0.5370925508 0.1547894852 -0.5371346025 -0.0522092379 0.1782776615
615296310.0 -0.0151763979 0.1798936568 0.1484868853 -0.5392119054 0.1482078077 -0.5390296139 -0.0497664216 0.1788735598
620296280.0 -0.0136639154 0.1807974648 0.1427701103 -0.5403868884 0.1421627715 -0.5401795443 -0.0484706659 0.1797116339
625296250.0 -0.0115697238 0.1805532636 0.1368029273 -0.5420374033 0.1370175063 -0.542063861 -0.0470186815 0.1799190075
630296220.0 -0.009513293 0.1813189396 0.1308170466 -0.5434184429 0.1307257306 -0.5432978353 -0.044982936 0.1805391308
635296190.0 -0.0075688287 0.1817731009 0.1250677153 -0.5448072429 0.1249281887 -0.5446163746 -0.0431491197 0.1811251321
640296160.0 -0.0050871972 0.181972565 0.1189212266 -0.5462606147 0.1189483481 -0.5459164587 -0.0415971886 0.1817701597
645296130.0 -0.0028648404 0.1826951438 0.1131823046 -0.547198596 0.1131680781 -0.5469739345 -0.0397815433 0.1820673209
650296100.0 -0.0009124265 0.1826164406 0.1076458199 -0.5483641151 0.1071929058 -0.5489072994 -0.0373644915 0.1828408073
655296070.0 0.0007960306 0.1828959363 0.1012125804 -0.5496017586 0.1015785195 -0.5490812001 -0.0362598712 0.1832507463
660296040.0 0.0030042624 0.1833583009 0.0956680345 -0.5507596255 0.095188602 -0.5506704908 -0.0343436897 0.183446986
665296010.0 0.0050016009 0.1834806656 0.0890567184 -0.551033599 0.0891318813 -0.551084638 -0.0324754498 0.1840485781
670295980.0 0.0071564904 0.1838299982 0.0831914758 -0.5523656336 0.0831053776 -0.5517062527 -0.0307071837 0.1844455005
675295950.0 0.0091195662 0.183750509 0.0774916785 -0.5530527283 0.0774323364 -0.5530418273 -0.029147335 0.1850980482
680295920.0 0.0109729076 0.1841265631 0.0717445021 -0.5535308616 0.0717573957 -0.5537161404 -0.027047017 0.1851885703
685295890.0 0.0133451586 0.1844589605 0.065266571 -0.5544743595 0.0658352157 -0.5547919946 -0.0252715345 0.185747143
690295860.0 0.0150392671 0.1847287398 0.0596339366 -0.5554220714 0.0591901902 -0.5552589281 -0.0236757982 0.186181761
695295830.0 0.0175558759 0.1844426006 0.0536180814 -0.5559157678 0.0535795538 -0.5557158322 -0.0215594527 0.1871061871
700295800.0 0.0195771599 0.1848429237 0.0474932644 -0.5560843519 0.0477190422 -0.5562405573 -0.0196530537 0.1870983779
705295770.0 0.0210553568 0.1846533195 0.0415808957 -0.5569201233 0.0415212186 -0.5567336142 -0.0179768069 0.187633333
710295740.0 0.0230467157 0.184663297 0.0357820543 -0.5572834147 0.0352318195 -0.5573710468 -0.0158365196 0.1878831609
715295710.0 0.0252068312 0.1847560428 0.0299626943 -0.5578247128 0.0298861229 -0.5578400156 -0.0145871008 0.1878165141
720295680.0 0.0276953978 0.1847111653 0.023526132 -0.5578207847 0.0236365471 -0.5581418375 -0.0126040885 0.1882039979
725295650.0 0.028722419 0.1848205931 0.0179589195 -0.5582472144 0.0175563065 -0.5580046074 -0.0110087207 0.1889782993
730295620.0 0.0308309306 0.1845845158 0.0117736498 -0.5579034939 0.011495881 -0.5575998939 -0.0092375928 0.1893934143
735295590.0 0.0331122931 0.1846648879 0.0054994837 -0.5582337614 0.0054818197 -0.558277594 -0.0073561359 0.188973234
740295560.0 0.0348218853 0.184442698 -3.97074e-05 -0.5580254096 -0.000383626 -0.5584191706 -0.0053324233 0.1896227612
745295530.0 0.0369059352 0.1845011266 -0.005939206 -0.5574439857 -0.0053708313 -0.557725861 -0.0041925646 0.189581768
750295500.0 0.0384895486 0.1844199931 -0.0117071583 -0.5577875253 -0.0121745183 -0.5583757427 -0.0021256134 0.1901317956
755295470.0 0.0407400625 0.1840907169 -0.0177865951 -0.5579190793 -0.0180026248 -0.5578935318 -6.28884e-05 0.1905260214
760295440.0 0.0426525477 0.1843519486 -0.0246753199 -0.5577662505 -0.0245703644 -0.5571042334 0.0021372517 0.1899805483
765295410.0 0.0447456671 0.1833409143 -0.0298314306 -0.5568346647 -0.0299090545 -0.5571532142 0.0037233407 0.1902838094
770295380.0 0.0464513052 0.1835694885 -0.0360541078 -0.5562305335 -0.036192702 -0.557397508 0.0052524635 0.1907255848
775295350.0 0.0485260717 0.1832156636 -0.0419368123 -0.5563507917 -0.0416483321 -0.5562215264 0.0074462594 0.1906278543
780295320.0 0.0503886979 0.1831132517 -0.0478525723 -0.5557913133 -0.0478595502 -0.5556026274 0.0091572165 0.190857024
785295290.0 0.052120262 0.1826551182 -0.0539323156 -0.5552998282 -0.0542505582 -0.5552803491 0.0106316398 0.1913737769
790295260.0 0.0543092831 0.1820914992 -0.059866536 -0.5548062655 -0.0594450246 -0.5550526024 0.0125034778 0.1912740762
795295230.0 0.0560628086 0.1813765627 -0.0659002308 -0.5543858155 -0.0659147805 -0.55411349 0.0144748669 0.1905414331
800295200.0 0.0579292502 0.1814735412 -0.071434448 -0.5531652261 -0.0721483443 -0.5534645807 0.0162287483 0.191066136
805295170.0 0.0594490101 0.1809202448 -0.0773393494 -0.552420564 -0.0776193983 -0.5526037523 0.0186907114 0.1911744976
810295140.0 0.0618538534 0.1805252544 -0.0835914549 -0.5516011886 -0.0836863478 -0.5516182255 0.0205856421 0.1911194956
815295110.0 0.0635240738 0.1801953404 -0.0894774725 -0.5505979434 -0.089174637 -0.5508259921 0.0218278151 0.1910042763
820295080.0 0.0655503212 0.1796445936 -0.0945182806 -0.5493554476 -0.0951054273 -0.5498730709 0.023385762 0.1916740432
825295050.0 0.0670661695 0.1791599607 -0.1009275979 -0.5486604896 -0.1012798802 -0.5485815824 0.0260417472 0.1913588628
830295020.0 0.0691297775 0.1784563139 -0.1071087859 -0.5474695732 -0.106986212 -0.5475773353 0.0276372782 0.1905541005
