!Created with skrf (http://scikit-rf.org).
# Hz S RI R 50.0 
!freq ReS11 ImS11 ReS21 ImS21 ReS12 ImS12 ReS22 ImS22
300000.0 -0.0462877619 -0.040383366 0.0006575176 0.0011821276 0.000749311 0.0015085371 -0.772942861 -0.127385242
5299970.0 -0.048696226 0.0155854486 9.83488e-05 -0.0002344262 0.0001470436 -6.673e-06 -0.783828301 -0.0071532889
10299940.0 -0.0433252485 0.0318985345 4.80992e-05 -0.0001069483 -7.4275e-06 4.59195e-05 -0.7870679169 -0.0035222276
15299910.0 -0.0351808853 0.0460843428 0.0001693877 3.664e-05 -0.0001073548 -0.0001122226 -0.7925521683 -0.0013366863
20299880.0 -0.0251821085 0.0576930499 4.04384e-05 -0.0002687813 1.56416e-05 -1.17982e-05 -0.7994475911 0.0020465506
25299850.0 -0.014437592 0.0666491751 -3.64988e-05 5.98186e-05 -6.82796e-05 -0.0001261926 -0.8058887442 0.0079646666
30299820.0 -0.0034139678 0.073142979 8.76196e-05 3.71703e-05 0.0001208485 7.41773e-05 -0.8116796242 0.0162680374
35299790.0 0.0077764332 0.0777001086 -3.22019e-05 3.10946e-05 -0.0001068115 -2.96512e-05 -0.8166783189 0.0249322889
40299760.0 0.0189238286 0.0803769308 -6.4795e-05 4.5157e-05 0.0001085959 8.5131e-06 -0.8209650733 0.0347882941
45299730.0 0.0297302724 0.0816836349 0.0001788594 6.43182e-05 0.0001704687 -0.0003113055 -0.8248614623 0.0438377565
50299700.0 0.0392988527 0.0816416272 -0.000229766 2.09189e-05 -7.40393e-05 0.0001067162 -0.827528997 0.0542650748
55299670.0 0.0482589546 0.080310492 -0.0001048526 -6.95079e-05 5.70838e-05 -3.04549e-05 -0.829460863 0.0643843529
60299640.0 0.0566153877 0.0788603918 -7.8833e-06 0.0001080048 -9.24995e-05 8.78779e-05 -0.8305747404 0.0744499558
65299610.0 0.0642949335 0.0762122974 0.0001190958 0.0001121065 0.0001382941 -0.0001304169 -0.8320638089 0.0842743922
70299580.0 0.0711789202 0.0733859603 -0.0001266458 -0.0001424704 -0.000101834 -3.31304e-05 -0.8318884312 0.0948466685
75299550.0 0.0773473468 0.0701395473 -0.0001859799 0.000271656 4.16269e-05 2.82063e-05 -0.8322893713 0.1044003367
80299520.0 0.0828079166 0.0667066728 -6.13879e-05 -5.7965e-06 7.54675e-05 0.0001662228 -0.8321182572 0.113990362
85299490.0 0.0875953911 0.0625205933 0.0001061356 -3.9593e-06 -0.0001939761 1.46498e-05 -0.8319422349 0.1240713297
90299460.0 0.0921824361 0.0589490769 7.73329e-05 0.0002711379 4.96438e-05 4.76672e-05 -0.8313938669 0.1335052836
95299430.0 0.0963445799 0.0548002303 -0.0001267899 -3.18842e-05 2.67084e-05 0.0001084583 -0.829698554 0.1432375636
100299400.0 0.0997243738 0.0511052951 -2.67924e-05 0.0001223384 2.54262e-05 0.0001888374 -0.8285577223 0.1526315787
105299370.0 0.1029770348 0.0473404755 -0.0002611658 4.73387e-05 7.02764e-05 8.0909e-06 -0.8269409656 0.1611168377
110299340.0 0.1058199547 0.0430651464 -1.02078e-05 0.0001028093 0.0001620064 0.0001710736 -0.8258114034 0.1709037725
115299310.0 0.1085437306 0.0390753705 -3.87023e-05 -4.40362e-05 -1.50623e-05 0.0001028754 -0.8243645894 0.1800590709
120299280.0 0.1103325315 0.0350241119 6.01901e-05 2.0742e-05 -0.0001549142 -4.18072e-05 -0.8227464592 0.1891020143
125299250.0 0.1120962894 0.031283035 0.0001337926 -5.3087e-06 2.73863e-05 0.0002606686 -0.8206207808 0.1980606931
130299220.0 0.1135150764 0.027784964 0.0002151801 -4.30394e-05 5.14615e-05 -5.20273e-05 -0.8188395209 0.2066586818
135299190.0 0.1151061858 0.0242966023 -3.01549e-05 -8.51434e-05 -1.61209e-05 0.0002235852 -0.8164114213 0.2163811134
140299160.0 0.1163250791 0.0204251018 3.16793e-05 0.0002115234 -4.44899e-05 0.0001095637 -0.8141077049 0.2252201123
145299130.0 0.1173069406 0.0166824832 -1.134e-06 0.0002167961 7.77241e-05 -1.67085e-05 -0.8117176873 0.2342411342
150299100.0 0.118198434 0.0134911399 1.89113e-05 9.3617e-06 0.0001744392 6.44018e-05 -0.8101641465 0.2432888126
155299070.0 0.1188206116 0.0100537084 0.0001105921 -0.0001503578 1.99e-06 -0.0001712057 -0.8075685434 0.2521748048
160299040.0 0.119218428 0.0069265457 0.0001011815 2.34138e-05 3.77009e-05 0.0001354107 -0.8048679802 0.2609582644
165299010.0 0.1199410118 0.0036779712 0.0002542453 0.0002001364 -5.37959e-05 -0.0001624727 -0.8023410941 0.2692962974
170298980.0 0.1197080596 0.0009107072 0.0001372004 -3.6436e-06 0.0002168166 5.62704e-05 -0.7990257019 0.2779576963
175298950.0 0.1202209786 -0.0021377668 -9.99558e-05 0.0001555273 -9.63774e-05 2.25418e-05 -0.7968089687 0.2868314367
180298920.0 0.1203453964 -0.0051960247 2.06325e-05 -1.7481e-06 4.8825e-06 6.62641e-05 -0.7937628239 0.2950014235
185298890.0 0.1205948023 -0.0083222163 4.4572e-06 -0.0001807907 6.14479e-05 0.0001201678 -0.7902478981 0.3043216512
190298860.0 0.1202582399 -0.0111413506 -0.0003032139 6.84594e-05 -0.000111862 -1.51491e-05 -0.7877727173 0.3121879108
195298830.0 0.120012447 -0.014006884 0.0002030376 0.0001207042 8.08237e-05 3.109e-06 -0.7843186531 0.3211668083
200298800.0 0.1198202066 -0.016578631 3.91487e-05 -0.0001238984 -4.64926e-05 -3.50495e-05 -0.7816492125 0.3296550329
205298770.0 0.1196343382 -0.0190336291 7.39873e-05 0.0002215493 0.0001424012 -0.00010766 -0.7774788058 0.3374020837
210298740.0 0.1191584767 -0.021911574 8.67403e-05 -4.2785e-06 -9.64859e-05 -0.000192691 -0.7745648329 0.3467787665
215298710.0 0.1183880257 -0.0247316813 0.0001176117 -0.0003013422 2.39207e-05 7.44192e-05 -0.7710297773 0.3542723894
220298680.0 0.1180305764 -0.0269479508 -1.52668e-05 -9.94244e-05 5.60219e-05 0.0001467511 -0.7678632162 0.3621954844
225298650.0 0.1173523255 -0.0294257581 -0.0001216533 0.000136645 4.52413e-05 -0.0001936379 -0.7639087929 0.3705463177
230298620.0 0.1168455452 -0.0316798912 0.0002305543 -0.0001525154 2.16949e-05 0.0001429072 -0.7602037182 0.3788575907
235298590.0 0.116416504 -0.0339739583 7.57863e-05 7.35428e-05 0.0001736565 -2.38602e-05 -0.755760091 0.3872375544
240298560.0 0.1156189846 -0.0365909009 -7.03737e-05 -9.74029e-05 -5.96847e-05 4.1063e-06 -0.7514964715 0.3953732209
245298530.0 0.1150041482 -0.0385922534 -2.59107e-05 0.0001439204 5.02208e-05 6.69461e-05 -0.747580153 0.4025112359
250298500.0 0.1142130973 -0.0408087057 0.0001471358 -8.62033e-05 0.0001389854 -0.0001091446 -0.7436040896 0.4105391553
255298470.0 0.1131375504 -0.0431813917 0.0001717107 0.0001713926 -9.3393e-05 0.0001285841 -0.7390332156 0.4187899243
260298440.0 0.1122281369 -0.0451841908 0.0002436285 5.94427e-05 -5.46613e-05 4.31039e-05 -0.734542519 0.4266259109
265298410.0 0.1114586845 -0.0471436452 -0.0001591188 0.0001957491 -2.19144e-05 3.62233e-05 -0.7305667959 0.4338979127
270298380.0 0.1104830751 -0.04906595 7.9046e-05 6.11247e-05 0.0002130001 0.000140665 -0.7252306039 0.4416988216
275298350.0 0.1094329286 -0.0512029542 1.99645e-05 0.0002261368 9.12121e-05 2.8567e-06 -0.7208644487 0.4489082744
280298320.0 0.1086912511 -0.053253154 -6.81686e-05 -0.0001152829 4.80094e-05 -2.80473e-05 -0.7159322849 0.4561596378
285298290.0 0.1080040691 -0.0547966319 0.0002027825 -2.73402e-05 2.34148e-05 0.0002231111 -0.7106030527 0.4636674901
290298260.0 0.1069873742 -0.0570383348 0.0001151185 9.77376e-05 -0.0002960475 -7.44414e-05 -0.7059967822 0.4709734746
295298230.0 0.1059085361 -0.0588983509 2.91985e-05 -1.55857e-05 0.00017487 0.0002333765 -0.7010391189 0.4783641192
300298200.0 0.1050159243 -0.060663065 0.0001863232 4.82894e-05 0.0001237909 -4.61344e-05 -0.696032286 0.4852379906
305298170.0 0.1039595364 -0.0625381554 -2.27101e-05 6.03867e-05 0.0001587591 0.0002729358 -0.6900147833 0.4928536641
310298140.0 0.1029266052 -0.0642859162 4.54728e-05 -7.58824e-05 0.0001396162 6.32507e-05 -0.6853324449 0.5000873299
315298110.0 0.1019012699 -0.0660276109 -0.0002313104 -8.09149e-05 0.0002963374 7.685e-05 -0.6796990281 0.5067159817
320298080.0 0.1007451767 -0.0681086194 0.0002458777 0.000177886 4.214e-05 0.0001083566 -0.6746342234 0.51463196
325298050.0 0.099365887 -0.0698595679 -0.0001734262 0.0003600652 0.0002625917 0.0001327998 -0.6686849001 0.52144891
330298020.0 0.0979264108 -0.0718352921 -7.60548e-05 -1.3298e-06 0.0002175106 -9.66829e-05 -0.6632807875 0.5285479757
335297990.0 0.096296032 -0.0734691715 0.0002469601 -6.05459e-05 0.0001552995 -2.49404e-05 -0.6582612347 0.5358935048
340297960.0 0.094857141 -0.0747986511 0.0001593237 0.0001910126 2.3493e-06 0.0002348743 -0.6522931139 0.5426108758
345297930.0 0.0932415908 -0.0762224146 -0.0001737616 -0.0001460866 -2.74795e-05 0.0001316264 -0.6463901126 0.5486952826
350297900.0 0.0922978867 -0.0777696507 0.00023577 0.0002780643 0.0001204809 7.07302e-05 -0.6413906811 0.5555757395
355297870.0 0.0908191344 -0.0789463842 3.3266e-06 -0.0001018423 -5.96172e-05 0.0001252554 -0.6352487136 0.5620760826
360297840.0 0.089352931 -0.0801798355 0.0001868645 1.43019e-05 -0.0001813818 0.0002255389 -0.6293197116 0.568926777
365297810.0 0.0876568931 -0.0810827932 0.000181469 5.36577e-05 0.000412079 0.0001349529 -0.6228845163 0.5756678678
370297780.0 0.0866045674 -0.0827536915 0.0001287971 2.08608e-05 0.0001277849 -8.48518e-05 -0.6167964874 0.5825582455
375297750.0 0.0853188325 -0.0839950687 5.37647e-05 7.86697e-05 8.86291e-05 0.0001519641 -0.6114240571 0.5881538539
380297720.0 0.0838933256 -0.0852798042 -8.01659e-05 3.82501e-05 6.33416e-05 -6.99604e-05 -0.6054044944 0.5951149425
385297690.0 0.0821904856 -0.0862158877 0.0001163734 -0.0002050544 0.000157766 6.2514e-06 -0.5985923566 0.6005039633
390297660.0 0.080630626 -0.0874190966 -0.0001689727 0.0001161135 0.000236593 8.9193e-06 -0.5933153185 0.6070463755
395297630.0 0.0795833298 -0.0887868482 0.0002371357 9.73421e-05 1.23191e-05 0.0001458544 -0.586338848 0.6136671624
400297600.0 0.0781077826 -0.0895270963 3.69136e-05 0.000101039 -0.0001208758 -0.0002138707 -0.5805528967 0.6197871001
405297570.0 0.0762702088 -0.0906770801 0.0002236798 -4.4436e-05 -3.46229e-05 -6.29403e-05 -0.5741260845 0.6246714539
410297540.0 0.0748804746 -0.0920421902 9.38889e-05 9.25779e-05 0.0001110925 9.76118e-05 -0.5675100087 0.6315182386
415297510.0 0.0735316623 -0.0932168485 -7.41504e-05 6.68263e-05 -5.54445e-05 -6.34794e-05 -0.5608895233 0.6371176858
420297480.0 0.0720174485 -0.0936507157 0.0001179634 0.000294969 6.2108e-05 0.0001097702 -0.5543148421 0.6428177941
425297450.0 0.0705348831 -0.0949710432 7.15548e-05 -7.84574e-05 0.0001611321 -2.24269e-05 -0.5477118349 0.648305841
430297420.0 0.0690067916 -0.0960053398 -6.92103e-05 -4.56366e-05 8.47856e-05 6.55497e-05 -0.5408835922 0.6528996227
435297390.0 0.0674559463 -0.0965907334 0.0001534347 1.7612e-05 -7.72562e-05 -4.66927e-05 -0.5336609922 0.6587058245
440297360.0 0.0657664073 -0.0979920387 7.10986e-05 -2.8942e-05 1.59514e-05 -5.01743e-05 -0.5270635776 0.6638925866
445297330.0 0.0644544679 -0.0986785796 0.0001384263 1.2501e-05 0.000299371 -4.4469e-06 -0.5204340923 0.6691652298
450297300.0 0.0628509634 -0.0994785487 0.0002063542 -6.08791e-05 -5.05781e-05 -8.0642e-05 -0.5128163073 0.6741267352
455297270.0 0.0610365103 -0.1004098008 -2.04551e-05 0.0002378241 -0.0001210047 4.82699e-05 -0.5062739575 0.6786842114
460297240.0 0.0595217831 -0.1012218309 6.12266e-05 -0.0001843281 -3.09267e-05 0.0001354621 -0.4994583472 0.6841650492
465297210.0 0.0582416276 -0.1020562821 0.0001880745 -0.0001688994 9.056e-07 8.25231e-05 -0.4915556585 0.6890605923
470297180.0 0.0563921484 -0.1026451839 0.0001456121 -0.0001957267 6.873e-07 0.0001450299 -0.4843253054 0.6940583407
475297150.0 0.0549234004 -0.1039003337 0.0003974387 -0.000302941 -2.07289e-05 -4.59435e-05 -0.4773381875 0.6986610506
480297120.0 0.0533334971 -0.104587072 9.771e-06 1.39376e-05 3.24058e-05 0.0001998374 -0.46977141 0.703605272
485297090.0 0.0514650572 -0.10489943 -2.5453e-06 -7.29836e-05 0.0001364917 0.0002111533 -0.4628290698 0.7084766081
490297060.0 0.0498121189 -0.1054093604 8.6178e-05 6.65499e-05 8.03892e-05 0.0001458124 -0.4550589493 0.7129501713
495297030.0 0.0484969351 -0.1059383901 0.0001527939 5.75152e-05 0.000159337 -0.0001291818 -0.4480317496 0.7181463879
500297000.0 0.0469794428 -0.1066212128 9.75794e-05 0.0002537886 0.0002322872 4.28873e-05 -0.4407003519 0.7222083489
505296970.0 0.0455360176 -0.1076344356 -0.0001346065 -0.0001736998 5.09378e-05 1.05581e-05 -0.4334376267 0.7263464111
510296940.0 0.0435356402 -0.1082297909 1.07115e-05 -8.07113e-05 0.000304167 -0.0002336838 -0.4261243527 0.7311380646
515296910.0 0.0421704937 -0.1087550639 3.12002e-05 9.89086e-05 2.17662e-05 0.0001760457 -0.4177858933 0.7348619122
520296880.0 0.0403282521 -0.1091539534 0.0001076694 -3.33439e-05 -3.6593e-06 7.91889e-05 -0.4106008477 0.7393854624
525296850.0 0.0389042227 -0.1098371574 -6.81959e-05 0.0001678255 -4.10523e-05 0.000269845 -0.4037014343 0.7442935851
530296820.0 0.0373324728 -0.1097871954 0.0001061277 0.0001417021 0.0001577963 4.27629e-05 -0.3960724173 0.7479711862
535296790.0 0.0354730786 -0.1104015066 7.79573e-05 -6.93482e-05 -6.82301e-05 0.0001995602 -0.3886170759 0.7517274774
540296760.0 0.0337371468 -0.1109230128 0.0002033287 -3.47877e-05 6.69342e-05 -0.000169232 -0.3803452307 0.7559758694
545296730.0 0.0319886328 -0.1113225471 0.0001797272 5.59917e-05 0.0001504409 -8.98112e-05 -0.3731887619 0.7596812859
550296700.0 0.0309101704 -0.1114344972 0.0001412939 2.42987e-05 0.0001687125 0.0001138807 -0.3650382304 0.763344745
555296670.0 0.0288367413 -0.1116734868 8.80663e-05 8.00723e-05 -3.02821e-05 8.09381e-05 -0.3580766677 0.767765428
560296640.0 0.0272876906 -0.1123295946 0.0003502046 8.58412e-05 0.0001769803 1.13591e-05 -0.3499327829 0.7711406929
565296610.0 0.0255038034 -0.1122334505 7.12669e-05 8.29979e-05 0.0003250701 -0.0001887722 -0.3423447572 0.7738109064
570296580.0 0.0236550322 -0.1127197926 0.0001390443 0.000226888 0.0003268587 -0.0001009695 -0.334737151 0.7779796576
575296550.0 0.0221806573 -0.1128359572 0.0002564601 0.0001243019 0.0001564146 0.0001237823 -0.3264798488 0.7813604911
580296520.0 0.0205315036 -0.1132046636 -1.59921e-05 7.6532e-06 0.0001413231 -2.99088e-05 -0.317630004 0.784086947
585296490.0 0.0184902058 -0.1134785205 0.0002901719 7.99104e-05 0.0001623621 0.0002323934 -0.3102683241 0.7874067648
590296460.0 0.0170822992 -0.1135463433 2.11297e-05 4.5217e-05 0.0001399984 -3.09508e-05 -0.303085599 0.7904300916
595296430.0 0.0155762788 -0.1136596309 0.0001163923 -0.0001995227 6.0966e-06 -1.313e-06 -0.2946319455 0.7927193615
600296400.0 0.01363366 -0.1137543046 0.0003038665 -0.0001204776 0.0001180713 1.53384e-05 -0.2866828519 0.7958599844
605296370.0 0.0119672211 -0.1140067464 5.64841e-05 5.40496e-05 0.0001330569 -0.0002075879 -0.2778888452 0.7986822657
610296340.0 0.0103692932 -0.1142293384 0.0001583876 -0.000212469 0.0002031488 -5.59716e-05 -0.2700191207 0.8008291697
615296310.0 0.0088291638 -0.1140433631 3.3909e-05 -8.7442e-06 1.74089e-05 7.82815e-05 -0.2615331909 0.8034076739
620296280.0 0.0070983039 -0.1143083349 2.68051e-05 5.81453e-05 0.000192308 -0.0001586026 -0.2538259915 0.8063848037
625296250.0 0.0050457024 -0.1143011617 -7.66228e-05 -7.7025e-06 0.0001019606 -0.0001073035 -0.2453962242 0.8082086764
630296220.0 0.0038659253 -0.1145513611 0.0001008504 -1.13142e-05 6.179e-06 2.70129e-05 -0.2371303147 0.8110284954
635296190.0 0.0016206478 -0.114020374 -7.4793e-05 -2.04811e-05 0.0001006393 4.59244e-05 -0.2290123513 0.8129317632
640296160.0 0.0004383483 -0.1142809636 -1.23814e-05 -2.16031e-05 9.8987e-05 4.66519e-05 -0.2208948934 0.8156613547
645296130.0 -0.0017201012 -0.113995999 -0.0001038211 -0.0001273259 0.0002193249 4.95688e-05 -0.2126042511 0.817236105
650296100.0 -0.0030308375 -0.1138240444 0.0004147751 -0.0001185583 0.0002046577 -6.6345e-06 -0.2045038018 0.818900799
655296070.0 -0.0049005019 -0.1137935364 0.0001833613 1.3259e-06 -2.80176e-05 0.0002574318 -0.1958030313 0.8207994641
660296040.0 -0.0065758669 -0.1135760022 0.0002677264 -1.72916e-05 1.85167e-05 -2.2335e-05 -0.1872699512 0.8229869869
665296010.0 -0.0079566815 -0.1136068843 0.0001694262 1.3324e-05 0.0001686794 -3.28135e-05 -0.1789135076 0.8253793743
670295980.0 -0.0100065254 -0.1129696979 -6.51383e-05 -4.1354e-05 4.88344e-05 5.0753e-05 -0.171789619 0.8265099384
675295950.0 -0.0116143416 -0.1128104833 -2.34931e-05 -0.0001406686 0.000133523 6.15045e-05 -0.1630580824 0.8285620292
680295920.0 -0.0132548631 -0.1127873704 0.0004849772 7.9956e-05 0.0001119104 -6.71706e-05 -0.1544280528 0.8308598614
685295890.0 -0.0146956303 -0.1122245837 0.000200811 -0.0001466998 -4.01125e-05 9.49645e-05 -0.1457318409 0.8317429644
690295860.0 -0.016126741 -0.1121156967 -0.0001167602 -1.62115e-05 0.0002043624 3.43778e-05 -0.1376170403 0.8336916148
695295830.0 -0.0180294418 -0.1117214465 0.0001682011 -3.02421e-05 6.5567e-05 -0.000154678 -0.1290451028 0.8346898478
700295800.0 -0.0197078572 -0.1115626645 6.97842e-05 -8.1533e-06 -7.98041e-05 0.0001633794 -0.1212485414 0.8357835756
705295770.0 -0.0213838188 -0.1109909984 3.80968e-05 0.000178649 0.0001177184 -1.07959e-05 -0.112711921 0.8379982905
710295740.0 -0.0231130676 -0.1104735243 0.0001622404 8.87466e-05 0.0003884705 -0.0002568044 -0.1041779115 0.8386711324
715295710.0 -0.0249668377 -0.1105384695 0.0001588076 6.59708e-05 4.30911e-05 2.84038e-05 -0.0957283528 0.8395811252
720295680.0 -0.0261907697 -0.1098471879 0.0003105413 2.19749e-05 0.0001819596 -6.23001e-05 -0.0872532437 0.8406726413
725295650.0 -0.0276452639 -0.1094543232 0.0002161462 -0.0002858137 9.04112e-05 -0.0001750686 -0.0796635095 0.8421379107
730295620.0 -0.0294457902 -0.1087296881 0.0001985672 -1.13957e-05 0.0001466814 8.40095e-05 -0.0710107926 0.8423150515
735295590.0 -0.0309175213 -0.1082807975 0.0003529746 5.6785e-06 0.0001722429 0.0001076676 -0.0627904498 0.8428773615
740295560.0 -0.0328251714 -0.1076537593 0.0001656024 -3.72358e-05 7.23543e-05 -4.14366e-05 -0.0533228239 0.8445305674
745295530.0 -0.0345135888 -0.1072800823 0.0002839054 3.70199e-05 0.0003290209 -0.0001028442 -0.0452674362 0.8441818506
750295500.0 -0.0357373887 -0.1066798569 0.0002898725 -0.0001061404 0.0002094623 0.0001652383 -0.036917051 0.8442867809
755295470.0 -0.0376964199 -0.1059900832 0.0003915252 -0.0001899512 -7.99518e-05 8.01475e-05 -0.0284752979 0.8438303672
760295440.0 -0.0392005141 -0.1053497398 4.08268e-05 6.712e-06 0.0002027875 -0.0001304156 -0.0204285995 0.8443865248
765295410.0 -0.040674159 -0.1048607599 9.73369e-05 -0.000198495 -4.34328e-05 0.0001263104 -0.0117894536 0.8452852845
770295380.0 -0.0420050891 -0.1041621397 0.0002013671 0.0001367122 0.0003599659 -4.60417e-05 -0.0038489975 0.8447156995
775295350.0 -0.0439571963 -0.1034639077 0.0001798914 -0.0001904464 0.0001499512 -0.0001598456 0.0040690792 0.8443767524
780295320.0 -0.0453870831 -0.1027757369 0.0003733769 0.000134296 0.0002108763 -0.0001146051 0.0128457071 0.8439957467
785295290.0 -0.0470065674 -0.1023600287 -8.47e-07 -0.0002178514 4.31467e-05 -0.0003011861 0.0219172765 0.8437372971
790295260.0 -0.0481450944 -0.1013724594 0.0001013059 6.12979e-05 -2.29672e-05 1.47595e-05 0.0303961373 0.844128395
795295230.0 -0.049841193 -0.100529595 -7.8122e-06 -0.0001215193 -2.59917e-05 0.0001210848 0.0393635005 0.8425625909
800295200.0 -0.0514048309 -0.0995576687 0.0003347805 -9.62412e-05 0.0001658046 -0.0002712077 0.0475084555 0.8428939173
805295170.0 -0.0528552901 -0.0992302218 0.0001383786 -0.0002706198 0.000130668 -4.54402e-05 0.0554522741 0.8419640647
810295140.0 -0.0543401912 -0.0985559776 0.000175077 -0.0001826474 0.0002327982 -7.84633e-05 0.0637958004 0.8415362796
815295110.0 -0.0557901493 -0.0975988099 0.0003415505 0.0002878415 0.000134538 -0.0001028812 0.0722736116 0.8408487348
820295080.0 -0.0573122949 -0.0963157841 0.0002437276 1.66888e-05 0.0002224194 -0.0001681882 0.0808667885 0.8402282816
825295050.0 -0.0586408218 -0.0959561017 0.0001159649 -0.0002803866 0.0002325333 -5.24584e-05 0.089166294 0.8395260073
830295020.0 -0.0602011178 -0.0948870324 0.0003129719 6.23585e-05 0.000129696 0.0001473677 0.0980309092 0.8380513437
835294990.0 -0.0614610527 -0.0937901851 0.0001563011 2.25461e-05 0.0002250821 3.1689e-06 0.1059762651 0.8372814146
840294960.0 -0.0628822456 -0.0927722635 -2.55078e-05 0.000145727 0.0002304791 -0.0001726668 0.1143363246 0.8357512918
845294930.0 -0.064445189 -0.0920047501 7.06092e-05 -0.0001512714 7.40512e-05 -0.0002410698 0.1218802236 0.8351406928
850294900.0 -0.065712874 -0.0908379585 2.12199e-05 -9.90688e-05 0.000251924 5.21279e-05 0.1304599054 0.8337220176
