!Created with skrf (http://scikit-rf.org).
# Hz S RI R 50.0 
!freq ReS11 ImS11 ReS21 ImS21 ReS12 ImS12 ReS22 ImS22
300000.0 -0.7794883596 -0.1035975199 -0.0010960019 0.0019784071 0.0015642762 0.0013010941 -0.0510348948 -0.0605117262
5299970.0 -0.784978766 -0.0059063193 0.000181705 -0.0001549302 -0.0001221209 9.75001e-05 -0.0498873545 0.0153906348
10299940.0 -0.7884115777 -0.003801228 -6.22615e-05 -7.18001e-05 -2.53223e-05 -4.2945e-06 -0.0440357196 0.033699854
15299910.0 -0.7934071603 -0.0021918005 0.0002354865 1.18431e-05 4.70332e-05 4.32687e-05 -0.0355373339 0.0479615909
20299880.0 -0.8000032248 0.0023003472 -6.07287e-05 8.84911e-05 -0.0001094796 1.04468e-05 -0.0253686551 0.0601365317
25299850.0 -0.8063842809 0.0074200614 -7.3197e-05 7.60175e-05 -0.0001416515 7.10723e-05 -0.0139649153 0.0692333847
30299820.0 -0.8126802281 0.0150961574 -1.69675e-05 0.0001715541 7.1581e-06 -9.1596e-05 -0.0022634807 0.0759518328
35299790.0 -0.8172531072 0.0245501301 5.98343e-05 -4.02143e-05 -5.20069e-05 -0.0001128721 0.0092424108 0.0810785348
40299760.0 -0.8210612956 0.0341440293 -9.39406e-05 -6.83716e-05 -4.687e-05 0.0001581626 0.0204898796 0.0833889103
45299730.0 -0.8247481703 0.043180918 0.0001159 -5.1048e-05 6.71846e-05 1.24867e-05 0.0317053715 0.0849322785
50299700.0 -0.8274001799 0.0532362487 -5.0573e-05 0.00012213 -2.3485e-06 -0.0001061853 0.0416514626 0.0846691062
55299670.0 -0.8297031516 0.0630923956 -0.0001044523 0.0001062118 8.2506e-05 -7.9091e-05 0.0507621489 0.0834612404
60299640.0 -0.8307717638 0.0734528573 -0.0001288184 0.0002621776 3.89119e-05 -5.2824e-06 0.0592248745 0.0814397097
65299610.0 -0.8312376489 0.0833867318 0.0001259687 0.0001000064 4.40687e-05 -0.0001145046 0.0672161359 0.0789556597
70299580.0 -0.831544017 0.093736772 -3.04553e-05 -3.95971e-05 -1.05034e-05 -1.55739e-05 0.0740992883 0.0761816732
75299550.0 -0.8319548328 0.1040831149 0.000222167 0.0001651304 3.42312e-05 5.066e-07 0.0805077349 0.072277174
80299520.0 -0.8320288771 0.1134011249 -1.83262e-05 7.77553e-05 0.0002975004 6.67017e-05 0.0858345399 0.0690156643
85299490.0 -0.8311817024 0.1225618321 -0.0002052661 -0.000109419 -4.92208e-05 5.46998e-05 0.09086166 0.0651024131
90299460.0 -0.8300130389 0.1324054995 0.0001217144 0.0001612742 -2.2176e-06 0.000151739 0.0956862038 0.0609643772
95299430.0 -0.8291288426 0.1417576346 2.32104e-05 0.0001644716 -7.90425e-05 0.0001708702 0.0997169637 0.0571111946
100299400.0 -0.8281433386 0.151331224 -5.11067e-05 -6.56269e-05 -4.36397e-05 0.0001640089 0.1038660198 0.0529152237
105299370.0 -0.8271839702 0.1600425046 9.74769e-05 -0.0001020396 9.6341e-06 6.08682e-05 0.1069956171 0.0488528559
110299340.0 -0.8250652142 0.1697052915 3.11519e-05 0.0001777525 0.0001190602 -6.4523e-06 0.1095983406 0.044623074
115299310.0 -0.8238065196 0.1787888792 -5.02854e-05 5.06323e-05 -0.0001330248 -1.12292e-05 0.112406806 0.0405739433
120299280.0 -0.8220125081 0.1870389154 -0.0001730009 -7.91808e-05 -2.57896e-05 1.74259e-05 0.1144347955 0.0369010101
125299250.0 -0.8203944791 0.1961810785 7.23253e-05 7.44882e-05 -1.25332e-05 0.0001151434 0.116609663 0.0326007231
130299220.0 -0.818772564 0.2053028732 0.0002168594 0.0002021251 -7.02517e-05 0.0001622209 0.1184436913 0.0285956734
135299190.0 -0.816928949 0.2145761242 -9.20619e-05 -3.21128e-05 -0.0001379445 -5.79085e-05 0.1198525886 0.0251447406
140299160.0 -0.814715231 0.2228668632 -0.0001368675 -1.40241e-05 0.0001948987 0.0001547811 0.121263474 0.0216438332
145299130.0 -0.8124686741 0.2321324021 -1.57675e-05 -5.89635e-05 -5.28529e-05 4.08192e-05 0.1218295225 0.0179332933
150299100.0 -0.8100426117 0.2408676196 6.50439e-05 -9.2011e-06 -8.60671e-05 5.49771e-05 0.1229070946 0.0149262544
155299070.0 -0.8080523392 0.2498777921 -2.00349e-05 0.0001592311 5.15231e-05 0.0001129787 0.123872131 0.0116039674
160299040.0 -0.8051709626 0.2578775971 -7.54927e-05 0.0001491603 0.0002297511 0.0001683957 0.1240518102 0.0081700119
165299010.0 -0.8026249082 0.2671185422 0.0001752824 -0.0001054387 4.3513e-05 8.18727e-05 0.124786393 0.0048946456
170298980.0 -0.7994362393 0.2750623087 0.0002489194 0.000148039 -3.54291e-05 2.25353e-05 0.1249271407 0.0015758909
175298950.0 -0.797179516 0.2844566372 3.06987e-05 -3.47787e-05 0.0002019782 0.0001501832 0.1253411202 -0.0015424434
180298920.0 -0.7941556926 0.2926262744 -0.0001405824 0.000155062 6.65306e-05 4.94182e-05 0.1252271824 -0.0043218867
185298890.0 -0.7911563804 0.3009074389 8.50357e-05 4.21765e-05 1.48678e-05 0.0001579401 0.1254747752 -0.0070606651
190298860.0 -0.7886820912 0.3096378759 0.0001250321 0.0001790819 -0.0001100285 0.0001020748 0.1254454744 -0.0098399497
195298830.0 -0.7853704764 0.3178608216 0.0001830626 0.000125221 5.38013e-05 9.38966e-05 0.1254022384 -0.0129562713
200298800.0 -0.7815602825 0.3258781307 0.0001473756 0.0001741285 -9.06755e-05 -0.000132885 0.1248809558 -0.0158046935
205298770.0 -0.7784818466 0.334134488 -0.0001646731 7.0388e-05 -1.99568e-05 -5.51296e-05 0.1245488325 -0.0188030419
210298740.0 -0.7747356821 0.3424235005 0.0001781962 7.98691e-05 1.67046e-05 -1.03608e-05 0.1242106389 -0.0209416537
215298710.0 -0.7719107017 0.3507236387 8.4719e-05 0.0001936713 0.0001619689 -7.08076e-05 0.1235651099 -0.0237300896
220298680.0 -0.7675170942 0.3584287649 -1.83738e-05 0.0001216221 -3.1413e-05 8.35169e-05 0.1228901043 -0.0263802738
225298650.0 -0.7642665099 0.3673122942 0.0001706938 0.0001290561 0.0002642072 -0.0001330165 0.1221563014 -0.0290889119
230298620.0 -0.7598512353 0.3746690604 8.8122e-06 3.0216e-05 0.0001340129 -4.20057e-05 0.1216680511 -0.0314073913
235298590.0 -0.7558079575 0.3832123491 0.0001746298 0.0001083659 5.2767e-06 0.0001408268 0.1212003426 -0.0337360254
240298560.0 -0.7528758988 0.3910176026 -3.5422e-06 0.0001715705 7.13796e-05 -9.3553e-06 0.1203893042 -0.0360175083
245298530.0 -0.7488346877 0.3986191791 -0.0001553549 -5.9929e-05 3.9046e-05 4.82232e-05 0.1196560687 -0.0383686111
250298500.0 -0.7439502442 0.4069991409 -0.0002030463 0.0002280191 7.09022e-05 5.63644e-05 0.1188647519 -0.0408001003
255298470.0 -0.7400453755 0.4141464128 -7.1246e-06 -9.99351e-05 -8.14614e-05 0.0001346527 0.1180320915 -0.0433928199
260298440.0 -0.7354493507 0.4214803984 -0.0001428436 -0.0001958729 2.4751e-06 3.66457e-05 0.1172437901 -0.0451740937
265298410.0 -0.7314824601 0.4301429637 -3.90923e-05 -4.15499e-05 0.0001202009 0.0001230175 0.1165681564 -0.047419289
270298380.0 -0.7269711813 0.437135462 -8.37469e-05 7.47303e-05 -9.26454e-05 -0.0002607155 0.1156157907 -0.0492955373
275298350.0 -0.722149395 0.4446735844 -3.75129e-05 0.0001591783 2.59873e-05 6.72063e-05 0.1146485678 -0.0514631088
280298320.0 -0.7170651089 0.4524670716 -0.0001007017 -3.33892e-05 8.6724e-06 -4.79714e-05 0.1139994696 -0.0534478387
285298290.0 -0.7126371254 0.4600482019 -6.62692e-05 0.0001041839 0.0002725145 -0.0001190454 0.1129120279 -0.055672495
290298260.0 -0.7079283668 0.4677186463 0.0002407666 1.49896e-05 -5.59262e-05 0.0001293757 0.1120683265 -0.0573266318
295298230.0 -0.7025025781 0.4744254975 -0.0001095713 0.0003248631 0.0001358359 -0.0001301154 0.1115041168 -0.0594847855
300298200.0 -0.697632401 0.4817541309 7.99116e-05 0.0001131011 6.60859e-05 -4.53842e-05 0.1101797046 -0.0612883995
305298170.0 -0.6926125381 0.4882239119 4.96378e-05 0.0001810183 6.71415e-05 7.0214e-06 0.1099025447 -0.0634087375
310298140.0 -0.6877777329 0.4965349677 7.77834e-05 -5.66123e-05 0.0001651619 1.65874e-05 0.1081962864 -0.0655401321
315298110.0 -0.6828213232 0.5031964136 0.0003344178 -3.26421e-05 -7.14271e-05 3.7319e-06 0.1068353366 -0.0674376445
320298080.0 -0.6779031881 0.5105240951 -1.49113e-05 0.0001542022 -7.5884e-06 0.0001137063 0.1057697312 -0.0693322272
325298050.0 -0.6718922873 0.5173500601 7.65757e-05 0.0001297879 4.53275e-05 -0.0001237494 0.1043447368 -0.0709011466
330298020.0 -0.666364039 0.5243215429 0.0001263316 8.07496e-05 -0.0001019878 7.90885e-05 0.1028126914 -0.0724548735
335297990.0 -0.661017764 0.5306435514 -1.9947e-06 -7.37543e-05 -0.0001279789 0.0002141249 0.1013479256 -0.0735065346
340297960.0 -0.6558558329 0.5377685727 5.7238e-06 0.0002292733 -3.7709e-06 -6.39388e-05 0.1003598035 -0.0752463708
345297930.0 -0.6496643348 0.5441175678 -1.85821e-05 -3.0453e-05 2.38889e-05 2.04749e-05 0.098624274 -0.077036959
350297900.0 -0.6440600165 0.5508385032 7.47703e-05 0.0002626624 2.12466e-05 -0.0001332186 0.0972310249 -0.0775515271
355297870.0 -0.6384025003 0.5578778179 5.16734e-05 4.00222e-05 8.4953e-06 9.60558e-05 0.0957585081 -0.0791226468
360297840.0 -0.6324303839 0.5639137409 1.44144e-05 -9.52326e-05 3.9234e-06 3.82091e-05 0.0944096041 -0.080644277
365297810.0 -0.6271835465 0.5706528413 0.0001573527 -0.0001910158 -0.0001984297 2.05878e-05 0.0930913781 -0.0820203813
370297780.0 -0.6207373136 0.5769737764 0.0001552854 3.22966e-05 -8.08051e-05 1.98074e-05 0.0917660091 -0.0831673887
375297750.0 -0.614376165 0.5831638463 -4.6929e-05 0.0001113273 4.20375e-05 3.67958e-05 0.0902349819 -0.0847535763
380297720.0 -0.6089670509 0.5896015385 0.0002674132 0.0001050828 3.71924e-05 0.0001665501 0.0882881647 -0.0859113044
385297690.0 -0.6035417332 0.5951007566 5.4673e-06 5.25912e-05 1.9405e-06 3.75752e-05 0.0872967831 -0.0873208666
390297660.0 -0.5969015316 0.6019212878 0.0001305718 5.91652e-05 -0.0001539496 -1.53452e-05 0.0857540819 -0.0880378438
395297630.0 -0.5902482907 0.6083413603 -5.77684e-05 7.59604e-05 0.0001310463 8.59e-06 0.0844865688 -0.0892803502
400297600.0 -0.5837214851 0.6139324979 0.0001292486 -2.18208e-05 0.0002131498 -6.882e-05 0.082808126 -0.0904818602
405297570.0 -0.5777144044 0.6195424638 4.06044e-05 0.0002102262 1.79921e-05 -9.72475e-05 0.0813464736 -0.0915592569
410297540.0 -0.5712791661 0.6250549929 0.0002044064 2.47289e-05 0.0001635675 0.0001414029 0.0798104955 -0.0928657826
415297510.0 -0.5646312693 0.6306867737 5.58919e-05 -8.53007e-05 0.0001170593 0.0002698719 0.0783462655 -0.0939552598
420297480.0 -0.5586387207 0.6372269334 -1.69323e-05 4.81961e-05 3.14002e-05 6.54489e-05 0.0767614344 -0.0951210253
425297450.0 -0.5514924644 0.6428428214 0.0003589768 -0.0002367747 0.0001876907 1.62233e-05 0.0751224725 -0.0958472104
430297420.0 -0.5449743439 0.648695576 0.0001641623 0.0001548191 0.0001610097 6.67219e-05 0.0735208682 -0.0972070075
435297390.0 -0.5385954009 0.6536276897 0.0001813787 0.0001194507 -2.06834e-05 5.01175e-05 0.0723697834 -0.0981857745
440297360.0 -0.5317626288 0.6587889362 -5.79333e-05 -5.40836e-05 -1.6762e-06 0.0002632209 0.0706838048 -0.0992286092
445297330.0 -0.5250173017 0.6644872011 -0.0001244227 1.83104e-05 2.71829e-05 2.60597e-05 0.0691571223 -0.1006583889
450297300.0 -0.5180044234 0.6691354644 0.0001348998 8.1959e-06 0.0001385565 5.40909e-05 0.0679249953 -0.1010132821
455297270.0 -0.5112711768 0.6745274762 0.0001303529 4.499e-06 4.0943e-05 0.0001164412 0.0660064767 -0.1019644569
460297240.0 -0.5046893321 0.6795911084 -0.0001253213 -7.78619e-05 6.24255e-05 0.0001699301 0.0645761247 -0.1027918029
465297210.0 -0.4979391297 0.6850899346 3.23766e-05 0.0004195929 5.41729e-05 0.0002319684 0.0630631975 -0.1040564342
470297180.0 -0.4902442064 0.6903474161 9.03903e-05 2.80401e-05 0.0001485065 0.0002547386 0.0615350606 -0.1047301298
475297150.0 -0.4834259986 0.6944718011 0.0002410146 1.95172e-05 0.0001463834 -6.29635e-05 0.0599621709 -0.1053667322
480297120.0 -0.4764832539 0.6993024726 2.7891e-05 4.63259e-05 0.0002127787 -8.7697e-06 0.0587921967 -0.1059121996
485297090.0 -0.4690584831 0.7041111824 3.2543e-05 0.0002742067 4.13025e-05 -1.36708e-05 0.0570868945 -0.1067908736
490297060.0 -0.4618389048 0.7086025642 0.0001915586 -5.92477e-05 4.1091e-05 -2.15165e-05 0.0554225926 -0.1077266982
495297030.0 -0.4549718032 0.7130311063 -8.16067e-05 -1.7406e-06 6.3428e-06 5.24267e-05 0.0537472427 -0.1077565878
500297000.0 -0.4475230677 0.7185366065 0.0002974117 -8.37483e-05 -0.0001340408 2.07594e-05 0.0523258833 -0.1085853741
505296970.0 -0.4399833396 0.722376559 0.0001546618 6.8507e-05 5.18402e-05 -1.89645e-05 0.0506091761 -0.1092688049
510296940.0 -0.4331460798 0.7264427605 0.0001359518 4.47452e-05 0.0001234882 -2.36469e-05 0.0490754683 -0.1098131442
515296910.0 -0.4246564075 0.7307709743 0.000160391 0.000190406 2.9633e-06 -0.0001195321 0.0472180144 -0.1105735646
520296880.0 -0.4179739998 0.73583662 9.44333e-05 0.0001638543 -6.49793e-05 8.56869e-05 0.0455801482 -0.1109951099
525296850.0 -0.4098584345 0.7390022839 -8.9809e-06 0.0001851493 -3.82893e-05 -5.90602e-05 0.0439548762 -0.1110888156
530296820.0 -0.402459527 0.7436916213 0.000227594 -5.20812e-05 2.01625e-05 2.01003e-05 0.0426285359 -0.1115191569
535296790.0 -0.3958883097 0.7468530594 -3.75516e-05 4.33416e-05 0.000191718 0.0003799398 0.0405377844 -0.1123762646
540296760.0 -0.3878344995 0.7508257884 0.0001604909 -7.6421e-05 7.31575e-05 2.2622e-06 0.0388228991 -0.112616754
545296730.0 -0.3804183497 0.75540457 0.0001105741 -1.84874e-05 0.0001755327 6.71101e-05 0.0370623344 -0.1131088329
550296700.0 -0.3732211631 0.7593223721 0.0002432482 -0.0002888229 8.98185e-05 0.0001712539 0.0352865116 -0.1134559258
555296670.0 -0.3648812388 0.7617631528 0.0003444381 0.0002645067 0.000106207 -4.67446e-05 0.0337153157 -0.1133672141
560296640.0 -0.3574131369 0.7662408447 -3.0404e-05 -0.0001229793 0.0002742276 -3.66739e-05 0.0319853075 -0.1136466051
565296610.0 -0.3495038512 0.7693139715 0.0002027916 0.0001973553 2.19286e-05 0.0001340465 0.0305628869 -0.1142303692
570296580.0 -0.3419075769 0.7727286277 0.0001684328 -8.44401e-05 0.0001171497 5.0653e-05 0.0283612171 -0.1145912111
575296550.0 -0.3345414831 0.7762370416 0.0001646631 4.527e-06 0.0002263634 -5.71914e-05 0.0267124508 -0.1149266588
580296520.0 -0.3255861349 0.7799240785 7.54988e-05 -0.000161183 7.32781e-05 0.0002409323 0.0249720979 -0.115473624
585296490.0 -0.3185627526 0.7828183448 -3.85666e-05 3.0662e-05 0.0003041796 -1.873e-05 0.0236657392 -0.115566043
590296460.0 -0.310243185 0.7860930366 -0.0001181119 0.000149981 0.0002269742 6.38017e-05 0.0214500839 -0.1157293552
595296430.0 -0.3026567855 0.7884280829 0.0002914832 8.87495e-05 0.000289478 7.0178e-06 0.019863146 -0.11592059
600296400.0 -0.2946945327 0.7919473718 5.73886e-05 -0.0001192504 0.0001458013 1.71876e-05 0.0183723467 -0.1166409681
605296370.0 -0.2876566899 0.7942697739 0.0001661656 -0.0001508613 0.0002654782 6.05414e-05 0.0166887471 -0.1166724411
610296340.0 -0.2793861879 0.7974750183 3.08712e-05 -0.0001210031 0.0001746432 -5.44415e-05 0.0151120837 -0.1162806004
615296310.0 -0.2703006337 0.799983095 0.0003409429 6.13395e-05 0.0002624826 6.07912e-05 0.0132296276 -0.1167423782
620296280.0 -0.2623120152 0.8022649299 0.0001065628 -3.28644e-05 2.52001e-05 -3.60451e-05 0.0117129557 -0.1167797306
625296250.0 -0.2547239078 0.8049218222 8.99713e-05 0.0001459195 0.000124761 -5.63969e-05 0.0101252526 -0.1168505827
630296220.0 -0.2463214341 0.8080087754 9.00709e-05 -8.05036e-05 0.0002217065 4.14429e-05 0.0084287025 -0.116643816
635296190.0 -0.2387133953 0.8104760146 -4.28157e-05 0.0002305157 0.0001454538 -0.0001366609 0.0069536589 -0.1168530917
640296160.0 -0.230659891 0.8123029831 0.0003520783 -4.30806e-05 0.0002067314 0.0001475225 0.0049015337 -0.1169651383
645296130.0 -0.2223405856 0.8153899632 0.0002031166 7.51295e-05 0.0001291052 0.0001579674 0.0038083766 -0.116582026
650296100.0 -0.2140039864 0.8166162308 6.30918e-05 -0.0001190886 0.0001958322 -0.0001088161 0.0018192682 -0.1170331123
655296070.0 -0.2059540989 0.8189110393 0.0002581152 -0.0001438607 3.90971e-05 -9.9968e-05 0.0003757311 -0.1166430439
660296040.0 -0.1977517269 0.8209398027 6.89052e-05 5.84983e-05 6.82968e-05 -6.99238e-05 -0.000971034 -0.1165006595
665296010.0 -0.1891502535 0.8225542243 9.29829e-05 -0.0001703363 8.03495e-05 0.0001653496 -0.0030629209 -0.1161001153
670295980.0 -0.1815978496 0.8243371785 0.0002695253 -7.35679e-05 8.78672e-05 9.17048e-05 -0.0047517578 -0.1160683859
675295950.0 -0.1734569702 0.8260538718 0.0002197396 -0.0001638711 1.39434e-05 1.47669e-05 -0.0065773226 -0.115662529
680295920.0 -0.1647037768 0.8281106353 -2.05518e-05 0.0001793186 0.0003479399 1.81185e-05 -0.0078258144 -0.1151686862
685295890.0 -0.1564747044 0.8300400849 0.0001186419 -0.0001285345 0.0001283921 -3.7603e-05 -0.009610352 -0.1153303154
690295860.0 -0.1482072319 0.8312883554 8.8193e-06 -5.37332e-05 7.32452e-05 0.0001606146 -0.0111824673 -0.1143623411
695295830.0 -0.1403243235 0.8319967851 0.0001965968 -4.66489e-05 2.07084e-05 7.52926e-05 -0.0130559795 -0.1143688938
700295800.0 -0.1314306952 0.8337288618 3.86171e-05 -7.58987e-05 -0.0002070573 -9.91453e-05 -0.0148771715 -0.1142953758
705295770.0 -0.1238176917 0.8351443229 -2.47172e-05 -4.44453e-05 0.0001713051 -0.0002704928 -0.0162835663 -0.1131394193
710295740.0 -0.1155033657 0.8362314788 0.0002718512 -2.64744e-05 0.0001407765 0.0002413049 -0.0182727019 -0.1132629355
715295710.0 -0.1072358739 0.8374804087 0.0002534539 0.0001980946 7.68375e-05 -1.6006e-06 -0.0196756385 -0.1128304859
720295680.0 -0.0989504476 0.8381511086 9.58689e-05 0.000376012 3.8148e-06 0.0001352441 -0.0212177706 -0.1121784966
725295650.0 -0.0906022228 0.8396686797 0.0001361046 -3.38283e-05 0.0001978383 -2.13414e-05 -0.0232124126 -0.1115680877
730295620.0 -0.0820400604 0.8406531032 -0.0001626031 7.33129e-05 0.0001925455 -0.0001942534 -0.0248132698 -0.1116712367
735295590.0 -0.07401146 0.8415354526 0.0002461485 0.0002667973 0.0001036769 -5.82691e-05 -0.026906003 -0.1112586248
740295560.0 -0.0652489674 0.8422464943 0.0003943797 0.0001457901 -2.81684e-05 -0.000292174 -0.0278306516 -0.1107029749
745295530.0 -0.0573170652 0.8425124799 0.0002219759 -7.6927e-05 3.67226e-05 -0.00011501 -0.0297546789 -0.1101001406
750295500.0 -0.0482114395 0.8426345216 5.31136e-05 0.0001907293 0.000119489 0.0002014032 -0.0313330103 -0.1097104134
755295470.0 -0.0404533804 0.8431511673 0.0002680894 -0.0001785771 -2.36457e-05 -0.0001017264 -0.0326474341 -0.1094857059
760295440.0 -0.0324822145 0.8432688107 -3.52719e-05 -0.0001994658 0.0003394909 4.8455e-06 -0.0345251614 -0.1087434375
765295410.0 -0.0237877637 0.8441801458 -0.0001578097 2.85882e-05 0.0002202445 1.3438e-06 -0.0360947214 -0.1079047644
770295380.0 -0.015779499 0.8444100285 0.0001536105 -0.0002206343 7.0584e-05 -0.0001036978 -0.037733529 -0.1078000399
775295350.0 -0.0069863635 0.8441077724 9.14291e-05 0.0001746985 6.25349e-05 -5.02519e-05 -0.0398347576 -0.107010769
780295320.0 0.0014277615 0.8444183854 0.0002476123 -0.0002037507 0.0001772293 7.79267e-05 -0.0406868867 -0.1063111924
785295290.0 0.0092255852 0.8435724814 0.0001282079 8.27688e-05 0.000199978 -1.68021e-05 -0.0419711715 -0.1055868379
790295260.0 0.0181695938 0.8437145321 0.0002101581 0.0001054368 0.0001657962 -4.71739e-05 -0.043306635 -0.1048474016
795295230.0 0.0257236397 0.8434366945 0.0002426815 -5.35109e-05 6.25469e-05 -5.06368e-05 -0.0450623877 -0.1044534915
800295200.0 0.0344126954 0.8431198205 0.0001952203 2.99543e-05 3.17494e-05 -4.95142e-05 -0.0465138145 -0.1036006005
805295170.0 0.0433816815 0.8428225074 0.000333639 4.44601e-05 9.06768e-05 6.7513e-06 -0.0478085208 -0.1027363177
810295140.0 0.050899309 0.8421666796 7.68569e-05 -0.0001181315 9.58133e-05 -0.0002060074 -0.0490722085 -0.1022730383
815295110.0 0.0593669632 0.8418615527 8.05235e-05 -3.7059e-05 0.0001696144 -2.60497e-05 -0.0506144681 -0.1010531524
820295080.0 0.0676845899 0.8415714001 0.0002893991 -0.0002821364 0.0002376037 -1.61786e-05 -0.0518639927 -0.1004834327
825295050.0 0.0767737555 0.8398708213 0.0001131448 -0.000190108 0.0002653051 -0.000137116 -0.0533310306 -0.099599564
830295020.0 0.0841655207 0.8399398965 0.0001285245 0.0001171081 9.1478e-05 7.4018e-06 -0.0545113248 -0.0986716675
835294990.0 0.0921375269 0.838755527 -0.0001894763 -0.0002663328 0.0001500403 -3.49495e-05 -0.0565446367 -0.0977438684
840294960.0 0.1005460282 0.8384814239 0.00010235 -0.0002068509 0.0002083275 -6.34108e-05 -0.0577056677 -0.0968881961
845294930.0 0.1087862779 0.8373348384 0.0005989149 5.36861e-05 -0.0001499345 -7.32731e-05 -0.0592765187 -0.0959514439
850294900.0 0.1167769204 0.8362380655 0.000141307 -6.26981e-05 3.49852e-05 -0.0002803283 -0.0603623708 -0.0947585496
