!Created with skrf (http://scikit-rf.org).
# Hz S RI R 50.0 
!freq ReS11 ImS11 ReS21 ImS21 ReS12 ImS12 ReS22 ImS22
300000.0 -0.3249030834 -0.0756150951 0.3769361112 0.0394606892 0.375143524 0.0397138923 -0.3204674704 -0.0931362096
5299970.0 -0.3267091472 0.0047185325 0.3784899817 0.0024338232 0.3780878715 0.0024088309 -0.3244938364 0.0050477672
10299940.0 -0.32432135 0.013441302 0.3793745645 0.0018129368 0.3793761237 0.0022311719 -0.3218953868 0.0162995928
15299910.0 -0.3216076445 0.0205524941 0.3818332388 0.0020418661 0.3822208326 0.0018973934 -0.3190212059 0.0238220082
20299880.0 -0.3189297124 0.0263881177 0.3848769102 0.0020312631 0.3850565635 0.0016080575 -0.3153344302 0.0301364449
25299850.0 -0.3156439344 0.0317459178 0.3883060697 0.0001212172 0.3881311655 5.75249e-05 -0.3114149137 0.0359180985
30299820.0 -0.3126848461 0.0358742405 0.3913524756 -0.0024884821 0.3915193579 -0.00228457 -0.3078095681 0.0407542748
35299790.0 -0.3101372377 0.0396197415 0.3948942506 -0.0052594288 0.3949162025 -0.005475102 -0.3038569509 0.0448684428
40299760.0 -0.3073828262 0.0434869015 0.3979078314 -0.0088134777 0.3980397292 -0.0087268255 -0.3002881815 0.0481144148
45299730.0 -0.304815676 0.0462521767 0.4005539891 -0.012622515 0.4010942582 -0.0126516578 -0.2975468954 0.0516025924
50299700.0 -0.3023370969 0.0492659809 0.4036823752 -0.0171195922 0.4036169156 -0.0172062255 -0.2944516031 0.0541071547
55299670.0 -0.3004080088 0.0519884364 0.4058059527 -0.0222191185 0.4056827402 -0.0218580769 -0.291644687 0.0565819398
60299640.0 -0.2978533132 0.0549045768 0.4078092994 -0.0269423846 0.4077349695 -0.0265999805 -0.2890790723 0.0591759274
65299610.0 -0.2961779538 0.057051948 0.4089772987 -0.0319086524 0.409122535 -0.0318707198 -0.287208952 0.0612595227
70299580.0 -0.2944863074 0.0601617179 0.4105677451 -0.0372451461 0.4105533488 -0.036744031 -0.2850312041 0.0637927519
75299550.0 -0.2930377534 0.06252633 0.4111827052 -0.0423810298 0.4112500972 -0.0421555481 -0.2829972471 0.065840753
80299520.0 -0.2918698768 0.0648803261 0.4126315648 -0.047669776 0.4126076868 -0.0475071999 -0.2811553974 0.0683049572
85299490.0 -0.2903607785 0.0665856066 0.4128615935 -0.0524979541 0.4132445748 -0.0523108162 -0.2798635195 0.0698481539
90299460.0 -0.2887611438 0.0695447334 0.4128031003 -0.0576769791 0.413431863 -0.0577209777 -0.278085236 0.0720959033
95299430.0 -0.2874616567 0.0713028208 0.413640919 -0.0629791561 0.4135079367 -0.0630677178 -0.2764011421 0.0741987708
100299400.0 -0.286468772 0.0738744591 0.4134790546 -0.0680909543 0.4134656248 -0.0681671144 -0.2748300892 0.0758560572
105299370.0 -0.2851698067 0.0762423566 0.4132458884 -0.0736444834 0.4136994869 -0.0734104101 -0.2735342163 0.0782414845
110299340.0 -0.2839272444 0.0786926628 0.4133357207 -0.0785255915 0.4130524665 -0.0785240801 -0.2728334823 0.0804095986
115299310.0 -0.2827869039 0.0810479828 0.4130171395 -0.0838493852 0.4127610223 -0.0840159896 -0.2715712811 0.0827481529
120299280.0 -0.2819145317 0.0830233765 0.4121183796 -0.0890716225 0.4126722598 -0.0890463642 -0.2706208575 0.0847982329
125299250.0 -0.2809607516 0.0853411639 0.4115918753 -0.0939002552 0.4124064816 -0.093851699 -0.2699239687 0.0866209436
130299220.0 -0.2805423111 0.0880699976 0.4111900571 -0.0988414851 0.4112281762 -0.0989535377 -0.2685642503 0.0887886918
135299190.0 -0.2793853485 0.0908331456 0.4108392338 -0.1041002547 0.4108546732 -0.1036841596 -0.2675539677 0.091089015
140299160.0 -0.278578921 0.0931197732 0.4097089166 -0.1092984286 0.4097059669 -0.109032488 -0.2663905674 0.093843121
145299130.0 -0.277433773 0.0954774389 0.4089095966 -0.1141041758 0.4087896039 -0.113735707 -0.2656795655 0.096046771
150299100.0 -0.2762273163 0.098348974 0.4079516626 -0.1186440187 0.4078451635 -0.1185864416 -0.2648576487 0.0987493802
155299070.0 -0.2758061181 0.1007133242 0.40694545 -0.1241415029 0.4065850679 -0.1239980929 -0.2634284043 0.1006529611
160299040.0 -0.27463038 0.1033463265 0.4054414403 -0.128667503 0.4053893174 -0.1288646267 -0.263014238 0.1033058245
165299010.0 -0.2734465742 0.1058997473 0.404304319 -0.1337897289 0.4043782866 -0.1336589434 -0.261841125 0.1058357994
170298980.0 -0.2731382282 0.1084948487 0.4027547921 -0.1384960384 0.4031416603 -0.1383587746 -0.2607271 0.1081251332
175298950.0 -0.2718713704 0.1114017493 0.4017242536 -0.1431384268 0.4015038783 -0.1431246829 -0.2599335012 0.1107743564
180298920.0 -0.2713511224 0.1139354553 0.3999709012 -0.1480013596 0.3999090893 -0.1474531809 -0.2589637786 0.1132316045
185298890.0 -0.2693240595 0.1163755574 0.3985476774 -0.1524645 0.3983340451 -0.1524874897 -0.2575205318 0.115879192
190298860.0 -0.2687905025 0.1192121246 0.3971882078 -0.1570713232 0.3973441334 -0.1572538654 -0.2568235555 0.1180442205
195298830.0 -0.2679485065 0.1218695971 0.3953621837 -0.1620434158 0.3954691273 -0.1616244276 -0.2556228142 0.1206956685
200298800.0 -0.2665451341 0.1246016566 0.3935597161 -0.166883365 0.3939148608 -0.1665428901 -0.2550773769 0.1232491062
205298770.0 -0.2655360748 0.1271053987 0.3916282411 -0.1710782397 0.3915220604 -0.1710166662 -0.253178921 0.1253074201
210298740.0 -0.2644469955 0.1298344249 0.3899732683 -0.1753532357 0.3898217223 -0.1753648438 -0.2521330526 0.128458312
215298710.0 -0.2633536395 0.1327110409 0.3880404486 -0.1801206575 0.3879033437 -0.1804635363 -0.2513378914 0.1308037095
220298680.0 -0.2620757186 0.1350046978 0.3858079268 -0.1845811267 0.3860100682 -0.1847663756 -0.2504476983 0.1330434203
225298650.0 -0.2614863741 0.1379559542 0.3838450751 -0.1889738623 0.3841950625 -0.1890728483 -0.2489480764 0.1357403077
230298620.0 -0.2598984683 0.1407861944 0.3822293487 -0.1931794775 0.382525495 -0.1935432984 -0.2480361177 0.1384601255
235298590.0 -0.2582209789 0.1436965034 0.3797191903 -0.1976498391 0.3800504883 -0.1974411369 -0.2463581979 0.1410268747
240298560.0 -0.2567940536 0.1463650829 0.3778096085 -0.202328932 0.3778060635 -0.2021066352 -0.2451789974 0.143561189
245298530.0 -0.2558284391 0.1489925767 0.3756981658 -0.2066554043 0.3756623966 -0.2064321772 -0.2438551169 0.1457139647
250298500.0 -0.2542128503 0.1515796074 0.3727226223 -0.2105857389 0.3730791195 -0.2105422962 -0.2429710772 0.1484103517
255298470.0 -0.2527209383 0.1540274159 0.3699022159 -0.2144354011 0.3709042431 -0.2147825495 -0.2411911501 0.150922809
260298440.0 -0.251760303 0.1566451362 0.3683070698 -0.219217015 0.3687086797 -0.2190808289 -0.2392730095 0.1535166889
265298410.0 -0.24982243 0.1597720702 0.3658747071 -0.2232849453 0.3661953822 -0.2233942397 -0.2382440566 0.1563757793
270298380.0 -0.2486161331 0.1624156923 0.3635474683 -0.2271683948 0.36421854 -0.2274428987 -0.2368672721 0.1588184399
275298350.0 -0.247218073 0.1648754001 0.3614198298 -0.2316298599 0.3614108404 -0.2316892773 -0.23497294 0.1612586416
280298320.0 -0.2451338166 0.1679304395 0.3586578388 -0.2358571967 0.3586826097 -0.2357703695 -0.2332775263 0.1638419524
285298290.0 -0.2437801662 0.170541593 0.3560416056 -0.2395634541 0.3560925618 -0.2396045369 -0.231966967 0.1662460281
290298260.0 -0.242071491 0.1730911123 0.3536492301 -0.2434971298 0.3537587553 -0.2437373639 -0.2303332818 0.1689113456
295298230.0 -0.2400740241 0.1756555005 0.3507229113 -0.2478906938 0.3507199673 -0.2477549018 -0.2284635554 0.1713516982
300298200.0 -0.238674348 0.1783265561 0.3481646442 -0.251569287 0.3482585609 -0.2518746779 -0.2268018962 0.1737469748
305298170.0 -0.236542247 0.1807294878 0.3448182543 -0.255935138 0.3451977169 -0.2555460144 -0.224694405 0.1762425187
310298140.0 -0.2352437411 0.1835635113 0.3422919738 -0.259421593 0.3425802541 -0.2593170347 -0.2232509774 0.1784132008
315298110.0 -0.2334027416 0.1858913821 0.3397999639 -0.2632238875 0.3394006814 -0.2635905116 -0.2215409124 0.1808807938
320298080.0 -0.231432232 0.1882128353 0.336382076 -0.2677252269 0.3366298572 -0.267355053 -0.2199077589 0.1833673738
325298050.0 -0.2297326751 0.1907926893 0.33347656 -0.2712983567 0.3334764204 -0.271258505 -0.2182316338 0.1855754751
330298020.0 -0.2277423748 0.1930954987 0.3301470522 -0.2750242906 0.3304087094 -0.2749273667 -0.2163141508 0.1879970563
335297990.0 -0.2258179247 0.1956826409 0.327208678 -0.2785232525 0.3272554641 -0.2786154283 -0.2150567808 0.1908031288
340297960.0 -0.2242413038 0.1982568335 0.3237126069 -0.2823080582 0.3238966658 -0.2823342956 -0.2127875569 0.193049857
345297930.0 -0.2222651112 0.2007641231 0.3209858459 -0.2859446085 0.3204734152 -0.286189447 -0.2107519836 0.1951999824
350297900.0 -0.2200731092 0.2031625606 0.3169479499 -0.289310926 0.3171750435 -0.2893822309 -0.2092987383 0.1980090924
355297870.0 -0.2178651504 0.2059714584 0.3139914648 -0.2929574099 0.3144988816 -0.2924543945 -0.207524068 0.2002719483
360297840.0 -0.2162946133 0.208039222 0.3115163364 -0.2960927096 0.3114634081 -0.296331386 -0.2053282621 0.2028304969
365297810.0 -0.2142758727 0.2109548592 0.3080039936 -0.2998040396 0.308193584 -0.2998553745 -0.2031793393 0.2048136205
370297780.0 -0.2117888949 0.213213131 0.3040568475 -0.3030026366 0.304451054 -0.3028204178 -0.2013142422 0.2072311465
375297750.0 -0.2094898864 0.2155718644 0.3010723538 -0.3064088311 0.3014382945 -0.3064775731 -0.1989467112 0.2092966418
380297720.0 -0.2076573684 0.2178421808 0.2978974367 -0.3098195832 0.2975339281 -0.3090314599 -0.1969450953 0.2114377594
385297690.0 -0.2056342265 0.2202586609 0.294514956 -0.3132175438 0.2942770555 -0.3132754573 -0.1946630626 0.2139913099
390297660.0 -0.2031530722 0.222701581 0.2905558229 -0.3159999532 0.2908350292 -0.3160578996 -0.1929398824 0.2163365064
395297630.0 -0.2007334992 0.2252875727 0.2870988083 -0.319080106 0.2873138672 -0.3191632638 -0.1902313264 0.2184978516
400297600.0 -0.198672889 0.227416143 0.2836085854 -0.3228530287 0.2837733287 -0.322381318 -0.1883787604 0.2208178577
405297570.0 -0.1963579372 0.2293216963 0.2801593229 -0.3253942158 0.2802255222 -0.3252228523 -0.1861572478 0.2228311794
410297540.0 -0.1939476424 0.2314177197 0.2766389577 -0.3283419349 0.2770014908 -0.3287104308 -0.1839758533 0.2252167494
415297510.0 -0.191445944 0.2336957812 0.2727541043 -0.3315920474 0.2732255491 -0.3317692092 -0.1813628748 0.2271792933
420297480.0 -0.18914764 0.2363957695 0.2689239154 -0.3343847646 0.2691582799 -0.3345856448 -0.1790762508 0.229038332
425297450.0 -0.1866584244 0.238227344 0.2655580102 -0.337402952 0.2661754648 -0.3374840686 -0.1772467616 0.2311372881
430297420.0 -0.1844837118 0.2404578089 0.2615757214 -0.3399142679 0.2616951319 -0.3400612694 -0.1746501053 0.2332272675
435297390.0 -0.1817825358 0.2424605042 0.2576360111 -0.3430266908 0.2577952362 -0.3435879105 -0.1719308467 0.2351323335
440297360.0 -0.1793711199 0.2443162651 0.2541911792 -0.3457341044 0.2542002024 -0.3457387458 -0.1695325583 0.2367377152
445297330.0 -0.1768814262 0.2461963052 0.2504095404 -0.3487785586 0.2505845665 -0.3483401613 -0.1671183478 0.238781836
450297300.0 -0.1741845569 0.2480273062 0.2463317875 -0.3509699493 0.2466133061 -0.3514607851 -0.1647897799 0.2408255937
455297270.0 -0.1716774655 0.2505930923 0.2424734334 -0.3539399472 0.2430530503 -0.3536553541 -0.1620285552 0.2425270084
460297240.0 -0.1691798847 0.2523830939 0.2386694706 -0.356535321 0.2389521673 -0.3565470522 -0.1597160427 0.2447176493
465297210.0 -0.1665923526 0.2542627949 0.2350189914 -0.3589171859 0.2347942365 -0.359589311 -0.1569745634 0.2462182659
470297180.0 -0.1636524395 0.2562458624 0.230635114 -0.3614170767 0.2311750502 -0.3616356556 -0.1542289874 0.2485351868
475297150.0 -0.1611106521 0.2582563161 0.2268092738 -0.3639639361 0.2268421997 -0.3641226536 -0.1517538099 0.2498305645
480297120.0 -0.1584471614 0.2598816114 0.2230105976 -0.3663842656 0.2225768065 -0.3669714019 -0.1491608039 0.2518236309
485297090.0 -0.1555323947 0.2617961943 0.2184980171 -0.3687204981 0.2188549537 -0.3687546775 -0.1466040818 0.2534909589
490297060.0 -0.1532523641 0.2638324157 0.2149889711 -0.3712822504 0.2151061242 -0.3711777106 -0.143759369 0.2551393247
495297030.0 -0.1503499991 0.2651166307 0.2103996345 -0.3731427918 0.2108891484 -0.3735336607 -0.1413780726 0.2569292619
500297000.0 -0.1473687394 0.2672441032 0.206483503 -0.3753030609 0.2064959873 -0.3752646608 -0.138588686 0.2589364105
505296970.0 -0.1446619637 0.2687547435 0.2025020846 -0.3775455099 0.2024202833 -0.3781240117 -0.1358963758 0.2603291003
510296940.0 -0.1419480266 0.2704154229 0.1982687538 -0.3801709775 0.1981539079 -0.3801291566 -0.1332732664 0.2618288069
515296910.0 -0.1390431773 0.2722278761 0.1938494519 -0.3823165044 0.1938254923 -0.3820406535 -0.1303603974 0.2635133558
520296880.0 -0.136119852 0.2737675435 0.1894843132 -0.3844343999 0.1897242439 -0.3843367938 -0.1276362669 0.2649059772
525296850.0 -0.1330897375 0.2749072656 0.1853774875 -0.3862094996 0.1861540622 -0.3862437577 -0.1255081308 0.2667297973
530296820.0 -0.1304542979 0.2767498211 0.1813511922 -0.3880636462 0.1816963838 -0.3882497059 -0.1220681893 0.2679572217
535296790.0 -0.1277672845 0.2783960648 0.1774603703 -0.3902793401 0.1772966517 -0.3899975171 -0.119531709 0.269117447
540296760.0 -0.1247755985 0.2799417156 0.1730829281 -0.3924752241 0.172684658 -0.3924536362 -0.1168631733 0.2709150855
545296730.0 -0.1217221961 0.2813180548 0.1683783497 -0.3939467815 0.1684718092 -0.3939480754 -0.1139128368 0.2718616084
550296700.0 -0.1185534377 0.2826229996 0.1637466534 -0.3958533922 0.1642147532 -0.3959979868 -0.1112497469 0.2735164793
555296670.0 -0.1157691281 0.283876232 0.1596890199 -0.397464236 0.1603464676 -0.3975554018 -0.1083751929 0.2749332584
560296640.0 -0.1126729046 0.2856482297 0.1552555495 -0.3993203559 0.1553947757 -0.3990814989 -0.1050268527 0.2760905812
565296610.0 -0.1100165139 0.2867041103 0.151359262 -0.4006878525 0.1513738272 -0.4005697675 -0.1023888023 0.2771455833
570296580.0 -0.1070347678 0.2881945434 0.1466938264 -0.4030949452 0.1466211127 -0.4023783612 -0.0995432241 0.2788720158
575296550.0 -0.104005179 0.2894462148 0.1423957145 -0.4043352684 0.1423603294 -0.4038441879 -0.0961928974 0.2795535883
580296520.0 -0.1009407586 0.2907912777 0.1377795256 -0.4059528622 0.1376927869 -0.4054204144 -0.0932722837 0.2809440788
585296490.0 -0.0981163614 0.2916647143 0.1337497018 -0.4064482651 0.1338251969 -0.4071328462 -0.0905922924 0.2823643045
590296460.0 -0.0945096421 0.292805634 0.1293974651 -0.407857336 0.1292471528 -0.4081941027 -0.0878997756 0.2832703154
595296430.0 -0.0914231782 0.2938899752 0.1240697041 -0.4097599798 0.1247221405 -0.4096263198 -0.0845786321 0.2839997527
600296400.0 -0.0888122757 0.2949844958 0.1200694011 -0.4109072801 0.1200368244 -0.4107831848 -0.0817595417 0.285130185
605296370.0 -0.0858307759 0.2961377849 0.1155266271 -0.4121336803 0.1160421889 -0.4120907171 -0.078468951 0.2862871643
610296340.0 -0.0826325085 0.2972027988 0.1113866729 -0.4134326068 0.1112981559 -0.4135818411 -0.0757566672 0.287332881
615296310.0 -0.0791697123 0.2981897304 0.106450986 -0.4142306922 0.1065645196 -0.4147925092 -0.0722865898 0.288177172
620296280.0 -0.0762172343 0.2986133513 0.1022445359 -0.4154602267 0.102106615 -0.4153848581 -0.0698204192 0.28930757
625296250.0 -0.0731691971 0.2995913563 0.0981277587 -0.4164692318 0.0978942702 -0.4168924006 -0.0661486632 0.290190073
630296220.0 -0.0693742454 0.3007740652 0.0926843963 -0.417791015 0.0928219405 -0.417372966 -0.0633384501 0.2912615779
635296190.0 -0.0672332653 0.3019470962 0.0887753571 -0.4184018022 0.0885674187 -0.418530593 -0.0602185381 0.2918240032
640296160.0 -0.0637456657 0.3024198958 0.084068542 -0.4192738538 0.0839808224 -0.4192692661 -0.0571620102 0.2927388179
645296130.0 -0.0605401069 0.3036351443 0.0794361612 -0.4200572116 0.0796801977 -0.4203383005 -0.0545175422 0.2935817711
650296100.0 -0.0569012425 0.304277252 0.0747000849 -0.4208060422 0.0749240649 -0.4208048102 -0.0510089912 0.2938346812
655296070.0 -0.0540134252 0.3049703135 0.0701438333 -0.4215549964 0.0705884955 -0.4219045065 -0.0475769714 0.2946533743
660296040.0 -0.0510471337 0.3054304191 0.0658031066 -0.4223178832 0.0657339057 -0.4225277032 -0.0445660149 0.2953460071
665296010.0 -0.0474809726 0.3057276734 0.060633032 -0.4228867776 0.0611140109 -0.4230280993 -0.0416070754 0.2961971145
670295980.0 -0.0452043311 0.3070858732 0.0565887966 -0.423548793 0.0566316999 -0.4235755489 -0.0389272837 0.2964000881
675295950.0 -0.041543898 0.3076037495 0.0521815007 -0.4237991145 0.0521960526 -0.423829502 -0.0359769046 0.2972558164
680295920.0 -0.0380752348 0.3080671683 0.0469161003 -0.4244069916 0.0470667452 -0.4252221481 -0.0325650943 0.2984583834
685295890.0 -0.0350558165 0.3087218106 0.0428551809 -0.4252152355 0.0425857878 -0.4252742079 -0.029287623 0.2982470387
690295860.0 -0.0316653051 0.3092162575 0.0379610161 -0.4252265822 0.038416185 -0.4257448608 -0.0261604597 0.2994609955
695295830.0 -0.0285077792 0.3094565878 0.0338279248 -0.4260176704 0.0334108381 -0.4258755849 -0.0229724364 0.2995812736
700295800.0 -0.0251708173 0.3099453247 0.0288395314 -0.4259384029 0.0284649538 -0.4259735422 -0.0202449122 0.3002069357
705295770.0 -0.0221946739 0.3105155018 0.0241794778 -0.4267199672 0.0244323868 -0.426520422 -0.0169017933 0.3002767542
710295740.0 -0.0187904777 0.3109445829 0.019600166 -0.4269423634 0.0198420706 -0.4264368441 -0.0138656386 0.3001059549
715295710.0 -0.0156876001 0.3108735894 0.0153473929 -0.4265920938 0.0148546878 -0.4269508884 -0.0103487354 0.3006457708
720295680.0 -0.0123428096 0.3114610729 0.0101837442 -0.4270616909 0.0104009113 -0.4268571654 -0.0072639758 0.3012889386
725295650.0 -0.0088698392 0.3116499662 0.0055985799 -0.4269431123 0.0058659936 -0.4271690941 -0.0045677612 0.3014688931
730295620.0 -0.0055136082 0.3120169649 0.0009982788 -0.4267772767 0.0014587244 -0.4269335453 -0.0018022404 0.3012463442
735295590.0 -0.0027885002 0.3125610988 -0.0032059539 -0.4272092496 -0.0034452476 -0.4267629846 0.0018892993 0.3011627758
740295560.0 0.0002930236 0.3123254669 -0.007915877 -0.4268349624 -0.0081206001 -0.4267744824 0.0053864924 0.3021556766
745295530.0 0.0038962064 0.3123797676 -0.0129200236 -0.4264058408 -0.0126526533 -0.4267771104 0.0083303362 0.3014310645
750295500.0 0.0073366213 0.3123950045 -0.0173622425 -0.426332905 -0.0169551009 -0.4266497784 0.0117782726 0.301453565
755295470.0 0.0104943483 0.3125919382 -0.0215574607 -0.4263679662 -0.021864719 -0.4263352689 0.0150398044 0.30141654
760295440.0 0.0134539153 0.312764619 -0.0267220645 -0.4262085148 -0.0266041875 -0.4263668286 0.0179358236 0.3014786959
765295410.0 0.0171669279 0.3126427673 -0.031425673 -0.4255901311 -0.0313166199 -0.4255943782 0.021239601 0.3015824422
770295380.0 0.0198851159 0.3123648534 -0.0357698282 -0.4251611577 -0.0357012409 -0.4250602595 0.0241386681 0.301479576
775295350.0 0.0231254508 0.3123458877 -0.0409623773 -0.4246394905 -0.0400080471 -0.4247952194 0.0271461058 0.3015027879
780295320.0 0.0267987306 0.3123189812 -0.0449781644 -0.4239997955 -0.044273274 -0.4240447086 0.0301099694 0.3011337274
785295290.0 0.0298446147 0.3118020946 -0.0497239106 -0.4233127907 -0.0495681812 -0.4234927398 0.0338661968 0.3008939374
790295260.0 0.0337598259 0.3121439465 -0.0539660171 -0.4228725811 -0.0533812866 -0.4229901513 0.0373867787 0.3008735688
795295230.0 0.0365888157 0.3115505382 -0.0585635593 -0.4224673249 -0.0580822237 -0.4225154889 0.0406220411 0.3006547
800295200.0 0.0395408391 0.311430029 -0.0637760398 -0.421184679 -0.0631594486 -0.4216561289 0.0436813782 0.3003126612
805295170.0 0.0430365634 0.3108444941 -0.0676831039 -0.4207778559 -0.0678081817 -0.4210684384 0.0465419414 0.3001661862
810295140.0 0.0462996034 0.3103655818 -0.0719640647 -0.419935991 -0.0719427914 -0.4203520649 0.0503314316 0.2998284553
815295110.0 0.0495571714 0.310024056 -0.0767573764 -0.4187600192 -0.0766230996 -0.4192033161 0.053202914 0.2994949432
820295080.0 0.0521997935 0.3101376708 -0.0811439374 -0.4180972242 -0.081112464 -0.4178901202 0.0562394455 0.2989807166
825295050.0 0.0565486019 0.3092329099 -0.085566571 -0.4169101024 -0.085578505 -0.4176203364 0.0595815878 0.2985240328
830295020.0 0.0592795463 0.3089727998 -0.0905968776 -0.4159924672 -0.0900966576 -0.4163067031 0.0631617906 0.2981770323
