!Created with skrf (http://scikit-rf.org).
# Hz S RI R 50.0 
!freq ReS11 ImS11 ReS21 ImS21 ReS12 ImS12 ReS22 ImS22
300000.0 -0.2430429596 -0.0949221137 0.4731987253 0.0639435925 0.4716656946 0.059386354 -0.2396623606 -0.1019342572
5299970.0 -0.2452110603 0.0063765867 0.4751169988 0.0051611483 0.4747082172 0.0051640168 -0.2410798623 0.0071368025
10299940.0 -0.2417246295 0.0177055789 0.4764992481 0.0064206168 0.476553436 0.0064091343 -0.2376696731 0.0205977056
15299910.0 -0.2373697969 0.0269213398 0.4806477693 0.0073674013 0.4804701844 0.0074857012 -0.2331314221 0.0301188859
20299880.0 -0.2329764066 0.0338448228 0.4850899919 0.0082757596 0.4851282319 0.0079787433 -0.2276587095 0.0380894525
25299850.0 -0.2275899447 0.0404515394 0.4899708732 0.0070216785 0.4898392102 0.0073571346 -0.2218383447 0.0447079468
30299820.0 -0.2225577103 0.0450190115 0.4954897921 0.0047493513 0.4955372549 0.0053533081 -0.2161312922 0.0500598805
35299790.0 -0.2175936872 0.0491404323 0.501136997 0.0015631288 0.5007886293 0.0015807866 -0.2105126618 0.0547766544
40299760.0 -0.2126367514 0.0524659932 0.5057079236 -0.0024061062 0.505848221 -0.0024155826 -0.2049680221 0.057596118
45299730.0 -0.2080005201 0.0550581021 0.5105398468 -0.0073073172 0.5107949597 -0.0070630376 -0.2001527861 0.0606777796
50299700.0 -0.2038403691 0.0568880141 0.5152178748 -0.0125582989 0.5148812541 -0.0123844065 -0.1953947429 0.0626589623
55299670.0 -0.1998945465 0.058539633 0.5187492728 -0.0189310077 0.5181789608 -0.018508973 -0.1912825811 0.0639810921
60299640.0 -0.1960522954 0.0598388872 0.5218321229 -0.0249710774 0.5221058426 -0.0246742151 -0.1872477634 0.0655948119
65299610.0 -0.1928208649 0.0610945224 0.5246729915 -0.0311210575 0.5246914156 -0.0311325895 -0.1839258032 0.0668330282
70299580.0 -0.1898649548 0.0621031975 0.5268532919 -0.0380828778 0.5273069916 -0.0377981027 -0.1807846986 0.0677852129
75299550.0 -0.1869287161 0.0630291951 0.5286374442 -0.0445238023 0.5286155514 -0.0448593993 -0.1778061877 0.0683339836
80299520.0 -0.1846877267 0.063816424 0.5311420628 -0.0513692793 0.5310383039 -0.0515072001 -0.1752902862 0.0692676101
85299490.0 -0.1824198087 0.064058321 0.5316846744 -0.0583849492 0.5320010707 -0.057861533 -0.173114177 0.0695966846
90299460.0 -0.1803842471 0.06478037 0.532927225 -0.0655013124 0.5335488052 -0.0650477882 -0.1706121864 0.0704041447
95299430.0 -0.1780036305 0.0653148152 0.534199628 -0.0718961206 0.5339698352 -0.0722774672 -0.1681445103 0.0711593129
100299400.0 -0.1766111076 0.0662624485 0.533790739 -0.0789653181 0.5342367147 -0.0789584292 -0.1661865495 0.0713192205
105299370.0 -0.174957955 0.0669125581 0.53451799 -0.0861893325 0.5349953544 -0.0860086782 -0.164059456 0.0723491163
110299340.0 -0.1736330872 0.0674783786 0.5351759959 -0.0927798165 0.5348887144 -0.0923507032 -0.1626752256 0.0728804524
115299310.0 -0.1719943041 0.0684043948 0.5347769847 -0.0996323134 0.5347318297 -0.0994310181 -0.1610641594 0.0737123038
120299280.0 -0.1703753746 0.0685746253 0.5343386239 -0.1066221648 0.5344875029 -0.1064394093 -0.1595642443 0.0743725585
125299250.0 -0.1696138799 0.0691566031 0.5339975399 -0.1131788877 0.5344661988 -0.1129040472 -0.1585081688 0.0749256743
130299220.0 -0.1687496497 0.0703049825 0.5328975243 -0.1198796819 0.5333573558 -0.119936327 -0.1572305373 0.0756401141
135299190.0 -0.167373519 0.0712504482 0.5331348462 -0.1265458145 0.532741943 -0.1265361543 -0.1557273782 0.0768115654
140299160.0 -0.1665583899 0.0721604076 0.5324701691 -0.1332153113 0.5320933868 -0.1330843217 -0.1543507655 0.0782098375
145299130.0 -0.1656358402 0.072858744 0.5313847825 -0.1395401761 0.5309796093 -0.1394207676 -0.153518269 0.0788717149
150299100.0 -0.1643546708 0.0737128158 0.5299107598 -0.1458451053 0.5299371369 -0.1457951099 -0.152358339 0.0803125059
155299070.0 -0.1637887906 0.0746470954 0.5287799772 -0.1534437997 0.5289690481 -0.1526241298 -0.151156936 0.081290264
160299040.0 -0.1628692614 0.0758755032 0.5273306283 -0.1588611306 0.5270254022 -0.1592510358 -0.1506798117 0.0821405451
165299010.0 -0.1622205726 0.0768785252 0.5259446358 -0.1659073976 0.5260494508 -0.1656729005 -0.149148506 0.083747379
170298980.0 -0.1614249226 0.0777455117 0.5244333066 -0.172025765 0.52476656 -0.1716712513 -0.1483445403 0.0849593609
175298950.0 -0.160563871 0.0789167252 0.5230372377 -0.1780860949 0.5227204345 -0.1780643549 -0.1476468125 0.0858520576
180298920.0 -0.1603377219 0.0802612912 0.5209915479 -0.1844997891 0.5209677803 -0.184021128 -0.146422171 0.0872775797
185298890.0 -0.1589458003 0.0809380658 0.5191116996 -0.1905791634 0.5190506052 -0.1902444926 -0.1454571565 0.0888641742
190298860.0 -0.1583590211 0.0825958902 0.5173110899 -0.1968941734 0.5177821547 -0.1967208197 -0.1447331765 0.0897868126
195298830.0 -0.1576823254 0.0833069524 0.5154928334 -0.2028234405 0.5156025846 -0.2026237998 -0.1436109925 0.09124027
200298800.0 -0.1567643998 0.0844568217 0.5131275273 -0.2091259236 0.5133172857 -0.2087304583 -0.1430178477 0.0924650719
205298770.0 -0.1559544967 0.0860832627 0.5105868611 -0.2153308801 0.510817507 -0.2149719663 -0.1419889517 0.0933104156
210298740.0 -0.1554667575 0.0868330358 0.5089272688 -0.2203903272 0.5083949814 -0.2206098438 -0.1408751812 0.0951428551
215298710.0 -0.1549925654 0.0885736547 0.5064587103 -0.2270542404 0.5063048227 -0.2267745189 -0.1404205967 0.0966775179
220298680.0 -0.1541534661 0.0890690881 0.5036075417 -0.2327577426 0.5037718376 -0.2327789529 -0.1397121803 0.0974993535
225298650.0 -0.1534598481 0.0906141532 0.5013729085 -0.2387059653 0.5015946702 -0.2386175061 -0.138765615 0.0989121038
230298620.0 -0.1526180325 0.0922374815 0.4993195436 -0.2438767667 0.4995659074 -0.2445305954 -0.138047187 0.1002195881
235298590.0 -0.1518482066 0.0939284885 0.4961453678 -0.2499946085 0.4963963368 -0.2496211486 -0.1368583911 0.1015997134
240298560.0 -0.1509790699 0.0950635791 0.4940745892 -0.2561863014 0.4939410805 -0.2563925232 -0.1360465452 0.103476976
245298530.0 -0.1504043413 0.0962007482 0.4912808735 -0.2618657747 0.490987877 -0.2615447052 -0.1348076343 0.1041105438
250298500.0 -0.1492448635 0.0976797904 0.4873697797 -0.2672294846 0.4876000284 -0.2667771968 -0.1338969487 0.1055802063
255298470.0 -0.1485476454 0.0985673956 0.4844641863 -0.2724644568 0.4851658956 -0.2726747455 -0.1326496347 0.1067047068
260298440.0 -0.1478631817 0.0998341216 0.4818607887 -0.2787719061 0.4820724033 -0.2780597018 -0.1313500297 0.1082597402
265298410.0 -0.1467358168 0.1018920149 0.4789199649 -0.2840775094 0.4794748553 -0.283698654 -0.1306998915 0.1099271096
270298380.0 -0.1460518889 0.1027850237 0.4763983114 -0.289056641 0.4764994006 -0.2891504612 -0.1296324871 0.1109904727
275298350.0 -0.144618815 0.1043238717 0.4730949762 -0.2946001 0.4731488834 -0.294364664 -0.1281680042 0.1119638013
280298320.0 -0.1438626918 0.1057474286 0.4698179003 -0.3001832978 0.46991966 -0.3002648667 -0.1264549941 0.1138657533
285298290.0 -0.1430116647 0.1073259395 0.4668048129 -0.305357963 0.4661619882 -0.3056879446 -0.1257882404 0.114998148
290298260.0 -0.1417597393 0.1082885145 0.4628171269 -0.3100961695 0.4631772362 -0.3104515285 -0.1247007185 0.1166286346
295298230.0 -0.1411782462 0.1095836511 0.4598044883 -0.3158298493 0.4597051484 -0.3156317709 -0.1226470316 0.117414747
300298200.0 -0.1403784004 0.1109960075 0.4567628758 -0.3207131596 0.4566726207 -0.3211818404 -0.1220463174 0.1188715815
305298170.0 -0.1390118465 0.112229372 0.4526760408 -0.3265791468 0.4530776394 -0.3265665505 -0.1198822698 0.1201492074
310298140.0 -0.1380576466 0.1139476298 0.4492187056 -0.3314852056 0.4494545491 -0.33130028 -0.1187868063 0.1214951102
315298110.0 -0.1369298876 0.1145275093 0.445587687 -0.3362940098 0.4460901638 -0.3365267859 -0.1176186255 0.1226367817
320298080.0 -0.1361409999 0.1160398767 0.4411051071 -0.342130405 0.4422720878 -0.3415006397 -0.1162464026 0.1243188014
325298050.0 -0.1352084589 0.1172738371 0.4381570725 -0.347145931 0.4385022055 -0.3466625048 -0.1152512303 0.1253103372
330298020.0 -0.1339885391 0.1182720152 0.4338572065 -0.3519512501 0.4345016306 -0.3518822796 -0.1141537617 0.126624723
335297990.0 -0.1331562104 0.1195456935 0.429968173 -0.3565637985 0.4301602409 -0.356476117 -0.113461793 0.1284338908
340297960.0 -0.132620893 0.1210013419 0.4256871972 -0.3612046781 0.4256612857 -0.3614412432 -0.1113062533 0.1297404667
345297930.0 -0.1313634467 0.1229037475 0.4214840493 -0.3664329238 0.4217518029 -0.36622131 -0.1103530755 0.130638603
350297900.0 -0.1303852987 0.1236146599 0.4175739996 -0.3710328072 0.4172359656 -0.3708606883 -0.1092333749 0.1326135523
355297870.0 -0.1291484483 0.1257190013 0.4133451872 -0.3758822669 0.4137725122 -0.3752836544 -0.1080308618 0.1340555964
360297840.0 -0.1281389639 0.1270381606 0.4099490758 -0.3800501172 0.409782396 -0.3794400366 -0.1066928818 0.1354467412
365297810.0 -0.1273768624 0.1285959273 0.4051203787 -0.3847029961 0.4058096476 -0.3845419573 -0.1049915192 0.1367082547
370297780.0 -0.1258701191 0.1293863695 0.4006454281 -0.3888132527 0.4013141213 -0.3883721137 -0.1037834843 0.1380704839
375297750.0 -0.1246463496 0.1309944054 0.396947472 -0.3928941237 0.397074204 -0.393281852 -0.1021887303 0.1393983073
380297720.0 -0.1234862969 0.1320100473 0.3921492551 -0.3978058525 0.3923869937 -0.3971435423 -0.1012508121 0.1404838359
385297690.0 -0.1224420568 0.1336007477 0.3878668103 -0.4019426356 0.3879261219 -0.4016198385 -0.0997473784 0.1421118463
390297660.0 -0.1210657556 0.1352556551 0.3835472558 -0.4063494888 0.38352672 -0.405243601 -0.0984860133 0.1428473453
395297630.0 -0.1197717683 0.1362886402 0.3790251182 -0.4103608108 0.3789907082 -0.4100501102 -0.0963632872 0.1441103423
400297600.0 -0.1187020449 0.1376972584 0.3746918387 -0.4148042046 0.3747391151 -0.4145272573 -0.094868052 0.1456338443
405297570.0 -0.1174763503 0.1388312619 0.3700977428 -0.4184545217 0.3702991599 -0.4182178227 -0.094130602 0.1469421177
410297540.0 -0.1158662097 0.1400679807 0.3655513639 -0.4226684406 0.3659359009 -0.4222445048 -0.09245853 0.148334903
415297510.0 -0.114511844 0.1410579196 0.3605846568 -0.4265268731 0.3607905175 -0.4264786047 -0.0904006805 0.1493607466
420297480.0 -0.1133321668 0.1429138519 0.3561264639 -0.4306389804 0.3560738075 -0.4303353528 -0.089010848 0.1499827901
425297450.0 -0.1119301031 0.1437692567 0.3516520016 -0.4342115229 0.3517185207 -0.4341132971 -0.0876879889 0.1517406589
430297420.0 -0.1108432251 0.1448058865 0.3462809904 -0.4377239048 0.3466617325 -0.4376978215 -0.0858541793 0.1523107426
435297390.0 -0.109349158 0.1460759553 0.3414446757 -0.4414200607 0.3413852233 -0.4417825987 -0.0840086725 0.1537375423
440297360.0 -0.1076683643 0.1474740359 0.3366938644 -0.4451696292 0.3372987296 -0.4452185468 -0.0827119483 0.1542423898
445297330.0 -0.1068196932 0.1484977022 0.3323383902 -0.4491350721 0.3318402209 -0.4489026563 -0.0807081218 0.1551297423
450297300.0 -0.1050100148 0.1493117327 0.3268745897 -0.4525846783 0.326898663 -0.4530358859 -0.0790182213 0.1563441775
455297270.0 -0.1037023482 0.1506702307 0.3217667895 -0.4563590553 0.3220264433 -0.4564537842 -0.07725488 0.1571262449
460297240.0 -0.1022930366 0.1519622328 0.3167516257 -0.4597574087 0.3171836646 -0.4597037156 -0.0755254095 0.1584550255
465297210.0 -0.1006823309 0.1529535476 0.3122638869 -0.4631184424 0.3121246378 -0.4632871567 -0.0735542563 0.1589799254
470297180.0 -0.0990475379 0.1539430094 0.3064216063 -0.4665715994 0.306846538 -0.4665298736 -0.0715349335 0.159994384
475297150.0 -0.0977696141 0.1547494296 0.3016431427 -0.469240843 0.3019041218 -0.4693688913 -0.069586901 0.1606971753
480297120.0 -0.0963224296 0.1564418478 0.2964552944 -0.4733025442 0.2965982285 -0.4731996489 -0.0679572152 0.1620227971
485297090.0 -0.0948494215 0.1574035088 0.2912436686 -0.4760128137 0.291497894 -0.4761431332 -0.0661418999 0.1628678382
490297060.0 -0.0938719567 0.1581944456 0.2865029965 -0.4793930027 0.2866394888 -0.4790046217 -0.0641441532 0.163784995
495297030.0 -0.092209217 0.1593834033 0.2808539221 -0.4822767611 0.2815516183 -0.4821915247 -0.0628088004 0.1647733781
500297000.0 -0.090515756 0.1604331941 0.2757921212 -0.4848903496 0.2756670281 -0.4852304688 -0.0608339314 0.1662242159
505296970.0 -0.0887703999 0.1614254616 0.2706423576 -0.487907498 0.2705009688 -0.4883205878 -0.0587717173 0.1665544646
510296940.0 -0.0872065151 0.1624809168 0.2649798382 -0.4911331581 0.2651004942 -0.4914722953 -0.0569394695 0.1676141466
515296910.0 -0.0857779193 0.1634965931 0.2595751983 -0.4939858995 0.2596563064 -0.4937682795 -0.055319928 0.1682622492
520296880.0 -0.0843844426 0.1647201516 0.254499659 -0.4975120526 0.254467755 -0.4967707583 -0.0532905857 0.1692403255
525296850.0 -0.0825519218 0.1647569635 0.248787743 -0.4993079987 0.2494130449 -0.4994159209 -0.051809334 0.170192545
530296820.0 -0.080599595 0.1662270479 0.2434282797 -0.5024571379 0.2434076926 -0.5020600294 -0.0494974592 0.1707516361
535296790.0 -0.0798079445 0.1671731664 0.2383898048 -0.5046609518 0.2382584969 -0.5042900896 -0.0479573491 0.1711459483
540296760.0 -0.0777573335 0.1679721385 0.2323960173 -0.5075297018 0.2322248486 -0.5074858167 -0.0457505744 0.1723567457
545296730.0 -0.0761487328 0.169149021 0.2267836345 -0.5095918406 0.2270443101 -0.509640615 -0.0442685844 0.1725090847
550296700.0 -0.0743234408 0.1700106099 0.2213785648 -0.5122651694 0.2216834914 -0.5124587324 -0.0424332486 0.17358892
555296670.0 -0.0732477886 0.170666839 0.2161530383 -0.514488764 0.2158658215 -0.5141320595 -0.0405058633 0.174429313
560296640.0 -0.0710472192 0.1718884187 0.2099439999 -0.5170991731 0.2104495585 -0.5168095591 -0.0385363185 0.1747755305
565296610.0 -0.0697745469 0.1724339582 0.2043912529 -0.519048313 0.2048799408 -0.518960035 -0.0366462022 0.1752196809
570296580.0 -0.0681363114 0.1734109861 0.1992532557 -0.5217605405 0.1986273461 -0.5213260511 -0.0350071884 0.1762919309
575296550.0 -0.0666085154 0.1743765841 0.1936375651 -0.5236856741 0.19345395 -0.523424647 -0.0331509168 0.1765224958
580296520.0 -0.0644304554 0.175064736 0.187475085 -0.5257291428 0.1878279654 -0.5259022055 -0.0310419925 0.1767728927
585296490.0 -0.0633718937 0.1752197902 0.1819005534 -0.5267445249 0.1826178841 -0.5273679251 -0.0295104816 0.1775478673
590296460.0 -0.0611925673 0.1766110356 0.1763008815 -0.5287635733 0.176361466 -0.5292911012 -0.0275675175 0.1780233272
595296430.0 -0.0593009369 0.1772040654 0.1699918129 -0.531408381 0.1704508862 -0.5311574663 -0.0254368841 0.1779451134
600296400.0 -0.0579654496 0.1779297195 0.1645073164 -0.533039894 0.1650127028 -0.5325640629 -0.0233441775 0.1782850029
605296370.0 -0.0561504566 0.1785257544 0.1587278174 -0.5343750975 0.1591010961 -0.5346572851 -0.0212200045 0.1787832205
610296340.0 -0.0543494545 0.1793869898 0.1524664878 -0.536160329 0.1531318233 -0.535905886 -0.0191341154 0.1792597856
615296310.0 -0.0521509939 0.179686213 0.1465393908 -0.5378614665 0.1472731676 -0.5380765432 -0.0169212031 0.1795377952
620296280.0 -0.0507655013 0.1798319641 0.1416003234 -0.5392135396 0.141395263 -0.5391739578 -0.0154795242 0.1795936863
625296250.0 -0.0493085698 0.1805486482 0.1361130088 -0.5408906159 0.1357273219 -0.5413064824 -0.0126020817 0.1801079197
630296220.0 -0.0466916685 0.1815311787 0.128995052 -0.5425971484 0.1294160311 -0.5418066026 -0.0108650889 0.1805022563
635296190.0 -0.0460949465 0.1819010332 0.1239200868 -0.5432560531 0.1236967191 -0.5435219597 -0.0087854197 0.1806522157
640296160.0 -0.044004954 0.1827405677 0.1179274739 -0.5446862181 0.1181820026 -0.5446022941 -0.006712058 0.1809701454
645296130.0 -0.0422046054 0.1832818351 0.1118143417 -0.545610902 0.1123258031 -0.5459648858 -0.0047564379 0.1811869231
650296100.0 -0.0399623421 0.1838499251 0.1059964692 -0.546748407 0.1065450495 -0.5469981314 -0.0024938575 0.1809240163
655296070.0 -0.0387932746 0.1843314497 0.1003369151 -0.5485082831 0.1002561806 -0.5482046218 -0.0006482748 0.1811827779
660296040.0 -0.0372584785 0.1845556748 0.0943986471 -0.5490594099 0.0949011071 -0.5492381977 0.0017509859 0.181729802
665296010.0 -0.0348107955 0.184782101 0.0882552404 -0.5502915326 0.0884198295 -0.5501838909 0.00372334 0.182127587
670295980.0 -0.0340031921 0.1856683196 0.082626797 -0.5510150324 0.0825253152 -0.5510639216 0.0052979205 0.1821826891
675295950.0 -0.0318098937 0.1863729024 0.0764209452 -0.5518989524 0.0766637023 -0.5514927078 0.007247026 0.1821497301
680295920.0 -0.0298199541 0.1864106641 0.0701631585 -0.5522820384 0.0704855594 -0.55304053 0.009711393 0.1829123234
685295890.0 -0.0280555574 0.1875171819 0.0645898668 -0.5530778764 0.0643156854 -0.5533382718 0.0118360229 0.1827312197
690295860.0 -0.0259966189 0.1878399148 0.0588920927 -0.5536349306 0.0584308773 -0.5545269601 0.013466086 0.1833930663
695295830.0 -0.0245624408 0.1879916488 0.053408362 -0.5543507867 0.0521667799 -0.5545114961 0.0156759467 0.1828473045
700295800.0 -0.0220458902 0.1877007535 0.0462062981 -0.5545663661 0.0463446939 -0.5546747318 0.0172887141 0.1832288055
705295770.0 -0.0208542736 0.1892526619 0.0404648588 -0.5553532168 0.0410700912 -0.5552143076 0.0194402708 0.1832506742
710295740.0 -0.0186986285 0.1892529384 0.0347081383 -0.5565531123 0.0349243182 -0.5562574534 0.0215650079 0.1827077588
715295710.0 -0.0174775106 0.1892964925 0.0293808295 -0.5562178011 0.0282600056 -0.5562449753 0.0237476511 0.1828245191
720295680.0 -0.0152326613 0.1898302391 0.0226948087 -0.5567370816 0.0230006725 -0.5564666188 0.0254139347 0.1833512801
725295650.0 -0.0135348055 0.190166349 0.016721769 -0.5567315443 0.0167463605 -0.5568009688 0.0272232819 0.1832642806
730295620.0 -0.0112455541 0.1905824019 0.0107099767 -0.5569002897 0.0108372949 -0.5569425088 0.0290605819 0.1827599741
735295590.0 -0.0094090221 0.19088002 0.0046861156 -0.5570649516 0.0045268102 -0.5569937558 0.0310488029 0.1822889649
740295560.0 -0.0079601121 0.1910319894 -0.0013886334 -0.5567531318 -0.0013389249 -0.5569974095 0.0334501026 0.1823567604
745295530.0 -0.0061241891 0.191412291 -0.0071602979 -0.556436011 -0.0074707486 -0.5567717907 0.0351703708 0.181704914
750295500.0 -0.0039836392 0.1915468391 -0.0132518595 -0.5564795805 -0.0134139225 -0.5566016076 0.0372655529 0.1819156778
755295470.0 -0.0021096983 0.1913751154 -0.0189946527 -0.5562357215 -0.0192735724 -0.5566623618 0.0395051626 0.1810556827
760295440.0 -0.0005527323 0.1914409403 -0.0257081225 -0.5561170058 -0.0252639631 -0.5565947722 0.0411991992 0.1808050748
765295410.0 0.0015181041 0.1916650379 -0.0313897205 -0.5557920779 -0.0312582807 -0.5558924596 0.0436680588 0.1805272939
770295380.0 0.0030616761 0.1919443365 -0.0372064303 -0.5554852414 -0.0371571437 -0.5552269098 0.0450485001 0.1800773199
775295350.0 0.0049015248 0.1916129574 -0.0435315162 -0.5544163155 -0.0427573262 -0.5548722616 0.0468140857 0.1797607188
780295320.0 0.0069048604 0.1920488513 -0.0495824148 -0.5540174946 -0.0487887032 -0.5543606161 0.0489058547 0.1789439773
785295290.0 0.0088803571 0.1916443623 -0.0558160212 -0.5533830425 -0.0547029991 -0.5538042506 0.0517215377 0.1786632199
790295260.0 0.0112822482 0.1920704919 -0.0607492482 -0.5527250258 -0.0603630434 -0.5528123246 0.0534045187 0.1782268462
795295230.0 0.0127490934 0.1918004867 -0.0671893976 -0.5516335867 -0.0665571409 -0.5525785066 0.0557763574 0.177944419
800295200.0 0.0141312048 0.192312985 -0.0737581663 -0.5514199495 -0.0731267345 -0.5514625141 0.0572362428 0.177263374
805295170.0 0.0160049934 0.1918947818 -0.0789670817 -0.5503900398 -0.0789026599 -0.5507457429 0.0594557757 0.1768757817
810295140.0 0.0179449091 0.1918840881 -0.0844082109 -0.5493200219 -0.0847327159 -0.5497402724 0.0620026214 0.1767679848
815295110.0 0.0200444116 0.1915358467 -0.0905961571 -0.5485103153 -0.0903654309 -0.5487360833 0.0633231529 0.1759388437
820295080.0 0.0213107056 0.1921423685 -0.0962990605 -0.5473826255 -0.095938425 -0.5475973491 0.0653193767 0.1754864579
825295050.0 0.0240743861 0.1914493717 -0.1020647376 -0.5462020875 -0.1022571826 -0.5468332594 0.0679050106 0.1750437802
830295020.0 0.0254715059 0.1919215804 -0.1082034252 -0.5451595758 -0.1083573934 -0.5454544493 0.0699631943 0.1743426577
