!Created with skrf (http://scikit-rf.org).
# Hz S RI R 50.0 
!freq ReS11 ImS11 ReS21 ImS21 ReS12 ImS12 ReS22 ImS22
300000.0 -0.0988923001 -0.0708674815 0.6295168299 0.0671635833 0.6231166272 0.0675530537 -0.0995690856 -0.0798834267
5299970.0 -0.1019690013 0.0128523242 0.6307130529 0.0099508093 0.6307802457 0.0106174836 -0.1008551829 0.013014423
10299940.0 -0.0971273591 0.0293230177 0.633775852 0.0152596524 0.6341451915 0.0159655823 -0.0956216284 0.0301755367
15299910.0 -0.089870971 0.0423704136 0.6405246587 0.0203116148 0.640593949 0.0206942631 -0.0885641028 0.0436330813
20299880.0 -0.0814977167 0.052789708 0.6484371467 0.0245442493 0.6485982893 0.0242703 -0.0798586985 0.0546186524
25299850.0 -0.0723059445 0.0622767035 0.657827475 0.0252064315 0.6576081281 0.0251672856 -0.0698122013 0.0631567855
30299820.0 -0.0622978274 0.0688415777 0.6673053111 0.0244493493 0.6673490083 0.0245520214 -0.0596413568 0.0702212151
35299790.0 -0.0526336341 0.0735239288 0.6772280077 0.0218713138 0.6771121879 0.0213154019 -0.0497328977 0.0748074894
40299760.0 -0.0432552027 0.0772022434 0.6862791711 0.017560909 0.6864747322 0.0176584664 -0.0402699555 0.0777501271
45299730.0 -0.0340679015 0.0792549508 0.6949291613 0.0121084647 0.6952311191 0.0120463288 -0.0311751375 0.0797228352
50299700.0 -0.0258372931 0.0801029413 0.7037015257 0.0046884298 0.7034084424 0.0056537473 -0.0226446361 0.0805537496
55299670.0 -0.0177489232 0.0804832886 0.7109565374 -0.0033241934 0.7107842655 -0.0025522241 -0.0147915799 0.0805890077
60299640.0 -0.0099560692 0.0800419826 0.7171993447 -0.011710953 0.7178126643 -0.0109697244 -0.0076163374 0.0797539004
65299610.0 -0.0037249488 0.0789070873 0.7231420479 -0.0197160408 0.7236696169 -0.0195680365 -0.0013170746 0.0787237234
70299580.0 0.0026237514 0.0776206749 0.7287449669 -0.0294511889 0.728523244 -0.0289922386 0.0050139486 0.0769124542
75299550.0 0.0081209694 0.0761169906 0.7328428717 -0.0393043282 0.73253573 -0.0388820956 0.0102252054 0.0748887642
80299520.0 0.0130583436 0.0736370168 0.7376927337 -0.0489293903 0.7373262819 -0.0488367584 0.0151473317 0.0727004882
85299490.0 0.0178054791 0.0715028871 0.7406100375 -0.058516415 0.7405151695 -0.0581796641 0.0193289362 0.0697755611
90299460.0 0.0215730003 0.0691480787 0.7428961364 -0.0689839561 0.7433146711 -0.0686924157 0.0235830695 0.0680482447
95299430.0 0.0257584525 0.0666741784 0.7456377702 -0.0787104436 0.7460210291 -0.0793887896 0.0274038783 0.0654162515
100299400.0 0.0290147345 0.0645825825 0.7466556893 -0.0890575002 0.7471109308 -0.0889673637 0.0310871301 0.0624651591
105299370.0 0.0323466007 0.0621344433 0.7486311753 -0.0993233957 0.7489580213 -0.0985686026 0.0342831059 0.060622116
110299340.0 0.0351638627 0.0596490988 0.7498686288 -0.1091297386 0.7498552423 -0.1087110887 0.0361036073 0.0578665304
115299310.0 0.0376050677 0.0574431345 0.7506379038 -0.119512316 0.7505470503 -0.1192184778 0.0387521529 0.0555038837
120299280.0 0.0399035593 0.0546295858 0.7513792557 -0.1293756518 0.7514120235 -0.1291188144 0.0413519863 0.0532591216
125299250.0 0.0419422227 0.0522586107 0.7518907692 -0.1385311901 0.7517846258 -0.1386648924 0.0429496058 0.0502431399
130299220.0 0.0435181933 0.0504419044 0.7508642651 -0.1488194993 0.7513167576 -0.1491621038 0.0447759438 0.0481509459
135299190.0 0.0453549009 0.0484202003 0.7511777581 -0.1594763042 0.7510452944 -0.158567815 0.0468095875 0.0460478112
140299160.0 0.0467700929 0.0462363266 0.7506537165 -0.1685579758 0.7507971013 -0.1685404711 0.0478295054 0.0445694356
145299130.0 0.0482608415 0.043845187 0.7502677725 -0.1786286909 0.7495508297 -0.1781474846 0.0497751493 0.0420529566
150299100.0 0.0495930055 0.0419691775 0.7486140669 -0.1868659773 0.7493739695 -0.1874732855 0.0507932945 0.0403744559
155299070.0 0.0502660011 0.0399658642 0.7479282503 -0.1985657865 0.7475347089 -0.1978457472 0.0518528356 0.0383160121
160299040.0 0.0518666945 0.0379250989 0.7465537091 -0.2073325115 0.7458391176 -0.2072887775 0.0523045746 0.0364301656
165299010.0 0.0526197635 0.036389026 0.7446806183 -0.2168897422 0.7447282744 -0.2168111177 0.0536244717 0.0350442982
170298980.0 0.0532935367 0.0340000414 0.7425016352 -0.226173783 0.7428088571 -0.226020116 0.0542752608 0.0329967187
175298950.0 0.0538166964 0.0323416956 0.7414774189 -0.2354879373 0.7403911606 -0.2352915128 0.0549287816 0.0314195469
180298920.0 0.0544695756 0.0306951401 0.7391780785 -0.2443492192 0.7388368582 -0.2441696655 0.0558146216 0.0300508985
185298890.0 0.0555500236 0.0286918138 0.7365231304 -0.2537449716 0.7364316866 -0.2534326131 0.056099466 0.028486401
190298860.0 0.0554837124 0.0272019476 0.7344288822 -0.2629687112 0.7341724748 -0.2630390394 0.0564024146 0.0264930026
195298830.0 0.0561474718 0.0253603191 0.7317017906 -0.2718565088 0.7322503713 -0.2712270995 0.0571614009 0.0252663011
200298800.0 0.0564924598 0.0240816765 0.7289389032 -0.281476801 0.7292122353 -0.2809820198 0.0568581277 0.0237063278
205298770.0 0.0568424741 0.0230208394 0.7258060313 -0.2897434534 0.7262309101 -0.2896045307 0.057270854 0.0216623594
210298740.0 0.0571648681 0.0212930546 0.7235127975 -0.298586874 0.7232602368 -0.2979395616 0.0581269591 0.021152463
215298710.0 0.0569428493 0.0197376057 0.7202434822 -0.3072176421 0.7200201327 -0.3073994175 0.0577828255 0.0197574499
220298680.0 0.0575459371 0.0177047318 0.7169120451 -0.3157308601 0.7167993888 -0.3157885482 0.0575210072 0.0179016416
225298650.0 0.0577212894 0.0167593594 0.7135688355 -0.3249598383 0.7138544562 -0.3246110882 0.0575730662 0.0166417917
230298620.0 0.0579511299 0.0158266368 0.7106405748 -0.3321843149 0.7111794217 -0.3331358206 0.0573761533 0.014795415
235298590.0 0.0577219172 0.0147463128 0.7067341334 -0.3415981667 0.7070000949 -0.3408358207 0.057685338 0.0137725942
240298560.0 0.0580902451 0.0135663704 0.7037911671 -0.3500246119 0.7032790649 -0.3494012994 0.0577382481 0.0132966648
245298530.0 0.0580248244 0.0121039808 0.7002455597 -0.3580024396 0.7000308937 -0.3584619212 0.058095889 0.0109269443
250298500.0 0.0587922 0.0111096404 0.6951805318 -0.3665275893 0.6953457364 -0.3659890112 0.0580333942 0.0103732425
255298470.0 0.058314294 0.0094675843 0.6915499894 -0.3740017487 0.6920774854 -0.3738373196 0.0583889941 0.0091041814
260298440.0 0.0581244578 0.0083985255 0.6876361733 -0.3831427479 0.6876844946 -0.3822428039 0.0585336832 0.0079358464
265298410.0 0.0587578451 0.0078380326 0.6836717205 -0.3912441443 0.6838256283 -0.3905144586 0.0584833658 0.0071000198
270298380.0 0.0586755355 0.0063724596 0.6801566934 -0.3984490698 0.6797203173 -0.3981047212 0.058120358 0.005903509
275298350.0 0.0588508091 0.0051326987 0.675079707 -0.4068067612 0.675731444 -0.4069266112 0.0585381159 0.0043656936
280298320.0 0.0585192254 0.0045550436 0.6710164034 -0.4147246868 0.6713132338 -0.4142882681 0.0586341808 0.0033577807
285298290.0 0.0588577357 0.00338511 0.6661690658 -0.4224684289 0.6666710629 -0.4219234588 0.0588385206 0.0022114005
290298260.0 0.059194707 0.0022877047 0.6618712205 -0.4291160366 0.6618132561 -0.430271458 0.0586692281 0.0017989746
295298230.0 0.0590855726 0.0009460337 0.6581164987 -0.4372769515 0.657375083 -0.4373149733 0.0593846195 0.0003152972
300298200.0 0.0584122953 -0.0003452786 0.6534227357 -0.4447847937 0.6534364178 -0.445373065 0.0588927752 -0.0007620565
305298170.0 0.0588559903 -0.0013134878 0.6478950968 -0.4534600915 0.6478613571 -0.452999281 0.0593287164 -0.0022036883
310298140.0 0.058495574 -0.0023257176 0.6431267408 -0.4609533397 0.6439892091 -0.4602036024 0.0599434677 -0.00305824
315298110.0 0.0583328859 -0.0041064373 0.6378350179 -0.4686955704 0.63841504 -0.4684148213 0.0590911931 -0.0044132122
320298080.0 0.0586541056 -0.0048862425 0.6320944015 -0.4762932229 0.6327645274 -0.4758258568 0.0589057582 -0.0053617935
325298050.0 0.0577076255 -0.006238789 0.6273230541 -0.4836866537 0.6273779119 -0.4827982817 0.0581506572 -0.0060359826
330298020.0 0.0576612957 -0.0074032707 0.6219965187 -0.4908377655 0.6215547146 -0.4907426203 0.0574520104 -0.0076604031
335297990.0 0.0571820249 -0.0085369215 0.6159659483 -0.4972008899 0.6152728053 -0.4980370552 0.0566964713 -0.0077470505
340297960.0 0.0561547212 -0.0089385668 0.6100514781 -0.5048075778 0.6098227128 -0.5051015431 0.0570662034 -0.0084446306
345297930.0 0.0558782074 -0.0089874666 0.6040949583 -0.5118082813 0.6042340029 -0.5118028242 0.0566707207 -0.0100350704
350297900.0 0.0551583236 -0.0109260996 0.5974470697 -0.5186998174 0.5977605492 -0.5180047668 0.0555697262 -0.0099449665
355297870.0 0.0549490714 -0.0105399098 0.5922753431 -0.5246045908 0.5932242047 -0.5247654799 0.0552826133 -0.0105401778
360297840.0 0.0546433552 -0.0113219674 0.5872757117 -0.531675263 0.587440373 -0.5312847094 0.0551047131 -0.0110926992
365297810.0 0.0542024081 -0.012009245 0.5806933712 -0.5386998191 0.5812486066 -0.5380740335 0.0548096678 -0.0116685419
370297780.0 0.0542721856 -0.0131306853 0.5746577679 -0.5445360285 0.5751106161 -0.5441213006 0.0541644924 -0.0122932445
375297750.0 0.0540363735 -0.0136082102 0.5687693133 -0.551193471 0.5695344282 -0.5510302136 0.0541612614 -0.0129426084
380297720.0 0.0538339437 -0.0141555146 0.5628008313 -0.5578756633 0.5629340585 -0.5567322647 0.0535700785 -0.013859847
385297690.0 0.0530835657 -0.01512661 0.556432104 -0.5638167077 0.5561944424 -0.5633928021 0.0535665146 -0.0143305312
390297660.0 0.05285657 -0.0154091391 0.5499353925 -0.5698063274 0.5508942605 -0.5692961601 0.0525819433 -0.0149773497
395297630.0 0.0524375642 -0.0161920393 0.5442727743 -0.5760765839 0.5443373871 -0.5759789047 0.0532889782 -0.0157288973
400297600.0 0.0519400907 -0.016748596 0.5374890032 -0.5827090289 0.5377766531 -0.5818624384 0.0523623661 -0.0160331533
405297570.0 0.051271862 -0.0176553339 0.5309234697 -0.5879339337 0.5312979064 -0.5875597055 0.051809101 -0.0168374666
410297540.0 0.0516322297 -0.0180302813 0.5252804161 -0.5941533687 0.5253270132 -0.5936077016 0.0511528604 -0.016994798
415297510.0 0.0514369492 -0.0185635332 0.517863934 -0.6001042497 0.5185020916 -0.5995490568 0.0510299951 -0.017844589
420297480.0 0.050901539 -0.0190740665 0.5113748916 -0.6060544241 0.5116326364 -0.6058392597 0.0507129993 -0.0191350073
425297450.0 0.0504534679 -0.0203659247 0.5050758072 -0.6115081489 0.5056440724 -0.6110015348 0.0497023912 -0.0188418363
430297420.0 0.0501281139 -0.020735925 0.4981028924 -0.6160191158 0.498423747 -0.6160113971 0.0495202879 -0.0202134354
435297390.0 0.0495174116 -0.0211565187 0.491193576 -0.6225874417 0.4912770474 -0.6222308327 0.0500894285 -0.0205653994
440297360.0 0.0493741436 -0.0216166788 0.4845079716 -0.628013374 0.4841898139 -0.6278378783 0.0489537994 -0.0214021478
445297330.0 0.0488264988 -0.0227211195 0.4778325405 -0.6330222988 0.478278204 -0.6326833826 0.04891797 -0.0223092855
450297300.0 0.0489083721 -0.0230989995 0.4707333192 -0.6384709393 0.4705359436 -0.6384627162 0.0485030843 -0.0229243629
455297270.0 0.0484379355 -0.0237544166 0.4633408163 -0.6435817616 0.4642451439 -0.6435897332 0.0484566189 -0.0233059409
460297240.0 0.0475739623 -0.0242941171 0.4563187582 -0.6483797747 0.4562729568 -0.6488654555 0.047673749 -0.0237390883
465297210.0 0.0477868846 -0.0247722779 0.4491798734 -0.6536838448 0.4495875212 -0.6540083945 0.0475193311 -0.0247935949
470297180.0 0.0472926467 -0.0256928425 0.4417530941 -0.658565074 0.442615142 -0.6586791101 0.0473068404 -0.0248988169
475297150.0 0.0469808189 -0.0262939494 0.4348206486 -0.6628808581 0.4353011716 -0.6629568942 0.0473866482 -0.0256867611
480297120.0 0.0462337909 -0.0261158527 0.4271577354 -0.6686636031 0.427700364 -0.6685961154 0.0470189491 -0.0257292059
485297090.0 0.0456444549 -0.0267772163 0.4204435012 -0.6725946632 0.4206395711 -0.6724688561 0.0465940041 -0.0269113714
490297060.0 0.0449634736 -0.0278014927 0.4132084408 -0.6785888025 0.4131623074 -0.677025241 0.0461686597 -0.0266271289
495297030.0 0.0446936963 -0.0279058141 0.4051570003 -0.6821127955 0.4059370678 -0.6822723869 0.0452618952 -0.0275818638
500297000.0 0.0442563277 -0.0288304139 0.3975256703 -0.6860999189 0.3974825932 -0.6857885452 0.0451593498 -0.0272856944
505296970.0 0.0440134063 -0.02937943 0.3905367969 -0.6905553781 0.3897369824 -0.690469109 0.0445393039 -0.0280705054
510296940.0 0.0433356812 -0.0294903014 0.382450758 -0.6954179298 0.3823577421 -0.6948318193 0.0443397447 -0.0282092161
515296910.0 0.0427747651 -0.0297608496 0.3746741586 -0.6994179663 0.3746538084 -0.6989966099 0.0437430688 -0.0288561307
520296880.0 0.0425623782 -0.0303614843 0.3671103131 -0.7038797109 0.3676806073 -0.7028620062 0.0433400696 -0.0291609255
525296850.0 0.0420979551 -0.031321913 0.3596064648 -0.7072177497 0.3598589772 -0.7075027548 0.0427882382 -0.0297321792
530296820.0 0.0415142052 -0.031133008 0.3515907539 -0.7114244825 0.3518667006 -0.7112034226 0.0426212138 -0.029982757
535296790.0 0.0406746006 -0.0316294406 0.3439673062 -0.7151589247 0.3444013388 -0.7145454828 0.0421228587 -0.0311759771
540296760.0 0.0399518494 -0.0317748476 0.3361669908 -0.7187824934 0.3361539084 -0.7191585124 0.0410479962 -0.0305129516
545296730.0 0.0398461803 -0.0324804707 0.3273917431 -0.7223930704 0.3280046157 -0.7223866401 0.0404332491 -0.0313837542
550296700.0 0.0399933283 -0.0323025593 0.3202476262 -0.7260284065 0.3205201804 -0.7263584766 0.0398427634 -0.0315269964
555296670.0 0.0388557346 -0.0331329558 0.3122226839 -0.7298039021 0.3125650993 -0.7294730863 0.0393846012 -0.0317624711
560296640.0 0.0388347568 -0.0327852887 0.3042799589 -0.7333164761 0.304707717 -0.7328385644 0.0393667945 -0.0325134751
565296610.0 0.037506992 -0.0339990613 0.2957931175 -0.7361673857 0.2964610593 -0.736118014 0.0379705289 -0.0330585367
570296580.0 0.0370610729 -0.0338977164 0.2887684927 -0.7398528017 0.2876352532 -0.73900596 0.0376845471 -0.0326827647
575296550.0 0.0363099313 -0.0340120509 0.280007217 -0.7427472205 0.2800502208 -0.7427870527 0.0376578845 -0.0335281991
580296520.0 0.0364325625 -0.034405501 0.2716006371 -0.7458039581 0.2719555471 -0.7460686113 0.0366906802 -0.0337309772
585296490.0 0.035638786 -0.0356602544 0.2638825119 -0.748249619 0.2641225361 -0.7487335573 0.0362648804 -0.0342144522
590296460.0 0.0357407141 -0.0353517257 0.2551548537 -0.7505316302 0.2557234366 -0.7507150929 0.0350174616 -0.0345500293
595296430.0 0.0349883945 -0.0357463354 0.2471368025 -0.7544821632 0.2473119458 -0.7541519381 0.0353730897 -0.0350999095
600296400.0 0.0341825283 -0.0362583014 0.2394825021 -0.7569527547 0.2392256435 -0.7565550166 0.0344786096 -0.0354190664
605296370.0 0.0336706899 -0.0365160313 0.2307730909 -0.7595569317 0.2312962875 -0.7593735428 0.0337630895 -0.035556136
610296340.0 0.0331370993 -0.036637819 0.2218596755 -0.7618690092 0.2227751935 -0.7616677142 0.0337830359 -0.0363012756
615296310.0 0.0330008992 -0.037506063 0.2140373706 -0.7637069445 0.2137384952 -0.7646440173 0.0331044159 -0.036351024
620296280.0 0.0322487786 -0.0378702267 0.2064591486 -0.7665587447 0.2056802752 -0.7660277864 0.0322412678 -0.0369475365
625296250.0 0.0312794848 -0.0385696642 0.1984616689 -0.7689528555 0.1976473528 -0.7690453273 0.0326954893 -0.0369750283
630296220.0 0.0317845512 -0.0382897384 0.1888697152 -0.7710080116 0.188523482 -0.7705762123 0.0316274796 -0.0369910592
635296190.0 0.0297967237 -0.0389024992 0.1807500869 -0.7726150651 0.1806010497 -0.7730723036 0.0313036577 -0.0376408689
640296160.0 0.0294784405 -0.0389215445 0.1717805481 -0.7744385067 0.1724449295 -0.7742478412 0.0307096661 -0.0378226574
645296130.0 0.0290336889 -0.038997749 0.1631095269 -0.7759342556 0.164063928 -0.7766296625 0.030357437 -0.0381080043
650296100.0 0.0288041539 -0.0394223007 0.1551409059 -0.7779223425 0.1557066561 -0.7783576082 0.0301296341 -0.0390955638
655296070.0 0.0276579894 -0.0399838151 0.1462360039 -0.7804881431 0.1470958897 -0.7799157429 0.0297003187 -0.0386315012
660296040.0 0.0265402523 -0.0405856235 0.1382663185 -0.7816597949 0.1385701352 -0.7815553035 0.0289873269 -0.0387882044
665296010.0 0.0269977737 -0.0402804146 0.1290366416 -0.7825483502 0.1303715979 -0.7826907369 0.0287000175 -0.038263268
670295980.0 0.0249782396 -0.040423051 0.1210200057 -0.7838978896 0.1209834158 -0.784068139 0.0272521457 -0.0391809905
675295950.0 0.0249347174 -0.0403169315 0.1128041555 -0.7852440523 0.1128166753 -0.784933985 0.0267846222 -0.0393364146
680295920.0 0.0240982491 -0.0409953105 0.1037791391 -0.7866845079 0.1035552774 -0.7871373265 0.0264266821 -0.0386039021
685295890.0 0.0238868769 -0.0401431331 0.0955382748 -0.7877377833 0.0947284043 -0.7878659898 0.0260359622 -0.0390088599
690295860.0 0.0237897618 -0.0407902026 0.0865404428 -0.7875501935 0.0865559199 -0.7889653982 0.0247076742 -0.038301241
695295830.0 0.0232964604 -0.0413307017 0.0788412402 -0.7893860997 0.0784311753 -0.7893901899 0.024490257 -0.038884487
700295800.0 0.0225004469 -0.0417369849 0.0696595966 -0.79018032 0.069032757 -0.7899727755 0.0236685724 -0.0382687435
705295770.0 0.0215410738 -0.040604967 0.0606495324 -0.7910425089 0.0612866671 -0.7911085198 0.0229988237 -0.0391483193
710295740.0 0.0212740887 -0.0412858065 0.0526916291 -0.7922455735 0.053139385 -0.7921800768 0.0228583018 -0.0399047751
715295710.0 0.0199791554 -0.0417868201 0.0444068656 -0.792166336 0.0437086805 -0.7924418115 0.0225261707 -0.0396078063
720295680.0 0.0197826077 -0.041399246 0.0347054517 -0.7925317628 0.0361452559 -0.7923948147 0.0214602511 -0.0391145324
725295650.0 0.0196377962 -0.0413663042 0.0265035655 -0.7931230366 0.0265930842 -0.7931236407 0.0201764799 -0.0393873061
730295620.0 0.0189965528 -0.0412973184 0.0175571636 -0.7931056716 0.0180077071 -0.7932833771 0.0196093766 -0.0398949726
735295590.0 0.0180606131 -0.0414315246 0.0091207396 -0.7937321218 0.0090211224 -0.7930600456 0.0190283542 -0.0403722897
740295560.0 0.0173330029 -0.0414439008 0.0008614904 -0.7929022984 0.0005988632 -0.7935707673 0.0188812153 -0.0396953871
745295530.0 0.0168915607 -0.0410679912 -0.0084296924 -0.7924780943 -0.0081024136 -0.7933646398 0.0181626965 -0.0403994352
750295500.0 0.01654386 -0.0416551807 -0.0160770559 -0.7922860518 -0.0160320901 -0.793185248 0.0173688435 -0.0401750135
755295470.0 0.0159798499 -0.0421219276 -0.0247225518 -0.7931097187 -0.0252157227 -0.7931297827 0.0172675077 -0.0405016715
760295440.0 0.0149231727 -0.0417853173 -0.0339328078 -0.7925371929 -0.0336946807 -0.7927101943 0.0164363468 -0.0406961814
765295410.0 0.0144492317 -0.0417363657 -0.0427021927 -0.7926173887 -0.0426727654 -0.7923377345 0.0161041874 -0.0402422272
770295380.0 0.0132613706 -0.0421955406 -0.0513417384 -0.7921051376 -0.0509395404 -0.7916442395 0.0151359577 -0.0411096511
775295350.0 0.0126932039 -0.042682554 -0.0598880608 -0.7905040137 -0.0595196803 -0.7902865169 0.0138203323 -0.0404878951
780295320.0 0.0124288315 -0.0422863432 -0.0684462232 -0.7901134247 -0.067517011 -0.7898830428 0.0135521822 -0.041258368
785295290.0 0.0114691927 -0.042834993 -0.0772650458 -0.7889928351 -0.076610238 -0.7893853277 0.0139549098 -0.0408395166
790295260.0 0.0115991342 -0.0417986446 -0.0849195972 -0.7884635997 -0.0842516364 -0.7884402372 0.0128968178 -0.0408559598
795295230.0 0.0108118307 -0.0423121259 -0.0944938351 -0.7871825206 -0.0931423013 -0.7874162854 0.0125674757 -0.0404464549
800295200.0 0.0094901628 -0.0420106747 -0.1036073528 -0.7860600715 -0.1025754707 -0.7866147619 0.0114536629 -0.0408628564
805295170.0 0.009087455 -0.0419984108 -0.1110796134 -0.7846704158 -0.1109203237 -0.7852705436 0.01118979 -0.0405777136
810295140.0 0.0080179154 -0.0428646606 -0.1191003601 -0.7835471283 -0.1191935392 -0.7835232144 0.0111482796 -0.0404547794
815295110.0 0.0080703351 -0.0427292722 -0.127744144 -0.7823689858 -0.1283431435 -0.7821300421 0.0098322029 -0.0405122139
820295080.0 0.0069116278 -0.0417004339 -0.1367611239 -0.7809163863 -0.1357127615 -0.7807470587 0.0097129485 -0.0403768065
825295050.0 0.0072485136 -0.0420396574 -0.1439127483 -0.7788739991 -0.1443668187 -0.7792865805 0.009302785 -0.0401874248
830295020.0 0.0060906464 -0.041608206 -0.1535417743 -0.7774194179 -0.1536453095 -0.7768539675 0.009477654 -0.0400370419
