!Created with skrf (http://scikit-rf.org).
# Hz S RI R 50.0 
!freq ReS11 ImS11 ReS21 ImS21 ReS12 ImS12 ReS22 ImS22
300000.0 -0.3221033537 -0.0860329284 0.3761151011 0.0454282919 0.3730058929 0.0428353968 -0.3185940714 -0.0986834503
5299970.0 -0.3265628126 0.0041135653 0.3783173353 0.0025270408 0.3784465912 0.0027343634 -0.3238299026 0.0047197579
10299940.0 -0.3243343399 0.0133587789 0.3794688114 0.0020026801 0.3795112681 0.0025544655 -0.3214585671 0.0158048224
15299910.0 -0.3214367653 0.0203496537 0.3817934662 0.0021153261 0.3819974327 0.0021601074 -0.3180409378 0.0237849043
20299880.0 -0.3187945386 0.026275403 0.3848672864 0.0017728716 0.3846960821 0.0018253916 -0.3148775423 0.0303835397
25299850.0 -0.3156705168 0.0316173511 0.3882291949 0.0002027918 0.3880094288 0.0002582147 -0.3104817656 0.0358871014
30299820.0 -0.3129797879 0.0361225643 0.3914937473 -0.0023695356 0.3914590143 -0.0023619159 -0.3070766259 0.0409558508
35299790.0 -0.3101112109 0.0398827319 0.3950051029 -0.0052510603 0.3945772146 -0.0054463956 -0.3031439383 0.045346111
40299760.0 -0.307127955 0.0434698521 0.3976945277 -0.0086578189 0.3979580791 -0.0087604348 -0.3000693599 0.0484166498
45299730.0 -0.3046480142 0.0465687607 0.4007007611 -0.0126066339 0.4008942202 -0.0128189148 -0.29719815 0.051816825
50299700.0 -0.3025030447 0.0492980255 0.4035839052 -0.0171316333 0.4033515065 -0.0175538148 -0.2940022999 0.0547521963
55299670.0 -0.3000312573 0.0520357695 0.4057405876 -0.0223420357 0.4054110215 -0.0219339854 -0.2917629534 0.057130505
60299640.0 -0.2977405759 0.0549304829 0.407407959 -0.0268368025 0.4076745555 -0.0269503231 -0.2891809501 0.0593427149
65299610.0 -0.2962855211 0.0575118992 0.4090808096 -0.0320055639 0.4090864951 -0.0318376451 -0.2870600133 0.0616945573
70299580.0 -0.2947699316 0.0601404422 0.4105660662 -0.0369679279 0.4101732678 -0.036959563 -0.2850812761 0.0640656171
75299550.0 -0.2930519769 0.0626289309 0.4114354721 -0.0424251569 0.41141147 -0.0425124029 -0.2833361819 0.0660654838
80299520.0 -0.2914750237 0.0648293535 0.412425946 -0.0476115926 0.4124353244 -0.0474741991 -0.2815240957 0.0679465455
85299490.0 -0.2899846599 0.0670225185 0.4126928579 -0.0525009196 0.4129528494 -0.0524186309 -0.2803177793 0.0699777096
90299460.0 -0.2885551064 0.069321218 0.4128399943 -0.0579597528 0.4134525852 -0.0579633026 -0.2787130754 0.0720047982
95299430.0 -0.2875444266 0.0714475308 0.4137839875 -0.063232259 0.4133732994 -0.0631074582 -0.2765819788 0.0744274227
100299400.0 -0.2862079808 0.0739824589 0.4128635094 -0.0682947615 0.41330851 -0.0682287518 -0.2751658771 0.075970003
105299370.0 -0.2853233046 0.0764539613 0.4133896458 -0.0735158264 0.4136228626 -0.0737568044 -0.2738664768 0.0780690538
110299340.0 -0.284079826 0.0787845758 0.413334734 -0.0784671072 0.413110231 -0.0783764914 -0.2728096566 0.0801879376
115299310.0 -0.2828443304 0.081137992 0.4131879309 -0.0838213841 0.4129620966 -0.0836389568 -0.2715767786 0.0824568582
120299280.0 -0.2819358744 0.0831513673 0.4126197216 -0.0889435365 0.4126649265 -0.0888053608 -0.2702416413 0.0843494406
125299250.0 -0.2810360246 0.085225567 0.4118832903 -0.093794853 0.4118789149 -0.0939190584 -0.2695328415 0.0861775779
130299220.0 -0.2801192848 0.0881849796 0.4110133248 -0.0991719445 0.4108441078 -0.0990725922 -0.2683283521 0.0884715067
135299190.0 -0.2791904125 0.0909376261 0.4103151433 -0.104161883 0.4101955568 -0.103976028 -0.2670130804 0.0908322799
140299160.0 -0.27850988 0.0931615212 0.4098146254 -0.1091472505 0.4099665843 -0.1094264332 -0.2662104646 0.0935917478
145299130.0 -0.2774601371 0.0957765932 0.408977915 -0.1139454471 0.408479106 -0.1142686281 -0.2652482925 0.0957250728
150299100.0 -0.2762877672 0.0982216241 0.4078264383 -0.1189140927 0.4076127 -0.1185186296 -0.2642459269 0.098344567
155299070.0 -0.2755056677 0.100642669 0.4067298476 -0.1239742153 0.4065105734 -0.1241049117 -0.2633002122 0.100704019
160299040.0 -0.2747510083 0.1034384671 0.4055445715 -0.1286047167 0.4049054854 -0.1289063772 -0.2626045818 0.1030315817
165299010.0 -0.2734934363 0.1059446953 0.4041768053 -0.1340736626 0.4039951078 -0.1336618583 -0.2610987529 0.1059606469
170298980.0 -0.2726168071 0.1088154066 0.4025036458 -0.138602541 0.4030423464 -0.1384554538 -0.260284045 0.1082320095
175298950.0 -0.2717704307 0.1112827745 0.4015633709 -0.14306686 0.4013901893 -0.1429721788 -0.2592899492 0.1107368413
180298920.0 -0.2713767952 0.1139528813 0.4000075317 -0.1478240693 0.3998282526 -0.1475345773 -0.2582218252 0.1134594015
185298890.0 -0.269560338 0.1163568206 0.398348678 -0.1524885954 0.3982602091 -0.1524930871 -0.2572590446 0.1158942976
190298860.0 -0.2686403928 0.1192378048 0.3969967234 -0.1573440512 0.3969493558 -0.1570311548 -0.2561638599 0.1184752891
195298830.0 -0.2678608606 0.1219369426 0.3951025267 -0.1620413771 0.395320571 -0.161955226 -0.2549172284 0.1210827252
200298800.0 -0.2663785793 0.124497256 0.3935444223 -0.1666327008 0.3937716444 -0.1666456722 -0.2541348777 0.1232320433
205298770.0 -0.2654933879 0.127557693 0.3913803879 -0.1713839463 0.3915935283 -0.1710258636 -0.2532227297 0.1254734335
210298740.0 -0.264192504 0.1299832561 0.3898581331 -0.1754073451 0.3896546576 -0.1753779432 -0.2517079872 0.1287027628
215298710.0 -0.2632306528 0.1326943796 0.3877640282 -0.180234909 0.3878637437 -0.1804614609 -0.2510487608 0.131148687
220298680.0 -0.26174075 0.1351739563 0.3853238811 -0.1846532812 0.3854899077 -0.1847287169 -0.2500745113 0.1332172907
225298650.0 -0.2609370167 0.1381701458 0.3840209116 -0.1893350852 0.3843039052 -0.189089673 -0.2490544211 0.1360439581
230298620.0 -0.2597815996 0.1411342246 0.3820747939 -0.1934134817 0.3821828092 -0.1932686695 -0.2478433136 0.1385769285
235298590.0 -0.2583018215 0.143843771 0.3797532528 -0.1979085278 0.3798828361 -0.1974632926 -0.2461102471 0.1412870447
240298560.0 -0.2570940278 0.1464840592 0.3774339063 -0.2024024696 0.3776491813 -0.2022587133 -0.2452255364 0.1439860936
245298530.0 -0.2559611885 0.1492700465 0.3757279422 -0.2068319994 0.37556637 -0.2068127211 -0.2440818008 0.1457970025
250298500.0 -0.2544616865 0.151826335 0.3729297135 -0.2108934215 0.3727992914 -0.2106816074 -0.2428970481 0.1484899515
255298470.0 -0.2532086985 0.1543105146 0.3705355402 -0.2148568238 0.3704454513 -0.2150529981 -0.241083072 0.1511378676
260298440.0 -0.2519141862 0.1569188635 0.3684169228 -0.2195912297 0.3683282266 -0.2193793058 -0.2396047218 0.1539180113
265298410.0 -0.2500742373 0.1598022351 0.3658819364 -0.2232667016 0.3661994812 -0.2234329168 -0.2383505636 0.1561010106
270298380.0 -0.2485017774 0.1625881534 0.3636261112 -0.2272963726 0.3638391369 -0.2273276614 -0.2369003913 0.1586971841
275298350.0 -0.2466427384 0.1651164292 0.3609394922 -0.2318502493 0.3613754749 -0.2318074406 -0.2351462614 0.1612171261
280298320.0 -0.2451343971 0.1679242216 0.3588091316 -0.236073743 0.3585762447 -0.2358333647 -0.2334216462 0.1633493957
285298290.0 -0.2436657261 0.1707706595 0.3560585624 -0.2395876944 0.355958865 -0.2399075845 -0.2320835508 0.1658485633
290298260.0 -0.2415536818 0.1734067422 0.3531371768 -0.2438160326 0.353432649 -0.2438201801 -0.2300754566 0.1686847145
295298230.0 -0.2400288397 0.1752681549 0.3507144848 -0.2475270704 0.350423641 -0.2477554449 -0.2281023917 0.1708875943
300298200.0 -0.2385719921 0.1782139874 0.3480957895 -0.2512546594 0.3479155584 -0.251810589 -0.2268055502 0.1732007887
305298170.0 -0.2366468615 0.1806099861 0.3448522455 -0.2561058879 0.3447798997 -0.2555387785 -0.2245132331 0.175659598
310298140.0 -0.2350260401 0.1834177028 0.3424524453 -0.2597871496 0.342338834 -0.2594021523 -0.2229392459 0.1781301811
315298110.0 -0.2330841008 0.1857086573 0.3393231665 -0.2633839899 0.3395272144 -0.2637590345 -0.221205893 0.1805550576
320298080.0 -0.2311541136 0.1880808435 0.336312697 -0.2674528563 0.3363592678 -0.267550053 -0.2193853683 0.1829930473
325298050.0 -0.2293475958 0.1906639763 0.3335148373 -0.2713516226 0.3331448974 -0.2711849664 -0.217707012 0.1852655051
330298020.0 -0.2276863824 0.1928430134 0.3301430926 -0.274935846 0.3305391398 -0.2748852768 -0.2159853861 0.1877516752
335297990.0 -0.225614308 0.195454793 0.3271270066 -0.2783732914 0.3270689979 -0.2785068389 -0.2146207221 0.1905559867
340297960.0 -0.2243144694 0.1983265624 0.3238359244 -0.2822401684 0.3237137441 -0.2823394556 -0.2123509086 0.1929121203
345297930.0 -0.2220968142 0.2007477694 0.3202459652 -0.2860754377 0.3205663172 -0.2858984403 -0.210343992 0.1951812008
350297900.0 -0.2202499087 0.2032301634 0.317199625 -0.2894268738 0.3172790271 -0.2893211629 -0.2088322802 0.197729291
355297870.0 -0.2178992018 0.2059751509 0.3141689934 -0.2927826964 0.3143904074 -0.2928072682 -0.2066708396 0.2000499299
360297840.0 -0.2158256165 0.2082768698 0.3109931499 -0.2961532955 0.3112004654 -0.2960940152 -0.205130508 0.2030819701
365297810.0 -0.2138631419 0.2110070335 0.3073599908 -0.2995507682 0.3077785489 -0.2999419729 -0.2027457217 0.2051829559
370297780.0 -0.2117809232 0.2133597398 0.3040259059 -0.3028117558 0.3046232731 -0.3025376582 -0.2008112791 0.2075070444
375297750.0 -0.2096569281 0.2157196034 0.3011106794 -0.3063440661 0.3012102521 -0.3063273755 -0.1986773757 0.2091873362
380297720.0 -0.2073491535 0.2178204591 0.2972693984 -0.3095810512 0.2975706101 -0.3090480838 -0.1970508521 0.2116405533
385297690.0 -0.2053826437 0.2203793778 0.2938092184 -0.3126484465 0.2940448587 -0.3126412655 -0.1945142305 0.2138403804
390297660.0 -0.2029599437 0.2228437038 0.290700169 -0.3163084057 0.290365351 -0.3156466692 -0.1927552738 0.2162250798
395297630.0 -0.200787024 0.2251446247 0.2872246366 -0.319473344 0.2870713456 -0.3193829883 -0.18992072 0.2186457265
400297600.0 -0.1984695258 0.2274063667 0.28324183 -0.3226152228 0.2837680326 -0.3225040116 -0.1882042676 0.220463355
405297570.0 -0.1964633919 0.2296407513 0.2800100644 -0.3254987399 0.2799099101 -0.3253116776 -0.1858051289 0.2227745497
410297540.0 -0.1938033958 0.231866716 0.2765862759 -0.3287315003 0.2768381673 -0.3286681797 -0.183910068 0.2255010391
415297510.0 -0.1911987908 0.2337886995 0.2723237811 -0.3315074948 0.2730982417 -0.3315540082 -0.1814780768 0.2270748736
420297480.0 -0.1893270447 0.2364332849 0.2690654029 -0.3346176948 0.2687927762 -0.3344509781 -0.17925212 0.2289036507
425297450.0 -0.1865071332 0.2381365827 0.2652876753 -0.3373088139 0.2657612431 -0.3375130558 -0.1773198856 0.2313676381
430297420.0 -0.1842062178 0.240512541 0.2617084951 -0.3403510517 0.2615825197 -0.3399678775 -0.1746962292 0.233069405
435297390.0 -0.1819055619 0.2422107722 0.2576031576 -0.3429058152 0.2572371491 -0.3431010278 -0.1718553954 0.2346803256
440297360.0 -0.1789337651 0.2447907646 0.253674257 -0.3459044312 0.2541507468 -0.3460403304 -0.1696825596 0.2369766235
445297330.0 -0.1766526051 0.2463263566 0.2504979523 -0.3483454416 0.2502869484 -0.3482074316 -0.1673971641 0.2384288578
450297300.0 -0.17390882 0.2482777466 0.2460721637 -0.3511423189 0.2464258076 -0.3512636164 -0.1646843483 0.2403196034
455297270.0 -0.1714912871 0.2505113959 0.2421086467 -0.3538802179 0.2424213184 -0.3539789636 -0.1619861374 0.2421079682
460297240.0 -0.1690755468 0.2524348032 0.2384605623 -0.3564909615 0.2386481176 -0.3566496391 -0.1595796318 0.2445099117
465297210.0 -0.1662418729 0.2544515196 0.2345766067 -0.3589853259 0.234348664 -0.3593900645 -0.1569270998 0.2457465501
470297180.0 -0.1634829719 0.256160874 0.2305263203 -0.361556 0.2306750601 -0.3615920736 -0.1540135291 0.2479771947
475297150.0 -0.160956646 0.2577449056 0.2263326288 -0.3635561993 0.2266390604 -0.3637236082 -0.1513044057 0.2493603375
480297120.0 -0.1581180622 0.2600820145 0.2222455453 -0.3665212488 0.2228970249 -0.3664177738 -0.1487836743 0.251363379
485297090.0 -0.1556322407 0.2619009654 0.2186576686 -0.3689412329 0.2186761297 -0.3685617287 -0.1462560639 0.2529681319
490297060.0 -0.1531735398 0.2635745613 0.2149865184 -0.3712949802 0.2148172244 -0.3709044945 -0.1435144585 0.2548531476
495297030.0 -0.1503561751 0.2650564309 0.2100490293 -0.3735897069 0.211112196 -0.3732205565 -0.141064644 0.2568301027
500297000.0 -0.1473554543 0.2670782777 0.2058989365 -0.3754734286 0.2060781925 -0.3753378026 -0.1381066182 0.2587529222
505296970.0 -0.1445008307 0.2688686996 0.2022648717 -0.3779592579 0.2020621485 -0.3778649186 -0.1354964109 0.2600394463
510296940.0 -0.1417291386 0.2705002674 0.1981797597 -0.38030119 0.1978188511 -0.3801230985 -0.1323223498 0.2616610029
515296910.0 -0.1384825093 0.2721600506 0.193677583 -0.3822788677 0.1935581759 -0.3822879804 -0.1299047527 0.2633586004
520296880.0 -0.1363367654 0.2737457695 0.1896448763 -0.3845277051 0.1896582032 -0.3840883626 -0.1272525688 0.2650737306
525296850.0 -0.1327949809 0.274816552 0.1849507682 -0.3863647398 0.1860357526 -0.386255357 -0.1246716282 0.2665432482
530296820.0 -0.1302329341 0.2767871525 0.1811982665 -0.3883326812 0.1812276966 -0.3882127792 -0.1216183905 0.2681855744
535296790.0 -0.1275118133 0.2783109313 0.1770865331 -0.3899999699 0.1769643551 -0.3898164303 -0.119224188 0.2691455829
540296760.0 -0.1245650531 0.2799588761 0.1723885808 -0.3924693197 0.1726133167 -0.3921305339 -0.1163629519 0.2711259817
545296730.0 -0.1218922796 0.2812452312 0.168247438 -0.3937685168 0.1684572061 -0.3939249426 -0.113642544 0.2724609703
550296700.0 -0.1184478884 0.2828130103 0.1640268084 -0.3956576858 0.1641016652 -0.3958726398 -0.1108248539 0.2736815783
555296670.0 -0.1157727463 0.2839888976 0.1598554563 -0.3973330013 0.1595928486 -0.3972261112 -0.1077910731 0.2751031065
560296640.0 -0.1124053791 0.2857416536 0.1552338209 -0.399347373 0.1555006486 -0.3989818049 -0.1050201096 0.2764223831
565296610.0 -0.1098944251 0.2870346369 0.1508948754 -0.4006902114 0.1512758598 -0.4005184423 -0.1024790708 0.2771917911
570296580.0 -0.106995262 0.2881731105 0.1467148739 -0.4028072721 0.1461812849 -0.4023016705 -0.0998705464 0.2792896851
575296550.0 -0.1037624745 0.2897696911 0.1423426952 -0.4041871955 0.1419337695 -0.40403463 -0.0962897076 0.2802693403
580296520.0 -0.1009068332 0.2906617294 0.1378926593 -0.4057845597 0.1379330382 -0.4054115871 -0.0934280955 0.2807688648
585296490.0 -0.0978725444 0.2916050687 0.1334636803 -0.4064097371 0.1334280485 -0.4070501821 -0.0906412989 0.282200375
590296460.0 -0.0945308365 0.292896393 0.1290798465 -0.4077014673 0.1291200308 -0.4081287612 -0.0882934516 0.2834982295
595296430.0 -0.0911815349 0.2939596017 0.1239427509 -0.4096844406 0.1243459944 -0.4093893453 -0.0848511934 0.283851284
600296400.0 -0.0884888636 0.2953667078 0.1199787234 -0.4108257517 0.1199196086 -0.4105147633 -0.0819375121 0.2851102326
605296370.0 -0.0857137734 0.2963531347 0.1152709532 -0.4120313177 0.1156095631 -0.412159195 -0.0785051089 0.2865089614
610296340.0 -0.0823923585 0.2971326548 0.1106944327 -0.4133630739 0.1110853079 -0.4130842202 -0.0757852534 0.2871737366
615296310.0 -0.0788779823 0.2981566945 0.1059609748 -0.4140041236 0.1063149016 -0.4146618525 -0.0724449236 0.2878077393
620296280.0 -0.0761849112 0.2990285183 0.1018905235 -0.4152766925 0.1016974324 -0.4151803225 -0.069682281 0.2891023535
625296250.0 -0.0732563773 0.3000362642 0.0977738228 -0.4167914275 0.0974381771 -0.4166409989 -0.0661207075 0.289321744
630296220.0 -0.0692651947 0.3007975791 0.0924934813 -0.4175109132 0.0922325228 -0.4171780268 -0.0635250198 0.2906329275
635296190.0 -0.0671188058 0.3017164977 0.0884877135 -0.4184301672 0.088405401 -0.4183261537 -0.0599841298 0.2912956661
640296160.0 -0.0634394142 0.3026283955 0.0838308569 -0.4191327033 0.0840580565 -0.4191868239 -0.0569843152 0.2922422922
645296130.0 -0.0606801474 0.3037397963 0.0791253506 -0.4198764935 0.079375874 -0.4201907051 -0.0539980811 0.2929983084
650296100.0 -0.0570868008 0.3040004666 0.0747376232 -0.4205650421 0.0748425188 -0.4204395214 -0.0508575375 0.2932026193
655296070.0 -0.0539003903 0.3048368068 0.0699435851 -0.4213725881 0.07035189 -0.4217280023 -0.0478212101 0.2940388497
660296040.0 -0.0511530255 0.3052733055 0.0657258967 -0.4221024191 0.0655031266 -0.4224074603 -0.044235392 0.2947368537
665296010.0 -0.0474993136 0.3059245958 0.0606479632 -0.4226828355 0.0607050418 -0.4228781637 -0.0409257179 0.2957562325
670295980.0 -0.0450459655 0.3065443522 0.0565612436 -0.4234008668 0.0566006834 -0.4238275035 -0.0381540357 0.2961381377
675295950.0 -0.041397943 0.3073493308 0.0519826047 -0.4239608049 0.0519330959 -0.4236482794 -0.0352995014 0.296902466
680295920.0 -0.0381491545 0.3078521965 0.0471895453 -0.4245300619 0.0469551589 -0.424989788 -0.031953427 0.297948646
685295890.0 -0.0346299838 0.308913747 0.0426135742 -0.4248554731 0.0425416496 -0.4251771156 -0.0289179157 0.297979052
690295860.0 -0.0313518346 0.3092696851 0.0377970387 -0.42536734 0.0378756902 -0.4255275792 -0.0257479936 0.2992873212
695295830.0 -0.0284704022 0.30940046 0.0336843557 -0.4254822509 0.032897095 -0.425996677 -0.0226755843 0.2994325637
700295800.0 -0.0251684622 0.3095845996 0.0286621853 -0.425858614 0.0285172576 -0.4260329518 -0.0198664099 0.300138915
705295770.0 -0.0222813001 0.310762656 0.0241729681 -0.4261160949 0.024390325 -0.4262952951 -0.0165224827 0.3002154223
710295740.0 -0.0186328908 0.3109525494 0.0195055812 -0.4268075095 0.0196655389 -0.426699325 -0.0134038525 0.3003505911
715295710.0 -0.0157061548 0.3109186933 0.0153783329 -0.4268789618 0.0147662804 -0.4266458118 -0.0103851808 0.3008117892
720295680.0 -0.0122886606 0.3115919735 0.0104330813 -0.4271353317 0.0106869137 -0.4267524618 -0.0072142982 0.3012411472
725295650.0 -0.0090888104 0.3115741788 0.005616442 -0.4268161918 0.0053906537 -0.4270593176 -0.0042576757 0.3016227098
730295620.0 -0.0053704332 0.3120893268 0.0008412585 -0.4267655283 0.0012323155 -0.4268091396 -0.0013357377 0.3015511279
735295590.0 -0.0023608024 0.3122474805 -0.0035219047 -0.4269969973 -0.0035598613 -0.4267057147 0.0019490805 0.3013873449
740295560.0 0.0009314833 0.3123223268 -0.0084652325 -0.4264489053 -0.0084190241 -0.4267395198 0.0054323407 0.3023458273
745295530.0 0.0039866556 0.3126224056 -0.0130730709 -0.4263994426 -0.0133536043 -0.4263578838 0.0085606351 0.3014736218
750295500.0 0.007655593 0.3125592367 -0.0174135959 -0.4260927131 -0.017401362 -0.4266130899 0.0114327864 0.3018899005
755295470.0 0.0108069715 0.3123070012 -0.022021413 -0.426001666 -0.0221370943 -0.4263142742 0.0148221795 0.3014603047
760295440.0 0.0137673841 0.3125717518 -0.0267526195 -0.4258954069 -0.0266831699 -0.4259038516 0.0178895763 0.3014666148
765295410.0 0.0170814032 0.3124884212 -0.0315401117 -0.4253034221 -0.0315548474 -0.4254905056 0.0208331673 0.3015947207
770295380.0 0.0199616757 0.31250738 -0.0363011142 -0.4248646225 -0.035981051 -0.4250833403 0.0240751168 0.3012430676
775295350.0 0.0230452347 0.3120643819 -0.0408434499 -0.4242472668 -0.0403509758 -0.4245110543 0.0268177837 0.301451119
780295320.0 0.0269196626 0.3122433831 -0.0453171809 -0.4237487406 -0.044752522 -0.4237125447 0.0299465226 0.3006207016
785295290.0 0.0296625707 0.3115800352 -0.0497432674 -0.4233066271 -0.0495693657 -0.4233682044 0.0339707067 0.3006591872
790295260.0 0.0335340272 0.3120506114 -0.0539291043 -0.4229209841 -0.0535790256 -0.4227046503 0.0369877118 0.3003225795
795295230.0 0.0367029065 0.3112854632 -0.0587098614 -0.4220185736 -0.0586067199 -0.4220269652 0.0402670664 0.3000365977
800295200.0 0.0396985975 0.31150285 -0.0641980085 -0.4213958614 -0.0632762363 -0.4214254206 0.0436781138 0.29970614
805295170.0 0.0431673486 0.3107507154 -0.0678855883 -0.4204335268 -0.0680143644 -0.4208129313 0.0462174045 0.2995859946
810295140.0 0.0460194437 0.310554866 -0.071884952 -0.4197467655 -0.0726093009 -0.4200244606 0.0501464053 0.2990603543
815295110.0 0.0496630348 0.310004436 -0.0767432822 -0.4186329443 -0.0770792893 -0.4192846515 0.052862372 0.298778855
820295080.0 0.0523769374 0.30997527 -0.0810381709 -0.4184725094 -0.081253982 -0.4181838072 0.0563969543 0.298532279
825295050.0 0.0563972339 0.3092656556 -0.0856141562 -0.4170087311 -0.0855749878 -0.4172339092 0.0596965843 0.2980886354
830295020.0 0.0589839792 0.3088140475 -0.0903579918 -0.4159360163 -0.090229107 -0.4162079874 0.0631399127 0.2977888354
