!Created with skrf (http://scikit-rf.org).
# Hz S RI R 50.0 
!freq ReS11 ImS11 ReS21 ImS21 ReS12 ImS12 ReS22 ImS22
300000.0 -0.0993424078 -0.0754424935 0.629348803 0.0705437108 0.6247561007 0.0697553761 -0.1006486921 -0.0824243953
5299970.0 -0.1017950774 0.0130753573 0.6303430173 0.0100697258 0.6306955483 0.0102450174 -0.1003294462 0.0127817787
10299940.0 -0.0971002219 0.0294462029 0.6339394733 0.0154103502 0.6342496305 0.0155203344 -0.0954054049 0.0304298504
15299910.0 -0.089674622 0.0424458316 0.6406194099 0.0202482791 0.6403845369 0.0207230777 -0.0881953151 0.0437606599
20299880.0 -0.0812072213 0.0531067326 0.6486377913 0.024031267 0.6486391935 0.0239375915 -0.0794577372 0.0547036214
25299850.0 -0.0722298914 0.0623327294 0.6577157155 0.0250472158 0.6577430551 0.0254807963 -0.0694113349 0.0634730831
30299820.0 -0.061839271 0.0688818502 0.667120094 0.0241777926 0.6674166699 0.0245788004 -0.0597208526 0.0701306135
35299790.0 -0.0523568432 0.0736308194 0.6771125457 0.0213011854 0.677198567 0.0212838565 -0.0496626118 0.0753894719
40299760.0 -0.0430325272 0.0769720149 0.686257907 0.0169928701 0.6863450463 0.0176595702 -0.0402558279 0.0776996394
45299730.0 -0.0337525585 0.0793225436 0.6952516716 0.0116487621 0.6953034898 0.0118342047 -0.0311323389 0.0799806717
50299700.0 -0.025546588 0.080079085 0.7036865917 0.0046956105 0.7033150748 0.0052886419 -0.0226856499 0.080768136
55299670.0 -0.0175677156 0.0803849354 0.7109860739 -0.0033877982 0.7105261078 -0.0028467778 -0.0145935048 0.0808190027
60299640.0 -0.0101174631 0.0798785559 0.7172672348 -0.0116770398 0.717461697 -0.0111386029 -0.0078002808 0.0798489073
65299610.0 -0.0036753036 0.0786468231 0.7231424401 -0.0206520356 0.7233772688 -0.0201869045 -0.0013692594 0.0789059296
70299580.0 0.0025443641 0.0775997057 0.72869187 -0.029724246 0.728323413 -0.0293720411 0.0045983916 0.0771172836
75299550.0 0.0080676218 0.0759897932 0.7326843255 -0.0390826365 0.7327330006 -0.0393617226 0.0099425436 0.0750841954
80299520.0 0.0128656804 0.0737993922 0.7368962727 -0.0495229469 0.7371181328 -0.0486091441 0.0147477547 0.0726780033
85299490.0 0.0175873243 0.0713580023 0.7397321827 -0.0586762746 0.7400025354 -0.0586099358 0.0193881825 0.0698305489
90299460.0 0.0217610803 0.0691146685 0.7421496183 -0.0692995803 0.7431685036 -0.0687859487 0.0234301724 0.0678083893
95299430.0 0.025459741 0.0663389198 0.7456585766 -0.0789009472 0.7455438643 -0.0794031064 0.0272590651 0.065501881
100299400.0 0.028833153 0.064722864 0.746432619 -0.0890078657 0.7470905759 -0.0892111853 0.0307708833 0.0622993686
105299370.0 0.0323350425 0.0621262807 0.7482910898 -0.0994118778 0.748769432 -0.0995234795 0.03382589 0.0605678645
110299340.0 0.0348198103 0.0597905833 0.7494782818 -0.1089404062 0.7495230569 -0.1092487891 0.0359364026 0.0576596103
115299310.0 0.0371961985 0.0572831918 0.7502405579 -0.1192181851 0.7508734265 -0.1198032961 0.0388596307 0.055288246
120299280.0 0.039973021 0.0545525942 0.7509347355 -0.1295643052 0.7509831107 -0.1294612932 0.0413820258 0.0528065455
125299250.0 0.0422312536 0.0521279834 0.7514205698 -0.1393133732 0.7516224461 -0.1388649401 0.0429000801 0.0500691139
130299220.0 0.0438638743 0.0502611513 0.7509795345 -0.1492351446 0.751194341 -0.1494713767 0.044774756 0.0478738862
135299190.0 0.0454864572 0.0484104642 0.7512957999 -0.1597705699 0.7508108225 -0.1589779217 0.0465387484 0.0456555012
140299160.0 0.0467277452 0.0463136148 0.7508191174 -0.1687809104 0.750510422 -0.1694322053 0.0480809754 0.0443120818
145299130.0 0.0484451073 0.0436462748 0.7496767759 -0.1789801424 0.749706633 -0.1784521275 0.0494969499 0.041733736
150299100.0 0.0499827322 0.0422220546 0.7490102913 -0.1876861209 0.748773448 -0.1878745985 0.0508653969 0.0398551344
155299070.0 0.0505124422 0.0396936065 0.7478759751 -0.1988300562 0.7473703656 -0.1983459632 0.0520422084 0.0381732785
160299040.0 0.0520380856 0.0379427064 0.7458262516 -0.2074578435 0.7455428276 -0.2076968729 0.0525273144 0.0360655735
165299010.0 0.0527331994 0.0362207648 0.7442102434 -0.2173953204 0.7444101247 -0.2171397652 0.0539750526 0.0347708285
170298980.0 0.0535279818 0.0339167757 0.7427103395 -0.2265549616 0.7427971399 -0.2264526921 0.0543963541 0.0326741603
175298950.0 0.0537605124 0.0322107595 0.7411636345 -0.235466585 0.7401220111 -0.2356407892 0.0551987395 0.0312266255
180298920.0 0.0546125082 0.0305345464 0.7389897669 -0.2449736086 0.7384857189 -0.2444752784 0.0557670445 0.0295727097
185298890.0 0.0555999213 0.0283438503 0.736632015 -0.2539060918 0.7359560271 -0.2538585914 0.0560750679 0.0283212528
190298860.0 0.055613331 0.0271551192 0.7342195678 -0.2632932732 0.7340898377 -0.2636639102 0.0566353463 0.0262376253
195298830.0 0.0560831346 0.0250342837 0.7311814396 -0.2720540512 0.7318216952 -0.271724211 0.0573382459 0.0252158671
200298800.0 0.0564439601 0.02400042 0.7285694437 -0.2814601299 0.7288633346 -0.281230323 0.0568037977 0.0237402055
205298770.0 0.0569524679 0.022725086 0.725542939 -0.2902207288 0.7258554076 -0.2897700228 0.0574376978 0.0216219499
210298740.0 0.0569971267 0.0208243621 0.7229895212 -0.2983509924 0.7225965537 -0.298319904 0.0579745445 0.0211887071
215298710.0 0.0566688401 0.0195137411 0.7198183507 -0.3073639815 0.7198619668 -0.307417038 0.0577530338 0.0198988766
220298680.0 0.0574528366 0.0174581821 0.7161700938 -0.316345683 0.7166796973 -0.3160356669 0.0575332512 0.0181515955
225298650.0 0.0575654542 0.0163279514 0.7129145495 -0.3250010378 0.7130755397 -0.3247474959 0.0573371499 0.0166235301
230298620.0 0.0575239387 0.0156908955 0.7101541877 -0.3327699934 0.710531597 -0.3332540542 0.0575237308 0.0151833991
235298590.0 0.0578037286 0.0146588901 0.7063175618 -0.3418191702 0.7067465675 -0.3411014803 0.057466586 0.0139120138
240298560.0 0.0578851473 0.0133696207 0.7033521026 -0.3504900279 0.7025704514 -0.3499886212 0.0574584311 0.0129422444
245298530.0 0.0578553774 0.0120673058 0.6997687919 -0.3585281604 0.6991203984 -0.3584161076 0.0579312777 0.0111468025
250298500.0 0.0581768751 0.0111884066 0.6949567511 -0.3665217929 0.6946939598 -0.3662703377 0.057404132 0.0102359031
255298470.0 0.058228228 0.0095178183 0.6908803946 -0.3742440483 0.6912396866 -0.374482803 0.0578281098 0.0089592065
260298440.0 0.0579302111 0.0081408704 0.6871937822 -0.3832923643 0.6877140463 -0.3827359729 0.0582136528 0.007643565
265298410.0 0.0588671449 0.007540849 0.6833545371 -0.3913661076 0.6837922874 -0.3909371954 0.0577925955 0.0067905096
270298380.0 0.058534487 0.0062342688 0.6795702465 -0.3985284306 0.679402484 -0.3986710129 0.0578299604 0.0057431594
275298350.0 0.0589614092 0.0053685817 0.6750826112 -0.4069590581 0.6750794458 -0.4070066607 0.0582691887 0.0040337962
280298320.0 0.0585552392 0.0041594518 0.6707734851 -0.4148338705 0.6705040228 -0.4146770697 0.0585266107 0.0031880383
285298290.0 0.0584944855 0.003008787 0.6663380708 -0.4226849353 0.6657819979 -0.423025462 0.0582302239 0.0019999121
290298260.0 0.0589596587 0.0022077574 0.6615600404 -0.4297611348 0.66128327 -0.4298992661 0.0582727404 0.0013520798
295298230.0 0.0589896075 0.0007710504 0.6573086684 -0.4378341199 0.6567771702 -0.4379425012 0.0593929218 -0.0001327657
300298200.0 0.0585674066 -0.0002690743 0.6531394165 -0.4453436824 0.6525000193 -0.4457164476 0.0584759862 -0.0010003847
305298170.0 0.0588646907 -0.0015772823 0.647340523 -0.4540327437 0.64751468 -0.4529515246 0.059300353 -0.0024499063
310298140.0 0.0584705273 -0.0025205775 0.6425107857 -0.461183549 0.6432344379 -0.4605344095 0.0594309629 -0.0031817038
315298110.0 0.0584206965 -0.0044024416 0.6378817476 -0.4686988024 0.6377900485 -0.4684663979 0.0589561433 -0.0047835862
320298080.0 0.0587020976 -0.0052184513 0.6318677563 -0.4766354312 0.632425441 -0.476460073 0.0586879393 -0.0059717858
325298050.0 0.0578532207 -0.0064060992 0.6268975106 -0.4840848159 0.6266121817 -0.4837034895 0.0582584758 -0.0067461453
330298020.0 0.0576351419 -0.0078153358 0.6211399175 -0.4913603383 0.6213323655 -0.4911756516 0.0576585022 -0.0079501468
335297990.0 0.057154939 -0.0087725806 0.6154328406 -0.4978488265 0.6150445533 -0.4981154468 0.0566265363 -0.0079123215
340297960.0 0.0563462431 -0.009585502 0.6091429505 -0.504528449 0.6090822592 -0.5054010379 0.0573112943 -0.008819259
345297930.0 0.056038248 -0.0095986599 0.6036272884 -0.5119409383 0.6039936304 -0.5122529202 0.0568306384 -0.0097811136
350297900.0 0.0550920104 -0.0112702574 0.5973147978 -0.5191098197 0.5975378516 -0.5187226059 0.0556701313 -0.0099194176
355297870.0 0.0548300073 -0.0108722969 0.5917376005 -0.5252395974 0.5922938651 -0.5252676362 0.0556674467 -0.010828301
360297840.0 0.0546458436 -0.0117032504 0.5867905662 -0.5315662344 0.5865116829 -0.5315653081 0.0549969416 -0.0111318509
365297810.0 0.0538594168 -0.0122479064 0.5803719852 -0.5385200024 0.5806532505 -0.53897368 0.0550607557 -0.0117858217
370297780.0 0.0544662019 -0.0134468743 0.5737740143 -0.5451542837 0.5748437394 -0.5445481374 0.0540023848 -0.0122525156
375297750.0 0.0538166313 -0.0139741999 0.5683904646 -0.5515697561 0.5692116885 -0.551232814 0.0543669861 -0.0127194932
380297720.0 0.0534652684 -0.0143917635 0.5624042498 -0.5578036806 0.5626015433 -0.5569213662 0.0533912278 -0.0137525846
385297690.0 0.0528301918 -0.0153405285 0.5555418585 -0.5641725969 0.555888639 -0.563714926 0.0532303294 -0.0140088249
390297660.0 0.0525285836 -0.015329158 0.550274285 -0.5700037971 0.5497332489 -0.5699648065 0.0525289105 -0.0146321583
395297630.0 0.052207239 -0.0159520319 0.5442154539 -0.5759499595 0.5437613578 -0.5764765167 0.052852998 -0.0153333624
400297600.0 0.0516987746 -0.0167049177 0.5362383641 -0.5831697008 0.5368842219 -0.5820440675 0.0518630012 -0.0160758546
405297570.0 0.0510650716 -0.0175476168 0.5302394709 -0.5880717595 0.5304843832 -0.5878971468 0.051435945 -0.0166729483
410297540.0 0.0512820691 -0.0181357148 0.5241388995 -0.5944911332 0.5243390704 -0.5938410296 0.0511916914 -0.0169448825
415297510.0 0.0511528282 -0.0185638468 0.5177054604 -0.6004316488 0.5181387486 -0.5997730382 0.0509048136 -0.017677335
420297480.0 0.0508339294 -0.0189996331 0.5105498471 -0.6058363272 0.51105538 -0.606356096 0.0497107685 -0.0191108167
425297450.0 0.0500317964 -0.0202797258 0.5042541308 -0.6116349986 0.504856824 -0.6111827449 0.0493878879 -0.0190602306
430297420.0 0.0497876484 -0.0207478842 0.4969964231 -0.6163897545 0.4976005742 -0.6167398665 0.0491019009 -0.020052519
435297390.0 0.0494797263 -0.0213024013 0.4901869467 -0.6229535235 0.4904756168 -0.622113814 0.0496699182 -0.0206801315
440297360.0 0.0496564745 -0.0216014592 0.483978115 -0.6276528461 0.4838993525 -0.6278660686 0.0485773236 -0.0216948336
445297330.0 0.0487255255 -0.0231401924 0.4773049077 -0.6333230123 0.477262937 -0.6326181348 0.0488600931 -0.0226380901
450297300.0 0.0486757448 -0.023093728 0.4700367237 -0.6381074553 0.4699596508 -0.6388246086 0.0481013001 -0.0231370558
455297270.0 0.0483323953 -0.0239212202 0.4630804834 -0.6434281676 0.4631874729 -0.6435125092 0.0477776708 -0.0237949252
460297240.0 0.0477186384 -0.0245444042 0.4558201639 -0.6484314628 0.4559055312 -0.6489962118 0.0474415315 -0.0239856032
465297210.0 0.0475782021 -0.0250348101 0.4487723322 -0.6538725362 0.4485051586 -0.6544445841 0.0474093797 -0.0250647485
470297180.0 0.0471717306 -0.0258782362 0.4415695356 -0.6589630213 0.4416623384 -0.6588373284 0.0471139017 -0.0253698917
475297150.0 0.0467621177 -0.026782747 0.433678013 -0.6631396588 0.4343732705 -0.663428966 0.0471857371 -0.0264823838
480297120.0 0.0461864076 -0.0265468558 0.4270154727 -0.6682957514 0.4269044288 -0.6683462316 0.0471635549 -0.026229429
485297090.0 0.0454346723 -0.0271555198 0.4195915784 -0.6730065864 0.4199418348 -0.6730293699 0.0462826091 -0.0274396758
490297060.0 0.0445677016 -0.0278491448 0.412273781 -0.6783315926 0.4129005117 -0.6777157798 0.0461737665 -0.0272245952
495297030.0 0.0446614051 -0.0283821391 0.4048350108 -0.6824639753 0.4054399812 -0.6822897195 0.0454197464 -0.0278569742
500297000.0 0.0441219302 -0.0290507878 0.3968921227 -0.6862492201 0.3963168069 -0.6858984898 0.0451831673 -0.0278325024
505296970.0 0.0438699386 -0.0294571584 0.3898449651 -0.6909875458 0.3889590377 -0.691212916 0.0447014724 -0.0283802044
510296940.0 0.0429247898 -0.0298727118 0.3817971197 -0.6950991591 0.3813166932 -0.695489328 0.0445798309 -0.0286761674
515296910.0 0.0423682658 -0.0299813762 0.3741563163 -0.6991917901 0.3742865542 -0.6993564963 0.0439999858 -0.0288412157
520296880.0 0.0419120081 -0.03084315 0.3667263793 -0.7037879869 0.366599015 -0.7035540147 0.0432566778 -0.02953663
525296850.0 0.0416449122 -0.0315925696 0.3581962311 -0.7075228785 0.3594289879 -0.7073047607 0.0426184354 -0.0298441634
530296820.0 0.0411444923 -0.0315422894 0.3508599609 -0.7116971138 0.3510736097 -0.7113709989 0.0425527136 -0.0299237001
535296790.0 0.0404268133 -0.0319153055 0.3436048696 -0.7152557159 0.3435172466 -0.7148236443 0.0420984784 -0.0310686984
540296760.0 0.0399926062 -0.0319598722 0.3352419138 -0.7191632456 0.3348388707 -0.7189040304 0.0407877616 -0.0305671403
545296730.0 0.039571019 -0.0327952969 0.3267400306 -0.7226577363 0.3271106986 -0.7224064443 0.0405108328 -0.0312769318
550296700.0 0.0395620625 -0.03248858 0.3199343161 -0.7257083434 0.3194529513 -0.7262730394 0.0395574773 -0.0312986086
555296670.0 0.038642498 -0.0331764987 0.3114284386 -0.7295916854 0.3119119628 -0.7293410334 0.0393858326 -0.0316116684
560296640.0 0.038459284 -0.0330499341 0.3033931854 -0.7332910258 0.3036772778 -0.7327937665 0.038864129 -0.0324372824
565296610.0 0.0375239656 -0.0339386595 0.2952035885 -0.7361217259 0.295955823 -0.7364106643 0.0379021122 -0.0327313295
570296580.0 0.0369357381 -0.0340336096 0.2875241432 -0.7402765731 0.2867053291 -0.7394886237 0.0374323138 -0.0323131626
575296550.0 0.036406697 -0.0344536066 0.2794540753 -0.742736516 0.2789507125 -0.7428686473 0.0372283731 -0.0330746769
580296520.0 0.036093818 -0.0345825402 0.271280795 -0.7459038657 0.2710792897 -0.7457963564 0.0363698057 -0.0337888574
585296490.0 0.0353483372 -0.0356673254 0.2629895442 -0.7483910965 0.2632139497 -0.7484228724 0.0360386851 -0.0340373875
590296460.0 0.0356756217 -0.0353480904 0.2547833864 -0.7505346332 0.2550093416 -0.7510525236 0.0345502057 -0.0342837874
595296430.0 0.0349469816 -0.0355431589 0.2460416605 -0.7544428975 0.2458368481 -0.7539510075 0.0343778203 -0.0350620771
600296400.0 0.0338331435 -0.0365718346 0.2388390538 -0.756684009 0.2380918612 -0.7563404039 0.033762496 -0.0352594031
605296370.0 0.0334837133 -0.0364797183 0.2297546081 -0.7587776307 0.2301533779 -0.7593157231 0.0332356897 -0.0357730863
610296340.0 0.0331498547 -0.036914118 0.2215810781 -0.7614044346 0.2216892882 -0.7616552278 0.033330164 -0.0362981308
615296310.0 0.0327639201 -0.0377626266 0.2134693459 -0.7639713599 0.2129249624 -0.7644268215 0.0327756702 -0.0366773939
620296280.0 0.0321791487 -0.0381151031 0.2053300943 -0.766032358 0.2050849138 -0.7659996339 0.0318788519 -0.0371603984
625296250.0 0.0310117395 -0.0390505335 0.1972263753 -0.7690003671 0.1968157063 -0.76911931 0.0323244568 -0.0373380366
630296220.0 0.0316794362 -0.0386811608 0.1879341163 -0.7703533831 0.1878302794 -0.7707712644 0.0314847949 -0.0372656953
635296190.0 0.0296455259 -0.0394150703 0.1799185321 -0.7723157225 0.1797060977 -0.7726632515 0.0308934885 -0.0382262728
640296160.0 0.0293573652 -0.0392865483 0.1712267173 -0.774392 0.1716679728 -0.7746486993 0.0303465391 -0.0383657565
645296130.0 0.0291088899 -0.0394339426 0.1624953145 -0.7761145586 0.1631568563 -0.7764603724 0.0298277112 -0.0385106314
650296100.0 0.0284951945 -0.0398905415 0.1546296364 -0.7779174848 0.1547018274 -0.7781445221 0.0300144551 -0.0394532533
655296070.0 0.027298894 -0.040312914 0.1452920673 -0.7794803064 0.1460854995 -0.7797816193 0.0292007528 -0.0390234468
660296040.0 0.0260453528 -0.0410847407 0.13715034 -0.7815493039 0.1377601318 -0.7812606821 0.0292430757 -0.0392189079
665296010.0 0.0267026137 -0.0407753121 0.1286257628 -0.7821745302 0.128975649 -0.7827763516 0.0285463571 -0.0389317266
670295980.0 0.0248695753 -0.0408379971 0.1204202782 -0.7841648055 0.1201635365 -0.783900302 0.0273679727 -0.039441073
675295950.0 0.0247910054 -0.0407767952 0.1115838294 -0.7850814892 0.1120713072 -0.7844773142 0.0264459905 -0.039441746
680295920.0 0.0236141841 -0.0413377911 0.1029452754 -0.7867749274 0.1026836811 -0.7869704323 0.026295318 -0.0387915993
685295890.0 0.0238672281 -0.0406552083 0.094572618 -0.787413194 0.0940086462 -0.7875458021 0.0256829822 -0.039232048
690295860.0 0.0233834066 -0.040858957 0.0862068782 -0.7881084726 0.0854686428 -0.7884882205 0.0248404919 -0.038862397
695295830.0 0.0225724238 -0.0414191887 0.0781408575 -0.7894038177 0.0768723003 -0.7888502896 0.0243640278 -0.0391588793
700295800.0 0.0221534969 -0.0418489575 0.0689435907 -0.7901423369 0.0679849337 -0.7893774333 0.0235557169 -0.0387259179
705295770.0 0.0211267846 -0.0408546606 0.0599855831 -0.7906904107 0.0603692011 -0.7908489504 0.0231679018 -0.0389780243
710295740.0 0.020933024 -0.0415215063 0.0520707388 -0.7917497028 0.0518077685 -0.7918315142 0.0228666287 -0.0395524016
715295710.0 0.0196029873 -0.0416644082 0.0437497271 -0.7923190402 0.0427291627 -0.7920959541 0.0222357631 -0.0395277952
720295680.0 0.0193845214 -0.04176451 0.0341244074 -0.7923376388 0.034876095 -0.7919315358 0.0214087372 -0.0386599672
725295650.0 0.0191585586 -0.0416745802 0.0257809478 -0.7924319397 0.0259248837 -0.7927293303 0.0201820725 -0.0391145011
730295620.0 0.01897237 -0.0411870584 0.0169535027 -0.7925638367 0.0170845842 -0.7929689896 0.0195770064 -0.0396210739
735295590.0 0.0178657296 -0.0414594833 0.0085079848 -0.7928582526 0.0084341516 -0.7927994846 0.0188430593 -0.0397469952
740295560.0 0.0169176279 -0.0416261782 -0.0001082754 -0.7927025104 -0.0003225515 -0.7929126884 0.0187430189 -0.0392301278
745295530.0 0.0167632747 -0.0414423069 -0.0091320948 -0.7919232315 -0.0087797346 -0.792846165 0.0180473118 -0.0398499415
750295500.0 0.0161478698 -0.0418522154 -0.0172423593 -0.7925021249 -0.0174475736 -0.7930456811 0.0171863858 -0.039939385
755295470.0 0.0155913598 -0.04217251 -0.0256011887 -0.7926338134 -0.0258912406 -0.7926122981 0.0170563548 -0.0404999131
760295440.0 0.0148979115 -0.0415846081 -0.0345563638 -0.792864161 -0.0348695036 -0.7927145658 0.0158613665 -0.040366904
765295410.0 0.0143158006 -0.0420575837 -0.0429460625 -0.7916263127 -0.0436551579 -0.7918386704 0.015531646 -0.0404916291
770295380.0 0.0133290851 -0.0423695844 -0.0523052619 -0.7910409562 -0.0520143694 -0.7908906285 0.0145985228 -0.040830367
775295350.0 0.0126050075 -0.0430092216 -0.0609620265 -0.7900881 -0.0601516332 -0.7902644405 0.0131276112 -0.0400729772
780295320.0 0.0125012292 -0.0423539891 -0.0692429836 -0.7891899626 -0.0682471928 -0.7896469699 0.0130737693 -0.0414155576
785295290.0 0.0113897079 -0.0430438115 -0.0778030851 -0.7884653059 -0.0774215218 -0.7887365998 0.0136856355 -0.0408695697
790295260.0 0.0112597456 -0.0419606781 -0.0856425522 -0.7880947495 -0.0851274699 -0.7877453905 0.012469263 -0.0410221806
795295230.0 0.0106102298 -0.0426746583 -0.0948609783 -0.7865667057 -0.094255792 -0.7864457952 0.0122541072 -0.0404086183
800295200.0 0.0094111197 -0.0420722337 -0.1036171809 -0.7858402038 -0.1032003879 -0.7858966092 0.0113736915 -0.0408589571
805295170.0 0.0090255467 -0.0425405332 -0.1118520478 -0.7844157134 -0.1120648996 -0.784866825 0.0108695045 -0.0410877148
810295140.0 0.007861796 -0.0430369913 -0.12013925 -0.7832016386 -0.1204388394 -0.7834690513 0.0109046314 -0.0406760536
815295110.0 0.0076581851 -0.0429795929 -0.1286144146 -0.7813784918 -0.1288175223 -0.7818096007 0.0097594081 -0.0406646641
820295080.0 0.0064970408 -0.0418843866 -0.1373493421 -0.7798683888 -0.1371756652 -0.7803428113 0.0091243492 -0.0406849756
825295050.0 0.0066115422 -0.0421537744 -0.1456345899 -0.7785036316 -0.1458610519 -0.7788371498 0.0091209525 -0.0406212044
830295020.0 0.0058190467 -0.0420964457 -0.1543426995 -0.776825507 -0.1545171899 -0.7760085058 0.0092591484 -0.0401715563
