!Created with skrf (http://scikit-rf.org).
# Hz S RI R 50.0 
!freq ReS11 ImS11 ReS21 ImS21 ReS12 ImS12 ReS22 ImS22
300000.0 -0.2409998563 -0.0718312092 0.4742924835 0.0476704934 0.4686658446 0.0464598662 -0.2442169258 -0.0841927138
5299970.0 -0.2445767474 0.0074019275 0.4739500473 0.0048016813 0.4737084727 0.0049630126 -0.2449463017 0.0074102891
10299940.0 -0.2411273707 0.0189610696 0.4753420186 0.0060765719 0.4755820191 0.0064527672 -0.2412640311 0.0202779041
15299910.0 -0.2370992047 0.0279787251 0.4794756694 0.0075499055 0.4795040639 0.0073768851 -0.2366650845 0.0294888739
20299880.0 -0.2322352704 0.0353087196 0.4837595386 0.0084156972 0.4840047368 0.0081926886 -0.2316055698 0.0373928404
25299850.0 -0.226870561 0.042037605 0.488963883 0.0076736283 0.4894449969 0.0071199007 -0.2252326296 0.0437954913
30299820.0 -0.2217602089 0.0472452585 0.494739605 0.0053741807 0.4945806699 0.0054107866 -0.2194555132 0.0490497656
35299790.0 -0.216404071 0.0514536997 0.500094484 0.0020566746 0.5001209311 0.0020778839 -0.2138783118 0.0529969905
40299760.0 -0.2116694598 0.0548977417 0.5053111153 -0.0019370495 0.5052267616 -0.0018006597 -0.208393259 0.0557565707
45299730.0 -0.2067086726 0.0574812604 0.5096878721 -0.0063963402 0.5100440714 -0.0062271529 -0.2035441549 0.0585653602
50299700.0 -0.2024359325 0.0596745335 0.5142644309 -0.0120194326 0.5141596698 -0.0116561599 -0.1985844029 0.0603337061
55299670.0 -0.198389066 0.061592548 0.5181432336 -0.0182052537 0.5179274252 -0.0176290319 -0.1944343778 0.062048379
60299640.0 -0.194442789 0.0634119929 0.5215045659 -0.0241042314 0.5215052597 -0.0240332788 -0.1904182867 0.0629864697
65299610.0 -0.1912185304 0.0646084524 0.5242359537 -0.0305920275 0.5243020903 -0.0305674857 -0.1871081273 0.0640879191
70299580.0 -0.1879013862 0.0659117433 0.5267121767 -0.0373464713 0.5267927915 -0.0367620824 -0.1836798582 0.064746561
75299550.0 -0.1853286727 0.067241244 0.528442129 -0.0437533007 0.5284163505 -0.0436322238 -0.1809183917 0.0651521674
80299520.0 -0.182650284 0.0678157177 0.5310062876 -0.0507757846 0.5305767407 -0.0510714071 -0.17850694 0.0660125075
85299490.0 -0.1800111167 0.0687721475 0.5318503448 -0.0576700264 0.5319698604 -0.0574699999 -0.1760258007 0.0659633278
90299460.0 -0.1779653987 0.0695779157 0.5325160926 -0.0646408702 0.5332858185 -0.0646737884 -0.1734341737 0.0668907064
95299430.0 -0.1754880036 0.0702315314 0.5338607085 -0.0711833536 0.5340503368 -0.0714602642 -0.1713593077 0.0674944485
100299400.0 -0.1739526537 0.0713108781 0.5337744791 -0.0779930264 0.5339533437 -0.0781654739 -0.169284025 0.0675704259
105299370.0 -0.1720270699 0.0722786067 0.5343514888 -0.0855635292 0.5348669165 -0.0858301149 -0.1677238807 0.0683395313
110299340.0 -0.1702798373 0.0731441094 0.5346325707 -0.092020452 0.5346458866 -0.0919117653 -0.1665961201 0.0687669563
115299310.0 -0.1692017545 0.0738937536 0.5348620381 -0.0992284239 0.5344107047 -0.0990398517 -0.1647430136 0.0691267419
120299280.0 -0.167571504 0.0745008109 0.5344463909 -0.1058177741 0.5347089792 -0.1057119163 -0.1636938023 0.0698796482
125299250.0 -0.1660998646 0.0755324416 0.5342236992 -0.1123002383 0.5342443162 -0.1125195528 -0.1625845346 0.069995312
130299220.0 -0.1652130128 0.0766106593 0.5333742025 -0.1193142183 0.5333323764 -0.1192576282 -0.1611715974 0.070827577
135299190.0 -0.1638198396 0.0780808113 0.5330680501 -0.1260253649 0.5328744335 -0.1260476818 -0.160241012 0.0713741835
140299160.0 -0.1626943457 0.0787188112 0.5319594817 -0.1324439307 0.5319972567 -0.1327598989 -0.1588710525 0.0723662926
145299130.0 -0.1616528111 0.0799140688 0.5313171748 -0.1395130699 0.5306810686 -0.1390946164 -0.1581237501 0.0731012337
150299100.0 -0.1602937691 0.0812273025 0.5299651236 -0.1452332047 0.5301057019 -0.1453577034 -0.1573338698 0.0742579915
155299070.0 -0.1596492175 0.082154283 0.5291311348 -0.1525494065 0.5287836926 -0.1526224739 -0.1562564774 0.0748900216
160299040.0 -0.1584548272 0.0834050198 0.5275586438 -0.1586845525 0.5275804312 -0.1589672964 -0.1561436864 0.0756834693
165299010.0 -0.1576546468 0.0847658937 0.5260582604 -0.1655750154 0.5261869903 -0.1654040441 -0.1545120052 0.0770039223
170298980.0 -0.1567314534 0.0857423633 0.5242221807 -0.1717019845 0.5247928496 -0.1715204273 -0.1541858197 0.0777821446
175298950.0 -0.1556737219 0.0873177642 0.5228551981 -0.1780807075 0.5226776833 -0.1780472928 -0.1533143343 0.0786800188
180298920.0 -0.1548141889 0.0883792404 0.5213607949 -0.1840617822 0.520953926 -0.183933873 -0.152725495 0.0797917629
185298890.0 -0.1533895794 0.0894628443 0.5192122819 -0.1902356306 0.5191683254 -0.1900857283 -0.1516859565 0.0809374409
190298860.0 -0.1528574754 0.0909916324 0.5175500757 -0.1966926937 0.5177243044 -0.1963903649 -0.1510225233 0.0816502635
195298830.0 -0.1520465235 0.0920692131 0.5155286626 -0.2025548717 0.5150825111 -0.2025104991 -0.1498232018 0.0827547578
200298800.0 -0.1509015433 0.09349384 0.5133326669 -0.2088671892 0.5137109253 -0.2089346405 -0.1498624035 0.0839876722
205298770.0 -0.149988418 0.0950907371 0.5107949049 -0.2151014863 0.5110482402 -0.2145780233 -0.1487738373 0.0846756997
210298740.0 -0.1489009928 0.0964100583 0.50863685 -0.2203116025 0.5088387263 -0.2206229898 -0.1478733544 0.086327543
215298710.0 -0.1484968794 0.0978616163 0.5065427773 -0.2268986217 0.5062478759 -0.2271514607 -0.1474470136 0.087464647
220298680.0 -0.1472634492 0.0988427118 0.5035391644 -0.2324260251 0.5039859582 -0.2326822536 -0.1468162076 0.0882748149
225298650.0 -0.1461363315 0.1002086035 0.5013682418 -0.2385918015 0.5019290127 -0.2386441114 -0.1464188448 0.0892484911
230298620.0 -0.1452078484 0.1020563877 0.4990229004 -0.2443114259 0.4992664968 -0.2441366899 -0.1451893772 0.0905149078
235298590.0 -0.1443341971 0.1040206685 0.4965340402 -0.2500502656 0.4966156841 -0.2494911748 -0.1444043657 0.091973894
240298560.0 -0.1431189222 0.1051038133 0.4938990027 -0.2563096896 0.4938638864 -0.2557158005 -0.1437896849 0.0933681018
245298530.0 -0.1422204864 0.1063699196 0.4914168516 -0.261590032 0.4911785895 -0.2616446147 -0.1428838384 0.0940396299
250298500.0 -0.1407536743 0.1078967214 0.4875049086 -0.2672932912 0.4878916516 -0.2667221448 -0.1423893846 0.0955907489
255298470.0 -0.1400159488 0.1090137117 0.4848149447 -0.27235243 0.4852410073 -0.2724117224 -0.141222372 0.096805915
260298440.0 -0.1393535327 0.1105211406 0.4821685948 -0.2783918595 0.4822805392 -0.2777343083 -0.1403341969 0.0981377387
265298410.0 -0.137521871 0.1125032815 0.4787785136 -0.2840281553 0.479697286 -0.2834749994 -0.1397739102 0.0994678415
270298380.0 -0.1365984098 0.1136843176 0.4762999291 -0.289016475 0.4761232334 -0.2890509458 -0.1386518591 0.100750811
275298350.0 -0.1354478698 0.115209068 0.4731167818 -0.2946535598 0.4732394614 -0.2944707883 -0.1376683586 0.1019669109
280298320.0 -0.1341736505 0.1169336619 0.4703687067 -0.3000643345 0.4698560159 -0.3000910348 -0.1365126822 0.1033512002
285298290.0 -0.1329694688 0.1183067775 0.4666250822 -0.305313202 0.4669823181 -0.3055373688 -0.1359550391 0.1044334866
290298260.0 -0.1315823707 0.11962355 0.4631283964 -0.3099825925 0.4634964856 -0.3104196238 -0.1348054316 0.1061681997
295298230.0 -0.1304650853 0.1208812824 0.4601416869 -0.3158645027 0.4598992274 -0.3157700076 -0.1333583752 0.1072491171
300298200.0 -0.1295926563 0.1224042462 0.4566856647 -0.3207885542 0.4570269159 -0.3214151335 -0.1328026164 0.1082635233
305298170.0 -0.1274769206 0.1236329891 0.4525472753 -0.3267840489 0.452815127 -0.3264681741 -0.1314594947 0.1094797196
310298140.0 -0.1267676121 0.1250852843 0.4496849226 -0.3314862202 0.4496783458 -0.331612019 -0.1307524719 0.1106440332
315298110.0 -0.1253727993 0.1263806618 0.4454644519 -0.3366171697 0.4456641289 -0.3369256553 -0.1298948722 0.1114092523
320298080.0 -0.1238384187 0.128044342 0.4416190399 -0.3424242385 0.4420485939 -0.3418044621 -0.1288480194 0.1131463756
325298050.0 -0.1224713868 0.1289377096 0.4378734231 -0.3471143859 0.4382859024 -0.3467348831 -0.1282311081 0.1146135398
330298020.0 -0.1216988276 0.1302100704 0.4341230279 -0.3518454261 0.4341809025 -0.351868156 -0.1274917671 0.1155716616
335297990.0 -0.1202837246 0.13127067 0.4302697303 -0.3564398638 0.4302456248 -0.3567230603 -0.1269880229 0.1171220025
340297960.0 -0.1192162399 0.1329722228 0.4256764899 -0.3614601179 0.4255289651 -0.3614155814 -0.125392946 0.1183739667
345297930.0 -0.118143577 0.1348249702 0.4216950291 -0.3660318574 0.4215012703 -0.3664255351 -0.1247135108 0.1192392444
350297900.0 -0.1166299257 0.1357755213 0.4171754648 -0.3710137957 0.4176595658 -0.3710213787 -0.1240241522 0.1208840943
355297870.0 -0.11515616 0.1378724016 0.4131885652 -0.3755448461 0.4140363531 -0.3751987152 -0.1227841657 0.1220756896
360297840.0 -0.1136486179 0.1388645858 0.4091894276 -0.3798974136 0.4099447756 -0.3797925244 -0.1218219583 0.1238128199
365297810.0 -0.1124700474 0.1404000945 0.4048643102 -0.3847588288 0.4053487059 -0.3847906756 -0.1204421111 0.1250748103
370297780.0 -0.1108137419 0.1415046812 0.4008000801 -0.3886883913 0.4014550005 -0.3885586339 -0.1193405638 0.1263975563
375297750.0 -0.10930568 0.1428387674 0.3968677671 -0.3933384874 0.3972932808 -0.3933838969 -0.1182075256 0.1271753896
380297720.0 -0.1077693839 0.1442696654 0.3919821091 -0.3978086685 0.392535292 -0.3973910987 -0.1174125691 0.1286378661
385297690.0 -0.1064763075 0.1454562131 0.3878360155 -0.4019499576 0.3878235116 -0.402021538 -0.1157932434 0.1297959483
390297660.0 -0.1050563622 0.1470751528 0.3835989042 -0.4063154945 0.3838012171 -0.4059806002 -0.1151449546 0.1312115949
395297630.0 -0.1030853956 0.1482960226 0.3786742479 -0.4101905151 0.3788953438 -0.4105936183 -0.1129338103 0.1324794502
400297600.0 -0.1018349885 0.149726637 0.3742300066 -0.4149516731 0.3744271003 -0.4145758036 -0.1123354461 0.1334997908
405297570.0 -0.1005227383 0.1506153929 0.3696243507 -0.4182957105 0.3700332348 -0.4182851308 -0.1112660277 0.1348885298
410297540.0 -0.0986598114 0.1519450309 0.3655559558 -0.4228002433 0.3657037326 -0.422615362 -0.1099203767 0.1364687809
415297510.0 -0.0966632908 0.1530715865 0.360191411 -0.4269078103 0.3605387095 -0.4267778501 -0.1085142385 0.1375461903
420297480.0 -0.0953895216 0.1544127046 0.3556941932 -0.4304077743 0.3560907881 -0.4308328784 -0.107633874 0.1383914437
425297450.0 -0.0937126465 0.1552282798 0.3513204505 -0.4342179288 0.3516194957 -0.4345854416 -0.1063394381 0.1398599231
430297420.0 -0.0919985317 0.1566073232 0.3465935612 -0.4374978792 0.3464072398 -0.4381955896 -0.1049384716 0.1407259265
435297390.0 -0.0901502138 0.1578612797 0.3415306638 -0.4416510792 0.3415532756 -0.4418020905 -0.1030975523 0.142032252
440297360.0 -0.0886651356 0.1590734689 0.3366582438 -0.4457849991 0.3368679439 -0.4455220564 -0.1021703535 0.1431118028
445297330.0 -0.0868279702 0.1595967632 0.3320838165 -0.4490887132 0.3321421034 -0.4487639098 -0.100556104 0.1437541512
450297300.0 -0.0847615318 0.160859922 0.3267631984 -0.4527508293 0.326970105 -0.4533289361 -0.0995813376 0.1450334043
455297270.0 -0.0832523354 0.1624591719 0.3216091897 -0.4561774186 0.322269045 -0.4564892204 -0.0979533376 0.1463956752
460297240.0 -0.0816720999 0.1632740531 0.3167637715 -0.4597630311 0.3171735395 -0.4596231548 -0.096490358 0.1475539045
465297210.0 -0.0795820831 0.1641743576 0.31207548 -0.4630897936 0.3117936327 -0.4633089899 -0.0950289677 0.1484083595
470297180.0 -0.0777059893 0.1650515619 0.30645164 -0.4665019146 0.3069709276 -0.4666595819 -0.0937517803 0.1496248657
475297150.0 -0.0762052712 0.1659626164 0.3015596193 -0.4690251222 0.3019724105 -0.4695747266 -0.0919700132 0.1502797247
480297120.0 -0.0741967472 0.1673431263 0.2963443176 -0.4734061957 0.2963254839 -0.473499769 -0.0903727924 0.1518428753
485297090.0 -0.0724854465 0.1683491149 0.2914945428 -0.4761560172 0.2914004263 -0.476060799 -0.0891057183 0.1525846199
490297060.0 -0.0707437837 0.1691293296 0.2860618135 -0.4797033368 0.2862145539 -0.479336456 -0.0877060148 0.1540689019
495297030.0 -0.068986511 0.1699730316 0.2804553964 -0.4824087905 0.2811918629 -0.482557348 -0.0867156213 0.1546629865
500297000.0 -0.0670010281 0.1709696796 0.2753866895 -0.4852335966 0.2751441287 -0.485149162 -0.0847958284 0.1562198309
505296970.0 -0.0647527396 0.1717322698 0.270088149 -0.4886133896 0.2702325063 -0.4887209631 -0.0834677635 0.1569313349
510296940.0 -0.0630963577 0.172593572 0.2650166491 -0.4911980726 0.2649435871 -0.4918591466 -0.0817719785 0.1577663589
515296910.0 -0.0612185511 0.1736045708 0.2592464079 -0.4943955882 0.2594458185 -0.4941750486 -0.0803380269 0.1586432542
520296880.0 -0.059378641 0.1745128538 0.2541350807 -0.4973474643 0.2541694269 -0.4967213104 -0.0789446656 0.1593915448
525296850.0 -0.0571494791 0.1749402894 0.2485694406 -0.4995017789 0.2490445569 -0.4995251444 -0.0774478471 0.1604913242
530296820.0 -0.0552382478 0.1758725791 0.2431791012 -0.5025156749 0.2432705199 -0.5023569821 -0.0758074783 0.1612897047
535296790.0 -0.0538692268 0.176512754 0.2379122617 -0.5049274287 0.2380954813 -0.5042508641 -0.0745161842 0.1617419058
540296760.0 -0.051799835 0.1776574062 0.232486506 -0.5079019047 0.232261387 -0.5076270934 -0.0732913782 0.1633182246
545296730.0 -0.0498405808 0.1781064112 0.2264883354 -0.5097316304 0.2265079368 -0.5099165921 -0.0715093812 0.163663729
550296700.0 -0.0474408718 0.1789367429 0.2208919185 -0.512563926 0.2210861283 -0.5124123011 -0.0698071095 0.1650606573
555296670.0 -0.0456742842 0.179227142 0.2157060937 -0.5151226475 0.2157287453 -0.5146961073 -0.0682387213 0.1656703853
560296640.0 -0.0435705918 0.1801317613 0.2101002218 -0.5171693807 0.2099757415 -0.5169673233 -0.0662426886 0.1662506985
565296610.0 -0.0420552034 0.1808636791 0.2038262738 -0.5191595607 0.204409591 -0.5192575512 -0.0650015321 0.1671233609
570296580.0 -0.0400775833 0.181635209 0.1987173813 -0.521652075 0.1985416624 -0.5213290534 -0.063691128 0.1684223547
575296550.0 -0.0381544248 0.1822652875 0.1927585905 -0.5240500592 0.192997171 -0.5235349313 -0.0618639463 0.1684688728
580296520.0 -0.0357927378 0.182537782 0.187139901 -0.5256911726 0.1872696734 -0.5259603804 -0.0602449793 0.1695747822
585296490.0 -0.0341964433 0.1825562774 0.1817360067 -0.526989539 0.1816236499 -0.5277469628 -0.0584893849 0.170315078
590296460.0 -0.0316281258 0.1834515595 0.1759496436 -0.5292916552 0.1761310732 -0.5295738678 -0.0575816649 0.1708829337
595296430.0 -0.0295603585 0.1840553899 0.1697538516 -0.5316339945 0.1699536218 -0.5312439784 -0.0553000328 0.1712721122
600296400.0 -0.0280778029 0.1844175702 0.1645318226 -0.533020793 0.164498758 -0.5328305939 -0.0538297161 0.1720197652
605296370.0 -0.0260926094 0.1846963181 0.1586912207 -0.5347402035 0.1589422744 -0.5348483896 -0.051749898 0.1729140004
610296340.0 -0.0238934954 0.1852597865 0.1525034388 -0.5362974451 0.1527464064 -0.5364258933 -0.0500412364 0.1735851939
615296310.0 -0.0215880155 0.1856114452 0.1466640937 -0.537860293 0.1468321404 -0.5381130434 -0.0481086627 0.1742397243
620296280.0 -0.0196043966 0.1856591213 0.1406223199 -0.5390470434 0.1409897729 -0.5392425874 -0.046921831 0.1748530491
625296250.0 -0.0176799373 0.186032851 0.1354023182 -0.5414368413 0.1353461832 -0.5415233886 -0.0446975784 0.1755682826
630296220.0 -0.0148430823 0.1867600375 0.1289451081 -0.5423188333 0.1290697763 -0.5424873291 -0.0433276181 0.1761625318
635296190.0 -0.0139847236 0.187008178 0.1236599834 -0.5436101088 0.1236989534 -0.5435842824 -0.0417115618 0.1767502145
640296160.0 -0.0118956621 0.1871367811 0.1175805681 -0.5446580518 0.1179212451 -0.5450294168 -0.0397777682 0.177280458
645296130.0 -0.0095403025 0.1877386949 0.111567607 -0.5459448638 0.1120888302 -0.5460244768 -0.0380513402 0.1778685748
650296100.0 -0.0072704489 0.1878486713 0.1056543363 -0.5468146332 0.105700752 -0.5471364596 -0.0363154966 0.1778719942
655296070.0 -0.0054475967 0.1881208917 0.0998735442 -0.5485490416 0.1001599214 -0.5486686108 -0.0345651663 0.1789961184
660296040.0 -0.0035770878 0.1878616599 0.0941412581 -0.5492561755 0.0940980706 -0.5495348124 -0.0325552887 0.1791840341
665296010.0 -0.0008802022 0.1878328763 0.0873266467 -0.5500451791 0.0879871933 -0.5501890035 -0.0308569891 0.1799811995
670295980.0 0.0001462803 0.1885641913 0.0818824441 -0.5509297059 0.0818504016 -0.5516647476 -0.029265257 0.1804327093
675295950.0 0.002726748 0.1886980866 0.0758738205 -0.5520108898 0.0761951692 -0.5514650319 -0.0280414434 0.180679171
680295920.0 0.0043624127 0.1885709102 0.0700535168 -0.552487515 0.069573071 -0.5530307561 -0.026116763 0.1816438273
685295890.0 0.0068966483 0.1892301442 0.0641498396 -0.5534820023 0.0639480367 -0.5533764631 -0.024389389 0.1817633749
690295860.0 0.0092276931 0.1890520739 0.0576554059 -0.5533620288 0.0583530707 -0.55422835 -0.0224308199 0.182680275
695295830.0 0.0114121417 0.1891094656 0.0525937358 -0.5546596846 0.0520675644 -0.5543968701 -0.0209825071 0.1827166705
700295800.0 0.013355321 0.188697228 0.0460797558 -0.5549600705 0.0460752875 -0.554992851 -0.0192885466 0.1833254197
705295770.0 0.015103052 0.1892139057 0.0399466456 -0.5552985535 0.0403086982 -0.5558727168 -0.0175520127 0.1834703096
710295740.0 0.0173787737 0.1889771526 0.0339783502 -0.5560015502 0.0344062293 -0.5562795925 -0.0154623624 0.1834544878
715295710.0 0.0189199241 0.1888283564 0.0285420407 -0.5560687299 0.0277388808 -0.5560341794 -0.0135582104 0.1836473885
720295680.0 0.0213136357 0.1887976255 0.0222149975 -0.5567640041 0.0224892069 -0.5565457254 -0.0117659893 0.184411943
725295650.0 0.0237782317 0.188567298 0.0159822691 -0.5566563868 0.016370721 -0.5570642421 -0.0104602154 0.1846829561
730295620.0 0.0257893355 0.1889141098 0.009606092 -0.5564907636 0.0105550153 -0.556766845 -0.0087848759 0.1846163791
735295590.0 0.0276374678 0.1887407761 0.0041317094 -0.5571075965 0.0038113554 -0.5568324254 -0.0066175747 0.1848867912
740295560.0 0.029790801 0.1884805096 -0.0020211736 -0.5566183511 -0.0015109848 -0.5569325542 -0.0043363565 0.1851172708
745295530.0 0.0315591696 0.18839977 -0.0079280797 -0.5561692795 -0.0079412852 -0.5569130428 -0.0029124307 0.1850470022
750295500.0 0.0343317971 0.1881309609 -0.0140398449 -0.556452229 -0.0136741866 -0.556662313 -0.0010826898 0.1855256646
755295470.0 0.0360108691 0.1875790261 -0.0197014615 -0.5564665572 -0.019748956 -0.5568693707 0.0009010373 0.18556527
760295440.0 0.0378356263 0.1872658921 -0.0256944226 -0.5560310606 -0.0254407081 -0.5567385967 0.0023647053 0.1855327288
765295410.0 0.0399212667 0.187084257 -0.0319086201 -0.5557814215 -0.0320813586 -0.5561534767 0.0045773549 0.1861476213
770295380.0 0.041995307 0.1869871623 -0.0382931942 -0.5553472282 -0.0379965533 -0.5551168661 0.006170468 0.1860027134
775295350.0 0.0437076137 0.1861761512 -0.0437493976 -0.5544430449 -0.043498647 -0.5547938737 0.007628092 0.1861530356
780295320.0 0.0461734327 0.1861243984 -0.0499100083 -0.5540559206 -0.0493744454 -0.5542151263 0.0098617055 0.1858933892
785295290.0 0.0479630368 0.1854725439 -0.0558764671 -0.5529691408 -0.0556756199 -0.5538240883 0.0120719153 0.1862595408
790295260.0 0.0506244637 0.1855398257 -0.0611559433 -0.5529997245 -0.0607088597 -0.5525777683 0.0135069848 0.1863189606
795295230.0 0.0524767491 0.1846252351 -0.0679390733 -0.5519343893 -0.0674934943 -0.5523879738 0.0156534084 0.1866113808
800295200.0 0.0538223725 0.1845674304 -0.0737897033 -0.5513796751 -0.0735283866 -0.5516141641 0.0173235427 0.1863235334
805295170.0 0.0563023491 0.1839441338 -0.0796035069 -0.5503826641 -0.0795706356 -0.5506132178 0.0189722505 0.1862870265
810295140.0 0.0582354814 0.1830851856 -0.0854886087 -0.5495050874 -0.0852558673 -0.5496907327 0.0213041916 0.1863231945
815295110.0 0.0602600551 0.1827931337 -0.0912751848 -0.5483554483 -0.0911947193 -0.5485689355 0.0228247522 0.1864667702
820295080.0 0.0621020446 0.1825378422 -0.0971498626 -0.5469979651 -0.0967916375 -0.5473529257 0.0244469262 0.1866726354
825295050.0 0.0648964854 0.1818354938 -0.1027109143 -0.5459176365 -0.1028484546 -0.5466167992 0.0262582671 0.1863245785
830295020.0 0.0663391243 0.1813566698 -0.1091281228 -0.5449698812 -0.1088519536 -0.5452042714 0.0288501007 0.1862403128
