!Created with skrf (http://scikit-rf.org).
# Hz S RI R 50.0 
!freq ReS11 ImS11 ReS21 ImS21 ReS12 ImS12 ReS22 ImS22
300000.0 0.8606957941 -0.0023023212 -0.0003818947 0.0004225075 -0.0010896237 0.0003367598 -0.772482625 -0.1673044773
5299970.0 0.8596634599 -0.0101083683 -7.69502e-05 0.0001506422 -2.8336e-05 -7.55673e-05 -0.7847513422 -0.0084321555
10299940.0 0.8588826764 -0.0188878554 -7.1493e-06 -7.523e-06 6.87167e-05 -0.0001609386 -0.7884883776 -0.0051552516
15299910.0 0.857817025 -0.027375949 -0.0001765261 -0.0002985474 -9.80746e-05 -0.0001457757 -0.7940903128 -0.0030554913
20299880.0 0.8570842381 -0.0358523583 -7.41184e-05 5.03012e-05 -8.73039e-05 -5.69088e-05 -0.8002281428 0.0016901566
25299850.0 0.8568120907 -0.0438403506 -6.23157e-05 0.0001931198 0.0001401597 -1.02093e-05 -0.806795325 0.0074008503
30299820.0 0.8560574237 -0.0522808144 0.0002658952 -5.85934e-05 -1.401e-07 -5.8461e-06 -0.8129487499 0.0149793577
35299790.0 0.8555822949 -0.0603689242 2.09573e-05 7.33674e-05 -1.78019e-05 -0.0001203536 -0.8179608844 0.0237969382
40299760.0 0.8541549883 -0.0679458324 3.9391e-05 8.83328e-05 -0.0003299163 7.52267e-05 -0.8216759979 0.0330236714
45299730.0 0.8537474013 -0.0762621516 -0.000118423 0.0001043064 4.67054e-05 1.187e-05 -0.825332776 0.042532071
50299700.0 0.8521929612 -0.0852092029 -8.99595e-05 3.11657e-05 -2.6786e-05 -8.80309e-05 -0.8279424474 0.0524426969
55299670.0 0.8516503167 -0.0932604384 -0.0001397113 9.1861e-05 -5.51848e-05 0.0001491315 -0.8297689876 0.0627093153
60299640.0 0.8503862956 -0.1013086677 7.34511e-05 0.0001048919 1.93681e-05 -0.0001146926 -0.831004977 0.0731904612
65299610.0 0.8498498531 -0.1095602358 9.4896e-05 -8.7215e-06 8.549e-07 9.26059e-05 -0.831217416 0.0829994431
70299580.0 0.8490521999 -0.1180345464 -9.57998e-05 1.37535e-05 7.0528e-06 0.0001154508 -0.8323344932 0.0928008431
75299550.0 0.8477250847 -0.1266311334 3.54759e-05 8.2226e-05 -4.0587e-06 -0.0001105193 -0.8326330239 0.1024691288
80299520.0 0.8457670273 -0.1343625602 6.87443e-05 -0.0001365919 -0.0001041783 4.94749e-05 -0.8319316072 0.112448953
85299490.0 0.8449803217 -0.1431048477 -4.39182e-05 9.15907e-05 1.09093e-05 4.40691e-05 -0.8315071301 0.1217705547
90299460.0 0.8430082036 -0.1505608921 0.000121619 -0.0001042021 1.79079e-05 -6.5127e-06 -0.830613816 0.1312000251
95299430.0 0.841810321 -0.1593223201 1.03927e-05 0.0001334132 9.69398e-05 -7.82599e-05 -0.8294616773 0.1413688434
100299400.0 0.8396341364 -0.1669047701 4.81283e-05 -1.75115e-05 3.0027e-05 -1.74723e-05 -0.8291428232 0.1495010516
105299370.0 0.8382157082 -0.1751975897 9.02732e-05 -4.82623e-05 2.40885e-05 -7.15336e-05 -0.8270064789 0.1585641591
110299340.0 0.8360651002 -0.1832600529 5.02014e-05 -0.0001233003 0.0001271317 0.0001159255 -0.8269573466 0.1685431143
115299310.0 0.8344620027 -0.1924223773 -4.02802e-05 -6.0031e-06 7.9089e-05 7.19601e-05 -0.8245057532 0.1771357272
120299280.0 0.8324480623 -0.1992020446 4.42468e-05 0.0002644235 0.0001129507 -0.0002048955 -0.8232679831 0.1862190676
125299250.0 0.8306045625 -0.2078072667 -0.0001735751 -9.42805e-05 9.46143e-05 5.32929e-05 -0.8221202995 0.1955162164
130299220.0 0.8289755481 -0.2157803444 0.0001592047 2.13773e-05 5.80524e-05 -0.0001285295 -0.8201278863 0.2039895293
135299190.0 0.8263674972 -0.2234649383 6.483e-05 -5.04791e-05 -0.0001336941 0.0001140669 -0.8184467757 0.21253933
140299160.0 0.824723355 -0.2316541918 -0.0001056061 -0.0001046101 3.05755e-05 -0.0001909799 -0.8157632604 0.2216433768
145299130.0 0.8216532675 -0.2396127621 -0.0002131517 2.65148e-05 -6.42966e-05 -0.0001768368 -0.8137466453 0.2301209401
150299100.0 0.8196896178 -0.2475927321 0.0001369187 0.0002313547 -0.0001838425 -8.88271e-05 -0.8115926069 0.2385001881
155299070.0 0.8164845455 -0.2558007755 -7.80887e-05 -9.08404e-05 -6.31467e-05 -2.87001e-05 -0.8091164615 0.2475856921
160299040.0 0.8140000604 -0.2637989539 -0.0001673878 -5.35946e-05 9.67391e-05 0.0001740603 -0.8072307854 0.2567681569
165299010.0 0.8117466716 -0.2715121486 3.50519e-05 0.0002363598 -6.26732e-05 -5.10041e-05 -0.8044964425 0.2649228948
170298980.0 0.8090958765 -0.2792478008 5.51994e-05 -1.32404e-05 -5.1815e-06 0.0001066305 -0.8017337211 0.2731254284
175298950.0 0.8064486454 -0.2869096675 -2.99293e-05 0.0001507709 0.0001621905 0.0002567543 -0.799103716 0.2821969782
180298920.0 0.8028537255 -0.2948163096 6.67987e-05 -0.0001410032 -0.0001332838 2.04782e-05 -0.7955982558 0.2906103268
185298890.0 0.8006094203 -0.3027902173 4.20383e-05 9.86512e-05 0.0001478325 -3.17199e-05 -0.7931372453 0.2985282603
190298860.0 0.797741308 -0.3110698339 -0.0001613011 0.0002065166 -1.09148e-05 -1.6609e-05 -0.7896377237 0.3074700316
195298830.0 0.7943945055 -0.318190634 0.0001313071 -0.0001155009 -4.16006e-05 0.0001135371 -0.7868299595 0.3160034164
200298800.0 0.7909267033 -0.3268198372 -0.000150298 -3.69793e-05 0.0002345423 -0.0002011434 -0.7831307533 0.3242661187
205298770.0 0.7883297862 -0.3339662783 6.64565e-05 4.15427e-05 0.0002061905 0.000137103 -0.7797014399 0.3321833673
210298740.0 0.7846314096 -0.3414394122 -0.0001224628 4.12136e-05 -0.0001411359 9.62268e-05 -0.776687263 0.3402397839
215298710.0 0.7812911741 -0.3489945155 0.0001081344 1.78336e-05 3.83115e-05 0.0001184857 -0.7731170709 0.3485136866
220298680.0 0.7783367613 -0.3565755009 4.21114e-05 -5.15676e-05 -4.02319e-05 -2.29581e-05 -0.7696149802 0.3567624421
225298650.0 0.7740663824 -0.3637874038 -1.71371e-05 -0.0001124104 -0.0001510031 -5.37935e-05 -0.7659650543 0.3646283828
230298620.0 0.7706915882 -0.3715353539 0.0002723735 -5.48792e-05 0.0001683357 0.0002417659 -0.7614870205 0.3730539349
235298590.0 0.767208163 -0.378602737 0.0001138865 -0.000356865 4.81473e-05 0.0001984331 -0.7582075018 0.3808990458
240298560.0 0.7635143626 -0.3877399859 1.63355e-05 -5.43277e-05 6.287e-06 0.0001251279 -0.7539301022 0.3887609851
245298530.0 0.759936164 -0.3933917931 3.90224e-05 -0.0001485507 9.67806e-05 0.0001456998 -0.7499725458 0.3965586393
250298500.0 0.7558683149 -0.4013230636 -0.000202371 -0.0001400022 -0.0002257948 0.0001968079 -0.7459913592 0.4045778826
255298470.0 0.7517854591 -0.4080291051 -0.0001379585 -6.6367e-05 3.951e-05 7.32945e-05 -0.7416512237 0.4125383081
260298440.0 0.7477491355 -0.4153462282 3.0264e-05 -0.0001181 4.8509e-06 0.0001014808 -0.7365228529 0.4202588268
265298410.0 0.7437547647 -0.4231528899 0.0002295409 -0.0001312664 -5.16351e-05 0.0001328049 -0.7325294056 0.4279237397
270298380.0 0.7397915569 -0.4296150218 -0.0001370233 9.5538e-06 4.4606e-06 0.0001043113 -0.727421867 0.435496575
275298350.0 0.7357448318 -0.4370925423 0.0001751015 -0.0001517557 6.84428e-05 -0.0001068462 -0.7228221389 0.4433452871
280298320.0 0.7318831778 -0.4442983054 8.04379e-05 -0.0001557037 -7.08831e-05 3.71463e-05 -0.7186674734 0.450151832
285298290.0 0.7270918211 -0.4513110423 -6.50426e-05 -0.0002114801 -0.0001036951 -3.193e-07 -0.7135481197 0.4581992007
290298260.0 0.7232972187 -0.4583341022 0.0001350293 -5.39862e-05 -3.11166e-05 -9.36337e-05 -0.7089730478 0.4659004831
295298230.0 0.7189394695 -0.4661008509 8.6684e-05 0.0001088503 -5.22282e-05 5.1792e-06 -0.7042813457 0.4727097163
300298200.0 0.7150050821 -0.4737266581 -1.76164e-05 -0.0002436078 -5.60691e-05 5.392e-07 -0.6987513142 0.4801884159
305298170.0 0.7105916594 -0.4799930531 3.65503e-05 5.31542e-05 3.83922e-05 -7.04512e-05 -0.6927225 0.4876706872
310298140.0 0.7062735871 -0.4877601094 -0.0001030953 0.0001416394 5.43597e-05 -0.000228224 -0.6890184665 0.4951986732
315298110.0 0.7002521245 -0.4954380718 -0.0002175541 5.75075e-05 0.000143941 5.1547e-05 -0.6830657408 0.5014863654
320298080.0 0.6946753428 -0.5024254736 0.0001030069 1.8578e-06 -2.04814e-05 -6.4444e-05 -0.6780624751 0.5095970353
325298050.0 0.6897203702 -0.5103566852 0.0001405582 -9.43468e-05 -4.47768e-05 2.67708e-05 -0.6720083422 0.5163082536
330298020.0 0.6839513761 -0.5163932885 -0.0001662301 1.92434e-05 0.0001215547 -1.02856e-05 -0.6670157868 0.5233021574
335297990.0 0.6777767948 -0.5224405007 0.0001158322 2.27189e-05 -9.20992e-05 -6.47254e-05 -0.6614745323 0.5305850686
340297960.0 0.6722133149 -0.5292806298 1.17603e-05 -0.000145479 0.0002010631 0.0001674158 -0.6555329843 0.5370172862
345297930.0 0.6670765543 -0.535856677 1.94516e-05 -9.89243e-05 -0.0001879522 -0.0001008043 -0.6497081927 0.5441229675
350297900.0 0.6614145425 -0.5422569353 -0.000129385 -2.38283e-05 -1.37966e-05 -0.0001257289 -0.6439557464 0.5510634977
355297870.0 0.6558140504 -0.5480576416 -4.90161e-05 3.81369e-05 5.40898e-05 -9.69881e-05 -0.6385126659 0.5574276927
360297840.0 0.6508594878 -0.5546536453 -0.0001487255 3.52632e-05 -0.0001570109 0.0001810952 -0.6322706624 0.563659272
365297810.0 0.6453900718 -0.5605417038 -2.6457e-06 0.0001895028 -3.50054e-05 3.7921e-05 -0.6260835851 0.5705580875
370297780.0 0.6399527738 -0.5665029856 -4.11006e-05 -0.0001673054 -0.0001217757 0.0003418661 -0.6203993916 0.5764421569
375297750.0 0.6338786929 -0.5722266993 8.29247e-05 -0.0001543063 -3.43287e-05 0.000159461 -0.6142769809 0.5834026136
380297720.0 0.6290433657 -0.5783387815 0.000187921 6.21496e-05 2.86846e-05 -9.53469e-05 -0.6078045929 0.5904173928
385297690.0 0.6225728827 -0.5842821163 -0.0001279593 0.0001778527 1.13223e-05 -0.000170005 -0.6017210036 0.595633965
390297660.0 0.6170494724 -0.5905674749 -4.46299e-05 -0.0001568971 -3.4603e-05 7.8624e-06 -0.5959963875 0.6017210791
395297630.0 0.6114955371 -0.5964123618 5.18975e-05 0.0001892842 -5.8619e-06 -8.16979e-05 -0.588880859 0.6080276479
400297600.0 0.604887342 -0.6018332858 8.31809e-05 0.000115142 0.0001043969 -0.0002220615 -0.5834116328 0.6144927875
405297570.0 0.5993835926 -0.6076486251 -1.91352e-05 7.8662e-05 -0.0001273491 0.0001834717 -0.5766187279 0.6199948322
410297540.0 0.5927559011 -0.6134837006 -3.48594e-05 -3.76775e-05 -0.0001556068 -8.80898e-05 -0.5699130684 0.6255776158
415297510.0 0.5873869782 -0.6193893535 -3.83188e-05 -0.0002162725 3.96315e-05 -4.52268e-05 -0.563459683 0.6322110325
420297480.0 0.5806490349 -0.6247939517 0.0001637927 0.0001527476 2.96696e-05 1.04013e-05 -0.5565670854 0.6369698449
425297450.0 0.5749894228 -0.6305426354 -7.07833e-05 2.6763e-05 -1.48765e-05 -4.84203e-05 -0.5501950201 0.6431056671
430297420.0 0.5683275442 -0.6359160475 8.57283e-05 -0.000171739 -6.88677e-05 -6.33931e-05 -0.5438348433 0.6491000174
435297390.0 0.5625073896 -0.6416706909 9.32813e-05 1.57747e-05 7.45824e-05 0.0001115591 -0.5369526212 0.6539661555
440297360.0 0.5560382663 -0.6475337079 -0.0001194008 0.0001008112 -4.70127e-05 -2.67591e-05 -0.5302559847 0.6587547654
445297330.0 0.5495432192 -0.6516980161 -0.000277637 0.0002337588 2.47166e-05 -5.9924e-05 -0.5235012609 0.6640174404
450297300.0 0.5434871795 -0.6576526952 -0.0002291759 -7.49603e-05 5.2032e-06 -0.0001023436 -0.5167759286 0.6696051947
455297270.0 0.5365011798 -0.6626980316 0.0003293983 -0.0001230381 0.0001072163 -1.21205e-05 -0.5096758786 0.674573522
460297240.0 0.5300936715 -0.6671368033 -1.40993e-05 9.84863e-05 -0.0001634295 3.19974e-05 -0.5029470537 0.6805575241
465297210.0 0.5234353604 -0.6726967001 3.2962e-06 9.8465e-05 4.82447e-05 6.5009e-05 -0.4961177143 0.684828943
470297180.0 0.5163805879 -0.67819707 0.0002217729 -0.0001336761 2.20543e-05 0.0001733187 -0.4895738218 0.6897180704
475297150.0 0.5101498212 -0.6831709767 -0.0001298996 -0.0001385928 -0.0002008597 6.445e-06 -0.4817376624 0.6943366689
480297120.0 0.5031906294 -0.6879601932 -4.63228e-05 -3.72031e-05 -1.54091e-05 3.08762e-05 -0.4751537192 0.7001020806
485297090.0 0.4966144383 -0.6925838768 0.0001358831 -7.23696e-05 -0.0001514424 0.0002793155 -0.468067086 0.7039359564
490297060.0 0.489738908 -0.6968795171 -9.95145e-05 -6.74427e-05 -2.6999e-05 -0.0001726895 -0.4612190195 0.7088696207
495297030.0 0.482567433 -0.7024748728 8.40621e-05 -0.0001071227 -8.6561e-05 -0.0001183799 -0.45311924 0.7130732525
500297000.0 0.476073405 -0.7066503796 -5.05686e-05 -0.0002051622 8.86598e-05 5.25262e-05 -0.4466254311 0.7179105482
505296970.0 0.468550609 -0.7113529931 -8.01231e-05 3.18797e-05 0.0001503343 -7.50787e-05 -0.4399904818 0.7220740838
510296940.0 0.4617277987 -0.7151914752 -0.0002239601 -9.24446e-05 -0.0003142591 6.88469e-05 -0.4316407377 0.7265283606
515296910.0 0.4542580704 -0.7205158682 -4.1246e-05 -0.0001411893 -5.42819e-05 -0.0001135617 -0.424673209 0.7305499443
520296880.0 0.447418029 -0.7247293016 0.000170474 -8.0689e-06 -5.65033e-05 -9.17247e-05 -0.4174445117 0.7345585486
525296850.0 0.4403642707 -0.7284093087 -0.0002243583 -0.000101088 0.000113145 -9.58975e-05 -0.4095088181 0.7394498054
530296820.0 0.4325396075 -0.7329939246 -3.74457e-05 7.18147e-05 0.0001741096 -7.4708e-05 -0.4026333319 0.7435462403
535296790.0 0.4259222689 -0.7365709184 0.0002388326 9.21934e-05 -0.0001461363 -0.0001081692 -0.3953481698 0.7461825609
540296760.0 0.4189267909 -0.7409082476 -9.38416e-05 8.69581e-05 -3.54597e-05 -0.0001033465 -0.3876502991 0.7508423323
545296730.0 0.4111275377 -0.744691009 -9.227e-05 0.0001240421 2.53818e-05 -0.0001634844 -0.3807714789 0.7539794576
550296700.0 0.4036960342 -0.7488232833 6.44745e-05 5.49814e-05 2.62515e-05 7.0055e-05 -0.3728701659 0.7584030192
555296670.0 0.3965020747 -0.753189643 -0.0001032314 -0.0002343103 -3.96634e-05 -1.5399e-06 -0.3652842079 0.7619341847
560296640.0 0.3895282836 -0.7565518461 -0.0001321519 -3.2274e-05 -6.03125e-05 -0.0001247797 -0.3570819583 0.7658950725
565296610.0 0.3814460776 -0.7606102246 0.00018152 -2.86104e-05 2.0253e-06 3.35572e-05 -0.3502258218 0.7691300066
570296580.0 0.374441182 -0.7645029282 6.24e-07 -1.85091e-05 -2.6667e-05 -0.0001171555 -0.3426804548 0.7727122346
575296550.0 0.3665974172 -0.7668351073 -4.25481e-05 0.0001159235 8.07641e-05 -3.90547e-05 -0.3349232985 0.7756190913
580296520.0 0.3595556433 -0.7703641119 -4.09267e-05 -0.0004384879 -0.0001743065 -5.95559e-05 -0.3270302058 0.779049946
585296490.0 0.3509884115 -0.7742872776 2.75685e-05 -8.7134e-05 -0.0001194817 -5.70252e-05 -0.3199209714 0.781846921
590296460.0 0.3429340469 -0.7776275733 4.43213e-05 7.82173e-05 -4.8203e-06 0.0001065426 -0.3116404718 0.7847680302
595296430.0 0.3358678531 -0.7804389953 1.4169e-05 -8.92207e-05 3.67107e-05 -8.12434e-05 -0.3034628348 0.7879670933
600296400.0 0.3280477013 -0.7839858413 -8.70858e-05 -5.03813e-05 7.5874e-06 3.39646e-05 -0.2953654828 0.7911838768
605296370.0 0.3208843024 -0.7868267091 0.0001038456 -0.00010071 9.60236e-05 -4.05116e-05 -0.2880474986 0.7945048149
610296340.0 0.312929582 -0.7900351833 2.57193e-05 -8.53969e-05 3.3965e-05 -6.61398e-05 -0.2799817348 0.7970416151
615296310.0 0.3047264553 -0.7926189516 3.56861e-05 -4.8267e-06 3.3957e-06 0.0001594902 -0.2725483302 0.7992546203
620296280.0 0.2966554198 -0.7958436808 1.92679e-05 0.0001505118 6.05859e-05 -1.10399e-05 -0.2641574839 0.8017968091
625296250.0 0.2893487099 -0.7983742816 -0.0001250596 -9.89241e-05 -4.46537e-05 6.59326e-05 -0.2567828726 0.8045075417
630296220.0 0.281226593 -0.8015147908 -6.37537e-05 -8.85854e-05 6.52747e-05 7.02714e-05 -0.2483377352 0.8075682646
635296190.0 0.2735744835 -0.8047840394 -6.76995e-05 0.0002280844 6.73585e-05 3.11448e-05 -0.2407197609 0.8099286374
640296160.0 0.2655461067 -0.8060926145 -0.0001346719 4.01594e-05 4.17774e-05 -0.0001250996 -0.2323007856 0.811402358
645296130.0 0.2571869391 -0.808785403 -9.86645e-05 -0.0001080814 7.08284e-05 -0.0001190512 -0.2246247021 0.8138410322
650296100.0 0.2490704025 -0.81079661 6.28762e-05 -8.1746e-06 3.5818e-05 8.19716e-05 -0.2163250157 0.8165323911
655296070.0 0.2412894884 -0.81372466 -0.0001030362 -0.0001114068 -0.0001639579 4.44013e-05 -0.2083079492 0.8179776678
660296040.0 0.2328884646 -0.8155925959 5.40259e-05 0.0002421506 7.31955e-05 0.000248013 -0.2001548703 0.8199469716
665296010.0 0.2252497207 -0.8179472231 6.66407e-05 0.0001905621 0.0001282752 0.0001609137 -0.1926173535 0.8220642542
670295980.0 0.2177460358 -0.8199841383 4.74858e-05 2.85064e-05 -6.91905e-05 -0.0001277332 -0.1847157344 0.8242164696
675295950.0 0.2093159212 -0.8215110437 0.0001359333 -6.31137e-05 -0.0001131316 0.0001269294 -0.1760989855 0.8259760613
680295920.0 0.2007492508 -0.8233910628 0.0001285348 -9.93678e-05 -6.71598e-05 6.59794e-05 -0.1677007406 0.8279711654
685295890.0 0.1926045429 -0.8251817755 -7.46666e-05 7.53502e-05 2.95337e-05 -8.80651e-05 -0.1597050266 0.8292958353
690295860.0 0.1852138505 -0.8273354414 8.33861e-05 -8.08402e-05 0.0001031468 2.627e-07 -0.1511579522 0.8306661121
695295830.0 0.1759988826 -0.8288693514 -1.41742e-05 3.3514e-05 3.09875e-05 -9.8374e-06 -0.142922615 0.8322146934
700295800.0 0.1687897198 -0.8299853635 -3.16108e-05 -0.00012762 0.000126575 -8.28448e-05 -0.134481035 0.8333970593
705295770.0 0.1602691741 -0.8323965816 3.23011e-05 -8.5627e-06 -1.8278e-05 1.79713e-05 -0.1273638347 0.8352551559
710295740.0 0.1525041062 -0.8329872387 -8.29307e-05 2.70084e-05 6.06979e-05 6.50627e-05 -0.1191110244 0.8363428837
715295710.0 0.1436052616 -0.8343609136 -0.000103764 2.59194e-05 6.3399e-06 3.2653e-05 -0.1103021897 0.8374123599
720295680.0 0.1355442283 -0.836565493 3.6405e-06 0.0002238877 7.24848e-05 5.50663e-05 -0.1021792 0.8384986413
725295650.0 0.1273883999 -0.8369856689 2.20906e-05 -3.75743e-05 5.7302e-06 -1.59285e-05 -0.0937640426 0.8393796208
730295620.0 0.1188283329 -0.838737868 0.000164217 -9.02411e-05 0.000144058 8.90817e-05 -0.0853974058 0.8397157203
735295590.0 0.1109891033 -0.8390266024 0.000102246 8.01173e-05 0.0001094995 -4.62708e-05 -0.0765907641 0.8408143792
740295560.0 0.1027078015 -0.840071041 -1.2836e-05 2.71458e-05 0.0001560749 3.76061e-05 -0.0689065743 0.8410154159
745295530.0 0.0937932489 -0.8416142571 -0.000314526 -4.77351e-05 -0.0001160265 9.88041e-05 -0.0603441339 0.8417943439
750295500.0 0.0855619831 -0.8418952385 -4.82342e-05 -0.0001417996 -8.85466e-05 0.0001422408 -0.0519533331 0.8424677319
755295470.0 0.077590205 -0.8427360898 9.07039e-05 0.0001210189 0.0001354646 0.0001925706 -0.0442331244 0.8437488098
760295440.0 0.0687416844 -0.8426269852 5.0585e-06 -2.24691e-05 0.0001719309 8.82511e-05 -0.0361153326 0.8437454194
765295410.0 0.0607613961 -0.8435596431 0.000112325 3.72828e-05 4.2017e-06 1.37477e-05 -0.0270016648 0.8441776693
770295380.0 0.0524017515 -0.8439465016 -0.000188444 0.0001714121 7.74833e-05 3.58514e-05 -0.0188340361 0.8439455096
775295350.0 0.0441239011 -0.843724026 -4.45734e-05 0.0001218845 -5.37739e-05 4.11418e-05 -0.0110453542 0.8439241584
780295320.0 0.0350043237 -0.8452346608 -0.000114364 2.30342e-05 -2.4383e-06 3.5483e-06 -0.0026682637 0.8442657629
785295290.0 0.0275169746 -0.8442366419 5.49469e-05 9.15637e-05 -5.86377e-05 0.0001185459 0.0052238979 0.8443408434
790295260.0 0.0187386694 -0.8445310131 -8.22113e-05 -5.97361e-05 7.31867e-05 0.0002310061 0.0146091271 0.8442328221
795295230.0 0.0104068425 -0.844562196 0.0001326994 0.0001684875 -1.52283e-05 1.01877e-05 0.0225497072 0.844206828
800295200.0 0.0023906953 -0.8441813456 7.23139e-05 -0.0001121495 0.0001843532 0.0001030627 0.0308789406 0.8436787973
805295170.0 -0.0058338751 -0.8445826863 2.31261e-05 6.248e-05 -4.5024e-06 -3.44093e-05 0.0388278065 0.8430046328
810295140.0 -0.0142840289 -0.8442096399 0.0001395555 0.0001447509 -8.6464e-05 3.76478e-05 0.0469829825 0.8438907663
815295110.0 -0.0223258808 -0.843745528 5.52676e-05 0.0001916966 8.84481e-05 -0.0003155393 0.0552932388 0.8426084026
820295080.0 -0.0308289212 -0.8436643456 0.0002053202 -0.0001727174 0.0001609508 8.69737e-05 0.0635555372 0.8422836603
825295050.0 -0.0392715851 -0.8428288597 4.50498e-05 1.26188e-05 3.87018e-05 -0.0001495707 0.0723723851 0.8413363081
830295020.0 -0.0478878418 -0.8423160884 -7.12855e-05 0.0001209831 -0.0003636718 6.65387e-05 0.0798909355 0.8407841418
835294990.0 -0.05519503 -0.8417386863 1.0904e-06 -0.0001140343 -5.2444e-06 -5.98888e-05 0.0889921706 0.8396764115
840294960.0 -0.0641418472 -0.8411996366 -0.0002090421 -0.0001507596 -0.0001745176 0.0001064946 0.0964095401 0.8390897948
845294930.0 -0.0723103447 -0.8405355844 0.0001979431 0.0001915649 2.20415e-05 3.08e-05 0.1050373347 0.8379790091
850294900.0 -0.0811912676 -0.838807889 6.56969e-05 -8.4076e-06 -0.0001183397 2.38699e-05 0.1131400346 0.8368965955
