!Created with skrf (http://scikit-rf.org).
# Hz S RI R 50.0 
!freq ReS11 ImS11 ReS21 ImS21 ReS12 ImS12 ReS22 ImS22
300000.0 -0.0948123004 -0.1052767809 0.6238326967 0.0968714389 0.6204889739 0.0982232643 -0.0954227832 -0.110992832
5299970.0 -0.1011466468 0.0110794747 0.6300816649 0.0113933584 0.6306914285 0.0115150328 -0.1015534634 0.0109434635
10299940.0 -0.0966276943 0.0284963106 0.6348395006 0.0162526798 0.6342287791 0.016748419 -0.0961472729 0.0282700356
15299910.0 -0.0890689025 0.042274332 0.6403285224 0.0214617716 0.6408301689 0.0212654297 -0.0895428284 0.0417132581
20299880.0 -0.0803395396 0.053557851 0.6490092894 0.0242948121 0.6492825277 0.0240313719 -0.0806550314 0.0527925395
25299850.0 -0.0703533634 0.0624006538 0.6582012043 0.0257736491 0.6581577073 0.0256125956 -0.0716581431 0.0616416863
30299820.0 -0.060546913 0.0687487841 0.6676256722 0.0244084086 0.6680346467 0.024187685 -0.0614455471 0.0683618135
35299790.0 -0.0503518436 0.073528439 0.6766612073 0.0221392618 0.6769440447 0.0217184449 -0.0520642265 0.0736274598
40299760.0 -0.0412082892 0.0762825315 0.6867200379 0.0175144124 0.6867981644 0.0176048422 -0.0423725059 0.0768819541
45299730.0 -0.0317903143 0.0783619586 0.6959033292 0.0127287495 0.6960281042 0.0119952495 -0.0329743421 0.0792165804
50299700.0 -0.0229805486 0.0791227681 0.7040311027 0.0050617344 0.7037859924 0.0050318599 -0.0243726724 0.0802106029
55299670.0 -0.0151301439 0.0790914795 0.7108213761 -0.0024143363 0.7109808037 -0.0024673251 -0.0171976198 0.0804935385
60299640.0 -0.0078157129 0.0787017912 0.7179884298 -0.010908334 0.7176744478 -0.0112257614 -0.0091983254 0.0794526086
65299610.0 -0.0009904239 0.0772201781 0.7241266521 -0.0196259151 0.7241860633 -0.0196682962 -0.0027903217 0.0785861439
70299580.0 0.0052272806 0.0751593331 0.7287440382 -0.0287003595 0.7294500458 -0.0289569654 0.003138929 0.0770644673
75299550.0 0.010693865 0.0730492624 0.7332961313 -0.0390034111 0.7333689704 -0.0392995008 0.0088622156 0.075222386
80299520.0 0.0153642465 0.071421268 0.7377096634 -0.048345022 0.7374582722 -0.0486058505 0.0138919566 0.0735095228
85299490.0 0.0202066303 0.0690273374 0.74096285 -0.0587407615 0.7413516532 -0.0581731987 0.0180691022 0.0709031526
90299460.0 0.0240822216 0.0665495584 0.7432190435 -0.0686866379 0.7436262721 -0.0683655668 0.0227207453 0.0689979855
95299430.0 0.0279996321 0.0642253997 0.7463270044 -0.0785838286 0.7464501001 -0.0788331525 0.0259986264 0.0665027533
100299400.0 0.0314912824 0.0613702481 0.7473601291 -0.0885174903 0.7477878224 -0.0887299901 0.0293050093 0.0646580423
105299370.0 0.0344402727 0.0590069184 0.7490467827 -0.0989086684 0.7495282716 -0.0987789603 0.0329462735 0.0617621944
110299340.0 0.0374536673 0.0565890192 0.7505913393 -0.1087029729 0.7509049155 -0.1084820023 0.0351167718 0.0593514872
115299310.0 0.039627197 0.054459581 0.7514932691 -0.1186893236 0.7511449534 -0.1188596018 0.0377651931 0.057934545
120299280.0 0.0417358655 0.052068896 0.7516999359 -0.1297151752 0.7518898613 -0.1294658705 0.0401497447 0.0546597775
125299250.0 0.0440100475 0.0496272687 0.7520323179 -0.1391264061 0.7519423819 -0.1384744298 0.042337282 0.0530100066
130299220.0 0.0459196216 0.0469562399 0.7520516613 -0.1492770181 0.752164079 -0.1494523336 0.0441182772 0.0507617891
135299190.0 0.0468063517 0.0453397511 0.752041414 -0.1581635669 0.752249467 -0.1589049848 0.0458178275 0.0481325405
140299160.0 0.0488889629 0.0431942233 0.7514539234 -0.168854018 0.7512317052 -0.1684738747 0.0467693743 0.0456147395
145299130.0 0.0495820404 0.0410890986 0.7500793709 -0.1777933593 0.7504513852 -0.1781538054 0.0482122556 0.0437553439
150299100.0 0.0510513337 0.0392130701 0.749356966 -0.1881078673 0.7493217843 -0.187711336 0.0491550605 0.0420950657
155299070.0 0.0527913499 0.0368342143 0.7478130057 -0.1975649041 0.7483838466 -0.1976147225 0.0507171101 0.0398288818
160299040.0 0.0534908534 0.0354845019 0.7470599198 -0.2071963405 0.7464523771 -0.207375405 0.051264903 0.0383128033
165299010.0 0.0543829552 0.033270966 0.7448507262 -0.2163905131 0.7450776898 -0.2164608793 0.0523178182 0.0359566097
170298980.0 0.0551592998 0.0318260443 0.7429041086 -0.2259764453 0.7428492296 -0.2261514352 0.052724912 0.0339660413
175298950.0 0.0560553959 0.0300569877 0.7418252231 -0.2349489672 0.7420809409 -0.2359221614 0.0539580134 0.0328448812
180298920.0 0.0562922117 0.0287567164 0.7396177053 -0.2444636394 0.7393744318 -0.2450156895 0.0543042221 0.0309672937
185298890.0 0.0568719819 0.0269591662 0.7377073603 -0.2532804579 0.737139728 -0.2534953925 0.055284052 0.0289940654
190298860.0 0.058141809 0.0254901606 0.7342818164 -0.2624401995 0.7350889625 -0.2625154955 0.0553051047 0.0275705462
195298830.0 0.0579629783 0.0239281674 0.7325644292 -0.2716816282 0.7323452156 -0.2717810226 0.0559227501 0.0261109298
200298800.0 0.0584363984 0.022270999 0.7296145968 -0.2809971999 0.7298048598 -0.2807993576 0.0565497249 0.0242885753
205298770.0 0.05841402 0.0207630457 0.7267490791 -0.2896134583 0.7271446727 -0.2889035915 0.057061153 0.02298856
210298740.0 0.0589703704 0.0198711997 0.7243650264 -0.2985117609 0.7236851152 -0.2980696274 0.0565491697 0.0210705652
215298710.0 0.0595469287 0.0186162757 0.7209798751 -0.3069642036 0.7209631441 -0.3073740976 0.0576121646 0.0200513297
220298680.0 0.0596833471 0.0173385477 0.717262619 -0.3155359932 0.7174765915 -0.315859952 0.0575989038 0.0184670272
225298650.0 0.0597563042 0.0160327689 0.7141956129 -0.3245364338 0.7147468424 -0.3237887359 0.0575747872 0.0167918769
230298620.0 0.0602315127 0.0149573401 0.7114214669 -0.3332186267 0.7108804614 -0.3331761863 0.0577552531 0.0154097188
235298590.0 0.059952254 0.0138245693 0.7082175511 -0.3418799242 0.7081004289 -0.3415547444 0.0581777606 0.0143134357
240298560.0 0.0604485689 0.0128641169 0.7041226751 -0.3495629538 0.7036759767 -0.349532646 0.0577740594 0.0127966848
245298530.0 0.0602712175 0.0112309228 0.7003897842 -0.3582540071 0.7001668946 -0.3580091943 0.0578818574 0.0120848385
250298500.0 0.0600963042 0.0100060019 0.6967318416 -0.3662048698 0.696102063 -0.3660296374 0.0579419746 0.0108163747
255298470.0 0.060587584 0.0095383234 0.6931097944 -0.3742078133 0.6934665306 -0.3741473689 0.0580299565 0.0102420585
260298440.0 0.0607399115 0.0080678797 0.6890726458 -0.3818336221 0.6889762947 -0.3822580754 0.0579079606 0.0080813093
265298410.0 0.0600794959 0.0075530247 0.6841002867 -0.3906519078 0.6844570827 -0.3908310655 0.0587991315 0.0069358226
270298380.0 0.0598848208 0.00609657 0.6803303735 -0.3987701598 0.6804663547 -0.3981613526 0.0583634665 0.006280464
275298350.0 0.0604017951 0.0056624138 0.675274006 -0.4059787451 0.6760218407 -0.4059012791 0.0579982465 0.0051663074
280298320.0 0.059711544 0.0043051664 0.6719273298 -0.4137269695 0.6720028465 -0.4140889584 0.058509775 0.0041123071
285298290.0 0.0598969949 0.0034328883 0.6668892307 -0.4216680862 0.6675999465 -0.421318943 0.0580932438 0.0026692893
290298260.0 0.0598609625 0.002800154 0.6632084998 -0.4295799377 0.6634290219 -0.4298454501 0.0583555746 0.00177359
295298230.0 0.0598767799 0.0011729119 0.6583176369 -0.4377882377 0.6584399832 -0.437651877 0.0581391968 0.0005617806
300298200.0 0.0600586147 0.0007735769 0.6535596226 -0.4452854989 0.653794808 -0.4447973566 0.0578429501 -0.0008009567
305298170.0 0.0600655053 -0.0008254581 0.6495151783 -0.4531453424 0.6491929686 -0.4532350002 0.058067758 -0.0020137699
310298140.0 0.0603237487 -0.0016256008 0.644548004 -0.4603070662 0.6445265228 -0.4603861133 0.0583691467 -0.0036095155
315298110.0 0.0599671426 -0.0031985346 0.6392025048 -0.4685777796 0.6392873993 -0.468429722 0.0578220368 -0.0044151797
320298080.0 0.0597410827 -0.0036854192 0.6332429383 -0.4757523393 0.6343233877 -0.4762597445 0.0575136119 -0.0056371785
325298050.0 0.0587206578 -0.0055435654 0.6282357369 -0.4830635494 0.6288398306 -0.4831872555 0.0570998519 -0.0067492115
330298020.0 0.0575987958 -0.005943035 0.6227212129 -0.4909217843 0.6235160502 -0.4909408752 0.0561403593 -0.0077426528
335297990.0 0.0575373238 -0.0066530467 0.6171946687 -0.4976074788 0.6169135163 -0.497700883 0.0558905792 -0.0087124549
340297960.0 0.0572070003 -0.0074801164 0.6110382092 -0.5051627447 0.6106870771 -0.5049586093 0.0555246346 -0.0091592669
345297930.0 0.0564927288 -0.0084512245 0.6059064122 -0.5119885035 0.6051083723 -0.5119900916 0.0553102041 -0.0100357298
350297900.0 0.056087582 -0.0092481804 0.6001943409 -0.5176596102 0.60024031 -0.5180677261 0.0546818725 -0.0111515038
355297870.0 0.0555918292 -0.0095773439 0.5946657137 -0.5240971743 0.5940453794 -0.5246056508 0.0548678454 -0.0117994184
360297840.0 0.0551652749 -0.0104672308 0.5881780674 -0.531315425 0.5881431412 -0.5314732275 0.0534659831 -0.0121717043
365297810.0 0.0545130204 -0.0109175047 0.582142718 -0.5379469521 0.5821344499 -0.5383320327 0.0532772472 -0.0132326446
370297780.0 0.0547010846 -0.0114592724 0.5759119194 -0.5441885588 0.5764043406 -0.5443553953 0.0531683299 -0.014036074
375297750.0 0.0542984643 -0.0121473072 0.5708932572 -0.5503517358 0.5701949859 -0.5510780671 0.0527693317 -0.0146488976
380297720.0 0.0532651893 -0.0125783181 0.5645122441 -0.5574622043 0.5641387402 -0.5575459185 0.0524125672 -0.0151378035
385297690.0 0.0531902539 -0.0136738206 0.5580957736 -0.5640020131 0.5581367765 -0.5643597911 0.0521843188 -0.0156489615
390297660.0 0.0529526782 -0.014224521 0.5516929262 -0.5692351728 0.5524545109 -0.5697576251 0.0523392778 -0.0166073853
395297630.0 0.0530240041 -0.0150514661 0.5461633939 -0.5754410707 0.5455632303 -0.5755849166 0.051448233 -0.0168454731
400297600.0 0.0520728444 -0.015896628 0.5395398381 -0.5823437468 0.5397576528 -0.5815899641 0.0515112544 -0.0174178574
405297570.0 0.052062118 -0.0166042791 0.5331208821 -0.5876739775 0.5332358389 -0.5878061509 0.0509344668 -0.0175772722
410297540.0 0.0513869422 -0.0165604243 0.5268068937 -0.5938025197 0.5265333562 -0.5936023095 0.0505502269 -0.0186228057
415297510.0 0.0507651898 -0.0173857318 0.5197618017 -0.5993046712 0.5205326085 -0.5999004398 0.0506187428 -0.0187546664
420297480.0 0.0504813561 -0.0186197472 0.5131811481 -0.6054455445 0.5139280402 -0.6054550829 0.0502028746 -0.0192005122
425297450.0 0.0508617038 -0.0189419822 0.5069000737 -0.6106024831 0.506468843 -0.6111790266 0.049833722 -0.0206533619
430297420.0 0.0497868625 -0.0191254752 0.500887825 -0.6165621865 0.5002524002 -0.6159654862 0.0498055812 -0.0210225867
435297390.0 0.0498727657 -0.0201976107 0.4930946379 -0.6232427043 0.4932975345 -0.6221313457 0.0488315105 -0.0212069334
440297360.0 0.0496355455 -0.0211476016 0.4865642335 -0.6275165103 0.4859736459 -0.627958146 0.0485891604 -0.0216104173
445297330.0 0.049419404 -0.0219702069 0.4798312999 -0.6329760493 0.4792519943 -0.6329571689 0.0483413445 -0.0221279529
450297300.0 0.0488751777 -0.0221654842 0.4723990643 -0.6377456695 0.4729054391 -0.6379756937 0.0482848034 -0.02245998
455297270.0 0.0479676596 -0.0228143886 0.4657968054 -0.6438797152 0.4656936051 -0.6435364947 0.0477869881 -0.0229161527
460297240.0 0.0480998432 -0.023330195 0.4585580421 -0.6496198386 0.458297271 -0.6491491002 0.0470866225 -0.0239746676
465297210.0 0.0475386021 -0.0239823647 0.4511110178 -0.6538077887 0.45118531 -0.6537485285 0.047318567 -0.023952143
470297180.0 0.0472833571 -0.0251305008 0.4441016331 -0.6584119615 0.4447786483 -0.6588026494 0.0471545577 -0.0250353936
475297150.0 0.0465033794 -0.0251894353 0.4365260473 -0.6636820626 0.4369999029 -0.6639765324 0.0466018881 -0.0254410019
480297120.0 0.046931685 -0.025108817 0.4296875472 -0.6681820116 0.4303923234 -0.6684695515 0.0460839957 -0.0257768712
485297090.0 0.0461223734 -0.0270313145 0.4217786311 -0.6737874767 0.4224733458 -0.6730060634 0.0456654138 -0.0261820048
490297060.0 0.0462828686 -0.026601647 0.4141115812 -0.6781280966 0.4148231902 -0.6779566284 0.045221885 -0.0270544538
495297030.0 0.0453046126 -0.0279359504 0.4076768892 -0.68233982 0.4076252757 -0.6829522494 0.0454712118 -0.0276414262
500297000.0 0.044557978 -0.0279399224 0.3995951188 -0.6866146418 0.4000137931 -0.6867043438 0.044634977 -0.0275428496
505296970.0 0.0449411274 -0.0282951308 0.3927468956 -0.6910034478 0.3920110054 -0.6909444282 0.0444685953 -0.0291362536
510296940.0 0.0441096188 -0.0292189022 0.3846557277 -0.6964271541 0.3850387144 -0.6964219429 0.0442822841 -0.0287013362
515296910.0 0.0436340131 -0.0292420458 0.3763964333 -0.7000142641 0.3766366991 -0.7000576327 0.0437303585 -0.0300051682
520296880.0 0.0435278805 -0.0297425562 0.3695193056 -0.7036956761 0.3693871451 -0.7038342902 0.0439639212 -0.0295466397
525296850.0 0.0431942763 -0.030054995 0.3617122796 -0.7075339407 0.3613657975 -0.7079360344 0.0434390144 -0.0304089397
530296820.0 0.0424300317 -0.0311394271 0.3534307079 -0.7123019117 0.3543071759 -0.7118751787 0.0430560966 -0.0311069805
535296790.0 0.0428957647 -0.0311275009 0.3457826274 -0.7154707894 0.3464753767 -0.7157874038 0.0427139751 -0.0310692891
540296760.0 0.0421484804 -0.0314096834 0.3373413026 -0.7192672666 0.3382359487 -0.7194151613 0.0424895047 -0.0321154849
545296730.0 0.0409335311 -0.0318622755 0.3299251908 -0.7229970919 0.3301945096 -0.7228486215 0.0418011124 -0.0325639262
550296700.0 0.0416247715 -0.0322767248 0.3225992163 -0.7268271444 0.3221635808 -0.7269780049 0.0417976786 -0.0328856764
555296670.0 0.0408524962 -0.0330170486 0.3142780455 -0.7309079339 0.3146802306 -0.7303085587 0.0408691596 -0.034030299
560296640.0 0.0412364339 -0.0330691179 0.3061239483 -0.7331604488 0.3068566304 -0.733839044 0.0401845867 -0.0336129322
565296610.0 0.0396848225 -0.0335081545 0.2987121764 -0.7367423393 0.2989400238 -0.7362495235 0.0403705189 -0.0340182163
570296580.0 0.039310303 -0.0336373119 0.2902278426 -0.7397308149 0.2903162564 -0.7402315483 0.0395229883 -0.03503416
575296550.0 0.0391092606 -0.0343461663 0.2829144659 -0.7435618439 0.2821903879 -0.7435173201 0.0392170272 -0.0350272555
580296520.0 0.0388819759 -0.0343117683 0.2739680414 -0.7464540407 0.2736556004 -0.7465608718 0.0384956218 -0.0353253999
585296490.0 0.0381591576 -0.0345630942 0.2659129278 -0.7489384801 0.2655223022 -0.7488150322 0.038619702 -0.0356267888
590296460.0 0.0384910686 -0.0349240234 0.2578727839 -0.7517961363 0.257936024 -0.7522767354 0.0373568723 -0.0358664198
595296430.0 0.0375894834 -0.0353217256 0.2485618895 -0.7548062301 0.2496393268 -0.7551055715 0.0372208977 -0.036977052
600296400.0 0.0376071353 -0.0358013631 0.240831349 -0.7576674436 0.2406776702 -0.7575161457 0.0370042817 -0.0369985057
605296370.0 0.0362588631 -0.0360388219 0.2330503797 -0.760149609 0.232432848 -0.7607236845 0.0361692973 -0.0372465985
610296340.0 0.0363757122 -0.0358363748 0.2242974288 -0.7619756445 0.2252170164 -0.762619786 0.0354846708 -0.0375887307
615296310.0 0.0363132777 -0.0363088394 0.2162183284 -0.7652414048 0.2155677415 -0.7650078444 0.0352936803 -0.0378872961
620296280.0 0.0348158357 -0.0362540554 0.2070752668 -0.7676516673 0.207598876 -0.767370532 0.0343451131 -0.0380083088
625296250.0 0.0346474291 -0.0366056464 0.198804878 -0.7700353714 0.1995130562 -0.7701611673 0.033429285 -0.038923023
630296220.0 0.0342316596 -0.0367326985 0.1900233089 -0.7722089913 0.1904579995 -0.7718015848 0.0335904507 -0.0387830421
635296190.0 0.0334994097 -0.0368899732 0.1823913198 -0.7737575218 0.1824642957 -0.7738257824 0.0327917744 -0.0392690805
640296160.0 0.0331831346 -0.0372476011 0.1739196098 -0.7762927305 0.1741215402 -0.7761993167 0.031815627 -0.0396385797
645296130.0 0.0329759037 -0.0367530002 0.1652405319 -0.7777523198 0.1653839997 -0.7774498115 0.0313577468 -0.0402731036
650296100.0 0.0324559197 -0.0373593076 0.1568235921 -0.7800934619 0.1571201451 -0.7796117105 0.0319713267 -0.0404455799
655296070.0 0.0316900323 -0.0377884944 0.1477062217 -0.7815049845 0.1480148816 -0.7804279202 0.0304186993 -0.0402737648
660296040.0 0.031142712 -0.0375900258 0.1393711235 -0.7830913004 0.1401793027 -0.7834291844 0.0297097977 -0.0410198495
665296010.0 0.0309109793 -0.0382032997 0.130360134 -0.7838536535 0.1315116562 -0.7837126368 0.0292914687 -0.0409291852
670295980.0 0.0302489873 -0.0378711157 0.1224156566 -0.7856005839 0.1229586773 -0.7855648105 0.0280425974 -0.0415863261
675295950.0 0.0296707908 -0.0381996503 0.114069202 -0.7866816504 0.1143363127 -0.7866911595 0.0276113837 -0.041384198
680295920.0 0.028862896 -0.038200381 0.1056582819 -0.7875172885 0.1057100983 -0.7879361986 0.0274786306 -0.0418597181
685295890.0 0.0284476686 -0.0378431398 0.0967267861 -0.7890441447 0.097300478 -0.788859144 0.0273253133 -0.0416837748
690295860.0 0.0276223302 -0.0381425196 0.0880670998 -0.7894637236 0.0884674768 -0.7902304349 0.0260788766 -0.0421465432
695295830.0 0.0271985374 -0.0384399763 0.0803378349 -0.7913012117 0.0799004378 -0.7907743235 0.0256755039 -0.0422902172
700295800.0 0.0269474331 -0.0382068015 0.0717671571 -0.7919089109 0.0713658764 -0.7915840348 0.0248569064 -0.0418964599
705295770.0 0.0259868072 -0.0384080658 0.062680943 -0.79305895 0.0627798836 -0.7922518022 0.0241555812 -0.0419260155
710295740.0 0.0256274267 -0.0386521449 0.0539339504 -0.7934978149 0.0541302842 -0.7935045444 0.0238644107 -0.0421262812
715295710.0 0.0247605155 -0.0382449976 0.0455211244 -0.7938148669 0.0456018745 -0.7936502364 0.0230065788 -0.0426006965
720295680.0 0.0248146912 -0.0384000904 0.0364558204 -0.7935014417 0.036793747 -0.7940603835 0.0225545646 -0.0426282607
725295650.0 0.0233005124 -0.0382611952 0.0280757019 -0.7942992243 0.0281126903 -0.7944660578 0.0214403806 -0.0421158678
730295620.0 0.0224202646 -0.0387705141 0.0193097973 -0.7945218615 0.0194535246 -0.7941116794 0.0207515644 -0.041850618
735295590.0 0.0227071521 -0.038498855 0.0108501747 -0.7952731824 0.010754204 -0.7945165962 0.0198084411 -0.0429526194
740295560.0 0.0217047224 -0.0391098184 0.0024229865 -0.7954414597 0.0025967189 -0.7949691756 0.0190176406 -0.0423756147
745295530.0 0.0209927521 -0.0385237158 -0.0067181557 -0.7940511354 -0.0058486918 -0.7947291936 0.0180201913 -0.0428847126
750295500.0 0.0200339554 -0.0383523241 -0.0144650034 -0.7941794577 -0.0151149122 -0.7947888265 0.0177997007 -0.042504772
755295470.0 0.0192873172 -0.0385244695 -0.0230296647 -0.7953161238 -0.0231513663 -0.7950834671 0.0173243247 -0.042176554
760295440.0 0.019108785 -0.0378374287 -0.0328604736 -0.7936425416 -0.032254897 -0.7935923847 0.0171593909 -0.0432552411
765295410.0 0.0188663918 -0.0387616758 -0.041014509 -0.793242089 -0.0402241474 -0.7934856466 0.0160247137 -0.0428514039
770295380.0 0.0177855394 -0.0380909378 -0.0488093249 -0.7922545055 -0.0491498493 -0.7935307973 0.0151573391 -0.0427087512
775295350.0 0.0171440089 -0.0387346197 -0.0582848227 -0.7926749292 -0.0577705309 -0.7917422771 0.0150906011 -0.0422652372
780295320.0 0.01647466 -0.0379966271 -0.0665402471 -0.7910143595 -0.0660101421 -0.7915997877 0.0143392945 -0.0430430527
785295290.0 0.0158314904 -0.0384489515 -0.0750481067 -0.7913608994 -0.0745288128 -0.7909560417 0.0130319522 -0.0421636275
790295260.0 0.0155972957 -0.0386463918 -0.0836733769 -0.7901055614 -0.0834502042 -0.7904076232 0.0125098413 -0.0417753459
795295230.0 0.0148327279 -0.0387313634 -0.0924382975 -0.7896860519 -0.0921769745 -0.7893303408 0.0122181019 -0.0428813164
800295200.0 0.0135296406 -0.037996086 -0.0999893841 -0.787664066 -0.1005933383 -0.7879075022 0.0112783111 -0.042360422
805295170.0 0.0129248741 -0.0382492354 -0.1091153265 -0.7869251085 -0.1084504157 -0.7872623781 0.0114347456 -0.0421562246
810295140.0 0.0127429708 -0.0380302556 -0.1176049882 -0.7857861423 -0.1177110146 -0.7855782926 0.0102038733 -0.0423093357
815295110.0 0.0120118914 -0.0375939558 -0.1261391507 -0.7839359421 -0.1258652291 -0.7845006111 0.0093773502 -0.0418913196
820295080.0 0.0114028675 -0.0379078941 -0.1338808343 -0.7825867261 -0.1342121242 -0.7831744096 0.007801165 -0.041155288
825295050.0 0.0104706758 -0.037955582 -0.1433642763 -0.7813666521 -0.1428162177 -0.7812658038 0.008832114 -0.0409048028
830295020.0 0.0097075269 -0.0380421287 -0.151705186 -0.7795457093 -0.151582452 -0.7800794169 0.0077125677 -0.0417238625
