!Created with skrf (http://scikit-rf.org).
# Hz S RI R 50.0 
!freq ReS11 ImS11 ReS21 ImS21 ReS12 ImS12 ReS22 ImS22
300000.0 -0.235750671 -0.1131649485 0.4661798098 0.0751907631 0.4654949629 0.0750090116 -0.235101757 -0.1208243069
5299970.0 -0.2446987542 0.0056770968 0.4733915447 0.0059193593 0.4742038365 0.0057256036 -0.2436485629 0.0051345682
10299940.0 -0.2418158528 0.0189156945 0.4762535185 0.0070386148 0.4759281269 0.0072139932 -0.2401472827 0.0179473182
15299910.0 -0.2367456011 0.0283824188 0.4793569549 0.0083007614 0.4797071283 0.0085003936 -0.2360816888 0.0274744372
20299880.0 -0.2316092472 0.0365920634 0.4841423088 0.0082627832 0.4843321672 0.0085248349 -0.2310944636 0.0352905092
25299850.0 -0.2254248746 0.042779534 0.4897126057 0.0079649767 0.4899331634 0.0077558636 -0.2261255766 0.0417251457
30299820.0 -0.220421818 0.0477117499 0.4952080318 0.0056488098 0.4953879748 0.0055519532 -0.2207882508 0.0468889786
35299790.0 -0.2143039037 0.0516541814 0.4998955394 0.0028357268 0.5005240737 0.0024363108 -0.2157998752 0.051633115
40299760.0 -0.2089158124 0.0546822095 0.5053014946 -0.001696753 0.5055156081 -0.0016313467 -0.210642053 0.0547084277
45299730.0 -0.2038839184 0.0569756999 0.5099866836 -0.0057445395 0.510561963 -0.0062248191 -0.2055500105 0.057660882
50299700.0 -0.1990404645 0.0592191529 0.5146806295 -0.0119187655 0.5143643763 -0.0119960287 -0.2011545198 0.060180725
55299670.0 -0.1947965955 0.0604785727 0.5184591357 -0.0177220007 0.5180393202 -0.0178045505 -0.1972984817 0.0621152222
60299640.0 -0.190498126 0.0619990043 0.5218366741 -0.0243066197 0.5214886714 -0.0240853822 -0.1935664308 0.0632819519
65299610.0 -0.1869924236 0.0627030474 0.5249791995 -0.0300946572 0.5247332919 -0.0305628842 -0.1900209921 0.0647215647
70299580.0 -0.1839541634 0.0631531296 0.5271048502 -0.0368758597 0.5273282896 -0.0368545406 -0.1871777079 0.0659305923
75299550.0 -0.1807129071 0.0639174958 0.5286148499 -0.0445821601 0.5290800257 -0.0438047697 -0.1840467734 0.0670589525
80299520.0 -0.178334573 0.0644475283 0.5308783847 -0.0509577163 0.5312599063 -0.0508953811 -0.1815176634 0.0681068379
85299490.0 -0.1758322174 0.0650513587 0.5327132772 -0.0579615501 0.5324923565 -0.0578482961 -0.1792337857 0.0684845951
90299460.0 -0.1734371989 0.0655605141 0.5332334951 -0.0648446265 0.5332481546 -0.0644266705 -0.1769874423 0.0697211715
95299430.0 -0.1712728895 0.0657781356 0.5339204054 -0.0714609756 0.5340818642 -0.071774938 -0.1749421914 0.0706067026
100299400.0 -0.1694724597 0.0658664426 0.5345562096 -0.0782374599 0.5348203888 -0.078370414 -0.1729056495 0.071766283
105299370.0 -0.1676028043 0.0666478522 0.5349544543 -0.0852072584 0.5353535826 -0.0854310929 -0.1711276181 0.0722526876
110299340.0 -0.1659819342 0.0668861689 0.5350303287 -0.0916988756 0.5356028745 -0.0916309403 -0.1698535697 0.0731397091
115299310.0 -0.1645782211 0.0676666559 0.5351075985 -0.0987170358 0.5349258812 -0.0986357763 -0.1683611537 0.0741450591
120299280.0 -0.1632383407 0.0685369101 0.5355050202 -0.1061924371 0.5350022805 -0.106308215 -0.1668590517 0.0746862696
125299250.0 -0.1619992512 0.0684452734 0.5347361107 -0.1124677347 0.5346137291 -0.1124632599 -0.1653390523 0.0759400983
130299220.0 -0.1607641607 0.069179135 0.534227491 -0.1191970656 0.5340273923 -0.1197741721 -0.1639563957 0.0769598938
135299190.0 -0.1596047533 0.070322668 0.5336242725 -0.1257837869 0.5339207144 -0.1262114817 -0.1629696217 0.0776115812
140299160.0 -0.1583591937 0.0708317283 0.5328361962 -0.1327027372 0.5325527442 -0.1326124531 -0.1621194294 0.078560147
145299130.0 -0.1578178434 0.0718005882 0.5313458097 -0.1389795438 0.5317127764 -0.1391185939 -0.1608248595 0.0798260512
150299100.0 -0.1566331637 0.0723661985 0.5304641044 -0.1455284708 0.530401411 -0.1461362408 -0.1598691357 0.0811788043
155299070.0 -0.1555889731 0.0733893532 0.5287898101 -0.1520570206 0.5292850456 -0.1523044003 -0.1586152745 0.0821368516
160299040.0 -0.1550566712 0.0746085666 0.5280752587 -0.1586593973 0.5279072665 -0.1588790491 -0.1580678295 0.0835717818
165299010.0 -0.1538846743 0.0752312091 0.5267213369 -0.1650917168 0.5262288328 -0.1654207023 -0.1565446964 0.0844221053
170298980.0 -0.153097597 0.0762214155 0.524937366 -0.1715531178 0.5248097734 -0.1716403004 -0.1561055698 0.0855541369
175298950.0 -0.1522500746 0.0773119367 0.5236716396 -0.1775945122 0.5235897539 -0.1779057106 -0.1551212862 0.0872792129
180298920.0 -0.1516503148 0.0786373537 0.5216167798 -0.1843372802 0.5216072886 -0.1844695797 -0.1542217539 0.0885538531
185298890.0 -0.1508616188 0.0795134791 0.5203090844 -0.1903368918 0.5198488319 -0.1902937524 -0.15279301 0.0893300416
190298860.0 -0.1495376518 0.0809404492 0.5173674998 -0.1964241046 0.5179762257 -0.1966523051 -0.152012203 0.0908637468
195298830.0 -0.148964668 0.0820451715 0.515847489 -0.2025969543 0.5160740446 -0.2026427494 -0.1513679251 0.09217186
200298800.0 -0.1481088422 0.0828052334 0.5139753994 -0.2089514514 0.5140629402 -0.2091371148 -0.1504777332 0.0936702048
205298770.0 -0.1480036363 0.0838453578 0.5115468834 -0.2150079085 0.5116873601 -0.2145830061 -0.1492780842 0.0950397456
210298740.0 -0.1467944865 0.0852631563 0.5093966748 -0.2209005619 0.5094206428 -0.2208981688 -0.1483933037 0.0962154565
215298710.0 -0.1460793556 0.0868097622 0.5064541248 -0.2266214637 0.5071091002 -0.2270631479 -0.1473642409 0.0977184915
220298680.0 -0.1453159325 0.0879622775 0.5043254071 -0.2328302154 0.5047514827 -0.2328800084 -0.146499848 0.0990516477
225298650.0 -0.144740221 0.0891040381 0.501758299 -0.2381981923 0.501997724 -0.2383559467 -0.1454996782 0.1001968793
230298620.0 -0.1437653658 0.090527533 0.4994804088 -0.2440103306 0.4998803767 -0.2444579606 -0.1446982051 0.1017880484
235298590.0 -0.1432828699 0.0918219007 0.4970377132 -0.2504192749 0.4968187133 -0.2501849327 -0.1435324206 0.1032624005
240298560.0 -0.1423391585 0.0933617455 0.494335903 -0.2556020733 0.4942728779 -0.256018046 -0.1425909035 0.1044084356
245298530.0 -0.1415734076 0.0941301133 0.4917106871 -0.2616567678 0.4914533572 -0.2617170773 -0.1416999151 0.106272114
250298500.0 -0.1407359006 0.0955641996 0.4892112326 -0.2668080052 0.4887016972 -0.2673231484 -0.140735718 0.107647215
255298470.0 -0.1398308464 0.0971871972 0.485970144 -0.2726837996 0.4864044911 -0.2729800379 -0.1393641104 0.1090999264
260298440.0 -0.1391428191 0.0981074309 0.4829955308 -0.2777424982 0.4829012032 -0.2782263895 -0.1384639951 0.110391264
265298410.0 -0.1383557252 0.0997307689 0.4797012334 -0.2840607447 0.4796601219 -0.2840191977 -0.1367002572 0.1114841707
270298380.0 -0.1376448843 0.1007813 0.4763556455 -0.2890996605 0.4769134161 -0.2892517321 -0.1360443236 0.1133237551
275298350.0 -0.1367462329 0.1026746766 0.4731306198 -0.2945411651 0.4732673069 -0.2946345541 -0.1349432362 0.1150405704
280298320.0 -0.1361117261 0.1036637519 0.4701830985 -0.2996572866 0.470891499 -0.3002504116 -0.1339273938 0.1167542947
285298290.0 -0.1352302181 0.1049485584 0.4671921994 -0.305266791 0.4671723789 -0.3052284499 -0.1324782513 0.1178656478
290298260.0 -0.1343760038 0.1063763323 0.4644399316 -0.3106144596 0.4639979188 -0.3107275075 -0.130996474 0.1190644642
295298230.0 -0.1333871184 0.1077854293 0.4609100879 -0.3159217278 0.4604572014 -0.3160018001 -0.1299799348 0.1203990187
300298200.0 -0.1324273616 0.1091511405 0.4573392038 -0.3209924686 0.4575373048 -0.3209954197 -0.1288117805 0.1220631341
305298170.0 -0.1315269571 0.1099955752 0.4538995618 -0.3266355277 0.454269622 -0.3263573581 -0.1274198282 0.1230206538
310298140.0 -0.1301362404 0.1112533018 0.4503703579 -0.3315593444 0.4505259498 -0.3313289558 -0.1260408421 0.1245060593
315298110.0 -0.1297831169 0.1123697012 0.4467226913 -0.3372084761 0.4465990572 -0.3366512617 -0.1248448508 0.1254308639
320298080.0 -0.1285349614 0.1137487357 0.4422317391 -0.3420260454 0.4431916156 -0.3422592541 -0.1235804342 0.1269514948
325298050.0 -0.1281860712 0.1144005122 0.4389594403 -0.346973256 0.439312739 -0.3471009191 -0.1219941361 0.1280718133
330298020.0 -0.1277644471 0.1161699526 0.4350307045 -0.3517923965 0.4353853894 -0.3520674144 -0.1213295011 0.1297797273
335297990.0 -0.1267466626 0.1171193021 0.4310332483 -0.3569379093 0.4313589356 -0.3567759665 -0.1200738055 0.1308925707
340297960.0 -0.1258437229 0.1186031333 0.426466337 -0.361779076 0.4269770099 -0.3616959792 -0.1185976411 0.132432306
345297930.0 -0.1247737778 0.119784801 0.4229469275 -0.3665872139 0.4228942197 -0.3664702404 -0.1172800984 0.1338587808
350297900.0 -0.1241055997 0.1210671955 0.4191638963 -0.3704235203 0.4193895381 -0.3708210512 -0.1162524539 0.1348239267
355297870.0 -0.1232736021 0.1223682549 0.4147998417 -0.3750975121 0.414847473 -0.3749758377 -0.1146840759 0.136719197
360297840.0 -0.1219253029 0.1241522106 0.4104131854 -0.380208056 0.4107723161 -0.3803306231 -0.1133280484 0.1379662164
365297810.0 -0.1212077785 0.125175709 0.4061565092 -0.3844933472 0.4062039402 -0.3846328464 -0.1119724233 0.1394712963
370297780.0 -0.1197750935 0.1265449992 0.4015606518 -0.3889260955 0.4022304236 -0.3886731423 -0.1107164624 0.1406002993
375297750.0 -0.1189593234 0.1278263705 0.3976155941 -0.393249969 0.3977368658 -0.3938304116 -0.10877592 0.142147732
380297720.0 -0.1179502381 0.1290121503 0.3934884356 -0.3980898925 0.3929936082 -0.3980397813 -0.1074660891 0.143591118
385297690.0 -0.1171112138 0.1302183334 0.3890367315 -0.4020450517 0.3890212802 -0.4023565691 -0.1060542562 0.1450357342
390297660.0 -0.1154394098 0.1312245307 0.3844620713 -0.4057615543 0.3849184611 -0.4064073455 -0.1040102987 0.1460228996
395297630.0 -0.1142253969 0.1328758812 0.3802789739 -0.4100792352 0.3803504083 -0.4101362584 -0.1029913216 0.1470008065
400297600.0 -0.1135518919 0.133945297 0.3756484402 -0.4148242128 0.3760542247 -0.4145521462 -0.1012436064 0.1487586765
405297570.0 -0.1122098388 0.1346565864 0.3714015709 -0.4186860515 0.3711357612 -0.4186689351 -0.0992282486 0.1502471366
410297540.0 -0.1108472708 0.136450526 0.3667402587 -0.4229337265 0.3665818825 -0.4228643633 -0.0979218387 0.1512132506
415297510.0 -0.1101175762 0.1371357277 0.3623111114 -0.4267062764 0.3620544552 -0.4268958179 -0.0960176931 0.152695397
420297480.0 -0.1086275159 0.1380465189 0.3573372389 -0.4306315562 0.3574092045 -0.4310398042 -0.0941977987 0.1542494408
425297450.0 -0.1068996781 0.1394521541 0.3525666278 -0.4343322291 0.3525433016 -0.4346685405 -0.0930230305 0.1547992856
430297420.0 -0.1058717898 0.1405601085 0.3479492501 -0.4384437654 0.3482469315 -0.4380182656 -0.0909411264 0.1561049246
435297390.0 -0.1048133798 0.1417972806 0.3425507985 -0.4429535605 0.3428897951 -0.4420939306 -0.089892088 0.157627062
440297360.0 -0.1030564448 0.1426349176 0.3374979851 -0.4460527545 0.3379850317 -0.4459848094 -0.0878391933 0.1587297613
445297330.0 -0.1019594081 0.1433494175 0.3335220022 -0.4492129298 0.3331576851 -0.4500548974 -0.0858788505 0.1599041025
450297300.0 -0.100536744 0.1449770465 0.3278733169 -0.4529434813 0.3283581122 -0.4533186717 -0.0840154166 0.1607810787
455297270.0 -0.0996355439 0.1458161285 0.323293791 -0.456634604 0.3234973134 -0.4568083135 -0.0822609725 0.161632106
460297240.0 -0.0978280679 0.1470277665 0.3183148814 -0.4610524057 0.3181203926 -0.460488297 -0.0804664825 0.1626852785
465297210.0 -0.096368344 0.1481586775 0.3129396976 -0.4638111556 0.3126215034 -0.4641897432 -0.0783559271 0.1642047823
470297180.0 -0.0949547294 0.149034843 0.3078125658 -0.466722962 0.307986725 -0.4671827842 -0.0765745005 0.1646357375
475297150.0 -0.0937180976 0.1502111424 0.3027830753 -0.4702171046 0.3030708538 -0.470532863 -0.074878993 0.1657359886
480297120.0 -0.0918720811 0.151247672 0.2975174589 -0.4739942788 0.2980531593 -0.473837624 -0.0732507045 0.1670262741
485297090.0 -0.0908112676 0.1517474921 0.2924065854 -0.4769408564 0.2925481682 -0.4766451265 -0.0714545824 0.1680204956
490297060.0 -0.0887454544 0.1532605981 0.2870459273 -0.4802502303 0.2872499583 -0.4801545714 -0.069832686 0.1686173234
495297030.0 -0.0875080069 0.1537153947 0.2821985548 -0.4829494021 0.2819230953 -0.4834549307 -0.067301105 0.1696883125
500297000.0 -0.0860783082 0.1550031666 0.2767980109 -0.4859486635 0.2769513113 -0.48647248 -0.0656076157 0.1706900719
505296970.0 -0.0840346307 0.1559972202 0.2718869986 -0.4892980921 0.271504096 -0.4887472636 -0.0634257474 0.1710886345
510296940.0 -0.0828943691 0.1566324633 0.266180686 -0.4927475432 0.2664325591 -0.4927449467 -0.061468069 0.1724622053
515296910.0 -0.0813171561 0.1578745549 0.2603917871 -0.4949012543 0.2604359882 -0.4951460671 -0.0598505503 0.1727875309
520296880.0 -0.0797796783 0.1588515311 0.2552409874 -0.4979674466 0.255114175 -0.4977119221 -0.0574381358 0.1739705886
525296850.0 -0.0779732436 0.1596811024 0.2496833183 -0.5007263829 0.249914611 -0.5002494307 -0.055615597 0.1744872338
530296820.0 -0.0766376889 0.1601899756 0.2442786059 -0.5031151297 0.2441056808 -0.5030399921 -0.0536815296 0.1749784542
535296790.0 -0.074159417 0.1612059564 0.2386356851 -0.5055916324 0.2390732605 -0.5058978382 -0.0514870256 0.1760297297
540296760.0 -0.0728099255 0.1620098518 0.2330046654 -0.5082982919 0.2328048012 -0.5082341589 -0.049676278 0.176392631
545296730.0 -0.0717339874 0.1635068989 0.2277925261 -0.5106205802 0.2274317496 -0.5104685689 -0.0477795072 0.1773969027
550296700.0 -0.0695757535 0.1641205426 0.2223815516 -0.513354859 0.2218011856 -0.5135506492 -0.0454328543 0.1777400991
555296670.0 -0.0678956304 0.1648140426 0.2166803523 -0.5160365127 0.2165115006 -0.5157288497 -0.0435792223 0.1779226166
560296640.0 -0.0658506452 0.1655542948 0.2103757286 -0.517946295 0.2112637122 -0.5180134069 -0.0417383587 0.179144988
565296610.0 -0.0646059555 0.1664978758 0.2053224909 -0.5201851132 0.2056147105 -0.5194305785 -0.0395230085 0.1799114038
570296580.0 -0.0630431614 0.1677654492 0.1993347495 -0.5225867106 0.1995662089 -0.5221687859 -0.0376286173 0.1801630431
575296550.0 -0.0612484817 0.1679771605 0.1943781702 -0.5243508218 0.1942501755 -0.524409171 -0.0356630748 0.180734764
580296520.0 -0.0594355128 0.1689349474 0.1884925872 -0.5267477586 0.1881832182 -0.526756717 -0.0338385189 0.1812266404
585296490.0 -0.057674617 0.1698968805 0.1827906806 -0.5282901443 0.1819243296 -0.5282720002 -0.0314373517 0.1821743959
590296460.0 -0.0553674261 0.1705499889 0.1765394668 -0.5303399636 0.1766346181 -0.5304678095 -0.0295274524 0.1823794988
595296430.0 -0.0539505017 0.1712588167 0.1703534165 -0.5321053398 0.1703822905 -0.5322272989 -0.0275527609 0.1827948793
600296400.0 -0.0522280816 0.1719278232 0.1646905019 -0.5339065274 0.1649509028 -0.5338774362 -0.0252858634 0.182934048
605296370.0 -0.0507036267 0.1728274626 0.159442277 -0.5356950695 0.1589744829 -0.5358862041 -0.0231943602 0.183676852
610296340.0 -0.0487185224 0.1738000525 0.1535177701 -0.5366400353 0.1534772974 -0.5374486602 -0.0214401598 0.1843231097
615296310.0 -0.0466563187 0.1743515013 0.147473824 -0.5392594535 0.1469107686 -0.539136629 -0.0187521327 0.1844827492
620296280.0 -0.0453809535 0.1753093215 0.1414337606 -0.5409715127 0.1416030376 -0.5404061697 -0.0171461579 0.1849212887
625296250.0 -0.0436844524 0.1755208083 0.1355041354 -0.5420608321 0.1359109886 -0.5421005127 -0.0154468132 0.1849149611
630296220.0 -0.0418123099 0.1767803915 0.1295947307 -0.5439337101 0.1293711727 -0.5430050412 -0.0126431131 0.1856684904
635296190.0 -0.0401638394 0.1771603256 0.1239091051 -0.5446523461 0.1240554483 -0.5445801642 -0.0111339962 0.1855499857
640296160.0 -0.038334637 0.1777622939 0.1180777696 -0.546435227 0.1180671959 -0.5463192121 -0.0093066938 0.1859212756
645296130.0 -0.0362310154 0.1788889927 0.1124220121 -0.5473532325 0.1120139465 -0.5467325456 -0.0071019737 0.1857936621
650296100.0 -0.0347855546 0.1790076328 0.1065000741 -0.5485660876 0.1059037255 -0.5488185752 -0.0043928474 0.1861237456
655296070.0 -0.0330498951 0.1795144819 0.1000763407 -0.5493625627 0.1003814845 -0.5492645379 -0.0032055898 0.1865016397
660296040.0 -0.0311260316 0.1802956894 0.0944929795 -0.5504696429 0.094277963 -0.5505147544 -0.0007282946 0.1862110314
665296010.0 -0.0295831282 0.1809582488 0.0878810275 -0.5512384427 0.0878328422 -0.5510153088 0.0013788281 0.1868246948
670295980.0 -0.0275990217 0.1814588439 0.082186802 -0.5521236389 0.0822688589 -0.5518470913 0.0030565225 0.1867476638
675295950.0 -0.0258474707 0.1816891992 0.0762118891 -0.553014121 0.0766479622 -0.5527161326 0.0051830017 0.1870521095
680295920.0 -0.024508442 0.1825372059 0.0702979334 -0.5534233922 0.0703777556 -0.5536300286 0.0078799019 0.1867974941
685295890.0 -0.0223115621 0.1832444692 0.0641233369 -0.5545734714 0.0644617446 -0.5546634352 0.0095856283 0.1871399397
690295860.0 -0.0210547492 0.1835701749 0.0586674691 -0.5554393134 0.0578164629 -0.5551632869 0.0117221636 0.186839651
695295830.0 -0.0188251212 0.1838104062 0.0524091724 -0.5556231009 0.0523273781 -0.5558105107 0.0135921095 0.1873629022
700295800.0 -0.0169072885 0.1845857314 0.0467881758 -0.5563521442 0.0469106593 -0.5561702348 0.0157052682 0.1873296601
705295770.0 -0.0153181587 0.1849834343 0.0407434408 -0.5569080675 0.0405817576 -0.5565667401 0.01795318 0.1874500603
710295740.0 -0.0136319727 0.1848295704 0.0345923177 -0.5568635727 0.0343103422 -0.5572620791 0.0201966558 0.1874723471
715295710.0 -0.0116098864 0.1859157791 0.0289476372 -0.5573872732 0.0284887587 -0.5570837595 0.0219372767 0.1868088909
720295680.0 -0.009658597 0.1861445555 0.0221389339 -0.5576755403 0.0220464671 -0.5579513457 0.0239053568 0.1869896773
725295650.0 -0.0086394352 0.1866468555 0.0170040135 -0.5578679323 0.0163884179 -0.5579441105 0.0259922018 0.1874083329
730295620.0 -0.0071852227 0.1867940537 0.0103950571 -0.5573463816 0.0103522349 -0.5572734476 0.0278369213 0.1872753548
735295590.0 -0.0049638142 0.1871956608 0.0045772684 -0.5577179143 0.0042864745 -0.5581164261 0.0300472942 0.1868594718
740295560.0 -0.0034540319 0.1875272064 -0.0010770028 -0.5581943516 -0.0012254426 -0.5580290942 0.0321116948 0.186606554
745295530.0 -0.0015585841 0.1877651951 -0.0072015351 -0.5571876241 -0.00705555 -0.5576919627 0.033600836 0.1863203309
750295500.0 -0.0003380601 0.1878351369 -0.0127922781 -0.5575195752 -0.0134542354 -0.5580544874 0.0359688285 0.1862620155
755295470.0 0.0015633637 0.1883020069 -0.0192132802 -0.5577332988 -0.0193310136 -0.5581886507 0.0382548041 0.1864922144
760295440.0 0.0036469433 0.1889258481 -0.0260798891 -0.5574009813 -0.0257118268 -0.556936287 0.0403358315 0.1851346683
765295410.0 0.0056306452 0.188721756 -0.0312097401 -0.556694975 -0.0312503608 -0.5568428225 0.0424856949 0.1853394489
770295380.0 0.0071239237 0.1890805917 -0.036730934 -0.556278464 -0.037028796 -0.5569085095 0.0441254719 0.1852218096
775295350.0 0.0087533282 0.1888791887 -0.0430599664 -0.5560111853 -0.0430745184 -0.5555270792 0.0465006307 0.1849726897
780295320.0 0.0105999268 0.1894631308 -0.0492338992 -0.5552057232 -0.0490107555 -0.5554116773 0.0486151475 0.184344929
785295290.0 0.0122408367 0.1893463428 -0.055045294 -0.5547654777 -0.0550696566 -0.5549197899 0.0500266881 0.1845123906
790295260.0 0.0141598082 0.1895350114 -0.06110491 -0.5543656861 -0.0612501371 -0.554557883 0.052387423 0.184221011
795295230.0 0.0155608065 0.1891117129 -0.067049472 -0.5537227386 -0.0670286264 -0.5536317402 0.0542747523 0.1827629498
800295200.0 0.0172399097 0.1895546626 -0.0723450081 -0.5523016632 -0.0732781626 -0.5529167323 0.0560858185 0.1829112199
805295170.0 0.0189659003 0.1895669929 -0.078858591 -0.5519306622 -0.078507047 -0.5520894332 0.0587470919 0.1823155672
810295140.0 0.0210129778 0.1897605026 -0.084588976 -0.5507975467 -0.0848374278 -0.5511936171 0.0603192591 0.1817894192
815295110.0 0.0224416254 0.1895684078 -0.0905417198 -0.5501570271 -0.090478674 -0.5499802245 0.0622691647 0.1812802769
820295080.0 0.0243426332 0.1895917105 -0.0958387668 -0.5486745405 -0.096148776 -0.5493829205 0.0636676599 0.1815010106
825295050.0 0.0258646782 0.1893636393 -0.1023671191 -0.5480688109 -0.1021595614 -0.5481389315 0.0666410072 0.1809052406
830295020.0 0.0278295294 0.189266983 -0.1082738423 -0.5468830857 -0.1084556583 -0.5468725756 0.0683847259 0.179641843
