!Created with skrf (http://scikit-rf.org).
# Hz S RI R 50.0 
!freq ReS11 ImS11 ReS21 ImS21 ReS12 ImS12 ReS22 ImS22
300000.0 -0.2397693564 -0.0807905788 0.4707290754 0.0555498614 0.4679433986 0.0544599829 -0.2415008213 -0.0974378833
5299970.0 -0.2441086062 0.0071321298 0.473166301 0.0051010991 0.4735462575 0.005229379 -0.2438184254 0.0073397196
10299940.0 -0.2410833897 0.0185754142 0.4753795362 0.0063304652 0.4754824827 0.006406978 -0.2407016655 0.0202530218
15299910.0 -0.2366310611 0.0278757245 0.4791681585 0.0076828534 0.4791913606 0.0076925621 -0.2360517577 0.029661455
20299880.0 -0.2319379794 0.0353422852 0.4838674478 0.0084458774 0.4839690283 0.0081291747 -0.230787055 0.0375083122
25299850.0 -0.227036365 0.0420751053 0.489156069 0.0072693794 0.4891660298 0.0078513785 -0.2249434723 0.0440313649
30299820.0 -0.221493523 0.0472973689 0.4944598725 0.005402003 0.4942477691 0.0054851285 -0.2191073068 0.0491674488
35299790.0 -0.2166530135 0.0514382469 0.5000291867 0.0020294062 0.4999724059 0.0020235271 -0.2133317783 0.0536347167
40299760.0 -0.2114328539 0.0550477293 0.5049632772 -0.0018584104 0.5051269678 -0.0016906718 -0.2080179113 0.0560571601
45299730.0 -0.2064915243 0.0574641046 0.5093709044 -0.0064399828 0.5099952327 -0.0065039506 -0.2031950406 0.0593570508
50299700.0 -0.2024797434 0.0598696342 0.5140679021 -0.0121316006 0.5141855741 -0.0116836494 -0.1986357346 0.0606056689
55299670.0 -0.1983108842 0.0618607804 0.5180567216 -0.0182095827 0.5178530476 -0.0178356118 -0.1944682074 0.0621583528
60299640.0 -0.1943763611 0.0636188326 0.5212262813 -0.0244179206 0.5214293715 -0.0238800793 -0.1902859348 0.0631450784
65299610.0 -0.1910128199 0.0647926029 0.5241766586 -0.0308108185 0.5240973199 -0.0305360003 -0.1871762387 0.0640288667
70299580.0 -0.1877212982 0.0661348772 0.5268857822 -0.0374466896 0.5268549936 -0.0371190033 -0.1839516104 0.0648255297
75299550.0 -0.1850383197 0.0673023715 0.5282504979 -0.0442579813 0.5282787094 -0.0439473013 -0.1809038246 0.0652047718
80299520.0 -0.1825410859 0.0683335989 0.5308100699 -0.0511189132 0.5306057332 -0.0510865406 -0.1786850746 0.0659558608
85299490.0 -0.1801738363 0.0688796822 0.5317592348 -0.0574588499 0.531856969 -0.057703094 -0.1764001152 0.0661847631
90299460.0 -0.1780326041 0.0697119244 0.5320361277 -0.0645653628 0.5329600585 -0.0647131002 -0.1736483561 0.0668017222
95299430.0 -0.1754907919 0.0704367209 0.5338366969 -0.071473817 0.53382664 -0.071728859 -0.1716807514 0.0674713469
100299400.0 -0.1737978723 0.0717268655 0.5337051672 -0.078340132 0.5336007792 -0.0786154381 -0.1695420044 0.0674214323
105299370.0 -0.1719293254 0.0723164083 0.5341562453 -0.0860928807 0.5346601208 -0.0855252466 -0.1675787359 0.068013076
110299340.0 -0.1705939354 0.073249707 0.5345493032 -0.0922062207 0.5344186655 -0.0919985821 -0.1662512638 0.0680761464
115299310.0 -0.1687970298 0.0739562571 0.5345031715 -0.0988972144 0.53475413 -0.0988853166 -0.1648508346 0.0690249844
120299280.0 -0.1672807813 0.0747391227 0.5341993807 -0.1059844749 0.5343526336 -0.1059284848 -0.1632205871 0.0692685786
125299250.0 -0.1661038336 0.0754992356 0.5337698752 -0.1125430695 0.5336519637 -0.1125901557 -0.1626230659 0.0695760509
130299220.0 -0.1650879386 0.0767526524 0.5328770241 -0.1195719551 0.5331326097 -0.1194517424 -0.1612406349 0.0702283419
135299190.0 -0.1635243632 0.0779359454 0.5327607897 -0.1256990383 0.5326553572 -0.125945868 -0.1597897533 0.0712936731
140299160.0 -0.1625768862 0.0789163326 0.5321591575 -0.132731587 0.5320014379 -0.1326158402 -0.1587772213 0.0720729079
145299130.0 -0.1614515796 0.0800217538 0.531091575 -0.1393834628 0.5304561319 -0.1391841408 -0.1577158346 0.0728545832
150299100.0 -0.1601158745 0.0812252926 0.5295811521 -0.1450967015 0.5296902634 -0.1450579911 -0.1568708598 0.0739222164
155299070.0 -0.1591328944 0.0822320431 0.5286987787 -0.1530122144 0.5283087491 -0.1522991476 -0.1556069186 0.0747018556
160299040.0 -0.1580289188 0.0834699826 0.5273222996 -0.1587301252 0.5266247671 -0.1589988412 -0.1551983527 0.0757126194
165299010.0 -0.1575179487 0.0848016153 0.5259690719 -0.1655084364 0.525745069 -0.1656214724 -0.1539306562 0.0767585451
170298980.0 -0.1562977071 0.0856479608 0.5239726154 -0.171432631 0.5247304428 -0.1717018075 -0.1530920423 0.0776940705
175298950.0 -0.1555332619 0.0869503059 0.5231701202 -0.1777702212 0.5226625226 -0.1776353343 -0.152905408 0.0789598164
180298920.0 -0.1546265178 0.0885168774 0.5211421555 -0.1845281673 0.5205027378 -0.1839097162 -0.1519269508 0.0798005439
185298890.0 -0.1531357054 0.0894816794 0.5188266413 -0.1902650541 0.5186864672 -0.1905161239 -0.1512522422 0.0808799268
190298860.0 -0.1526019763 0.0909566524 0.5174136381 -0.1968170593 0.5171319484 -0.1966269899 -0.1504108909 0.0818624414
195298830.0 -0.1516869242 0.0920896721 0.5150032018 -0.2028809187 0.5151399342 -0.2023402039 -0.1492430784 0.08292793
200298800.0 -0.1507690974 0.0937418323 0.5132017209 -0.2092709373 0.5131145901 -0.2087821395 -0.1493651244 0.0842358447
205298770.0 -0.1497346931 0.0951877295 0.5105426149 -0.2151284711 0.5108736977 -0.2150790229 -0.1482732767 0.0847725825
210298740.0 -0.1488970967 0.0960559499 0.5085719871 -0.2206836275 0.5086653372 -0.2206413322 -0.1473972441 0.0868920047
215298710.0 -0.1482802173 0.0979283903 0.5063683184 -0.2270650444 0.5059846658 -0.2267998 -0.1470897192 0.0877611451
220298680.0 -0.1469472427 0.0989385701 0.5034490113 -0.2325545576 0.5038561127 -0.2326640528 -0.146838652 0.0886140283
225298650.0 -0.1460341187 0.1001295427 0.5011477637 -0.2386753308 0.5012534003 -0.2387391468 -0.1462425399 0.0897415329
230298620.0 -0.1452494782 0.1020847013 0.4988585781 -0.2442216437 0.4992062491 -0.2441434095 -0.1455406114 0.0909413365
235298590.0 -0.1441680278 0.1037176515 0.4963584487 -0.2500791298 0.4963848044 -0.2498481319 -0.1444545069 0.0922627462
240298560.0 -0.1431967561 0.1052022479 0.4936755596 -0.2561276565 0.4934509812 -0.2560707033 -0.1437283333 0.093679569
245298530.0 -0.1423334545 0.1063619553 0.4912632563 -0.2614421795 0.4908032033 -0.2620033982 -0.1429354639 0.0943445204
250298500.0 -0.1408088529 0.1079519924 0.4873837416 -0.2674527634 0.4875764665 -0.2669788698 -0.1426035674 0.095943208
255298470.0 -0.1399500879 0.1091780203 0.4844188366 -0.2725660271 0.4846891156 -0.2726629782 -0.1413059476 0.096762396
260298440.0 -0.1393327621 0.1105370921 0.4817975111 -0.2782387669 0.4819515721 -0.2779661269 -0.1405681404 0.0982385762
265298410.0 -0.1375378262 0.1125347429 0.4788885269 -0.2843741492 0.4793550542 -0.2835348844 -0.139715384 0.0991207484
270298380.0 -0.1365558226 0.1137038303 0.4758268222 -0.2893236363 0.4763319376 -0.2891363938 -0.1392052692 0.1004596698
275298350.0 -0.1351663711 0.1151038707 0.4721663971 -0.2948826955 0.4730354235 -0.2944459212 -0.13774555 0.1018127409
280298320.0 -0.1338860297 0.1168089232 0.4695311304 -0.3000903481 0.469635334 -0.3000482258 -0.1369092927 0.1029600541
285298290.0 -0.1329703378 0.1184372536 0.4665532237 -0.3052548797 0.4661840471 -0.3057105504 -0.1359375058 0.1043310352
290298260.0 -0.1315354637 0.119742409 0.462709135 -0.3105195297 0.4630314894 -0.3107417555 -0.13469524 0.1057563148
295298230.0 -0.1300672063 0.1208880153 0.4600869061 -0.3157737082 0.4594740159 -0.3157273318 -0.1335759511 0.1066876721
300298200.0 -0.1292381237 0.1223460982 0.456720105 -0.3206803041 0.4565449435 -0.3213620357 -0.1328098205 0.1078821893
305298170.0 -0.1275633955 0.1235024616 0.4524322733 -0.3267615464 0.4526264358 -0.3262026183 -0.1310992011 0.1088116952
310298140.0 -0.1266446686 0.12522814 0.4491946386 -0.3317360609 0.449188013 -0.3317759669 -0.1305300586 0.1103160275
315298110.0 -0.1248053085 0.1262104602 0.445218062 -0.3369954251 0.4455391612 -0.3368491692 -0.1294600069 0.1112273465
320298080.0 -0.1236464875 0.1276158442 0.4411064366 -0.3425360187 0.4419291294 -0.3419091531 -0.1284661229 0.1125697352
325298050.0 -0.1225903017 0.1288669815 0.4376600675 -0.3472743391 0.4375121423 -0.3470858127 -0.1279290382 0.1136837546
330298020.0 -0.1212449667 0.1300091406 0.4333474408 -0.3516018724 0.4341065233 -0.3517734625 -0.1270843856 0.1151138261
335297990.0 -0.1199229522 0.1310580364 0.4295932368 -0.3564847245 0.4295280102 -0.3568199905 -0.126387814 0.1168881441
340297960.0 -0.1190598756 0.132709394 0.4252546146 -0.3615091633 0.4253307636 -0.361663328 -0.1244892506 0.1180741449
345297930.0 -0.1179407154 0.1344661127 0.4214703695 -0.3664327972 0.4214099334 -0.3660940533 -0.1240879426 0.1189831092
350297900.0 -0.1164295557 0.1356668404 0.4167380581 -0.3708939639 0.4173585041 -0.3709609312 -0.1234033447 0.1209229169
355297870.0 -0.1150289737 0.1376893198 0.413092744 -0.3754049928 0.4134999749 -0.3750719761 -0.1224037647 0.1219168402
360297840.0 -0.1136932165 0.1386083098 0.4095129267 -0.3793864213 0.4093637567 -0.3797572376 -0.12100277 0.1237602829
365297810.0 -0.1125628663 0.1402190977 0.4050406135 -0.3844824786 0.4051732952 -0.3848141821 -0.1198902113 0.1251368665
370297780.0 -0.1104947739 0.1414317498 0.3999554091 -0.3889001883 0.4009791572 -0.3884667755 -0.1190079446 0.1263953658
375297750.0 -0.1091454032 0.1429185285 0.3960160339 -0.3936467929 0.3967036791 -0.3934008457 -0.1177110668 0.1274536633
380297720.0 -0.1076761619 0.1440560009 0.3918300358 -0.3976911363 0.3921427414 -0.3971260845 -0.1172761098 0.1287115907
385297690.0 -0.1064778587 0.1455815071 0.3879016453 -0.4018647611 0.3872572559 -0.4018586331 -0.1154769812 0.1300824172
390297660.0 -0.1048223165 0.1469428984 0.3834089453 -0.4059893574 0.383316658 -0.4058564604 -0.1148141363 0.1313271942
395297630.0 -0.1032525649 0.1482566943 0.3789771227 -0.4107117603 0.3785295741 -0.4105382958 -0.1129088194 0.1328718608
400297600.0 -0.1017085573 0.149597972 0.3737067202 -0.4150949314 0.3740871816 -0.4145880204 -0.1122819183 0.1339739376
405297570.0 -0.1004574216 0.1506997662 0.3691171653 -0.4188605108 0.3694824245 -0.4185519708 -0.1113463796 0.1350403981
410297540.0 -0.0983971323 0.1519893572 0.3650961425 -0.4228067856 0.3652478461 -0.4225899015 -0.1098350662 0.1366333541
415297510.0 -0.0966111467 0.1531233167 0.3602659921 -0.4268062681 0.3603659729 -0.4268785431 -0.1086361899 0.137643556
420297480.0 -0.0952563674 0.1549388811 0.3552307604 -0.4309306083 0.3553059493 -0.430843869 -0.107712941 0.1385728546
425297450.0 -0.0935149345 0.1555189292 0.3508625694 -0.434321836 0.3513684959 -0.43442461 -0.1064297529 0.1399992467
430297420.0 -0.0919750929 0.1568885157 0.3459160338 -0.4377254681 0.3459648681 -0.4378096809 -0.1053257015 0.1408892009
435297390.0 -0.0904180142 0.1579142278 0.3409578618 -0.4419090795 0.3409744073 -0.4422014704 -0.1033931489 0.1419093481
440297360.0 -0.0883335307 0.1592190068 0.3363222803 -0.4452432979 0.3366275858 -0.445546921 -0.1025111487 0.142800575
445297330.0 -0.0867750849 0.1598921005 0.3317118077 -0.4493483855 0.3317407245 -0.4488519348 -0.1008150435 0.1434324168
450297300.0 -0.0846831246 0.160755583 0.3265714489 -0.4529842756 0.3265043959 -0.4531719998 -0.0994517878 0.1448410785
455297270.0 -0.083046219 0.1623890212 0.3211440736 -0.456473978 0.3215314736 -0.456643968 -0.0981935843 0.1457308719
460297240.0 -0.0814085604 0.1633111614 0.3161390112 -0.4594313553 0.3164310256 -0.4600034784 -0.0965354882 0.1470207183
465297210.0 -0.0791227862 0.1644090431 0.3113492227 -0.4634382225 0.3114780062 -0.4636145521 -0.0950649997 0.1478205614
470297180.0 -0.0776364435 0.1651583739 0.3058900451 -0.4667490084 0.3062705772 -0.4668544134 -0.0935044245 0.1492047414
475297150.0 -0.0759456353 0.165873581 0.3009830128 -0.469586208 0.3012785871 -0.4696188741 -0.0918196447 0.1498697421
480297120.0 -0.073886821 0.1675394594 0.2957232996 -0.473513057 0.2960741834 -0.473686959 -0.0903643595 0.1511366815
485297090.0 -0.0724606045 0.1683874566 0.2911676438 -0.4766967079 0.2907383407 -0.4761496311 -0.088740398 0.1519186375
490297060.0 -0.0709652737 0.1691972673 0.2857853818 -0.4797212359 0.2857513081 -0.4794369728 -0.0874103685 0.1532132608
495297030.0 -0.0687164126 0.1700714283 0.2799293566 -0.4824745822 0.2813065467 -0.4822698633 -0.0863107255 0.1542393661
500297000.0 -0.0669072922 0.1706365328 0.2747399481 -0.4850804262 0.2749266112 -0.4849147538 -0.0846013231 0.1556568231
505296970.0 -0.0648653726 0.171562117 0.2701456637 -0.4882758226 0.269925912 -0.4883727296 -0.0830636101 0.1565952864
510296940.0 -0.063025947 0.1725952327 0.2643787828 -0.491346319 0.2643234635 -0.4914883344 -0.0813674436 0.1572892125
515296910.0 -0.0610107983 0.1733961225 0.259076351 -0.4939641661 0.2592485879 -0.4940907852 -0.0799689879 0.1585698385
520296880.0 -0.0594450644 0.1742960037 0.2536167795 -0.4973533243 0.2537615312 -0.496735246 -0.078608347 0.1592230806
525296850.0 -0.0571002151 0.1744154463 0.2478012178 -0.4996681686 0.2487450352 -0.499260436 -0.0772854935 0.1604890677
530296820.0 -0.0554811099 0.1757729323 0.2428176284 -0.5024203255 0.2426026923 -0.502624465 -0.0754308606 0.1614884726
535296790.0 -0.054011638 0.1764110841 0.237598375 -0.5043493779 0.2377568898 -0.5045825863 -0.0740112085 0.1618111608
540296760.0 -0.0519814063 0.1773625752 0.231764843 -0.5078867133 0.2317283812 -0.5078323436 -0.0728671048 0.1636319049
545296730.0 -0.0496574648 0.1780605451 0.2260386455 -0.5096635993 0.2265158926 -0.5100677929 -0.0712154914 0.1643309266
550296700.0 -0.0476524005 0.178954651 0.2207676599 -0.5119998686 0.2210834718 -0.5125602396 -0.0696932698 0.165308645
555296670.0 -0.0458865953 0.1792905279 0.2150890991 -0.5146615767 0.2152668822 -0.5145433724 -0.0680138209 0.1661723893
560296640.0 -0.0435743053 0.1805307047 0.2094909489 -0.5173257546 0.2098541215 -0.5169241309 -0.0664003201 0.1667431588
565296610.0 -0.0417164676 0.1807051855 0.2037816792 -0.5191089547 0.2040532353 -0.5190888182 -0.0653380426 0.167151295
570296580.0 -0.0399557763 0.1815234407 0.1984647042 -0.521828251 0.1978264943 -0.521363288 -0.0634169226 0.1686398118
575296550.0 -0.0380831971 0.1820724801 0.1926286907 -0.5237535358 0.1926143732 -0.5235123897 -0.0618802428 0.1689110814
580296520.0 -0.0358388746 0.1827135853 0.1868097035 -0.5258841458 0.1869596721 -0.5255584951 -0.0601769041 0.1696743302
585296490.0 -0.0339336163 0.1827502271 0.1811313894 -0.5269526907 0.1812824782 -0.527604421 -0.0585093162 0.1704360605
590296460.0 -0.0315248325 0.1834357286 0.1755174507 -0.5292256559 0.1753510959 -0.5293357201 -0.0572174562 0.1711473866
595296430.0 -0.029764327 0.1840344292 0.1694010983 -0.5313814448 0.1696177574 -0.5310877313 -0.0555682997 0.1714230335
600296400.0 -0.0278740232 0.1846413383 0.1636905105 -0.5332135398 0.1638091719 -0.5326396423 -0.0541340406 0.1721336992
605296370.0 -0.025954953 0.1851212847 0.1582765715 -0.5347763749 0.1582304937 -0.5350784638 -0.0521878494 0.1728949741
610296340.0 -0.0237945008 0.1853637252 0.1519187208 -0.5361623926 0.1524256015 -0.5364469644 -0.0500904923 0.1730545039
615296310.0 -0.0211879181 0.1856307052 0.1459352896 -0.5375114991 0.1462236391 -0.538216424 -0.0485638427 0.1739328864
620296280.0 -0.0195171406 0.1859515197 0.1404867484 -0.5391772363 0.1408219388 -0.5392075064 -0.0470148195 0.1744017553
625296250.0 -0.0178715992 0.1859140342 0.1352038675 -0.5410905776 0.1349230784 -0.5409335698 -0.0446286871 0.1748622265
630296220.0 -0.0150504175 0.1863893959 0.1282816325 -0.542972577 0.1285796444 -0.5425574737 -0.0435018116 0.1756273309
635296190.0 -0.0138589872 0.1869051679 0.1229114009 -0.5433026323 0.123250145 -0.5439267596 -0.0416473161 0.1762065989
640296160.0 -0.0113738359 0.1870684315 0.1167099048 -0.5443943761 0.1173025057 -0.5446865004 -0.0396482569 0.1765056314
645296130.0 -0.0093375312 0.1874263182 0.1109565437 -0.5454483493 0.1118281897 -0.5457932665 -0.0379276777 0.1773949601
650296100.0 -0.0073688755 0.1874409335 0.104949105 -0.5470288587 0.1055328241 -0.5467541068 -0.0358920983 0.177365305
655296070.0 -0.0054829779 0.187625787 0.0995235635 -0.5481582355 0.0996597044 -0.5482195213 -0.0340653125 0.1781446616
660296040.0 -0.003604674 0.187652416 0.0938894714 -0.5492584929 0.093853097 -0.5492032898 -0.0322469262 0.1787677611
665296010.0 -0.00106825 0.1877282006 0.0870462359 -0.5500087099 0.0875887367 -0.5501047523 -0.0305276843 0.1796577422
670295980.0 0.0001086817 0.188201361 0.0815210442 -0.5509209373 0.0815215384 -0.5509669683 -0.0288763354 0.1797412262
675295950.0 0.0026436286 0.1885175588 0.0757247767 -0.55144247 0.0757861586 -0.5511073725 -0.0275962382 0.1803973558
680295920.0 0.0047074202 0.1885834971 0.0694765959 -0.5522824362 0.0690699892 -0.5528236328 -0.02549754 0.1816428837
685295890.0 0.0069529539 0.1889011027 0.0636855051 -0.5531124375 0.0636030297 -0.5532070431 -0.023643738 0.1815718369
690295860.0 0.0090964478 0.188664045 0.0578727174 -0.553385165 0.0576827905 -0.5541506434 -0.0222280116 0.182093842
695295830.0 0.0111678467 0.1886593651 0.0521261521 -0.5541880617 0.0516715179 -0.5546302597 -0.0201949883 0.1825870656
700295800.0 0.0135009001 0.1887173938 0.0457772502 -0.5548133462 0.0454272127 -0.5548070487 -0.0188037109 0.1835814765
705295770.0 0.0150707604 0.1892532311 0.0396122997 -0.5553044736 0.0399583014 -0.5554300602 -0.0168099385 0.1834440399
710295740.0 0.0174492083 0.1889692109 0.0339722588 -0.5561833599 0.0338756453 -0.5558786588 -0.0150825655 0.1833170357
715295710.0 0.019105638 0.1884605611 0.02794298 -0.5558676002 0.0278435294 -0.5560428678 -0.0135795158 0.184140255
720295680.0 0.0213021864 0.1888078396 0.0215993746 -0.5565131087 0.0217591968 -0.556342346 -0.0116234054 0.1846527391
725295650.0 0.0235103507 0.1888501632 0.0157993384 -0.5564962881 0.015801554 -0.5563459929 -0.0102347462 0.1849757926
730295620.0 0.0260166575 0.1886144262 0.00939064 -0.5562579354 0.0098194272 -0.5564008391 -0.0085721182 0.1847372113
735295590.0 0.0278236151 0.1885571707 0.0038405547 -0.5569364495 0.0036963466 -0.5567583045 -0.0068986676 0.1852473728
740295560.0 0.0296821785 0.1882636198 -0.0022038365 -0.5562292684 -0.0021426248 -0.5566827785 -0.004514299 0.1857776723
745295530.0 0.0317933213 0.1880957407 -0.008360369 -0.5558215691 -0.0087889075 -0.5561778653 -0.0030883385 0.1854210019
750295500.0 0.0340793252 0.1877608347 -0.0140293303 -0.5560743304 -0.0140194086 -0.5563560052 -0.0014218283 0.1857954419
755295470.0 0.0361714078 0.1874092537 -0.0202848247 -0.5557912369 -0.0200130216 -0.5563492638 0.000912718 0.1852601918
760295440.0 0.0382193733 0.1874719298 -0.0264127274 -0.5560486718 -0.0263051582 -0.556006357 0.0024720437 0.1852602284
765295410.0 0.040201543 0.1871125347 -0.0324672107 -0.5554138316 -0.0326595235 -0.5558844096 0.0039325057 0.1860344096
770295380.0 0.0418842088 0.1864842611 -0.0381358424 -0.5555304349 -0.0380735494 -0.5549930867 0.0056405843 0.1857178533
775295350.0 0.043932732 0.1861159755 -0.044656257 -0.5541107221 -0.0441948353 -0.554315918 0.00701693 0.186006881
780295320.0 0.0463381045 0.1859225864 -0.0501866871 -0.553703275 -0.0496625216 -0.5537050546 0.0090835458 0.1857545442
785295290.0 0.0478675741 0.1850002611 -0.0565708742 -0.5529554354 -0.0563764156 -0.5536384945 0.011670502 0.1858652706
790295260.0 0.050775372 0.1853231855 -0.0619492203 -0.5526822675 -0.0609844822 -0.5524636791 0.0131155538 0.1857676216
795295230.0 0.0521603656 0.1845954504 -0.0680979952 -0.5522292801 -0.0673926119 -0.5518105402 0.0155046579 0.1860545637
800295200.0 0.0540191372 0.184296939 -0.074362897 -0.550963335 -0.0740404084 -0.5510757244 0.0171506867 0.1857352703
805295170.0 0.0560933895 0.1836528155 -0.0799009795 -0.5499611489 -0.0798140754 -0.5506210628 0.018999412 0.1859114426
810295140.0 0.0579418926 0.1829020563 -0.0856001747 -0.5487582728 -0.0857697845 -0.549239167 0.0212233795 0.1862739673
815295110.0 0.0600687993 0.1823965636 -0.0916931932 -0.5476117556 -0.0913524885 -0.5483887151 0.0224556685 0.1859842049
820295080.0 0.0618986424 0.1822776822 -0.0975897021 -0.5470410094 -0.0971366181 -0.5467098129 0.0246622083 0.1858709113
825295050.0 0.0644973801 0.1814609148 -0.1030027995 -0.5459367228 -0.1031919422 -0.5462054215 0.0266217588 0.1858047377
830295020.0 0.0662357964 0.181165983 -0.1091237477 -0.5443050459 -0.1093407666 -0.5446351604 0.0289997958 0.1854919715
