!Created with skrf (http://scikit-rf.org).
# Hz S RI R 50.0 
!freq ReS11 ImS11 ReS21 ImS21 ReS12 ImS12 ReS22 ImS22
300000.0 -0.3211915563 -0.0832321133 0.3762781945 0.0438804821 0.3744928891 0.0403398459 -0.3229163479 -0.0966856893
5299970.0 -0.3264548312 0.0041069782 0.3782133627 0.0026401885 0.3782396371 0.0023998454 -0.324121057 0.004721596
10299940.0 -0.3241324605 0.0130255252 0.3793815119 0.0020373613 0.3795609822 0.0023569622 -0.3214991636 0.0159885174
15299910.0 -0.3213778113 0.0205285874 0.3818617795 0.0020503934 0.3820569609 0.0021747921 -0.3183027393 0.0236793907
20299880.0 -0.3187501122 0.0260928053 0.3848554205 0.0020898438 0.3849468973 0.0015382805 -0.3146991629 0.0304555506
25299850.0 -0.3156193146 0.0312985162 0.3881025287 0.0001715407 0.3880892519 0.0001052758 -0.3106648184 0.0359763913
30299820.0 -0.3128809505 0.0358594973 0.3913392553 -0.0020058805 0.3915957731 -0.002410536 -0.3071266168 0.0409388805
35299790.0 -0.3097561184 0.0400961361 0.3950668936 -0.005757927 0.3947000025 -0.0055226243 -0.3035547391 0.0453466559
40299760.0 -0.3070597147 0.0435979135 0.397645158 -0.0087825408 0.3980676765 -0.0087399695 -0.3002151858 0.0485807935
45299730.0 -0.3045995012 0.0465343108 0.4004753883 -0.0128228016 0.401120812 -0.0126467359 -0.2972964603 0.0520315511
50299700.0 -0.3023229054 0.0494535666 0.4035588321 -0.017212354 0.4037031329 -0.0170536056 -0.2941163802 0.0544691972
55299670.0 -0.3001924717 0.0523079453 0.4057956287 -0.0220805024 0.405497171 -0.0220407928 -0.2918428341 0.0570470483
60299640.0 -0.2978925476 0.0550987608 0.4074471978 -0.0272970315 0.4079486834 -0.0268500888 -0.2893490936 0.0593396585
65299610.0 -0.2964409869 0.0573970468 0.4088698409 -0.032122455 0.4092490373 -0.0317120112 -0.2873257195 0.0615146244
70299580.0 -0.2947155228 0.0600452555 0.4103993625 -0.0371907005 0.4104447411 -0.0370712224 -0.2850943288 0.0640374489
75299550.0 -0.2931633705 0.0625535888 0.4112939386 -0.0420533692 0.4114158367 -0.0422471383 -0.2833401153 0.0657539855
80299520.0 -0.2915759125 0.0650325204 0.4124141365 -0.047434754 0.4124216349 -0.0472172502 -0.2815298131 0.0681020977
85299490.0 -0.2901715981 0.0669164097 0.4130072389 -0.0526570292 0.4130657475 -0.0523846845 -0.279910093 0.0698122555
90299460.0 -0.288812044 0.0696037185 0.4128556773 -0.0582902602 0.4132683137 -0.0577738688 -0.2783058646 0.0720109701
95299430.0 -0.2873449042 0.0712793704 0.4136376871 -0.0630584826 0.4135824813 -0.063090051 -0.2764885295 0.0744299075
100299400.0 -0.2866637091 0.0741050446 0.4131493651 -0.0685309625 0.4132438793 -0.0682668629 -0.2749484473 0.0761194914
105299370.0 -0.2852869958 0.0764423965 0.4132692266 -0.0735657347 0.4136887003 -0.0734613251 -0.2738802277 0.0783102516
110299340.0 -0.2841250036 0.0787140846 0.4133281925 -0.0787649706 0.4130400088 -0.0781060646 -0.2728801657 0.0799189325
115299310.0 -0.2827918476 0.0809629112 0.412750937 -0.0837703112 0.4127502124 -0.0836720733 -0.2716387787 0.0824741035
120299280.0 -0.2819518969 0.0831976556 0.412291857 -0.0887815413 0.412140227 -0.0889535108 -0.2703671764 0.0847215686
125299250.0 -0.2809722184 0.0851479681 0.4118810909 -0.0935955384 0.4118423509 -0.0938087468 -0.2695833195 0.0862079194
130299220.0 -0.2804181335 0.0881070932 0.411195199 -0.099088568 0.4109799962 -0.0989391434 -0.268448778 0.0885103599
135299190.0 -0.2792211566 0.0907007364 0.4107651641 -0.1041845758 0.4102214315 -0.1040416185 -0.2672264755 0.091164886
140299160.0 -0.2785415884 0.0930799698 0.4098852994 -0.1093411142 0.4096456675 -0.1091426947 -0.2662177518 0.0936844586
145299130.0 -0.277414435 0.0957077439 0.4090090491 -0.1139588959 0.4085199651 -0.1139294925 -0.2650630563 0.0958972345
150299100.0 -0.2763291105 0.098474505 0.4078581811 -0.1189792173 0.4077169552 -0.1184894625 -0.2643280537 0.0986058683
155299070.0 -0.2754301586 0.1008781382 0.4065382276 -0.1240820089 0.4065356444 -0.1237855028 -0.2631911587 0.100787098
160299040.0 -0.2746185241 0.1036137006 0.4055132994 -0.1286020255 0.405161199 -0.1285018162 -0.2627115613 0.1031210032
165299010.0 -0.2736857429 0.1060885324 0.4041562772 -0.1340353644 0.404263087 -0.1336333123 -0.261657218 0.1059181846
170298980.0 -0.2727277598 0.1085774968 0.4025591422 -0.1384736804 0.4029197137 -0.1382834506 -0.2603743133 0.1080899092
175298950.0 -0.2717316772 0.111373664 0.4015204178 -0.1428809146 0.4011661522 -0.1430838112 -0.2596433427 0.1109260244
180298920.0 -0.2709452396 0.1139486986 0.4000544272 -0.1474547365 0.4000708665 -0.1473638693 -0.2583589264 0.1133744639
185298890.0 -0.2694958121 0.1160790059 0.3984168667 -0.1523756187 0.3985273284 -0.1521698641 -0.2573587298 0.115903909
190298860.0 -0.2687000745 0.1192716294 0.3969139867 -0.1571358831 0.3971431725 -0.1571140858 -0.2565527412 0.1181002875
195298830.0 -0.2677967831 0.1221075774 0.3950918449 -0.1621486318 0.3953328538 -0.1621926638 -0.2550421165 0.1209560425
200298800.0 -0.2663711976 0.1246399431 0.393383986 -0.1665357738 0.3935059185 -0.1666401206 -0.2547522819 0.1235129695
205298770.0 -0.2653250205 0.1272602348 0.391437428 -0.1712000582 0.3915943972 -0.1709807851 -0.2531289901 0.125623141
210298740.0 -0.2643052569 0.1298468832 0.3895748454 -0.175579475 0.389712189 -0.175176428 -0.2518107798 0.1288214627
215298710.0 -0.263275059 0.1326493782 0.3879119777 -0.1800492066 0.3880389018 -0.1800666858 -0.2511351879 0.1311194487
220298680.0 -0.2621876541 0.1349539632 0.3855623749 -0.1843493786 0.3856610438 -0.1844991951 -0.2500043427 0.1336043099
225298650.0 -0.2608690725 0.1377608329 0.3838531524 -0.189034267 0.3839878424 -0.1891569387 -0.2492703548 0.1358682687
230298620.0 -0.2598306328 0.1408728781 0.3822500693 -0.1931209849 0.3823352161 -0.1935357423 -0.2478893696 0.138411096
235298590.0 -0.2582475452 0.1436243299 0.3799172645 -0.1979354016 0.3799810406 -0.1972189849 -0.2462430334 0.1410709141
240298560.0 -0.2570924094 0.1462675192 0.3778700262 -0.2021980238 0.3776669443 -0.2023096791 -0.2452979251 0.1440291953
245298530.0 -0.2560487573 0.1489089402 0.3759676303 -0.2066019694 0.3752681912 -0.2066908 -0.243973057 0.1459355731
250298500.0 -0.2542661054 0.1515526111 0.3728137809 -0.2108119777 0.373044122 -0.2105392855 -0.242889378 0.1483921854
255298470.0 -0.2530474442 0.1542608018 0.3704402624 -0.2144187645 0.3709272529 -0.2146784138 -0.2409801464 0.150788076
260298440.0 -0.2516408665 0.156810774 0.3680790885 -0.2194684539 0.3685165918 -0.2193477564 -0.2394863617 0.1535785805
265298410.0 -0.2500162925 0.1604518907 0.365885314 -0.2234446832 0.366364735 -0.2228937566 -0.2384833597 0.1560807078
270298380.0 -0.2485363822 0.1624839707 0.3634917416 -0.2273414242 0.3640412125 -0.2271135436 -0.2368026449 0.158622527
275298350.0 -0.2468297802 0.1654760227 0.3607514366 -0.2319581355 0.361278431 -0.2317180255 -0.2349041851 0.1612387902
280298320.0 -0.2451737036 0.1681423189 0.3585309137 -0.2357316247 0.3588129255 -0.2352060004 -0.23330556 0.1635821123
285298290.0 -0.243538278 0.17082614 0.3560343553 -0.2398534812 0.355940481 -0.239586335 -0.2317650459 0.1658670889
290298260.0 -0.241875481 0.1733916625 0.3530124682 -0.2437284212 0.3534148621 -0.2438958192 -0.2302009423 0.1687000181
295298230.0 -0.2399299364 0.1756923725 0.3505976877 -0.2474727239 0.3509127385 -0.2478799265 -0.2283704502 0.1708388935
300298200.0 -0.2383749061 0.1783085515 0.3480238148 -0.2512564622 0.3480155129 -0.2512751949 -0.2266155301 0.1732760428
305298170.0 -0.2366012474 0.1805260472 0.3449388566 -0.2555344162 0.3453305638 -0.2555381914 -0.2244975731 0.175908164
310298140.0 -0.234819776 0.1836119684 0.3423782863 -0.2599150511 0.3426066191 -0.2594724498 -0.2232571474 0.1784175854
315298110.0 -0.2332141896 0.1858276492 0.3396415643 -0.2635165105 0.33963058 -0.2632376438 -0.2212473549 0.1804012815
320298080.0 -0.2310909391 0.1884874756 0.336284805 -0.2679440261 0.3366253463 -0.2672204444 -0.2194523078 0.1831153268
325298050.0 -0.2292841583 0.1908051605 0.3333932644 -0.2713210354 0.3332314052 -0.2712637211 -0.2177641791 0.1852358581
330298020.0 -0.2275356374 0.1932725833 0.3300631904 -0.2749083956 0.3304571332 -0.2748042775 -0.2160507303 0.1879967691
335297990.0 -0.2256782243 0.1958165463 0.327268109 -0.2786129861 0.3268694493 -0.2787955816 -0.2146615992 0.1905727552
340297960.0 -0.2241459112 0.1981745995 0.3238777916 -0.2820089241 0.3231977302 -0.2824792487 -0.212119383 0.1929102946
345297930.0 -0.222068866 0.2008124872 0.3204885171 -0.2857896956 0.3207142746 -0.2855159077 -0.2106949179 0.1949707559
350297900.0 -0.2201988352 0.2033707943 0.3171033288 -0.2891395502 0.3174157014 -0.2891022322 -0.2090691743 0.1979656104
355297870.0 -0.21812748 0.2062825423 0.3144872755 -0.2929909892 0.3143530316 -0.2925289889 -0.2072837594 0.2001421834
360297840.0 -0.215879623 0.2084015268 0.3113462882 -0.296280025 0.3112283523 -0.2961612429 -0.2047916828 0.2027166792
365297810.0 -0.2141397934 0.2108320487 0.3077911897 -0.2997268413 0.3077446684 -0.299828277 -0.2027332886 0.2048750309
370297780.0 -0.2116950371 0.2131965005 0.3040735597 -0.3028716181 0.3045663327 -0.3028140788 -0.2005433028 0.20735289
375297750.0 -0.2096346115 0.2156658574 0.3008100579 -0.3061810599 0.3013788619 -0.3063533464 -0.1986686501 0.2093485216
380297720.0 -0.2075684183 0.2179221489 0.2973992334 -0.309796171 0.297626621 -0.3093150014 -0.1969062576 0.2119656121
385297690.0 -0.2053194237 0.220526241 0.2941080211 -0.3128383849 0.2940018645 -0.3127099549 -0.1949093252 0.2141539612
390297660.0 -0.2033298461 0.2227385627 0.2905749451 -0.3161979825 0.2908176797 -0.3158122737 -0.1925926865 0.2164268228
395297630.0 -0.2009308624 0.2249959099 0.2872760216 -0.3192605961 0.2871893335 -0.3191309907 -0.1899259486 0.2186258352
400297600.0 -0.1984785161 0.2275115333 0.2834657523 -0.3228271118 0.2838110583 -0.3225835612 -0.1884283729 0.2207564621
405297570.0 -0.1965468531 0.2294655957 0.2802128813 -0.3254405593 0.2803018675 -0.3252624278 -0.1861388519 0.2229754627
410297540.0 -0.1937690776 0.2315619231 0.2763352749 -0.3284700903 0.2767189297 -0.3285446917 -0.1836172993 0.2250606754
415297510.0 -0.1911183515 0.2338004375 0.2724784473 -0.3315434393 0.2731060852 -0.3317821948 -0.1814687661 0.2271827341
420297480.0 -0.1894212015 0.2364007247 0.2689469921 -0.3346196224 0.2690677773 -0.3345477169 -0.1795213556 0.2290362361
425297450.0 -0.186642756 0.2383409341 0.2653257249 -0.3374554248 0.2658242762 -0.3375731103 -0.1772930307 0.2313935861
430297420.0 -0.1843554561 0.2403164252 0.2616691599 -0.3397742625 0.261825162 -0.3399519837 -0.1749971325 0.2326889605
435297390.0 -0.1818295211 0.2426781211 0.257794258 -0.343283463 0.2577499397 -0.3431707958 -0.171858745 0.2350014558
440297360.0 -0.1791978663 0.2445531532 0.2539229451 -0.3460157604 0.2542602116 -0.3457520986 -0.169735137 0.2368042738
445297330.0 -0.1768248423 0.246289567 0.2505749841 -0.3485250463 0.2504389172 -0.3481867776 -0.1670846864 0.2384236737
450297300.0 -0.1737959078 0.2483259715 0.2461850131 -0.3510739751 0.2462429101 -0.3513354498 -0.164500176 0.2404886638
455297270.0 -0.1717286473 0.2502956616 0.2425188135 -0.3537142334 0.2424442928 -0.3539424386 -0.1620597675 0.2421638222
460297240.0 -0.169197045 0.2525656256 0.2383269149 -0.3562968792 0.2390506696 -0.3567275595 -0.1597697217 0.2445360473
465297210.0 -0.1663075729 0.2545671956 0.2346471142 -0.3590410649 0.2346091716 -0.3592864736 -0.1569813203 0.2460967071
470297180.0 -0.1635102869 0.2564940246 0.2304493266 -0.3618842918 0.2308318324 -0.361732666 -0.1545028607 0.248301102
475297150.0 -0.1607953978 0.2575591793 0.2262603284 -0.3635175038 0.2268530247 -0.3637515783 -0.1514347213 0.249617524
480297120.0 -0.158175674 0.2601951064 0.2224962853 -0.366929793 0.222485891 -0.366646739 -0.1486793852 0.2516450362
485297090.0 -0.1553484161 0.261875433 0.2186289481 -0.3687183565 0.2187466119 -0.3684405752 -0.1462163369 0.2530914176
490297060.0 -0.1531493584 0.263636545 0.2151482943 -0.3713602592 0.2148776767 -0.371261391 -0.1433437345 0.2551653026
495297030.0 -0.1502994203 0.2652780125 0.2104263069 -0.3734203439 0.2107805656 -0.3735552717 -0.1410667942 0.2569393661
500297000.0 -0.1474404421 0.2670152754 0.2064313125 -0.3756229232 0.206392946 -0.3750944198 -0.1381321842 0.2588249431
505296970.0 -0.1441910916 0.2689139104 0.2021879803 -0.3774456158 0.2021391811 -0.3778719421 -0.1356274067 0.2600409419
510296940.0 -0.141794824 0.270371051 0.1978682721 -0.380076427 0.1979476511 -0.3801884565 -0.1327607667 0.2613761438
515296910.0 -0.1385681038 0.2722019288 0.1938697472 -0.3823165818 0.1940794615 -0.3819795614 -0.1300309134 0.2635256268
520296880.0 -0.1361513616 0.2739294177 0.1897401238 -0.3846220338 0.1898468416 -0.3839126137 -0.1275238287 0.2649077561
525296850.0 -0.1330493049 0.2748971044 0.1852273218 -0.3862982148 0.1859062681 -0.3861645876 -0.1252569481 0.2666705233
530296820.0 -0.1299883925 0.2769076879 0.1810721612 -0.3883273079 0.1811106324 -0.3882649278 -0.121561877 0.2679039178
535296790.0 -0.1277485656 0.2785362101 0.1771635237 -0.3901611355 0.1772389326 -0.3899653438 -0.119242029 0.269249039
540296760.0 -0.1249831785 0.2795805275 0.1728893757 -0.3920648893 0.1728372524 -0.3919839891 -0.1164861777 0.270859394
545296730.0 -0.1218368655 0.2814789791 0.1683697499 -0.3937269972 0.1687406711 -0.3937715514 -0.1137220626 0.2722270169
550296700.0 -0.1186154487 0.2828046807 0.1638967625 -0.3956731892 0.1644868866 -0.3958057037 -0.1110107186 0.2739022366
555296670.0 -0.1160169351 0.2840029914 0.1597798241 -0.3974510702 0.1598872713 -0.397302176 -0.1081381775 0.2751382069
560296640.0 -0.1125481042 0.285791586 0.1552335016 -0.3992501479 0.155615897 -0.3991880829 -0.1050774382 0.2761818431
565296610.0 -0.1099961782 0.2868976787 0.1508184826 -0.4007459284 0.1510942473 -0.4008129354 -0.1020087643 0.2774239396
570296580.0 -0.1072691668 0.2880685055 0.1468137923 -0.4027764381 0.1464581517 -0.4027375938 -0.0994763845 0.279282714
575296550.0 -0.1037366934 0.2895261907 0.1422890548 -0.4038817227 0.1425821784 -0.4038614222 -0.0967748288 0.2798881268
580296520.0 -0.1008732496 0.2908049163 0.137758405 -0.4056419744 0.1375215217 -0.4051878671 -0.093541999 0.2808755789
585296490.0 -0.097867541 0.2916094118 0.13366749 -0.4065467684 0.1336903429 -0.4067872911 -0.0909424034 0.2824170923
590296460.0 -0.0948410992 0.2930157411 0.1293814228 -0.4079670075 0.1294243152 -0.407997367 -0.0882162407 0.2833732783
595296430.0 -0.0917334796 0.2940356238 0.1242332082 -0.4096193654 0.1243605286 -0.409515308 -0.0849803196 0.2839856474
600296400.0 -0.0885687917 0.2953327763 0.1201510392 -0.4111997855 0.1201820444 -0.4107497016 -0.0821408995 0.285243459
605296370.0 -0.0858353802 0.29620662 0.1153278939 -0.4118782239 0.1158203656 -0.412093851 -0.0789562188 0.2861612875
610296340.0 -0.0821437969 0.2972709824 0.1107587094 -0.4131810116 0.1112855993 -0.4129985513 -0.0757288907 0.28677599
615296310.0 -0.0790424096 0.2979237002 0.1064210856 -0.414263391 0.1064755869 -0.4146171112 -0.0723654302 0.2881452103
620296280.0 -0.0758333863 0.2990072991 0.1015908396 -0.4156975012 0.1020313962 -0.4150747052 -0.069800747 0.2887676341
625296250.0 -0.0730980051 0.2998010192 0.0979663979 -0.4165142338 0.0973759147 -0.4165065581 -0.0659763671 0.2895072896
630296220.0 -0.0693256498 0.3008967812 0.0923955722 -0.4172984116 0.092551729 -0.4174159466 -0.0634097662 0.2906740637
635296190.0 -0.0667107612 0.3017891659 0.0882493997 -0.4183308657 0.0885562538 -0.4185725444 -0.060381417 0.2912747233
640296160.0 -0.0636665982 0.3026303596 0.0839144145 -0.418779541 0.0841627127 -0.4192685345 -0.0570563036 0.2921546926
645296130.0 -0.0601184472 0.3037481072 0.0788166827 -0.4198436079 0.0798303385 -0.4200785212 -0.053910592 0.2931445469
650296100.0 -0.0573189567 0.3041933743 0.0745858764 -0.4205618513 0.0748443363 -0.4206265125 -0.0506824276 0.2933203492
655296070.0 -0.0541490589 0.3048995689 0.0701475741 -0.4215272854 0.0704628104 -0.4217612942 -0.04763174 0.2941021703
660296040.0 -0.0512066367 0.3055188948 0.065741403 -0.4220106275 0.0658076428 -0.4226235725 -0.0442146689 0.2948266842
665296010.0 -0.0475487752 0.3060427144 0.0608473136 -0.423307961 0.0612673376 -0.4228534538 -0.0414103103 0.2962218209
670295980.0 -0.0449123279 0.3068787703 0.056501924 -0.4233012837 0.0566214982 -0.4234938786 -0.0385966279 0.2964870456
675295950.0 -0.0415617057 0.3074847897 0.0517718258 -0.4239740105 0.0520987496 -0.4238469825 -0.0354644159 0.2969241579
680295920.0 -0.0383510838 0.3078456458 0.0473016131 -0.424259202 0.0472496657 -0.4248132244 -0.0323307677 0.2980673176
685295890.0 -0.0348398606 0.3090265156 0.0425270327 -0.425176223 0.0423758963 -0.4251085042 -0.0288820233 0.2981656942
690295860.0 -0.0314139975 0.3090202954 0.0379710556 -0.4248214311 0.038159421 -0.425525305 -0.0263732148 0.2991705307
695295830.0 -0.0284253 0.3096032199 0.0334325972 -0.4255717323 0.0333240137 -0.4259705078 -0.0226574781 0.2992695409
700295800.0 -0.025086565 0.309753128 0.0284077062 -0.4257882462 0.0288247817 -0.4259006764 -0.0199896703 0.3000176128
705295770.0 -0.0220937944 0.3107696944 0.0236730738 -0.4264053969 0.0244767592 -0.4263113655 -0.0171531697 0.300622751
710295740.0 -0.0184448941 0.3109357225 0.0195750063 -0.4267800892 0.01983245 -0.4269413886 -0.0138110336 0.3003083737
715295710.0 -0.0158079096 0.3112607453 0.0154889633 -0.4268355474 0.0148108788 -0.4265361529 -0.0103105123 0.3009306368
720295680.0 -0.012648815 0.3115420283 0.0104905112 -0.4270659582 0.0105695257 -0.4270922126 -0.0070926776 0.3014746998
725295650.0 -0.0090599953 0.3113089806 0.0056030002 -0.4268271708 0.0059362181 -0.4270721541 -0.0043577288 0.3017034044
730295620.0 -0.0057322097 0.3122944211 0.0011492802 -0.4269298527 0.0012998907 -0.4269761693 -0.0013305116 0.3016209793
735295590.0 -0.0023304918 0.3122045626 -0.0032138472 -0.4267754281 -0.0033777142 -0.4267164141 0.001531948 0.3014168498
740295560.0 0.0003960055 0.3125136616 -0.0082455629 -0.4266373957 -0.0080443326 -0.4271684093 0.0053208673 0.3016545077
745295530.0 0.0037992206 0.3127186984 -0.0129934708 -0.4261604046 -0.0133243464 -0.4267150861 0.00840204 0.3018196332
750295500.0 0.0074210217 0.3125230081 -0.0171951554 -0.4261189225 -0.0170432675 -0.4264314553 0.0114309882 0.3017523446
755295470.0 0.0105803319 0.3124722572 -0.0216741873 -0.4260212851 -0.0219835787 -0.4260961399 0.0149899417 0.3013061131
760295440.0 0.0133461963 0.3124844861 -0.026483563 -0.4261484009 -0.0264696379 -0.4260203371 0.0175570746 0.3012915343
765295410.0 0.0169094266 0.3128462447 -0.0312224387 -0.4257971282 -0.0312874882 -0.4255880561 0.0214149273 0.3014882854
770295380.0 0.0200136086 0.3125897233 -0.0360821327 -0.4246719145 -0.0357676592 -0.424633585 0.0241168254 0.30139371
775295350.0 0.0231285895 0.3121184179 -0.0407497312 -0.423971254 -0.0398957834 -0.4245457526 0.0270281425 0.3010921215
780295320.0 0.0266708049 0.3125731539 -0.0453340598 -0.4241295317 -0.0444862402 -0.4238792616 0.0302633986 0.300748097
785295290.0 0.0300118643 0.3114428105 -0.0496569254 -0.4228715515 -0.0496649201 -0.4237115178 0.0336885238 0.3008447312
790295260.0 0.0336482149 0.3119790458 -0.0537998839 -0.4225688837 -0.0535033429 -0.4228802487 0.0370918552 0.3006085321
795295230.0 0.0363865763 0.3115136737 -0.0584169465 -0.4220524516 -0.0582727358 -0.4223614096 0.0405715828 0.3003143381
800295200.0 0.0396021112 0.311343894 -0.0634244484 -0.4211353978 -0.0632665156 -0.421534745 0.0435422695 0.2999194589
805295170.0 0.0430073593 0.3108743047 -0.0678946604 -0.4205211378 -0.0677676918 -0.4208789279 0.0464914695 0.2998689048
810295140.0 0.0461238786 0.3105571801 -0.0720729762 -0.4199718108 -0.0724522685 -0.419915676 0.0499820453 0.2992471267
815295110.0 0.0493293611 0.3100190062 -0.0765862669 -0.418879581 -0.0766359405 -0.4188649401 0.0532184484 0.2988935085
820295080.0 0.0526047188 0.3100035303 -0.0810957928 -0.4179286498 -0.08068043 -0.4181585782 0.0562920399 0.2989011341
825295050.0 0.0562716073 0.309673087 -0.0856467529 -0.4171782814 -0.0856530176 -0.4174448785 0.059752733 0.2984840248
830295020.0 0.0590397849 0.3093020061 -0.0900663946 -0.4162355219 -0.090253194 -0.4162287602 0.0630948255 0.2979086099
