!Created with skrf (http://scikit-rf.org).
# Hz S RI R 50.0 
!freq ReS11 ImS11 ReS21 ImS21 ReS12 ImS12 ReS22 ImS22
300000.0 -0.0432341521 -0.0683465107 0.0001801257 0.0008444628 -0.0003023942 0.0010450077 -0.7680302745 -0.1725698524
5299970.0 -0.046255516 0.0145028439 6.60869e-05 -4.5712e-06 0.0001166079 -4.91695e-05 -0.7845443356 -0.0091473519
10299940.0 -0.0402596035 0.0329422879 0.0001642027 -0.0002660701 2.90594e-05 1.51461e-05 -0.7878923442 -0.0053460364
15299910.0 -0.0315364507 0.0475602222 -0.000131796 -0.0002326524 0.0001034799 2.01319e-05 -0.7932577622 -0.0026399103
20299880.0 -0.0215835146 0.0595964949 -3.88273e-05 2.01085e-05 9.76279e-05 0.0001378192 -0.7996057976 0.0015322681
25299850.0 -0.0100033147 0.0688823824 -0.000344412 -0.0001576209 0.0002738746 -0.0001001616 -0.806486445 0.0077486904
30299820.0 0.0013057678 0.0756662414 -3.58895e-05 0.0002924875 -0.0001012352 4.79419e-05 -0.8122646677 0.0155371609
35299790.0 0.0132627181 0.0802590222 7.33451e-05 -0.0001821891 -2.84063e-05 0.0001758446 -0.8170804467 0.0249997868
40299760.0 0.0247960077 0.0831018285 -5.68597e-05 -8.28883e-05 -7.7207e-05 6.01412e-05 -0.8212690956 0.0341307757
45299730.0 0.0349746988 0.0843869679 -2.03151e-05 0.0001456258 2.8828e-05 -8.38188e-05 -0.8242017411 0.0437212805
50299700.0 0.0454524187 0.084447483 -9.2491e-05 -1.868e-06 7.42972e-05 0.0001695425 -0.8266587106 0.0536679582
55299670.0 0.0547056352 0.0835706738 0.0001639578 -9.38585e-05 -0.0001039915 3.82216e-05 -0.8288626892 0.0633161959
60299640.0 0.0633724354 0.081605602 0.0001237885 4.91361e-05 3.94777e-05 -0.0001380502 -0.8296408906 0.0737742152
65299610.0 0.0715193659 0.0792093349 -0.0001361273 0.0002157637 -0.0001325847 0.0002189521 -0.8305851348 0.0842134156
70299580.0 0.0779507669 0.0762335092 -0.0001584118 5.05759e-05 7.25832e-05 4.458e-05 -0.8313896382 0.093659858
75299550.0 0.0845026125 0.0729413344 -8.45954e-05 -1.64144e-05 -5.7508e-06 -3.6658e-06 -0.8310453057 0.1039002498
80299520.0 0.0902996297 0.0695571581 0.0001118828 -7.70962e-05 -8.9662e-05 6.34155e-05 -0.8311077317 0.1137605331
85299490.0 0.0954829353 0.065622376 6.82739e-05 -3.57688e-05 0.0001010595 4.13247e-05 -0.8305877384 0.1233494491
90299460.0 0.1004197316 0.0617965308 -6.8018e-05 -0.0003073641 -7.37551e-05 1.3062e-06 -0.8290937092 0.1327281766
95299430.0 0.1043441659 0.0581519628 0.0001067982 0.0001075791 0.0001509488 0.000226393 -0.8283179398 0.1428931253
100299400.0 0.1082249761 0.0541942415 8.98873e-05 0.0002397225 -0.0001686407 -0.0001414785 -0.8273115881 0.1517719537
105299370.0 0.1113157954 0.0504028993 9.4094e-06 -6.77608e-05 -4.73956e-05 0.000104666 -0.8261703116 0.1607268668
110299340.0 0.114603368 0.0463282743 -6.42308e-05 -0.0002172407 -4.22213e-05 0.0002133877 -0.8247126691 0.1695584804
115299310.0 0.1171050459 0.0426606418 0.0002058035 -3.4457e-05 -0.0001390342 0.0001752178 -0.8233355274 0.1792150886
120299280.0 0.1194191041 0.0388938939 -6.5507e-05 -0.0001388774 2.89773e-05 -7.3955e-06 -0.8214117381 0.1880396134
125299250.0 0.1210753546 0.0351991641 -1.31644e-05 0.0001832831 7.56197e-05 0.000145711 -0.8201246723 0.1971404202
130299220.0 0.123074041 0.0315242288 -2.75457e-05 0.0002986746 -3.43177e-05 5.00191e-05 -0.8177150829 0.2059551194
135299190.0 0.1247882136 0.0276162116 1.77835e-05 9.68008e-05 -6.46641e-05 -5.82305e-05 -0.8165603767 0.2147293001
140299160.0 0.1258586114 0.0245212216 -0.0001339619 0.0002534221 -3.37802e-05 2.87309e-05 -0.8140562413 0.2237165731
145299130.0 0.1273608572 0.02124335 -2.16536e-05 0.0001584127 -3.87218e-05 0.0002531608 -0.8120416411 0.2323499101
150299100.0 0.1281518279 0.0177659314 0.0001280229 0.0001299077 -2.49597e-05 0.0002045973 -0.8095577968 0.2414497144
155299070.0 0.1292179703 0.0146330357 0.0003879804 0.0001429913 3.47786e-05 -0.0001139033 -0.807334015 0.2503893625
160299040.0 0.1296978794 0.0116556749 0.0001395717 -9.12071e-05 -0.0001102699 -6.23092e-05 -0.8047984954 0.2593890918
165299010.0 0.1303723358 0.0084759494 9.3148e-06 6.74903e-05 0.0001380619 -4.47543e-05 -0.8018823024 0.2675052735
170298980.0 0.1309364512 0.0051782616 -8.5175e-06 0.0002254996 0.0001794612 0.0002304724 -0.7997676636 0.2754934716
175298950.0 0.1313209532 0.0025618257 0.0003351762 6.05665e-05 0.0001372731 0.0001494831 -0.7966568567 0.2850290096
180298920.0 0.1313826194 -0.0002465213 4.92347e-05 0.0001581177 2.31293e-05 -0.0001670488 -0.7937594961 0.2933528733
185298890.0 0.1315462446 -0.0033576586 0.0002080633 0.000171464 -4.50388e-05 9.96354e-05 -0.7904968245 0.3021337552
190298860.0 0.131737196 -0.0060478438 5.06534e-05 0.000119231 0.0001681848 4.30073e-05 -0.7870246287 0.3101334895
195298830.0 0.1318882996 -0.0083295485 -2.39922e-05 5.60794e-05 3.04556e-05 0.0001131667 -0.7841324265 0.3182134758
200298800.0 0.1319103909 -0.011412961 -1.96322e-05 -2.29124e-05 2.36834e-05 -3.87607e-05 -0.7810828949 0.3267366393
205298770.0 0.1313494661 -0.0137280434 4.17639e-05 0.0001022137 0.0001056057 0.0001457216 -0.7775556718 0.3351758728
210298740.0 0.1313511849 -0.0160809511 0.0002546526 -4.0308e-06 4.94169e-05 9.18898e-05 -0.7742632601 0.3432911752
215298710.0 0.1309648156 -0.018555004 0.0001932244 7.76938e-05 0.0002284916 0.0003504479 -0.7709286638 0.3511377208
220298680.0 0.1310112776 -0.020905548 0.0002551443 0.0001257925 -5.14063e-05 8.2621e-06 -0.7667010156 0.3596076937
225298650.0 0.1303830722 -0.0233253383 0.0002716971 9.58609e-05 0.00011113 8.24405e-05 -0.7630026766 0.3675250341
230298620.0 0.1299062222 -0.0251040246 0.0001295902 -2.80825e-05 -7.77706e-05 -0.000215149 -0.7590420443 0.3756125343
235298590.0 0.1295256945 -0.0276045801 5.31397e-05 6.82743e-05 2.47696e-05 7.81053e-05 -0.7551973027 0.383487433
240298560.0 0.1289315047 -0.0293372003 -0.0001729113 0.0002110313 0.0001453073 -2.80744e-05 -0.7512315493 0.3907599445
245298530.0 0.128365853 -0.0315956935 3.2197e-05 0.0002174151 2.9639e-06 -6.7932e-06 -0.7470946854 0.3991106064
250298500.0 0.1278005726 -0.0339689877 4.18562e-05 0.0002248894 9.29499e-05 0.0001380885 -0.7425620779 0.4072662247
255298470.0 0.127004223 -0.035497506 -3.89411e-05 3.41411e-05 1.76055e-05 0.0001079174 -0.7391527554 0.4140843052
260298440.0 0.1264731816 -0.037965278 7.84717e-05 3.53625e-05 0.0002005221 -0.0001368926 -0.73443454 0.4222733675
265298410.0 0.1258789414 -0.0399319067 2.62021e-05 5.281e-07 -9.00704e-05 4.64405e-05 -0.7300135961 0.4302170986
270298380.0 0.1251445227 -0.0417160905 0.0002159906 9.24251e-05 0.0001111816 0.0001026144 -0.7250590103 0.4379316635
275298350.0 0.124415439 -0.0434549096 8.35097e-05 0.0001913167 0.0001592999 1.14064e-05 -0.7207135521 0.4454424319
280298320.0 0.123646753 -0.0455111153 0.0001026557 0.0001813779 6.58225e-05 -2.83261e-05 -0.716522693 0.4527368907
285298290.0 0.1226063641 -0.0471545207 3.81888e-05 0.0001542251 0.0001564059 0.0001378546 -0.7119240972 0.4604714983
290298260.0 0.1215696246 -0.0489224767 0.0002249119 8.85521e-05 -0.000125534 9.68212e-05 -0.7068004781 0.4676760125
295298230.0 0.1207887688 -0.0511275705 0.000137653 5.04468e-05 0.0001506806 0.0002454201 -0.7014487153 0.474809937
300298200.0 0.1202669556 -0.0525040309 0.0001435103 0.0001482857 0.0001039114 0.0001139049 -0.6967391157 0.4824696221
305298170.0 0.1192295967 -0.0544704557 0.0002997057 5.1247e-06 -2.58133e-05 0.0001358798 -0.6919930929 0.4894845586
310298140.0 0.1183948839 -0.0565940512 -4.94123e-05 0.0002089624 0.0001948397 2.49772e-05 -0.6859553861 0.4966511313
315298110.0 0.1171388839 -0.0583533864 -3.63828e-05 8.8715e-06 4.69267e-05 -6.32032e-05 -0.6814393564 0.5039108548
320298080.0 0.1160429231 -0.0602851316 1.37625e-05 0.0002461205 0.0001211734 5.89869e-05 -0.6762439569 0.5107379499
325298050.0 0.1147507685 -0.0621106839 0.000114784 7.42e-06 0.0001458656 0.0003572708 -0.6700904384 0.5174899373
330298020.0 0.1133501624 -0.0633027952 1.14352e-05 2.04342e-05 0.0002122774 0.0001980539 -0.6652040444 0.5245359786
335297990.0 0.1120685754 -0.0648755492 0.0001195246 -7.08784e-05 0.0001347486 0.000107402 -0.6594926625 0.5313789659
340297960.0 0.1107209148 -0.0660691509 0.0002735784 0.0002710646 0.0002684699 3.40786e-05 -0.6541002412 0.5384617982
345297930.0 0.1097276491 -0.0677229116 0.0002109134 2.78139e-05 0.0002332186 0.000238065 -0.6485601401 0.5451634228
350297900.0 0.1082888548 -0.0693983184 0.000120625 0.0002470781 3.45292e-05 1.47702e-05 -0.6432676725 0.5513429466
355297870.0 0.1071842683 -0.0704937916 0.0002037037 9.26165e-05 0.0001691108 -9.10732e-05 -0.6367199661 0.5587101863
360297840.0 0.106011164 -0.0718527164 0.0001894355 9.50459e-05 0.0001847898 6.93179e-05 -0.6309355548 0.5650760174
365297810.0 0.1051516564 -0.0731172419 0.0001969077 -6.40874e-05 0.0002362444 5.47076e-05 -0.626059445 0.5704970845
370297780.0 0.1038238538 -0.0744628119 6.79192e-05 0.0001698493 0.000327604 -0.0001238709 -0.6191108953 0.5777107202
375297750.0 0.1025344866 -0.0756304071 0.0003470651 7.69408e-05 5.83849e-05 0.0002402056 -0.6139988145 0.5838917065
380297720.0 0.1012414077 -0.0765180774 0.0002650654 -0.0001160334 0.0001896206 -3.80015e-05 -0.6068868759 0.5902953957
385297690.0 0.1001423834 -0.0781637216 0.0001563724 8.22473e-05 0.0002322952 7.22329e-05 -0.6017264279 0.5969030226
390297660.0 0.0989703758 -0.0795704177 7.28234e-05 0.0001312978 6.10105e-05 -5.34468e-05 -0.5947796075 0.6022318007
395297630.0 0.0977515354 -0.0804411681 0.0001994747 2.1976e-05 0.0001653796 2.70526e-05 -0.5884209537 0.607729842
400297600.0 0.0962770495 -0.081943665 0.0001274001 0.000325705 0.0001865935 4.64322e-05 -0.5827753176 0.614240526
405297570.0 0.0950615296 -0.0831468864 0.000400723 9.86154e-05 9.4273e-05 5.0857e-06 -0.5760076909 0.619916443
410297540.0 0.0940926449 -0.084111284 0.0001982853 -6.73886e-05 0.0001820481 0.000215472 -0.5697961783 0.6260640511
415297510.0 0.0927128527 -0.0855485613 0.0002856905 0.0001186168 0.0003050432 0.0001788633 -0.5628145263 0.6315840475
420297480.0 0.0913191913 -0.0869905184 0.0001128266 5.02793e-05 0.0001393948 0.0001050901 -0.5563490167 0.6377009336
425297450.0 0.090577173 -0.0878065318 0.0002558775 0.0001900885 0.0003215861 0.0001589493 -0.5501532821 0.6427939976
430297420.0 0.0887991011 -0.088756274 0.0004376806 0.0001580044 0.0002934168 9.48178e-05 -0.5433173635 0.6488630745
435297390.0 0.0874619155 -0.0901776515 0.0001866021 5.0802e-05 0.0001904073 3.95834e-05 -0.5364468692 0.6546632465
440297360.0 0.0863393091 -0.0909427843 0.0001069329 4.07514e-05 0.0002671946 -4.3309e-05 -0.5303305549 0.6595716909
445297330.0 0.0853300137 -0.0919919911 0.0003615666 0.0002192161 -3.60797e-05 0.0001647799 -0.5229150881 0.6652185858
450297300.0 0.083722423 -0.0930672664 -0.000108884 0.0002664914 0.0001928003 -4.89383e-05 -0.5153514468 0.6696252625
455297270.0 0.0822282394 -0.0940748785 9.7903e-05 -2.4331e-05 0.0002320234 0.0002176879 -0.5087931409 0.6750645669
460297240.0 0.0812429389 -0.0948408754 0.0002690069 6.66401e-05 0.0001551605 -9.7007e-05 -0.502093637 0.6799863765
465297210.0 0.0800537763 -0.0958298306 0.0001992372 9.61584e-05 -2.99813e-05 0.0001149994 -0.4952258282 0.6860124888
470297180.0 0.0787070979 -0.0968251772 0.000130282 0.0001138076 0.0001590936 4.34179e-05 -0.4880721707 0.6903089192
475297150.0 0.0770671965 -0.0975101985 7.84871e-05 0.00011939 0.0001654949 6.55058e-05 -0.4810091191 0.6955997322
480297120.0 0.0763194852 -0.0986482279 0.0002062312 8.60311e-05 0.0004029038 -2.90138e-05 -0.4745258907 0.7000023918
485297090.0 0.0749007894 -0.0994396884 0.0002900072 0.0001629568 0.0002813924 9.64383e-05 -0.466949039 0.704878862
490297060.0 0.0739723865 -0.1002639829 0.0004468484 0.0001749459 8.71404e-05 9.80296e-05 -0.4600022904 0.709286186
495297030.0 0.0724894988 -0.1010196269 0.0001648147 2.8291e-05 0.0004731514 0.0001677119 -0.4521118252 0.7135608964
500297000.0 0.0709786686 -0.1018626954 0.0002723656 5.39961e-05 0.0003967591 0.0001044508 -0.4451527949 0.7185945023
505296970.0 0.0699308438 -0.102746273 0.0002088238 0.0002462426 0.0002620057 0.0001091143 -0.4371720636 0.7222405915
510296940.0 0.0682261159 -0.1032899317 0.000180477 2.45135e-05 0.0002520084 0.0001473121 -0.4300093043 0.7276708526
515296910.0 0.0669894058 -0.1037816606 0.0001668774 0.0001220013 0.0003018544 0.0001218849 -0.4228172731 0.7310895592
520296880.0 0.0657849544 -0.1046673148 8.94386e-05 -0.0001430994 0.0002532277 7.55487e-05 -0.4153057687 0.7354966309
525296850.0 0.0643791846 -0.1053021347 0.000197289 0.0001990682 0.0001681118 9.8007e-05 -0.4082426888 0.7395654966
530296820.0 0.063013785 -0.1058440424 0.0002397266 8.77312e-05 0.0001892295 7.31065e-05 -0.4004427401 0.7433781544
535296790.0 0.061813067 -0.1067317674 0.0002516413 0.0002994125 0.0002030364 0.0001012654 -0.3930219476 0.7477822625
540296760.0 0.0605147169 -0.1072889027 0.0002070614 8.35002e-05 0.0003553123 -1.83205e-05 -0.3847210418 0.7513126843
545296730.0 0.0589151611 -0.1076942684 0.0003155964 0.00017005 0.0001303798 0.0002595498 -0.3775857693 0.7551260373
550296700.0 0.0577310949 -0.1080711625 0.0003308882 3.9215e-06 0.0003999301 0.0001283416 -0.3699908851 0.7591509975
555296670.0 0.0564354844 -0.1085311585 0.000252333 -0.0001512828 0.0003321662 -3.62094e-05 -0.3624739803 0.7620895443
560296640.0 0.0551877608 -0.1090533417 6.64087e-05 6.03585e-05 0.0002435941 5.95443e-05 -0.354503626 0.7665367407
565296610.0 0.0536971501 -0.1095089088 0.000203395 0.0001521058 0.0002379604 0.0001242241 -0.3467000128 0.7700970375
570296580.0 0.0522431044 -0.109945674 0.0003926695 0.0001542396 0.0003404596 0.0001074225 -0.3386988639 0.7726572031
575296550.0 0.0509413344 -0.1104776365 0.0004229793 0.000120085 0.0003812972 0.0002006536 -0.330930486 0.7761468279
580296520.0 0.0498034804 -0.1107457142 0.0001926523 0.0001270461 0.0002601071 1.51426e-05 -0.3233833298 0.7798151629
585296490.0 0.048106778 -0.1107887015 0.0003648028 0.0002417057 0.0005309612 0.0001404711 -0.3149587245 0.7831120097
590296460.0 0.0470063233 -0.1109657027 0.0004557755 -9.95323e-05 0.0003440494 -3.79597e-05 -0.307992638 0.7859477501
595296430.0 0.0457615217 -0.1118491596 0.000145535 -4.54197e-05 5.80074e-05 -8.45312e-05 -0.2999177649 0.7889467386
600296400.0 0.0443343092 -0.1120967967 0.0003843285 0.0001050453 0.0002951834 -1.0985e-06 -0.2918992281 0.7912912271
605296370.0 0.0424096426 -0.1121407757 0.0004267555 1.14095e-05 0.0003720763 0.0001658009 -0.2834946891 0.7950562775
610296340.0 0.0414285251 -0.1124772683 0.0004825514 0.0001315443 0.0003107698 8.72067e-05 -0.2759322693 0.7976516213
615296310.0 0.0405125618 -0.1124478187 0.0003915378 0.0002139527 0.0002066435 0.0001356509 -0.2671831761 0.8004314521
620296280.0 0.0386492672 -0.112416648 0.0003425526 -0.0002087941 0.0002277476 9.58345e-05 -0.259687452 0.803280938
625296250.0 0.0370100086 -0.1127212071 0.0001575718 0.0001818561 0.0004821074 0.0001922718 -0.2515252031 0.8050248526
630296220.0 0.0358249302 -0.1127417128 0.0002466209 5.98395e-05 0.000382031 5.70218e-05 -0.2436545772 0.8082373751
635296190.0 0.0340588029 -0.1127711151 0.0004264745 0.0001869582 0.0004008591 1.57113e-05 -0.2351374891 0.8099393464
640296160.0 0.0326786559 -0.1130551227 0.0004328503 0.000111325 0.0003933524 6.8081e-05 -0.2270314202 0.8126998543
645296130.0 0.0319895437 -0.1132019806 0.0002923084 -0.0002288449 0.000354192 0.0001202936 -0.2192915458 0.8145654646
650296100.0 0.0301076853 -0.1132748563 0.0002549173 9.99061e-05 0.0003555872 -0.0001275831 -0.21065395 0.81689023
655296070.0 0.0284881723 -0.1131907769 0.0003115285 9.70292e-05 0.0003314608 1.84922e-05 -0.2031195698 0.8188227291
660296040.0 0.0270040633 -0.1131361099 0.0003426272 0.0001401526 0.0002946791 -5.77516e-05 -0.1939608464 0.8210534114
665296010.0 0.0260424993 -0.113135023 0.0005691265 -0.0001018139 7.89383e-05 5.07792e-05 -0.1860165823 0.8224689318
670295980.0 0.0243196289 -0.1130482547 0.0003736097 -4.36724e-05 0.0004599207 -9.70324e-05 -0.1783620151 0.8237926328
675295950.0 0.0227744537 -0.1133213281 0.0004145099 -0.0001051149 0.0004129778 0.0001545035 -0.1696211929 0.826166884
680295920.0 0.0211272236 -0.1130973558 0.0002078902 8.20105e-05 0.0004240803 8.21837e-05 -0.1611154674 0.827688291
685295890.0 0.0200443968 -0.1128054051 0.0002746482 -0.000196256 0.0004898174 0.0002075433 -0.1532452935 0.829413064
690295860.0 0.0183033492 -0.112720175 0.0001908051 9.17317e-05 0.0003238857 -0.0001207875 -0.1449336881 0.8307395899
695295830.0 0.0168746708 -0.1129318084 0.0004632938 -0.0001683624 0.0005135015 -8.4974e-06 -0.1364096773 0.8328976642
700295800.0 0.0151434819 -0.1125378293 0.0004909528 -0.0001522092 0.000356694 0.0001181992 -0.1277786404 0.8333504666
705295770.0 0.013919523 -0.1123766072 0.0003351874 0.0002005726 0.0001810762 8.02466e-05 -0.1203006532 0.8355069412
710295740.0 0.0126439337 -0.1123997091 0.0004021352 -7.34078e-05 0.0004130708 -2.79092e-05 -0.1116645565 0.8363108274
715295710.0 0.0112161516 -0.1118663393 0.0002441551 -8.6565e-05 0.0004254706 -3.5322e-05 -0.1028721969 0.8366536656
720295680.0 0.0096480588 -0.1116918402 0.0001929733 -1.6561e-05 0.0002693925 -0.0001456013 -0.0946834197 0.837755068
725295650.0 0.0080467642 -0.1112732558 0.000189263 0.0003793969 0.0004355213 -1.26845e-05 -0.0867500284 0.8394909199
730295620.0 0.0063800818 -0.1113505409 0.0003362314 -0.00017628 0.000111282 -0.0002230862 -0.0785251789 0.840263875
735295590.0 0.0049141145 -0.1108802326 0.0001759037 4.79117e-05 0.0001835096 -2.46088e-05 -0.0694712927 0.8402738939
740295560.0 0.0034245268 -0.1109615806 0.000364485 5.9265e-06 0.0003741692 -8.6737e-06 -0.0614142786 0.8414327542
745295530.0 0.0022502279 -0.110364051 0.0002207738 -0.0001148727 0.0003031347 -4.34586e-05 -0.0529822247 0.8418825436
750295500.0 0.0005986924 -0.109952063 0.0004746371 -0.0002032395 0.0003073743 -0.0001293009 -0.0445119932 0.8424458384
755295470.0 -0.000933484 -0.1097059349 0.0001882456 -0.0001220208 0.0003671509 -5.7026e-05 -0.0366691348 0.842959674
760295440.0 -0.0021101641 -0.1092843622 0.000324364 -0.0001138103 0.0003653383 -6.76671e-05 -0.0274530474 0.8429706751
765295410.0 -0.0037483503 -0.1092381289 0.0001438956 -0.0002192448 0.0003076822 -0.0001435122 -0.0191881936 0.8433539002
770295380.0 -0.0051716767 -0.1084416339 0.0001317526 -0.0001173329 0.0002545196 -0.0001255291 -0.0111723958 0.8433234026
775295350.0 -0.0068047796 -0.1082416372 0.0004753826 2.883e-05 0.000261315 3.23501e-05 -0.0029989236 0.8431834166
780295320.0 -0.0081535186 -0.1079543339 0.0004808198 -2.4157e-06 0.0004344278 -1.72599e-05 0.0055211178 0.8434281076
785295290.0 -0.009417965 -0.1075597294 0.0004657827 -6.31815e-05 0.0002201614 8.29592e-05 0.0138986004 0.8435045416
790295260.0 -0.0110978303 -0.1071822496 0.0004400213 -5.78436e-05 0.0004479607 -0.0001365004 0.0222202322 0.843485716
795295230.0 -0.0125697059 -0.1069406764 0.0003318345 -0.0002220146 0.0004870863 -0.0001681445 0.0303994007 0.8423258837
800295200.0 -0.0139751051 -0.106417105 0.000370975 -0.0002064538 0.0004688611 -6.09445e-05 0.038620204 0.8424467337
805295170.0 -0.0153995809 -0.1059783229 0.000319423 4.7199e-05 0.0001238653 2.82517e-05 0.0477338167 0.841724123
810295140.0 -0.0167703214 -0.1050844312 8.53355e-05 0.0001560317 0.0005862701 -0.0001558216 0.0563494385 0.8411865267
815295110.0 -0.0185188115 -0.1049918232 0.0004634272 -7.6091e-06 0.0003529163 8.16852e-05 0.0637976013 0.8406916455
820295080.0 -0.0199202121 -0.1044427957 0.0004415449 -0.0001470244 0.0001367418 -2.41095e-05 0.072019459 0.8403427327
825295050.0 -0.0215250415 -0.1043076485 0.0007752859 -0.0001008895 0.0005979272 -9.4139e-05 0.08060114 0.839673632
830295020.0 -0.0226199179 -0.1035309983 0.0001882672 -0.0002036352 0.000193393 -7.5342e-06 0.0883726145 0.8380223988
835294990.0 -0.0239436984 -0.1033175314 0.0005607159 -0.000299247 0.0004935829 -3.20097e-05 0.0967644655 0.8378914556
840294960.0 -0.0254757715 -0.1026642295 0.0004426602 5.47991e-05 0.0005808182 1.07455e-05 0.1058931208 0.8371918913
845294930.0 -0.0267735283 -0.1019973835 0.0005559514 -0.0004200945 0.0005333035 -0.0003008735 0.1138447405 0.835759941
850294900.0 -0.0279284236 -0.1018338581 0.0003252 6.00411e-05 0.000421119 1.23511e-05 0.1217728738 0.8343692201
