!Created with skrf (http://scikit-rf.org).
# Hz S RI R 50.0 
!freq ReS11 ImS11 ReS21 ImS21 ReS12 ImS12 ReS22 ImS22
300000.0 -0.0926224337 -0.1024358066 0.6217422037 0.0945721804 0.6193334994 0.0954150193 -0.0942404722 -0.1069041234
5299970.0 -0.1014072871 0.0111372825 0.6301572485 0.0114846303 0.6309455651 0.0112126428 -0.101741154 0.0110391584
10299940.0 -0.0969983966 0.0286741048 0.6345032327 0.015932634 0.634427119 0.0165369863 -0.0965207602 0.0285615345
15299910.0 -0.0892023313 0.0423657091 0.6403565413 0.0212587351 0.6410009216 0.0210885857 -0.089833119 0.0418417175
20299880.0 -0.0804609824 0.053452781 0.6491876745 0.0241486234 0.6490413815 0.0243720489 -0.0809574144 0.052614964
25299850.0 -0.0704146919 0.0623479634 0.6579644813 0.0261923826 0.658521905 0.0259808572 -0.0715616835 0.0618705289
30299820.0 -0.0608477947 0.0688078467 0.6679657481 0.024381794 0.6680243792 0.0245841227 -0.0616042793 0.0683203089
35299790.0 -0.050452884 0.07367687 0.6766501593 0.0222757972 0.6774228459 0.0218312712 -0.0523765701 0.0736299453
40299760.0 -0.0411650456 0.0762013013 0.6864847422 0.0177460629 0.6871742261 0.0179559741 -0.042585697 0.0770668497
45299730.0 -0.0317092828 0.0781125993 0.6954651548 0.0124133323 0.6963682499 0.0123912901 -0.0331740103 0.0792904609
50299700.0 -0.022788065 0.0791344495 0.7038397347 0.005062987 0.704052491 0.005054496 -0.0245151998 0.0800852144
55299670.0 -0.0148887629 0.0790055103 0.7111600224 -0.0023117934 0.7104629627 -0.002799359 -0.0175179869 0.0805299425
60299640.0 -0.0075064539 0.0785939972 0.7173936791 -0.0107659737 0.7178992455 -0.0111171501 -0.0096594214 0.0798151058
65299610.0 -0.0011584013 0.0774057094 0.7242982393 -0.0199836737 0.7244818596 -0.0199726867 -0.0027425553 0.078559578
70299580.0 0.0053135722 0.0752359929 0.7288136485 -0.0286795146 0.7290651552 -0.0289082785 0.0030715963 0.0771597798
75299550.0 0.0105883652 0.0732077597 0.7334441479 -0.0390430883 0.7336677997 -0.0385671804 0.0087733129 0.0757433139
80299520.0 0.0154828707 0.0713688955 0.7374912335 -0.04843978 0.7381132616 -0.0487900309 0.0134991614 0.073602241
85299490.0 0.0201361807 0.0693266264 0.7407782221 -0.0584864569 0.741433309 -0.0581910213 0.0180490132 0.0709450519
90299460.0 0.0239747021 0.0668719566 0.7435922517 -0.0688276802 0.7438091055 -0.0678445723 0.0225677997 0.0693922277
95299430.0 0.0283178704 0.0640795957 0.7460021056 -0.0788422773 0.7460493328 -0.0791805699 0.0258431566 0.0663421826
100299400.0 0.03140374 0.0616123469 0.7474761082 -0.0885619228 0.7474762204 -0.0888123704 0.0290503095 0.0646244793
105299370.0 0.0345014253 0.0589616002 0.749227839 -0.0986378583 0.7498126649 -0.0987086554 0.0329005832 0.0617095259
110299340.0 0.0373306427 0.0562919511 0.7502489627 -0.1087350807 0.750863756 -0.1084705378 0.0352231293 0.0594717487
115299310.0 0.0396917304 0.0543538652 0.7514893543 -0.1186181952 0.7512222691 -0.1185881613 0.0374003085 0.0576555183
120299280.0 0.0416656708 0.052126793 0.7521580194 -0.1297860069 0.7511092912 -0.1293598203 0.039605741 0.0544894593
125299250.0 0.0439520887 0.0495331755 0.7520040158 -0.1393340659 0.7518344515 -0.1388564995 0.0422057206 0.0527793263
130299220.0 0.045917817 0.0472558453 0.7520868723 -0.1493327999 0.7520340265 -0.1494177974 0.0439930521 0.0507623354
135299190.0 0.0470364338 0.045303171 0.7520798423 -0.1584207801 0.7519927961 -0.1590618532 0.0453696417 0.0479745023
140299160.0 0.0488737332 0.0431935084 0.7517430086 -0.1683997114 0.7513241239 -0.1680459513 0.0460938659 0.0455408238
145299130.0 0.0493529948 0.0411293897 0.7501290347 -0.1780557625 0.7507525473 -0.1781339633 0.0480707242 0.0439674544
150299100.0 0.0509369723 0.0392448251 0.7491902123 -0.187789879 0.7493720734 -0.1877306561 0.0491539465 0.0421574462
155299070.0 0.0525664822 0.0371612114 0.7472633353 -0.1973773435 0.7488417982 -0.1974663341 0.0508578307 0.0398105177
160299040.0 0.0535938784 0.0355673161 0.7468139456 -0.2071542091 0.7466777394 -0.2072370997 0.0512938599 0.0382219856
165299010.0 0.0543642586 0.0333536982 0.7454543015 -0.2163000683 0.7447926021 -0.2161226497 0.0524555236 0.0359763505
170298980.0 0.0550173807 0.0320134673 0.7434308705 -0.225466435 0.7433613946 -0.2259589803 0.0526318463 0.0341529288
175298950.0 0.0559773194 0.0304165049 0.7423921763 -0.2351862698 0.7419941917 -0.2355814344 0.0535343612 0.0325579732
180298920.0 0.056156832 0.0287567228 0.7394006983 -0.2446497612 0.7395252776 -0.2446398287 0.0541547647 0.0309721423
185298890.0 0.056769555 0.0273525313 0.7379610094 -0.2532727237 0.7371800036 -0.2530055736 0.0552239531 0.0292453651
190298860.0 0.0578559802 0.0257190844 0.7343176806 -0.2624536009 0.7351923608 -0.2622380185 0.055366917 0.0276627658
195298830.0 0.0580011596 0.024171495 0.7326434949 -0.2715020706 0.7328845457 -0.271495855 0.0555814685 0.0260476352
200298800.0 0.058771053 0.0223471515 0.7301866522 -0.2813781088 0.7296569644 -0.2804658093 0.0561144764 0.0242696339
205298770.0 0.0582641681 0.020547871 0.7269036185 -0.2895594378 0.7272117553 -0.2890796736 0.0568695548 0.0228220403
210298740.0 0.0588349182 0.0200462472 0.7239350672 -0.2984846017 0.7236353132 -0.2982075042 0.0567448946 0.0207878831
215298710.0 0.0594996015 0.0184885258 0.7207587958 -0.3064197819 0.721100301 -0.3068760851 0.0573222077 0.0200821937
220298680.0 0.0597009834 0.0176703082 0.7174625911 -0.3156581102 0.7174339 -0.315549227 0.0573705087 0.0180819009
225298650.0 0.0597825472 0.01631488 0.7143505105 -0.3239044611 0.7145759464 -0.3237931211 0.0577811613 0.0165773973
230298620.0 0.060316906 0.0151596475 0.7115456691 -0.3327977365 0.7113388686 -0.3325308912 0.0571120465 0.0152441834
235298590.0 0.059775361 0.0137576173 0.707747152 -0.3418764792 0.708180432 -0.3409729887 0.0580593597 0.0142659209
240298560.0 0.0603940457 0.0130768334 0.7044131987 -0.3492599395 0.7040990846 -0.3493412225 0.0576982644 0.0128818378
245298530.0 0.060257352 0.011333264 0.7002370813 -0.3579538876 0.7002859987 -0.3578435888 0.0579327437 0.0117946564
250298500.0 0.0602760544 0.0104434744 0.6966731558 -0.3658635147 0.6966142734 -0.3658966935 0.0578697445 0.0107530287
255298470.0 0.0606982732 0.0099163174 0.6931495854 -0.3738150973 0.6933987525 -0.3744308709 0.0581722155 0.0099653643
260298440.0 0.06083924 0.0082496275 0.6891072969 -0.3818007264 0.6887741916 -0.3817567748 0.0575224648 0.0078180808
265298410.0 0.0602644267 0.0074311933 0.6846713856 -0.3902628881 0.6844021523 -0.3906835103 0.0588022171 0.0064982605
270298380.0 0.0602380358 0.0063021492 0.6810775664 -0.3982206833 0.6804440353 -0.3980090136 0.0582089859 0.005918991
275298350.0 0.0606570589 0.0056201064 0.6754338298 -0.4058601353 0.6755855894 -0.4060617032 0.057788712 0.0048598044
280298320.0 0.059724988 0.004374864 0.6717179715 -0.4133799441 0.6723492631 -0.4141879739 0.0586777904 0.0039108908
285298290.0 0.06015325 0.0034522722 0.6671770789 -0.4217927932 0.6677145107 -0.4218114694 0.058144338 0.0026064425
290298260.0 0.0599088079 0.0026006059 0.6633072211 -0.4295415781 0.6632223679 -0.4298599432 0.0583397679 0.0014343592
295298230.0 0.0599938023 0.0014244613 0.6586079423 -0.4376921164 0.6586058934 -0.4376769849 0.057932385 0.0005420872
300298200.0 0.060218675 0.0008845146 0.6538777895 -0.4455788432 0.6538020925 -0.444736399 0.0577336274 -0.0005127041
305298170.0 0.06022058 -0.0007630933 0.6493524837 -0.4532316825 0.6493837321 -0.4531825771 0.0579956111 -0.0021732575
310298140.0 0.0606379946 -0.0015710402 0.6444529504 -0.4604571844 0.6442948633 -0.4604060337 0.0582241334 -0.0036378435
315298110.0 0.0598220762 -0.0029706576 0.6390561934 -0.4684829372 0.6389974505 -0.4682876969 0.0577664205 -0.0043900149
320298080.0 0.0596651135 -0.0037511445 0.6335091783 -0.4757207843 0.6344934481 -0.4762485257 0.0574180763 -0.0055792711
325298050.0 0.0588296381 -0.0054747077 0.6284083191 -0.4825972701 0.6291196288 -0.4828748042 0.0570353689 -0.0069996113
330298020.0 0.0575073834 -0.0058870722 0.6228848755 -0.4906404515 0.623107949 -0.4906556939 0.0560640829 -0.0079870787
335297990.0 0.0577290203 -0.0067057922 0.6175728044 -0.4972923508 0.6172548364 -0.4975444922 0.0556529275 -0.0085196844
340297960.0 0.0572257208 -0.0076431198 0.6113440535 -0.5046899818 0.6112035443 -0.5046103989 0.0553193013 -0.0091217182
345297930.0 0.0565968291 -0.0084579336 0.6060670735 -0.5117274502 0.6053549877 -0.512010247 0.0551684826 -0.0100652571
350297900.0 0.0559926646 -0.0089752822 0.600453616 -0.5177605984 0.6004499482 -0.5180271077 0.0544866873 -0.0114510513
355297870.0 0.0556863648 -0.0098183033 0.5941976919 -0.5242107974 0.5944191859 -0.5243061891 0.0545833926 -0.0119994165
360297840.0 0.0556142293 -0.0104015974 0.5884182866 -0.5315032077 0.5886609017 -0.5320297876 0.0534318055 -0.0120934883
365297810.0 0.0547402173 -0.010991502 0.5824107411 -0.5379482473 0.5823963737 -0.5380117022 0.0527677123 -0.0131467988
370297780.0 0.0548054022 -0.0113361414 0.5765695899 -0.5447143595 0.5767448193 -0.5444984307 0.0529378912 -0.0140736723
375297750.0 0.0545010781 -0.0122091547 0.570365565 -0.5507179441 0.5704830391 -0.5510913219 0.0527521185 -0.0146856937
380297720.0 0.0535582616 -0.0125989094 0.5647395494 -0.557689512 0.5645104575 -0.5571123263 0.0521607504 -0.0150525498
385297690.0 0.0531493576 -0.0137432271 0.558681643 -0.5630645768 0.558579904 -0.5641828457 0.0522249762 -0.0155771272
390297660.0 0.0531249264 -0.0146027413 0.5517173977 -0.5690469001 0.55265167 -0.5696015058 0.0522253438 -0.0165857227
395297630.0 0.0532012622 -0.0150132208 0.5461066917 -0.5753938786 0.5457142805 -0.5756118259 0.0513070383 -0.017069523
400297600.0 0.052351282 -0.015744221 0.5398319057 -0.5819331302 0.5403474663 -0.5821214632 0.0513275897 -0.0172528359
405297570.0 0.0518532271 -0.0167430698 0.5331084941 -0.5875730999 0.5336046009 -0.5875935363 0.0510373737 -0.0177028297
410297540.0 0.0514065565 -0.0165363312 0.5269120517 -0.5937753515 0.527035284 -0.5938635964 0.0505790007 -0.0188751239
415297510.0 0.0508182823 -0.0174482176 0.5200398413 -0.5996675908 0.5208120482 -0.5993508453 0.050524574 -0.0190257131
420297480.0 0.0505803911 -0.0184806845 0.5138050753 -0.6055589686 0.5138584548 -0.6054910037 0.0503050527 -0.0194188805
425297450.0 0.0507490778 -0.0190076931 0.5073794168 -0.6103231413 0.5069375585 -0.6109060186 0.0499633991 -0.0206174076
430297420.0 0.0500977035 -0.0194363729 0.5009885449 -0.6165036323 0.5005212852 -0.61585263 0.0500887455 -0.0211802451
435297390.0 0.0498510716 -0.0203065754 0.4932685617 -0.6229707517 0.4939605408 -0.6225374447 0.0487008853 -0.0212908357
440297360.0 0.0496911574 -0.0210432939 0.4865833858 -0.6276359447 0.486642075 -0.6276504131 0.0487607866 -0.0217761061
445297330.0 0.0494026041 -0.0220569431 0.479633206 -0.6324368002 0.4796850516 -0.6331417903 0.0485818719 -0.0219736906
450297300.0 0.0487971007 -0.0224757634 0.4729910666 -0.637885698 0.4727933102 -0.6381953641 0.0482878311 -0.022750269
455297270.0 0.0479906686 -0.0231600068 0.4657301682 -0.6435539122 0.466190263 -0.6434332945 0.0480204192 -0.0232654987
460297240.0 0.0483293971 -0.023419563 0.4595395886 -0.6494423537 0.4589659263 -0.6484943647 0.0474642838 -0.0242384239
465297210.0 0.0476694192 -0.0242097017 0.4510715373 -0.6536450172 0.4510542516 -0.6537482263 0.0476186752 -0.0238391384
470297180.0 0.0475215068 -0.0249622586 0.4441395181 -0.6582168253 0.4449008125 -0.6584744547 0.0470945154 -0.0251275668
475297150.0 0.046506935 -0.0249440888 0.4370534695 -0.6636247822 0.4371721611 -0.6640263499 0.0463834021 -0.0254748184
480297120.0 0.0468696464 -0.025048887 0.42954223 -0.668680978 0.4299212244 -0.6679966536 0.0459957044 -0.0262923058
485297090.0 0.0462506888 -0.0267289027 0.4220934394 -0.6730299497 0.4222115794 -0.6730446429 0.0457288043 -0.0263537218
490297060.0 0.0464935573 -0.0266916575 0.4142991678 -0.6778203135 0.4148737436 -0.6780103241 0.0452622848 -0.0272123538
495297030.0 0.0452454968 -0.0277666291 0.4078316075 -0.6825214788 0.4077980662 -0.6828886412 0.0456259749 -0.0274386389
500297000.0 0.044677514 -0.0276779667 0.4004094184 -0.6862265388 0.4001860289 -0.6872240038 0.0449358201 -0.0278332236
505296970.0 0.0450087448 -0.0283259012 0.3927755872 -0.691089123 0.3927035335 -0.6909066262 0.0444276339 -0.0290428464
510296940.0 0.0442866915 -0.0291740637 0.3852211668 -0.6962275896 0.3852993831 -0.6960484405 0.0443661545 -0.0289229839
515296910.0 0.0436272559 -0.0290084224 0.3766056224 -0.6997088088 0.3769340378 -0.6997786865 0.0436563746 -0.0299800883
520296880.0 0.043537471 -0.0295534568 0.3696113402 -0.7036287082 0.3696206968 -0.7037369922 0.0438539081 -0.0297690807
525296850.0 0.0434984713 -0.0306176887 0.3621143625 -0.7076687738 0.3616960428 -0.707931341 0.0436975312 -0.030457336
530296820.0 0.0426712857 -0.0311429472 0.3541594663 -0.7119427668 0.3542821717 -0.7117825676 0.0431163425 -0.0312542551
535296790.0 0.0429889964 -0.0313454277 0.3461099674 -0.715726497 0.3465365026 -0.7157277626 0.0431665276 -0.0311394944
540296760.0 0.0423533105 -0.031394228 0.3380157324 -0.719108008 0.3388106771 -0.7192607594 0.0422569697 -0.0323875595
545296730.0 0.0408169851 -0.032044999 0.329992915 -0.723193392 0.33063978 -0.7231207404 0.0420941303 -0.0325156539
550296700.0 0.0416271317 -0.0322414138 0.322448305 -0.7269653233 0.3224142406 -0.7272489917 0.0417703776 -0.0328960615
555296670.0 0.040752681 -0.0326110127 0.314928919 -0.7303951453 0.3148207176 -0.7303024274 0.041074321 -0.0339792417
560296640.0 0.0411221915 -0.0329827492 0.3062366598 -0.7333244997 0.3068967854 -0.7335265183 0.0405337696 -0.0333995232
565296610.0 0.0396027448 -0.0337374793 0.2988317015 -0.7373858918 0.2994426558 -0.736322505 0.0403251577 -0.0338864418
570296580.0 0.0392529514 -0.0336842656 0.290451417 -0.7397635023 0.2906636067 -0.7404307626 0.0396625015 -0.034903217
575296550.0 0.0391802043 -0.034342589 0.2827744041 -0.7436590114 0.2826839675 -0.7431621154 0.039114035 -0.034957147
580296520.0 0.0388190212 -0.0346517564 0.274034578 -0.7462893392 0.2742136387 -0.7467948769 0.0384446403 -0.0352676563
585296490.0 0.0384843973 -0.0346748645 0.2661655716 -0.7494426766 0.2661839474 -0.7494252871 0.0386585481 -0.0356647243
590296460.0 0.0385616586 -0.0351290335 0.2581531174 -0.7520019845 0.2580296413 -0.7525332644 0.0375820309 -0.0361747336
595296430.0 0.0378139329 -0.0354373921 0.2491286226 -0.7551689874 0.2491009503 -0.7551208735 0.0375295067 -0.0369505821
600296400.0 0.0377727879 -0.0357525548 0.2408196118 -0.7572925579 0.2415295982 -0.7578317314 0.0370326846 -0.0373249541
605296370.0 0.0363306981 -0.0360279266 0.2334640412 -0.7603629201 0.233292536 -0.7606215323 0.0363181561 -0.0374118061
610296340.0 0.036654454 -0.0358469948 0.2246888857 -0.7620425176 0.2254333146 -0.7625979325 0.0355276479 -0.0375555794
615296310.0 0.0363273989 -0.0365126548 0.2165376007 -0.7654006077 0.2166356418 -0.7654768942 0.03535524 -0.0378131487
620296280.0 0.0352607174 -0.0362806134 0.2073410245 -0.7675326439 0.2078309517 -0.7676737867 0.0347517392 -0.038268905
625296250.0 0.0348474154 -0.0368856319 0.1991186427 -0.770041765 0.1999706868 -0.7699454285 0.0336407133 -0.0387726445
630296220.0 0.0342117786 -0.0368548531 0.1908405373 -0.7720277296 0.1914664336 -0.7717985224 0.0337544227 -0.0388725959
635296190.0 0.0333529727 -0.0369407542 0.1827558355 -0.7740772105 0.1825329019 -0.7735996307 0.0334402522 -0.0392491725
640296160.0 0.0330890115 -0.0372186427 0.1743134431 -0.7758137302 0.1741766928 -0.7764381952 0.0321263549 -0.0396561301
645296130.0 0.0329604254 -0.0367222843 0.1655100447 -0.7775672796 0.1660534433 -0.7777069146 0.0316284849 -0.0402397022
650296100.0 0.0323103864 -0.0374400899 0.1574477787 -0.7799657767 0.157194743 -0.7796598514 0.0322276638 -0.0404127681
655296070.0 0.0315172652 -0.0376245799 0.1480383475 -0.7815997854 0.1489965791 -0.7811059303 0.0304644858 -0.0403393784
660296040.0 0.0311616336 -0.0376710352 0.1398601252 -0.7830085618 0.1401511307 -0.7832397555 0.0297721364 -0.0410553354
665296010.0 0.0308002774 -0.0377176898 0.1305194906 -0.7841047301 0.1313815508 -0.7839725217 0.0296817215 -0.0407996674
670295980.0 0.0301198273 -0.0378218651 0.1229489259 -0.785607983 0.1225158905 -0.7852074956 0.028268881 -0.0415597369
675295950.0 0.0293351298 -0.0381841489 0.1143713101 -0.7873588096 0.1148645876 -0.7869873381 0.0278560039 -0.0417083669
680295920.0 0.0288834267 -0.0379896229 0.1056437038 -0.7881100594 0.1061564214 -0.7877365255 0.027729052 -0.0421728601
685295890.0 0.0284321078 -0.0377365309 0.096960994 -0.7893368469 0.0973733083 -0.7892638991 0.0273279408 -0.0413953269
690295860.0 0.027446765 -0.0380001102 0.0888989431 -0.7899922237 0.0887965366 -0.7899006177 0.0262218743 -0.0422697255
695295830.0 0.0273229731 -0.0385529195 0.0803805925 -0.7910906039 0.0802784108 -0.7907953197 0.0258054507 -0.0421241339
700295800.0 0.0268495872 -0.0380982304 0.0716186883 -0.7918474547 0.071579826 -0.7916464954 0.0251337641 -0.0420719024
705295770.0 0.0259773276 -0.0384586395 0.0628230825 -0.7928121071 0.0635135566 -0.792401964 0.0245990077 -0.0419966251
710295740.0 0.0256069654 -0.0387516972 0.0542380907 -0.7932969142 0.0545867034 -0.793404618 0.024115967 -0.0422740638
715295710.0 0.0247418596 -0.0382314656 0.0459396465 -0.7935194033 0.0458980146 -0.7939680065 0.0232024762 -0.0430936369
720295680.0 0.0247351562 -0.0383619324 0.0372140706 -0.7941326301 0.0372599819 -0.7943586311 0.022606662 -0.0427250568
725295650.0 0.0231543725 -0.0382598869 0.0284475245 -0.7943407193 0.0288049925 -0.7948515866 0.0214202981 -0.0423592311
730295620.0 0.0223631633 -0.0388264888 0.0195568226 -0.7942433522 0.0202355175 -0.7938794021 0.0210179665 -0.0421474897
735295590.0 0.022808724 -0.0387915333 0.010710186 -0.7948097679 0.0113217846 -0.7946954908 0.0200641743 -0.0430394292
740295560.0 0.0215648237 -0.0390625641 0.0019047309 -0.7953623424 0.0029089314 -0.7947469237 0.0194715263 -0.0424008711
745295530.0 0.0209845031 -0.038649972 -0.0060039984 -0.7940758202 -0.0048215856 -0.7945940804 0.0182943878 -0.0428977316
750295500.0 0.0199717331 -0.0384963219 -0.0141603496 -0.7947292199 -0.0148206219 -0.7947999231 0.01814547 -0.0427539208
755295470.0 0.0193143005 -0.0385722958 -0.0226720737 -0.7947737666 -0.0230774865 -0.7945974752 0.0178792139 -0.0420895506
760295440.0 0.0190951818 -0.0380612781 -0.0327718738 -0.7936052794 -0.0319809133 -0.7937318054 0.0170720351 -0.0436784424
765295410.0 0.0185234164 -0.0387883145 -0.040544338 -0.7937198526 -0.040070846 -0.7939095755 0.0162421624 -0.0428352503
770295380.0 0.0178188376 -0.0381403265 -0.0490405983 -0.7932285073 -0.0489274257 -0.7936216023 0.0150912536 -0.0427349865
775295350.0 0.0169731261 -0.0384710312 -0.0573382929 -0.7932382809 -0.0575793565 -0.7920137017 0.0153648287 -0.0425912972
780295320.0 0.0164266392 -0.038102293 -0.0661527171 -0.7912730411 -0.0655890924 -0.7916753446 0.0147115726 -0.0430021156
785295290.0 0.015783742 -0.0385778326 -0.074706705 -0.7911615712 -0.074634565 -0.7912025853 0.0130377279 -0.0423059473
790295260.0 0.0155631823 -0.0386352956 -0.0829266265 -0.7905416144 -0.0829344885 -0.7904749003 0.0126850182 -0.0418013084
795295230.0 0.0148040381 -0.0387533428 -0.0920949438 -0.7897221028 -0.0916041332 -0.7895791329 0.0124107609 -0.0430299952
800295200.0 0.0136457408 -0.0380292394 -0.0991687004 -0.7873588834 -0.1001287361 -0.7879554275 0.0112423782 -0.0421349771
805295170.0 0.0128040737 -0.0383435691 -0.1087268367 -0.7874194988 -0.1085351806 -0.7871382784 0.0114187172 -0.0419766389
810295140.0 0.012871177 -0.0379853039 -0.1174161603 -0.785425605 -0.1176168251 -0.7862701336 0.0106498248 -0.04220302
815295110.0 0.011775407 -0.0378734915 -0.1263554056 -0.7841704453 -0.1253201671 -0.7848081334 0.0094919993 -0.0420275101
820295080.0 0.011483056 -0.0379357121 -0.1339782821 -0.7827675744 -0.1340880458 -0.7832480978 0.0081770046 -0.0409420617
825295050.0 0.0107028134 -0.0379954078 -0.1427046164 -0.7817224901 -0.1426431145 -0.7813712086 0.0089188425 -0.0410142136
830295020.0 0.0099569889 -0.037769814 -0.1509455399 -0.7797015702 -0.1509787237 -0.7800685675 0.0075920959 -0.0414607819
