!Created with skrf (http://scikit-rf.org).
# Hz S RI R 50.0 
!freq ReS11 ImS11 ReS21 ImS21 ReS12 ImS12 ReS22 ImS22
300000.0 -0.7786277301 -0.1314692527 -0.0010240632 -0.0001114367 -0.0001750247 -0.0003605632 0.8597737954 -0.0034002274
5299970.0 -0.7852366865 -0.0068709282 -4.64504e-05 0.0001144674 -0.0001641759 1.30504e-05 0.8593139624 -0.0102786395
10299940.0 -0.7879837565 -0.0041448353 7.18578e-05 5.743e-07 0.0001223623 0.0001741494 0.8587356562 -0.0187462279
15299910.0 -0.7932495091 -0.0020938412 0.0001641095 -0.0002291101 -6.80528e-05 0.0001661671 0.8578801654 -0.0269597214
20299880.0 -0.8002385898 0.0017192462 3.81526e-05 4.19236e-05 -8.75121e-05 0.0001333431 0.8571202831 -0.0357271743
25299850.0 -0.8061910032 0.0072864345 2.547e-05 2.45671e-05 6.52444e-05 1.16074e-05 0.8561039915 -0.0434475934
30299820.0 -0.8126186308 0.0148318183 0.0001253663 6.13255e-05 0.0001532943 5.51386e-05 0.8558243919 -0.0524971529
35299790.0 -0.8170643453 0.0245655736 -0.0001288749 -4.271e-06 7.41772e-05 2.94483e-05 0.8548444929 -0.0596774239
40299760.0 -0.8213335603 0.0333871926 0.0002664775 -7.80936e-05 4.573e-06 0.0002536096 0.8541827315 -0.0678702612
45299730.0 -0.8245237971 0.0427320434 -9.97875e-05 0.0001118649 -1.32347e-05 3.42214e-05 0.8525904354 -0.0763247131
50299700.0 -0.827080668 0.0525996027 -7.16729e-05 5.2089e-05 -8.09205e-05 0.0001205152 0.8517877732 -0.0838712258
55299670.0 -0.8292956548 0.0631550405 0.0001443773 -5.2922e-05 0.0002209581 8.29188e-05 0.8509164557 -0.0927628669
60299640.0 -0.8305811409 0.0738142504 -2.84373e-05 -5.61349e-05 -7.77827e-05 -8.04987e-05 0.8500519529 -0.1012923409
65299610.0 -0.831580155 0.0829543677 6.1543e-06 8.046e-06 5.43647e-05 3.39545e-05 0.8489901289 -0.1085773887
70299580.0 -0.8319162822 0.0935434684 3.35848e-05 0.0001905262 -6.89573e-05 8.29575e-05 0.8474920424 -0.1172607786
75299550.0 -0.8319014645 0.1034676865 5.4669e-06 -6.87378e-05 -3.8571e-05 -2.85e-07 0.8462978366 -0.125807456
80299520.0 -0.8318431871 0.1132336508 -4.45531e-05 -0.000264542 0.0001364958 -1.52642e-05 0.8452434968 -0.1336092465
85299490.0 -0.8309379124 0.1229662386 0.0002566468 -8.59254e-05 -9.55345e-05 0.0001166495 0.8444505511 -0.1420162312
90299460.0 -0.8302146411 0.1320830617 -5.32087e-05 -0.0001712047 -4.2825e-06 5.90472e-05 0.841906915 -0.1498972284
95299430.0 -0.8295736754 0.1416654171 -8.82978e-05 0.0001855285 8.31487e-05 -9.93793e-05 0.8404879056 -0.157992344
100299400.0 -0.827899492 0.1509213714 0.0001122126 -0.0001323897 3.4151e-05 -7.74747e-05 0.8393978228 -0.1665847132
105299370.0 -0.8268489048 0.1600003902 0.000122941 -0.0001622567 -1.62258e-05 0.0001042344 0.8374378083 -0.174370362
110299340.0 -0.8254345988 0.1691909651 0.0002409262 -1.38649e-05 -2.5602e-06 1.99992e-05 0.8357943773 -0.182573827
115299310.0 -0.8237764623 0.1780283871 -0.0001316292 -4.19038e-05 -0.0001486949 6.8121e-06 0.8344432825 -0.1907042613
120299280.0 -0.8223442274 0.1867217373 -2.76957e-05 1.89199e-05 -5.00828e-05 -0.0001608132 0.8322888561 -0.1986454588
125299250.0 -0.8206843422 0.1957547027 -0.0001023023 0.0001347235 -0.000230704 9.36702e-05 0.8307703793 -0.2065308549
130299220.0 -0.8187132033 0.2054825371 5.01826e-05 9.0941e-06 -0.0001365334 8.74533e-05 0.8291075341 -0.2151616605
135299190.0 -0.8172229483 0.2144243738 -7.13822e-05 6.4795e-06 -0.00010899 7.37544e-05 0.8265004296 -0.2229075558
140299160.0 -0.8149674696 0.2233496737 0.0001085376 -0.0002066598 -0.0001476398 -4.79148e-05 0.8244572981 -0.2307817464
145299130.0 -0.8125673488 0.2320696036 0.0001795637 5.75674e-05 -0.0001084502 0.000147015 0.8219119461 -0.2385230735
150299100.0 -0.8101885401 0.2407975496 0.0001213947 -0.0001506808 0.0001163104 -1.68802e-05 0.8200995217 -0.2470492604
155299070.0 -0.8074318085 0.2494548466 0.0002167837 -8.47408e-05 -9.40791e-05 -1.61437e-05 0.8176018305 -0.2546192238
160299040.0 -0.8050589815 0.257817369 7.30613e-05 9.01078e-05 5.86802e-05 8.46534e-05 0.8149108138 -0.2621108515
165299010.0 -0.8027632661 0.266765447 0.000145815 -9.68606e-05 2.17572e-05 -1.51986e-05 0.8118417878 -0.2701964569
170298980.0 -0.7999390023 0.2754085992 -8.56258e-05 -6.16147e-05 -4.24338e-05 0.0001195127 0.8090749161 -0.2780258734
175298950.0 -0.7972368807 0.283861453 -6.76498e-05 8.63012e-05 -4.55878e-05 6.54749e-05 0.8070224281 -0.2858485719
180298920.0 -0.7951688984 0.2927047416 -2.96094e-05 4.10232e-05 7.48067e-05 -0.0001206181 0.8036600219 -0.2940058393
185298890.0 -0.7912799199 0.3009425492 -8.07117e-05 -9.1565e-05 6.7827e-06 -5.40857e-05 0.8009720174 -0.301917646
190298860.0 -0.7885956132 0.3094421094 -4.24687e-05 -3.70212e-05 2.7979e-05 6.02602e-05 0.7976755369 -0.3088054005
195298830.0 -0.7853288859 0.3181533879 0.0001596894 -9.5183e-06 5.26366e-05 4.29613e-05 0.7946449034 -0.3164169309
200298800.0 -0.7817651221 0.3262869585 0.0001390517 0.0001278348 -7.72531e-05 -0.0001388461 0.7916018857 -0.3241459376
205298770.0 -0.7781925451 0.3335244628 -2.0901e-06 -0.0001227187 0.0001194821 -0.0002113 0.788613396 -0.3318029062
210298740.0 -0.7746824935 0.3425225288 8.37054e-05 -1.32738e-05 3.22099e-05 9.67805e-05 0.7844578534 -0.3388365587
215298710.0 -0.7718146963 0.3511320314 -8.8531e-05 -1.70591e-05 -9.18087e-05 -0.0002166889 0.7815997614 -0.3469150543
220298680.0 -0.7676552982 0.3587980015 2.69267e-05 9.659e-06 8.20768e-05 0.0001937369 0.7777503717 -0.3545451981
225298650.0 -0.7643181081 0.3664146246 9.7608e-05 -0.0001419916 7.74044e-05 -1.53539e-05 0.7739951038 -0.3619762332
230298620.0 -0.7608278082 0.3743048652 0.0001960299 -3.90567e-05 8.97327e-05 -8.99623e-05 0.7706024432 -0.3693340439
235298590.0 -0.7563734794 0.3829352268 -0.0002142902 -3.36857e-05 8.07053e-05 0.0001736562 0.7671863123 -0.377128322
240298560.0 -0.7525954612 0.3911006593 -0.0001958797 -0.0002012889 3.73442e-05 -4.90367e-05 0.763194733 -0.3841735024
245298530.0 -0.7485421346 0.3982490051 -1.34374e-05 -0.0001165569 7.07206e-05 0.0001678505 0.7595400112 -0.3920401823
250298500.0 -0.7445768028 0.4070304887 -0.000153481 0.0001359951 7.94122e-05 2.84508e-05 0.755317753 -0.3989040696
255298470.0 -0.7401110628 0.4136454707 -8.87422e-05 0.0001732441 0.0001004284 4.11858e-05 0.7520646234 -0.4068718386
260298440.0 -0.7347441946 0.4210697902 0.0001411675 -6.17128e-05 2.25968e-05 0.0001883828 0.7476784906 -0.4139139101
265298410.0 -0.7320032931 0.429804875 9.08459e-05 -2.64005e-05 -6.15317e-05 0.0001376069 0.7440403952 -0.4209587642
270298380.0 -0.7272598083 0.4374481459 -3.31465e-05 -8.12435e-05 1.27287e-05 5.00324e-05 0.7397140368 -0.4282118573
275298350.0 -0.7222301051 0.4445759305 -4.56094e-05 -1.97248e-05 -0.0002029843 7.08655e-05 0.7359003206 -0.4352519865
280298320.0 -0.7167183694 0.4525141887 8.23874e-05 0.0002953618 3.03994e-05 -0.0001996438 0.7315569894 -0.4428924786
285298290.0 -0.7130131422 0.4600269705 0.0001220867 5.65523e-05 9.87701e-05 -2.44805e-05 0.7281753077 -0.4499984194
290298260.0 -0.7083266576 0.467486088 -5.34332e-05 0.0002677951 0.0001243956 0.0001273537 0.7243610446 -0.4567718769
295298230.0 -0.7023611374 0.4743374658 -1.35635e-05 -7.47607e-05 -0.0001756528 1.525e-07 0.7199460597 -0.4638662105
300298200.0 -0.6982257227 0.4815194596 0.0001401858 -7.16128e-05 -0.000117929 0.0001113369 0.7154295806 -0.4710140675
305298170.0 -0.6926233931 0.4880512474 3.86293e-05 -4.29663e-05 -5.74047e-05 7.8097e-05 0.7118245242 -0.4786684443
310298140.0 -0.6875129255 0.4956732387 2.66774e-05 0.000165206 -0.0001446259 2.02904e-05 0.7066368916 -0.4864913307
315298110.0 -0.6829209419 0.5030762443 -0.0001702453 -3.50761e-05 -8.87651e-05 0.0002590323 0.7013104685 -0.4937674815
320298080.0 -0.677864418 0.5101680452 -5.39594e-05 7.89086e-05 0.0001025614 -0.0001846541 0.6964128533 -0.5014712483
325298050.0 -0.6719936352 0.5174960832 -0.0002106949 9.44826e-05 4.20538e-05 -0.0001039713 0.6907601809 -0.5083660237
330298020.0 -0.6663634248 0.5240791165 4.10518e-05 -9.7712e-06 -8.5806e-05 -0.0002118313 0.6842879221 -0.5150793775
335297990.0 -0.6610943633 0.5306652733 8.42452e-05 -7.91734e-05 -1.35194e-05 -8.04938e-05 0.6792665553 -0.5206855391
340297960.0 -0.656169478 0.5377867827 1.75722e-05 8.50896e-05 -1.48006e-05 7.70021e-05 0.673502045 -0.5270981477
345297930.0 -0.6501619918 0.5439413632 -0.0001099389 -7.07457e-05 3.5469e-05 -7.20591e-05 0.6682365668 -0.5339178473
350297900.0 -0.6448330715 0.550857523 -7.98222e-05 -0.000140378 0.0001037025 9.93817e-05 0.6623851372 -0.5393851714
355297870.0 -0.6380973656 0.5582759398 5.379e-06 -0.0001432883 9.2779e-06 9.97996e-05 0.6573099006 -0.5456508002
360297840.0 -0.6326524093 0.5637994127 0.0001516988 -4.46361e-05 6.95515e-05 -3.89541e-05 0.6521135006 -0.5518085755
365297810.0 -0.6274834473 0.5706188915 4.44124e-05 0.0002349585 0.000198613 0.0001160487 0.646089878 -0.5585202761
370297780.0 -0.6211204415 0.5767173405 3.3238e-05 5.07815e-05 0.0001432714 1.94389e-05 0.6408010296 -0.563890399
375297750.0 -0.6150867967 0.5832441714 7.73139e-05 5.71907e-05 -0.0001321257 7.70755e-05 0.6350399786 -0.5706424435
380297720.0 -0.6089246912 0.5886705728 -0.0001270641 -7.08739e-05 0.000261856 -8.49184e-05 0.6291985286 -0.5761865414
385297690.0 -0.6035864239 0.5949436143 -5.16896e-05 -0.0001905998 -0.000231078 1.03206e-05 0.6234994163 -0.5817532077
390297660.0 -0.5971257804 0.6010741204 0.0002440434 -0.0001505647 9.34885e-05 0.0001253181 0.6169647143 -0.5883018972
395297630.0 -0.5903871232 0.6076591369 0.0002200432 -7.83798e-05 0.000343057 0.0001428825 0.6117121216 -0.5939291566
400297600.0 -0.5843774789 0.6137059024 6.5835e-05 -4.0448e-06 -2.23042e-05 -0.0001255489 0.6056145032 -0.5994081509
405297570.0 -0.5775481323 0.6197081224 -0.00018134 -6.01291e-05 -5.57794e-05 2.73191e-05 0.5997888517 -0.6057715544
410297540.0 -0.5714558368 0.6247971375 0.000124128 8.22786e-05 0.0001045336 0.0001621176 0.5935586478 -0.6116818943
415297510.0 -0.5648277447 0.6307371976 1.15356e-05 -5.48354e-05 5.99785e-05 -0.0001193525 0.5880351386 -0.6171250252
420297480.0 -0.5593325874 0.6368855064 -0.000297614 0.0001895415 -2.87812e-05 5.27533e-05 0.5824110926 -0.6226619215
425297450.0 -0.5517048698 0.6423801372 0.000127958 -0.0002284168 -0.0001134071 7.75866e-05 0.5756541202 -0.6286709991
430297420.0 -0.5453585344 0.6477422284 -0.0001284281 5.5288e-06 1.68837e-05 -0.0001386028 0.5689053178 -0.6346796204
435297390.0 -0.539538322 0.652891854 -2.75123e-05 -0.0001661077 -3.60164e-05 9.81788e-05 0.5636300209 -0.6398941273
440297360.0 -0.5316989696 0.6588019275 0.0001158757 -0.0002069434 7.75143e-05 -9.796e-06 0.5564582189 -0.644603511
445297330.0 -0.525205055 0.6639927579 -7.50408e-05 5.4239e-05 9.10028e-05 0.0001181942 0.5507253251 -0.6509207217
450297300.0 -0.5183816121 0.6692641849 1.53866e-05 -7.24193e-05 -0.0001953731 -2.0592e-06 0.5441848271 -0.6554416654
455297270.0 -0.5115806167 0.6743240389 -6.4055e-05 0.0001606251 -0.000159468 0.0001010729 0.5378872642 -0.6610156832
460297240.0 -0.5051258518 0.67926759 -0.0001232565 -7.4579e-06 -0.0001808205 -9.66509e-05 0.5314030956 -0.6661127814
465297210.0 -0.4979883481 0.6850103353 8.96665e-05 3.29875e-05 -2.21014e-05 -1.85649e-05 0.5242138795 -0.6710477333
470297180.0 -0.49017504 0.6893660245 -0.0002368305 4.82443e-05 2.3862e-05 0.0001362098 0.5181612878 -0.6760466316
475297150.0 -0.4837583769 0.694439269 2.57388e-05 -0.0001857742 -8.15456e-05 -7.4891e-05 0.5117656526 -0.6810972641
480297120.0 -0.4767883423 0.6993908303 -2.96363e-05 -9.21992e-05 5.08976e-05 8.3737e-05 0.505192806 -0.685712047
485297090.0 -0.4696225269 0.7037395391 -9.61761e-05 5.3547e-06 -0.0001031975 -4.5624e-05 0.4989863159 -0.6906449945
490297060.0 -0.462779548 0.7082180378 0.0001153043 4.28548e-05 1.836e-06 3.26771e-05 0.4915723235 -0.6954217795
495297030.0 -0.4554226803 0.7134339193 -0.0001046088 7.69342e-05 -6.90208e-05 -2.742e-05 0.4840743233 -0.7001694069
500297000.0 -0.4477130329 0.7177823225 0.0002211974 5.03572e-05 -2.8789e-06 -0.0001035972 0.4776762157 -0.7046398201
505296970.0 -0.4402037099 0.7226219796 -8.4424e-06 -5.09431e-05 -9.95018e-05 -4.40912e-05 0.4705482871 -0.7094572463
510296940.0 -0.4331024416 0.7261479577 -1.80639e-05 3.74311e-05 5.95914e-05 0.0001500036 0.4631900463 -0.7139916427
515296910.0 -0.4248777214 0.7306395285 3.41763e-05 9.94777e-05 2.0129e-06 -3.71555e-05 0.4570382538 -0.7181642541
520296880.0 -0.417899074 0.7356292152 -7.2058e-06 0.0001619488 0.0001218886 -0.0002153706 0.449216056 -0.7232423522
525296850.0 -0.4103616943 0.7389333592 0.0001793509 -6.9867e-06 1.11999e-05 0.0001023252 0.4422056591 -0.726251447
530296820.0 -0.4028820967 0.7429351083 1.3531e-06 -2.39871e-05 0.0001737591 -3.76364e-05 0.4350007641 -0.7306378057
535296790.0 -0.395869719 0.7472176247 7.37073e-05 7.90186e-05 0.0001339742 -0.0001389396 0.4273513438 -0.7352999268
540296760.0 -0.3883451199 0.7507920496 2.1887e-06 -0.0002297001 5.95202e-05 -0.0001985979 0.4198970201 -0.7388318278
545296730.0 -0.3810188682 0.7552245013 -5.6181e-06 -0.0003943506 -0.0001183873 7.20884e-05 0.4126934686 -0.7430632767
550296700.0 -0.3731129392 0.7590062341 0.0002456618 4.71201e-05 -0.0001339386 6.29802e-05 0.405295595 -0.7475846278
555296670.0 -0.3653656336 0.7613744832 0.0001169396 7.62193e-05 4.67868e-05 -6.39925e-05 0.3978428474 -0.7505367977
560296640.0 -0.3579121524 0.7663736023 2.4153e-06 -1.75899e-05 0.0001272036 0.0001392607 0.390275799 -0.7542295323
565296610.0 -0.3499660858 0.769770649 -1.59267e-05 0.0002932628 0.000126629 8.24524e-05 0.3829873588 -0.7579862182
570296580.0 -0.3429561866 0.7719670052 -4.99192e-05 0.0002540869 0.0001110219 0.0001235258 0.3751034058 -0.7619377258
575296550.0 -0.3347738313 0.7764286876 1.7112e-05 -4.42943e-05 0.000122514 -2.69165e-05 0.3676272552 -0.7648604482
580296520.0 -0.3261040577 0.7792975309 0.0001482185 5.30081e-05 0.0001129178 8.81398e-05 0.360449642 -0.7691833194
585296490.0 -0.3189846762 0.7823637809 5.67395e-05 6.86557e-05 7.8353e-06 0.0002385429 0.3534714795 -0.7726437329
590296460.0 -0.3108941754 0.786128951 0.0001713885 4.01903e-05 -1.71047e-05 -5.66233e-05 0.3449705682 -0.7751624678
595296430.0 -0.3030473857 0.7883766401 0.0001772289 0.000157304 4.85176e-05 0.0001207896 0.3374815043 -0.7788570922
600296400.0 -0.295111239 0.7916550554 -0.0001646424 0.0001626705 0.0001182135 -9.53605e-05 0.3305810899 -0.7825583047
605296370.0 -0.2882142335 0.794694639 0.0001245533 6.8651e-06 0.000328508 -1.23093e-05 0.3224341408 -0.785529757
610296340.0 -0.2793527264 0.7968777393 -0.0002244182 -0.0001164724 0.0001920247 -2.44257e-05 0.314243006 -0.7878943557
615296310.0 -0.2705543697 0.8001495319 -0.0001369734 -7.70136e-05 3.3171e-06 0.0001516923 0.3066021874 -0.7909194593
620296280.0 -0.2631178499 0.8022435314 -0.0001434537 -5.61634e-05 -6.14304e-05 -4.15126e-05 0.2992160856 -0.7941262013
625296250.0 -0.2547880697 0.8051563657 6.8153e-05 8.61114e-05 2.45124e-05 0.0001098801 0.2912161042 -0.7971859906
630296220.0 -0.2464234606 0.8076243202 -0.0002371189 6.85255e-05 0.0001188179 6.92318e-05 0.2828590006 -0.7994047814
635296190.0 -0.2389806924 0.8104074376 1.51297e-05 2.21659e-05 8.23067e-05 0.0001407941 0.276040825 -0.8026718662
640296160.0 -0.2317038196 0.8121735143 5.55712e-05 -7.02525e-05 0.0001095045 -8.8441e-06 0.2668645406 -0.805277781
645296130.0 -0.222555216 0.8149007538 -0.0001329674 -0.0001301785 -2.41162e-05 2.12685e-05 0.259659525 -0.8071356241
650296100.0 -0.2149105881 0.8166956077 8.988e-06 -9.30532e-05 -2.38461e-05 -3.4999e-06 0.2520258455 -0.8108086004
655296070.0 -0.2065202643 0.8193256076 -1.23351e-05 -0.0001311278 3.52828e-05 9.68885e-05 0.2445153625 -0.811836541
660296040.0 -0.1985759791 0.8205128298 1.0754e-05 1.05014e-05 3.20931e-05 0.000119439 0.2361151088 -0.8151035759
665296010.0 -0.1895419219 0.8222684251 0.0001198531 -0.0001061274 7.6544e-06 -8.68446e-05 0.227427122 -0.8166065501
670295980.0 -0.1821256264 0.8241007562 5.43157e-05 0.0001038913 3.43675e-05 0.0001279094 0.2192396393 -0.818864165
675295950.0 -0.1737551389 0.825632249 -1.10824e-05 3.71705e-05 -1.6389e-05 -4.51219e-05 0.2110103841 -0.8205514588
680295920.0 -0.1652928205 0.8276062557 -5.818e-06 -6.24779e-05 5.00139e-05 6.84968e-05 0.2038024059 -0.8225860572
685295890.0 -0.1568603843 0.8305186679 -8.57419e-05 -1.32295e-05 7.38136e-05 -9.784e-07 0.1947504399 -0.8239245177
690295860.0 -0.1490475745 0.8313108757 2.1634e-06 6.51868e-05 2.23963e-05 -9.55383e-05 0.1865763241 -0.8257306223
695295830.0 -0.140874172 0.8322446413 3.15689e-05 -0.000128551 2.10106e-05 -6.50347e-05 0.1785387778 -0.8273529363
700295800.0 -0.1322293858 0.8336209353 7.86938e-05 -7.73894e-05 -7.54785e-05 -1.3616e-05 0.1703862138 -0.8292997431
705295770.0 -0.1243981717 0.834954627 0.0003451143 0.0002688479 0.0001623748 -9.23942e-05 0.1620709287 -0.8297086227
710295740.0 -0.1159723607 0.8365446923 -0.0001611416 -0.0002577862 -7.23743e-05 0.0001011135 0.1534713514 -0.8312815786
715295710.0 -0.1072323292 0.8371955234 0.0001359269 -1.68977e-05 -3.11905e-05 9.03719e-05 0.1457959242 -0.8332207136
720295680.0 -0.0992804818 0.8383173566 3.21577e-05 -9.7069e-06 7.20777e-05 -0.0001178496 0.1377268893 -0.8344476358
725295650.0 -0.0908078182 0.8393766287 -4.00238e-05 -2.82624e-05 7.253e-07 0.0001401089 0.1287579862 -0.8349066288
730295620.0 -0.0821415968 0.8404128579 -0.0001517704 0.0002245641 -1.94958e-05 0.0002156952 0.1204100095 -0.8365168679
735295590.0 -0.074794113 0.8412728281 -6.22257e-05 -2.30986e-05 3.20956e-05 -0.0001027522 0.1118322241 -0.8382122972
740295560.0 -0.0659896162 0.8422258576 -6.06243e-05 2.78968e-05 -0.0001425983 -4.3205e-06 0.1039238945 -0.8381911354
745295530.0 -0.0573462574 0.8422062092 -7.45593e-05 8.85344e-05 0.0002113285 -0.0001403726 0.0965168845 -0.8392035494
750295500.0 -0.0489395263 0.8430459221 -0.0001368858 -5.43376e-05 3.057e-06 -8.1719e-05 0.0874228464 -0.8400649361
755295470.0 -0.0408258634 0.8429275175 0.0001682474 -8.85603e-05 6.62219e-05 -3.15053e-05 0.0793122633 -0.8414778863
760295440.0 -0.032877384 0.8428733066 -0.0001723801 4.191e-07 -0.0002739032 2.41798e-05 0.0709563859 -0.8420830728
765295410.0 -0.02471263 0.8438358281 -0.000147821 1.3759e-05 0.000109482 0.000233744 0.0629275624 -0.8421618666
770295380.0 -0.0162498668 0.8443338292 -5.04396e-05 2.63317e-05 -9.14211e-05 1.56393e-05 0.053647567 -0.8430618399
775295350.0 -0.0080490445 0.8441683842 6.2371e-06 0.0003066823 5.7152e-05 0.0001027616 0.0453959202 -0.843346722
780295320.0 0.0005972872 0.8438153682 -1.83296e-05 0.000148969 -7.133e-07 -0.0001755586 0.0372800644 -0.8434745163
785295290.0 0.0091173576 0.843595624 -0.0001802715 5.7114e-05 -4.83525e-05 2.50666e-05 0.0294173256 -0.8434415441
790295260.0 0.0177875118 0.8438165464 0.000131194 -2.85263e-05 -0.0003012859 9.7423e-05 0.0217223283 -0.8439770954
795295230.0 0.0255303238 0.8439176762 2.21859e-05 -4.66669e-05 3.70515e-05 7.3975e-06 0.0129150712 -0.8446168849
800295200.0 0.0338363086 0.8431656673 -0.0001244679 0.0001601242 -0.0001780703 3.20977e-05 0.0043040395 -0.8439424841
805295170.0 0.0424504782 0.8431537153 2.6479e-05 4.07e-06 -0.0001209757 8.3493e-06 -0.004444116 -0.8438738158
810295140.0 0.0508688275 0.8424934616 0.0001584436 -0.0001029178 4.13559e-05 7.60763e-05 -0.0118122729 -0.8437449574
815295110.0 0.0590765953 0.8421093428 -4.66998e-05 -9.7837e-05 0.0002309436 0.0001538791 -0.0210298362 -0.8433288005
820295080.0 0.0674356987 0.8410665524 0.0001250202 -0.0003409509 -8.70288e-05 0.0001648624 -0.0291891935 -0.842642043
825295050.0 0.0762870262 0.8404369674 0.0001561099 0.0002028022 -2.45466e-05 -7.71733e-05 -0.0367949553 -0.8424343145
830295020.0 0.0838855242 0.8398240492 5.44052e-05 9.953e-06 -1.25921e-05 5.7663e-06 -0.0449947612 -0.8418060683
835294990.0 0.0920887285 0.8390347349 5.69353e-05 -3.00398e-05 -5.45619e-05 -0.0002077109 -0.0536240712 -0.8413982337
840294960.0 0.0998759438 0.8385409818 6.9724e-06 -0.0001662287 8.1966e-06 -0.0001161352 -0.0621153258 -0.8406283112
845294930.0 0.1082930854 0.8369562676 -0.000223302 -6.69756e-05 -4.77011e-05 -9.0332e-06 -0.0705344161 -0.8389659941
850294900.0 0.1163995194 0.8362477912 -7.0469e-06 0.0001238961 -2.0394e-05 -0.0001013629 -0.078814101 -0.8389541321
