!Created with skrf (http://scikit-rf.org).
# Hz S RI R 50.0 
!freq ReS11 ImS11 ReS21 ImS21 ReS12 ImS12 ReS22 ImS22
300000.0 -0.322741925 -0.0778723226 0.3761580862 0.0424726524 0.3717566479 0.0390436055 -0.3159511044 -0.0970416779
5299970.0 -0.3266751772 0.0044711452 0.3782158579 0.002433589 0.3782317195 0.0025026646 -0.3240112687 0.0048019619
10299940.0 -0.3238782688 0.0135275446 0.3794467416 0.001881967 0.3795884109 0.0019834806 -0.3215580245 0.0162204112
15299910.0 -0.3214552871 0.0204186832 0.3817445071 0.0020296207 0.382043487 0.0021060721 -0.3182433354 0.0238034159
20299880.0 -0.318799476 0.0265630401 0.3848607384 0.0016206312 0.3845681019 0.0015551571 -0.3148081425 0.0301838657
25299850.0 -0.3157510531 0.0315719543 0.3881740348 0.0001237023 0.3878302835 0.0002263964 -0.310665764 0.0358542652
30299820.0 -0.3127437845 0.0360135605 0.3913776129 -0.002423064 0.3913024367 -0.0026435783 -0.3071312912 0.0410306509
35299790.0 -0.3101182843 0.0397757717 0.3950918499 -0.0056126788 0.3948790642 -0.0058447099 -0.3035905931 0.045137674
40299760.0 -0.306939767 0.0437483388 0.3978627094 -0.0088065695 0.397846898 -0.0089508447 -0.3000489478 0.04822721
45299730.0 -0.3043719122 0.0466246808 0.4008716109 -0.0129570456 0.4010125923 -0.012650164 -0.2972508941 0.0520141376
50299700.0 -0.3025079837 0.0495507923 0.4037109712 -0.0175073204 0.4034499502 -0.0170280081 -0.2941298915 0.054464484
55299670.0 -0.2999830019 0.0519504219 0.4052936035 -0.0223499002 0.4053617723 -0.0220111957 -0.2917619261 0.0573373125
60299640.0 -0.2981110559 0.0549818561 0.407389484 -0.0271280803 0.4077097166 -0.0270384504 -0.2891847544 0.0594524382
65299610.0 -0.2964719185 0.0573440339 0.4089872967 -0.0321798533 0.4092874423 -0.0320564919 -0.2872330985 0.0617926332
70299580.0 -0.2947489616 0.0600833668 0.410541698 -0.0374948172 0.4103359674 -0.0368686978 -0.28483493 0.063976285
75299550.0 -0.2929790214 0.0629119605 0.411206713 -0.0426462951 0.4112238564 -0.0422455068 -0.2830259648 0.0660110863
80299520.0 -0.2915881202 0.064917974 0.4124594022 -0.0475961946 0.4124410676 -0.0475863414 -0.2815445182 0.0683136227
85299490.0 -0.2900124999 0.066970397 0.4125527767 -0.0528345376 0.4129920652 -0.0523600741 -0.2803895568 0.0698900724
90299460.0 -0.2887929259 0.0693147141 0.4129498064 -0.0580022122 0.413489213 -0.0583068174 -0.2784394518 0.0721093336
95299430.0 -0.2873602293 0.0717013967 0.413768824 -0.0633135358 0.4135424528 -0.0632299838 -0.2766829447 0.0743622428
100299400.0 -0.2864181487 0.0741309286 0.4131634185 -0.0682035308 0.4131334194 -0.0685694933 -0.2752808977 0.0760239611
105299370.0 -0.284917148 0.0764649197 0.4128697942 -0.073552186 0.4137540974 -0.0735170542 -0.2738471789 0.0783404542
110299340.0 -0.2838881242 0.0786912286 0.4131823934 -0.0785288775 0.4130146607 -0.0787717267 -0.2730693963 0.080416447
115299310.0 -0.2831301727 0.0809174408 0.4129158195 -0.0841114251 0.412773577 -0.083998545 -0.2715646375 0.0825399642
120299280.0 -0.2818573712 0.0831290129 0.4122700476 -0.0891227665 0.4122937858 -0.0888931455 -0.2705398454 0.0845029081
125299250.0 -0.2808760552 0.0855476515 0.411593229 -0.0940358468 0.4120676504 -0.0940044062 -0.2695968975 0.0864325166
130299220.0 -0.280457317 0.0885290713 0.4109316045 -0.0992350165 0.4110758358 -0.0993973064 -0.2684296932 0.0887504573
135299190.0 -0.2792280027 0.0905284173 0.4105638184 -0.1041553393 0.4104424084 -0.1041759138 -0.267135232 0.0910612838
140299160.0 -0.2783482528 0.0933710904 0.4096752007 -0.1094709374 0.4097548346 -0.1091007483 -0.2659863414 0.093539264
145299130.0 -0.2774691743 0.0956387702 0.4090450911 -0.1142966007 0.4086650076 -0.113892474 -0.2650010121 0.0955896152
150299100.0 -0.2761759453 0.0981966239 0.4076981587 -0.1186259037 0.4078749836 -0.1186432556 -0.2642833301 0.0985325386
155299070.0 -0.2755800923 0.1009715005 0.4064642886 -0.1243063124 0.4063144061 -0.1239863188 -0.2628282495 0.1007131293
160299040.0 -0.2744750426 0.1034296292 0.4052261488 -0.1288320285 0.405127833 -0.1289732275 -0.2626160909 0.102878022
165299010.0 -0.2736802378 0.1061214382 0.4041281835 -0.1339615912 0.4041607781 -0.1337987817 -0.2610596913 0.1059417873
170298980.0 -0.2728855847 0.1085586342 0.4026135501 -0.138438551 0.4029447531 -0.1384839238 -0.2602378849 0.1080818403
175298950.0 -0.2719329713 0.1113974407 0.4015621323 -0.1432232531 0.4009494061 -0.1432428332 -0.2591502904 0.110570017
180298920.0 -0.2709400435 0.1138229805 0.3998104299 -0.1480138885 0.3997864795 -0.147607166 -0.2583896069 0.1134729226
185298890.0 -0.2693819882 0.1162890329 0.3981961868 -0.1527342557 0.3981530747 -0.1523541116 -0.257209129 0.1158056576
190298860.0 -0.2686021725 0.1192160735 0.3968136842 -0.1572972104 0.397241653 -0.1573068827 -0.2563273246 0.1179965324
195298830.0 -0.2679625742 0.1217908392 0.3951703896 -0.1617669437 0.3953155571 -0.1619953098 -0.2551509841 0.1211198069
200298800.0 -0.2662405551 0.124658963 0.3933320153 -0.1667462186 0.3935501205 -0.1669263076 -0.2541652709 0.1237935538
205298770.0 -0.2654242362 0.1272201914 0.3915070023 -0.1713468967 0.391463569 -0.1710586397 -0.2530547594 0.1259609958
210298740.0 -0.2644463748 0.1299328548 0.3896099379 -0.1756159405 0.3897546973 -0.1756253023 -0.2517033361 0.128788572
215298710.0 -0.26351542 0.132548518 0.3880404426 -0.1800886364 0.3877294499 -0.1805196066 -0.2513420625 0.1310099445
220298680.0 -0.2619834511 0.1350977581 0.3856312363 -0.1844210075 0.3857249259 -0.1847953731 -0.2502264625 0.1332677097
225298650.0 -0.2609851521 0.1382628998 0.3837642602 -0.1895083116 0.3837091161 -0.1891023531 -0.2491136303 0.1360047978
230298620.0 -0.2595409774 0.1409571555 0.3818435898 -0.1932239023 0.3823896295 -0.1935591395 -0.2478543317 0.1385954081
235298590.0 -0.2581547565 0.143849707 0.379796083 -0.1979790069 0.3797721544 -0.1976786549 -0.2465639402 0.1411305723
240298560.0 -0.2570723314 0.1462873977 0.3777579723 -0.202914127 0.377689448 -0.2025610618 -0.24504464 0.1442427821
245298530.0 -0.2558543497 0.1491908924 0.3756762549 -0.2067327039 0.3753590263 -0.2065964655 -0.2439076456 0.1458936068
250298500.0 -0.2543990506 0.1518997069 0.3726570396 -0.211183581 0.3728849182 -0.2104848673 -0.2429606662 0.1484054733
255298470.0 -0.2528053143 0.154208075 0.3705523202 -0.2148578543 0.3708522939 -0.2149728958 -0.2414599845 0.1507686986
260298440.0 -0.2516942888 0.1568574202 0.3681981858 -0.2193377499 0.3683567868 -0.2195851428 -0.2398783245 0.1538371809
265298410.0 -0.2498917692 0.1599627229 0.3656607343 -0.2237516194 0.3658841045 -0.2233391358 -0.2384976904 0.1562639184
270298380.0 -0.2486629091 0.1623497787 0.3635904969 -0.2275752295 0.3638073512 -0.2276299041 -0.2369883884 0.1586893293
275298350.0 -0.246912423 0.1651152924 0.3608620558 -0.2318167005 0.3611647329 -0.2318134711 -0.2352368713 0.1611193381
280298320.0 -0.244965922 0.1677940669 0.3586076415 -0.2359859742 0.3585135062 -0.2356620377 -0.2333295495 0.1636117842
285298290.0 -0.2435031067 0.170651048 0.3561550609 -0.2398498807 0.3555916098 -0.2399380912 -0.2317305936 0.1660171427
290298260.0 -0.2417755234 0.1732479089 0.3527291003 -0.2439326461 0.3531763431 -0.2442095279 -0.2303172979 0.1684070345
295298230.0 -0.2396386273 0.1755992092 0.3503379078 -0.2477540135 0.3502947773 -0.247564886 -0.2282077433 0.1707424469
300298200.0 -0.2384970623 0.1783445843 0.3480066175 -0.2515100527 0.3481337401 -0.2519628439 -0.2267952941 0.1737484141
305298170.0 -0.2365765622 0.1804431411 0.3446861408 -0.2560147557 0.3449971755 -0.2557798444 -0.2246212157 0.1755882962
310298140.0 -0.2344831057 0.1835950845 0.3419966851 -0.2596406864 0.3420881982 -0.2598291725 -0.2229410515 0.1781045707
315298110.0 -0.2329849346 0.1857430147 0.3390227688 -0.263408324 0.3392883366 -0.263793374 -0.2212309495 0.1803810312
320298080.0 -0.2311305575 0.1879817945 0.3361272785 -0.2675789736 0.3362646033 -0.2672752156 -0.2195843218 0.1833235855
325298050.0 -0.2293163909 0.1907575054 0.3333190557 -0.2714708667 0.333210642 -0.2713182103 -0.2176714802 0.1852521748
330298020.0 -0.2275773716 0.1932918868 0.3299538007 -0.2752962125 0.3303081306 -0.2750102726 -0.2160248267 0.1877652256
335297990.0 -0.225401738 0.1954570014 0.3268369201 -0.2786703412 0.3268615927 -0.2787488612 -0.2147524861 0.1905683631
340297960.0 -0.2240960049 0.1982171352 0.3235709495 -0.2822829229 0.3237773207 -0.2826134388 -0.2123069612 0.1930371598
345297930.0 -0.2221416786 0.2007422921 0.3206425823 -0.2860299984 0.3202145463 -0.2858107075 -0.2105999029 0.1949707069
350297900.0 -0.2201866521 0.2029784445 0.3171346391 -0.289585206 0.3171357806 -0.2895041333 -0.2087965967 0.1980687285
355297870.0 -0.2178311795 0.2061410084 0.3138792839 -0.2931076368 0.314381137 -0.2925633743 -0.2069038598 0.2000243525
360297840.0 -0.2158769638 0.2082321697 0.3108826998 -0.2963469164 0.3108173073 -0.2962151866 -0.2049031737 0.2026151333
365297810.0 -0.2142027484 0.2110589388 0.307643425 -0.3000941976 0.3076778229 -0.3002812452 -0.2027778307 0.2054125636
370297780.0 -0.2116997147 0.2130417561 0.3039390507 -0.3030278547 0.3043220525 -0.3027973556 -0.2006493283 0.2074943044
375297750.0 -0.2096057618 0.215652314 0.3006451883 -0.3063569477 0.301222827 -0.3067913428 -0.1987276237 0.209619438
380297720.0 -0.2072362958 0.2177499751 0.297231737 -0.3097071045 0.2974641802 -0.3095169845 -0.1970720197 0.2119497116
385297690.0 -0.205340498 0.2201917758 0.2939630458 -0.3129083627 0.294096146 -0.3133267641 -0.1943750821 0.2145729161
390297660.0 -0.2029823828 0.2225529884 0.2903180224 -0.3163046821 0.2905525297 -0.315911086 -0.1927718403 0.216577388
395297630.0 -0.2006595469 0.2250427417 0.286852452 -0.3190105864 0.2868394636 -0.3193311619 -0.1900066399 0.2187533484
400297600.0 -0.1984549814 0.2274909957 0.2831672643 -0.322770608 0.2836387954 -0.3224814363 -0.1880182017 0.2207368912
405297570.0 -0.196479803 0.2295402052 0.2798469645 -0.3252921683 0.2797737106 -0.3255596781 -0.1860703305 0.2231365349
410297540.0 -0.1936163078 0.231778639 0.2759660691 -0.3287052495 0.2764991163 -0.3289600196 -0.1839624035 0.2252326205
415297510.0 -0.1913544364 0.2338154314 0.2722192719 -0.331741561 0.2727788613 -0.3318177547 -0.181686418 0.2271520313
420297480.0 -0.1890756255 0.2360959206 0.268738866 -0.334920895 0.268933552 -0.3347245113 -0.1793257887 0.2289902634
425297450.0 -0.1865771495 0.2382618435 0.2654066708 -0.337582448 0.2654553208 -0.3376499032 -0.1772086623 0.2311453448
430297420.0 -0.1839253177 0.2403527477 0.2614361018 -0.3401592106 0.2614189132 -0.3402405133 -0.174801607 0.2331656204
435297390.0 -0.1819518968 0.2424156203 0.2575379779 -0.3431296052 0.257511367 -0.3434606836 -0.1718207788 0.2352638059
440297360.0 -0.1790543081 0.2445199942 0.2538768241 -0.3458342697 0.2538624874 -0.3461333399 -0.1697713508 0.2369987562
445297330.0 -0.1766033262 0.2464697148 0.2501293609 -0.3486039812 0.2500448647 -0.3484269681 -0.1670624507 0.2387071549
450297300.0 -0.173988506 0.2483875314 0.2459613834 -0.3514807542 0.2461959053 -0.3515454962 -0.1647086118 0.2405311702
455297270.0 -0.1716982236 0.2504414197 0.242184707 -0.3539899611 0.2424552857 -0.3541748831 -0.16229849 0.2421122088
460297240.0 -0.1690244529 0.2524117704 0.2379280906 -0.356491599 0.2386509514 -0.3567875408 -0.1595766184 0.2444152401
465297210.0 -0.1659461218 0.2544926625 0.2344087474 -0.3595051435 0.234428946 -0.3591566448 -0.1567734333 0.2459054917
470297180.0 -0.1635620267 0.2561583674 0.2302652072 -0.3619321827 0.2306395738 -0.3619986962 -0.1544453062 0.2476641487
475297150.0 -0.1608619066 0.2577786622 0.2265786817 -0.3637758303 0.2266917398 -0.3640422308 -0.1515266253 0.2492087415
480297120.0 -0.1582830795 0.2600559733 0.222523822 -0.3670989952 0.2222494465 -0.3669700862 -0.1486813191 0.2513342853
485297090.0 -0.1556166505 0.2617532186 0.2185566706 -0.3691185306 0.2185379254 -0.3691335284 -0.1461806574 0.252898942
490297060.0 -0.1529543246 0.2632953224 0.214453865 -0.3715157075 0.2145391029 -0.3713095602 -0.1433422071 0.2547126174
495297030.0 -0.1500768374 0.2653174783 0.210465345 -0.3736460375 0.2105638695 -0.3736811909 -0.1409719715 0.2565292551
500297000.0 -0.1470669788 0.2668014645 0.2061122751 -0.3757368914 0.2057181559 -0.3755263608 -0.1379929551 0.2585309756
505296970.0 -0.1445526436 0.2686201609 0.2022162556 -0.377968565 0.2019462917 -0.3781043766 -0.1351454658 0.2601251045
510296940.0 -0.1415572282 0.2703806392 0.1978291996 -0.3803437589 0.1977772489 -0.3802579138 -0.1326027803 0.2617981801
515296910.0 -0.138789698 0.2720241879 0.1935197551 -0.3824047975 0.1936747477 -0.3821988043 -0.1298896988 0.2634936505
520296880.0 -0.1358353789 0.2734567597 0.1896431233 -0.3847998782 0.1894856246 -0.3844805625 -0.1271942743 0.264571666
525296850.0 -0.1330522907 0.2749039508 0.185080548 -0.3866179393 0.1853565302 -0.3863805487 -0.1244612577 0.2662053468
530296820.0 -0.1301037057 0.276784838 0.1811471709 -0.3885090395 0.1812079634 -0.3886605582 -0.1216634623 0.2680743325
535296790.0 -0.1276646431 0.2783693024 0.1769584685 -0.3899659214 0.1768957263 -0.3902735345 -0.118841887 0.269556114
540296760.0 -0.1247563977 0.2798122242 0.1725859487 -0.3925725457 0.1721282936 -0.392385858 -0.1162149574 0.271205501
545296730.0 -0.121807051 0.2808945054 0.1682159977 -0.3938440834 0.168243398 -0.3939808376 -0.1135109262 0.2722156568
550296700.0 -0.118305061 0.2829782157 0.1636077 -0.3960893671 0.1637562115 -0.3960535575 -0.1106251472 0.2737776428
555296670.0 -0.1157667138 0.283825918 0.1598214204 -0.3976183145 0.1594183356 -0.3973987651 -0.1077382863 0.2754804914
560296640.0 -0.1126596922 0.2856518319 0.1551061698 -0.3992119902 0.1551391272 -0.3989998784 -0.1047622625 0.2763949641
565296610.0 -0.1096762905 0.2867191794 0.1505893706 -0.4009884761 0.1507929266 -0.4009456558 -0.1018969278 0.277354769
570296580.0 -0.1069390608 0.2879522859 0.1465452062 -0.402807178 0.1462214156 -0.4025859551 -0.0996529726 0.2792454865
575296550.0 -0.1038328729 0.2897438687 0.1422260929 -0.4046032011 0.1417404003 -0.4043502227 -0.0966849634 0.2799705613
580296520.0 -0.100435966 0.290533577 0.1375126088 -0.4056825185 0.1376701568 -0.4054498528 -0.0936746672 0.2809894186
585296490.0 -0.098332634 0.2916238707 0.1333816957 -0.4067625146 0.1333104034 -0.4070687519 -0.0907173701 0.2824072704
590296460.0 -0.0944198729 0.2927449391 0.1289133956 -0.4079109784 0.1287517708 -0.4083563886 -0.0879638378 0.2834655341
595296430.0 -0.0914807332 0.2939115407 0.1238589149 -0.4098788943 0.1238571738 -0.4095848097 -0.0848318455 0.2842299137
600296400.0 -0.0884996013 0.2953282719 0.1198707682 -0.4109864957 0.1196884759 -0.4105555412 -0.0822605875 0.2852704595
605296370.0 -0.0855385326 0.2961835597 0.1151989867 -0.4119573938 0.115206795 -0.4119730589 -0.0786105837 0.2864396395
610296340.0 -0.0824550597 0.297157693 0.1102908115 -0.4132186836 0.110795102 -0.4132286725 -0.0755908419 0.2868887173
615296310.0 -0.0789632595 0.2980266379 0.1062318885 -0.4144654298 0.1059093133 -0.4148415916 -0.0723469835 0.2882116015
620296280.0 -0.075971397 0.2987312402 0.1017285755 -0.4154450527 0.1019250862 -0.4154185015 -0.0698541444 0.288887562
625296250.0 -0.0730249043 0.2994902642 0.0975331591 -0.4166358079 0.0972756632 -0.4168539515 -0.0663133903 0.2893472872
630296220.0 -0.0692224015 0.3007382481 0.0921018857 -0.417618286 0.0921597114 -0.4173308551 -0.0634526606 0.290726397
635296190.0 -0.0668200258 0.3014043704 0.0878565006 -0.4183111697 0.0878290237 -0.4186734548 -0.0602472922 0.2913667757
640296160.0 -0.0635401808 0.3024489056 0.0837713155 -0.4193768756 0.0837820604 -0.4193427533 -0.0572335434 0.292118238
645296130.0 -0.0600819437 0.3032872758 0.0787769785 -0.4199133649 0.0788136384 -0.4200942387 -0.0540770869 0.292954946
650296100.0 -0.0573144821 0.3040934797 0.0743306528 -0.4208633839 0.074471258 -0.4208139415 -0.0509438147 0.2928133448
655296070.0 -0.0538216597 0.3046598335 0.0695245052 -0.4217118395 0.0701320161 -0.4217619593 -0.0475240135 0.2941888049
660296040.0 -0.0511739001 0.305265972 0.0657109965 -0.422347513 0.0650594807 -0.4227295787 -0.0440909881 0.2946200965
665296010.0 -0.0472479288 0.3056971356 0.0601583389 -0.4231791817 0.0606385323 -0.4232006972 -0.0413136399 0.2960017813
670295980.0 -0.0450669545 0.3065457861 0.0563767496 -0.4235268349 0.056037494 -0.4239597642 -0.0385518835 0.2960179149
675295950.0 -0.0413575432 0.3075475021 0.051627863 -0.4241345101 0.0515864454 -0.4240933599 -0.0351884913 0.2969089447
680295920.0 -0.0379580844 0.3076999083 0.0466062401 -0.4246467289 0.0464949519 -0.4251839801 -0.031851211 0.2978054884
685295890.0 -0.0347920565 0.3089298884 0.0422812031 -0.4253199829 0.0421499143 -0.4252362829 -0.0288477476 0.2981675144
690295860.0 -0.0316625435 0.3090471234 0.0377240181 -0.4255492026 0.0374625489 -0.4257368821 -0.0257411235 0.2989992968
695295830.0 -0.0284448673 0.3092553776 0.0331993279 -0.4256062227 0.0329008971 -0.4259584319 -0.0226072337 0.299324977
700295800.0 -0.0247992742 0.3095704483 0.0284322055 -0.4257072714 0.0282884822 -0.4259366658 -0.0196253818 0.3001922459
705295770.0 -0.0220870061 0.3105671536 0.0236661712 -0.4266000521 0.024069062 -0.4263803395 -0.0165342607 0.3001783038
710295740.0 -0.01830115 0.3105267414 0.0191476977 -0.4268205143 0.019293859 -0.4264987736 -0.0133785637 0.2999905555
715295710.0 -0.0155524569 0.3107052547 0.0149602791 -0.4266060511 0.0144244339 -0.4266174438 -0.0100785587 0.300616198
720295680.0 -0.0122959098 0.3110932947 0.009933863 -0.4268368145 0.0101361661 -0.4272816131 -0.0067716468 0.3013593694
725295650.0 -0.0088394136 0.3114619374 0.0051567819 -0.4270977379 0.0054425736 -0.4269794976 -0.0040798559 0.3017925247
730295620.0 -0.004838363 0.3120541411 0.0004801491 -0.4268230374 0.0007734924 -0.4267703852 -0.0010012486 0.3014974178
735295590.0 -0.0023586063 0.3120358589 -0.0038465601 -0.4269371985 -0.0037341796 -0.4267179916 0.0018296186 0.3012802064
740295560.0 0.0005859756 0.3123524416 -0.0084189458 -0.4266204341 -0.0086816416 -0.4267590642 0.0058322083 0.3019149188
745295530.0 0.003839659 0.3123787135 -0.0133684534 -0.4263357215 -0.0135549426 -0.4267096234 0.0082136294 0.301831169
750295500.0 0.0076260429 0.3123045176 -0.0174526554 -0.4260886574 -0.0178398644 -0.4263495684 0.0118009458 0.301714469
755295470.0 0.0108555586 0.3123323868 -0.0221572837 -0.4262018655 -0.0224790416 -0.4260741658 0.0152479947 0.3013651659
760295440.0 0.0138507493 0.312165901 -0.0269061872 -0.4261296412 -0.0270691589 -0.426083378 0.0178949582 0.3015544834
765295410.0 0.017025059 0.3122167286 -0.0315569623 -0.4253587501 -0.0319367772 -0.4256518527 0.0214085049 0.3014865362
770295380.0 0.0201348311 0.3122903404 -0.036449433 -0.4249525055 -0.0363766827 -0.4246766669 0.0242968822 0.3013902891
775295350.0 0.023684401 0.3117856644 -0.0410361601 -0.4242621353 -0.0404899804 -0.4245755772 0.0270331777 0.3015011075
780295320.0 0.0268647424 0.3117785402 -0.0453975085 -0.4237057666 -0.0449354658 -0.4240012608 0.0302461851 0.3006819071
785295290.0 0.0298808988 0.3112932647 -0.050173329 -0.4230010643 -0.0497541322 -0.4235304005 0.0340022469 0.3006012513
790295260.0 0.0338140438 0.3118191375 -0.0545812675 -0.4227540558 -0.0539231535 -0.422886001 0.0369699759 0.3005688631
795295230.0 0.0368284886 0.3113301519 -0.0589718374 -0.4222193847 -0.0590086748 -0.4222238184 0.0405408701 0.3002867971
800295200.0 0.0394829986 0.310948177 -0.0639502396 -0.4210938257 -0.0640285537 -0.4216179485 0.0434365165 0.2997003442
805295170.0 0.0434067315 0.3106706506 -0.0682961573 -0.4205616466 -0.0681276612 -0.4208750606 0.046428106 0.2995977309
810295140.0 0.0462415257 0.3102725145 -0.0723893349 -0.4197060297 -0.0726735499 -0.4200902889 0.0501489918 0.2992008043
815295110.0 0.0496478752 0.3096387694 -0.0776750532 -0.4186708807 -0.0769493253 -0.4190726516 0.0526943253 0.2990131684
820295080.0 0.0528062067 0.309759459 -0.0817948342 -0.418036871 -0.0813167678 -0.4180780325 0.0562433892 0.2985899206
825295050.0 0.0563832466 0.3091469217 -0.0858054153 -0.4171518009 -0.0862883558 -0.4172071792 0.0595505045 0.2981216777
830295020.0 0.0593699761 0.3086215145 -0.0907745252 -0.4161514715 -0.0908235514 -0.416095359 0.0636246749 0.2975157801
