!Created with skrf (http://scikit-rf.org).
# Hz S RI R 50.0 
!freq ReS11 ImS11 ReS21 ImS21 ReS12 ImS12 ReS22 ImS22
300000.0 -0.0464986371 -0.0623616197 -0.0015650494 -0.000579384 0.0007716807 0.0016793797 -0.7670934285 -0.1752622849
5299970.0 -0.0490258176 0.0155882529 0.000198879 -0.0003563632 -2.83446e-05 -0.0001119702 -0.7846339049 -0.0088415019
10299940.0 -0.0431510164 0.0333736084 -0.000136121 2.9159e-06 3.68902e-05 -2.16412e-05 -0.7880876635 -0.0052211379
15299910.0 -0.0350658617 0.0477999273 -0.0001908697 -7.85109e-05 -3.99797e-05 -0.0001649099 -0.7933657045 -0.0030801906
20299880.0 -0.0245066077 0.0597201526 -0.0001094109 9.71829e-05 -0.0001990664 0.0001506073 -0.7999632976 0.0020484958
25299850.0 -0.0131170745 0.0688172649 -3.00153e-05 2.47178e-05 1.09524e-05 -0.0002631582 -0.8062339651 0.0071957503
30299820.0 -0.0013354725 0.0756910037 4.08947e-05 8.66278e-05 -6.98876e-05 -6.00456e-05 -0.8122739869 0.0149502213
35299790.0 0.0105612301 0.0804777794 -3.47495e-05 9.85927e-05 4.93718e-05 -0.0001382091 -0.8175830484 0.0237922378
40299760.0 0.0218760905 0.0828783662 0.0001326381 -0.000199467 9.67124e-05 0.0003236672 -0.8214428942 0.0332931762
45299730.0 0.032521408 0.0846265396 -2.10656e-05 -5.36428e-05 -0.0001217533 0.0001791525 -0.8249001313 0.0425808645
50299700.0 0.0431233149 0.0845094961 0.000170506 -8.3136e-06 -0.0002772845 0.0001898021 -0.8274433545 0.0528122039
55299670.0 0.052045892 0.0833785828 -1.29709e-05 -9.42539e-05 -0.0002048201 1.0062e-06 -0.829420896 0.0629959941
60299640.0 0.0607746975 0.081354897 8.78256e-05 -0.0003036959 -0.0001974573 2.56277e-05 -0.8303897119 0.0733868625
65299610.0 0.0686532566 0.0790342917 7.49841e-05 -2.0907e-06 -9.5602e-05 -2.72397e-05 -0.8308536223 0.0828746022
70299580.0 0.0759137672 0.0757651459 5.69365e-05 -4.1667e-05 0.000104406 6.2089e-05 -0.8319390774 0.0925329212
75299550.0 0.0823086803 0.072137983 2.951e-06 -0.0001817124 3.01183e-05 -1.45399e-05 -0.8324080285 0.1029461456
80299520.0 0.0876535993 0.0686958891 -0.000137776 5.13919e-05 -0.0001755525 -3.37465e-05 -0.8314226242 0.1123700682
85299490.0 0.0927710702 0.064512786 1.87917e-05 -7.50931e-05 5.94065e-05 -5.23802e-05 -0.8321447813 0.1222084429
90299460.0 0.0971970204 0.0608931326 9.64065e-05 0.0001429007 -8.04724e-05 0.0001388004 -0.830572735 0.1317854128
95299430.0 0.1014533574 0.0567807979 0.0001587784 3.17994e-05 -8.18295e-05 0.0001924971 -0.8301116906 0.1411848692
100299400.0 0.1048068804 0.0529175581 -0.0001219271 -0.0001899254 -3.0629e-05 2.05614e-05 -0.8290517927 0.1498712713
105299370.0 0.1082830376 0.0487258775 0.0002290538 -0.0001702505 -1.10789e-05 4.6709e-05 -0.8275318196 0.1594615505
110299340.0 0.110871069 0.0448730165 -4.88202e-05 -0.0001247627 2.98941e-05 -2.58857e-05 -0.8265507908 0.1683577675
115299310.0 0.1136548715 0.0404067494 -0.0002214756 3.22473e-05 -8.28884e-05 -6.70146e-05 -0.8246694288 0.1768769739
120299280.0 0.1155897075 0.0367151496 7.6144e-06 0.0001191664 0.0001076373 7.77064e-05 -0.8232897495 0.1861373863
125299250.0 0.1173144143 0.0325492435 0.0002285489 6.2954e-06 0.0001577851 1.03762e-05 -0.822083846 0.195494699
130299220.0 0.1194402134 0.029150081 -2.06944e-05 -0.0001205194 7.6145e-06 -5.94194e-05 -0.8201072459 0.2040227478
135299190.0 0.1208265865 0.0252050504 -6.97259e-05 0.0001077441 -0.0001636034 0.0001231178 -0.8175474488 0.2130368858
140299160.0 0.1221212456 0.0214220656 5.74588e-05 3.32245e-05 -0.0001755639 0.0001502065 -0.8159751343 0.2218139665
145299130.0 0.123020588 0.0177639182 -5.43646e-05 1.98348e-05 0.0001198006 -0.0001510744 -0.8141587413 0.2303288148
150299100.0 0.1237445534 0.0142866434 -0.0001019888 0.0001161606 3.27918e-05 0.0002136193 -0.811724095 0.2387941797
155299070.0 0.1245655648 0.0110278419 0.0001135416 0.0001523668 -2.65143e-05 6.08734e-05 -0.8093243453 0.2474018568
160299040.0 0.1251710714 0.0074792008 -4.18445e-05 6.45013e-05 2.63657e-05 -0.0001122066 -0.8073490303 0.256723764
165299010.0 0.1253724111 0.0043794888 -7.976e-05 -0.0001221041 0.0001138508 3.52955e-05 -0.80396609 0.2651268952
170298980.0 0.1255828479 0.0007993515 -5.82543e-05 0.0002135567 -5.21166e-05 0.0001029645 -0.8021204273 0.2735417859
175298950.0 0.1263576046 -0.0018660552 -2.74993e-05 0.0002547305 -0.0001525572 -0.0002649478 -0.798734624 0.2818582791
180298920.0 0.1260829264 -0.0051031145 0.0001884887 5.90428e-05 0.00022221 -4.77509e-05 -0.7956197553 0.2904019297
185298890.0 0.126211144 -0.008169368 1.97601e-05 0.0001302327 -0.0002016313 6.4365e-06 -0.7930504283 0.2982455482
190298860.0 0.1262012184 -0.0112475391 -3.03459e-05 -6.92512e-05 9.1e-09 -9.67171e-05 -0.7897438671 0.3072406937
195298830.0 0.1263243483 -0.0140952833 -0.0001621307 1.21583e-05 6.55265e-05 4.13217e-05 -0.7867598809 0.3152596496
200298800.0 0.1257721979 -0.0166794599 8.85804e-05 -0.000120414 -0.0001078825 0.000226082 -0.7835798477 0.3238685277
205298770.0 0.1254321862 -0.0195099957 -3.36441e-05 0.0001792964 -7.1671e-06 7.51089e-05 -0.7800806294 0.3322036107
210298740.0 0.1253076473 -0.022305188 1.56189e-05 -1.654e-05 6.55306e-05 0.0001679629 -0.7768017375 0.3404255218
215298710.0 0.1247612629 -0.0248269536 0.0001917858 -5.35948e-05 -2.04815e-05 -7.5438e-06 -0.7730573819 0.3487000225
220298680.0 0.1241175922 -0.0275096011 -0.0001444008 -3.56351e-05 0.0001211927 -2.25824e-05 -0.7693869891 0.3568934821
225298650.0 0.123734306 -0.0299407657 0.0001820242 8.34043e-05 0.0002444567 8.37903e-05 -0.7657525245 0.3647508795
230298620.0 0.1231618725 -0.0323761769 -0.0001235552 -5.56683e-05 0.0001111182 -7.7533e-05 -0.7612846924 0.3725759599
235298590.0 0.1224232425 -0.0351610076 0.0001655239 -9.67053e-05 5.80688e-05 5.53555e-05 -0.7576051814 0.3799847862
240298560.0 0.1215209154 -0.0372745923 0.0001119094 0.0001360641 0.0001399615 0.0002538158 -0.7536186669 0.3884697881
245298530.0 0.1211921434 -0.0396973292 0.0001331055 -6.39966e-05 -3.802e-07 5.04957e-05 -0.7498495343 0.3965693152
250298500.0 0.120367448 -0.0418960511 6.6543e-06 -6.24833e-05 -0.0001405095 0.0001377134 -0.7455583914 0.4048122286
255298470.0 0.1196130796 -0.0438449163 0.0002780522 -3.60842e-05 6.0278e-05 0.0001242561 -0.7411338052 0.4121042293
260298440.0 0.1189513686 -0.0459028195 -5.63933e-05 5.55165e-05 0.0002265079 -1.32258e-05 -0.7364488504 0.4194856343
265298410.0 0.1178745058 -0.048310037 -0.0002033461 -1.14516e-05 -0.0002613483 1.17251e-05 -0.7320072537 0.4277606057
270298380.0 0.1168141563 -0.0502383552 0.000247005 -1.1165e-06 0.0001872739 0.000213675 -0.7272999365 0.4348972748
275298350.0 0.1158752576 -0.0522640852 -3.03375e-05 -6.75121e-05 0.0001134646 -1.58805e-05 -0.7227274895 0.4428713189
280298320.0 0.1151095593 -0.0541168023 -4.04784e-05 7.70197e-05 -2.33529e-05 0.0001956805 -0.7187028079 0.4497127063
285298290.0 0.1140880665 -0.0561249419 2.47272e-05 -5.78808e-05 1.55313e-05 0.0001885603 -0.7132938115 0.4573948025
290298260.0 0.1131585057 -0.0581367024 0.000285186 4.35126e-05 2.76563e-05 -0.0001391377 -0.7087255254 0.4657248998
295298230.0 0.1124046281 -0.0603006914 0.0002106427 8.03521e-05 -1.5174e-06 0.0001087608 -0.7034263508 0.4727134779
300298200.0 0.111184633 -0.0622833042 4.5897e-05 -6.9484e-06 1.26742e-05 0.0001164511 -0.6985393935 0.4797494547
305298170.0 0.1105913831 -0.064056276 4.33979e-05 -8.1645e-05 0.0002933186 -4.944e-07 -0.6929686682 0.4874448646
310298140.0 0.1093614962 -0.066129273 -3.39071e-05 6.3947e-06 0.0001510066 -5.5185e-06 -0.6889477498 0.4946296461
315298110.0 0.1078708301 -0.0682626906 2.49931e-05 9.34294e-05 5.98657e-05 0.0002346221 -0.6827273122 0.5023007791
320298080.0 0.1065835983 -0.0699718234 8.46546e-05 0.0001258684 7.19246e-05 7.19508e-05 -0.6777259796 0.5093867556
325298050.0 0.1051885056 -0.0719554684 -0.000167458 0.000135295 -9.3777e-06 8.3082e-05 -0.6713065144 0.5161031279
330298020.0 0.1035703183 -0.0735711061 7.24554e-05 8.55711e-05 -1.8006e-06 1.6012e-06 -0.6663986739 0.5233834631
335297990.0 0.1022045086 -0.0748922448 7.8119e-05 -3.4255e-06 4.67285e-05 0.0001160538 -0.6610079395 0.5299163655
340297960.0 0.1007980077 -0.0763893997 0.0001931001 5.70651e-05 0.0002200359 0.0001553595 -0.6549635814 0.5372747597
345297930.0 0.0990726226 -0.077817084 8.98824e-05 4.00865e-05 9.50068e-05 2.68102e-05 -0.6496809938 0.5441205296
350297900.0 0.098174203 -0.0791393989 -5.49999e-05 -0.0001319141 0.0003246034 0.0001201951 -0.6438009347 0.5512080997
355297870.0 0.0963233874 -0.0805763057 0.0003096527 0.0002140915 4.54292e-05 6.61867e-05 -0.6380991061 0.557455662
360297840.0 0.0950596758 -0.08207452 0.0002227034 0.0001752293 7.54879e-05 6.44583e-05 -0.6322759679 0.5636741324
365297810.0 0.0938870427 -0.0837141219 6.9803e-06 5.82606e-05 0.0001535945 1.32988e-05 -0.6258686088 0.5707632957
370297780.0 0.0924536542 -0.0848410806 -8.5473e-06 2.70083e-05 0.0001312482 0.0001029262 -0.6205045764 0.5764242554
375297750.0 0.0910837115 -0.0860697149 5.66386e-05 0.0002675887 1.90118e-05 0.0001562478 -0.6139701013 0.5833210541
380297720.0 0.0901289356 -0.0875645715 2.30584e-05 0.0001182746 0.0002652683 4.83331e-05 -0.6078887694 0.5908221191
385297690.0 0.0880546379 -0.0884355788 0.0001154574 6.07817e-05 0.0001457753 0.0001036894 -0.6016661919 0.5962268425
390297660.0 0.0869064705 -0.0898203336 -9.083e-07 1.7967e-05 0.0001722162 0.0001814507 -0.5949927333 0.6019908588
395297630.0 0.0856252866 -0.0909610776 6.57475e-05 0.0001607836 0.000146762 0.0002296936 -0.5889884615 0.6085243606
400297600.0 0.0839816367 -0.0921632611 0.0001715431 -7.8593e-06 5.72802e-05 -8.95592e-05 -0.5831060911 0.6139557217
405297570.0 0.0825700576 -0.0932363735 0.0001602878 3.09021e-05 0.0002124016 0.0002729437 -0.5769496867 0.6203069496
410297540.0 0.0811688435 -0.0944602783 6.65512e-05 4.13367e-05 0.0002033624 7.84247e-05 -0.5698923183 0.6256074781
415297510.0 0.0796989885 -0.095581644 0.0001797414 -2.77872e-05 -3.72114e-05 9.07406e-05 -0.5638888446 0.6322854718
420297480.0 0.0780788142 -0.0965370205 0.0002507259 2.30905e-05 0.0001160511 -3.9339e-06 -0.5573870411 0.6369522782
425297450.0 0.0767542695 -0.0976132168 6.35822e-05 -0.0001068618 0.0001536833 -4.78629e-05 -0.5497863066 0.6432954612
430297420.0 0.0750678917 -0.0988443978 0.0001627253 1.95625e-05 3.57102e-05 9.2064e-06 -0.5439415187 0.6489749043
435297390.0 0.0735640771 -0.0995125871 -1.83292e-05 2.71711e-05 -3.13515e-05 0.0001937687 -0.5369406373 0.6539609538
440297360.0 0.0719787953 -0.1008757376 0.00010129 8.13754e-05 6.00627e-05 -0.0001369333 -0.5301789535 0.6592297274
445297330.0 0.0704537564 -0.1015804102 7.70476e-05 -1.1297e-05 0.0002076264 -7.18697e-05 -0.5236861961 0.664671586
450297300.0 0.0689998558 -0.1026198373 0.0001889855 0.0002263233 0.0002268648 0.0001635303 -0.5169885953 0.6701346089
455297270.0 0.0672118574 -0.1034043732 6.51519e-05 -0.0001129732 0.0002163953 5.1219e-06 -0.5097971365 0.6749916583
460297240.0 0.0658510597 -0.1039038684 -3.97959e-05 0.0001710038 7.20072e-05 0.0001585497 -0.5024613596 0.6803119582
465297210.0 0.0642866451 -0.105155647 3.90262e-05 8.74504e-05 0.0001891648 -0.00016524 -0.4963006029 0.6843497466
470297180.0 0.0627324871 -0.1058190896 -2.8433e-06 2.87517e-05 3.54944e-05 2.55359e-05 -0.4891304903 0.6894318523
475297150.0 0.0607897895 -0.1066840488 5.51847e-05 0.0001181494 0.0001295704 -6.04224e-05 -0.4820968807 0.694676159
480297120.0 0.0592331242 -0.1074328748 7.74396e-05 0.000299534 5.8509e-05 0.0001876941 -0.4754026757 0.699617708
485297090.0 0.0577359005 -0.1083052033 7.18018e-05 -1.1431e-05 0.000163651 0.0002026462 -0.4677504596 0.704053449
490297060.0 0.0561945421 -0.1088466974 -2.3755e-05 -5.7584e-05 0.0001267639 -1.00644e-05 -0.4609664834 0.708416669
495297030.0 0.0546153708 -0.1094068747 5.05288e-05 -5.8616e-05 6.74029e-05 4.26558e-05 -0.4532978899 0.7126042984
500297000.0 0.0529255826 -0.1103980527 9.83187e-05 0.0002359102 0.0002069706 -0.0002413215 -0.4466330761 0.7178389405
505296970.0 0.0509628799 -0.110615351 -5.05953e-05 -1.03776e-05 -4.76063e-05 5.0607e-06 -0.4397703556 0.721858438
510296940.0 0.0496569245 -0.111253032 6.45943e-05 -1.39948e-05 5.80351e-05 6.79385e-05 -0.4316231786 0.7265954904
515296910.0 0.0477921932 -0.1118704276 9.76129e-05 -0.0001576788 0.0002787009 -7.39853e-05 -0.4246604987 0.7311071977
520296880.0 0.0464059468 -0.1124086839 -4.05532e-05 -6.95733e-05 9.24065e-05 -5.80883e-05 -0.4174758839 0.7343875343
525296850.0 0.0446991332 -0.1128706458 2.7882e-06 -0.000182312 -4.00348e-05 -4.49997e-05 -0.409965475 0.7391074989
530296820.0 0.0427486533 -0.1134091746 0.0001460131 8.3565e-06 -0.000296411 0.0001303928 -0.4029437151 0.7422508578
535296790.0 0.0414117337 -0.1137982951 0.0002080372 -8.9481e-06 0.0001843 -5.80977e-05 -0.3951363368 0.7456834099
540296760.0 0.0393977386 -0.1146413671 0.0002889677 3.34751e-05 0.0001419063 0.0002297382 -0.3879433488 0.7508114917
545296730.0 0.0379853906 -0.1148082612 8.26946e-05 -0.0001950446 0.0001649996 5.44498e-05 -0.3803566946 0.7540640536
550296700.0 0.0359480844 -0.115259974 0.0003034624 6.2062e-06 0.0002919404 0.0001367989 -0.3727608248 0.7580172162
555296670.0 0.0345938596 -0.1154069727 0.0002106279 -1.62188e-05 -4.52453e-05 2.7716e-05 -0.365530844 0.7610632981
560296640.0 0.0328757013 -0.1161671034 -1.9959e-06 9.38069e-05 0.0002509816 -1.93214e-05 -0.3574575613 0.7652315586
565296610.0 0.0310333118 -0.1162313115 0.0002610768 -0.0001028361 8.80887e-05 4.54303e-05 -0.3498377768 0.7685164107
570296580.0 0.0295213672 -0.1165692198 -1.5755e-05 -1.85551e-05 0.0001998616 0.0002795885 -0.3431018895 0.7721832499
575296550.0 0.0281341917 -0.1169912223 0.0001011645 5.20031e-05 0.0001817893 0.0002575325 -0.3344495451 0.7756995585
580296520.0 0.0264664518 -0.1171838548 1.2981e-06 5.6424e-05 0.0001363148 -0.0002821309 -0.3270653801 0.778920526
585296490.0 0.0244319591 -0.117667379 9.54678e-05 0.000212537 0.0001031823 -6.72498e-05 -0.3191819243 0.7816483659
590296460.0 0.0226822756 -0.1176560738 -2.51686e-05 -0.000123813 0.0001393986 4.96436e-05 -0.3117173186 0.784936887
595296430.0 0.021155983 -0.1178586463 0.0003044073 0.0001856401 0.0002076175 8.15854e-05 -0.3034357818 0.7873418242
600296400.0 0.0193681587 -0.1181108596 0.000247498 -1.85464e-05 -9.40218e-05 0.0001636292 -0.2958344341 0.7909392353
605296370.0 0.0178164847 -0.1180471168 0.0003005345 0.0002471072 3.72558e-05 -0.0001879929 -0.2880901906 0.7939581845
610296340.0 0.0162684558 -0.1183805645 8.24122e-05 7.51351e-05 -7.43555e-05 -0.0001505311 -0.2800971279 0.7968696734
615296310.0 0.0143298132 -0.1181343392 2.73262e-05 5.4919e-06 0.0002013212 0.0001339112 -0.2723297455 0.7993436636
620296280.0 0.0123989738 -0.118092053 0.0001999863 -3.51006e-05 0.0002626482 2.38467e-05 -0.2644642053 0.8016943179
625296250.0 0.010986817 -0.1183030065 0.0001590706 -6.4886e-05 0.0001729838 -4.97016e-05 -0.2566834486 0.804426575
630296220.0 0.0093414577 -0.1184344495 9.62828e-05 -1.47567e-05 -0.0001249407 -0.0001673335 -0.2485492277 0.8072908251
635296190.0 0.0076062947 -0.1184133417 4.9932e-06 0.0001836307 0.0001050207 0.0001902102 -0.2411039819 0.8091469289
640296160.0 0.0059799163 -0.1185438305 -2.70844e-05 -4.95028e-05 3.64004e-05 8.68497e-05 -0.2322865835 0.8115155415
645296130.0 0.0042063646 -0.118089292 0.0004065616 2.70006e-05 0.0001247399 0.0001619745 -0.2247240155 0.8141797416
650296100.0 0.0026289885 -0.1179293285 0.0002669338 -0.0001452308 8.4201e-06 -0.0001902533 -0.2166071711 0.8162696329
655296070.0 0.0009754267 -0.1181132418 0.0001660867 5.03036e-05 0.0002125152 -7.81415e-05 -0.2081122411 0.8177120511
660296040.0 -0.0012362718 -0.1178223378 0.0001208199 8.27194e-05 0.0001905837 0.00015951 -0.2005204541 0.8201733641
665296010.0 -0.0024981834 -0.1179180041 4.79859e-05 -3.07229e-05 0.0001589651 -3.07748e-05 -0.1922859519 0.8222007641
670295980.0 -0.0041523379 -0.1176939493 1.81816e-05 -0.0001734162 -5.1462e-06 -0.000115315 -0.1848373682 0.8239468653
675295950.0 -0.0056260468 -0.117449517 0.0002209112 1.19182e-05 2.23689e-05 5.37198e-05 -0.1761246873 0.8262457768
680295920.0 -0.0075051562 -0.1171158739 0.0002157112 1.8064e-05 0.0001658123 4.20011e-05 -0.1675135507 0.8277689416
685295890.0 -0.0091207608 -0.1170552181 0.000112556 0.0001731247 -6.30684e-05 1.677e-05 -0.1594826559 0.8294283171
690295860.0 -0.0105994982 -0.1169176872 -8.7796e-06 8.00796e-05 0.0001945869 -3.79214e-05 -0.1512493834 0.8309795231
695295830.0 -0.0123324621 -0.1166606778 0.0001707466 -0.0002548923 0.0003408217 1.5329e-06 -0.1435415338 0.8325275589
700295800.0 -0.0139067533 -0.1162042951 0.0001024051 9.82083e-05 0.0003793324 -0.0001463328 -0.1348011038 0.8333550845
705295770.0 -0.0158404166 -0.115846118 0.0002081488 0.0001248117 0.000128958 -4.66737e-05 -0.1270964167 0.8347510876
710295740.0 -0.0171207051 -0.1153719273 0.0002495733 7.75827e-05 -6.87413e-05 -5.12649e-05 -0.1192486582 0.8364340572
715295710.0 -0.0189101122 -0.1150697627 0.0001207151 -5.1983e-06 0.0002284322 5.01522e-05 -0.1108564293 0.8379150926
720295680.0 -0.0205955154 -0.1146681948 1.4381e-05 -4.37333e-05 0.0003071091 -9.09601e-05 -0.1021507882 0.8384928067
725295650.0 -0.0222574941 -0.1143946791 0.0002258955 -0.0001415621 8.82345e-05 6.89892e-05 -0.0935057093 0.8397517509
730295620.0 -0.0240576177 -0.1141272889 7.70893e-05 -5.47286e-05 0.0003281466 -5.22841e-05 -0.0853167344 0.8403262962
735295590.0 -0.0251485865 -0.1136188111 0.0001322662 -0.0001397443 0.0002243957 -2.44237e-05 -0.0767285748 0.841117077
740295560.0 -0.0270926354 -0.1130480425 0.0001629356 -0.0001273324 9.3605e-05 -2.34437e-05 -0.0687028039 0.8414100694
745295530.0 -0.0289089619 -0.1125370481 0.0001224987 -0.0002624814 0.0001156075 0.0001343939 -0.0606364806 0.8421760672
750295500.0 -0.0301531576 -0.1121203712 7.1955e-05 -4.3525e-06 0.0001031676 -0.0001150437 -0.0522381711 0.8424370351
755295470.0 -0.0316013757 -0.1114466559 -0.0001131797 -2.22261e-05 0.0001179671 -0.0001446092 -0.044748435 0.8437442018
760295440.0 -0.0336537076 -0.1106470944 0.0001425743 -5.34078e-05 0.0001128907 -7.19928e-05 -0.0360839794 0.8435787156
765295410.0 -0.0351440388 -0.1104920267 0.0003793193 0.0001529247 0.0001215811 2.26336e-05 -0.0272257101 0.8441777495
770295380.0 -0.0366749934 -0.109569153 0.0001337921 -2.42861e-05 0.0002191427 -0.0002286941 -0.0190882012 0.8438179587
775295350.0 -0.0383379032 -0.1089552109 0.0002886005 -0.0002112608 4.86374e-05 -0.0002170378 -0.010917836 0.8438573824
780295320.0 -0.0398228656 -0.1085513201 0.0001531367 -6.68474e-05 0.0001088961 0.000112142 -0.0028630572 0.8444884259
785295290.0 -0.0414649259 -0.1075630887 0.0002482221 -0.000205406 0.0001628516 0.0001819759 0.0052538454 0.8446307722
790295260.0 -0.0429088506 -0.1069617064 0.0002397828 3.5777e-06 0.0003365047 -8.84143e-05 0.0144895808 0.844505187
795295230.0 -0.0441057706 -0.1057837822 7.87443e-05 9.07169e-05 0.0001078628 -5.4079e-06 0.022264737 0.8440964191
800295200.0 -0.045526675 -0.1051969119 3.7859e-06 -0.0001014613 0.0001124316 -0.0001109673 0.0305265627 0.8438102309
805295170.0 -0.0470641245 -0.1047825209 0.0001622754 -5.5908e-05 -0.0001061326 -0.0001547212 0.0386102712 0.8430137805
810295140.0 -0.0486997814 -0.103991447 2.8423e-05 9.46907e-05 -5.23811e-05 -2.68293e-05 0.0469324811 0.843131388
815295110.0 -0.050255986 -0.1032299084 0.0001312397 4.569e-07 0.0001495172 -6.45914e-05 0.0550670947 0.8423856197
820295080.0 -0.0515335894 -0.1024799552 0.0002695996 7.05602e-05 7.47253e-05 -0.0001724532 0.0631947252 0.8418574533
825295050.0 -0.0530387259 -0.1015550901 7.95328e-05 -4.49965e-05 -9.98326e-05 -2.36437e-05 0.0716951119 0.8416619506
830295020.0 -0.054428417 -0.1005574046 0.0003719663 -2.85106e-05 0.0002230771 -7.68883e-05 0.0795929393 0.8400162463
835294990.0 -0.0558411358 -0.0997272524 0.0002123086 -3.88914e-05 0.0001664588 -5.0211e-05 0.0881143958 0.8395888368
840294960.0 -0.0573582745 -0.0988856954 -0.0001317559 0.0001374183 0.0004840876 1.9844e-06 0.095846119 0.8390265905
845294930.0 -0.0589624273 -0.097913554 0.0001379607 -8.77001e-05 4.74418e-05 -0.0002442526 0.1045500774 0.837732914
850294900.0 -0.0603239096 -0.0969723297 -0.000189969 -0.0001995577 0.0001961459 -0.0003319507 0.1125350336 0.836782118
