!Created with skrf (http://scikit-rf.org).
# Hz S RI R 50.0 
!freq ReS11 ImS11 ReS21 ImS21 ReS12 ImS12 ReS22 ImS22
300000.0 -0.7699682303 -0.1509844008 0.0002747906 0.0008523952 0.0001735288 0.0003877491 0.8604886283 -0.0017565052
5299970.0 -0.7849386998 -0.0069774165 0.0001112846 -4.32836e-05 -0.0001939626 0.0002167614 0.8587093332 -0.0103912005
10299940.0 -0.7877575143 -0.0040892464 -9.83454e-05 6.15396e-05 8.858e-07 8.92027e-05 0.8582990552 -0.0189064692
15299910.0 -0.79313324 -0.0015571288 -0.0001067117 6.16192e-05 3.17408e-05 -3.50515e-05 0.8569399353 -0.0271240221
20299880.0 -0.7995555107 0.0024129782 2.49262e-05 0.0001198694 -5.97491e-05 7.92191e-05 0.856472288 -0.0364663513
25299850.0 -0.8063758062 0.0083597803 8.87364e-05 5.87326e-05 4.348e-05 -7.62978e-05 0.8551437126 -0.0439932594
30299820.0 -0.8116769407 0.0164105044 3.89752e-05 -1.95006e-05 9.47194e-05 -5.15883e-05 0.8551920936 -0.0519492916
35299790.0 -0.8168707931 0.0250881317 -3.87934e-05 -0.0001064241 0.0001016517 3.26587e-05 0.8543854664 -0.0603095141
40299760.0 -0.8219367464 0.0343516869 2.71514e-05 -1.22439e-05 7.3772e-05 6.84661e-05 0.8534524922 -0.0684723906
45299730.0 -0.8246869015 0.0440223751 4.4936e-05 0.0001085203 0.0001867725 -0.0001500348 0.8529958586 -0.0768345741
50299700.0 -0.8270457 0.0539030579 -3.50888e-05 5.31812e-05 -1.0382e-06 7.56144e-05 0.8518196069 -0.0851378322
55299670.0 -0.8287797117 0.0638917725 -3.956e-07 0.0001109615 3.41443e-05 -0.000107949 0.8506800891 -0.093394936
60299640.0 -0.8299839508 0.0740122708 -0.0001488183 -0.0001155297 4.41763e-05 -0.0001393356 0.8497370801 -0.1021079747
65299610.0 -0.8311654139 0.0846969572 1.9646e-05 -0.0001216144 -0.0002206819 -0.0001567995 0.8482565764 -0.1104410509
70299580.0 -0.8313890912 0.0945648317 -0.0001225346 -3.4715e-05 9.6969e-06 -0.0002042079 0.847302274 -0.1188222881
75299550.0 -0.8313985081 0.104965616 1.31347e-05 -1.84114e-05 4.38803e-05 7.29881e-05 0.8469062642 -0.1269569477
80299520.0 -0.8310063326 0.1148505441 0.0001901525 -0.0001002983 0.0002002478 -5.19876e-05 0.8450263856 -0.1347323944
85299490.0 -0.8306789649 0.1238603298 -5.87738e-05 0.0001369054 -0.0001804834 1.17967e-05 0.8439165141 -0.1425064175
90299460.0 -0.8299988168 0.1338708842 0.0001381949 0.0001331172 -1.47074e-05 -0.0001312904 0.8419521811 -0.1515836569
95299430.0 -0.8287945448 0.1439430071 -2.73793e-05 -6.64265e-05 -1.94196e-05 -0.0001879632 0.8407037373 -0.1591459035
100299400.0 -0.8274158531 0.1529171952 -2.65e-06 -0.0001591299 0.0001356522 -3.41615e-05 0.8387651314 -0.167814277
105299370.0 -0.8264098216 0.1623925288 7.44294e-05 -0.0001931918 -0.0002458514 0.0001026535 0.8371540603 -0.1755059197
110299340.0 -0.8255012631 0.1712558107 0.0001239587 -7.89487e-05 3.16023e-05 0.0003258751 0.8353534312 -0.1832395413
115299310.0 -0.8235379507 0.1802413 -0.0001863581 2.32101e-05 0.0001826 0.0001635817 0.8330876179 -0.192035534
120299280.0 -0.822182279 0.1893602253 -0.0001107646 8.21284e-05 -8.6859e-06 -0.0001699049 0.8316816757 -0.1999121733
125299250.0 -0.8202791111 0.1982868421 0.0001159451 -4.30561e-05 6.63795e-05 -2.38379e-05 0.8288838699 -0.2083825793
130299220.0 -0.8181921759 0.2075682296 -3.2787e-05 0.0001206068 -0.0001355436 6.1956e-06 0.8266252841 -0.2162647068
135299190.0 -0.8166384775 0.2166986365 -3.06296e-05 -4.55203e-05 5.45226e-05 -4.39749e-05 0.825400453 -0.2243978407
140299160.0 -0.8147499315 0.2256146608 0.0001404444 0.0001600244 5.0752e-05 6.91237e-05 0.8230309973 -0.2323142365
145299130.0 -0.8121917692 0.2339903415 9.00386e-05 0.0001612107 5.40518e-05 7.67822e-05 0.8207487163 -0.2404158569
150299100.0 -0.8102824206 0.2428084574 7.342e-07 4.9573e-06 -5.62128e-05 6.77296e-05 0.8178803315 -0.2486103012
155299070.0 -0.8077411021 0.2525810654 -2.6197e-05 0.0001085424 1.89423e-05 7.961e-06 0.8155246396 -0.2562300238
160299040.0 -0.8049335147 0.2615104321 -0.0001071008 0.0003579549 -0.0001141519 5.57237e-05 0.8127981864 -0.2646799538
165299010.0 -0.8021242746 0.2693848403 0.0001088319 -5.74655e-05 -9.87424e-05 2.35644e-05 0.8108492888 -0.2727003765
170298980.0 -0.7997512999 0.277863096 5.76429e-05 -7.05084e-05 5.42394e-05 -0.0002723152 0.8081992743 -0.2799532688
175298950.0 -0.7968932071 0.2872869929 7.43683e-05 -6.70727e-05 2.00093e-05 3.18549e-05 0.8047422301 -0.2882883345
180298920.0 -0.7934102095 0.2949879909 -0.0001142418 -2.65039e-05 -7.09952e-05 5.69145e-05 0.8020247126 -0.2959842906
185298890.0 -0.7906219408 0.3042582717 -5.352e-06 0.0001741894 0.0001038218 -1.00878e-05 0.7984835966 -0.3043098419
190298860.0 -0.7873365551 0.3120626868 0.0002205058 -6.9766e-05 1.00445e-05 -0.000120513 0.7964317105 -0.3113592162
195298830.0 -0.7838290316 0.3208065139 4.61387e-05 -1.75851e-05 0.0002147655 8.19217e-05 0.7933048805 -0.3191913957
200298800.0 -0.7805727137 0.3291363519 0.0001655096 5.94406e-05 -6.00526e-05 5.15159e-05 0.7902138147 -0.3269306497
205298770.0 -0.7771672474 0.3371762668 0.0001505842 2.03503e-05 0.0001076305 0.0001431047 0.7869786555 -0.3344566923
210298740.0 -0.7736071219 0.3456070609 -0.0001740532 2.06916e-05 -6.125e-07 0.0001085095 0.7834510496 -0.3421991163
215298710.0 -0.7704919964 0.3542543378 0.0001044433 -6.05718e-05 -0.00016324 -0.0002067724 0.7800729012 -0.3503412596
220298680.0 -0.7669808368 0.3625088104 -0.0001262921 -6.23038e-05 -4.03692e-05 0.0002249655 0.7767814071 -0.3565093834
225298650.0 -0.7628604412 0.3707563683 2.76403e-05 -6.20694e-05 -2.08715e-05 -1.02079e-05 0.7730652953 -0.3648532778
230298620.0 -0.7588846224 0.3786104466 2.36652e-05 -1.06287e-05 -3.48546e-05 -2.57479e-05 0.7694477272 -0.3728340943
235298590.0 -0.7546456755 0.3874177951 -3.68428e-05 -2.38439e-05 -0.0001240006 -0.0002279692 0.7659184493 -0.3795289179
240298560.0 -0.7510454662 0.3948793708 -0.0001129223 -2.1849e-06 0.000131805 -9.72385e-05 0.7620420585 -0.3875392129
245298530.0 -0.7463618935 0.4029620531 -7.36768e-05 -8.60024e-05 -5.546e-05 5.7033e-05 0.757974537 -0.394655711
250298500.0 -0.7428165169 0.4107444437 -0.0001942459 7.17417e-05 0.0001704832 2.89177e-05 0.7548891242 -0.4019876385
255298470.0 -0.7375861589 0.4187461371 -0.0002831697 6.07346e-05 9.79163e-05 -3.77773e-05 0.7508589247 -0.4091850533
260298440.0 -0.7334745871 0.4258928734 8.55168e-05 0.0001412851 4.3308e-06 2.7075e-05 0.7468221386 -0.4165018635
265298410.0 -0.7295479581 0.4340964127 2.73456e-05 -1.49232e-05 0.0001339919 0.0001531113 0.7430983313 -0.4236544788
270298380.0 -0.7245217417 0.4413863724 -8.49299e-05 -4.21079e-05 0.0001139689 -3.13169e-05 0.7393224798 -0.4302310486
275298350.0 -0.7193855308 0.4492314616 -0.0001130287 -2.52314e-05 0.0001819192 -0.0001526278 0.7351063507 -0.4373910293
280298320.0 -0.7148034802 0.4567869143 1.42636e-05 -4.34534e-05 4.27812e-05 -0.0001009824 0.7306588437 -0.4449910504
285298290.0 -0.7103196748 0.4650828987 1.87343e-05 6.33118e-05 0.0001370046 -0.0001000019 0.7265064341 -0.4518360985
290298260.0 -0.705524302 0.4719123892 -0.0002587364 -0.0001727375 -0.0001626774 9.6303e-06 0.7225933347 -0.4586843025
295298230.0 -0.7005176311 0.4795484682 1.8568e-05 -2.67602e-05 -0.0001769173 -3.5629e-05 0.7185617279 -0.4655026342
300298200.0 -0.6948323137 0.4864179924 0.0001270544 -0.0001825678 -0.0002713229 -4.66889e-05 0.713861065 -0.4732990566
305298170.0 -0.6903439174 0.4942748167 8.19061e-05 -8.97328e-05 -9.63934e-05 2.04064e-05 0.7098333153 -0.4794636205
310298140.0 -0.6847730471 0.5005610803 5.33076e-05 -6.88002e-05 -0.0001262466 -3.156e-05 0.7054740716 -0.4865501177
315298110.0 -0.6793069729 0.5079051371 8.13283e-05 -0.0003403283 -6.90579e-05 -1.37753e-05 0.7002497773 -0.4943594944
320298080.0 -0.6737983384 0.5163521234 -2.08321e-05 8.30215e-05 4.7957e-05 -6.74192e-05 0.6965725357 -0.5015131229
325298050.0 -0.668637191 0.5222556414 0.0001284995 0.0001208655 5.88536e-05 -2.09041e-05 0.6912224249 -0.5094981634
330298020.0 -0.6627821534 0.5291158072 -4.86232e-05 -8.57435e-05 -0.0001393319 -9.57497e-05 0.6857928463 -0.5166565155
335297990.0 -0.6570776809 0.5360105846 -0.000208626 6.2357e-05 8.24728e-05 2.57285e-05 0.6801440042 -0.5237007421
340297960.0 -0.6526867584 0.5426959123 0.0001064759 8.06466e-05 -3.042e-05 6.68925e-05 0.6747625316 -0.52958949
345297930.0 -0.6466574955 0.5487145914 -0.0001270795 -8.47539e-05 -7.39279e-05 -9.66682e-05 0.668577669 -0.5357995715
350297900.0 -0.6402610796 0.5560098712 0.0001605403 2.28879e-05 8.85395e-05 0.0001216975 0.6631014915 -0.5411762953
355297870.0 -0.6346080212 0.5622670125 4.76276e-05 -4.22842e-05 -2.46072e-05 -7.67693e-05 0.657821832 -0.5480424125
360297840.0 -0.6284210738 0.5687966052 -0.0001550198 0.0001763466 -5.80667e-05 -2.22254e-05 0.6523887833 -0.5537385436
365297810.0 -0.6225441751 0.5755883291 8.72437e-05 6.4257e-06 6.06747e-05 -8.49805e-05 0.6465993069 -0.5600627631
370297780.0 -0.6162879122 0.5823200348 0.0001086519 0.0001256815 -7.8718e-06 7.62392e-05 0.6413565819 -0.5656573342
375297750.0 -0.6103344496 0.5880745216 3.07232e-05 5.6494e-05 -0.0004155135 -0.0001048051 0.6351115711 -0.5718902455
380297720.0 -0.6036536297 0.5950491817 0.0001048287 1.48884e-05 -5.63565e-05 -2.90145e-05 0.6302456512 -0.5775503162
385297690.0 -0.59783124 0.6012080454 4.52013e-05 -0.0002355598 6.5533e-06 0.0002599242 0.6241441918 -0.5831873
390297660.0 -0.5915201997 0.6072416431 -0.0001598619 -1.43629e-05 -0.0001620152 0.0001671601 0.6188081419 -0.5895710155
395297630.0 -0.5851978201 0.613178634 0.0002036448 0.0001193968 -7.14932e-05 -8.6398e-05 0.6128278623 -0.5955321924
400297600.0 -0.5786358152 0.6194651729 5.44226e-05 -3.3922e-05 -0.0001448397 -5.06692e-05 0.6071853553 -0.6010973943
405297570.0 -0.5728056006 0.6251979384 4.21951e-05 0.0001257814 -0.000182707 -8.45941e-05 0.6013745568 -0.6065514697
410297540.0 -0.5657276399 0.6311887558 -4.6775e-05 9.44886e-05 -4.9128e-05 1.28541e-05 0.5951251043 -0.6124867564
415297510.0 -0.5594037217 0.6363235437 0.0002576454 5.51736e-05 -3.6455e-06 -2.29576e-05 0.5888288264 -0.6179555559
420297480.0 -0.5523013766 0.6422156712 -2.34029e-05 -1.05057e-05 8.93106e-05 5.36889e-05 0.5830586902 -0.6238215191
425297450.0 -0.5455720248 0.6480576603 8.71619e-05 -7.37179e-05 -0.0002411986 -4.90047e-05 0.5774563358 -0.6290545385
430297420.0 -0.5389665917 0.6531707689 -0.0001765982 8.57957e-05 -0.0001345475 2.76319e-05 0.5711156444 -0.6352062381
435297390.0 -0.5323542927 0.6589539742 5.8916e-05 -0.0001567187 -5.25397e-05 -0.0001382526 0.5647877601 -0.6402642067
440297360.0 -0.5252179867 0.6641968413 -0.0002989494 0.0002852917 -8.3231e-05 2.63239e-05 0.558148655 -0.6457078455
445297330.0 -0.5184046453 0.6696808118 -9.14874e-05 9.83301e-05 -0.0001458047 -0.00010923 0.552209185 -0.651381026
450297300.0 -0.5112619101 0.6744807785 0.0002247128 5.41551e-05 -0.0001974278 -0.0001046199 0.5451381354 -0.6564033202
455297270.0 -0.5041396151 0.6801806453 -8.57415e-05 2.76528e-05 -0.0002013884 6.74868e-05 0.5389312439 -0.6618440964
460297240.0 -0.4978232575 0.6853744492 -0.0001439685 5.5034e-05 -2.58201e-05 -4.14865e-05 0.5331367718 -0.6665034393
465297210.0 -0.4899997047 0.6903671847 2.56847e-05 6.4718e-05 4.36851e-05 -8.47523e-05 0.5257713305 -0.6720690068
470297180.0 -0.4826323954 0.6950249216 -8.465e-05 -3.70371e-05 -2.6219e-06 8.60655e-05 0.5189554442 -0.6768816572
475297150.0 -0.4754265793 0.7006500965 3.21819e-05 0.000153143 -6.58287e-05 1.70295e-05 0.512506116 -0.681783199
480297120.0 -0.4691601741 0.7049869845 -9.9423e-06 6.89422e-05 0.0001748203 -8.75466e-05 0.5059666659 -0.6861710154
485297090.0 -0.4611907847 0.709265792 -3.2548e-06 -0.0001016466 0.0001663315 0.0001743282 0.4987520228 -0.6916310517
490297060.0 -0.4539769716 0.7139219017 -2.27806e-05 0.0001402641 -0.000351378 0.0001892545 0.4921545836 -0.6962230272
495297030.0 -0.4472434681 0.7188756386 2.39313e-05 1.42806e-05 1.9901e-06 1.6044e-06 0.4851953818 -0.7014427145
500297000.0 -0.4390001698 0.7234472145 -0.0001603924 0.0001190701 0.0001253878 -3.90367e-05 0.4776379823 -0.7056671829
505296970.0 -0.4311397654 0.7270132752 0.0001400889 7.23201e-05 -0.0001117217 -3.88979e-05 0.4711011846 -0.7104921753
510296940.0 -0.4245332827 0.7320261828 -8.62956e-05 -0.0001608062 1.44102e-05 0.0001518423 0.4638980802 -0.7142857343
515296910.0 -0.4170849611 0.7366276252 -9.89071e-05 -0.0001252945 1.61792e-05 9.13967e-05 0.4566219558 -0.7187075972
520296880.0 -0.4094917349 0.740664571 -4.51358e-05 4.18403e-05 -0.0001249983 0.0001905138 0.449811457 -0.723894745
525296850.0 -0.4015262285 0.7445291957 -0.0001215991 5.90278e-05 -0.000245198 -6.34806e-05 0.442545649 -0.7275001999
530296820.0 -0.3942858002 0.7479613365 4.08685e-05 -6.56636e-05 0.0001439297 4.1467e-05 0.4349107607 -0.7330116869
535296790.0 -0.3862011149 0.7524779511 4.44615e-05 -0.0001157811 -0.0001780866 -8.5303e-06 0.4274841275 -0.7368376061
540296760.0 -0.3782133075 0.7562183707 -5.76961e-05 3.809e-06 0.0001887317 -1.5417e-05 0.4196379776 -0.7403552643
545296730.0 -0.3707327611 0.7602314097 7.5587e-05 0.0001654096 -1.70777e-05 0.0001441682 0.4130103918 -0.7451947406
550296700.0 -0.3632882249 0.7638498525 -0.0001706352 2.95065e-05 -0.0001074471 1.71378e-05 0.4057110091 -0.7492184285
555296670.0 -0.3548814538 0.767280704 -0.0001235574 0.0001664204 -4.13981e-05 6.18645e-05 0.3974795479 -0.7531659544
560296640.0 -0.3467076371 0.7702578396 -3.72197e-05 0.0001176009 5.08955e-05 2.17044e-05 0.3904275099 -0.7565393465
565296610.0 -0.3393734014 0.7736526039 7.09689e-05 0.0001373056 -7.00197e-05 -6.68346e-05 0.3827931625 -0.7602449954
570296580.0 -0.3315714857 0.7772143707 0.0001344451 -3.14869e-05 4.82482e-05 -3.94466e-05 0.3748221948 -0.7635362774
575296550.0 -0.3236414815 0.7813181367 0.0002004988 -3.99379e-05 6.29654e-05 8.48959e-05 0.3671361403 -0.7673084658
580296520.0 -0.3158461566 0.7838298757 3.75138e-05 -4.08684e-05 7.49563e-05 -0.0001360297 0.3591360527 -0.7708920408
585296490.0 -0.3078056834 0.7868170415 3.0371e-05 -0.0001722909 4.26512e-05 -9.1693e-06 0.3520106487 -0.7746572641
590296460.0 -0.2996634897 0.7901094436 9.72231e-05 -3.59585e-05 -1.34799e-05 -0.0001247331 0.3443665536 -0.7777437019
595296430.0 -0.2913490634 0.7932164594 2.94283e-05 0.0001420518 -0.0001178342 -9.74617e-05 0.335836424 -0.7809883223
600296400.0 -0.2836663911 0.7959149234 0.000234104 -0.0001654448 0.0001036949 -2.0135e-05 0.328152081 -0.783543211
605296370.0 -0.2753282623 0.7990491302 -5.2594e-06 0.0001118631 -6.23464e-05 -4.78828e-05 0.3205033774 -0.787464354
610296340.0 -0.267534563 0.8012846048 0.0002838801 -7.97643e-05 -0.0001065293 7.5512e-06 0.3121489184 -0.7897868037
615296310.0 -0.2589886106 0.804305486 0.000164419 1.28347e-05 0.0001314289 -8.5972e-06 0.3050064338 -0.7936528403
620296280.0 -0.2508998401 0.8063943548 2.87762e-05 -0.0002360432 0.0002032244 -1.79786e-05 0.2975285465 -0.796585974
625296250.0 -0.2427705316 0.8093768182 -0.0001245497 0.0001139396 7.38588e-05 9.35821e-05 0.2886204088 -0.7982339304
630296220.0 -0.2342191517 0.8122220954 -0.0002267986 0.0001873097 0.000109583 -1.5238e-05 0.2806351312 -0.8015673169
635296190.0 -0.2265812309 0.8141045614 -8.65669e-05 -0.0002853895 -0.0001227421 6.15941e-05 0.272627307 -0.803710426
640296160.0 -0.2179264913 0.8151868574 -2.3462e-05 -0.0001632582 -7.25031e-05 -7.96402e-05 0.2648500073 -0.8061730732
645296130.0 -0.2104327905 0.8176571366 7.3585e-05 4.51555e-05 -8.77909e-05 -3.77129e-05 0.2563291147 -0.8092899486
650296100.0 -0.2018877881 0.8202474202 -0.0001225261 0.0001215931 6.16202e-05 -1.11811e-05 0.2480695989 -0.8112933938
655296070.0 -0.1935049452 0.8220683435 7.00581e-05 6.2561e-06 0.0001245411 6.98366e-05 0.2400572259 -0.813728014
660296040.0 -0.1853945021 0.824008017 8.09069e-05 9.11389e-05 0.0002562729 -9.24527e-05 0.2318309526 -0.8159198682
665296010.0 -0.1767216428 0.8263638545 -0.0001294589 -4.33819e-05 1.15005e-05 4.78686e-05 0.2240879646 -0.8178418065
670295980.0 -0.1675561456 0.8272460851 -5.1762e-06 -7.60444e-05 9.06721e-05 -3.44341e-05 0.2160483156 -0.8197419048
675295950.0 -0.1599469479 0.8286796823 9.46715e-05 2.27162e-05 -0.0001236871 -0.0001127902 0.2079451395 -0.8219980479
680295920.0 -0.1518890972 0.8306119907 -0.000183923 0.0002009964 -0.0001719193 7.82689e-05 0.1995532797 -0.8239463012
685295890.0 -0.1430581098 0.831959804 -0.0002007133 3.28306e-05 4.93964e-05 4.42235e-05 0.1916086937 -0.8261049761
690295860.0 -0.1340793175 0.8335126247 -7.5311e-05 3.84945e-05 0.0002260599 9.61128e-05 0.1832517569 -0.8270624857
695295830.0 -0.1264610027 0.8343600601 0.0001310481 -0.0001430615 9.6e-05 1.25722e-05 0.1742218749 -0.8294321701
700295800.0 -0.1179071861 0.8359228448 -4.31929e-05 4.94105e-05 0.0001040919 -4.02795e-05 0.1662910814 -0.8301910425
705295770.0 -0.108928444 0.837734336 -4.59147e-05 -4.48984e-05 0.0002153484 2.1842e-06 0.1579255126 -0.8312062879
710295740.0 -0.1013001599 0.8380366487 3.25617e-05 -7.98102e-05 0.000108121 2.15206e-05 0.1495449179 -0.8324982539
715295710.0 -0.0935095683 0.8388088969 -2.11714e-05 -8.56001e-05 -0.0001052848 -9.7841e-05 0.1414444277 -0.8340242369
720295680.0 -0.0843956541 0.8392090716 4.10124e-05 1.18491e-05 3.64905e-05 0.0001266003 0.1333773503 -0.8356857166
725295650.0 -0.0748708569 0.841179695 2.11985e-05 -0.0001844187 3.87691e-05 0.0001827926 0.1248782563 -0.8364642861
730295620.0 -0.0671869058 0.8414073428 4.52318e-05 0.0001823317 7.93648e-05 -6.5379e-06 0.1164824559 -0.8378849273
735295590.0 -0.0583085887 0.841431525 5.04997e-05 2.55021e-05 0.000117859 2.20405e-05 0.1077675722 -0.8384464844
740295560.0 -0.050113003 0.8428574925 6.78058e-05 6.86748e-05 -8.0927e-06 0.0001632571 0.0995843715 -0.8400971823
745295530.0 -0.041957549 0.8426202864 -9.55419e-05 7.8203e-05 6.15895e-05 -0.0001690586 0.0911657684 -0.8408190992
750295500.0 -0.0337455905 0.8430100744 -0.0001339752 3.19821e-05 -5.57471e-05 0.0001501233 0.0831819468 -0.8413609517
755295470.0 -0.0247783996 0.843726455 -0.0001238517 7.93103e-05 1.01982e-05 0.0001834067 0.0740788356 -0.8418843075
760295440.0 -0.0162579919 0.8436170477 -0.0001916408 0.0002323311 -1.88128e-05 0.0001331279 0.0658197183 -0.8430224853
765295410.0 -0.0077070283 0.8437862175 6.74198e-05 7.2383e-06 7.24239e-05 -0.0001040477 0.0574233239 -0.8425853848
770295380.0 0.0006573277 0.8442230034 4.42325e-05 -0.0001236087 -1.0398e-05 3.48386e-05 0.0494162844 -0.8436273826
775295350.0 0.008828406 0.843921053 0.0001247478 -0.0001076918 -0.0001048457 -0.0001449775 0.0409473343 -0.8450291261
780295320.0 0.0173862338 0.8434155657 0.0001679018 0.0003023369 0.0001208622 -8.22411e-05 0.0321368708 -0.8435159231
785295290.0 0.025898879 0.8441247487 0.0001157329 2.24426e-05 -9.01644e-05 -0.0001355162 0.0239702207 -0.8439280564
790295260.0 0.0341570496 0.8425732689 -7.10347e-05 2.16369e-05 9.533e-07 -3.70386e-05 0.0154392842 -0.8445433849
795295230.0 0.0428820326 0.8432837531 3.09328e-05 0.0001059362 -5.569e-07 -5.8603e-05 0.006690008 -0.8438166359
800295200.0 0.051295386 0.8423505841 -1.8076e-05 -0.0001193255 0.0001663127 0.0003138617 -0.001178934 -0.8439324399
805295170.0 0.0600295358 0.8420719084 0.0001409619 -0.0001738191 0.0001373126 -3.64987e-05 -0.0099034832 -0.8437713545
810295140.0 0.0676931534 0.8410967257 -2.03867e-05 -0.0001171085 8.44183e-05 -0.0002852065 -0.0185280125 -0.8429657518
815295110.0 0.0768250629 0.840480905 0.0002216985 0.0001067167 -0.0001286303 0.00014042 -0.027375441 -0.8431477521
820295080.0 0.0852239452 0.8394015192 0.0002224724 6.85447e-05 5.66261e-05 -0.0001527499 -0.0354566593 -0.8428172053
825295050.0 0.0937278538 0.8383010266 -9.49658e-05 -0.0001100976 0.000152227 -0.0002522747 -0.0435107821 -0.8419512721
830295020.0 0.1022400938 0.8378331079 -1.9812e-05 0.0001554684 -1.40982e-05 9.2174e-05 -0.0526621686 -0.8414889026
835294990.0 0.1099443708 0.8363395295 0.0001787822 -0.0001673822 7.77498e-05 0.0001890869 -0.0607464526 -0.8406966202
840294960.0 0.1187782919 0.8354622472 -7.07525e-05 0.0001280759 9.97854e-05 -0.0001654405 -0.0693650257 -0.8390118305
845294930.0 0.1270791079 0.8345848955 -8.90682e-05 2.85224e-05 -0.0002439371 6.70077e-05 -0.0770348667 -0.8386119909
850294900.0 0.1349778531 0.8329431024 -7.52897e-05 -2.60898e-05 -0.0001182299 0.0001296679 -0.0857875734 -0.8379656649
