!Created with skrf (http://scikit-rf.org).
# Hz S RI R 50.0 
!freq ReS11 ImS11 ReS21 ImS21 ReS12 ImS12 ReS22 ImS22
300000.0 -0.314439465 -0.1297347416 0.3716828906 0.0638935471 0.3719060754 0.0651126374 -0.3172883308 -0.1283220744
5299970.0 -0.3249845991 0.002807613 0.3783525728 0.0032563515 0.3786876665 0.0031940215 -0.3259619841 0.0023444688
10299940.0 -0.3225925098 0.0143604997 0.3800055512 0.0028604519 0.3797498008 0.0033207383 -0.3234077335 0.0124159475
15299910.0 -0.3189831591 0.0223318917 0.3819057524 0.002781421 0.3822894415 0.0027459279 -0.320938708 0.0197619054
20299880.0 -0.315597451 0.0291766752 0.3849945589 0.0017417247 0.3854049345 0.0019163596 -0.3178565271 0.026047275
25299850.0 -0.3115278385 0.0348377182 0.3884071125 0.0006843882 0.3886528097 0.0005891491 -0.3148810637 0.0314888235
30299820.0 -0.3081830689 0.0394622507 0.3921271112 -0.0017798659 0.3919762417 -0.0021310648 -0.3119456468 0.0360679172
35299790.0 -0.3043261134 0.0434151732 0.3948119203 -0.004932345 0.3955867431 -0.0052094036 -0.3093424893 0.04011259
40299760.0 -0.3012297039 0.0468046874 0.398280239 -0.0087035953 0.3984079695 -0.0086804799 -0.3063841093 0.0433484423
45299730.0 -0.2980503474 0.0502508723 0.4012771004 -0.0123624457 0.4013426964 -0.0126150473 -0.3035262658 0.0465187889
50299700.0 -0.2948239858 0.0526847259 0.403947955 -0.017279684 0.4038888541 -0.0173243267 -0.301212941 0.0495528422
55299670.0 -0.2924246871 0.0552885484 0.4057741964 -0.0214198305 0.4057277634 -0.0219028859 -0.2994545309 0.0520943677
60299640.0 -0.2896999388 0.0579028233 0.4082040551 -0.0267943129 0.4082418275 -0.0266858691 -0.2969826051 0.0545258412
65299610.0 -0.2872493842 0.0601870528 0.4098616899 -0.0314076402 0.4098200417 -0.0319768281 -0.2953314975 0.0574488432
70299580.0 -0.2855006379 0.0621982737 0.4108498058 -0.0364339025 0.4110593589 -0.0368214413 -0.2936904558 0.0598282328
75299550.0 -0.2836488828 0.064491876 0.4118974549 -0.042266427 0.4121922317 -0.0422223408 -0.2918239869 0.0625893559
80299520.0 -0.2814043087 0.0668205951 0.4127526395 -0.0472153242 0.41283356 -0.0475762497 -0.2904343499 0.0649266625
85299490.0 -0.2799383599 0.0683371769 0.413203025 -0.0526323771 0.4134748854 -0.0521992807 -0.2889384082 0.0667745687
90299460.0 -0.2781164073 0.0706420174 0.4134175048 -0.0577190574 0.4136858327 -0.0576233226 -0.2877292595 0.069523215
95299430.0 -0.2766970376 0.0729437729 0.4139226486 -0.0630727073 0.4143430687 -0.0630518284 -0.286541399 0.0719865766
100299400.0 -0.2753550094 0.0747901313 0.4140625055 -0.0680680996 0.4141518852 -0.0684169881 -0.2854695833 0.0744494863
105299370.0 -0.2739681945 0.0765170522 0.4137766142 -0.0730945889 0.4140936218 -0.0730276505 -0.2840745748 0.0762256957
110299340.0 -0.272554482 0.0786866833 0.4133396233 -0.0780864436 0.4141435948 -0.078209648 -0.2833404851 0.0788082691
115299310.0 -0.2716752026 0.0808722903 0.4134106106 -0.0832853118 0.4133948575 -0.0837548674 -0.2823961081 0.0814424178
120299280.0 -0.2705644091 0.0832333483 0.4131671204 -0.0888983118 0.4127322659 -0.088894951 -0.2811474832 0.0829854136
125299250.0 -0.269362495 0.0851654079 0.4123260716 -0.0939235377 0.4125253367 -0.0939528092 -0.2801003608 0.0860323285
130299220.0 -0.2683731602 0.0873485833 0.4119286713 -0.0991270654 0.4119707957 -0.0994995204 -0.2789355349 0.0883515826
135299190.0 -0.2674457798 0.0901041852 0.4114289189 -0.1038364638 0.4114664424 -0.1041439874 -0.2784014823 0.0906876655
140299160.0 -0.2662795756 0.0920531044 0.4107246548 -0.1091108259 0.4105055674 -0.1088467647 -0.2777544634 0.0930623094
145299130.0 -0.2655663552 0.0947025077 0.4098872681 -0.11377132 0.4097550176 -0.1140181617 -0.2765225365 0.0957961965
150299100.0 -0.2640921055 0.0968721802 0.4084437574 -0.1189317242 0.4084728543 -0.1192296986 -0.275666898 0.0984908275
155299070.0 -0.2629701973 0.0994068683 0.4068889501 -0.1238425176 0.4075137647 -0.1239449736 -0.2747351964 0.1011080924
160299040.0 -0.2622300975 0.1021441502 0.4062793451 -0.1288983599 0.4059644302 -0.1287522845 -0.2738936776 0.1036818801
165299010.0 -0.2609637502 0.1043528774 0.404957419 -0.1334140385 0.404696842 -0.1337689432 -0.2725094611 0.1059386954
170298980.0 -0.2601969638 0.1071141212 0.4032780686 -0.1388282703 0.4036488518 -0.1386046256 -0.2720270644 0.1087456628
175298950.0 -0.2592524907 0.1093331039 0.4022182482 -0.1431282234 0.4023928404 -0.1433279764 -0.2710726522 0.1115247057
180298920.0 -0.2580611033 0.1118325899 0.400156435 -0.1479725365 0.4009268681 -0.1482126954 -0.2699988132 0.1139259615
185298890.0 -0.2571219657 0.1146601982 0.3992821728 -0.1527769685 0.3993906009 -0.152671593 -0.2688562178 0.1166227474
190298860.0 -0.2555772961 0.117545827 0.3972318846 -0.1571941354 0.3976635023 -0.1572166643 -0.2679145565 0.119224952
195298830.0 -0.2548823857 0.1198879243 0.3961036706 -0.1618017281 0.3960032111 -0.1622116444 -0.2666684797 0.1218964589
200298800.0 -0.2534954109 0.122095575 0.3942408072 -0.1669668715 0.3945233073 -0.1668332121 -0.2656575476 0.1242668911
205298770.0 -0.2528527001 0.1250488487 0.3920661806 -0.1709840951 0.3925357838 -0.1710704687 -0.2645988866 0.1273447755
210298740.0 -0.2515161622 0.1274967275 0.3908012858 -0.1756436389 0.3906162986 -0.1757710338 -0.2637666405 0.1299289152
215298710.0 -0.2505422499 0.1300452315 0.3885449342 -0.1797861793 0.388697142 -0.1802991866 -0.2625305619 0.1324699359
220298680.0 -0.2489400447 0.1325870744 0.3861784672 -0.1846438103 0.3866013373 -0.1846274899 -0.2612298074 0.1350719345
225298650.0 -0.2478546089 0.1351702731 0.3843534196 -0.1893544628 0.3850843332 -0.1883592584 -0.2599670195 0.1381002802
230298620.0 -0.2467521537 0.1379733046 0.3828545747 -0.1933929064 0.3829137214 -0.1936529985 -0.2588752779 0.140648906
235298590.0 -0.245617709 0.1405798006 0.3807285047 -0.1982679842 0.3806426093 -0.1978408311 -0.2576027971 0.1431469743
240298560.0 -0.2439365486 0.1431079195 0.3781860149 -0.2019892665 0.3785476075 -0.2022640724 -0.2561831395 0.1459792382
245298530.0 -0.2428472705 0.1457355018 0.3759323129 -0.2064436019 0.3761062667 -0.2066863635 -0.2549596336 0.1486707375
250298500.0 -0.2417245315 0.148310367 0.3739134915 -0.2106133919 0.3739722111 -0.2105545088 -0.2532705859 0.1515790421
255298470.0 -0.2399382648 0.1510646217 0.3714465407 -0.2148423779 0.3722808161 -0.2151682889 -0.2521947408 0.1542170318
260298440.0 -0.2387206351 0.1536066227 0.3694591979 -0.2187563778 0.3696711244 -0.2189138762 -0.2507872302 0.1566278245
265298410.0 -0.2374201129 0.1563128501 0.3670761001 -0.223532053 0.3668575396 -0.223696168 -0.2489861014 0.1589988231
270298380.0 -0.2357728177 0.1586063071 0.3640334459 -0.2272309663 0.3645081389 -0.2278344291 -0.2473005257 0.1623732863
275298350.0 -0.2345566717 0.161547928 0.3616197767 -0.2313423549 0.3617582847 -0.2315015947 -0.2459288934 0.1649187547
280298320.0 -0.2331328835 0.1639588934 0.359299339 -0.2350761076 0.3596977308 -0.2358949947 -0.2442860574 0.1675550123
285298290.0 -0.2316726326 0.1663669386 0.3567909869 -0.2393029168 0.3567426483 -0.2395089432 -0.2427402106 0.1702995692
290298260.0 -0.2300358967 0.1692716424 0.3546092003 -0.2433020821 0.354356339 -0.2438464939 -0.2408753628 0.1728422532
295298230.0 -0.2283822359 0.1714081389 0.351506828 -0.2477511103 0.351711892 -0.2479345694 -0.2394770318 0.1750799512
300298200.0 -0.2265103068 0.1744098019 0.3486372025 -0.2516244364 0.3491540493 -0.251456602 -0.2375225589 0.177907617
305298170.0 -0.2253343616 0.1766165116 0.3461964025 -0.2556342521 0.3463082434 -0.255533524 -0.2355344149 0.1802650102
310298140.0 -0.2231024828 0.1789195025 0.3431625604 -0.2594579753 0.3434943374 -0.259295379 -0.2338303245 0.1829078293
315298110.0 -0.2216964114 0.1814338285 0.3406393333 -0.2635908289 0.3404414687 -0.2638214871 -0.2319067496 0.1856981899
320298080.0 -0.2202452657 0.1836655432 0.3374373179 -0.267405246 0.3378513425 -0.2674263711 -0.2305843615 0.1880668066
325298050.0 -0.2186190516 0.1857713097 0.3345817581 -0.2710474291 0.3351308852 -0.2712816519 -0.2283696474 0.190422998
330298020.0 -0.2173142376 0.1881115534 0.3312210059 -0.2748866729 0.3315409472 -0.2747922689 -0.2267341722 0.1926714341
335297990.0 -0.2153451487 0.1908184341 0.328362175 -0.2786100821 0.3285407476 -0.2787804842 -0.2250468086 0.195341023
340297960.0 -0.2135837203 0.1932120825 0.3248560981 -0.2824883891 0.3251434712 -0.2824854404 -0.2230292799 0.1981645012
345297930.0 -0.2120457982 0.1956526656 0.3221456688 -0.2861069811 0.3223687822 -0.2857940804 -0.2211060705 0.2002779043
350297900.0 -0.2100929486 0.1978844722 0.3192130873 -0.2891152985 0.3189217102 -0.2891347252 -0.2193577875 0.2027222338
355297870.0 -0.208159027 0.2001911198 0.3155070177 -0.2924740536 0.3155074254 -0.2925915864 -0.2171994679 0.2054670916
360297840.0 -0.2062063342 0.2024441308 0.3121830974 -0.2963092179 0.3122558767 -0.296598058 -0.2147385309 0.2076036217
365297810.0 -0.2046343223 0.2050833916 0.3090649503 -0.2999489567 0.3088097257 -0.2996419545 -0.2133480425 0.2100223013
370297780.0 -0.2023520529 0.2072428854 0.3049875217 -0.3030492943 0.3057903463 -0.3030814646 -0.2110766329 0.2127573346
375297750.0 -0.2005725931 0.2098879398 0.3023676729 -0.3065413436 0.3022963782 -0.306347841 -0.2089681442 0.2149520095
380297720.0 -0.1988186966 0.211955356 0.2994378499 -0.3096042334 0.2986523293 -0.3099130625 -0.2063310081 0.217506729
385297690.0 -0.1969114693 0.2142746055 0.2957269813 -0.3128479864 0.2955879025 -0.3132755415 -0.2045648026 0.2199692721
390297660.0 -0.1939508274 0.2158951155 0.2918644592 -0.3159514849 0.292300407 -0.3162577726 -0.2020723204 0.2219274822
395297630.0 -0.1921670516 0.2185078828 0.2886047731 -0.3190624343 0.2885285975 -0.3191265897 -0.1997747944 0.2242876221
400297600.0 -0.1899382445 0.2207619532 0.2849984951 -0.3225791465 0.2854462943 -0.3227453534 -0.1977474867 0.2265675906
405297570.0 -0.187923179 0.2224079813 0.2815638035 -0.3255972376 0.2818059496 -0.325794222 -0.1949702688 0.2291617935
410297540.0 -0.1853661024 0.2248931293 0.2778685563 -0.3288980827 0.2781594503 -0.3284612095 -0.1927814901 0.2312396956
415297510.0 -0.1836606513 0.2268903888 0.2742244427 -0.3315636877 0.2744600334 -0.3316458545 -0.1902572471 0.2333483198
420297480.0 -0.1808621434 0.2285272231 0.2703282588 -0.3344945692 0.2706196739 -0.3346354054 -0.1878273283 0.2359662792
425297450.0 -0.1784311865 0.2306977365 0.2667990515 -0.3376936648 0.2666632638 -0.3375289336 -0.1855373136 0.2374887651
430297420.0 -0.1765351174 0.2326790023 0.2637253305 -0.34045776 0.2634412611 -0.3402416511 -0.1828012298 0.239918652
435297390.0 -0.1742024437 0.2348839373 0.2592206003 -0.3437820872 0.2593860428 -0.3435643541 -0.1809575705 0.242332835
440297360.0 -0.171668857 0.2365084971 0.2552260096 -0.3459224609 0.2556031576 -0.3463588696 -0.1783145661 0.2443816297
445297330.0 -0.1691840253 0.2380416017 0.2516966627 -0.3486462654 0.2519068245 -0.349568979 -0.1752207478 0.2463453932
450297300.0 -0.1665685888 0.2402185433 0.2477135702 -0.351659654 0.2484210999 -0.3518576673 -0.1727755897 0.248337128
455297270.0 -0.1644901406 0.2420248145 0.2442253624 -0.3539764707 0.2442154725 -0.3544707283 -0.1701923686 0.2502173558
460297240.0 -0.1614370848 0.2440173854 0.2404214008 -0.357340821 0.2403237032 -0.3570718934 -0.1676496805 0.2518470194
465297210.0 -0.1591442755 0.2458945519 0.2357081624 -0.3598797294 0.2359984966 -0.3599265172 -0.1648661412 0.2544928963
470297180.0 -0.1565091237 0.2474419708 0.2320772237 -0.3616741431 0.2324084163 -0.3620514714 -0.1621416763 0.256060206
475297150.0 -0.1540245858 0.2494999858 0.2282308689 -0.3646330549 0.2282329783 -0.3646937517 -0.159535853 0.2579755264
480297120.0 -0.1509261225 0.2511525664 0.2240918998 -0.366995479 0.2244135797 -0.3672091523 -0.1571820996 0.2597968809
485297090.0 -0.1486713581 0.2524809948 0.22017253 -0.3692909854 0.2200466766 -0.369664287 -0.154220661 0.261929491
490297060.0 -0.1453602267 0.2545808193 0.2157961232 -0.3720829185 0.2158372757 -0.3721066749 -0.1514008439 0.2632960149
495297030.0 -0.1429636782 0.2561212146 0.2120510233 -0.3743026607 0.2117000585 -0.37469268 -0.1482422648 0.2651018185
500297000.0 -0.1403194552 0.2575842208 0.2080631267 -0.3762239867 0.2080294176 -0.3765237353 -0.1457728377 0.2665442743
505296970.0 -0.1373899786 0.2597087745 0.2037460703 -0.3791749502 0.2035778311 -0.3785812555 -0.1425895804 0.2683396154
510296940.0 -0.134565515 0.2609806938 0.1995538376 -0.3814738601 0.1995659829 -0.3810302528 -0.1396956648 0.270262242
515296910.0 -0.131737475 0.2627046673 0.1951537948 -0.3829838012 0.1950683773 -0.3829373888 -0.1372858299 0.2713838071
520296880.0 -0.1289106928 0.2641794999 0.1911526743 -0.3850880818 0.1907189346 -0.3852872264 -0.1337539233 0.2737471272
525296850.0 -0.1258518523 0.2655666024 0.1869208026 -0.3873736479 0.1865983665 -0.3871362908 -0.1312504251 0.2749778828
530296820.0 -0.1232381296 0.2670547059 0.1824464071 -0.3888107241 0.1824987283 -0.3889225952 -0.1284935956 0.2761918381
535296790.0 -0.1200708205 0.2681880976 0.1782462659 -0.3908764717 0.1782847268 -0.39098896 -0.1255180713 0.2779375257
540296760.0 -0.1170884808 0.2699233617 0.1737944474 -0.3928487472 0.1739585748 -0.3925404903 -0.1224652384 0.2784911651
545296730.0 -0.1142465693 0.2718385339 0.1694814111 -0.3945021593 0.1694477135 -0.3943584827 -0.1196011303 0.2804495559
550296700.0 -0.1109926099 0.2728058847 0.1651826929 -0.3964671188 0.1650353678 -0.3967478229 -0.1165306292 0.2818533978
555296670.0 -0.1083458776 0.2741414408 0.1608792268 -0.3984889898 0.1608992998 -0.3983644496 -0.1136798718 0.2830373846
560296640.0 -0.1051002984 0.2752599681 0.1562635795 -0.4001406036 0.1567629844 -0.3997377823 -0.1106827265 0.2848110178
565296610.0 -0.1026946704 0.2769292513 0.1524356559 -0.4018021429 0.1519502201 -0.4012912839 -0.1072503004 0.285967572
570296580.0 -0.0996449884 0.2785501641 0.1479254806 -0.4033195657 0.1473683939 -0.4031305812 -0.1044422129 0.2872131057
575296550.0 -0.0960338855 0.2789868553 0.1435890959 -0.4046220058 0.1432167535 -0.4047352104 -0.1013712998 0.2884398399
580296520.0 -0.0932650096 0.2806452587 0.1388223446 -0.4061260025 0.1386059643 -0.4063695165 -0.098552184 0.2893934377
585296490.0 -0.0902116418 0.2816897882 0.1349722577 -0.4078619066 0.1340269899 -0.4075279197 -0.0951117351 0.2909896359
590296460.0 -0.0867474411 0.2831044872 0.1299267745 -0.4091366735 0.1299623354 -0.4091502003 -0.0924528766 0.2919757169
595296430.0 -0.083875061 0.2841551965 0.1251206091 -0.410267929 0.12497383 -0.4103881515 -0.0892951316 0.2932273666
600296400.0 -0.0810120627 0.2853860213 0.1207084692 -0.4118548313 0.1204169704 -0.4117379152 -0.0858203973 0.2943259801
605296370.0 -0.0780179863 0.2864355632 0.1168176355 -0.4128904479 0.1161202841 -0.413006704 -0.0827568015 0.2952001032
610296340.0 -0.0744145261 0.2877408521 0.1120435929 -0.4141618057 0.1119985242 -0.4140169835 -0.0800262331 0.2963496131
615296310.0 -0.0712587377 0.2886114924 0.1075075101 -0.4156043222 0.1070281123 -0.4155652102 -0.076531724 0.2972241881
620296280.0 -0.0685949845 0.2898083318 0.1027177525 -0.4164880492 0.1027848012 -0.416319787 -0.0737517203 0.2982909793
625296250.0 -0.0654094584 0.2903686052 0.0981390545 -0.417591177 0.0983986947 -0.4173921063 -0.070507193 0.2990456459
630296220.0 -0.062398293 0.2914349798 0.0935160406 -0.4184930525 0.0934400573 -0.4184921599 -0.0673490478 0.3000542382
635296190.0 -0.0594060048 0.2925218785 0.0897309474 -0.4192398864 0.0894180203 -0.4195652291 -0.0643147592 0.3007209019
640296160.0 -0.0561265639 0.2929373631 0.084707409 -0.4202564922 0.0843539511 -0.4202272634 -0.0611601792 0.3014283499
645296130.0 -0.0527034595 0.2941547794 0.0802363328 -0.4213003338 0.0798433872 -0.4210862688 -0.0580951121 0.3021872093
650296100.0 -0.0498383246 0.2949218093 0.0755674126 -0.4219618126 0.0752419593 -0.4220455328 -0.0542947488 0.3028729799
655296070.0 -0.046802137 0.2956760485 0.0708599117 -0.4228064225 0.0705266114 -0.4225913223 -0.0518118085 0.3039166261
660296040.0 -0.0435057183 0.2965561977 0.0664005569 -0.4236546543 0.0659201747 -0.4235897614 -0.0483500139 0.3045770949
665296010.0 -0.0406243366 0.2973070899 0.061552792 -0.4238582278 0.0611962698 -0.423710441 -0.0449731918 0.3049882494
670295980.0 -0.0373758976 0.2983011026 0.0571286219 -0.4244202172 0.057118539 -0.424286923 -0.0424071672 0.3054929788
675295950.0 -0.0341943613 0.2987172352 0.052415612 -0.4249467115 0.0523736275 -0.4251131151 -0.038687903 0.3064315021
680295920.0 -0.0313495882 0.2995753425 0.0475445742 -0.4255257816 0.0477898138 -0.4255879526 -0.0354279835 0.306325584
685295890.0 -0.0276476293 0.2999635356 0.04312811 -0.4260387362 0.0431794441 -0.4263974325 -0.0322448163 0.3075741138
690295860.0 -0.0249956232 0.300346698 0.0387231782 -0.4267826099 0.0380755576 -0.4264560304 -0.0290353977 0.3079548456
695295830.0 -0.0214441846 0.3009600374 0.0344199393 -0.426901289 0.0336392759 -0.4268505866 -0.0259731951 0.308416534
700295800.0 -0.0184744385 0.3015693341 0.0298237175 -0.4272180124 0.029361157 -0.4270923357 -0.0226476601 0.3085529144
705295770.0 -0.015347479 0.3017742918 0.024809945 -0.4271676527 0.0245808803 -0.4272708525 -0.0191240122 0.309449286
710295740.0 -0.0123982545 0.3020049156 0.0204543095 -0.4274905717 0.0198824146 -0.4279202972 -0.016041389 0.3094469361
715295710.0 -0.0093106058 0.3028771467 0.0157473262 -0.4281444941 0.0153671199 -0.4279228015 -0.012722586 0.3094795163
720295680.0 -0.0057102448 0.3029846631 0.0105985998 -0.4277939602 0.0107156352 -0.4281635485 -0.0096237613 0.3100989803
725295650.0 -0.0031550583 0.3039436829 0.0067402676 -0.4280336774 0.0063598473 -0.4282514024 -0.0064402558 0.310652911
730295620.0 -0.0004298599 0.3040655501 0.0018289639 -0.4278553746 0.0016009325 -0.4278171948 -0.0033288506 0.3109985041
735295590.0 0.00287766 0.3042906111 -0.0027669354 -0.4278825812 -0.0030796457 -0.4281051059 0.0002423457 0.3104308678
740295560.0 0.0057452266 0.3041979532 -0.007457744 -0.4278730554 -0.0073700858 -0.4279566781 0.0032969513 0.3109131554
745295530.0 0.0089487766 0.304659473 -0.0120101458 -0.4277051627 -0.0115764459 -0.4275345714 0.0061997623 0.3109979283
750295500.0 0.0120062132 0.3049230086 -0.0162229691 -0.4273951715 -0.0168515906 -0.4276317929 0.0097274763 0.3111447002
755295470.0 0.0152495172 0.3047383994 -0.021079226 -0.4274116522 -0.0213113072 -0.4275164412 0.0132222496 0.3113683777
760295440.0 0.01814781 0.3053003487 -0.0257802295 -0.4272316257 -0.0261613358 -0.426934134 0.0165655511 0.3106879197
765295410.0 0.0218295093 0.3050269507 -0.0304688056 -0.4270326957 -0.030528077 -0.4266649813 0.0195332916 0.3110778258
770295380.0 0.0243247806 0.3051549426 -0.0347130975 -0.4257663543 -0.0351607293 -0.4266358459 0.0228335047 0.3110921645
775295350.0 0.0274175384 0.304946183 -0.0392442493 -0.4258727342 -0.0395071143 -0.4258384505 0.0258160261 0.3108525899
780295320.0 0.0304155504 0.3051040315 -0.0438590192 -0.4250823609 -0.0440856106 -0.4254817326 0.0293794549 0.310838259
785295290.0 0.0333114462 0.3044469029 -0.0484766042 -0.4246771211 -0.0486155702 -0.4250125134 0.0321328035 0.3109089185
790295260.0 0.0366596196 0.3043111734 -0.0532953218 -0.4243571911 -0.0531476193 -0.4245325677 0.0355546872 0.3111657592
795295230.0 0.0395779935 0.3043429621 -0.0578496617 -0.4237292766 -0.0583757206 -0.4237574041 0.0388755515 0.3100902079
800295200.0 0.0426104025 0.3041753614 -0.0618796982 -0.422640814 -0.062695713 -0.4232264197 0.0421285491 0.3098541851
805295170.0 0.0455286912 0.3042712664 -0.0667902562 -0.4223504705 -0.0671658897 -0.4226146475 0.0457761978 0.3095880829
810295140.0 0.0489455082 0.3041729123 -0.0714058279 -0.4215921067 -0.0717029426 -0.4216219787 0.0489278839 0.3093487553
815295110.0 0.0515973141 0.3034537131 -0.0754319261 -0.4208365482 -0.0757566382 -0.4208335322 0.0515694898 0.3090826209
820295080.0 0.0548967968 0.3031893601 -0.0800864039 -0.419607127 -0.0804695491 -0.4197785277 0.0547333519 0.3087952463
825295050.0 0.0574919726 0.3025609277 -0.084946809 -0.419005208 -0.0852221218 -0.4190946594 0.0584443837 0.308262218
830295020.0 0.0610484921 0.302161567 -0.0893889538 -0.4182050855 -0.0891135939 -0.4179828021 0.0613398873 0.307375214
