!Created with skrf (http://scikit-rf.org).
# Hz S RI R 50.0 
!freq ReS11 ImS11 ReS21 ImS21 ReS12 ImS12 ReS22 ImS22
300000.0 -0.0493176426 -0.0443375324 -0.0009580569 -0.0005355719 -1.64757e-05 0.0001877558 -0.772940324 -0.1415836031
5299970.0 -0.0497137431 0.0157053459 0.0002329566 -4.89371e-05 -0.0001238565 0.0002301764 -0.7849268786 -0.0074281789
10299940.0 -0.0441906146 0.0329333923 0.0001174438 0.000172632 6.08123e-05 -0.0001441027 -0.7877441294 -0.003895554
15299910.0 -0.0360581379 0.046971765 0.0002133237 0.0003888591 1.4196e-05 0.0003134394 -0.7933272098 -0.0010209671
20299880.0 -0.0262560844 0.0588606583 0.0001492526 9.10098e-05 -3.47374e-05 0.0002359826 -0.7999935392 0.0018948108
25299850.0 -0.0153969617 0.0680219667 -1.08837e-05 7.7496e-06 3.43184e-05 -7.75118e-05 -0.8061533498 0.0081262786
30299820.0 -0.0040642311 0.074893555 9.24186e-05 -6.85894e-05 -0.000163038 5.74375e-05 -0.8122941708 0.016387516
35299790.0 0.0072436082 0.0796583892 -7.9589e-05 0.0002265003 -4.46508e-05 -7.6306e-06 -0.8174710115 0.0252537268
40299760.0 0.0186163307 0.0828807762 -3.15317e-05 2.87916e-05 0.0001196426 7.1358e-05 -0.8214164238 0.0345976634
45299730.0 0.0293369492 0.0842579709 9.91409e-05 0.0001257748 0.0002373524 5.29639e-05 -0.8250979348 0.0437791361
50299700.0 0.0392263525 0.0844025641 0.0001421588 -0.0001544862 -0.000156065 6.0141e-06 -0.8274210652 0.0536583476
55299670.0 0.0484078674 0.0835394682 -5.58426e-05 0.0001024292 8.21466e-05 -5.63624e-05 -0.8294986237 0.0645295493
60299640.0 0.0568888261 0.0817483139 -5.16728e-05 1.08736e-05 -8.85719e-05 -1.62637e-05 -0.830632645 0.0740562445
65299610.0 0.0648636216 0.0797759818 -3.13177e-05 -0.0001325301 0.0002162262 1.86659e-05 -0.8319459798 0.0844667535
70299580.0 0.0715398929 0.0769268358 2.71701e-05 0.0001518813 0.000150923 -8.08035e-05 -0.8316358434 0.0942542002
75299550.0 0.0779891864 0.073848155 0.0002090771 -9.87e-08 9.52438e-05 -8.07002e-05 -0.8323686227 0.1039429545
80299520.0 0.0839377505 0.0706817234 9.7704e-06 0.0001317447 3.59856e-05 0.0001066866 -0.8321675725 0.1137503714
85299490.0 0.0885520925 0.0668536258 -1.12321e-05 -0.0001584511 -9.41496e-05 -4.80687e-05 -0.8314371844 0.1236293277
90299460.0 0.0934711543 0.0635247969 -4.71733e-05 0.0001036854 1.14222e-05 6.16927e-05 -0.8306943475 0.1332558275
95299430.0 0.0976750229 0.0589981545 0.0002130287 0.0002398239 8.13425e-05 -5.55018e-05 -0.8295132556 0.1431770553
100299400.0 0.1010656458 0.0556986524 1.15383e-05 0.000178336 0.0002305119 0.0001046501 -0.8283559905 0.1515825958
105299370.0 0.104520964 0.052098678 1.38416e-05 -5.46995e-05 1.68544e-05 0.0001728415 -0.8271591138 0.1608049277
110299340.0 0.1075869603 0.0479021453 0.0001020561 0.0002441791 -0.0001868046 -9.88414e-05 -0.8255708034 0.1708771795
115299310.0 0.110300677 0.0440782728 0.0001826955 3.59684e-05 0.0003523885 2.47729e-05 -0.8240747807 0.1798495517
120299280.0 0.1122795069 0.0403805965 -3.32966e-05 0.0001042072 0.0001359327 0.0001010138 -0.8221593475 0.1887923064
125299250.0 0.1142243844 0.0365520239 0.0001570141 0.0002960934 -3.31316e-05 -0.0001108579 -0.8208974678 0.1975370365
130299220.0 0.1157387345 0.0329132309 0.0003757918 -9.0987e-05 -4.68398e-05 0.0001599756 -0.8186238674 0.2067592642
135299190.0 0.1175822739 0.0298531691 -0.0001154691 -0.0001356648 0.0001661865 8.19885e-05 -0.8167235686 0.2158976011
140299160.0 0.1185644011 0.0260328195 -4.8153e-06 -3.0567e-05 -2.30541e-05 0.0001427826 -0.8143511451 0.2247780391
145299130.0 0.1199514468 0.0226391099 -6.1187e-06 0.0002107715 -6.21141e-05 0.0001274833 -0.8123195901 0.2338591323
150299100.0 0.1210321113 0.01927312 -4.76718e-05 0.0001171199 -2.28999e-05 8.16906e-05 -0.8109072707 0.2434112232
155299070.0 0.1218029999 0.0162713137 -2.47127e-05 -0.000169975 -0.0001227601 0.0003141751 -0.8070825946 0.2517892172
160299040.0 0.1223037538 0.0131375958 0.0001918418 0.0001896493 8.73926e-05 0.0002125406 -0.805236792 0.2605736612
165299010.0 0.1229146524 0.0098581262 7.55081e-05 -0.0002688333 0.0001845281 -0.0001026148 -0.8026008647 0.2690679157
170298980.0 0.1231881976 0.0070708781 0.0001096153 0.0003277374 -3.39532e-05 0.0001658662 -0.7997574232 0.2780098922
175298950.0 0.1235776228 0.0039698114 0.0001392573 0.0005006412 0.0001870622 0.0002238754 -0.7971445764 0.2864680575
180298920.0 0.1239548165 0.0013973875 -9.99994e-05 0.000112135 0.0001073484 -2.53602e-05 -0.7941969981 0.2951328658
185298890.0 0.1242967319 -0.0016097883 -6.89425e-05 0.0001079084 0.0001186241 0.0001400459 -0.7903254693 0.3036273029
190298860.0 0.1243476143 -0.004398617 9.48245e-05 0.0001079554 7.38685e-05 -5.13088e-05 -0.7881925692 0.3121687759
195298830.0 0.1242322509 -0.0071214544 0.0002018657 8.09062e-05 0.0001317318 0.0001404204 -0.7845802577 0.3207706844
200298800.0 0.1239750535 -0.0095062345 -7.748e-07 9.71373e-05 -6.8207e-06 0.0001463005 -0.7815944232 0.3289018696
205298770.0 0.1238436967 -0.0121335741 0.0002912831 0.0001434362 -0.0001213818 7.44387e-05 -0.7780736545 0.3368968831
210298740.0 0.1234462318 -0.0146969169 0.0001739324 0.0002860427 6.53806e-05 0.0001509697 -0.7746036198 0.3455989237
215298710.0 0.1230075903 -0.0170152304 -3.00043e-05 0.0001696149 0.0002058103 9.87325e-05 -0.7711096255 0.3539041235
220298680.0 0.1226778003 -0.0197213557 0.0002421146 0.0002327832 6.32088e-05 0.0001353606 -0.7673248125 0.3620108219
225298650.0 0.1224172879 -0.0220553649 0.0001763657 6.34273e-05 0.0002360881 0.0001993977 -0.7637878445 0.3703002705
230298620.0 0.1219031462 -0.0242503113 0.0001555061 9.01617e-05 0.000255959 0.0001984029 -0.7597195098 0.3783011721
235298590.0 0.1215690238 -0.0264586104 0.0001268027 0.0001525822 3.8219e-06 0.0002122968 -0.7557319291 0.386780303
240298560.0 0.1209829849 -0.0288167407 0.0001170936 0.0001775466 0.0002537653 8.34204e-05 -0.7516764607 0.3949778369
245298530.0 0.1202042836 -0.0308259568 0.0002071406 0.0001794084 0.00010759 0.0001704414 -0.747650798 0.4022124727
250298500.0 0.1197670164 -0.0330528034 0.0001589579 0.0001505784 7.38316e-05 -6.6435e-05 -0.7436501989 0.4101787126
255298470.0 0.1188863257 -0.0353537847 1.47784e-05 0.0002967597 4.38121e-05 0.0002342283 -0.7390032846 0.4172930016
260298440.0 0.1182959756 -0.0370789101 -8.04618e-05 0.0002153928 0.0001022936 0.0001460778 -0.7347009558 0.4261292411
265298410.0 0.1174262134 -0.0388729184 0.0001838579 0.0001538559 9.66388e-05 6.2291e-05 -0.7305635674 0.4332433847
270298380.0 0.1167455318 -0.0411322489 4.53515e-05 0.0001614296 0.0003123402 0.0001470223 -0.7260097072 0.4409616941
275298350.0 0.1160082732 -0.0429309929 0.000115886 0.0001746144 7.9749e-05 0.0002067015 -0.7209639848 0.448308888
280298320.0 0.1156893141 -0.0449611674 9.3768e-05 0.0002038434 0.0001941909 0.0002315719 -0.7162098945 0.4560923395
285298290.0 0.1148642258 -0.04636129 0.0001474674 6.54341e-05 0.0002479769 7.50982e-05 -0.7108427131 0.4633226747
290298260.0 0.1141806971 -0.0484385532 0.0003140622 6.27764e-05 0.0003446864 0.0001558714 -0.7061346565 0.4708799451
295298230.0 0.1130072503 -0.05035353 0.0002419987 6.14923e-05 0.000411073 0.0002662167 -0.7009508993 0.477594909
300298200.0 0.1121605086 -0.0520449291 -9.77377e-05 0.0002825497 0.0001115128 0.0001210027 -0.696108476 0.4852967553
305298170.0 0.1115637205 -0.0535101277 -5.4154e-05 0.0002473163 0.0001112526 6.77063e-05 -0.6903006357 0.4928076896
310298140.0 0.1106371933 -0.0556082027 0.0001293639 4.28739e-05 -6.33046e-05 9.93105e-05 -0.6857763404 0.4997284809
315298110.0 0.1099121332 -0.0572854198 0.000194161 0.0001021179 0.0001665967 0.0002577148 -0.6804175511 0.5066142788
320298080.0 0.1089139272 -0.0591996969 0.0001442133 0.000254264 0.0002283476 5.7373e-06 -0.6751896843 0.5142932422
325298050.0 0.1077345379 -0.061007601 3.95152e-05 -3.40698e-05 0.0001960037 -3.67991e-05 -0.6691112063 0.52113709
330298020.0 0.1064519692 -0.0628520263 0.00013028 6.10729e-05 0.0001926208 0.0002019551 -0.6640302572 0.5287008096
335297990.0 0.1051816529 -0.0641724108 0.0002859983 0.0001639847 0.0001269529 0.0001525337 -0.6592310412 0.5355851935
340297960.0 0.1037434614 -0.0656773941 8.76174e-05 1.89578e-05 0.0002009797 0.0001280845 -0.6528583568 0.5425177261
345297930.0 0.1025362181 -0.0671086113 0.0001786659 0.0002170457 0.0002521263 0.0002369145 -0.6469421582 0.5486773303
350297900.0 0.1013812632 -0.0684897229 0.0001311769 0.0002075713 4.62551e-05 0.0001902449 -0.6416478037 0.5552653932
355297870.0 0.1002660305 -0.0697056922 7.36042e-05 5.95125e-05 -1.06897e-05 3.41134e-05 -0.6362650524 0.5620374547
360297840.0 0.0991079926 -0.0709589918 0.000244117 -7.33553e-05 0.0002953287 0.000110345 -0.6297289039 0.5685781282
365297810.0 0.0976573061 -0.071812531 0.0003036936 0.0001739313 0.000126958 0.000212159 -0.6237436838 0.5753828828
370297780.0 0.0968758889 -0.0734608098 0.0001595002 0.0002907038 0.0002625919 8.59636e-05 -0.6174796643 0.5809562201
375297750.0 0.095352793 -0.0747336492 0.0002619692 -0.0001620978 -1.58617e-05 0.0002172988 -0.6118848941 0.5877573007
380297720.0 0.0942649947 -0.0761831145 0.0003743906 0.000188765 0.0003420618 0.0002064064 -0.6058831047 0.594057582
385297690.0 0.0928001499 -0.0769766456 0.0002105084 -3.0782e-06 0.0002575648 0.0001416338 -0.5992905531 0.600700146
390297660.0 0.0917141611 -0.0778947602 8.4609e-05 0.0001446737 0.0001319305 0.0001975136 -0.593282152 0.6065813465
395297630.0 0.0906376308 -0.0792719965 0.0001177191 0.0001588383 -2.0563e-06 0.000108082 -0.5872654067 0.6129563578
400297600.0 0.0893904139 -0.0802565338 0.0001335002 0.0001252433 -0.0001292936 8.86737e-05 -0.5811421774 0.6188729645
405297570.0 0.0878218771 -0.0813243086 0.0002563985 -2.33046e-05 8.86866e-05 0.000111066 -0.574463972 0.6244834753
410297540.0 0.0867099267 -0.0826609501 0.0003208605 0.0001271036 0.0001195224 0.0001612047 -0.5676717644 0.6307226912
415297510.0 0.0855571595 -0.0840957689 0.0002574841 0.0002312904 -1.89807e-05 0.0002953471 -0.5614228382 0.6361642094
420297480.0 0.0843001262 -0.0843853182 7.04287e-05 0.0001020414 0.000197426 0.0001403973 -0.5546795784 0.6420536374
425297450.0 0.0830029239 -0.085291942 0.000221946 0.0002155195 0.0001262119 0.0001588908 -0.5479218259 0.6475891987
430297420.0 0.0815665882 -0.0866151856 0.0003323681 0.000199983 0.0001555294 7.84778e-05 -0.5416387466 0.6529586032
435297390.0 0.0803868867 -0.0870874609 0.0003205896 0.0001703482 0.000268539 9.49336e-05 -0.5342878114 0.6581208104
440297360.0 0.078905998 -0.0886393894 0.0002152563 0.0002314354 0.0002235327 0.0002289988 -0.5276036585 0.6636453838
445297330.0 0.0775762654 -0.0894683773 0.0001504593 0.0001864826 0.0003351584 0.0002597717 -0.520315136 0.6686108272
450297300.0 0.0763403897 -0.0903116821 0.0001400423 3.06455e-05 0.0004129593 2.51341e-05 -0.5135536476 0.6740860715
455297270.0 0.074843895 -0.0911828318 7.95556e-05 -0.0001104046 -4.5981e-05 0.0003290976 -0.5065939982 0.6785752007
460297240.0 0.0735984949 -0.091962127 0.0001691994 -5.32591e-05 0.0002960379 0.0002466664 -0.4998268056 0.6842530872
465297210.0 0.0724195084 -0.0927728995 0.0003490531 0.0001126766 0.000379665 7.79617e-05 -0.4924030527 0.6892326155
470297180.0 0.0708285831 -0.0934712297 0.0001517288 3.1334e-06 0.0003137141 1.98716e-05 -0.4848969101 0.6941721465
475297150.0 0.0696114063 -0.094735961 0.0001784441 3.83784e-05 0.0004177565 -5.65941e-05 -0.4778589414 0.6988340113
480297120.0 0.0682790691 -0.0951755709 0.0002802216 -2.6841e-06 0.0002610776 -5.85533e-05 -0.4706709147 0.7037885674
485297090.0 0.0670203452 -0.0959049181 7.79823e-05 0.0003172295 0.0002824745 5.71442e-05 -0.4635660836 0.708491694
490297060.0 0.0653673126 -0.096280472 0.0003255988 0.0001979715 0.0004481339 2.98786e-05 -0.4563448073 0.7123202834
495297030.0 0.0639249024 -0.0971567325 0.0002814683 0.0001748042 0.0003105426 0.000102687 -0.4492326606 0.7176250406
500297000.0 0.0629268198 -0.0979778308 0.0004747222 9.56706e-05 0.0003824946 1.38916e-05 -0.4410540047 0.7229064085
505296970.0 0.0614873204 -0.0986808649 0.0002656201 3.02083e-05 0.0001584515 -3.0533e-06 -0.4341002276 0.7264094507
510296940.0 0.0601375305 -0.0991462377 0.0003370337 -4.49616e-05 0.000311141 -8.31644e-05 -0.4265572167 0.7309073714
515296910.0 0.0587434502 -0.0998852418 0.0002378629 0.0001180681 0.0002453203 -5.40098e-05 -0.4187154122 0.7352174602
520296880.0 0.0572005394 -0.1002643525 0.000391629 0.0001533635 0.0001860643 3.74575e-05 -0.4117915975 0.7393662354
525296850.0 0.0559757754 -0.1011858752 0.0001277998 0.0002615767 0.0001507622 1.1775e-06 -0.40446627 0.7434230528
530296820.0 0.0544096366 -0.1017321092 0.0003119803 -2.48734e-05 0.0002767088 0.0002798231 -0.3964752621 0.7474679722
535296790.0 0.0530496603 -0.1019146545 0.0003558057 0.0001108288 0.000154855 -1.85352e-05 -0.3892296251 0.7515195456
540296760.0 0.0515584832 -0.1024467701 0.000317601 -0.0001030453 0.0001962935 0.0002580878 -0.3811580793 0.7553965133
545296730.0 0.0498017024 -0.1030427827 0.0003239926 -3.90964e-05 0.000206331 0.0001657705 -0.3738901008 0.7593391927
550296700.0 0.0489833362 -0.1033852872 0.0001473213 -4.54633e-05 2.57095e-05 5.76809e-05 -0.3657893491 0.7630290334
555296670.0 0.0472024007 -0.1041025497 0.0001656059 9.05113e-05 0.0004051281 -3.28479e-05 -0.3584924372 0.7674617769
560296640.0 0.0458885591 -0.1042663255 0.0001242025 4.86818e-05 0.0002738899 -0.0002238929 -0.3503135805 0.7706396282
565296610.0 0.0442654338 -0.1044772821 0.0001677948 0.0002434623 0.0002853699 8.3806e-06 -0.3422906548 0.7740608047
570296580.0 0.0429023478 -0.1052535492 0.0004692361 -3.43501e-05 0.000398113 4.48621e-05 -0.3352621828 0.778231537
575296550.0 0.0414832105 -0.1054423279 0.0002871581 -3.01964e-05 0.0002448784 7.49996e-05 -0.327099955 0.78077155
580296520.0 0.0405157278 -0.1057803315 0.000249386 -5.88638e-05 0.0005073074 9.4152e-05 -0.3182725609 0.7841104007
585296490.0 0.0382914355 -0.1063582584 0.0001710372 0.0002187761 0.0003290113 0.0001182338 -0.3108181164 0.7869480042
590296460.0 0.0372276549 -0.1061380441 0.0004371371 2.9587e-06 0.0003713916 -9.46529e-05 -0.3032084847 0.7899261568
595296430.0 0.0357538264 -0.1065270505 4.92599e-05 -6.71853e-05 0.000332335 0.0001019625 -0.2952627292 0.7926789743
600296400.0 0.0340866503 -0.1067878792 0.0002433533 -0.0001121475 0.0003454809 4.47475e-05 -0.286901353 0.7953719165
605296370.0 0.0329084613 -0.1071761221 0.0002607376 -3.06287e-05 0.0002891835 -0.0001330088 -0.2783222709 0.7986199639
610296340.0 0.0311655397 -0.1073705047 0.000406626 -0.0001098323 0.0005437208 0.0002481724 -0.2707386602 0.8007548498
615296310.0 0.0301318719 -0.1076893238 0.0001487681 -0.0001377319 0.0001910339 -0.0001449901 -0.2619188041 0.8032133755
620296280.0 0.0281415263 -0.1079493105 0.0002854081 4.20255e-05 0.0004110181 0.0001717225 -0.2545885152 0.8065620868
625296250.0 0.0269407998 -0.1081684323 0.0003676889 5.60293e-05 0.0002775898 -1.6885e-05 -0.2456849154 0.8081146565
630296220.0 0.0258917588 -0.1086147323 0.000231084 -4.73753e-05 0.0002894271 0.00038373 -0.2379829404 0.8110238306
635296190.0 0.0238965798 -0.1082993771 0.0004914676 -1.48675e-05 0.000271361 -7.55607e-05 -0.2299215349 0.8127830871
640296160.0 0.0228347807 -0.108466431 0.0002620091 -0.0001124505 0.0004295735 4.96681e-05 -0.2213976954 0.8155502593
645296130.0 0.0213442948 -0.1083140798 0.000258948 5.21131e-05 0.0003026942 5.95454e-05 -0.2135153307 0.8178157518
650296100.0 0.0196308145 -0.1084039322 0.0002443819 -0.0001489834 0.0002985379 -2.14602e-05 -0.20529462 0.819062792
655296070.0 0.0183383907 -0.1085048978 0.0003631382 -1.33174e-05 0.0002671113 -0.0001249722 -0.1965109703 0.8206535399
660296040.0 0.0167127595 -0.1086389706 0.0002967164 5.13303e-05 0.0005325296 0.0001029684 -0.1880830187 0.823147757
665296010.0 0.0155436528 -0.1091013891 0.0005494526 -7.946e-07 0.0002699091 -0.0001017274 -0.179367616 0.825590405
670295980.0 0.0137717809 -0.1084654057 0.0004079569 -8.10217e-05 0.0002454726 -9.499e-05 -0.1722260639 0.8266956373
675295950.0 0.0123811455 -0.1085830719 0.0004701523 -0.000172224 0.0004675627 -0.0001730993 -0.1641600955 0.8288746193
680295920.0 0.0110530289 -0.1082929937 0.0005015953 -0.0001518203 0.0004929324 -5.1739e-05 -0.1553350008 0.8305429556
685295890.0 0.0097658267 -0.1084777186 0.000212832 8.83875e-05 0.0003931786 0.0001160313 -0.146709622 0.8316410882
690295860.0 0.0084388711 -0.1084167778 0.0003998031 -1.6519e-06 0.000596719 -8.622e-06 -0.1387085731 0.8337345564
695295830.0 0.0067337616 -0.108070558 0.0003408937 4.66557e-05 0.0002599964 -6.22318e-05 -0.1299642119 0.8348291842
700295800.0 0.0053367967 -0.108319385 0.0002880312 8.17028e-05 0.0005079788 9.55862e-05 -0.1218021817 0.8360827183
705295770.0 0.0036882131 -0.1078469208 0.0001569784 4.04095e-05 0.0003171617 -9.18516e-05 -0.113681334 0.8378989536
710295740.0 0.0023396668 -0.1076832795 0.0005630087 -0.0001100286 0.0004028595 -0.0001303015 -0.105480822 0.8387170545
715295710.0 0.0005814419 -0.1077180874 0.00023633 9.91402e-05 0.0004251083 -0.0001078533 -0.0964821754 0.8395086241
720295680.0 -0.0004746054 -0.1076228758 0.0003743244 9.0365e-06 0.0005404383 -3.09182e-05 -0.0878806914 0.840380738
725295650.0 -0.0019502361 -0.1069880806 0.0004312726 -7.6712e-06 0.0005335441 -0.0001148074 -0.0805040482 0.8419562674
730295620.0 -0.0033505133 -0.1066457233 0.0004208002 -0.0002676554 0.0003900738 0.0001548339 -0.0723819642 0.8422632956
735295590.0 -0.0045712128 -0.1062578217 0.0004671485 0.0001062537 0.0002137219 -1.028e-06 -0.0636990824 0.8426969297
740295560.0 -0.0061407332 -0.1063022009 0.0002953784 -4.40053e-05 0.0006081652 -3.91534e-05 -0.0546605744 0.8436032825
745295530.0 -0.0076595466 -0.1057190506 0.0004436223 -6.5851e-06 0.0003409903 9.6433e-06 -0.0455504515 0.8437482761
750295500.0 -0.0088150642 -0.1057238166 0.0003593434 -1.79121e-05 0.0004055665 5.618e-06 -0.0377959165 0.8444404458
755295470.0 -0.0104467559 -0.1052746031 0.0005679086 -5.89166e-05 0.0002435706 -7.85818e-05 -0.0295582704 0.8439032869
760295440.0 -0.0114336731 -0.1049907825 0.0004158695 -8.33776e-05 0.000396181 -0.0001448921 -0.0214854751 0.843981898
765295410.0 -0.0129987189 -0.1044438175 0.0005472736 -7.30199e-05 0.0005297316 -0.0001148611 -0.0129264656 0.8451109346
770295380.0 -0.0145005972 -0.104298753 0.0003108019 0.0001062966 0.000351675 9.9002e-06 -0.0047432471 0.8444089668
775295350.0 -0.0160920411 -0.1038755066 0.0003619937 -8.65653e-05 0.0002926534 1.22779e-05 0.0031364826 0.8444055232
780295320.0 -0.0173583783 -0.1032072247 0.0006084734 -1.6316e-06 0.00037891 5.30312e-05 0.011811201 0.844541717
785295290.0 -0.0187129632 -0.1032832222 0.0007253991 -0.0001139951 0.0004899893 -0.0001119565 0.0206470288 0.8441784677
790295260.0 -0.0199190009 -0.1022284141 0.0003663818 -3.60515e-05 0.000535145 1.81457e-05 0.0297752512 0.8443363445
795295230.0 -0.0214757434 -0.102011915 0.000426509 -0.000206696 0.0005532873 8.44252e-05 0.0382707058 0.8429879728
800295200.0 -0.0227924003 -0.1014580961 0.0004699791 -0.0001940012 0.0004623445 -9.08602e-05 0.0468627094 0.8428339837
805295170.0 -0.0240173614 -0.1012867856 0.0002377151 -8.16003e-05 0.0003728207 -0.0001637016 0.0544322075 0.8430605645
810295140.0 -0.0252348271 -0.1008427817 0.0008150923 -0.0001875418 0.0005686842 -4.699e-07 0.0630351868 0.8414488827
815295110.0 -0.0266876255 -0.1003056265 0.000519804 2.78346e-05 0.0003397637 8.13531e-05 0.0718006866 0.8411996789
820295080.0 -0.027771581 -0.0995272536 0.0004739272 2.66035e-05 0.0004294084 -2.27595e-05 0.0795262202 0.8405359854
825295050.0 -0.0289505359 -0.0991117612 0.0003349555 5.60338e-05 0.0003711563 6.6906e-05 0.0883935854 0.8399652451
830295020.0 -0.0302782345 -0.0983847 0.000311639 2.04136e-05 0.0005617118 -1.25636e-05 0.0975739114 0.8388714286
835294990.0 -0.0319893704 -0.0977903679 0.0005035766 -0.0001581141 0.0003630703 -6.5663e-05 0.1048230678 0.83806547
840294960.0 -0.0330281204 -0.0971058399 0.000534491 -0.000131505 0.0004478896 -0.0001828629 0.1134707044 0.8368411657
845294930.0 -0.0344270222 -0.0965507084 0.0004046335 -0.0004375637 0.0003625698 -0.0002041276 0.1211745724 0.8356957957
850294900.0 -0.0351719388 -0.0956594757 0.0004533432 -0.0003380627 0.0003926177 -8.92745e-05 0.1299567196 0.8342966262
