!Created with skrf (http://scikit-rf.org).
# Hz S RI R 50.0 
!freq ReS11 ImS11 ReS21 ImS21 ReS12 ImS12 ReS22 ImS22
300000.0 -0.7708737236 -0.1845699574 0.0005810927 0.0023421832 9.98416e-05 -1.41216e-05 -0.0453035815 -0.0812099317
5299970.0 -0.7862965063 -0.0098515847 -0.0001556406 0.0001051287 -0.0001713701 0.0001164072 -0.048693678 0.0142149727
10299940.0 -0.7893481576 -0.0058153488 8.30606e-05 6.26464e-05 -2.45396e-05 0.000298786 -0.0425748017 0.0324606876
15299910.0 -0.794535011 -0.00329964 -0.0001553089 0.0001109886 -1.51475e-05 -1.54904e-05 -0.0344571322 0.046627452
20299880.0 -0.801002938 0.000657268 1.22826e-05 4.71436e-05 0.00016802 7.30684e-05 -0.0251588538 0.0587276968
25299850.0 -0.8076286263 0.0066134888 0.0002241094 -5.24821e-05 6.87185e-05 -4.42733e-05 -0.0141469815 0.067749657
30299820.0 -0.8137583897 0.0135900764 -1.1775e-05 -6.14589e-05 -4.16115e-05 -6.08421e-05 -0.0027680464 0.0748452603
35299790.0 -0.8182834362 0.0232479216 3.8121e-05 -3.5814e-05 7.64482e-05 -9.2334e-05 0.008675866 0.0798749517
40299760.0 -0.8237131077 0.031895353 -9.84e-07 0.0002610554 0.0002194539 9.65133e-05 0.0196357914 0.0824168831
45299730.0 -0.8264835578 0.0423045585 6.32557e-05 -5.41285e-05 0.0001284315 7.58489e-05 0.0305434291 0.0840731658
50299700.0 -0.8297092649 0.0519725518 -3.13229e-05 0.0002229937 0.0002086125 -1.70853e-05 0.0403813095 0.0844123919
55299670.0 -0.8311188447 0.061224383 -5.38955e-05 0.0001047177 5.06447e-05 7.3564e-06 0.0493734928 0.0835013848
60299640.0 -0.8327622149 0.0718710011 -1.40895e-05 0.0002049572 -0.0002408505 -2.12597e-05 0.0579462914 0.0815580415
65299610.0 -0.8335928133 0.0815750893 -6.26388e-05 0.0003557354 0.0001381948 9.00844e-05 0.0658589389 0.0795118311
70299580.0 -0.8337474231 0.0910662254 7.66228e-05 7.13893e-05 8.8556e-06 4.03385e-05 0.0724990797 0.0768647101
75299550.0 -0.8337790214 0.1013954738 -9.82691e-05 3.99977e-05 0.0001557433 -1.80763e-05 0.0789868722 0.0737962213
80299520.0 -0.8341682021 0.1123178551 9.03444e-05 -3.30211e-05 0.0001177512 0.0002525435 0.0850692564 0.0701775671
85299490.0 -0.8325047171 0.1212154778 0.0001825059 0.0001808453 -3.46548e-05 9.77443e-05 0.0900728639 0.0666297479
90299460.0 -0.8324697516 0.1315168119 -0.0001402898 9.80857e-05 0.0001945394 7.81689e-05 0.0944092734 0.0629207283
95299430.0 -0.8316800967 0.1404188417 4.9863e-05 -3.6527e-06 -0.0001175936 -3.73323e-05 0.0987257209 0.059257716
100299400.0 -0.8307522198 0.1498904097 -7.71661e-05 3.2786e-05 0.0001046517 7.75181e-05 0.1022124569 0.0557148634
105299370.0 -0.8284013169 0.1589983015 -1.01927e-05 0.0001208893 0.0002209027 1.9148e-06 0.1057777331 0.0515522077
110299340.0 -0.8276352199 0.1684305437 0.0002737308 5.84844e-05 2.75809e-05 0.0001300256 0.1084751578 0.0475851512
115299310.0 -0.8264805251 0.1772986528 -2.50407e-05 4.96818e-05 1.58044e-05 7.61651e-05 0.1109195183 0.0440897841
120299280.0 -0.8242797071 0.1867484703 0.0001838036 -6.62283e-05 0.0001448116 5.01039e-05 0.113419647 0.0400685478
125299250.0 -0.8227076977 0.1956562047 -1.20915e-05 -6.49648e-05 8.98604e-05 -1.1059e-05 0.1153860805 0.0363542057
130299220.0 -0.8208491048 0.2057814903 5.97197e-05 -0.0001794288 0.00018698 7.61563e-05 0.1173252633 0.0329114611
135299190.0 -0.8186179891 0.2144718612 0.0002423189 -0.0001746612 -7.6328e-06 0.0001297891 0.1188610561 0.0292597943
140299160.0 -0.8172266893 0.2235308991 0.0001617292 6.7164e-06 0.000112506 1.1285e-06 0.11975975 0.0258961455
145299130.0 -0.8152764791 0.2325382792 4.65942e-05 -0.0001581796 9.86847e-05 0.0001306035 0.1211782158 0.0223576052
150299100.0 -0.8123639498 0.2410612661 0.0001169173 0.0001223821 -1.21663e-05 0.0001417456 0.1221387067 0.0192869051
155299070.0 -0.8101545348 0.2504599494 4.95502e-05 0.0001853429 0.0002415491 9.2877e-06 0.1230042766 0.0158204407
160299040.0 -0.8080949237 0.2591975144 0.0002019789 0.0001217748 9.95011e-05 -5.49116e-05 0.1231970537 0.0127235301
165299010.0 -0.8049828498 0.2677034477 0.0001820565 -7.10253e-05 6.37541e-05 7.96973e-05 0.1243941077 0.0095394536
170298980.0 -0.8015873762 0.2765166992 0.0001307058 0.0001966289 -4.13364e-05 0.0002112453 0.1243578069 0.006886933
175298950.0 -0.79921671 0.2849447489 0.0001958372 -1.67977e-05 -3.4334e-06 0.0001174361 0.1250537304 0.0041451163
180298920.0 -0.7959538867 0.2938847724 1.6342e-06 7.3774e-05 -9.14939e-05 0.0001758645 0.1252643427 0.0004684552
185298890.0 -0.7926065764 0.3023388789 -2.86991e-05 0.0001765043 9.17703e-05 0.0001311564 0.1250079395 -0.0022088614
190298860.0 -0.7897137803 0.3108158104 0.0001647397 0.0001558029 0.0003054783 0.0001019577 0.1252772413 -0.0050477435
195298830.0 -0.7865189193 0.319448418 1.88613e-05 1.9972e-05 -4.75557e-05 3.8557e-05 0.1248430366 -0.0075897404
200298800.0 -0.7828029069 0.327712997 -0.0001329111 -8.89936e-05 7.14177e-05 -2.73951e-05 0.1250102247 -0.0102289693
205298770.0 -0.7792599369 0.3368373103 0.000207702 0.0002862801 0.0002590252 -4.07754e-05 0.1250335878 -0.0130536802
210298740.0 -0.7762770033 0.3444935022 0.0001302984 0.000125752 6.338e-06 0.0001408227 0.124509035 -0.0155877837
215298710.0 -0.7719734019 0.3534347094 0.000171273 -4.49929e-05 -3.55199e-05 5.45215e-05 0.1240175905 -0.0178343331
220298680.0 -0.7687781254 0.3611023181 0.0001099841 0.0001321563 -3.36863e-05 -9.27183e-05 0.1239818956 -0.0201481362
225298650.0 -0.7651805896 0.369621347 3.26247e-05 0.0002013621 0.0002054602 -2.42924e-05 0.123448337 -0.0227317775
230298620.0 -0.7615558478 0.3776018574 7.93059e-05 0.0001830535 1.2519e-05 0.00013306 0.122752435 -0.0249378166
235298590.0 -0.7575880691 0.3866171567 -0.0001085192 0.0002194241 0.0001325843 8.19751e-05 0.1224339921 -0.0271687909
240298560.0 -0.7526763174 0.3937866179 2.65096e-05 2.9378e-05 0.0001245161 0.0003844507 0.1218347267 -0.0294597163
245298530.0 -0.74858966 0.40137551 8.89042e-05 0.0003394286 0.0001910133 0.0003225862 0.1213972882 -0.031531375
250298500.0 -0.7449841963 0.4095881771 9.26357e-05 0.0003003145 -3.2478e-06 0.0001205155 0.1205946001 -0.0336871462
255298470.0 -0.740438774 0.417843345 9.2618e-06 0.0002077946 0.0001989021 3.6025e-06 0.1201660461 -0.0357548712
260298440.0 -0.7363408526 0.425163889 3.76835e-05 -0.0001071768 -3.51968e-05 0.0001906089 0.118913719 -0.0379096326
265298410.0 -0.7318354938 0.4331754252 8.98095e-05 0.0001065752 0.0003228952 0.0001576557 0.1187704687 -0.0398165266
270298380.0 -0.7271018781 0.4406952631 0.0001666129 0.0002902348 0.0001607053 8.77269e-05 0.11829205 -0.0416178618
275298350.0 -0.7231160566 0.4482512659 0.0001358054 -7.80023e-05 0.0002233534 -4.82361e-05 0.1173634274 -0.0436796003
280298320.0 -0.7180141279 0.4555974497 -1.70294e-05 0.0001072719 2.05759e-05 0.0001611542 0.1164354348 -0.0455598566
285298290.0 -0.7133153462 0.4635463896 5.647e-05 3.01632e-05 0.0001626465 3.9606e-06 0.1156758737 -0.0470514917
290298260.0 -0.708596145 0.4708926322 0.0001326449 6.9749e-06 -6.65593e-05 0.0001734572 0.114923013 -0.0488142773
295298230.0 -0.7039023464 0.4781836467 0.0004374315 -3.17524e-05 8.18841e-05 0.0002513183 0.1142351302 -0.0510080954
300298200.0 -0.6995302995 0.4856246806 3.1527e-05 0.0001190887 0.0001449595 -2.91807e-05 0.1133418683 -0.0525824167
305298170.0 -0.6947154397 0.4924781247 0.000107065 -0.0002002721 3.49984e-05 9.73462e-05 0.1124785593 -0.0542828243
310298140.0 -0.6892023697 0.4995271555 0.0001098232 0.0003497933 -4.71064e-05 0.0002187004 0.1117288764 -0.0559055215
315298110.0 -0.6844573145 0.5076390264 -6.54147e-05 5.51295e-05 1.58137e-05 0.0001095673 0.1109170863 -0.0579147737
320298080.0 -0.6788690032 0.514157788 0.0001768424 -2.0332e-06 0.0001365429 0.0002063195 0.1096128882 -0.0595285045
325298050.0 -0.6736825956 0.5211262968 1.07316e-05 0.0001251958 0.0001504417 8.60741e-05 0.1087017265 -0.0618398846
330298020.0 -0.667950389 0.5279304319 0.0001577425 6.08354e-05 0.0001112946 0.0001905754 0.1072857847 -0.0634024145
335297990.0 -0.6629635459 0.5346412101 0.0002658368 -2.51961e-05 0.0001963141 -2.1087e-05 0.1063886403 -0.0649392355
340297960.0 -0.6580770078 0.5414632225 0.0001831866 3.52162e-05 -4.07566e-05 9.2494e-06 0.1051187628 -0.0660994579
345297930.0 -0.6520282221 0.548205117 0.0001139281 -4.04762e-05 0.0002756037 9.89605e-05 0.1037905532 -0.0675878287
350297900.0 -0.6462556082 0.5548269512 0.0003873852 -0.0001681686 0.0001054976 6.06377e-05 0.1021899371 -0.0692300695
355297870.0 -0.6411949947 0.5615936995 0.0003178487 0.000197806 0.0001775385 0.0001681119 0.1009136846 -0.0704600987
360297840.0 -0.6346113302 0.5683462493 0.0001757055 0.0002272892 0.0002198799 0.0002670805 0.1000702644 -0.0719541087
365297810.0 -0.6296752369 0.5751133768 0.0003585966 0.0003055876 0.0002830497 -2.83556e-05 0.0983693166 -0.0731153287
370297780.0 -0.6233690123 0.580423323 0.0002701722 0.0002304754 2.96221e-05 9.68636e-05 0.0972665506 -0.0742087078
375297750.0 -0.6177188944 0.5869570744 0.0001869049 0.0001807404 7.5144e-05 0.0001392481 0.0961088091 -0.0756774629
380297720.0 -0.6120925625 0.5939839129 0.0002928809 0.0001445717 7.96768e-05 1.7581e-05 0.0951910221 -0.076678095
385297690.0 -0.6059478822 0.5994417566 7.36412e-05 -1.169e-07 0.0003356153 0.0002271417 0.0938537689 -0.0778422342
390297660.0 -0.5981558071 0.6053662423 9.95927e-05 5.5756e-05 0.0001978542 0.0003035084 0.0927730796 -0.0790447718
395297630.0 -0.5927920746 0.6118360999 0.0001988597 0.0004893249 0.0002267469 8.55666e-05 0.0914820568 -0.0803857686
400297600.0 -0.5868495789 0.6179486677 0.0003465342 0.0001530208 0.0001156945 0.0001212932 0.0902957638 -0.0811022854
405297570.0 -0.5804052715 0.6230132532 0.0002538224 0.0002757321 0.0001285679 0.0001631275 0.0888811075 -0.0821524239
410297540.0 -0.5735488036 0.629589837 0.0002138448 0.0001088216 0.0002829061 8.62014e-05 0.0875496369 -0.083289004
415297510.0 -0.5679079366 0.6353698578 0.0004212161 -7.60371e-05 0.0001686354 -7.83412e-05 0.0864995861 -0.0843194747
420297480.0 -0.560193701 0.641317079 0.0001632296 0.0001844244 0.0002283517 0.0002800209 0.0855469485 -0.085307103
425297450.0 -0.5543208903 0.6464274502 0.0002284198 -3.13597e-05 0.000179686 0.000131029 0.0837010465 -0.0866096101
430297420.0 -0.5479705767 0.6521256852 0.0002995112 0.0001523747 0.0003931486 -0.0001147902 0.0823928954 -0.0873735765
435297390.0 -0.5410135305 0.6573786846 0.0002695391 3.4887e-05 0.0001145328 0.0001386678 0.0809249093 -0.0882303846
440297360.0 -0.5339596381 0.6634384801 0.0004213698 0.000149187 0.0001899827 3.73831e-05 0.0800667522 -0.0892374947
445297330.0 -0.5273722482 0.6677474235 0.0001493887 0.0001574407 0.0004131911 0.0001911178 0.0785238162 -0.0903139235
450297300.0 -0.5202013109 0.6739251358 0.000107625 0.0002529603 0.0003560974 0.0001945148 0.0775647159 -0.091174285
455297270.0 -0.5137182195 0.6786389849 0.000186159 7.37095e-05 6.98221e-05 0.0001183865 0.0762732681 -0.0920646861
460297240.0 -0.5061898902 0.6846101564 0.000136809 0.0002051755 0.0002302434 0.0001145614 0.0744284601 -0.0930440576
465297210.0 -0.4993698583 0.6886643844 0.0002572718 0.0002395389 0.0004040866 6.81968e-05 0.0734422591 -0.0935536933
470297180.0 -0.4920462371 0.6940325663 0.0002452364 -0.0001845964 0.0003165074 0.0002750431 0.0720407996 -0.0947569613
475297150.0 -0.4847075336 0.6993596985 0.0004290507 -7.62666e-05 6.99645e-05 0.0003364693 0.0706094762 -0.0951308756
480297120.0 -0.4769778684 0.7042017692 0.0003678322 0.0002461435 0.0003798338 0.0002480448 0.0690714885 -0.0959192032
485297090.0 -0.4700369549 0.7085759559 0.0001859559 6.15442e-05 0.0003231325 -7.21909e-05 0.0678188286 -0.0969639065
490297060.0 -0.4619807618 0.7141005841 0.0004572996 5.33476e-05 0.0002037365 -1.55685e-05 0.0664826326 -0.0976088973
495297030.0 -0.4548706452 0.7178415288 0.0003097621 0.0001969589 1.78691e-05 0.0002364275 0.0651409204 -0.0983428822
500297000.0 -0.4471695761 0.7226047308 0.000275415 -7.18947e-05 0.0003179355 0.0001517919 0.0638554262 -0.0989156396
505296970.0 -0.4393238314 0.7274249964 0.0004234303 0.0002183064 0.0002382984 3.6898e-05 0.0619521774 -0.0998118773
510296940.0 -0.4320393812 0.7312031028 0.0004873878 -2.20488e-05 0.0003096147 8.24849e-05 0.0611642243 -0.1001753299
515296910.0 -0.4243062035 0.7358184282 0.0004114825 0.0002130868 0.000138827 0.000350697 0.0593891625 -0.1009626327
520296880.0 -0.416449936 0.7401857612 0.0002869364 0.0002134107 8.39424e-05 4.86763e-05 0.0582046447 -0.101312889
525296850.0 -0.408565192 0.7441467276 0.0003000978 0.0001748814 0.0001155577 0.0003149427 0.0567766993 -0.1019713999
530296820.0 -0.4016840702 0.7479511644 0.0004139907 -0.000123396 0.0001489424 0.0001609733 0.0553353756 -0.1027015432
535296790.0 -0.3930040698 0.7516059638 0.0001322384 -9.0826e-06 0.0001938287 0.0001783108 0.0542533501 -0.1030942558
540296760.0 -0.3849851812 0.7557207734 0.0004367658 0.0001055272 0.000363162 0.0001802346 0.0524355391 -0.1035018882
545296730.0 -0.3774309156 0.7604396533 0.0003929646 3.84736e-05 0.000225421 -2.32855e-05 0.0512740262 -0.1038332927
550296700.0 -0.3691866441 0.7636553499 0.0005260501 0.000124057 0.0004500724 0.0003986426 0.0495942975 -0.1048639527
555296670.0 -0.3614826527 0.7676233241 0.0004129976 0.0001423197 0.0002123812 6.30243e-05 0.0479081713 -0.1052889387
560296640.0 -0.3531985051 0.7708008827 0.000260947 -0.0002450935 0.0003627595 0.000356136 0.0466464732 -0.1055449413
565296610.0 -0.3457516542 0.7743917801 0.0001371307 0.0003349944 0.0002485777 4.3008e-06 0.0455396782 -0.105713218
570296580.0 -0.3371978534 0.7779890384 0.0004920048 2.6435e-05 5.56983e-05 0.0001011324 0.0437090792 -0.1064629174
575296550.0 -0.3285912113 0.7807209431 0.0003479269 -3.88866e-05 0.0003611343 -4.52928e-05 0.042438933 -0.1066783967
580296520.0 -0.3215135892 0.7846105508 0.0004679657 0.0001997462 0.0003982607 6.93275e-05 0.0409655809 -0.1070919652
585296490.0 -0.3122915905 0.7879061729 0.0004668206 0.0002636347 0.0001023479 -3.75523e-05 0.0394086856 -0.1072980661
590296460.0 -0.3043312086 0.7906013216 0.0004425347 -6.80762e-05 0.0003862162 8.75795e-05 0.0380455503 -0.1075128284
595296430.0 -0.2960425649 0.7937825319 0.0002046645 9.36779e-05 0.0003842185 -0.0001679271 0.0366126723 -0.1079074745
600296400.0 -0.2883130018 0.7972282994 0.0004326272 0.0002597276 0.0003667567 2.72544e-05 0.0351162861 -0.1079910247
605296370.0 -0.2796559304 0.7995079574 0.0002991526 0.0001727009 0.0003360296 -0.0001802226 0.0337758771 -0.1085364416
610296340.0 -0.2716415757 0.8028861659 0.0002111015 -0.0001245999 0.0005237527 0.0001518227 0.0319861948 -0.1089614023
615296310.0 -0.2630549635 0.805530082 0.000227201 6.8706e-06 0.0002294445 0.0001326452 0.0308759768 -0.1089690766
620296280.0 -0.2553955561 0.8084799192 0.0001868284 3.84275e-05 0.0004267877 0.000270512 0.029166312 -0.1089301777
625296250.0 -0.2474051424 0.8104551541 0.0005534482 0.000157352 0.0003447845 -7.66331e-05 0.0275833274 -0.1093383496
630296220.0 -0.2386023083 0.8136373059 0.0002340339 9.98153e-05 0.0003841436 0.0001447217 0.0263497259 -0.1093968519
635296190.0 -0.2306638199 0.8159701124 0.000263142 -7.89691e-05 0.0002123963 -0.0001261249 0.0248848655 -0.1095967115
640296160.0 -0.2218242868 0.8176126614 0.000470598 2.52765e-05 0.0002790884 0.0001294117 0.0233745883 -0.1093113269
645296130.0 -0.2139722567 0.820362788 0.0003387443 -8.66175e-05 0.0003148636 8.19999e-05 0.0219537438 -0.10974523
650296100.0 -0.2051306085 0.82235445 0.0004282147 -2.35298e-05 0.0003161186 0.0001435518 0.0206227898 -0.1099079502
655296070.0 -0.1973461868 0.8242171905 0.0002444334 0.0002263979 8.81025e-05 0.0001103558 0.0186721377 -0.1097966675
660296040.0 -0.1893507149 0.8267503851 0.0004070967 0.0001469448 0.0004235474 -0.0001753339 0.0176155655 -0.1101934252
665296010.0 -0.1812602596 0.8287507273 0.000583363 -0.0001104086 0.0005468956 -0.0001564246 0.0164195417 -0.1100585872
670295980.0 -0.1724031904 0.8302819084 0.000284547 -0.0001413233 0.0004483495 1.26361e-05 0.0144260525 -0.1099328344
675295950.0 -0.1638116353 0.8318154989 0.0004689643 -0.0003352851 0.0002039582 -0.0002401851 0.0133373243 -0.1098720201
680295920.0 -0.1565467273 0.8339340213 0.0002537216 -7.18512e-05 0.0002373509 -3.5696e-06 0.0118564631 -0.1096230747
685295890.0 -0.1475397376 0.8358519564 0.0003275028 5.86936e-05 0.0005290136 -4.19552e-05 0.0103743217 -0.1095115848
690295860.0 -0.1388036534 0.8369994735 0.0003039971 0.0001271257 0.0001453702 -1.11857e-05 0.0089569762 -0.1096691264
695295830.0 -0.1309820419 0.8388790993 0.0005039892 -8.01488e-05 0.0002727349 0.0001543016 0.0073472572 -0.1095240883
700295800.0 -0.1220855106 0.8398028551 0.0003850799 -2.27493e-05 0.0005291268 -1.10468e-05 0.0062795717 -0.1094463701
705295770.0 -0.1142881815 0.8415985437 0.0005245924 -8.39282e-05 0.0002305751 -0.0002628163 0.004485806 -0.1092467235
710295740.0 -0.1068465489 0.8418238656 0.0001542709 6.84299e-05 0.0005465269 0.0002229201 0.0034693408 -0.1091293491
715295710.0 -0.097979974 0.844018306 0.0003540121 0.0001588258 0.000571694 -2.02818e-05 0.0019326868 -0.1090559815
720295680.0 -0.0888722784 0.8443453525 0.0003037924 -0.0001711808 0.0003810757 -3.06005e-05 0.0005042436 -0.108991891
725295650.0 -0.0819783141 0.846250948 0.0004090957 9.25309e-05 0.0003371007 -8.93014e-05 -0.000943288 -0.1084607018
730295620.0 -0.0742356134 0.8467555029 0.0005227703 -4.7248e-05 0.0004528546 3.477e-07 -0.0024032387 -0.1083466697
735295590.0 -0.0661472997 0.8478624554 0.0003269718 6.0093e-05 0.0002773423 -2.9808e-06 -0.0038169777 -0.1083565618
740295560.0 -0.057577792 0.8477934675 0.0005916489 -0.0002457525 0.0001863015 -7.14085e-05 -0.0053484076 -0.1075331629
745295530.0 -0.0489296802 0.8485209862 0.0005440108 -0.0001505915 0.0005363522 -8.51171e-05 -0.0065820709 -0.1074365531
750295500.0 -0.0409609268 0.8495992372 0.0004826358 -0.0001529988 0.0003374236 -0.0001603397 -0.0080412911 -0.1072510518
755295470.0 -0.0321132888 0.8502376363 0.0005683514 -8.61653e-05 0.0003384166 -3.54886e-05 -0.0092455252 -0.1065728402
760295440.0 -0.0242401508 0.8509402731 0.000443906 -0.0001900808 0.00027598 5.45952e-05 -0.0106034028 -0.1066637528
765295410.0 -0.0159029146 0.8508493236 0.0002574632 -0.0001462901 0.0005431179 -0.0001981176 -0.0123854049 -0.1061160253
770295380.0 -0.0084638009 0.8510295347 0.0005783176 1.0865e-06 0.0003136514 -3.80028e-05 -0.0136673862 -0.1056212277
775295350.0 0.0002856936 0.8513486688 0.0004364547 6.7769e-06 0.000523106 -5.71714e-05 -0.014633003 -0.1055149904
780295320.0 0.0086728328 0.8514953329 0.000380757 -8.25332e-05 0.000559555 1.81912e-05 -0.0160199991 -0.1049768171
785295290.0 0.0172258997 0.850776957 0.0004768132 2.1092e-06 0.0004170645 9.0134e-06 -0.0179111734 -0.1043765066
790295260.0 0.0249134105 0.8507610319 0.0003845806 2.302e-06 0.0004920029 7.51141e-05 -0.0190395617 -0.1038702508
795295230.0 0.0329518436 0.8505780471 0.0004288467 -9.21499e-05 0.0004219604 -0.0001031378 -0.0202542592 -0.1043194697
800295200.0 0.0414018239 0.8503791272 0.0003334517 0.0001461006 0.0002767889 -0.0002257928 -0.0219379418 -0.1035064165
805295170.0 0.0495581028 0.8507856893 0.0004107509 -6.75171e-05 0.0004170511 -9.9813e-05 -0.0228568333 -0.1030745801
810295140.0 0.0573174233 0.85057373 0.0003027609 -0.0002500982 0.0003350104 -0.000105396 -0.0242595425 -0.102333561
815295110.0 0.0653327722 0.8498898219 0.0004879684 -0.0003160035 0.0004184852 -0.000240624 -0.0258157356 -0.1017096201
820295080.0 0.0735265943 0.8494078939 0.0005074666 7.8277e-06 0.0004985883 -0.0001109733 -0.0275458101 -0.1007140372
825295050.0 0.0821562304 0.8481677227 0.000381894 -0.0001332261 0.0004936997 -1.39675e-05 -0.0283054615 -0.1004401864
830295020.0 0.0911316057 0.8478144643 0.0004249308 -0.0004796335 0.0004537118 -8.58201e-05 -0.0297209554 -0.1003134163
835294990.0 0.0980037293 0.8469130622 0.0003451817 -0.0001419281 0.0004537722 -8.61687e-05 -0.0309589519 -0.0991362037
840294960.0 0.1069705413 0.8456072162 0.0005682046 -8.25498e-05 0.0003720985 -0.0003178134 -0.0321511644 -0.0987302409
845294930.0 0.1144949547 0.8445460201 0.0003826702 -0.0001460195 0.0003609516 -0.000289012 -0.0334890879 -0.0983593353
850294900.0 0.1237340887 0.843204234 0.0001973449 -4.94824e-05 0.0004311722 -0.000342082 -0.0346463746 -0.0975611499
