!Created with skrf (http://scikit-rf.org).
# Hz S RI R 50.0 
!freq ReS11 ImS11 ReS21 ImS21 ReS12 ImS12 ReS22 ImS22
300000.0 -0.0960133606 -0.08538435 0.6217537268 0.0796603959 0.6236937698 0.0827979374 -0.095862625 -0.0903069516
5299970.0 -0.1003411894 0.0126162816 0.6309354406 0.0107131649 0.6303123452 0.0107675887 -0.102012915 0.0117525979
10299940.0 -0.0953995815 0.0298626529 0.634567367 0.0155413913 0.6343875636 0.0157719454 -0.0970775966 0.0288073009
15299910.0 -0.088389754 0.043178292 0.6403361464 0.0204925814 0.6403566008 0.0212317034 -0.0902200952 0.0421768986
20299880.0 -0.0793478664 0.05440306 0.6487508421 0.0240055453 0.6486997844 0.0242041922 -0.0818376821 0.0531755863
25299850.0 -0.0697035291 0.0627301619 0.6582218669 0.0248703327 0.6581170589 0.0252339114 -0.0724960198 0.0620393028
30299820.0 -0.0595691291 0.069135144 0.66781057 0.0249235919 0.6675309994 0.0245588748 -0.0624895475 0.0686947335
35299790.0 -0.0492776476 0.0743253853 0.6771787231 0.0215630881 0.6769833071 0.0216455494 -0.0525398466 0.0732536065
40299760.0 -0.0396364795 0.0770384364 0.6868101469 0.018091027 0.6866321582 0.0179583875 -0.0436087666 0.0770497755
45299730.0 -0.0302264322 0.0792413578 0.6958909232 0.011387533 0.6956321034 0.0122283298 -0.0340333947 0.0790813354
50299700.0 -0.0217289293 0.0796675042 0.7033543132 0.0046558193 0.7038832107 0.0049406091 -0.0253471417 0.0801884893
55299670.0 -0.0143012527 0.0798048583 0.7105799243 -0.0033422155 0.7111402942 -0.0026587153 -0.017895405 0.0800808006
60299640.0 -0.0067168711 0.078872129 0.7170110729 -0.0112347788 0.7173274356 -0.0112251546 -0.01027317 0.0796134584
65299610.0 -0.0004263825 0.0780829953 0.7234674125 -0.0197451316 0.7242295592 -0.0198017741 -0.0036957331 0.0786536045
70299580.0 0.0060201961 0.0759136878 0.7287893365 -0.0292568613 0.7289285013 -0.0291516647 0.0022784528 0.0773155735
75299550.0 0.0116947873 0.0742418209 0.7327384339 -0.0386995106 0.733119736 -0.0391384226 0.0084012392 0.0758863399
80299520.0 0.0161160614 0.0721905927 0.7375349113 -0.0488631729 0.7376641664 -0.0487705947 0.013203207 0.0730280521
85299490.0 0.0208478665 0.069545519 0.7406153005 -0.0587859987 0.7405590866 -0.0588459056 0.0177714578 0.0708848509
90299460.0 0.0245067808 0.0673410222 0.7433586646 -0.0685256526 0.7439648987 -0.0687170425 0.0220576471 0.0687364662
95299430.0 0.0284091335 0.0651180591 0.746020828 -0.0793467947 0.7464021589 -0.0790424555 0.0253542999 0.0663446706
100299400.0 0.0313613712 0.0628172418 0.7471074172 -0.0893562685 0.7477446532 -0.0888911167 0.0283763544 0.063954615
105299370.0 0.0346778855 0.0602059551 0.7485565928 -0.098889762 0.748826749 -0.0992123954 0.0320398434 0.0617721926
110299340.0 0.0372128936 0.0574599516 0.7495009127 -0.1087341778 0.7504800781 -0.1095749542 0.0347694232 0.0595388558
115299310.0 0.0397300386 0.0548892996 0.7508423392 -0.1191533498 0.7513714482 -0.118900158 0.0373036561 0.0563826817
120299280.0 0.0411495964 0.0525318811 0.7520191921 -0.1293137099 0.751194389 -0.12987742 0.0388269073 0.0541686533
125299250.0 0.0431829379 0.0504732228 0.7518704688 -0.1389136629 0.7516690032 -0.1392178449 0.0414090392 0.0511407779
130299220.0 0.0450379282 0.0479733849 0.7515478778 -0.1488216885 0.7518849132 -0.1496524963 0.0433232447 0.0496718121
135299190.0 0.0466330023 0.0454299109 0.7511824263 -0.1586521268 0.7511582476 -0.1587816178 0.0444420499 0.047421207
140299160.0 0.0478524086 0.0442748872 0.7506368039 -0.1687345259 0.750852513 -0.1685369327 0.0461947972 0.0452925815
145299130.0 0.0491555544 0.0418528514 0.7503592973 -0.1789133443 0.7502359435 -0.1782653701 0.0473579051 0.0426631302
150299100.0 0.0506073977 0.0398391083 0.7493156178 -0.1881432433 0.7490004774 -0.1881587528 0.048474757 0.0408244696
155299070.0 0.0512540519 0.0382741727 0.7480279462 -0.1978927622 0.7475471619 -0.1979477396 0.0493715615 0.0387915407
160299040.0 0.0522728736 0.0360145966 0.7462507914 -0.2063786266 0.7464942374 -0.2074720615 0.0506158447 0.0372381243
165299010.0 0.0529646232 0.0342913362 0.7450098769 -0.2166679295 0.7451436332 -0.2171076379 0.0515799254 0.034893349
170298980.0 0.0536119255 0.0327279366 0.7420916739 -0.2261462302 0.7427352357 -0.2260303251 0.0527244142 0.03301207
175298950.0 0.054466385 0.0306857961 0.7414344121 -0.2352512622 0.741392957 -0.2353661674 0.053543516 0.0313483089
180298920.0 0.0552726012 0.0292174914 0.7390228679 -0.2446105757 0.7391620069 -0.2438092552 0.0537102021 0.0299419862
185298890.0 0.0559200497 0.0272818544 0.7364329183 -0.2542165842 0.7366052166 -0.253522372 0.0541940137 0.0277538875
190298860.0 0.0562956753 0.025788411 0.7344465605 -0.2630827442 0.7346648768 -0.2629567068 0.055563663 0.0262173635
195298830.0 0.0564619592 0.0240629498 0.7316209582 -0.2716808315 0.7324427528 -0.2720805949 0.0558689132 0.0241650938
200298800.0 0.0569735786 0.02274385 0.7295711934 -0.2802750262 0.7290616489 -0.2803037972 0.056211715 0.0232307872
205298770.0 0.0571494119 0.0215814472 0.7269166701 -0.2891682593 0.7265744435 -0.2896691076 0.0562966688 0.0209222791
210298740.0 0.0570589295 0.0197176838 0.7241688832 -0.2983862672 0.7240639429 -0.2986266634 0.0566815151 0.0202347895
215298710.0 0.0576736321 0.018645838 0.7212449332 -0.3065581953 0.7208731948 -0.3070361878 0.0568834971 0.0183687904
220298680.0 0.0582020716 0.0173350737 0.7174983589 -0.3158049038 0.7178102826 -0.3157166771 0.0575612414 0.0173331169
225298650.0 0.0585988457 0.0160090549 0.7136702195 -0.3236954199 0.7141147737 -0.324011841 0.0576479113 0.0157220929
230298620.0 0.0583011102 0.0149848488 0.7112193608 -0.3327346654 0.7109881727 -0.3328003704 0.0580483844 0.0143635497
235298590.0 0.0585283716 0.0134244476 0.7074512112 -0.3411491261 0.7074846347 -0.3419137692 0.058077441 0.0127111885
240298560.0 0.0584398853 0.0119521143 0.7039954768 -0.3495459709 0.7040585685 -0.3489953794 0.0582711373 0.0117650089
245298530.0 0.0589088075 0.0113501499 0.6993798338 -0.357644192 0.6997803615 -0.3581122527 0.05858558 0.0107644308
250298500.0 0.0585263751 0.0099325566 0.6959505608 -0.3656767693 0.6963573148 -0.3656672371 0.0588270162 0.0090389526
255298470.0 0.0585575708 0.0089758125 0.6920321855 -0.374303523 0.6926327422 -0.3739019214 0.0589545124 0.0075261913
260298440.0 0.0584575671 0.0079599926 0.6881699696 -0.3822231987 0.6888145107 -0.3824095035 0.0595813613 0.0069183948
265298410.0 0.0590646579 0.0072004159 0.6841482585 -0.391075586 0.6839238458 -0.3905488459 0.0587631485 0.0056587153
270298380.0 0.059179944 0.005719904 0.6795960299 -0.3986357744 0.6800985069 -0.3982078315 0.0590951036 0.0052467233
275298350.0 0.0583988986 0.0048065179 0.675695715 -0.4071707528 0.6758508286 -0.4064049917 0.0589982173 0.0039024985
280298320.0 0.0586998526 0.004065248 0.6707731773 -0.4135631471 0.6707218309 -0.4142817316 0.0592722077 0.0028895095
285298290.0 0.0589823922 0.0031044186 0.6665915211 -0.4220851787 0.6663201067 -0.4219916369 0.0589155103 0.0017495563
290298260.0 0.0587893429 0.0018427699 0.6625558325 -0.430017012 0.6623124857 -0.4295206887 0.0597920225 0.0007330283
295298230.0 0.0586447218 0.0007298502 0.6581663685 -0.4375780684 0.6576524497 -0.4375224011 0.0598037448 -0.0002238753
300298200.0 0.0594212438 0.0002134429 0.6528027814 -0.4446534146 0.6531094865 -0.4453678721 0.0592544846 -0.0017105019
305298170.0 0.0588635525 -0.0011204993 0.6482828444 -0.4528012008 0.6489108657 -0.4533881307 0.0598698079 -0.0022327337
310298140.0 0.0595443974 -0.0023832268 0.6435919089 -0.4603413692 0.643477321 -0.4605523493 0.0597891768 -0.0028641882
315298110.0 0.0588937575 -0.0034455381 0.6387361521 -0.4681949983 0.6386930935 -0.4684857499 0.0600596302 -0.004761295
320298080.0 0.0585941548 -0.0042633646 0.6332223464 -0.4755852075 0.6338912084 -0.4757107423 0.059335084 -0.0057978019
325298050.0 0.0581396952 -0.0058333328 0.6285932262 -0.483157552 0.6282983567 -0.4833470834 0.0592576495 -0.0067404902
330298020.0 0.0579481145 -0.0062505072 0.6217102345 -0.4901860251 0.6219266461 -0.4908562344 0.0588084677 -0.0081999301
335297990.0 0.0576983458 -0.0077715363 0.6167622642 -0.4972772251 0.6167392623 -0.4980051045 0.0583179844 -0.0087890334
340297960.0 0.0566376985 -0.0078999414 0.610130198 -0.5048674758 0.6103895926 -0.5043450683 0.0574777831 -0.0092523432
345297930.0 0.0563448267 -0.0085716201 0.6048612097 -0.5110147285 0.6043135225 -0.5110955425 0.05781458 -0.0106153836
350297900.0 0.0566223902 -0.0093196512 0.5985396356 -0.5176277243 0.599530543 -0.5178870476 0.0568556075 -0.0105849191
355297870.0 0.056080145 -0.0099820091 0.5931704864 -0.5245580597 0.593220513 -0.5248536392 0.0565258953 -0.0111185007
360297840.0 0.0560900704 -0.0105761317 0.587713648 -0.5318926535 0.5877655398 -0.5316016474 0.0565663171 -0.011854009
365297810.0 0.0558365309 -0.0114007324 0.5817658929 -0.5377699918 0.5817497945 -0.5376248292 0.0558877995 -0.0123840388
370297780.0 0.0558041526 -0.0122087125 0.5756651816 -0.5443242566 0.5759432661 -0.5448308326 0.0561725813 -0.0127381577
375297750.0 0.0551155393 -0.0123569088 0.5701463947 -0.5506500217 0.5697423122 -0.5511716819 0.0556355114 -0.0134160033
380297720.0 0.0551423454 -0.013783192 0.5633259897 -0.5569865164 0.5638819328 -0.5566759117 0.0553402968 -0.0142725417
385297690.0 0.0548852174 -0.0137945883 0.5574213085 -0.5628285105 0.5571517179 -0.5634190039 0.0549332047 -0.0149026446
390297660.0 0.0543072714 -0.0147740524 0.5508248901 -0.5699357203 0.5516955643 -0.5701032009 0.0546784374 -0.0153755731
395297630.0 0.0548872132 -0.0157392082 0.5452576322 -0.575826417 0.5450924013 -0.5756576129 0.0546246645 -0.0155965916
400297600.0 0.0539913258 -0.0159636018 0.5381553968 -0.5823534307 0.5392665876 -0.5823847351 0.0533829916 -0.0168823281
405297570.0 0.0539500486 -0.016597009 0.5320467303 -0.5878651698 0.5323297622 -0.5879046836 0.0537178574 -0.0166790614
410297540.0 0.0536535285 -0.0174102289 0.5251705366 -0.5940445943 0.5253963333 -0.5941505493 0.0532363019 -0.0175342405
415297510.0 0.0532299769 -0.0171902264 0.5191774568 -0.5992105458 0.5193018737 -0.599788381 0.0528572232 -0.0180104917
420297480.0 0.0531147829 -0.0189658279 0.5121381333 -0.6058370794 0.5126804391 -0.6056758157 0.0528094313 -0.0188881148
425297450.0 0.0536052387 -0.0197380148 0.5063371255 -0.611402127 0.5066064826 -0.6112953552 0.0522913875 -0.0187523533
430297420.0 0.0526268023 -0.0195309624 0.4990035186 -0.6172141492 0.4993626628 -0.6168559685 0.0516005489 -0.0201805889
435297390.0 0.0524908428 -0.0205296093 0.4930169852 -0.6222498101 0.4920268518 -0.6219237005 0.0513102652 -0.0197892443
440297360.0 0.0522023094 -0.0215294529 0.4852866276 -0.6276419431 0.485270227 -0.6278905718 0.0511995096 -0.0212062544
445297330.0 0.0522162094 -0.0220344383 0.4781417604 -0.6337201222 0.4782106029 -0.6332944183 0.0505252723 -0.0216576476
450297300.0 0.0518049528 -0.0225551755 0.4715767648 -0.6383642916 0.4714754046 -0.6385404008 0.0503041404 -0.0219975324
455297270.0 0.0512726566 -0.0235355271 0.4644939803 -0.6436759953 0.4651268018 -0.6437550201 0.0504701691 -0.0223294861
460297240.0 0.0503846421 -0.0238376723 0.4576961072 -0.6484006936 0.4568642277 -0.6490068487 0.0497697833 -0.0226273575
465297210.0 0.0507461003 -0.0245952676 0.4504136269 -0.6538139436 0.4505848627 -0.653961823 0.0489032368 -0.0236078469
470297180.0 0.0500995028 -0.0251758295 0.4432675082 -0.6586821674 0.4436172242 -0.6589353192 0.0479602826 -0.0238581282
475297150.0 0.04933754 -0.0264595069 0.4352343556 -0.663265047 0.4358402681 -0.6632148519 0.0481659179 -0.0243218517
480297120.0 0.0500035363 -0.0267987747 0.4284332076 -0.6682783906 0.4288747531 -0.6678589296 0.0475623191 -0.0245357377
485297090.0 0.0493464881 -0.0274956174 0.4215807412 -0.6728288741 0.4216915077 -0.6735018723 0.0471751492 -0.0258192438
490297060.0 0.0491202476 -0.0280565952 0.4139768378 -0.6777263724 0.4140350053 -0.6775943151 0.0472012235 -0.0257044203
495297030.0 0.0480215332 -0.0280858424 0.4063162966 -0.682261645 0.4064367348 -0.6824223521 0.0466030341 -0.0264325092
500297000.0 0.0481228379 -0.029184188 0.3988222264 -0.686591196 0.3988044021 -0.6868645982 0.0454792506 -0.0267892978
505296970.0 0.0472116608 -0.0295669038 0.3908497691 -0.6904463929 0.390673387 -0.6910125929 0.0446352512 -0.0268817651
510296940.0 0.0470285277 -0.0301469607 0.3839873504 -0.6959336434 0.38372194 -0.6947433476 0.0450476383 -0.0269688524
515296910.0 0.0463931686 -0.0304834293 0.3755940919 -0.699259904 0.3758126946 -0.6990926484 0.0442765371 -0.0277404682
520296880.0 0.0460625464 -0.0312931116 0.3686002198 -0.7033950016 0.3683915701 -0.7032275747 0.0442092996 -0.0284410314
525296850.0 0.045311091 -0.0320554555 0.3608430721 -0.7073646097 0.3605716363 -0.7075591132 0.0439097413 -0.0287373766
530296820.0 0.0451498418 -0.0321716887 0.3534138475 -0.7106738505 0.3530282678 -0.7114632429 0.0426978055 -0.0300140996
535296790.0 0.0442173203 -0.0327963085 0.345339645 -0.7148084488 0.3454449922 -0.7151215742 0.0425708423 -0.0303365108
540296760.0 0.0439180134 -0.0337861265 0.3375190946 -0.7194112994 0.3368521626 -0.7193877195 0.0413391904 -0.0299118895
545296730.0 0.0435413305 -0.0332004498 0.3293279195 -0.7225175508 0.3289535638 -0.7229039543 0.0410959119 -0.0308061903
550296700.0 0.0425481845 -0.0345435307 0.3219144002 -0.7260542357 0.3219363921 -0.7268953141 0.040774841 -0.0306601345
555296670.0 0.0427132354 -0.0352094819 0.3139199712 -0.7300469469 0.3135513206 -0.729973824 0.0399048051 -0.0311298097
560296640.0 0.0418342456 -0.035556103 0.305981356 -0.7331636529 0.3052895938 -0.7330048843 0.0397304972 -0.031691524
565296610.0 0.0408294295 -0.0361080656 0.2972095467 -0.7369188215 0.2968157807 -0.7366630284 0.0390429273 -0.0322709245
570296580.0 0.0409296016 -0.0366476077 0.2891070447 -0.7394047172 0.2899083831 -0.7397007273 0.0388580914 -0.0318986507
575296550.0 0.0402669877 -0.0362733189 0.2815697307 -0.7423306382 0.2820331512 -0.7426886394 0.0386733643 -0.0328857233
580296520.0 0.0396061039 -0.0370835597 0.2734373164 -0.7458805418 0.2728302357 -0.7459712309 0.037387194 -0.0334539383
585296490.0 0.0394189049 -0.0378313311 0.26532533 -0.7489747871 0.2650830944 -0.7485889176 0.0370549141 -0.0338459586
590296460.0 0.0381093055 -0.0385104608 0.2570703633 -0.7518784247 0.2562777779 -0.7518451328 0.036975706 -0.0335110794
595296430.0 0.0377075689 -0.0384909608 0.2491678509 -0.7546696238 0.2487406183 -0.7545874335 0.0363642387 -0.034147757
600296400.0 0.0372993698 -0.0386964476 0.2406109248 -0.7575146353 0.2406463161 -0.7571260984 0.035642874 -0.0341194617
605296370.0 0.0367242292 -0.0385609602 0.2324374505 -0.7600166746 0.2324023946 -0.7598395946 0.0351251368 -0.0348726841
610296340.0 0.0359527395 -0.0393971587 0.2245645586 -0.7624685043 0.2243674016 -0.7622630454 0.0345355777 -0.0344418832
615296310.0 0.0354210121 -0.0394929476 0.2148875448 -0.7646923481 0.2153092065 -0.7649119758 0.0342302438 -0.0352015193
620296280.0 0.0348120934 -0.0402382548 0.2075448466 -0.7669284771 0.2069397423 -0.7669408503 0.0335127366 -0.0358769527
625296250.0 0.0348172787 -0.0405184585 0.1986930421 -0.7692780764 0.1986977574 -0.7693800814 0.0331902688 -0.0354512759
630296220.0 0.0337226361 -0.0406615799 0.1901876981 -0.7716134283 0.190692455 -0.7712660534 0.0321590669 -0.0359583432
635296190.0 0.0333513416 -0.0410632485 0.1820055413 -0.772807181 0.1814898909 -0.7729261045 0.0315929788 -0.03653444
640296160.0 0.032507992 -0.0412419177 0.1737813367 -0.7752656999 0.1736808863 -0.7751626597 0.0317005267 -0.0365543048
645296130.0 0.0320787433 -0.0412118425 0.1654700247 -0.777367751 0.1651204043 -0.7773649693 0.0298726502 -0.0373283237
650296100.0 0.0309334301 -0.0409740345 0.1573682579 -0.7790677648 0.1573173724 -0.7787280347 0.0299685933 -0.0372061732
655296070.0 0.0305165953 -0.0420525246 0.1481413571 -0.7804412269 0.1481755209 -0.7802962925 0.0299927742 -0.0368470226
660296040.0 0.0292735696 -0.0415334756 0.1399338187 -0.7813489147 0.1399782438 -0.7816515197 0.0288830319 -0.0379265046
665296010.0 0.0295388015 -0.0423292793 0.1315216709 -0.7826686664 0.1319170583 -0.7832736759 0.0279719907 -0.0373921806
670295980.0 0.0292946427 -0.0424080577 0.1230857148 -0.7843861936 0.1224960217 -0.7846776534 0.0273521824 -0.0379920542
675295950.0 0.0285876977 -0.0425082154 0.1142545861 -0.7859849686 0.1146199116 -0.7869089645 0.0271968065 -0.0376482281
680295920.0 0.0275387836 -0.0424918391 0.1053124782 -0.7872738057 0.105361116 -0.7872083616 0.0268049623 -0.0384636001
685295890.0 0.0268893741 -0.0429141927 0.0969056361 -0.7881146133 0.0967871309 -0.7883810966 0.0258877242 -0.0380590069
690295860.0 0.0266828263 -0.0432858611 0.0881011394 -0.7882127392 0.0876225145 -0.7885138452 0.025792571 -0.0380546324
695295830.0 0.0262000509 -0.0433658995 0.0788965288 -0.7903474563 0.0791657492 -0.7903492251 0.024396638 -0.0386475021
700295800.0 0.0259331286 -0.0435954917 0.0705887234 -0.7909729454 0.071035202 -0.7913322086 0.0240506901 -0.0391465083
705295770.0 0.0248716132 -0.043773378 0.0622975992 -0.7919354424 0.0622411087 -0.7918382263 0.023195185 -0.0390307274
710295740.0 0.0242402963 -0.0433845462 0.0536942921 -0.7921933295 0.0533981139 -0.7920740998 0.0217804887 -0.0389942518
715295710.0 0.0236675276 -0.0438679599 0.0452825007 -0.7927419881 0.0454318756 -0.7930992306 0.0222227608 -0.0395930905
720295680.0 0.0227857806 -0.0443037399 0.0362231682 -0.7936309629 0.0366794243 -0.793732105 0.0219041731 -0.0389763693
725295650.0 0.0224855855 -0.0440500431 0.0273357903 -0.7938414579 0.0279085911 -0.7937752021 0.0209008007 -0.0393413105
730295620.0 0.0211806353 -0.0445654745 0.0192266538 -0.7939957798 0.0193337671 -0.7940536538 0.020698863 -0.0404088089
735295590.0 0.0214770427 -0.0442258665 0.0111021974 -0.7934029562 0.0111836688 -0.7944247946 0.0197233323 -0.039353853
740295560.0 0.0202484857 -0.0444290535 0.0016488963 -0.7933222202 0.0019997483 -0.7939824154 0.019527206 -0.0397248002
745295530.0 0.0198947546 -0.0448699342 -0.0064400234 -0.7939846284 -0.006795804 -0.794381234 0.0183925285 -0.0394739569
750295500.0 0.0190273591 -0.0447290473 -0.0148840493 -0.793531599 -0.0149498475 -0.7940236234 0.0184030406 -0.0403611406
755295470.0 0.0190615847 -0.0443759652 -0.023775173 -0.7935893626 -0.0239748239 -0.7941127416 0.0167359022 -0.0398827575
760295440.0 0.0178415068 -0.0445402071 -0.0328799483 -0.7936135213 -0.0326630506 -0.793469738 0.0159884571 -0.0401876062
765295410.0 0.0171400236 -0.0452366234 -0.0403868778 -0.792381104 -0.0406147065 -0.7929495391 0.0169265257 -0.0395666031
770295380.0 0.0170849599 -0.0450621617 -0.0499671179 -0.7921052219 -0.0495195882 -0.7925210967 0.0160506812 -0.0397741501
775295350.0 0.0161079206 -0.0447210916 -0.0581595439 -0.7917231128 -0.0579370001 -0.7920614013 0.0146853147 -0.0407669941
780295320.0 0.015667187 -0.0448395568 -0.0664556333 -0.7914385457 -0.0662944004 -0.7911849538 0.0143581389 -0.0399518006
785295290.0 0.0149005139 -0.0446707163 -0.0751315019 -0.7894890503 -0.0753933089 -0.7900808851 0.0132975236 -0.0402198717
790295260.0 0.0142389137 -0.0447449718 -0.0834758069 -0.789219992 -0.0840458413 -0.7894399997 0.0134061694 -0.0402137096
795295230.0 0.0132340581 -0.0448929626 -0.0915003056 -0.7879058507 -0.0925722626 -0.788566681 0.0123932508 -0.0393854865
800295200.0 0.0130829262 -0.0445761496 -0.1020319962 -0.78782915 -0.1015398338 -0.787780734 0.0123724611 -0.0400658008
805295170.0 0.0119673546 -0.0447433621 -0.1097073727 -0.7857784805 -0.109722725 -0.7860609632 0.0111102574 -0.0402327298
810295140.0 0.0114579686 -0.0446692168 -0.1180327414 -0.7846613986 -0.1176438563 -0.7854013699 0.0108421778 -0.0396633651
815295110.0 0.0108149692 -0.0446330888 -0.1269971222 -0.7831791605 -0.1271798418 -0.7837353844 0.0096291374 -0.0402934289
820295080.0 0.0103515914 -0.044864725 -0.1349701479 -0.782178376 -0.1351571571 -0.7826785778 0.0091321439 -0.0397851209
825295050.0 0.0094534107 -0.0450133131 -0.1438452969 -0.7799433137 -0.1432611806 -0.7805901136 0.0089728618 -0.0397424419
830295020.0 0.008751429 -0.0441979229 -0.1522597806 -0.7789518378 -0.1525905199 -0.7793974384 0.0080611847 -0.0400078222
