!Created with skrf (http://scikit-rf.org).
# Hz S RI R 50.0 
!freq ReS11 ImS11 ReS21 ImS21 ReS12 ImS12 ReS22 ImS22
300000.0 -0.317511594 -0.1275494183 0.372375801 0.0640851171 0.3728084434 0.0643938168 -0.3181912878 -0.1283152545
5299970.0 -0.3249957616 0.002659177 0.3784019358 0.0034108465 0.378571703 0.0033891396 -0.3261051958 0.0020307508
10299940.0 -0.3225817519 0.0141365328 0.3798696956 0.0028072863 0.3796475932 0.0029944272 -0.3233576245 0.0128433879
15299910.0 -0.3192608259 0.0223416986 0.3820093712 0.0026510002 0.3825006116 0.0027986916 -0.3208202712 0.0198611172
20299880.0 -0.3158630718 0.02909185 0.384839013 0.0016361811 0.3854966609 0.0020900843 -0.3179867843 0.0259095082
25299850.0 -0.3116953044 0.03481642 0.3884991789 0.0005035829 0.3890384174 0.0001066151 -0.3151473572 0.0315085528
30299820.0 -0.3085582334 0.0394866452 0.3923304057 -0.0021942787 0.3922418544 -0.0019192944 -0.3122498045 0.0357795017
35299790.0 -0.3044702601 0.0434767869 0.3949413698 -0.0050175418 0.3952956932 -0.0050113198 -0.3094557747 0.0400265707
40299760.0 -0.301350257 0.0468442444 0.3985635201 -0.0084511783 0.3986114486 -0.0087714202 -0.3067260968 0.0431974873
45299730.0 -0.2979712646 0.0497897881 0.4010288524 -0.0124585859 0.4017206411 -0.0127717239 -0.3039630696 0.0468261533
50299700.0 -0.2948729592 0.0525542362 0.4034632098 -0.0171965983 0.4038403977 -0.0170179592 -0.3013318433 0.0499758296
55299670.0 -0.2924960748 0.0552275496 0.4057032252 -0.0215336299 0.4060616464 -0.0219561723 -0.2996184747 0.0525452753
60299640.0 -0.2898405721 0.0577581529 0.4079209492 -0.0266276987 0.408081476 -0.0270637534 -0.2972357663 0.0550629479
65299610.0 -0.2876670964 0.0599053024 0.410015271 -0.0313864929 0.4100981758 -0.0316857887 -0.2952707237 0.057325949
70299580.0 -0.2855300467 0.0619462996 0.4105318336 -0.0362370181 0.4113358254 -0.0366771257 -0.2935992693 0.0599219832
75299550.0 -0.2837066627 0.0643788736 0.4117514439 -0.0421849943 0.4121593626 -0.0419340304 -0.2922278317 0.0623702744
80299520.0 -0.2817924193 0.066514363 0.4131260247 -0.0475236629 0.4131923292 -0.0473498743 -0.2906180408 0.0649617629
85299490.0 -0.2799936994 0.0683815571 0.4135037701 -0.0524927739 0.4135064411 -0.0523518468 -0.2892631952 0.0669817282
90299460.0 -0.278641968 0.0708023071 0.4139116273 -0.0579160301 0.4136718876 -0.0574974209 -0.2877375947 0.0692158952
95299430.0 -0.2769509086 0.072483339 0.4138921501 -0.0629368577 0.414557172 -0.063189818 -0.2865244686 0.0718532747
100299400.0 -0.2754330438 0.0746308837 0.4140112043 -0.0678336521 0.4142286594 -0.0681757134 -0.2854686877 0.0743261144
105299370.0 -0.2739356928 0.076706547 0.4138898709 -0.0733376749 0.4142268414 -0.0734023964 -0.2839925649 0.0763203604
110299340.0 -0.2725830377 0.0787117198 0.4139682201 -0.0782948731 0.4143218192 -0.0783091749 -0.283318536 0.0786301415
115299310.0 -0.271679408 0.0808476792 0.4136338673 -0.0831122123 0.4138176111 -0.0835822496 -0.2821863375 0.0812064873
120299280.0 -0.2704034019 0.0831943701 0.4131365344 -0.088729259 0.4132817355 -0.0889797077 -0.281086729 0.0834631798
125299250.0 -0.2695025236 0.084908004 0.4123582405 -0.0935169295 0.4126412573 -0.0937737668 -0.2802382566 0.0860330711
130299220.0 -0.2681785932 0.0871039664 0.4116113498 -0.0991349788 0.4120174142 -0.0994838008 -0.2792277588 0.0884836786
135299190.0 -0.2674140816 0.0897805554 0.4111783937 -0.1035303648 0.4114726851 -0.1041768311 -0.2782855331 0.0905884902
140299160.0 -0.2663095249 0.092246498 0.4103996544 -0.1091525091 0.4105057056 -0.1086711582 -0.2779966646 0.0931548785
145299130.0 -0.2653002171 0.0948891938 0.4094227472 -0.1140614718 0.4095841972 -0.1139278207 -0.2766719957 0.0958092801
150299100.0 -0.2643156238 0.0969207592 0.4087898074 -0.1188506815 0.4082689853 -0.1190047981 -0.2758434594 0.0983968828
155299070.0 -0.26337514 0.0994273767 0.4072115117 -0.1234157857 0.4074968061 -0.1238990002 -0.2747342077 0.1009023201
160299040.0 -0.2622160153 0.1018427186 0.4062832758 -0.1285558263 0.4060892612 -0.1288540026 -0.2740473072 0.1034490862
165299010.0 -0.2611133677 0.1043240912 0.4049618713 -0.1334166338 0.4047013829 -0.1334209488 -0.2729131144 0.1060530545
170298980.0 -0.2603043952 0.1067150236 0.4034824297 -0.1382886425 0.4036456103 -0.1384865408 -0.2719218352 0.1085414732
175298950.0 -0.2590877362 0.1091351712 0.4020960863 -0.1430529002 0.4024536762 -0.143682512 -0.2707893006 0.1120319223
180298920.0 -0.2581344243 0.111905579 0.400600646 -0.1479922772 0.4009008943 -0.1483430781 -0.2699617708 0.1137545506
185298890.0 -0.2571417546 0.1143688753 0.3994818874 -0.1522971065 0.3991673053 -0.1526288846 -0.2687338961 0.1165586732
190298860.0 -0.2559704691 0.1172095136 0.3972505918 -0.1572689859 0.3979032921 -0.156979145 -0.2680137874 0.1192830866
195298830.0 -0.2547678468 0.1195000302 0.3963269314 -0.1618849043 0.3961778271 -0.1620134523 -0.266964474 0.1219130059
200298800.0 -0.2535535856 0.12182057 0.3943716218 -0.1668510165 0.3947645401 -0.1666997396 -0.2657650754 0.1245925677
205298770.0 -0.2527168549 0.1245758319 0.3921622056 -0.1711261152 0.3924707573 -0.1710630769 -0.2646074356 0.1273943264
210298740.0 -0.2514132895 0.1272793248 0.3907100985 -0.1756128652 0.3906973765 -0.1755604498 -0.2640082236 0.1297380418
215298710.0 -0.2501039729 0.1299942398 0.3884393584 -0.1797704925 0.3887784348 -0.180367436 -0.2625861429 0.1325527987
220298680.0 -0.2489898004 0.1326295937 0.3863415634 -0.1842681347 0.3863871292 -0.1846520097 -0.2609864198 0.135473899
225298650.0 -0.2477341705 0.1352892683 0.3843036153 -0.1888604674 0.3848676693 -0.1885527106 -0.2599722369 0.1377294627
230298620.0 -0.2462844945 0.1380892085 0.3824690134 -0.1934280593 0.3830032811 -0.1935750696 -0.2589429456 0.1404117478
235298590.0 -0.2455810628 0.1407275969 0.3804418106 -0.1981299509 0.3807898581 -0.1979069164 -0.2572919574 0.1433013384
240298560.0 -0.2440499483 0.1429972527 0.3780386155 -0.2018597144 0.3785537971 -0.2023109864 -0.2560164745 0.1457331137
245298530.0 -0.242805262 0.1457029898 0.3761986593 -0.2064788213 0.3764938682 -0.2068846719 -0.2550031504 0.1486295318
250298500.0 -0.2415524104 0.1483645887 0.3740727875 -0.2105252022 0.3740474699 -0.2106250354 -0.2534289399 0.1515603648
255298470.0 -0.2402092706 0.15126167 0.3719090367 -0.2146446036 0.3722720715 -0.2150964112 -0.2519654046 0.1544791511
260298440.0 -0.2386353787 0.1537069141 0.3691905962 -0.2189237861 0.369492034 -0.2188214069 -0.2508878227 0.1567594457
265298410.0 -0.2373204279 0.1563637967 0.3669444317 -0.2234964527 0.3669858212 -0.2235919546 -0.2488772158 0.1594482879
270298380.0 -0.2359253878 0.1590277241 0.3642899458 -0.2274373191 0.364853245 -0.2274510145 -0.2477675094 0.1619403668
275298350.0 -0.2345409995 0.1616749911 0.3617923599 -0.2313430499 0.3619803311 -0.2313808486 -0.2461429926 0.1650830455
280298320.0 -0.2331611633 0.1641867832 0.3594526297 -0.2352179699 0.3598497294 -0.235851235 -0.2444986003 0.1675740552
285298290.0 -0.2316022803 0.1667977476 0.3564909043 -0.2397111955 0.3571892377 -0.2395465198 -0.2430362888 0.1703262968
290298260.0 -0.2297319937 0.1693022466 0.3548197085 -0.2435065667 0.3545800658 -0.2436122214 -0.2411141088 0.1727778276
295298230.0 -0.2285357834 0.1716334754 0.3516760713 -0.2477694439 0.3517426814 -0.2479541807 -0.2392743493 0.1753597735
300298200.0 -0.2268339783 0.1744762474 0.3491066838 -0.2517918097 0.3489196589 -0.2517710936 -0.2375842978 0.1780623472
305298170.0 -0.2252015533 0.1766347552 0.3464188976 -0.2556104426 0.3466561812 -0.2555579332 -0.235867099 0.1803225707
310298140.0 -0.2232426242 0.1788759568 0.3433332517 -0.2595710707 0.3438222069 -0.2592787982 -0.2341256387 0.1832113291
315298110.0 -0.2220042283 0.1812536257 0.3408008996 -0.2636623936 0.3408284542 -0.263703082 -0.2322500653 0.1855539568
320298080.0 -0.2202364505 0.1839522211 0.3374830807 -0.2674996744 0.3382105718 -0.2676247702 -0.2306922304 0.1881177752
325298050.0 -0.2187762054 0.185897967 0.3343875966 -0.2710973195 0.334728113 -0.2712248253 -0.2285213569 0.1904025238
330298020.0 -0.2171810713 0.1883673404 0.3313408298 -0.2748051231 0.3318011104 -0.2749747408 -0.2269744773 0.1927910735
335297990.0 -0.2154977429 0.190958246 0.3284888782 -0.2789413212 0.328338141 -0.2784027814 -0.2251757543 0.1952844056
340297960.0 -0.2137394796 0.1932468404 0.3246543259 -0.282545496 0.3253438096 -0.2822885498 -0.2229670476 0.1979761856
345297930.0 -0.2119501698 0.195569842 0.3218403601 -0.2859137248 0.3220741171 -0.2859698095 -0.2212786688 0.2004524688
350297900.0 -0.2099420377 0.1979628839 0.3187077479 -0.2889192183 0.3191830105 -0.2890657638 -0.2195681338 0.2024508424
355297870.0 -0.2082574765 0.2001436548 0.3156473274 -0.2922883012 0.3159140748 -0.292552172 -0.2171214946 0.205422881
360297840.0 -0.2064438353 0.2026730012 0.3120860284 -0.29635358 0.312832395 -0.2964812891 -0.2152219602 0.2079706844
365297810.0 -0.2043275803 0.2052402797 0.308955137 -0.2994616056 0.3091932355 -0.2995380502 -0.213194062 0.2102037633
370297780.0 -0.2024772137 0.2071728423 0.3053925682 -0.3033161013 0.3061322823 -0.3029391031 -0.211485568 0.21279172
375297750.0 -0.200698549 0.2097456111 0.3024943528 -0.3063915524 0.3023798173 -0.3064400465 -0.2086602627 0.2151569592
380297720.0 -0.1986380473 0.2119492172 0.2993695818 -0.3100445801 0.2989396312 -0.3099234089 -0.2063828742 0.2176258954
385297690.0 -0.1965884657 0.2143312658 0.2954982377 -0.3132065237 0.2958786389 -0.3133201334 -0.2049501267 0.2197642976
390297660.0 -0.1943831674 0.2160530351 0.2921926548 -0.315888781 0.2920814962 -0.3161119163 -0.2019828472 0.2218614928
395297630.0 -0.1919069656 0.2187117706 0.2886349626 -0.3191126274 0.2889510915 -0.3190140994 -0.1998612149 0.2244196459
400297600.0 -0.1902161999 0.2209763613 0.2853125722 -0.3224272573 0.2853102839 -0.3223384986 -0.1975049175 0.2268134958
405297570.0 -0.1879175516 0.22219861 0.2815378709 -0.3252648804 0.2819120289 -0.3258888371 -0.1949341766 0.2291409633
410297540.0 -0.1855841908 0.2246275801 0.2778357025 -0.3287141312 0.278098371 -0.3285803398 -0.1929197174 0.231405937
415297510.0 -0.1836273669 0.226724408 0.2742042392 -0.331389239 0.2748596815 -0.3319188782 -0.1904338935 0.2335411274
420297480.0 -0.1813621576 0.2284317248 0.2706259101 -0.3346449022 0.270912593 -0.3348500078 -0.1878877307 0.2361845994
425297450.0 -0.1784565328 0.2307939666 0.266758783 -0.3374634929 0.2668505392 -0.3375144072 -0.1860878649 0.2374409788
430297420.0 -0.1765532769 0.2328114239 0.2636042499 -0.3407294621 0.2634211052 -0.340021744 -0.182698904 0.2398149348
435297390.0 -0.1741161942 0.2347207934 0.2594885634 -0.3437348865 0.2595111189 -0.3433695335 -0.1806968889 0.2423457529
440297360.0 -0.1712846007 0.2364098744 0.2552476496 -0.3459369758 0.2555671878 -0.3462069115 -0.1781342453 0.2439646022
445297330.0 -0.1692511335 0.2381760293 0.2515445471 -0.3487321432 0.2521217069 -0.3495039804 -0.1753969642 0.2467405225
450297300.0 -0.1667626073 0.2402259581 0.2478039597 -0.351442889 0.2484277007 -0.3516008844 -0.1728783885 0.2483631168
455297270.0 -0.1645693411 0.2419525501 0.2446150551 -0.3542964372 0.244380627 -0.3544728087 -0.1701280768 0.2502162393
460297240.0 -0.1615324589 0.2441962555 0.2402186137 -0.3572898294 0.2405519853 -0.3570859257 -0.167855209 0.2519212819
465297210.0 -0.1592051753 0.2455980229 0.2362837631 -0.3595015819 0.2360633246 -0.3597876035 -0.1648034733 0.2542090764
470297180.0 -0.1567928306 0.2478752151 0.2321790082 -0.361958801 0.23242564 -0.3622163402 -0.162321848 0.2559181803
475297150.0 -0.1541411716 0.2495159659 0.2280173698 -0.3648726706 0.2284242866 -0.3648647536 -0.1594293197 0.2579305395
480297120.0 -0.1510757332 0.2512599663 0.2241760551 -0.3671305889 0.2245294801 -0.3668483521 -0.1570556571 0.2596853488
485297090.0 -0.1488169889 0.2526447284 0.2199460114 -0.3693721292 0.2204452264 -0.3693624062 -0.1548249554 0.2616516084
490297060.0 -0.1451668728 0.2545960658 0.2158147283 -0.3721048069 0.2162862858 -0.3717333762 -0.1516134302 0.2627938894
495297030.0 -0.1429773899 0.2560682006 0.2120685773 -0.3741861992 0.2120723207 -0.3742806177 -0.148093205 0.264933147
500297000.0 -0.1405972473 0.2579197322 0.2081666918 -0.3764665698 0.2078760661 -0.3765841025 -0.1456567505 0.2668423932
505296970.0 -0.1372109853 0.2594437234 0.2039962719 -0.3789480835 0.2038991657 -0.37828431 -0.1427329859 0.2682766673
510296940.0 -0.1345914692 0.2609030908 0.1996104293 -0.3810587667 0.1998919986 -0.3813201584 -0.1400057447 0.2704308424
515296910.0 -0.1318195607 0.2627588382 0.195242245 -0.3828259805 0.1952323589 -0.3827093745 -0.1371851674 0.2713515202
520296880.0 -0.1289663564 0.2642567053 0.1912701802 -0.3851105986 0.1911935954 -0.384721665 -0.1339128775 0.2734458304
525296850.0 -0.1262773139 0.2655692347 0.1867159994 -0.3874043467 0.1867710392 -0.3870674892 -0.131519764 0.2748072525
530296820.0 -0.1233642414 0.2669836607 0.1823007116 -0.3888341851 0.1826111848 -0.3889861727 -0.1285782909 0.2761539576
535296790.0 -0.1201401078 0.2684991129 0.1785682393 -0.3908691928 0.1783263353 -0.3911849004 -0.1254730588 0.278002057
540296760.0 -0.1171167916 0.2699966769 0.1736379676 -0.392854409 0.1736535465 -0.3926333843 -0.1225522131 0.2790948252
545296730.0 -0.1146471111 0.2717426512 0.1698056787 -0.3945247123 0.1694867457 -0.3945130634 -0.1193568646 0.2806594413
550296700.0 -0.1112929447 0.2728864112 0.1652202125 -0.3967086355 0.1650264888 -0.3967757752 -0.1167182796 0.2822844459
555296670.0 -0.108407936 0.2743913447 0.1610806748 -0.3985008455 0.1611476241 -0.3982198534 -0.1137444884 0.2828543918
560296640.0 -0.1050904131 0.2755326942 0.1562382682 -0.3998204631 0.1566441856 -0.3998101435 -0.1105831786 0.2851130659
565296610.0 -0.1027483261 0.2769508467 0.152787468 -0.4017878253 0.1519056635 -0.4013357606 -0.1075813672 0.2863870703
570296580.0 -0.0993472165 0.2782108837 0.1475696677 -0.402775325 0.1474188914 -0.4032858986 -0.1045549089 0.2874450176
575296550.0 -0.0963849947 0.27901773 0.1435165752 -0.404634758 0.1432308173 -0.4048387129 -0.1015245249 0.2885730085
580296520.0 -0.0932760093 0.280822003 0.1389423355 -0.4064032553 0.1392208289 -0.4062901074 -0.0986052299 0.2896545705
585296490.0 -0.0900001096 0.2817192281 0.1348833791 -0.4075761339 0.1345237342 -0.4076732237 -0.0951384711 0.2909575374
590296460.0 -0.0866280659 0.2831994175 0.1301010334 -0.4092053896 0.1301413263 -0.4093573042 -0.09237899 0.2922525576
595296430.0 -0.083883471 0.2839288364 0.1249950809 -0.4102065935 0.1253923689 -0.4105426521 -0.0894471432 0.2930625949
600296400.0 -0.0808001811 0.2851408871 0.1208963943 -0.4115116326 0.1208579707 -0.4119094876 -0.0859006609 0.294012862
605296370.0 -0.0780879813 0.2862436071 0.1166166053 -0.4127183701 0.1164187573 -0.4131685386 -0.0828897434 0.2954670453
610296340.0 -0.0746547177 0.2876372056 0.1121768275 -0.4136556143 0.1119919299 -0.4142808685 -0.0799720889 0.2962641013
615296310.0 -0.0714011618 0.2885728103 0.1077147809 -0.415463167 0.1070925092 -0.4153974143 -0.0766738966 0.2972871181
620296280.0 -0.0686671915 0.2897645834 0.1030415321 -0.4165114201 0.1024813837 -0.4163575367 -0.0737100464 0.2985227199
625296250.0 -0.0654853063 0.2903034715 0.098569939 -0.4178450967 0.0984027099 -0.4175507043 -0.0706831855 0.2989282016
630296220.0 -0.0622660004 0.2915293534 0.0937964374 -0.4184909822 0.0935872204 -0.4185388208 -0.0672487827 0.3002069263
635296190.0 -0.0594143032 0.2925316058 0.0893945654 -0.419394305 0.0889589623 -0.4191748923 -0.0642912244 0.3009058044
640296160.0 -0.0561371864 0.2934101265 0.084729754 -0.4204133508 0.0846056108 -0.4207083574 -0.0613117704 0.3020101728
645296130.0 -0.0527633008 0.2944342675 0.0802333294 -0.4212822864 0.0800788878 -0.4209056387 -0.0580959558 0.301999371
650296100.0 -0.0498402006 0.2949493148 0.0757547681 -0.4224736498 0.0752702281 -0.422126865 -0.0546313123 0.3031892953
655296070.0 -0.0469281879 0.2958117361 0.0709239868 -0.4227366251 0.0706684557 -0.4226224062 -0.0517861872 0.3040599881
660296040.0 -0.0433308126 0.2965034133 0.0662745564 -0.4236560056 0.0662900874 -0.4236392831 -0.0483326161 0.3044081325
665296010.0 -0.0404265422 0.2975122923 0.0615576962 -0.4240233665 0.061507929 -0.4236625757 -0.0451260068 0.3050209357
670295980.0 -0.0374327157 0.29830178 0.0572876945 -0.4248793541 0.0571524284 -0.4240618521 -0.0421299166 0.305606476
675295950.0 -0.0339369581 0.2986924497 0.0522838594 -0.424932575 0.0526076123 -0.4252352174 -0.0387382734 0.3064455655
680295920.0 -0.0313592765 0.2995842939 0.048411353 -0.4256943135 0.0476924625 -0.4255180844 -0.0352673843 0.3068679492
685295890.0 -0.027696914 0.3002098022 0.0430946275 -0.4263788346 0.0434630855 -0.4261638034 -0.0325754132 0.3075785498
690295860.0 -0.0247930244 0.3005746399 0.0386670806 -0.4265758488 0.0385570036 -0.4267452041 -0.029334668 0.3080276958
695295830.0 -0.0216739497 0.3013926443 0.0346801376 -0.4271738986 0.0342661253 -0.4270915242 -0.0259163987 0.3086800915
700295800.0 -0.0183697275 0.3018251404 0.0295340158 -0.4270572773 0.0295541556 -0.4272346256 -0.022314375 0.3087647998
705295770.0 -0.0154177041 0.3019618982 0.0248343669 -0.4273815349 0.0248498749 -0.4275742542 -0.0193394199 0.3096618616
710295740.0 -0.012694965 0.3025301515 0.0205416819 -0.4277176331 0.0201896866 -0.4279526861 -0.0158672523 0.3095565345
715295710.0 -0.0093266682 0.3030099786 0.0158892489 -0.4280428694 0.0157088038 -0.4277559266 -0.0127335073 0.309789849
720295680.0 -0.0055982585 0.303157315 0.0107616411 -0.4277956646 0.0110380585 -0.4282209398 -0.0096383147 0.3099223431
725295650.0 -0.0030987353 0.3037581435 0.0069526815 -0.4276531554 0.006331875 -0.4282692819 -0.0063649263 0.3108606024
730295620.0 -0.000317341 0.3040228659 0.0020045988 -0.4278507959 0.0020158832 -0.4281032962 -0.0034605215 0.3112316999
735295590.0 0.0030027169 0.3044335127 -0.0029350287 -0.4278337257 -0.002775277 -0.4279921285 -4.88137e-05 0.3105784025
740295560.0 0.0057928376 0.3041928163 -0.0073140306 -0.4280048642 -0.007142614 -0.428338911 0.0032771299 0.3110672776
745295530.0 0.0089514228 0.3045895397 -0.0116894142 -0.427178492 -0.0111856451 -0.4275630463 0.0060645049 0.3108975808
750295500.0 0.0116458456 0.3050114997 -0.0159461599 -0.4276403718 -0.0165985817 -0.427646392 0.0097316497 0.3113726884
755295470.0 0.0152209988 0.3049088022 -0.0205897877 -0.427352916 -0.0209589413 -0.4280556318 0.0129483265 0.3116607203
760295440.0 0.0182868821 0.3055110088 -0.0260296596 -0.4270162598 -0.0257578321 -0.4268123335 0.0165715727 0.3109109699
765295410.0 0.0213239479 0.3048862475 -0.0302777863 -0.4265261905 -0.0300936742 -0.4269453236 0.0197146928 0.3112886349
770295380.0 0.0241914297 0.3053176851 -0.0344436471 -0.4260720223 -0.0347769737 -0.4267364536 0.0227381179 0.3113609287
775295350.0 0.027371337 0.3050279513 -0.0394344529 -0.4260630824 -0.0394040031 -0.4260425636 0.0259014394 0.3111885638
780295320.0 0.0305709789 0.3052953212 -0.0437729973 -0.4251502102 -0.0438903099 -0.425603288 0.0293085405 0.3111516487
785295290.0 0.0335142562 0.3047977672 -0.0484238573 -0.4247549886 -0.0483744326 -0.4251852378 0.0323511985 0.3110926238
790295260.0 0.0364700096 0.3045044468 -0.0530649122 -0.4244689762 -0.0527787071 -0.4249059528 0.035469938 0.3111352222
795295230.0 0.0394838967 0.3044095807 -0.0576365325 -0.4237922069 -0.0578852302 -0.4238880741 0.0390201153 0.310138233
800295200.0 0.0426858469 0.3042870621 -0.0618887178 -0.4228103964 -0.0620030515 -0.4235038012 0.0420484642 0.3099775623
805295170.0 0.0455098909 0.3042312588 -0.0667863352 -0.4225354747 -0.0669055851 -0.4228011677 0.0457955194 0.3098660478
810295140.0 0.0488062838 0.3040575199 -0.0713340828 -0.4213639825 -0.0715293356 -0.4216315787 0.0490307744 0.3095456191
815295110.0 0.0515005252 0.3036999794 -0.075486515 -0.4210920373 -0.075582997 -0.4208648272 0.051879631 0.3090613838
820295080.0 0.0548076439 0.3033257491 -0.0798320102 -0.419686742 -0.0801776939 -0.4201640021 0.0547226137 0.3090085211
825295050.0 0.0574896193 0.3027714663 -0.0848593216 -0.4188972413 -0.0846881878 -0.418942701 0.0584703221 0.308490484
830295020.0 0.0607188929 0.302181703 -0.089092476 -0.417928119 -0.0892769316 -0.4181887588 0.0614708402 0.3077519442
