!Created with skrf (http://scikit-rf.org).
# Hz S RI R 50.0 
!freq ReS11 ImS11 ReS21 ImS21 ReS12 ImS12 ReS22 ImS22
300000.0 -0.7770210548 -0.110525855 0.0003158122 0.0014824512 -6.12124e-05 0.001102868 -0.0445686632 -0.0630038177
5299970.0 -0.7850557656 -0.0063028196 0.0001823152 -0.0002108459 -0.0001884138 4.27078e-05 -0.0456158468 0.0154334891
10299940.0 -0.7878597554 -0.0040857591 -1.30676e-05 8.4805e-06 0.0001795072 -0.000164255 -0.0397887839 0.033717644
15299910.0 -0.7933199025 -0.0021616791 -4.02743e-05 0.0001022358 0.0001327366 -5.45912e-05 -0.0314497009 0.0484552571
20299880.0 -0.7997945079 0.0017144364 9.21241e-05 -0.0001185778 -0.0001472985 8.77336e-05 -0.0212512942 0.0599778143
25299850.0 -0.8060917884 0.0077740259 -3.73193e-05 -0.000152104 0.000113073 -0.0001122325 -0.0097580469 0.0698315317
30299820.0 -0.8125848678 0.0150002539 5.55996e-05 -4.72955e-05 -8.00062e-05 4.1553e-06 0.0020455631 0.076450614
35299790.0 -0.8176503778 0.0248858795 0.0001864652 7.807e-07 0.000142454 0.0001418645 0.0133300477 0.0815217456
40299760.0 -0.8214380236 0.0337303643 4.05587e-05 8.33417e-05 7.74507e-05 7.67624e-05 0.0246627787 0.0838894307
45299730.0 -0.82496688 0.0428803641 -0.0001771409 -7.5006e-05 3.83274e-05 -7.12845e-05 0.0354218218 0.0856174232
50299700.0 -0.8273234152 0.0530631798 -0.0001294756 0.0002007111 -1.0194e-06 4.01006e-05 0.0452536021 0.0853655764
55299670.0 -0.8296401302 0.0633805115 2.32708e-05 1.93929e-05 0.0001100064 -0.0001283836 0.0545797193 0.0844439064
60299640.0 -0.8305445591 0.0735755455 -0.0001240541 0.0001430481 8.0457e-05 5.2523e-06 0.0633236177 0.0825140584
65299610.0 -0.8311956978 0.0834002546 -5.1856e-06 7.58633e-05 -9.57481e-05 4.48918e-05 0.0703458645 0.0800885745
70299580.0 -0.8317240691 0.093386195 3.86654e-05 0.0003201952 0.000157026 -2.64999e-05 0.0775335196 0.0772232378
75299550.0 -0.8320209253 0.1042467632 7.2872e-05 -4.72883e-05 0.0001408026 1.45026e-05 0.0838437421 0.0735969065
80299520.0 -0.8319601835 0.113074054 3.42675e-05 7.92059e-05 0.0001658019 1.16765e-05 0.0894643088 0.0705885435
85299490.0 -0.8307976523 0.1225499871 -0.0001415709 0.0001614946 0.0002139503 4.38695e-05 0.0944783772 0.0667503595
90299460.0 -0.8300423312 0.1320565394 -6.43953e-05 0.0002500672 8.39e-07 6.21104e-05 0.0989150001 0.0628557886
95299430.0 -0.8294374445 0.1422113159 -0.0002191743 0.0002237812 7.2993e-05 0.000138997 0.1029587025 0.0590961778
100299400.0 -0.8282970708 0.1510164852 -9.99956e-05 3.20746e-05 -0.0001015896 -0.0001635804 0.1071953476 0.0550053905
105299370.0 -0.8272381426 0.1601155196 0.0001361609 -0.000163512 -8.84354e-05 1.00315e-05 0.1103986487 0.0511911249
110299340.0 -0.8251154421 0.1691305971 0.0001163079 0.000146781 -6.97856e-05 -0.0001243037 0.113170151 0.046817997
115299310.0 -0.823650672 0.1783983475 9.09401e-05 1.18937e-05 -4.989e-06 0.0001126203 0.1157694057 0.0433291169
120299280.0 -0.8222190349 0.1866249881 0.0002119602 -8.30861e-05 3.22183e-05 -4.3426e-05 0.117930283 0.0395860228
125299250.0 -0.8203366463 0.1961282552 7.72455e-05 -0.0001413397 4.92791e-05 3.40449e-05 0.120033939 0.0353722711
130299220.0 -0.8190005608 0.2051785711 9.23012e-05 -9.44524e-05 2.7316e-05 1.32897e-05 0.1221520119 0.0318046686
135299190.0 -0.8167487338 0.2139703114 -0.0001857951 0.0002412609 1.5864e-06 0.000189342 0.123587815 0.0284463941
140299160.0 -0.8147149514 0.2233807974 0.0001820089 0.0001604338 -0.0001202515 0.0001378021 0.1249821877 0.0251691574
145299130.0 -0.8125667499 0.2324588743 -3.10628e-05 0.0001238437 0.0001238851 8.04946e-05 0.1259883112 0.0216679483
150299100.0 -0.8101729924 0.2407732575 -2.44661e-05 3.21965e-05 -1.93556e-05 0.0001553444 0.1271945952 0.0185003779
155299070.0 -0.807574526 0.2493862278 0.0002509474 -0.000120969 0.0003069416 -8.85057e-05 0.1278817471 0.0154911459
160299040.0 -0.8053014353 0.2577636393 7.39297e-05 0.0002012296 0.000147186 7.54671e-05 0.1284238118 0.0123280477
165299010.0 -0.802863881 0.2668021229 -5.41471e-05 0.0001731234 2.3506e-06 0.0002532047 0.1289596453 0.0092496725
170298980.0 -0.7997435782 0.2752792534 0.0001557891 0.0001300115 -4.20789e-05 1.85134e-05 0.1297630975 0.0064772605
175298950.0 -0.7971206055 0.2842896986 0.0002100053 -6.5358e-06 0.0001461962 0.0001542268 0.1297308881 0.0035516698
180298920.0 -0.7945472161 0.2928475819 -3.65525e-05 6.58976e-05 2.88503e-05 0.0001318038 0.1298774184 0.0004257169
185298890.0 -0.7906922426 0.3008558097 6.60047e-05 0.0001055062 6.60973e-05 7.47246e-05 0.1300305357 -0.0020993166
190298860.0 -0.7886181034 0.309746405 8.89256e-05 4.65555e-05 3.484e-06 2.28522e-05 0.1305280054 -0.0047853792
195298830.0 -0.7848726583 0.3181288402 3.64694e-05 0.0002505208 0.0001913534 2.98351e-05 0.1302399072 -0.0074768787
200298800.0 -0.7814131739 0.3261481953 -0.0001271484 0.0003146216 0.0001584679 9.20479e-05 0.1300213935 -0.0101826973
205298770.0 -0.7782355832 0.3344905899 0.000113079 -2.56536e-05 0.0002137203 5.8298e-06 0.1298367964 -0.0129687686
210298740.0 -0.7746564743 0.3416778668 1.7554e-06 -3.07996e-05 0.0002322799 0.0002305491 0.1296639405 -0.0150704655
215298710.0 -0.7717546437 0.3509915947 5.6658e-05 -0.0001991475 0.0002611899 0.0001069332 0.1290732055 -0.0177302801
220298680.0 -0.7676797894 0.3586265924 -0.0001167719 0.0002228094 0.0001085398 0.0001108613 0.1284223032 -0.0200997923
225298650.0 -0.7642739844 0.3660482294 -4.23157e-05 5.28294e-05 0.0002500366 4.07705e-05 0.1278287412 -0.0226555315
230298620.0 -0.7608235366 0.3749695504 8.53971e-05 0.0001253961 2.77798e-05 0.0001375648 0.1275670036 -0.0248578515
235298590.0 -0.7557419108 0.3828073803 -2.57702e-05 -0.0001125076 -2.92427e-05 0.0002224524 0.1269179731 -0.0270272512
240298560.0 -0.7521131115 0.391339439 8.8489e-05 0.0001766528 -8.80907e-05 4.9728e-06 0.1264766331 -0.0296828887
245298530.0 -0.7487481489 0.3990551452 -0.0002589949 0.0003171698 0.0002821227 0.0002033612 0.125743094 -0.0318847537
250298500.0 -0.7440927719 0.4065158544 -9.79077e-05 0.000213574 3.50425e-05 9.06941e-05 0.1253322877 -0.033894513
255298470.0 -0.7397704892 0.4139903787 0.0002085163 9.33347e-05 0.0001476057 -0.0002252752 0.1246398931 -0.0365691048
260298440.0 -0.735641902 0.4217848543 -6.15e-08 0.0001131829 9.2765e-06 -0.000105749 0.1240259182 -0.0383032315
265298410.0 -0.7312692026 0.4297126155 0.0001734388 0.0001938223 0.0001553261 0.0001446912 0.1234250732 -0.0403964467
270298380.0 -0.7271332075 0.4373832742 7.19914e-05 -0.0001095726 0.0002367946 0.0001075587 0.1224920227 -0.0424113839
275298350.0 -0.7222841352 0.4445948539 0.0002465272 0.0001462248 0.0001828527 0.0001411579 0.1222102964 -0.0443331579
280298320.0 -0.7171695096 0.4524345977 -6.13753e-05 8.60805e-05 0.0001491637 4.16647e-05 0.1214569702 -0.0468382147
285298290.0 -0.7128999862 0.4603750005 0.0002896326 1.6574e-05 7.18617e-05 0.000288736 0.1204764816 -0.0480210647
290298260.0 -0.7079238356 0.4674815955 7.5845e-05 0.000136645 0.0001314573 0.0001860037 0.1201361401 -0.0497092639
295298230.0 -0.7022052251 0.4744668934 8.88969e-05 0.0001309113 6.5028e-05 3.11432e-05 0.1194149092 -0.0521020919
300298200.0 -0.6976331874 0.4815369078 0.0002496524 9.38036e-05 0.0001811536 0.0002831717 0.1183838328 -0.0537696547
305298170.0 -0.6926352148 0.4882310827 0.0001830185 -3.35625e-05 8.85115e-05 0.0001833803 0.1182666307 -0.055851532
310298140.0 -0.687301532 0.4965298783 3.31176e-05 -2.60178e-05 8.05653e-05 6.98067e-05 0.1169569201 -0.057582277
315298110.0 -0.6830011742 0.5031159012 2.22107e-05 -5.33614e-05 8.86103e-05 0.0001986668 0.1161281364 -0.0593085841
320298080.0 -0.6771794032 0.5100084145 0.0001954249 0.0002018396 0.000316015 5.57159e-05 0.1152123581 -0.0613123087
325298050.0 -0.6716213868 0.5170004051 0.0001229683 0.000238566 6.5455e-06 6.47883e-05 0.113607189 -0.0631099772
330298020.0 -0.6665162665 0.5238885703 0.0001138069 0.0003903109 0.0001580207 0.0002009729 0.1122645728 -0.0643447679
335297990.0 -0.6608548354 0.5304029134 0.0001972395 0.000150938 8.96244e-05 3.04978e-05 0.1109355908 -0.0652900104
340297960.0 -0.6556568634 0.5380279508 0.000110421 0.0002356813 0.000100688 9.53489e-05 0.1103132433 -0.0671561823
345297930.0 -0.6502352378 0.5445982701 0.0001178605 9.62708e-05 0.0001354831 5.41052e-05 0.1086976097 -0.0685682373
350297900.0 -0.644876215 0.5512028427 -0.0001167371 0.0002186675 5.82343e-05 5.09899e-05 0.107574472 -0.0691894693
355297870.0 -0.6379247118 0.5582494574 1.9178e-05 0.0003966936 0.0001918675 0.0001465536 0.1065155071 -0.0710152124
360297840.0 -0.6324363577 0.5638644566 0.0002553391 0.0002739434 8.13582e-05 1.58486e-05 0.1053417283 -0.0720246909
365297810.0 -0.6272880356 0.5699703331 0.0002065052 3.72345e-05 0.0002362099 0.0001127706 0.1044944019 -0.073389472
370297780.0 -0.6211732452 0.5767722008 0.0003540024 -3.05847e-05 0.0001520574 5.58919e-05 0.1030739214 -0.074512816
375297750.0 -0.6147211132 0.5827917769 0.0001789289 0.0002525159 0.0001234454 0.0001859108 0.1015935384 -0.075884523
380297720.0 -0.6083914899 0.5891953151 3.67982e-05 7.338e-05 0.0003468649 0.0001416058 0.1001185938 -0.0767176399
385297690.0 -0.6034976155 0.5950536394 0.0001974818 0.0001967721 -2.84814e-05 9.96755e-05 0.0993448837 -0.0784008054
390297660.0 -0.5971886082 0.6013286231 0.0004155004 3.51308e-05 0.0002311615 -1.02545e-05 0.0976234564 -0.0794866227
395297630.0 -0.590388297 0.6085058408 6.40332e-05 0.0001557145 0.0002358094 0.0002924614 0.0968396893 -0.0803394712
400297600.0 -0.58396307 0.6140398507 -6.09807e-05 0.0002167255 0.0001647266 0.0001856462 0.0957931909 -0.0815888481
405297570.0 -0.5784258758 0.619432172 9.33501e-05 0.0001191991 6.56609e-05 2.3493e-06 0.0941148374 -0.0829841707
410297540.0 -0.5708418065 0.6251767385 8.33588e-05 0.000271271 0.0002498858 0.0001589039 0.0928743589 -0.0837107891
415297510.0 -0.5648759164 0.6310269537 0.0001491183 -0.0001643421 6.744e-05 -0.0002195243 0.0914395809 -0.0855318576
420297480.0 -0.5591702798 0.6370703471 0.0002769507 3.3236e-06 0.0002043568 0.0001159719 0.0903008654 -0.0863703662
425297450.0 -0.5515572742 0.642386557 0.0004546712 -6.67719e-05 0.0001357593 0.0002002873 0.0891949733 -0.0875178012
430297420.0 -0.5456689745 0.6486490514 -0.0001114834 0.0001959784 0.0001466962 0.0002931532 0.0876676479 -0.0886527761
435297390.0 -0.538459269 0.6531999071 2.69557e-05 0.0003799344 0.0003335596 0.000216532 0.0866261377 -0.0897526524
440297360.0 -0.5316828127 0.6589684219 0.0001917204 0.00019618 0.0003346448 0.0003498226 0.0851885735 -0.0906192885
445297330.0 -0.5246862897 0.6643434088 0.0002418668 -0.0002208911 0.000182572 2.4562e-06 0.0840593685 -0.0923201801
450297300.0 -0.5181410539 0.669480006 8.37958e-05 -4.1759e-06 0.000173359 0.0001364489 0.0830405657 -0.0927085055
455297270.0 -0.5113405353 0.6742111712 0.0002157812 0.0001421857 0.0003932985 3.58494e-05 0.0813895925 -0.0938862369
460297240.0 -0.504886046 0.6798135569 0.0004603133 8.05947e-05 9.27727e-05 0.0001677967 0.0800899865 -0.0944055338
465297210.0 -0.497844064 0.6851038733 0.0001532683 0.0001685405 1.7575e-05 7.14776e-05 0.078807404 -0.0956421464
470297180.0 -0.4898082776 0.6893595551 0.0001493882 -6.83681e-05 0.0001708128 8.16063e-05 0.0774494794 -0.0959389302
475297150.0 -0.4834752471 0.694640914 0.0001944753 6.6626e-05 0.0002692956 0.0001921838 0.0762410771 -0.0975149452
480297120.0 -0.4768748768 0.6991846686 0.0002225156 -6.9069e-06 9.53212e-05 0.0002005349 0.0753600768 -0.0978763864
485297090.0 -0.4689836459 0.7038983972 0.0003617297 0.000171581 0.0001665096 4.9191e-06 0.073980972 -0.0987367684
490297060.0 -0.4619063474 0.7082252446 0.0001557869 4.26711e-05 0.0001799498 0.0001500086 0.0728021861 -0.099781257
495297030.0 -0.455509345 0.712953375 0.0005223519 -3.14034e-05 0.0003298954 6.4327e-05 0.0712748721 -0.1001459141
500297000.0 -0.447474121 0.7181562969 0.0004724287 4.84582e-05 0.0001889018 6.4368e-06 0.0698995803 -0.1005936522
505296970.0 -0.4401014987 0.72254103 0.0001677895 8.30029e-05 0.0001243126 -1.86115e-05 0.0685107041 -0.1014369424
510296940.0 -0.4322656019 0.7265482519 0.0003873177 8.38577e-05 0.0003951077 0.0003404857 0.0671731344 -0.1019933419
515296910.0 -0.4246625438 0.730268928 0.0004747458 0.0001400763 0.000177246 -0.0001564065 0.0657847982 -0.1026221561
520296880.0 -0.4183645864 0.7353911995 0.0004534603 -0.0001562383 0.0001505619 0.0001042078 0.064279401 -0.1029893131
525296850.0 -0.4102973272 0.7389306792 -0.0001542866 0.000133983 0.0004744896 -0.0002375845 0.0629639695 -0.1031876252
530296820.0 -0.4032533085 0.7435894117 0.0002894043 0.0001719061 0.0004227502 0.0001130045 0.0616260783 -0.1039385411
535296790.0 -0.3954779423 0.7472625264 0.0001750945 6.01171e-05 0.0002197773 -2.81143e-05 0.0596354324 -0.1047518117
540296760.0 -0.3879951105 0.7508679691 0.0003584442 -0.0001172008 0.0002106507 -4.28326e-05 0.0585652003 -0.1055110857
545296730.0 -0.3807154053 0.7549068331 2.93713e-05 -2.80253e-05 0.0002276927 0.0002123657 0.0567912754 -0.1061037515
550296700.0 -0.373402133 0.7591306124 0.00024436 -7.4058e-06 0.0003292342 0.0001549575 0.0556393198 -0.1066526248
555296670.0 -0.364657948 0.7619065036 0.00037511 -2.73575e-05 0.0001615752 0.0001398886 0.053931715 -0.1068093289
560296640.0 -0.3573463652 0.7667799721 0.0002054624 0.0001009702 0.0002228427 0.0002346162 0.052624794 -0.1070883491
565296610.0 -0.3496519454 0.7701613664 0.0002005696 5.01234e-05 0.0002374879 2.15228e-05 0.0510535195 -0.1079258099
570296580.0 -0.3426685979 0.7717816816 0.0002530334 -4.73683e-05 0.000194942 9.22801e-05 0.0495361479 -0.108237092
575296550.0 -0.3346394781 0.7770314686 0.0003120108 -0.000169213 0.0001469107 9.70696e-05 0.0479753451 -0.1085702652
580296520.0 -0.3262071688 0.7791948016 0.0003188155 1.60879e-05 0.0002185264 -2.9427e-05 0.0465354666 -0.109426867
585296490.0 -0.3185567176 0.7827813356 0.0002973787 -8.8223e-06 0.000332847 0.0001004442 0.0453309001 -0.1096656313
590296460.0 -0.3104751451 0.7856472742 0.0003411892 0.000262011 0.0002785653 4.21922e-05 0.0432399123 -0.1095490224
595296430.0 -0.3024634559 0.7881250732 0.0004227581 -5.67372e-05 0.0002596951 6.94275e-05 0.0421653471 -0.1106517183
600296400.0 -0.2948373849 0.7921843583 0.0001694034 8.95108e-05 0.0004113594 2.06219e-05 0.0405469862 -0.1109284432
605296370.0 -0.2878001788 0.7949535134 0.0003761284 5.1773e-06 0.0003786419 -0.000105729 0.0392363818 -0.1112858325
610296340.0 -0.2790663969 0.7972382577 0.0004154539 4.26996e-05 0.0005806113 -6.90102e-05 0.0378406389 -0.1113340046
615296310.0 -0.270268404 0.8000622421 9.92787e-05 -0.0001881061 0.0002781167 -0.0002018575 0.0365190277 -0.1119230447
620296280.0 -0.2628741856 0.8025941724 0.000511525 7.70032e-05 0.0003532288 -3.96824e-05 0.0351952303 -0.1122035154
625296250.0 -0.2544731849 0.805429208 0.0003919332 2.30692e-05 0.0002538271 -0.000189406 0.0338269085 -0.1127664565
630296220.0 -0.2464294195 0.8078200301 0.0005009286 -7.01534e-05 0.0001644286 -9.79713e-05 0.0322065356 -0.1127233341
635296190.0 -0.2388781433 0.8101038812 0.0002936547 9.76906e-05 0.0003449469 -8.8846e-05 0.0309661362 -0.1127227376
640296160.0 -0.2310647712 0.8118061491 0.0005464856 0.0001105972 0.0005430487 -5.85174e-05 0.0294220829 -0.1131649723
645296130.0 -0.2225981636 0.8148341793 0.0003850416 -2.4671e-06 0.0002810293 3.2027e-06 0.0280266553 -0.1132300477
650296100.0 -0.2142064013 0.8168642533 0.0001981881 -2.64811e-05 0.0004071032 6.545e-05 0.0268509733 -0.1135701711
655296070.0 -0.2056796032 0.8187690524 0.0003891367 -0.0001813221 0.0002299268 -4.68282e-05 0.0253878305 -0.1132734681
660296040.0 -0.1975403998 0.8205867999 0.0002978455 -0.0001614356 0.0003234152 -9.56799e-05 0.0238271814 -0.1137257264
665296010.0 -0.1897045711 0.8221664951 0.000215922 7.39097e-05 0.0004664001 2.22865e-05 0.0225442095 -0.113347545
670295980.0 -0.1821473738 0.8241589182 0.0004956396 9.31838e-05 0.0002455006 0.0001071657 0.021109677 -0.1135101807
675295950.0 -0.1732773511 0.8263439092 0.0005710149 -9.00274e-05 0.0003043689 2.97018e-05 0.0193942256 -0.1132761824
680295920.0 -0.164475648 0.827880826 0.0003955729 -6.39918e-05 0.0002761871 3.34807e-05 0.0187059289 -0.1130133964
685295890.0 -0.1564312213 0.8301286352 0.0004540474 6.14222e-05 0.0003098979 -0.000133072 0.0168646725 -0.1131590555
690295860.0 -0.14882409 0.8309445913 0.0003315896 -0.0001125708 0.0003831715 -0.000153542 0.0151321815 -0.1127877835
695295830.0 -0.1407054642 0.8319542145 0.0003233092 0.0001310227 0.0004842993 -0.0001625876 0.0139837328 -0.1128197312
700295800.0 -0.1316503037 0.8340488183 0.0001978753 0.0001080005 0.0004290335 5.06288e-05 0.0122787625 -0.1127727018
705295770.0 -0.1241416711 0.835402143 0.0003655114 0.0002828154 0.0003395076 7.49442e-05 0.011200311 -0.1121734381
710295740.0 -0.1154632117 0.8365065448 0.0003986989 -0.0001272835 0.0002466762 -0.0001136311 0.0092318554 -0.1123523028
715295710.0 -0.1072929669 0.8374873343 0.0002762179 -0.0001648879 0.0002362817 9.2095e-06 0.0077483841 -0.1123087998
720295680.0 -0.0988988379 0.8392706386 0.0003344766 -0.0001628208 0.000316934 -0.0001166441 0.0065129935 -0.1120356744
725295650.0 -0.0908552851 0.8397103178 0.0004447547 -4.20501e-05 0.0003149949 -7.40542e-05 0.004835422 -0.1115540015
730295620.0 -0.0822433659 0.8405288998 0.0002422792 -0.000240645 0.0004090733 1.40182e-05 0.0031298165 -0.1116236845
735295590.0 -0.0740669107 0.841402613 0.0003922031 3.61962e-05 0.000298281 5.20315e-05 0.0016923985 -0.1118935464
740295560.0 -0.0654248424 0.8420842337 0.0005873055 -3.359e-05 0.0003772202 -0.0002903801 0.0002307775 -0.1114747084
745295530.0 -0.0575849867 0.8429593655 0.0003636512 -0.0001672316 0.0004170491 0.0001115919 -0.0011266563 -0.1112642155
750295500.0 -0.0487774784 0.8428810446 0.0002326873 -0.0001309166 0.0005191706 -4.35743e-05 -0.0022991449 -0.1109024372
755295470.0 -0.0405041109 0.8430325296 0.0004350334 -0.0001448774 0.0004740708 -0.0003056741 -0.0038321447 -0.1110540625
760295440.0 -0.0323590161 0.8429125537 0.0002353341 -0.0002004323 0.0003719095 6.33428e-05 -0.0053355536 -0.1107178724
765295410.0 -0.0238182583 0.8444056892 0.0003607781 -9.50155e-05 0.0004162814 -6.75665e-05 -0.0063685294 -0.110833514
770295380.0 -0.0159629396 0.8442565072 0.0001815858 -1.2043e-06 0.0003568715 -0.0001125708 -0.0081872998 -0.1104402108
775295350.0 -0.0076891303 0.8440654967 0.0004455423 0.0001177696 0.0002514539 -0.0001116744 -0.0097756198 -0.1098378863
780295320.0 0.0015390974 0.844552744 0.0001732336 6.0368e-06 0.0003228246 3.34648e-05 -0.0106737118 -0.1098147411
785295290.0 0.0090549474 0.8432498989 0.0002090113 3.89557e-05 0.0003966245 -0.0002498399 -0.0118269471 -0.1093309826
790295260.0 0.0181805554 0.8440425381 0.0004326236 -1.62768e-05 0.0002829942 0.0001749341 -0.0131357293 -0.1086757669
795295230.0 0.0255164457 0.8434857045 0.0005599125 -0.0001989812 0.0005913291 -9.91037e-05 -0.0146872206 -0.1088419824
800295200.0 0.0343762512 0.8431708622 0.0004187844 -0.0003037535 0.0003539045 -0.0002159103 -0.0162190554 -0.1079700712
805295170.0 0.0428542001 0.8432591424 0.0005482166 -8.72645e-05 0.0002794455 -0.0002029268 -0.0176769401 -0.1078636312
810295140.0 0.0510249653 0.842646345 0.0005481337 0.0001386345 0.0004286244 3.64162e-05 -0.0183384231 -0.1076778613
815295110.0 0.0592592894 0.841490559 0.0003231748 -9.60355e-05 0.0004154377 4.0041e-06 -0.0199208126 -0.1067309793
820295080.0 0.0673621691 0.8414237879 0.0001678757 -9.05467e-05 0.0002759458 -3.61792e-05 -0.0211933609 -0.1066105527
825295050.0 0.0766169359 0.8405633469 0.0004086038 -0.000117796 0.0004518406 -9.65666e-05 -0.022224162 -0.1058468592
830295020.0 0.0841387361 0.8397443823 0.0005273396 -1.16073e-05 0.0004415914 -0.0001271661 -0.0236147989 -0.1053634024
835294990.0 0.0918905709 0.839001393 0.0004403981 -0.0002646223 0.0005204633 7.11994e-05 -0.024835739 -0.1047250932
840294960.0 0.0999682895 0.8383606168 0.0003530171 4.66426e-05 0.0003574718 -1.19787e-05 -0.0260976369 -0.1040395764
845294930.0 0.1089621209 0.8370146955 0.0001720884 -0.0003226368 0.0003989394 -7.01833e-05 -0.0274669503 -0.1038366177
850294900.0 0.1168185849 0.8357143692 0.0003249435 0.0001195554 0.0005622482 -0.0001797638 -0.0288219783 -0.1025185814
