!Created with skrf (http://scikit-rf.org).
# Hz S RI R 50.0 
!freq ReS11 ImS11 ReS21 ImS21 ReS12 ImS12 ReS22 ImS22
300000.0 -0.2314884892 -0.1354608723 0.4652968208 0.0883963733 0.4656350776 0.0872183491 -0.2343929209 -0.1334242732
5299970.0 -0.2417609183 0.0049422078 0.4749276374 0.006202142 0.4753651787 0.005795899 -0.2440610516 0.0047641317
10299940.0 -0.2388978212 0.0185854394 0.4774650358 0.0070052253 0.4771916346 0.0071714423 -0.2408607554 0.0172758465
15299910.0 -0.2337610582 0.0285722503 0.4805302615 0.0081900417 0.4808101488 0.0079740135 -0.2366970938 0.0262072115
20299880.0 -0.2285628778 0.0367582843 0.4854378067 0.0083665855 0.4857772311 0.0084100723 -0.2319235551 0.0337400219
25299850.0 -0.2226095933 0.0433453244 0.490443967 0.0077055297 0.4909407814 0.0072493132 -0.2267160413 0.0401054525
30299820.0 -0.2172781764 0.0486686086 0.4959359898 0.0050540261 0.4961034926 0.005051888 -0.2214677681 0.0449446165
35299790.0 -0.211167485 0.0529403395 0.5008791593 0.0020708215 0.5015205175 0.0018112468 -0.2164973319 0.0491008591
40299760.0 -0.2060453449 0.0559742057 0.5061552109 -0.0023179269 0.5065199218 -0.0022053815 -0.2116530517 0.0520847025
45299730.0 -0.2013965049 0.0587948645 0.5111089264 -0.0067572306 0.5113163477 -0.0069726373 -0.2067911506 0.0550234675
50299700.0 -0.1962544317 0.0607369751 0.5152740879 -0.0126964214 0.5156212099 -0.0126034176 -0.2022389048 0.0570439979
55299670.0 -0.1918151641 0.0625120281 0.5189017804 -0.0185897679 0.5187355601 -0.0184788008 -0.1988500322 0.0588039202
60299640.0 -0.1876578888 0.0640804564 0.5223015352 -0.0247380042 0.5225884281 -0.0246833803 -0.1949657634 0.0598359309
65299610.0 -0.1839182859 0.0651017581 0.5253410807 -0.03073385 0.5254223915 -0.0311434567 -0.1916188324 0.0609626291
70299580.0 -0.1807791062 0.0656425126 0.527281471 -0.0373953198 0.5277491791 -0.0377574812 -0.1890218392 0.0617450186
75299550.0 -0.1779046947 0.0666762322 0.5294642831 -0.0442734826 0.5297006958 -0.0446854955 -0.1859166271 0.0626621933
80299520.0 -0.1750865908 0.0679025104 0.5313605168 -0.0517399429 0.5315997947 -0.0517251282 -0.1833804289 0.0636876797
85299490.0 -0.1724162311 0.0683445335 0.532868744 -0.0581654438 0.5329243056 -0.0580684711 -0.1814696986 0.0640416896
90299460.0 -0.1701377165 0.0690728802 0.5333315244 -0.0652596198 0.5334635545 -0.065129126 -0.1789409023 0.0649979724
95299430.0 -0.167982678 0.0693823753 0.5344806863 -0.0718185747 0.5345322136 -0.0722179798 -0.1773285074 0.0658166096
100299400.0 -0.165789884 0.0704053487 0.5347281257 -0.0788452992 0.5347255776 -0.0792090846 -0.1755666284 0.0666537807
105299370.0 -0.1640987826 0.0709083234 0.5352130163 -0.0855949474 0.5355607016 -0.0856235909 -0.1734927417 0.0669459238
110299340.0 -0.162208068 0.0715099121 0.5352597973 -0.0921086407 0.5361768515 -0.0924038605 -0.1725013299 0.0674684938
115299310.0 -0.1606917924 0.0725504241 0.5353316463 -0.0992009863 0.5353153428 -0.09935938 -0.1712789514 0.0685628529
120299280.0 -0.1594424273 0.0733632778 0.5355839614 -0.1062271671 0.5353358549 -0.1063336109 -0.1698267697 0.068718329
125299250.0 -0.1578437939 0.0740059556 0.5348583495 -0.1125984406 0.5348640285 -0.1126388101 -0.1687776427 0.0697865638
130299220.0 -0.1563759238 0.0746053975 0.5342855315 -0.1199124936 0.5342209806 -0.1200195406 -0.1674470467 0.0706697444
135299190.0 -0.1554565417 0.0759827505 0.5334120541 -0.1262719841 0.5340304404 -0.1264836316 -0.1664067803 0.0712887714
140299160.0 -0.1542047241 0.0769559447 0.5333624773 -0.1327348583 0.5328179357 -0.1327127234 -0.1661682367 0.0718337727
145299130.0 -0.1534006187 0.0777940018 0.5317512888 -0.1397642379 0.5321235734 -0.1393657473 -0.1647255012 0.0729457477
150299100.0 -0.1521617134 0.0789028391 0.5306447303 -0.1462480187 0.5303716122 -0.146119225 -0.1639892617 0.0741088145
155299070.0 -0.1506940885 0.0798375353 0.5289767534 -0.1526066842 0.529763162 -0.1525713482 -0.1628148219 0.0750957035
160299040.0 -0.1498853803 0.081073373 0.5281925274 -0.1591640772 0.5277456691 -0.1592953658 -0.1623400996 0.076093794
165299010.0 -0.1487687118 0.0821970791 0.5268721486 -0.164887308 0.5266576209 -0.1655176491 -0.1610402432 0.0768577
170298980.0 -0.1477084894 0.0833519895 0.5246653792 -0.1714670165 0.5252992787 -0.1721506202 -0.1609062989 0.0778207743
175298950.0 -0.1468001305 0.0845965815 0.5238888608 -0.1776904289 0.5237465216 -0.1783515708 -0.1599964618 0.0790594059
180298920.0 -0.1461144183 0.0860738562 0.5218741516 -0.1844967315 0.5218588125 -0.1846409756 -0.1593272646 0.0801742982
185298890.0 -0.1450304017 0.0872309534 0.5202028866 -0.1905748213 0.5199220752 -0.1903211303 -0.1580768924 0.0811754221
190298860.0 -0.1437773251 0.0887508804 0.5176230367 -0.1969946216 0.5181186167 -0.1964159316 -0.1579192137 0.0822527125
195298830.0 -0.1427818245 0.0899394233 0.5163203213 -0.2024197202 0.5163467205 -0.2026606069 -0.1571956315 0.0836685978
200298800.0 -0.1417000433 0.0912101343 0.5143070402 -0.2093302033 0.5141684455 -0.2091746374 -0.156030877 0.084832576
205298770.0 -0.1414658717 0.092315022 0.5116311476 -0.2143574016 0.5116187485 -0.2147313223 -0.1553236806 0.0859815985
210298740.0 -0.1401343432 0.0940539166 0.5098217949 -0.2210179343 0.5092832737 -0.2210298845 -0.1548785493 0.0871170205
215298710.0 -0.139175272 0.0954467237 0.506738778 -0.2266762479 0.5069592726 -0.2271502741 -0.1537840108 0.0884170166
220298680.0 -0.1385175142 0.0969003116 0.5047393049 -0.2326957449 0.5045021778 -0.2329863539 -0.153488117 0.0895154385
225298650.0 -0.1373255436 0.0982356015 0.5022134723 -0.2380957582 0.5022527703 -0.2380513951 -0.1525041776 0.0908176094
230298620.0 -0.1360016233 0.0998168201 0.4996965629 -0.2443654041 0.4999393069 -0.2443235244 -0.1519254494 0.0920797121
235298590.0 -0.1352962122 0.1011737 0.4975038522 -0.2503162446 0.4971136793 -0.2501771661 -0.1508384383 0.0933532864
240298560.0 -0.1343492261 0.1027805486 0.4945206382 -0.255576685 0.4946922637 -0.2557606893 -0.1502082173 0.0946023585
245298530.0 -0.1333033193 0.1037735483 0.4914195583 -0.2615275756 0.4915914136 -0.261698602 -0.1494933395 0.0961716259
250298500.0 -0.13231009 0.1053135283 0.4887182803 -0.2670545335 0.4886566629 -0.2671501999 -0.1489589582 0.0976256187
255298470.0 -0.1309829272 0.1072245823 0.4858728341 -0.2725039356 0.4866808032 -0.2728588439 -0.1478932452 0.0985948269
260298440.0 -0.1300938922 0.1084699244 0.4830781156 -0.2778496538 0.4830820588 -0.2783865244 -0.1469957704 0.1000036487
265298410.0 -0.1293612489 0.1098925601 0.4799116537 -0.2840027176 0.4799290054 -0.2841625916 -0.1455047358 0.1011573922
270298380.0 -0.1282602093 0.111371921 0.4770987064 -0.2894189098 0.4768446767 -0.2889381434 -0.1448404033 0.1026752705
275298350.0 -0.1268058016 0.11319682 0.4732716163 -0.2942856654 0.4737511066 -0.2944834344 -0.14443268 0.1039934281
280298320.0 -0.1262779235 0.1142540029 0.4704237663 -0.2993277328 0.4710599172 -0.2998799236 -0.1433652409 0.1057247478
285298290.0 -0.1251264272 0.1157385914 0.4675794956 -0.3049145953 0.4677467331 -0.3050641856 -0.1423714997 0.1069853149
290298260.0 -0.1237335125 0.1174705729 0.4644900205 -0.3102408965 0.4643679901 -0.3105592174 -0.1416234629 0.1082564472
295298230.0 -0.1225466804 0.1183018882 0.4607285219 -0.3158822933 0.460944114 -0.3159886089 -0.1406006069 0.1093195772
300298200.0 -0.1211471383 0.1202287146 0.4572563092 -0.3210342208 0.4573259272 -0.3212611843 -0.1394298485 0.1110961036
305298170.0 -0.1201891842 0.1214732912 0.45407887 -0.3261609089 0.4543201383 -0.3265629781 -0.1381698791 0.1117779838
310298140.0 -0.1184800489 0.1227242629 0.4505433331 -0.3311378035 0.4508354033 -0.3311835581 -0.1373484752 0.1132756097
315298110.0 -0.1178875746 0.1236186545 0.4475050995 -0.3366047586 0.4472602367 -0.3368493892 -0.136109104 0.1142454077
320298080.0 -0.116306761 0.1251900503 0.4426340048 -0.3422000901 0.443481097 -0.3422091645 -0.135467699 0.115901656
325298050.0 -0.1156359535 0.1260168853 0.4393301417 -0.3467730085 0.4400030604 -0.3470417561 -0.1344919041 0.1168637895
330298020.0 -0.1148937416 0.1277275199 0.4352818896 -0.3516642947 0.4357729121 -0.3518375078 -0.1338206368 0.1180710247
335297990.0 -0.1133510975 0.1290723724 0.4313481832 -0.3564002095 0.4319313569 -0.3566982664 -0.1330297669 0.1195114163
340297960.0 -0.1124900911 0.130151554 0.4271697558 -0.3615882916 0.4272993661 -0.3614312146 -0.1320310955 0.1209481269
345297930.0 -0.1115522991 0.1317458901 0.423647582 -0.3666126192 0.4230405487 -0.3661658605 -0.1307720024 0.1219450676
350297900.0 -0.1101383188 0.1327993413 0.4195295032 -0.3704073192 0.4195147334 -0.3707293493 -0.1299682449 0.1233359532
355297870.0 -0.1089760065 0.1342665896 0.4151449201 -0.3750315291 0.4151803641 -0.3748390438 -0.1287865929 0.1250306395
360297840.0 -0.1074148793 0.135931461 0.4106684448 -0.3798414593 0.4110399193 -0.3800198856 -0.1278224398 0.126440425
365297810.0 -0.1064138044 0.1369749382 0.4067364596 -0.3841130152 0.4066805302 -0.384341073 -0.1271907061 0.1273411978
370297780.0 -0.1045394833 0.1385230808 0.402261336 -0.3886745278 0.4027825402 -0.3889495017 -0.1257591789 0.1289870149
375297750.0 -0.1035951745 0.1396945284 0.3981303297 -0.3929810459 0.3985776373 -0.3933404095 -0.1243089893 0.1303945224
380297720.0 -0.1021666375 0.1412063803 0.3943185447 -0.3975060752 0.3938411481 -0.3976204126 -0.1230449916 0.1320082428
385297690.0 -0.1008880264 0.1423520065 0.3894396471 -0.4021436896 0.3896274246 -0.4022612017 -0.1218974545 0.133263874
390297660.0 -0.099100324 0.1432457695 0.3847791393 -0.4057757826 0.3851452259 -0.4061109204 -0.1204392677 0.1343971337
395297630.0 -0.097420762 0.1444775702 0.3807140766 -0.4096280464 0.380275677 -0.4103788037 -0.1192726246 0.1355698701
400297600.0 -0.0963410368 0.1457556395 0.3760393389 -0.4144712889 0.3763689196 -0.414586064 -0.118073718 0.1372920514
405297570.0 -0.0950044836 0.146555401 0.3718156849 -0.4181118512 0.371670649 -0.4187705199 -0.1167261369 0.138641597
410297540.0 -0.0931748849 0.1483792008 0.3669776945 -0.4225960719 0.3673635342 -0.4224417649 -0.1156554023 0.1398561257
415297510.0 -0.0919969661 0.1494204137 0.3623783273 -0.4269519194 0.3625829779 -0.4267360646 -0.1140625225 0.1410693959
420297480.0 -0.0902396786 0.1501255627 0.3576714098 -0.4306752465 0.3580197914 -0.430649863 -0.1123795715 0.1425056728
425297450.0 -0.0881101026 0.1511980086 0.3530339184 -0.4340521742 0.3529062097 -0.4343008688 -0.1113563737 0.1432618327
430297420.0 -0.0871343972 0.1525340654 0.3488896684 -0.4384808108 0.348734539 -0.4380171857 -0.1098050402 0.1446448208
435297390.0 -0.0852514066 0.1532371666 0.3432391024 -0.4425593068 0.3430716408 -0.4421133162 -0.1088913758 0.1463465799
440297360.0 -0.0835880462 0.1543646003 0.338219457 -0.4456372705 0.3383099678 -0.4461267342 -0.1072878539 0.1472897955
445297330.0 -0.0818279073 0.1552381402 0.3339887187 -0.4492074124 0.3335638742 -0.4495970649 -0.1053789803 0.1482796347
450297300.0 -0.0801477059 0.1562063897 0.3289132074 -0.4528407513 0.3292290333 -0.4528681731 -0.1045332169 0.149622524
455297270.0 -0.0787334615 0.1573155254 0.3241207004 -0.4564652174 0.3237818013 -0.4565733532 -0.1028435639 0.1507149619
460297240.0 -0.0768309883 0.1583280915 0.3191673185 -0.4606860301 0.318881133 -0.4603882264 -0.1014215116 0.1519625356
465297210.0 -0.0752428232 0.1592605555 0.3135386773 -0.4637084473 0.3135225529 -0.4640218263 -0.0995912612 0.1535436899
470297180.0 -0.0730858842 0.1601558008 0.3087345216 -0.4667388634 0.3090868282 -0.4670595374 -0.0984238989 0.1540985236
475297150.0 -0.0715103126 0.1611037231 0.303712703 -0.4703001039 0.303401816 -0.4702167421 -0.096578938 0.1551230008
480297120.0 -0.0691659259 0.1623944199 0.298058606 -0.4740335834 0.2983863831 -0.4731516453 -0.0955462583 0.1562481297
485297090.0 -0.0678385918 0.1625066913 0.293066901 -0.476670217 0.2936883415 -0.4767857052 -0.0941950074 0.1574893303
490297060.0 -0.0653476725 0.1637400019 0.2877224384 -0.4798985421 0.2880605504 -0.4801132888 -0.0924782487 0.1583256609
495297030.0 -0.063856988 0.1643751208 0.2831367438 -0.483135733 0.2830467027 -0.4832154139 -0.0907762504 0.1594667423
500297000.0 -0.0623525082 0.1654553699 0.2779948354 -0.4857300046 0.2774058229 -0.4862241756 -0.0892954152 0.1605340398
505296970.0 -0.0598566026 0.1661279224 0.2721115221 -0.4891826832 0.2723146956 -0.488965573 -0.0875786051 0.1611806595
510296940.0 -0.0582137351 0.1667352767 0.2670570204 -0.4925162294 0.2669226245 -0.4923688163 -0.0854077807 0.1624618041
515296910.0 -0.056335281 0.1680959008 0.2612549186 -0.4949994235 0.2610102836 -0.4949606049 -0.0843044584 0.1630946955
520296880.0 -0.0543583596 0.1686584295 0.2562486357 -0.4976019045 0.2557090998 -0.497600145 -0.0820811147 0.164601506
525296850.0 -0.0523208603 0.1690982949 0.2504605366 -0.5003360225 0.250578094 -0.4999990415 -0.0808384005 0.1648735491
530296820.0 -0.0507104649 0.1698213985 0.2448717215 -0.5032480774 0.2449261976 -0.5028174413 -0.0792312211 0.165724349
535296790.0 -0.0481275787 0.1705457972 0.239520041 -0.5055290204 0.2396369961 -0.5056055232 -0.0772517274 0.167286514
540296760.0 -0.0461182562 0.171308705 0.2337896734 -0.5081542755 0.23368086 -0.5078763819 -0.07599383 0.1675187472
545296730.0 -0.0447652821 0.1722362184 0.2287284957 -0.5104208869 0.2283234918 -0.5101691379 -0.0742900461 0.1685766182
550296700.0 -0.0421715003 0.1727365848 0.2227782379 -0.513194279 0.2224747147 -0.513374216 -0.0725277248 0.169709471
555296670.0 -0.0402774132 0.1734631029 0.2172217056 -0.5157127337 0.2173757048 -0.5154405625 -0.0709273742 0.1697024817
560296640.0 -0.037939399 0.1739881785 0.2112024233 -0.5178604654 0.2120940543 -0.518153054 -0.0694295453 0.1711440482
565296610.0 -0.0366343172 0.1747750949 0.2065179592 -0.5200016689 0.2064012515 -0.5195568549 -0.0672911216 0.1719804901
570296580.0 -0.0345159384 0.1753264105 0.2006140936 -0.5218932683 0.2004094545 -0.5219394022 -0.0660622143 0.1724007593
575296550.0 -0.0318900865 0.1754053849 0.1950051772 -0.5237959675 0.194614752 -0.5243297843 -0.0638750693 0.1732852196
580296520.0 -0.0299654567 0.1764751243 0.1889134658 -0.5261440829 0.1890871909 -0.5264687282 -0.0627129794 0.1740516551
585296490.0 -0.0279539441 0.1771548399 0.1838936277 -0.5281787123 0.1828668726 -0.5283150615 -0.0603079626 0.1748994264
590296460.0 -0.0252233877 0.1774039011 0.1777482385 -0.5298113199 0.1773848059 -0.5301444135 -0.0589444883 0.1758352135
595296430.0 -0.0235000446 0.1778446315 0.1714674421 -0.5319157031 0.1712334024 -0.5321894191 -0.057258983 0.176226284
600296400.0 -0.021524436 0.1783489622 0.1658602982 -0.5336014932 0.1656750232 -0.5339451065 -0.0555383401 0.1768256245
605296370.0 -0.0199771053 0.1792831504 0.1606097314 -0.535598869 0.1598582279 -0.5358426278 -0.0534795152 0.1780771619
610296340.0 -0.0171438097 0.1797441803 0.1544197702 -0.5369183686 0.1545323121 -0.5372096143 -0.0522514035 0.1784339594
615296310.0 -0.0150184707 0.1798318984 0.148334965 -0.5391056344 0.1478824264 -0.5385906008 -0.0499001286 0.178921179
620296280.0 -0.0135962938 0.180825561 0.1427164153 -0.5404219084 0.14219387 -0.5403940287 -0.0485496221 0.1800159129
625296250.0 -0.0114330621 0.180606127 0.136836662 -0.5415154306 0.1368818073 -0.5419697453 -0.0470612286 0.1801297177
630296220.0 -0.009220941 0.1810752248 0.1306443486 -0.5433395489 0.1307047961 -0.5430066059 -0.0448399718 0.1807630577
635296190.0 -0.007326298 0.181675104 0.1251348544 -0.5443995419 0.1250453487 -0.5445968408 -0.0433256951 0.1814903838
640296160.0 -0.0051654305 0.181788968 0.1193338301 -0.5461085116 0.1187830303 -0.5459970319 -0.0416358164 0.1818424199
645296130.0 -0.0028462171 0.1825967976 0.1128507345 -0.5472446762 0.1131869754 -0.5468657289 -0.0401252088 0.1820269796
650296100.0 -0.0009074269 0.1825601676 0.1073804717 -0.5485866505 0.1071972035 -0.5485136192 -0.0375434171 0.1826743457
655296070.0 0.0005473444 0.1830064002 0.1012065499 -0.5493393164 0.1011537728 -0.5493656613 -0.0364783227 0.1832953059
660296040.0 0.0031274808 0.1831013855 0.0953442991 -0.5506406029 0.0952260467 -0.5505446225 -0.0343252629 0.1838243792
665296010.0 0.0052827515 0.1833320245 0.0888800661 -0.5510631871 0.088976694 -0.5509154029 -0.0323650939 0.1841905444
670295980.0 0.0071302148 0.1837700154 0.0834099103 -0.5523241461 0.0833471152 -0.5520934348 -0.0312507312 0.1844627353
675295950.0 0.0093343178 0.1839771783 0.0774566799 -0.5529335705 0.0771808125 -0.5534209258 -0.0291274285 0.1854248671
680295920.0 0.010996486 0.1842564231 0.0720014973 -0.5532348689 0.0713944454 -0.553732823 -0.0270084273 0.1852988084
685295890.0 0.0134325108 0.1843587999 0.0654188226 -0.5546860624 0.0653543733 -0.5546879921 -0.0253210136 0.1862119973
690295860.0 0.0151241221 0.1843579289 0.0596722196 -0.5549691971 0.0591304687 -0.5551245316 -0.0234613281 0.1864989712
695295830.0 0.0175360872 0.1844934409 0.0538462454 -0.5558205111 0.0530893822 -0.5556726276 -0.0216588642 0.1869611668
700295800.0 0.0196420932 0.1848117472 0.0475890353 -0.5564874202 0.0473695211 -0.5563194274 -0.0197860726 0.1873274706
705295770.0 0.0212973556 0.1849840795 0.0415242671 -0.5570448447 0.0416229584 -0.5565947072 -0.0181361652 0.1877760162
710295740.0 0.0232437902 0.1845319312 0.0357637375 -0.557186501 0.0355155151 -0.5575836412 -0.0163201705 0.1880807813
715295710.0 0.0255235321 0.184873141 0.0298270809 -0.5575851298 0.0296123271 -0.5576201218 -0.0146464225 0.1880817411
720295680.0 0.0276428834 0.1845886463 0.0234622233 -0.5576300782 0.0233405695 -0.5576867982 -0.0127721761 0.1883963798
725295650.0 0.0291542879 0.1849948739 0.0179597955 -0.5577649505 0.017380874 -0.5581939587 -0.0111176916 0.189309254
730295620.0 0.0307997847 0.1844759317 0.0117160697 -0.5578179471 0.011558628 -0.5576866582 -0.0093412413 0.189694552
735295590.0 0.0331167936 0.1846110386 0.005662751 -0.5581665047 0.0053444075 -0.5585529704 -0.0074279597 0.1890361294
740295560.0 0.0349865757 0.1844029207 -0.0003117842 -0.5582048649 3.8882e-05 -0.5582881199 -0.0056791638 0.1897189458
745295530.0 0.0368757516 0.1844130102 -0.005894186 -0.5577306613 -0.0055003477 -0.5577994483 -0.004192121 0.1898172306
750295500.0 0.0387275764 0.1842487144 -0.0119699046 -0.5578776998 -0.012576356 -0.5577287015 -0.0018779464 0.1900001851
755295470.0 0.0407502105 0.1842778521 -0.0178918755 -0.5581362069 -0.0182200502 -0.5581741241 -0.0001561378 0.1904392051
760295440.0 0.0424136714 0.1842254879 -0.0245686018 -0.5574976277 -0.0243658377 -0.5574096994 0.0017688269 0.1897881652
765295410.0 0.0448754187 0.1836142103 -0.0306493946 -0.5573129151 -0.0301928711 -0.5570774385 0.0035834533 0.1902698494
770295380.0 0.0465485766 0.1836640367 -0.0355734807 -0.5563221374 -0.0361898408 -0.5571423223 0.0049909342 0.1907396572
775295350.0 0.0483978302 0.1831108373 -0.0417935159 -0.5564669884 -0.0422211944 -0.5559164358 0.0076522574 0.1907710362
780295320.0 0.0504678893 0.1828465682 -0.0480984217 -0.5553899934 -0.0475555756 -0.5559645283 0.0093262759 0.1908487917
785295290.0 0.0520611875 0.1823529559 -0.0538533087 -0.5553974574 -0.0542015956 -0.5554738647 0.010716166 0.1914184283
790295260.0 0.0542234803 0.1817996662 -0.0596728846 -0.5545425629 -0.0597581702 -0.5548479041 0.0120747508 0.1912805156
795295230.0 0.0563415356 0.1815299147 -0.0655871069 -0.5538527186 -0.0660221038 -0.5539477229 0.0145252305 0.1907125127
800295200.0 0.0575626346 0.1815766401 -0.0711638986 -0.5532037723 -0.0718338787 -0.553259826 0.0162274511 0.1911168154
805295170.0 0.0596486137 0.1809982871 -0.0775838982 -0.5523925272 -0.0777574269 -0.5522906626 0.0186927808 0.1909211998
810295140.0 0.0616979367 0.1806287305 -0.0832821231 -0.5514480292 -0.0836226179 -0.5514003239 0.0199573339 0.1911763682
815295110.0 0.0634154007 0.1800645011 -0.0892154278 -0.5505532677 -0.0891292316 -0.5507150325 0.0220413724 0.1910529587
820295080.0 0.0654057018 0.1796365285 -0.0948930794 -0.5493554397 -0.0951011684 -0.5498455496 0.0231869159 0.1916552644
825295050.0 0.0671462124 0.1785562269 -0.1013297674 -0.5485129006 -0.1014347314 -0.5481623661 0.025844805 0.1913951236
830295020.0 0.0690519209 0.1783531532 -0.1069152085 -0.5471428136 -0.1069654696 -0.547277145 0.0276456957 0.1906689783
