!Created with skrf (http://scikit-rf.org).
# Hz S RI R 50.0 
!freq ReS11 ImS11 ReS21 ImS21 ReS12 ImS12 ReS22 ImS22
300000.0 -0.3211170031 -0.1043740555 0.3747635745 0.0529160731 0.3751304515 0.056400467 -0.3190846386 -0.1152672903
5299970.0 -0.3239186876 0.0050259512 0.3785758808 0.0026550183 0.3787439667 0.0030279594 -0.3264385522 0.0028652368
10299940.0 -0.3210071935 0.0155425464 0.3797253726 0.0020567286 0.3797900084 0.0025559829 -0.324284288 0.0127439267
15299910.0 -0.3182093551 0.0236258603 0.3818205709 0.002464821 0.3821069824 0.0024170341 -0.3215976324 0.0198844516
20299880.0 -0.3144770897 0.0300769419 0.3852829219 0.0015993072 0.3853577601 0.0015527923 -0.3188112598 0.0261838097
25299850.0 -0.3107961912 0.0353999898 0.3884341619 2.92949e-05 0.3884683343 -4.44908e-05 -0.3157646798 0.0312285364
30299820.0 -0.3066913767 0.0403819763 0.3919526897 -0.0021838599 0.3916700255 -0.002264322 -0.3126894001 0.035721705
35299790.0 -0.3029630272 0.0448727926 0.3951791213 -0.0052636481 0.3953789416 -0.0051715888 -0.3099042111 0.0395132917
40299760.0 -0.2995095299 0.0480848589 0.3982962517 -0.0087691673 0.3981739889 -0.0089894415 -0.3073406506 0.0432796593
45299730.0 -0.296663849 0.0517079727 0.4012338769 -0.0131178196 0.4014116067 -0.0128665247 -0.3046773859 0.0462441905
50299700.0 -0.2933016636 0.0540958067 0.4030787955 -0.0174251208 0.4037114687 -0.0172509758 -0.3023577225 0.0491030861
55299670.0 -0.2906961353 0.0568576357 0.4053702666 -0.0219401618 0.4060448009 -0.0220122785 -0.3003997783 0.0520506166
60299640.0 -0.2881571451 0.0589875163 0.4074089508 -0.0267669565 0.407865148 -0.0271373586 -0.2982668706 0.0546615828
65299610.0 -0.2861902882 0.0617198241 0.4096121578 -0.0315730707 0.4093872823 -0.0314268027 -0.2962520419 0.0567455953
70299580.0 -0.2841026901 0.0637791774 0.4107486926 -0.0367077599 0.4104715937 -0.0367791879 -0.2949383851 0.0593809909
75299550.0 -0.2818198309 0.0656078419 0.4113529972 -0.0419937024 0.411496192 -0.0422043339 -0.2928381049 0.0620708372
80299520.0 -0.2804500179 0.0677425119 0.4127554784 -0.0469506054 0.412401244 -0.0475083894 -0.2914923043 0.0640740115
85299490.0 -0.2784367771 0.0701124548 0.4129346057 -0.052893145 0.4130426911 -0.0526314635 -0.2903091128 0.0662796843
90299460.0 -0.2771128009 0.0721982853 0.4134113523 -0.0577906767 0.4137572837 -0.0578944246 -0.2884342485 0.0687264987
95299430.0 -0.2755150426 0.0743821738 0.4138054436 -0.0637981416 0.4140811502 -0.0628989671 -0.2877655888 0.0713361885
100299400.0 -0.2744447281 0.0764144701 0.4139693638 -0.0682180665 0.4138224765 -0.0682493188 -0.2868508767 0.0731108788
105299370.0 -0.273024918 0.0784983805 0.4134863887 -0.073334456 0.4135208269 -0.0736903156 -0.2849756027 0.0757805333
110299340.0 -0.2718948734 0.0804563639 0.4131599456 -0.0783681899 0.4135390158 -0.0788573588 -0.2842872891 0.0780535795
115299310.0 -0.2708674958 0.0822367361 0.412911792 -0.0834638853 0.4136147728 -0.0835322324 -0.283426843 0.0803090309
120299280.0 -0.2699178931 0.0845078953 0.4129239737 -0.088580787 0.4131045513 -0.0890395263 -0.2822842838 0.0825242533
125299250.0 -0.2688921633 0.087023733 0.4122776008 -0.0940672668 0.4124528336 -0.0940715347 -0.2811601649 0.0846829211
130299220.0 -0.2676158842 0.0891482302 0.4113999368 -0.0985758448 0.4116111862 -0.09897125 -0.2804159972 0.0874093106
135299190.0 -0.2666222162 0.0909522275 0.4106133781 -0.103695982 0.4105172391 -0.1040684149 -0.2794515409 0.0897316147
140299160.0 -0.2659424794 0.0939875539 0.4101286165 -0.1092058782 0.4100532421 -0.1090849136 -0.2784025049 0.0924092695
145299130.0 -0.2649833841 0.09559033 0.4094773086 -0.113808032 0.4090394152 -0.1137607742 -0.2779111032 0.0945856986
150299100.0 -0.2637527219 0.0981931587 0.4082040362 -0.1192046745 0.4082547879 -0.118883558 -0.2770954331 0.0969209857
155299070.0 -0.2630566843 0.1013451849 0.4073814607 -0.1244809956 0.4070534795 -0.1239673962 -0.276022343 0.0997183215
160299040.0 -0.2619750949 0.103269697 0.4057840055 -0.1285140621 0.4060188756 -0.1285298984 -0.2752782596 0.1020652601
165299010.0 -0.2612420595 0.1054254444 0.4046019956 -0.1337454884 0.4047855502 -0.1336563526 -0.2742871575 0.1045672357
170298980.0 -0.2600750652 0.1077951923 0.4024543369 -0.1382330201 0.4033138994 -0.1385777082 -0.2731353953 0.1071314859
175298950.0 -0.2590616887 0.1103825027 0.4023690346 -0.142878643 0.4021730376 -0.1428645747 -0.2723258922 0.1096074458
180298920.0 -0.2578362301 0.1126426746 0.4003386299 -0.1478725342 0.4007107957 -0.1478046591 -0.2710985932 0.11248208
185298890.0 -0.2567369329 0.1153057108 0.3987319052 -0.1528883667 0.3991830865 -0.1524563623 -0.2705355736 0.1147685872
190298860.0 -0.2558258115 0.1178005255 0.3969841667 -0.1572850354 0.3975583928 -0.1575152165 -0.2686090334 0.1177226995
195298830.0 -0.2544762748 0.1202328288 0.3956944154 -0.1618318895 0.395954479 -0.1620866979 -0.2680523428 0.1200975294
200298800.0 -0.2535822103 0.1228879153 0.3941658924 -0.1662540745 0.3941027494 -0.166393333 -0.2666945833 0.1230754827
205298770.0 -0.2523823295 0.1252291787 0.3922058366 -0.1709223443 0.3923614298 -0.1709088204 -0.265856627 0.1253725227
210298740.0 -0.2515853545 0.1278448619 0.3905166319 -0.1757518855 0.390726749 -0.1757440437 -0.2645944321 0.1284228026
215298710.0 -0.2503829409 0.1302373924 0.3883269075 -0.1800186901 0.3885527049 -0.1801335382 -0.26361365 0.1310415797
220298680.0 -0.2492850119 0.1329290669 0.386413462 -0.1845595739 0.386821148 -0.1846122069 -0.2622345323 0.133549996
225298650.0 -0.2475735452 0.1357666785 0.3842916497 -0.1889656354 0.384456114 -0.1890731903 -0.2612286545 0.1366949219
230298620.0 -0.2468510482 0.1382694105 0.3828911266 -0.1935070966 0.3827314511 -0.1936738786 -0.2594902628 0.1389784145
235298590.0 -0.2456501839 0.1404173788 0.3803161867 -0.1976988637 0.3805467626 -0.1981016553 -0.2585151419 0.1415951079
240298560.0 -0.2442877037 0.1434292984 0.3784217793 -0.2019827779 0.3784973053 -0.2016475795 -0.2571214494 0.144403583
245298530.0 -0.2425007326 0.1458583927 0.3756449549 -0.206836034 0.3758122036 -0.2066813905 -0.255582517 0.1472043014
250298500.0 -0.2414670776 0.1483277167 0.3735412083 -0.2103661189 0.374009183 -0.2103149764 -0.2540019449 0.1498747899
255298470.0 -0.240052295 0.1510422918 0.371508745 -0.2151200437 0.3715272691 -0.2148337927 -0.2529444141 0.1524215893
260298440.0 -0.2388053184 0.1532468214 0.3694167843 -0.2189288292 0.3690162549 -0.2193209283 -0.2511540108 0.1553178299
265298410.0 -0.2373384523 0.1559771274 0.366754212 -0.2236169091 0.3663403811 -0.2236001774 -0.2497012008 0.1576615011
270298380.0 -0.2355397554 0.1587902365 0.3637310554 -0.227652246 0.3644783505 -0.2276352312 -0.2480767173 0.1605584996
275298350.0 -0.2340591747 0.1613186283 0.3615516629 -0.2320071243 0.3616346519 -0.2319788514 -0.2464846618 0.1632929331
280298320.0 -0.2324973305 0.1639202128 0.3588951389 -0.2354483111 0.3593532005 -0.2360170536 -0.244828949 0.1660664714
285298290.0 -0.2310650361 0.1667396118 0.3565775368 -0.239612168 0.3566073479 -0.2398603843 -0.2432327109 0.1684693335
290298260.0 -0.2294649154 0.1688124602 0.3539323575 -0.2438228954 0.3539788377 -0.2440059066 -0.241289493 0.1713645479
295298230.0 -0.2277996286 0.1712916652 0.3514454187 -0.2476692474 0.3509013204 -0.2480463166 -0.2397111664 0.1741221951
300298200.0 -0.2254761598 0.1737928567 0.3481978718 -0.2519461783 0.3486782408 -0.2521230973 -0.2377858925 0.1764826418
305298170.0 -0.2240116142 0.1762531765 0.345843341 -0.255837684 0.3460261099 -0.255955738 -0.2360015543 0.1792118358
310298140.0 -0.2222259416 0.1781768794 0.3429511122 -0.2597663163 0.3431751619 -0.260286072 -0.2343018401 0.1821948492
315298110.0 -0.2207505002 0.1805692454 0.3400577977 -0.2631654026 0.3400732429 -0.2639590862 -0.2320441731 0.1843577159
320298080.0 -0.2187160675 0.183570586 0.3370754231 -0.2680352365 0.3374012219 -0.2676442531 -0.2302469998 0.1868325241
325298050.0 -0.2171796571 0.1852316631 0.3342894418 -0.2714196872 0.3344789873 -0.2716998861 -0.2283818133 0.1891704989
330298020.0 -0.2152751093 0.1880305322 0.3305058793 -0.2753294459 0.3307558138 -0.2751651088 -0.2267054754 0.1918318026
335297990.0 -0.2131982287 0.190463938 0.3277608532 -0.2792397972 0.3279271939 -0.2791528104 -0.2246065447 0.1942938448
340297960.0 -0.2119987827 0.1929744392 0.3243551458 -0.2827600115 0.3249912043 -0.2826214273 -0.2228984921 0.1973032277
345297930.0 -0.2099613397 0.195397723 0.3212159393 -0.2857797315 0.3208927029 -0.2862059265 -0.2206819454 0.199534076
350297900.0 -0.2073288132 0.19765776 0.3176972253 -0.2891886155 0.3183369877 -0.2897935024 -0.2188102391 0.2023628945
355297870.0 -0.2060452466 0.1997009302 0.3148573276 -0.2929758208 0.3147589517 -0.2933989159 -0.216791027 0.2047607979
360297840.0 -0.2037179931 0.2023917529 0.3114137175 -0.2970003395 0.3115771349 -0.2967443741 -0.2147371683 0.2073461424
365297810.0 -0.2016225455 0.2045429142 0.3079438437 -0.2999949137 0.308172121 -0.3002260371 -0.2126695536 0.2100353885
370297780.0 -0.1993371694 0.2067180924 0.3044305717 -0.3035597121 0.304806216 -0.3037414671 -0.2107718874 0.2123285337
375297750.0 -0.1973416701 0.2092961335 0.3016303984 -0.3068221075 0.3015781005 -0.3068672219 -0.2080128838 0.2147711762
380297720.0 -0.1954350025 0.2110198337 0.2980887152 -0.3093300737 0.2982208975 -0.3102153009 -0.2059481779 0.2177469925
385297690.0 -0.193258032 0.2138847788 0.2946317138 -0.3128497199 0.2941699743 -0.3132294129 -0.2037657703 0.2197540627
390297660.0 -0.1910307173 0.2160093577 0.2910822525 -0.3167131723 0.2909624848 -0.3166781808 -0.2014069705 0.2217254862
395297630.0 -0.1885644644 0.2179917264 0.2873856509 -0.3195189554 0.2876436131 -0.3195101659 -0.199233469 0.2244154713
400297600.0 -0.1866182267 0.2201982786 0.2840279164 -0.322567123 0.2845188775 -0.3229074081 -0.1969938086 0.2266925594
405297570.0 -0.1841891745 0.2226314123 0.2802716968 -0.3261248919 0.2804424272 -0.3262327092 -0.1947473061 0.2292931722
410297540.0 -0.181874069 0.2242243033 0.2766538464 -0.3289634842 0.2766481177 -0.3289220122 -0.1921329556 0.2314939058
415297510.0 -0.1793940674 0.2269265887 0.2731874746 -0.3318558586 0.2733963081 -0.3320015109 -0.1904229665 0.2340694723
420297480.0 -0.1766579058 0.2283272354 0.2689781149 -0.3348307675 0.269394267 -0.334810466 -0.1874037115 0.2357051375
425297450.0 -0.1744200424 0.2303775448 0.2655123231 -0.3380417946 0.2662478617 -0.3379080266 -0.1850937205 0.2382586845
430297420.0 -0.1726513881 0.2329087083 0.2623331486 -0.3410471591 0.2623165722 -0.3405382572 -0.1830151629 0.2402326722
435297390.0 -0.1699205512 0.2346268691 0.2581471369 -0.3432404956 0.258432918 -0.3435855806 -0.1802842721 0.2426518791
440297360.0 -0.1673390844 0.2365118688 0.2542939988 -0.3462229435 0.254085881 -0.3461655162 -0.1776436319 0.2443634392
445297330.0 -0.1648256541 0.2384049637 0.2502974339 -0.3490770242 0.2507156743 -0.3491091653 -0.1753805787 0.2464178394
450297300.0 -0.1623845659 0.2403924532 0.2466356208 -0.3517318414 0.2465295398 -0.3517773044 -0.1725835607 0.2487235904
455297270.0 -0.1600357184 0.2422971352 0.2432458182 -0.3544372753 0.2431192004 -0.3543900372 -0.1698849853 0.250789314
460297240.0 -0.1574726218 0.2442978817 0.2389292567 -0.3568139981 0.2385377737 -0.3570741008 -0.1671543856 0.2532421717
465297210.0 -0.1545820788 0.2459701664 0.2348555695 -0.3595908602 0.2352095898 -0.3594005148 -0.1649650163 0.2546448283
470297180.0 -0.1524721089 0.2475597881 0.2311867666 -0.3618274251 0.2313998287 -0.3621311741 -0.1627897451 0.2566021122
475297150.0 -0.1495502785 0.2494472742 0.2266878307 -0.3643925545 0.227234626 -0.3639746266 -0.1598401459 0.2584610322
480297120.0 -0.1469957646 0.2509374742 0.2227576977 -0.3669022127 0.2231984094 -0.3666448904 -0.1570724562 0.260905017
485297090.0 -0.1444447737 0.2528770317 0.2193906278 -0.3690997215 0.2188700445 -0.36906375 -0.1546217769 0.2622376431
490297060.0 -0.1413701972 0.2542439707 0.2147806012 -0.3715831285 0.2152388032 -0.3716481135 -0.1519634365 0.2641736048
495297030.0 -0.1389244723 0.2561216263 0.2104739838 -0.373607721 0.2107370713 -0.373809322 -0.1488758447 0.2658823849
500297000.0 -0.1361860299 0.257579062 0.2065482471 -0.3762269675 0.2069220433 -0.3759524199 -0.1464790924 0.2678245727
505296970.0 -0.1336347299 0.2591808285 0.2021644311 -0.3780667751 0.202355354 -0.3780023878 -0.1442896852 0.2694815573
510296940.0 -0.1307841782 0.2609480714 0.1981839156 -0.3802618555 0.1987459614 -0.3804144513 -0.1408544195 0.2712222878
515296910.0 -0.1285691393 0.2626576484 0.1942404303 -0.3826429846 0.1943530696 -0.3824855513 -0.1380625125 0.2728914419
520296880.0 -0.1251650396 0.2640048235 0.1895879521 -0.3845770487 0.1900486734 -0.3847298172 -0.1351917566 0.2747532653
525296850.0 -0.1228630129 0.265147989 0.1858857876 -0.3866309902 0.1859527461 -0.387007638 -0.1323836108 0.2763957624
530296820.0 -0.1200367941 0.2664752631 0.1817320258 -0.3879561953 0.1816630148 -0.3881759124 -0.1301384679 0.2776716038
535296790.0 -0.1169550344 0.268052422 0.1770815048 -0.3902994115 0.1770208286 -0.3902777231 -0.1267142213 0.2791122907
540296760.0 -0.1142600733 0.2692659912 0.1728033807 -0.3920427304 0.172898316 -0.3924134417 -0.1245031747 0.2808518952
545296730.0 -0.1115441394 0.2708434656 0.1686994632 -0.3939377219 0.1687557505 -0.3942153212 -0.1215753594 0.2818964898
550296700.0 -0.1085740775 0.2722399648 0.1645875867 -0.395870522 0.1649603821 -0.39588014 -0.11850018 0.2838888407
555296670.0 -0.1057794387 0.2731966231 0.1602915806 -0.3974166997 0.1601324778 -0.3975808753 -0.1156027394 0.2853491651
560296640.0 -0.1027125031 0.2744141563 0.1558932156 -0.399027051 0.1561254272 -0.3989929497 -0.1123725659 0.2865484031
565296610.0 -0.0999709388 0.2761885879 0.1515002229 -0.4006272963 0.1515035759 -0.4007945557 -0.1096975619 0.2877067108
570296580.0 -0.0969892787 0.2768347436 0.1464923752 -0.4020002495 0.1474283684 -0.4022282709 -0.1070929174 0.2894373216
575296550.0 -0.0941549528 0.2784592436 0.1427555895 -0.403866759 0.1434418178 -0.4039422622 -0.1033685599 0.2905703323
580296520.0 -0.0908269684 0.2793279011 0.1382243668 -0.4053921539 0.1382148037 -0.4054900346 -0.1007260462 0.2917837666
585296490.0 -0.0879854062 0.2803053695 0.1339109358 -0.4065397967 0.1338164936 -0.4067848113 -0.0980887383 0.292676925
590296460.0 -0.0853196058 0.2813027758 0.1292141563 -0.4080071313 0.1291283946 -0.4085289373 -0.0945772174 0.2938787701
595296430.0 -0.0820671964 0.2827791277 0.1248729371 -0.4094811974 0.1248906474 -0.4098804283 -0.091808909 0.2947723263
600296400.0 -0.0792844269 0.2834240877 0.120455132 -0.4107100047 0.1207884673 -0.4111621283 -0.0887113417 0.2963324132
605296370.0 -0.0761560966 0.284822369 0.1156013136 -0.4122500614 0.1161538109 -0.4120658165 -0.0855369684 0.2974741104
610296340.0 -0.0730738693 0.285469112 0.1117840233 -0.4133575132 0.1118003031 -0.4135733546 -0.082462521 0.2986532218
615296310.0 -0.0702431311 0.2869228425 0.1069811474 -0.4147208747 0.107012648 -0.4145603254 -0.0794649557 0.2992763327
620296280.0 -0.0672553436 0.2871840859 0.1028180812 -0.4154115093 0.1026924581 -0.4155944964 -0.0764190366 0.3000503594
625296250.0 -0.0641335045 0.2883816707 0.0979025924 -0.4167748818 0.0978320396 -0.4167163069 -0.0734821569 0.3010453741
630296220.0 -0.0611342916 0.2890572855 0.0931437121 -0.4178501714 0.0938481286 -0.4176781646 -0.0703531083 0.3022943369
635296190.0 -0.0580857542 0.2899846475 0.088927256 -0.4179733178 0.0890470827 -0.4184112493 -0.0671995328 0.3027033857
640296160.0 -0.0550362408 0.2904419312 0.084464322 -0.4195023824 0.0843341004 -0.4198745283 -0.0633955196 0.3038603501
645296130.0 -0.0520699594 0.291393536 0.0795289879 -0.4202459709 0.0799207551 -0.4203277212 -0.0611803878 0.3044248943
650296100.0 -0.0489759217 0.2923776773 0.0756540804 -0.4213208755 0.0753702693 -0.4212508338 -0.0576776411 0.3056700519
655296070.0 -0.045863669 0.292724247 0.0708640638 -0.4218863271 0.0707341911 -0.4217997804 -0.0543230985 0.306178723
660296040.0 -0.0433236277 0.2935490979 0.0666923586 -0.4222921302 0.0664487907 -0.4225167826 -0.0513286862 0.3064965725
665296010.0 -0.0395372755 0.2939748342 0.0618256631 -0.422855536 0.0619272459 -0.4235646381 -0.0482492717 0.3078035968
670295980.0 -0.0363417294 0.2944596744 0.0570580181 -0.4236239024 0.0574443962 -0.4235106864 -0.0453826019 0.3081055205
675295950.0 -0.033372321 0.2947797377 0.0525619613 -0.4242693181 0.0528082297 -0.4248881353 -0.04190818 0.3093129228
680295920.0 -0.0304686832 0.2958847138 0.0478560463 -0.4245945245 0.0476661376 -0.4250138067 -0.0385001421 0.3093774902
685295890.0 -0.026888883 0.2962584012 0.0431858048 -0.4252379318 0.0430298127 -0.4256472701 -0.0354114237 0.310145676
690295860.0 -0.023949227 0.2964704187 0.0384580666 -0.4253778744 0.0384945873 -0.425906538 -0.032026374 0.3104762444
695295830.0 -0.0204764611 0.2967000765 0.0333712902 -0.4258442593 0.0338687694 -0.4261755616 -0.0292686157 0.3108761121
700295800.0 -0.0174845575 0.2971669885 0.0292387094 -0.4263879078 0.0293339745 -0.4265648872 -0.0255556488 0.3110146012
705295770.0 -0.0143885035 0.2976818266 0.0245392233 -0.4266181056 0.0249437229 -0.426634879 -0.0228103628 0.3120874374
710295740.0 -0.0114145726 0.2979257759 0.020132664 -0.426611297 0.0200058261 -0.427044358 -0.0197054239 0.3120934437
715295710.0 -0.0083989582 0.2979509299 0.0155941593 -0.4269836027 0.0155815976 -0.4270001476 -0.0161266425 0.3126027206
720295680.0 -0.0051865064 0.2980285427 0.0109496394 -0.4269396257 0.0108597583 -0.427440562 -0.0125397231 0.3128863693
725295650.0 -0.0014076312 0.2986306701 0.0059048277 -0.4269020147 0.0062281555 -0.4273132011 -0.0098011448 0.3133784789
730295620.0 0.0010616085 0.2986587809 0.001664107 -0.4270460431 0.001640866 -0.427230316 -0.0063701451 0.3131334972
735295590.0 0.0046431371 0.2988291035 -0.0031073006 -0.4268979968 -0.002653166 -0.4271635901 -0.0031564642 0.3133724045
740295560.0 0.0076170784 0.299059907 -0.0077495845 -0.4263567284 -0.0078145802 -0.4271379569 0.0003326735 0.3132242142
745295530.0 0.0106330116 0.298909457 -0.0124416965 -0.4266331231 -0.0120233649 -0.4271208839 0.0031395417 0.3137824496
750295500.0 0.0139508245 0.2987977156 -0.0168605705 -0.426295407 -0.0168943965 -0.4267769743 0.0066563256 0.3135501561
755295470.0 0.0177861787 0.2990444477 -0.0216627327 -0.4264894195 -0.0214871612 -0.4264430501 0.0097666627 0.3141751162
760295440.0 0.0204568709 0.2990131206 -0.0261799692 -0.4259310813 -0.0259144006 -0.4260915424 0.0124555978 0.3137918974
765295410.0 0.0234445543 0.2988040812 -0.0304161694 -0.4253077324 -0.0301053065 -0.4260082286 0.0168607077 0.3142287041
770295380.0 0.0270016003 0.2990894518 -0.0352777866 -0.4251766468 -0.0352541289 -0.4254516007 0.019917332 0.3138345561
775295350.0 0.0295144387 0.2989352115 -0.0402255189 -0.4246799704 -0.0397748364 -0.4248595365 0.022502667 0.3135600196
780295320.0 0.0330512373 0.2984969681 -0.0445291656 -0.4243059673 -0.0442093753 -0.4246412072 0.0262072611 0.3138691636
785295290.0 0.0361261644 0.2984377318 -0.0489553793 -0.423506821 -0.0488145795 -0.4242028068 0.0290833109 0.3137481956
790295260.0 0.0393214148 0.2979259565 -0.0536080086 -0.4229187739 -0.0533450157 -0.4236709071 0.0328950125 0.3135561381
795295230.0 0.0423738354 0.2979943868 -0.0578447094 -0.4220186629 -0.0578345878 -0.4228301116 0.0361055564 0.3139538678
800295200.0 0.0455535119 0.2976619146 -0.0624637797 -0.4217221755 -0.0630110273 -0.4223860338 0.0389321195 0.313044981
805295170.0 0.048823958 0.2970944313 -0.0671052024 -0.4205016867 -0.0673767826 -0.4210299804 0.0419049998 0.3126862808
810295140.0 0.0522086736 0.297231543 -0.0718072521 -0.4207250566 -0.0716014819 -0.4209373228 0.0455825502 0.3129777175
815295110.0 0.0553479649 0.2965505296 -0.0766807176 -0.4192437023 -0.0763029215 -0.4198683792 0.0485537505 0.3122550003
820295080.0 0.0585066006 0.2957323731 -0.0807374382 -0.4186887161 -0.0805757991 -0.4186913001 0.0517103791 0.3120850341
825295050.0 0.0616388059 0.2954597105 -0.0853113679 -0.4172355165 -0.0849840179 -0.417867329 0.0553038595 0.3115361146
830295020.0 0.0646330606 0.2950515857 -0.0898725255 -0.4166113748 -0.08950289 -0.4167032814 0.0580558344 0.3109978847
