!Created with skrf (http://scikit-rf.org).
# Hz S RI R 50.0 
!freq ReS11 ImS11 ReS21 ImS21 ReS12 ImS12 ReS22 ImS22
300000.0 -0.3188768951 -0.081903224 0.3762171597 0.0425521499 0.3729384699 0.0411466354 -0.321099338 -0.0976135158
5299970.0 -0.3265154667 0.0040736243 0.378202317 0.0029050533 0.3785326641 0.0023421432 -0.3242456897 0.0047927896
10299940.0 -0.3243714693 0.0131677749 0.3795393497 0.001852788 0.3796194977 0.0022149887 -0.3217179113 0.0158997628
15299910.0 -0.3215970009 0.0202617031 0.3817679852 0.0022076008 0.3818960053 0.0023069687 -0.3183471966 0.0235432329
20299880.0 -0.3188029378 0.0263367109 0.384969375 0.0019888261 0.3847962697 0.0017404569 -0.3145821481 0.0301986339
25299850.0 -0.3156306179 0.0315947968 0.3880651726 3.1566e-06 0.3879828094 3.91878e-05 -0.3109867007 0.0359806625
30299820.0 -0.3128712039 0.0357934101 0.391476341 -0.0022097949 0.3913481121 -0.0023687704 -0.3073924915 0.0409065549
35299790.0 -0.3098823926 0.0399106352 0.3948387278 -0.0055257555 0.3949214292 -0.0055952788 -0.3034935243 0.0452567171
40299760.0 -0.3071766869 0.043520409 0.3983117565 -0.0088342335 0.3980270817 -0.0088013547 -0.3003670021 0.0484182075
45299730.0 -0.3045235859 0.0464984878 0.4003962936 -0.0127331736 0.4010910565 -0.0125461906 -0.2971347788 0.0519413183
50299700.0 -0.3026531975 0.0496281735 0.4037155911 -0.0173980325 0.40328674 -0.0168655729 -0.2941018272 0.0543705729
55299670.0 -0.3001897642 0.0522806729 0.4056987537 -0.0225347081 0.4054771255 -0.0219677118 -0.2918247464 0.057294124
60299640.0 -0.2977026581 0.0551946822 0.4075156578 -0.0274270113 0.4078709253 -0.0268275597 -0.2891421046 0.0595351311
65299610.0 -0.2962594823 0.0573569148 0.4091812826 -0.0320393952 0.4090264333 -0.0317546329 -0.2872142522 0.0613707937
70299580.0 -0.2943783807 0.0599038322 0.4101101951 -0.037007322 0.41020906 -0.0367683066 -0.2850390374 0.0638541327
75299550.0 -0.2929774544 0.0626830971 0.4114137463 -0.0422136582 0.4111033763 -0.0421882647 -0.2831832652 0.0658877882
80299520.0 -0.2916290461 0.0647762661 0.4122929853 -0.0472465647 0.4122998501 -0.0473267823 -0.2813624376 0.0680178385
85299490.0 -0.290135852 0.0671217584 0.4127083373 -0.0525708906 0.4128892193 -0.0523580829 -0.2800917455 0.0698279809
90299460.0 -0.2889321596 0.0693209736 0.4130598535 -0.0579322564 0.4132750131 -0.05792392 -0.2780844248 0.0721816362
95299430.0 -0.2873891027 0.0714388624 0.4137538274 -0.0628643541 0.4135371997 -0.0632386281 -0.2766839727 0.0743418864
100299400.0 -0.2862738419 0.0742725937 0.4132517185 -0.0683037293 0.4131023193 -0.0680282108 -0.2749305798 0.0760349583
105299370.0 -0.2853878751 0.076487073 0.4131146811 -0.0736737261 0.4133757724 -0.073670074 -0.273710428 0.0781923234
110299340.0 -0.2839476701 0.0787753113 0.4133259124 -0.0783599943 0.4131414063 -0.0783522144 -0.2729390682 0.0801977207
115299310.0 -0.2826439097 0.0810080813 0.4127019918 -0.0838639874 0.4128184995 -0.0837225648 -0.2716590932 0.0826439478
120299280.0 -0.2820446084 0.0831612906 0.4125598632 -0.0889150869 0.412282661 -0.0889545494 -0.2702654531 0.0845179468
125299250.0 -0.2811613173 0.0856855243 0.4118178304 -0.093966592 0.4121080942 -0.0939021738 -0.2696208853 0.0864332128
130299220.0 -0.280333384 0.0881042275 0.4108351273 -0.0989014521 0.411115515 -0.0990748672 -0.2681925873 0.0887643554
135299190.0 -0.2792203501 0.0909662336 0.4104339342 -0.1042018406 0.4105397198 -0.1038175066 -0.2672748244 0.0909993645
140299160.0 -0.2784954135 0.0933181402 0.4096199283 -0.1092352136 0.4100283377 -0.10925383 -0.2660020017 0.0936753043
145299130.0 -0.2774501871 0.0955850674 0.4088712938 -0.1139434226 0.4087944329 -0.1140453083 -0.2652315171 0.095770544
150299100.0 -0.2763749999 0.0983587986 0.4075965012 -0.1186786672 0.4078765047 -0.1182698036 -0.2644087008 0.0985697236
155299070.0 -0.2757510812 0.1008018092 0.4070383426 -0.1243657978 0.4066152057 -0.1238054075 -0.2629587943 0.1006592933
160299040.0 -0.2746761247 0.1034262065 0.4053660323 -0.1286775465 0.4052936616 -0.1287929301 -0.2625850502 0.103036955
165299010.0 -0.2739023206 0.1060309325 0.4042926128 -0.1338651447 0.4042809977 -0.1338116485 -0.2613878561 0.1058944936
170298980.0 -0.2727396545 0.108683694 0.4028481424 -0.1384810774 0.4032148097 -0.1384919731 -0.260346845 0.1084307807
175298950.0 -0.2719894883 0.1112457394 0.4017205134 -0.1427832396 0.4011635333 -0.1429964333 -0.2594661221 0.1106140793
180298920.0 -0.27089918 0.1137565952 0.399829644 -0.1476512275 0.3998124955 -0.147477252 -0.258370888 0.1133325547
185298890.0 -0.2694831974 0.1166015949 0.3983851379 -0.1525483836 0.3982026598 -0.1523070565 -0.2571623354 0.1156266533
190298860.0 -0.268680249 0.119125701 0.3970873103 -0.1571298164 0.3969939905 -0.1572274806 -0.2563978719 0.1184133965
195298830.0 -0.2677667595 0.1218812231 0.3949458058 -0.1617580303 0.3950067589 -0.1620486256 -0.2549591379 0.1209022198
200298800.0 -0.2662767149 0.1248399298 0.3934622538 -0.1668003113 0.3935967033 -0.1667711746 -0.254158377 0.1235563627
205298770.0 -0.2655196667 0.1274223485 0.3914051627 -0.1712551947 0.3914216461 -0.1710091117 -0.2530687553 0.1256213594
210298740.0 -0.2643566842 0.1299907576 0.3897578919 -0.1753605771 0.3900039525 -0.1752663895 -0.2521821354 0.1285957307
215298710.0 -0.2633143309 0.1327876092 0.3877471823 -0.1800887136 0.3878576745 -0.1800701497 -0.2514965488 0.1308397238
220298680.0 -0.2622896448 0.1350006601 0.3858908937 -0.1845848744 0.3857402604 -0.1843277873 -0.250261319 0.1331135912
225298650.0 -0.260979233 0.1378033214 0.3839441531 -0.1889330582 0.3841331325 -0.1889288164 -0.2490047744 0.1359818145
230298620.0 -0.2596360981 0.1410804048 0.3821202039 -0.1933425191 0.3825850858 -0.1932632585 -0.2477337917 0.1381630436
235298590.0 -0.2581575422 0.1438964901 0.3798538814 -0.1980083499 0.3800587618 -0.197259142 -0.2465510818 0.1411931824
240298560.0 -0.2571272783 0.1463715839 0.377850505 -0.2022455225 0.3778062659 -0.2023961442 -0.2451708626 0.1437409216
245298530.0 -0.2558030208 0.1490327909 0.3756113878 -0.2064830045 0.3755866488 -0.2064604377 -0.2439466193 0.1459102461
250298500.0 -0.2540888852 0.1518642627 0.3727213835 -0.210804042 0.3727594127 -0.2104178289 -0.2424550981 0.1484316242
255298470.0 -0.252926406 0.1539635512 0.3705801476 -0.2150133873 0.3706092086 -0.2146782137 -0.2408534523 0.1506698997
260298440.0 -0.251532954 0.1568040328 0.3682734189 -0.2193069174 0.3682729005 -0.2191024773 -0.2395974462 0.153623577
265298410.0 -0.2497628549 0.16005392 0.3657086539 -0.2236836663 0.366403443 -0.2232688961 -0.2381548037 0.1562987128
270298380.0 -0.2486858056 0.1626986279 0.3636311317 -0.2275379191 0.36376616 -0.2274886377 -0.2369414564 0.1587472205
275298350.0 -0.2468892759 0.1647935945 0.3607804606 -0.2314726707 0.3614483452 -0.2313377759 -0.235061874 0.1608023126
280298320.0 -0.2451520954 0.167872967 0.3589588589 -0.2357578805 0.3587313699 -0.2355895128 -0.2335451089 0.1634676865
285298290.0 -0.2435481123 0.1707102479 0.3558293619 -0.2397481703 0.35614104 -0.2398445295 -0.2318473405 0.1660120471
290298260.0 -0.2419592877 0.17321339 0.3531786909 -0.2437419704 0.3535918186 -0.2437297128 -0.2301221623 0.1686502107
295298230.0 -0.2400544611 0.1756716947 0.350527656 -0.2480775041 0.3504823348 -0.2476144948 -0.2282194353 0.1709741662
300298200.0 -0.2386852299 0.1783571165 0.3482069531 -0.2514290694 0.3482511275 -0.2516935375 -0.2267769235 0.1733612504
305298170.0 -0.2367880467 0.1806881998 0.3449434174 -0.2558417232 0.3451709669 -0.2557054323 -0.2245942084 0.1759011255
310298140.0 -0.2347682252 0.1836061163 0.3424127108 -0.2595093895 0.3426840012 -0.2595576379 -0.223093544 0.1781265847
315298110.0 -0.233184713 0.1856827558 0.339434175 -0.2634065121 0.3395173571 -0.2635759461 -0.221272155 0.1807065413
320298080.0 -0.2310470335 0.1881822207 0.3359650065 -0.2676428346 0.3365831497 -0.2673612674 -0.2195471148 0.1830849689
325298050.0 -0.2294272428 0.1910183342 0.3334365371 -0.2714548076 0.3336042003 -0.2713642086 -0.2177954378 0.1852027133
330298020.0 -0.2276980139 0.1928095209 0.3300987815 -0.2749338954 0.330560833 -0.2750261515 -0.2161292651 0.1878632492
335297990.0 -0.2256383863 0.1955539927 0.326991597 -0.2782869902 0.3271850341 -0.2788880771 -0.2147267288 0.1908097749
340297960.0 -0.2244283 0.1985096244 0.3237868526 -0.2823636161 0.3237534268 -0.2822940701 -0.2120776941 0.1928814037
345297930.0 -0.2221829424 0.2006653912 0.3206026237 -0.2858557352 0.3203505023 -0.2859312215 -0.2106260895 0.1950671889
350297900.0 -0.2202015304 0.203285515 0.3173913654 -0.2894531806 0.3172891466 -0.289246391 -0.2087416449 0.1977753645
355297870.0 -0.2179836284 0.2060975115 0.3142386987 -0.2928341202 0.314385933 -0.2924201142 -0.207132661 0.2001436064
360297840.0 -0.215929845 0.2082123522 0.3111762105 -0.2958917169 0.311542781 -0.2961901345 -0.2050369948 0.2025414535
365297810.0 -0.214088578 0.2108784966 0.3078256656 -0.2996253866 0.3077287944 -0.2996018236 -0.2025987575 0.2047444354
370297780.0 -0.2118117425 0.2129634641 0.3040963653 -0.3027381483 0.3046344082 -0.3027121768 -0.2010596666 0.2074189744
375297750.0 -0.209079915 0.2155199276 0.3009238615 -0.3064503826 0.301569354 -0.3064552445 -0.1987640978 0.2093801729
380297720.0 -0.2075929983 0.2178887532 0.2973047855 -0.3098117698 0.2975340755 -0.3088149832 -0.1969922004 0.2114902379
385297690.0 -0.2055231758 0.2202684743 0.2939569798 -0.3130120614 0.2938757206 -0.3129007214 -0.194531539 0.2142278539
390297660.0 -0.2031702626 0.2230160054 0.2909394835 -0.3161317458 0.2907024891 -0.3156629028 -0.1926792571 0.2161706952
395297630.0 -0.2007928995 0.2251148216 0.287329793 -0.3194259649 0.2872969681 -0.3192531305 -0.1900416279 0.2188594975
400297600.0 -0.1987659628 0.2276856881 0.2835297164 -0.3227622316 0.2839122111 -0.322351003 -0.1884138073 0.2207779431
405297570.0 -0.1963563554 0.2297890997 0.2801538775 -0.3251432035 0.2797987179 -0.3250219118 -0.1859096821 0.2228950691
410297540.0 -0.1938204336 0.2318666034 0.2764810573 -0.3285195767 0.276651405 -0.3288763187 -0.1839513035 0.2255244314
415297510.0 -0.1912766419 0.2337282539 0.2725576406 -0.3316329685 0.2729217707 -0.3316423991 -0.1813452434 0.2274090415
420297480.0 -0.189140822 0.2363298069 0.2688289642 -0.3348103731 0.2689001223 -0.3343282319 -0.179373657 0.229001981
425297450.0 -0.1865396322 0.2379305922 0.2658496555 -0.3373297044 0.2657537356 -0.3377331058 -0.1770031418 0.231590274
430297420.0 -0.1843023966 0.2401745215 0.2617559756 -0.3399084459 0.2617687634 -0.3401447986 -0.1751294492 0.2332739523
435297390.0 -0.1815924204 0.2426376984 0.2575784504 -0.3428745315 0.2576266458 -0.3432717722 -0.1718207047 0.2350433054
440297360.0 -0.1791243026 0.244665794 0.2539520682 -0.3459123376 0.2542625994 -0.3455940333 -0.1697397716 0.236710273
445297330.0 -0.1766539926 0.2466318815 0.2506276674 -0.3486091189 0.2502984612 -0.3482240321 -0.1671078302 0.2387384083
450297300.0 -0.1739265794 0.2485196515 0.2463380877 -0.3514301496 0.2461742901 -0.3516604011 -0.1649082116 0.240723538
455297270.0 -0.171547584 0.2504359466 0.2423638621 -0.3538997414 0.2426832594 -0.3541079096 -0.1621223725 0.2426532995
460297240.0 -0.1691198255 0.2522068383 0.2386068513 -0.3564643432 0.2386732051 -0.356874843 -0.1596880875 0.2444988871
465297210.0 -0.166016425 0.2544793937 0.2347048864 -0.3591779224 0.2346162207 -0.3593721824 -0.1569389131 0.2459884871
470297180.0 -0.1636116814 0.2559951494 0.2303350643 -0.3618260816 0.2306251088 -0.3617050965 -0.1542241143 0.2482095904
475297150.0 -0.1608854693 0.2580608655 0.2265085376 -0.3637347448 0.2271160176 -0.3637031326 -0.1514682072 0.2494882949
480297120.0 -0.1582187263 0.2602299001 0.2225338547 -0.3666411625 0.2225599148 -0.3668655811 -0.1488890047 0.251403687
485297090.0 -0.1556763222 0.2617742856 0.2185685462 -0.368706626 0.2189015071 -0.3685300257 -0.1460377062 0.2534861148
490297060.0 -0.152952744 0.2636563862 0.2146430071 -0.3712571852 0.2149960436 -0.3709058062 -0.1435407439 0.2550337359
495297030.0 -0.1503794865 0.2651216025 0.2105059192 -0.3734914497 0.2109587428 -0.3734043303 -0.1414035977 0.2567517617
500297000.0 -0.1473758213 0.2670843744 0.2062042311 -0.3754703901 0.2060891854 -0.3757795032 -0.1382434201 0.2587988908
505296970.0 -0.1443582153 0.268726393 0.2023239241 -0.3776476153 0.2022190631 -0.3778196189 -0.1356689884 0.2602694977
510296940.0 -0.1419453794 0.2705372384 0.1981136912 -0.3800832243 0.1982938219 -0.3803850552 -0.1327563868 0.2619261159
515296910.0 -0.1388483348 0.2721414217 0.1941683412 -0.3823038723 0.1936951516 -0.3820374805 -0.1301178297 0.263010456
520296880.0 -0.1363878215 0.2739307325 0.1899848368 -0.3844695363 0.1898150529 -0.3842179937 -0.1274461387 0.2647439536
525296850.0 -0.1331005549 0.2749140078 0.1851815442 -0.3861383066 0.1856402316 -0.3863684819 -0.1246247213 0.2665536577
530296820.0 -0.130041026 0.2770018242 0.1809496052 -0.3884381102 0.1813304264 -0.3882820204 -0.1217890854 0.2680195789
535296790.0 -0.1275887887 0.2786049738 0.177103749 -0.3904335903 0.17716848 -0.3896136283 -0.1192772046 0.269115264
540296760.0 -0.1246936426 0.2799418369 0.1732236286 -0.3922993392 0.1726867333 -0.3925709505 -0.116549984 0.2709232217
545296730.0 -0.121879001 0.2815487816 0.1683934173 -0.3939709293 0.1683044245 -0.3938585789 -0.1137768206 0.2722252961
550296700.0 -0.1185214992 0.2828467491 0.1639824471 -0.3954235457 0.1641712015 -0.3958626714 -0.1110310299 0.2738780549
555296670.0 -0.1159795783 0.2838654444 0.1596099369 -0.3973971429 0.1600307074 -0.3973173537 -0.1078349681 0.2754931337
560296640.0 -0.1123792467 0.2858708494 0.155615859 -0.3993644777 0.1556386801 -0.3993796326 -0.1050989813 0.2765493555
565296610.0 -0.1098459218 0.2868703626 0.1508342323 -0.40068494 0.1513627393 -0.4004518151 -0.1024163206 0.2774512543
570296580.0 -0.1068784835 0.2877093822 0.1464232546 -0.4025873395 0.1463662835 -0.4026091072 -0.0996705329 0.2792566065
575296550.0 -0.1039447267 0.2899828657 0.1426092812 -0.4042869673 0.1420921812 -0.4039235447 -0.0964175064 0.2799512775
580296520.0 -0.1007791577 0.290694248 0.1375828915 -0.4056128615 0.1379006272 -0.4054107948 -0.0935967477 0.2813317618
585296490.0 -0.0977894032 0.291533174 0.1334784861 -0.4063993708 0.1337504882 -0.4069923951 -0.090434469 0.2824027984
590296460.0 -0.0945001677 0.2931335273 0.1289783209 -0.4083522524 0.1292447757 -0.4082874551 -0.0878594473 0.2836551001
595296430.0 -0.0915867482 0.2939869064 0.1243062344 -0.4099881545 0.1247484321 -0.4095443498 -0.0850247832 0.2838864734
600296400.0 -0.0886838817 0.2952022611 0.1199895425 -0.4108393262 0.1199539696 -0.4104006641 -0.0818424171 0.2850017993
605296370.0 -0.0856398349 0.2963521457 0.1154334251 -0.4119375286 0.1158909331 -0.4119906163 -0.0786781011 0.2863172026
610296340.0 -0.0825849864 0.2972142719 0.1111008856 -0.4130322126 0.11088292 -0.4129552897 -0.0754453157 0.2870814206
615296310.0 -0.0788816742 0.2981492844 0.1062292492 -0.4140128137 0.1065089093 -0.4147903768 -0.0724343313 0.288051491
620296280.0 -0.0761773512 0.2989095602 0.1017872631 -0.4152857497 0.1020551039 -0.4151288892 -0.0697364376 0.2890513196
625296250.0 -0.0733643142 0.3000072475 0.0979890459 -0.4165791262 0.0973767048 -0.4167189186 -0.0660535887 0.289614399
630296220.0 -0.0690392299 0.3008670216 0.0924097334 -0.4176378287 0.0929894742 -0.4177818134 -0.0632482926 0.2909812769
635296190.0 -0.0671922095 0.3016796529 0.0885677646 -0.4182644397 0.0884844726 -0.4184999662 -0.0602293084 0.2912443493
640296160.0 -0.0637153912 0.3025754734 0.0839354009 -0.4190832333 0.0840406966 -0.4192529203 -0.0570719508 0.2921971297
645296130.0 -0.0604110774 0.3038098751 0.0789875804 -0.4201584036 0.079804286 -0.4201316565 -0.0541543767 0.2930292455
650296100.0 -0.0572479507 0.3043767288 0.0747675282 -0.4207652579 0.0748544659 -0.4209121163 -0.0509097692 0.2936352366
655296070.0 -0.0540065216 0.304752011 0.0701399267 -0.4216752402 0.0704028829 -0.4216983254 -0.0476106307 0.2940505052
660296040.0 -0.0513035081 0.3054305019 0.0658349322 -0.4222266926 0.0657998453 -0.422454979 -0.0444652275 0.2948229722
665296010.0 -0.0473968683 0.3059440411 0.0608468811 -0.4227880208 0.0610273858 -0.423044984 -0.0413758049 0.295984596
670295980.0 -0.0449620622 0.3071124372 0.0565046372 -0.4233809297 0.0566074429 -0.423674118 -0.0384577556 0.2968032096
675295950.0 -0.0416862414 0.3073551418 0.0522185922 -0.4236797659 0.0521060294 -0.423959775 -0.0354444023 0.2967750833
680295920.0 -0.038227742 0.3080654575 0.0471982979 -0.4244147414 0.0469149128 -0.4250741126 -0.032303164 0.2980722101
685295890.0 -0.0351275037 0.3086758139 0.0427234656 -0.4252138932 0.0425110887 -0.4250216278 -0.0290404684 0.2980724327
690295860.0 -0.0314226352 0.3094479319 0.0380237149 -0.4252126413 0.0378698529 -0.4256142687 -0.0260032496 0.2991904957
695295830.0 -0.0287503384 0.3094680447 0.034059471 -0.4255933086 0.0330668349 -0.4258066223 -0.0226607273 0.2988157337
700295800.0 -0.0252765886 0.3098627261 0.0285722552 -0.4260382606 0.0286966643 -0.426043442 -0.0202095338 0.3001393169
705295770.0 -0.0221379208 0.3110664 0.0239418321 -0.4267602854 0.0244439728 -0.4264833566 -0.0167824964 0.3003638217
710295740.0 -0.0186020529 0.3108822159 0.0195195024 -0.4267306076 0.0199309167 -0.4271444546 -0.0135411773 0.3006247353
715295710.0 -0.015480766 0.3111222128 0.0153660859 -0.4267417272 0.0145380508 -0.426640609 -0.0101773551 0.3008087222
720295680.0 -0.0121558394 0.311403891 0.0103219965 -0.4272039481 0.0106307388 -0.4269558602 -0.0072765862 0.3013954712
725295650.0 -0.0088101225 0.311872354 0.0056437179 -0.4269201254 0.0060789011 -0.4270504962 -0.0046729023 0.3015970086
730295620.0 -0.0056704813 0.3121779786 0.0011131734 -0.4268890221 0.0011859501 -0.4270292332 -0.0011434453 0.3018259607
735295590.0 -0.0025238021 0.3125260658 -0.0034179854 -0.4271574618 -0.0033790364 -0.4267470521 0.0015432172 0.3013540789
740295560.0 0.0005916742 0.3125850579 -0.0084209984 -0.4266826968 -0.0081715744 -0.427107372 0.0056804871 0.3020893431
745295530.0 0.0034750289 0.3126620103 -0.0126438112 -0.4262826779 -0.0129852619 -0.4263451216 0.0086419514 0.30169429
750295500.0 0.0072545431 0.3128244353 -0.0174229594 -0.426444913 -0.0172704663 -0.4262609755 0.0114213223 0.3017673717
755295470.0 0.0108069059 0.3127122308 -0.022113619 -0.4263032613 -0.0220190638 -0.4261986818 0.0151336947 0.3012602375
760295440.0 0.0137754221 0.3127028192 -0.0266068999 -0.4261450426 -0.026532532 -0.4260710664 0.0176463729 0.3014200347
765295410.0 0.017045022 0.3127528074 -0.0313333887 -0.4253508161 -0.031310766 -0.425648891 0.0211506765 0.3017176712
770295380.0 0.0201737325 0.3126051515 -0.0359652593 -0.4251514512 -0.0357183321 -0.4249975548 0.0239892104 0.3013740251
775295350.0 0.0231424661 0.3119367025 -0.0408166806 -0.4241831644 -0.0399370799 -0.424486143 0.0268357789 0.3012920351
780295320.0 0.0270345359 0.3122249249 -0.0452285862 -0.4238801751 -0.0447945054 -0.4239159716 0.0301880926 0.3010406988
785295290.0 0.0300048713 0.3117941805 -0.0496104987 -0.4229195756 -0.0493382015 -0.4235430535 0.033998473 0.3007747084
790295260.0 0.0334600056 0.3119395832 -0.053745712 -0.4229032384 -0.0533425871 -0.4227269403 0.0371916257 0.3008002686
795295230.0 0.0364530036 0.3114862976 -0.0585068427 -0.4222533353 -0.0583326073 -0.4224817438 0.0404835449 0.3003940414
800295200.0 0.039625728 0.3115059831 -0.0636780115 -0.4212780672 -0.0630021845 -0.4214212674 0.0434195774 0.3000753553
805295170.0 0.0433619678 0.3110638727 -0.0680194648 -0.4207015402 -0.067734137 -0.4207589755 0.0465809216 0.2998658365
810295140.0 0.0464468209 0.3104163422 -0.0723888502 -0.4197370688 -0.0721135534 -0.4202106471 0.0499261288 0.2996642818
815295110.0 0.0494251304 0.3101430479 -0.0767617671 -0.4189491949 -0.0765535763 -0.4191065883 0.0530442809 0.2990853814
820295080.0 0.0524909255 0.3102223545 -0.081122398 -0.4178159959 -0.0807201523 -0.4183976122 0.0562170007 0.298683565
825295050.0 0.0563436951 0.3093044919 -0.0855709415 -0.4171225793 -0.0853438948 -0.4175407646 0.0594676136 0.2985168073
830295020.0 0.0592529016 0.3090502165 -0.0901646557 -0.4159971926 -0.0904431266 -0.4161876797 0.0633958559 0.2977553373
