!Created with skrf (http://scikit-rf.org).
# Hz S RI R 50.0 
!freq ReS11 ImS11 ReS21 ImS21 ReS12 ImS12 ReS22 ImS22
300000.0 -0.1022709319 -0.0644139528 0.6315836289 0.058860831 0.6248840204 0.0607512254 -0.1010396157 -0.0699244559
5299970.0 -0.1023344535 0.0134445365 0.6303414086 0.0096620037 0.6306827964 0.0103509028 -0.1011754043 0.0133410771
10299940.0 -0.097290938 0.0294755067 0.6337043711 0.0149583588 0.6344276758 0.0158484471 -0.0963133871 0.0303581097
15299910.0 -0.0901865345 0.0424996767 0.6407074948 0.0204155237 0.6406010115 0.0204225451 -0.0892006976 0.0436442158
20299880.0 -0.0818972361 0.0529001384 0.6484157193 0.0245280672 0.6485105832 0.0243576934 -0.080190377 0.0545213986
25299850.0 -0.0724482607 0.0620330259 0.65786778 0.0252304345 0.6577731954 0.0254385858 -0.0700367548 0.0630726944
30299820.0 -0.0622022621 0.0688992022 0.6674947011 0.0245056425 0.6671370819 0.0246767174 -0.0599580646 0.0698614231
35299790.0 -0.052574708 0.0738423513 0.6773792474 0.0215571932 0.6769906005 0.021544234 -0.0498416085 0.0747598657
40299760.0 -0.0432798364 0.0771898983 0.6863577933 0.0172836135 0.6864921409 0.0177237115 -0.0405012567 0.0775280607
45299730.0 -0.0340424964 0.0793227967 0.6948438382 0.0121704193 0.6954972035 0.0121084004 -0.0312605268 0.0796918858
50299700.0 -0.0257530134 0.0802059243 0.7034707637 0.005093971 0.7038269563 0.00584919 -0.0227433633 0.080401139
55299670.0 -0.0175951438 0.0803607572 0.7109974422 -0.0032118953 0.7108511133 -0.0021625231 -0.0147403332 0.080559813
60299640.0 -0.0098438004 0.0801559714 0.7171133617 -0.0113875122 0.7178214577 -0.0107640619 -0.0077074462 0.0795687267
65299610.0 -0.0036288343 0.0789540674 0.7231439482 -0.0200464621 0.7236904527 -0.0193605611 -0.0011718828 0.0786777626
70299580.0 0.0028154827 0.0776215176 0.7287161297 -0.0290927684 0.7287586633 -0.0292632782 0.0050426321 0.0765718594
75299550.0 0.0085053282 0.0758774956 0.7328972675 -0.0388877171 0.7327247555 -0.0392877305 0.0101825888 0.0747374439
80299520.0 0.0130924626 0.0734766606 0.7370971108 -0.0490177377 0.7375075064 -0.0488209558 0.01542519 0.0727833284
85299490.0 0.0178489005 0.0714104773 0.7401906502 -0.0579411498 0.740811627 -0.0578711454 0.0198485955 0.069980786
90299460.0 0.0219588674 0.068933367 0.7427860029 -0.0691913457 0.7437865705 -0.0686772294 0.0240045704 0.0680582792
95299430.0 0.0258599942 0.0663541288 0.7456974562 -0.0784262514 0.7455094438 -0.0790358355 0.0274957462 0.0657815469
100299400.0 0.0290171712 0.0645277412 0.7466577761 -0.0887964082 0.7469538921 -0.0888497448 0.0314630552 0.0626752507
105299370.0 0.0323290684 0.0618026074 0.7485756168 -0.0995639504 0.7491059024 -0.0989606064 0.034351721 0.0608712674
110299340.0 0.0349577045 0.0596380562 0.7508442697 -0.108825687 0.7498725088 -0.1085145267 0.0364559158 0.058125592
115299310.0 0.0373995689 0.0571835662 0.7506964812 -0.1190686966 0.7510095333 -0.1189952882 0.0389499678 0.0559502132
120299280.0 0.0399319292 0.0546713174 0.7510337545 -0.1293465638 0.7519226876 -0.1294217317 0.0415649052 0.0534594622
125299250.0 0.0418925802 0.0522562903 0.7514804561 -0.1390108507 0.7516975866 -0.1385889198 0.0427540355 0.0508102218
130299220.0 0.0434554875 0.0501108681 0.7510382882 -0.1486825663 0.7515978295 -0.1488543441 0.0446887981 0.0487274647
135299190.0 0.0450708256 0.0482968333 0.7512497565 -0.1586766185 0.7512160443 -0.1585092025 0.0465375362 0.0463365761
140299160.0 0.0464067289 0.0462283951 0.7508565671 -0.1686870399 0.7511324233 -0.1688581713 0.0479770758 0.044586961
145299130.0 0.0481629324 0.0438641101 0.7504567131 -0.1786686466 0.7498455971 -0.1779950022 0.0493168765 0.0423043632
150299100.0 0.0496286618 0.0420212744 0.7482886701 -0.187001654 0.7485907198 -0.1877510423 0.0506386754 0.0404824759
155299070.0 0.050107304 0.0397970837 0.7477334418 -0.1986323492 0.7475493477 -0.1976809943 0.0515456756 0.0386653166
160299040.0 0.051717633 0.0382874331 0.746561828 -0.2070599127 0.7456650905 -0.2073645315 0.0518638627 0.0364168355
165299010.0 0.0524259163 0.0364281533 0.7446282101 -0.2170055021 0.7449256017 -0.2170815467 0.0532128396 0.0352063063
170298980.0 0.0532610973 0.0342947296 0.7431095927 -0.2258285057 0.7430391654 -0.2258797325 0.0537047911 0.0332795544
175298950.0 0.0538449902 0.0324565839 0.7417388553 -0.2356471743 0.7409668401 -0.2352952178 0.0544662333 0.0312409934
180298920.0 0.05410119 0.0306748342 0.7391117131 -0.2444077022 0.7391224647 -0.24430352 0.0550655838 0.0297070999
185298890.0 0.0552625861 0.028825502 0.7369714322 -0.2533185499 0.7366057073 -0.2530327168 0.0556240456 0.028141355
190298860.0 0.0556219814 0.027510335 0.7347827683 -0.2631980027 0.7349084649 -0.2626807741 0.0559281055 0.0261495453
195298830.0 0.0560451837 0.0254694023 0.7320089923 -0.2720470691 0.7324432001 -0.2715974337 0.0570300575 0.0249358104
200298800.0 0.0563920287 0.0243802333 0.7287696753 -0.2810596086 0.7292877996 -0.2807731763 0.0568096322 0.0234494433
205298770.0 0.0567825889 0.0229030715 0.7261510675 -0.2901519118 0.7263349709 -0.2891649316 0.0571852123 0.021098916
210298740.0 0.0572530432 0.0211493562 0.7232308074 -0.2982024331 0.7236953219 -0.29786318 0.0579358089 0.0210177025
215298710.0 0.0569020387 0.0196408284 0.7203892893 -0.3072063353 0.7203689175 -0.3070907326 0.0577087554 0.0194504497
220298680.0 0.057701449 0.0178638311 0.7168769535 -0.3156417931 0.7167949158 -0.315632955 0.0574434686 0.017772351
225298650.0 0.0580151076 0.0167450719 0.7136002036 -0.3246340251 0.7143555667 -0.3246087773 0.05782536 0.0163224757
230298620.0 0.0583182723 0.0157652149 0.7106180109 -0.3325618557 0.7108881214 -0.3332708298 0.0578726378 0.0147218001
235298590.0 0.0581622492 0.0147671625 0.7068011278 -0.3412525018 0.7068546999 -0.3406265037 0.057990005 0.0137485991
240298560.0 0.0583430664 0.0134061562 0.7037485758 -0.3497633995 0.7034705942 -0.3494093436 0.0580931251 0.0131861521
245298530.0 0.0582714026 0.0119493728 0.7004338334 -0.3582619787 0.6998327709 -0.357983018 0.0586700245 0.0107764843
250298500.0 0.0588137037 0.0110324624 0.6954185931 -0.366310312 0.6954808099 -0.3655076598 0.0581957461 0.0104217965
255298470.0 0.0585947737 0.0092641361 0.6917184366 -0.3739272632 0.6922102478 -0.3737067682 0.0587720859 0.008929435
260298440.0 0.0580805904 0.0082144591 0.6878348816 -0.3827207833 0.6879657144 -0.3821825554 0.0588547144 0.0079745718
265298410.0 0.0589973394 0.0075599968 0.6836670621 -0.3903991239 0.6844425085 -0.3901200363 0.0585826021 0.007009111
270298380.0 0.0585182086 0.0061692913 0.6802424662 -0.3984374844 0.6798706245 -0.3979658305 0.0584422572 0.005848686
275298350.0 0.0590275912 0.0052354325 0.6757006213 -0.406701146 0.6754050819 -0.4066029016 0.0586128804 0.0043023922
280298320.0 0.0588573414 0.0041132884 0.6713835444 -0.414385064 0.6712126331 -0.4137999767 0.0588626216 0.0035790175
285298290.0 0.058654349 0.0032174903 0.6669062591 -0.4224425248 0.6665292112 -0.422336357 0.0588426891 0.0024997398
290298260.0 0.0589517467 0.0021523782 0.6623985202 -0.4293834984 0.6623368622 -0.429928491 0.0588033136 0.0021015021
295298230.0 0.0591060791 0.0010615429 0.6582691126 -0.4372254256 0.65763393 -0.4373181987 0.0592504121 0.0006606715
300298200.0 0.0582327052 -0.0004846568 0.6536462399 -0.445113404 0.653678688 -0.4454650556 0.0589352104 -0.0005856852
305298170.0 0.0586550333 -0.0014354641 0.6477111553 -0.4534792063 0.6479400284 -0.4528736446 0.0593136483 -0.001618343
310298140.0 0.0585116357 -0.0020929243 0.6434632253 -0.4604654251 0.6439691065 -0.4605580844 0.0592281896 -0.00255771
315298110.0 0.0584078219 -0.0041922389 0.638687856 -0.4684741034 0.6383883065 -0.4683024374 0.0587519699 -0.0039349943
320298080.0 0.0582935241 -0.004678005 0.6322125691 -0.4762760474 0.6328904185 -0.4759644079 0.0586001891 -0.0049879818
325298050.0 0.0576568404 -0.0059926288 0.6273838859 -0.4836120467 0.6273147964 -0.4828000784 0.0576637686 -0.0061309481
330298020.0 0.0572845495 -0.0071856269 0.6216060846 -0.4911150827 0.6213561363 -0.4902899348 0.0569342667 -0.0073912272
335297990.0 0.0571289218 -0.0085855908 0.6160468959 -0.4977143093 0.616114483 -0.4974556956 0.0564494946 -0.0074228311
340297960.0 0.0560287933 -0.0087957465 0.610211268 -0.5046093519 0.6098177511 -0.5046743228 0.056715174 -0.0083449324
345297930.0 0.0558536332 -0.0091522096 0.6040059165 -0.5116545209 0.6041187738 -0.5118180386 0.05629673 -0.0094910588
350297900.0 0.0551651892 -0.0108031707 0.5975305077 -0.5184301728 0.5981906131 -0.5181912297 0.0551243098 -0.0095847939
355297870.0 0.055048908 -0.0101587681 0.5928699067 -0.5248431611 0.593187655 -0.5249075626 0.0549926671 -0.0109701751
360297840.0 0.0546471185 -0.0113130532 0.5875335603 -0.5312936999 0.5876916143 -0.5312310459 0.0548349339 -0.0109328687
365297810.0 0.0540968297 -0.0117253953 0.5809575306 -0.5383176955 0.5817179023 -0.5384912072 0.0544745813 -0.0118316795
370297780.0 0.0545109344 -0.0132712298 0.5746904922 -0.5443161082 0.5752341234 -0.5439803611 0.0543668825 -0.0124181067
375297750.0 0.0539995077 -0.0135725887 0.5690414552 -0.5512590895 0.5699988994 -0.5509115379 0.0539310026 -0.0133378834
380297720.0 0.0537395752 -0.0138953474 0.5629034638 -0.5576511716 0.563449823 -0.5565233292 0.0533045819 -0.0143156285
385297690.0 0.0529865631 -0.0150355577 0.5568039469 -0.5637609902 0.5567060268 -0.5634783215 0.0532638156 -0.0145869301
390297660.0 0.0530256431 -0.015238551 0.5508893991 -0.5702399846 0.550526222 -0.5693634962 0.0526159053 -0.015505522
395297630.0 0.0523668373 -0.0159898542 0.5440135368 -0.575775721 0.544605793 -0.5759097396 0.0532762868 -0.0158724303
400297600.0 0.0517543898 -0.0168866167 0.5373176664 -0.5825036899 0.5378002882 -0.5822993786 0.052659762 -0.0163452441
405297570.0 0.0515018245 -0.0175990871 0.531292044 -0.5876227015 0.5319655043 -0.5874941166 0.0520132308 -0.0171276748
410297540.0 0.0512272408 -0.0182145549 0.5251072324 -0.5939153555 0.5256637956 -0.593955929 0.0516437167 -0.0175293847
415297510.0 0.0513733202 -0.018655271 0.5183149057 -0.5999458423 0.518674694 -0.5998841993 0.0513477146 -0.0176938101
420297480.0 0.0508247302 -0.0189685121 0.5116805924 -0.6055783738 0.5116415527 -0.6057050489 0.0507725199 -0.0190544827
425297450.0 0.0504704962 -0.0204648104 0.5052613696 -0.6113557715 0.5053923712 -0.6110627963 0.0501234804 -0.0190284488
430297420.0 0.0498615727 -0.0207251198 0.4978369626 -0.6163001743 0.4984637097 -0.6166704444 0.0496434661 -0.0199256802
435297390.0 0.0495232296 -0.0213812822 0.4914284763 -0.6223159059 0.4911783478 -0.6220204171 0.0504814531 -0.0204669678
440297360.0 0.0492179869 -0.0218151965 0.4848461686 -0.6275437786 0.4847921344 -0.6276634555 0.0494667434 -0.021438158
445297330.0 0.0485589798 -0.0228425217 0.4778830607 -0.632834091 0.4781173598 -0.6324330115 0.0496733404 -0.0219955125
450297300.0 0.0487851465 -0.0230354361 0.4714076262 -0.6381566019 0.4710160682 -0.6386800886 0.0486179854 -0.0226380469
455297270.0 0.0481181899 -0.0235872986 0.463602088 -0.6438732861 0.4640116423 -0.6432551566 0.0483722004 -0.023047736
460297240.0 0.0473919174 -0.0241991142 0.4565470513 -0.6484210402 0.4570400271 -0.648461211 0.0483148428 -0.0230438907
465297210.0 0.0476427535 -0.0246236037 0.4496405691 -0.6536956328 0.449561008 -0.6540181601 0.0479516074 -0.0244076908
470297180.0 0.0468028907 -0.0256696718 0.4423033121 -0.6586041754 0.4426955597 -0.6586030663 0.0473280245 -0.0246133709
475297150.0 0.0469285288 -0.0262821557 0.4350254942 -0.6627291753 0.4353418832 -0.6629809582 0.0470257355 -0.0254212459
480297120.0 0.0461556288 -0.0258635748 0.4277535152 -0.6679929998 0.4277908988 -0.6685785829 0.0470375539 -0.0253475757
485297090.0 0.0455313212 -0.0268465632 0.4201740521 -0.6728035028 0.4204446081 -0.6724267703 0.0465018102 -0.0265885741
490297060.0 0.044900349 -0.0274801937 0.4138396006 -0.6781084701 0.4134264786 -0.6773126041 0.0459476816 -0.0261913825
495297030.0 0.0446136226 -0.0275664789 0.4055027821 -0.682006472 0.4063844628 -0.6820640238 0.0451342913 -0.0273749849
500297000.0 0.04422422 -0.0284748495 0.3977637564 -0.6859029856 0.3978340904 -0.6860200857 0.0450911378 -0.0271181847
505296970.0 0.0439887294 -0.0291690063 0.3902168053 -0.6904927824 0.3905952307 -0.6908475991 0.0442052701 -0.0278476813
510296940.0 0.0433697276 -0.0291296858 0.382966327 -0.6949712066 0.3825543439 -0.6952434639 0.0441799052 -0.0283514766
515296910.0 0.0427857853 -0.0294309409 0.3745377806 -0.6993163755 0.3753839526 -0.6989673338 0.0435762572 -0.0286670707
520296880.0 0.0423106002 -0.0302394311 0.3675189694 -0.7039474387 0.367431412 -0.7029432765 0.0430634494 -0.029524744
525296850.0 0.0420717943 -0.0311908508 0.3597360303 -0.70719952 0.3603143019 -0.707219623 0.0423731418 -0.029662928
530296820.0 0.0416110078 -0.0312884037 0.3517692664 -0.7117099768 0.3523351323 -0.7110590375 0.0421445461 -0.0299583822
535296790.0 0.0407110237 -0.0316572073 0.3445451008 -0.7150512011 0.3445662663 -0.7147041288 0.0419174193 -0.0311827664
540296760.0 0.0402968405 -0.0317761686 0.3363990363 -0.7190199067 0.3362617214 -0.7189660477 0.0407813039 -0.0305565891
545296730.0 0.0399392125 -0.0323555115 0.3275721311 -0.7220289009 0.3288341604 -0.7223611027 0.0401526006 -0.0317338845
550296700.0 0.0399541639 -0.0327953516 0.320187836 -0.7258052763 0.3205546924 -0.7263627699 0.0397780483 -0.0318038416
555296670.0 0.0387016958 -0.0332510735 0.3129331666 -0.7294255888 0.3129712598 -0.729360954 0.0395775835 -0.0321773536
560296640.0 0.0387746899 -0.0333189214 0.3044839944 -0.7326941591 0.3047222691 -0.7332036304 0.0390664531 -0.0327653826
565296610.0 0.0373404545 -0.0339396687 0.2963314917 -0.7361467218 0.2966915761 -0.7362613627 0.0382884883 -0.0335440712
570296580.0 0.0370792329 -0.0341026262 0.2886129508 -0.7399762879 0.2880196147 -0.7397358656 0.0377860308 -0.0327446904
575296550.0 0.0365469712 -0.0342663271 0.2802503195 -0.7426304176 0.28031286 -0.7429094122 0.0376448442 -0.0339161957
580296520.0 0.0361870432 -0.0345766666 0.2720006428 -0.7460092486 0.2724438785 -0.7453834503 0.0371526045 -0.0344091528
585296490.0 0.0355782952 -0.0357918029 0.2643287603 -0.7479664877 0.2647093571 -0.7484909105 0.0364267102 -0.0346278119
590296460.0 0.0354517904 -0.0355675933 0.2558930915 -0.7505905025 0.2560262204 -0.7511335916 0.0351542783 -0.0349834203
595296430.0 0.0349499651 -0.0358328169 0.2474638582 -0.7544975184 0.2475508679 -0.7542168607 0.035350271 -0.0356134896
600296400.0 0.0337440483 -0.0363917049 0.2397325749 -0.7565626078 0.2395837905 -0.7564595547 0.0346602258 -0.035417088
605296370.0 0.0336372717 -0.0364814436 0.2304821627 -0.7590778582 0.2315711182 -0.7594876817 0.0339575542 -0.0359292048
610296340.0 0.033136439 -0.0366267449 0.222440425 -0.7612079718 0.222874794 -0.7616944022 0.0338942086 -0.0360931399
615296310.0 0.0328417821 -0.0376350784 0.2144080791 -0.7641314181 0.2144342217 -0.7648833201 0.0334760837 -0.0361455239
620296280.0 0.0321146318 -0.0379098094 0.2062320587 -0.7664346447 0.2060877253 -0.7661540367 0.032656522 -0.0364494128
625296250.0 0.0312587867 -0.0384408603 0.1985258401 -0.7691278205 0.1983294955 -0.769300995 0.0330579671 -0.0368300923
630296220.0 0.0317629713 -0.0381052225 0.1889768564 -0.7708550753 0.1890777588 -0.7704348208 0.0318951217 -0.0369305001
635296190.0 0.0298587998 -0.0390761237 0.1809600001 -0.772615953 0.180875933 -0.7727368075 0.0314853675 -0.0371232146
640296160.0 0.0295311164 -0.0388236957 0.172241284 -0.774576598 0.1732121797 -0.7749126782 0.0308157363 -0.0376221286
645296130.0 0.0292422207 -0.0390961414 0.1638252358 -0.7761029699 0.1645069409 -0.7762535681 0.0303602023 -0.0374604098
650296100.0 0.0289378453 -0.039404768 0.1556803675 -0.778545568 0.155639999 -0.7788242422 0.0302975591 -0.0390955421
655296070.0 0.0277505087 -0.0398607046 0.1469605286 -0.7800691174 0.147674185 -0.7802117417 0.0293179947 -0.0384290911
660296040.0 0.0267390492 -0.0403528693 0.1391746736 -0.7816744704 0.1389603773 -0.7813273041 0.0290799448 -0.0384076876
665296010.0 0.027540402 -0.0401761498 0.1295336788 -0.7825773594 0.1301257848 -0.7826885678 0.0283285338 -0.0381397101
670295980.0 0.0252518972 -0.0401041144 0.1216008973 -0.7839255103 0.121542019 -0.7839329702 0.0272631417 -0.0388554481
675295950.0 0.0251958145 -0.0403325699 0.1135391703 -0.7851675559 0.1129716054 -0.7851260584 0.0265564676 -0.0389915281
680295920.0 0.0241279817 -0.04093327 0.1037280135 -0.7869999922 0.103911442 -0.7869420544 0.0261636897 -0.0383935772
685295890.0 0.0241437871 -0.0402630241 0.095982881 -0.7878271804 0.0953139766 -0.7875995983 0.0255229225 -0.0391106248
690295860.0 0.0238306516 -0.04074719 0.0866926006 -0.7876448695 0.0870138703 -0.7891041528 0.0247748401 -0.0386751369
695295830.0 0.0230603605 -0.0413562113 0.0791436752 -0.7893170675 0.0781948396 -0.7893317273 0.0242099764 -0.0390852558
700295800.0 0.0225106423 -0.0415804409 0.0698392685 -0.7899297279 0.0692057449 -0.7898807057 0.0235037613 -0.0388277618
705295770.0 0.0215002515 -0.0407670432 0.0609135497 -0.7907139316 0.0615055089 -0.7908403903 0.0227831555 -0.0390292892
710295740.0 0.0213970964 -0.0413764779 0.0532736765 -0.7918664699 0.0531014564 -0.7920578963 0.0227174214 -0.0403132484
715295710.0 0.0200275512 -0.0416072607 0.044531946 -0.7921947969 0.0442802408 -0.7919937081 0.0220137027 -0.0399979646
720295680.0 0.0199558774 -0.0416477101 0.0354692115 -0.7926449147 0.0361342065 -0.7925298323 0.0211654854 -0.0393667017
725295650.0 0.0193960917 -0.0414826597 0.0267247956 -0.7925845925 0.0270889062 -0.7930940407 0.0203038468 -0.0395014565
730295620.0 0.0189175049 -0.041409444 0.0179956743 -0.7925025376 0.0185665011 -0.7932531388 0.0196129996 -0.0399512211
735295590.0 0.0179138654 -0.0415010446 0.0098658061 -0.7934404788 0.0094141698 -0.7933633937 0.0192987792 -0.0405839054
740295560.0 0.017061929 -0.0417234846 0.0009619141 -0.7932789168 0.0009680016 -0.7933618628 0.0190947505 -0.0399771109
745295530.0 0.0166309958 -0.0417151304 -0.0078071132 -0.7923978681 -0.0076601013 -0.7936696182 0.0185767098 -0.0406627231
750295500.0 0.0160362721 -0.0416364799 -0.0163049784 -0.7929390802 -0.0160599649 -0.7933320192 0.0175592115 -0.0406162211
755295470.0 0.0155865006 -0.0421144938 -0.0245006432 -0.7926208469 -0.0245720488 -0.7930214295 0.0176074825 -0.0409747135
760295440.0 0.0146406721 -0.0419229644 -0.0335443542 -0.7932190636 -0.0328729324 -0.793007831 0.0166394924 -0.0406061239
765295410.0 0.0143866885 -0.041890878 -0.0423013425 -0.7920104019 -0.0424536341 -0.79288989 0.0162223416 -0.0406381002
770295380.0 0.0131896235 -0.0421368263 -0.0513283389 -0.7918837597 -0.0509129354 -0.7917128657 0.0154163469 -0.0409208628
775295350.0 0.0128483595 -0.042719371 -0.0596287384 -0.7904803028 -0.0592542068 -0.7912055549 0.0138637989 -0.0402250415
780295320.0 0.0123621071 -0.0421127045 -0.0679847253 -0.7902590174 -0.0671913318 -0.7904706553 0.0135310264 -0.0411872797
785295290.0 0.0115340998 -0.0428077372 -0.0767045888 -0.7894136023 -0.0761172618 -0.7894009052 0.0142825116 -0.0406108883
790295260.0 0.0117503352 -0.0416135405 -0.0846049228 -0.7882251588 -0.0842098037 -0.7886622555 0.0130247938 -0.0408421846
795295230.0 0.0108763431 -0.042293887 -0.0934145503 -0.7873705097 -0.0929967797 -0.7877022625 0.0128362225 -0.0404654014
800295200.0 0.0098605203 -0.0418686181 -0.1027900861 -0.7860687757 -0.1022908908 -0.7866667605 0.0118203464 -0.0408463817
805295170.0 0.0091721407 -0.042188808 -0.1107870595 -0.7850049468 -0.1103359842 -0.7853278533 0.0115294808 -0.0400755546
810295140.0 0.0083303973 -0.0426919004 -0.1189955964 -0.783725591 -0.1189005295 -0.7840694706 0.0115330822 -0.0399478844
815295110.0 0.008198611 -0.0428235573 -0.127647312 -0.7820311871 -0.1273891978 -0.7826990096 0.0102925799 -0.0400695724
820295080.0 0.0068936722 -0.0417196645 -0.136276998 -0.7804770954 -0.1355880146 -0.7807134558 0.0096835586 -0.0400385266
825295050.0 0.0074245559 -0.041792931 -0.1440331888 -0.7790541777 -0.1442260933 -0.7796331084 0.0095186243 -0.0397228403
830295020.0 0.0062646292 -0.041337072 -0.1533089477 -0.7774518474 -0.1527883977 -0.7778189969 0.0095825437 -0.0398848614
