!Created with skrf (http://scikit-rf.org).
# Hz S RI R 50.0 
!freq ReS11 ImS11 ReS21 ImS21 ReS12 ImS12 ReS22 ImS22
300000.0 -0.0974745299 -0.0874834721 0.623558717 0.0816516779 0.6256698109 0.0862053595 -0.097005487 -0.0970566011
5299970.0 -0.1001846489 0.0126403544 0.6305056122 0.0100709528 0.6306548422 0.0109671101 -0.1020501369 0.0120217937
10299940.0 -0.095356233 0.0296126687 0.6344421181 0.0156321993 0.6342779322 0.0160199464 -0.0969935838 0.0288840855
15299910.0 -0.0884392229 0.0433744022 0.6403644698 0.0204844393 0.6404534542 0.0207214823 -0.0900517141 0.0421946431
20299880.0 -0.0794655604 0.0543694773 0.6490456666 0.0240337542 0.6489244742 0.0241933894 -0.0815925778 0.0533671806
25299850.0 -0.0697297722 0.062845288 0.6579127666 0.0248896456 0.6582070981 0.0251296793 -0.0723479199 0.0620636902
30299820.0 -0.059539233 0.0691856791 0.6679654516 0.0244857892 0.667591232 0.0242365168 -0.0626125839 0.0688285981
35299790.0 -0.0496618873 0.0742265554 0.6773104715 0.021626947 0.6776263182 0.021677199 -0.0525384254 0.0732759203
40299760.0 -0.0395902648 0.0768175417 0.6868040825 0.0179160799 0.6866426165 0.0173588401 -0.043539053 0.0771748811
45299730.0 -0.0303839525 0.0794882539 0.6955735912 0.0118434702 0.69577597 0.0118060334 -0.0339894693 0.0792506619
50299700.0 -0.021704505 0.0796084405 0.7029972782 0.0048378277 0.7037144905 0.0044112919 -0.0252929381 0.08032819
55299670.0 -0.0140324589 0.0800182934 0.7103238219 -0.0030675634 0.7111049893 -0.0027425623 -0.0178205369 0.0800480548
60299640.0 -0.0065900193 0.0788329016 0.7173241745 -0.0112277781 0.7174870568 -0.011407715 -0.01023663 0.0797997523
65299610.0 -0.0003738216 0.0778658758 0.723700281 -0.0196845101 0.7237776925 -0.019603648 -0.003534881 0.0787426783
70299580.0 0.0060470406 0.0759371101 0.7286927891 -0.0294257983 0.7286849469 -0.0289900431 0.0023896297 0.0772763992
75299550.0 0.011706361 0.074126741 0.7328653116 -0.0385776534 0.7331249293 -0.0388088706 0.0081237104 0.0757582639
80299520.0 0.0163894031 0.0720155499 0.7375161163 -0.0490014634 0.7377453447 -0.049009162 0.0131625362 0.0730194479
85299490.0 0.0208702403 0.0695469722 0.740592876 -0.0591315273 0.7408162496 -0.0589082543 0.0176127843 0.0712896793
90299460.0 0.0245866742 0.067351107 0.7431042744 -0.068610597 0.7438194616 -0.0688845688 0.0218137434 0.0690012651
95299430.0 0.0282241333 0.0653234431 0.7460766423 -0.0793730934 0.7461269944 -0.0786842337 0.0254287529 0.0666250835
100299400.0 0.0314498196 0.0627253273 0.7475478128 -0.0889050066 0.7472543796 -0.088819056 0.0283104345 0.0640395004
105299370.0 0.0346804985 0.0602861379 0.7484945751 -0.0988573148 0.7491262448 -0.0991504797 0.0320865252 0.0617813795
110299340.0 0.0369385055 0.0575672857 0.74986133 -0.1087985726 0.7501207709 -0.1095292868 0.0347149813 0.059441777
115299310.0 0.0397316426 0.0548827329 0.7504700806 -0.1191068291 0.7513137961 -0.1191584601 0.0372533554 0.0564357301
120299280.0 0.0413396503 0.052635317 0.7519110686 -0.1297331967 0.7517089481 -0.1296189888 0.0387519681 0.0544559833
125299250.0 0.0434603609 0.0504522644 0.7520399956 -0.139035269 0.7514471276 -0.139343059 0.0411845562 0.0514461093
130299220.0 0.0451258437 0.0481260187 0.7519690028 -0.1491504848 0.7515594977 -0.1489981367 0.0432368129 0.0492183397
135299190.0 0.0470814462 0.0455579432 0.751128729 -0.1588735285 0.7511428743 -0.1590431805 0.0444140391 0.0476354448
140299160.0 0.0478429149 0.0441676771 0.750521522 -0.168860749 0.7508183007 -0.1686200072 0.046251243 0.0454883178
145299130.0 0.0492681096 0.0418866882 0.7508698735 -0.1784391682 0.7501952857 -0.1779952136 0.0472586483 0.0427886042
150299100.0 0.0506643715 0.039862703 0.7491529835 -0.1880713829 0.7492075737 -0.1881763825 0.0486657386 0.0409097713
155299070.0 0.051186317 0.0383973971 0.7477809239 -0.1981532877 0.7478437345 -0.1984284826 0.0490987798 0.0389301171
160299040.0 0.0525110017 0.0361597848 0.7464851732 -0.2066793835 0.7462967242 -0.207116485 0.0505800689 0.0373923552
165299010.0 0.0528531128 0.0341903274 0.7452920909 -0.2168993669 0.7447123396 -0.2169577236 0.0513198141 0.035043519
170298980.0 0.0534651936 0.0325790716 0.7423109851 -0.225708373 0.7427552551 -0.2265263043 0.0526343864 0.0328309832
175298950.0 0.0545595785 0.0305359781 0.7414368762 -0.2351839503 0.7412623783 -0.2354797234 0.0531955987 0.031296458
180298920.0 0.0552342743 0.0292561892 0.7389118146 -0.2450357475 0.7389637775 -0.24450058 0.0535720803 0.0301863009
185298890.0 0.0561335809 0.0273603455 0.7367476923 -0.2540119112 0.7370875428 -0.2534833607 0.0541771029 0.0275660913
190298860.0 0.0561202072 0.0258998939 0.7345596616 -0.2632408397 0.7344606754 -0.2630727284 0.0555405439 0.026183028
195298830.0 0.0563572147 0.023972078 0.7316328505 -0.2714952793 0.7321206016 -0.2724810308 0.0556128734 0.0240154601
200298800.0 0.056796314 0.0225451376 0.729442742 -0.2800112599 0.729405818 -0.2804153014 0.056114025 0.0233838903
205298770.0 0.0570439607 0.0215063832 0.7268872441 -0.289457872 0.7264440792 -0.2898488365 0.0562826949 0.02081627
210298740.0 0.057264542 0.0195069191 0.7236175427 -0.2985507951 0.723590456 -0.2988231507 0.0567738534 0.0200205084
215298710.0 0.0578844696 0.018679547 0.7209447626 -0.3071565264 0.7209768328 -0.3070351086 0.0568384984 0.0182851084
220298680.0 0.0582308728 0.0171758693 0.7173327967 -0.3161857432 0.7177662453 -0.3154512831 0.0572627285 0.0173290614
225298650.0 0.0586662287 0.0162646639 0.7137957624 -0.3235693897 0.713863385 -0.3240616136 0.0576982575 0.0155451184
230298620.0 0.0580957438 0.0149667673 0.7111547706 -0.3329871845 0.7110479958 -0.3328087574 0.057869837 0.0142591133
235298590.0 0.0588160474 0.013323506 0.7073957203 -0.3409689472 0.7071553709 -0.3416785549 0.0580089427 0.0126734452
240298560.0 0.0584817755 0.0121885677 0.7042011537 -0.3490577371 0.7038752974 -0.3486993744 0.0581468394 0.0118171619
245298530.0 0.0590124436 0.0111958312 0.6991370377 -0.3576403047 0.699850969 -0.3580039802 0.0582542823 0.0106150916
250298500.0 0.0585220965 0.0095747721 0.6963910959 -0.3650783288 0.6963130101 -0.3651832136 0.0587515293 0.0089764963
255298470.0 0.0584636339 0.0088688817 0.6917985134 -0.37483695 0.6925211135 -0.3742207256 0.0589271404 0.0074384804
260298440.0 0.0584716079 0.0078530248 0.6883670079 -0.3822490718 0.6885812566 -0.3825454939 0.0593325314 0.0069861538
265298410.0 0.0591361755 0.0069338731 0.683987031 -0.3901986666 0.6837252641 -0.3906248073 0.0587829892 0.0055114116
270298380.0 0.0592934539 0.0057064461 0.6794955052 -0.3984594488 0.6797125549 -0.3983221389 0.0587903146 0.0051583422
275298350.0 0.0585515428 0.0048944897 0.6753743608 -0.4066048202 0.6757066567 -0.4067571977 0.0590156061 0.0035320055
280298320.0 0.0585931804 0.0038767045 0.6708943755 -0.4139941703 0.6711699887 -0.4145038977 0.0596197231 0.0028695845
285298290.0 0.0591085539 0.0030122834 0.6666470389 -0.4217578552 0.6669231631 -0.4219875653 0.0589441795 0.001757821
290298260.0 0.0588368731 0.0017084935 0.6620359767 -0.4296424331 0.6622586374 -0.4298311754 0.0596658208 0.0008246469
295298230.0 0.0588668858 0.0005765746 0.657662958 -0.4373987117 0.6578379313 -0.4375658696 0.0600709464 -0.0005005975
300298200.0 0.0592514055 -4.65717e-05 0.6529789425 -0.445110626 0.65352589 -0.4450886863 0.0593225636 -0.0013025697
305298170.0 0.0589622552 -0.0013747789 0.6484203555 -0.4529256399 0.6482657691 -0.4529573444 0.0596339016 -0.0024868556
310298140.0 0.0594919147 -0.0025358306 0.6440750364 -0.4605059915 0.6433700652 -0.4609130418 0.0597061992 -0.0029821761
315298110.0 0.0586861724 -0.0033668168 0.6381361439 -0.4683863084 0.638563122 -0.4683055047 0.0598894973 -0.0044198549
320298080.0 0.0588654432 -0.0043154179 0.6326047971 -0.4756807251 0.6335139519 -0.4761140848 0.0598379206 -0.0057344344
325298050.0 0.0584000436 -0.0056483805 0.6282821078 -0.4838624846 0.6282410224 -0.4834745359 0.0592267267 -0.006762453
330298020.0 0.0579504968 -0.0065605516 0.622305749 -0.4907318727 0.6219604555 -0.4908944443 0.058436012 -0.0081637704
335297990.0 0.0576827156 -0.0077413757 0.6165055689 -0.4979963986 0.6166649512 -0.4980168898 0.0581013829 -0.0088385618
340297960.0 0.0567395598 -0.0080566169 0.6106445929 -0.5047338372 0.6108817901 -0.5043458782 0.0576144756 -0.0096512574
345297930.0 0.0560517376 -0.0085000877 0.6051234139 -0.510995713 0.6050569563 -0.510984782 0.0577883153 -0.010679196
350297900.0 0.0566269484 -0.0093763803 0.5986990866 -0.5178302164 0.5991705379 -0.5179157742 0.0567574684 -0.0104288842
355297870.0 0.0558586841 -0.0104016676 0.5934362419 -0.5246590193 0.5931336727 -0.524918882 0.0564025973 -0.0113367331
360297840.0 0.0560687223 -0.0107509534 0.5873016972 -0.5313444158 0.587366997 -0.5314786383 0.0565138708 -0.0117553022
365297810.0 0.0557328245 -0.0114666671 0.5814514704 -0.5378217149 0.5816409773 -0.537829276 0.0559436375 -0.0120958117
370297780.0 0.0557575345 -0.0123254987 0.5759416952 -0.5441414305 0.5759663607 -0.5445039759 0.0561379295 -0.0129464989
375297750.0 0.0551856172 -0.012312415 0.5701400915 -0.5508901651 0.5697954296 -0.5515376341 0.0556902825 -0.0132505967
380297720.0 0.0550997844 -0.0137823737 0.564125389 -0.5570960367 0.563500607 -0.5569891836 0.0552299106 -0.0142455757
385297690.0 0.0549359948 -0.0140188751 0.5576259896 -0.5630546807 0.5571493647 -0.5632311194 0.0551128999 -0.014635216
390297660.0 0.0543116507 -0.014793324 0.550802496 -0.5697276702 0.551038648 -0.570420751 0.0550669531 -0.0155954449
395297630.0 0.0543067144 -0.0157046376 0.5452091626 -0.5754110697 0.5449680781 -0.5755945807 0.0543103942 -0.0159568395
400297600.0 0.0537670663 -0.0159223109 0.5382966807 -0.5820357343 0.5388391829 -0.5822376558 0.0531423714 -0.0168831285
405297570.0 0.0540895217 -0.0166504279 0.5318433019 -0.5874603833 0.5325101104 -0.5878284628 0.0534124151 -0.0166759686
410297540.0 0.0537337817 -0.0175159067 0.5249911062 -0.5937602012 0.5249001568 -0.5936293521 0.0534110539 -0.0179169739
415297510.0 0.0533198125 -0.0174235044 0.518823374 -0.598951862 0.5190240402 -0.5996607343 0.0525990646 -0.0177367905
420297480.0 0.0529023572 -0.0187842767 0.5116897013 -0.6053543186 0.5121932636 -0.6057435538 0.0528403249 -0.0190178782
425297450.0 0.0532654568 -0.0194541568 0.5059160123 -0.6109367162 0.506288581 -0.6108926598 0.0522537313 -0.0187211488
430297420.0 0.0524486646 -0.0195932866 0.4989896801 -0.6170023684 0.4994208159 -0.6172241594 0.0516189918 -0.0201881485
435297390.0 0.0524552902 -0.0207000806 0.4924652804 -0.6217054411 0.4919732605 -0.6217740996 0.0511809048 -0.0200600107
440297360.0 0.0520532332 -0.0214910711 0.4845250482 -0.627608443 0.484890212 -0.628114076 0.0512776283 -0.021335406
445297330.0 0.0524083681 -0.0221461646 0.477904525 -0.6331477071 0.4782896225 -0.633272984 0.0504458552 -0.021557128
450297300.0 0.0517482118 -0.0223792172 0.4711143284 -0.638159202 0.4714043902 -0.6388925679 0.0500836992 -0.0219433949
455297270.0 0.0510560217 -0.0232700942 0.4646878437 -0.6436402676 0.4650003992 -0.6438546897 0.0501331145 -0.0225123001
460297240.0 0.0504578512 -0.0239720054 0.4575509574 -0.647845011 0.4570896848 -0.6489073464 0.0497478253 -0.0227468857
465297210.0 0.0507322932 -0.0245860619 0.4502537714 -0.6536987082 0.4504553728 -0.654194153 0.0487038511 -0.0234898596
470297180.0 0.049877593 -0.025005972 0.4427373005 -0.6587334774 0.4429818714 -0.6588878593 0.048118324 -0.0241685109
475297150.0 0.0493091194 -0.0265317946 0.435287593 -0.6634968182 0.436589581 -0.6630864932 0.0480336031 -0.0246890838
480297120.0 0.049881027 -0.0268903539 0.4281914547 -0.6684029047 0.428820751 -0.6679826985 0.0474718474 -0.0244652455
485297090.0 0.0493349475 -0.0273423903 0.4216955802 -0.6731593833 0.4210487713 -0.6728707433 0.0468069908 -0.0258774434
490297060.0 0.0489580909 -0.0280234617 0.4136895854 -0.6776588658 0.4140569137 -0.6774439537 0.046887405 -0.0255352746
495297030.0 0.0478379069 -0.0282477828 0.4058633362 -0.6817796668 0.4063338468 -0.6824520125 0.0465826387 -0.0266363039
500297000.0 0.0480482126 -0.0291079455 0.3986331045 -0.686284593 0.398860515 -0.6868920207 0.0452871683 -0.0271950372
505296970.0 0.0472349372 -0.0296379103 0.390700814 -0.6902606069 0.3908822187 -0.6904451965 0.0448178264 -0.0273762957
510296940.0 0.0468732772 -0.0301544212 0.3830480651 -0.6954131575 0.3838195683 -0.6952541426 0.0451478329 -0.0272067653
515296910.0 0.0462647546 -0.0304086122 0.3753928626 -0.6991064326 0.375583326 -0.6993255872 0.0442354157 -0.0280053361
520296880.0 0.0461654441 -0.0313111369 0.3682854144 -0.7034209093 0.3684762385 -0.7032388443 0.0440972535 -0.0284453168
525296850.0 0.0452686662 -0.0323376625 0.3609403266 -0.7077445364 0.360519792 -0.7077670704 0.0437212363 -0.0288219518
530296820.0 0.0451352839 -0.0325895535 0.3531354539 -0.7106690162 0.35251544 -0.7116558305 0.0424288524 -0.0302475691
535296790.0 0.0442617606 -0.0329114617 0.3446083241 -0.7147233543 0.345316367 -0.7156440129 0.0426147322 -0.0302460086
540296760.0 0.0439254501 -0.0338627389 0.3374430216 -0.719417535 0.3367241535 -0.7196823312 0.0414108438 -0.030323114
545296730.0 0.0433574956 -0.0334785212 0.3292596077 -0.7220769899 0.3292413162 -0.7231145889 0.0412050281 -0.0308911492
550296700.0 0.0427333407 -0.0346358461 0.3213512712 -0.7261475499 0.3216121853 -0.7268345885 0.0406814017 -0.0305847599
555296670.0 0.0426629082 -0.0350982012 0.3133799091 -0.7298229253 0.313052547 -0.7301350579 0.0401832655 -0.031258681
560296640.0 0.0419420255 -0.0356484369 0.3054729851 -0.7330770654 0.3055928372 -0.7327937763 0.0400975728 -0.031787101
565296610.0 0.0407399007 -0.036088381 0.2972338742 -0.736243471 0.2970906263 -0.7365492632 0.0392427748 -0.0324506169
570296580.0 0.0413016104 -0.0367063834 0.2890337107 -0.739700079 0.2895793116 -0.7400252793 0.0386832126 -0.031720777
575296550.0 0.0402526053 -0.0364432336 0.2812837261 -0.7420498642 0.2817631379 -0.7425308867 0.0387036512 -0.0326901313
580296520.0 0.0395336072 -0.0370730187 0.2734337564 -0.7458058513 0.2727253919 -0.7462229083 0.0374086779 -0.0332334321
585296490.0 0.0394599747 -0.0378141805 0.2656922438 -0.7488439826 0.2650585051 -0.7489812411 0.0370736018 -0.033923658
590296460.0 0.0382379396 -0.0384920228 0.2564330215 -0.7514460447 0.2563248896 -0.7517943836 0.0368303545 -0.0331947068
595296430.0 0.0377690822 -0.0385701486 0.2485400228 -0.7543404104 0.2484308244 -0.7544150667 0.0364980495 -0.034100255
600296400.0 0.0369306102 -0.0385498747 0.2400065948 -0.7575088759 0.2408338995 -0.7571612584 0.0354651278 -0.0339882974
605296370.0 0.036777842 -0.038744592 0.2324709999 -0.7597357989 0.2320465134 -0.7596504574 0.035261097 -0.0350622373
610296340.0 0.035820513 -0.0394719143 0.2243274405 -0.7623296889 0.2243319961 -0.7624253649 0.0345084943 -0.0344405703
615296310.0 0.0353135369 -0.0394973755 0.2149610093 -0.7639704704 0.2155388679 -0.7647044405 0.0341113073 -0.0350751163
620296280.0 0.0345954272 -0.0401211065 0.2075662396 -0.7664829097 0.2070372925 -0.7670438998 0.0336020512 -0.0358443868
625296250.0 0.0345161993 -0.0405014272 0.1978943606 -0.7695432264 0.1986444691 -0.7692734845 0.0333150059 -0.0355422651
630296220.0 0.0337634545 -0.0405694242 0.1899612353 -0.7714215429 0.1904210765 -0.7715126977 0.0318486087 -0.0360587908
635296190.0 0.0332299934 -0.0409917553 0.1816869446 -0.7725840453 0.181385876 -0.7731098047 0.0317259515 -0.0366682256
640296160.0 0.0324679064 -0.0409185997 0.1735964481 -0.7747972226 0.173782878 -0.7753494811 0.0314685142 -0.0364436866
645296130.0 0.0319868184 -0.0412402455 0.1648800275 -0.7771280875 0.1645977222 -0.7773848645 0.0300278745 -0.0371537876
650296100.0 0.0310564417 -0.040856187 0.1571990037 -0.7788025054 0.1570078313 -0.7783777821 0.0299709937 -0.0369741977
655296070.0 0.0303603355 -0.0417743763 0.1477237328 -0.7799938963 0.1478769968 -0.7799984725 0.0299439541 -0.0368509241
660296040.0 0.0292020923 -0.0416422839 0.1395099765 -0.7817967456 0.1397538626 -0.781952466 0.028703718 -0.0378021542
665296010.0 0.0293256051 -0.0422693156 0.1313057452 -0.7829776088 0.1317726411 -0.7832818141 0.0279182014 -0.0373588329
670295980.0 0.0293178785 -0.042287477 0.1227806764 -0.7847631676 0.1229215787 -0.7845890542 0.0271262466 -0.0379441409
675295950.0 0.0285975622 -0.0426196009 0.1136280868 -0.7859634137 0.1143235227 -0.7865627246 0.0270489917 -0.0380446203
680295920.0 0.0274976126 -0.0424884833 0.1049224068 -0.787674171 0.1049665438 -0.7877722322 0.0268023538 -0.0383999667
685295890.0 0.0270429021 -0.0427678766 0.096941116 -0.7878909183 0.0969774018 -0.788770871 0.0259138472 -0.0380859227
690295860.0 0.0264109437 -0.0432365047 0.088397959 -0.7885028169 0.0876316012 -0.7889877002 0.0257239427 -0.0380172017
695295830.0 0.0264421796 -0.0433970486 0.0790049739 -0.7897058295 0.0785246608 -0.7905199728 0.0245178295 -0.0384297335
700295800.0 0.0256561771 -0.0434885988 0.0709288926 -0.79092522 0.0708439446 -0.7915729902 0.0239634117 -0.0393655033
705295770.0 0.024717415 -0.0435493598 0.0621613917 -0.791522416 0.0623847794 -0.7916161736 0.0231437914 -0.0392434817
710295740.0 0.0241216352 -0.0433568468 0.0535469283 -0.791879344 0.0529425101 -0.7917889731 0.0216564779 -0.0387816826
715295710.0 0.0237511043 -0.0440022319 0.0452237061 -0.7933129659 0.0451259375 -0.7926994181 0.0219679804 -0.0398742942
720295680.0 0.0228021616 -0.0443731187 0.0367164574 -0.79301521 0.0363465563 -0.7939306569 0.0215611953 -0.0391826287
725295650.0 0.0225456342 -0.0441992329 0.0274855073 -0.7932234304 0.0278144662 -0.7934573567 0.0208049213 -0.0393702684
730295620.0 0.0212596512 -0.0445081255 0.0183267336 -0.7935216422 0.0189380446 -0.7940026774 0.0204115048 -0.0404184883
735295590.0 0.0214232111 -0.0442185771 0.0103419185 -0.7937735791 0.01093388 -0.7939147693 0.0195449261 -0.0396074706
740295560.0 0.0203214158 -0.04415522 0.0012266701 -0.7936464323 0.0020849559 -0.7940493235 0.0195072289 -0.0399897465
745295530.0 0.0197853476 -0.0447237948 -0.0066187877 -0.7941032676 -0.0067375701 -0.7941780479 0.0181680707 -0.039657419
750295500.0 0.0191842817 -0.0447821936 -0.0151045668 -0.7932384457 -0.0152341265 -0.7940960045 0.0178868229 -0.0403848968
755295470.0 0.018976861 -0.0445303195 -0.0236659235 -0.7937373467 -0.0238445488 -0.7938075959 0.0166578259 -0.040147688
760295440.0 0.0179081832 -0.0444564734 -0.0325813505 -0.7929363431 -0.0327073347 -0.7934018193 0.0161261506 -0.0401200318
765295410.0 0.0170830778 -0.0452465319 -0.040530345 -0.7927312735 -0.0406813495 -0.7932005762 0.0166262083 -0.0398969384
770295380.0 0.0170075153 -0.04489874 -0.0498997552 -0.7918505071 -0.0500177841 -0.7925925384 0.01566246 -0.039669562
775295350.0 0.0162173097 -0.044722411 -0.0582507667 -0.7912183553 -0.0579541174 -0.791903136 0.0146730473 -0.0407646577
780295320.0 0.0158522199 -0.045181543 -0.0665249413 -0.7907172803 -0.066677084 -0.7913056782 0.0139628352 -0.039907361
785295290.0 0.0146168966 -0.0444963998 -0.075360524 -0.7890549443 -0.0756143508 -0.7902224018 0.0129601774 -0.040378549
790295260.0 0.014022581 -0.0444917811 -0.0839220155 -0.7894705235 -0.084020908 -0.789980006 0.013191541 -0.0403539641
795295230.0 0.0133120883 -0.0447135463 -0.0923042911 -0.7872514124 -0.0921418031 -0.7879297244 0.0125100017 -0.039552975
800295200.0 0.0129662317 -0.0443478695 -0.1019373567 -0.7868846866 -0.1019905532 -0.7877866977 0.0117723667 -0.039986885
805295170.0 0.0118766408 -0.0447558569 -0.1091748453 -0.7854780408 -0.1099709813 -0.7859803564 0.010768446 -0.0402949352
810295140.0 0.0114323192 -0.0448505393 -0.1181055608 -0.7846926565 -0.1180993611 -0.7850552459 0.0107419927 -0.0396991022
815295110.0 0.0108603906 -0.0444148113 -0.1272468832 -0.7831263867 -0.1275874548 -0.7835691029 0.0094702847 -0.0406618111
820295080.0 0.0105214872 -0.0446321802 -0.135401285 -0.7819899782 -0.135450319 -0.7824092819 0.0089597859 -0.0398419933
825295050.0 0.0095060927 -0.044883499 -0.1440876797 -0.7799417415 -0.1438082091 -0.7803772602 0.0088773243 -0.0397385905
830295020.0 0.0089058778 -0.0442900406 -0.1528142081 -0.7784250269 -0.153030687 -0.7794615856 0.0079007495 -0.0402890935
835294990.0 0.0081616954 -0.0440435193 -0.1609585213 -0.7768699311 -0.1603671575 -0.7773079406 0.0082706536 -0.0403149842
