!Created with skrf (http://scikit-rf.org).
# Hz S RI R 50.0 
!freq ReS11 ImS11 ReS21 ImS21 ReS12 ImS12 ReS22 ImS22
300000.0 -0.0972867941 -0.0880993176 0.6225346882 0.0825452438 0.6242844907 0.0863817686 -0.0939616306 -0.0964623986
5299970.0 -0.1000935591 0.0128860397 0.6304719693 0.0102069868 0.6304973294 0.0109277537 -0.1020593769 0.0116904439
10299940.0 -0.0953708275 0.029507182 0.6347480747 0.0157157281 0.6340124114 0.0163637791 -0.0969265545 0.0289132465
15299910.0 -0.088397271 0.0431751227 0.6404005239 0.020449017 0.6398697259 0.0205526851 -0.0899554897 0.0420927048
20299880.0 -0.0791614836 0.0542972531 0.6484600048 0.0241055722 0.64919173 0.0242248573 -0.081518792 0.0533777972
25299850.0 -0.0695989864 0.0628170939 0.6578073041 0.0247677777 0.6581178735 0.0251759871 -0.0723162188 0.0619756511
30299820.0 -0.0595237753 0.0691336869 0.6680945316 0.0244065965 0.6674156546 0.0243001118 -0.062363807 0.0686927774
35299790.0 -0.0494005944 0.0741139179 0.677383113 0.021659539 0.6774202661 0.0214829715 -0.052315902 0.073236223
40299760.0 -0.0395527232 0.0770511505 0.6865333696 0.0178571424 0.6868430543 0.0176284852 -0.0434385442 0.076865414
45299730.0 -0.030453085 0.079637122 0.6959351232 0.0114008699 0.6957577684 0.0121583551 -0.0340213442 0.0791705762
50299700.0 -0.0217351021 0.0796035899 0.7030564181 0.0044550115 0.7034763809 0.0047334904 -0.0251350249 0.0798552639
55299670.0 -0.0140211243 0.0797700677 0.7105984643 -0.0033212909 0.7110788596 -0.0026939579 -0.0176681612 0.0797858119
60299640.0 -0.0067382432 0.0786513155 0.7172645186 -0.0113341228 0.7174368026 -0.0110228775 -0.0101053308 0.0797790156
65299610.0 -0.0002601235 0.0780942934 0.7237645034 -0.0194446672 0.7238494052 -0.0199215756 -0.0035680222 0.0786071525
70299580.0 0.0059909844 0.0757483195 0.728725425 -0.0290170452 0.7283537369 -0.0290375652 0.0026720253 0.0771119182
75299550.0 0.011766686 0.0744920679 0.7331911347 -0.0391180967 0.7330254436 -0.039203817 0.0081385415 0.0757739419
80299520.0 0.0162948928 0.0722525053 0.737573163 -0.0491466138 0.7374478588 -0.0489875295 0.0131409392 0.0728713161
85299490.0 0.0208600871 0.0694137748 0.7404579267 -0.0591439253 0.7407805353 -0.0589676102 0.017413932 0.0710156658
90299460.0 0.0246353546 0.0674897157 0.7435334781 -0.0685991379 0.7440208837 -0.068687126 0.0219986952 0.0688709959
95299430.0 0.0282483959 0.0652322118 0.7462042526 -0.0796611273 0.7457490856 -0.079027294 0.0255851787 0.0662496596
100299400.0 0.0315578059 0.0625927903 0.7474478636 -0.0892710997 0.7472903287 -0.0889994883 0.0283562805 0.0640421993
105299370.0 0.0346759871 0.0602012437 0.7485563406 -0.0991256785 0.7492657066 -0.099241433 0.0320216826 0.0617407951
110299340.0 0.0371898796 0.0576957407 0.7498950555 -0.1087740658 0.7501581472 -0.1092504096 0.0347150353 0.0592308035
115299310.0 0.0396416338 0.0549760114 0.7513727715 -0.1194751307 0.7509866406 -0.1189863151 0.0372893305 0.0562119547
120299280.0 0.0414111302 0.0526242583 0.7516064703 -0.129765724 0.751530482 -0.1298075883 0.0390206027 0.0542900995
125299250.0 0.0433486855 0.050245623 0.751717505 -0.1392866693 0.7516911864 -0.1391400759 0.0412524516 0.0511003825
130299220.0 0.0449470351 0.0478909976 0.7513712198 -0.1491095277 0.751224168 -0.1497193853 0.0432721153 0.0495897177
135299190.0 0.0466713319 0.0453767925 0.7510669457 -0.1585565346 0.7505995085 -0.1591167738 0.0445122749 0.047253121
140299160.0 0.0478022397 0.044126863 0.7507986464 -0.1691657775 0.750912173 -0.1687705407 0.046200308 0.0453788444
145299130.0 0.0492669049 0.0418037149 0.7504565034 -0.1792059944 0.7497877371 -0.1784426931 0.0470801969 0.0427765239
150299100.0 0.0505704408 0.0397408607 0.7489715282 -0.188310501 0.748804529 -0.1881892507 0.0486508034 0.0406831012
155299070.0 0.0512052553 0.0381995589 0.747978263 -0.1981408521 0.7478502731 -0.1981604816 0.049178804 0.0386074273
160299040.0 0.0525030623 0.0359318847 0.7460983529 -0.2068905347 0.7465832765 -0.2072628595 0.0506584268 0.0371737856
165299010.0 0.0529086927 0.0342846724 0.745042517 -0.2169255786 0.7448952667 -0.2165945265 0.0515608525 0.034846947
170298980.0 0.053396296 0.0325453297 0.7423081364 -0.2259971422 0.7429596581 -0.2266772439 0.05262393 0.0326527501
175298950.0 0.0542983794 0.030542925 0.7417788463 -0.2352904066 0.7413724035 -0.2356278063 0.0530321269 0.0310057778
180298920.0 0.0556009207 0.0291704017 0.7391778272 -0.2449918918 0.7393356383 -0.2444474217 0.0537027653 0.0298871798
185298890.0 0.0558854456 0.0273030625 0.7362911728 -0.2540612978 0.7364462876 -0.2539193493 0.0540964092 0.0277401808
190298860.0 0.0560333174 0.0259166557 0.7340376207 -0.2629420436 0.7345078575 -0.2629662965 0.0553129146 0.0260091379
195298830.0 0.0564173534 0.024030569 0.7316048909 -0.271871988 0.7316635721 -0.2720365365 0.056017074 0.023983405
200298800.0 0.0570252551 0.022512962 0.7296437233 -0.2799692284 0.7292688694 -0.2801716318 0.0563218254 0.0233735178
205298770.0 0.0570755794 0.0216191904 0.7269518319 -0.2894736858 0.7264737786 -0.2894151794 0.0565972417 0.0209271128
210298740.0 0.0570260692 0.0196471919 0.7235531222 -0.2991029927 0.7236612798 -0.2990493284 0.056704087 0.0196543287
215298710.0 0.0577273818 0.0185625572 0.7205893531 -0.3074039005 0.7204992333 -0.3070747207 0.0569499285 0.0181569512
220298680.0 0.0582323534 0.0171379406 0.7174466755 -0.3157290981 0.7171157465 -0.3158926674 0.0572859952 0.017182101
225298650.0 0.0585132904 0.0161095881 0.7138712143 -0.3240975026 0.7139333481 -0.3244749583 0.0574769703 0.015422665
230298620.0 0.0580486326 0.0149129438 0.7111847325 -0.3328561478 0.7107511286 -0.3329797822 0.0578004635 0.0141184323
235298590.0 0.0584979903 0.0132223248 0.707488142 -0.3412958068 0.7075352755 -0.3416344126 0.0577569945 0.0127768938
240298560.0 0.058091143 0.0120892124 0.703867603 -0.3493418845 0.7038509578 -0.3493299832 0.0580720158 0.011670053
245298530.0 0.0589513701 0.0111793757 0.6993060859 -0.3578636703 0.6998074338 -0.3582784846 0.058488597 0.0105846634
250298500.0 0.0584016949 0.0097365964 0.696398693 -0.3653897676 0.6962093291 -0.3658628111 0.0587156342 0.0089022133
255298470.0 0.0582702944 0.0085925336 0.6919427617 -0.3746353194 0.6920451677 -0.3741996844 0.0587109426 0.0073844445
260298440.0 0.0585537821 0.0078055852 0.688115116 -0.3824251137 0.6884280711 -0.3824798554 0.0594875102 0.0067006349
265298410.0 0.0588867147 0.0070331408 0.684529583 -0.3912677621 0.6838277332 -0.3906689813 0.0589294933 0.0052673248
270298380.0 0.0592004372 0.0058662875 0.6795539598 -0.3988791672 0.6794710006 -0.3983642404 0.0588594756 0.0049596255
275298350.0 0.058364885 0.0048425009 0.6753233913 -0.4065508671 0.6758508589 -0.4067491491 0.0589451785 0.0033129744
280298320.0 0.0588624944 0.0038487677 0.6711266521 -0.4136047666 0.6706920911 -0.4143955267 0.059347553 0.0027195534
285298290.0 0.0588575613 0.0031830736 0.6667840553 -0.4219179692 0.6663920263 -0.4220754799 0.0588575775 0.0015358537
290298260.0 0.0586947486 0.0017628238 0.6623623645 -0.4297921905 0.6621348034 -0.4296684166 0.0596623363 0.0007599399
295298230.0 0.0586400865 0.0005728945 0.657688542 -0.4376634518 0.6575097119 -0.4378024806 0.0597218985 -0.0006532297
300298200.0 0.0591537612 -0.0001455345 0.6528700211 -0.4455219412 0.6530295081 -0.445116164 0.0591212081 -0.0012163856
305298170.0 0.0588104936 -0.001350738 0.6480494401 -0.4530571463 0.6487197531 -0.4531085267 0.0597770876 -0.0023374809
310298140.0 0.0593671203 -0.0023996628 0.6440176905 -0.4601742031 0.6436691896 -0.4609170231 0.0597161954 -0.0028459612
315298110.0 0.0586800492 -0.0035730296 0.6382116625 -0.4681198061 0.6385317384 -0.4687222859 0.059992921 -0.0046214229
320298080.0 0.0586425881 -0.0043750014 0.6330524877 -0.4757991719 0.6333528621 -0.4754200211 0.0593345888 -0.005771594
325298050.0 0.0583173212 -0.0061388262 0.6281204243 -0.4836205417 0.6283078202 -0.4833110508 0.0590438107 -0.0069225267
330298020.0 0.0578641178 -0.006675337 0.6216958562 -0.4902446917 0.6221339309 -0.4907046784 0.0585613175 -0.0082249457
335297990.0 0.0573535565 -0.0078028085 0.6163586304 -0.4979260225 0.6163044639 -0.4980548789 0.0581060829 -0.0089799635
340297960.0 0.0564563288 -0.0082070822 0.6100099662 -0.5045892455 0.6106937836 -0.5043986304 0.0573918015 -0.0093143924
345297930.0 0.0563989882 -0.0085345058 0.6048303979 -0.510832982 0.6044772018 -0.5109930931 0.0574041395 -0.010728213
350297900.0 0.0564598473 -0.0094041295 0.5989797034 -0.517665643 0.5993074925 -0.5179668799 0.0569154015 -0.0106935337
355297870.0 0.0559351433 -0.0104021702 0.5928666329 -0.5248111166 0.5931049595 -0.5249771715 0.0563113145 -0.0117236509
360297840.0 0.055982467 -0.0107796107 0.587405057 -0.5317528545 0.5869828861 -0.5314746401 0.0562739121 -0.0118872387
365297810.0 0.0556611996 -0.0116733175 0.5818818213 -0.5376794407 0.5811988344 -0.5380220821 0.0559013742 -0.0122916392
370297780.0 0.0554788267 -0.0123184913 0.5754060622 -0.5441393888 0.5753506268 -0.5451005527 0.0560726688 -0.0129192879
375297750.0 0.0550639265 -0.0124227966 0.5705181214 -0.5512619721 0.5696170096 -0.5512954348 0.0555128 -0.0137012731
380297720.0 0.0550377216 -0.0139845317 0.5633748307 -0.557246932 0.5632208435 -0.5571381791 0.0552360545 -0.0143908174
385297690.0 0.0547512992 -0.0140346687 0.5569814705 -0.5631256295 0.5567244138 -0.5635710552 0.0550897688 -0.0147396135
390297660.0 0.0542287327 -0.0148810468 0.5506094758 -0.5701840711 0.5507442936 -0.570182133 0.0548175643 -0.0156447638
395297630.0 0.0545656572 -0.0157532018 0.5447439725 -0.575580792 0.5446119816 -0.5757097143 0.0541979402 -0.0159729286
400297600.0 0.0535532003 -0.0159662372 0.5383115597 -0.58205099 0.5384649306 -0.5820967272 0.0531882042 -0.017104232
405297570.0 0.0538340913 -0.0165915094 0.5320765032 -0.5879761535 0.532018742 -0.5882729954 0.0536915462 -0.0169205177
410297540.0 0.0536892069 -0.0175464111 0.5250918902 -0.5937832582 0.5251556279 -0.594032085 0.0530139852 -0.0180245076
415297510.0 0.0530989011 -0.017376846 0.51873402 -0.5994736893 0.5190792776 -0.5996553477 0.0527706393 -0.0181599263
420297480.0 0.0529683593 -0.0188183648 0.5120196352 -0.6054377837 0.5123195322 -0.60561539 0.0529294248 -0.0190798753
425297450.0 0.0530272787 -0.0195916075 0.5056030249 -0.6112357583 0.5058639233 -0.6109976773 0.0521233068 -0.0190271609
430297420.0 0.0523059623 -0.0198689968 0.4989829079 -0.6171969401 0.4990610246 -0.6173361481 0.0515238242 -0.0203399823
435297390.0 0.0525363954 -0.020886438 0.4918097959 -0.622384719 0.4920946269 -0.6221371121 0.0510531164 -0.0201167543
440297360.0 0.0522447146 -0.0216191589 0.4846563407 -0.6273873333 0.484774772 -0.6280350485 0.0508888219 -0.0214843454
445297330.0 0.0524385278 -0.0221281133 0.4779446783 -0.6338473443 0.4782412731 -0.6333668861 0.0505646107 -0.0217789926
450297300.0 0.0517529155 -0.0226177664 0.4714852149 -0.6382221094 0.4713791648 -0.6388141891 0.0502736893 -0.022226468
455297270.0 0.051059712 -0.0233080546 0.4643535758 -0.6440835197 0.4650288537 -0.6436975817 0.050257505 -0.0226094621
460297240.0 0.0503233114 -0.0238280698 0.4573587877 -0.6479593512 0.4566985461 -0.6490153671 0.0494997059 -0.0227512536
465297210.0 0.0506237342 -0.0247218512 0.4500969515 -0.6537127731 0.450241931 -0.65457196 0.0485900951 -0.0238351015
470297180.0 0.0497407525 -0.0252185539 0.4427346771 -0.6588740143 0.4433031529 -0.6586570083 0.0479107029 -0.0242890029
475297150.0 0.0494291706 -0.0263535074 0.4353352376 -0.6631067361 0.435775126 -0.6629462862 0.047998411 -0.0247625806
480297120.0 0.0496217265 -0.0269370715 0.4284524202 -0.6681050186 0.42826398 -0.6683158311 0.0474555148 -0.0244793651
485297090.0 0.0494715875 -0.0273191861 0.4214520018 -0.6729270141 0.420925473 -0.6731293711 0.04686101 -0.0256778534
490297060.0 0.0487434836 -0.0280755989 0.4136715483 -0.6777394745 0.4138766607 -0.6780278815 0.0468271215 -0.0259367057
495297030.0 0.0480909119 -0.0282684098 0.4060785426 -0.6820896243 0.4060981063 -0.6822884838 0.0463523326 -0.0267077243
500297000.0 0.0478340424 -0.0291086266 0.3988360859 -0.6866892098 0.3984443213 -0.6868625489 0.0453178082 -0.0271980853
505296970.0 0.0470964145 -0.0295915618 0.390165229 -0.6913370036 0.3904353111 -0.691334975 0.0445878862 -0.0272104773
510296940.0 0.0468524693 -0.0301803256 0.383112064 -0.6955933517 0.3833603724 -0.6955429712 0.044984432 -0.027163782
515296910.0 0.0461137963 -0.0303209004 0.3755195167 -0.6989075272 0.3755545291 -0.6996030854 0.0441044794 -0.0280066967
520296880.0 0.0457430701 -0.0313912566 0.3684730631 -0.7038328029 0.3681575035 -0.7034836838 0.0442603846 -0.0285145699
525296850.0 0.0452540329 -0.0321064079 0.3602579186 -0.707886193 0.3602532023 -0.7074359924 0.0436332043 -0.0287969832
530296820.0 0.0450571249 -0.0324159752 0.3530738642 -0.7104688267 0.3523063275 -0.7118416376 0.042759777 -0.030119622
535296790.0 0.0443062743 -0.0332231351 0.3442488996 -0.7149783672 0.3451186789 -0.7148250283 0.0426668386 -0.0299659489
540296760.0 0.0440054631 -0.0336942472 0.3368480676 -0.7194280759 0.336395866 -0.7195888335 0.0414671678 -0.0303436886
545296730.0 0.0434303102 -0.033543411 0.329001284 -0.722059894 0.329067578 -0.7230496937 0.0412798425 -0.0311865381
550296700.0 0.0424489877 -0.0343906113 0.3211701762 -0.7264872855 0.321611219 -0.726511137 0.0402780103 -0.0309688862
555296670.0 0.0424855839 -0.0351151183 0.313259949 -0.730442107 0.3128674875 -0.729923499 0.0401437921 -0.0310745658
560296640.0 0.0417960111 -0.0354259681 0.3054574299 -0.7325799489 0.3056465199 -0.7327766509 0.0395069877 -0.0316403905
565296610.0 0.0407241479 -0.0361425268 0.2970646149 -0.7367232483 0.2965312826 -0.7365222222 0.0389515847 -0.0325471138
570296580.0 0.0412282766 -0.0366740386 0.2891624174 -0.739618768 0.2895063197 -0.7398762799 0.0388202337 -0.0318888432
575296550.0 0.0402127211 -0.0363218386 0.2805780288 -0.7424885303 0.2814258756 -0.7427863059 0.03856992 -0.0326639518
580296520.0 0.039564845 -0.0372043337 0.2733813465 -0.7456587744 0.2725857895 -0.7463589591 0.0377769714 -0.0334727936
585296490.0 0.0392245463 -0.0379467897 0.2651632571 -0.7490405281 0.2646900687 -0.7488382022 0.0369372741 -0.0340561792
590296460.0 0.0379051051 -0.0386553697 0.256481968 -0.7514911106 0.2560374223 -0.7516638279 0.0365651048 -0.0336125361
595296430.0 0.0375461063 -0.0385284355 0.248578937 -0.7543208396 0.2484200928 -0.7547916801 0.0362520885 -0.0339109392
600296400.0 0.03712139 -0.038788285 0.2403432585 -0.7571719362 0.2401732445 -0.7571178901 0.0353823558 -0.0342403715
605296370.0 0.0365018688 -0.0388550788 0.2316281132 -0.7599723156 0.2318272407 -0.7593199649 0.03496626 -0.0349089925
610296340.0 0.0358224137 -0.0394811137 0.2237542224 -0.7623226259 0.2238291032 -0.7622556523 0.0344636498 -0.0342317337
615296310.0 0.0353559317 -0.0395110598 0.2150465781 -0.7641072125 0.2149038005 -0.7646560272 0.0340840062 -0.0352418539
620296280.0 0.0346701908 -0.0401796202 0.206970678 -0.7668353754 0.2066735578 -0.7666766972 0.0334019126 -0.0359071338
625296250.0 0.0343665248 -0.0405094177 0.1981838675 -0.7692731173 0.1980264705 -0.7692192027 0.0330151393 -0.0358935815
630296220.0 0.0333869013 -0.0406774056 0.1897800337 -0.7717490053 0.1902819537 -0.7712084924 0.0317250792 -0.0360663957
635296190.0 0.0331510641 -0.0408105389 0.1817844523 -0.7726953418 0.1811444482 -0.7725130033 0.0314400452 -0.0364063141
640296160.0 0.0322228885 -0.0411779483 0.1732258923 -0.7748201392 0.1730369921 -0.7756320577 0.031505565 -0.0367911196
645296130.0 0.0317192839 -0.0412691516 0.1644800742 -0.7772953028 0.1644871293 -0.7773562523 0.0297657692 -0.0374115272
650296100.0 0.0308465221 -0.040994153 0.1567547471 -0.7784659983 0.1565706083 -0.7781899233 0.0296077862 -0.0372935373
655296070.0 0.0302729595 -0.0420337178 0.1475325681 -0.7801961335 0.1477152964 -0.7803788258 0.0298011582 -0.0370256296
660296040.0 0.0291615511 -0.0417727252 0.1392530876 -0.7819367051 0.1393315825 -0.7818558141 0.0283978382 -0.0378720566
665296010.0 0.0293151842 -0.0424206806 0.1310811056 -0.7832052783 0.131399407 -0.7829117492 0.0276875441 -0.0373690583
670295980.0 0.0291379298 -0.0422189142 0.1224677024 -0.7849776253 0.1228546828 -0.784726727 0.026966878 -0.0380967287
675295950.0 0.0282223115 -0.0423750483 0.1135502717 -0.7855088268 0.1137617876 -0.7861536387 0.027049549 -0.0379474237
680295920.0 0.0274325529 -0.0424202183 0.1049706157 -0.7872412314 0.1044590944 -0.7873514441 0.0265171321 -0.0384353257
685295890.0 0.0266235853 -0.0427011683 0.0966786736 -0.7879111163 0.0959784678 -0.7883675963 0.0255019123 -0.0384606609
690295860.0 0.0263649586 -0.0431563197 0.0881419824 -0.7883648254 0.0871800038 -0.7888636511 0.0252937183 -0.0380874542
695295830.0 0.0263903869 -0.0435304134 0.0782970215 -0.790111726 0.0785888035 -0.7898885447 0.0241205617 -0.0383347899
700295800.0 0.0255267698 -0.0434475192 0.0702918661 -0.7911123105 0.0702970405 -0.7912517186 0.0238759618 -0.0391625778
705295770.0 0.0245173147 -0.0434037552 0.0621463951 -0.791221153 0.0619093607 -0.7913952871 0.0228210133 -0.0393189259
710295740.0 0.0240302888 -0.0434273279 0.0533480121 -0.7919004808 0.053071343 -0.7916900923 0.0214541581 -0.039060429
715295710.0 0.0235505108 -0.043714861 0.0448610802 -0.7927606653 0.0451132448 -0.7925864183 0.0218222621 -0.039841886
720295680.0 0.0228406323 -0.0444556772 0.0360988808 -0.7932706579 0.0364810624 -0.793796195 0.0215987144 -0.0390566822
725295650.0 0.0224260972 -0.0441502246 0.0271547255 -0.7931324236 0.0276053569 -0.7933624221 0.0207112726 -0.0392069962
730295620.0 0.0211506274 -0.0444502779 0.0182777893 -0.7938174769 0.018637483 -0.7936783144 0.0205173927 -0.040268263
735295590.0 0.0213176032 -0.0443243988 0.0108386098 -0.7937027751 0.0101964135 -0.794006538 0.0193034674 -0.0394993518
740295560.0 0.0201716738 -0.0441832581 0.0015427431 -0.7936107301 0.0013840153 -0.7935960589 0.0195044379 -0.0398705592
745295530.0 0.0198614731 -0.0447780828 -0.0074645211 -0.7943043439 -0.0067381584 -0.7941800557 0.0181021683 -0.0396598594
750295500.0 0.0192545575 -0.0447665522 -0.0158553691 -0.7934206271 -0.0158532284 -0.7935591306 0.0181548987 -0.0406134673
755295470.0 0.0189580387 -0.044538441 -0.023787181 -0.793826626 -0.0239562344 -0.7937171921 0.0169896868 -0.0402550001
760295440.0 0.0178705616 -0.0444971994 -0.0331436027 -0.7934534689 -0.0332201354 -0.793024818 0.015757756 -0.0404842647
765295410.0 0.0170849311 -0.0449512245 -0.0410460982 -0.7923928448 -0.0409516472 -0.7928099571 0.0164002009 -0.0396361092
770295380.0 0.0168381603 -0.0448384354 -0.0503549155 -0.792253592 -0.0500962491 -0.7925605155 0.0158665897 -0.039947225
775295350.0 0.0161691579 -0.0445994007 -0.0584284561 -0.7912260977 -0.0582884421 -0.7914475319 0.0146285148 -0.04119613
780295320.0 0.0156786219 -0.0450232414 -0.0665010897 -0.7912161973 -0.0668793027 -0.7909197556 0.0141078503 -0.0402501342
785295290.0 0.0146715513 -0.0444280446 -0.0756844009 -0.7891382893 -0.0758747901 -0.7904674768 0.012905386 -0.0403692706
790295260.0 0.0140236614 -0.0444794664 -0.0844077635 -0.7895078841 -0.0843475248 -0.789768325 0.0131917335 -0.040237273
795295230.0 0.0131573051 -0.0447771124 -0.0924008313 -0.7882904753 -0.092673311 -0.787858338 0.0119970495 -0.0397013537
800295200.0 0.012771589 -0.0444355804 -0.1019973523 -0.7871280649 -0.1024420593 -0.7871587782 0.0118855609 -0.03996321
805295170.0 0.0118212301 -0.0449099185 -0.1098056194 -0.7855382403 -0.1102726223 -0.7861257737 0.0106466489 -0.0405527602
810295140.0 0.0115931492 -0.0445546561 -0.1182913224 -0.7847885155 -0.1185471777 -0.7852022448 0.01073665 -0.0400352537
815295110.0 0.0109138942 -0.0441875416 -0.1274283303 -0.7831523602 -0.1278843309 -0.783468341 0.0094860638 -0.0406415309
820295080.0 0.0102784571 -0.0449932301 -0.1354142238 -0.7823272193 -0.1353781817 -0.7820963388 0.0090741438 -0.0401262385
825295050.0 0.0097106261 -0.0446815766 -0.1435168072 -0.7798923745 -0.1444380099 -0.780315728 0.0087722765 -0.0398827906
830295020.0 0.0089612557 -0.0439814728 -0.1529394909 -0.778567703 -0.1536778201 -0.7789249426 0.0079520414 -0.0403923225
