!Created with skrf (http://scikit-rf.org).
# Hz S RI R 50.0 
!freq ReS11 ImS11 ReS21 ImS21 ReS12 ImS12 ReS22 ImS22
300000.0 -0.046909798 -0.0734331804 0.0003328255 0.0002447633 -0.0008208307 0.0015736597 -0.7666040581 -0.1858350387
5299970.0 -0.05019416 0.0141833403 -0.0001764231 3.81892e-05 -3.5094e-06 0.0001481364 -0.7851452073 -0.0094999571
10299940.0 -0.0446409373 0.032820373 -2.28545e-05 0.0001960077 -8.56233e-05 -0.0002775775 -0.7878004884 -0.0056571612
15299910.0 -0.035746351 0.047431758 2.84979e-05 0.0001417188 -4.4918e-06 -0.0002029602 -0.7931856453 -0.002977071
20299880.0 -0.0257773234 0.0592935231 -0.0001196082 -7.8501e-05 5.7379e-05 -4.86499e-05 -0.7999101819 0.0020837918
25299850.0 -0.0142818947 0.0685661317 7.59288e-05 -0.0003818491 0.0001324545 -5.7024e-06 -0.8062789347 0.0082050568
30299820.0 -0.0027548791 0.0753762958 0.0001169584 -1.6045e-06 0.0002134491 -0.0002675502 -0.8127091268 0.0152887925
35299790.0 0.0091755761 0.0798202994 6.1465e-05 -6.30562e-05 -0.0001862401 4.43342e-05 -0.8171982657 0.0248568476
40299760.0 0.0204327009 0.0826488999 -5.31116e-05 -7.564e-06 0.0001331791 9.41194e-05 -0.8213960354 0.0343349462
45299730.0 0.0311482537 0.0836275372 0.0001357433 3.92855e-05 -4.6426e-06 8.87271e-05 -0.8243669395 0.0435199695
50299700.0 0.0418454639 0.083593992 8.17388e-05 -7.12686e-05 0.0001023694 8.91651e-05 -0.826935036 0.0538427074
55299670.0 0.0511544493 0.0825598255 0.0002034126 0.0002184052 -5.72478e-05 0.0002001134 -0.8289904166 0.0638177342
60299640.0 0.0597121728 0.0806164899 7.23802e-05 -6.14673e-05 -4.78475e-05 7.40248e-05 -0.8297496967 0.0743586887
65299610.0 0.0677383038 0.0780549299 -5.3483e-05 9.51777e-05 1.64743e-05 0.0001490013 -0.8309336496 0.0840902581
70299580.0 0.0743856943 0.0751744772 -1.3231e-06 -3.27968e-05 5.75796e-05 0.000254389 -0.831955641 0.0934819757
75299550.0 0.0809698466 0.071570535 0.0001933054 -6.85048e-05 7.76846e-05 5.90601e-05 -0.8312924381 0.1042552941
80299520.0 0.0868452805 0.0678517656 -1.01661e-05 2.1324e-05 -0.0002723566 -9.4553e-06 -0.8307967419 0.1141099488
85299490.0 0.0919325899 0.0641966414 0.0001214985 -0.0002526246 -6.98815e-05 7.73689e-05 -0.8304512321 0.1233630517
90299460.0 0.0970025409 0.0600192459 0.0001381191 0.0002036834 -2.48589e-05 -0.0002190856 -0.8293068038 0.1330899903
95299430.0 0.1009308541 0.0561646835 2.01897e-05 -0.0001141168 -0.0002183863 -2.527e-06 -0.8282977322 0.1425974691
100299400.0 0.1045862387 0.0520396014 0.000278353 7.13788e-05 -2.91805e-05 -0.0001051936 -0.8270866875 0.1519684551
105299370.0 0.1078080225 0.0478258886 8.3099e-05 9.67524e-05 -1.33582e-05 0.0002220111 -0.8261891216 0.1611307088
110299340.0 0.110877943 0.0437877525 -3.83017e-05 8.80695e-05 0.0001399743 8.30611e-05 -0.8244868579 0.1701596369
115299310.0 0.1133385102 0.0400139438 -0.000141802 -4.43498e-05 9.12818e-05 1.97062e-05 -0.8231614612 0.1789618595
120299280.0 0.1158983081 0.0361026352 -1.84134e-05 0.0001210196 -5.16628e-05 -1.34369e-05 -0.8209236519 0.1876735598
125299250.0 0.1175716508 0.0318903686 8.08431e-05 7.42866e-05 -0.0001238758 -4.13e-08 -0.8201790975 0.1970657481
130299220.0 0.1193391444 0.0280150589 0.000142968 0.000439833 0.0002970427 -0.000136149 -0.8177019589 0.2059024788
135299190.0 0.1208746938 0.0245509724 1.61819e-05 6.5796e-05 0.0001066131 -4.10299e-05 -0.816077171 0.215282684
140299160.0 0.1223410028 0.020637474 -6.09913e-05 -1.80932e-05 -8.8753e-05 0.0001219645 -0.8144513969 0.2231439733
145299130.0 0.1232415862 0.0173465584 0.0002040789 -0.0003428904 -0.0001146924 9.46772e-05 -0.8121169199 0.232462876
150299100.0 0.124163289 0.0138293489 0.0001918269 0.0001275876 0.0001772462 6.55182e-05 -0.8095750712 0.2411369985
155299070.0 0.12501261 0.010533459 -9.66549e-05 0.0002980067 0.0001580826 0.0002832307 -0.8071156117 0.2503427905
160299040.0 0.125631552 0.0074725883 5.53008e-05 5.50159e-05 -0.0001963783 0.0001386787 -0.8045510045 0.2588152939
165299010.0 0.1260448075 0.0040632525 1.87611e-05 -0.0002051431 -1.97877e-05 6.75257e-05 -0.8021570313 0.2669182488
170298980.0 0.1267298054 0.0008851473 8.6248e-05 0.0001494873 -5.49124e-05 0.0002398463 -0.7996193577 0.2756586319
175298950.0 0.1268948696 -0.0021773401 -8.22607e-05 -2.31857e-05 -0.000150394 -7.495e-06 -0.7964430627 0.2848549235
180298920.0 0.1269507185 -0.0053475428 7.45725e-05 -4.89825e-05 0.000165174 3.98593e-05 -0.7937174314 0.2932890906
185298890.0 0.1266914232 -0.008352423 2.79827e-05 -2.82172e-05 6.66826e-05 0.0002792417 -0.7908533646 0.3018015945
190298860.0 0.1270019549 -0.0110037285 -9.06775e-05 -0.0001056372 7.79894e-05 8.63387e-05 -0.787486098 0.3100398135
195298830.0 0.1271251865 -0.01336526 0.000231522 0.0001629171 0.0001136823 0.0001330427 -0.7840848781 0.3181278429
200298800.0 0.1270009046 -0.0166824506 -1.33893e-05 -4.35609e-05 3.99001e-05 -3.68292e-05 -0.7810380311 0.3271713065
205298770.0 0.1261369299 -0.0192099705 7.781e-06 9.83107e-05 5.57471e-05 -6.15563e-05 -0.7775505818 0.3351452137
210298740.0 0.1262619638 -0.0216981574 -2.26306e-05 -0.000106682 -4.1094e-05 0.000221702 -0.7741673237 0.3435552311
215298710.0 0.1256646046 -0.0243957257 2.63567e-05 2.40385e-05 8.72059e-05 6.43752e-05 -0.7707710209 0.3513802776
220298680.0 0.125548139 -0.0268582755 7.17693e-05 0.0001171439 0.0001111977 -0.0001516291 -0.766863466 0.3595369951
225298650.0 0.1248761756 -0.0293331044 3.7226e-05 -5.37915e-05 -0.0001145512 0.0001192028 -0.7628823839 0.3675211752
230298620.0 0.1240518328 -0.031496673 -0.0001602858 7.5025e-06 -0.0001176119 -2.87215e-05 -0.7592225499 0.3749662675
235298590.0 0.1236074129 -0.034005403 -5.8617e-06 4.22584e-05 -3.33656e-05 6.21328e-05 -0.7556249227 0.3833528393
240298560.0 0.1228134313 -0.0360118792 -0.0001419944 -4.91138e-05 -4.04035e-05 -9.05661e-05 -0.7513165799 0.3909638285
245298530.0 0.1221964236 -0.038441847 0.0001990751 0.0001103217 1.05965e-05 -0.0001390803 -0.7477643862 0.3993323073
250298500.0 0.121333622 -0.0406108969 0.0002686926 2.61946e-05 -0.0001520154 0.000109168 -0.7428521898 0.4072329656
255298470.0 0.1205929743 -0.0424721647 -5.89155e-05 -5.78969e-05 5.47682e-05 -0.0001237102 -0.7390414011 0.4149404764
260298440.0 0.1198300962 -0.0450184263 -7.68055e-05 -7.17823e-05 -1.49863e-05 -0.0001905037 -0.7342943973 0.4220585524
265298410.0 0.1186283877 -0.0468773701 9.94196e-05 -5.02215e-05 5.18248e-05 0.0001786325 -0.729277192 0.4301655932
270298380.0 0.1178167961 -0.0489492994 -0.0001998907 -8.57306e-05 -5.08733e-05 -0.0002054283 -0.7254458482 0.4380236112
275298350.0 0.1171879786 -0.0507319377 0.0001851086 -5.04482e-05 5.42703e-05 3.76292e-05 -0.7205361921 0.4457482603
280298320.0 0.1158303463 -0.0527294728 6.68086e-05 5.27857e-05 3.45362e-05 1.14146e-05 -0.716401457 0.4524761237
285298290.0 0.1151727417 -0.0544673684 7.46223e-05 0.0001920424 -5.2063e-06 -3.32552e-05 -0.7119906055 0.4605912784
290298260.0 0.113910253 -0.056581643 7.77124e-05 0.0001059543 -1.09697e-05 6.6402e-06 -0.7067704293 0.4678150784
295298230.0 0.1128612593 -0.0585644532 -0.0001133672 0.0001221007 0.0001554989 -4.0656e-05 -0.7014112863 0.4748380722
300298200.0 0.1118679527 -0.0602335723 0.0002738978 -2.0503e-05 -9.0651e-05 -0.0001251125 -0.696668717 0.4822992703
305298170.0 0.1108426619 -0.062251687 -4.61328e-05 6.24223e-05 0.0001435343 -2.74273e-05 -0.6914171326 0.4896265087
310298140.0 0.1096928167 -0.0645779383 -9.4747e-05 1.89057e-05 3.96712e-05 0.0001875728 -0.6868507614 0.4969204206
315298110.0 0.108376059 -0.0662314355 5.7921e-06 -8.60271e-05 3.88333e-05 0.0003213599 -0.6814505635 0.5036050103
320298080.0 0.1068528504 -0.0682298427 2.03097e-05 4.25796e-05 -9.73079e-05 0.0001165668 -0.6759631695 0.5107602703
325298050.0 0.1052851159 -0.0703271908 -3.64469e-05 3.45237e-05 0.000111796 -0.0001068434 -0.6708608046 0.517526654
330298020.0 0.1036459231 -0.071648626 0.0001531583 8.13484e-05 0.0002579661 0.0002708528 -0.6652572257 0.5248179498
335297990.0 0.1023815325 -0.07318981 5.05988e-05 5.2378e-06 -7.97569e-05 6.71383e-05 -0.6593690109 0.5319878465
340297960.0 0.1009299134 -0.0743355254 -6.47283e-05 -7.51741e-05 0.0001743127 0.0001608161 -0.6545183455 0.5387733361
345297930.0 0.0996982079 -0.0758381992 0.0001907652 5.54826e-05 2.9308e-05 -3.12597e-05 -0.6489242873 0.5451179211
350297900.0 0.0981898839 -0.0775063712 0.000244479 8.44785e-05 9.34626e-05 5.2011e-05 -0.6433772199 0.5513268427
355297870.0 0.0967742274 -0.0787893313 0.000145018 -0.0001938671 -6.20996e-05 3.64055e-05 -0.636940949 0.5587898191
360297840.0 0.0953424581 -0.0802953171 0.0002559951 4.03909e-05 0.0001129111 -2.86782e-05 -0.6302338679 0.5655416088
365297810.0 0.0940597709 -0.0814045583 0.0001111277 0.0002384944 3.54049e-05 8.26742e-05 -0.625790206 0.5705939511
370297780.0 0.0924691264 -0.0829577629 0.0001268603 8.9196e-05 -3.01542e-05 2.12316e-05 -0.6201656174 0.5776496635
375297750.0 0.0912991068 -0.0841200186 0.0002700656 -2.21067e-05 0.0001810718 0.0001146435 -0.6132433596 0.584040991
380297720.0 0.0896890289 -0.0852089236 -0.000227661 0.0002186676 -4.0486e-06 0.0001286779 -0.6070239222 0.5898385732
385297690.0 0.0882585862 -0.0867591911 0.0002024677 -0.0001221746 -8.006e-07 -0.0001617611 -0.6014306326 0.5961384345
390297660.0 0.0868355863 -0.0881280657 8.64301e-05 -0.0001100643 0.0001155904 4.14413e-05 -0.5949205304 0.6018635864
395297630.0 0.0854716521 -0.0890246404 0.0002854674 3.90089e-05 8.56035e-05 6.42675e-05 -0.5880004355 0.6075513563
400297600.0 0.0836092669 -0.0903917365 0.0001214693 -0.0001164437 0.0003889649 -3.04311e-05 -0.5827167963 0.6139113903
405297570.0 0.0822925042 -0.0918618681 7.38504e-05 -5.71374e-05 6.85881e-05 -8.08353e-05 -0.5758828643 0.6202652013
410297540.0 0.0810941891 -0.0931233391 0.0001158044 3.98482e-05 6.58876e-05 0.0001043106 -0.5693043778 0.6259141954
415297510.0 0.0794234724 -0.0940549397 0.0002579244 -2.32324e-05 -0.0001028644 8.69624e-05 -0.5627054341 0.6312397054
420297480.0 0.0780494622 -0.0956255392 0.0001160053 0.0001318588 0.0001991129 9.07676e-05 -0.5563990492 0.6380219368
425297450.0 0.0763347174 -0.0965232647 -4.28926e-05 0.0001330801 9.22735e-05 3.38533e-05 -0.5492558505 0.6428070084
430297420.0 0.0749188126 -0.0976340362 0.0001438368 0.0002060955 8.29573e-05 0.0001540991 -0.5430792778 0.6487471129
435297390.0 0.0735820827 -0.0985414469 0.0001436894 0.000198023 5.49241e-05 4.0333e-06 -0.5372094025 0.6544084764
440297360.0 0.0719632357 -0.099508662 -6.25995e-05 4.94451e-05 -5.86609e-05 -6.29741e-05 -0.5302285345 0.6592458961
445297330.0 0.0704723291 -0.1007968447 7.71324e-05 -8.64224e-05 5.04223e-05 -4.80477e-05 -0.5231427134 0.6646661001
450297300.0 0.0689848709 -0.1018320816 8.4182e-06 0.0001962212 -1.10299e-05 0.0001890657 -0.5156184107 0.6696773889
455297270.0 0.0672646803 -0.1025073563 -8.4596e-06 8.55887e-05 0.0002850621 6.5922e-06 -0.5094572082 0.6748558237
460297240.0 0.0656805155 -0.1033435207 2.32831e-05 -0.0002347588 0.0002215514 5.94345e-05 -0.5025180489 0.6799296132
465297210.0 0.0644458148 -0.1042336885 -6.99404e-05 0.0001525676 0.0001491961 0.0001055196 -0.4949247151 0.6860625543
470297180.0 0.0627884702 -0.1050056306 0.00011905 0.0001436055 0.0001215766 0.0001085067 -0.4882759732 0.6904702189
475297150.0 0.0608592937 -0.1061017247 0.0001458732 -5.82938e-05 -0.0001358301 7.96315e-05 -0.4809918892 0.6957729389
480297120.0 0.0596700717 -0.1069217542 0.000228003 0.000198541 0.0001413963 -3.88922e-05 -0.4746505891 0.7000796565
485297090.0 0.057905868 -0.1075903787 -7.97804e-05 5.17814e-05 0.0001478571 3.93197e-05 -0.4671545394 0.7052033179
490297060.0 0.05693445 -0.1086992034 -3.42956e-05 0.0001514399 0.0002746839 -2.4005e-05 -0.4595881093 0.7091514777
495297030.0 0.0552980888 -0.1094714914 0.0002172402 0.0002127853 0.0001480702 0.0001187173 -0.4530453516 0.7136686452
500297000.0 0.0534802475 -0.1099541927 4.24203e-05 8.16209e-05 -5.76595e-05 -4.5463e-05 -0.4453762051 0.7181559965
505296970.0 0.0521980631 -0.1105540861 -2.85701e-05 0.0002157073 4.8747e-06 -8.6814e-06 -0.4381089886 0.7227106614
510296940.0 0.0503335328 -0.111124894 -4.93514e-05 -2.47703e-05 0.0001494132 3.57652e-05 -0.4305387615 0.7277277414
515296910.0 0.0486554926 -0.1117868163 -0.0001267904 -2.71712e-05 0.0002238611 3.87177e-05 -0.4231646462 0.7311428799
520296880.0 0.0472263332 -0.1122951775 0.0002083323 0.0002649486 5.63773e-05 0.0001268055 -0.415199522 0.7360578346
525296850.0 0.0454665071 -0.1130978551 9.46002e-05 5.23697e-05 -3.73449e-05 0.0001375962 -0.4079753002 0.7396606557
530296820.0 0.0440438554 -0.1133388037 0.000106486 -4.19496e-05 0.0001734301 0.0001190944 -0.4008987834 0.7434554539
535296790.0 0.042740976 -0.1141302198 5.63049e-05 -3.20016e-05 0.0001480854 -7.96593e-05 -0.39315316 0.7478758404
540296760.0 0.0415133629 -0.1144593514 6.27916e-05 2.87191e-05 0.0001320617 4.95987e-05 -0.3856743361 0.7513718427
545296730.0 0.0392826556 -0.1145486267 0.0001591099 -8.77874e-05 2.14021e-05 -0.0001226727 -0.3776243061 0.7554928082
550296700.0 0.0376814152 -0.1151537747 0.0003261684 6.55901e-05 6.06756e-05 0.0002244196 -0.370137068 0.7596389135
555296670.0 0.0360446794 -0.1154901721 3.26531e-05 -6.17734e-05 0.000136873 -0.0001059728 -0.3628293234 0.762261437
560296640.0 0.0347880373 -0.1158599435 7.79813e-05 -9.56922e-05 0.0001350699 -2.67842e-05 -0.3545095228 0.7667701272
565296610.0 0.0328837011 -0.1163649291 9.27783e-05 0.0002466992 2.50555e-05 -0.0001280564 -0.3467226646 0.7700005945
570296580.0 0.0314793595 -0.1163306788 5.16117e-05 -2.0287e-06 1.1939e-06 2.70074e-05 -0.3393799494 0.7732152507
575296550.0 0.0298814574 -0.1170271563 -5.33441e-05 3.82748e-05 2.35221e-05 5.08378e-05 -0.331164915 0.776427224
580296520.0 0.0283176786 -0.1166963046 0.0001958017 -3.35745e-05 0.0002588751 2.57581e-05 -0.3234124811 0.7793779973
585296490.0 0.0268124023 -0.1167661854 0.0002486624 -3.82838e-05 -5.88525e-05 -2.37615e-05 -0.3150745002 0.7834702132
590296460.0 0.0253581036 -0.1168895836 0.0002017636 5.04417e-05 0.0002731967 -0.0002455707 -0.3079798454 0.7858936095
595296430.0 0.0235537137 -0.1175200853 -7.0623e-05 -4.44146e-05 0.0001918904 5.32598e-05 -0.2998727041 0.7892053288
600296400.0 0.0217888889 -0.1175138426 0.0001981325 -3.60145e-05 0.0002608364 -3.23319e-05 -0.2917892563 0.7920259756
605296370.0 0.0199113079 -0.1174625298 0.0002220948 0.0001270154 2.43178e-05 -0.0001055453 -0.2835765852 0.7950517131
610296340.0 0.0185935702 -0.1177713705 0.0003095287 -1.09447e-05 -4.5965e-06 0.000236304 -0.2763346587 0.7978983281
615296310.0 0.0171645882 -0.1173711066 5.98764e-05 -5.46269e-05 0.0001732065 5.9792e-06 -0.2679420521 0.8006427578
620296280.0 0.0155704781 -0.1171018064 7.45732e-05 -2.03024e-05 0.0001509705 -7.88805e-05 -0.2603432486 0.803276898
625296250.0 0.01354943 -0.1177896278 0.0002503511 0.0001911345 0.0002091272 -0.0001919314 -0.2516255423 0.8050092323
630296220.0 0.0119419763 -0.1173974986 0.0004100822 -1.49628e-05 6.4354e-05 0.000166469 -0.2433167709 0.807959671
635296190.0 0.0103265242 -0.1169766653 0.0003047241 -7.9792e-06 0.0001678029 -8.9016e-06 -0.2356321254 0.8097649797
640296160.0 0.0087260094 -0.1174417045 -3.5165e-05 -4.49842e-05 0.0002112247 -6.951e-05 -0.2274685829 0.8125627688
645296130.0 0.0072786066 -0.117173012 0.0003316371 -1.63779e-05 0.0001710225 -3.24904e-05 -0.219563459 0.8143164209
650296100.0 0.0052175707 -0.11690542 0.0001118239 -0.0001133259 0.0001866263 2.28614e-05 -0.2106941511 0.8170110041
655296070.0 0.003670315 -0.1167772034 9.92061e-05 -0.0001924665 6.36843e-05 -8.98417e-05 -0.2029487645 0.8191759042
660296040.0 0.0017178572 -0.1163637132 7.39597e-05 -3.6261e-05 3.6049e-06 6.34499e-05 -0.1946058949 0.8204336808
665296010.0 0.0003237181 -0.1162394844 -4.967e-06 2.9562e-05 3.5113e-05 -0.0001902764 -0.186019974 0.8227475139
670295980.0 -0.0013522906 -0.1158850174 0.0004126102 0.0001287841 0.0003357503 5.40828e-05 -0.1788684115 0.8241067424
675295950.0 -0.002920041 -0.1156578595 6.75126e-05 9.25271e-05 0.0001979179 8.36975e-05 -0.1697048255 0.8263791171
680295920.0 -0.0048150234 -0.1152927821 0.0002889815 9.43952e-05 6.9721e-05 -9.4361e-06 -0.161493317 0.8280137964
685295890.0 -0.0064259281 -0.1146490973 -6.19902e-05 4.1162e-05 0.000270793 -3.43148e-05 -0.1531208458 0.8295683965
690295860.0 -0.0082403669 -0.1146239811 0.0002318307 -7.85004e-05 0.0001527724 -3.10158e-05 -0.1450798515 0.8314768158
695295830.0 -0.0097760284 -0.1144838269 0.0001344916 4.4371e-05 3.5198e-06 -0.0001753659 -0.1367177656 0.8328528121
700295800.0 -0.011452327 -0.1138554582 5.68575e-05 0.0002391333 0.0001042384 -0.0001993358 -0.1286253941 0.8334737577
705295770.0 -0.0132381268 -0.1134880702 0.0002368489 -9.18731e-05 0.0002382119 -4.73791e-05 -0.1199427988 0.8355556114
710295740.0 -0.0145220236 -0.1129388419 0.0001990077 7.35294e-05 -2.21799e-05 0.0001000453 -0.111565352 0.8365570915
715295710.0 -0.0161841933 -0.1124224544 0.0001318151 6.47761e-05 1.68804e-05 0.0001068015 -0.1033919949 0.8365180904
720295680.0 -0.0179595691 -0.1123106131 0.0003268041 0.0001492627 6.90436e-05 0.000310657 -0.0946025605 0.8375973494
725295650.0 -0.0196701225 -0.1114149685 8.26809e-05 -0.0001698296 0.000185858 0.0001308876 -0.0868870092 0.8395867153
730295620.0 -0.0217543987 -0.1111857683 0.0002295994 3.48722e-05 9.88724e-05 -0.0001597109 -0.0792278517 0.8404028336
735295590.0 -0.0233070081 -0.1105073466 3.44782e-05 -9.3664e-06 0.0004023399 1.03439e-05 -0.0698383243 0.8405556691
740295560.0 -0.0248968345 -0.1098623725 0.0002223272 0.0001291257 0.0003148058 -7.98108e-05 -0.0617731162 0.8413174775
745295530.0 -0.0266478036 -0.1093112844 0.0002447566 -0.0001159489 0.000127895 -0.0001174607 -0.0537758325 0.8418443113
750295500.0 -0.0285634702 -0.1086830345 9.61492e-05 0.0001829031 0.0001709214 5.31092e-05 -0.0446418578 0.842778555
755295470.0 -0.0299427939 -0.1080674787 0.0003950067 7.92854e-05 0.0001432045 1.74477e-05 -0.0367992655 0.8433603721
760295440.0 -0.0314012849 -0.1075128899 0.0002665154 -6.03729e-05 0.000207432 -0.0001227266 -0.0280756966 0.8428794838
765295410.0 -0.0328695526 -0.1068682795 0.0002716035 -4.74526e-05 -0.0001368474 -0.0001314063 -0.0198085054 0.8432417591
770295380.0 -0.0347438291 -0.1057239655 -9.8269e-06 -0.0001155489 -1.71315e-05 -4.09031e-05 -0.0113554327 0.8431233728
775295350.0 -0.0364195175 -0.1053347316 0.0003351179 -0.0003200914 3.5819e-05 6.34431e-05 -0.0029868383 0.8434714084
780295320.0 -0.038246448 -0.1048443832 0.0002637311 4.90204e-05 4.13181e-05 -2.74914e-05 0.0056352309 0.8438599836
785295290.0 -0.0395689096 -0.1041836532 0.0001253271 -0.000151527 -5.326e-07 3.79713e-05 0.0136329724 0.8436855731
790295260.0 -0.0411599603 -0.1034396369 8.98105e-05 5.046e-06 0.0001914586 2.8321e-06 0.0216622777 0.8430490456
795295230.0 -0.0430861189 -0.1027635585 0.0002544906 -7.6557e-05 0.0001303181 -9.27566e-05 0.0300300683 0.8427643513
800295200.0 -0.0446866032 -0.102074838 0.0002369838 -2.30461e-05 8.50723e-05 -3.02113e-05 0.0385195212 0.8424164577
805295170.0 -0.0459905122 -0.1010864174 9.13049e-05 -9.12945e-05 0.0001898668 -0.0002728376 0.0472412872 0.8423221639
810295140.0 -0.0475241387 -0.1001277956 7.95819e-05 -0.0002328459 0.0002251908 -0.0001234268 0.0557531006 0.8417535403
815295110.0 -0.0492468443 -0.0997546619 0.0001427216 9.9364e-06 0.0001822471 -8.44646e-05 0.0633976204 0.8411219182
820295080.0 -0.0507780544 -0.0988706801 -3.5178e-05 -0.0001431385 0.0001215629 -9.8243e-06 0.0715880222 0.8404511838
825295050.0 -0.0525266612 -0.0979279232 0.0001553631 0.0001447247 0.0002043713 0.0003408491 0.0799292543 0.8395967684
830295020.0 -0.0537656036 -0.0973894921 0.0002999107 0.0001479307 0.0002797705 0.000140821 0.0877922998 0.8383101363
835294990.0 -0.0555631178 -0.0966216315 0.0002146515 -0.0001501977 8.72205e-05 -0.0001529183 0.0967654827 0.8376781687
840294960.0 -0.056791937 -0.0956848161 -3.0084e-06 -1.78112e-05 8.47594e-05 -3.36941e-05 0.1056018417 0.8368433537
845294930.0 -0.0585382419 -0.0944052993 0.0002043887 6.27805e-05 0.0003045871 7.77435e-05 0.1139844902 0.8355700828
850294900.0 -0.0595863945 -0.0939711422 0.0001558201 2.80647e-05 0.0003997214 -5.26173e-05 0.1213597505 0.834585757
