!Created with skrf (http://scikit-rf.org).
# Hz S RI R 50.0 
!freq ReS11 ImS11 ReS21 ImS21 ReS12 ImS12 ReS22 ImS22
300000.0 -0.3141845096 -0.1330090674 0.3696393849 0.0665151564 0.3711171071 0.0670477248 -0.3150016838 -0.13403545
5299970.0 -0.3251894147 0.0027474331 0.3784866731 0.0032417603 0.3786803192 0.0033380109 -0.3259002864 0.0022504916
10299940.0 -0.3224373264 0.0141822695 0.3796686287 0.0027011879 0.3800175682 0.0030504422 -0.3230430556 0.0124466468
15299910.0 -0.3192200909 0.0223315305 0.3822524004 0.0027683399 0.3822430427 0.002816678 -0.3203208833 0.0195685138
20299880.0 -0.3156366674 0.0290892889 0.3846162705 0.0017091157 0.3853001596 0.0019406553 -0.3177689098 0.0260282266
25299850.0 -0.3114810094 0.0346957844 0.3885108545 0.0006345254 0.3888116252 0.0003350055 -0.31467778 0.0309531862
30299820.0 -0.3083597139 0.0392700242 0.3920585465 -0.0018468185 0.3919830383 -0.0022246391 -0.311676898 0.0355930186
35299790.0 -0.3041769898 0.0438312082 0.3947978775 -0.0052530738 0.3953272197 -0.005447317 -0.3090274906 0.0399506571
40299760.0 -0.3012270354 0.0471235376 0.3985420204 -0.0085682231 0.3985589408 -0.0089966026 -0.3062688784 0.0431769425
45299730.0 -0.2983023934 0.0498575472 0.4011428678 -0.0123363785 0.4013485261 -0.0125190423 -0.3032757113 0.0463825149
50299700.0 -0.2950605214 0.052856207 0.403873395 -0.0170799878 0.4039664587 -0.0173564614 -0.3010304994 0.0496647686
55299670.0 -0.2924080266 0.0551833239 0.4059758636 -0.0211790163 0.4058771376 -0.0218245482 -0.2991652716 0.0523623054
60299640.0 -0.2897596371 0.0578385454 0.4080437314 -0.0267068431 0.4079367657 -0.0267993196 -0.2966861852 0.0549390071
65299610.0 -0.2872172751 0.0602485131 0.4094821189 -0.0315120732 0.4097587821 -0.0318177018 -0.2951165842 0.0576299495
70299580.0 -0.2851914282 0.0620100645 0.4106553111 -0.0364566676 0.4110790844 -0.0368220676 -0.2933981743 0.060018359
75299550.0 -0.2837216461 0.0640978841 0.4119131798 -0.0419134582 0.4119847965 -0.0422353415 -0.2917404815 0.0623754253
80299520.0 -0.2817577691 0.0664510242 0.4128935814 -0.0471343994 0.4132756172 -0.0474222622 -0.2901544484 0.0649055996
85299490.0 -0.2794641849 0.0682363502 0.4130333453 -0.0528017445 0.4136989046 -0.0524707195 -0.2888345171 0.0668619662
90299460.0 -0.278170413 0.070768737 0.4134839491 -0.0575720323 0.4139005957 -0.05784189 -0.2872753898 0.0694322461
95299430.0 -0.2768021793 0.0726559955 0.4136518892 -0.0630088855 0.4144131947 -0.0633492562 -0.2862851992 0.0718088868
100299400.0 -0.2753653449 0.0744497665 0.4141212765 -0.068174586 0.4141074034 -0.0686076131 -0.2848787129 0.0745795626
105299370.0 -0.2738265164 0.0765783286 0.413787834 -0.0732356959 0.4141619949 -0.073306689 -0.283785306 0.0762165095
110299340.0 -0.272630823 0.0786743687 0.413733845 -0.0781493579 0.4138171951 -0.0782788321 -0.2829853033 0.0786315345
115299310.0 -0.2716627463 0.0810192991 0.4134638435 -0.0833167824 0.4134399765 -0.0841561803 -0.2818200679 0.0815185394
120299280.0 -0.2705069201 0.0832524849 0.41305262 -0.0888936681 0.4130561768 -0.0889820076 -0.2808121311 0.0832434407
125299250.0 -0.2693730133 0.0848924955 0.412678027 -0.093578761 0.4123180407 -0.0938336811 -0.2797732895 0.0862441237
130299220.0 -0.2682972564 0.0872013562 0.4116765399 -0.0990607641 0.4118089297 -0.0994842492 -0.278938811 0.088321711
135299190.0 -0.2671889069 0.0899436426 0.4112149172 -0.1039155534 0.4113068262 -0.1041951714 -0.2783115205 0.0908503222
140299160.0 -0.2666077292 0.0923511064 0.4105958684 -0.109266127 0.410432016 -0.1089156591 -0.2774108501 0.0930517007
145299130.0 -0.2654980885 0.0944975404 0.4094131903 -0.1137648717 0.4095312505 -0.1140378683 -0.2764492567 0.0958507156
150299100.0 -0.2641099063 0.0970093123 0.4082394754 -0.1189091567 0.4082971346 -0.1188558233 -0.2754685131 0.0983620116
155299070.0 -0.2630698502 0.0993900775 0.4068157202 -0.1235982895 0.407590145 -0.1237500432 -0.2745565693 0.1009459763
160299040.0 -0.2620622869 0.1019195968 0.4061018781 -0.1285333137 0.4062711439 -0.1290846831 -0.2737876597 0.1040670784
165299010.0 -0.2610736608 0.1042981558 0.4046168069 -0.1332231024 0.4048239988 -0.1337342704 -0.2724413501 0.1059865488
170298980.0 -0.2600461701 0.1069719549 0.4031599686 -0.138663071 0.4035577221 -0.1384883782 -0.271722218 0.1087303445
175298950.0 -0.2588477571 0.1093543472 0.4020087795 -0.143195115 0.4023795777 -0.1434017006 -0.2709076055 0.1119022774
180298920.0 -0.2582223823 0.1118406947 0.4006566147 -0.1478755101 0.40077508 -0.1480193103 -0.2697110441 0.1140082489
185298890.0 -0.2570965995 0.1143090599 0.3993038605 -0.1522749357 0.3993412364 -0.1527693207 -0.2687685579 0.1165903971
190298860.0 -0.2558356608 0.1169226718 0.3972367434 -0.1571089727 0.3977444952 -0.1572250172 -0.2676380437 0.1193994398
195298830.0 -0.2546725504 0.1196742597 0.3960626808 -0.1618081295 0.3963548691 -0.1617080744 -0.2664987348 0.1219744859
200298800.0 -0.2536041174 0.1219411656 0.394278514 -0.1668426071 0.3943687033 -0.1667226553 -0.2653942921 0.1247976392
205298770.0 -0.2528363247 0.1245837716 0.3924108988 -0.1709963085 0.3924731483 -0.1708967778 -0.2642552594 0.1275198047
210298740.0 -0.251622392 0.1275198314 0.3907674078 -0.1756563204 0.3905584711 -0.1757157941 -0.2634782699 0.1300741712
215298710.0 -0.2500709103 0.129991671 0.3881942697 -0.1796530463 0.388586744 -0.1807045218 -0.2621146946 0.1327469852
220298680.0 -0.248979578 0.1324506197 0.3867297332 -0.1847894321 0.3865613155 -0.184787447 -0.2608245628 0.1355549874
225298650.0 -0.2478360246 0.1352713164 0.3842712775 -0.1890763644 0.3846270375 -0.188684918 -0.2597278855 0.1380078472
230298620.0 -0.2462957318 0.1382325976 0.3825368684 -0.1937495427 0.3828382437 -0.1935161547 -0.258471654 0.1406559559
235298590.0 -0.2454422282 0.1405759451 0.3809233022 -0.1982496247 0.3808491521 -0.1978354395 -0.2570942151 0.1434876197
240298560.0 -0.2438756912 0.1434003371 0.378429949 -0.2020786316 0.3785346699 -0.2021751341 -0.2559361073 0.1458461517
245298530.0 -0.2428484684 0.1457980371 0.376067336 -0.2065680875 0.3762156927 -0.2066810386 -0.2546786997 0.1489959182
250298500.0 -0.2415319427 0.1485131165 0.3738511145 -0.2105892455 0.3739794871 -0.2108176267 -0.2533171793 0.1515557532
255298470.0 -0.2399085632 0.1511667511 0.3715922385 -0.2147089998 0.372083769 -0.2154106306 -0.2519935471 0.1544849414
260298440.0 -0.2388238257 0.1534176733 0.3692406794 -0.2186230267 0.3695192693 -0.2190319414 -0.2504133825 0.1568040151
265298410.0 -0.2373482923 0.1561652537 0.3668616777 -0.223510458 0.3667319526 -0.2237844491 -0.2484423617 0.1594606612
270298380.0 -0.236183228 0.1587125717 0.3646005492 -0.2274649128 0.3647633165 -0.2276265782 -0.2474575264 0.1623364421
275298350.0 -0.2344481114 0.1615704214 0.3612797932 -0.2313268424 0.3617753185 -0.2318541463 -0.2456016621 0.1651750201
280298320.0 -0.2328817302 0.1640066237 0.3594237706 -0.2355132691 0.3596103767 -0.2357083364 -0.2443190347 0.1679209174
285298290.0 -0.2316054856 0.1666081897 0.3565570074 -0.2393605767 0.3569583689 -0.2395639263 -0.2427398806 0.1707152642
290298260.0 -0.2298481971 0.1693446503 0.3545257719 -0.2435606692 0.3545005744 -0.2438646452 -0.240964912 0.1730117522
295298230.0 -0.2282048294 0.1715045538 0.3517490167 -0.2479064643 0.3517852491 -0.2478695606 -0.2393257826 0.1754916228
300298200.0 -0.2266328972 0.1743371207 0.3488538701 -0.2517771422 0.3491269625 -0.2515376487 -0.2376715123 0.1781067622
305298170.0 -0.2252354857 0.1765398761 0.3462070675 -0.255824558 0.3466930524 -0.2555976168 -0.2357158365 0.1804339195
310298140.0 -0.2231943522 0.1790609134 0.3432252696 -0.259344823 0.3434242354 -0.259364982 -0.2338244186 0.1831117476
315298110.0 -0.2219041317 0.1812115708 0.3404720578 -0.2638032251 0.3408292742 -0.2638386287 -0.2318941659 0.1854737936
320298080.0 -0.2200053507 0.1836833078 0.337009585 -0.2672670302 0.3379101926 -0.2676474456 -0.2303992201 0.1883188225
325298050.0 -0.2186925013 0.1859147855 0.3340408159 -0.270947343 0.3350350578 -0.2712330463 -0.2283987171 0.1902790734
330298020.0 -0.217057115 0.1884973568 0.3316292455 -0.2749575258 0.3316774004 -0.2751436622 -0.226924579 0.1929127818
335297990.0 -0.2152201465 0.1905959876 0.3283080423 -0.2783418075 0.3284997388 -0.2786722003 -0.2246074323 0.195434211
340297960.0 -0.2137341653 0.1932110984 0.3250875515 -0.2821929754 0.3252310792 -0.2825115562 -0.2230011241 0.1981414169
345297930.0 -0.2118953799 0.1957119239 0.3219153215 -0.2861069268 0.321785801 -0.2862568428 -0.2208846034 0.200282549
350297900.0 -0.2100547175 0.1980022155 0.3190333575 -0.2891438506 0.3193545042 -0.2893058467 -0.2192796976 0.2027593992
355297870.0 -0.2081035325 0.2003905645 0.3155313402 -0.2927020609 0.315686065 -0.2926636207 -0.2170111376 0.2055362578
360297840.0 -0.205989128 0.2027603585 0.3119311737 -0.2964132417 0.3121468417 -0.2968434236 -0.2149300494 0.2079713508
365297810.0 -0.2046920134 0.205321449 0.3090307352 -0.2997539216 0.3089609018 -0.2999393495 -0.2131159122 0.2102454497
370297780.0 -0.2023687697 0.2071771508 0.304895482 -0.30316647 0.305928046 -0.3029620291 -0.2110517659 0.212645243
375297750.0 -0.2004595555 0.2094677278 0.3022863974 -0.3062144876 0.3023506159 -0.3065154129 -0.208468105 0.2150792086
380297720.0 -0.1985151194 0.2119093694 0.2993078783 -0.3096750084 0.2989543517 -0.3098491043 -0.2063857288 0.2174859067
385297690.0 -0.1966539513 0.214067827 0.2953844079 -0.3128476746 0.2956236953 -0.3131183295 -0.2043524345 0.2202905338
390297660.0 -0.1940849538 0.2162310417 0.2920720565 -0.3160850451 0.2918700528 -0.3163933304 -0.2018552277 0.2222385087
395297630.0 -0.1919065374 0.218505927 0.2884342792 -0.3190255965 0.2885198598 -0.3194897653 -0.1998312647 0.2243725489
400297600.0 -0.1900656321 0.22060476 0.2849813592 -0.3227009296 0.2855033489 -0.3225813738 -0.1975086526 0.2269354676
405297570.0 -0.1881962704 0.222548995 0.2816904254 -0.3254938752 0.2816590389 -0.3256442905 -0.1948168054 0.2291187447
410297540.0 -0.1854635515 0.2247936653 0.277600463 -0.3287909071 0.2780412528 -0.328693293 -0.192610989 0.2317830949
415297510.0 -0.1835347263 0.2267874865 0.2740511701 -0.3315860194 0.2744070522 -0.3318888353 -0.1902391072 0.2337299234
420297480.0 -0.1809324125 0.2286994459 0.2702190074 -0.3346346895 0.2707521699 -0.3348866191 -0.1874766465 0.2361567479
425297450.0 -0.1785182195 0.2307450995 0.2665593941 -0.3372317736 0.2671243033 -0.3376052177 -0.1854518896 0.2377582468
430297420.0 -0.1765877092 0.2328698758 0.2634755701 -0.3405777547 0.2635426394 -0.3401988583 -0.1827373274 0.2401751294
435297390.0 -0.1743101717 0.2348008379 0.2592007692 -0.3437764187 0.2594300032 -0.3433081045 -0.1806396488 0.242400413
440297360.0 -0.1715337874 0.2364988043 0.2552990978 -0.3462158561 0.2553712487 -0.3463615372 -0.1780765711 0.24452845
445297330.0 -0.1690360568 0.2383920064 0.2518177241 -0.3489065837 0.2518493423 -0.3491117538 -0.1751712524 0.2463158244
450297300.0 -0.1669283884 0.2404318193 0.2479985974 -0.351545151 0.248090245 -0.3517044878 -0.1726697785 0.2480622344
455297270.0 -0.1645145626 0.241904163 0.2443315032 -0.354018099 0.2442021995 -0.3546995734 -0.1702015373 0.2506119981
460297240.0 -0.1617681081 0.2441299775 0.2400830962 -0.3576430645 0.2403197477 -0.3570527774 -0.1675787974 0.2523142142
465297210.0 -0.1588905514 0.2461298481 0.2356969236 -0.3596380915 0.2359075574 -0.3599045127 -0.1644987062 0.254577163
470297180.0 -0.1564668676 0.24733157 0.2319414419 -0.36194312 0.2322318767 -0.3621502192 -0.1622395553 0.2562537938
475297150.0 -0.1541600886 0.2496084094 0.2281969871 -0.3647179822 0.2284005945 -0.3647334144 -0.1596835194 0.258159106
480297120.0 -0.151054946 0.2513443206 0.2243274978 -0.3672515214 0.2242753478 -0.3669785892 -0.1571058722 0.2600149033
485297090.0 -0.1484905991 0.2528768877 0.219903178 -0.369595473 0.219883681 -0.3696660565 -0.1541436757 0.2621905528
490297060.0 -0.1449580196 0.2544291081 0.2154965154 -0.3718671624 0.2159906492 -0.3723499112 -0.151327683 0.2632791582
495297030.0 -0.1431949172 0.2560963686 0.2122909014 -0.3742712375 0.2121255396 -0.3743082929 -0.148460241 0.2649919954
500297000.0 -0.1404973402 0.2578482153 0.2077817868 -0.3761358671 0.207871275 -0.3766772747 -0.1458353075 0.2668856703
505296970.0 -0.1371961262 0.2595995311 0.2037229261 -0.379131809 0.2036830194 -0.3788467368 -0.1430161456 0.268406949
510296940.0 -0.1343680595 0.2607707603 0.1997773106 -0.381206853 0.1994839382 -0.3810171122 -0.1397733678 0.2704109419
515296910.0 -0.1317969064 0.2629167653 0.1950864542 -0.3830313225 0.195331275 -0.3829151092 -0.137565314 0.2716053028
520296880.0 -0.1287790261 0.2641795422 0.1910138119 -0.3849253367 0.1907449577 -0.3850858866 -0.133764564 0.2736259603
525296850.0 -0.1257668106 0.2654257873 0.1866294961 -0.3869958245 0.1866565253 -0.387353018 -0.1313850598 0.2753603717
530296820.0 -0.123555051 0.2671028378 0.1824141307 -0.3890896821 0.1825351798 -0.3888619099 -0.1283003422 0.2761270358
535296790.0 -0.1199330991 0.2685460653 0.1782460849 -0.3907862809 0.1782818976 -0.3913744848 -0.1252111005 0.2782604836
540296760.0 -0.117083705 0.2702414104 0.1736294868 -0.3931180393 0.1736243668 -0.3928272534 -0.1224586387 0.2792992014
545296730.0 -0.1146285293 0.2717555018 0.1697901071 -0.3946342146 0.1697343401 -0.3946299451 -0.1196826535 0.2810339916
550296700.0 -0.111108743 0.2730243926 0.1648456521 -0.3966905843 0.1649407258 -0.3967610577 -0.1165290372 0.2822180339
555296670.0 -0.1084589595 0.2744913683 0.1609985687 -0.3984943172 0.1607090141 -0.3981903463 -0.1135522087 0.2832963088
560296640.0 -0.1050134684 0.2755452652 0.1560874365 -0.3999333164 0.1563411242 -0.3999250597 -0.1105428359 0.2849770116
565296610.0 -0.1028290805 0.2766764087 0.1524972236 -0.4017208145 0.1520087382 -0.4015071441 -0.1071880732 0.2863641758
570296580.0 -0.0995474681 0.2784371868 0.1477598664 -0.4033384948 0.1474590461 -0.4030161327 -0.1047239563 0.2870865649
575296550.0 -0.0960025657 0.2792429871 0.1434215658 -0.4048045225 0.1432943632 -0.4048720787 -0.101229992 0.2885940613
580296520.0 -0.0934007358 0.2809997182 0.138919616 -0.4063506372 0.1388937637 -0.4060891026 -0.0986828284 0.2894668275
585296490.0 -0.0902324902 0.2817456784 0.134502208 -0.4076793174 0.1340879084 -0.4075569951 -0.0953110196 0.2910033287
590296460.0 -0.0865204785 0.2830812787 0.1300088853 -0.409242014 0.1298858207 -0.4091639379 -0.0926107853 0.2922205903
595296430.0 -0.0835979675 0.2840597032 0.1249870795 -0.4103548471 0.1252233441 -0.4103863996 -0.0894511086 0.2931626987
600296400.0 -0.0809999227 0.2851242956 0.1206152865 -0.4114748198 0.1207225206 -0.4114894514 -0.0860232316 0.2939973741
605296370.0 -0.0779343965 0.2861530515 0.1169340984 -0.4127282396 0.1160781518 -0.4129976233 -0.0827401042 0.2951626263
610296340.0 -0.0744461699 0.2875770016 0.1121236974 -0.413558352 0.1121153527 -0.4139898152 -0.0800820745 0.2963306058
615296310.0 -0.0711385915 0.2884000055 0.1073643208 -0.4155353822 0.1070033952 -0.4152563961 -0.0765752895 0.2973941861
620296280.0 -0.068505762 0.2898206518 0.1028834893 -0.4163971565 0.1027382888 -0.4162270734 -0.0739193195 0.2984070611
625296250.0 -0.0655071621 0.2905319515 0.098201353 -0.4177275382 0.0983159205 -0.4175374513 -0.0708280918 0.2988077105
630296220.0 -0.0620827652 0.2913233707 0.0935426201 -0.4180387027 0.0935473592 -0.4185616436 -0.0674902595 0.3003337926
635296190.0 -0.0593996316 0.2923145823 0.0893337947 -0.4194691381 0.0891801411 -0.4192390932 -0.0646989065 0.3009116171
640296160.0 -0.0556500576 0.2931464766 0.084485086 -0.4205445151 0.0842240474 -0.4204179326 -0.0610291653 0.3017481689
645296130.0 -0.0526070869 0.2944533177 0.0798613041 -0.4214126401 0.0799424209 -0.4212003703 -0.0582201736 0.3023806177
650296100.0 -0.049749773 0.2949879323 0.0756949141 -0.4222012236 0.0749217077 -0.4221375016 -0.0544999338 0.3032122346
655296070.0 -0.0464855635 0.2956497349 0.0706145948 -0.4226312531 0.0705672973 -0.4225507631 -0.0518429635 0.3042860013
660296040.0 -0.043476297 0.29656671 0.066351481 -0.4235325587 0.0661322856 -0.4236041259 -0.0484511074 0.3045643732
665296010.0 -0.0406095303 0.29725469 0.0615639609 -0.4236216806 0.0616567998 -0.4240127485 -0.0453643334 0.305076327
670295980.0 -0.0371960079 0.2979808391 0.0569663685 -0.4245509736 0.0570591304 -0.4245108913 -0.0422634743 0.3058635647
675295950.0 -0.0340436233 0.2986818712 0.0524160233 -0.4251535233 0.0522360862 -0.425194836 -0.0389172156 0.3064852335
680295920.0 -0.031230397 0.2995747039 0.0479721295 -0.4252782813 0.047723915 -0.4255520955 -0.0354741841 0.3066341632
685295890.0 -0.0276528465 0.3002813031 0.0428083127 -0.4262508198 0.0429957047 -0.42639632 -0.0322250196 0.307647734
690295860.0 -0.0248179003 0.3004724677 0.0386960944 -0.4261928266 0.0384191635 -0.4268633671 -0.0291665431 0.308194445
695295830.0 -0.0215464392 0.3012321074 0.0343314431 -0.4269512536 0.0336166079 -0.4271152428 -0.0262464491 0.3088556293
700295800.0 -0.018300176 0.3016004872 0.0297174565 -0.4269827229 0.0292932478 -0.4273969437 -0.0227623393 0.3087807688
705295770.0 -0.0153747005 0.3023042573 0.0246661908 -0.4274486451 0.0245422974 -0.4276461975 -0.0194960798 0.3091504309
710295740.0 -0.01238216 0.3024188593 0.0203805711 -0.4276678824 0.0198683177 -0.4278164257 -0.015995179 0.3094326148
715295710.0 -0.009022512 0.3031555723 0.0155231576 -0.4278660746 0.0149648158 -0.4279961139 -0.012968477 0.3095801415
720295680.0 -0.0056461246 0.3035063739 0.0105266637 -0.4278716253 0.0104808994 -0.4283292266 -0.0096187955 0.30996193
725295650.0 -0.0030862559 0.3039393215 0.0063625598 -0.4280599371 0.0061166196 -0.428020613 -0.0066918448 0.3105358711
730295620.0 -0.0002227416 0.3038471821 0.0018789089 -0.4276440478 0.0013163772 -0.4278192161 -0.0033244987 0.3108872536
735295590.0 0.0029407135 0.3045366999 -0.002747173 -0.4282926611 -0.0030393418 -0.428103379 -2.29893e-05 0.310523902
740295560.0 0.0060106502 0.3039957075 -0.0073251519 -0.4278555606 -0.0072184508 -0.4282333689 0.0029486069 0.3111165542
745295530.0 0.0093310031 0.3045804628 -0.0119598088 -0.4272108303 -0.0117473123 -0.4278910226 0.0062378506 0.3111737895
750295500.0 0.0119681596 0.3047930737 -0.0162946425 -0.4274161684 -0.0168962576 -0.4274166723 0.0094058463 0.3110145547
755295470.0 0.0152731374 0.3048716403 -0.0209217751 -0.4275576132 -0.0213835631 -0.4275755812 0.0131367913 0.3113156233
760295440.0 0.0184994795 0.305400559 -0.0263970419 -0.4269658529 -0.0260794562 -0.4265961037 0.0161783368 0.3106256911
765295410.0 0.0214241313 0.305199838 -0.0305102639 -0.4266329297 -0.0302635606 -0.4265279149 0.0196695086 0.3111739473
770295380.0 0.0245194164 0.3053509688 -0.0348656926 -0.4258295631 -0.0352841518 -0.4264277308 0.0223860471 0.3111584919
775295350.0 0.0273026558 0.305046512 -0.0396515092 -0.4257817595 -0.0398126642 -0.425711344 0.0262471532 0.3108310955
780295320.0 0.0308437993 0.3050839642 -0.0440739154 -0.4248837419 -0.0439460158 -0.4257447307 0.0293602693 0.3108654587
785295290.0 0.0334063919 0.3047944885 -0.0486032643 -0.4247547368 -0.0486281413 -0.4251062609 0.0322376195 0.3110100425
790295260.0 0.0365488678 0.3043476627 -0.0533967752 -0.4241586085 -0.0533791941 -0.4246052209 0.0356501112 0.3108991055
795295230.0 0.039583783 0.3043706643 -0.058003387 -0.4236384683 -0.0580284556 -0.4237552228 0.038866037 0.309761962
800295200.0 0.0425413821 0.3042445815 -0.0618419502 -0.4226889617 -0.062320295 -0.4231655192 0.0416295308 0.3096914619
805295170.0 0.0455156991 0.3040287721 -0.0666062245 -0.4218698299 -0.0669001189 -0.4227554471 0.0454905512 0.3095698886
810295140.0 0.048911157 0.3039001225 -0.0715736086 -0.4212721817 -0.0717205466 -0.421568739 0.048908389 0.3093517303
815295110.0 0.05154904 0.303431732 -0.0756593574 -0.4205940615 -0.0760465261 -0.4208522928 0.0515269654 0.3092370394
820295080.0 0.0549019504 0.3031757863 -0.0802088365 -0.4192699914 -0.0802618712 -0.4201997829 0.054391807 0.3087709771
825295050.0 0.0575654416 0.3027705893 -0.0846907368 -0.4188206578 -0.0854026654 -0.4191720751 0.0585098483 0.3084865655
830295020.0 0.0610117278 0.3022654756 -0.0895757314 -0.4180497016 -0.0895108249 -0.4179139588 0.0611515942 0.3073734022
