!Created with skrf (http://scikit-rf.org).
# Hz S RI R 50.0 
!freq ReS11 ImS11 ReS21 ImS21 ReS12 ImS12 ReS22 ImS22
300000.0 -0.0946786761 -0.0959053247 0.6220166856 0.090364454 0.6197590075 0.0908303778 -0.0944578465 -0.1035367285
5299970.0 -0.1015528569 0.0112819559 0.6303204771 0.0110148359 0.6308412766 0.011116914 -0.1017847647 0.0113412403
10299940.0 -0.0969158989 0.0288558268 0.6349987338 0.0161496293 0.6341118126 0.0165962227 -0.0964883067 0.028567193
15299910.0 -0.0890374636 0.0423720115 0.6402979162 0.0213779499 0.6407250176 0.0212522453 -0.0899496582 0.0419635678
20299880.0 -0.0805086781 0.0534089696 0.6489037961 0.023928747 0.6488126898 0.0243577204 -0.0809709443 0.0529545411
25299850.0 -0.0703283918 0.0625438361 0.6581990961 0.0259940765 0.6586430426 0.0253461207 -0.0716109119 0.0618752337
30299820.0 -0.0608357311 0.0687281558 0.6680530254 0.0242268815 0.6680892582 0.0247392328 -0.0619652082 0.0687043012
35299790.0 -0.050645786 0.0734431404 0.6773080029 0.0224099764 0.6771081481 0.0218515822 -0.0524119088 0.0736165123
40299760.0 -0.0411064165 0.0765956023 0.6868078665 0.0176523678 0.6868135138 0.0175542358 -0.0427175725 0.0769911023
45299730.0 -0.0319825374 0.0785839968 0.6962661135 0.0126462734 0.6961762017 0.0118973076 -0.0332255816 0.0789511812
50299700.0 -0.0227521088 0.0790677872 0.7038540818 0.0052134619 0.7038583701 0.0050081747 -0.0247752072 0.0802755941
55299670.0 -0.0153460732 0.0788316472 0.7115257623 -0.0022886419 0.7110206398 -0.0026713132 -0.0174565295 0.0804383084
60299640.0 -0.0077090392 0.0785207015 0.7178021424 -0.0109363665 0.7180394668 -0.0110813756 -0.0094749439 0.0796973595
65299610.0 -0.0013677863 0.0770851567 0.723779583 -0.019519439 0.7243518511 -0.0199310989 -0.0026139878 0.0786521329
70299580.0 0.0052606936 0.0753851427 0.7295339935 -0.0287807292 0.7292818905 -0.0290165818 0.003091833 0.0771382952
75299550.0 0.0103749707 0.0734930286 0.7334137364 -0.0391675047 0.733499188 -0.0387466859 0.0085434371 0.0753677556
80299520.0 0.0153994396 0.0715056002 0.7377984799 -0.0486554385 0.738006691 -0.048322609 0.0136746731 0.073415266
85299490.0 0.0197121209 0.0692478474 0.7409740581 -0.0585782166 0.740925483 -0.058400621 0.0177672073 0.0709522405
90299460.0 0.023892125 0.0666878591 0.7429849565 -0.0683356651 0.743491628 -0.0681232754 0.0223117156 0.0690889074
95299430.0 0.02791575 0.0643272269 0.7459292414 -0.078573672 0.7463455133 -0.0791275073 0.0259632806 0.0667191115
100299400.0 0.0311419649 0.0614762913 0.7473051789 -0.0884505686 0.7479082869 -0.0888539352 0.0290729835 0.0646980888
105299370.0 0.0342569398 0.0590958237 0.7492742079 -0.0988041071 0.7498143715 -0.0989266884 0.0328114405 0.061728321
110299340.0 0.0372625704 0.056269541 0.7505510528 -0.1085361008 0.7509090121 -0.1086613276 0.0349424458 0.0592703644
115299310.0 0.0395310314 0.0541423973 0.7515057451 -0.1189347381 0.7510942689 -0.1185716949 0.0373542283 0.0576365088
120299280.0 0.0414331372 0.052134002 0.7523095453 -0.1299387432 0.7517664093 -0.1294762711 0.0395997192 0.0546365717
125299250.0 0.0437604868 0.0496681817 0.7518787355 -0.1387219758 0.752591792 -0.1386557721 0.0420620119 0.0528251102
130299220.0 0.0457122564 0.0469698309 0.7521164387 -0.1495006818 0.7517980715 -0.1491676154 0.043784338 0.0506292978
135299190.0 0.0468787417 0.0455024979 0.7520502594 -0.1584509235 0.7522717717 -0.1590904859 0.0454358842 0.0479403858
140299160.0 0.0488239814 0.0429880334 0.7516312094 -0.1687170116 0.7510504889 -0.1683003191 0.0461047156 0.0454021751
145299130.0 0.0492928893 0.0408656178 0.7497646384 -0.1781780298 0.7510992576 -0.178069141 0.0477739628 0.0437583511
150299100.0 0.0508712769 0.0393306272 0.7489383527 -0.1876427139 0.7496152594 -0.1877122086 0.0491607371 0.0421270944
155299070.0 0.0524329885 0.0371917051 0.747485519 -0.1975667661 0.7483879717 -0.1974295202 0.0506108431 0.0394325311
160299040.0 0.0532926897 0.0355086634 0.7471513436 -0.20717874 0.7467190388 -0.2071968682 0.0507886099 0.0381813057
165299010.0 0.0542819174 0.033476979 0.745146777 -0.2165746114 0.7450657205 -0.2164888315 0.0520602546 0.0359417857
170298980.0 0.055092696 0.0318574417 0.7432057347 -0.2259140213 0.7433708539 -0.2260256293 0.0525226796 0.0339377835
175298950.0 0.0558865558 0.0302451932 0.7419789516 -0.2353406565 0.7415654226 -0.2355481762 0.0530313641 0.032426907
180298920.0 0.0561434827 0.0286551487 0.7394863873 -0.2447403797 0.7392601252 -0.2445572841 0.0538900983 0.0308545425
185298890.0 0.0565119282 0.0272785046 0.7376403009 -0.2533542892 0.7373676288 -0.2531289672 0.0550491832 0.0288000865
190298860.0 0.0581351485 0.0257095079 0.734012556 -0.2632126697 0.7351949519 -0.2625029425 0.0552426105 0.0275968046
195298830.0 0.0578149759 0.0242582034 0.732693492 -0.271722796 0.7325625359 -0.2714561991 0.0555270782 0.0258696241
200298800.0 0.0583342127 0.0224895939 0.7303327047 -0.2813152719 0.7297134267 -0.2808533645 0.0562001344 0.0239077149
205298770.0 0.0582648683 0.0209546441 0.7266026357 -0.2891701109 0.7276508997 -0.2892561414 0.0567688181 0.0228013238
210298740.0 0.0588112871 0.0199292814 0.7240576164 -0.2983676899 0.723416391 -0.2981980157 0.0562049825 0.0208975882
215298710.0 0.0593222241 0.0188662516 0.7205632917 -0.3065940414 0.720892368 -0.3073602494 0.0571970899 0.0200177642
220298680.0 0.0595765989 0.0174677266 0.7173168059 -0.3155680529 0.7171621302 -0.3156336832 0.0571622248 0.0179937269
225298650.0 0.0595674278 0.016143049 0.7140687352 -0.3239269188 0.714818812 -0.3239199695 0.0572937468 0.0161791369
230298620.0 0.0600866595 0.0152235863 0.7116915697 -0.3327712726 0.711364761 -0.3330639033 0.0570881274 0.0153347712
235298590.0 0.0598731053 0.0137297224 0.7077067768 -0.3421245792 0.7079868271 -0.3414503066 0.0578946595 0.0141908119
240298560.0 0.0604087568 0.0126723279 0.7035821835 -0.3495795665 0.7035562909 -0.3494175071 0.0575788359 0.0127035512
245298530.0 0.0601351887 0.0115062476 0.7004222736 -0.3582211296 0.7001613877 -0.3580160232 0.0577283826 0.0116435422
250298500.0 0.0600071273 0.0104156647 0.6971077834 -0.3657236862 0.6966936749 -0.3657393972 0.0576827381 0.0103153929
255298470.0 0.0605466933 0.0096373293 0.6931666678 -0.3739620233 0.6933863477 -0.3743819701 0.0580311156 0.0097298929
260298440.0 0.0604525456 0.0082192066 0.6890119979 -0.382110019 0.6889353787 -0.3819597128 0.057600002 0.0077896499
265298410.0 0.0599817718 0.0076160029 0.6845392438 -0.3907610194 0.6845963102 -0.3909339852 0.0586245274 0.006634725
270298380.0 0.0601153142 0.0063267216 0.6809316645 -0.3983419005 0.6806681414 -0.3983129882 0.058056136 0.0057177112
275298350.0 0.0603319996 0.0055589373 0.6753862967 -0.4062239229 0.6755357978 -0.4063415959 0.0576983281 0.004909694
280298320.0 0.0599911155 0.0044555215 0.6717196612 -0.414106757 0.6721937937 -0.4142279992 0.05819366 0.0037098295
285298290.0 0.0596676328 0.0034543788 0.6673602578 -0.4216595146 0.6676673704 -0.4216714478 0.0581204608 0.0025496228
290298260.0 0.0598600534 0.0028171326 0.6633586007 -0.4297077378 0.6632498815 -0.4296210138 0.0581570488 0.0015660378
295298230.0 0.0597215204 0.001255927 0.6584630229 -0.4377821172 0.6587588203 -0.4378524608 0.057942818 0.0004355693
300298200.0 0.0600716162 0.0009231652 0.6541821921 -0.4453259534 0.6535018369 -0.4449906177 0.0577032505 -0.0008939346
305298170.0 0.0600859832 -0.0006717856 0.6491968818 -0.4532884406 0.6493127872 -0.4532473996 0.0577215649 -0.0021400462
310298140.0 0.0603765694 -0.0016350721 0.6445708553 -0.4605262158 0.6442071243 -0.460167423 0.0578264574 -0.0037528663
315298110.0 0.0597654917 -0.0031036249 0.6395478973 -0.4686073 0.6390990554 -0.4685141382 0.0579398894 -0.004685882
320298080.0 0.0597346302 -0.003886091 0.6335390714 -0.47605217 0.6343150997 -0.4763217857 0.0572156836 -0.0056178972
325298050.0 0.0585599572 -0.0051862813 0.6286317074 -0.4828715336 0.6292008395 -0.4832516019 0.0569418456 -0.0066854182
330298020.0 0.0575208117 -0.0059765511 0.6228733399 -0.4907708772 0.6234995932 -0.4906056165 0.0561307238 -0.0079417395
335297990.0 0.057462645 -0.0065739445 0.6174011548 -0.4972888543 0.6173997428 -0.4977627429 0.055418572 -0.0089846966
340297960.0 0.0570958353 -0.0075390685 0.61109302 -0.5050790787 0.6110140545 -0.5049738083 0.0553324645 -0.0091717887
345297930.0 0.0563234542 -0.0085595888 0.6057646937 -0.511939432 0.6050620029 -0.5113761223 0.0549863518 -0.0104661557
350297900.0 0.0557237739 -0.0092550503 0.600110299 -0.5179530119 0.6003471557 -0.5179889707 0.0546186842 -0.0114006225
355297870.0 0.0556792955 -0.0099204375 0.5942735665 -0.5243670722 0.5941422033 -0.5243907005 0.0543326258 -0.0119291621
360297840.0 0.0551330858 -0.0103183882 0.5883410143 -0.5312057283 0.5882519584 -0.5316206819 0.0533386797 -0.0124565562
365297810.0 0.054593287 -0.0109520734 0.5826529843 -0.5381727772 0.5823914645 -0.5377120668 0.052850471 -0.0133570579
370297780.0 0.0547169405 -0.0112379461 0.576220892 -0.5445632322 0.5769724431 -0.544548294 0.0529216182 -0.0142099159
375297750.0 0.0543110659 -0.0119665116 0.5706290517 -0.5511930511 0.5707061877 -0.5508895983 0.0529753405 -0.0146354821
380297720.0 0.0536216465 -0.0126890102 0.564856553 -0.5581340987 0.5638678677 -0.5574497196 0.0522656306 -0.0151217183
385297690.0 0.0530997221 -0.0136184298 0.5578228572 -0.5633818615 0.5584473839 -0.5641346141 0.0522447887 -0.0155705148
390297660.0 0.0530892713 -0.0142667362 0.5519797505 -0.5691757756 0.5525457413 -0.5698351894 0.0521198658 -0.0168498344
395297630.0 0.0530783691 -0.0148288227 0.5461707067 -0.5749895681 0.5451912345 -0.5755110579 0.0513867155 -0.0174202162
400297600.0 0.0520842854 -0.0156163035 0.5396454922 -0.5822289953 0.5397821532 -0.5818479712 0.0513653986 -0.0174035131
405297570.0 0.0519895722 -0.016638506 0.5330597145 -0.587766857 0.5331685396 -0.5876849806 0.0508322194 -0.0179948145
410297540.0 0.0515522479 -0.01655882 0.5266003295 -0.5939904767 0.5271487241 -0.5938902915 0.0504284928 -0.0190078595
415297510.0 0.0509187901 -0.017298764 0.5201436615 -0.5993680929 0.5206409159 -0.5997785399 0.0505444479 -0.0193675881
420297480.0 0.0504268394 -0.0184692706 0.513078508 -0.6052255867 0.513530159 -0.6052475789 0.0502462263 -0.0196719374
425297450.0 0.0508477055 -0.0187321005 0.5071569046 -0.6107071072 0.5066708075 -0.6109814491 0.049559783 -0.0208183321
430297420.0 0.0498522432 -0.0192780954 0.5005129957 -0.6167614819 0.5005814523 -0.6161532246 0.0498395562 -0.021051263
435297390.0 0.0499766418 -0.0202086658 0.4932045649 -0.6230418145 0.4935071312 -0.6223289061 0.0486900255 -0.0214253357
440297360.0 0.0496457431 -0.0212623942 0.4865874433 -0.6278115628 0.4861419613 -0.6280186886 0.0487875872 -0.0221293883
445297330.0 0.0493668523 -0.0218430905 0.4798634242 -0.6329631319 0.4794792804 -0.6330512171 0.0483061469 -0.0221060666
450297300.0 0.0489115063 -0.0221685068 0.4724182808 -0.6384254957 0.4726624405 -0.6380557872 0.048148988 -0.0228129641
455297270.0 0.0480642116 -0.0229906981 0.4660707182 -0.6435643781 0.4661247522 -0.6433501606 0.0477647435 -0.0236983137
460297240.0 0.0483401969 -0.0234228812 0.4584755443 -0.6495262045 0.4586449955 -0.6490702244 0.0471967774 -0.0243242577
465297210.0 0.047736789 -0.0239216478 0.4514251651 -0.6536806663 0.4510626341 -0.6541653185 0.0474838063 -0.0240195484
470297180.0 0.0473414123 -0.0249374659 0.4440904522 -0.6583485186 0.4444500554 -0.6590273157 0.0470270563 -0.0254183136
475297150.0 0.0465291294 -0.0250205708 0.4368810519 -0.6635896905 0.4374531523 -0.6642734545 0.0465614261 -0.0256165214
480297120.0 0.0467548088 -0.0249686689 0.429504331 -0.6684886866 0.4298023865 -0.6683894671 0.0461796698 -0.0263335249
485297090.0 0.0462056857 -0.0267926399 0.421924856 -0.6733087742 0.4224558866 -0.6731353428 0.0456979324 -0.026577932
490297060.0 0.0463645421 -0.0264784952 0.4140978416 -0.6779780438 0.4147368104 -0.6779779442 0.0451288078 -0.0271759049
495297030.0 0.04532903 -0.0278584432 0.4080670781 -0.6825209301 0.4075872986 -0.6824280719 0.0454979161 -0.0277892994
500297000.0 0.0445871601 -0.0276174572 0.4003074699 -0.6863151894 0.4002716945 -0.6869016642 0.0447363114 -0.028060501
505296970.0 0.0449024696 -0.0281435468 0.3930042608 -0.6913360828 0.3924248753 -0.691164095 0.044462962 -0.0294074836
510296940.0 0.0442840208 -0.0290549974 0.3849489318 -0.6966052734 0.3853229049 -0.6962377498 0.0443775039 -0.0292135949
515296910.0 0.043679659 -0.0292771691 0.376535488 -0.699759924 0.3764472846 -0.699979278 0.0434893629 -0.0301818247
520296880.0 0.0436392306 -0.0295592187 0.3697864808 -0.7041578571 0.3691451022 -0.7035895565 0.0437395896 -0.0297965174
525296850.0 0.0432264226 -0.0303362872 0.3615970099 -0.7076283546 0.3615274173 -0.7077043893 0.0434631306 -0.0309123817
530296820.0 0.0426010932 -0.0309477129 0.3537637474 -0.7118440808 0.3542031344 -0.7118893682 0.0427338505 -0.0316434772
535296790.0 0.0428287748 -0.0308513765 0.3463060772 -0.7151778714 0.3462751066 -0.7156152316 0.0430834154 -0.0312510146
540296760.0 0.0418999464 -0.0313065998 0.3380695367 -0.7194740185 0.3380993654 -0.7194862621 0.0421417559 -0.0325589258
545296730.0 0.0409394524 -0.0317557637 0.3299378353 -0.7235009104 0.3299716054 -0.7225512095 0.0418081511 -0.0328902512
550296700.0 0.0415718514 -0.0319637766 0.322414344 -0.7262903512 0.3218307571 -0.726869926 0.0417956024 -0.0329343171
555296670.0 0.0406996768 -0.0325543139 0.3146150696 -0.7310207715 0.3142685525 -0.7303527116 0.0410114046 -0.0342560718
560296640.0 0.0408364361 -0.03330882 0.3060902544 -0.7335087781 0.3066586579 -0.733617776 0.0403073486 -0.0336308682
565296610.0 0.0396695726 -0.0333492235 0.2986793332 -0.7370856516 0.2988186808 -0.7368483123 0.0402335816 -0.0344330092
570296580.0 0.0392029066 -0.033730887 0.2901891973 -0.7399559319 0.2905547783 -0.7401958635 0.0394030819 -0.0349592333
575296550.0 0.0390514581 -0.0344015988 0.282054627 -0.7434835019 0.2825516522 -0.743573747 0.0392731971 -0.0352499888
580296520.0 0.0385854107 -0.0342992277 0.2743152078 -0.7466184112 0.2735916559 -0.7467998208 0.0383180225 -0.0357755135
585296490.0 0.0384004815 -0.0345792528 0.2665635395 -0.7492206253 0.2657210069 -0.7493115514 0.0385981074 -0.0359545203
590296460.0 0.0383997873 -0.0348703009 0.2577274517 -0.7525118652 0.2578497578 -0.7524447429 0.0374568867 -0.0361955254
595296430.0 0.0377512632 -0.0349294893 0.2488145265 -0.7550706772 0.2491759119 -0.7550347917 0.0374798921 -0.0368970205
600296400.0 0.0373944857 -0.0355285676 0.2406236738 -0.757675933 0.2409019348 -0.7578217891 0.0370581421 -0.0374727463
605296370.0 0.0362121642 -0.035853161 0.2328937485 -0.7601888834 0.23253486 -0.7605403189 0.0361237389 -0.0377226598
610296340.0 0.0364716486 -0.0356144864 0.2244554374 -0.7624627943 0.2249956518 -0.7624111583 0.0354732418 -0.0376980216
615296310.0 0.0361863814 -0.0363668667 0.2156586392 -0.7654541071 0.2154595473 -0.7652093597 0.0353048487 -0.0379951343
620296280.0 0.0349088202 -0.0360723984 0.2074055461 -0.7676338084 0.2072325912 -0.7675014681 0.0342365364 -0.0382180679
625296250.0 0.0349161779 -0.0367498252 0.1994486182 -0.7700523444 0.1996471863 -0.7695331931 0.0338294962 -0.0387725947
630296220.0 0.034125817 -0.0366016608 0.1904047627 -0.772529293 0.1907945227 -0.7714378594 0.0335856877 -0.0389377064
635296190.0 0.0332923881 -0.036761344 0.1823488727 -0.7737948454 0.1827058463 -0.7739661659 0.032958615 -0.0394710014
640296160.0 0.0328464384 -0.0368935803 0.1741878543 -0.7767499876 0.1733811918 -0.7759284082 0.0321211063 -0.0397253308
645296130.0 0.0328829905 -0.0367511719 0.1655139134 -0.7777232718 0.1656649226 -0.7776741539 0.0315709089 -0.040531061
650296100.0 0.0319181546 -0.0371682245 0.1566796269 -0.780196422 0.1567097682 -0.7796759722 0.032029657 -0.0407853713
655296070.0 0.0315041561 -0.0375325233 0.1480001457 -0.7816567537 0.1483575188 -0.7812523421 0.0303396034 -0.0404838318
660296040.0 0.0310765618 -0.0375276161 0.1401832225 -0.7830486294 0.1402957239 -0.7825751338 0.0296395224 -0.0414058664
665296010.0 0.0304083906 -0.0379003574 0.1303672578 -0.7838518917 0.1308971507 -0.783950453 0.029549424 -0.0410144555
670295980.0 0.0301539727 -0.037880564 0.1223782317 -0.7854811436 0.1225769221 -0.7852918111 0.028290403 -0.0417471105
675295950.0 0.0294407522 -0.0380279302 0.1140108577 -0.7864965123 0.1142241545 -0.7871374011 0.0277302231 -0.0414907371
680295920.0 0.0286070155 -0.0379249478 0.1060130207 -0.787845045 0.1057739811 -0.7876528125 0.0278570055 -0.042128928
685295890.0 0.0284055163 -0.0378100053 0.0965558318 -0.7893106259 0.0973397185 -0.7891316984 0.0272290976 -0.0419751655
690295860.0 0.0274985102 -0.0379210694 0.0888699198 -0.7901041801 0.0880264479 -0.7904342707 0.0259555583 -0.0424845807
695295830.0 0.0273927441 -0.0382699968 0.0800745073 -0.7914404547 0.0798452966 -0.7907271504 0.025613305 -0.0424166711
700295800.0 0.0266881391 -0.0380769463 0.0711560973 -0.7917881949 0.0710720889 -0.7919407213 0.0249182558 -0.0422068176
705295770.0 0.0257953308 -0.0380483235 0.062157705 -0.7929401094 0.0630550757 -0.79212528 0.0244046486 -0.0426242495
710295740.0 0.0255367058 -0.0385231387 0.0540349014 -0.7930498507 0.0539056348 -0.7934007858 0.0240260262 -0.0425400618
715295710.0 0.0249569907 -0.0381916879 0.0452179252 -0.7938567164 0.0455416679 -0.7938401797 0.0231504105 -0.042989968
720295680.0 0.0247210368 -0.0382653726 0.0366937101 -0.7938653827 0.0365673414 -0.7948692725 0.0222032762 -0.0430089054
725295650.0 0.0232150375 -0.0379119929 0.0282167282 -0.7947224654 0.0284567487 -0.7945432884 0.0213782678 -0.0424931182
730295620.0 0.022170295 -0.0385657267 0.0197940675 -0.7943527826 0.0192987986 -0.7939342252 0.0208748561 -0.0422263484
735295590.0 0.0225779125 -0.0384637271 0.0109705004 -0.7954293414 0.0109079197 -0.7946768635 0.0201521903 -0.0432895407
740295560.0 0.0217863366 -0.0385315042 0.0024474234 -0.7948915717 0.0027323871 -0.7949073818 0.0189827301 -0.0425437133
745295530.0 0.0206636494 -0.0384529628 -0.0062526684 -0.7942771722 -0.005328254 -0.7950754609 0.0181484294 -0.0431453113
750295500.0 0.0200146039 -0.038234908 -0.0141520792 -0.7945811848 -0.0151837817 -0.7946146132 0.0179591821 -0.0427158307
755295470.0 0.0193181838 -0.0383377649 -0.0235574286 -0.7946750394 -0.0233052785 -0.7944672527 0.0175875745 -0.0422630294
760295440.0 0.018802453 -0.0378746331 -0.0325522982 -0.7940227828 -0.0322671263 -0.7940684027 0.0167130583 -0.0438333342
765295410.0 0.0189159443 -0.0384216945 -0.0410062668 -0.7933309447 -0.0403671337 -0.7937109409 0.0164256827 -0.0430923633
770295380.0 0.0175601986 -0.0380065248 -0.0492669798 -0.7927588733 -0.0489667295 -0.7935342648 0.0152690717 -0.0432757765
775295350.0 0.0171941476 -0.0382771224 -0.0578153732 -0.792398951 -0.0576624667 -0.7925113935 0.0152205157 -0.0426579556
780295320.0 0.0164254878 -0.0377706105 -0.0663010436 -0.791656915 -0.0662440959 -0.7917640566 0.0146331578 -0.0431550923
785295290.0 0.0156815215 -0.0381928042 -0.0748136493 -0.7911586722 -0.0747300522 -0.7910201364 0.0130901243 -0.0419126375
790295260.0 0.0154206036 -0.0384354433 -0.0833216317 -0.7903825054 -0.0831683451 -0.7904334522 0.0126331284 -0.0418353768
795295230.0 0.0148317544 -0.0385517433 -0.0918518093 -0.7900438761 -0.0923096161 -0.7895504477 0.012384461 -0.043067677
800295200.0 0.0132476729 -0.0377569362 -0.1004370839 -0.7875734164 -0.1007277247 -0.7880667983 0.0109329777 -0.0422662577
805295170.0 0.0129221635 -0.0381225314 -0.1090044876 -0.7871533656 -0.109196587 -0.7873476919 0.0113964548 -0.0420850224
810295140.0 0.0129966489 -0.0377008623 -0.1174232779 -0.785707887 -0.117572313 -0.7859434732 0.0107370518 -0.0423597634
815295110.0 0.0118544194 -0.037433584 -0.1257647496 -0.7844217615 -0.125861548 -0.7843590863 0.0094894111 -0.0422370053
820295080.0 0.0114439187 -0.0375946058 -0.1339013864 -0.7827211794 -0.1343300838 -0.7830189995 0.007853514 -0.0413979146
825295050.0 0.0102835987 -0.0375173238 -0.1432828068 -0.7820081504 -0.1430503758 -0.7809850209 0.0086362183 -0.0410616559
830295020.0 0.0097909957 -0.0373734655 -0.1519222609 -0.7801443855 -0.1514221614 -0.7800852803 0.0077982339 -0.0417559869
