!Created with skrf (http://scikit-rf.org).
# Hz S RI R 50.0 
!freq ReS11 ImS11 ReS21 ImS21 ReS12 ImS12 ReS22 ImS22
300000.0 -0.2360719281 -0.1117783669 0.4683570215 0.0727339164 0.4709943506 0.075764143 -0.2393551553 -0.1151656327
5299970.0 -0.2408012037 0.0070104721 0.475555192 0.0053671486 0.4752074523 0.0057020673 -0.2447796182 0.005355823
10299940.0 -0.2372678748 0.0200790511 0.4773770195 0.0061699598 0.4771859183 0.0065655568 -0.241822611 0.0175832691
15299910.0 -0.2330541633 0.0294771716 0.4807925009 0.007475334 0.4808577125 0.0079878789 -0.2374346094 0.0265324466
20299880.0 -0.2274293049 0.0375915413 0.4850238551 0.00801201 0.4854856455 0.0079649543 -0.2328038511 0.0339156583
25299850.0 -0.2217753767 0.0445677486 0.4907127613 0.0068001994 0.4905022632 0.0071129512 -0.2280966583 0.0398882005
30299820.0 -0.2157107166 0.0493658583 0.4961134016 0.0050687055 0.4960009731 0.0048517817 -0.2227551336 0.0450877886
35299790.0 -0.2099019617 0.053906991 0.501208041 0.0014252062 0.5010334434 0.0020085315 -0.2173805418 0.0483555017
40299760.0 -0.2046342321 0.0568788311 0.5063645149 -0.0018587703 0.5063027085 -0.0022807842 -0.212738255 0.0520567917
45299730.0 -0.1993919493 0.0600744997 0.5109385083 -0.0072577915 0.511022685 -0.0071330968 -0.208043072 0.0545118318
50299700.0 -0.1945639514 0.062076828 0.5146432416 -0.0131520068 0.5153054534 -0.0128973013 -0.2035157359 0.0564396041
55299670.0 -0.1904990415 0.0640231877 0.5184624271 -0.0186113915 0.5186935713 -0.0184351466 -0.2000110653 0.0581426008
60299640.0 -0.1865813211 0.0650303075 0.5218718968 -0.0249370257 0.5223146344 -0.0246832637 -0.1963580234 0.0596450456
65299610.0 -0.1830389881 0.0665828973 0.5250979822 -0.030683152 0.5253553273 -0.0311023632 -0.1926681718 0.0606066119
70299580.0 -0.1794993168 0.0671860784 0.5270164278 -0.0376604692 0.5271898951 -0.0378802218 -0.1900759587 0.0611670819
75299550.0 -0.1764872431 0.0680511048 0.529224889 -0.0441817873 0.5291492676 -0.0448218053 -0.1871642542 0.062505653
80299520.0 -0.1741333605 0.0690572345 0.5316816438 -0.0518041415 0.5312704751 -0.051220297 -0.1849479941 0.0628660436
85299490.0 -0.1714023195 0.0695274228 0.5326236854 -0.0588649721 0.5324832229 -0.0585067029 -0.1826631887 0.0633708949
90299460.0 -0.1692298811 0.0702746181 0.5332875541 -0.0648628769 0.5338489785 -0.0652196552 -0.1802394524 0.0643279566
95299430.0 -0.1671398478 0.0711647736 0.5346254109 -0.0724397207 0.5344405326 -0.0718722405 -0.1786891862 0.0648548067
100299400.0 -0.1655289572 0.0717712349 0.5352338041 -0.0790651302 0.5347924909 -0.0793485374 -0.1767293412 0.0656538163
105299370.0 -0.1633865465 0.072408596 0.5347406184 -0.0856586132 0.5352308686 -0.0862115934 -0.1751101838 0.0661756999
110299340.0 -0.1620579564 0.0731736547 0.5349215414 -0.0922702602 0.5353068715 -0.0926005591 -0.1737687415 0.066635551
115299310.0 -0.1603783184 0.0734975697 0.5352001083 -0.0992759821 0.5352335568 -0.099197574 -0.172188213 0.0671752504
120299280.0 -0.158995411 0.0743801461 0.5353011379 -0.1060316131 0.5349741574 -0.1064299163 -0.1713570983 0.0679394916
125299250.0 -0.1577464 0.0750707824 0.5347551336 -0.1126936498 0.5349545973 -0.1132881495 -0.1698506903 0.0681567647
130299220.0 -0.1565271784 0.0760853387 0.5339293782 -0.1193128738 0.5340662735 -0.1197291931 -0.1690940223 0.069436972
135299190.0 -0.1553662061 0.0766362851 0.5333924719 -0.1261095944 0.5327776409 -0.1260898714 -0.167932672 0.0701555703
140299160.0 -0.1543187936 0.0779579805 0.532540833 -0.1329113144 0.5325948852 -0.1329199184 -0.1669716649 0.0709695662
145299130.0 -0.1531420539 0.0789855891 0.5319233563 -0.1396556824 0.5315780134 -0.1391767768 -0.166238805 0.071981945
150299100.0 -0.1520531636 0.0799016268 0.53041678 -0.1460456292 0.5304849222 -0.1459356189 -0.1651129085 0.0725162269
155299070.0 -0.1512013292 0.0814424175 0.5290748899 -0.1528632857 0.5294098454 -0.1526804744 -0.1646264764 0.0733843904
160299040.0 -0.1501199402 0.0820570592 0.5275062413 -0.1584872342 0.5280081505 -0.1591546747 -0.1635262587 0.0745765792
165299010.0 -0.1490580911 0.0830655194 0.5266260958 -0.1658314919 0.5264056586 -0.165728481 -0.1626547812 0.0755527469
170298980.0 -0.1484272982 0.0845294862 0.5240659014 -0.1716272376 0.524760602 -0.1717570238 -0.1615929226 0.0762636112
175298950.0 -0.1472070073 0.0857263278 0.5236027751 -0.1780254934 0.5234081478 -0.178296491 -0.1609393306 0.0777442938
180298920.0 -0.1462152275 0.0865933875 0.5212310721 -0.1842073894 0.5217891016 -0.1843785795 -0.1601983014 0.0789760481
185298890.0 -0.1453045207 0.0879597647 0.5196443539 -0.1905865727 0.5199400539 -0.1908450758 -0.1597722015 0.0794859584
190298860.0 -0.1445881479 0.0890841499 0.517380878 -0.1967489895 0.5179241477 -0.1965809172 -0.1579769433 0.080860867
195298830.0 -0.1433167159 0.0901514475 0.515834943 -0.2028036287 0.515722037 -0.2031450138 -0.1578246409 0.0817956325
200298800.0 -0.1425392339 0.0915819061 0.5139030771 -0.2081315146 0.513428117 -0.2087610523 -0.1567808783 0.0833588469
205298770.0 -0.1416171866 0.093262533 0.5115874356 -0.2149393593 0.5116937727 -0.2149263258 -0.1562512216 0.0841989069
210298740.0 -0.1406013893 0.094409873 0.5096797158 -0.2212244377 0.5094042553 -0.2209470358 -0.155683921 0.0854577604
215298710.0 -0.1396995099 0.0956621499 0.5073024282 -0.2267046186 0.5076115498 -0.2268028952 -0.1551399226 0.0867051912
220298680.0 -0.1388749911 0.0970191314 0.5045386729 -0.2330370167 0.5046342652 -0.2329396891 -0.1540999678 0.0880122543
225298650.0 -0.1376366659 0.0984448652 0.502090042 -0.2382852333 0.5018348031 -0.2384182284 -0.1533087824 0.0894460808
230298620.0 -0.1370146167 0.0999540385 0.4999825602 -0.2443301386 0.4997883175 -0.2445053078 -0.152261793 0.0905446063
235298590.0 -0.1359935355 0.1009910838 0.4970529106 -0.2496654837 0.4972454767 -0.2504225548 -0.151610504 0.091597278
240298560.0 -0.1351110268 0.102551905 0.4943851507 -0.255529646 0.4946532367 -0.2555798737 -0.1511571318 0.093184736
245298530.0 -0.1337917677 0.1039041903 0.490944006 -0.2615010546 0.4914971052 -0.2616156754 -0.1500381542 0.094419544
250298500.0 -0.133052035 0.1053509395 0.4887767821 -0.2668932465 0.4893135683 -0.2666542634 -0.1487929261 0.0956206472
255298470.0 -0.1319517754 0.1069543718 0.4857952104 -0.272926934 0.4858706536 -0.2726642939 -0.1483087033 0.0970970575
260298440.0 -0.130717985 0.1083194588 0.4829747792 -0.2782052868 0.4827290338 -0.2782784848 -0.146998967 0.098321524
265298410.0 -0.129420584 0.1097955947 0.4798246536 -0.2843517941 0.479462376 -0.2839696628 -0.1464668693 0.0997195858
270298380.0 -0.1282866539 0.1112275717 0.4762441835 -0.2888885206 0.4769721504 -0.2893686003 -0.1452896769 0.1013373894
275298350.0 -0.1273825306 0.1125686618 0.4735715275 -0.2946306392 0.4740285172 -0.2949831656 -0.1444737839 0.102419039
280298320.0 -0.1263337859 0.1139413241 0.4702324964 -0.2995157118 0.4705132179 -0.3002983548 -0.1433705881 0.1039896066
285298290.0 -0.1248750029 0.1158035071 0.467043043 -0.3053256067 0.4670585164 -0.3052600924 -0.1427202128 0.1053890133
290298260.0 -0.1235361424 0.1168646008 0.4639711153 -0.3109226468 0.4641220254 -0.3106920638 -0.1411343476 0.1069839932
295298230.0 -0.1223363488 0.1181575423 0.4604106332 -0.3160881166 0.4603811634 -0.3158932959 -0.1401008755 0.1081764856
300298200.0 -0.1210322173 0.1195117549 0.4567843239 -0.3212061324 0.4571716056 -0.3215669991 -0.1392576058 0.1094388996
305298170.0 -0.1195538239 0.1206147035 0.4540061427 -0.3262592462 0.4540651804 -0.3266205674 -0.1379346402 0.1107715987
310298140.0 -0.1181478464 0.1219737992 0.4502578015 -0.3317615859 0.4503386257 -0.3321594358 -0.1370857783 0.1125182962
315298110.0 -0.1172817579 0.1232785162 0.4463679151 -0.3369025626 0.4465295395 -0.3368822922 -0.1358134462 0.1133669697
320298080.0 -0.1157788017 0.1245300719 0.4424633735 -0.3419493963 0.4429848387 -0.342118861 -0.1348690006 0.1146521024
325298050.0 -0.1145916381 0.1253066567 0.4389208075 -0.3470871147 0.4389806174 -0.3473108384 -0.1339075617 0.1160165025
330298020.0 -0.1134466602 0.1271493067 0.4345043888 -0.3520730065 0.4348850861 -0.3522218327 -0.1333464705 0.1173107118
335297990.0 -0.1120503542 0.1281204079 0.4305543671 -0.3569761457 0.4306172987 -0.356905094 -0.1320824643 0.1184857455
340297960.0 -0.1112949531 0.1298012619 0.4267055934 -0.3621447803 0.4269022584 -0.3616084864 -0.1311882751 0.1200292275
345297930.0 -0.1101189918 0.1311117872 0.4226128646 -0.3660057068 0.4223509676 -0.3660033792 -0.1299545214 0.1214843427
350297900.0 -0.1081773024 0.1326398299 0.4183746831 -0.3707567228 0.4184550637 -0.3709927439 -0.128899093 0.1228243632
355297870.0 -0.1070855017 0.1337572982 0.414330636 -0.375436861 0.4142908648 -0.3756913812 -0.127834996 0.1245013161
360297840.0 -0.105438878 0.1354406172 0.4099130923 -0.3802756962 0.4103830548 -0.3803395189 -0.126698024 0.1259879977
365297810.0 -0.1040897353 0.1363311955 0.4060416342 -0.384387945 0.4061071482 -0.3845869784 -0.1258747534 0.1275673016
370297780.0 -0.1022740927 0.137609687 0.4016031265 -0.3890343135 0.4017242238 -0.3893132747 -0.1241102893 0.1291367998
375297750.0 -0.1013249675 0.139338272 0.3978527596 -0.3932060362 0.3972448905 -0.3935948829 -0.1229974727 0.1303727502
380297720.0 -0.0994470406 0.1402696213 0.392905491 -0.397754596 0.3930903293 -0.3976857955 -0.1219353813 0.1319647102
385297690.0 -0.0980499858 0.1419309373 0.3883699408 -0.4020835079 0.3883094274 -0.4018292788 -0.1208106503 0.1332376274
390297660.0 -0.0966245667 0.1429117999 0.3838558019 -0.4065626086 0.3840824275 -0.4066190622 -0.1188998274 0.1344232874
395297630.0 -0.0946878067 0.1439693301 0.3798193414 -0.4103476697 0.3799431418 -0.4102353101 -0.1180679497 0.136041618
400297600.0 -0.0935641076 0.1454871063 0.3752052311 -0.4145323968 0.3753063739 -0.4146861145 -0.1174324446 0.1370025879
405297570.0 -0.0915294899 0.1466083613 0.3705633741 -0.4190041056 0.37057304 -0.4189094021 -0.1157278144 0.1387340253
410297540.0 -0.0898451325 0.1474441439 0.3657439828 -0.4223571273 0.3659770958 -0.4225421589 -0.1144165225 0.139635479
415297510.0 -0.0884345684 0.1490261471 0.3612706063 -0.4264751256 0.3615816721 -0.4264744034 -0.1133429032 0.1413990459
420297480.0 -0.086885422 0.1498068447 0.3566550167 -0.4310469174 0.3565499738 -0.4305514523 -0.1118066296 0.1423069675
425297450.0 -0.0848162809 0.1508018095 0.351874939 -0.4345784652 0.352358693 -0.434593176 -0.1106460099 0.1441913704
430297420.0 -0.0833759564 0.1519379559 0.3472249409 -0.4390642557 0.347604157 -0.4383302743 -0.1093192833 0.1447994049
435297390.0 -0.0817331588 0.1529311547 0.3421640713 -0.4421124098 0.342176035 -0.4420948268 -0.1077260108 0.146700111
440297360.0 -0.0798226603 0.1540897036 0.3368543198 -0.4457892061 0.3371718992 -0.4457191997 -0.1065712429 0.1472711134
445297330.0 -0.0779906998 0.1550602593 0.3320926854 -0.4498132569 0.3323336257 -0.4494511037 -0.1046720409 0.148619077
450297300.0 -0.07640876 0.1561476056 0.3272462403 -0.4530171217 0.3275857655 -0.4530437763 -0.1038957575 0.1501444371
455297270.0 -0.074768557 0.157046133 0.322748763 -0.4568411208 0.3229911441 -0.4566302128 -0.1021099146 0.1513155722
460297240.0 -0.0731473108 0.1579816956 0.3173459386 -0.4596730905 0.317110305 -0.4602578214 -0.1008002216 0.1530259676
465297210.0 -0.0708331876 0.1588054493 0.3123308891 -0.4638089973 0.3123055081 -0.4634704951 -0.0995427914 0.1536058769
470297180.0 -0.0696123326 0.1599691153 0.307974968 -0.4666119648 0.3077139223 -0.4666939663 -0.0982140725 0.1546750159
475297150.0 -0.0677483303 0.1605295173 0.3025145238 -0.4700008037 0.3027502064 -0.4695627602 -0.0966464699 0.1558005718
480297120.0 -0.0657212277 0.16109442 0.297261059 -0.4730896169 0.2975633945 -0.4729730767 -0.0951367269 0.1574216342
485297090.0 -0.0638020297 0.1620813145 0.2922432494 -0.4765302576 0.2922553449 -0.4765882399 -0.093845329 0.1581416998
490297060.0 -0.0621878116 0.163135877 0.2871136909 -0.4794322479 0.2870593674 -0.4797623948 -0.0921190176 0.1594546043
495297030.0 -0.0606491549 0.1641267056 0.2814070735 -0.4828114924 0.2814200515 -0.4826610691 -0.0904759103 0.1602818527
500297000.0 -0.0584110621 0.1643887649 0.276171836 -0.4855512427 0.2763066633 -0.4857932424 -0.0895064105 0.1612609567
505296970.0 -0.0568271943 0.1655164919 0.2705983803 -0.4884159511 0.2706955485 -0.4883458484 -0.0883112402 0.1623249323
510296940.0 -0.0550506592 0.166391905 0.2654799683 -0.4917182191 0.2655825188 -0.491893848 -0.0860410346 0.1638186236
515296910.0 -0.0534201249 0.1670896378 0.2601587028 -0.4941735576 0.260483548 -0.4944923899 -0.085013089 0.1645979132
520296880.0 -0.0510714749 0.1677375351 0.2545925691 -0.4969486086 0.2550836729 -0.496938884 -0.0830423 0.1655810338
525296850.0 -0.0495257362 0.1684419498 0.2494134143 -0.4998441746 0.2497156935 -0.4999992831 -0.0812718678 0.1665538816
530296820.0 -0.0476319355 0.1689387298 0.2441658814 -0.5021786513 0.244103689 -0.5023143812 -0.0804140121 0.1672144895
535296790.0 -0.0456931908 0.1695047594 0.2383650911 -0.5044368601 0.2388718111 -0.5046967308 -0.0783554018 0.1683020614
540296760.0 -0.0436977055 0.1700413376 0.2332875643 -0.508021818 0.2330191463 -0.5074966682 -0.0774243518 0.1694275007
545296730.0 -0.0420233275 0.1712884544 0.2274770212 -0.5094617136 0.2275744038 -0.5102759222 -0.0756353143 0.1699489314
550296700.0 -0.0402853242 0.1716402041 0.2220354505 -0.5125900735 0.2227095299 -0.5124886495 -0.0740786824 0.1713718285
555296670.0 -0.037602871 0.1718778766 0.2161398463 -0.5145363969 0.2167924471 -0.5151118885 -0.072429106 0.1720258959
560296640.0 -0.0361540615 0.1724299691 0.210972856 -0.5170147017 0.2112027267 -0.5171344085 -0.0704994475 0.1728674779
565296610.0 -0.0345926018 0.1731904998 0.2052179199 -0.5192980924 0.2048262709 -0.5194562756 -0.0692785064 0.1732971565
570296580.0 -0.0322662484 0.1734786557 0.1994597763 -0.5211922605 0.1998475231 -0.5217148881 -0.0674960673 0.1749411057
575296550.0 -0.0304553122 0.1743546317 0.1941910426 -0.523294125 0.1943330749 -0.5231660943 -0.0656377657 0.1751545347
580296520.0 -0.0282372113 0.1748086871 0.1882801171 -0.5256680148 0.1878258617 -0.5255135761 -0.0640775958 0.1760435289
585296490.0 -0.0262996816 0.1746475306 0.1829578825 -0.5274600383 0.1826400271 -0.5270880837 -0.0625308362 0.1767469747
590296460.0 -0.0249442201 0.1751432159 0.1772784925 -0.5292678856 0.1766330829 -0.5296983695 -0.0607878678 0.1778302458
595296430.0 -0.0226533311 0.1758989993 0.1714305666 -0.5313459153 0.171190427 -0.531553698 -0.0587939598 0.1781024713
600296400.0 -0.0208758648 0.1763379887 0.1654319072 -0.5331413534 0.1656339517 -0.5329932268 -0.0574022916 0.1791704282
605296370.0 -0.0185801981 0.1768083956 0.1598133505 -0.5347745985 0.1599304785 -0.534783567 -0.0558719943 0.179855287
610296340.0 -0.0167031979 0.1772340678 0.1541017604 -0.5361697807 0.1542752783 -0.5366974898 -0.0540147399 0.1810296822
615296310.0 -0.0148069074 0.1776373987 0.1481019766 -0.5379663036 0.1481677602 -0.5383111452 -0.052079062 0.1811356343
620296280.0 -0.0129306636 0.1774153385 0.1421229955 -0.5392814578 0.1420663497 -0.5394484597 -0.0504932647 0.1814597815
625296250.0 -0.0106111026 0.1779587139 0.1354857968 -0.5413294313 0.13633006 -0.5412813685 -0.0487762085 0.1827621974
630296220.0 -0.0086903805 0.1780690117 0.1302669104 -0.5425305065 0.1309368297 -0.542527955 -0.0472567135 0.1831010696
635296190.0 -0.0069386539 0.1784717518 0.1244154296 -0.5437933755 0.1245509603 -0.5432986489 -0.0454050133 0.183723465
640296160.0 -0.0048133801 0.1786694454 0.1189261235 -0.5451599505 0.1188899146 -0.5452442376 -0.0432870125 0.1841523875
645296130.0 -0.003209435 0.1791342966 0.1128267177 -0.5466366596 0.113089253 -0.5461523386 -0.0422664002 0.184401838
650296100.0 -0.0009108903 0.1795595354 0.1076904761 -0.5476349346 0.1072410961 -0.5471136405 -0.0401549173 0.1852835019
655296070.0 0.0009743792 0.1789705596 0.1011743461 -0.5484048951 0.1011749148 -0.5486210546 -0.038011197 0.1863219037
660296040.0 0.0027505003 0.1795689464 0.0954121142 -0.5491170153 0.0954456602 -0.5496177884 -0.0366947644 0.1863488085
665296010.0 0.0053049269 0.179522183 0.0894406056 -0.5503418469 0.0896950156 -0.5503753067 -0.0351169523 0.1869848666
670295980.0 0.0075731153 0.1799288127 0.0833287336 -0.5513306947 0.0841020285 -0.5513571519 -0.0334503311 0.1873767035
675295950.0 0.0091916249 0.1798567493 0.0773908982 -0.5524544912 0.0778951741 -0.5525577162 -0.0312548384 0.1881343706
680295920.0 0.0111949887 0.1800457248 0.0711595753 -0.5531275249 0.0715409277 -0.5529810747 -0.0295435338 0.1883401559
685295890.0 0.012956884 0.1799182315 0.0659421918 -0.5535545483 0.0654908712 -0.5540842854 -0.027522761 0.1889109016
690295860.0 0.0155040585 0.1798813395 0.0594274273 -0.5539850171 0.0592255189 -0.5542448131 -0.0258702273 0.189742687
695295830.0 0.0173885029 0.1797705838 0.0529035027 -0.5548444015 0.0533971839 -0.5549821195 -0.0244514639 0.1897249948
700295800.0 0.0197789245 0.1798976705 0.0471090208 -0.5558400371 0.0476641468 -0.5556479114 -0.0224301887 0.18990176
705295770.0 0.0214635601 0.1798798471 0.041518609 -0.555786237 0.0418711978 -0.5558478049 -0.0206825387 0.190327154
710295740.0 0.0232991619 0.1798800766 0.0352858204 -0.5557991354 0.0355817617 -0.5562552412 -0.0192368103 0.1907121521
715295710.0 0.0253874977 0.1796027335 0.0295597267 -0.5565581688 0.0299633816 -0.5565619955 -0.0168737686 0.1908465937
720295680.0 0.0271939963 0.1790935901 0.0234453677 -0.5561159419 0.0236222843 -0.5572971426 -0.0147036266 0.1916346513
725295650.0 0.0297433391 0.1794900727 0.0169287584 -0.556806428 0.0176626104 -0.5569449418 -0.0135060632 0.1916488994
730295620.0 0.0313263821 0.1792587007 0.0110612603 -0.5575011743 0.0114866052 -0.556893893 -0.0109925799 0.1915267412
735295590.0 0.0336882399 0.178969355 0.0055003595 -0.5569961613 0.0059171796 -0.557283655 -0.0093897226 0.1921155828
740295560.0 0.0354266086 0.1787946763 -0.0005615726 -0.5569658854 -0.0005692683 -0.5572493747 -0.0073445768 0.1922214204
745295530.0 0.0376407526 0.1783529392 -0.0067293898 -0.5572200232 -0.006114622 -0.5574994007 -0.0060468813 0.1926864762
750295500.0 0.03945986 0.1780630158 -0.0124778178 -0.5563975169 -0.012327694 -0.5569171018 -0.0037185962 0.1924846349
755295470.0 0.041870276 0.1779757409 -0.0188572975 -0.5565035993 -0.0180830326 -0.5572753685 -0.002413337 0.1929685432
760295440.0 0.0433051568 0.1775392955 -0.0243046528 -0.5563121627 -0.0243903075 -0.5564011525 -0.0008373749 0.1933766778
765295410.0 0.0452144606 0.1771034835 -0.0298359638 -0.5562469294 -0.0299785308 -0.5565223741 0.0021079721 0.1937083925
770295380.0 0.0476550568 0.177144196 -0.0364997188 -0.55561106 -0.0362561682 -0.5561761727 0.0036372919 0.1937439872
775295350.0 0.0494181884 0.1767581232 -0.0426427777 -0.5550366726 -0.0423484667 -0.5554821578 0.0050639483 0.1931487083
780295320.0 0.051540681 0.1761929666 -0.0482767547 -0.5545946852 -0.0480684748 -0.5549118416 0.007116848 0.1940965386
785295290.0 0.0534791025 0.1762030999 -0.0541315187 -0.5538687196 -0.0541168333 -0.5541871402 0.0085901222 0.1935912639
790295260.0 0.0553404148 0.1755013566 -0.0600667872 -0.5536054832 -0.0603275958 -0.5538567367 0.011141231 0.1941509077
795295230.0 0.0570144417 0.175157849 -0.0655943701 -0.5524473807 -0.0654101069 -0.5529377643 0.012957315 0.1945418474
800295200.0 0.0592501087 0.1746302775 -0.0723238934 -0.5520302739 -0.0723447884 -0.5525982533 0.0145529145 0.1939852868
805295170.0 0.0610294886 0.1739664593 -0.0780381428 -0.5505868343 -0.0777891657 -0.5512975043 0.0163126642 0.1937545231
810295140.0 0.0631531119 0.1735014159 -0.0836052604 -0.5501880127 -0.0835454012 -0.5507638459 0.0182696678 0.1942892366
815295110.0 0.0650745115 0.173143083 -0.0898743243 -0.5490610021 -0.0901036972 -0.548863202 0.019876634 0.1939328231
820295080.0 0.0668053624 0.1719964763 -0.0950416005 -0.5483680989 -0.0955357411 -0.5487143884 0.0217198163 0.1941107917
825295050.0 0.0689013364 0.1716893894 -0.1014403966 -0.546909645 -0.1013201866 -0.5471897286 0.0240889364 0.1940021626
830295020.0 0.0709463844 0.1711980785 -0.1073620862 -0.5459684388 -0.1077361193 -0.5464111465 0.0255088419 0.1939767343
