!Created with skrf (http://scikit-rf.org).
# Hz S RI R 50.0 
!freq ReS11 ImS11 ReS21 ImS21 ReS12 ImS12 ReS22 ImS22
300000.0 -0.2387538847 -0.0789385149 0.4723563638 0.0540960153 0.4687916421 0.0533276073 -0.2429805191 -0.0956554113
5299970.0 -0.2441483423 0.0072500862 0.4734935624 0.0045960792 0.4734615367 0.0053561484 -0.2440689826 0.007140567
10299940.0 -0.2410387609 0.0185969015 0.4752145403 0.0060151534 0.475483791 0.0062112771 -0.2404638742 0.0202483544
15299910.0 -0.2367604835 0.0277096235 0.4791092389 0.0073568877 0.4792322326 0.007737703 -0.236012744 0.0295837429
20299880.0 -0.2318420898 0.0355139357 0.4837229663 0.0084058475 0.4839681926 0.0081959884 -0.2308891871 0.0375719234
25299850.0 -0.2267556375 0.0422565048 0.4894834172 0.0073637517 0.4893488854 0.0075338489 -0.2250266209 0.0437269075
30299820.0 -0.2213544501 0.0472934529 0.4942921023 0.0051663009 0.4944248376 0.0053466773 -0.2190813284 0.0493639521
35299790.0 -0.2163949081 0.0513878785 0.4999287437 0.0019583287 0.4999989344 0.0019500825 -0.213439228 0.0534575189
40299760.0 -0.2114579861 0.0548013501 0.5047655064 -0.00156054 0.5051925762 -0.0017161459 -0.2082655443 0.056438355
45299730.0 -0.206638035 0.0578072019 0.5098696504 -0.0065056506 0.5100262574 -0.0062124799 -0.2033714371 0.0589965728
50299700.0 -0.2024746287 0.059794008 0.5139401422 -0.0119743385 0.5139781398 -0.0118143927 -0.1986395497 0.0606928411
55299670.0 -0.198318037 0.0619594921 0.5180153558 -0.0183244777 0.5179769453 -0.0182205603 -0.1942856645 0.0622873768
60299640.0 -0.1941511006 0.0638888984 0.5212056871 -0.0247198289 0.5217927611 -0.0240400845 -0.190555435 0.0634430569
65299610.0 -0.1909034768 0.0647899394 0.5240954245 -0.0305549786 0.5242584644 -0.0306185884 -0.1873269616 0.0642588684
70299580.0 -0.1878915723 0.0661939969 0.5264202844 -0.0374634281 0.5265440155 -0.0369981904 -0.1840597119 0.0649965432
75299550.0 -0.1848697747 0.0671489537 0.5283278597 -0.0440897556 0.5285519937 -0.0442311894 -0.1811316341 0.0654115919
80299520.0 -0.1824412336 0.068004833 0.5305423057 -0.0507057881 0.5305808219 -0.0510289163 -0.1783899274 0.0659639376
85299490.0 -0.1800490366 0.0688630597 0.531698624 -0.0575217331 0.5317740562 -0.0575658666 -0.1761925124 0.0661117736
90299460.0 -0.1777923679 0.0696927387 0.5324884397 -0.0650625036 0.5328351841 -0.0649364563 -0.1738434813 0.066673279
95299430.0 -0.1754679263 0.0706387615 0.53374123 -0.0718027083 0.5335832389 -0.0718403546 -0.1715785222 0.0673684592
100299400.0 -0.1736999573 0.0714737674 0.5335745512 -0.0786424439 0.5338566081 -0.0784703696 -0.1695260388 0.0675254831
105299370.0 -0.1720773924 0.0724670632 0.534129174 -0.0857762651 0.5344989338 -0.0857274544 -0.1675278316 0.0682514618
110299340.0 -0.1703370128 0.0733640593 0.534414647 -0.0925750982 0.5342966623 -0.0921396318 -0.1664458127 0.06817003
115299310.0 -0.1687435812 0.0740121551 0.5346843775 -0.0992422801 0.5341853242 -0.0990199635 -0.1647645741 0.0690062109
120299280.0 -0.1675654484 0.0745012365 0.534055368 -0.1059566856 0.5343580677 -0.1062211042 -0.1634374507 0.0693456607
125299250.0 -0.1658711606 0.0754782964 0.5340278488 -0.112677564 0.5340227856 -0.1124206182 -0.1623947435 0.0695297877
130299220.0 -0.1648334345 0.0768652638 0.5329233848 -0.1197202964 0.5332373356 -0.1195925805 -0.1610563259 0.0704753934
135299190.0 -0.1636288583 0.0780454463 0.5330480539 -0.126099619 0.5324787745 -0.1264445457 -0.1598183438 0.0710841078
140299160.0 -0.1626487132 0.0790471312 0.5318049802 -0.1330702319 0.5317914261 -0.1326109374 -0.1586960619 0.0722575243
145299130.0 -0.1615431003 0.0800911034 0.5309719215 -0.1394558162 0.5303865997 -0.1392668242 -0.1576381344 0.072590522
150299100.0 -0.1599447947 0.0811769455 0.5296287562 -0.1458565773 0.5295502469 -0.1456734619 -0.1566924575 0.0738924136
155299070.0 -0.1594813788 0.08205514 0.5286518313 -0.1532224627 0.5283058305 -0.1525165002 -0.1557183647 0.0748859944
160299040.0 -0.158162161 0.0834513533 0.5269729128 -0.1591083152 0.5271873808 -0.1590247819 -0.1553375756 0.0756455712
165299010.0 -0.1572876818 0.0845524321 0.5256661234 -0.1656410863 0.5258824504 -0.1655469424 -0.1539653203 0.0767732596
170298980.0 -0.1563944191 0.0854138134 0.5238724655 -0.1716281226 0.5241695434 -0.1716007884 -0.1533916367 0.0774344012
175298950.0 -0.1554701918 0.0870459809 0.5230699355 -0.1778667114 0.5225174396 -0.1782196238 -0.1527664519 0.0786635941
180298920.0 -0.154819826 0.0885283182 0.5212472606 -0.1844789008 0.5206387207 -0.1840734734 -0.1519797899 0.0796965585
185298890.0 -0.1532668858 0.0892583568 0.5190344749 -0.190098085 0.5187672528 -0.1901614471 -0.1511295198 0.0806536004
190298860.0 -0.1526293972 0.0912363302 0.5173069869 -0.1969180191 0.5172904154 -0.1965121925 -0.1505790293 0.081852147
195298830.0 -0.1518678491 0.0920343946 0.5152524212 -0.2027312541 0.5151492405 -0.2027044131 -0.1494683584 0.0828845347
200298800.0 -0.1506096456 0.0937491706 0.5129716754 -0.2091901587 0.5132457804 -0.2091584838 -0.1494895355 0.0842122008
205298770.0 -0.1499484272 0.0949937222 0.5106205027 -0.2152047281 0.5105173273 -0.2150275042 -0.1484043973 0.0848019016
210298740.0 -0.1486466733 0.0964284633 0.5082980723 -0.2206508128 0.5081615043 -0.2205897443 -0.1475913538 0.0866379076
215298710.0 -0.1480660957 0.0977161518 0.5063440232 -0.2269039036 0.5060133459 -0.2273164917 -0.1470731035 0.0877157161
220298680.0 -0.1469927011 0.0988247723 0.5033732719 -0.2327465759 0.5035061595 -0.2328320609 -0.1464105706 0.0886263509
225298650.0 -0.1463220004 0.1004355627 0.5011927344 -0.238750001 0.50142667 -0.2384759083 -0.1458958952 0.089880768
230298620.0 -0.1450610166 0.1023152127 0.4989033167 -0.2440816173 0.498692123 -0.2446385286 -0.1452677227 0.091018262
235298590.0 -0.1439848641 0.1036383743 0.4961869148 -0.2502163596 0.4961089184 -0.2499829887 -0.1444799239 0.0921796276
240298560.0 -0.1431034628 0.104826587 0.4934717218 -0.2561565954 0.4934610561 -0.2559096297 -0.1439665311 0.0933373433
245298530.0 -0.1421669819 0.1063329893 0.4913263023 -0.2617154266 0.4907177402 -0.2617320981 -0.1427033777 0.0943266703
250298500.0 -0.1406289782 0.1081219662 0.4870794888 -0.2678159839 0.4873410779 -0.2673354721 -0.1426022231 0.0957198554
255298470.0 -0.1400705967 0.1092524433 0.4843286409 -0.2725318423 0.4846602104 -0.2728161304 -0.141385987 0.0968388387
260298440.0 -0.1392512689 0.110648828 0.4815927283 -0.2786642226 0.4820247722 -0.2783550818 -0.1404295505 0.0983026957
265298410.0 -0.1375210513 0.1126884575 0.4788825609 -0.2844587533 0.4790905737 -0.2835823676 -0.1397987166 0.0994336649
270298380.0 -0.136890528 0.1139646536 0.4760304209 -0.2892353172 0.4757968251 -0.2890988106 -0.1391259165 0.1006274976
275298350.0 -0.1350278259 0.1152286821 0.4722197868 -0.2949749756 0.4728177883 -0.2946565391 -0.1379794236 0.1017703383
280298320.0 -0.1338239252 0.1170676935 0.4696843628 -0.3003801379 0.4697439416 -0.2999294154 -0.1368139739 0.1030374997
285298290.0 -0.1328768222 0.1184692864 0.4662208149 -0.3056969107 0.4661864207 -0.3057385522 -0.1359121686 0.1042047117
290298260.0 -0.1312173433 0.1196737823 0.4627958256 -0.3104282532 0.4629679094 -0.3107253276 -0.1347765285 0.1058846923
295298230.0 -0.1303237536 0.120902639 0.4601048053 -0.316021926 0.4595702118 -0.3158956403 -0.1337273594 0.1066443449
300298200.0 -0.1290987764 0.12253937 0.4561049204 -0.3205736312 0.4561723313 -0.3216581146 -0.1328587881 0.108015203
305298170.0 -0.127603541 0.1235179961 0.4522560262 -0.326652277 0.4525297827 -0.3262943711 -0.1313507785 0.1088422258
310298140.0 -0.1265504642 0.1252466091 0.4490487832 -0.3317193868 0.4491391216 -0.3317456955 -0.1305088767 0.1102671119
315298110.0 -0.1251798942 0.1260755424 0.445354042 -0.3367837157 0.4456161389 -0.3369282321 -0.1295164302 0.1115183289
320298080.0 -0.1237742638 0.1272692634 0.4413670855 -0.3423207863 0.4417212263 -0.3420294607 -0.128792409 0.1127560535
325298050.0 -0.1225154694 0.1287466122 0.4375817599 -0.3472216299 0.4379473657 -0.3465654524 -0.1281049131 0.1138678074
330298020.0 -0.1214999147 0.1301118141 0.4337631482 -0.3518311959 0.433886432 -0.3520218207 -0.1267580373 0.1151981766
335297990.0 -0.1201520516 0.1312599177 0.4298420652 -0.3568663782 0.4293943797 -0.3567125699 -0.1266137703 0.1167707811
340297960.0 -0.1194093616 0.1327976865 0.4253076115 -0.3615131117 0.425085981 -0.3616222447 -0.1247647221 0.1180844459
345297930.0 -0.1178982615 0.1346474059 0.4213193824 -0.366507421 0.4210885502 -0.3663400916 -0.1240157105 0.1189059489
350297900.0 -0.1165906582 0.1355415 0.4168827411 -0.3710305496 0.4171093398 -0.3708173643 -0.1234199484 0.1210240719
355297870.0 -0.1151385848 0.1374852028 0.4128860919 -0.3756077621 0.4133884143 -0.3751000664 -0.1223475119 0.1220108313
360297840.0 -0.1136443174 0.1388229648 0.4092848452 -0.3798134286 0.4095745328 -0.3800867189 -0.1212331059 0.1237074102
365297810.0 -0.1124598875 0.1404545764 0.4045435122 -0.3848112025 0.4047125377 -0.3846464612 -0.1198406803 0.1249220547
370297780.0 -0.1104495638 0.1413309061 0.4004409173 -0.3891105846 0.4008904708 -0.3889073881 -0.1188983456 0.12634881
375297750.0 -0.109077157 0.1429071 0.3960759203 -0.3934835775 0.3966318528 -0.3932520602 -0.1182294653 0.1274040752
380297720.0 -0.1076617219 0.1440247678 0.3916032567 -0.3979207171 0.3919914745 -0.3971781046 -0.117285697 0.1286108709
385297690.0 -0.1064949603 0.1455468822 0.3873049304 -0.4020101985 0.3874337886 -0.4017657756 -0.1158720381 0.1299231557
390297660.0 -0.1048035825 0.1473585586 0.3829546497 -0.4065008779 0.3831701191 -0.4059346141 -0.1153158084 0.1311920655
395297630.0 -0.1031559504 0.1485066778 0.378511602 -0.4107547204 0.3786675414 -0.4105791089 -0.1132216558 0.1326476266
400297600.0 -0.1015943111 0.1496278336 0.3734882131 -0.4147456938 0.3742281562 -0.4148194754 -0.1121977636 0.1341000567
405297570.0 -0.1004751372 0.1506615884 0.3693804543 -0.4183707469 0.3693866128 -0.4181354449 -0.111146768 0.1351580822
410297540.0 -0.0986082221 0.1518336264 0.3650922738 -0.423155611 0.3653691159 -0.4228132886 -0.1100586023 0.1365657457
415297510.0 -0.0965647286 0.1531235693 0.3600119286 -0.426755021 0.3603680411 -0.4270747399 -0.1088096228 0.1377491912
420297480.0 -0.0951588902 0.1547531936 0.3555244183 -0.4306884411 0.3553056173 -0.4310343861 -0.1075524458 0.1386494663
425297450.0 -0.0936618913 0.155373152 0.3509527085 -0.4343646867 0.3510453431 -0.4343669644 -0.106561018 0.1399610314
430297420.0 -0.0919271447 0.1567015751 0.3462250704 -0.4380398725 0.3458332261 -0.4379684509 -0.1052586098 0.1405693482
435297390.0 -0.0903334061 0.1579167153 0.3407251895 -0.4419922325 0.3408275112 -0.4422480589 -0.1033808605 0.1419240362
440297360.0 -0.0884485265 0.1590985231 0.3357276256 -0.4456550456 0.3365119177 -0.4458779838 -0.1023958473 0.1428004893
445297330.0 -0.0864868062 0.159697401 0.3310825962 -0.4490874283 0.3314238831 -0.4490814188 -0.1010855606 0.1435334882
450297300.0 -0.0847863531 0.1608871925 0.3262579117 -0.4529234018 0.3265002591 -0.4532548485 -0.0995062487 0.1448244474
455297270.0 -0.0832135778 0.1622855907 0.3213283671 -0.4564023822 0.3214511356 -0.4562662618 -0.0981078454 0.1458272097
460297240.0 -0.081661083 0.1632629357 0.3159746701 -0.4598678101 0.3166744835 -0.4599322765 -0.096643566 0.1473701061
465297210.0 -0.0794390828 0.1642335437 0.3113923006 -0.4633889484 0.3112191358 -0.4638015042 -0.0952651067 0.1478824034
470297180.0 -0.0777718535 0.1650659387 0.3059798582 -0.466801859 0.3064282414 -0.4666618929 -0.0938780166 0.1492025848
475297150.0 -0.0762429749 0.1659364104 0.3009169866 -0.4691240334 0.3010483356 -0.4697527481 -0.091965476 0.1497967911
480297120.0 -0.0739270805 0.1672447157 0.295676028 -0.4733277839 0.2957653871 -0.4734135987 -0.090413046 0.1513265948
485297090.0 -0.0723975632 0.1680101355 0.2909707962 -0.4761576637 0.2906777882 -0.4761613388 -0.0892385739 0.1518881093
490297060.0 -0.0709938938 0.1689169244 0.2858800713 -0.4796413299 0.2855546667 -0.4790221677 -0.0875368071 0.1533976716
495297030.0 -0.0685237389 0.1700190772 0.2799177749 -0.4825251667 0.2805815954 -0.4822235009 -0.086202005 0.1544170469
500297000.0 -0.0668473772 0.1706153631 0.275095128 -0.4848986208 0.2747333679 -0.4851847544 -0.0845995727 0.1558042226
505296970.0 -0.0646504781 0.1715594053 0.2696736932 -0.4885302091 0.2697719883 -0.4883219687 -0.0832743686 0.1563757852
510296940.0 -0.0633033372 0.1724992732 0.2642316439 -0.4916198911 0.2642876521 -0.4915633119 -0.0811545166 0.1576100421
515296910.0 -0.0612028789 0.1733536344 0.2588865055 -0.4942028587 0.2591375003 -0.4942819745 -0.0800562718 0.1585646194
520296880.0 -0.0596275313 0.1743000628 0.2537415238 -0.4974338559 0.2537274549 -0.496924163 -0.078647447 0.159017601
525296850.0 -0.0573092629 0.1745806141 0.2477176305 -0.4997992599 0.2485994036 -0.4995775905 -0.0772163446 0.1603112514
530296820.0 -0.0556232739 0.1755720228 0.2425822865 -0.5028022637 0.2427316919 -0.5023623476 -0.0751802815 0.1615455854
535296790.0 -0.053895588 0.1765647501 0.2375672511 -0.5049386205 0.2376288899 -0.5049062733 -0.0739639746 0.1622542499
540296760.0 -0.0519606236 0.1774657135 0.231603648 -0.5081315808 0.2313886191 -0.5074404709 -0.0729245059 0.1632726957
545296730.0 -0.0497084559 0.1779626361 0.2259565549 -0.509523308 0.2263237278 -0.509989761 -0.0713263192 0.1639209946
550296700.0 -0.0474903069 0.1789257181 0.220618077 -0.5127111904 0.2205888699 -0.5126259515 -0.0696518697 0.1648666805
555296670.0 -0.0457401333 0.1794132405 0.2151216565 -0.5149700241 0.2153084282 -0.5143866946 -0.0680285371 0.1656838284
560296640.0 -0.0433702659 0.1801942465 0.209146311 -0.5170734924 0.2096203779 -0.5170552511 -0.0663674137 0.1667134682
565296610.0 -0.0418332248 0.1805853887 0.203767166 -0.5195099984 0.2037363215 -0.5194301669 -0.0652392968 0.1672906647
570296580.0 -0.0402413534 0.1812892434 0.1982504158 -0.5219259462 0.1975014777 -0.5215556174 -0.0639123503 0.1685351687
575296550.0 -0.0380536488 0.1819503289 0.1925978792 -0.5238182705 0.1922270955 -0.5236514566 -0.0619953857 0.1688624801
580296520.0 -0.0360047378 0.1822751504 0.1867093296 -0.52595712 0.1864248098 -0.5257638218 -0.0602562007 0.1696704482
585296490.0 -0.0339854005 0.1828415262 0.1810856969 -0.5270895452 0.1812689159 -0.5279435773 -0.0585208087 0.1701189688
590296460.0 -0.0313914827 0.183428684 0.1754867623 -0.5289343433 0.1754283876 -0.5294090922 -0.0573071544 0.1713396932
595296430.0 -0.0296513282 0.183871174 0.169294398 -0.5315364431 0.1695103695 -0.5311638203 -0.0555189658 0.1714779512
600296400.0 -0.0280193182 0.1843233707 0.1640553384 -0.5329203565 0.1633602405 -0.5327083964 -0.0539003686 0.1723484641
605296370.0 -0.0260584393 0.1846769299 0.1583059858 -0.5346071544 0.1580432083 -0.5349617481 -0.052229837 0.1727727685
610296340.0 -0.023675973 0.1851831292 0.1520503192 -0.5359662503 0.1522618448 -0.5362515949 -0.0503374916 0.1735132901
615296310.0 -0.0213773917 0.1855412278 0.1459590878 -0.5379631178 0.1461796933 -0.5381158611 -0.0483007511 0.1735563736
620296280.0 -0.0196751245 0.185679062 0.1410141392 -0.5393564195 0.1405005849 -0.5390387772 -0.0471807404 0.1747066381
625296250.0 -0.0177241206 0.185781235 0.134816856 -0.5411533625 0.1346552417 -0.5415316183 -0.0447652088 0.1747048408
630296220.0 -0.014789335 0.1864250233 0.12826642 -0.542315014 0.1284349297 -0.5423768076 -0.0435207176 0.1759529559
635296190.0 -0.013853491 0.1866757755 0.1228865211 -0.5434448077 0.1229450075 -0.54351102 -0.0415087125 0.1759873145
640296160.0 -0.0115261026 0.1869392764 0.1172886919 -0.5448424211 0.1172357802 -0.5447440504 -0.0398540853 0.1769611151
645296130.0 -0.0093874522 0.1873716187 0.1106092249 -0.5457792532 0.1112888344 -0.5459932243 -0.0380156349 0.1774668727
650296100.0 -0.0073392892 0.1873465379 0.105051226 -0.5470607862 0.1052494534 -0.5466370764 -0.036309976 0.1773819901
655296070.0 -0.0055993918 0.1875381989 0.0992186343 -0.5482636504 0.0992608479 -0.5481352725 -0.034284672 0.1779611883
660296040.0 -0.0036411847 0.1875705845 0.0935560338 -0.5493464134 0.0932882882 -0.5495756982 -0.0323895248 0.1786645862
665296010.0 -0.0009916168 0.1876746743 0.0871338409 -0.5502474403 0.0874918315 -0.5502342204 -0.0305947462 0.1796622986
670295980.0 0.0003081682 0.1883145891 0.0816893845 -0.5508385505 0.081503118 -0.5512734375 -0.0290529214 0.1798867148
675295950.0 0.0026486566 0.1885359715 0.0755987214 -0.5516875475 0.0757854329 -0.5513158936 -0.0276856772 0.1805686814
680295920.0 0.0046779891 0.1882988386 0.0695432589 -0.5528536968 0.0692974942 -0.5528484707 -0.0256799434 0.1814783407
685295890.0 0.0068688656 0.1889555309 0.0633529099 -0.5533071251 0.0633224307 -0.5532153891 -0.0239177039 0.1813316163
690295860.0 0.0091821843 0.1885372127 0.0570210655 -0.5530671705 0.0574377159 -0.5540677422 -0.0221883699 0.1825255334
695295830.0 0.0112279079 0.1886719798 0.052029253 -0.5543454639 0.0511083573 -0.5543658936 -0.0201154352 0.1826185066
700295800.0 0.0133032399 0.1883070405 0.0454438131 -0.5546107847 0.0452465914 -0.5544525728 -0.0187416493 0.183244186
705295770.0 0.0149089356 0.1890427469 0.0392383132 -0.5553079303 0.0395723477 -0.5552552432 -0.0168702909 0.1836875105
710295740.0 0.0176038603 0.1887105383 0.0336963105 -0.5563659287 0.0338790088 -0.5561268711 -0.0150960338 0.1835868452
715295710.0 0.0190692293 0.1884389031 0.0280113904 -0.5561286866 0.0272915028 -0.5560367 -0.0133307078 0.1840591233
720295680.0 0.0213236975 0.1887945793 0.02160504 -0.5566852088 0.0215506884 -0.5562634225 -0.0116379243 0.1846193416
725295650.0 0.0238582949 0.1883432514 0.0155658775 -0.5563501565 0.0156199767 -0.5564640236 -0.0103002858 0.1850082977
730295620.0 0.026141826 0.1888461923 0.0092988235 -0.556096838 0.0098775005 -0.5565237568 -0.0088249398 0.1850793254
735295590.0 0.0275818147 0.188593362 0.0037554056 -0.5567930566 0.003457938 -0.5561859983 -0.006998967 0.1848447058
740295560.0 0.0299668319 0.1882217157 -0.0028332755 -0.5564093508 -0.0022702078 -0.5567600635 -0.0043987076 0.1855846896
745295530.0 0.0316619414 0.1879615285 -0.0084727295 -0.5560277696 -0.0088134349 -0.5562860597 -0.0030339372 0.1851751
750295500.0 0.034014533 0.1877010523 -0.0147301531 -0.5561574689 -0.0143753058 -0.5562741461 -0.0015185472 0.1854092539
755295470.0 0.036302854 0.18737102 -0.0203771984 -0.5561598386 -0.0203683962 -0.5560609782 0.0007336735 0.1852367423
760295440.0 0.0381863511 0.1873224252 -0.0263001295 -0.556114191 -0.0262922571 -0.5563107741 0.0024023159 0.1855881888
765295410.0 0.0400508621 0.1870158106 -0.0328641358 -0.5554339071 -0.032640673 -0.5556259618 0.0044049635 0.185964915
770295380.0 0.0418785724 0.1865829198 -0.0388702229 -0.554704775 -0.0388993739 -0.55479151 0.0056349893 0.18576565
775295350.0 0.0440655875 0.1857114689 -0.0446273661 -0.5540839562 -0.0438444574 -0.5540677178 0.0073577204 0.1858808467
780295320.0 0.046137944 0.1859083497 -0.0506556312 -0.5538901632 -0.0494488386 -0.5542279149 0.0091129683 0.1855870839
785295290.0 0.0477603833 0.1849308891 -0.056543649 -0.552906959 -0.0566211714 -0.553240894 0.0116156009 0.1860057705
790295260.0 0.0507756551 0.185311215 -0.0620659739 -0.5529599637 -0.0617510623 -0.5527613613 0.0136263343 0.1858928012
795295230.0 0.0522595521 0.1844524792 -0.0679780783 -0.5517115681 -0.0676735187 -0.5516473289 0.01575876 0.1860277221
800295200.0 0.0541742889 0.1841232254 -0.0746039609 -0.5507827854 -0.0740722811 -0.5510888242 0.0172299683 0.1859918425
805295170.0 0.0564434573 0.1836225953 -0.0801361655 -0.5499924212 -0.0800943814 -0.5503639378 0.0190535478 0.1859586098
810295140.0 0.0580396479 0.1825963248 -0.0856243431 -0.5489517058 -0.0860831469 -0.5491627508 0.0211310052 0.1860124684
815295110.0 0.0601594418 0.1819467198 -0.0918929397 -0.5479694532 -0.0917007809 -0.5481157547 0.0228560785 0.1856892369
820295080.0 0.062019313 0.1822058422 -0.0976730654 -0.5467518693 -0.0974701595 -0.5471219313 0.0248350471 0.185901436
825295050.0 0.0645654573 0.1814070041 -0.102902376 -0.5458027553 -0.1035287243 -0.5457409469 0.0265067297 0.1859366655
830295020.0 0.0664441617 0.18094996 -0.1096815707 -0.5445274408 -0.1096063452 -0.5445248466 0.0289120534 0.1856457659
