!Created with skrf (http://scikit-rf.org).
# Hz S RI R 50.0 
!freq ReS11 ImS11 ReS21 ImS21 ReS12 ImS12 ReS22 ImS22
300000.0 -0.7738721161 -0.0977920215 -0.0010257697 0.0024808709 -0.000713295 0.0014596502 -0.0465365907 -0.0593614848
5299970.0 -0.7849316323 -0.0060331929 2.00153e-05 7.80146e-05 -4.14798e-05 1.82974e-05 -0.0455593172 0.0156369793
10299940.0 -0.7877785682 -0.0038875693 -4.4036e-06 -9.01048e-05 0.0001794556 -0.0001256291 -0.0399036366 0.0337376051
15299910.0 -0.7935673023 -0.0019556637 0.0002087621 8.77172e-05 -5.47005e-05 -2.34106e-05 -0.0313255661 0.0480804853
20299880.0 -0.7997456833 0.0018047958 8.37215e-05 -6.20177e-05 3.79974e-05 8.9697e-06 -0.0211592108 0.0602699397
25299850.0 -0.806450852 0.0076143085 6.82256e-05 0.00013597 -0.0001940645 6.53571e-05 -0.0099863317 0.0696614331
30299820.0 -0.812483955 0.0155857621 -0.0001001963 0.0002123186 -3.465e-05 -3.39396e-05 0.0020028418 0.0764306669
35299790.0 -0.8174719449 0.0248834498 -0.000160037 0.0002370187 -3.95685e-05 3.52338e-05 0.0133627985 0.0813872818
40299760.0 -0.8210984703 0.0339489524 3.12004e-05 3.90311e-05 5.989e-06 -9.15666e-05 0.024417102 0.0838653384
45299730.0 -0.8247351882 0.0427236024 -7.88873e-05 -2.90989e-05 -5.79219e-05 7.93145e-05 0.0350746945 0.0855772571
50299700.0 -0.8270135924 0.0531971232 9.50444e-05 0.0002328744 0.0001355929 6.84006e-05 0.0456147632 0.0853830051
55299670.0 -0.828993914 0.0634067314 -5.67253e-05 -4.38804e-05 -5.00587e-05 -0.00011023 0.0545498093 0.0842502389
60299640.0 -0.8301041812 0.0736294227 0.0001290112 -1.55515e-05 -0.0001570588 4.24572e-05 0.0632538898 0.0825980411
65299610.0 -0.8310071985 0.0835011203 -1.61342e-05 7.61315e-05 -3.52704e-05 0.0001722047 0.0705446649 0.0799616106
70299580.0 -0.8310413183 0.0937403028 0.0001649443 0.0001329685 4.12254e-05 3.55701e-05 0.0774478585 0.0772658731
75299550.0 -0.831624426 0.1036164959 1.69744e-05 -0.0002112833 0.0001193003 6.21536e-05 0.084122968 0.0735550188
80299520.0 -0.8324981155 0.1130700707 5.22836e-05 0.0002053315 0.0001126782 -1.25129e-05 0.0896319529 0.0706478921
85299490.0 -0.8307331677 0.1226696748 0.0001704591 3.6517e-05 0.0001712322 3.89594e-05 0.0944336796 0.0666943422
90299460.0 -0.8295868942 0.1323025848 3.24411e-05 9.31508e-05 -2.47388e-05 -1.66466e-05 0.0991342376 0.0625999986
95299430.0 -0.8290629775 0.1417928096 0.0001073328 7.63511e-05 -0.0001644133 -1.85023e-05 0.1031911043 0.0591819144
100299400.0 -0.8284012382 0.1510848325 2.51004e-05 -4.0955e-06 1.70114e-05 8.66933e-05 0.1071859184 0.0548576611
105299370.0 -0.8269879937 0.1604127447 1.96555e-05 9.29036e-05 -7.076e-05 4.1182e-06 0.1104449988 0.0511247875
110299340.0 -0.8255103056 0.1694005713 9.28462e-05 -0.0001164124 9.087e-06 9.53702e-05 0.1131907424 0.0472449124
115299310.0 -0.8236555509 0.1787639282 -6.0553e-05 0.0001595655 0.0001341756 -0.0001287556 0.1160875796 0.0434759674
120299280.0 -0.8221591217 0.1875418692 4.6446e-06 7.08844e-05 4.25834e-05 2.56964e-05 0.1182190604 0.0396202524
125299250.0 -0.8203997527 0.1959203925 -7.77586e-05 5.3869e-06 -0.000128175 0.0001503495 0.1199651163 0.0354005862
130299220.0 -0.818840687 0.2051416108 -1.63921e-05 0.000258696 6.17485e-05 -0.0001652932 0.12183764 0.0320169557
135299190.0 -0.8171501318 0.2141771901 -0.000181257 0.0002826025 -9.85439e-05 -3.13995e-05 0.1235844326 0.0284991693
140299160.0 -0.8143807271 0.2238008953 1.375e-07 9.35081e-05 0.0002829734 -1.19447e-05 0.1248103852 0.0251234133
145299130.0 -0.8124578967 0.2321261826 -0.0002876584 0.0001871683 0.0001653162 6.52691e-05 0.1259041355 0.0217003555
150299100.0 -0.8099615489 0.2411776387 0.0001606094 -1.45376e-05 2.82838e-05 0.0001178804 0.1269591956 0.0188866852
155299070.0 -0.8078590384 0.2494903152 2.5159e-05 0.0001803945 9.96302e-05 0.0001226339 0.1280958767 0.0153086458
160299040.0 -0.8051571636 0.2579324676 0.0001972937 0.0002946407 6.20953e-05 0.000137927 0.1281841312 0.0121855971
165299010.0 -0.8027532924 0.2669207037 0.0001433852 2.1082e-06 0.0001673947 0.0001013467 0.1291863706 0.0093562726
170298980.0 -0.7997396333 0.27554689 -9.21793e-05 3.14397e-05 2.30679e-05 0.0001151853 0.1294339836 0.0061663382
175298950.0 -0.7974861368 0.2842629954 0.0002377944 6.82683e-05 0.0001100561 6.32446e-05 0.1298518618 0.0032929387
180298920.0 -0.7950788039 0.293130175 0.0001891193 0.0001687727 0.0001310127 8.42037e-05 0.1298974983 0.0003517097
185298890.0 -0.7912049052 0.301002973 0.0001218836 0.0003797417 -6.86839e-05 0.000191815 0.1301976415 -0.0022989807
190298860.0 -0.7884639101 0.3098238212 0.0001080377 8.89311e-05 6.49178e-05 -6.22937e-05 0.130348058 -0.0048991758
195298830.0 -0.7851602223 0.3177063622 3.57819e-05 1.91377e-05 3.91639e-05 2.27237e-05 0.1302889872 -0.0077699867
200298800.0 -0.7813653934 0.3262244887 5.56392e-05 -6.6007e-06 0.0001481821 0.0002889278 0.1298971152 -0.0102957741
205298770.0 -0.7783409819 0.3345536283 -1.76377e-05 0.0001777588 1.04774e-05 1.27482e-05 0.1297777505 -0.0129063006
210298740.0 -0.7751881095 0.3421546709 4.8996e-06 4.59946e-05 0.0002679352 0.0001593319 0.1297134765 -0.0154858288
215298710.0 -0.7719003199 0.3506168797 1.6762e-05 0.000208774 5.18672e-05 3.11482e-05 0.1290065386 -0.0179423834
220298680.0 -0.7676935813 0.358833173 -0.0001432856 0.0001364763 0.0001125499 0.0002777969 0.1285723996 -0.0202890694
225298650.0 -0.7642743281 0.3665263949 0.0001095438 1.07101e-05 2.2116e-06 8.00786e-05 0.1280479371 -0.022631467
230298620.0 -0.7595729236 0.374711954 -3.55948e-05 4.17733e-05 9.97009e-05 -4.66699e-05 0.1278027008 -0.0251492194
235298590.0 -0.7562510977 0.3830090423 6.23797e-05 0.0002183131 0.0002261865 -2.5667e-05 0.1271441343 -0.0274006914
240298560.0 -0.7524743661 0.3912375244 -4.6691e-06 9.56085e-05 6.84899e-05 2.787e-06 0.1264818845 -0.0294108277
245298530.0 -0.7486207219 0.3988304755 -3.36642e-05 7.62169e-05 1.46549e-05 0.0002667067 0.1255754918 -0.0321548233
250298500.0 -0.7440054481 0.4073484775 -3.69473e-05 -5.71595e-05 9.5429e-05 7.52175e-05 0.1249732879 -0.0343251437
255298470.0 -0.7394308068 0.413979498 0.0001293481 2.57436e-05 0.0001377042 0.0001418629 0.1245869917 -0.0364345399
260298440.0 -0.7353929959 0.4216681199 -3.85852e-05 -0.000110973 0.0001021469 4.76402e-05 0.1243701805 -0.0382524586
265298410.0 -0.731342549 0.4301261004 0.0003499888 -2.86639e-05 -0.0001204862 0.0001853599 0.1235872585 -0.0402808473
270298380.0 -0.7270378148 0.4375064915 9.92819e-05 0.0003091203 -2.71269e-05 0.0001076661 0.1224095431 -0.0424496746
275298350.0 -0.7221192412 0.4449041744 -6.84106e-05 9.30741e-05 9.24566e-05 6.17158e-05 0.1219873875 -0.0442061791
280298320.0 -0.7171924381 0.4522778761 0.0002512844 0.0001438908 4.23324e-05 -2.1763e-05 0.1217147334 -0.0462404726
285298290.0 -0.7126912897 0.4605599471 0.0001324196 0.0004038161 0.0001989045 0.0002397991 0.120790705 -0.0481395399
290298260.0 -0.7077488915 0.4676553943 0.0002052045 0.0002195082 0.0001132911 9.35817e-05 0.120061638 -0.0499597086
295298230.0 -0.702236622 0.4741653301 0.0002929208 0.0002083105 0.0001236968 5.96707e-05 0.1193741074 -0.0518493824
300298200.0 -0.6982333441 0.4815526157 8.6627e-05 0.0001890625 -1.94229e-05 -6.90303e-05 0.11881206 -0.053502849
305298170.0 -0.6926701044 0.487855502 0.0001753514 8.61361e-05 0.0001816274 4.102e-05 0.1181054289 -0.0558953897
310298140.0 -0.6875747202 0.496451588 0.0002048302 -2.68882e-05 0.000208827 0.0001637175 0.1169379045 -0.0572422255
315298110.0 -0.6827067846 0.5030209142 2.99014e-05 3.98197e-05 0.0002024181 0.0002351743 0.1158179798 -0.0590956298
320298080.0 -0.6773611566 0.5103974921 3.08731e-05 0.0002163815 6.77851e-05 0.0001014173 0.1150788123 -0.0610497621
325298050.0 -0.6717850505 0.5179757826 0.000283575 -1.36661e-05 0.0001353982 8.6139e-06 0.113657668 -0.0630519602
330298020.0 -0.6666117433 0.52433313 3.2173e-06 9.80187e-05 7.34075e-05 -9.36506e-05 0.1122182182 -0.0642147947
335297990.0 -0.6607124121 0.5304946896 0.0002069038 0.000105989 5.53019e-05 0.0002169377 0.1109681373 -0.0653030981
340297960.0 -0.6556548948 0.5378741538 -1.39388e-05 3.03636e-05 0.0002017249 9.14133e-05 0.1102413462 -0.0669364614
345297930.0 -0.6499557223 0.5441479626 6.48889e-05 -5.42877e-05 0.0003158619 1.22519e-05 0.1087845832 -0.0684014136
350297900.0 -0.6443418661 0.5511991308 0.0001813383 0.0001738363 -3.08579e-05 -1.38964e-05 0.1073481789 -0.0691736303
355297870.0 -0.6383492042 0.5580974734 0.0002197343 0.0002330678 3.77435e-05 4.33351e-05 0.1063639987 -0.0707159221
360297840.0 -0.6327131512 0.5642773683 5.21921e-05 0.000331377 5.66832e-05 0.0001954785 0.1051534116 -0.0724028966
365297810.0 -0.6273116966 0.5707402782 2.39148e-05 0.0003583013 -0.0001972951 -2.31994e-05 0.1041555948 -0.0735504704
370297780.0 -0.6205753087 0.5767899008 0.0001309512 -8.74279e-05 -0.0001197361 8.03502e-05 0.1032526826 -0.0747194912
375297750.0 -0.6148253587 0.5829683549 0.0001949664 0.0001501248 0.0003590846 0.0003312673 0.1014525739 -0.0763629482
380297720.0 -0.6084241475 0.5891273667 0.0002408457 -0.0001532505 7.73639e-05 0.0002208812 0.1001214436 -0.0773444881
385297690.0 -0.602988148 0.5955929301 0.0001305882 8.7558e-06 0.000403658 0.0001014803 0.0994396499 -0.0786202826
390297660.0 -0.5969698245 0.6014885863 0.0001701187 0.0001485584 9.34304e-05 0.000406117 0.0980672017 -0.0794879366
395297630.0 -0.5900341451 0.6081169193 0.0001392699 -3.3207e-06 5.88178e-05 0.0001566975 0.096786678 -0.0806013527
400297600.0 -0.5839415 0.6143367078 3.03368e-05 -0.0002527147 0.0003274031 -9.1733e-06 0.0956394641 -0.0819680733
405297570.0 -0.5777951655 0.6193431779 0.0002573457 3.52938e-05 0.0002303629 5.8964e-05 0.0940748074 -0.0829664221
410297540.0 -0.5707829507 0.6253766586 8.65039e-05 0.0001604956 0.0002676091 0.0001574814 0.0929326482 -0.084087704
415297510.0 -0.5641722577 0.6310757639 7.50953e-05 6.29824e-05 0.0001893212 0.0002394391 0.0913247781 -0.0850448912
420297480.0 -0.5587633537 0.6375112508 8.03507e-05 0.0002066409 0.0001515469 0.0003297876 0.0904360061 -0.0863677558
425297450.0 -0.5515767328 0.6425080858 0.0001341239 0.0002515013 0.0002988191 0.000168165 0.0892265732 -0.0875674105
430297420.0 -0.5452604609 0.6485808466 9.45109e-05 3.9769e-06 0.0001917745 0.0002303083 0.0878493376 -0.088620996
435297390.0 -0.5386638853 0.6531383102 9.16802e-05 0.0001572319 6.82317e-05 0.0003009866 0.0864332192 -0.0899488985
440297360.0 -0.5313021403 0.6590554973 0.0001316646 0.0002853235 0.0002433997 -4.54949e-05 0.0852296519 -0.0906648331
445297330.0 -0.5248930127 0.6642357383 0.0001604868 -3.93903e-05 0.0001702397 -9.60916e-05 0.0841007585 -0.0922261074
450297300.0 -0.5177693613 0.6690557622 0.0002575684 0.0001236377 0.0001086854 0.000301044 0.0826786772 -0.0927938695
455297270.0 -0.5108351191 0.6744690709 4.97733e-05 0.000110306 0.0002009462 -2.92165e-05 0.0815145782 -0.093936557
460297240.0 -0.5051622029 0.6796981244 0.0003278251 7.09904e-05 0.0002860045 4.2925e-06 0.0801430946 -0.0947172187
465297210.0 -0.4974348994 0.6850369931 0.0003179829 -1.97333e-05 0.0003520052 4.93636e-05 0.0791639847 -0.0953454575
470297180.0 -0.4900865758 0.6897127557 0.0003236326 0.0001056873 0.0001771912 3.70314e-05 0.0774972942 -0.0961879105
475297150.0 -0.4833668543 0.6941813105 0.0003007755 0.0001884287 0.00016143 0.0001346073 0.0762565075 -0.0971877358
480297120.0 -0.4761928908 0.6995474852 0.000267243 1.58194e-05 0.0001729087 0.0002076788 0.0750076908 -0.0977237374
485297090.0 -0.469165291 0.7041624442 0.0003267522 0.0001879435 0.0002309242 6.79074e-05 0.0738761797 -0.0987539578
490297060.0 -0.4622125057 0.7085629535 0.0002541997 7.81295e-05 0.0002879228 0.0002315797 0.0725239947 -0.0996108608
495297030.0 -0.4546014357 0.7131739405 0.000284731 0.0001731044 0.0003370239 0.0001420385 0.0710130682 -0.1000428031
500297000.0 -0.4474392436 0.7182558184 0.0002817973 -8.3632e-06 0.0001543502 3.59448e-05 0.0697789049 -0.1007259537
505296970.0 -0.4398488235 0.7224223793 0.0004810778 4.56871e-05 0.0002213497 0.0001191349 0.0678957381 -0.1015278319
510296940.0 -0.4324907801 0.7266037123 0.0004225803 3.34085e-05 0.0002754504 0.0001189111 0.06681894 -0.1021806264
515296910.0 -0.4245906866 0.7305514849 0.0003016761 0.0001270202 0.0001943318 0.0002651651 0.0657538124 -0.1025187657
520296880.0 -0.4178080474 0.7353414486 0.0003750764 0.0003775767 0.000255107 0.0001318763 0.0641160847 -0.1035184737
525296850.0 -0.4097409787 0.739317905 0.0001174163 2.21405e-05 0.0004043924 -0.0001849215 0.0629684996 -0.1038924374
530296820.0 -0.4022606475 0.7438341116 0.0003485031 0.0001125195 0.000285531 -0.0001237285 0.0615740284 -0.1041589493
535296790.0 -0.3956126631 0.7472708213 5.22845e-05 3.46654e-05 0.000296305 0.000150861 0.0596407432 -0.1052648731
540296760.0 -0.3884379583 0.7510064285 6.84389e-05 0.0001063577 0.0001239929 0.0002104359 0.0584629562 -0.1056063963
545296730.0 -0.3802716685 0.7551604378 0.000232872 0.0001619162 0.0002818047 6.18864e-05 0.0569538246 -0.1061481813
550296700.0 -0.3727112452 0.7593766117 0.0001916798 0.0002119211 0.000263839 9.98565e-05 0.0553671193 -0.1067950755
555296670.0 -0.3650451265 0.7619066793 -8.6455e-06 0.0001155465 0.0002990676 4.08026e-05 0.0540481263 -0.1066968772
560296640.0 -0.3568543374 0.7669248867 0.000427156 -8.24305e-05 0.0004216284 4.78492e-05 0.0526014229 -0.1071823754
565296610.0 -0.349201084 0.7694409358 0.0003348194 0.0001900206 0.000172633 1.34994e-05 0.0509884639 -0.1079733279
570296580.0 -0.3421114241 0.7723815496 0.0003183144 0.0002405489 0.0003283621 0.0001928559 0.0497002513 -0.1085425173
575296550.0 -0.3340795941 0.7769494364 0.0005279559 0.0001472485 0.0002577222 8.48254e-05 0.0480865283 -0.1087223557
580296520.0 -0.3260289882 0.7795173874 0.0002504836 -6.97482e-05 0.0006052118 6.14057e-05 0.0467128252 -0.1093952302
585296490.0 -0.3182801944 0.7825249266 0.0001694741 0.0001149813 0.0003997091 8.09791e-05 0.0450354025 -0.1099274275
590296460.0 -0.3099282354 0.7859725767 0.0002692847 0.0001788004 0.000342296 3.71115e-05 0.043020115 -0.1098723295
595296430.0 -0.3028495509 0.7882874235 4.38044e-05 -8.86134e-05 0.0002392248 -4.8142e-06 0.0420667663 -0.1107084827
600296400.0 -0.294717892 0.7919717565 0.0003282798 4.15486e-05 6.67058e-05 8.32594e-05 0.0406942634 -0.1112587775
605296370.0 -0.2870871996 0.7946896167 0.0004186561 -0.000159093 0.0002452014 0.000159619 0.0392826143 -0.1112310187
610296340.0 -0.2787915414 0.7968807629 0.0001545004 0.0001313718 0.0004177717 0.0004248375 0.0378660362 -0.1115424151
615296310.0 -0.269565883 0.8000989558 0.0004719357 0.0001215307 0.0001747496 4.26796e-05 0.0366148665 -0.1119133392
620296280.0 -0.2622717082 0.802125064 0.0002362119 -3.69433e-05 0.0001227726 -6.92178e-05 0.0349270348 -0.1122856558
625296250.0 -0.2545136543 0.8052646311 0.0002009747 -0.0002471511 0.0003944143 0.0001299946 0.0337482764 -0.1124177126
630296220.0 -0.2458808185 0.8077899853 0.0002710969 -6.4919e-05 0.0002865985 -6.22138e-05 0.0321532213 -0.1125070803
635296190.0 -0.2383285757 0.8102249702 0.0004053643 0.0001993862 0.0002564539 9.68076e-05 0.0310854775 -0.112698979
640296160.0 -0.2307432518 0.8120648155 0.0004596273 0.0001095792 0.0003924341 -0.0001250956 0.0292447787 -0.1132417613
645296130.0 -0.2221758262 0.8149564275 0.0002678041 6.04051e-05 9.89244e-05 7.58824e-05 0.0281526619 -0.1131128525
650296100.0 -0.2137006091 0.8168999406 0.0001967036 -7.31887e-05 0.000415758 0.0001048098 0.0268402932 -0.1134946557
655296070.0 -0.2057069626 0.8190980077 0.0004256635 0.0003354598 0.0002256882 6.00564e-05 0.0254655164 -0.1135561271
660296040.0 -0.1977180822 0.8206415824 0.0002934382 7.59699e-05 0.000328131 3.41364e-05 0.0240561041 -0.1136459769
665296010.0 -0.189324404 0.8222486702 0.0003891236 0.0001209436 0.0001725103 8.84046e-05 0.0223191274 -0.1134405699
670295980.0 -0.1819821968 0.8245616767 0.0005213641 0.0001900345 0.000343727 5.86899e-05 0.0205208649 -0.1135656145
675295950.0 -0.1728011264 0.8252701848 0.0002362019 0.0001713444 0.0003131838 2.8492e-05 0.0193805592 -0.1132298388
680295920.0 -0.164395679 0.827900531 0.0004927979 -9.16856e-05 0.0004272996 2.74234e-05 0.0177705469 -0.1130229069
685295890.0 -0.1560129277 0.8298406786 0.0001176527 -6.84408e-05 0.0004384054 -8.34359e-05 0.0168198689 -0.1132884764
690295860.0 -0.148094769 0.8307543684 0.000235203 -2.75647e-05 0.0002477969 0.0001196062 0.0152584785 -0.1128805532
695295830.0 -0.1404280562 0.8319557568 0.0003481532 -2.63194e-05 0.0003549864 -8.5269e-06 0.0136016386 -0.1125901812
700295800.0 -0.1317581958 0.8337652792 0.0005085172 0.000158235 0.0003545524 -1.48114e-05 0.0118581418 -0.1125822643
705295770.0 -0.1233082103 0.835644316 0.0001486849 -1.09657e-05 0.0005065446 -2.2138e-05 0.0105495178 -0.1123827784
710295740.0 -0.1150100602 0.8366095172 0.0004521445 0.0001482617 0.0002552284 -4.80856e-05 0.0092930762 -0.1125343014
715295710.0 -0.1074419768 0.8371940909 0.0002638505 -0.0001707498 0.0004299256 -0.000146675 0.0078038324 -0.1126968634
720295680.0 -0.098619354 0.8386434995 0.0003460411 9.82482e-05 0.0004589045 -0.0002421261 0.0062070712 -0.1122699384
725295650.0 -0.0901532134 0.839036578 0.0005799981 7.856e-07 0.0004383987 6.82248e-05 0.0049191706 -0.11174745
730295620.0 -0.0814537006 0.8400563349 0.0003241676 0.0001730241 0.0004365878 0.0001042198 0.0030216993 -0.1120229834
735295590.0 -0.0736764652 0.8413178631 0.0003538418 0.0001443026 0.0003587486 -7.46525e-05 0.0016237906 -0.1116110896
740295560.0 -0.0655124318 0.8420566598 0.0006718706 9.6837e-06 0.0003411569 6.62945e-05 0.0006748728 -0.1116174591
745295530.0 -0.0564396812 0.842462876 0.0004081838 -0.0003012165 0.0003233128 -9.34963e-05 -0.001020869 -0.1111433457
750295500.0 -0.0482468514 0.8432256247 0.0004222108 -5.30023e-05 0.0003353301 6.02343e-05 -0.0025519804 -0.1111119609
755295470.0 -0.0402973834 0.8426624936 0.0004270109 3.39561e-05 0.0002617654 1.05404e-05 -0.0037528674 -0.1113621992
760295440.0 -0.0322189255 0.8431760007 0.0005526215 -0.0001373399 0.0002747606 4.03102e-05 -0.0051891042 -0.1111362785
765295410.0 -0.0239497014 0.8437744817 0.0004385304 7.61427e-05 0.0003863752 0.0002655512 -0.0066563768 -0.1104037221
770295380.0 -0.0158450976 0.8443500958 0.0001531655 -5.07279e-05 0.0004334145 8.77024e-05 -0.0083102489 -0.1101944945
775295350.0 -0.0072091682 0.8436851841 0.0002298046 0.0002048426 0.0003143187 -0.0001132645 -0.0098801524 -0.1100694544
780295320.0 0.0015128509 0.8443281454 0.0001314023 -0.000178685 0.0004039425 8.29498e-05 -0.0108348828 -0.1097250954
785295290.0 0.0091999371 0.8429273086 0.0004526215 0.0001660639 0.0002153757 -1.34855e-05 -0.0120559781 -0.1095136179
790295260.0 0.0184864259 0.8436038384 0.000311657 -0.0002653617 0.0003007874 2.83916e-05 -0.0132373125 -0.10899206
795295230.0 0.0259049447 0.8432720969 0.0003852535 -0.0003190175 0.0002682797 -1.8981e-06 -0.0145538436 -0.1088014079
800295200.0 0.0344443002 0.8430918366 0.0003421449 -0.0001332785 0.0003237483 -0.0002419054 -0.0160837574 -0.1081653065
805295170.0 0.0434789671 0.8430897394 0.0003066333 -0.0001966427 0.0005700557 -0.0002077522 -0.0176935393 -0.1077715036
810295140.0 0.0513076604 0.8421050315 0.0004045937 -6.17828e-05 0.0002460555 4.25034e-05 -0.0185328745 -0.1075997278
815295110.0 0.0598058283 0.8418952942 0.0001395663 -0.0001211956 0.0004398543 -0.0001059509 -0.0197739279 -0.1067940568
820295080.0 0.0679342226 0.841124999 0.0003545162 -0.0001323802 0.0004324352 4.9346e-05 -0.0212302736 -0.1063753049
825295050.0 0.0772649436 0.8400772172 0.0004473453 -0.0002646576 0.0004366043 -9.64541e-05 -0.0224609017 -0.1059514358
830295020.0 0.084065998 0.8398431637 0.0002200759 -0.0002976632 0.0005193345 0.0001451922 -0.02334974 -0.1054172912
835294990.0 0.0926067932 0.8386467618 0.0003997678 -0.0003844196 0.00033678 -0.0001138156 -0.0250298077 -0.1046225647
840294960.0 0.1008431191 0.8376830567 0.000589636 -0.0002007416 0.0004203532 -0.0001968643 -0.0263924586 -0.1040180197
845294930.0 0.1091372616 0.8365494512 0.0005383017 -0.000136486 0.0003071482 -0.0002372405 -0.0276484128 -0.1037658484
850294900.0 0.1172731847 0.8360242737 0.0002740962 -0.0002932693 0.0002864094 -0.0001860139 -0.0288309218 -0.1030171314
