!Created with skrf (http://scikit-rf.org).
# Hz S RI R 50.0 
!freq ReS11 ImS11 ReS21 ImS21 ReS12 ImS12 ReS22 ImS22
300000.0 -0.2363642319 -0.1189983569 0.4657174142 0.0779097428 0.4634556741 0.0795761963 -0.2322103969 -0.1253541493
5299970.0 -0.2447553996 0.005372314 0.4732728961 0.0060340005 0.4738880114 0.0057941085 -0.2435561031 0.0053209432
10299940.0 -0.241819973 0.0186403254 0.4761111709 0.0069653643 0.4757593879 0.0072909848 -0.2402681628 0.0178964963
15299910.0 -0.2368726837 0.0283239329 0.4795440406 0.0084971333 0.4796159778 0.0080157529 -0.235933214 0.0272844453
20299880.0 -0.2316715811 0.0361934378 0.4842056188 0.0086132201 0.4843365901 0.0088006883 -0.2311323002 0.0350643465
25299850.0 -0.2258297536 0.0426736632 0.4895525117 0.0079994126 0.4899830787 0.0077277845 -0.2260026509 0.0416583217
30299820.0 -0.2202745315 0.0476229196 0.4950573553 0.0055137893 0.4951174024 0.0055432845 -0.220647171 0.0470331836
35299790.0 -0.2142365765 0.0518143693 0.4997096084 0.0021992648 0.5004360426 0.0022505726 -0.2156903386 0.0514317535
40299760.0 -0.2092181514 0.0547670063 0.5055609873 -0.0015777858 0.5057956303 -0.0017516105 -0.2105606827 0.0546613459
45299730.0 -0.2040235865 0.0571187269 0.5104206352 -0.0060344289 0.5107480263 -0.0063399443 -0.205480921 0.0576783003
50299700.0 -0.1988220378 0.0588593674 0.514250535 -0.0119835711 0.5147404629 -0.0119342017 -0.2010925807 0.0603204291
55299670.0 -0.1950758958 0.0603397304 0.5183059301 -0.0171886808 0.5185830473 -0.0181564403 -0.1977104721 0.0616271789
60299640.0 -0.1906759169 0.0619712435 0.5218535134 -0.0241198282 0.521833117 -0.0242500935 -0.1936802805 0.0632441904
65299610.0 -0.1872830759 0.062630676 0.52474074 -0.0301090054 0.5251709247 -0.0304418151 -0.1897445402 0.0647469942
70299580.0 -0.1839438904 0.0629351994 0.5270938284 -0.0367932246 0.5271503224 -0.0371028585 -0.1871041968 0.0658723148
75299550.0 -0.1810432166 0.0638553288 0.5286289141 -0.0441146772 0.5290669885 -0.0438899468 -0.184131665 0.0669508829
80299520.0 -0.1784805963 0.0646042415 0.5310697728 -0.0508286791 0.5309923143 -0.0509737462 -0.181524355 0.0680461489
85299490.0 -0.1758292544 0.0649315526 0.5324758323 -0.0576482921 0.5324448231 -0.0575207788 -0.1795069219 0.0688893402
90299460.0 -0.1735321577 0.0654267617 0.5331371952 -0.0644196707 0.5334604348 -0.0648240031 -0.1767877763 0.06992015
95299430.0 -0.1713632702 0.0656771353 0.5342041303 -0.0714732897 0.5345153083 -0.0718973881 -0.1749586677 0.0708099858
100299400.0 -0.1695456822 0.0661904717 0.5345157885 -0.0779979023 0.5343586245 -0.0786814309 -0.1729932261 0.0719195095
105299370.0 -0.167754484 0.0666138344 0.5349127786 -0.0851838698 0.5353968633 -0.0853275152 -0.1711471134 0.0720513413
110299340.0 -0.1658664357 0.0671075111 0.5348871486 -0.0917215004 0.5352624659 -0.0918191083 -0.1697924761 0.073138283
115299310.0 -0.1646587737 0.0676237223 0.5352370716 -0.0988957851 0.5351233297 -0.0990329732 -0.1684197757 0.0741774001
120299280.0 -0.1631456298 0.0681198161 0.5352459203 -0.1057385649 0.5347352291 -0.105910647 -0.166628574 0.074716208
125299250.0 -0.1618137643 0.0687942796 0.5345663053 -0.1125310762 0.5348716207 -0.112472095 -0.1652465741 0.0760981415
130299220.0 -0.1607018935 0.0689564375 0.5341634218 -0.1191135867 0.5343055549 -0.1194281657 -0.1638908744 0.0769657794
135299190.0 -0.1596071408 0.0701980314 0.5336606362 -0.1255412913 0.5337444952 -0.1260023842 -0.1628032191 0.0775256397
140299160.0 -0.1585819507 0.0705929976 0.5329039149 -0.1326032424 0.5326421616 -0.132104558 -0.1625118198 0.0787391635
145299130.0 -0.157803038 0.0715880122 0.5318240682 -0.1389517077 0.5317261727 -0.139040042 -0.1609672251 0.0799768573
150299100.0 -0.156444852 0.0725231981 0.5306908482 -0.1458795534 0.5298575218 -0.1458071448 -0.1597111097 0.0810438523
155299070.0 -0.1555605785 0.0733487425 0.5291252465 -0.1521932643 0.5294466628 -0.1522974571 -0.1588390568 0.0821855687
160299040.0 -0.1546806474 0.0743610226 0.5279159672 -0.1585869813 0.5280148104 -0.1588368814 -0.1579373713 0.0834834191
165299010.0 -0.1537935418 0.0753595163 0.5269339514 -0.1651391456 0.5263060475 -0.1652659535 -0.1565181252 0.0844431562
170298980.0 -0.1531127576 0.0763320623 0.5248629503 -0.171264791 0.5252859269 -0.1718039684 -0.1560366256 0.0859438771
175298950.0 -0.1522655965 0.0774510232 0.5234375312 -0.1779013703 0.5237959158 -0.1782271596 -0.1551255224 0.0873173435
180298920.0 -0.1515657131 0.0785616856 0.5216922469 -0.1843600462 0.5217509729 -0.1845141199 -0.1540403162 0.0885675606
185298890.0 -0.1507640515 0.0792959851 0.5201385223 -0.1903236427 0.5196057621 -0.1904000726 -0.1526874873 0.0895853684
190298860.0 -0.1497134247 0.0806806929 0.5173938851 -0.1964709426 0.5182760046 -0.1964979837 -0.1522807278 0.0909039262
195298830.0 -0.1490073425 0.0818288746 0.5156441969 -0.2024529082 0.5162405219 -0.2022945744 -0.1513795769 0.0923480738
200298800.0 -0.1481623013 0.0828006759 0.5142105768 -0.2091038024 0.5138349169 -0.2091719703 -0.150223772 0.0935618311
205298770.0 -0.1478472545 0.0840076927 0.5113688822 -0.2147323638 0.5118185912 -0.2146495555 -0.1492076003 0.0950413496
210298740.0 -0.147066235 0.0854014987 0.5097315208 -0.2205518917 0.5092200884 -0.2207757205 -0.1484434728 0.0959998516
215298710.0 -0.1460909862 0.0866105329 0.5067290795 -0.2264229867 0.5070819842 -0.2267636323 -0.1471249726 0.0978206474
220298680.0 -0.1451500274 0.087839435 0.5041381693 -0.2327274443 0.5042942062 -0.2330177979 -0.1461774173 0.0990254079
225298650.0 -0.1444303238 0.0892627156 0.501614555 -0.2383489136 0.5020875024 -0.2381949371 -0.1456797564 0.1004115139
230298620.0 -0.1435595474 0.0906096062 0.4997593492 -0.2445739282 0.4999530335 -0.2444585032 -0.1447826994 0.101875795
235298590.0 -0.143328715 0.0919174923 0.4971870202 -0.2506591528 0.4971639151 -0.2500673109 -0.1435751398 0.1033621554
240298560.0 -0.1422475028 0.0930020323 0.4942892818 -0.2552911008 0.4944589316 -0.2553412265 -0.1426193484 0.1044063824
245298530.0 -0.1416234918 0.0943171828 0.4914718973 -0.2615964444 0.4914413326 -0.2616372577 -0.1414873149 0.1063040643
250298500.0 -0.1409595023 0.0955154667 0.4887965592 -0.2667687666 0.488712635 -0.266895393 -0.1405670078 0.1079922291
255298470.0 -0.1397929119 0.0969096577 0.4860885579 -0.2720191777 0.4862187306 -0.2729441435 -0.1393210251 0.1093102077
260298440.0 -0.138950149 0.098165447 0.483055452 -0.2779179846 0.4832937171 -0.277829206 -0.1383732509 0.1104367611
265298410.0 -0.1384981013 0.0997108987 0.4796013675 -0.2841229515 0.4799843433 -0.284140898 -0.1365684395 0.1118577473
270298380.0 -0.1378028968 0.1009409043 0.4769268999 -0.2889543439 0.4770995853 -0.2891317822 -0.1359681967 0.113486785
275298350.0 -0.1366998646 0.1026469417 0.4735029678 -0.2941519802 0.4735014115 -0.2945786907 -0.1348670778 0.114868279
280298320.0 -0.1362023961 0.1037548444 0.4710154966 -0.2995466727 0.4710157514 -0.2998875302 -0.1336389746 0.1161729201
285298290.0 -0.1350749225 0.1051190935 0.4670466482 -0.3052475913 0.467686062 -0.3048182992 -0.1325331073 0.1180381539
290298260.0 -0.1342638747 0.1063602484 0.4646291996 -0.3106700837 0.4642991191 -0.3106034575 -0.1311143537 0.1193341527
295298230.0 -0.133286907 0.1073189385 0.4603979825 -0.3159104153 0.4609057111 -0.3162393393 -0.1299853755 0.1207284327
300298200.0 -0.1323021957 0.1091414612 0.457692262 -0.3210881096 0.4576697039 -0.320794665 -0.1289302509 0.1220534662
305298170.0 -0.1312785004 0.1099718484 0.4540699115 -0.3265395958 0.4543552927 -0.3266893921 -0.127432535 0.1232073367
310298140.0 -0.1302824631 0.1111787476 0.450405878 -0.3311648283 0.4504502704 -0.3310348975 -0.1257066207 0.1242993148
315298110.0 -0.1297485282 0.1123206963 0.4470266775 -0.3369456848 0.4469939873 -0.3367982135 -0.1248756542 0.1258913652
320298080.0 -0.1287926144 0.1137717142 0.4425983145 -0.3417174238 0.4433215462 -0.3420729288 -0.1236559251 0.1267929676
325298050.0 -0.1280171592 0.1143750004 0.4387557779 -0.3463241863 0.4395870023 -0.3469157108 -0.1220365964 0.1283250022
330298020.0 -0.1275839439 0.1159759176 0.435008291 -0.352027372 0.4354209991 -0.3517487157 -0.1211331051 0.1296264277
335297990.0 -0.1263609495 0.1172878968 0.430936889 -0.356679829 0.4316021984 -0.3566822405 -0.1200875034 0.1311024142
340297960.0 -0.1257152527 0.1186872792 0.4268375402 -0.3614079442 0.4266395444 -0.3614739728 -0.1185993294 0.1324673615
345297930.0 -0.1250581882 0.1197592737 0.4228348575 -0.36640135 0.4228422458 -0.366300036 -0.1171722105 0.1339887056
350297900.0 -0.1240605287 0.1210702617 0.419145635 -0.3706767427 0.419375724 -0.3705662944 -0.1162970296 0.1349508882
355297870.0 -0.1233698262 0.1224630984 0.4149458366 -0.3751169061 0.4149899612 -0.3753076294 -0.1144930645 0.1368045099
360297840.0 -0.1222759394 0.1241328981 0.4105824341 -0.3798443037 0.4106638713 -0.3802020286 -0.1133498119 0.1380970853
365297810.0 -0.1212885465 0.1253467789 0.4066373988 -0.384549192 0.4063733814 -0.3845795498 -0.1120267419 0.1394365305
370297780.0 -0.1198324872 0.1265642776 0.4015522396 -0.3889901682 0.4024715558 -0.3889429455 -0.110815745 0.1409666321
375297750.0 -0.1189861233 0.127823427 0.3979762586 -0.3931268392 0.3981087062 -0.3931216294 -0.1088256654 0.1420142546
380297720.0 -0.11802327 0.1293528772 0.393571725 -0.3982570156 0.3936928848 -0.3979161519 -0.1074451879 0.1435303547
385297690.0 -0.1172164432 0.1301915057 0.3892405827 -0.4019143056 0.3894555196 -0.4023927127 -0.1057661535 0.1451332015
390297660.0 -0.1156730245 0.131296907 0.3848429766 -0.4058301217 0.384790751 -0.4061102106 -0.1043780416 0.1459883825
395297630.0 -0.114341439 0.1327845072 0.3804005718 -0.4101393313 0.3800304591 -0.4100337401 -0.1026983594 0.1472691963
400297600.0 -0.1134632443 0.133922155 0.3757882495 -0.4151986235 0.3764051116 -0.4146913551 -0.1012058738 0.1490018135
405297570.0 -0.1123021054 0.1346669474 0.3713918485 -0.4182923535 0.3715185946 -0.4186387455 -0.0993348594 0.1502226552
410297540.0 -0.1108135705 0.1365127055 0.36673501 -0.4227074806 0.3670104839 -0.4224349319 -0.0981375512 0.1512806166
415297510.0 -0.1100193309 0.1373487888 0.3621569745 -0.4265855313 0.3623252856 -0.4267891374 -0.0959934874 0.1524687357
420297480.0 -0.108736195 0.1381721175 0.3570394811 -0.4309235349 0.357630541 -0.4310114417 -0.0943747049 0.1541762397
425297450.0 -0.106555645 0.1394389236 0.3524431758 -0.4344862908 0.3525224397 -0.4345727414 -0.0929653626 0.1549417406
430297420.0 -0.1060827984 0.1406474571 0.348317039 -0.4384553823 0.3481980278 -0.4384648543 -0.0907450212 0.156266396
435297390.0 -0.1046772036 0.1417321428 0.3427846003 -0.4428381579 0.3429962059 -0.4421469094 -0.0896536948 0.1577011998
440297360.0 -0.1032191041 0.142700997 0.3379857458 -0.4459597939 0.3382542772 -0.4459868302 -0.0878813965 0.1588007691
445297330.0 -0.1018932094 0.1432382499 0.3332079853 -0.4492135675 0.333357949 -0.4499343472 -0.0858991086 0.1598855302
450297300.0 -0.1005056476 0.1447058191 0.3284382704 -0.4529238278 0.328657882 -0.4529094974 -0.0840189678 0.1611331723
455297270.0 -0.0996509306 0.1455670674 0.3238604963 -0.4564080713 0.3237819254 -0.4568101558 -0.0824434368 0.1619179068
460297240.0 -0.0976522022 0.1473105187 0.3186243401 -0.4606752894 0.3183357739 -0.4605547623 -0.0806494632 0.1629542504
465297210.0 -0.0965216916 0.1479908508 0.3130962934 -0.4637386097 0.3127798311 -0.4641750575 -0.0781905823 0.1644052269
470297180.0 -0.0951342083 0.1488615464 0.3079191093 -0.4669541399 0.3083568007 -0.4671283518 -0.0767515283 0.165040004
475297150.0 -0.0938047045 0.1500350622 0.302924847 -0.470221413 0.303042236 -0.4706643519 -0.0749701665 0.1659888428
480297120.0 -0.0919111619 0.1515143222 0.29772996 -0.4740684686 0.2983447289 -0.4736038788 -0.0733828124 0.1669852637
485297090.0 -0.0908030258 0.151820502 0.2928256212 -0.4770801524 0.2928179827 -0.47703321 -0.0714950819 0.1680959834
490297060.0 -0.0885400897 0.1532144572 0.2872503854 -0.4805529648 0.2874482834 -0.4803254747 -0.069708934 0.1689326221
495297030.0 -0.0876746262 0.1536808164 0.2825900975 -0.4832590657 0.282286424 -0.4832892423 -0.0674309159 0.169558896
500297000.0 -0.0860376106 0.1549790247 0.2769035709 -0.4862461149 0.2769863191 -0.4862838315 -0.0657983396 0.17064872
505296970.0 -0.0840967051 0.1559623083 0.271553236 -0.489404459 0.2718902027 -0.4886092914 -0.063732699 0.1707852357
510296940.0 -0.0827405028 0.1568118767 0.2663670581 -0.492657692 0.266534672 -0.4926062132 -0.0613750448 0.1727477184
515296910.0 -0.0812298753 0.1580902781 0.2603752047 -0.4951810949 0.2604979333 -0.4950234341 -0.05980997 0.1728454353
520296880.0 -0.0793650735 0.1586352953 0.255195413 -0.4977945349 0.2551614555 -0.4975712122 -0.0572995835 0.1740713837
525296850.0 -0.0781327642 0.1595249577 0.2501907706 -0.5000965121 0.2497713846 -0.5004354628 -0.0556077622 0.1746977698
530296820.0 -0.0768729252 0.1602807442 0.2445835792 -0.5029885837 0.2444562441 -0.5030076732 -0.0536228567 0.1752499173
535296790.0 -0.0743958684 0.1612192173 0.2387224615 -0.5058824692 0.2392069339 -0.5058841124 -0.0515344558 0.1764152206
540296760.0 -0.0730172011 0.162264767 0.2331864033 -0.5081544535 0.2334414113 -0.5083170324 -0.0496852395 0.1764675044
545296730.0 -0.0717622373 0.1634080143 0.2278672588 -0.510773807 0.2278557026 -0.5104736131 -0.0475132499 0.177669439
550296700.0 -0.0695304537 0.1640665673 0.222486163 -0.513033346 0.2219550045 -0.5132110818 -0.0455257235 0.1778067074
555296670.0 -0.0681950576 0.1648251746 0.2170729929 -0.5155796685 0.2167129445 -0.5155823308 -0.0436437526 0.1782613174
560296640.0 -0.0658137652 0.1653371776 0.210960685 -0.5176748717 0.2113149783 -0.5175455574 -0.0417771812 0.1792294962
565296610.0 -0.0648046352 0.1665736503 0.205724031 -0.5201559369 0.2054354279 -0.5196814142 -0.0395822917 0.1800211068
570296580.0 -0.0632013106 0.1673092213 0.1997134421 -0.5220739935 0.1999543849 -0.5223139876 -0.037461118 0.1802120094
575296550.0 -0.0612183994 0.1681190641 0.1945495783 -0.5242793744 0.1937031776 -0.524375917 -0.0353643524 0.1808508556
580296520.0 -0.0593495941 0.1689355406 0.1884649391 -0.5264034744 0.18823934 -0.5261382087 -0.0338650481 0.181466585
585296490.0 -0.0578526786 0.1698118753 0.1830327695 -0.5282978603 0.1822587294 -0.5285143263 -0.0312138258 0.1820787466
590296460.0 -0.0553383236 0.1706350631 0.1767390995 -0.5303495965 0.1767187797 -0.5307165758 -0.029693247 0.1824604186
595296430.0 -0.0542281794 0.1710798146 0.1707660947 -0.5319053917 0.1705831527 -0.5323677855 -0.0273576682 0.1831536261
600296400.0 -0.0522552171 0.1720056438 0.1647945599 -0.5339467528 0.1648858498 -0.5342355413 -0.0252163097 0.1832120497
605296370.0 -0.0510205158 0.1729558613 0.1599896506 -0.5352157815 0.1589331616 -0.5358411247 -0.0231580645 0.1839307633
610296340.0 -0.0485342703 0.1736559064 0.1539087229 -0.5368586589 0.1535866339 -0.5368955885 -0.021355663 0.1843522192
615296310.0 -0.0468300122 0.1741731852 0.1477253411 -0.5390653118 0.1474979041 -0.5391449994 -0.0192442951 0.1847333906
620296280.0 -0.0454367325 0.1753450559 0.1419186784 -0.5405580986 0.141535058 -0.5406778907 -0.0173001726 0.1850534715
625296250.0 -0.043839887 0.1757372016 0.1358686443 -0.5420661858 0.1360001891 -0.542319688 -0.0153794521 0.1851330192
630296220.0 -0.0417406812 0.1766380667 0.1296715109 -0.5434285268 0.1297718191 -0.5432521684 -0.0128569912 0.1856289808
635296190.0 -0.0404526514 0.1772490114 0.1246211946 -0.5447670663 0.1244190889 -0.5446619073 -0.0111120263 0.1858289114
640296160.0 -0.0384476566 0.1776771803 0.11821908 -0.5463793669 0.1180916484 -0.5463810564 -0.0091399617 0.1863373895
645296130.0 -0.0362688639 0.1785328203 0.1121693381 -0.5469431213 0.112340603 -0.5471099376 -0.0071201742 0.1859765834
650296100.0 -0.0346202608 0.1791646911 0.1063802552 -0.5487368575 0.10610736 -0.5485784817 -0.0044237624 0.186375187
655296070.0 -0.0330289433 0.1798633303 0.1001819845 -0.5496752476 0.1003013196 -0.5493554652 -0.0030443311 0.1868337977
660296040.0 -0.03127573 0.180264632 0.0948489867 -0.5505749275 0.0942429199 -0.5505590075 -0.0006405793 0.1864494711
665296010.0 -0.0292586114 0.1809523001 0.0878858607 -0.5509042467 0.0882700255 -0.551162447 0.0013562238 0.1870209779
670295980.0 -0.0275211896 0.1814818698 0.0825109958 -0.5522148399 0.0822536458 -0.5517928901 0.0032883759 0.1867105439
675295950.0 -0.0260048341 0.1819182245 0.0769321028 -0.5531614376 0.0767663969 -0.553047855 0.0050694429 0.1872035414
680295920.0 -0.0243734556 0.1826223609 0.0708824624 -0.5532077513 0.0705042254 -0.5537537491 0.0077717212 0.1871174085
685295890.0 -0.0223941156 0.1832692991 0.0649024039 -0.5546859345 0.0644903581 -0.5547528522 0.0097629857 0.1875501041
690295860.0 -0.0207144681 0.1836025699 0.0585598599 -0.5547178787 0.0583131718 -0.5554599873 0.0114921948 0.1874179826
695295830.0 -0.0187935879 0.1840578025 0.0527388926 -0.5561659676 0.0526380382 -0.5557157908 0.0137751836 0.1877451678
700295800.0 -0.01700698 0.1847115048 0.0467761162 -0.5561985698 0.0464430794 -0.5562642444 0.0159777408 0.1873425043
705295770.0 -0.0154873795 0.1852271112 0.0406871978 -0.557416652 0.0407387131 -0.5565613575 0.0178337612 0.1876596958
710295740.0 -0.0136625438 0.1852675964 0.0349589259 -0.5568085526 0.034617264 -0.5573143497 0.0200838528 0.1874707187
715295710.0 -0.0117364205 0.1860696677 0.0291001435 -0.5574329686 0.0285141738 -0.5575550503 0.0222621399 0.1871437782
720295680.0 -0.0097515112 0.1860293205 0.0224849239 -0.5574104788 0.0225465048 -0.5576478525 0.02394235 0.1870794916
725295650.0 -0.0085521428 0.1867059458 0.0172479734 -0.5576095681 0.0168762264 -0.5580705589 0.0258759091 0.1871893872
730295620.0 -0.0072377346 0.1868581599 0.0108976143 -0.5576537497 0.0104287967 -0.5576988952 0.0279359497 0.1874685055
735295590.0 -0.0048251331 0.1872904361 0.0048109736 -0.5580003585 0.0044981733 -0.5577120005 0.0298895809 0.1869342574
740295560.0 -0.0036061862 0.1873489172 -0.0012195052 -0.5584996815 -0.0010934202 -0.5581212241 0.0320511525 0.1867240048
745295530.0 -0.0017899146 0.1879363558 -0.0068650988 -0.5576664305 -0.0065348156 -0.5575364899 0.0338639972 0.1862192992
750295500.0 -2.16752e-05 0.1881501429 -0.0128626475 -0.5577595843 -0.0131456584 -0.5577409867 0.036070727 0.1861624598
755295470.0 0.0016446704 0.1881241041 -0.0185758492 -0.5577487872 -0.0189203736 -0.5580666556 0.0382012418 0.1865484653
760295440.0 0.0035068238 0.1888801225 -0.0257252905 -0.5574371684 -0.0254342182 -0.5569373974 0.0403625325 0.1855932208
765295410.0 0.0058296976 0.1886201456 -0.0315970156 -0.5566744606 -0.0309860901 -0.556798902 0.0425239435 0.1855504927
770295380.0 0.0069559939 0.1891017282 -0.0369686178 -0.5563292109 -0.0368508883 -0.5566952018 0.0441022223 0.1852919726
775295350.0 0.0084349078 0.1890180849 -0.042718337 -0.5563157503 -0.0430421617 -0.5557938642 0.0466054398 0.1851883568
780295320.0 0.0104597737 0.1894994221 -0.0490927892 -0.5549086485 -0.0490460991 -0.5554404751 0.0486356113 0.1845184125
785295290.0 0.0123331487 0.1892063704 -0.0548488484 -0.5550804575 -0.055050973 -0.5551158359 0.0500870831 0.18473523
790295260.0 0.0138844769 0.1891007995 -0.0606189314 -0.5542035223 -0.0606831752 -0.5544804528 0.052235404 0.1841851259
795295230.0 0.0155882282 0.1892164416 -0.0670638265 -0.5538138289 -0.0668937005 -0.5541476531 0.0542022597 0.1829906328
800295200.0 0.0170840014 0.1895364749 -0.0718895948 -0.5527477551 -0.0728506657 -0.553176468 0.0560524667 0.1829665324
805295170.0 0.0186612577 0.1896129179 -0.0780910824 -0.5521437873 -0.0788398213 -0.5525248704 0.0587473647 0.1825781658
810295140.0 0.0209748576 0.1898312564 -0.0845553387 -0.5509790947 -0.0847820838 -0.5515073481 0.0606450184 0.182056057
815295110.0 0.0222032499 0.1897391425 -0.0903190566 -0.5501593112 -0.0900318661 -0.550784639 0.062336477 0.1818722754
820295080.0 0.0242968652 0.1897410972 -0.0957615568 -0.5489682674 -0.0958704858 -0.5493653794 0.0636286386 0.1815207044
825295050.0 0.0256058736 0.189285049 -0.1019352596 -0.5481016173 -0.1016841762 -0.5481425187 0.0663984626 0.1810835153
830295020.0 0.0278523418 0.1892399731 -0.1079130379 -0.5468964432 -0.107865243 -0.546831895 0.0682020604 0.1797039958
