!Created with skrf (http://scikit-rf.org).
# Hz S RI R 50.0 
!freq ReS11 ImS11 ReS21 ImS21 ReS12 ImS12 ReS22 ImS22
300000.0 -0.0468315263 -0.0455455457 -0.0004722967 -0.0014959896 -0.0013417892 0.0011267504 -0.7759657444 -0.1413384994
5299970.0 -0.0497833923 0.0157898117 -0.0001379885 7.17817e-05 4.77487e-05 0.0001480736 -0.7840865055 -0.0072549523
10299940.0 -0.0442449481 0.0327572909 2.1323e-05 0.0001331615 2.4599e-06 5.39849e-05 -0.7875468918 -0.0037604312
15299910.0 -0.0360880784 0.0469616363 0.0001216397 3.66562e-05 0.0001372974 -5.89388e-05 -0.7931217253 -0.0016229803
20299880.0 -0.0261471088 0.0587921098 3.4908e-05 4.02361e-05 -6.78155e-05 2.13161e-05 -0.7995797316 0.0020823252
25299850.0 -0.0153869507 0.0681608457 0.0001812075 0.0002390497 -4.28176e-05 3.20859e-05 -0.8058672335 0.0086844658
30299820.0 -0.0041155858 0.0749092605 -0.0001024297 -0.000174046 0.0001444932 -1.30726e-05 -0.8121777808 0.0164199867
35299790.0 0.0073319126 0.0799402862 -7.53563e-05 -6.65919e-05 -1.49433e-05 2.15145e-05 -0.8172694504 0.0251283642
40299760.0 0.0186589852 0.0829211598 8.76249e-05 1.75553e-05 1.57066e-05 -3.65443e-05 -0.8212294904 0.0341632007
45299730.0 0.0293558141 0.0843858064 -0.0001015153 1.37036e-05 -7.49087e-05 -7.5782e-06 -0.825426776 0.0440728315
50299700.0 0.0391976195 0.0844446448 -0.0001197138 0.0003024924 -0.0001090758 0.000143305 -0.8269195211 0.0544377428
55299670.0 0.0484351869 0.0833686933 0.0001950705 -0.0001433245 -0.0001169112 1.52065e-05 -0.8296708741 0.064234167
60299640.0 0.0569624528 0.0822575504 -0.0002927943 6.28203e-05 2.629e-07 2.08455e-05 -0.8302175057 0.0741172173
65299610.0 0.0647552991 0.0795979202 -2.75918e-05 0.0001491638 -0.0001276125 0.0001938631 -0.831814906 0.0839552606
70299580.0 0.0715032906 0.0770437202 0.0001626266 -2.72441e-05 0.0001034802 0.0001285433 -0.831685275 0.0944716992
75299550.0 0.0781619454 0.0739422078 -7.61131e-05 5.93394e-05 0.0001895074 -0.0001068245 -0.8320573846 0.1038503081
80299520.0 0.0837901241 0.0705405719 3.14901e-05 8.08972e-05 0.0001318517 0.0002434822 -0.8317177788 0.1141990618
85299490.0 0.0886467715 0.0668620912 -2.14384e-05 5.38275e-05 -4.58051e-05 3.81992e-05 -0.8318625457 0.1237021822
90299460.0 0.0933170504 0.0633150143 -0.0001520668 -0.0001626528 6.37478e-05 -1.4227e-05 -0.8308224562 0.1331676356
95299430.0 0.0974371848 0.0591573603 0.0001174129 -6.19267e-05 -0.0001038691 9.64217e-05 -0.8290245154 0.1427410455
100299400.0 0.1011616687 0.0556007196 0.0001479171 -8.5902e-06 0.0001462072 -0.0001658166 -0.8285061427 0.1520946219
105299370.0 0.1044968697 0.0519583996 -2.96251e-05 -3.172e-05 6.4266e-05 2.53177e-05 -0.8266426887 0.1611185179
110299340.0 0.1074273355 0.0480658009 -2.38478e-05 5.6307e-05 4.6488e-06 3.79149e-05 -0.8254559469 0.170663007
115299310.0 0.1103228825 0.043878945 0.0002524769 0.0001223633 8.078e-05 0.0001502387 -0.8241607003 0.1800370163
120299280.0 0.1121195296 0.0401539449 -0.0002023099 -5.19761e-05 0.0003260123 -1.6905e-06 -0.8220504711 0.1889896151
125299250.0 0.1141530739 0.0366466403 8.6377e-05 -6.33578e-05 0.0001934124 3.25545e-05 -0.8205851701 0.1977893568
130299220.0 0.1158703532 0.0331580459 4.97338e-05 0.000150335 0.0001365119 7.6239e-06 -0.8186252996 0.2065744869
135299190.0 0.11736693 0.0298934386 -7.21931e-05 0.0003705012 0.0001947818 2.8172e-06 -0.8166248299 0.2156849402
140299160.0 0.1187151093 0.0261477622 -0.000371937 3.47366e-05 9.63096e-05 0.0001158413 -0.8140686618 0.2248435187
145299130.0 0.1198442417 0.0227160057 5.16804e-05 -3.64492e-05 6.22889e-05 9.15356e-05 -0.812255307 0.2339177815
150299100.0 0.1212903385 0.0192384801 0.0001260661 6.95619e-05 0.0002418308 0.0002914069 -0.8104712473 0.2432775153
155299070.0 0.1217578537 0.0162249985 0.0001985242 0.0003086325 0.0002675938 0.0002623604 -0.8072915174 0.2516149895
160299040.0 0.1223028433 0.0133410657 0.0001385018 4.93587e-05 5.14965e-05 8.9582e-06 -0.8046863707 0.2603001148
165299010.0 0.1230390504 0.0097691344 -0.0001480069 4.37979e-05 0.0001057021 0.0001899452 -0.8025604836 0.2691114792
170298980.0 0.123093266 0.0070948072 -6.0675e-06 -4.95296e-05 0.0002490987 0.0001606023 -0.7994648615 0.2779923317
175298950.0 0.123703585 0.0039134189 0.0001593386 3.08983e-05 -2.43024e-05 -0.0002281742 -0.7965647116 0.2862786873
180298920.0 0.1243867613 0.0013366821 0.00029812 0.0003783488 -1.36722e-05 6.46095e-05 -0.793267698 0.2950765896
185298890.0 0.1241419408 -0.0018873853 5.8022e-05 3.50588e-05 -4.66752e-05 -5.54367e-05 -0.7898466237 0.3035061734
190298860.0 0.1244071555 -0.0042899683 5.44624e-05 0.0001793343 -1.5087e-05 8.17105e-05 -0.7875801777 0.3124409704
195298830.0 0.1239321805 -0.006863601 7.87536e-05 0.000231005 0.0001579882 -4.04391e-05 -0.78420641 0.3209714642
200298800.0 0.1243464539 -0.009693521 0.0002193892 0.0001287383 0.0003326366 0.0001763169 -0.7816753357 0.3288390749
205298770.0 0.1237599986 -0.0122461263 0.0001247707 0.0001388637 -7.88105e-05 0.0001137641 -0.7776975916 0.337551395
210298740.0 0.1235076374 -0.0146643364 0.0002837645 0.0001912781 0.000135197 2.87837e-05 -0.7746356546 0.3456679624
215298710.0 0.122957577 -0.0171266527 0.0002106174 9.52674e-05 0.0001087456 -0.0001316077 -0.7709965682 0.3537636005
220298680.0 0.1226441613 -0.020041435 8.26486e-05 0.0001173335 0.0002047823 0.0002379102 -0.7674080145 0.3621418125
225298650.0 0.1219909341 -0.0219601859 0.0002548708 0.0001023324 -4.02404e-05 3.052e-07 -0.763408802 0.3704836434
230298620.0 0.1218308679 -0.024202711 -5.81591e-05 1.10106e-05 -8.82531e-05 0.0001317864 -0.7594681862 0.3786207158
235298590.0 0.1215448883 -0.0263697177 0.0001666433 9.83722e-05 1.66288e-05 8.76784e-05 -0.7555400642 0.387020113
240298560.0 0.121084378 -0.0288125368 -2.3622e-06 0.0001164735 7.64875e-05 0.0002424405 -0.7516020514 0.3949220699
245298530.0 0.1203545116 -0.0309205284 0.0001621492 0.0002216998 3.88247e-05 0.0002122393 -0.7474822294 0.4023752555
250298500.0 0.119678962 -0.033054231 9.8304e-06 8.40468e-05 -4.12576e-05 7.82408e-05 -0.7436266658 0.4099078007
255298470.0 0.1187272611 -0.0353789215 0.0002839205 0.0002461269 5.45284e-05 3.3092e-06 -0.7390616603 0.418263307
260298440.0 0.1182567963 -0.0372784539 1.01479e-05 2.01712e-05 1.73436e-05 0.000158905 -0.7346302462 0.4257757177
265298410.0 0.117603921 -0.0392098037 -3.25941e-05 0.0002186371 0.0002703202 6.50112e-05 -0.7303340857 0.4333283779
270298380.0 0.1167734868 -0.0408933729 0.0001947802 8.46726e-05 3.41017e-05 9.859e-07 -0.7253923744 0.4408543385
275298350.0 0.1160137552 -0.0431529118 5.95498e-05 0.0001449529 2.2326e-05 0.0002167644 -0.7206756644 0.4490131735
280298320.0 0.1152686671 -0.0450019234 5.4294e-05 0.0002245963 0.000113578 0.0003749376 -0.7157173183 0.4562101412
285298290.0 0.114838913 -0.0464596406 4.70094e-05 1.58187e-05 0.0002563199 8.61671e-05 -0.7106174502 0.463634834
290298260.0 0.1139280982 -0.0482671574 -0.0001126955 0.0002509959 8.37469e-05 -4.15683e-05 -0.7061028361 0.4707566597
295298230.0 0.1131381786 -0.0502525897 0.0003912368 3.66876e-05 6.08828e-05 1.70879e-05 -0.7010092549 0.4778810619
300298200.0 0.1122392306 -0.0520398529 8.2613e-06 1.91426e-05 5.03263e-05 5.87572e-05 -0.696124337 0.4850447698
305298170.0 0.1116545306 -0.0540006223 0.0001953733 0.0001514396 8.21544e-05 -0.0001654621 -0.6902046129 0.4930968407
310298140.0 0.1106055065 -0.0552412778 8.25951e-05 8.81125e-05 0.0001012847 -3.69884e-05 -0.6858663659 0.4999428513
315298110.0 0.1097192698 -0.0573004722 0.0002655793 8.87167e-05 0.0002604761 -3.16655e-05 -0.6795458214 0.5069552477
320298080.0 0.1087877726 -0.0592386485 0.0001723843 0.0001083351 0.0002869112 9.7402e-05 -0.6749676977 0.5145681241
325298050.0 0.1077560557 -0.0610244801 0.0001625557 0.0001185 0.0002299297 0.0001072533 -0.6685493626 0.5206879527
330298020.0 0.1063655981 -0.0629226916 0.0003076359 0.0003391162 0.0002334208 0.0002153054 -0.6634742406 0.5288298568
335297990.0 0.1050960717 -0.064342986 2.50885e-05 0.0001578897 0.0001812575 3.29131e-05 -0.6584388072 0.5352485956
340297960.0 0.1035857125 -0.0657180233 0.0004974859 0.0004435904 0.0003289011 0.0001051702 -0.6527525011 0.5421525547
345297930.0 0.1026827092 -0.0671464043 0.0001723629 2.86971e-05 -7.94097e-05 8.1058e-06 -0.6470714329 0.5480567177
350297900.0 0.1012533201 -0.0684005188 0.0002188722 0.0001320067 0.0003836219 -4.06898e-05 -0.6411418627 0.5549458235
355297870.0 0.1004363726 -0.0697640661 4.51982e-05 -2.24993e-05 6.97795e-05 9.87188e-05 -0.6356995621 0.5616967514
360297840.0 0.0988968814 -0.0710271958 0.0002988385 0.0002830587 0.0001248411 0.0003874916 -0.6296301786 0.5691714644
365297810.0 0.0975188652 -0.0721114302 -2.27711e-05 4.6981e-05 0.0001806558 0.0002347693 -0.6234894216 0.5753403393
370297780.0 0.0964578273 -0.0734570992 3.351e-05 5.82849e-05 0.0002269772 -6.06232e-05 -0.6174664757 0.582024524
375297750.0 0.0954669964 -0.0746589223 0.0002003891 0.000316869 0.0002239283 8.49574e-05 -0.61149006 0.5880011557
380297720.0 0.0941090731 -0.0761518572 8.97371e-05 0.0003072794 7.95116e-05 0.0002121859 -0.6057664539 0.5942683574
385297690.0 0.0927560397 -0.0770432339 0.0001170019 -0.0001049634 7.72189e-05 0.0003150621 -0.5992438729 0.6008483265
390297660.0 0.091642316 -0.0779138186 6.80506e-05 3.14546e-05 1.20953e-05 -4.91094e-05 -0.5934714456 0.6069973488
395297630.0 0.0903930833 -0.0794791162 6.01844e-05 0.0001187857 5.5842e-05 0.0001721104 -0.5864094945 0.6132652157
400297600.0 0.0895026411 -0.0803814474 1.9591e-05 0.0003970695 -6.0712e-06 4.85645e-05 -0.5808751026 0.618634146
405297570.0 0.0878240812 -0.0814542487 0.0001616693 -9.69519e-05 0.0002637127 0.0001521852 -0.5739307847 0.6249348156
410297540.0 0.0865602322 -0.0823813993 0.0002172775 0.0001595307 0.0001867637 0.0001274831 -0.5674108835 0.6307757766
415297510.0 0.0854721213 -0.0839901477 0.0002404816 0.0001065353 0.0002429182 0.0002817912 -0.561405069 0.6364385941
420297480.0 0.0841410812 -0.0842874202 0.0004756853 0.0001993493 0.0004098751 0.0002895335 -0.5544170406 0.642179423
425297450.0 0.082763488 -0.0854862667 0.0002768326 0.0001198947 0.0003886764 -5.45937e-05 -0.548044862 0.6479366786
430297420.0 0.0816560426 -0.0868446882 0.0001571423 6.83457e-05 0.0003229102 0.0002232434 -0.5412905002 0.652923936
435297390.0 0.0803449716 -0.0873631347 0.0001576368 -3.86593e-05 0.0001664577 0.0001952729 -0.5338173767 0.6586287561
440297360.0 0.0788619197 -0.0886351135 6.10072e-05 0.0001577967 0.0003894381 5.15236e-05 -0.5273617105 0.6637074678
445297330.0 0.0777487176 -0.0897067503 0.0002620772 4.45448e-05 0.0003360487 9.75869e-05 -0.5204821493 0.6687748493
450297300.0 0.0765731898 -0.0904795724 0.0003798766 0.0003661397 0.0002006059 3.74477e-05 -0.5130968561 0.6737092456
455297270.0 0.0746154022 -0.0911662277 0.0003329234 0.0002459463 0.0003524355 1.59761e-05 -0.5066051745 0.6783667235
460297240.0 0.0736048404 -0.0921331446 0.0001944607 7.9109e-06 0.0003618288 0.0001088896 -0.4997707559 0.68389599
465297210.0 0.0724522778 -0.093064863 0.0002167364 0.0005934577 0.0001349102 0.0002572509 -0.4921422613 0.6888349543
470297180.0 0.0709514201 -0.0934122145 0.0002176572 0.0001798407 0.0001283284 0.0001152356 -0.4849876747 0.6938289282
475297150.0 0.0695514095 -0.0949287764 0.0003471461 0.0001487155 0.0003315755 -7.26483e-05 -0.4780606014 0.6986378349
480297120.0 0.0679685186 -0.0953154475 0.000344262 4.90738e-05 3.92341e-05 0.0001618361 -0.4702722323 0.7035560299
485297090.0 0.0670494928 -0.0960539798 0.0003728265 7.38035e-05 0.0002965044 2.00453e-05 -0.4630043803 0.7078704172
490297060.0 0.065201888 -0.0965788433 0.0003273978 -8.26668e-05 5.88446e-05 0.0002579511 -0.4557890215 0.7127879186
495297030.0 0.0637940666 -0.0971081735 0.000345251 4.48906e-05 0.0002978417 0.0002596349 -0.4487965786 0.7177082967
500297000.0 0.0627899212 -0.0979614956 0.0004489444 0.0003505876 0.0004216831 -0.0001925123 -0.4407860048 0.7224227555
505296970.0 0.0613315778 -0.0986374673 0.0002983988 8.25017e-05 0.0003055336 0.0001794047 -0.4337716523 0.7265287332
510296940.0 0.0600649581 -0.0993880745 6.71507e-05 -1.283e-06 0.0001264109 8.08345e-05 -0.4261910947 0.7305690271
515296910.0 0.0586593042 -0.0999495974 0.0002759208 -5.42395e-05 0.0002320018 0.0002431899 -0.4185990331 0.7349509032
520296880.0 0.0570736448 -0.1004388617 0.0003255911 0.000103948 0.0001628768 9.904e-07 -0.4110924895 0.7390271835
525296850.0 0.0558943175 -0.1015141298 0.0002891719 0.0001110071 0.0002688842 4.00179e-05 -0.404176736 0.7437552023
530296820.0 0.0542938578 -0.1015244748 0.0003879042 0.000198265 0.0001869827 0.0002165541 -0.3961596332 0.7478618478
535296790.0 0.0528038073 -0.1023088732 0.0003323932 0.0002154677 0.0002979258 0.0001906256 -0.3890286564 0.7511198173
540296760.0 0.0513376535 -0.1027204021 0.0002655673 0.0001059194 0.0006077251 -1.32196e-05 -0.3810595177 0.7557750881
545296730.0 0.0498458082 -0.1030900407 0.0003042003 -3.93792e-05 0.0002459817 -3.24153e-05 -0.3735750429 0.7594909738
550296700.0 0.0488521556 -0.103439678 0.0002682931 0.0001389912 3.5885e-06 0.0001001842 -0.3655547472 0.7630549075
555296670.0 0.0470801963 -0.103947898 0.0002424327 6.98678e-05 0.0004169688 0.0001923501 -0.3581276599 0.7670430827
560296640.0 0.046057 -0.104194374 0.0002378303 -2.86392e-05 0.0004975175 0.0001551631 -0.3503078488 0.7707802499
565296610.0 0.0442243289 -0.104479713 0.0001273454 9.56683e-05 0.0004869511 0.0001938653 -0.3425492082 0.7736673877
570296580.0 0.042933135 -0.1052208377 0.0002259689 0.0001336372 0.0003119092 8.63006e-05 -0.3349708128 0.7777427853
575296550.0 0.0413296973 -0.1053533873 0.0003273237 -7.39645e-05 0.0004018865 -2.7958e-06 -0.3266624243 0.7807546038
580296520.0 0.0401933696 -0.1060581938 0.0005408124 0.0001920597 0.0003324905 3.47259e-05 -0.3182943969 0.783792311
585296490.0 0.0383848604 -0.1063317076 0.0003912648 1.26468e-05 0.0001363232 0.0001701896 -0.3106116114 0.7870817283
590296460.0 0.03745409 -0.1060605927 0.0003459983 -0.0001352381 0.000317401 0.0003095221 -0.302973683 0.79009972
595296430.0 0.0357789242 -0.106518016 0.0002628349 -3.17485e-05 0.0002630198 -1.87859e-05 -0.2950861649 0.7921521207
600296400.0 0.0340806282 -0.1068300741 0.0004701217 0.0001548725 0.0004065183 -2.21162e-05 -0.2863740628 0.795525264
605296370.0 0.032577233 -0.1072325905 8.45523e-05 -0.0001027737 0.0003086988 1.8316e-05 -0.2781070205 0.7983202671
610296340.0 0.0310945911 -0.1076711045 0.0003793856 0.0002505516 0.0003876702 -0.0001048465 -0.2704193437 0.8008249058
615296310.0 0.0298075345 -0.1079738344 0.0002188019 -0.0001653457 0.0003344445 4.7154e-06 -0.2616523723 0.8033688891
620296280.0 0.0281821783 -0.1078930574 0.0003132434 5.87721e-05 0.0003004545 7.36476e-05 -0.2544958188 0.8062705693
625296250.0 0.0268843013 -0.1082145105 0.0003425073 -6.18676e-05 0.0003212313 0.0002167517 -0.2453752127 0.8080540337
630296220.0 0.0255353061 -0.108665589 0.000353148 0.0001573413 0.0001035826 -3.29765e-05 -0.2380586852 0.8106807768
635296190.0 0.0235848195 -0.1083482906 0.0001700614 -3.75844e-05 0.0002680911 -0.0001184764 -0.2296315965 0.8125867621
640296160.0 0.0227445303 -0.1083193822 0.0001273887 2.51146e-05 0.000239356 -5.39069e-05 -0.2213853831 0.8151716657
645296130.0 0.0210693607 -0.1083705518 0.0007038763 1.85731e-05 0.000729059 0.0001473151 -0.2131271146 0.8175147605
650296100.0 0.0197149174 -0.1084006775 0.0002898075 -4.19359e-05 0.0001204205 -1.75559e-05 -0.2049230741 0.8187332359
655296070.0 0.0181757318 -0.1086093723 0.0005459991 1.3694e-06 0.0004622846 -0.0001997453 -0.1959734644 0.8209913478
660296040.0 0.0166357697 -0.1087495394 0.000489331 0.0003551689 0.0003443399 5.7051e-05 -0.1879979148 0.823124306
665296010.0 0.0155286524 -0.1089664154 0.0003432228 -1.62721e-05 0.000237786 7.151e-07 -0.179510446 0.8252613994
670295980.0 0.0137473468 -0.1086517691 0.0003686426 -0.0001369046 0.0003790432 -2.69968e-05 -0.1718278889 0.8261982465
675295950.0 0.012213202 -0.1086909978 0.0005205261 -5.32846e-05 0.0004687491 1.80077e-05 -0.1634981642 0.8288351297
680295920.0 0.0110413995 -0.1086414607 0.0005567901 -0.0002069766 0.0005034698 8.40872e-05 -0.155063137 0.8312512417
685295890.0 0.0094788557 -0.1083258939 0.0002021387 -0.0001374765 0.0003887804 -1.9171e-05 -0.1466066469 0.8313505671
690295860.0 0.0081759527 -0.1083580468 0.0003771109 6.55049e-05 0.0007091234 -8.88058e-05 -0.1386103877 0.8332100419
695295830.0 0.0067179072 -0.1080689863 0.0005104055 6.94619e-05 0.0003000807 0.0002811707 -0.1295302131 0.8349205551
700295800.0 0.0051162148 -0.1082632949 0.0004742704 6.41626e-05 0.000625512 0.0001310579 -0.1221879509 0.8358872541
705295770.0 0.0037213866 -0.107666767 0.0005374411 4.86244e-05 0.0003961061 4.589e-07 -0.1139275798 0.8382140246
710295740.0 0.0022351792 -0.1076607746 0.0004321851 -3.94372e-05 0.0003323087 -0.0001910684 -0.1049542509 0.8388641306
715295710.0 0.0006657643 -0.1075623715 0.0004487841 3.10055e-05 7.98204e-05 4.03815e-05 -0.0968629161 0.8393309104
720295680.0 -0.0005277355 -0.1074445967 0.0004094869 -0.000107611 0.0007636236 -0.0002204361 -0.0878335085 0.8406531956
725295650.0 -0.0017999258 -0.1069256441 0.0003141863 -8.19211e-05 0.0004824337 2.71401e-05 -0.0803181831 0.8418645898
730295620.0 -0.0033185759 -0.1067835689 0.00049631 6.2173e-06 0.0003405688 -0.0001767433 -0.0721782154 0.842444915
735295590.0 -0.0046766677 -0.1065661824 0.0005291001 -0.0001342224 0.0004160614 -1.0065e-06 -0.0634321088 0.8428222109
740295560.0 -0.0062416847 -0.1061832229 0.0005438596 -3.86574e-05 0.0003866875 2.1801e-06 -0.0545348185 0.8435418776
745295530.0 -0.0077382469 -0.1058586155 0.000382029 -9.41217e-05 0.000591099 -3.99128e-05 -0.0463376702 0.8436216781
750295500.0 -0.0088114346 -0.1056331115 0.0002296124 5.88914e-05 0.0005232433 0.0001047815 -0.0382529645 0.8441552669
755295470.0 -0.0104649725 -0.1054348998 0.000298448 -5.56998e-05 0.0004327039 -6.39876e-05 -0.0293807902 0.8441312478
760295440.0 -0.0117784454 -0.1049280829 0.0004457671 1.21849e-05 0.0003295575 -4.06657e-05 -0.0210065663 0.844203061
765295410.0 -0.0130021655 -0.1045152953 0.0004594595 8.3992e-06 0.000587442 -4.77535e-05 -0.012455356 0.8448603011
770295380.0 -0.0148766752 -0.1040489285 0.0004888522 -0.0001180602 0.0005980691 -7.76979e-05 -0.0043699971 0.8445453126
775295350.0 -0.0161445559 -0.1038541286 0.0006412453 -3.13499e-05 0.0003257455 -7.73792e-05 0.0032035665 0.843986438
780295320.0 -0.0175575122 -0.1034087325 0.0007234908 -9.54819e-05 0.0003698093 -0.0001762141 0.0122664009 0.844105019
785295290.0 -0.0188713786 -0.1032668352 0.0001498532 -0.0002515011 0.0003396409 -9.32046e-05 0.0213387194 0.8439406215
790295260.0 -0.0200883783 -0.1023788119 0.000295373 -3.9637e-05 0.0003830135 -0.0002184841 0.0297434995 0.8442110647
795295230.0 -0.0212251619 -0.1021346782 0.0004238777 -6.5138e-06 0.0002267574 -0.0002248171 0.0384781806 0.8426723824
800295200.0 -0.0227499395 -0.1015282759 0.0006967799 -0.0003659161 0.0004344372 3.85968e-05 0.0463312112 0.843133025
805295170.0 -0.0241043408 -0.1013864906 0.0003696826 -7.97782e-05 0.0004205327 -0.0003018955 0.0550769969 0.8424494854
810295140.0 -0.0252308079 -0.1006206837 0.0005733676 -6.40302e-05 0.0004288274 -0.0001721328 0.0633004351 0.8413780882
815295110.0 -0.0268481581 -0.100559496 0.0003830244 -0.0001023824 0.0003449408 -0.0003034807 0.0720327864 0.8408437789
820295080.0 -0.0280539171 -0.099639942 0.0005087423 -0.0003029535 0.0005173267 -0.0001504636 0.0801206551 0.840518357
825295050.0 -0.0291830212 -0.0992714795 0.0003189667 -0.0002652392 0.0005727802 -0.0002117399 0.088346509 0.8399228471
830295020.0 -0.0305191561 -0.0985353309 0.0003902488 5.58972e-05 0.0004494683 -1.5612e-05 0.0975170316 0.8387751237
835294990.0 -0.031642797 -0.0978036529 0.0006246366 9.1139e-06 0.0005374768 -6.0073e-05 0.1052133012 0.8379306569
840294960.0 -0.0331106995 -0.0973943858 0.0003598832 -6.74853e-05 0.0005020067 -0.000177086 0.1138562555 0.8362399666
845294930.0 -0.0343241963 -0.0964872537 0.0005402892 -0.0002628894 0.0004967265 -0.0002329275 0.1217275977 0.8352984249
850294900.0 -0.0352736126 -0.0957122023 0.0003485861 -0.0001289921 0.0004763329 -0.0003384696 0.1302979295 0.8340975594
