!Created with skrf (http://scikit-rf.org).
# Hz S RI R 50.0 
!freq ReS11 ImS11 ReS21 ImS21 ReS12 ImS12 ReS22 ImS22
300000.0 -0.0953284747 -0.0832689272 0.6212653285 0.0781366753 0.623546994 0.083046625 -0.094761367 -0.0918381048
5299970.0 -0.1002814677 0.0127448611 0.6306884796 0.0104892619 0.6307492431 0.0109708866 -0.1021763065 0.0117363423
10299940.0 -0.0952769305 0.0299739637 0.6338363384 0.0155509258 0.6342621135 0.0157574912 -0.097122055 0.0288552927
15299910.0 -0.0884954817 0.0430884228 0.6404584779 0.0205712644 0.6407191062 0.0208691203 -0.0901588896 0.0421767824
20299880.0 -0.0795749273 0.0543999837 0.6486552499 0.0243610138 0.6489219576 0.0244872471 -0.0818569057 0.0532078815
25299850.0 -0.0695924521 0.0627549775 0.6580485262 0.0247768541 0.6581484612 0.0251726227 -0.072420499 0.061979365
30299820.0 -0.0597623852 0.0691222543 0.668357991 0.0248331128 0.6677803624 0.0245118041 -0.062595874 0.0688666888
35299790.0 -0.049350338 0.0743378449 0.6774556855 0.0216157627 0.6771363981 0.0218785785 -0.0526405591 0.073304296
40299760.0 -0.039761184 0.0771151089 0.6867914337 0.0178125224 0.6865368064 0.0172832827 -0.0435501843 0.0769824916
45299730.0 -0.0306007282 0.0794289271 0.6958900828 0.0117374306 0.6957362861 0.0122793213 -0.0341353422 0.0790797612
50299700.0 -0.021812716 0.0796456568 0.7029921324 0.0047286252 0.7035416593 0.0045027296 -0.0253327832 0.0797729295
55299670.0 -0.0143275134 0.0799746279 0.7104014809 -0.002842495 0.7111722257 -0.0029171396 -0.0177896264 0.0798208068
60299640.0 -0.0066974496 0.0788880706 0.7171780479 -0.0116669749 0.7173717172 -0.0114185877 -0.0101659919 0.0797009499
65299610.0 -0.0003794581 0.0780594731 0.7234244634 -0.0197850283 0.7242082182 -0.0197319218 -0.0036504166 0.0786176859
70299580.0 0.0061011749 0.0761131819 0.7284444775 -0.0291963156 0.7284112796 -0.0292467321 0.0022516957 0.0770781316
75299550.0 0.0115180313 0.0742489779 0.7328470731 -0.0387516529 0.7331837275 -0.0390245407 0.0082139597 0.0758323138
80299520.0 0.0163443249 0.0720931949 0.7375747023 -0.0491045614 0.737731582 -0.0488244062 0.0129284814 0.0726559324
85299490.0 0.0208181991 0.069551884 0.7407398697 -0.0590549243 0.7402757752 -0.0584553688 0.0173603885 0.0709262323
90299460.0 0.0245789517 0.067396215 0.7435626121 -0.0685502009 0.7440555979 -0.0687935981 0.0218579409 0.0686989506
95299430.0 0.028135848 0.0653536771 0.7456916545 -0.0794609977 0.7458473779 -0.0786878985 0.0253085556 0.0662969897
100299400.0 0.0312545015 0.0625064089 0.7472899147 -0.0890247773 0.7475454588 -0.0893688766 0.0285441056 0.0641345377
105299370.0 0.0345237812 0.0600405356 0.7481805213 -0.098727272 0.7490619971 -0.0992731728 0.032046746 0.0615511737
110299340.0 0.0368590099 0.0576093036 0.7497746681 -0.1089625261 0.7502558629 -0.1096360598 0.0349715448 0.0592054766
115299310.0 0.0397791678 0.0549043685 0.7505728736 -0.1192581413 0.7513911958 -0.1191767031 0.037355262 0.0563464874
120299280.0 0.0414085101 0.0528226682 0.7518124877 -0.1296039791 0.751503119 -0.1295120048 0.039004115 0.0541452825
125299250.0 0.0432121412 0.0503122552 0.7521801754 -0.1388508258 0.7519546989 -0.1395740765 0.0414492446 0.0513752031
130299220.0 0.0449670795 0.0478116288 0.7515466602 -0.1485375899 0.7517949433 -0.1492524242 0.0431169556 0.0496379212
135299190.0 0.0467623524 0.0455705427 0.7511693962 -0.1584552671 0.7508327412 -0.1588588539 0.0443354098 0.0474898265
140299160.0 0.0478414158 0.0441424404 0.7506865349 -0.1687262032 0.7509562032 -0.1684299646 0.046200583 0.0453210033
145299130.0 0.0490840951 0.0418989519 0.7503799865 -0.1789458104 0.7500652595 -0.1782687669 0.0473171276 0.0427728984
150299100.0 0.0508110909 0.0398783166 0.7493543426 -0.1878811677 0.7490288494 -0.1880496686 0.0486994963 0.0409419689
155299070.0 0.051043319 0.0384174746 0.7477581373 -0.1982290383 0.7477397379 -0.1978560776 0.0496042743 0.0387143475
160299040.0 0.0522988469 0.0359329002 0.7458778653 -0.2069635945 0.7464120108 -0.2071993903 0.0509812372 0.0371658822
165299010.0 0.0528605919 0.0341516146 0.7452065944 -0.2171813615 0.7450816348 -0.2167129476 0.0514619335 0.0346921723
170298980.0 0.0533611214 0.0326370486 0.7422617455 -0.2260665559 0.7428253175 -0.2265538566 0.0524884217 0.0329769238
175298950.0 0.0544424396 0.030579216 0.7417798897 -0.2354847973 0.7413718102 -0.2353286267 0.0534674789 0.031273139
180298920.0 0.0553180873 0.029201964 0.7390909346 -0.2448028129 0.7391314125 -0.2444962715 0.0535663711 0.0297626673
185298890.0 0.056119424 0.0273250321 0.7363510482 -0.2539475299 0.7369042375 -0.2534952422 0.054213126 0.0278508693
190298860.0 0.0561285764 0.0258962061 0.7340892274 -0.2631192545 0.7348568685 -0.2630216948 0.0552441648 0.0260561848
195298830.0 0.0562146629 0.0240045381 0.7316133707 -0.2714587431 0.7320576234 -0.2719288034 0.0557836768 0.0241561211
200298800.0 0.0568464123 0.0228953486 0.7299416184 -0.2800015955 0.7292702481 -0.2803196352 0.0562648333 0.0232815997
205298770.0 0.0571292735 0.0214557428 0.7271064995 -0.2892306302 0.7267332245 -0.2893622517 0.0563696525 0.0208441471
210298740.0 0.0569425923 0.0195549183 0.7235960437 -0.2990766275 0.7238142285 -0.298607987 0.0568091642 0.019697134
215298710.0 0.0579122519 0.0186751787 0.7208292907 -0.3073094892 0.7204762155 -0.3070560164 0.0567232634 0.0183821067
220298680.0 0.0581372929 0.0170092222 0.7174595739 -0.3158774604 0.7174065008 -0.3160241057 0.0572409078 0.01730815
225298650.0 0.058372616 0.0160917483 0.7135648474 -0.3237036374 0.7139074776 -0.3242646443 0.0577261401 0.0157260365
230298620.0 0.0580704103 0.0147767448 0.7110368632 -0.332486189 0.7107187074 -0.3330444407 0.0576730731 0.0142073516
235298590.0 0.0584687277 0.0133819689 0.7072865219 -0.340739306 0.7074283148 -0.3415508382 0.0578601942 0.0125475826
240298560.0 0.0582361418 0.0122352936 0.7038173897 -0.349245723 0.7040052495 -0.3492513381 0.0578892553 0.011702181
245298530.0 0.0588300914 0.0113288541 0.6992038738 -0.3580089636 0.6998419014 -0.3578389227 0.0582321977 0.0106681011
250298500.0 0.0585402216 0.009589985 0.6961092056 -0.3655020148 0.6965895223 -0.36541751 0.0587212659 0.0089315932
255298470.0 0.0581225448 0.0087684512 0.691852078 -0.3741397257 0.6923774497 -0.3742847023 0.0585066214 0.007472927
260298440.0 0.0581951084 0.0079732586 0.6885274799 -0.3821647652 0.6885597756 -0.3828640985 0.0592963117 0.0070844998
265298410.0 0.0590536014 0.0070658232 0.6839281252 -0.39068255 0.6836063076 -0.3905672756 0.0587167854 0.0055891322
270298380.0 0.0591763382 0.0056373893 0.6796846114 -0.3983904484 0.6799079617 -0.3987428825 0.0588691713 0.0048596025
275298350.0 0.0583452157 0.0046555941 0.6753512549 -0.4064684762 0.6756691361 -0.4067650892 0.058724049 0.0036420111
280298320.0 0.0587124209 0.0039937016 0.6712834313 -0.4138311125 0.6708166981 -0.4145375807 0.058971837 0.0025499206
285298290.0 0.0586794869 0.0029785001 0.666524401 -0.4219183714 0.6663886402 -0.42208403 0.0584309659 0.0016796588
290298260.0 0.0587734923 0.0019727895 0.6621969416 -0.4295900845 0.6626047475 -0.4300323545 0.059586961 0.0006010367
295298230.0 0.058706245 0.0007009196 0.6577967085 -0.4375561818 0.6576924744 -0.4373019148 0.0595114499 -0.0001170083
300298200.0 0.0590915561 -6.98502e-05 0.6528954158 -0.4448450981 0.6532302566 -0.4452611688 0.0591248788 -0.0012713194
305298170.0 0.0590455874 -0.0013023895 0.6482866386 -0.4532437594 0.6488642932 -0.4532495527 0.0596239791 -0.001915907
310298140.0 0.0594099326 -0.0024280927 0.6437707649 -0.4608266255 0.6434210384 -0.4611295142 0.0595504512 -0.0028759986
315298110.0 0.0588715076 -0.0034555817 0.6380319463 -0.467816891 0.6386536957 -0.468528386 0.0597782913 -0.0046674668
320298080.0 0.0584283256 -0.0044862599 0.6332611223 -0.4759492891 0.6327190749 -0.4755628009 0.0591695727 -0.0061163734
325298050.0 0.0581114466 -0.0059596702 0.628543021 -0.4835720194 0.6278692072 -0.4831322577 0.0589918635 -0.0070411847
330298020.0 0.0578995344 -0.006501136 0.6218469208 -0.4903155854 0.6221980492 -0.4909428527 0.0583179795 -0.0082164726
335297990.0 0.0576901287 -0.0077486954 0.6163363381 -0.497930365 0.6167016403 -0.4983604636 0.058067736 -0.009247045
340297960.0 0.0567954975 -0.0080049594 0.6097620007 -0.5050547019 0.6106539091 -0.5046940543 0.0572111689 -0.0095353258
345297930.0 0.0561933749 -0.00886007 0.6050842331 -0.5111946573 0.6041410099 -0.5110833075 0.0576243941 -0.0109742151
350297900.0 0.0565308907 -0.0092891998 0.5995597281 -0.5178121471 0.5993307811 -0.5182718638 0.0566835253 -0.010613839
355297870.0 0.0561255764 -0.0103546976 0.5929775206 -0.5247059028 0.5930348836 -0.5249903414 0.05637703 -0.0113783339
360297840.0 0.0561773788 -0.010603813 0.5876410579 -0.5317205427 0.5871460925 -0.5318495495 0.0565767492 -0.0120469443
365297810.0 0.0556348917 -0.0116192877 0.5817190622 -0.5379616467 0.5814490124 -0.5378236577 0.0559461588 -0.0125495031
370297780.0 0.0557281842 -0.0123763434 0.5755026376 -0.5440967623 0.5756293752 -0.5447816782 0.0561254208 -0.0130500174
375297750.0 0.0548975979 -0.0123419957 0.569836561 -0.5507677252 0.5697020381 -0.5513922676 0.0554973456 -0.0136185182
380297720.0 0.0551050663 -0.0139799656 0.5635338968 -0.5572481102 0.5635481483 -0.5571655509 0.0552170438 -0.0143448468
385297690.0 0.0546700859 -0.0137688225 0.5575275996 -0.5630255139 0.5573266378 -0.5634589571 0.0549777556 -0.0149957031
390297660.0 0.0542694773 -0.0148683243 0.5507020376 -0.5700894351 0.5510332084 -0.5708273019 0.0546839984 -0.0159804219
395297630.0 0.0544652438 -0.0155640373 0.5449560443 -0.5754601597 0.5446870533 -0.5755986229 0.0544046795 -0.0156910499
400297600.0 0.0537029066 -0.0159843905 0.5383074129 -0.5820790542 0.5388260029 -0.5822311482 0.0532104488 -0.0170497298
405297570.0 0.0537644728 -0.0166736379 0.5319612771 -0.5875488727 0.5321638674 -0.5883098884 0.0534836981 -0.0167572731
410297540.0 0.0535861021 -0.0174015103 0.5248055187 -0.5937539575 0.5253610203 -0.593874204 0.0533166453 -0.0181715302
415297510.0 0.0529990111 -0.0173817739 0.5191485316 -0.5991941223 0.5188831166 -0.5992179483 0.052847219 -0.0181983109
420297480.0 0.0528259438 -0.0189036157 0.5119112907 -0.6057453362 0.5122933701 -0.6055651468 0.0527152598 -0.0192654045
425297450.0 0.0530993706 -0.019689067 0.5056397247 -0.6113618433 0.5060950073 -0.6108414449 0.0521853139 -0.0193949781
430297420.0 0.052450254 -0.0198342779 0.4988750912 -0.6174987003 0.4990628382 -0.617023037 0.0518928597 -0.0203734948
435297390.0 0.0523048222 -0.0209178463 0.4921926983 -0.6219847268 0.4920539419 -0.6218675946 0.0511641531 -0.0201989939
440297360.0 0.0521449744 -0.0213574024 0.4851953128 -0.6274763191 0.4846464364 -0.6275908149 0.0513350773 -0.0217226811
445297330.0 0.0522191261 -0.0221058374 0.4779573797 -0.6335741637 0.4783924154 -0.6332904687 0.0507931174 -0.0220119408
450297300.0 0.0517489354 -0.0227190191 0.4712542293 -0.6383815381 0.4715142992 -0.6389887967 0.0502986103 -0.0219693138
455297270.0 0.0510418664 -0.0232930442 0.4644229954 -0.6437453365 0.4647900741 -0.6440738202 0.0504469196 -0.0227557523
460297240.0 0.0504024434 -0.0239094308 0.4574111311 -0.6486063453 0.4564795969 -0.6490247152 0.049685767 -0.022585076
465297210.0 0.050603345 -0.0246311813 0.4502996624 -0.6538795832 0.450277008 -0.6539797483 0.0486683315 -0.0239008553
470297180.0 0.0497718832 -0.0252238016 0.4429115696 -0.658476778 0.44313648 -0.6588211986 0.0480621686 -0.0242813348
475297150.0 0.0495777527 -0.0262583847 0.4355076814 -0.6637543048 0.4358907041 -0.6629691844 0.0484300133 -0.024653277
480297120.0 0.0495684337 -0.0268992083 0.4282412548 -0.6682577779 0.4286694166 -0.6684050875 0.0476819171 -0.0244666346
485297090.0 0.0496208404 -0.0273263186 0.4211676522 -0.6732612387 0.4212948891 -0.6730604787 0.0470879123 -0.025680258
490297060.0 0.0488022882 -0.0283394053 0.4136317863 -0.6779405313 0.4139957315 -0.6781015549 0.0469094807 -0.0256770545
495297030.0 0.047733792 -0.028116742 0.4058115157 -0.6825251257 0.4058558899 -0.6827986278 0.0466211537 -0.0263722944
500297000.0 0.0478990893 -0.0292191485 0.3984793598 -0.6865518012 0.398768033 -0.6867839714 0.0454733174 -0.0269634089
505296970.0 0.0468598915 -0.0297552971 0.3908043721 -0.6905079641 0.3905312164 -0.6911694048 0.0448849163 -0.0270865355
510296940.0 0.0467251293 -0.0300747707 0.3837295476 -0.6954476956 0.3833767724 -0.6955599005 0.0450727694 -0.0270419636
515296910.0 0.0462014471 -0.0305574498 0.3754727684 -0.6991034946 0.3755169663 -0.6996643263 0.0438791347 -0.0280687317
520296880.0 0.0458242913 -0.0313587342 0.3678705759 -0.7034547982 0.367879259 -0.7034455876 0.0443051833 -0.0284314282
525296850.0 0.0451612803 -0.032027955 0.3602924822 -0.7079359015 0.3607965443 -0.707813204 0.043997215 -0.0287233906
530296820.0 0.0450130935 -0.0322869402 0.3527395811 -0.7111054113 0.3526488228 -0.7118584844 0.0429926483 -0.0300045607
535296790.0 0.0443228722 -0.0327969008 0.3443280064 -0.714486634 0.3452154429 -0.7150211895 0.0424680397 -0.0301559684
540296760.0 0.0437354461 -0.0338975485 0.336667826 -0.7192215247 0.3365148846 -0.7192030639 0.0413587598 -0.0300203199
545296730.0 0.0433929308 -0.033453985 0.3288469203 -0.7222172932 0.3289606839 -0.7231090717 0.0412042514 -0.0308591499
550296700.0 0.042563646 -0.0344577823 0.3212195008 -0.7267573182 0.3213985818 -0.7268717539 0.0404993878 -0.0306526607
555296670.0 0.0424596419 -0.0350932101 0.3133853417 -0.7304881434 0.3133283718 -0.7300840758 0.0402225111 -0.0312655423
560296640.0 0.0415757894 -0.0355944618 0.3058241002 -0.7330367556 0.305217925 -0.7328486819 0.039429056 -0.0315770147
565296610.0 0.0406666567 -0.0359662445 0.296577356 -0.7367815079 0.2971031385 -0.7367010916 0.0389585305 -0.0321489651
570296580.0 0.0410036788 -0.0364485215 0.2889684791 -0.7394803722 0.2896827335 -0.7399408402 0.0386140179 -0.0319273824
575296550.0 0.0401424241 -0.0360275407 0.2811921457 -0.7425846047 0.2810758773 -0.7427035309 0.0386244304 -0.032545894
580296520.0 0.0393648623 -0.0370788194 0.2736992168 -0.7455450552 0.2726562076 -0.7460975916 0.0373609792 -0.0334618906
585296490.0 0.0393203167 -0.0377670415 0.2653220215 -0.7486411539 0.2646955013 -0.7493399813 0.0368728868 -0.033830011
590296460.0 0.0381067532 -0.0385069284 0.2563897146 -0.7517579431 0.2562472277 -0.751935372 0.0366438111 -0.0332080542
595296430.0 0.037649202 -0.0386073182 0.248624637 -0.7545914886 0.2480918223 -0.7549377104 0.0364519359 -0.0341547005
600296400.0 0.0369001681 -0.0386245407 0.2398516935 -0.7570842888 0.2405363637 -0.7573200076 0.035294584 -0.0341718854
605296370.0 0.036801968 -0.0386048015 0.2327061705 -0.7595282396 0.2321960563 -0.759567323 0.0348523924 -0.0349099147
610296340.0 0.0355213545 -0.0392366107 0.2238424516 -0.7623371809 0.2236556085 -0.7623258648 0.0342538026 -0.0344996651
615296310.0 0.0353561543 -0.0396847999 0.2152872572 -0.7646278963 0.2151809747 -0.7644993776 0.0340810039 -0.034975746
620296280.0 0.0345871848 -0.0401865399 0.2067671371 -0.766728114 0.2071574214 -0.7672172434 0.0336451254 -0.0355895081
625296250.0 0.0343772145 -0.0403128521 0.1981490527 -0.7689681681 0.1984269527 -0.7693637917 0.03296705 -0.0357020915
630296220.0 0.0337327077 -0.0405304767 0.1899938389 -0.7715878437 0.1901750118 -0.7714824545 0.0318447862 -0.0358994507
635296190.0 0.0329853962 -0.0408681023 0.1817026739 -0.7730375917 0.181144894 -0.7725635054 0.0312846198 -0.0366753422
640296160.0 0.0322243783 -0.0411758937 0.1731564051 -0.7751470079 0.1732021383 -0.7751823815 0.0316554627 -0.0364322604
645296130.0 0.0319304359 -0.0412442891 0.1650106872 -0.7772857545 0.1647628527 -0.7770264446 0.0294159536 -0.0374796463
650296100.0 0.0308644691 -0.0411304638 0.1566473667 -0.7784979138 0.1563943297 -0.7785756181 0.029682094 -0.0373378188
655296070.0 0.0303888283 -0.0421385053 0.1476628903 -0.7804663253 0.1478799227 -0.7806858209 0.0298406786 -0.0368799147
660296040.0 0.0290874847 -0.0418356439 0.1397510185 -0.7819171695 0.1395435178 -0.781578372 0.0283694043 -0.0378217643
665296010.0 0.0293188911 -0.0423762015 0.1311375395 -0.7832714988 0.1316527359 -0.783074658 0.0275603323 -0.0374451085
670295980.0 0.0291741607 -0.0420809046 0.1228048962 -0.7851995773 0.1227835035 -0.7846912228 0.0268687822 -0.0380438526
675295950.0 0.0282504146 -0.042673134 0.1136141908 -0.7859647304 0.1136377208 -0.7863130068 0.0268776023 -0.0377850266
680295920.0 0.0273126962 -0.0427518897 0.1046611464 -0.7873100041 0.1047905765 -0.787445657 0.0264797738 -0.0386336857
685295890.0 0.02668805 -0.0429289062 0.097102786 -0.7882524706 0.0963868432 -0.7885647755 0.025635431 -0.0381954214
690295860.0 0.0263174662 -0.0433431499 0.0879274631 -0.7886156965 0.087341073 -0.7889419336 0.0255748571 -0.0383054984
695295830.0 0.0262004654 -0.0434657099 0.0784325085 -0.7901515014 0.0788100902 -0.7903987313 0.0241695746 -0.0389307805
700295800.0 0.025625509 -0.0435687963 0.0707053539 -0.7914298136 0.0704014495 -0.7915057346 0.0236856714 -0.0393086698
705295770.0 0.0248857288 -0.0435794859 0.0625155778 -0.7914312857 0.0621118204 -0.7915895012 0.0226188973 -0.039161665
710295740.0 0.0240173921 -0.0430708076 0.0531981985 -0.7921520456 0.0531999999 -0.7917152815 0.0215040311 -0.0391624764
715295710.0 0.0236287752 -0.0438714255 0.0449570593 -0.793200465 0.045217543 -0.7927733874 0.0218029613 -0.0400680535
720295680.0 0.0226833521 -0.0442632206 0.0361645913 -0.7931026426 0.0359031202 -0.7934049743 0.0215581672 -0.0391728145
725295650.0 0.0224732967 -0.0439880018 0.0270203634 -0.7934238913 0.0278693731 -0.7936444377 0.0207482971 -0.0393893518
730295620.0 0.0211217493 -0.0445160497 0.0190691622 -0.7933100184 0.018802279 -0.7939251653 0.0204405869 -0.040386101
735295590.0 0.021210592 -0.0443943408 0.0106352826 -0.7939201013 0.0104695741 -0.793951706 0.0195738952 -0.0397511226
740295560.0 0.0201803748 -0.0442419198 0.0012888128 -0.7930591873 0.0017483539 -0.7937151809 0.0194487569 -0.0401062624
745295530.0 0.0199910517 -0.0447243706 -0.0069515681 -0.7940301519 -0.0069507694 -0.7941911317 0.0181392424 -0.039723083
750295500.0 0.0191216918 -0.044899575 -0.0154857915 -0.7933766492 -0.0154593006 -0.7933199762 0.0181582456 -0.0402752408
755295470.0 0.0190083383 -0.0444825379 -0.0242109001 -0.7936303491 -0.0239452355 -0.7935163046 0.0168320338 -0.0401536505
760295440.0 0.0177736574 -0.0443544854 -0.0329648001 -0.7926188881 -0.0327002306 -0.7937943783 0.0159209207 -0.0404359344
765295410.0 0.0168501736 -0.0450163061 -0.0408275902 -0.7925303284 -0.0410093664 -0.7931335446 0.0164303047 -0.039846217
770295380.0 0.0167072538 -0.0448096991 -0.0499692697 -0.7917615225 -0.0500042684 -0.7926667847 0.0159405239 -0.0399361662
775295350.0 0.0160451191 -0.0445740148 -0.0584677102 -0.7910928065 -0.058671419 -0.7918552712 0.0146608969 -0.0409428137
780295320.0 0.0155075545 -0.0448202006 -0.0668655906 -0.7908384246 -0.0669662178 -0.7913808462 0.0143945129 -0.0402355503
785295290.0 0.0147003605 -0.0444059081 -0.0757508858 -0.7896610023 -0.0762283666 -0.7904632013 0.0130312669 -0.0407623278
790295260.0 0.0142136444 -0.0446359093 -0.0840535019 -0.7892478393 -0.0844417738 -0.789559708 0.0128359579 -0.040451181
795295230.0 0.0133673059 -0.0446455435 -0.0919550926 -0.7875143543 -0.0926462061 -0.787751179 0.0123599403 -0.03940302
800295200.0 0.0130360161 -0.0444692417 -0.1020235714 -0.7877738977 -0.1019829655 -0.7872407903 0.0117974873 -0.0400990959
805295170.0 0.0117544603 -0.044687912 -0.109937977 -0.7853530301 -0.1104195076 -0.7859042259 0.0106381214 -0.0403567594
810295140.0 0.0114383018 -0.044526718 -0.1183169995 -0.7846238796 -0.1186370431 -0.7853871207 0.0106694798 -0.039728274
815295110.0 0.0107988095 -0.0442973335 -0.1274002495 -0.7831585921 -0.1278237576 -0.7833458243 0.0096272843 -0.0403992486
820295080.0 0.0102064192 -0.0448054353 -0.1353838899 -0.7821372502 -0.1355140849 -0.7826621231 0.0089483255 -0.0399622204
825295050.0 0.0096287069 -0.0446072971 -0.1444995912 -0.7800556863 -0.1441951521 -0.7805682994 0.0090332421 -0.0397069825
830295020.0 0.0089394852 -0.0443298658 -0.152803951 -0.7779834256 -0.153317517 -0.7791313071 0.0079997333 -0.040232587
