!Created with skrf (http://scikit-rf.org).
# Hz S RI R 50.0 
!freq ReS11 ImS11 ReS21 ImS21 ReS12 ImS12 ReS22 ImS22
300000.0 -0.2328394154 -0.1332124663 0.4669249223 0.0869262747 0.4676778642 0.0841771666 -0.2357964548 -0.1301138807
5299970.0 -0.2420484716 0.0051152874 0.4749128233 0.0062015969 0.4752623182 0.0060856925 -0.2443716948 0.0046951225
10299940.0 -0.2390925812 0.0186737255 0.4775836602 0.0071243813 0.4772652297 0.007261258 -0.2408496246 0.0171673952
15299910.0 -0.2338422919 0.0288158093 0.4806463946 0.0080944074 0.4811593795 0.0081530868 -0.2367799116 0.0264167536
20299880.0 -0.2285136914 0.0368162082 0.4854926723 0.0082801926 0.4855412269 0.0083616281 -0.2319881602 0.033959324
25299850.0 -0.2226360707 0.0435563931 0.4907377615 0.0078201932 0.4911603656 0.0073157706 -0.2270296306 0.0402843535
30299820.0 -0.2173382508 0.0486708134 0.4961619226 0.0051811408 0.4963436506 0.0051126754 -0.2220380054 0.0448392098
35299790.0 -0.2113458453 0.0528910022 0.5010832278 0.0019183974 0.5012795047 0.001816506 -0.2166208248 0.0491480441
40299760.0 -0.2061349234 0.0557102071 0.5064772969 -0.0019721637 0.5064897313 -0.0021573609 -0.2119169619 0.0521878808
45299730.0 -0.2011395949 0.0587180464 0.5109452156 -0.0064680432 0.5113385868 -0.0070441424 -0.206988286 0.0545630962
50299700.0 -0.1960897455 0.0608513356 0.5155378756 -0.0125257727 0.5153229634 -0.0125187218 -0.2026833086 0.0572028344
55299670.0 -0.1920127782 0.0623538725 0.5189253813 -0.017520817 0.5190106197 -0.018390892 -0.1990123645 0.0584220628
60299640.0 -0.1877609801 0.0641791005 0.5220145252 -0.024718732 0.5226994365 -0.0247965043 -0.1951561914 0.0597881729
65299610.0 -0.1841740664 0.0650782322 0.5254754594 -0.0308917271 0.5252646095 -0.0309397875 -0.1918978389 0.0608806307
70299580.0 -0.1807002316 0.0657782235 0.5276095938 -0.037354266 0.5277304132 -0.0374211087 -0.188950797 0.0619626614
75299550.0 -0.1777132208 0.0668492313 0.5294498874 -0.0445884589 0.5297163866 -0.0441684586 -0.1862359324 0.062863004
80299520.0 -0.175592114 0.0674725641 0.5317102182 -0.051315903 0.5316102171 -0.0512443521 -0.183873938 0.0635612258
85299490.0 -0.1724944556 0.0682256086 0.532711715 -0.0584951489 0.5329580872 -0.057921307 -0.1812595408 0.0640500244
90299460.0 -0.1701723096 0.0689027556 0.5332070906 -0.0649066565 0.5334668037 -0.0650466588 -0.1791199643 0.0649056587
95299430.0 -0.1680316848 0.0696713283 0.5346990191 -0.0719221261 0.5348253592 -0.0723249472 -0.1778178917 0.0658357703
100299400.0 -0.1659168822 0.070283394 0.5350101404 -0.0785046084 0.5352249454 -0.0789715461 -0.1758556349 0.0666206759
105299370.0 -0.1641098682 0.071044627 0.5350003298 -0.0856052043 0.535859631 -0.0860626356 -0.1739157324 0.0666866825
110299340.0 -0.1622896236 0.0716016014 0.5353878248 -0.0918621998 0.535848023 -0.0925201871 -0.1728438945 0.0672609123
115299310.0 -0.161005924 0.072412373 0.5353795187 -0.0988220187 0.5356903206 -0.0995020966 -0.1713250368 0.0687926275
120299280.0 -0.1593545039 0.0733454081 0.5355387736 -0.1062941173 0.535065144 -0.1066945915 -0.169908707 0.0687986097
125299250.0 -0.1580186824 0.0739055121 0.5346263368 -0.112753838 0.534809093 -0.1128333511 -0.1686932041 0.0698577672
130299220.0 -0.156816185 0.0746007485 0.5342989522 -0.1197824054 0.5341371505 -0.1203355098 -0.1675787017 0.0703516036
135299190.0 -0.1557039844 0.0759951653 0.5340510203 -0.1261813842 0.5338733973 -0.1263480588 -0.1667534146 0.0711478198
140299160.0 -0.154234194 0.0769430563 0.5329435827 -0.1332232829 0.5329437101 -0.1325378612 -0.166241272 0.0719070064
145299130.0 -0.1531974045 0.0778455054 0.5320240425 -0.139524188 0.5318028508 -0.1394438426 -0.1647688838 0.0727560439
150299100.0 -0.1519249343 0.0788106021 0.5306395416 -0.1460865644 0.5305447099 -0.1459052837 -0.1638646793 0.0739444377
155299070.0 -0.1507375684 0.0799755603 0.5292253715 -0.1526634184 0.5297470988 -0.1525154367 -0.1633659053 0.074800567
160299040.0 -0.1497333742 0.0814533736 0.5280879695 -0.1591649911 0.5280171095 -0.1592291596 -0.1626502695 0.0758199271
165299010.0 -0.1489448504 0.0824701291 0.5269174103 -0.1653373102 0.5266165379 -0.1654615542 -0.1613615334 0.0766379173
170298980.0 -0.1479800402 0.0835725012 0.5249428963 -0.1717463875 0.5251872286 -0.1721522629 -0.1611504421 0.0779293228
175298950.0 -0.1468414143 0.0847188849 0.5235821983 -0.1779577671 0.5238284653 -0.1783389518 -0.1600591114 0.0793671666
180298920.0 -0.146292884 0.0860213785 0.5219142232 -0.1842970978 0.5216425778 -0.1848078187 -0.1593295277 0.0803212192
185298890.0 -0.1451008581 0.0871852509 0.5206347974 -0.1906163691 0.5198903078 -0.1906069596 -0.1583648687 0.0809874128
190298860.0 -0.1438241248 0.0888793585 0.5173747029 -0.1964724615 0.5182847295 -0.1963925201 -0.1577313985 0.0821978395
195298830.0 -0.142920601 0.0901170724 0.5163473157 -0.2026590241 0.5165792332 -0.20282687 -0.1573306263 0.0835510659
200298800.0 -0.1421206299 0.0910468405 0.5140285778 -0.2092363608 0.5140806398 -0.2091879577 -0.1564194944 0.0846075879
205298770.0 -0.1414808691 0.0922867481 0.5117822597 -0.2145280955 0.5120420455 -0.2147646832 -0.1554698302 0.086022595
210298740.0 -0.1402194497 0.0939030979 0.5092263046 -0.2207994805 0.5093850299 -0.2209721002 -0.1551850697 0.0871141201
215298710.0 -0.13934414 0.0956558409 0.507001376 -0.2267545531 0.507635331 -0.2270776266 -0.1541491053 0.088284197
220298680.0 -0.138048391 0.0970481124 0.5045226604 -0.2327945026 0.504689753 -0.2331113708 -0.1532551628 0.0895155042
225298650.0 -0.1371570649 0.098182165 0.5022357264 -0.2383152621 0.5020799273 -0.2381754824 -0.1526431412 0.0908479404
230298620.0 -0.1359925881 0.0997725143 0.4997278053 -0.2442629248 0.4999509291 -0.2444915168 -0.1521350031 0.0919088261
235298590.0 -0.135504797 0.1011289961 0.4976550174 -0.2503343871 0.4975610688 -0.2501080011 -0.1513451364 0.0935152511
240298560.0 -0.1343324129 0.1025053254 0.4944092529 -0.2553721314 0.4943943808 -0.2556961015 -0.1503212427 0.0944549834
245298530.0 -0.1332546601 0.1041242487 0.4913582243 -0.2617224223 0.4917653999 -0.2616288343 -0.1496929849 0.0961028553
250298500.0 -0.1324338535 0.1054126577 0.4890081454 -0.2667280767 0.4891020376 -0.2667046061 -0.1491253549 0.0973294753
255298470.0 -0.1312155574 0.1072535051 0.4864027723 -0.2725485017 0.4869248854 -0.2728311604 -0.1479256375 0.0990148716
260298440.0 -0.1301051242 0.1082656667 0.483156121 -0.2773658135 0.4833454478 -0.2780816377 -0.1472888711 0.0999209347
265298410.0 -0.1293527262 0.1100094721 0.4798724675 -0.2838280482 0.4799280614 -0.2839020392 -0.1458853044 0.1011111616
270298380.0 -0.1283490601 0.1110859508 0.4769002975 -0.2893330303 0.4770265875 -0.2889240089 -0.1452347762 0.1025920379
275298350.0 -0.1270677593 0.1131726398 0.4733972588 -0.2942706004 0.4736594863 -0.2945147317 -0.1443385758 0.104187203
280298320.0 -0.1262024068 0.1144177767 0.4707792548 -0.2996006902 0.4711296395 -0.2999717493 -0.1434262484 0.1055192538
285298290.0 -0.1247983618 0.1158182397 0.467326676 -0.3051066683 0.4677840138 -0.3047373258 -0.1427198658 0.1068173359
290298260.0 -0.1239444854 0.1172336937 0.464723914 -0.3102576242 0.4642708504 -0.3103704937 -0.141588538 0.1080926132
295298230.0 -0.1226447077 0.1184315379 0.4606047736 -0.3158975065 0.4609887011 -0.3162999168 -0.1405179528 0.109050966
300298200.0 -0.1213489896 0.1205542972 0.4574741023 -0.3210705394 0.4574684294 -0.3205782486 -0.1396686172 0.110647001
305298170.0 -0.1203258504 0.1211495571 0.4541688708 -0.3264276487 0.4542751861 -0.3262926848 -0.1386909286 0.1115745396
310298140.0 -0.1184280232 0.1223092518 0.4505077323 -0.3311166141 0.4507191879 -0.3309151463 -0.1372492484 0.1128357648
315298110.0 -0.117871538 0.1237002401 0.4470727283 -0.3365889153 0.4472067949 -0.3368481016 -0.1363972946 0.1143511999
320298080.0 -0.1163427636 0.1250139103 0.4424387843 -0.3417263474 0.4436347528 -0.3420377409 -0.1357402935 0.1156350931
325298050.0 -0.1156508235 0.125894862 0.4390663156 -0.3468574339 0.4396776131 -0.3465753243 -0.1344558909 0.1164557157
330298020.0 -0.1149526645 0.1277493014 0.4355874521 -0.3516320049 0.4356426694 -0.3517650834 -0.1337188206 0.1176607114
335297990.0 -0.1133571903 0.1289497627 0.4312818278 -0.3565653376 0.4315002419 -0.3563035507 -0.1331436694 0.1192646033
340297960.0 -0.1124302658 0.1302231438 0.426799307 -0.3616229804 0.4271737558 -0.3618155838 -0.1320532109 0.1210425228
345297930.0 -0.111300618 0.1313207146 0.4233789817 -0.3661353173 0.4231634898 -0.3664581798 -0.1309785362 0.1220237534
350297900.0 -0.1100245829 0.132980376 0.419212435 -0.3702981289 0.4195344334 -0.3709422269 -0.1300494868 0.1231929058
355297870.0 -0.1086476489 0.1343345248 0.415317339 -0.3748772087 0.4155356026 -0.374793264 -0.1286943984 0.1248896547
360297840.0 -0.107281235 0.1359112106 0.4107100554 -0.3800465773 0.4109519721 -0.3801253499 -0.1278632058 0.1263730105
365297810.0 -0.1061426923 0.1371770521 0.4067043457 -0.3842940373 0.4067200485 -0.3844328472 -0.1270294055 0.1275036589
370297780.0 -0.1045055602 0.1383668883 0.4021481009 -0.3889373061 0.4026165802 -0.3885134582 -0.1256880657 0.12885693
375297750.0 -0.1034166173 0.1398540454 0.3983146212 -0.3929611005 0.3986201258 -0.3930359828 -0.1244961891 0.1301615424
380297720.0 -0.1022617368 0.1409699436 0.3942067268 -0.3976248952 0.3936650773 -0.3977133119 -0.1231343176 0.1316501318
385297690.0 -0.1006067403 0.1420439776 0.3895263086 -0.40195161 0.3895103046 -0.4019735226 -0.1218450331 0.1327789041
390297660.0 -0.0992971981 0.1431844384 0.3850655114 -0.405586023 0.3855751553 -0.4059984311 -0.1204852 0.1340400654
395297630.0 -0.0974805947 0.1446012216 0.38054512 -0.4098010209 0.3804695533 -0.409817738 -0.1192085937 0.1355845407
400297600.0 -0.0964577296 0.1456917229 0.3759354741 -0.4143358607 0.3765825144 -0.4146813772 -0.1178822215 0.1370437409
405297570.0 -0.0947255145 0.1464895391 0.3715712408 -0.4181166291 0.3720973755 -0.4184510753 -0.1166819619 0.1383339628
410297540.0 -0.0930410273 0.1481605176 0.3672600972 -0.4225254442 0.3674725204 -0.4224055679 -0.1157741937 0.1398038951
415297510.0 -0.0918757046 0.1490013283 0.362156205 -0.4263892416 0.3629797119 -0.4268318758 -0.1142659636 0.1409221674
420297480.0 -0.0903413437 0.1501132455 0.3575162577 -0.430452329 0.3581725861 -0.4305006066 -0.1125739441 0.142580795
425297450.0 -0.0882562567 0.1515001629 0.3529442128 -0.4339807306 0.3528378727 -0.4342159921 -0.1115644599 0.1430182607
430297420.0 -0.0869468729 0.152714146 0.3484251976 -0.4383798031 0.34855123 -0.4378855862 -0.1099751291 0.1445090748
435297390.0 -0.085413425 0.1534262779 0.3435277261 -0.442346117 0.343525774 -0.4420827279 -0.1089909899 0.1460672003
440297360.0 -0.0835104892 0.1544204108 0.3384460312 -0.4458914742 0.3383766924 -0.4454935189 -0.1072109078 0.147077085
445297330.0 -0.081944921 0.1550856749 0.3340414693 -0.4491062326 0.3338424219 -0.4497492171 -0.1057384674 0.148494831
450297300.0 -0.0802007892 0.1561366411 0.3289749829 -0.452806821 0.3290275515 -0.4525182175 -0.1041634888 0.1493498935
455297270.0 -0.078672423 0.1572955579 0.3240825643 -0.4566262654 0.324186774 -0.4564990838 -0.1030242379 0.1505995492
460297240.0 -0.0766748459 0.15828531 0.3190225511 -0.4606442793 0.3188972499 -0.4602582482 -0.1015582932 0.1514074825
465297210.0 -0.0749916517 0.159232476 0.3136914047 -0.4633915283 0.3134363185 -0.4637071545 -0.0996745122 0.1536016678
470297180.0 -0.0732263207 0.1600148815 0.3081931059 -0.4669089011 0.309218544 -0.4668663109 -0.0983312338 0.153985053
475297150.0 -0.0717792144 0.1610021102 0.3037743317 -0.4700596415 0.303647605 -0.4702653209 -0.0967173899 0.154738094
480297120.0 -0.0691775572 0.1622364664 0.2982770921 -0.4736057179 0.2986572413 -0.4735463097 -0.0954667155 0.156100072
485297090.0 -0.0677523851 0.1627975611 0.2931415261 -0.4768879172 0.2932684978 -0.4765585407 -0.0940621202 0.1573566841
490297060.0 -0.0652468244 0.1636570679 0.287670285 -0.479928375 0.2882122192 -0.4799436106 -0.0925984058 0.1580728306
495297030.0 -0.0641099398 0.1641314744 0.2830083059 -0.4828676975 0.2826862601 -0.4833970459 -0.0904806804 0.1591776741
500297000.0 -0.0623185964 0.1654439201 0.2778206306 -0.4857023956 0.2774143394 -0.4863328236 -0.0891405499 0.1601849093
505296970.0 -0.0599788075 0.1661181142 0.2724357427 -0.4892081117 0.2723312012 -0.4889027693 -0.0874447168 0.1610266118
510296940.0 -0.0581541523 0.1667195882 0.2669762564 -0.4923378309 0.2670210107 -0.4923153175 -0.0857740481 0.1625189109
515296910.0 -0.0565461951 0.1677118089 0.261284972 -0.4948720852 0.2615485701 -0.4947644211 -0.0842169855 0.1630780868
520296880.0 -0.0543125205 0.1688131655 0.2561110274 -0.4975515874 0.2556108004 -0.4973803768 -0.0821849242 0.1645180959
525296850.0 -0.0523989937 0.1690753847 0.2504437926 -0.5001028934 0.2505041973 -0.5002843978 -0.0806061767 0.1653377363
530296820.0 -0.0506831158 0.1697388017 0.2451262514 -0.5030239468 0.2452378906 -0.5030552095 -0.0794158967 0.1657875992
535296790.0 -0.0479770236 0.1703989226 0.2394795318 -0.5054829913 0.239895644 -0.5055201357 -0.0773622454 0.1667906496
540296760.0 -0.0463425931 0.1715691096 0.2336709723 -0.5081114584 0.2339347436 -0.5079044402 -0.0760228216 0.1676649522
545296730.0 -0.0447777506 0.1723428452 0.228957016 -0.5101963437 0.2287035205 -0.510150885 -0.0739524083 0.1684287617
550296700.0 -0.0422189109 0.1727374798 0.2226056985 -0.5131484929 0.2228759955 -0.5133163427 -0.0725421389 0.1694346827
555296670.0 -0.0404256544 0.1731660362 0.2174846133 -0.5157350141 0.217375423 -0.5153185723 -0.0708733288 0.1695155396
560296640.0 -0.0378146891 0.1736717902 0.2113712682 -0.5177581713 0.211789211 -0.5177327263 -0.0690235534 0.1711814538
565296610.0 -0.0365951565 0.1745900938 0.2062154629 -0.5197645314 0.2065645553 -0.5192197145 -0.0674009405 0.1717494253
570296580.0 -0.0344551148 0.1751721612 0.2001413325 -0.5217962631 0.2003873117 -0.5222795585 -0.0654751788 0.1725129494
575296550.0 -0.0323484309 0.1756855554 0.1950766796 -0.5242274705 0.1947743847 -0.5241395065 -0.0638620483 0.173208011
580296520.0 -0.0302230914 0.1767889795 0.1890647614 -0.5264708052 0.189166199 -0.526620288 -0.0626891709 0.1741300567
585296490.0 -0.027996474 0.1769793138 0.1836697733 -0.5286266841 0.1832657818 -0.5282025137 -0.0603763761 0.1751746785
590296460.0 -0.0253772863 0.1776695143 0.1776394877 -0.5303986571 0.1776256855 -0.5304604706 -0.0592145661 0.1754766895
595296430.0 -0.0236723386 0.1780051763 0.1715445097 -0.5319050015 0.1714600062 -0.5320484291 -0.0570826138 0.1760950649
600296400.0 -0.0215949956 0.1786395005 0.165322946 -0.5334476166 0.1658022175 -0.5340096235 -0.055311822 0.1768792612
605296370.0 -0.0197966283 0.1786836365 0.1608646971 -0.5355031352 0.1600160975 -0.5356972016 -0.0535882171 0.1773750089
610296340.0 -0.0174069081 0.1796228641 0.1543583351 -0.5366187706 0.154942764 -0.5369121608 -0.052150851 0.1782507134
615296310.0 -0.0150941229 0.1796697195 0.1482789472 -0.5387036165 0.1482612074 -0.5387013797 -0.050024862 0.1788035495
620296280.0 -0.0135080294 0.1806312946 0.142333873 -0.5405088958 0.1425906904 -0.5401726365 -0.0485268638 0.1796063449
625296250.0 -0.0113716093 0.180757984 0.136859741 -0.5420717257 0.1364854625 -0.5418086038 -0.0468951243 0.1799741342
630296220.0 -0.0091470788 0.1813754457 0.1310722582 -0.5435372589 0.131073756 -0.5431793845 -0.0448555153 0.1808452551
635296190.0 -0.0076188102 0.1819533143 0.125681863 -0.5441811845 0.1250788782 -0.5444306295 -0.0432531643 0.1812576796
640296160.0 -0.0051600743 0.182008611 0.1191688669 -0.546156052 0.1191164122 -0.5462949994 -0.0416677191 0.1817212999
645296130.0 -0.0028823839 0.1826917248 0.113279551 -0.5469866042 0.1132619393 -0.54687532 -0.0398069684 0.1821060827
650296100.0 -0.001026916 0.1822947215 0.1076265168 -0.5483868116 0.1071861729 -0.5483576274 -0.0373799808 0.1828711321
655296070.0 0.0009299495 0.1828337884 0.1014795361 -0.5496618652 0.101042243 -0.5490752288 -0.0363412588 0.183442686
660296040.0 0.0028028561 0.1833033386 0.0956322545 -0.5509445312 0.0956179056 -0.550381361 -0.0344761499 0.1834718547
665296010.0 0.0050332273 0.1835617253 0.0892542882 -0.5511101169 0.0893873784 -0.5510651283 -0.0321346519 0.1845254142
670295980.0 0.0070228437 0.1838028507 0.0832425004 -0.5523945156 0.083232037 -0.5518422245 -0.0309303942 0.1844661973
675295950.0 0.0089920886 0.1837536743 0.0775714325 -0.5526765688 0.0774553621 -0.553219507 -0.0290588876 0.1851113336
680295920.0 0.0107894462 0.1841256288 0.0717128005 -0.5535517418 0.0716030842 -0.5538950825 -0.0270908786 0.1851413689
685295890.0 0.0132876432 0.1845562811 0.065359825 -0.5544620523 0.065676162 -0.5549035471 -0.0253855059 0.1861177675
690295860.0 0.0152179325 0.1845150018 0.0597116672 -0.5551806724 0.0594623685 -0.5554890715 -0.023604117 0.1861819753
695295830.0 0.0169954395 0.1841262102 0.0543904147 -0.5558753807 0.0532986894 -0.5557357446 -0.0216781736 0.1869713127
700295800.0 0.0195721479 0.1848642121 0.0479457251 -0.5563162787 0.0479824419 -0.5561240919 -0.0199224849 0.186955976
705295770.0 0.021157971 0.1845873921 0.0418760141 -0.5569323115 0.0415808882 -0.5568233327 -0.0179704088 0.1878061808
710295740.0 0.0232364452 0.1845040971 0.0357443766 -0.5572472015 0.0357278569 -0.5574538866 -0.0160984244 0.1877559709
715295710.0 0.0254323212 0.1849244778 0.0295493755 -0.5575003464 0.0296223436 -0.5575772401 -0.0143606346 0.1880970405
720295680.0 0.0274092345 0.1845516317 0.0238668857 -0.5575768066 0.0238241693 -0.5580371274 -0.0125725893 0.1883410965
725295650.0 0.0289331931 0.1846940358 0.0179883626 -0.5577746231 0.0179408491 -0.5581274666 -0.011193811 0.1893739659
730295620.0 0.0303781159 0.184604831 0.0117200771 -0.5576042598 0.0116828201 -0.5574761787 -0.0090653019 0.1894765154
735295590.0 0.0331382163 0.1846860109 0.0059326606 -0.5581183913 0.0056466343 -0.5583511093 -0.007115934 0.189394748
740295560.0 0.034726447 0.1842085143 -0.0001978503 -0.5582544287 5.7289e-06 -0.5586742724 -0.0057499202 0.1898638325
745295530.0 0.0366491971 0.1841246438 -0.0058866077 -0.5574159464 -0.0055367735 -0.5580859626 -0.0040189542 0.1897740425
750295500.0 0.0386637306 0.1843281943 -0.0120986395 -0.5581999327 -0.0121607271 -0.55798093 -0.0020745915 0.1900292141
755295470.0 0.0406688321 0.1838909373 -0.0178945902 -0.5573402123 -0.0181704779 -0.5583415857 -0.0001468494 0.190800472
760295440.0 0.0426162202 0.1843454778 -0.0245291216 -0.5579219173 -0.0239886949 -0.5573961835 0.0015891887 0.189887734
765295410.0 0.0446988494 0.1835182076 -0.0299052836 -0.5572286919 -0.0297674446 -0.5572369928 0.0036283517 0.1904464035
770295380.0 0.0463968441 0.183672736 -0.0356625937 -0.5569834009 -0.035786852 -0.5574836528 0.0051641024 0.1906542191
775295350.0 0.0484985462 0.1830678516 -0.0418720353 -0.5567978866 -0.0418002859 -0.556114567 0.0076120306 0.1910101603
780295320.0 0.050298381 0.1831496616 -0.0476145549 -0.5554311828 -0.0478316241 -0.5555356431 0.0093057819 0.1909191497
785295290.0 0.0521543138 0.1822931491 -0.0533908615 -0.5555493083 -0.0537947549 -0.555302092 0.0109725799 0.1912921542
790295260.0 0.0541542992 0.1817234469 -0.0594836983 -0.5542636284 -0.0595044151 -0.5551735837 0.012613329 0.1916141404
795295230.0 0.0558671848 0.181637983 -0.0657423305 -0.554253745 -0.0656872795 -0.5542757628 0.0144239155 0.1910114241
800295200.0 0.057581812 0.1813935959 -0.0713523389 -0.5531230145 -0.0716639745 -0.5533450701 0.0162787604 0.1913225685
805295170.0 0.0594831387 0.181028201 -0.0774101287 -0.5523448789 -0.0773512624 -0.5525936656 0.0188948925 0.1911001504
810295140.0 0.0615119048 0.1804572544 -0.083455678 -0.5511456954 -0.0834042367 -0.5513632262 0.0206766663 0.1910974632
815295110.0 0.063405305 0.1799657375 -0.0893710601 -0.5504794285 -0.0889280595 -0.5507799203 0.021925341 0.1911080768
820295080.0 0.0652381947 0.1794872219 -0.0946125257 -0.5493616752 -0.0947192639 -0.5501343216 0.0232085191 0.1915335578
825295050.0 0.0670937071 0.1787957322 -0.100839145 -0.5487192862 -0.1012447319 -0.5485175219 0.0259848433 0.1914108421
830295020.0 0.0690876171 0.1784013066 -0.1068289985 -0.5473831989 -0.1069398769 -0.5476671574 0.027300812 0.1908850825
