!Created with skrf (http://scikit-rf.org).
# Hz S RI R 50.0 
!freq ReS11 ImS11 ReS21 ImS21 ReS12 ImS12 ReS22 ImS22
300000.0 -0.2409507676 -0.0921574162 0.471058454 0.061664284 0.4693504464 0.0594892032 -0.2378585686 -0.1012655445
5299970.0 -0.2449547203 0.0062363458 0.4748262489 0.0052781656 0.4744824278 0.0051942236 -0.2412751399 0.007495237
10299940.0 -0.2418870767 0.0179598677 0.476983204 0.0061286244 0.4768762119 0.0063796248 -0.2375865386 0.0206586085
15299910.0 -0.2375800283 0.027122482 0.4806456238 0.0072862523 0.4804862832 0.0074231523 -0.2332828686 0.0300216111
20299880.0 -0.2329263369 0.0339966528 0.4851277545 0.008161939 0.4850268662 0.007973976 -0.2277433162 0.0381188501
25299850.0 -0.2277736328 0.0403505552 0.4902387797 0.0071091759 0.4900185521 0.006990377 -0.2215218849 0.0445578006
30299820.0 -0.2223622506 0.0450605569 0.4956977107 0.0050796504 0.4955039842 0.0049195879 -0.2162299378 0.0501621881
35299790.0 -0.2175100426 0.0490132883 0.5009762104 0.0016332382 0.5005349213 0.0015268473 -0.2104371543 0.0546418281
40299760.0 -0.2126946295 0.0525458545 0.5056584028 -0.0024118339 0.5062930387 -0.0022347704 -0.2050341659 0.0576456786
45299730.0 -0.2078365043 0.0549276344 0.5107083583 -0.0071807515 0.5110017359 -0.0066807259 -0.2003616124 0.0605303831
50299700.0 -0.203922029 0.0569987203 0.5151250676 -0.0127321016 0.5150280139 -0.0121281367 -0.1953524897 0.0623247608
55299670.0 -0.1998502561 0.0585474097 0.5186796421 -0.0190714397 0.5184008967 -0.0184279158 -0.1914083158 0.0642622051
60299640.0 -0.1960179213 0.0600318541 0.5218386689 -0.0248715366 0.5220604177 -0.0242328284 -0.1875891192 0.0653099939
65299610.0 -0.1928366599 0.0609857112 0.5247091258 -0.0313341452 0.5248691066 -0.0312310611 -0.1841165329 0.066849094
70299580.0 -0.1900368259 0.0619624606 0.5274275067 -0.0378110817 0.5269827107 -0.0378559073 -0.1804947361 0.0676768988
75299550.0 -0.187223429 0.06308193 0.528832816 -0.0446490343 0.5287061408 -0.0448023783 -0.177963564 0.0683934359
80299520.0 -0.1848001126 0.0638505106 0.5308353882 -0.0517811171 0.5311064842 -0.0517169133 -0.1752700242 0.0693299848
85299490.0 -0.1824486352 0.0642533022 0.5320149303 -0.0576034522 0.5323721791 -0.0582112189 -0.1730862508 0.0693331458
90299460.0 -0.1803752591 0.0648724067 0.5327065306 -0.065368827 0.5336879618 -0.0650496332 -0.1706350201 0.0702381973
95299430.0 -0.1780796837 0.0654672366 0.5340043725 -0.0722405184 0.5342472202 -0.0720759057 -0.1681680963 0.0711646734
100299400.0 -0.1767123203 0.0664019159 0.5341769801 -0.0794255847 0.5343161742 -0.0790042851 -0.166019632 0.0715024968
105299370.0 -0.1748122688 0.0670866661 0.5343808788 -0.0864413081 0.5349669092 -0.0857895676 -0.163881672 0.072317754
110299340.0 -0.173331984 0.0676800119 0.5346960298 -0.0926404301 0.534809925 -0.0927406949 -0.1629161306 0.0732054669
115299310.0 -0.1719965729 0.0680827177 0.5346519151 -0.099817633 0.5345270337 -0.0993846087 -0.1612860448 0.0738768149
120299280.0 -0.1706511529 0.0684119427 0.5339646939 -0.1061992982 0.5347003224 -0.1063669454 -0.1594121964 0.0743933854
125299250.0 -0.169547101 0.069236904 0.5337902966 -0.1128562073 0.5344577146 -0.1128579451 -0.1586559185 0.0748610096
130299220.0 -0.1685747846 0.0701901738 0.5330670645 -0.1199389166 0.5331226911 -0.1198938987 -0.1568735105 0.0757725574
135299190.0 -0.1675573462 0.0714650179 0.5331880198 -0.1268150438 0.5329276758 -0.1259266931 -0.1557487256 0.0767817438
140299160.0 -0.1665761105 0.0719744156 0.5316568447 -0.1333071098 0.5322881846 -0.1328478853 -0.1542034563 0.0782024627
145299130.0 -0.1654776275 0.0728893431 0.5314866405 -0.1395693039 0.5310360236 -0.1391856038 -0.1535939313 0.0788393231
150299100.0 -0.1644248582 0.0738933103 0.5299202103 -0.1459745536 0.5298341693 -0.1457868219 -0.1524225785 0.0801555556
155299070.0 -0.1637126792 0.0748727301 0.5286888659 -0.1531865185 0.5287673985 -0.1527012957 -0.1512346661 0.0812050559
160299040.0 -0.1627950897 0.0756697228 0.52747203 -0.1589098166 0.5270711118 -0.1590121891 -0.1508283227 0.0821083407
165299010.0 -0.1621065406 0.0767001805 0.5258343262 -0.1654967685 0.5258646851 -0.1653338593 -0.1493132769 0.0835156255
170298980.0 -0.1611978482 0.0777412959 0.5242138045 -0.1719462236 0.5243833822 -0.1715913876 -0.1481483295 0.0846749254
175298950.0 -0.1605921456 0.0788609575 0.5231515568 -0.1781209995 0.5225382834 -0.1783027024 -0.1474154859 0.0861305841
180298920.0 -0.1600285206 0.0801201089 0.5212082909 -0.18458296 0.5211288194 -0.1839197526 -0.1463785852 0.0874993843
185298890.0 -0.158883284 0.0807980047 0.5191426206 -0.1902901467 0.5191191283 -0.190545359 -0.1454032741 0.0888623261
190298860.0 -0.158474958 0.0823901821 0.5171852722 -0.1968820487 0.5172519677 -0.1968847957 -0.1444592091 0.0896578314
195298830.0 -0.1576780844 0.0834231113 0.5153650039 -0.2030420747 0.5154518979 -0.2026734301 -0.1434117077 0.0911923021
200298800.0 -0.1567284678 0.0846480998 0.5129737975 -0.2091879708 0.5134137354 -0.2092036556 -0.1431238172 0.0925558526
205298770.0 -0.1560434105 0.0859954988 0.5108928581 -0.2152970179 0.5108772487 -0.2148640639 -0.1420554203 0.0932582563
210298740.0 -0.155351952 0.0868559812 0.5084278632 -0.2208404076 0.5086315245 -0.2206825425 -0.140703738 0.0954014486
215298710.0 -0.1551512854 0.088669318 0.506653154 -0.2273440443 0.5061202135 -0.2269625395 -0.1402183974 0.096284296
220298680.0 -0.1541596949 0.0891471928 0.5038473092 -0.232684103 0.5036474168 -0.2327404522 -0.1397210921 0.0974933567
225298650.0 -0.1535033491 0.0905328801 0.5012389516 -0.2385489159 0.5014742898 -0.2385851368 -0.1389286598 0.0988385516
230298620.0 -0.1524919271 0.0922422613 0.4991722495 -0.2443925896 0.4992913364 -0.2441700023 -0.1376609054 0.1000948336
235298590.0 -0.1517993778 0.0937740827 0.4964040698 -0.2501355505 0.4965613756 -0.2498462433 -0.1369772374 0.10136627
240298560.0 -0.1510725634 0.0950355087 0.4937317042 -0.2559963813 0.4937710061 -0.256359739 -0.1361598859 0.1034825003
245298530.0 -0.1504528289 0.0963615276 0.4912773149 -0.2619560694 0.4908645412 -0.2615067498 -0.1345148881 0.1036480118
250298500.0 -0.1492088385 0.0979632435 0.4872873373 -0.2673761565 0.4873838474 -0.267036518 -0.1340583839 0.1054738041
255298470.0 -0.1485203024 0.0987765387 0.4845745013 -0.2724127484 0.4850450189 -0.2726319388 -0.132669125 0.1067057765
260298440.0 -0.1479517267 0.1001852701 0.4822357223 -0.278536809 0.4820359492 -0.2781650539 -0.1315513807 0.1086406704
265298410.0 -0.1465811464 0.1017888966 0.4792335776 -0.2839245563 0.4791198949 -0.2837305394 -0.1306198239 0.1098756
270298380.0 -0.1460939682 0.1030898407 0.4759162455 -0.2894633322 0.4764387501 -0.2890543907 -0.1297096863 0.1111094663
275298350.0 -0.144728667 0.1044672631 0.4729959579 -0.2949597377 0.4732055258 -0.2947282623 -0.1283035517 0.1122194619
280298320.0 -0.1439457073 0.1057423351 0.4695892377 -0.3002238674 0.4698047651 -0.2999746911 -0.1266634121 0.1137030174
285298290.0 -0.1432507892 0.1070811803 0.4663830898 -0.305251184 0.4665649147 -0.3053700998 -0.1256000535 0.1147527202
290298260.0 -0.1417241092 0.1085151104 0.463082731 -0.3101688589 0.463203873 -0.3102996177 -0.1244094661 0.11653027
295298230.0 -0.1408816571 0.1097722115 0.4599890914 -0.3160069519 0.4598242796 -0.3158371579 -0.1229217136 0.1176039566
300298200.0 -0.1402943753 0.1109819791 0.4566959292 -0.3207492672 0.4569910519 -0.3210107731 -0.1217506912 0.1191560993
305298170.0 -0.1388620473 0.1120176912 0.4526753394 -0.3264751474 0.4529953652 -0.3262243284 -0.1200183849 0.1200170158
310298140.0 -0.137880329 0.1137030534 0.4492765039 -0.3312558742 0.4493183676 -0.3313419458 -0.1187453694 0.1215545255
315298110.0 -0.1371449143 0.1145632731 0.4457026825 -0.3368253216 0.4458930165 -0.3367748739 -0.1176767704 0.122637382
320298080.0 -0.1358996518 0.1158510978 0.44150391 -0.3422501249 0.4419343428 -0.3417747808 -0.1166211875 0.1243602918
325298050.0 -0.1348787512 0.1170556868 0.4376856096 -0.3469566502 0.4379000889 -0.3470316319 -0.1153029932 0.1251553684
330298020.0 -0.1340063516 0.1181981702 0.4338683105 -0.3517886145 0.4340100189 -0.3518816071 -0.1142914505 0.1267625976
335297990.0 -0.1331682985 0.1194531173 0.4301988931 -0.3564402479 0.4296124798 -0.3564554561 -0.1134554694 0.1283492251
340297960.0 -0.1325439586 0.1211892609 0.4259947283 -0.3614643107 0.4257471865 -0.3615655458 -0.1112553234 0.1298149292
345297930.0 -0.1312241937 0.1229240437 0.4215059661 -0.3665146719 0.4217991788 -0.3662726677 -0.1104372938 0.1307609903
350297900.0 -0.1305092447 0.1238247021 0.4170723143 -0.371088734 0.4175523519 -0.3707338677 -0.1093833941 0.1326226711
355297870.0 -0.1291342782 0.1257833171 0.4132496903 -0.3754085172 0.4139188397 -0.3751047063 -0.1082689547 0.1340447499
360297840.0 -0.1283040735 0.126882356 0.4100736692 -0.3798188826 0.4096439429 -0.3795105073 -0.106909383 0.1353673098
365297810.0 -0.1272403434 0.1284881887 0.405112832 -0.3844856997 0.4057508672 -0.3842277488 -0.1050358197 0.1371049343
370297780.0 -0.1259629503 0.1293453451 0.4006477804 -0.3885735588 0.401253482 -0.3878104153 -0.1039664314 0.1378526158
375297750.0 -0.1245245616 0.1309775189 0.3966125036 -0.3929260286 0.3969409095 -0.393023199 -0.1021547713 0.1391685667
380297720.0 -0.1233625117 0.1320741099 0.3921061755 -0.3976779626 0.3922703463 -0.3968438649 -0.1012112709 0.1403980887
385297690.0 -0.1224332617 0.1336302172 0.3877705191 -0.4017648672 0.3875971947 -0.4014605617 -0.0993363997 0.141628896
390297660.0 -0.1211914983 0.1350475921 0.3838189833 -0.405842289 0.3832961044 -0.4054633901 -0.0983854472 0.1432706257
395297630.0 -0.1199226501 0.1364484885 0.3791452143 -0.41032968 0.3791561817 -0.410458577 -0.0963558771 0.1445331121
400297600.0 -0.1186325187 0.1376829506 0.3742512466 -0.4146299601 0.374439584 -0.4143396099 -0.094899563 0.1458246477
405297570.0 -0.1176967079 0.1387318987 0.3697418165 -0.4182423072 0.3700387386 -0.4181746837 -0.0938668482 0.1467634879
410297540.0 -0.1162998657 0.1398739637 0.3658662099 -0.4224660201 0.3657770715 -0.4226036376 -0.0920931901 0.1482855218
415297510.0 -0.1144373389 0.1411222684 0.3602412943 -0.4265355004 0.3610733691 -0.4268144609 -0.0906319805 0.1491836134
420297480.0 -0.1133893644 0.1426304284 0.3556844799 -0.4301174064 0.356103008 -0.4304003292 -0.0889696284 0.15007563
425297450.0 -0.1119984958 0.143622573 0.3516074431 -0.4342390729 0.3518374545 -0.4342162654 -0.0877157894 0.1516092852
430297420.0 -0.1108237827 0.1445909569 0.3463011295 -0.4374303802 0.3466527629 -0.4381946382 -0.0862739094 0.1524398802
435297390.0 -0.1091906824 0.1462591691 0.3413578217 -0.4417352458 0.34147846 -0.4418801294 -0.0838398644 0.153610455
440297360.0 -0.1081037718 0.1475358055 0.3366960724 -0.445208803 0.3367970125 -0.4455059439 -0.0823032641 0.1545133858
445297330.0 -0.1068481422 0.1485959882 0.3321391559 -0.4490686995 0.3321097454 -0.4487376214 -0.0805745701 0.1550718441
450297300.0 -0.1049466287 0.149484354 0.3270656492 -0.4523216644 0.3269618051 -0.452972097 -0.0792962895 0.1562394059
455297270.0 -0.1035089033 0.1503390882 0.3217462753 -0.4556103099 0.3223146943 -0.4562435846 -0.0773799787 0.1570361146
460297240.0 -0.1023499764 0.1516302778 0.3168787933 -0.4595755116 0.3170455126 -0.4597475951 -0.0756954081 0.1584068176
465297210.0 -0.100520692 0.1528897497 0.3120075204 -0.4626172139 0.3123337171 -0.4636134201 -0.0737998475 0.1588531891
470297180.0 -0.0991211264 0.1538832596 0.3064412136 -0.4662299774 0.3068786233 -0.4665381598 -0.0717135779 0.1600742179
475297150.0 -0.0979150281 0.154976126 0.3012903786 -0.4692502369 0.3020691978 -0.4694660209 -0.0695116406 0.1607245339
480297120.0 -0.0963869161 0.1565605265 0.2968031806 -0.4731383313 0.2964750278 -0.4734880128 -0.0678419806 0.1620133326
485297090.0 -0.0948388853 0.157286824 0.2915394245 -0.4758476118 0.2915931756 -0.4757771479 -0.0660003768 0.1627640135
490297060.0 -0.0936963275 0.1584924461 0.2865550415 -0.4794956364 0.2867364911 -0.4789461732 -0.0643724498 0.1638497088
495297030.0 -0.0921367462 0.1592379157 0.280512675 -0.4823612256 0.2819309605 -0.4823289808 -0.0626000222 0.1647417464
500297000.0 -0.0903745359 0.1604177153 0.2755905418 -0.4852775223 0.2755696356 -0.4848145205 -0.0606400611 0.1663040303
505296970.0 -0.0886951954 0.1614802243 0.2705952138 -0.4878250214 0.2700367255 -0.4883357106 -0.0586576453 0.1665416569
510296940.0 -0.0872294245 0.1625527266 0.265130357 -0.4914453735 0.2649894091 -0.4915901534 -0.0571259792 0.167571578
515296910.0 -0.0858054641 0.1637963796 0.25957822 -0.49423627 0.2599802679 -0.4938608011 -0.0550799477 0.1684419717
520296880.0 -0.0842520811 0.1643723087 0.2542930549 -0.4970265078 0.2546134891 -0.4964780871 -0.0536292831 0.1690918817
525296850.0 -0.0823218271 0.1646284929 0.2482580221 -0.4995100173 0.2494695262 -0.4995215985 -0.051554074 0.1699697223
530296820.0 -0.0808213574 0.1663495212 0.2435119023 -0.5024319649 0.2435447984 -0.502069375 -0.0494724656 0.1706589654
535296790.0 -0.0797006638 0.1672358874 0.2383810956 -0.5049155078 0.2382850836 -0.5042594714 -0.0479146395 0.1712088775
540296760.0 -0.0780216984 0.1681905222 0.2324987492 -0.5072424411 0.2323592115 -0.5073305122 -0.0461235929 0.1722384466
545296730.0 -0.0764434375 0.1691447035 0.2264199485 -0.5093998045 0.227241565 -0.5095886645 -0.0444749272 0.1727235034
550296700.0 -0.0743465299 0.1699210091 0.2213741189 -0.512116548 0.2215962495 -0.5120915657 -0.0425624422 0.1732623936
555296670.0 -0.0730978919 0.1706963559 0.2160811383 -0.5145717601 0.2159143744 -0.514138508 -0.0406679556 0.1746852573
560296640.0 -0.0710600754 0.1720708317 0.2101977744 -0.5173274839 0.2104068887 -0.5167504216 -0.0385003228 0.1747119874
565296610.0 -0.0699355687 0.172452257 0.2041107179 -0.5189666893 0.2047527298 -0.5189590683 -0.0367129487 0.1749502081
570296580.0 -0.068138239 0.173494905 0.1987738357 -0.5215731303 0.1987168371 -0.5213036705 -0.0351855483 0.1764189295
575296550.0 -0.0664766592 0.1745485699 0.1935102082 -0.5238844583 0.1932643073 -0.5232560374 -0.0328135712 0.176534986
580296520.0 -0.0644572916 0.1749818319 0.1874675 -0.5256873283 0.1876490022 -0.5256540268 -0.0307099164 0.1768078967
585296490.0 -0.063153385 0.1754284231 0.1820411495 -0.5272299955 0.1822337473 -0.5273612224 -0.0289551485 0.177289457
590296460.0 -0.0611632367 0.1762811929 0.176411509 -0.52884944 0.1764426491 -0.5293779442 -0.0274493129 0.1782166786
595296430.0 -0.0591263833 0.177241807 0.1701587234 -0.5313519487 0.170227288 -0.5310827216 -0.025097783 0.1778199484
600296400.0 -0.057956016 0.1778406434 0.1643868039 -0.5328261641 0.1647952078 -0.5328646024 -0.0234831711 0.1784664036
605296370.0 -0.0559322972 0.1784687519 0.1587485769 -0.5344334499 0.1589422739 -0.5342496834 -0.0210305054 0.1787944436
610296340.0 -0.0545447559 0.1791534695 0.1528596159 -0.5362484123 0.1534342172 -0.5362480496 -0.0191232556 0.1791958323
615296310.0 -0.0522728209 0.1797483731 0.1467032796 -0.5377062782 0.1473769252 -0.5382360242 -0.0168739246 0.1795101109
620296280.0 -0.0508365802 0.1799280733 0.1415012549 -0.5395142314 0.1413021831 -0.5392807618 -0.0153282364 0.1797619497
625296250.0 -0.0494655678 0.1807275783 0.1359701432 -0.5410256285 0.135686684 -0.5410185004 -0.0126411931 0.1801013832
630296220.0 -0.0468056797 0.181675504 0.1287946431 -0.5421938521 0.1295295625 -0.5420734592 -0.0109218862 0.1804051289
635296190.0 -0.0460812058 0.1820498251 0.1240138307 -0.5434724124 0.1240589505 -0.543697086 -0.0087503027 0.1806428687
640296160.0 -0.0437055769 0.1826427917 0.1180504621 -0.5442317919 0.1184577586 -0.5449547111 -0.0068342487 0.1809234021
645296130.0 -0.0420561085 0.1835728221 0.1114910302 -0.5460891336 0.1125457917 -0.5458673656 -0.0050140884 0.1812035093
650296100.0 -0.0404079134 0.1837377601 0.1060507826 -0.5466758458 0.1062766177 -0.5468297133 -0.0026192206 0.1807353288
655296070.0 -0.0388464418 0.1838730812 0.1005708903 -0.5479733337 0.1006624268 -0.5482568997 -0.0005405381 0.1815005902
660296040.0 -0.0371627433 0.1843007477 0.0944512945 -0.5487871662 0.0947679914 -0.5495005286 0.001967881 0.1817197938
665296010.0 -0.0350904345 0.1849325267 0.0879884216 -0.5498716553 0.0886344961 -0.549913229 0.0037156251 0.1821796364
670295980.0 -0.0338551438 0.1857911613 0.0826048824 -0.5510321263 0.08263759 -0.5510135159 0.0054585293 0.1820320867
675295950.0 -0.0318056715 0.1863341188 0.0767641918 -0.5515072741 0.0768433053 -0.5514349964 0.0071365735 0.1820995521
680295920.0 -0.0299462034 0.1866332357 0.0704490122 -0.5524434206 0.0699751465 -0.5530013526 0.0094316778 0.1828935081
685295890.0 -0.028027549 0.1874381467 0.064738004 -0.5533877639 0.0641461876 -0.5533802707 0.0118522101 0.1827105157
690295860.0 -0.0260309594 0.187787002 0.0586189712 -0.553687468 0.0585708046 -0.5543588661 0.0133268849 0.183572396
695295830.0 -0.0245002889 0.1878498828 0.0532360514 -0.5540102997 0.052524236 -0.5545741705 0.0157082106 0.1830518699
700295800.0 -0.0222823373 0.1881602579 0.0463821142 -0.5549506238 0.0461633164 -0.5544901979 0.0174680438 0.1831390007
705295770.0 -0.0207666763 0.1891819217 0.0407265383 -0.5554882546 0.0411466167 -0.5551401553 0.0193780888 0.1834452671
710295740.0 -0.0185733253 0.189587179 0.0348039732 -0.5567287102 0.034747506 -0.5561917119 0.0215541623 0.1828387343
715295710.0 -0.0173617453 0.1894227934 0.0290810253 -0.5565091483 0.028254432 -0.5562798121 0.0237515604 0.1829349386
720295680.0 -0.0153584566 0.1897511299 0.022576368 -0.5565884878 0.02294181 -0.5565372112 0.0256468534 0.1830960121
725295650.0 -0.0131350937 0.1899731469 0.0166720378 -0.556980773 0.0166805503 -0.5568120075 0.0273848049 0.1828803509
730295620.0 -0.0111628615 0.1906485793 0.010585521 -0.5565983048 0.0107259745 -0.5568601852 0.0291189168 0.1826946968
735295590.0 -0.0099817107 0.1910390412 0.0046002755 -0.5572467598 0.0047063584 -0.5566819025 0.0309826444 0.1821695252
740295560.0 -0.0077278736 0.1909279699 -0.0016894886 -0.5566250767 -0.0011697432 -0.5569281379 0.0335491908 0.1824237624
745295530.0 -0.006128044 0.1913384787 -0.0071731853 -0.5564989841 -0.0076513938 -0.5569569119 0.0354244935 0.1816562721
750295500.0 -0.0039017342 0.1913849094 -0.0131963571 -0.5565724778 -0.0130434609 -0.5569859518 0.0371726097 0.1817887372
755295470.0 -0.0023051005 0.191173861 -0.0189095721 -0.5561569416 -0.0189624043 -0.5565294832 0.039258465 0.180790785
760295440.0 -0.0004545276 0.1919430076 -0.0249358165 -0.5567634128 -0.0251802255 -0.5563807095 0.0413220014 0.1807907981
765295410.0 0.0014084819 0.1918694153 -0.0315529368 -0.5556469523 -0.0312882368 -0.5559651562 0.0432841728 0.1808257796
770295380.0 0.0028725933 0.191819157 -0.0377175164 -0.5556146358 -0.0372255328 -0.5552161829 0.0449008282 0.1801305883
775295350.0 0.0048514357 0.1916422453 -0.0432623028 -0.5544495015 -0.0426621957 -0.5546815509 0.0464102138 0.1797588061
780295320.0 0.0070704763 0.1919503655 -0.0493590715 -0.5541442536 -0.048619863 -0.5542095693 0.0490523036 0.179084959
785295290.0 0.0087529725 0.1915815419 -0.0557366878 -0.5534142086 -0.0547459607 -0.5537678881 0.0517186687 0.1786958327
790295260.0 0.0108779805 0.1924190263 -0.0606293836 -0.552974275 -0.0603080273 -0.5531964793 0.0535371006 0.1785463676
795295230.0 0.012495937 0.1919328086 -0.0671347572 -0.5517194085 -0.0663351366 -0.5524732543 0.0555973828 0.178059547
800295200.0 0.0142458068 0.1924895802 -0.0736617101 -0.5514537332 -0.0729388652 -0.5515456506 0.0575729096 0.1773904795
805295170.0 0.0162230815 0.1919080063 -0.0788932917 -0.5505589438 -0.0787619344 -0.5510544041 0.0592356792 0.1769759874
810295140.0 0.0179179498 0.191669048 -0.0842894237 -0.5494170411 -0.0846807266 -0.5500024713 0.0618976828 0.1764916783
815295110.0 0.0198327692 0.1914365222 -0.0908049861 -0.5483457802 -0.0904755553 -0.5489517828 0.0635202096 0.1761317885
820295080.0 0.0215667267 0.1922160183 -0.0963084109 -0.5476768137 -0.095947684 -0.5478476575 0.0655820406 0.1756042778
825295050.0 0.0240641929 0.1915346878 -0.1019963172 -0.5460603869 -0.1023839837 -0.5466357749 0.0678697423 0.1748077716
830295020.0 0.0253857699 0.1917313905 -0.1084337731 -0.5450754331 -0.1079880919 -0.5452616062 0.0702739031 0.174398203
