!Created with skrf (http://scikit-rf.org).
# Hz S RI R 50.0 
!freq ReS11 ImS11 ReS21 ImS21 ReS12 ImS12 ReS22 ImS22
300000.0 -0.7709968775 -0.1491834556 -0.0011031178 0.00099127 -0.0006262756 0.0005467566 -0.0453111536 -0.0698856087
5299970.0 -0.7852873379 -0.007396746 4.50243e-05 -0.0002512607 -4.23848e-05 3.71573e-05 -0.048154545 0.0143942487
10299940.0 -0.7877019026 -0.003966267 -7.87436e-05 0.0001157424 -0.0001727333 0.0001245821 -0.0426567175 0.0315260371
15299910.0 -0.7935725912 -0.0014504505 0.0001133063 0.0001941516 6.35221e-05 0.0001131779 -0.0343766431 0.0456111966
20299880.0 -0.799904148 0.0023410718 3.92683e-05 1.57839e-05 -1.89943e-05 4.96294e-05 -0.0246655935 0.0571778932
25299850.0 -0.8059860643 0.0082680275 -0.000235849 -9.32651e-05 -2.97291e-05 0.0001349788 -0.0143179917 0.0659951692
30299820.0 -0.8119583728 0.0163536522 0.0001136758 -0.0002368057 0.0001428818 -0.0001391061 -0.0030128631 0.0726349611
35299790.0 -0.816630868 0.0254387354 0.0001631352 5.30575e-05 8.70073e-05 -5.93769e-05 0.0082396797 0.0772670202
40299760.0 -0.8212534018 0.0342888073 -0.0001029054 4.78905e-05 -9.84998e-05 -0.0001052169 0.0195146318 0.0799265342
45299730.0 -0.8246310616 0.0441507923 -3.36661e-05 0.0002266949 0.0002830682 0.0001182466 0.0295766219 0.0814502733
50299700.0 -0.8273302918 0.0542013192 0.0001062574 0.0001409302 2.31906e-05 -0.0001188398 0.0398204272 0.0815543004
55299670.0 -0.828601709 0.0642622404 -7.75561e-05 0.0002725314 9.75902e-05 4.01783e-05 0.048393684 0.0804547772
60299640.0 -0.8296228806 0.0746770561 -0.0001507162 -7.4384e-05 0.0001814659 3.41068e-05 0.0569808002 0.0783719709
65299610.0 -0.8311548482 0.0845802461 4.86587e-05 -0.0001337769 -6.13091e-05 0.0001751678 0.0643145759 0.0761543825
70299580.0 -0.8314416409 0.0946434028 7.92918e-05 -4.19093e-05 -0.0001914106 -8.39155e-05 0.0712886472 0.0731068321
75299550.0 -0.8316264106 0.1043702575 -0.0001153361 -7.17719e-05 4.73731e-05 -8.9001e-06 0.0773583908 0.0701220677
80299520.0 -0.830996329 0.1145628018 6.49215e-05 7.59645e-05 -8.64171e-05 -2.16471e-05 0.0828847777 0.0662825901
85299490.0 -0.8302608884 0.123708364 -4.02055e-05 9.35935e-05 -4.91687e-05 0.000111015 0.0877159353 0.0627735881
90299460.0 -0.829836758 0.1341854912 1.00201e-05 0.0001759702 -0.0001047591 0.0001436902 0.0922640685 0.0587170061
95299430.0 -0.8284157269 0.1435190529 -8.62389e-05 2.2207e-05 2.24978e-05 5.03929e-05 0.0963292141 0.0549959509
100299400.0 -0.8278193852 0.1533420904 7.00894e-05 0.0002226651 9.00065e-05 0.0001964001 0.0996185396 0.0509766717
105299370.0 -0.826719179 0.1622934731 4.16059e-05 4.532e-05 -0.0001017195 3.3109e-05 0.1030833826 0.0469032447
110299340.0 -0.8252372846 0.1709865277 -5.55835e-05 0.0001888498 3.88096e-05 0.0001236259 0.1053070045 0.0431137939
115299310.0 -0.823827803 0.1804816686 -1.81091e-05 -1.36989e-05 1.21236e-05 1.77424e-05 0.1079710379 0.0389477642
120299280.0 -0.8219661644 0.1894842551 4.18e-08 -2.1369e-05 5.82339e-05 0.0001699511 0.1102851429 0.0351853876
125299250.0 -0.8204054529 0.1987682116 -7.28716e-05 -6.19062e-05 -7.32331e-05 -9.49194e-05 0.1124743045 0.0309314354
130299220.0 -0.8184219458 0.2081838628 3.314e-06 0.000146356 -0.0001002061 7.16315e-05 0.1133739591 0.0276121199
135299190.0 -0.816490319 0.2167114295 4.78737e-05 0.0001703977 -7.26229e-05 8.343e-05 0.1150188613 0.0236824958
140299160.0 -0.814515959 0.2255747119 0.0001011726 -1.63866e-05 7.13755e-05 3.79038e-05 0.1165321504 0.0198505685
145299130.0 -0.8123241373 0.2341284649 -1.09829e-05 0.0001189261 0.0002146903 0.0003011476 0.1169110055 0.0165938094
150299100.0 -0.8101415646 0.2427686482 -6.2927e-06 -5.19208e-05 -0.0001898398 -5.36728e-05 0.11782131 0.0129724882
155299070.0 -0.8075133593 0.2523613289 -0.0001005834 -0.0001906132 0.0002704738 5.42534e-05 0.1184458034 0.0096238111
160299040.0 -0.8045440453 0.2614170291 0.0002841691 -9.30222e-05 8.22192e-05 -1.60935e-05 0.1192809579 0.0063260636
165299010.0 -0.801927713 0.2697580561 -4.52586e-05 -0.0001299274 4.71202e-05 -3.44647e-05 0.1198775065 0.0029924781
170298980.0 -0.799256784 0.2781542832 1.22952e-05 0.0002600387 0.0001230044 -3.28375e-05 0.1204142186 7.86097e-05
175298950.0 -0.7970236875 0.2870688035 8.28553e-05 5.81184e-05 3.33289e-05 3.08908e-05 0.1203024361 -0.0032488335
180298920.0 -0.7936062648 0.2952681358 -0.0001730545 3.24407e-05 -2.87006e-05 -1.48717e-05 0.1203873121 -0.0062518106
185298890.0 -0.7907055323 0.3040900914 0.0002049034 0.000104181 4.3184e-05 -0.000102806 0.1203897177 -0.0095200041
190298860.0 -0.7874509904 0.3121721924 -2.14415e-05 2.91929e-05 0.0001979718 -1.49989e-05 0.1208221452 -0.0123128055
195298830.0 -0.7837552358 0.3208255772 5.60199e-05 3.18807e-05 -5.86779e-05 -5.27434e-05 0.120420246 -0.0152455567
200298800.0 -0.7808672886 0.3291222617 0.0001176987 -7.08243e-05 -0.0001136347 -0.0001473649 0.1204583942 -0.0181195997
205298770.0 -0.7773253095 0.3370702003 -1.09647e-05 2.14219e-05 7.35764e-05 0.0001203422 0.1199199301 -0.0206123006
210298740.0 -0.773867322 0.3459427867 -6.02306e-05 4.22072e-05 0.0002243192 -0.000130333 0.119834764 -0.0230855202
215298710.0 -0.7702739265 0.3545944212 0.000109988 0.0001195782 6.45311e-05 -4.20912e-05 0.1189632809 -0.0258659049
220298680.0 -0.7670720541 0.3624475207 -0.0001818767 1.72581e-05 0.0001101818 -1.91637e-05 0.1190239834 -0.028302897
225298650.0 -0.7631799146 0.3710153327 0.0001082904 0.000239584 0.0001907354 0.0001108872 0.1180913644 -0.0305216569
230298620.0 -0.7588365703 0.3787566949 5.56238e-05 -8.8587e-05 -4.5633e-05 6.49773e-05 0.1177465255 -0.0333209041
235298590.0 -0.7550223149 0.3871759658 0.0001018454 0.000164561 -1.68359e-05 0.0001581744 0.1170554754 -0.0356416433
240298560.0 -0.7504554628 0.3948984862 -4.97566e-05 -0.0002981151 -5.18689e-05 6.57163e-05 0.1166321237 -0.0379469823
245298530.0 -0.7461779166 0.4029662845 0.0003245725 -0.0001110422 -3.49193e-05 0.0001973711 0.1159250391 -0.0398176633
250298500.0 -0.7425255804 0.4105191557 7.08885e-05 -3.30699e-05 0.0001787141 7.2166e-05 0.1153089854 -0.0421512875
255298470.0 -0.7374977404 0.4192017111 3.7525e-06 5.52197e-05 -3.54961e-05 0.0002193128 0.114515433 -0.0443602495
260298440.0 -0.7331239522 0.4265725605 -4.89351e-05 2.50921e-05 0.0002252846 5.195e-06 0.1136575965 -0.0465278043
265298410.0 -0.7291426241 0.4342271896 3.66162e-05 0.0002361031 1.87608e-05 8.79628e-05 0.1129670991 -0.0488528027
270298380.0 -0.7243275144 0.4416442409 8.22128e-05 0.0001014012 0.0001622836 6.81698e-05 0.112433066 -0.0507099431
275298350.0 -0.7193738905 0.4489003603 1.5419e-06 0.0001234062 -2.1994e-05 4.02528e-05 0.1117278145 -0.0525550437
280298320.0 -0.714756868 0.4566414854 0.0001019484 -0.00012985 5.31704e-05 0.0002227402 0.110606503 -0.0544833985
285298290.0 -0.7104290219 0.4642698108 0.000144442 8.14325e-05 0.0002327543 0.0001409632 0.1091885064 -0.0565221619
290298260.0 -0.7055477645 0.4716562811 0.0001132196 0.000102132 4.80072e-05 8.9831e-06 0.1087790675 -0.0580961061
295298230.0 -0.7003906798 0.4797636305 0.0002113857 -0.0001465759 -6.56075e-05 0.0001077665 0.1077740115 -0.0598842804
300298200.0 -0.6947833123 0.4868574955 -0.0001903085 -0.000193447 -0.0001161031 -0.0001308256 0.106906572 -0.0615794336
305298170.0 -0.6899873012 0.4940387722 -1.06711e-05 0.0002046694 0.0001927032 -7.74714e-05 0.1060094771 -0.0632180968
310298140.0 -0.6849309961 0.5011445035 0.0001123306 0.0001231575 0.0001086009 6.85132e-05 0.1051878953 -0.0651306878
315298110.0 -0.679442694 0.5079492374 2.47896e-05 7.84823e-05 0.0001021774 -5.0348e-05 0.104206231 -0.0669540686
320298080.0 -0.6743189628 0.5154555335 -5.56054e-05 -7.68832e-05 2.65836e-05 -0.0002447526 0.1031689585 -0.0687360571
325298050.0 -0.6688230881 0.5222507745 5.80396e-05 0.0002389846 0.0001398797 0.0002957622 0.1016893935 -0.0706918951
330298020.0 -0.6628804613 0.5292270008 0.0002006635 0.000109954 -5.38611e-05 2.21273e-05 0.1005402729 -0.072659193
335297990.0 -0.6568866469 0.5364605159 -0.0001167774 -1.27258e-05 0.0001259509 1.7005e-05 0.098999622 -0.0741234037
340297960.0 -0.6522032401 0.5433605521 0.00022017 0.0003381734 7.09685e-05 -4.68019e-05 0.0978029225 -0.0755725027
345297930.0 -0.6459155905 0.5486485529 0.000196884 1.84326e-05 0.000157385 0.0001623691 0.0961178171 -0.0765273606
350297900.0 -0.640538696 0.5559525604 7.28024e-05 -0.0001777198 0.0001130549 -0.0001286255 0.0950127234 -0.0782541407
355297870.0 -0.6344224629 0.5624953023 -8.05254e-05 0.0001409373 6.68415e-05 0.0001585083 0.0935067289 -0.0791318154
360297840.0 -0.6278855824 0.5688575653 -0.0002062906 0.0001104595 0.0001221461 0.0002617368 0.0923350221 -0.0805847701
365297810.0 -0.6225387602 0.5757987747 8.4674e-05 -0.000128759 0.0001125123 3.0757e-06 0.0906776817 -0.0818488938
370297780.0 -0.616446575 0.5819894085 6.13249e-05 0.00010776 0.000177033 -2.26482e-05 0.0895844449 -0.0830921147
375297750.0 -0.6102742311 0.5884955188 0.0001497085 0.0001070856 0.0001823573 9.06837e-05 0.0877868404 -0.0842040521
380297720.0 -0.604114137 0.5949828473 0.0001079593 8.24607e-05 -3.9516e-05 -0.0003194097 0.0870060576 -0.0848605695
385297690.0 -0.597862084 0.6013668067 0.0001160699 3.59355e-05 0.0001499278 0.0003021302 0.0852583729 -0.0859298486
390297660.0 -0.591300055 0.6071554211 0.0001681106 0.0002836295 -3.76153e-05 5.48253e-05 0.0839070545 -0.0873801527
395297630.0 -0.5852450072 0.6136970154 -3.12189e-05 -0.0001679597 6.21301e-05 1.73791e-05 0.0825284099 -0.0884786128
400297600.0 -0.5791558312 0.6194367826 -2.78378e-05 1.5847e-05 0.0001326851 -7.32458e-05 0.0806192059 -0.0895722009
405297570.0 -0.5729018502 0.6252116526 -0.0001392378 0.0001118134 0.0001503533 3.44751e-05 0.0794938226 -0.0902674129
410297540.0 -0.5654870542 0.6308204868 0.0002078362 -5.8988e-05 0.0001513713 -3.6955e-06 0.0779503001 -0.091285993
415297510.0 -0.5588141164 0.6368017213 0.000180944 0.0002234173 9.90279e-05 1.11823e-05 0.0764399942 -0.0922607976
420297480.0 -0.551456749 0.6422141039 9.05804e-05 1.3738e-05 2.56702e-05 5.70218e-05 0.0751191225 -0.0935959756
425297450.0 -0.5454984948 0.6478367498 1.43415e-05 0.0002131557 -6.4416e-06 9.52719e-05 0.0738453982 -0.0944778427
430297420.0 -0.539317123 0.6537435868 0.0001300692 0.0001651247 0.0001237244 0.00017751 0.0721605067 -0.0951900212
435297390.0 -0.5318410804 0.6592224313 -0.0001010232 4.34753e-05 -6.72599e-05 8.76295e-05 0.0708553469 -0.0959906913
440297360.0 -0.5249639538 0.6646407232 0.0001447964 -3.1339e-05 7.07826e-05 1.51482e-05 0.0686066212 -0.0972108935
445297330.0 -0.5185683508 0.6701101415 -2.77883e-05 -4.09652e-05 -5.30585e-05 -7.38539e-05 0.0675253002 -0.0983555223
450297300.0 -0.5111658959 0.6748367577 0.0001425063 -5.89714e-05 0.0001831997 2.04247e-05 0.0657897841 -0.0989426293
455297270.0 -0.5048240537 0.6800418426 0.0001682152 9.0027e-06 5.37451e-05 0.0002115099 0.0645770989 -0.0994053304
460297240.0 -0.4975917619 0.6854228115 -0.000138671 2.56462e-05 0.0002777964 0.0001371349 0.0630893826 -0.1001695935
465297210.0 -0.4898404355 0.6905719011 0.0001686528 0.0001716608 -7.28521e-05 0.0001024206 0.0610364717 -0.1012399908
470297180.0 -0.4829952424 0.6947688486 0.0002127773 0.000123084 -4.94112e-05 2.13867e-05 0.0589985884 -0.1017445265
475297150.0 -0.4758380894 0.7004772261 0.0001782644 1.95241e-05 1.11236e-05 2.35138e-05 0.0580314978 -0.1025694572
480297120.0 -0.4691332161 0.7048561957 0.0001332463 0.0001101099 -5.741e-07 7.53857e-05 0.056119782 -0.1030011636
485297090.0 -0.4610688205 0.7091747677 8.93374e-05 -9.617e-06 9.03981e-05 -7.59985e-05 0.0545054739 -0.1040418953
490297060.0 -0.4543276911 0.7142390258 0.0002050084 1.52651e-05 0.0003029798 3.13622e-05 0.0532438062 -0.104589745
495297030.0 -0.4473189785 0.7188239798 6.6873e-06 -0.0002003392 0.00020304 0.000195476 0.0514771621 -0.1053000111
500297000.0 -0.4383588953 0.7236209617 0.0003805468 0.0001343373 0.0001330972 0.0001042995 0.0497345478 -0.1055729555
505296970.0 -0.431825619 0.7269307637 8.36713e-05 -1.03914e-05 2.63442e-05 -2.87802e-05 0.0479322154 -0.1060916808
510296940.0 -0.4242302756 0.732325721 0.0002061668 0.0001927049 -5.54316e-05 5.2624e-05 0.0466191452 -0.1064524693
515296910.0 -0.4170473179 0.7361421968 0.0001100575 -2.0777e-06 0.0001094042 -5.4492e-05 0.044758288 -0.107101479
520296880.0 -0.4084598858 0.7404600847 0.0002702551 0.0002136307 0.000136447 2.36157e-05 0.0433592209 -0.1077863866
525296850.0 -0.4010420081 0.7447883563 0.0001874558 1.07498e-05 1.91876e-05 4.51738e-05 0.0418189328 -0.1085316185
530296820.0 -0.3941137819 0.7479366182 -1.31196e-05 -0.0001037646 9.4046e-05 0.0001056138 0.0398086463 -0.1087246491
535296790.0 -0.3859610749 0.7521712331 5.45752e-05 -4.33496e-05 0.0001244263 0.0001296649 0.0382225687 -0.1095290162
540296760.0 -0.3783177034 0.7564596149 6.18803e-05 0.0001447165 7.46054e-05 0.000188824 0.0364811821 -0.1095734415
545296730.0 -0.3710413285 0.7598097586 -1.25793e-05 -0.0001106322 0.0001177062 9.2742e-06 0.0345904659 -0.1099291101
550296700.0 -0.3633319162 0.7637118512 -5.1846e-06 -6.09041e-05 1.38094e-05 2.27051e-05 0.0328134068 -0.1103723309
555296670.0 -0.3546443051 0.7676361954 0.0003839214 -0.000200517 9.75419e-05 4.71659e-05 0.0313879595 -0.1105034781
560296640.0 -0.3468472431 0.7709466612 1.51416e-05 -4.59971e-05 6.21953e-05 -0.0001680655 0.0297889204 -0.1110737962
565296610.0 -0.3391165953 0.7741365659 0.0001401121 -7.6849e-06 -2.34819e-05 0.0001226114 0.0281349199 -0.1114379805
570296580.0 -0.3313655112 0.7771359613 -1.562e-06 1.7715e-06 0.0001085058 5.39145e-05 0.0263582256 -0.1113950783
575296550.0 -0.3234190272 0.7807518728 8.13875e-05 -1.60646e-05 6.111e-05 -0.0001347669 0.0248927518 -0.1120220413
580296520.0 -0.3158676563 0.7841130718 3.38932e-05 7.0879e-06 2.22699e-05 1.494e-07 0.0231585931 -0.1119647662
585296490.0 -0.3074039963 0.7864643366 0.0001591654 0.0001265766 0.0001705879 0.0003554607 0.0211836261 -0.1126955336
590296460.0 -0.2997265949 0.7894878744 -1.33752e-05 -8.83542e-05 -1.0999e-05 0.0001328006 0.0199806563 -0.1125270847
595296430.0 -0.2913327588 0.7929676593 0.0002413771 8.35041e-05 0.0002207201 0.0001337477 0.0178668054 -0.1126254073
600296400.0 -0.2835125796 0.7958419653 0.0002216959 -0.0002057778 -8.903e-07 4.6957e-05 0.0164502654 -0.1126219641
605296370.0 -0.2756045445 0.7991609961 0.0002859974 7.32268e-05 0.0001128073 7.34067e-05 0.0143876742 -0.1127401217
610296340.0 -0.2675152955 0.8015640133 0.0001883232 5.1126e-05 0.000130929 -5.86124e-05 0.0126488244 -0.1129020896
615296310.0 -0.2583689519 0.8044402594 4.1489e-05 -6.22692e-05 9.2368e-05 -6.552e-07 0.0111361691 -0.1131261364
620296280.0 -0.2505245092 0.8060967849 0.0004274516 -0.0002842833 0.0002629718 -0.0001358055 0.0093126863 -0.1131663798
625296250.0 -0.2423728689 0.8092949218 0.0003913809 0.0001117683 0.0002390941 0.000105683 0.0076899759 -0.1128740686
630296220.0 -0.2341270946 0.8117596838 5.40628e-05 -7.09726e-05 0.0002110932 -0.0001530856 0.006145482 -0.1128315098
635296190.0 -0.2264921369 0.813992236 5.294e-05 -8.1131e-06 0.0002020886 5.42811e-05 0.0043995471 -0.1129366695
640296160.0 -0.2179636286 0.8153656221 0.0001476282 0.0001304654 -1.16463e-05 6.6354e-05 0.0026569367 -0.1126530857
645296130.0 -0.2097644554 0.8174669895 8.94799e-05 3.41763e-05 0.0003308353 8.07938e-05 0.0007607797 -0.1129023516
650296100.0 -0.2016755513 0.8200468254 0.0001181387 -5.9261e-05 0.0002296886 -4.8585e-06 -0.001047836 -0.1126630611
655296070.0 -0.1929227753 0.8223983574 2.88169e-05 -8.13876e-05 0.0002349556 0.0001437264 -0.0024084176 -0.1124732569
660296040.0 -0.184792076 0.8243385609 0.0001324921 -0.0001265787 0.0002397677 -0.0001084389 -0.0040207414 -0.1121491871
665296010.0 -0.1771098663 0.826079073 7.15042e-05 -2.66701e-05 5.61308e-05 -0.0003051195 -0.006092809 -0.1121555309
670295980.0 -0.1681114503 0.8273394668 0.0002288103 -0.000153318 0.0002728051 -0.0001345914 -0.0075424979 -0.1118702253
675295950.0 -0.1597947277 0.8281048187 1.97527e-05 -9.24122e-05 0.000107918 -1.08452e-05 -0.0093154943 -0.1116069499
680295920.0 -0.1516599369 0.8307041321 0.0002019244 -2.89536e-05 0.0001135403 -7.8224e-06 -0.0111216116 -0.1116948154
685295890.0 -0.1428982145 0.8317548527 0.000130039 -0.0001957861 -7.49296e-05 -0.0001490482 -0.0124319501 -0.1114123025
690295860.0 -0.134278227 0.8337968234 0.0002465118 -6.77857e-05 0.0001782569 0.0001435589 -0.0141145581 -0.1111014076
695295830.0 -0.1259137416 0.8343371164 1.06224e-05 -0.0001690993 0.0003250912 1.70645e-05 -0.0160703097 -0.1105553009
700295800.0 -0.118015371 0.835778532 0.0001284374 -2.96511e-05 -6.03346e-05 0.000216553 -0.0176473857 -0.110388864
705295770.0 -0.108837365 0.8378436828 0.0001189596 -7.87648e-05 0.000299473 3.26811e-05 -0.0194470395 -0.1096373493
710295740.0 -0.100753133 0.8383209038 0.0001177934 1.11264e-05 0.0001242686 -0.0001801161 -0.0213993523 -0.1093464596
715295710.0 -0.0935156861 0.8390249882 0.0002686706 -0.00013244 0.0002952602 6.24776e-05 -0.0228029628 -0.1091857931
720295680.0 -0.0843800114 0.8396582364 0.0001536212 -6.02295e-05 0.0001682811 4.63997e-05 -0.0243972615 -0.1087983164
725295650.0 -0.075200356 0.8408733094 0.00011011 -5.79587e-05 0.0003477223 -8.99817e-05 -0.0257662716 -0.1082530615
730295620.0 -0.0667852035 0.8413040244 0.0002742487 2.31269e-05 0.0002049092 -9.30095e-05 -0.0275118473 -0.1078547209
735295590.0 -0.0580305705 0.842055661 0.0003358438 6.48218e-05 0.0002081879 -0.0001509382 -0.028911906 -0.1074627664
740295560.0 -0.050060469 0.8428301774 3.0792e-05 -0.0001685275 0.0002316637 -5.91947e-05 -0.0309103603 -0.1067671828
745295530.0 -0.041427608 0.8429818557 0.0001594886 -9.79455e-05 0.000156998 -2.09727e-05 -0.0324280672 -0.1061668036
750295500.0 -0.0343290787 0.8432240314 9.64455e-05 7.0619e-06 0.0003484385 -3.96162e-05 -0.0339029875 -0.1061238226
755295470.0 -0.0246125044 0.8436911906 0.0001801903 8.03931e-05 9.58397e-05 6.65258e-05 -0.035825876 -0.1052702455
760295440.0 -0.0155596395 0.8435954714 0.0003197161 0.0001721382 2.69947e-05 -0.0001670618 -0.0373386204 -0.1046402611
765295410.0 -0.0078879714 0.843739333 0.0001633872 0.0001075419 0.0002093033 -0.0001298089 -0.0386375685 -0.1039594213
770295380.0 0.0005365338 0.8440876058 0.0001662031 0.0001155918 0.0003415017 -0.0002030586 -0.0401239828 -0.1033708573
775295350.0 0.0093387385 0.8443814346 9.61849e-05 3.2855e-06 9.56292e-05 4.23241e-05 -0.0420435292 -0.1032112987
780295320.0 0.0181590562 0.8431913693 0.0002843212 -6.5893e-06 0.0002613753 0.0001447894 -0.0435187204 -0.1019879872
785295290.0 0.0262528149 0.8435167186 0.0001155437 8.35547e-05 0.0001196624 0.0001981709 -0.0448912027 -0.1013887956
790295260.0 0.0341323148 0.8430797873 -6.2638e-06 -4.89129e-05 0.000219046 1.83802e-05 -0.0464571991 -0.1009103651
795295230.0 0.0427686626 0.8433080577 0.0001648162 -1.30654e-05 -5.579e-07 -6.11318e-05 -0.0479812843 -0.0998656062
800295200.0 0.0510540948 0.8426249244 0.000390139 1.58063e-05 0.0001894834 -3.48825e-05 -0.0496453058 -0.0994494791
805295170.0 0.0600657694 0.842077902 0.0002171424 3.09338e-05 0.0003244977 -3.0319e-05 -0.0511636207 -0.0987210008
810295140.0 0.0680021763 0.8413667109 7.49006e-05 2.76026e-05 0.0001350597 5.78301e-05 -0.05242049 -0.0975050541
815295110.0 0.0768885621 0.8403964244 4.42751e-05 3.2796e-05 0.0001034141 -3.04148e-05 -0.0539680433 -0.0971620182
820295080.0 0.0854597056 0.8391102804 8.64575e-05 -6.8717e-06 9.24444e-05 0.0001423758 -0.0561029827 -0.0960885971
825295050.0 0.0942181537 0.8386235358 3.47147e-05 5.6412e-06 0.0002024454 -5.9053e-06 -0.056905722 -0.094957695
830295020.0 0.1021832933 0.8381024445 4.99237e-05 0.0002051015 0.0003510343 -0.0001556396 -0.0587847571 -0.0944858475
835294990.0 0.1098340596 0.8368301049 0.0001415602 -6.5573e-05 0.0003175666 -0.0001768969 -0.0599481061 -0.0936212669
840294960.0 0.1188096545 0.8351346749 0.0002294654 0.0001416401 0.000339212 -7.42911e-05 -0.0613546151 -0.0921954051
845294930.0 0.1270237059 0.8345639602 0.0001547902 -5.4318e-06 0.0003205846 -0.0002960507 -0.0627372415 -0.0913134706
850294900.0 0.1350547187 0.8326210772 0.0003492564 -6.08459e-05 0.0001404328 1.63552e-05 -0.0642706361 -0.0903698802
