!Created with skrf (http://scikit-rf.org).
# Hz S RI R 50.0 
!freq ReS11 ImS11 ReS21 ImS21 ReS12 ImS12 ReS22 ImS22
300000.0 -0.0431066061 -0.0707826493 -0.0005499923 -0.0005534497 -0.000202678 -0.0006800414 -0.7666094145 -0.1879307182
5299970.0 -0.0458917262 0.0143809197 -3.17993e-05 9.70151e-05 0.0001834998 -5.669e-06 -0.7847866588 -0.0092063379
10299940.0 -0.040451147 0.0327662495 0.0002104603 0.0002284053 -8.65439e-05 -0.0001239522 -0.7874180496 -0.0051721573
15299910.0 -0.0316658716 0.0474092596 0.0002989212 7.84647e-05 -0.0001730665 -8.63283e-05 -0.7927187402 -0.0027982174
20299880.0 -0.0213939619 0.0593562554 -7.63605e-05 -5.49965e-05 -0.0001738164 -3.17169e-05 -0.7996329621 0.0017101674
25299850.0 -0.0101067117 0.0689762226 -0.0001885607 -0.0001166083 0.000133191 0.0001421102 -0.8060711112 0.0075774623
30299820.0 0.0013961117 0.0755852998 8.24271e-05 0.0002202051 6.04586e-05 -2.37259e-05 -0.8117728315 0.0154836709
35299790.0 0.0132190961 0.0801848735 0.0001310784 -8.20109e-05 -0.000101127 -6.63349e-05 -0.8167450789 0.0245145091
40299760.0 0.0245930681 0.0830582165 4.20434e-05 0.0003948361 4.79923e-05 0.0001305344 -0.8212634079 0.0337063637
45299730.0 0.0349606309 0.0841568761 6.33e-08 -0.0001676834 5.26145e-05 -2.46143e-05 -0.8241994826 0.0435135904
50299700.0 0.04559532 0.0842442264 -8.6812e-06 1.78273e-05 0.0001316554 1.3226e-06 -0.8259901744 0.0537849343
55299670.0 0.0549763226 0.0834344824 -7.71483e-05 4.397e-07 -4.13293e-05 -9.15045e-05 -0.82845518 0.0637937969
60299640.0 0.0635774023 0.081518816 0.0001176794 -8.11872e-05 -7.50932e-05 -1.61924e-05 -0.8291196579 0.0737212725
65299610.0 0.0715374914 0.079253854 0.0003131472 0.0002434633 -2.2895e-06 0.0001518065 -0.8300957409 0.0837228618
70299580.0 0.0781175829 0.0761980743 -0.0001333613 2.2195e-06 -0.0002541412 7.21538e-05 -0.8308795049 0.0937491577
75299550.0 0.0844879086 0.0731291989 -1.0964e-05 0.000189777 6.2293e-06 -0.000198367 -0.830927769 0.1037145725
80299520.0 0.0901753464 0.0694138551 -1.13867e-05 0.0001764557 2.94077e-05 -4.98016e-05 -0.8306451548 0.1138862004
85299490.0 0.0953438491 0.0656049757 3.42213e-05 0.0002111442 3.16869e-05 7.73419e-05 -0.8301883896 0.1232698974
90299460.0 0.1004012279 0.0619985915 -6.68637e-05 9.45496e-05 7.12356e-05 0.0003305991 -0.8288276233 0.1328489284
95299430.0 0.1044895755 0.0580922444 -0.0001041419 -0.0001072478 0.0001379996 8.74382e-05 -0.827888212 0.1426596531
100299400.0 0.1081907076 0.0542359579 -0.0001792522 0.0001439322 -4.53117e-05 -2.66659e-05 -0.827360964 0.1518884014
105299370.0 0.1116135761 0.0501042984 -0.0002035623 0.000228026 2.32461e-05 -1.83999e-05 -0.8263830699 0.1609267454
110299340.0 0.1147144801 0.0460912628 6.90664e-05 6.8841e-06 3.81924e-05 1.42222e-05 -0.8244410186 0.1698816276
115299310.0 0.1170978753 0.0427230733 0.0002875623 0.0002384071 5.23437e-05 4.6642e-06 -0.8229372577 0.1791974064
120299280.0 0.1194368055 0.039037817 -4.21167e-05 0.0001080417 -0.0001146528 -5.05663e-05 -0.8209018226 0.1878824112
125299250.0 0.1215828346 0.0348821052 3.69596e-05 0.0002090269 -0.0001973978 0.0003028393 -0.8193762837 0.1971937855
130299220.0 0.1231321528 0.0313562261 5.53379e-05 7.7793e-05 3.46719e-05 -6.27227e-05 -0.8176267549 0.2052511354
135299190.0 0.1247737669 0.0277359309 -3.9704e-05 3.53373e-05 3.50438e-05 0.0001481276 -0.8158329107 0.2153980851
140299160.0 0.126191121 0.0243005568 -0.000151857 0.0002401211 4.38968e-05 0.0001280871 -0.8141266361 0.2237313746
145299130.0 0.1274578136 0.0211132387 5.21005e-05 0.0002533559 0.0001307644 -1.08431e-05 -0.8115439916 0.2326730744
150299100.0 0.1284635812 0.017657248 -4.52546e-05 -3.57368e-05 0.0001071524 7.45611e-05 -0.8094571266 0.2415847391
155299070.0 0.1292733091 0.0147137475 -0.0001025406 7.41777e-05 0.0001174792 0.0002072747 -0.8066896706 0.2506721624
160299040.0 0.129828167 0.0115851387 7.50427e-05 2.45994e-05 0.000303864 -5.59321e-05 -0.8046602468 0.2588760325
165299010.0 0.1306468577 0.0085706323 5.54464e-05 0.0001066679 4.16428e-05 0.0001209387 -0.8017928741 0.2675876352
170298980.0 0.1309128764 0.0052421741 2.06686e-05 -4.20573e-05 -5.2297e-05 -7.88821e-05 -0.7993126539 0.2756903947
175298950.0 0.1314588019 0.0025743797 0.0001223095 6.06337e-05 -0.0001309953 0.0001085056 -0.79625789 0.2848127402
180298920.0 0.1315486589 -0.0004056479 6.3659e-05 0.000153951 9.14353e-05 -2.12992e-05 -0.7934173186 0.2930189782
185298890.0 0.1316496321 -0.0032375847 0.0002416959 -5.2786e-06 6.74393e-05 6.39765e-05 -0.7903906713 0.3017359901
190298860.0 0.1317694097 -0.0057601585 -6.44922e-05 0.0001257267 -2.57082e-05 -1.33209e-05 -0.7872624914 0.3101085649
195298830.0 0.1321015884 -0.0085121431 -3.40579e-05 0.0001641123 0.0003299595 0.000111733 -0.783889416 0.3182140573
200298800.0 0.1319887968 -0.0113079057 1.3349e-05 0.000106973 4.55373e-05 0.0003683343 -0.7808414547 0.3269775294
205298770.0 0.1313600566 -0.0137269441 -0.0001416536 0.0001790639 -0.000131766 -8.6558e-06 -0.777587419 0.3349345265
210298740.0 0.131615336 -0.0160370606 4.00134e-05 7.87453e-05 4.75214e-05 0.000209071 -0.7741556265 0.3434594159
215298710.0 0.1309852719 -0.0185899028 1.28797e-05 0.0001619771 0.0001011008 4.59857e-05 -0.7702335251 0.3512869703
220298680.0 0.1311573747 -0.0206414195 0.0002712147 5.215e-05 2.41706e-05 9.51621e-05 -0.7668999919 0.3594977045
225298650.0 0.1304803374 -0.023285714 0.0001064667 0.000208832 0.0002434217 0.0001121052 -0.76246355 0.3678581688
230298620.0 0.1300485119 -0.0253077756 3.8297e-06 0.0001725893 0.0001594293 0.0001067524 -0.7587720816 0.3752782247
235298590.0 0.1296482323 -0.027558182 1.93049e-05 -9.25864e-05 6.33743e-05 0.0001362012 -0.7550098044 0.3831332838
240298560.0 0.128973353 -0.0297300338 4.91584e-05 -9.08589e-05 0.0003390939 0.0001709509 -0.7507839235 0.3905910764
245298530.0 0.1284203837 -0.0320049298 0.0001082221 8.95127e-05 0.0001368058 3.90144e-05 -0.7470186377 0.3989665026
250298500.0 0.1276786629 -0.0339773452 0.0001521687 9.05751e-05 0.0002436247 0.0001481385 -0.7427684694 0.4070535465
255298470.0 0.1273618507 -0.0355176753 0.0002787524 9.03783e-05 0.0001535858 0.0002136078 -0.7387038539 0.4146067226
260298440.0 0.126802116 -0.0380602077 0.000114807 0.0003472564 0.0002078017 0.0001984511 -0.734152342 0.4218312612
265298410.0 0.125951099 -0.0398447047 0.0002587592 8.90289e-05 0.0002004496 0.0001258924 -0.729884244 0.4304541247
270298380.0 0.1251718125 -0.0419148426 -1.94861e-05 0.0001790699 0.0002361751 0.0001103462 -0.724993934 0.4381835598
275298350.0 0.1244006164 -0.0436273722 4.75395e-05 -0.0001364447 -1.6296e-06 0.0001433766 -0.7203115169 0.4453840861
280298320.0 0.1236360728 -0.0455077328 0.0001926721 -6.03398e-05 4.25944e-05 -0.0001584181 -0.7155148026 0.4531768778
285298290.0 0.122936149 -0.0470542451 8.00961e-05 3.83138e-05 0.0002420714 0.0003110224 -0.7113893469 0.4606418819
290298260.0 0.1218182735 -0.0489988072 -0.0002511933 0.0003082774 0.000211316 0.0002693684 -0.7062441816 0.4674695629
295298230.0 0.121177 -0.0509124679 0.0003394571 9.15809e-05 0.0002513816 0.0001825045 -0.7016366477 0.4747524725
300298200.0 0.1204438413 -0.052421392 3.3766e-05 5.44358e-05 5.31524e-05 6.40868e-05 -0.6968680917 0.4825077493
305298170.0 0.1196116436 -0.0544826046 3.63097e-05 -3.41934e-05 9.74211e-05 0.0004312238 -0.6909743762 0.4894965253
310298140.0 0.1184077139 -0.0566299826 0.0002079047 0.0004276499 -5.84975e-05 8.20928e-05 -0.686503396 0.4965868458
315298110.0 0.1175043768 -0.0583131816 8.67435e-05 2.09191e-05 7.95722e-05 -9.7397e-06 -0.6814401652 0.5041745399
320298080.0 0.1164955252 -0.0602200037 0.0002135518 0.0002543152 0.0001172272 -4.03872e-05 -0.6758437605 0.5107559326
325298050.0 0.1147511997 -0.0619355354 0.0001664484 -1.05525e-05 0.0001354216 0.0002220335 -0.6699129511 0.5178952759
330298020.0 0.1135030064 -0.063213399 0.0001668408 1.5048e-06 0.0001385113 1.27483e-05 -0.6648543754 0.5244005693
335297990.0 0.1119901636 -0.0649190814 0.0002610907 0.000185568 0.0002252152 4.81393e-05 -0.6593494811 0.53147462
340297960.0 0.1105959979 -0.0661367908 0.0001177221 0.0003009174 7.1243e-05 0.0001028859 -0.6539587886 0.5385624955
345297930.0 0.1096694072 -0.0675669521 5.27341e-05 4.18887e-05 6.93723e-05 0.0001338916 -0.6491497347 0.5446802882
350297900.0 0.108724705 -0.0692515981 2.55723e-05 6.32167e-05 0.0002132013 9.34443e-05 -0.6429927862 0.5516927001
355297870.0 0.1074592835 -0.0702235896 0.0003300779 8.85645e-05 0.0001319475 7.93938e-05 -0.6366860196 0.5581269061
360297840.0 0.1062096858 -0.0716211724 0.0001740487 -9.53864e-05 0.0002498037 0.000155656 -0.6306352733 0.5649474397
365297810.0 0.1051683555 -0.0729815546 0.0001670129 0.0003053039 0.0002933212 8.80666e-05 -0.6250089479 0.5709659814
370297780.0 0.1038372947 -0.0745300745 0.0002431528 0.0001132053 0.0002149255 0.0002122825 -0.6193746387 0.5776241966
375297750.0 0.1027611611 -0.0756206786 0.0001423374 0.0002834651 0.0001169679 0.0001438278 -0.6131031176 0.583615765
380297720.0 0.1013820408 -0.0767469088 1.91546e-05 -6.52661e-05 0.0001664227 -6.9918e-06 -0.6068888732 0.5900272681
385297690.0 0.1000555384 -0.0780722139 0.0002270008 0.0001598686 0.0001713919 4.27706e-05 -0.6010090979 0.5965720509
390297660.0 0.0990321651 -0.0795995576 0.0003254798 0.0002755656 0.0003081548 0.0001018595 -0.5951076645 0.6022202519
395297630.0 0.0979305774 -0.0806452474 0.0001378622 9.00774e-05 0.0001751175 8.92883e-05 -0.5880206955 0.6081325449
400297600.0 0.0961760839 -0.081825218 0.000252082 0.0001211794 0.0002886078 2.7581e-05 -0.5823715017 0.6146646597
405297570.0 0.0950750456 -0.0832976659 0.0003455184 0.0001231189 0.0001084708 0.0001219632 -0.5757224731 0.6203320571
410297540.0 0.0942542293 -0.0841737233 9.7682e-05 9.03528e-05 0.000116675 0.0001098377 -0.5692677708 0.6260947792
415297510.0 0.0927421922 -0.0854548643 0.0001440222 5.3644e-05 0.0002089038 0.0001601594 -0.5629865033 0.6311736426
420297480.0 0.0914257374 -0.0869297145 0.0003018623 6.47615e-05 0.0001650742 6.166e-05 -0.5566344604 0.6381629129
425297450.0 0.09064843 -0.0876565093 1.18902e-05 0.000163433 0.0003876896 -7.91264e-05 -0.5494944617 0.6430136471
430297420.0 0.0889222635 -0.0890625609 0.000175784 0.0002473672 0.0001864776 0.0002547753 -0.5426935113 0.6484033258
435297390.0 0.0877062783 -0.0899648791 0.0002466434 0.0002526724 9.8872e-05 7.32439e-05 -0.5364578838 0.6541771694
440297360.0 0.0863689784 -0.0908350251 0.0005602357 -4.14638e-05 0.000260721 0.0001380689 -0.5299442744 0.6591389093
445297330.0 0.085284905 -0.0920793246 -4.87231e-05 -0.0001926842 0.0003001719 -2.6008e-05 -0.5228281033 0.6654216685
450297300.0 0.0838932478 -0.0930348524 8.16969e-05 -6.39334e-05 0.0002139819 -6.791e-06 -0.5156548272 0.6697837223
455297270.0 0.0827096304 -0.0940721109 0.0002274242 -2.53532e-05 0.0001497576 0.0001867965 -0.5091003192 0.6751117243
460297240.0 0.0812662988 -0.0952250687 0.0002629982 8.35812e-05 0.0002551336 -0.000110145 -0.5020599054 0.6803047543
465297210.0 0.0800975033 -0.0959262333 0.0003316532 0.0002379007 6.41048e-05 4.336e-05 -0.4946805803 0.6856705861
470297180.0 0.0788054247 -0.096729638 0.0003762441 0.0001161866 0.0001263951 0.0001348562 -0.4880409272 0.6898624619
475297150.0 0.0771649116 -0.0974851869 0.0001200357 0.0002231281 0.0003431536 1.72762e-05 -0.4815190994 0.6951813042
480297120.0 0.0761036108 -0.0985252551 0.0003618354 -1.67019e-05 0.0002803755 1.8452e-06 -0.4742210013 0.6999271595
485297090.0 0.0746523129 -0.099411768 0.0003464039 6.81837e-05 0.0001918646 -0.0001402526 -0.4669095825 0.7044335052
490297060.0 0.0739687721 -0.1002963478 0.000286765 -0.0001072742 0.0002585478 4.84977e-05 -0.4588712473 0.7086999004
495297030.0 0.0723935124 -0.1011887497 0.0003273627 8.0921e-05 0.0003589816 0.0001324732 -0.4521226112 0.7137073595
500297000.0 0.0707762074 -0.1018540042 0.0002198223 -0.0001454546 3.42716e-05 0.0001229213 -0.445019882 0.7185581328
505296970.0 0.0697937892 -0.1026611135 0.0001636211 -7.077e-07 0.0002929105 0.0002412602 -0.4380851759 0.7226880498
510296940.0 0.0688087063 -0.1034401553 0.000154714 9.21973e-05 0.0002524483 0.0001634416 -0.4299246775 0.7271656416
515296910.0 0.0670176159 -0.1039875484 0.0004005741 0.0001321127 0.0001359019 0.0001493344 -0.4231347326 0.7308664548
520296880.0 0.0657493959 -0.1048500019 0.0001628176 0.0001797105 0.0003906133 -6.7428e-06 -0.4149985119 0.7360047907
525296850.0 0.0643399419 -0.1056054734 0.0003255752 5.64859e-05 0.0003720243 0.0001119426 -0.4078165116 0.7395750569
530296820.0 0.0629945655 -0.1061666725 0.0002438845 0.0002376077 0.000243079 0.0001565289 -0.4003512233 0.7432221106
535296790.0 0.0619674667 -0.1065037572 0.000438238 -1.60024e-05 0.000211532 0.0001628273 -0.3929406553 0.7481984493
540296760.0 0.0608811902 -0.1075512374 0.0005303785 -4.9815e-05 0.0003575797 8.92426e-05 -0.3850743613 0.7511225925
545296730.0 0.0591212565 -0.107531693 0.000227957 0.0001051335 0.0002189697 0.0001541957 -0.3771381028 0.755337124
550296700.0 0.05781441 -0.1082104058 0.0003114394 0.0001062929 0.0002781515 0.0003173753 -0.3696229327 0.7591571878
555296670.0 0.0565758261 -0.1085994205 0.0002251115 0.0002508827 0.0001505099 2.39439e-05 -0.3628007992 0.7622025057
560296640.0 0.0554994587 -0.1094293785 0.0003915001 4.2652e-05 0.0003022193 -0.0001432388 -0.3540321103 0.7668192201
565296610.0 0.0537587054 -0.1095659011 0.0003892307 -5.9797e-06 0.0003674684 4.64105e-05 -0.3465224901 0.7701163369
570296580.0 0.0525992242 -0.110135244 0.0001722594 -0.0001501226 0.0001940779 -0.0001476567 -0.3389685513 0.7730783124
575296550.0 0.0509941695 -0.1106016192 0.0003746911 -9.4314e-06 0.0001892473 0.0001572702 -0.3309362622 0.7760544192
580296520.0 0.049833638 -0.1105329685 0.0004834091 -0.0002074601 0.0003257346 0.0001417071 -0.3233713744 0.7792650539
585296490.0 0.0484347564 -0.1110964642 0.0002249173 0.0001266441 0.000290692 1.38696e-05 -0.3156220339 0.7832911846
590296460.0 0.0474212353 -0.1112187555 0.0003385274 4.94693e-05 0.000250018 -4.75815e-05 -0.3072813245 0.7854591283
595296430.0 0.0456518556 -0.1116883767 0.000273281 0.000149407 0.0005482502 7.58909e-05 -0.3001857195 0.7894274544
600296400.0 0.0442162219 -0.1121649025 0.0004221443 0.0001335197 0.0003501503 0.0001655348 -0.2919297952 0.7915879636
605296370.0 0.0427473026 -0.112273061 0.0003205035 0.000212367 0.000495796 -5.00373e-05 -0.2836388394 0.7951348604
610296340.0 0.0416209182 -0.1125168279 0.0004134189 -8.78737e-05 0.0003114469 8.16032e-05 -0.275735666 0.7978426641
615296310.0 0.0403067461 -0.1126527667 0.0003111908 4.1352e-05 0.0001883804 0.0001416284 -0.2672814516 0.8003186029
620296280.0 0.0386887851 -0.1125561657 0.0003860965 0.0001696628 0.0003957431 6.74254e-05 -0.2601302875 0.8030631534
625296250.0 0.0371606258 -0.1131132113 0.0003444378 0.0002822538 0.000291767 0.0001437885 -0.2514814699 0.8049695313
630296220.0 0.0357550318 -0.1130279769 0.0001599034 -0.0001305087 0.0002146514 0.0001568932 -0.243385918 0.8079727391
635296190.0 0.0344160176 -0.1130019735 0.0003518864 -0.0001660248 0.0004323451 8.95059e-05 -0.2350602951 0.8097443955
640296160.0 0.0328025656 -0.1131922124 0.000700842 -7.76992e-05 0.000380667 0.0002419849 -0.226714685 0.8124734602
645296130.0 0.0319823809 -0.1133695882 0.0003773197 0.0002734682 0.0002119806 0.0001583116 -0.2194217016 0.8144532517
650296100.0 0.0301865766 -0.1132743227 0.000356058 0.0001659879 0.00041637 0.0001949042 -0.2107191072 0.8162562543
655296070.0 0.0288451211 -0.1133051092 0.0002457289 6.57542e-05 0.0002937567 0.0001617114 -0.203175984 0.8191282255
660296040.0 0.0273701221 -0.1131610492 0.0002738518 0.0001092607 0.000318068 0.0001270282 -0.1942170147 0.8209041153
665296010.0 0.0258618122 -0.1130391103 0.0001922393 -0.0001598713 0.0001225227 -7.3061e-06 -0.1863700739 0.82268116
670295980.0 0.0242406833 -0.1131291262 0.000489981 4.2271e-05 0.0003060552 -7.16253e-05 -0.1783012265 0.8241214634
675295950.0 0.0227501261 -0.1131792186 0.000393297 -9.75714e-05 0.0004243393 -2.6082e-05 -0.169457069 0.8264017433
680295920.0 0.0214975739 -0.1130188966 0.0001687283 -4.80862e-05 0.0004164362 2.91122e-05 -0.1612673524 0.8277708801
685295890.0 0.0201503897 -0.1129780643 0.0003614337 -3.6764e-05 0.0003332473 -8.29676e-05 -0.1529148832 0.8296609108
690295860.0 0.0183300965 -0.1125818816 0.000375066 6.52414e-05 0.0003655646 -0.0001007451 -0.1447459583 0.8313169615
695295830.0 0.016903704 -0.1128312886 0.0002389697 0.0001188009 0.0004003493 8.13014e-05 -0.1372321783 0.8327462197
700295800.0 0.0154695039 -0.1124052891 0.0004466087 -0.0001602931 0.0004905522 8.38583e-05 -0.1281135724 0.8332445801
705295770.0 0.0138443774 -0.1121584619 0.0003369478 -0.0001068511 0.0001834026 1.51928e-05 -0.1205051881 0.835057276
710295740.0 0.0127061054 -0.1124083434 0.0002548133 -0.0001822772 0.0004158722 1.54859e-05 -0.1116063437 0.8360799775
715295710.0 0.0113194217 -0.1121302063 0.0002951988 0.000327276 0.0002854355 -0.0001193322 -0.1032874958 0.8363869659
720295680.0 0.0097444552 -0.1119528262 0.0005230888 -4.98445e-05 0.000398844 -4.85949e-05 -0.0945163981 0.8377753816
725295650.0 0.0081133437 -0.1113718135 0.0003559239 0.0001137489 0.0002033809 -9.50694e-05 -0.0869694924 0.8389191027
730295620.0 0.0064817344 -0.1113162875 0.0004297956 -0.0001359806 0.0003287035 -1.10355e-05 -0.0783583082 0.8402405877
735295590.0 0.0050775413 -0.1109758677 0.0005087413 0.0001418019 0.0005104012 -6.11449e-05 -0.069441786 0.8403522165
740295560.0 0.0034288076 -0.1109145253 0.0003178859 -2.68175e-05 0.0002302693 0.0001479973 -0.0611734702 0.8412363182
745295530.0 0.0023866901 -0.1104194368 0.0005368341 -0.0001761253 0.0003447813 -3.278e-07 -0.0531044098 0.8414717063
750295500.0 0.0005021961 -0.1100393136 0.0003168374 7.72882e-05 0.0004008649 3.7979e-05 -0.0447276088 0.8419017041
755295470.0 -0.0010201478 -0.1098171222 0.0002726755 -0.000258856 0.0002862784 -0.0001663295 -0.0365644419 0.8425578896
760295440.0 -0.0021786602 -0.1092282268 0.0004619373 6.445e-07 0.0001523931 -0.0001509305 -0.0277582249 0.8424267656
765295410.0 -0.0034999068 -0.1094830315 0.0003112558 5.46365e-05 0.0002674971 6.48629e-05 -0.0190967223 0.8431028995
770295380.0 -0.0052757228 -0.1083367633 0.0004930771 -9.08311e-05 0.0004771268 -0.000103445 -0.0112967333 0.8430904189
775295350.0 -0.0068454921 -0.1082124313 0.0003314496 -0.000334647 0.0002966857 -4.35171e-05 -0.0031976433 0.843100432
780295320.0 -0.0079390304 -0.1078545515 0.0003005897 -0.0001567264 0.0002839967 0.0001226049 0.0058662966 0.843347728
785295290.0 -0.0098744295 -0.1076497502 0.0002859555 -6.5316e-06 0.0001443156 -2.33444e-05 0.0135097114 0.8434685998
790295260.0 -0.0109671151 -0.1076294058 0.0004007372 -5.57085e-05 0.0002246559 -1.37311e-05 0.0222291817 0.8428867672
795295230.0 -0.012721402 -0.1069964029 0.0004916372 -0.0001463169 0.0003142686 -0.0002786265 0.0305313496 0.8420316097
800295200.0 -0.0139820611 -0.1065147217 0.0003640013 -0.0001735224 0.0003329083 -0.0001574919 0.0386402246 0.8420255522
805295170.0 -0.0154792808 -0.105872484 0.0004902864 -8.85693e-05 0.0004184146 -0.0001558047 0.0475431151 0.8416181913
810295140.0 -0.0166641663 -0.105308964 0.0003987375 -0.0001461153 0.0005731091 -7.28131e-05 0.0560150307 0.8412492375
815295110.0 -0.0183919433 -0.1049966658 0.0003795352 -0.0002361948 0.0003540295 2.09947e-05 0.0636067141 0.8409645134
820295080.0 -0.0197665228 -0.104659671 0.0003735174 3.48517e-05 0.000384601 -0.0001126143 0.0714261534 0.8406350326
825295050.0 -0.0216056673 -0.1043119447 0.0004575485 -0.0001564124 0.0003749415 -0.0001752262 0.080661662 0.8394101696
830295020.0 -0.0228904532 -0.1038105573 0.0005306528 -0.0001002572 0.0003187859 -0.0001188862 0.0886401534 0.8378418262
835294990.0 -0.0240196372 -0.103430852 0.00050363 -0.0001460042 0.0002546026 -0.0002606534 0.0970522193 0.8376874062
840294960.0 -0.025353176 -0.1027360889 0.0002975176 -0.0002568828 0.0003862898 -0.0001436593 0.1057142996 0.8365619112
845294930.0 -0.0269014233 -0.1020723651 0.0003393182 -0.0001790799 0.0003488789 -0.0003819118 0.1140548047 0.8352762509
850294900.0 -0.0277730711 -0.1017209607 0.000587786 -2.55882e-05 0.000342113 -4.541e-06 0.1215374721 0.8340859913
