!Created with skrf (http://scikit-rf.org).
# Hz S RI R 50.0 
!freq ReS11 ImS11 ReS21 ImS21 ReS12 ImS12 ReS22 ImS22
300000.0 -0.2370144603 -0.1097978496 0.4671607402 0.0712844067 0.470859179 0.0755948415 -0.2364517715 -0.1150177795
5299970.0 -0.2407600498 0.0066731417 0.475446261 0.0054502646 0.4750296627 0.0057007094 -0.2448536229 0.0055443763
10299940.0 -0.2373107716 0.0199216198 0.4773414026 0.006155261 0.4773769292 0.0063767872 -0.2419224852 0.017407266
15299910.0 -0.2331360619 0.0297767255 0.4805537038 0.0078887022 0.480590501 0.0077639838 -0.2374174956 0.026580249
20299880.0 -0.2274718811 0.0375728163 0.4853600832 0.0079316772 0.4854955042 0.0085372302 -0.2331815026 0.0339021973
25299850.0 -0.2217967088 0.0442405114 0.4906875655 0.0066618432 0.4905938715 0.0069793092 -0.2278328179 0.0401448927
30299820.0 -0.2159321941 0.0493172449 0.4962985716 0.005061984 0.4958954082 0.0051037482 -0.222945466 0.0447887785
35299790.0 -0.2100777167 0.0539841257 0.5009578343 0.0015376203 0.5014809548 0.0019836576 -0.2175494443 0.0487027456
40299760.0 -0.2048319598 0.0570680314 0.506454047 -0.0019536265 0.5066599192 -0.0021936219 -0.2126505128 0.0520493097
45299730.0 -0.1995261226 0.060118416 0.5112747353 -0.0074005419 0.5112179469 -0.0067706048 -0.2081584574 0.0543144509
50299700.0 -0.1946915189 0.0620391927 0.5148519471 -0.012606219 0.5151190511 -0.012949975 -0.2036890448 0.0566229823
55299670.0 -0.1906492346 0.0639524279 0.5185196476 -0.0187590772 0.5188756548 -0.0187137829 -0.2000251821 0.0579543374
60299640.0 -0.1865219193 0.0649257893 0.521611384 -0.0248653968 0.522161014 -0.0248444133 -0.1962558294 0.0594773554
65299610.0 -0.1832423533 0.0663818241 0.5252504625 -0.0306230809 0.5251844391 -0.0308121173 -0.1929286435 0.060866964
70299580.0 -0.1794769323 0.0668913551 0.5273262997 -0.0374703906 0.5270880024 -0.0374293556 -0.1900017408 0.0615356305
75299550.0 -0.1764459645 0.06820203 0.5290963063 -0.044708263 0.5293236256 -0.0447931121 -0.1872736823 0.0625501966
80299520.0 -0.1741767267 0.0689633454 0.5315518486 -0.0513949862 0.531479294 -0.0512669934 -0.1846949429 0.0625638881
85299490.0 -0.1714821141 0.0693948411 0.5325751558 -0.0581870572 0.5325087083 -0.0584791405 -0.1825324432 0.0636112596
90299460.0 -0.1692646899 0.0702053895 0.5335057695 -0.0648972701 0.5335551861 -0.0653842558 -0.1799574616 0.0639474338
95299430.0 -0.1671824784 0.0710577651 0.5345836596 -0.0722825191 0.5345325812 -0.0718835474 -0.1787013044 0.0649606424
100299400.0 -0.1654505122 0.0718984812 0.5345453218 -0.0790249002 0.5348170106 -0.0790627368 -0.1768968088 0.0656281072
105299370.0 -0.1634449016 0.0724420957 0.535111479 -0.085653905 0.5350988603 -0.0861113109 -0.1748914445 0.0661432897
110299340.0 -0.1619059961 0.0731462927 0.534833118 -0.0928973047 0.535302454 -0.0929013551 -0.1737934324 0.0668396761
115299310.0 -0.1602881621 0.0734290747 0.5350147046 -0.0991733567 0.5351712517 -0.099487072 -0.1720968147 0.067122514
120299280.0 -0.1592043854 0.0744813368 0.5353164905 -0.1064565921 0.5351482761 -0.1065584506 -0.1714256499 0.0681089664
125299250.0 -0.1580764639 0.0753785305 0.5348696675 -0.1130098204 0.5345439572 -0.1132884234 -0.1697723466 0.0683100664
130299220.0 -0.1564220375 0.0761632009 0.5338940462 -0.1191707338 0.5338714411 -0.1197940991 -0.1687188756 0.0694225294
135299190.0 -0.1552905085 0.0768211627 0.5335018569 -0.1258626621 0.5329154738 -0.1263401284 -0.1679144567 0.0702493898
140299160.0 -0.154317476 0.0781416216 0.532378808 -0.1328563026 0.5327985921 -0.1329425545 -0.1667539254 0.0710227206
145299130.0 -0.153259548 0.0788769866 0.5317559369 -0.1394880962 0.5314793781 -0.1392770292 -0.1659074026 0.071732938
150299100.0 -0.1520873004 0.0799393487 0.5303181214 -0.1462881238 0.5304128811 -0.1459468336 -0.1648620671 0.0724831068
155299070.0 -0.150989605 0.081350071 0.5291975027 -0.152955172 0.5294366418 -0.1529205957 -0.1644858171 0.0734944696
160299040.0 -0.1499641927 0.0819676796 0.5278194584 -0.1585176666 0.5278415731 -0.1589882528 -0.1633753586 0.0748840266
165299010.0 -0.1491847342 0.083226886 0.5262410512 -0.1656892279 0.526760229 -0.1655708688 -0.1627256522 0.0753067387
170298980.0 -0.1483145821 0.0843656346 0.5242245118 -0.171889602 0.5247491564 -0.1718819029 -0.1617375638 0.0765439291
175298950.0 -0.1471340576 0.0856576571 0.5237798943 -0.1779750006 0.5236013423 -0.1781958006 -0.160870231 0.0777313965
180298920.0 -0.1461923434 0.0867339536 0.5217376356 -0.18469103 0.5219908761 -0.1842325034 -0.1602416446 0.0787291509
185298890.0 -0.1452636683 0.0879439724 0.5196941088 -0.1909509718 0.5198094191 -0.1906640248 -0.1598783957 0.0794526387
190298860.0 -0.14448299 0.0889847171 0.5179264968 -0.1970299832 0.5178878649 -0.1968130709 -0.1583524642 0.0810024272
195298830.0 -0.1435153641 0.0901517568 0.515765949 -0.2026978491 0.5161217937 -0.2032382423 -0.1578173177 0.0815961555
200298800.0 -0.1426667802 0.0917146159 0.514136661 -0.2087434619 0.5138553687 -0.2087677044 -0.1568703882 0.0834918133
205298770.0 -0.1417434892 0.093093172 0.5121125504 -0.2147453213 0.5115732634 -0.2151091321 -0.1561522833 0.0841490525
210298740.0 -0.1409449123 0.0941217972 0.5093986827 -0.2210152444 0.5095154877 -0.2212343799 -0.155543616 0.0857594746
215298710.0 -0.1397857349 0.0956506494 0.5073371907 -0.2267680359 0.5067383528 -0.2269312328 -0.1550934393 0.0866815272
220298680.0 -0.1387488595 0.0970792473 0.504274242 -0.2327999476 0.5047714142 -0.2328763417 -0.1540945515 0.0883566718
225298650.0 -0.137822229 0.0983716025 0.5016596266 -0.2382778135 0.5019818372 -0.2387174272 -0.1532801061 0.0892333031
230298620.0 -0.1369358109 0.0999057414 0.4994463117 -0.2443368133 0.499863499 -0.2446583838 -0.1523810838 0.0905622704
235298590.0 -0.1359921448 0.101117497 0.4973690671 -0.2499933716 0.4969943669 -0.250561359 -0.1517306246 0.0914309387
240298560.0 -0.1351486538 0.1026181612 0.4946851624 -0.2557305272 0.494420533 -0.2553709898 -0.1510547019 0.0935263705
245298530.0 -0.1338033842 0.1040151445 0.491177382 -0.2618965946 0.491489352 -0.2616990545 -0.1501321273 0.0945341208
250298500.0 -0.1330953346 0.1051702966 0.4886789059 -0.2666051473 0.4891241362 -0.2666657479 -0.1491351886 0.0958446866
255298470.0 -0.1320968329 0.1065476304 0.4857700292 -0.2729480715 0.4859855014 -0.2723360648 -0.148202764 0.0966564629
260298440.0 -0.1307569628 0.108163266 0.4829951174 -0.2780716441 0.4830883675 -0.2782823235 -0.1471711713 0.0984164819
265298410.0 -0.1294498725 0.1098034238 0.4796412826 -0.284242954 0.4794449718 -0.2839042986 -0.1466515394 0.0997681133
270298380.0 -0.128357544 0.1110411873 0.4766024601 -0.2891661626 0.4766111772 -0.2893642665 -0.1454548736 0.1013557308
275298350.0 -0.1275389114 0.112545294 0.4734465107 -0.2947907168 0.4739464516 -0.2947107524 -0.1443245544 0.1024026575
280298320.0 -0.1261961576 0.1140617303 0.4704778186 -0.2997907625 0.4701366547 -0.3003302946 -0.143376436 0.1040266568
285298290.0 -0.1248586654 0.1155758107 0.4668904567 -0.3052784679 0.4668641216 -0.3054839254 -0.1426836344 0.1053163671
290298260.0 -0.1237017097 0.1166636465 0.4635031962 -0.3109640537 0.4638079837 -0.3109714408 -0.1411755881 0.1068042637
295298230.0 -0.1223480218 0.1179883846 0.4605429128 -0.3158873712 0.4602018175 -0.3162248937 -0.1403428359 0.1082134798
300298200.0 -0.120968824 0.1195361521 0.457213342 -0.3213026237 0.4573915783 -0.3211528295 -0.1394038928 0.1094751889
305298170.0 -0.1195073648 0.1207278624 0.4537907083 -0.3267597984 0.4538262285 -0.3267749023 -0.1381563855 0.1108591272
310298140.0 -0.1183127779 0.1218527485 0.4502436247 -0.3319658214 0.4501454897 -0.3321821437 -0.1373016322 0.1125424798
315298110.0 -0.1169391037 0.1231667917 0.4462431472 -0.3369224343 0.4464582655 -0.3372901679 -0.1356089275 0.1134179504
320298080.0 -0.1159721575 0.1246658562 0.4428586245 -0.3423198932 0.4426948587 -0.3424093449 -0.135007065 0.1147875977
325298050.0 -0.1146988198 0.1254267899 0.4391489399 -0.347047284 0.4392532295 -0.347163496 -0.1340999272 0.1158648866
330298020.0 -0.1134153282 0.1270496865 0.4342936487 -0.3521384465 0.4343487374 -0.3523404014 -0.1331214589 0.1171123314
335297990.0 -0.1120430315 0.1279534817 0.4306161912 -0.3570185292 0.4305340625 -0.3571187469 -0.1321692416 0.1184267836
340297960.0 -0.1115767649 0.1298083392 0.4263354297 -0.3618521871 0.4266285539 -0.361496507 -0.1311251928 0.1199318726
345297930.0 -0.1101962613 0.1311211983 0.4226562884 -0.3660727555 0.4222188274 -0.3661856289 -0.1297489341 0.1212472372
350297900.0 -0.1084003735 0.1324482862 0.4185979197 -0.3705804677 0.4184763827 -0.3711695299 -0.1288475647 0.1232692877
355297870.0 -0.1069463994 0.1337329185 0.4138937183 -0.3754092809 0.4141882566 -0.375718587 -0.1279037291 0.1243361098
360297840.0 -0.1056936767 0.135253795 0.4101128533 -0.3803333954 0.4100291103 -0.3801221907 -0.1265415252 0.1260152583
365297810.0 -0.1038805333 0.1365922412 0.4057709157 -0.3848656784 0.405672326 -0.3848554094 -0.1252387828 0.1273108302
370297780.0 -0.1025299702 0.1376986102 0.4013572669 -0.3887269568 0.4016979705 -0.3894262846 -0.1243856369 0.1287076458
375297750.0 -0.1011313364 0.1394420137 0.3979236497 -0.3937203658 0.3972807737 -0.3936145619 -0.1230032835 0.130458473
380297720.0 -0.0997421949 0.1400252558 0.3928136252 -0.3975618105 0.393481185 -0.3976134707 -0.1219884784 0.1317226399
385297690.0 -0.0981726638 0.1416344656 0.3886594425 -0.401739535 0.3884028274 -0.4019195559 -0.1204988218 0.1330696559
390297660.0 -0.0964385945 0.1428425775 0.3837766142 -0.4062859605 0.3839870254 -0.4063618131 -0.1193649578 0.1339786944
395297630.0 -0.094926442 0.143818763 0.3799203987 -0.4100824681 0.379846278 -0.4106662397 -0.1184041231 0.1359171291
400297600.0 -0.0932570103 0.1455062055 0.3750741619 -0.4145339157 0.3752591481 -0.4148374268 -0.1172942058 0.1367452627
405297570.0 -0.0918515539 0.1465871185 0.3706161001 -0.4188567251 0.3705793822 -0.4190845864 -0.1157987393 0.1388182287
410297540.0 -0.0897755988 0.1474031974 0.3652224025 -0.4228464834 0.3658030418 -0.422793508 -0.1146287805 0.1397730043
415297510.0 -0.0885860792 0.1491024945 0.3614211492 -0.4267376572 0.3617884839 -0.4268210294 -0.1135385044 0.1415999852
420297480.0 -0.086696804 0.1496828622 0.3562715622 -0.430920912 0.3564347018 -0.4307632941 -0.1116864633 0.1421417203
425297450.0 -0.085024415 0.1507879967 0.3517642174 -0.4347337085 0.352108402 -0.4347453868 -0.1105500314 0.1438157181
430297420.0 -0.0835502795 0.1523743937 0.3473115414 -0.4388727731 0.347258858 -0.4386440851 -0.1091988072 0.1449928274
435297390.0 -0.0818462823 0.1529344785 0.3425670374 -0.4419670491 0.3425422631 -0.4422026953 -0.1077500621 0.1465634168
440297360.0 -0.0800881713 0.1541378107 0.3374131773 -0.445950873 0.3369731501 -0.4458021474 -0.1066957084 0.1474094173
445297330.0 -0.078077285 0.1550714634 0.3323832433 -0.449666087 0.3323848488 -0.449369338 -0.1048332106 0.1484360574
450297300.0 -0.076122319 0.1559075474 0.327257945 -0.4527515084 0.3278503829 -0.4531127879 -0.1038171274 0.1503131856
455297270.0 -0.0749378775 0.1569291667 0.3230995037 -0.4565511408 0.3228022644 -0.4566308998 -0.1021623921 0.151460051
460297240.0 -0.0734057982 0.1579973263 0.3177126433 -0.4597499829 0.3174988062 -0.4601296785 -0.1005462589 0.1528294419
465297210.0 -0.0712303088 0.1587586132 0.3128016026 -0.4631786107 0.3127096699 -0.4634160298 -0.0993469994 0.1536707134
470297180.0 -0.0694027813 0.1598871464 0.3074399141 -0.4670412269 0.3078652128 -0.4665734203 -0.098273261 0.1548648996
475297150.0 -0.0677131844 0.1606040783 0.3017679781 -0.4695948208 0.3024814978 -0.4695013767 -0.0963574898 0.1558163255
480297120.0 -0.0657724621 0.1611539051 0.2970662782 -0.4732706509 0.2973219776 -0.4732750417 -0.0953458957 0.1573415541
485297090.0 -0.063939933 0.1623960293 0.2922021862 -0.4769385159 0.2922732672 -0.4768154801 -0.0938181793 0.1580204649
490297060.0 -0.0622733674 0.1631335158 0.2868758386 -0.4795125319 0.2869751262 -0.4797188287 -0.0920839481 0.1594074433
495297030.0 -0.0608072589 0.1641043745 0.281725334 -0.4827882671 0.2813396963 -0.4829064885 -0.0903863671 0.160104156
500297000.0 -0.0584303506 0.1647175711 0.2758504591 -0.4860445215 0.276651717 -0.4857974574 -0.0894916843 0.1612459449
505296970.0 -0.0568714856 0.1653816622 0.270432172 -0.4881687868 0.2710794502 -0.4887113458 -0.0883486462 0.1626376796
510296940.0 -0.0550358877 0.166437142 0.2654828769 -0.491631983 0.2658338635 -0.4915456076 -0.0860429828 0.1640054151
515296910.0 -0.053426338 0.1673257241 0.2599163148 -0.4942657092 0.2603696428 -0.4943771878 -0.084881222 0.1646883517
520296880.0 -0.051561312 0.1678205055 0.2552235155 -0.4973343366 0.2552784778 -0.4970200658 -0.0829573555 0.1652133523
525296850.0 -0.0493347067 0.1681348131 0.24945673 -0.4995537181 0.249705669 -0.5001047734 -0.0815672444 0.1664139243
530296820.0 -0.0475682026 0.1691758651 0.2443162213 -0.5020528485 0.2439174537 -0.5025504934 -0.080284824 0.1671475179
535296790.0 -0.0457188004 0.1699162423 0.2382729792 -0.504687787 0.2387345989 -0.5050216053 -0.0784943041 0.1680082026
540296760.0 -0.0438361017 0.1698492645 0.2327438797 -0.5079032513 0.2325605325 -0.5077822777 -0.0768756873 0.1692452046
545296730.0 -0.0421774965 0.171160661 0.2275734316 -0.5096959616 0.2275539374 -0.5103619493 -0.0759049088 0.1698762435
550296700.0 -0.0401886475 0.1716187441 0.222107469 -0.5126506734 0.2222441429 -0.5128407245 -0.0739332284 0.1715051151
555296670.0 -0.0378901566 0.1721776641 0.2165912446 -0.5150225611 0.2164450976 -0.514873009 -0.072571794 0.1720632706
560296640.0 -0.0363448649 0.1723312136 0.2108749953 -0.5170467962 0.2110015243 -0.5170111818 -0.0704130716 0.172813989
565296610.0 -0.0346184038 0.1729349922 0.2052925937 -0.5190643555 0.2052433905 -0.5192390884 -0.0693283988 0.1736496024
570296580.0 -0.0322775903 0.173546549 0.1997973379 -0.5212982636 0.2001029669 -0.5218297811 -0.067470992 0.1749667565
575296550.0 -0.0303414595 0.1744600224 0.1940704998 -0.523150072 0.1941030055 -0.5234188734 -0.0655229871 0.1754732117
580296520.0 -0.0284895155 0.1748539556 0.1884329437 -0.5255328217 0.1882273514 -0.5255227168 -0.0642683209 0.1760943903
585296490.0 -0.0262599558 0.1748626486 0.1826764282 -0.5277099134 0.1826831918 -0.5274937792 -0.0627113729 0.1766587253
590296460.0 -0.0249205144 0.1751618918 0.1766627511 -0.529478894 0.176876782 -0.5295064958 -0.0605350545 0.1776278254
595296430.0 -0.0225247125 0.1760327864 0.1711189638 -0.5316168809 0.1710459958 -0.5316188768 -0.05886586 0.1780111908
600296400.0 -0.0207871409 0.176285173 0.1652501216 -0.5329785332 0.1657151044 -0.5329567137 -0.0574428312 0.1794025233
605296370.0 -0.0186054923 0.1770650577 0.1597893663 -0.5350147717 0.1598466135 -0.534755061 -0.0555332967 0.1795253981
610296340.0 -0.016887392 0.1773965958 0.1540523008 -0.5365949156 0.1542338138 -0.5368478729 -0.0540554771 0.1809045171
615296310.0 -0.0147277028 0.1775620892 0.1478248848 -0.5381524405 0.1480437946 -0.5383082391 -0.052230096 0.1811920832
620296280.0 -0.0128356183 0.1775011838 0.1422705985 -0.5393990011 0.1424270461 -0.5398643063 -0.0504190638 0.1814499241
625296250.0 -0.0109175902 0.1780009635 0.1359511815 -0.5413941272 0.1363415925 -0.5414458238 -0.0485501245 0.1827559641
630296220.0 -0.0087868114 0.1783183124 0.1304804779 -0.5425852658 0.1310572215 -0.5428211189 -0.0472341788 0.1830713778
635296190.0 -0.0067832582 0.1785866502 0.1244572104 -0.5433329285 0.1246460806 -0.5433473029 -0.0455881774 0.1836843392
640296160.0 -0.0049363658 0.1785547524 0.118585632 -0.5450839914 0.1188335172 -0.5452014282 -0.0433277306 0.1842673868
645296130.0 -0.0029595098 0.1792177197 0.1124919415 -0.5467927002 0.1128284874 -0.5462662578 -0.0422437849 0.1846077878
650296100.0 -0.0011980549 0.1795192948 0.1073960385 -0.5474471704 0.1071386631 -0.5474959744 -0.0400582331 0.1854443315
655296070.0 0.0010860216 0.1792220222 0.1009451311 -0.5486037147 0.1012111859 -0.5487599895 -0.037725433 0.186018325
660296040.0 0.0027765008 0.1796068383 0.0951551812 -0.5491865394 0.0953474356 -0.5495790948 -0.0364514729 0.1864533722
665296010.0 0.0051754399 0.1795403222 0.0897579647 -0.5504280977 0.0898376527 -0.5506329262 -0.0350120578 0.1871412851
670295980.0 0.0073070355 0.1797415343 0.0832391115 -0.5513454407 0.0838538189 -0.5515359593 -0.0333972899 0.1871658524
675295950.0 0.009219955 0.1798119993 0.0773982975 -0.552295561 0.0778614449 -0.5525520941 -0.0313741771 0.1880135833
680295920.0 0.0110550912 0.1801623544 0.0709857807 -0.5531622877 0.0710974513 -0.5529626222 -0.0292126554 0.1880143911
685295890.0 0.0128624177 0.1799112889 0.0657931754 -0.5537401997 0.0651458722 -0.5540020913 -0.0275873964 0.1888489365
690295860.0 0.0156044189 0.180002702 0.0596875847 -0.5538916451 0.0591940393 -0.5542771079 -0.0257339042 0.1895259874
695295830.0 0.0177741059 0.1798359078 0.0524064037 -0.555084373 0.0532750657 -0.5553951951 -0.0245342577 0.1897533143
700295800.0 0.0194791563 0.179769676 0.0471244038 -0.555353711 0.0472514997 -0.5559051495 -0.0221494847 0.1896301152
705295770.0 0.0216024514 0.1798064538 0.0415511934 -0.5561168391 0.0415767051 -0.5557547023 -0.0205625048 0.1905124207
710295740.0 0.0232884599 0.1798931995 0.0353158262 -0.5561240199 0.0354653948 -0.5561037802 -0.0192207464 0.1909773748
715295710.0 0.0252245899 0.1797012759 0.0292343066 -0.557032332 0.0296998354 -0.5565476873 -0.0172137814 0.1909907462
720295680.0 0.0271919592 0.1793095647 0.0234444014 -0.5564876175 0.0233552015 -0.5573142336 -0.0148266103 0.1912476799
725295650.0 0.0296564621 0.179329816 0.0170415786 -0.5570368565 0.0172285728 -0.5572586082 -0.0130724316 0.1919682537
730295620.0 0.0312013641 0.1791804746 0.0111959134 -0.5570612236 0.0112569136 -0.5570246123 -0.0111587185 0.1914163038
735295590.0 0.0338409416 0.1789325481 0.0056127566 -0.5572465719 0.0057953292 -0.5572158358 -0.0093431298 0.1919850706
740295560.0 0.0354423677 0.1790374228 -0.0007143166 -0.5569617388 -0.0005821672 -0.5569582131 -0.0074080133 0.1921424558
745295530.0 0.0372738882 0.1781850452 -0.0068811904 -0.5568950187 -0.0062177849 -0.5574143249 -0.0058435326 0.1926394452
750295500.0 0.0394282551 0.1781871241 -0.0123909368 -0.5568949444 -0.0126284438 -0.5570305124 -0.0038466898 0.1923517625
755295470.0 0.0418992663 0.1780342422 -0.0182933305 -0.556383798 -0.0181654701 -0.55714678 -0.0024116224 0.193057626
760295440.0 0.0436265875 0.1778326893 -0.024829315 -0.5562289684 -0.0246434834 -0.5565075197 -0.0006319809 0.1930505585
765295410.0 0.0453377748 0.1772040959 -0.0302296593 -0.5558402319 -0.0303519588 -0.556635175 0.0020524665 0.1936790711
770295380.0 0.0474747955 0.1769815243 -0.0365083251 -0.5555846296 -0.0363725362 -0.5562085735 0.0037414622 0.1936391549
775295350.0 0.0494487167 0.1768476663 -0.042709642 -0.5550602546 -0.0422882611 -0.5551188834 0.0050329464 0.1932653569
780295320.0 0.0516682353 0.1760609907 -0.0482377771 -0.5547353744 -0.0483537344 -0.5549510968 0.0073809969 0.1940612889
785295290.0 0.0532408487 0.1761087073 -0.0542035427 -0.5536134192 -0.0542005845 -0.5543736033 0.009042403 0.1937710894
790295260.0 0.0553547862 0.175268994 -0.0602312788 -0.5538690136 -0.060314474 -0.5538343227 0.0112149404 0.1939060838
795295230.0 0.0570073088 0.1750362368 -0.0659691723 -0.5523143672 -0.065663637 -0.5527993744 0.0126879555 0.1945756653
800295200.0 0.0592363742 0.1748514504 -0.0723214558 -0.5522212658 -0.0726708061 -0.5526803476 0.0146889263 0.1940205114
805295170.0 0.0609582987 0.1743277969 -0.0776429048 -0.5509766486 -0.0782605727 -0.5511750304 0.0163647597 0.1938264726
810295140.0 0.0633597113 0.1735921297 -0.0841565014 -0.5502150344 -0.0837748481 -0.5510583849 0.018297199 0.1944364606
815295110.0 0.0651075983 0.1731955905 -0.0901714788 -0.549635451 -0.0899650309 -0.5494392212 0.0198533411 0.1937752837
820295080.0 0.0668950796 0.1720269138 -0.0955115777 -0.5479623604 -0.0956254666 -0.5486716377 0.0217820963 0.1938387221
825295050.0 0.0689330841 0.171449814 -0.1016843062 -0.5468853602 -0.1016897002 -0.5471419104 0.0239939134 0.1937451647
830295020.0 0.0710078238 0.1712515794 -0.1080091168 -0.5458525066 -0.1079337501 -0.5462140737 0.0258884534 0.1938920999
