!Created with skrf (http://scikit-rf.org).
# Hz S RI R 50.0 
!freq ReS11 ImS11 ReS21 ImS21 ReS12 ImS12 ReS22 ImS22
300000.0 -0.2333345026 -0.1120068748 0.465461031 0.0738592396 0.4693620598 0.07624203 -0.2366593551 -0.1170790355
5299970.0 -0.2405388722 0.0070558004 0.4752711799 0.0051634794 0.4750597731 0.0057531512 -0.2445765423 0.0054639874
10299940.0 -0.2372407334 0.0197811655 0.4773698813 0.0063479403 0.4769344546 0.006502853 -0.2416504651 0.0174060526
15299910.0 -0.2329067391 0.0297897031 0.4804115825 0.0075009234 0.4804264755 0.0079204667 -0.2371244749 0.0264929239
20299880.0 -0.2273598148 0.0378031478 0.4853139603 0.0082567078 0.4855724311 0.0081121051 -0.2327648652 0.0340880328
25299850.0 -0.2216324697 0.0442423494 0.4903582895 0.0073535976 0.4905634065 0.0069628127 -0.2275646401 0.0397280482
30299820.0 -0.2158046318 0.049412824 0.4960522756 0.005274584 0.4957826299 0.0047659199 -0.2223877781 0.04484337
35299790.0 -0.2098434098 0.0538644248 0.5010187865 0.0017240898 0.501416431 0.0017177105 -0.2170851626 0.0487658797
40299760.0 -0.2045200615 0.0569194378 0.5061295371 -0.0020310826 0.5061381428 -0.0021528144 -0.2125311304 0.0519169216
45299730.0 -0.1995437012 0.060209137 0.5111833077 -0.0072557286 0.5108439768 -0.0068974108 -0.2079102477 0.0548004081
50299700.0 -0.1945831373 0.0619591012 0.5154331311 -0.0130093092 0.5151218429 -0.0128768334 -0.2037713632 0.0567512455
55299670.0 -0.1905945918 0.0639595284 0.5183885913 -0.0187227362 0.5189595765 -0.0186842844 -0.1997020884 0.0581430092
60299640.0 -0.1863472454 0.0649310477 0.5215541976 -0.0250284698 0.5219438709 -0.0249013134 -0.1961720887 0.0595209574
65299610.0 -0.1829125043 0.0664910023 0.5248616598 -0.0307948399 0.5251698662 -0.0309080611 -0.1928974881 0.0606468245
70299580.0 -0.1796850783 0.0669261865 0.5274135063 -0.0372885629 0.5273729619 -0.0379618603 -0.1899250668 0.0618406891
75299550.0 -0.1763520355 0.0679679282 0.5290409253 -0.0443720764 0.5289238955 -0.0446800161 -0.1869942525 0.0626953916
80299520.0 -0.1742809563 0.0689369708 0.5314884658 -0.0513464757 0.5313666124 -0.0516033268 -0.184564056 0.0630898749
85299490.0 -0.1712973802 0.0694535838 0.5327732009 -0.0587365871 0.5324096474 -0.0585547027 -0.1823817924 0.0639183704
90299460.0 -0.1693200063 0.0702147237 0.5337339046 -0.0651535333 0.5334270001 -0.0655404212 -0.1800053894 0.0642431323
95299430.0 -0.1672155468 0.0711354165 0.5344966369 -0.0722567354 0.5345823201 -0.0721106164 -0.178494168 0.0651323262
100299400.0 -0.1652773471 0.071870436 0.5345510773 -0.0788428587 0.534682559 -0.0793503536 -0.1767892282 0.0655301498
105299370.0 -0.1634550347 0.0722902253 0.534936434 -0.0856888414 0.5350857731 -0.0861635175 -0.1748066647 0.0662066731
110299340.0 -0.16180851 0.0730811886 0.5350440385 -0.0926086161 0.5350373957 -0.0929258699 -0.1735859761 0.0669303036
115299310.0 -0.1603904876 0.0732521881 0.5350213449 -0.0993093065 0.5350203408 -0.099468877 -0.1722083138 0.0669650113
120299280.0 -0.1590970093 0.074599234 0.5348508985 -0.1066267526 0.5349583821 -0.1064646709 -0.1709452503 0.0682713107
125299250.0 -0.15784133 0.0750094909 0.5344877763 -0.1128619799 0.5347800799 -0.1131593732 -0.1698637884 0.0682927635
130299220.0 -0.1563795939 0.0761849159 0.5342268426 -0.1194270352 0.5341484088 -0.119874989 -0.1691311424 0.0694616292
135299190.0 -0.1552088792 0.0765994762 0.5330639866 -0.1258507144 0.5328638827 -0.1262955909 -0.1681435315 0.0700320722
140299160.0 -0.1542754884 0.0781391165 0.53263805 -0.1330218776 0.5323738301 -0.1333025604 -0.1669406708 0.0711145859
145299130.0 -0.1531862224 0.0789089343 0.5317784995 -0.1395639796 0.531658912 -0.1396021378 -0.1662881655 0.0718471708
150299100.0 -0.151899716 0.0798617679 0.530254849 -0.1460626234 0.5306680101 -0.1459836857 -0.165300651 0.0726105039
155299070.0 -0.1513024223 0.0811804123 0.5286555934 -0.1530533549 0.528904348 -0.1529081798 -0.164344578 0.0733384685
160299040.0 -0.1502492055 0.0820681664 0.5275184398 -0.1586899112 0.5279190384 -0.159095975 -0.1635025686 0.0748920397
165299010.0 -0.149650947 0.0831715615 0.5265165281 -0.1656520669 0.5264346518 -0.16559734 -0.1626294536 0.0753004018
170298980.0 -0.1482916867 0.0845313101 0.5241504201 -0.1723144522 0.5243387015 -0.1718942941 -0.1615567372 0.0767155299
175298950.0 -0.1471272595 0.0856289122 0.523719789 -0.1783824534 0.5233985916 -0.1781322158 -0.161216675 0.0775330769
180298920.0 -0.1462226639 0.0866712851 0.5212729538 -0.1846802136 0.521739974 -0.1842173227 -0.1603215978 0.0790964464
185298890.0 -0.1449555265 0.0879694271 0.5191667855 -0.1908504073 0.5196865306 -0.1906166148 -0.1596765459 0.0797859903
190298860.0 -0.1442728411 0.0893313286 0.5174555835 -0.1970001278 0.5176125043 -0.1970094773 -0.1581121368 0.0809193524
195298830.0 -0.14336095 0.0902484863 0.5155419125 -0.2026781693 0.5156692447 -0.2031000958 -0.1579128017 0.0817759422
200298800.0 -0.1425847187 0.0917336469 0.5135465483 -0.2084777383 0.5134345797 -0.208606321 -0.1571328711 0.0830464384
205298770.0 -0.1415317936 0.0931080064 0.5117189553 -0.2145351574 0.5115983153 -0.2149943627 -0.1565754739 0.0838016192
210298740.0 -0.1409129794 0.0943506002 0.5096521198 -0.2212978172 0.5094033393 -0.2211432762 -0.1555865526 0.0856121382
215298710.0 -0.1396932853 0.0957021656 0.5070656469 -0.2267901391 0.5068972907 -0.2269090255 -0.1552342165 0.0866949886
220298680.0 -0.1386646729 0.0970671188 0.5045058564 -0.2332407564 0.504828489 -0.232968773 -0.1540945336 0.0880781054
225298650.0 -0.137592406 0.0985412681 0.5018675143 -0.2382177801 0.5019649216 -0.2381984578 -0.1534702194 0.0890775466
230298620.0 -0.1368645717 0.1000048806 0.4997221667 -0.2444628378 0.4998241547 -0.2445712265 -0.1525556492 0.0904986604
235298590.0 -0.1359939498 0.1010881346 0.4975994868 -0.2499466918 0.4969369762 -0.2503700772 -0.1517196108 0.0913576648
240298560.0 -0.1349369681 0.1023252783 0.4944728622 -0.2551330713 0.4943715224 -0.2553283544 -0.150992004 0.0929227617
245298530.0 -0.1335083678 0.104101927 0.4906999304 -0.2613388732 0.4911407704 -0.2615049412 -0.1500763992 0.0944434885
250298500.0 -0.1329193355 0.1050441651 0.4885179449 -0.2668401788 0.4887445379 -0.2663437271 -0.1488550924 0.0955724013
255298470.0 -0.1319081938 0.1066802773 0.4855500863 -0.2726182406 0.4857484011 -0.2729360477 -0.1481584236 0.0965470538
260298440.0 -0.1303871285 0.1080875053 0.4826300761 -0.2780594184 0.4827067343 -0.2783051285 -0.1469703331 0.0983471398
265298410.0 -0.1293682618 0.1097379461 0.4796465162 -0.2844718554 0.4795906391 -0.2840810801 -0.1464112366 0.0994955027
270298380.0 -0.1281587159 0.1107458162 0.4761454343 -0.2891532493 0.4767254856 -0.2892977013 -0.1452938162 0.1012757442
275298350.0 -0.1274000205 0.1125621521 0.4731498452 -0.2950216738 0.4739403216 -0.2946621085 -0.1441276664 0.102209586
280298320.0 -0.126011918 0.1138016336 0.4700628176 -0.2996702155 0.4702472962 -0.300074906 -0.1432858862 0.1038754579
285298290.0 -0.1250159824 0.1155887009 0.4668869015 -0.3052260937 0.4669602719 -0.3054741063 -0.1426801428 0.1053041367
290298260.0 -0.1237407576 0.116627587 0.4638592843 -0.3104438567 0.4638125892 -0.3108676107 -0.1411491095 0.1067849754
295298230.0 -0.1225544577 0.1179716973 0.4605822312 -0.3158875927 0.4602775892 -0.3160090075 -0.1400072005 0.1078520151
300298200.0 -0.1207570356 0.1194172141 0.4566231907 -0.3208716098 0.4571371707 -0.321243452 -0.1394605195 0.1094818893
305298170.0 -0.1196031787 0.1206263362 0.4534102085 -0.3268135138 0.4537791512 -0.3263929744 -0.1378941122 0.1109976485
310298140.0 -0.118028767 0.121681077 0.449921124 -0.3317251731 0.4501255393 -0.3319177536 -0.1369346769 0.1126400777
315298110.0 -0.1170436505 0.1232437523 0.4461458241 -0.3370666314 0.4464339035 -0.3369436522 -0.1352580843 0.1134383534
320298080.0 -0.115630981 0.1242730898 0.4424511938 -0.3420955078 0.4425660956 -0.3418523734 -0.1349085055 0.1147026087
325298050.0 -0.1147683597 0.1256535821 0.439196258 -0.3473081818 0.4389550808 -0.3476223627 -0.1337474278 0.115807819
330298020.0 -0.1133873959 0.1271696264 0.4340242053 -0.3522774633 0.4344674248 -0.3520392673 -0.1329848401 0.1168068677
335297990.0 -0.1121133427 0.1279933435 0.430352935 -0.3569610826 0.4307938266 -0.357019489 -0.1319733234 0.1183045967
340297960.0 -0.1112799538 0.1298366179 0.4261310253 -0.3620511359 0.4266757315 -0.3614333861 -0.1308071751 0.1199763034
345297930.0 -0.1100996949 0.1311286131 0.4223496513 -0.3659516637 0.4220702705 -0.3659610803 -0.1296308761 0.1211086252
350297900.0 -0.1083356745 0.1324141316 0.4183570972 -0.3704485067 0.418714477 -0.3708718613 -0.1289995673 0.1229278375
355297870.0 -0.1071086077 0.1336652535 0.4139907792 -0.3752006419 0.4142353272 -0.3757216654 -0.1277306294 0.1246360213
360297840.0 -0.1056965526 0.1352249092 0.4100825029 -0.3800427641 0.4095964696 -0.3804101165 -0.1264940878 0.1258973085
365297810.0 -0.1042658793 0.1363070316 0.4057250002 -0.3845127764 0.405655868 -0.3846476438 -0.1254910416 0.1276023624
370297780.0 -0.1023312085 0.1375080641 0.401246951 -0.3889148871 0.4016606826 -0.3892956786 -0.1244464817 0.1289700722
375297750.0 -0.1013278424 0.13927758 0.3976065531 -0.3937367368 0.3972025046 -0.3939471706 -0.1229192815 0.1305276939
380297720.0 -0.0996552045 0.1401302021 0.3927858357 -0.3977559813 0.3929753203 -0.3979060823 -0.1215489825 0.1318341425
385297690.0 -0.0983367597 0.14159493 0.3887123743 -0.4016858843 0.3883397097 -0.4020563188 -0.1206217151 0.1330391771
390297660.0 -0.0965921792 0.1430256901 0.3837599677 -0.4065194534 0.3840402083 -0.4065690069 -0.1193278221 0.1342427498
395297630.0 -0.0947312381 0.1437255437 0.3798409873 -0.4101759875 0.3796128838 -0.4107502598 -0.1181238143 0.136009113
400297600.0 -0.0934265244 0.1453379449 0.374908707 -0.4145938719 0.3752281465 -0.4151143062 -0.1172184985 0.136987166
405297570.0 -0.0914498039 0.1465494516 0.3701895101 -0.4187893366 0.370753849 -0.4187944748 -0.1157619792 0.1386202594
410297540.0 -0.0899508853 0.1474668656 0.365342995 -0.4227399563 0.3654711404 -0.4228131737 -0.1144456391 0.139918193
415297510.0 -0.088530086 0.1488663079 0.3608867375 -0.4263609332 0.3612372674 -0.4268220537 -0.1132071518 0.1415690014
420297480.0 -0.0868287903 0.1494857642 0.356198848 -0.4308827338 0.3563320861 -0.4308164476 -0.1115875219 0.1421782032
425297450.0 -0.0847732242 0.1506443976 0.3514383843 -0.4341640671 0.3516867525 -0.4345320055 -0.110229701 0.1440271197
430297420.0 -0.0835132121 0.1522239228 0.3474275585 -0.4385989683 0.3470357386 -0.438498363 -0.1091462768 0.1450772888
435297390.0 -0.0815723531 0.1529468825 0.3422814037 -0.4419580442 0.3421156728 -0.4421068336 -0.1075834887 0.1466123098
440297360.0 -0.0798412897 0.1541326961 0.3371561135 -0.4456118254 0.3369435412 -0.4457097218 -0.106513417 0.1472116605
445297330.0 -0.0780021793 0.1552559638 0.3319364677 -0.4500600177 0.3320548761 -0.4495640207 -0.105074037 0.1484870415
450297300.0 -0.0762401917 0.1559954616 0.3272523382 -0.4529655396 0.3276368842 -0.4534531102 -0.1037271368 0.1501892723
455297270.0 -0.0746003301 0.1570628857 0.3226092224 -0.4568541543 0.3229635258 -0.4565634963 -0.1019831756 0.1511775809
460297240.0 -0.0732753639 0.1578125808 0.3177759914 -0.4596514385 0.3173159824 -0.4600511052 -0.1007423963 0.1526630256
465297210.0 -0.0708678376 0.1587428379 0.3121809002 -0.4634170589 0.3128497248 -0.4635116059 -0.0996553751 0.1535744987
470297180.0 -0.0695697366 0.1598073851 0.3072980104 -0.4667355691 0.3076565174 -0.4667669795 -0.0983785135 0.1548861746
475297150.0 -0.0676649481 0.1604529223 0.3017247114 -0.4699753948 0.3022408578 -0.4693513329 -0.0963269336 0.1558748935
480297120.0 -0.065783275 0.1614051422 0.2971602767 -0.4733145454 0.2972562154 -0.4736270381 -0.0953699609 0.1573964134
485297090.0 -0.063801287 0.1624367613 0.291767076 -0.4767055083 0.2921795467 -0.4765116258 -0.0938700221 0.1578094305
490297060.0 -0.0621516481 0.1631068589 0.2866184849 -0.4798656105 0.2868764482 -0.4799030378 -0.0922452671 0.1594770042
495297030.0 -0.0605006844 0.1641567536 0.2812236988 -0.4827181635 0.2811311023 -0.4825335466 -0.0906556566 0.160136754
500297000.0 -0.0584725545 0.1648215086 0.276131766 -0.486205739 0.2761295425 -0.4859826784 -0.0895967793 0.1614399277
505296970.0 -0.0568386815 0.1653236264 0.2702922079 -0.4882578132 0.2705495806 -0.4884630337 -0.0880356739 0.1625336944
510296940.0 -0.0551060353 0.166416665 0.2655246177 -0.4916888328 0.265305742 -0.4914558863 -0.0861671141 0.1634370242
515296910.0 -0.053286104 0.16739736 0.2601802223 -0.4945289429 0.2601467292 -0.4942372452 -0.0848507223 0.1646442124
520296880.0 -0.0513258967 0.1677114022 0.2545373385 -0.497348291 0.2550310341 -0.497009086 -0.0829618442 0.1652260863
525296850.0 -0.0494683166 0.1683140159 0.2490061572 -0.4999379781 0.2495769374 -0.5000016472 -0.081324868 0.1663297693
530296820.0 -0.0475867686 0.1688798756 0.2439787678 -0.5018772282 0.2438668226 -0.5021881686 -0.0802572882 0.1667684371
535296790.0 -0.04571976 0.169668508 0.2381173553 -0.5045988102 0.2386518215 -0.5047912146 -0.0786474645 0.1679656951
540296760.0 -0.0437137498 0.1700261085 0.2329777047 -0.507848994 0.232437916 -0.5076057311 -0.0773803019 0.1691986524
545296730.0 -0.0419963006 0.1711926583 0.2275469754 -0.5098988565 0.2274891683 -0.5103087172 -0.0754985617 0.1699309424
550296700.0 -0.0401420822 0.1715127462 0.2214359046 -0.5121621922 0.2220921125 -0.5124716511 -0.073869987 0.1711602845
555296670.0 -0.0376877156 0.1721479934 0.2161799532 -0.5148379855 0.21652863 -0.5144804653 -0.0725172519 0.1719460894
560296640.0 -0.035948346 0.1726180925 0.2108655647 -0.5172948066 0.2107396644 -0.5166701302 -0.0704847351 0.1728198366
565296610.0 -0.0346996109 0.1729692046 0.2051356089 -0.5189425684 0.2047548498 -0.5192454554 -0.069035301 0.1735680871
570296580.0 -0.0321668978 0.17366315 0.1993697096 -0.5209319326 0.1998402029 -0.5216100608 -0.0672349913 0.1750510452
575296550.0 -0.0303985966 0.1745274529 0.1938386225 -0.5233438034 0.1942952927 -0.5234413809 -0.0655221981 0.1750523108
580296520.0 -0.0285727751 0.1745842802 0.1883845762 -0.5254422284 0.1879828191 -0.5255661784 -0.0641039856 0.1758866996
585296490.0 -0.0263081623 0.1747858881 0.1829452266 -0.5275031199 0.1823587752 -0.5272280857 -0.0626830926 0.1763331828
590296460.0 -0.0249145314 0.1752194021 0.1766814767 -0.5294218962 0.1765628525 -0.5296868941 -0.0604984394 0.1776230029
595296430.0 -0.022687898 0.1759960246 0.1711507536 -0.531355129 0.1710574523 -0.5314136559 -0.0590186841 0.1780305882
600296400.0 -0.0207987369 0.1762161961 0.1653263891 -0.5332603542 0.1655043489 -0.533177996 -0.0573859621 0.1791049387
605296370.0 -0.0185991334 0.176927672 0.1595409499 -0.5348069767 0.1595981533 -0.5343902167 -0.0557446452 0.1797215921
610296340.0 -0.0169531048 0.1769898707 0.1544950135 -0.5362184069 0.154063094 -0.5367557053 -0.0537998803 0.1808743052
615296310.0 -0.0147834215 0.1775687481 0.1477641579 -0.5379710158 0.1479690514 -0.537756927 -0.0522915598 0.1810089213
620296280.0 -0.0128900356 0.1776368486 0.1422827798 -0.5395985967 0.1420883637 -0.5399053561 -0.0505679926 0.1814443861
625296250.0 -0.010763479 0.1778293715 0.1358552824 -0.5412379999 0.1359342051 -0.541268729 -0.0485608893 0.1823939508
630296220.0 -0.0085763139 0.1781511537 0.1305848979 -0.5425042319 0.1308873279 -0.5424199024 -0.0472842873 0.1832606485
635296190.0 -0.0068086074 0.1785039119 0.1246582417 -0.5436380351 0.1245354529 -0.5433111536 -0.0452854832 0.1835001704
640296160.0 -0.0047949581 0.1787872074 0.1186786749 -0.5451395538 0.1187723167 -0.5451168598 -0.0431724468 0.1841507287
645296130.0 -0.0027590036 0.1791828599 0.1126441275 -0.5462832235 0.1129438988 -0.5462333594 -0.0423619359 0.1847050409
650296100.0 -0.0007252136 0.1794129444 0.1074852894 -0.5471976123 0.1071885115 -0.5473435083 -0.0400385565 0.1851807352
655296070.0 0.0009587211 0.179213325 0.1013518783 -0.5485581329 0.1008720889 -0.5484271695 -0.0378184145 0.1859250058
660296040.0 0.002780619 0.1795839042 0.0950385833 -0.5494050923 0.0952250622 -0.5493350865 -0.0365666217 0.1859552424
665296010.0 0.0050824317 0.1795125535 0.0895652938 -0.5504764419 0.0895296354 -0.550821793 -0.035095452 0.1872518021
670295980.0 0.0072428896 0.1798340525 0.0834675632 -0.5515564708 0.0836958786 -0.5512336085 -0.0334924094 0.1871620678
675295950.0 0.0092992619 0.1797541961 0.0770676279 -0.5522302523 0.0777051421 -0.552285358 -0.0312184343 0.1879094574
680295920.0 0.011108258 0.1800973733 0.071027344 -0.5531725097 0.0713751553 -0.5530125171 -0.0293760993 0.1882104797
685295890.0 0.0130298292 0.1801395176 0.0654900849 -0.5532445169 0.0652315666 -0.5536513354 -0.0277582952 0.1886553094
690295860.0 0.0154809611 0.179958812 0.0591149352 -0.5536313504 0.0589377855 -0.5541938847 -0.0254631692 0.1894928591
695295830.0 0.0176216357 0.1797572562 0.0525725028 -0.5550765232 0.0530587424 -0.5551876716 -0.0242590611 0.1896984966
700295800.0 0.0196511517 0.1798387115 0.0471664264 -0.5555720513 0.0471906707 -0.5553402583 -0.0222867768 0.1896318117
705295770.0 0.0215368195 0.1799569168 0.0408022816 -0.5558346216 0.0413840815 -0.5558350828 -0.020754636 0.1903344464
710295740.0 0.0234460987 0.179932663 0.0353848859 -0.5560790746 0.03528606 -0.5562177028 -0.0195441872 0.1908155438
715295710.0 0.0254089196 0.1797332629 0.0293791612 -0.5563334492 0.029711458 -0.5565286213 -0.0169246601 0.1907009996
720295680.0 0.0272941758 0.179310269 0.0231448239 -0.5561295363 0.0233436182 -0.5571182688 -0.0145321662 0.1913984252
725295650.0 0.0294146873 0.1792399018 0.0169806244 -0.5567779399 0.017005935 -0.5568135773 -0.0131272149 0.191722932
730295620.0 0.0312025466 0.1791104757 0.011227975 -0.5571476827 0.0112490986 -0.5570722191 -0.0110855078 0.1914179229
735295590.0 0.0337839265 0.1788962107 0.0055084724 -0.5570089621 0.0054290554 -0.5572804944 -0.0095895836 0.1924154229
740295560.0 0.0353127733 0.1790125497 -0.000727587 -0.5569710499 -0.0006365729 -0.5569038877 -0.0074611508 0.1923669578
745295530.0 0.0374700347 0.178272333 -0.0064981425 -0.5566644724 -0.0066572668 -0.557330136 -0.005855196 0.1926950613
750295500.0 0.039545227 0.1781395075 -0.0124714088 -0.5564593618 -0.0125318741 -0.556512591 -0.0037782909 0.1923009635
755295470.0 0.0419285194 0.1781657238 -0.0188748765 -0.556769204 -0.0184281503 -0.5566486599 -0.0025774162 0.1930677209
760295440.0 0.0435036512 0.1775627308 -0.0250399362 -0.5561629796 -0.0248577543 -0.5566291374 -0.0006517047 0.1931888296
765295410.0 0.0455594572 0.1770131163 -0.0302418213 -0.5557787379 -0.0305296627 -0.556047835 0.0021052422 0.1933698953
770295380.0 0.047852318 0.1768332163 -0.0368367999 -0.5548181437 -0.0364279149 -0.555939368 0.0036969265 0.1935496697
775295350.0 0.0494373964 0.1767451743 -0.0426067445 -0.5547933525 -0.0421231894 -0.5551293386 0.0050039262 0.1932643496
780295320.0 0.0517476669 0.1760927514 -0.04820329 -0.5548710319 -0.0480133001 -0.5549457173 0.0068668425 0.1936879893
785295290.0 0.0533404352 0.1759435995 -0.0543462867 -0.5535731355 -0.0545813949 -0.5541605495 0.0086396704 0.1935050252
790295260.0 0.0553535791 0.1755427562 -0.0607839758 -0.5536936815 -0.0604596611 -0.5537282838 0.0110761922 0.1936242764
795295230.0 0.057299406 0.1749052906 -0.0660720754 -0.5524846788 -0.066080368 -0.552900304 0.0126288841 0.1940659236
800295200.0 0.0595354301 0.1746107806 -0.0727167868 -0.5521683389 -0.0725645301 -0.5523144272 0.0145345568 0.1938934142
805295170.0 0.0609213905 0.173845959 -0.0776734605 -0.5506454929 -0.0783750473 -0.551290519 0.0158846376 0.1937006602
810295140.0 0.0631894576 0.1735479919 -0.0839038048 -0.5500359081 -0.0839932689 -0.5509523485 0.0182142723 0.1939768825
815295110.0 0.0651999673 0.1729695573 -0.0901912043 -0.5490354613 -0.0902276046 -0.549372644 0.0199381073 0.1934054308
820295080.0 0.0671365631 0.1721202027 -0.0956116187 -0.5483628161 -0.0958765569 -0.5485510312 0.0219352191 0.1937516338
825295050.0 0.0691038384 0.1716919747 -0.1019915086 -0.5465111656 -0.1016867245 -0.5471196242 0.0237327522 0.1935997172
830295020.0 0.0709490902 0.171347381 -0.1078727812 -0.5458767235 -0.1081951591 -0.5461400908 0.025519722 0.193351387
