!Created with skrf (http://scikit-rf.org).
# Hz S RI R 50.0 
!freq ReS11 ImS11 ReS21 ImS21 ReS12 ImS12 ReS22 ImS22
300000.0 -0.2421229133 -0.0900538437 0.4731690529 0.0610592704 0.4713290643 0.0563257064 -0.2394540594 -0.0990268517
5299970.0 -0.2447873185 0.0064842974 0.4749652781 0.0054401667 0.4748055811 0.0048799073 -0.2408969906 0.007765644
10299940.0 -0.241633084 0.0179020426 0.4765427143 0.0060681902 0.4766382092 0.00615547 -0.2375290211 0.0205314745
15299910.0 -0.2375443218 0.0269661437 0.4804665761 0.0072924212 0.4805953042 0.0075536876 -0.2331517734 0.0300136406
20299880.0 -0.2329333288 0.0340192041 0.485147074 0.008186827 0.4851917033 0.0078671672 -0.2278219082 0.0381688313
25299850.0 -0.2277038359 0.0403910472 0.490210033 0.0069737683 0.4900419886 0.0070896104 -0.2218432295 0.0445042283
30299820.0 -0.2223929882 0.0450946496 0.4955746102 0.0048365994 0.4953805909 0.0048328577 -0.2159212941 0.0499808354
35299790.0 -0.2172259789 0.0490671888 0.5005924285 0.0015086497 0.500978852 0.0010815325 -0.2104893566 0.0547559054
40299760.0 -0.2128203682 0.0523633391 0.505855718 -0.0024446539 0.5059039405 -0.0022606864 -0.2052278359 0.0573126865
45299730.0 -0.2076858348 0.0548101819 0.5103183314 -0.0072259284 0.5103693634 -0.00718237 -0.2003390987 0.0604730003
50299700.0 -0.2038652776 0.0569085696 0.5151426964 -0.0128902453 0.5147869922 -0.0123212014 -0.1955218649 0.0624213265
55299670.0 -0.1998034661 0.0586004432 0.5185987454 -0.0189976192 0.5186140499 -0.0184906634 -0.191647031 0.0643712051
60299640.0 -0.1960841202 0.0600742995 0.5219202294 -0.0251489995 0.5219458348 -0.0246681619 -0.1873902187 0.0653492665
65299610.0 -0.1929111931 0.0609019428 0.5246885108 -0.0312049756 0.524828164 -0.0309040846 -0.1841390981 0.0667400324
70299580.0 -0.1899738181 0.062150207 0.5274429619 -0.0380012451 0.5271998924 -0.0374202933 -0.1806221766 0.0674140247
75299550.0 -0.1867182113 0.0631122198 0.5285164506 -0.0448602403 0.5288551418 -0.0447993178 -0.1780679286 0.068416177
80299520.0 -0.1847203508 0.0636535358 0.530982686 -0.0516337061 0.5312321724 -0.051725568 -0.1753365321 0.0692938399
85299490.0 -0.1824057381 0.0642948599 0.5317624302 -0.0584382907 0.5324423399 -0.0581964485 -0.1730609027 0.0694977157
90299460.0 -0.1804088963 0.064860441 0.5330852118 -0.0654868615 0.5334262017 -0.0655061667 -0.170312767 0.070268449
95299430.0 -0.1780749965 0.0654237473 0.5341015498 -0.072030453 0.5340564667 -0.0723595641 -0.1682601104 0.0713033071
100299400.0 -0.1764805003 0.066347364 0.5337820723 -0.0790428961 0.5340637331 -0.0794187306 -0.1658557976 0.0715739739
105299370.0 -0.1748793108 0.066881989 0.5346253869 -0.08659161 0.534656067 -0.0860992459 -0.1638135052 0.0724160489
110299340.0 -0.1734203253 0.0676524489 0.5347066237 -0.0926884328 0.5346767449 -0.092513583 -0.1629224409 0.0728377935
115299310.0 -0.1719301788 0.0681736214 0.5349832919 -0.099630778 0.5343576009 -0.0993437621 -0.1609724927 0.0737080003
120299280.0 -0.1706321368 0.0683068826 0.5344908755 -0.1064333255 0.5345606922 -0.1065527414 -0.1597112561 0.0744264087
125299250.0 -0.1694551048 0.0692333035 0.534027436 -0.113114204 0.5342836534 -0.1129805441 -0.1584718941 0.0748927951
130299220.0 -0.1686178619 0.070179918 0.533171626 -0.1201156962 0.5332352135 -0.1196072094 -0.1569554511 0.0755146476
135299190.0 -0.1674076819 0.0712775092 0.5330165979 -0.1264244886 0.53264732 -0.126207272 -0.1555190661 0.0769734909
140299160.0 -0.1669132142 0.0718420804 0.532056842 -0.133445101 0.532366703 -0.1330828751 -0.1545122247 0.0778958943
145299130.0 -0.1653828964 0.0727837232 0.5313960047 -0.1396929586 0.5308590926 -0.1393808189 -0.1534474082 0.0786503651
150299100.0 -0.1643884656 0.0736751738 0.5296838202 -0.1459028385 0.5297911478 -0.1457396959 -0.1522071145 0.0802135913
155299070.0 -0.1641126065 0.0746636683 0.529055447 -0.1533489133 0.5286242774 -0.1529405962 -0.1510263841 0.0812850267
160299040.0 -0.1628372576 0.0759314318 0.5273148971 -0.1591790274 0.5270861648 -0.1594533296 -0.1506577739 0.0821144199
165299010.0 -0.1622484156 0.0770689667 0.5258714796 -0.166039506 0.5260684097 -0.1657730779 -0.1494148044 0.0835842044
170298980.0 -0.1614787027 0.0777049231 0.5243237598 -0.1717723373 0.5244187465 -0.1717809701 -0.1481560806 0.0846611514
175298950.0 -0.1607514554 0.0790030595 0.5231919767 -0.1779868011 0.5226133326 -0.1779131394 -0.1474492578 0.085979773
180298920.0 -0.1600635663 0.0801244348 0.5209915811 -0.1842993804 0.5209954486 -0.1840707166 -0.146459904 0.0874852896
185298890.0 -0.1586605701 0.0808150571 0.5190599452 -0.1903734192 0.5188692057 -0.1905737864 -0.1457780359 0.0885968187
190298860.0 -0.1584217562 0.0821446502 0.517379816 -0.1965967951 0.517164713 -0.196911242 -0.1448205123 0.0896749706
195298830.0 -0.1577913328 0.0834301283 0.5152337057 -0.2029847785 0.5154373854 -0.2029131281 -0.1434056978 0.091138948
200298800.0 -0.1568831454 0.0847640683 0.5132723738 -0.2091802153 0.5129575669 -0.2089917077 -0.142824899 0.092331371
205298770.0 -0.1560577519 0.0857173575 0.5106684554 -0.2152372486 0.511139809 -0.2151003347 -0.1420070082 0.0933887222
210298740.0 -0.1555395795 0.0870089958 0.5087425351 -0.2207760407 0.5085758724 -0.2206209629 -0.1410544193 0.0951745688
215298710.0 -0.1550466568 0.0883776894 0.5062995261 -0.2271828593 0.5065225279 -0.2271717677 -0.1401641051 0.0965908248
220298680.0 -0.1540566031 0.0892103776 0.5036018256 -0.232490844 0.5037167656 -0.2327601705 -0.1396711172 0.0974307111
225298650.0 -0.1533660768 0.0909685557 0.5014125209 -0.238974389 0.5014924212 -0.2387607235 -0.1391032482 0.0986042093
230298620.0 -0.1524855017 0.0921196995 0.4991161637 -0.244523304 0.4995020959 -0.2443823715 -0.1379907812 0.1001578
235298590.0 -0.1516712689 0.0938055812 0.4961025058 -0.2501698561 0.4964548059 -0.2498012629 -0.1368547074 0.1014418195
240298560.0 -0.1510038927 0.0949684132 0.4935750503 -0.2557803943 0.4935917199 -0.2561307331 -0.1360205911 0.1032947977
245298530.0 -0.1504525473 0.0963027579 0.4911775371 -0.261916192 0.4906072028 -0.2616693178 -0.1345537151 0.1038796247
250298500.0 -0.149339851 0.0975671743 0.4876077553 -0.2675240841 0.4874532025 -0.2672248742 -0.1341205408 0.1054790014
255298470.0 -0.1487442694 0.0985495288 0.4847814707 -0.2724963932 0.4850031183 -0.2725281913 -0.1327469848 0.1070098416
260298440.0 -0.1480214509 0.0998367125 0.4818735331 -0.2786088746 0.4820627512 -0.2781020888 -0.1316480451 0.1083760692
265298410.0 -0.1467022332 0.1017383397 0.4787776465 -0.2841617494 0.4792000737 -0.2838171224 -0.1307602474 0.1098057173
270298380.0 -0.1458155428 0.1028015443 0.4761354356 -0.2893341033 0.4759202222 -0.2889350788 -0.1293416829 0.1111038489
275298350.0 -0.1449704123 0.1040530211 0.4729953083 -0.2950351385 0.4731410315 -0.2946105343 -0.1283959865 0.1123394252
280298320.0 -0.1439703284 0.1058558718 0.4700152274 -0.3002406324 0.4697587632 -0.3001604167 -0.1271713724 0.1135720538
285298290.0 -0.1431275786 0.1070745128 0.4665308174 -0.3051378161 0.4662951673 -0.3054321344 -0.1256300005 0.1150854603
290298260.0 -0.1417082667 0.1083974662 0.4629146817 -0.3102417842 0.463157357 -0.3108229162 -0.1244304053 0.1164167171
295298230.0 -0.1408450538 0.1094816422 0.4598476952 -0.3158936401 0.4596664975 -0.3157623074 -0.1226531784 0.1176174234
300298200.0 -0.1401676234 0.1110645231 0.4564063596 -0.3210145386 0.4566372126 -0.3215662698 -0.1218329036 0.1191357518
305298170.0 -0.1389332182 0.112198099 0.4526746199 -0.3269095806 0.4525821099 -0.3261932967 -0.1200099194 0.1202529667
310298140.0 -0.1382997622 0.1136328643 0.4492618437 -0.3315081751 0.4494456367 -0.3315150539 -0.1189823703 0.1214980526
315298110.0 -0.1370862724 0.1146278523 0.4457739067 -0.3366460953 0.4457770383 -0.3367024398 -0.1178845046 0.1228888567
320298080.0 -0.1359244456 0.1159896357 0.4414299897 -0.3422193134 0.4417537864 -0.3417010416 -0.1163766022 0.1241919856
325298050.0 -0.1350564598 0.1171657373 0.4380531374 -0.3469160738 0.4380908825 -0.3466823177 -0.1152766558 0.1254001168
330298020.0 -0.134071391 0.1182126845 0.4340323346 -0.3522634097 0.4342910402 -0.3518356175 -0.1139531107 0.1266869015
335297990.0 -0.1329732477 0.1193250018 0.4303321749 -0.3568661731 0.4298236403 -0.356537562 -0.1135150507 0.1282223799
340297960.0 -0.1325637818 0.1208977023 0.425487551 -0.3613074358 0.4253304425 -0.3616532744 -0.1116469825 0.1297458588
345297930.0 -0.131315413 0.1226799937 0.4215528618 -0.3664554094 0.4215094912 -0.3662525239 -0.1104169012 0.1306602553
350297900.0 -0.1304480067 0.1236364335 0.4168584424 -0.3710576604 0.4177315017 -0.3709690779 -0.1096606784 0.132813787
355297870.0 -0.1292661295 0.1255469414 0.413287168 -0.3756719459 0.4138624822 -0.3752002076 -0.1080993277 0.1335340217
360297840.0 -0.1280813627 0.1268184525 0.4098203259 -0.3798895112 0.4099502401 -0.3795845894 -0.1067160351 0.1354868063
365297810.0 -0.1272088314 0.1283382608 0.4048094134 -0.3847510523 0.405679799 -0.3845596314 -0.1051353828 0.1368672792
370297780.0 -0.1258849036 0.1295088125 0.4004703963 -0.3887672155 0.4012402009 -0.38849532 -0.1036545183 0.1380288855
375297750.0 -0.1243915962 0.130654263 0.3964463118 -0.3930820468 0.3969042634 -0.3930440623 -0.1023371164 0.1392525214
380297720.0 -0.1235124243 0.1319630225 0.3919903383 -0.397696096 0.3924997236 -0.3972903371 -0.101273057 0.1405910659
385297690.0 -0.1225203236 0.1333184431 0.3876139953 -0.4016905972 0.3874319295 -0.4020172253 -0.0994352587 0.1421744655
390297660.0 -0.1213352162 0.1349979032 0.383631203 -0.40623405 0.3833322062 -0.4057062053 -0.0981081559 0.1429947102
395297630.0 -0.1200503507 0.1363157159 0.37904505 -0.4106823244 0.3789913366 -0.4104302017 -0.0963347666 0.1445476014
400297600.0 -0.1186575478 0.1376442723 0.37371262 -0.4150032069 0.3744252244 -0.4143848566 -0.0952281747 0.1456456089
405297570.0 -0.1176908158 0.1387746743 0.3701820025 -0.418365431 0.3699877878 -0.4182229688 -0.0937838957 0.1468087314
410297540.0 -0.1159325441 0.139915828 0.3651980232 -0.4228962807 0.3656395936 -0.4226827393 -0.0923018206 0.1484358067
415297510.0 -0.1145111651 0.1410095078 0.3605931956 -0.4266845095 0.3606175664 -0.4266264911 -0.0904356821 0.1494983132
420297480.0 -0.1135283909 0.1426849265 0.355507277 -0.4303338076 0.355788205 -0.430568802 -0.0890446133 0.1502523296
425297450.0 -0.1122566605 0.1435059452 0.3516834617 -0.4343676711 0.3515135012 -0.4343469629 -0.0877177917 0.1517247167
430297420.0 -0.1109313453 0.144903595 0.3462566315 -0.4375223354 0.3463155121 -0.4380143614 -0.0860973698 0.1523570163
435297390.0 -0.1096863933 0.1462396616 0.341343293 -0.4419325105 0.3412457297 -0.4420934669 -0.0838805167 0.1532999493
440297360.0 -0.107807142 0.1474578061 0.3362646992 -0.4454589798 0.336484566 -0.4456931403 -0.082759508 0.1542318351
445297330.0 -0.1066086476 0.1481751191 0.3322082439 -0.4492592663 0.3322191704 -0.448752742 -0.0807050162 0.1551072875
450297300.0 -0.1051002125 0.1491437157 0.3269568691 -0.4526813274 0.3269287955 -0.4531562577 -0.0788786759 0.1561177389
455297270.0 -0.103773353 0.1507017269 0.3215344973 -0.4563170185 0.3222411325 -0.4562210692 -0.0773179888 0.1572696595
460297240.0 -0.1024123322 0.1518144114 0.3166728823 -0.4595454181 0.3170714422 -0.4598993502 -0.0753792623 0.1584239696
465297210.0 -0.1005249256 0.1526499779 0.3119011873 -0.4627832412 0.3119721846 -0.4636714803 -0.0734293904 0.1590339992
470297180.0 -0.0993577053 0.1540017551 0.3062847594 -0.4665358816 0.3068776545 -0.4665953856 -0.0718832449 0.1602651996
475297150.0 -0.0976891535 0.1548822399 0.3012399777 -0.4695213402 0.3018180402 -0.4694203999 -0.0697557479 0.1608649197
480297120.0 -0.0962962821 0.1565620963 0.2963859252 -0.4729251288 0.2960618874 -0.4735379459 -0.0679571426 0.1619543249
485297090.0 -0.0949758725 0.1573712831 0.2915543561 -0.4761817341 0.2914244275 -0.4758345355 -0.0663890699 0.1627950464
490297060.0 -0.093861691 0.1582817311 0.2863264965 -0.4793097798 0.2863902824 -0.4791611773 -0.0643521517 0.1640350506
495297030.0 -0.0921297086 0.1594473167 0.2810803278 -0.4822078793 0.2812475911 -0.4824804955 -0.062552985 0.1645713187
500297000.0 -0.0904315314 0.1603418382 0.2752395879 -0.4851352214 0.2753434647 -0.4848700601 -0.0607296149 0.1660136126
505296970.0 -0.0885982943 0.1611914545 0.2701513992 -0.4884208286 0.2699608956 -0.4884451557 -0.05922595 0.1664264109
510296940.0 -0.0874461128 0.1623994227 0.2651095934 -0.4914274967 0.2648064344 -0.4913487238 -0.0572512417 0.1673711258
515296910.0 -0.0858170622 0.1633831174 0.259563045 -0.494348802 0.2593014211 -0.4938395434 -0.0552853783 0.1681695476
520296880.0 -0.0841520703 0.1643486697 0.2542518712 -0.4972236885 0.2540550324 -0.4965606697 -0.0534044439 0.1686470223
525296850.0 -0.0824130292 0.1645672221 0.2482817343 -0.499538299 0.2489506351 -0.4993523554 -0.0518294381 0.1700090286
530296820.0 -0.0808781003 0.1662634229 0.2431536705 -0.5025473574 0.2435360327 -0.502318913 -0.0497254688 0.1709434318
535296790.0 -0.0796842388 0.1670686511 0.2382303417 -0.5045538357 0.2379903898 -0.5043995433 -0.048175135 0.1711613544
540296760.0 -0.0781955647 0.1680550154 0.2324865547 -0.5075380936 0.2323795704 -0.5074244181 -0.0465002257 0.172438345
545296730.0 -0.0763583673 0.168928145 0.2266679915 -0.5102150378 0.2267976188 -0.5096631629 -0.0445295904 0.1724758628
550296700.0 -0.0745569279 0.1700247635 0.22138374 -0.5124099491 0.2215132661 -0.5124453808 -0.0424042456 0.1735081521
555296670.0 -0.0728441506 0.1706164241 0.2159646146 -0.5147051999 0.216098161 -0.5146502531 -0.0404846316 0.1744275886
560296640.0 -0.0709416229 0.1717374965 0.2100280402 -0.5167984257 0.2104797879 -0.5166348597 -0.0386331872 0.1743631135
565296610.0 -0.069830818 0.1722879654 0.2044636352 -0.5188653335 0.2046569388 -0.5192139613 -0.0368779712 0.1751525644
570296580.0 -0.0678850443 0.1731051929 0.198969758 -0.5215277879 0.1984846637 -0.5214672127 -0.0350955829 0.1762059614
575296550.0 -0.0665444908 0.1744689337 0.1930091129 -0.5238346125 0.192753778 -0.5234340789 -0.0331140059 0.1762262691
580296520.0 -0.0643868424 0.1747038733 0.1871023696 -0.5257185098 0.1876112314 -0.5257339188 -0.0311104311 0.1769945893
585296490.0 -0.0632882801 0.1751913217 0.1822303721 -0.5273344663 0.1819217742 -0.5275972217 -0.0291615962 0.1775010744
590296460.0 -0.0610100267 0.17637098 0.1762674516 -0.5290677209 0.1758972017 -0.5292353661 -0.0276083962 0.1779388428
595296430.0 -0.0594161403 0.1770179946 0.1699281508 -0.5313428213 0.1699969558 -0.5313408047 -0.025217044 0.1781652141
600296400.0 -0.0580758024 0.1776995048 0.1643354391 -0.5330673223 0.1646545499 -0.5328486671 -0.0236237003 0.1784660204
605296370.0 -0.0564319674 0.1784664608 0.1587942428 -0.5343023961 0.1589182372 -0.5346179766 -0.0212076348 0.1789374308
610296340.0 -0.0542960459 0.1791183093 0.1524837536 -0.5359805276 0.1532253026 -0.5360581447 -0.0191165047 0.1790744629
615296310.0 -0.0526077869 0.1795193808 0.147010667 -0.537643877 0.1468040322 -0.5383008525 -0.0171112973 0.179339313
620296280.0 -0.0505465162 0.180156647 0.1411773484 -0.5390704281 0.1411905329 -0.5390812235 -0.0154645228 0.1797652113
625296250.0 -0.0494045715 0.1804767574 0.1357298925 -0.5411953622 0.1354891336 -0.541252863 -0.0124179148 0.1797565462
630296220.0 -0.0469304517 0.1812712513 0.1286532481 -0.5426061556 0.1289277431 -0.5422223713 -0.0111431478 0.1803603913
635296190.0 -0.0459621501 0.1817774086 0.1236783954 -0.5431058177 0.1235954452 -0.5434476438 -0.0090792791 0.1807168954
640296160.0 -0.043767656 0.1826220881 0.1174282907 -0.5447400136 0.117647619 -0.5446898971 -0.0071465452 0.1807227101
645296130.0 -0.0422502574 0.1833408189 0.1118119309 -0.5461014041 0.1123123105 -0.545894494 -0.0045524562 0.1811222487
650296100.0 -0.0403624642 0.1836428333 0.1059267903 -0.5471725179 0.106056197 -0.5468902344 -0.0025047335 0.1806737906
655296070.0 -0.0388475947 0.1840007856 0.1001446856 -0.5483590072 0.1005560081 -0.5483507054 -0.0007159681 0.1815036853
660296040.0 -0.0374166803 0.1844383062 0.0944058923 -0.5491512075 0.094172863 -0.5492292353 0.0017821102 0.1815494157
665296010.0 -0.0349775781 0.1848537691 0.0878285626 -0.5498000924 0.0883163744 -0.5503838368 0.0038666227 0.1822218477
670295980.0 -0.0337998177 0.1856832283 0.0820366355 -0.551127809 0.0822994919 -0.5510596181 0.005348381 0.1821734861
675295950.0 -0.0320966305 0.1859683526 0.0765260787 -0.5515845731 0.0763987208 -0.5513985773 0.0074187373 0.1821929464
680295920.0 -0.030035291 0.1864304136 0.0702561089 -0.5521425241 0.0700498654 -0.5528429473 0.0095778778 0.1829424214
685295890.0 -0.0281775578 0.1874030632 0.06438177 -0.553194035 0.0644397548 -0.5534227526 0.0116650504 0.1825901812
690295860.0 -0.0260814286 0.1874379214 0.0584909625 -0.5534354511 0.0585997175 -0.5542366254 0.0130964022 0.183144301
695295830.0 -0.024542093 0.1879152199 0.0526771466 -0.5543480683 0.0522414176 -0.5544493943 0.0155522436 0.1830810683
700295800.0 -0.0223242024 0.1878356732 0.0464249845 -0.5547444292 0.045915118 -0.5548012116 0.0173886311 0.1830807393
705295770.0 -0.0205949443 0.188865576 0.0400558214 -0.5552610347 0.0406536657 -0.555593509 0.0191269562 0.1831430962
710295740.0 -0.0188509546 0.1888709687 0.0344987822 -0.5562596481 0.0348120378 -0.5559299163 0.0215006047 0.1824943558
715295710.0 -0.0174171682 0.1890291621 0.0289907048 -0.5557268756 0.028251174 -0.5559657796 0.0236112652 0.1825114485
720295680.0 -0.0150437944 0.1896076764 0.0227588551 -0.5567737502 0.0226170616 -0.5564002617 0.0254682504 0.183073427
725295650.0 -0.0132420405 0.1898041978 0.0162491937 -0.5563251931 0.0162402438 -0.5570387407 0.0271784861 0.1831665937
730295620.0 -0.0114142556 0.1903526469 0.0102071944 -0.5564628786 0.0107370221 -0.5568136513 0.029394827 0.1824152503
735295590.0 -0.0096647343 0.1903827337 0.0044928105 -0.5569337878 0.004185506 -0.5571994248 0.0311034134 0.1823697251
740295560.0 -0.0079658035 0.1909378285 -0.0017203099 -0.5565434874 -0.0015479821 -0.5571591835 0.0334304916 0.1826644618
745295530.0 -0.0061490473 0.1909224062 -0.007365535 -0.5561463879 -0.0074930666 -0.5568799519 0.0350630702 0.1818755042
750295500.0 -0.0042228721 0.1912042575 -0.0135026419 -0.5562779206 -0.01341389 -0.5564866979 0.0374162902 0.1815741502
755295470.0 -0.0020842686 0.1912442268 -0.0192463043 -0.556197229 -0.019355235 -0.5562025324 0.0396341488 0.1807503758
760295440.0 -0.0003662034 0.1914972101 -0.0255074092 -0.5563359201 -0.025654408 -0.5563619799 0.0414720939 0.1805939728
765295410.0 0.0015847658 0.1914463647 -0.0314936593 -0.5554296958 -0.03222018 -0.5558141304 0.0435302058 0.1805228301
770295380.0 0.0028654886 0.1916548126 -0.0377967534 -0.55553878 -0.0375963334 -0.5550006794 0.0453332199 0.179950344
775295350.0 0.0046973259 0.1911371074 -0.0433399071 -0.5544146816 -0.0432678684 -0.5549313972 0.0467363691 0.1797585502
780295320.0 0.0070652402 0.1920074532 -0.0496415737 -0.5544045811 -0.0488778297 -0.5541249125 0.0490206506 0.1787611655
785295290.0 0.0084608724 0.1913649735 -0.0558082128 -0.5531007713 -0.0552126733 -0.5537066523 0.0514431776 0.1787507913
790295260.0 0.0111364705 0.1921513604 -0.0610546629 -0.5529754315 -0.0606768265 -0.5528605612 0.053330822 0.178277643
795295230.0 0.0126181045 0.1917866589 -0.0671199235 -0.5518595091 -0.0672318599 -0.5525824359 0.0557428566 0.1780201675
800295200.0 0.014152489 0.1920168215 -0.0735840362 -0.5511087088 -0.0733874218 -0.5514780199 0.0574602146 0.1775227329
805295170.0 0.016339547 0.1916625886 -0.0794262844 -0.5503950466 -0.0791724027 -0.550838283 0.059220142 0.1768314473
810295140.0 0.0177881124 0.191478907 -0.0845966855 -0.5492847868 -0.0849805083 -0.5496650406 0.0620097545 0.1767346945
815295110.0 0.0198368488 0.1913244402 -0.0906094864 -0.5483859474 -0.0905941388 -0.5485196538 0.0634206688 0.1761352727
820295080.0 0.0215152888 0.1919844502 -0.0968221646 -0.5473767239 -0.0965115268 -0.5474111654 0.0654562739 0.1755007929
825295050.0 0.0238946856 0.1914990951 -0.1019434829 -0.5461419184 -0.1026327775 -0.5464080473 0.0676771108 0.1749769587
830295020.0 0.0254635775 0.1915883934 -0.1084280871 -0.5450886148 -0.1085345809 -0.5449157608 0.0704327517 0.1744226507
