!Created with skrf (http://scikit-rf.org).
# Hz S RI R 50.0 
!freq ReS11 ImS11 ReS21 ImS21 ReS12 ImS12 ReS22 ImS22
300000.0 -0.3176436733 -0.1054511316 0.3711371929 0.0531816698 0.3732933325 0.0562746372 -0.3156549072 -0.1198222563
5299970.0 -0.3234154484 0.0044514613 0.3783058585 0.0027963904 0.378398753 0.0030497531 -0.3260275126 0.0025746929
10299940.0 -0.3210097567 0.0153176065 0.3795735967 0.0024192635 0.3798474535 0.0023452023 -0.3237835016 0.0127504609
15299910.0 -0.3181493757 0.0235059068 0.3819292863 0.0022111907 0.3820595774 0.0023738152 -0.3209819165 0.0199705242
20299880.0 -0.3144246487 0.0301239841 0.3850799032 0.0015397419 0.3852869501 0.0015872794 -0.3184453761 0.0261885068
25299850.0 -0.3106928844 0.0356438685 0.3883079128 0.0001206087 0.3885438774 -3.63234e-05 -0.3156259472 0.0314103742
30299820.0 -0.3066220267 0.0404953992 0.3919849638 -0.002041424 0.391690303 -0.0021773337 -0.3127105054 0.0355523253
35299790.0 -0.3027633053 0.0446549667 0.3951149419 -0.0052521458 0.3951653592 -0.0050969408 -0.3095592037 0.0395335582
40299760.0 -0.2995729306 0.0479846176 0.3983605898 -0.0084332746 0.3986313079 -0.0084862785 -0.307053213 0.0431830861
45299730.0 -0.2961427247 0.0513696689 0.4009334768 -0.0128372749 0.4012177895 -0.0129242664 -0.3046784653 0.0461865446
50299700.0 -0.2931638338 0.0542040559 0.403544042 -0.0173725262 0.4038805368 -0.0173197111 -0.3020758033 0.0491903207
55299670.0 -0.2907050531 0.0568036907 0.4054820094 -0.021869005 0.4058910607 -0.0219665461 -0.3001893764 0.0520353063
60299640.0 -0.2884526012 0.0592003942 0.4076257075 -0.0268345649 0.4074590138 -0.026902557 -0.2980024908 0.0545239672
65299610.0 -0.2861380606 0.0614788911 0.4094831784 -0.0316292397 0.4097175117 -0.0317904291 -0.2960997628 0.0571792131
70299580.0 -0.2836944931 0.0633996837 0.4104326901 -0.0367847867 0.4105725335 -0.0368928209 -0.2944232798 0.0597848102
75299550.0 -0.2820217068 0.0659444733 0.4116753013 -0.0418445681 0.4114524112 -0.0421313068 -0.2932348664 0.0619613663
80299520.0 -0.2802033007 0.0679987383 0.4127344864 -0.0475967818 0.4125143488 -0.0473193015 -0.2916298154 0.0641287902
85299490.0 -0.2785866462 0.0698610907 0.4135475958 -0.0526801673 0.4132379601 -0.0525434519 -0.2902681803 0.066532919
90299460.0 -0.27697698 0.0721064947 0.4134137901 -0.0577129875 0.4134667428 -0.0580705466 -0.2885626944 0.0690674518
95299430.0 -0.2754863798 0.0742843759 0.4137244749 -0.0633334061 0.4139816403 -0.0632514214 -0.2877902069 0.0710627105
100299400.0 -0.2742640418 0.0764548913 0.4134703901 -0.068393617 0.4139102085 -0.0684775944 -0.2867227692 0.0736924183
105299370.0 -0.2729281993 0.0784774689 0.4132081315 -0.0733037434 0.413654447 -0.0733974605 -0.2853632439 0.0756668559
110299340.0 -0.2718365254 0.0805670431 0.4130940829 -0.0788067019 0.413626733 -0.0790133424 -0.2845316695 0.0781328561
115299310.0 -0.2706804538 0.0823789848 0.4133037381 -0.0836401101 0.413411356 -0.0840179025 -0.283131648 0.0803446478
120299280.0 -0.2697683644 0.0846318323 0.4128163563 -0.0889457701 0.4130942568 -0.0887523858 -0.2822793838 0.0826503373
125299250.0 -0.2688086404 0.0868459105 0.4121642231 -0.0940212783 0.4124841418 -0.0941020287 -0.2812663363 0.0848877254
130299220.0 -0.2675555442 0.0892168282 0.4117097472 -0.0988886828 0.4115627631 -0.0990198581 -0.2802668665 0.0873758882
135299190.0 -0.2666938815 0.0910859665 0.4110501395 -0.1039276224 0.4104916533 -0.103844261 -0.2798364375 0.0893972024
140299160.0 -0.2657125896 0.0938035006 0.4101195088 -0.1088377099 0.410333145 -0.1090175176 -0.2785733688 0.0920695787
145299130.0 -0.2648202724 0.0959011102 0.4095727902 -0.1143440009 0.4090331731 -0.1137796584 -0.2780393945 0.0944971345
150299100.0 -0.2640708506 0.0983781592 0.4082616582 -0.1189385104 0.4081189609 -0.1186983428 -0.2771294409 0.0966396585
155299070.0 -0.2629530923 0.1009409765 0.4069344683 -0.1244424539 0.4071610172 -0.1241882279 -0.2761861074 0.0995368643
160299040.0 -0.2618367687 0.1032635726 0.4057803147 -0.1285763023 0.4059109608 -0.1289078484 -0.2751992389 0.1023217746
165299010.0 -0.260988159 0.1055553292 0.4046516983 -0.1338664352 0.4047410788 -0.1337251516 -0.274356832 0.1046142754
170298980.0 -0.2601598587 0.1077504321 0.4028282829 -0.1386120367 0.4032310287 -0.1383024531 -0.2729885398 0.1071665326
175298950.0 -0.2590669765 0.1103312726 0.4025153179 -0.1430168387 0.4020797565 -0.1434806061 -0.2722913667 0.1095865199
180298920.0 -0.2580812104 0.1126075303 0.4008169842 -0.1478699697 0.4005093993 -0.1474876807 -0.2708803029 0.1124527373
185298890.0 -0.2566382076 0.115321556 0.3985609601 -0.1527858339 0.3988918148 -0.1527299369 -0.2702270013 0.1145995411
190298860.0 -0.2557776811 0.1176388821 0.397140797 -0.1575523643 0.3974147389 -0.1574527347 -0.2688973985 0.1172898327
195298830.0 -0.2546003997 0.1202027212 0.3956160491 -0.16174269 0.3955806298 -0.1619163189 -0.2679162882 0.1197296088
200298800.0 -0.2536653029 0.1229748138 0.39396354 -0.1663778039 0.3936228851 -0.1665184503 -0.2666631929 0.1231454921
205298770.0 -0.2524790159 0.125194922 0.3922485998 -0.1707530896 0.3924877773 -0.1712315622 -0.2655371504 0.1252085735
210298740.0 -0.2514393737 0.1277112065 0.3907090622 -0.1758496612 0.3903594607 -0.1758904558 -0.2642747013 0.1279684654
215298710.0 -0.2504049367 0.1305720806 0.3888588229 -0.1800491704 0.3886847743 -0.1801126991 -0.2637422476 0.1307171866
220298680.0 -0.2490639213 0.1329538191 0.3862855323 -0.1847918464 0.386645836 -0.1848162139 -0.262054112 0.1335907488
225298650.0 -0.2476437467 0.1357299147 0.3842621949 -0.1885622346 0.384399027 -0.1893808372 -0.2610560287 0.1363900154
230298620.0 -0.2467182588 0.1382176431 0.3827768042 -0.1936292717 0.3827947442 -0.1934925886 -0.259504913 0.1388746047
235298590.0 -0.2454190036 0.1403000517 0.3804454666 -0.1974921463 0.3802704655 -0.1982301877 -0.2582648012 0.141628359
240298560.0 -0.2443155452 0.1432883255 0.3780795086 -0.2019389114 0.3784697945 -0.2019375805 -0.2568169025 0.144163028
245298530.0 -0.242547373 0.1457465972 0.375317683 -0.2064776908 0.37595518 -0.2067130736 -0.2556174491 0.146956559
250298500.0 -0.2415314858 0.1482101412 0.3738944532 -0.2102977959 0.373930718 -0.2103284732 -0.2538444911 0.1496973391
255298470.0 -0.2401158637 0.1508931241 0.3711282853 -0.215314254 0.3713403135 -0.2150770571 -0.2525774994 0.1522254084
260298440.0 -0.2384851155 0.1536248768 0.3690678844 -0.2192543453 0.3688052874 -0.2193944564 -0.2508738154 0.1550259368
265298410.0 -0.2370138785 0.15639081 0.3666459645 -0.2238868174 0.3662264187 -0.2236762231 -0.2497831898 0.157608001
270298380.0 -0.2353215702 0.158429079 0.3636670423 -0.2274819195 0.3645620765 -0.2274218061 -0.2480135645 0.160394822
275298350.0 -0.2338798698 0.1608929065 0.3612341279 -0.2318023654 0.3617684418 -0.2319323473 -0.2459414765 0.1628442472
280298320.0 -0.2324839993 0.1639174414 0.3589500278 -0.2354133131 0.359161055 -0.2359697098 -0.244318619 0.1655980429
285298290.0 -0.2308125099 0.1665959751 0.3566867408 -0.2398306423 0.3561658018 -0.2398435224 -0.2429546697 0.168313098
290298260.0 -0.2291608267 0.1688979929 0.3538841971 -0.2439108836 0.3538595311 -0.2438759864 -0.2411070694 0.1712118982
295298230.0 -0.2277523936 0.1715072117 0.3515426759 -0.2477385632 0.3510478094 -0.2477318595 -0.2394927709 0.1739277319
300298200.0 -0.2257402908 0.1738039563 0.3483041056 -0.2519203499 0.3487158687 -0.2522120431 -0.2375313259 0.1765256098
305298170.0 -0.223963878 0.1762735698 0.3459686757 -0.2559241019 0.3458781453 -0.2559811034 -0.2354573757 0.1793208842
310298140.0 -0.2220976578 0.1784525897 0.3427980905 -0.2600530856 0.3429521708 -0.2600856427 -0.2336213433 0.1819540933
315298110.0 -0.2206654538 0.1808679701 0.3398712252 -0.2636713641 0.3399879103 -0.2640953329 -0.2314590728 0.1843254182
320298080.0 -0.2187138339 0.1834171571 0.3370363421 -0.2677845571 0.3369426452 -0.2677070834 -0.2297553079 0.1868239311
325298050.0 -0.2172650048 0.1853837976 0.3342670149 -0.2715427159 0.3339573608 -0.2719026568 -0.2279793665 0.1892969486
330298020.0 -0.21496821 0.1882581886 0.3306144329 -0.2753108701 0.3308111535 -0.2752877987 -0.2264631975 0.1917012701
335297990.0 -0.2133740078 0.1902142196 0.327649938 -0.2788392108 0.3277442109 -0.2790368444 -0.2245482736 0.1944681177
340297960.0 -0.2118369349 0.1929042134 0.3243805576 -0.2827541143 0.3247811212 -0.2828058321 -0.2226870121 0.1970382048
345297930.0 -0.2101865844 0.1954509219 0.3214335116 -0.2859369927 0.3207781668 -0.2859703203 -0.2205786887 0.1994338943
350297900.0 -0.207466116 0.1975751588 0.317616957 -0.2895324076 0.3181058833 -0.2894614953 -0.2188305581 0.2022818897
355297870.0 -0.2057462413 0.2000074763 0.3146031291 -0.2931166839 0.3150062196 -0.293269461 -0.216774416 0.2052524831
360297840.0 -0.2035887494 0.2021448642 0.3113768339 -0.2966344225 0.3112472444 -0.2966975899 -0.2143369599 0.2073908049
365297810.0 -0.2014510095 0.2045670792 0.3078051385 -0.3001429746 0.3079832461 -0.30003486 -0.2124224641 0.210007244
370297780.0 -0.1995675064 0.2067757657 0.3046469853 -0.3032729339 0.3047266828 -0.3037546444 -0.210213997 0.2125979772
375297750.0 -0.1973029662 0.2091993176 0.3017721792 -0.3068477035 0.3013331026 -0.3070004444 -0.2079358769 0.2151278388
380297720.0 -0.1950416315 0.211247308 0.2976030462 -0.3098055709 0.298123912 -0.3100228387 -0.2059879492 0.2175977563
385297690.0 -0.1929598578 0.2139011098 0.2942705969 -0.3132731043 0.2944410122 -0.3132699329 -0.2036855522 0.2200616849
390297660.0 -0.191152297 0.2158747279 0.2910265902 -0.3167425535 0.2905697371 -0.3167085918 -0.2012194398 0.2221174236
395297630.0 -0.188547636 0.217776424 0.2875715959 -0.3192302251 0.2874276768 -0.3196064475 -0.1988461786 0.2246856098
400297600.0 -0.1865678729 0.2203587528 0.2843387807 -0.3228103786 0.284342347 -0.32296154 -0.1974065203 0.2266918953
405297570.0 -0.184304942 0.2225020946 0.2804731899 -0.3259542062 0.2800803247 -0.3260860209 -0.1946801598 0.2293673101
410297540.0 -0.18170663 0.2246607764 0.2763354841 -0.3291234296 0.2765411678 -0.3287320029 -0.1922125513 0.2315570645
415297510.0 -0.1796778883 0.2266074188 0.2729618154 -0.3319344493 0.2728847573 -0.3318138296 -0.1898997139 0.233920338
420297480.0 -0.1773322427 0.2281770806 0.2695283148 -0.3349373956 0.269267238 -0.3348691254 -0.1875318203 0.235985966
425297450.0 -0.1747009726 0.230353882 0.2656844692 -0.3377996804 0.2658788513 -0.3376708871 -0.1850063237 0.2382975564
430297420.0 -0.1724660317 0.2329542297 0.2620679056 -0.3409575088 0.2621888343 -0.3409366861 -0.1827843422 0.2407997174
435297390.0 -0.1696216556 0.234715333 0.2583994058 -0.3434168802 0.258347654 -0.3432812828 -0.1800257666 0.2424419235
440297360.0 -0.1671903971 0.2365559973 0.2539392589 -0.3461886227 0.2540242486 -0.3462841353 -0.1777358481 0.2444786575
445297330.0 -0.1647491469 0.2386945006 0.2501452196 -0.3494400479 0.2503898745 -0.3491653914 -0.1751235799 0.2467066485
450297300.0 -0.1621451511 0.2400856034 0.2462529245 -0.3518007172 0.2466968715 -0.3519386489 -0.172981787 0.2487937842
455297270.0 -0.1596468521 0.2421849426 0.2427025012 -0.3545602618 0.2431862418 -0.3542676633 -0.170309661 0.2508069064
460297240.0 -0.157619574 0.2443088678 0.2389922182 -0.3569918782 0.2384019591 -0.3570943432 -0.1671478031 0.2529465078
465297210.0 -0.1544261823 0.245905798 0.2348910682 -0.3600650713 0.2350043314 -0.3596708042 -0.1651174385 0.2546614398
470297180.0 -0.1520597131 0.2475505302 0.230965491 -0.3619686149 0.231404192 -0.3616784787 -0.162871692 0.2564903224
475297150.0 -0.1495433858 0.2492643932 0.2263819966 -0.3642248221 0.2269372209 -0.3640739102 -0.1594372785 0.2586569092
480297120.0 -0.1469902292 0.2508168375 0.2226990925 -0.3664672956 0.2231153071 -0.3669628834 -0.1574751202 0.2607296139
485297090.0 -0.144218407 0.2524059139 0.2191064989 -0.3690792655 0.2187875779 -0.3691879531 -0.1545591309 0.2621852034
490297060.0 -0.1413296709 0.2545432908 0.2145863726 -0.3717797527 0.2148944195 -0.3714088952 -0.1516556372 0.264214152
495297030.0 -0.139174668 0.2562652276 0.2107824387 -0.3738395549 0.2104761531 -0.3740686433 -0.1489838336 0.2655075958
500297000.0 -0.1361609427 0.25754792 0.2065127466 -0.3761548203 0.2067563515 -0.3761330996 -0.1465016055 0.2675655523
505296970.0 -0.1336221171 0.2591487881 0.2020799171 -0.3780929177 0.2024268904 -0.3780886139 -0.1441324284 0.2694943626
510296940.0 -0.1306563935 0.2610016995 0.1982249535 -0.3807196346 0.1982167276 -0.3807882106 -0.1407917996 0.2712606751
515296910.0 -0.1282686972 0.2623929918 0.1935195568 -0.3823162707 0.1941807201 -0.3824258741 -0.1379538859 0.2727069538
520296880.0 -0.1254183646 0.2638574038 0.1896755009 -0.3844739041 0.1896399035 -0.3845372636 -0.1354612416 0.2745498418
525296850.0 -0.1227947083 0.265129996 0.1855377681 -0.3865233713 0.1857484935 -0.3866377013 -0.1321800976 0.2758360543
530296820.0 -0.1198427308 0.2664733677 0.1814367091 -0.3883467623 0.181279196 -0.3883031898 -0.1300224264 0.277378598
535296790.0 -0.1171115598 0.2681790522 0.1771947618 -0.3900456172 0.1773836255 -0.3902211167 -0.1270460141 0.2786412773
540296760.0 -0.1141020364 0.2691943219 0.1728486758 -0.392510805 0.1729177369 -0.3922210131 -0.1242700667 0.2805383162
545296730.0 -0.1114951125 0.2709086826 0.1684693589 -0.3942293234 0.1688222993 -0.3939916081 -0.121482957 0.2816784576
550296700.0 -0.1088145674 0.2724426069 0.16445573 -0.3956864317 0.1646398291 -0.3962168162 -0.1180196304 0.2834429413
555296670.0 -0.1053714844 0.2734507198 0.1600206137 -0.39739312 0.1602850903 -0.3975956811 -0.1156249978 0.2848560218
560296640.0 -0.1024490149 0.2746424922 0.1557488696 -0.3993774845 0.1558186752 -0.3990827617 -0.112329548 0.2863283035
565296610.0 -0.100038637 0.2758470316 0.151303874 -0.4008566242 0.1509616724 -0.4009800473 -0.109589675 0.2874276909
570296580.0 -0.0967935536 0.2768541953 0.1464297675 -0.4022926261 0.1469638763 -0.4024813163 -0.1064435564 0.289114919
575296550.0 -0.0940528595 0.278350466 0.1423307333 -0.4036890046 0.142748379 -0.4040642179 -0.1032825764 0.2902641475
580296520.0 -0.0910942167 0.2793213933 0.1382677724 -0.405275124 0.1380907083 -0.4055158167 -0.1001585594 0.2916246259
585296490.0 -0.0881788843 0.2801087081 0.1339118485 -0.4067506987 0.1335633792 -0.4069607708 -0.0976225042 0.2923029793
590296460.0 -0.0856053006 0.2812434901 0.1290791136 -0.4082657588 0.1291903961 -0.4082315718 -0.0944087947 0.2936463297
595296430.0 -0.0822448921 0.2829760031 0.1251226518 -0.4096315721 0.1244932346 -0.4096796753 -0.0911434648 0.2946813206
600296400.0 -0.0795053058 0.2833561677 0.1204435689 -0.4107847914 0.1207405801 -0.4108081857 -0.0883100688 0.2960981328
605296370.0 -0.07599198 0.2848504038 0.1160352526 -0.4122992807 0.1160596712 -0.4122836693 -0.0851992161 0.2972224957
610296340.0 -0.0736630721 0.2856897458 0.1118734771 -0.4135125133 0.111623112 -0.4137105346 -0.0822769504 0.29878737
615296310.0 -0.0702206441 0.286720556 0.1069955821 -0.4141890887 0.1071182527 -0.4147821001 -0.0789504093 0.2993956804
620296280.0 -0.0671278904 0.2874429461 0.1025326309 -0.4156005924 0.102466979 -0.4157510735 -0.0761339801 0.300011491
625296250.0 -0.0642381516 0.28795627 0.0979912391 -0.4168808475 0.0977555997 -0.4169433301 -0.0730612672 0.3011361097
630296220.0 -0.0612345867 0.2891012181 0.0931986735 -0.4177857528 0.0935512908 -0.4179420967 -0.0698594846 0.3023425523
635296190.0 -0.0582189158 0.2902142863 0.0888422259 -0.4184860791 0.0886131394 -0.4184600879 -0.066477536 0.3027994323
640296160.0 -0.055169969 0.2904321129 0.0844950597 -0.4192035002 0.0842916332 -0.4194555575 -0.0630928286 0.3036974226
645296130.0 -0.05201056 0.2915007846 0.0797497101 -0.420365566 0.0801856243 -0.4203607251 -0.0611719902 0.3043764543
650296100.0 -0.0490776209 0.2923401423 0.0754197475 -0.4211245803 0.0753024166 -0.4211890113 -0.0572281854 0.3054278339
655296070.0 -0.0458412431 0.292573485 0.0705502313 -0.4215197397 0.0705816418 -0.4217149365 -0.0540092463 0.3059364035
660296040.0 -0.043127978 0.2936835452 0.0661973432 -0.4226208117 0.0661895908 -0.4222585912 -0.0510630667 0.3064884832
665296010.0 -0.0394875964 0.2936854633 0.0615272332 -0.4229618197 0.062024893 -0.4232013034 -0.0481108158 0.3076220012
670295980.0 -0.036074066 0.2944543569 0.0567389386 -0.4236718686 0.0571697313 -0.4235975375 -0.0447310675 0.308057145
675295950.0 -0.0333103631 0.2951581978 0.0521642469 -0.4245849997 0.0526625138 -0.4247633533 -0.0416079869 0.3090585516
680295920.0 -0.0303052001 0.2957001811 0.0479670678 -0.424933047 0.047504947 -0.4248887979 -0.0380330898 0.3091807054
685295890.0 -0.0270596279 0.2958791245 0.0433617928 -0.4249798604 0.0430294932 -0.42567757 -0.0352589746 0.3101162012
690295860.0 -0.0236876902 0.296471472 0.0383776237 -0.4252437265 0.0381161651 -0.4255497736 -0.03197793 0.3106472978
695295830.0 -0.0204584575 0.2965814698 0.0333134144 -0.4257471921 0.033619194 -0.4261378353 -0.0288656193 0.311368909
700295800.0 -0.017301091 0.2971472412 0.0290702388 -0.4264018254 0.0291993679 -0.42658109 -0.0256477253 0.3114771861
705295770.0 -0.0140868859 0.2977756377 0.0243611151 -0.4268914684 0.0248474163 -0.426512187 -0.0228799494 0.3115835674
710295740.0 -0.0111029085 0.2983505868 0.0198124364 -0.4267138076 0.020074468 -0.4265691633 -0.0196849921 0.3125600115
715295710.0 -0.0082668512 0.2980880274 0.0152633735 -0.4270281215 0.0155580674 -0.4270753062 -0.0163308754 0.3123002743
720295680.0 -0.0052794178 0.2981182414 0.0106903533 -0.4267990404 0.0106236596 -0.4274349756 -0.0126409882 0.3131015729
725295650.0 -0.0016873625 0.2986970618 0.0058385335 -0.4266942951 0.0060710452 -0.4273269824 -0.0096667733 0.3133841396
730295620.0 0.0011128815 0.2985239927 0.0015092711 -0.4268244296 0.0014907831 -0.427201158 -0.0062289621 0.313165331
735295590.0 0.00466484 0.2988478458 -0.0029837073 -0.4269763327 -0.003158688 -0.4271027552 -0.0029443507 0.3134484786
740295560.0 0.0076124657 0.2990048717 -0.0079546984 -0.4262703681 -0.0078226049 -0.4268304348 0.0003132858 0.3133056945
745295530.0 0.010868262 0.2989230886 -0.0125701369 -0.4266233249 -0.0124285017 -0.4270975628 0.0036242643 0.313928712
750295500.0 0.0141030968 0.29891334 -0.0169195435 -0.4257829336 -0.0169407541 -0.4264846683 0.0065795239 0.3133818407
755295470.0 0.017691648 0.2990450555 -0.0214646708 -0.4262751414 -0.0216227495 -0.4265065132 0.0098060698 0.314154916
760295440.0 0.0203985522 0.2990781052 -0.0264757344 -0.4260811856 -0.0260632919 -0.4261539299 0.0127967521 0.3139424911
765295410.0 0.0231773862 0.2989042485 -0.0301618377 -0.4256560129 -0.030734966 -0.4258223903 0.016787359 0.3141376551
770295380.0 0.0268514642 0.2988795145 -0.0355401446 -0.4250307409 -0.0354788588 -0.4256174756 0.0199888036 0.313905514
775295350.0 0.0298325174 0.298649073 -0.0399088814 -0.4246847617 -0.0399863108 -0.4250903686 0.0223014074 0.3137138214
780295320.0 0.0332360333 0.2981867794 -0.044576804 -0.4241813988 -0.0443008413 -0.4244967683 0.0261933509 0.3140661138
785295290.0 0.0363707603 0.2985248731 -0.0492678823 -0.4234652086 -0.0491121647 -0.4238475823 0.0289194518 0.313702128
790295260.0 0.039516837 0.2983007563 -0.0537658717 -0.4233208614 -0.0536745474 -0.423623833 0.032856158 0.3133788291
795295230.0 0.042597203 0.2979777054 -0.0580179216 -0.4222907158 -0.0578688833 -0.4229575564 0.036061757 0.313624941
800295200.0 0.0459327896 0.2976274318 -0.0632332994 -0.4221899739 -0.0631658409 -0.4218924656 0.0390489164 0.3128612295
805295170.0 0.0488672551 0.2969755385 -0.0673076377 -0.4207710879 -0.06747114 -0.4209890894 0.0419013626 0.3122471518
810295140.0 0.0519515045 0.296903278 -0.0715530131 -0.4202091735 -0.0716390092 -0.4208915148 0.0454060145 0.3127749802
815295110.0 0.0552434901 0.2963241012 -0.0765620968 -0.4191061509 -0.0766820628 -0.4194280115 0.0485623929 0.3119806089
820295080.0 0.0581389188 0.2955899107 -0.0806757197 -0.4182696581 -0.0808929673 -0.4186545726 0.0517156914 0.3114362334
825295050.0 0.0616884353 0.2954131351 -0.0853098349 -0.4172552681 -0.0853220488 -0.4178082993 0.0552721967 0.3113724018
830295020.0 0.0647671828 0.2952127934 -0.0900400438 -0.4164981476 -0.0900697369 -0.4168635238 0.0585733177 0.3108856623
