!Created with skrf (http://scikit-rf.org).
# Hz S RI R 50.0 
!freq ReS11 ImS11 ReS21 ImS21 ReS12 ImS12 ReS22 ImS22
300000.0 -0.2395635514 -0.1023986146 0.4674728603 0.0690400778 0.4681270342 0.0705692474 -0.2363658308 -0.1116838414
5299970.0 -0.2437002465 0.0070743899 0.4738207593 0.0051627206 0.473490284 0.0056482208 -0.2440265909 0.0057839899
10299940.0 -0.2403406906 0.019608972 0.4760101022 0.0067982639 0.4758293542 0.0065502007 -0.2408366118 0.018163854
15299910.0 -0.2357662338 0.0294866613 0.4792058949 0.0077114919 0.4792157549 0.0078474606 -0.2363715091 0.0274597481
20299880.0 -0.2306094235 0.037319633 0.4839534191 0.0080978068 0.4841755438 0.0083980506 -0.2319939726 0.0355371528
25299850.0 -0.2247642488 0.0434867903 0.4895672096 0.0072947439 0.4896080467 0.0071781935 -0.2266225683 0.0416973696
30299820.0 -0.2187494138 0.0483420834 0.4953402675 0.0054784995 0.4947296976 0.0053939062 -0.2215599714 0.0467375844
35299790.0 -0.2130114319 0.0528689204 0.5003700327 0.0020014062 0.5002264288 0.0024951599 -0.2159063852 0.0509569685
40299760.0 -0.2075278211 0.0557366465 0.5053443083 -0.0015411278 0.5057435612 -0.0018065949 -0.2113017299 0.0548526187
45299730.0 -0.202593642 0.058495568 0.510464241 -0.0068524862 0.5102716227 -0.0064454453 -0.2065859293 0.0574892373
50299700.0 -0.1977512025 0.0603677587 0.5141805798 -0.0122700098 0.5143004306 -0.0120704802 -0.202032888 0.059746785
55299670.0 -0.1936913401 0.0618720416 0.5180014953 -0.0181052943 0.51827324 -0.0180171754 -0.1982211784 0.0615605982
60299640.0 -0.1893949355 0.0630094299 0.5214595322 -0.0245616002 0.5211954127 -0.0242351222 -0.1943888848 0.0632788402
65299610.0 -0.186162572 0.0638813617 0.5244795303 -0.0302976199 0.5246220072 -0.0302582779 -0.1912118204 0.0646204103
70299580.0 -0.182541978 0.0642476755 0.5267267479 -0.0373115921 0.5266742115 -0.0371003479 -0.1883549713 0.0654498061
75299550.0 -0.1797056162 0.0650583696 0.5286252597 -0.0438038709 0.528605689 -0.0441299764 -0.1850882228 0.0666975461
80299520.0 -0.1773272305 0.0657921022 0.5307583072 -0.0509886221 0.5307079167 -0.0508359056 -0.182762873 0.0673418635
85299490.0 -0.1745816661 0.0660436871 0.5321010818 -0.0579051661 0.5318951838 -0.0580482011 -0.1799687785 0.068507877
90299460.0 -0.1725153975 0.0665167012 0.5331210957 -0.0641506101 0.5333991888 -0.0646441726 -0.1777301563 0.0693609031
95299430.0 -0.1705879148 0.0672698469 0.5342656959 -0.0719437524 0.534146738 -0.0716408505 -0.1759869817 0.0702672376
100299400.0 -0.1686923736 0.067380367 0.5343787602 -0.078485423 0.534293323 -0.0789379745 -0.1742746745 0.0712777957
105299370.0 -0.1667576872 0.0679434299 0.5343668133 -0.0856877354 0.5346207484 -0.0854490843 -0.1722875652 0.0716880679
110299340.0 -0.1657242217 0.0685513816 0.534601359 -0.092016942 0.5349755341 -0.0926490898 -0.1708245268 0.0727174241
115299310.0 -0.163946232 0.0687164926 0.534624123 -0.0990155715 0.5350641137 -0.0989630931 -0.1689981222 0.0731347114
120299280.0 -0.1628030276 0.0693661294 0.5348437426 -0.1058616521 0.5347582506 -0.1060055653 -0.1680080864 0.074072839
125299250.0 -0.1619038585 0.0698320238 0.5340371702 -0.1124828503 0.5343218388 -0.1130930333 -0.1665690257 0.0747989513
130299220.0 -0.160548721 0.0705112268 0.5338135792 -0.11906866 0.5336851202 -0.119636566 -0.1651408375 0.0761603744
135299190.0 -0.1593625194 0.0711338135 0.5330306158 -0.1258870581 0.5328392628 -0.126077833 -0.1641429555 0.0771902941
140299160.0 -0.1585668792 0.0723504763 0.5322175388 -0.1328244352 0.5322297353 -0.1328863107 -0.1627605039 0.0779508491
145299130.0 -0.1576341788 0.0727886574 0.5317354598 -0.1395848354 0.5310822589 -0.1392910868 -0.162289533 0.0786488981
150299100.0 -0.1564657272 0.0734349083 0.5300609229 -0.1461997372 0.5303023014 -0.1461534883 -0.1610143651 0.0797964283
155299070.0 -0.1559044575 0.0746442636 0.5291431951 -0.1526254987 0.5289092992 -0.1526603128 -0.1602186269 0.0809966305
160299040.0 -0.1548317499 0.0753378997 0.5276113254 -0.158012986 0.5273827125 -0.1590948711 -0.1587363837 0.0826107961
165299010.0 -0.154449772 0.076229422 0.5266239262 -0.1655450356 0.5262949264 -0.165308639 -0.1579805668 0.0831878143
170298980.0 -0.1538752153 0.0771273177 0.5242419878 -0.1715133404 0.5247123442 -0.171822163 -0.156770652 0.0846718599
175298950.0 -0.1528327355 0.0783057085 0.5235029641 -0.1778580276 0.523377766 -0.1780710981 -0.1559624602 0.0856355807
180298920.0 -0.1518207007 0.0791520193 0.5214318338 -0.1843016536 0.5215036151 -0.1839546056 -0.1547909002 0.0871988562
185298890.0 -0.151075317 0.0802467711 0.5190921973 -0.1909292325 0.5194975356 -0.1905779998 -0.1542162844 0.0879914413
190298860.0 -0.1501227886 0.08125461 0.5175113614 -0.197055938 0.5175008572 -0.1967790106 -0.15252855 0.0894294566
195298830.0 -0.1494059714 0.0821623048 0.5158274488 -0.2026971101 0.5156313471 -0.2028851765 -0.1519624797 0.0904641921
200298800.0 -0.1487701864 0.083500383 0.513644194 -0.2085904559 0.5134805933 -0.20875273 -0.1510483888 0.0922160607
205298770.0 -0.148270965 0.084610443 0.5114950609 -0.2152154753 0.5111403894 -0.2148500936 -0.1499334796 0.0931463681
210298740.0 -0.1476365376 0.0855890498 0.5091412528 -0.2212371457 0.5093768429 -0.2212652299 -0.1493074956 0.0948821004
215298710.0 -0.1464617653 0.0868898281 0.5067210839 -0.2266909501 0.5068990927 -0.2266881635 -0.1485003849 0.0961988195
220298680.0 -0.1459508421 0.087999498 0.5045115896 -0.2328164729 0.5046081553 -0.2327209418 -0.1469887845 0.0975384033
225298650.0 -0.1448951597 0.0894146266 0.5016518109 -0.2385027827 0.5016766783 -0.2381644486 -0.1462024519 0.0989997187
230298620.0 -0.1445410733 0.0904676669 0.4998325516 -0.2442582256 0.4998442515 -0.2445400898 -0.1449970338 0.1001571229
235298590.0 -0.143493242 0.09151874 0.4968784049 -0.250354754 0.4968104562 -0.2504456156 -0.1439718812 0.1013780241
240298560.0 -0.1427430746 0.0928094534 0.4937381531 -0.2550517364 0.4939099734 -0.2553108201 -0.142967288 0.1029788746
245298530.0 -0.1418033606 0.0942613748 0.4906898854 -0.2616841395 0.4910941485 -0.2615158199 -0.1420907397 0.1047801495
250298500.0 -0.1414860097 0.0953555749 0.4881180322 -0.2667456259 0.4886152324 -0.2667779107 -0.140723014 0.1059817227
255298470.0 -0.1406401523 0.0968942045 0.4856441159 -0.2731224446 0.4855990742 -0.2727555374 -0.1396081729 0.1072360016
260298440.0 -0.1398759461 0.0979017001 0.4829295496 -0.2780852328 0.4825012401 -0.2785005861 -0.1379447244 0.1090700613
265298410.0 -0.1385106848 0.0992945172 0.479606808 -0.2843938388 0.479490608 -0.2839774936 -0.13713542 0.1099001364
270298380.0 -0.1378792501 0.100596249 0.4761098968 -0.2891981359 0.4762369269 -0.2892051717 -0.1356270171 0.112027018
275298350.0 -0.1370552744 0.1019280353 0.4728968547 -0.2950524186 0.4735327264 -0.2949752943 -0.1349224333 0.1134652854
280298320.0 -0.1364121963 0.1034236288 0.4701429685 -0.2997211335 0.4700868578 -0.2998381528 -0.1335865564 0.1148193206
285298290.0 -0.1354308861 0.1048575765 0.467071513 -0.3054717142 0.4665708796 -0.3056255361 -0.1322290451 0.1163208126
290298260.0 -0.1341688935 0.1058856121 0.4635609033 -0.3110733293 0.4635877869 -0.3108430499 -0.1307340891 0.1178497377
295298230.0 -0.1329807532 0.107125776 0.4600540985 -0.3162780777 0.460296672 -0.3164153627 -0.1296508562 0.1191953156
300298200.0 -0.1322333438 0.1081025771 0.4566424598 -0.3212242547 0.4567851511 -0.3213624946 -0.1281447125 0.1207975773
305298170.0 -0.1309743194 0.1093791166 0.453413122 -0.3264425573 0.4534667298 -0.326545987 -0.126611417 0.1224030319
310298140.0 -0.1295984502 0.1105508609 0.4493766278 -0.3316270269 0.4500245481 -0.3322127196 -0.1254462319 0.1239602181
315298110.0 -0.129108414 0.1117731168 0.445789287 -0.3370083209 0.4461890905 -0.337104442 -0.1234750013 0.1249364767
320298080.0 -0.1281006729 0.1131819466 0.4423379055 -0.3421586113 0.4421977764 -0.3424759134 -0.1223792141 0.1262663379
325298050.0 -0.1269225995 0.1138355012 0.4386332833 -0.3474186836 0.4386746373 -0.3474941925 -0.1213810597 0.1277339835
330298020.0 -0.1263184464 0.1156337402 0.4340250679 -0.352709579 0.4340178529 -0.3521100029 -0.1200055081 0.1287141499
335297990.0 -0.125403011 0.1165739589 0.4305366676 -0.3573757989 0.4303851378 -0.3572205309 -0.1186961567 0.130196879
340297960.0 -0.1247122027 0.118056318 0.4257256174 -0.3619297758 0.4262656657 -0.3618733963 -0.1177556408 0.1318024697
345297930.0 -0.1239216166 0.11940857 0.4224807597 -0.3662384149 0.4219153787 -0.3664787416 -0.1161063396 0.1331646614
350297900.0 -0.1223035202 0.1206711512 0.4182301939 -0.3706316698 0.4180611991 -0.371085307 -0.1150050047 0.1349086203
355297870.0 -0.1216386326 0.1220861697 0.4135998549 -0.3756175084 0.4140216951 -0.3756269188 -0.1137903697 0.1363489152
360297840.0 -0.1200225617 0.1232047609 0.40962249 -0.3802121233 0.409612621 -0.3803883048 -0.1120483732 0.1379566274
365297810.0 -0.119124972 0.1245501672 0.4051877292 -0.3848116598 0.4055633285 -0.3848468662 -0.1105088557 0.1396406124
370297780.0 -0.1177671684 0.1260313248 0.4014471425 -0.3891239791 0.4011301534 -0.3893730011 -0.1091731789 0.1408234715
375297750.0 -0.116802147 0.1271638798 0.3973443668 -0.3937314215 0.3965802977 -0.3940107645 -0.1075833507 0.1421855377
380297720.0 -0.115586597 0.1284069766 0.3925030113 -0.3977854848 0.3924352024 -0.3979890275 -0.1058597853 0.1440588468
385297690.0 -0.1141281129 0.1297667379 0.3876361114 -0.4016860824 0.3876887193 -0.402151204 -0.1044109838 0.1452321925
390297660.0 -0.1133191044 0.131142934 0.3834917081 -0.4067517621 0.3833042688 -0.4064751581 -0.1026983161 0.1460827334
395297630.0 -0.1118246156 0.1321148661 0.3795699784 -0.4106097103 0.3793586244 -0.4105388104 -0.1014495019 0.1478552304
400297600.0 -0.1106597126 0.133398492 0.3745888826 -0.4149720552 0.3748983834 -0.4152183457 -0.1003851083 0.1492243693
405297570.0 -0.1093527371 0.134703107 0.3700660027 -0.4189797309 0.3702072708 -0.4189873357 -0.0984054524 0.1506847287
410297540.0 -0.1078995827 0.1358329722 0.3650075864 -0.4225526111 0.3650883706 -0.4227997547 -0.0967745648 0.1517233217
415297510.0 -0.1065153613 0.1374213481 0.360797555 -0.4268637964 0.3611866856 -0.4271045973 -0.095525373 0.1533689074
420297480.0 -0.1054670375 0.1379128717 0.3557184581 -0.4313316589 0.3555267622 -0.4306485462 -0.0931759473 0.1539959772
425297450.0 -0.103789331 0.1389615469 0.3511994929 -0.4343201004 0.3515164347 -0.4347625963 -0.0918735121 0.1559174174
430297420.0 -0.102804377 0.1405157528 0.3467756217 -0.4390772702 0.3466207844 -0.43885777 -0.0902404558 0.1566770843
435297390.0 -0.1011660725 0.1417273819 0.341922642 -0.4422201172 0.3418469967 -0.4421237489 -0.0886137394 0.1583139755
440297360.0 -0.0997941101 0.1423727666 0.3366682808 -0.4459918832 0.3367087179 -0.4460630626 -0.0871338576 0.1588331796
445297330.0 -0.09832515 0.1439218818 0.3315145656 -0.4500049976 0.3315975249 -0.449611728 -0.0851270752 0.1601176737
450297300.0 -0.0969067444 0.1445324184 0.3266619496 -0.4532203336 0.3269564005 -0.4534981394 -0.0837106329 0.1615447643
455297270.0 -0.0958478065 0.1458527863 0.3221496816 -0.4570219243 0.3221079375 -0.4567724749 -0.0816399189 0.1628785224
460297240.0 -0.0944131574 0.1469600854 0.3168028178 -0.4600103245 0.3166421169 -0.4601668384 -0.0797795327 0.1639939738
465297210.0 -0.0924979326 0.147864794 0.3118644991 -0.4638911004 0.3119939689 -0.4638893167 -0.0786195411 0.1649639151
470297180.0 -0.0913666923 0.1488788813 0.3065524019 -0.4669386671 0.307044781 -0.4671269021 -0.0768645578 0.1660050485
475297150.0 -0.0901114416 0.1496393117 0.3014189909 -0.4703533862 0.3020968364 -0.4697292013 -0.0746753743 0.1669860724
480297120.0 -0.0885426465 0.1504720361 0.2966638609 -0.4729686718 0.2968599133 -0.4734375354 -0.0728916366 0.1681302293
485297090.0 -0.0868568998 0.1514395637 0.2913812741 -0.4766317631 0.291657371 -0.476819011 -0.0715293499 0.1689971675
490297060.0 -0.085292101 0.1526814989 0.2859688306 -0.4799451286 0.2859720305 -0.4798003721 -0.0694268279 0.1700534945
495297030.0 -0.0843121171 0.1538845773 0.280642497 -0.4830944305 0.2806556592 -0.4830405738 -0.0671192574 0.1705239159
500297000.0 -0.0825431842 0.154551309 0.2754289246 -0.4861142163 0.2759752436 -0.4858851084 -0.0661206823 0.1718055665
505296970.0 -0.0810434365 0.1551292819 0.2698701037 -0.488413139 0.269859161 -0.4885793239 -0.0643259304 0.1727653975
510296940.0 -0.0796828963 0.1564322817 0.2647536706 -0.4917138049 0.2647972418 -0.4919593006 -0.061931319 0.1738048394
515296910.0 -0.078279582 0.1573163515 0.2589368217 -0.4939810254 0.2595887218 -0.4947029797 -0.0603261909 0.1744363513
520296880.0 -0.0765126513 0.1581145545 0.2538717794 -0.497667207 0.2542889572 -0.4972881989 -0.0580855721 0.175162122
525296850.0 -0.0751691049 0.1588104079 0.2487023074 -0.5002707187 0.2486761244 -0.5000583947 -0.0562085079 0.1763541296
530296820.0 -0.0734945309 0.1595849598 0.24369067 -0.5018053204 0.2431500738 -0.5023744098 -0.054647482 0.1767173719
535296790.0 -0.0719522973 0.1605159074 0.2378683935 -0.5047459301 0.2377267682 -0.5048401406 -0.0527839123 0.17722296
540296760.0 -0.0707494122 0.1612891947 0.2321767428 -0.508111306 0.2318091645 -0.5077742646 -0.0511398335 0.1785448259
545296730.0 -0.0688458516 0.1622154723 0.2267818798 -0.5099408752 0.2265162681 -0.5103356609 -0.0490435873 0.1788651969
550296700.0 -0.0679451303 0.1629093515 0.2212935679 -0.5124751207 0.2219727959 -0.5126471026 -0.0468938792 0.1801593186
555296670.0 -0.0654648879 0.1636262734 0.2156373319 -0.5150777659 0.2156544491 -0.514724027 -0.044930127 0.1807753361
560296640.0 -0.06410356 0.1642864328 0.2100949151 -0.5169025331 0.2103330962 -0.5164159954 -0.042980658 0.1814589158
565296610.0 -0.0629610576 0.165127477 0.2045245555 -0.5194882987 0.203919652 -0.519501975 -0.0411866456 0.1818315568
570296580.0 -0.0608664695 0.1658904769 0.1986757528 -0.5214676544 0.1987464786 -0.5218872828 -0.0394787368 0.1829969571
575296550.0 -0.0593566336 0.16705631 0.1931575806 -0.5233975036 0.1936860454 -0.5234944024 -0.0371591576 0.183388624
580296520.0 -0.0578411676 0.1673913677 0.187464377 -0.5257457745 0.1877849812 -0.5256905082 -0.0351482537 0.1838200458
585296490.0 -0.0557731004 0.1677730719 0.1819345299 -0.5277591216 0.1814121846 -0.527453764 -0.0335215582 0.1837175976
590296460.0 -0.0546654392 0.1685259178 0.1765141993 -0.5297183767 0.175909863 -0.5295638524 -0.0313208865 0.184750146
595296430.0 -0.053030573 0.169313492 0.1704956666 -0.5316076159 0.170017148 -0.5317559886 -0.0290293722 0.185059747
600296400.0 -0.0511025738 0.1700739125 0.1646083479 -0.5331045872 0.1648956367 -0.5334957916 -0.0272697457 0.1858309327
605296370.0 -0.0494904468 0.1708663534 0.1588528424 -0.535058718 0.1589147256 -0.5347738551 -0.0252184973 0.1860272096
610296340.0 -0.0479423457 0.1715561411 0.1532899373 -0.53666222 0.1533276213 -0.5367800666 -0.0234183831 0.1872676712
615296310.0 -0.0463416778 0.1720086441 0.1465014647 -0.5380006871 0.147003965 -0.5383073817 -0.0211419394 0.1872061817
620296280.0 -0.0444880477 0.1723783113 0.1412817138 -0.5394808926 0.14135303 -0.539618378 -0.0190217295 0.1872193528
625296250.0 -0.0430400006 0.1732608106 0.1353354864 -0.5415421817 0.13519331 -0.5413849323 -0.0169448207 0.1880325124
630296220.0 -0.0413974837 0.1739849225 0.129431125 -0.5430519296 0.1299238708 -0.5430097487 -0.0152609882 0.1883370141
635296190.0 -0.0397113825 0.1743648405 0.1238186943 -0.5434952399 0.1232452733 -0.5431701892 -0.0133699863 0.1880658665
640296160.0 -0.0378531882 0.1744889044 0.1179265274 -0.5449301762 0.117532565 -0.5452921393 -0.010548423 0.1889193262
645296130.0 -0.0363798925 0.1754727627 0.1118169418 -0.5464116749 0.1122202341 -0.5462535685 -0.0094590118 0.1889353791
650296100.0 -0.0346068366 0.1762155717 0.1065933381 -0.5475073513 0.1064758785 -0.5473073001 -0.0070497521 0.1891602118
655296070.0 -0.0328522078 0.1761443933 0.1002026185 -0.5485028888 0.1003112383 -0.5483974195 -0.0048756806 0.1897010217
660296040.0 -0.0313955167 0.1770697642 0.0941187076 -0.5497035633 0.0943640162 -0.5492469233 -0.0029598423 0.1894847109
665296010.0 -0.0293704541 0.1770909705 0.0883879161 -0.550512066 0.0885759299 -0.550179063 -0.0012155685 0.1901509653
670295980.0 -0.0271884001 0.1775977052 0.0822038817 -0.5513632122 0.0826263292 -0.5513324693 0.0007413863 0.1899057495
675295950.0 -0.0257204084 0.1779906936 0.0764565724 -0.5522178021 0.0764803196 -0.5527268538 0.0033512188 0.1904121582
680295920.0 -0.024169912 0.1789219499 0.0704456952 -0.553000193 0.0699505062 -0.5527082986 0.0055407087 0.1902837213
685295890.0 -0.0221899153 0.178673952 0.0645519012 -0.5534996109 0.0642023024 -0.5540199569 0.0072455274 0.1906416004
690295860.0 -0.0202605873 0.1792463257 0.0584842503 -0.554031781 0.0581262732 -0.5540253924 0.0095878806 0.1907622449
695295830.0 -0.0184567842 0.1795041957 0.0519850836 -0.554301271 0.0519524046 -0.554958517 0.0111277444 0.1911010834
700295800.0 -0.0166438423 0.1799489132 0.0459940805 -0.5553357939 0.0462676344 -0.5553606496 0.0135696799 0.190193831
705295770.0 -0.014962779 0.1803315414 0.0406815556 -0.5557994316 0.0406291864 -0.5559017434 0.015350649 0.1906342099
710295740.0 -0.0132128268 0.1807941706 0.0344888808 -0.5557101244 0.0345043696 -0.5561418294 0.0166923082 0.1905823723
715295710.0 -0.0118187508 0.1811976782 0.0286401177 -0.55669854 0.0284616043 -0.5562924191 0.0193489174 0.1905407393
720295680.0 -0.0101047952 0.1809079591 0.0223595614 -0.5567459617 0.0223842302 -0.5571762073 0.0217442644 0.190613879
725295650.0 -0.0079358436 0.1814514657 0.0160139705 -0.556803604 0.0161322404 -0.5566310689 0.0236117446 0.1904916585
730295620.0 -0.0064874667 0.1812681128 0.0101837242 -0.5568121342 0.0102462247 -0.5571085156 0.0258687312 0.1899471119
735295590.0 -0.0040616277 0.1817088565 0.0044853201 -0.5568580678 0.0045186422 -0.5568152422 0.027955398 0.1898826847
740295560.0 -0.002817696 0.1825184288 -0.0016280552 -0.5567027152 -0.0017517557 -0.5568942593 0.0299763602 0.1899415838
745295530.0 -0.0007431189 0.1820917551 -0.0076742209 -0.5568578236 -0.0072323108 -0.5570413456 0.0318667751 0.1898870628
750295500.0 0.000885307 0.1821962546 -0.0135475231 -0.5563710092 -0.0139066719 -0.5566015204 0.0343975659 0.188980304
755295470.0 0.0030638653 0.1825332139 -0.0195713063 -0.5563024065 -0.0195050054 -0.5569811279 0.0357272837 0.1892915937
760295440.0 0.0048565059 0.1825976818 -0.0255633647 -0.5559361031 -0.0256243191 -0.5562843022 0.0376655589 0.1889132496
765295410.0 0.0061084252 0.1824929708 -0.0310201288 -0.5554516041 -0.0314878821 -0.5561550519 0.0406567522 0.1890040374
770295380.0 0.0084123173 0.1828962406 -0.0376421857 -0.5551652995 -0.0376225486 -0.5557414392 0.0426499838 0.1886631836
775295350.0 0.0101861546 0.1829945214 -0.0437609879 -0.5546249066 -0.0433497504 -0.5549371872 0.0440029966 0.1875569032
780295320.0 0.0120150291 0.1829649601 -0.0489304784 -0.5544624964 -0.0492609322 -0.5545848637 0.0462839993 0.1878465697
785295290.0 0.0135982155 0.1832426002 -0.0556514102 -0.5533631387 -0.0551088217 -0.5540146197 0.0479596269 0.1873968682
790295260.0 0.0152476755 0.1831133855 -0.0612416824 -0.5527892047 -0.0615039 -0.5534083329 0.0506384989 0.1866406012
795295230.0 0.0169972476 0.1831576347 -0.066725706 -0.5526145367 -0.0669479537 -0.5527617766 0.052536885 0.1869864548
800295200.0 0.0190490596 0.183144201 -0.073548716 -0.5517521807 -0.074093825 -0.5519816029 0.0548270705 0.1861136589
805295170.0 0.0207495637 0.1830349647 -0.0790857179 -0.5504578799 -0.0791035826 -0.5507313884 0.0561990254 0.1853952382
810295140.0 0.0223705904 0.182731909 -0.0846921991 -0.549484171 -0.0850348962 -0.550277659 0.0587699669 0.185258432
815295110.0 0.024140491 0.1829369588 -0.0912409722 -0.5488409842 -0.0912660067 -0.5490464705 0.0604074569 0.1842636008
820295080.0 0.0262170364 0.1825166026 -0.0966025779 -0.5478525313 -0.096873225 -0.5481150907 0.0622786892 0.1842302349
825295050.0 0.0282426756 0.1825341057 -0.1027993507 -0.5462109119 -0.1026139991 -0.5467116997 0.0646890743 0.1839763398
830295020.0 0.0297905961 0.1827340513 -0.1087440057 -0.5451477983 -0.1090676626 -0.5459609916 0.066680171 0.1830820882
