!Created with skrf (http://scikit-rf.org).
# Hz S RI R 50.0 
!freq ReS11 ImS11 ReS21 ImS21 ReS12 ImS12 ReS22 ImS22
300000.0 -0.3227988463 -0.0853080807 0.3772556452 0.0440315519 0.3733317476 0.0406287494 -0.322133477 -0.0959861146
5299970.0 -0.326554758 0.0042490114 0.3782218186 0.0024189342 0.3784681407 0.0025496483 -0.3242561519 0.0048507168
10299940.0 -0.3243476186 0.0132044358 0.379534575 0.0020256933 0.3795977923 0.0022116439 -0.3212286573 0.0162589789
15299910.0 -0.3213771874 0.0201947095 0.3816114182 0.002118058 0.3821195163 0.0023090668 -0.3184206459 0.0238928474
20299880.0 -0.3187187215 0.0264076743 0.3848409566 0.0015316358 0.3847079932 0.0014547658 -0.3142984045 0.0303561367
25299850.0 -0.3157890058 0.0315790778 0.3883380025 -4.75371e-05 0.3880394005 0.0003114485 -0.3109303967 0.0358833572
30299820.0 -0.3126334984 0.0357818396 0.3914896928 -0.0022803159 0.3916186908 -0.0020738808 -0.3071171259 0.0406893778
35299790.0 -0.3099325993 0.0398047355 0.3948906471 -0.0053328855 0.3946522012 -0.0052473788 -0.3037606536 0.0449781552
40299760.0 -0.3072312822 0.0436242119 0.3978545412 -0.0085361072 0.3982095455 -0.0084954525 -0.2999886297 0.0481360409
45299730.0 -0.3045442448 0.04667658 0.4008828904 -0.0128670832 0.4007823845 -0.0127625201 -0.2970509855 0.0520608889
50299700.0 -0.3024731763 0.0492659917 0.4033955704 -0.0170005169 0.4033479259 -0.016920481 -0.2940313999 0.0546323743
55299670.0 -0.3002180127 0.0520051458 0.4060106316 -0.0221691523 0.4055669542 -0.0220387444 -0.2915796218 0.0572242525
60299640.0 -0.2977442464 0.0548827133 0.4075075936 -0.0271916031 0.4079735318 -0.0268012056 -0.2890199908 0.0592837036
65299610.0 -0.2963298651 0.0576698852 0.409390264 -0.0319169747 0.4091111385 -0.0318172263 -0.287223297 0.06156497
70299580.0 -0.2945782679 0.0601986099 0.4104372916 -0.0373043105 0.4106405129 -0.0368897163 -0.2849787411 0.063891621
75299550.0 -0.2929369902 0.0625520209 0.4110297957 -0.0421973334 0.4110316544 -0.0423731713 -0.2827583546 0.0657382712
80299520.0 -0.2915331826 0.0647910684 0.4124135614 -0.0476577943 0.4125640545 -0.0473668287 -0.2813155347 0.0681073192
85299490.0 -0.2902024821 0.0669816949 0.412785592 -0.0526098908 0.4130561467 -0.0525626217 -0.2801609191 0.0702778706
90299460.0 -0.288936469 0.0694407378 0.4128406156 -0.0577186323 0.413447811 -0.058003744 -0.2783178709 0.0721005439
95299430.0 -0.287447271 0.0715539186 0.4135743269 -0.0631148374 0.4135521625 -0.0633290116 -0.276692734 0.0745199555
100299400.0 -0.2864057337 0.0741430687 0.4131868592 -0.068355201 0.4130262069 -0.0682461538 -0.2750495557 0.0761838557
105299370.0 -0.2853218107 0.0764546243 0.4132000978 -0.0735175767 0.4135379482 -0.0735052155 -0.273614139 0.0782060878
110299340.0 -0.2839684073 0.0788767204 0.4134463693 -0.0785422739 0.4130447937 -0.0782300414 -0.2730057173 0.080342073
115299310.0 -0.2827825582 0.0810652345 0.4132792648 -0.0839348178 0.4128455714 -0.0837304269 -0.2719027327 0.0824387657
120299280.0 -0.281991417 0.0832307845 0.4123969871 -0.0890401864 0.4123524416 -0.0889153911 -0.2703718128 0.0844037738
125299250.0 -0.2812907224 0.085246429 0.4116101702 -0.0937284863 0.4120434266 -0.0938234656 -0.269503417 0.0863503293
130299220.0 -0.2801092107 0.08830135 0.411122427 -0.0990760286 0.410861362 -0.0990377127 -0.2684142267 0.0885491935
135299190.0 -0.2791240577 0.0907497984 0.4105020285 -0.1038080015 0.4105846921 -0.1040541292 -0.2673185479 0.0907874879
140299160.0 -0.2785669152 0.0931141714 0.4099605631 -0.109071589 0.4100119198 -0.109136076 -0.2662416891 0.0936494992
145299130.0 -0.2773190672 0.0956220616 0.4089284867 -0.1139949523 0.408842065 -0.1137322459 -0.2654217619 0.095612065
150299100.0 -0.2762528097 0.0981887704 0.4074213681 -0.1187893971 0.407843001 -0.1185843182 -0.2645763871 0.0985811069
155299070.0 -0.2754279572 0.1005772867 0.4066550129 -0.124021604 0.4065095026 -0.1239596974 -0.2631777052 0.1008724282
160299040.0 -0.2742180634 0.1035076454 0.4052133733 -0.1284029078 0.4051813509 -0.1288721325 -0.2625304034 0.1032388841
165299010.0 -0.2736455606 0.1059901447 0.404397148 -0.1335552914 0.4043398677 -0.13382998 -0.2612871962 0.1058560373
170298980.0 -0.2729222587 0.1085646782 0.4027081049 -0.1382713217 0.4030413135 -0.1383083999 -0.2602272032 0.1079995434
175298950.0 -0.27189819 0.1114290689 0.4015048795 -0.142905944 0.4011295582 -0.1431083216 -0.2596546157 0.1107136183
180298920.0 -0.2710359078 0.1137760957 0.4001555153 -0.1478840851 0.4000042376 -0.1475580765 -0.2585761834 0.1133352987
185298890.0 -0.2692523508 0.1163318751 0.3983927682 -0.1526021512 0.3983946049 -0.152259869 -0.2574416547 0.1158727147
190298860.0 -0.2686949224 0.1192125679 0.3968318401 -0.157221945 0.3972126384 -0.1574223569 -0.2561936482 0.1183441054
195298830.0 -0.2676041099 0.1218218018 0.3952535254 -0.1618676537 0.3953928822 -0.1617535093 -0.2549921712 0.1209576403
200298800.0 -0.2665005903 0.1246811529 0.393463114 -0.166497749 0.3935957851 -0.1666538475 -0.2545417793 0.12333193
205298770.0 -0.2653532649 0.1271962165 0.391439721 -0.1712309877 0.391698079 -0.1708451578 -0.2531106046 0.1254277749
210298740.0 -0.264460836 0.129693978 0.3898148408 -0.1755269915 0.3896741028 -0.1754198927 -0.2517152136 0.1286564835
215298710.0 -0.2633344439 0.1330630211 0.3878799319 -0.1805099367 0.3878568312 -0.1803609115 -0.2511378105 0.1312469226
220298680.0 -0.2620309279 0.1350405922 0.3856354564 -0.1846628063 0.385898511 -0.1846438169 -0.2501172113 0.1334856247
225298650.0 -0.2609297717 0.1380601187 0.3839250864 -0.1893374083 0.3846870612 -0.1890652746 -0.2491239889 0.1357503717
230298620.0 -0.2597616597 0.1409634837 0.3820775765 -0.1934149198 0.3827660767 -0.1934647395 -0.2478944779 0.1384889556
235298590.0 -0.2582957758 0.14371036 0.3798831738 -0.1978986868 0.3800580891 -0.1973260194 -0.2466456394 0.1410408335
240298560.0 -0.2570798923 0.1463408329 0.3780806135 -0.2026433291 0.3776731595 -0.2024592473 -0.2452742983 0.144048794
245298530.0 -0.2560314269 0.1490251657 0.3757818327 -0.2065080509 0.3754088618 -0.2064763592 -0.2437385916 0.1459153339
250298500.0 -0.2541467707 0.1518588046 0.372899281 -0.2109445516 0.3727784189 -0.210598911 -0.24257956 0.1486384263
255298470.0 -0.2530555905 0.1540698861 0.3704050916 -0.2147079911 0.3707844072 -0.2146550114 -0.2413553266 0.1508082273
260298440.0 -0.2517301754 0.1564734456 0.3684125249 -0.2193898736 0.3686176815 -0.2190665387 -0.2395527203 0.1534763262
265298410.0 -0.2501819201 0.1599460186 0.3659292632 -0.2237751954 0.3658994542 -0.2231835206 -0.2383289157 0.1559401193
270298380.0 -0.2484860541 0.1624796868 0.3635453319 -0.2269680987 0.3637527864 -0.2274516518 -0.2367350421 0.158745754
275298350.0 -0.2467901184 0.1651884528 0.360755928 -0.2317307182 0.3613279212 -0.231618709 -0.2353115157 0.1611614342
280298320.0 -0.2450024372 0.1678233532 0.3584298278 -0.2358493315 0.3585220192 -0.2354775252 -0.2333193564 0.1636976089
285298290.0 -0.2436217287 0.170754035 0.3560505896 -0.2396385592 0.3560310164 -0.2396687856 -0.2320359523 0.1659868033
290298260.0 -0.2419346222 0.1730099945 0.3532506762 -0.2434090653 0.3532754995 -0.2437501493 -0.2302824133 0.1687897758
295298230.0 -0.2401067697 0.1753967796 0.3505296823 -0.2479141364 0.3506932205 -0.2476344195 -0.2282602253 0.1707397928
300298200.0 -0.238778217 0.1782930857 0.3485162235 -0.2513656809 0.3481440668 -0.2520416134 -0.2264717132 0.1734171454
305298170.0 -0.236535588 0.1806247307 0.3448402023 -0.2559466747 0.3449563798 -0.2554014643 -0.2244677485 0.1757036378
310298140.0 -0.2349855777 0.1836315228 0.3424869026 -0.259540489 0.3424089422 -0.2593714374 -0.2232375431 0.1783660831
315298110.0 -0.2331039801 0.1856708845 0.3396026646 -0.2634207841 0.3397487893 -0.2634102626 -0.2213039869 0.180616485
320298080.0 -0.2314770523 0.1884191487 0.3363831639 -0.2679963977 0.3368289005 -0.2670796328 -0.2193152503 0.1830498239
325298050.0 -0.2292823059 0.1908879554 0.3334883333 -0.2713642665 0.3335898492 -0.2710106859 -0.2181857595 0.1854692481
330298020.0 -0.2277191332 0.1930874262 0.3303426621 -0.2749666315 0.3302244032 -0.2749358749 -0.2158584337 0.1878851846
335297990.0 -0.2257121955 0.1952740801 0.3271907734 -0.27807783 0.3269126492 -0.2788776616 -0.2147736121 0.1905579505
340297960.0 -0.224301585 0.1983015094 0.3241130632 -0.2818525744 0.3236291125 -0.2825239623 -0.2120901684 0.1930990328
345297930.0 -0.2220423524 0.2008825004 0.3205027934 -0.2860956838 0.3205094699 -0.2858885132 -0.2107467234 0.1951233079
350297900.0 -0.2202139791 0.2031837819 0.3172417119 -0.2893499315 0.3174203882 -0.2890326179 -0.2089313782 0.1976576122
355297870.0 -0.2179822568 0.2060927199 0.3140736213 -0.292885585 0.3144323697 -0.292425282 -0.2072736704 0.2001401618
360297840.0 -0.2161236585 0.2081820699 0.311338526 -0.2959894128 0.3115575804 -0.2959048919 -0.2047794771 0.20290048
365297810.0 -0.2141375679 0.2107570775 0.3074628395 -0.2998177169 0.3079815279 -0.2998219474 -0.2026768961 0.2051063461
370297780.0 -0.2119810199 0.213184025 0.3043052443 -0.3028546231 0.3044954328 -0.3028814469 -0.2006756344 0.2072233445
375297750.0 -0.209444389 0.2155065124 0.301094158 -0.3059276658 0.3012670627 -0.3066155663 -0.1988155444 0.2094017424
380297720.0 -0.2073052971 0.2177705873 0.2973875945 -0.3097898843 0.2977607716 -0.3092307551 -0.1972017723 0.2118658812
385297690.0 -0.2056264491 0.2202989891 0.2939274053 -0.3127598155 0.2938552606 -0.3126640579 -0.1946410859 0.2140666664
390297660.0 -0.2033474093 0.2228698368 0.2906239245 -0.3159929498 0.2906521223 -0.315713134 -0.1927988277 0.2165722125
395297630.0 -0.2007511582 0.2252588724 0.2871716179 -0.3192854299 0.2872974646 -0.3192925129 -0.1903965746 0.2184913047
400297600.0 -0.1985714276 0.2275064856 0.2834762808 -0.3226869436 0.2836808458 -0.3223353042 -0.1881102423 0.2206516214
405297570.0 -0.1964368042 0.2295515816 0.2800531189 -0.3253116651 0.2800476036 -0.3253046898 -0.1860178882 0.2229014854
410297540.0 -0.1940988371 0.2318377415 0.2764470247 -0.328672062 0.2766210707 -0.3285667901 -0.1835372218 0.2254017036
415297510.0 -0.1912047814 0.2339548847 0.2727832068 -0.3318059009 0.2729271054 -0.3316337476 -0.1814303249 0.2272017972
420297480.0 -0.1891316139 0.2365052239 0.2691010136 -0.3345062241 0.2691516855 -0.3345936658 -0.1792201765 0.2289694833
425297450.0 -0.1866693261 0.2382272323 0.2656075951 -0.3376307127 0.2657023972 -0.3376366682 -0.1771501604 0.2314449838
430297420.0 -0.1841416084 0.2403173858 0.2616833872 -0.3400517415 0.2617579631 -0.3400249524 -0.1744731323 0.2331155654
435297390.0 -0.1817920078 0.2424821458 0.25779348 -0.343003407 0.2578934467 -0.3431497913 -0.1720086933 0.2349460338
440297360.0 -0.1791320053 0.2446839939 0.2538580335 -0.3457783526 0.2544063202 -0.3458225526 -0.1696907475 0.2368174043
445297330.0 -0.1765210131 0.2466077559 0.2503657635 -0.3483056852 0.2504442077 -0.3482265979 -0.1671682706 0.2385820353
450297300.0 -0.1741758931 0.2484741585 0.2461765837 -0.3514899789 0.2465127802 -0.351569994 -0.1647199634 0.2406473284
455297270.0 -0.1716090731 0.2504772258 0.2425313453 -0.3540199118 0.2426636044 -0.354171063 -0.1622700605 0.242753741
460297240.0 -0.1694902693 0.2525537967 0.2384829767 -0.3564244861 0.2385665762 -0.3564984324 -0.1600162504 0.2443008292
465297210.0 -0.1663554876 0.2544495424 0.2347073003 -0.3591995407 0.2347930159 -0.3593391599 -0.1571876558 0.2457675938
470297180.0 -0.163566439 0.2561874116 0.2304653127 -0.3615432799 0.230784883 -0.3616009068 -0.1538881305 0.2480245348
475297150.0 -0.161243155 0.2579787389 0.2263872242 -0.363641706 0.2267766773 -0.3634585083 -0.1515972233 0.2491921412
480297120.0 -0.1581954725 0.2601678296 0.2225708823 -0.3668589324 0.2223615127 -0.3667994341 -0.1487888659 0.2516442647
485297090.0 -0.1557785358 0.2616219792 0.2186669358 -0.3685589601 0.2186418627 -0.36888684 -0.1461910222 0.2532085091
490297060.0 -0.1529674873 0.2636549812 0.2148242 -0.3713306739 0.2148804859 -0.3708115804 -0.1436818822 0.2547363484
495297030.0 -0.1503258231 0.2654966724 0.2105119491 -0.3736976209 0.2109286946 -0.3735926479 -0.1408542737 0.2567969393
500297000.0 -0.1474838744 0.2674614591 0.2064318206 -0.3757305872 0.2062579026 -0.375466591 -0.1380182049 0.2586711741
505296970.0 -0.1443599434 0.2688833905 0.2024139897 -0.3778851525 0.2022294378 -0.3778644026 -0.1356123081 0.2601559097
510296940.0 -0.1417876388 0.2703915067 0.1982082576 -0.3800707896 0.1981048488 -0.38014682 -0.1326328556 0.261886479
515296910.0 -0.1388301172 0.272005311 0.1937053768 -0.3822044671 0.1938844062 -0.3819262838 -0.1302675736 0.2632482808
520296880.0 -0.1363139337 0.2736448005 0.1899773213 -0.3844993365 0.1899890526 -0.3839936702 -0.1274808822 0.2647135014
525296850.0 -0.1329960233 0.2749451118 0.1854328942 -0.3861631181 0.1859170955 -0.3863314777 -0.124461631 0.2667707679
530296820.0 -0.130102776 0.2767572102 0.1811353487 -0.3882261314 0.1814594359 -0.38810374 -0.1216929392 0.2679355165
535296790.0 -0.1276360531 0.2782303044 0.1772512156 -0.3898396155 0.17736873 -0.3896452825 -0.1191152014 0.2691423758
540296760.0 -0.1247123623 0.2797967688 0.1728260835 -0.392470872 0.1731375341 -0.3921999274 -0.1166010359 0.2710787076
545296730.0 -0.1217715866 0.2813692411 0.1683909093 -0.3938076252 0.1684938497 -0.3939645476 -0.1138765804 0.2722665717
550296700.0 -0.1185180226 0.2827145233 0.1639405916 -0.3961419187 0.1643501765 -0.3956897587 -0.110947794 0.2739008021
555296670.0 -0.1157942465 0.2839721793 0.1598168397 -0.3975701206 0.1600477867 -0.3972595858 -0.107795343 0.2753015219
560296640.0 -0.1124900467 0.2855850166 0.1554201304 -0.3993405219 0.155649245 -0.3992041158 -0.1050317393 0.276440429
565296610.0 -0.1098130604 0.2871135415 0.1508048736 -0.4007904873 0.1513779742 -0.4006864742 -0.1024845616 0.2772596911
570296580.0 -0.1071905915 0.2883649306 0.1469756244 -0.4029966539 0.1461802131 -0.4025370639 -0.0994544896 0.2789887435
575296550.0 -0.1039641505 0.2898645774 0.1424064526 -0.4042263767 0.1422754856 -0.4039221836 -0.0963588664 0.2799281809
580296520.0 -0.1005072895 0.2908866171 0.1377908055 -0.4058892653 0.1378995403 -0.4053670148 -0.0932521989 0.2810986731
585296490.0 -0.0978362705 0.2917449679 0.133506248 -0.406736484 0.1337858541 -0.4069092443 -0.090597756 0.2823001245
590296460.0 -0.0944776445 0.2929515271 0.1291492372 -0.4080440893 0.1290795336 -0.4082991071 -0.0878756393 0.2833152224
595296430.0 -0.0919108816 0.2936638875 0.1245797473 -0.4095344197 0.1245165437 -0.4098057077 -0.0847637797 0.2841019238
600296400.0 -0.0886291671 0.2950709243 0.1197359597 -0.4108954372 0.1200582204 -0.4109076942 -0.08206821 0.2853999198
605296370.0 -0.0858871745 0.2964133137 0.1157851387 -0.4120700713 0.1155693407 -0.4118808377 -0.078650637 0.2860907805
610296340.0 -0.082491294 0.2973102536 0.1108996734 -0.4131852829 0.1110622522 -0.4131181918 -0.0757422509 0.2871893782
615296310.0 -0.0791507815 0.2979925075 0.106366536 -0.4140938556 0.106241004 -0.4147807488 -0.072485091 0.2877768064
620296280.0 -0.0762847767 0.2987908583 0.1022832799 -0.4155018722 0.1022616412 -0.4151585224 -0.0697413226 0.2889940051
625296250.0 -0.073256877 0.29976762 0.0979038466 -0.4167151472 0.0973390448 -0.4167878374 -0.0663205023 0.2899283429
630296220.0 -0.0691125568 0.3007283199 0.092542479 -0.4175777637 0.0928875699 -0.4175540929 -0.0633573956 0.2909146758
635296190.0 -0.0669901015 0.3014665839 0.0885116987 -0.4183440632 0.0884910553 -0.4185119422 -0.0604304374 0.2913720678
640296160.0 -0.0634864304 0.3024834187 0.0835128791 -0.4190661928 0.0840926356 -0.4195620537 -0.0570562755 0.2922497895
645296130.0 -0.0601752359 0.3037800973 0.0793215774 -0.4199576179 0.0794052318 -0.4202328217 -0.0542434481 0.2931453312
650296100.0 -0.0571428577 0.3040504008 0.0745116847 -0.4208921955 0.0750069433 -0.4208603658 -0.0505200554 0.2933015301
655296070.0 -0.0541730393 0.3048308645 0.0700288412 -0.4216665127 0.0703283393 -0.4219720673 -0.0473548668 0.2941107924
660296040.0 -0.0511624409 0.3053727547 0.065704956 -0.4222017159 0.0655335421 -0.4225957499 -0.043993638 0.2951321639
665296010.0 -0.0475197339 0.3057876121 0.0605485784 -0.4224605267 0.061074648 -0.4225672602 -0.0413734541 0.2959364428
670295980.0 -0.0448874903 0.3067807221 0.0564878434 -0.4234351333 0.0565217665 -0.4234848541 -0.0384706377 0.296592323
675295950.0 -0.041292794 0.3075233853 0.0520164437 -0.4238450386 0.0520410074 -0.4235918581 -0.0357477595 0.2970000422
680295920.0 -0.0381605065 0.3081172465 0.0472198535 -0.4246160295 0.0468218622 -0.4250954412 -0.0319928182 0.2981481159
685295890.0 -0.0349376568 0.3087629835 0.0426449821 -0.4249109546 0.0424041057 -0.4249937097 -0.0289822268 0.2980293864
690295860.0 -0.0317633583 0.3089838716 0.0380076101 -0.4251342747 0.0378672426 -0.4255019181 -0.0258630886 0.2992131473
695295830.0 -0.0287018499 0.3093195478 0.0338387506 -0.4254859103 0.0330047674 -0.4255644584 -0.0226950422 0.2991035623
700295800.0 -0.0252184675 0.3099683847 0.0287503553 -0.4258962362 0.0287268773 -0.425997736 -0.0200090288 0.3000566992
705295770.0 -0.022374288 0.3107321201 0.0241062907 -0.4259558726 0.0242279802 -0.4264972973 -0.016489131 0.3004818557
710295740.0 -0.0187303395 0.3109319886 0.0198996037 -0.4267975901 0.0195099051 -0.4268099689 -0.0136242016 0.3004801689
715295710.0 -0.0158057861 0.3109860944 0.0151508843 -0.4269227905 0.0147862403 -0.426668265 -0.0102296836 0.300707895
720295680.0 -0.0122384383 0.31121742 0.0102839648 -0.4268881527 0.0103514621 -0.4269554352 -0.0069356787 0.3014409358
725295650.0 -0.0090440653 0.3116287511 0.0055621723 -0.4267547673 0.0060969751 -0.4271186241 -0.0043311709 0.3017502203
730295620.0 -0.0058077191 0.3123831818 0.0007973985 -0.4265465764 0.0012999192 -0.4269126157 -0.0014239241 0.3013424123
735295590.0 -0.0022906739 0.312475835 -0.0034054181 -0.4270133961 -0.0033819546 -0.4267881255 0.0015987161 0.3014669501
740295560.0 0.0005173395 0.3123969111 -0.0080327277 -0.4268092222 -0.008260345 -0.4266605925 0.0057265442 0.3016343644
745295530.0 0.0040256874 0.3123625033 -0.0128535977 -0.4261702836 -0.012746953 -0.4265823458 0.0084316287 0.3017869897
750295500.0 0.0074463641 0.3127791605 -0.0171502264 -0.426297668 -0.0172311831 -0.4264327269 0.011468357 0.3018772916
755295470.0 0.0105480593 0.3125190414 -0.0218006123 -0.4264393765 -0.0217522258 -0.4261167092 0.0147846597 0.3014094601
760295440.0 0.0137260621 0.3125624058 -0.0265239932 -0.4260949755 -0.026760451 -0.4261478943 0.0178595909 0.3016293629
765295410.0 0.0170510278 0.3126553387 -0.0313835912 -0.4255635601 -0.031335924 -0.4255839523 0.0212926933 0.3018641045
770295380.0 0.020221682 0.3125181827 -0.0358303728 -0.4252102481 -0.0357742771 -0.4251855104 0.0237059377 0.3015627727
775295350.0 0.0231419323 0.3121367124 -0.0405150991 -0.424072879 -0.0400917087 -0.4248409157 0.026631874 0.3013627181
780295320.0 0.0267525759 0.3122354298 -0.0451139736 -0.4238089758 -0.0446946289 -0.423827487 0.0301672126 0.300931604
785295290.0 0.029828551 0.3114844943 -0.0496511815 -0.4231554455 -0.0490500981 -0.4234407686 0.033747546 0.3009320106
790295260.0 0.0336211737 0.3120356604 -0.0538706415 -0.4231270625 -0.0535974474 -0.4228355964 0.0369943947 0.3008385041
795295230.0 0.0365803716 0.3115463009 -0.058971042 -0.4221300644 -0.0580657036 -0.4224805929 0.0405255474 0.3003151081
800295200.0 0.0396364785 0.3114007062 -0.063506028 -0.4210864671 -0.0631658553 -0.4215104344 0.0437279007 0.2998676032
805295170.0 0.0432621214 0.3108852785 -0.067768975 -0.4205589163 -0.0676030657 -0.4209486449 0.0463163609 0.2999549488
810295140.0 0.0465018729 0.3102166326 -0.0720304894 -0.4201275661 -0.0722255764 -0.4199685648 0.0499059909 0.2993642098
815295110.0 0.0494462053 0.3099631667 -0.0767548859 -0.4191110611 -0.0766181151 -0.4192207954 0.052944667 0.298960271
820295080.0 0.052423539 0.3099086718 -0.081250496 -0.4176405402 -0.0809841675 -0.4181703953 0.0567102384 0.2987069729
825295050.0 0.0563572926 0.3091746775 -0.0852922328 -0.4169889928 -0.0855649589 -0.4172388909 0.0594520995 0.2981704526
830295020.0 0.0590408814 0.3090147775 -0.0904383889 -0.4160831562 -0.0904371978 -0.4162089789 0.0631319766 0.2976969483
