!Created with skrf (http://scikit-rf.org).
# Hz S RI R 50.0 
!freq ReS11 ImS11 ReS21 ImS21 ReS12 ImS12 ReS22 ImS22
300000.0 -0.7706673651 -0.1803057264 -0.0003700403 -1.32017e-05 0.000605875 -0.0001917028 -0.0474355257 -0.078946038
5299970.0 -0.78618512 -0.0095276048 8.3346e-06 -9.5244e-06 0.0001754029 -0.0002850219 -0.0477492096 0.0139831457
10299940.0 -0.7892674498 -0.0059716054 -0.0001160875 8.33486e-05 0.0001584733 -6.78132e-05 -0.041909994 0.0315392408
15299910.0 -0.7945831906 -0.0036313381 -0.0001664124 0.0001075528 -4.60011e-05 1.3285e-06 -0.0337558233 0.045550788
20299880.0 -0.8008599471 0.0012708619 2.84525e-05 -2.536e-05 2.64806e-05 6.41168e-05 -0.0242460136 0.0570958773
25299850.0 -0.8077481876 0.0065248699 3.13731e-05 -9.61266e-05 0.0001346107 -0.0001183495 -0.0132952021 0.0662918439
30299820.0 -0.8138340932 0.0139222929 7.6194e-06 -0.0001039367 -0.0001184704 -2.9154e-06 -0.0017686152 0.0726975792
35299790.0 -0.8188291194 0.0232188368 -2.65357e-05 -9.979e-07 8.28913e-05 -0.0002187233 0.0091697122 0.0773366327
40299760.0 -0.8233312463 0.0323523652 0.00011293 0.0002523707 0.0001531014 0.0001097537 0.0200289771 0.080264812
45299730.0 -0.8266638391 0.0418073814 -0.0001311509 5.61165e-05 5.95652e-05 7.05109e-05 0.0305455808 0.0813611695
50299700.0 -0.8293895502 0.0517985873 0.0001667532 -4.14402e-05 0.0001622772 1.73571e-05 0.0404323866 0.0815744727
55299670.0 -0.8314512884 0.0615246324 -0.0001557878 -1.14511e-05 0.0001335097 0.0001049068 0.0496535122 0.080304066
60299640.0 -0.8323606615 0.0719783792 -8.95962e-05 0.0001522511 0.0001061302 -0.0001835848 0.0577151883 0.0784058553
65299610.0 -0.8335204422 0.0815124286 0.000197909 4.93431e-05 -0.0001584367 -0.0001010588 0.0654735613 0.0760209311
70299580.0 -0.8337018195 0.0920232791 -1.31442e-05 0.0001555025 6.41376e-05 0.000194973 0.0722151935 0.0729439226
75299550.0 -0.8339736667 0.1015752031 -2.29645e-05 1.4615e-05 0.0002155835 0.0001336719 0.078557872 0.0698074513
80299520.0 -0.8343128985 0.1118120249 9.35537e-05 -0.0001521839 0.0001296129 7.05992e-05 0.0842203207 0.0659451067
85299490.0 -0.832476576 0.1211396787 -9.48584e-05 0.000182289 -0.0001281479 -2.30388e-05 0.0889881071 0.0626510942
90299460.0 -0.8322600411 0.1313566471 -3.272e-06 1.88578e-05 -9.60139e-05 -4.71387e-05 0.0932993525 0.0588050358
95299430.0 -0.8315380835 0.1407199407 -0.000151852 -4.3325e-05 -0.0001747715 0.0001027914 0.0975257759 0.0548064819
100299400.0 -0.8304417595 0.149692899 2.74421e-05 0.000267348 -1.20981e-05 9.936e-05 0.1009929101 0.0513607991
105299370.0 -0.8288214858 0.1590881657 -3.2674e-06 -4.26071e-05 3.13892e-05 0.0001207162 0.104361336 0.0469631302
110299340.0 -0.8277596386 0.1683783103 -5.05354e-05 2.69778e-05 -9.02703e-05 -0.000136141 0.106664221 0.042766291
115299310.0 -0.8264150796 0.177722775 0.0001694376 2.25424e-05 -6.3114e-06 -0.0001596145 0.1094147132 0.0392488216
120299280.0 -0.8246178853 0.1871020445 6.61357e-05 -2.09495e-05 6.60709e-05 -2.80528e-05 0.111337866 0.0348067045
125299250.0 -0.8230496988 0.1956671474 0.0003243025 9.72915e-05 -1.25556e-05 0.0002357836 0.1133386982 0.0314370154
130299220.0 -0.8213304192 0.2053891501 0.0001821865 7.88008e-05 -7.96982e-05 6.48133e-05 0.1150363545 0.0276499932
135299190.0 -0.8196320129 0.2144124634 -5.97173e-05 -7.50256e-05 1.53329e-05 9.57098e-05 0.1165529584 0.0234822045
140299160.0 -0.8171864489 0.2234218497 -3.46268e-05 0.000127227 -0.0001548872 -0.0001695756 0.1174091291 0.0202471502
145299130.0 -0.8148912505 0.2323501419 -5.52632e-05 -1.4396e-06 -7.50329e-05 -4.77609e-05 0.1183976595 0.0166938757
150299100.0 -0.8119423751 0.2411384816 -3.3588e-05 1.10616e-05 0.0002436329 7.3108e-06 0.1190344451 0.0136091881
155299070.0 -0.8098815374 0.249801138 -2.08537e-05 -7.408e-07 0.0001111864 5.8828e-05 0.1201428612 0.0099653937
160299040.0 -0.8074745189 0.259183396 -0.000248858 0.0001540324 -2.70096e-05 9.172e-07 0.1203694298 0.0069626729
165299010.0 -0.804171705 0.2676653668 -8.41921e-05 -6.05922e-05 0.000156653 9.2424e-06 0.1211118363 0.0034316597
170298980.0 -0.8017601867 0.2763781997 0.0001045312 4.33531e-05 -2.65796e-05 0.0001303284 0.1216016709 0.0004491182
175298950.0 -0.7993001366 0.2843380252 4.4601e-06 4.42948e-05 -4.6071e-06 9.57346e-05 0.1216190358 -0.0024251152
180298920.0 -0.7967121472 0.2935823802 8.82159e-05 0.0001379556 0.0001609425 -2.8104e-06 0.1218532164 -0.0055590398
185298890.0 -0.7930445898 0.3016851685 -4.90183e-05 2.2426e-06 0.0003259643 -1.8822e-05 0.121740788 -0.0086457302
190298860.0 -0.789287979 0.3109448035 -8.32305e-05 9.02021e-05 9.97387e-05 1.56634e-05 0.1215299693 -0.0114867808
195298830.0 -0.7861145614 0.3194465031 -1.90017e-05 -0.0001181358 -5.77928e-05 -7.007e-07 0.1212947878 -0.0142720334
200298800.0 -0.7830834356 0.3276430257 9.67848e-05 0.0001025014 -9.59176e-05 0.0001403039 0.1209521395 -0.0171365411
205298770.0 -0.7792825876 0.3365804191 0.0002494299 -0.0001407383 0.0001398073 0.0001505464 0.1205931567 -0.0196480479
210298740.0 -0.7761084106 0.3446797138 -0.0001276125 4.32292e-05 -2.14101e-05 -1.69554e-05 0.1201655421 -0.0222418911
215298710.0 -0.771771804 0.3534322601 0.0002597127 5.79988e-05 0.0001670527 -9.1885e-06 0.1198860613 -0.0249202829
220298680.0 -0.7688848858 0.3606979112 1.75314e-05 5.953e-06 0.0002164162 0.00017348 0.1193461012 -0.0273568044
225298650.0 -0.7647738365 0.3697428493 8.10167e-05 1.82125e-05 9.66572e-05 -7.99666e-05 0.1185932555 -0.0294294606
230298620.0 -0.7612023368 0.3775357792 2.40334e-05 0.0001895196 -3.53688e-05 -3.18107e-05 0.1181465307 -0.0324173124
235298590.0 -0.7568600305 0.3859243505 1.8073e-05 0.0001233183 3.64406e-05 -8.50937e-05 0.117546864 -0.034276853
240298560.0 -0.7529121649 0.3935956707 0.000167574 2.99731e-05 0.0002398078 8.49223e-05 0.1168334889 -0.0369438576
245298530.0 -0.7489268527 0.4020189323 8.70321e-05 3.14542e-05 5.87371e-05 6.5054e-05 0.1161304503 -0.0392013334
250298500.0 -0.744742576 0.409308751 -0.000125696 -6.59291e-05 0.0001770966 -8.81097e-05 0.1150308234 -0.0412275955
255298470.0 -0.7405528907 0.4178503858 -0.0001586637 -0.0001154245 0.0001057307 0.0001203481 0.1143677495 -0.043607683
260298440.0 -0.7364031789 0.4250386575 -0.0001157713 7.27831e-05 0.0001962539 -7.50326e-05 0.1132845332 -0.0455140723
265298410.0 -0.7315997618 0.4329180875 -6.79575e-05 5.87488e-05 0.00010638 -7.5737e-05 0.1129788001 -0.0478324185
270298380.0 -0.7275975902 0.4407721271 -6.17457e-05 0.0002080784 0.0001454477 5.31677e-05 0.1121996105 -0.0497768669
275298350.0 -0.7231649521 0.4482018487 0.0001038156 0.0001249245 0.0001167249 4.54581e-05 0.1108506883 -0.0518116197
280298320.0 -0.7182722274 0.4557808382 8.9074e-05 4.30471e-05 0.0001222722 0.0001748808 0.1100429317 -0.0533861794
285298290.0 -0.7133855471 0.4630674012 0.0001204279 4.51623e-05 -1.02491e-05 -1.01702e-05 0.1090108349 -0.0552468982
290298260.0 -0.7087845336 0.4710758896 0.000104759 -0.0001106181 -1.22563e-05 -0.0001227139 0.1078784069 -0.0571078135
295298230.0 -0.7041259425 0.4783747475 2.49495e-05 -5.34821e-05 9.60482e-05 0.0001188271 0.1068782814 -0.0592482353
300298200.0 -0.6994744822 0.4857108664 3.8385e-05 -6.14678e-05 0.0002693996 -0.0001697438 0.1061344288 -0.060714766
305298170.0 -0.6945610831 0.492456663 6.10243e-05 -2.43657e-05 -1.35042e-05 5.82039e-05 0.1049911118 -0.0631502841
310298140.0 -0.6887780377 0.4997272753 -8.10168e-05 0.0002628032 9.91477e-05 0.0001407542 0.104118818 -0.0645973295
315298110.0 -0.684715994 0.5071779232 -0.0001438278 1.86394e-05 0.0001008716 -8.658e-07 0.1030004816 -0.0665311323
320298080.0 -0.6791050808 0.5141260157 0.0003126792 -1.55591e-05 -4.78824e-05 -0.0001158418 0.1016682632 -0.0683737792
325298050.0 -0.6735764484 0.5209277835 0.0001166578 6.0948e-05 3.14907e-05 0.0001324356 0.1007348413 -0.0703408546
330298020.0 -0.6683015011 0.5278032117 0.0001229684 9.94898e-05 0.0002609105 0.0001096537 0.0991600528 -0.072211454
335297990.0 -0.662785157 0.535106849 -8.54884e-05 -2.51731e-05 0.0001440063 1.0042e-05 0.0979360442 -0.0736086789
340297960.0 -0.6570893082 0.5417832286 -9.1208e-05 -2.03817e-05 7.04484e-05 -2.68367e-05 0.0964105925 -0.0749376493
345297930.0 -0.6518217165 0.5479814796 1.22753e-05 0.0001558686 0.0001131499 7.81073e-05 0.0948138563 -0.076495956
350297900.0 -0.6463900703 0.5551523582 0.0002619829 0.0001035585 0.0001908441 5.35599e-05 0.0930166802 -0.0780448165
355297870.0 -0.6411078553 0.5611356332 6.07579e-05 -1.5882e-05 0.0002332957 5.90352e-05 0.0919968218 -0.0794213571
360297840.0 -0.634927029 0.5679416547 -0.0001736314 -5.7727e-05 -9.12973e-05 6.64411e-05 0.0907100762 -0.0806472473
365297810.0 -0.6294856065 0.5745879107 8.94601e-05 -1.89538e-05 0.0001540487 0.0001361475 0.0889228606 -0.0820000332
370297780.0 -0.6239281546 0.5808668594 -0.0001078181 -4.53686e-05 9.50332e-05 -3.78333e-05 0.0874407638 -0.0831294857
375297750.0 -0.6174850109 0.5871011406 -2.97242e-05 0.0001496939 -5.06116e-05 -6.44991e-05 0.0861428927 -0.0845968755
380297720.0 -0.611611994 0.5934955135 5.07455e-05 -5.92353e-05 -8.58928e-05 -0.0001862916 0.0849525199 -0.0857124013
385297690.0 -0.6060301749 0.5997764306 0.0001518028 1.31917e-05 1.80607e-05 -1.10723e-05 0.0831681568 -0.0867941654
390297660.0 -0.5986641328 0.6055989892 0.0002408265 -8.81584e-05 -9.9863e-06 -9.08933e-05 0.0819439263 -0.0880158703
395297630.0 -0.5931331104 0.6123934368 0.0001260817 -4.81674e-05 0.0001525435 -3.1364e-05 0.0802427023 -0.0894184536
400297600.0 -0.58701801 0.6180345892 -6.39422e-05 -6.76186e-05 -1.6896e-05 -6.00635e-05 0.079262609 -0.0900563172
405297570.0 -0.580328316 0.6233556149 0.0002802355 -9.63864e-05 0.0001636161 4.34063e-05 0.0778370184 -0.0913487832
410297540.0 -0.5735665273 0.6300392988 0.0002045938 5.49433e-05 7.3784e-05 -9.7464e-06 0.0761899043 -0.0922405967
415297510.0 -0.5674477467 0.6357814667 0.0001935674 0.0002746847 -0.0001283465 3.11822e-05 0.0745197642 -0.0935082824
420297480.0 -0.5611404764 0.6414260603 0.0002019531 -4.94593e-05 1.9397e-06 -6.52937e-05 0.0733941285 -0.0945637475
425297450.0 -0.5541987752 0.6466011589 7.26557e-05 3.63931e-05 -1.4798e-06 1.7635e-06 0.0715056841 -0.0955800161
430297420.0 -0.5480926681 0.6521490302 2.72325e-05 -7.44609e-05 0.0001191288 0.0001930307 0.070289862 -0.0965973559
435297390.0 -0.5408077113 0.6573603484 3.75098e-05 0.0003291929 8.3316e-06 0.0001621597 0.0684745517 -0.0972564645
440297360.0 -0.5339561503 0.6626239858 7.21967e-05 0.0001069221 0.0001445473 -0.000201545 0.067159775 -0.0982801072
445297330.0 -0.527111441 0.6686184113 9.2591e-06 -0.000226173 0.000226686 -0.0001658003 0.0659164896 -0.099052693
450297300.0 -0.5203575034 0.6736421124 -9.504e-07 -6.51857e-05 0.000112887 -0.0001291814 0.0644822691 -0.1001478383
455297270.0 -0.5133897425 0.6786363384 0.0001334993 -0.0002539522 0.0001491996 5.0336e-06 0.0625500348 -0.1009828099
460297240.0 -0.5057214726 0.6840742692 0.0001029237 0.0002023837 0.0001960489 -1.4112e-06 0.0606020926 -0.1017740367
465297210.0 -0.499381629 0.6890202996 -8.77993e-05 0.0001627365 5.5932e-05 8.94e-06 0.0593138283 -0.1021708533
470297180.0 -0.4917229861 0.6941298672 6.52858e-05 -8.1192e-06 0.0003112436 5.1947e-05 0.0578835731 -0.1032526002
475297150.0 -0.484907658 0.6987376758 0.0001190186 -7.6546e-06 -6.75605e-05 -2.15884e-05 0.0561630792 -0.1041036513
480297120.0 -0.4772173057 0.7045257325 5.37898e-05 0.000163906 0.000261487 -5.58398e-05 0.0545812071 -0.1046312344
485297090.0 -0.4702757941 0.7087676314 0.0001704498 1.97902e-05 3.45089e-05 -5.9548e-05 0.0530274994 -0.1054446538
490297060.0 -0.4620743839 0.7138662857 0.0001688619 -0.0001368513 7.57088e-05 2.92717e-05 0.0514578033 -0.1061289644
495297030.0 -0.454811615 0.7181665281 5.66727e-05 -8.7041e-06 -3.72112e-05 0.0001816048 0.0499571421 -0.1069217905
500297000.0 -0.4473939169 0.7221954078 0.0002470183 6.26024e-05 5.31745e-05 5.50751e-05 0.048235678 -0.1073001072
505296970.0 -0.4397635948 0.7273953315 7.44103e-05 1.09867e-05 7.17059e-05 -5.667e-05 0.046596574 -0.1080401735
510296940.0 -0.4320053329 0.7315859705 7.2826e-06 -0.000112235 0.0001601977 0.0001863417 0.0450846619 -0.1083003056
515296910.0 -0.4240438687 0.7356862959 0.0002659787 9.68999e-05 7.29862e-05 9.0843e-05 0.0432926564 -0.1091366722
520296880.0 -0.4166710381 0.7397302428 0.0001132197 0.0002091048 0.0002114872 6.60489e-05 0.0420627429 -0.1096578644
525296850.0 -0.4085778002 0.7439446185 9.37055e-05 5.23218e-05 -1.02694e-05 -0.0001309624 0.0399964791 -0.110178913
530296820.0 -0.4017419755 0.7476089876 0.0001412639 4.95452e-05 0.0001350024 1.28134e-05 0.0383145934 -0.1109426657
535296790.0 -0.3925748423 0.7518883715 0.0002350995 -0.0001289098 -2.13283e-05 3.92513e-05 0.0371341079 -0.1109952033
540296760.0 -0.3848001799 0.7559464698 1.21986e-05 0.0001712234 0.0002029344 -8.136e-07 0.0349252195 -0.1113390553
545296730.0 -0.3775166685 0.7599021996 0.0001837251 9.07337e-05 0.0002527531 8.43851e-05 0.0336863198 -0.1116616248
550296700.0 -0.3690404176 0.7636254794 0.0001246961 -0.0001014766 -0.0001023251 0.000102443 0.0319402916 -0.1123412144
555296670.0 -0.3614033248 0.7674579458 5.54374e-05 -9.76796e-05 0.0003022131 2.47689e-05 0.0297881095 -0.1126176784
560296640.0 -0.3534416095 0.7706909768 0.0001858767 0.0001065511 0.0001826401 3.92421e-05 0.0282366259 -0.1130729314
565296610.0 -0.3457070794 0.7742437508 0.0001419543 -7.39883e-05 6.68966e-05 -6.24829e-05 0.0267312601 -0.1132913033
570296580.0 -0.3370036707 0.7784709693 6.4872e-06 -0.0001049388 0.0001180894 -3.48699e-05 0.0247489244 -0.1137871138
575296550.0 -0.3282722108 0.7813279163 0.0001449369 -2.82297e-05 0.0001501034 -0.0001032029 0.0232813786 -0.1138479091
580296520.0 -0.3211633215 0.7844329492 9.03954e-05 0.0002408429 0.0001408579 0.0001362778 0.0215873249 -0.1141117077
585296490.0 -0.3121414042 0.7875995059 0.0001153961 -7.45006e-05 1.72309e-05 2.15001e-05 0.0202655971 -0.1141803494
590296460.0 -0.3033143796 0.7910900152 1.0113e-05 -1.98122e-05 0.0001472077 3.77512e-05 0.0183040435 -0.1146047684
595296430.0 -0.2961514565 0.7938127508 0.0001841895 -1.07934e-05 0.000286543 -5.61592e-05 0.0166252244 -0.1146959997
600296400.0 -0.2881892772 0.7968312032 0.0001942569 6.9452e-06 3.83066e-05 8.52799e-05 0.0150990223 -0.1150576775
605296370.0 -0.2795550198 0.7994837724 0.0001835048 -0.0001708848 1.63571e-05 -8.2973e-05 0.013661167 -0.115076443
610296340.0 -0.2715002912 0.8030819959 -6.62566e-05 -4.21043e-05 0.000303209 1.69402e-05 0.0115326858 -0.1150858298
615296310.0 -0.2627052346 0.8058125471 1.75205e-05 7.24972e-05 4.8979e-06 -0.0001803257 0.0099906868 -0.1149437592
620296280.0 -0.2548315365 0.8087221539 3.0828e-06 -0.0001125844 0.0001929172 -5.6032e-06 0.0082654966 -0.1146540536
625296250.0 -0.2476026236 0.8096565098 0.0003098523 -8.3987e-06 0.0003034279 -0.0001525044 0.0066008995 -0.1152104632
630296220.0 -0.2388375942 0.8129081189 1.30214e-05 -0.0002140388 0.0002251893 -0.0001426884 0.0050155845 -0.1149778302
635296190.0 -0.2300415155 0.8157723633 -3.79359e-05 -7.35008e-05 0.0002350892 -8.01113e-05 0.0030584594 -0.114927979
640296160.0 -0.2214862761 0.8176389955 0.0001325192 -7.7072e-05 0.0001087142 -4.81219e-05 0.0014300453 -0.1146633201
645296130.0 -0.2135512966 0.8201178188 -7.52246e-05 1.10624e-05 0.0002569064 0.0001330089 -0.0003490347 -0.1147877142
650296100.0 -0.2054543973 0.8218000043 6.32947e-05 -0.0002654974 0.000302896 3.20756e-05 -0.0017536702 -0.1146496223
655296070.0 -0.1978780852 0.8246524685 0.0002001841 -0.0002455209 -1.3836e-06 0.0001216654 -0.0039792238 -0.1143876484
660296040.0 -0.1891928728 0.8264678453 -6.96255e-05 -8.7436e-05 0.0001384114 0.0001539607 -0.0046856477 -0.1146319545
665296010.0 -0.180850516 0.8283167997 3.2436e-06 1.19748e-05 9.39737e-05 -0.0001516824 -0.0068493633 -0.1143761899
670295980.0 -0.1725499589 0.8306887323 0.000106331 9.41058e-05 6.27569e-05 0.0001034515 -0.0086331474 -0.1142510704
675295950.0 -0.1639294751 0.8326387472 0.000144257 0.000148031 0.000135731 -2.38122e-05 -0.0102726116 -0.1137636107
680295920.0 -0.1564495961 0.8341170266 0.0001911861 0.0002222664 0.0003630678 5.84945e-05 -0.0121106407 -0.1136442843
685295890.0 -0.1475966578 0.8359496023 0.0001253008 0.0001041478 0.0001987476 -5.50122e-05 -0.013771718 -0.113384013
690295860.0 -0.1395858205 0.8374552625 0.0003109502 1.18007e-05 -1.1545e-06 -8.64373e-05 -0.0151317186 -0.1129232775
695295830.0 -0.1310499519 0.8389359984 0.0002576075 0.0001892454 0.0001452744 4.3942e-06 -0.016758319 -0.1127551664
700295800.0 -0.1220994119 0.8400211034 0.000235926 -0.0001001244 -8.43266e-05 -9.97448e-05 -0.0181900346 -0.1123951424
705295770.0 -0.1143796857 0.8415097869 -0.0003635082 0.0001053191 -5.77159e-05 0.0001127018 -0.0202783575 -0.1119698397
710295740.0 -0.1066426178 0.8421313132 0.0002396777 -0.0001765844 0.0001001212 -0.000113428 -0.0216935193 -0.1116585705
715295710.0 -0.0974872711 0.8437836233 0.0001840109 -2.6748e-06 9.23731e-05 -6.18675e-05 -0.0230339851 -0.1113231553
720295680.0 -0.089209165 0.8443258798 -9.13946e-05 -0.0001448097 0.000204138 2.30629e-05 -0.0248426846 -0.110929651
725295650.0 -0.0815352586 0.8457482866 0.0001726192 -8.78572e-05 0.0003749978 -8.49796e-05 -0.026605578 -0.1102826038
730295620.0 -0.0736175149 0.8466273251 -7.41261e-05 -0.0002169246 -7.08883e-05 2.02968e-05 -0.0282134138 -0.1097109492
735295590.0 -0.0657261739 0.8476379052 0.0002456489 -0.0001567894 0.0003169242 7.02842e-05 -0.029792557 -0.1093356414
740295560.0 -0.0574152879 0.8476649867 1.04875e-05 5.41847e-05 0.0002476871 0.0001135006 -0.0312818175 -0.1087702269
745295530.0 -0.0482335797 0.8486120998 0.0002778945 -0.000127331 0.0003090905 -6.54843e-05 -0.0329290628 -0.1082174133
750295500.0 -0.0407337223 0.8494207265 8.16546e-05 -4.79111e-05 9.07889e-05 -3.58901e-05 -0.0346915607 -0.1080637664
755295470.0 -0.0319438396 0.8497809285 0.0001894481 -0.0002045991 0.0001281401 1.66186e-05 -0.0358144688 -0.1067860974
760295440.0 -0.0239550051 0.8508177469 0.0003356398 -0.0002387804 9.2251e-05 -4.19479e-05 -0.0375825218 -0.1068858674
765295410.0 -0.0160454123 0.8503666354 5.18863e-05 -0.0001804759 2.47742e-05 -4.84361e-05 -0.0388175753 -0.1058444132
770295380.0 -0.0079698755 0.8510558959 0.0001125839 2.7559e-05 0.0001794295 -0.0002260447 -0.0408272779 -0.1053043421
775295350.0 0.0001986866 0.8514822154 0.0001766298 -0.0001838403 2.07666e-05 -3.99925e-05 -0.0423501167 -0.1049293376
780295320.0 0.0089548206 0.8514789055 0.0002597147 -8.83193e-05 3.95276e-05 -0.0001239359 -0.0438168658 -0.1041372749
785295290.0 0.0166535403 0.8510050865 0.0001802308 8.1496e-05 -0.0002047945 9.94097e-05 -0.045447976 -0.1033588459
790295260.0 0.0245980158 0.8512651505 5.06409e-05 5.12617e-05 0.0001278849 3.77758e-05 -0.0468294598 -0.1021040186
795295230.0 0.0331323432 0.8505428267 0.0002760867 -0.0001566667 0.0001208441 -0.0003527568 -0.0485479431 -0.1023610087
800295200.0 0.0413972581 0.85072841 0.0001407881 -0.0001698078 6.00829e-05 -9.36607e-05 -0.0500346372 -0.1011399476
805295170.0 0.0494329696 0.8508093117 0.0002135038 -6.39614e-05 0.0002261735 8.619e-06 -0.0510299204 -0.1006325413
810295140.0 0.0580169884 0.850791835 0.0004332343 6.87354e-05 0.0002493643 -3.88662e-05 -0.0526968357 -0.0995581801
815295110.0 0.0652684297 0.8494917181 2.69583e-05 -1.60551e-05 0.0001869306 -8.42655e-05 -0.054707957 -0.0989232774
820295080.0 0.0735328007 0.849079724 6.73359e-05 -0.0002118173 7.93434e-05 -0.0002589072 -0.0563317162 -0.0974878164
825295050.0 0.0817669436 0.8483361419 0.0001209997 -1.40358e-05 -1.00605e-05 1.40145e-05 -0.0570111549 -0.0970172803
830295020.0 0.090198515 0.8478707331 0.0002482593 0.0001286434 0.0001436382 -6.05429e-05 -0.0587138454 -0.0961652723
835294990.0 0.0981712928 0.846475487 4.3559e-06 -0.0001081506 4.18538e-05 -6.43326e-05 -0.0598160431 -0.0951216276
840294960.0 0.1066355112 0.8449511634 0.0002634589 -6.38142e-05 -9.299e-06 -0.0001983706 -0.0615478231 -0.0942407982
845294930.0 0.1146292772 0.8444174805 0.0001342508 -0.0002468931 0.0002185767 -0.0002132615 -0.0631489242 -0.0931193893
850294900.0 0.1242334977 0.8435912659 0.0001357576 -0.0001525852 0.0002556829 3.938e-05 -0.0643928447 -0.0921005064
