!Created with skrf (http://scikit-rf.org).
# Hz S RI R 50.0 
!freq ReS11 ImS11 ReS21 ImS21 ReS12 ImS12 ReS22 ImS22
300000.0 -0.2346078914 -0.1149150377 0.4652832989 0.0760070342 0.4686485288 0.0788835003 -0.2351809381 -0.1198388298
5299970.0 -0.2405120212 0.00673225 0.4748823238 0.0055403611 0.4750823377 0.0055974318 -0.2445077243 0.0052320847
10299940.0 -0.2370998557 0.0196746044 0.4772668667 0.0066531358 0.4767718678 0.006513483 -0.2413480404 0.0173784035
15299910.0 -0.2330363777 0.0296140837 0.4804863614 0.0074155169 0.48046103 0.0078360113 -0.2373596996 0.0263680718
20299880.0 -0.2273937885 0.0377691995 0.4851595122 0.0082186971 0.485151634 0.0080218434 -0.232580997 0.0340124084
25299850.0 -0.2216764345 0.0444538763 0.4907868308 0.0065871904 0.4904896746 0.0070192269 -0.227488354 0.0401170584
30299820.0 -0.2159266148 0.0495425304 0.4962788078 0.0050331965 0.495614209 0.0048142979 -0.2224533012 0.0449624636
35299790.0 -0.2098804446 0.0539948115 0.5014086576 0.0019482929 0.500989668 0.0014899621 -0.217051915 0.0489111041
40299760.0 -0.2047792979 0.0571656601 0.506340634 -0.002128957 0.5063320313 -0.0023535469 -0.2124539383 0.0523943276
45299730.0 -0.1993110958 0.0602652717 0.5108694471 -0.0074873047 0.5110426988 -0.0069940949 -0.2077355352 0.0547292104
50299700.0 -0.1945957166 0.0619109106 0.5149059147 -0.0129190585 0.5152204949 -0.0126950025 -0.20340237 0.0566740685
55299670.0 -0.1904994791 0.0637236881 0.5183461186 -0.0189696245 0.5188937484 -0.0187229574 -0.1996086473 0.0582513622
60299640.0 -0.1864580884 0.0648449392 0.5219271935 -0.0249092847 0.5220925405 -0.0248168166 -0.1959355396 0.0598754571
65299610.0 -0.183062128 0.0664434605 0.5252478202 -0.030950191 0.5252145496 -0.0308818708 -0.1929736495 0.0606297374
70299580.0 -0.1794374654 0.0671058898 0.5271013606 -0.0378416659 0.5271482994 -0.0376369136 -0.1899483954 0.0615267771
75299550.0 -0.1763487841 0.0681298775 0.529040238 -0.0444109435 0.5293017852 -0.0449444941 -0.1872601321 0.0627943887
80299520.0 -0.1743022398 0.0689378369 0.5316057201 -0.0517071729 0.5311249477 -0.0514368402 -0.1845259886 0.0630310839
85299490.0 -0.1713531093 0.0693135676 0.5326735056 -0.0584813413 0.532463494 -0.0582216052 -0.1828173275 0.0639138242
90299460.0 -0.1692016091 0.0702067531 0.5333373702 -0.0651407914 0.5337667158 -0.0653410107 -0.1802347568 0.0642288446
95299430.0 -0.1670774076 0.0712051435 0.5346597432 -0.0726556181 0.5344608051 -0.0721993064 -0.1787406104 0.0653810582
100299400.0 -0.1650996419 0.0718726341 0.5348177824 -0.079287055 0.5347837858 -0.079159257 -0.1771036249 0.0655303322
105299370.0 -0.1634336397 0.0723913146 0.5347319302 -0.0859659291 0.5349701361 -0.0857789057 -0.1751384219 0.0663482927
110299340.0 -0.16200783 0.0729447689 0.5348676427 -0.0924067489 0.53488543 -0.0929674673 -0.1736980934 0.0672901836
115299310.0 -0.160219096 0.073377372 0.5347863888 -0.0991046804 0.5354059938 -0.0995229224 -0.1722441561 0.067535854
120299280.0 -0.1592910661 0.07429627 0.5350410722 -0.1060955017 0.5351447684 -0.1062859388 -0.1713848179 0.0680582497
125299250.0 -0.1579058088 0.0750610753 0.5343324983 -0.1131658112 0.5346849208 -0.1132404933 -0.1697340254 0.0682244264
130299220.0 -0.1563954401 0.0760793814 0.5338007255 -0.1192681014 0.5342101423 -0.1198796672 -0.1689438842 0.0695381436
135299190.0 -0.155131017 0.0768038348 0.5331751752 -0.1261405989 0.5329570267 -0.1264860541 -0.1678241073 0.0703088828
140299160.0 -0.154439353 0.0780837657 0.5325911355 -0.1330179663 0.5327503871 -0.1330277788 -0.1669215001 0.0710565979
145299130.0 -0.1531442077 0.0791919146 0.5314706686 -0.1399685321 0.5314501232 -0.139116672 -0.1661907266 0.0715828008
150299100.0 -0.1519265856 0.0798571335 0.530147214 -0.1463377007 0.5304120654 -0.146013905 -0.1651242042 0.072698725
155299070.0 -0.1512048705 0.0814622773 0.5289522337 -0.1530483377 0.5290584268 -0.1530060411 -0.1646018659 0.0738331328
160299040.0 -0.1502214027 0.0820939975 0.5276306799 -0.1589245682 0.5280206694 -0.1592239112 -0.1635117777 0.0748708614
165299010.0 -0.1491925938 0.0831986287 0.5265852693 -0.1655121991 0.5263290151 -0.1656426506 -0.1628124662 0.0751705957
170298980.0 -0.1483862636 0.0843126144 0.5240196818 -0.1715541746 0.5247530536 -0.1718841405 -0.1620121629 0.0764195392
175298950.0 -0.1472714357 0.0855797609 0.5236284422 -0.1780093215 0.5235254137 -0.1779857131 -0.1611959116 0.077285517
180298920.0 -0.1463668672 0.0869251779 0.521355388 -0.1844381663 0.5214785299 -0.1841190849 -0.1602320614 0.0785125049
185298890.0 -0.1449814009 0.0879880893 0.519338059 -0.1910090307 0.5195286332 -0.1904359393 -0.1597106669 0.0792518895
190298860.0 -0.144442853 0.089182913 0.5176245111 -0.1969276971 0.5177633402 -0.1970415712 -0.158387155 0.0809114438
195298830.0 -0.1433059487 0.0899325602 0.5155373613 -0.2023232583 0.5156969534 -0.2030815664 -0.1579673707 0.0816411281
200298800.0 -0.1424869211 0.0916843657 0.5139237 -0.208576452 0.5134118835 -0.2086117494 -0.1570080541 0.0831391961
205298770.0 -0.1415622523 0.0931720686 0.5115673451 -0.2147129407 0.5115667381 -0.2149679769 -0.1561469524 0.0837532052
210298740.0 -0.1408873358 0.094135808 0.509523799 -0.2210533836 0.5095962133 -0.2212256595 -0.1553173768 0.0851654993
215298710.0 -0.1398835019 0.0955301263 0.5068380934 -0.2268026975 0.5069996535 -0.227016162 -0.1551286978 0.0864378319
220298680.0 -0.1388456734 0.0970396997 0.5042135673 -0.2328803821 0.5045549424 -0.2330456873 -0.1539985206 0.0880729889
225298650.0 -0.1373871527 0.0986861466 0.5018158746 -0.2385195803 0.5015983773 -0.2382856053 -0.1533419932 0.08899715
230298620.0 -0.1371354491 0.0998539198 0.4998521525 -0.2444944482 0.4999514637 -0.2446821325 -0.1525097679 0.0901315909
235298590.0 -0.1357232603 0.1011722895 0.4969851684 -0.2502187168 0.4972273374 -0.2504212163 -0.1517088149 0.0911385295
240298560.0 -0.135143985 0.102705747 0.4943816524 -0.2561258876 0.4945108788 -0.255479906 -0.1508880927 0.0927609043
245298530.0 -0.1337028272 0.1040005581 0.4907552775 -0.2615529032 0.4914583792 -0.261473945 -0.1499273751 0.0940767975
250298500.0 -0.1330309982 0.1052640349 0.4887296016 -0.2668203708 0.4888868519 -0.2666453915 -0.1488862323 0.0953340252
255298470.0 -0.1317845678 0.1067176106 0.4854644743 -0.2728465374 0.4858415718 -0.2728852951 -0.1482798237 0.0966500661
260298440.0 -0.1308655958 0.1082813635 0.483026749 -0.2781356278 0.4827111866 -0.2784720939 -0.1467610249 0.0981005932
265298410.0 -0.1295283043 0.1098789038 0.4795434301 -0.284342101 0.4793238162 -0.2834108072 -0.1463806944 0.0994773913
270298380.0 -0.1282783432 0.1112737006 0.4762125233 -0.2895483427 0.4765824825 -0.2891864905 -0.1451441612 0.1010416239
275298350.0 -0.1273376247 0.1125953602 0.4734917536 -0.2950176519 0.4736569868 -0.2949674664 -0.1443127754 0.1020895416
280298320.0 -0.1261508771 0.1140260524 0.4705359705 -0.2997397765 0.4701137436 -0.2999345479 -0.1431975042 0.1036125566
285298290.0 -0.1244769454 0.1157830566 0.4666210125 -0.3053998135 0.4670585654 -0.3056228849 -0.1424068634 0.1049638998
290298260.0 -0.1236629731 0.1168058366 0.4639519181 -0.3106289255 0.4639518203 -0.310801534 -0.1412626908 0.1066032968
295298230.0 -0.1224711394 0.117788531 0.4606423231 -0.3157598168 0.4601973274 -0.3157793115 -0.1401290647 0.1078188121
300298200.0 -0.1207871717 0.1193400157 0.4566860261 -0.3209973467 0.4573553822 -0.3217330858 -0.1393101505 0.1093924117
305298170.0 -0.119446301 0.1207485274 0.4536027758 -0.3264707189 0.4536457341 -0.3265088413 -0.1380094511 0.1107170475
310298140.0 -0.1181928356 0.121686872 0.4502397058 -0.3315704972 0.4497979426 -0.3319766921 -0.1368361316 0.1123810157
315298110.0 -0.1171589476 0.1229901226 0.4460677276 -0.3367263165 0.4463544041 -0.3371831513 -0.1355424814 0.1134143367
320298080.0 -0.1157652623 0.1246583247 0.4427428405 -0.3421951299 0.4427581566 -0.3420138568 -0.1346526274 0.1147081855
325298050.0 -0.1146803917 0.1255373965 0.4390964119 -0.3471389984 0.4388721004 -0.3474870493 -0.1338020156 0.1160145516
330298020.0 -0.1134225051 0.1270113081 0.4342348866 -0.3519495495 0.4348523714 -0.352451888 -0.1326953898 0.1170147257
335297990.0 -0.1121752294 0.1281348054 0.4305452893 -0.3569102747 0.4308572504 -0.3570250811 -0.1318103754 0.1185463645
340297960.0 -0.1112516502 0.1299736093 0.4259472069 -0.3620636229 0.4267427179 -0.3614608557 -0.1306764472 0.1199347591
345297930.0 -0.1100385176 0.1309240104 0.4221942194 -0.3658054309 0.421901358 -0.3661412977 -0.1296580431 0.1213800012
350297900.0 -0.1081026464 0.1324935106 0.417810669 -0.3705571096 0.4188209915 -0.3707389703 -0.1288413889 0.1230310796
355297870.0 -0.1068331648 0.1336063871 0.4138755207 -0.3750280234 0.4143738689 -0.3755902846 -0.1278765807 0.1245362506
360297840.0 -0.1055135667 0.135193997 0.409908305 -0.3804524002 0.4100111729 -0.380120716 -0.1263512511 0.126070244
365297810.0 -0.1041686336 0.1363875017 0.40566226 -0.3850798925 0.4058588073 -0.3847848633 -0.1255350029 0.1278588623
370297780.0 -0.1024594284 0.1374768977 0.4011974838 -0.388971223 0.401578537 -0.3893908032 -0.1242195442 0.1287806854
375297750.0 -0.1012878887 0.1393492635 0.3978072094 -0.3931356318 0.3973129108 -0.3937632565 -0.1230459297 0.1304559831
380297720.0 -0.0995405388 0.140118126 0.3928063719 -0.3976439038 0.3930409959 -0.3977068601 -0.1215876343 0.1317774472
385297690.0 -0.0981865974 0.1416451394 0.3883702437 -0.4015085123 0.388525341 -0.4022091442 -0.1206944201 0.1335905889
390297660.0 -0.0965716464 0.1427987796 0.3839057067 -0.4060852399 0.3839645064 -0.4065914096 -0.1193622176 0.1342526286
395297630.0 -0.0948960642 0.1438274031 0.3796719928 -0.4100123226 0.3795006834 -0.4105568158 -0.1179822384 0.1360376932
400297600.0 -0.0936155159 0.1453341928 0.3747482425 -0.4147409802 0.3751422329 -0.4148972266 -0.1174723829 0.1371096874
405297570.0 -0.091740548 0.1466210144 0.370498086 -0.4189771612 0.3707412484 -0.4187726708 -0.1159631537 0.1388836594
410297540.0 -0.0901669329 0.1472749417 0.3653192192 -0.4223317459 0.3653624351 -0.4225550326 -0.1142998874 0.1398550621
415297510.0 -0.088338227 0.1491573326 0.361262819 -0.4268236021 0.3616818063 -0.4265735573 -0.1136328149 0.1414414691
420297480.0 -0.0867971517 0.1498519671 0.3565128773 -0.4310656072 0.3564421027 -0.4305655589 -0.1115684243 0.142464359
425297450.0 -0.0848916983 0.1507031283 0.3516681176 -0.4343790571 0.351943172 -0.4346557555 -0.1101743167 0.1441804674
430297420.0 -0.0836912719 0.1521271909 0.3471439904 -0.4386241288 0.3468737437 -0.4382283475 -0.109170535 0.1448700592
435297390.0 -0.08175212 0.1530073775 0.3425865834 -0.4419242435 0.3425223528 -0.4417670649 -0.1077659982 0.1464150711
440297360.0 -0.079951228 0.1541616263 0.3371464765 -0.4455377542 0.3369950102 -0.4455117855 -0.1064335417 0.1470897924
445297330.0 -0.0779687777 0.1550949309 0.3323379972 -0.4495260964 0.3323692793 -0.4493873692 -0.1052890147 0.1486712099
450297300.0 -0.0762575217 0.1559585466 0.3269452349 -0.4530617188 0.3275262629 -0.4533585074 -0.1039043098 0.1501611556
455297270.0 -0.0746186068 0.1569977655 0.3222196377 -0.4566731069 0.3228102122 -0.4564682337 -0.1020574743 0.1513320945
460297240.0 -0.0731831593 0.1579804295 0.3170974555 -0.4595022707 0.3170628271 -0.4601836153 -0.1006086028 0.152913742
465297210.0 -0.071034093 0.1587856715 0.312499559 -0.4635373622 0.3126173921 -0.4634782362 -0.0995369737 0.1533623144
470297180.0 -0.0694894479 0.1598166576 0.3072714621 -0.4666030389 0.3078613366 -0.4669282988 -0.0987489179 0.1545422621
475297150.0 -0.067800395 0.1606555178 0.3019145423 -0.469951093 0.3023676738 -0.4695627805 -0.0966463568 0.1559394391
480297120.0 -0.065635921 0.1613735348 0.2970638331 -0.4734508136 0.2972286219 -0.4730307066 -0.0952496391 0.1573872879
485297090.0 -0.0639234657 0.1623753243 0.2922039977 -0.4763555746 0.2921176695 -0.4767974433 -0.0940408844 0.1581252719
490297060.0 -0.0620368337 0.163019672 0.2866610933 -0.4795932016 0.2868325456 -0.4794781002 -0.0924297397 0.1592606426
495297030.0 -0.0606237379 0.1640393108 0.2814985141 -0.4826332403 0.2813503472 -0.4826781218 -0.0906081288 0.1600318783
500297000.0 -0.0583579304 0.1645904582 0.2759879348 -0.4858822945 0.2762334494 -0.4857081173 -0.0893384751 0.1611915601
505296970.0 -0.056801561 0.1656511256 0.2705604339 -0.4881763877 0.270945086 -0.4885605359 -0.0882659797 0.1623189282
510296940.0 -0.0548474172 0.1665826496 0.2654958406 -0.4917471586 0.265381331 -0.4918489682 -0.0863609064 0.1636557692
515296910.0 -0.0532493531 0.1673489904 0.2601398381 -0.4941220452 0.2600285272 -0.494179158 -0.0848309808 0.1642284132
520296880.0 -0.0511581487 0.1678725134 0.2545593009 -0.4973974113 0.2545848247 -0.4967696947 -0.0828287591 0.165242404
525296850.0 -0.0493551789 0.1683127698 0.2489113162 -0.5000237153 0.2494323188 -0.5000231635 -0.0813178631 0.166138446
530296820.0 -0.0477628821 0.1691355917 0.2441718901 -0.5020055558 0.2438047685 -0.5025007651 -0.0803981889 0.1669587194
535296790.0 -0.0456578362 0.1697810314 0.2381977663 -0.5048259271 0.2388075562 -0.5051370328 -0.078525529 0.1677997318
540296760.0 -0.0436554473 0.1701110698 0.2327333906 -0.5074850491 0.2326336978 -0.5078054834 -0.0773463405 0.1691250722
545296730.0 -0.0417930158 0.1711147614 0.2270729482 -0.5101337265 0.2272049078 -0.5103047078 -0.0755179387 0.1698192918
550296700.0 -0.0403283825 0.1716304846 0.2222451681 -0.5123676025 0.2222415909 -0.5127403538 -0.0741463283 0.1711442368
555296670.0 -0.037887035 0.1719615696 0.2160075875 -0.5148969021 0.2164711882 -0.5147929902 -0.0724611602 0.17184032
560296640.0 -0.0362630202 0.1725808912 0.210907101 -0.5168529845 0.2110843611 -0.5168395775 -0.0705100068 0.1726612645
565296610.0 -0.0346063434 0.172942611 0.2051267507 -0.5191963176 0.2047340721 -0.5193519179 -0.0690426439 0.1734892153
570296580.0 -0.0320310359 0.1735281596 0.1995228966 -0.521283215 0.1997018419 -0.521663377 -0.0674094505 0.1746100825
575296550.0 -0.0301662531 0.1742580065 0.1937916376 -0.5233252829 0.1940177501 -0.5235058956 -0.065430795 0.1752042858
580296520.0 -0.0282209092 0.1747114845 0.1884405055 -0.5253615097 0.1880020602 -0.525510143 -0.0638875125 0.1757355613
585296490.0 -0.0264144563 0.1749308051 0.1825527913 -0.5273348097 0.1823288829 -0.5276016038 -0.0622981503 0.1765991862
590296460.0 -0.0247894169 0.1751005915 0.1766958585 -0.5291552736 0.1767728516 -0.5294093173 -0.0607000802 0.1775304935
595296430.0 -0.0226213625 0.1756890444 0.1708990063 -0.5312589525 0.1707461876 -0.5316004802 -0.058952671 0.1780068292
600296400.0 -0.0208234974 0.176447643 0.1653345559 -0.5331161057 0.1657677796 -0.5331376282 -0.0572244598 0.1791405176
605296370.0 -0.0188598602 0.1769294605 0.1596546057 -0.5350558387 0.1598033195 -0.5347152217 -0.0553003867 0.1797146087
610296340.0 -0.0169927217 0.1771710714 0.1540168062 -0.5365766846 0.153967021 -0.5366332652 -0.0538634162 0.1808939717
615296310.0 -0.014825702 0.1775613613 0.1476118659 -0.5376962369 0.1478123026 -0.5380302025 -0.0520877095 0.1809115824
620296280.0 -0.0129002416 0.1774772403 0.1419996551 -0.539234012 0.1422838288 -0.5395411184 -0.0504907002 0.1813413557
625296250.0 -0.0107727679 0.1777802591 0.1360304184 -0.5413499301 0.1362234191 -0.5412639928 -0.0487976729 0.1828320055
630296220.0 -0.0086984008 0.1783968733 0.1302026506 -0.5429469014 0.1308119711 -0.542682278 -0.0472506365 0.1830072041
635296190.0 -0.0068622301 0.1784179504 0.1243886971 -0.5434212067 0.1243794308 -0.5433061169 -0.0451373522 0.1835186234
640296160.0 -0.0051913914 0.178679907 0.1190414074 -0.5448785176 0.1184689764 -0.5450677398 -0.0429909216 0.1840394384
645296130.0 -0.002662973 0.1792589563 0.1124272337 -0.5464026377 0.1128299299 -0.5463495554 -0.0420460351 0.1845956257
650296100.0 -0.0009908371 0.1795828984 0.1075676869 -0.5472984155 0.1074539345 -0.5473837273 -0.0400362517 0.1853007749
655296070.0 0.0007586545 0.1793175914 0.101148743 -0.5482862668 0.1009711447 -0.5485201218 -0.0375867067 0.1862171221
660296040.0 0.0025401742 0.1798580081 0.095397918 -0.5495288784 0.0950730504 -0.5493655781 -0.0364691571 0.1861901567
665296010.0 0.0050433949 0.1795764385 0.0893478635 -0.5501718029 0.0892686369 -0.5504598853 -0.0348212318 0.1870682616
670295980.0 0.0074836446 0.1797730127 0.083565364 -0.5514011413 0.0836673061 -0.5514425459 -0.0332641258 0.1875069355
675295950.0 0.009234287 0.1797805703 0.0771425111 -0.5521942923 0.0772866876 -0.5525968872 -0.0310701091 0.1880091273
680295920.0 0.0111009294 0.1804726047 0.0708330494 -0.5530231152 0.0710265605 -0.552979506 -0.0291423371 0.1881728217
685295890.0 0.0131795844 0.1798721765 0.0655225721 -0.5537239646 0.0649670995 -0.5541157183 -0.0275215989 0.189114225
690295860.0 0.0153855014 0.1799959368 0.0594054594 -0.5540208325 0.0589526017 -0.5538644386 -0.0255370581 0.1893391613
695295830.0 0.0175211181 0.1797627916 0.052658387 -0.5548434166 0.0530110567 -0.5551641737 -0.024263466 0.1898860903
700295800.0 0.0195906225 0.1797128567 0.0470456309 -0.5553702093 0.0477282241 -0.5557075955 -0.0222864278 0.189646756
705295770.0 0.0213157048 0.1800054159 0.0409358381 -0.5557711228 0.0415333601 -0.5560071504 -0.020580007 0.1904745781
710295740.0 0.0236127974 0.1798816802 0.0350149149 -0.5561221912 0.0352284637 -0.556034688 -0.0194015732 0.1908305856
715295710.0 0.0253578979 0.1797422039 0.0294523357 -0.5562575291 0.0296893166 -0.5567342831 -0.0171381472 0.1910258065
720295680.0 0.0273529391 0.1793776075 0.0230922966 -0.5564253365 0.0232625075 -0.5573757052 -0.0149476933 0.1915493737
725295650.0 0.0297225526 0.1793557287 0.0168886424 -0.5563693764 0.0171791509 -0.5566281492 -0.0130908582 0.1918646034
730295620.0 0.0313826504 0.1788487034 0.0112304152 -0.5567654723 0.0111145762 -0.5569826279 -0.0112083763 0.1916038468
735295590.0 0.033715435 0.1789884798 0.0055214759 -0.5571531242 0.005791722 -0.5571168083 -0.0094108086 0.1922112817
740295560.0 0.035462774 0.1789024822 -0.00080294 -0.55679148 -0.0008270738 -0.5570815109 -0.0074018658 0.1923002473
745295530.0 0.0374918032 0.1784139495 -0.006974192 -0.5571127478 -0.006387135 -0.5576357308 -0.0060483124 0.1929551913
750295500.0 0.0394737069 0.1779961629 -0.012747065 -0.5566628545 -0.0125858386 -0.5567242389 -0.0039963324 0.1926397349
755295470.0 0.0420392674 0.1779250518 -0.018540337 -0.5568576486 -0.018209907 -0.5570765033 -0.002585622 0.1932381661
760295440.0 0.0436523425 0.1774604842 -0.0247781147 -0.5563147597 -0.0248151375 -0.5565554002 -0.0007373983 0.1929710885
765295410.0 0.0454675599 0.1769451418 -0.0304133222 -0.5558595826 -0.0300115113 -0.5563387454 0.0018911254 0.1936469591
770295380.0 0.0476827026 0.1771475424 -0.0363402981 -0.5553256306 -0.0366532045 -0.5560387273 0.003596446 0.193528327
775295350.0 0.0496430693 0.1765460213 -0.0425880131 -0.55487122 -0.0424737162 -0.5551859678 0.005039238 0.1931083161
780295320.0 0.0515378221 0.1760073002 -0.0482208979 -0.5546889853 -0.0481213399 -0.5546854593 0.006990125 0.1933945547
785295290.0 0.0533871056 0.1760018103 -0.0543248313 -0.553506496 -0.0543107293 -0.554256823 0.0085057337 0.1937327544
790295260.0 0.0553270125 0.1753128321 -0.0604780128 -0.5535204272 -0.0603861818 -0.5536817076 0.0108953596 0.1935216358
795295230.0 0.0573436156 0.1750264291 -0.0660076826 -0.5519667828 -0.0661773453 -0.5530084761 0.0125988911 0.1942735804
800295200.0 0.059555835 0.17461512 -0.0725519707 -0.5525358002 -0.0727815601 -0.5522636536 0.0145158676 0.1939259095
805295170.0 0.0610632779 0.1740067634 -0.0781964281 -0.5506496995 -0.0782828805 -0.5509611061 0.016273969 0.1936585773
810295140.0 0.0631737613 0.1736026582 -0.0839154213 -0.5502245613 -0.0842777484 -0.5507915633 0.0182237483 0.1940813169
815295110.0 0.0650211229 0.1730411561 -0.0902596431 -0.5494036966 -0.0903572329 -0.5490978496 0.0198551888 0.1937658245
820295080.0 0.0670801885 0.1721272887 -0.0957321247 -0.5479429101 -0.0956262276 -0.5484421177 0.0215154404 0.1936143336
825295050.0 0.0691427261 0.1714961824 -0.1016787177 -0.5465683818 -0.1015868542 -0.5474361202 0.0239132769 0.1938540411
830295020.0 0.0711388762 0.1710833892 -0.1079910045 -0.5454032874 -0.1077433737 -0.5461728946 0.0256294716 0.1933577756
