!Created with skrf (http://scikit-rf.org).
# Hz S RI R 50.0 
!freq ReS11 ImS11 ReS21 ImS21 ReS12 ImS12 ReS22 ImS22
300000.0 -0.2420488852 -0.0889428045 0.4715925019 0.0576992701 0.4707934138 0.0555583281 -0.2399937188 -0.0944282411
5299970.0 -0.2448989869 0.0067898364 0.4748544076 0.0050037823 0.4747648403 0.0049229155 -0.2408658647 0.0074148522
10299940.0 -0.2417924844 0.0181727914 0.4764557709 0.0057602112 0.4767123027 0.0063312506 -0.2376111312 0.0206091883
15299910.0 -0.2373873684 0.0269849572 0.4802894513 0.0073991432 0.4803715025 0.0070475114 -0.2329512228 0.0301536532
20299880.0 -0.232958577 0.0340077573 0.4849427483 0.0083560709 0.4850582509 0.0077825883 -0.2276129859 0.0382382981
25299850.0 -0.2280839964 0.0403329556 0.4904987592 0.0068422499 0.490059605 0.0069552697 -0.2219582065 0.0447080769
30299820.0 -0.2225369507 0.045192174 0.4955317933 0.0051603101 0.4952876347 0.0048935754 -0.2158679509 0.0503967677
35299790.0 -0.2175346162 0.049216462 0.5009101455 0.0012757062 0.5007412329 0.0011995793 -0.2102695126 0.0546766933
40299760.0 -0.2126382714 0.0527549086 0.5057094972 -0.0025980385 0.5060647721 -0.002458744 -0.2050692538 0.057714245
45299730.0 -0.2080849896 0.0547863288 0.5102055218 -0.0072275349 0.5108192267 -0.0072605785 -0.2002778718 0.0608551472
50299700.0 -0.2037831993 0.0567908633 0.5147307137 -0.0125670277 0.5150867722 -0.0124588338 -0.1956388127 0.0625430521
55299670.0 -0.1999536401 0.0584212472 0.5187677028 -0.0190605282 0.5183109848 -0.0183804518 -0.1913830192 0.0642612504
60299640.0 -0.1962352104 0.0598940017 0.521934396 -0.0250762336 0.52221282 -0.0247447804 -0.1873923177 0.0656356102
65299610.0 -0.1929776656 0.0609798983 0.5248923785 -0.0312519064 0.5248292565 -0.0311701822 -0.1841418781 0.0665979481
70299580.0 -0.1899497849 0.0620662979 0.5274144271 -0.0378666035 0.5273102336 -0.0378418903 -0.1807226303 0.0674611188
75299550.0 -0.1869880879 0.0628822643 0.5288260407 -0.0450102022 0.5290570313 -0.0449389417 -0.177904882 0.0681754687
80299520.0 -0.1848062125 0.0636752889 0.530987321 -0.0518953075 0.530792895 -0.0517785726 -0.1753355868 0.0692350582
85299490.0 -0.1823507658 0.0642022822 0.5322773136 -0.0582583699 0.5320222571 -0.0583551614 -0.1728672005 0.069715748
90299460.0 -0.1802823202 0.0649171123 0.5329770372 -0.0654233068 0.5336555847 -0.0654915471 -0.1704452215 0.070482737
95299430.0 -0.1782504175 0.0653358871 0.5343991785 -0.0722478793 0.5339985331 -0.0724862876 -0.1679862201 0.0709746593
100299400.0 -0.1767872702 0.0662611932 0.5340856461 -0.0791035116 0.5339340276 -0.0790749533 -0.1660329382 0.0711589192
105299370.0 -0.1748045124 0.066801002 0.5346038843 -0.0863303953 0.5347883839 -0.0859354716 -0.1641229726 0.0725618353
110299340.0 -0.1733877286 0.067371453 0.5346829787 -0.0927790872 0.5348313846 -0.09274177 -0.1628663355 0.0726001332
115299310.0 -0.1721326462 0.0682505255 0.5346588263 -0.0997771556 0.5344748136 -0.0997191991 -0.1611257475 0.0738364459
120299280.0 -0.1706193565 0.0684705508 0.5341405936 -0.1066205486 0.5345890564 -0.1066771446 -0.1595158291 0.0742905485
125299250.0 -0.1693458575 0.0691392396 0.5341033937 -0.112904422 0.5341263077 -0.1127565571 -0.1586286405 0.0749107651
130299220.0 -0.1686568398 0.0701970706 0.5333952641 -0.1199664045 0.5334678136 -0.1199856579 -0.1570353307 0.0756292195
135299190.0 -0.1677505942 0.0712943023 0.5329379509 -0.12655043 0.5328820431 -0.1263807463 -0.1555952023 0.0766297933
140299160.0 -0.1667785346 0.0721482075 0.5321199115 -0.1331267959 0.5321372016 -0.1332093712 -0.1544977891 0.0780428855
145299130.0 -0.1655663011 0.0730047791 0.5311145003 -0.1398551128 0.5309560516 -0.1395770357 -0.153355965 0.0786765276
150299100.0 -0.1645881297 0.0740481313 0.5299266191 -0.1461238264 0.5299691969 -0.1458272766 -0.1522809604 0.0804809419
155299070.0 -0.1640478453 0.0748075728 0.5290824837 -0.1529533602 0.5285693366 -0.1529327378 -0.1509354073 0.0811519729
160299040.0 -0.1627419156 0.0756956652 0.5274297813 -0.1591993592 0.5268578421 -0.1589463636 -0.1508511131 0.0821825981
165299010.0 -0.1621739873 0.0766574101 0.5259025327 -0.1657257797 0.5262843109 -0.1657289814 -0.1493119826 0.0836480824
170298980.0 -0.1613603004 0.0779951378 0.5239286697 -0.1723353922 0.5247500496 -0.1716311549 -0.1481426779 0.0847889955
175298950.0 -0.160682452 0.0789106108 0.5229621 -0.1781846806 0.5222448542 -0.178191002 -0.1475140929 0.0859100469
180298920.0 -0.1599388657 0.0799623689 0.5209337347 -0.1845695257 0.521132551 -0.1840861075 -0.1465407098 0.087138795
185298890.0 -0.1590116837 0.0809492956 0.5190824157 -0.1903625578 0.5187934391 -0.1906969512 -0.1454224002 0.0885090238
190298860.0 -0.1583946266 0.0823462428 0.5174956272 -0.1971694609 0.5173580122 -0.1970286852 -0.1448056228 0.0897946609
195298830.0 -0.1578174423 0.0832150871 0.5154076703 -0.2031029874 0.5153428869 -0.2031734344 -0.1434248867 0.0912067184
200298800.0 -0.1570258378 0.0845481269 0.5129222836 -0.2092770326 0.5130200747 -0.2093646533 -0.143135966 0.0924740813
205298770.0 -0.1561382651 0.0858828761 0.5107444148 -0.2155335591 0.5109421703 -0.2151370807 -0.1420166589 0.0931695325
210298740.0 -0.1553296633 0.0867768039 0.5085887613 -0.2206728116 0.5089176242 -0.2207230788 -0.140808947 0.0955043284
215298710.0 -0.1552704275 0.0882510562 0.5066474178 -0.2271376743 0.506229958 -0.2272664512 -0.1404032787 0.0964544279
220298680.0 -0.1541830216 0.0892629212 0.5038620752 -0.2324229438 0.5037705894 -0.2327448217 -0.1397718211 0.097648438
225298650.0 -0.1532977701 0.0909594185 0.5014157414 -0.2391591856 0.5014235206 -0.2388808311 -0.1389056503 0.0988347984
230298620.0 -0.1525096237 0.0922490008 0.4988324754 -0.2442793 0.4993064221 -0.2446953185 -0.1380446703 0.100326947
235298590.0 -0.1517298509 0.0937891488 0.4959804136 -0.2503177862 0.4964985118 -0.2498875543 -0.1371608426 0.1015960731
240298560.0 -0.1512405158 0.0948322426 0.4938981537 -0.2560319412 0.4932369753 -0.2562564883 -0.135807427 0.1033505739
245298530.0 -0.150476079 0.0963178147 0.4911897549 -0.2620971165 0.4907169082 -0.2619826857 -0.1349195123 0.1040467752
250298500.0 -0.1489087819 0.0973769962 0.4876068832 -0.2674024975 0.4875463871 -0.2672234392 -0.1343835573 0.1056312712
255298470.0 -0.1484014266 0.0986388604 0.4845817735 -0.2726053847 0.4847313602 -0.2726928137 -0.1327727136 0.1068012874
260298440.0 -0.1479265697 0.0999678296 0.4818598605 -0.2785851985 0.4820490046 -0.2786385301 -0.1314563656 0.1083096866
265298410.0 -0.1466496274 0.1020074429 0.4786213808 -0.2839626629 0.4792631037 -0.2838214827 -0.1307061034 0.109720528
270298380.0 -0.1460762106 0.1027598061 0.4760968908 -0.2892267633 0.4757660962 -0.289203597 -0.1295799058 0.11097998
275298350.0 -0.1450104029 0.1041739167 0.4728036038 -0.2951691863 0.4728116404 -0.2947610346 -0.1281566324 0.1121472358
280298320.0 -0.1437445311 0.1058084775 0.4699199805 -0.3003840438 0.4696629623 -0.3001738476 -0.1270961242 0.1137132549
285298290.0 -0.1428149375 0.1073414657 0.4664827801 -0.3056364647 0.4664163989 -0.3056049776 -0.1258404374 0.1151507661
290298260.0 -0.1420497431 0.1084367929 0.4631917374 -0.3103012542 0.4629206818 -0.3107140016 -0.1244697805 0.1168004541
295298230.0 -0.14089441 0.1096967966 0.4598861933 -0.315873233 0.4597213112 -0.3160701676 -0.1227200864 0.117782508
300298200.0 -0.1402808561 0.1110164142 0.4566155153 -0.3209923581 0.4564945047 -0.3213065997 -0.1217109092 0.1189283989
305298170.0 -0.1389896563 0.1122742089 0.4528750764 -0.3271687607 0.4526251419 -0.3264877042 -0.1202635573 0.1199767713
310298140.0 -0.1384089936 0.1137799571 0.4494549129 -0.3317817016 0.4493087472 -0.3317028077 -0.1188066387 0.1216175177
315298110.0 -0.137135588 0.1145103924 0.4457772317 -0.336925998 0.4453053914 -0.3369355419 -0.1179100261 0.1228404976
320298080.0 -0.1355961322 0.1162291403 0.4409077146 -0.3421595558 0.4418043138 -0.3420579273 -0.1160851292 0.1240173789
325298050.0 -0.1349031289 0.1170600081 0.4380268893 -0.3471832213 0.4380227043 -0.3471509398 -0.1154057026 0.1253902937
330298020.0 -0.1342643717 0.1178929035 0.4337183768 -0.3519099063 0.4336065818 -0.3519932208 -0.1142731209 0.1267187338
335297990.0 -0.1329136752 0.1193533236 0.4299066425 -0.3566145354 0.4299571949 -0.3566377465 -0.1136034405 0.1284641963
340297960.0 -0.1325037586 0.120929563 0.4255840701 -0.3615755962 0.4254477188 -0.3619336371 -0.1113590868 0.1298759878
345297930.0 -0.1315215166 0.1224665359 0.4218188489 -0.3665813206 0.4214570507 -0.3664892174 -0.1102999023 0.1307947592
350297900.0 -0.1303158148 0.1237515284 0.4168891434 -0.3707636549 0.4171368337 -0.3707812535 -0.109554561 0.1326050817
355297870.0 -0.1292342538 0.1255509639 0.413082096 -0.3754738484 0.4134220913 -0.3753013465 -0.1081952382 0.1336094572
360297840.0 -0.1279548042 0.1267588286 0.4093567748 -0.37972651 0.4095106733 -0.3797756167 -0.1068352643 0.1353662866
365297810.0 -0.1274175986 0.1281786672 0.4049804078 -0.3844053058 0.4051187111 -0.384521443 -0.1049465816 0.1364536343
370297780.0 -0.1259605473 0.1292829417 0.4002583527 -0.3886958761 0.40087173 -0.3888446034 -0.1038186527 0.138205966
375297750.0 -0.1245836342 0.1306407794 0.3963045627 -0.3933788043 0.3968493327 -0.3931963329 -0.1023018742 0.139479935
380297720.0 -0.1232208351 0.1321389833 0.3921249315 -0.3978802568 0.3919887623 -0.3971132989 -0.101238064 0.1403866248
385297690.0 -0.1225021628 0.1333226077 0.3876764708 -0.4018856784 0.3876927275 -0.4017817295 -0.0996040162 0.1420464651
390297660.0 -0.1210730338 0.1347771955 0.3835869097 -0.4064800274 0.3830490419 -0.4060989186 -0.0982456089 0.1432757555
395297630.0 -0.1197416413 0.1361942363 0.3790367416 -0.4103589606 0.3787302334 -0.410702309 -0.0963184865 0.1446255709
400297600.0 -0.1188531445 0.1378563862 0.3740554654 -0.4150330261 0.3743770246 -0.4144461194 -0.0952087058 0.1456996632
405297570.0 -0.1175695697 0.1387071654 0.3697103771 -0.4183148196 0.369780319 -0.4185019776 -0.0938794452 0.1468219494
410297540.0 -0.1159176499 0.1399561942 0.3651839155 -0.4227041275 0.3653845194 -0.4228703145 -0.0924364603 0.148584644
415297510.0 -0.1145019669 0.1408916947 0.3601963146 -0.4266769849 0.3606288085 -0.4268915071 -0.0907498526 0.1492902786
420297480.0 -0.1133292715 0.1427637336 0.3555785444 -0.4306257046 0.355434766 -0.4307687861 -0.0891588503 0.150186364
425297450.0 -0.1120789829 0.1435282536 0.3513664419 -0.4345667575 0.3514250763 -0.4343835627 -0.0878677416 0.1513745032
430297420.0 -0.1105953391 0.1447466591 0.3461551188 -0.4378179325 0.3463397159 -0.4379045053 -0.0863852726 0.1521815568
435297390.0 -0.1095663367 0.1460380994 0.3412179883 -0.442231326 0.3410857035 -0.4419095748 -0.0838593728 0.1534691396
440297360.0 -0.1079234944 0.1473797589 0.3365752362 -0.4455851975 0.3364401159 -0.4457139906 -0.0826657834 0.1543707606
445297330.0 -0.1065308698 0.1481143237 0.3320642095 -0.448917622 0.3318212856 -0.4488625959 -0.0807079348 0.1552899311
450297300.0 -0.1048792474 0.1493107074 0.3268397759 -0.4526133712 0.3264909307 -0.4528050932 -0.078946962 0.1564382772
455297270.0 -0.1039439783 0.1504625382 0.3218631265 -0.4561157431 0.3216394939 -0.4564895926 -0.0774056127 0.1572670591
460297240.0 -0.1025775858 0.1516632801 0.316727032 -0.4598441609 0.316737125 -0.45996245 -0.0757078682 0.1582647167
465297210.0 -0.1007047055 0.1529541433 0.3118807438 -0.4632782736 0.3117259652 -0.4637350902 -0.0738456654 0.1588071589
470297180.0 -0.0993585088 0.1539130826 0.306540743 -0.4666531191 0.3065581052 -0.466717058 -0.0718156756 0.1602223088
475297150.0 -0.0979560318 0.1547187404 0.3012107771 -0.4697956476 0.3016188027 -0.4696272145 -0.0699960635 0.1606849593
480297120.0 -0.0966544612 0.1563067088 0.2961303851 -0.4734883962 0.2962338387 -0.4731867448 -0.0678661015 0.161828488
485297090.0 -0.0949500741 0.1569909833 0.2913486974 -0.4763358999 0.2911719129 -0.4761387926 -0.0659967414 0.1626022593
490297060.0 -0.0938240618 0.1581729988 0.2864473947 -0.4796006191 0.2861331189 -0.4793151741 -0.0645053979 0.1641090124
495297030.0 -0.0921279117 0.1591827224 0.2804807576 -0.4823692267 0.2812092325 -0.4825151253 -0.0629470649 0.1649429796
500297000.0 -0.0904044488 0.1602050722 0.2753174444 -0.4852406991 0.2752989136 -0.4850308284 -0.0606261018 0.1660650337
505296970.0 -0.0887153231 0.1610222436 0.2704361618 -0.4880392633 0.269880547 -0.4884129403 -0.0591430338 0.1666578901
510296940.0 -0.0872942944 0.1621572864 0.264858513 -0.4910962845 0.264723834 -0.4918291635 -0.0568499331 0.1678916371
515296910.0 -0.0856621117 0.1632431203 0.2592547047 -0.4941480219 0.2595699943 -0.4940514319 -0.0551140405 0.1683868606
520296880.0 -0.0842485736 0.1643863214 0.2541258352 -0.4977507027 0.2541442829 -0.496829892 -0.0534853679 0.1688672926
525296850.0 -0.0824712972 0.1647747935 0.2483219541 -0.4996068754 0.2490831598 -0.5000599063 -0.0517583833 0.1699837722
530296820.0 -0.0810330854 0.1660315349 0.243052474 -0.5026671641 0.2428132753 -0.5024709788 -0.0493668318 0.1706241964
535296790.0 -0.0797743312 0.1672197128 0.2380150991 -0.5049290103 0.2379600789 -0.504489653 -0.0477690597 0.1712867785
540296760.0 -0.0777706462 0.1679962971 0.2321106209 -0.5077894616 0.2322808236 -0.5076974699 -0.0462870116 0.1724225124
545296730.0 -0.0764460816 0.1688566734 0.2266867868 -0.5098012774 0.2263803226 -0.5100406121 -0.0441907372 0.1728565808
550296700.0 -0.074478242 0.1700959106 0.2211063752 -0.5119920873 0.2213182485 -0.5128373071 -0.0425261272 0.1737478458
555296670.0 -0.0731422835 0.1705059791 0.2157039181 -0.5145690184 0.2156065021 -0.5146314621 -0.0404599808 0.1744526854
560296640.0 -0.0711098912 0.1716955083 0.2095778408 -0.5172320754 0.2099187392 -0.5169466419 -0.0384527028 0.1749419792
565296610.0 -0.069628068 0.1722073192 0.2042485778 -0.5192113701 0.2044692781 -0.5192062823 -0.0367188763 0.1751159536
570296580.0 -0.0681488506 0.1733425095 0.1987722889 -0.5217976316 0.1979679207 -0.5214751711 -0.0349818258 0.1764858926
575296550.0 -0.0664894442 0.1742398075 0.1929882629 -0.5240648725 0.1927837794 -0.5236336519 -0.032915723 0.1765384954
580296520.0 -0.0647151455 0.1748714533 0.1870896904 -0.5256995014 0.1874848329 -0.5254598847 -0.0310510338 0.1771817055
585296490.0 -0.0632344897 0.1753624461 0.1818859603 -0.5273127552 0.1815849581 -0.5274553499 -0.0291049725 0.1775680292
590296460.0 -0.0610687602 0.1763339037 0.176032391 -0.5285566831 0.1757001482 -0.5290204854 -0.027452468 0.1778508418
595296430.0 -0.0593355174 0.1769846543 0.1697071379 -0.5312621897 0.1698386292 -0.5313272619 -0.0254679807 0.1781098615
600296400.0 -0.0578205373 0.1777691526 0.1641524216 -0.5330820096 0.164154469 -0.5327437819 -0.0234183116 0.1788509126
605296370.0 -0.0564058686 0.1781881246 0.158544347 -0.5344870749 0.1586159574 -0.5346218517 -0.0213897989 0.1791330328
610296340.0 -0.0542438302 0.1791918828 0.1527348377 -0.5366097065 0.1527484154 -0.5362899968 -0.0190948812 0.1790717324
615296310.0 -0.0524251683 0.1791304168 0.146772877 -0.5376758168 0.1467447079 -0.538376037 -0.0169705521 0.1793163568
620296280.0 -0.0510718039 0.1798900639 0.1412758116 -0.5395230615 0.1407826315 -0.5392349738 -0.0154745763 0.1797996736
625296250.0 -0.0490799624 0.1803946536 0.1353371193 -0.541218641 0.1353239023 -0.5411147729 -0.0128370257 0.1800655149
630296220.0 -0.0466805075 0.1814072098 0.1290221604 -0.5425586461 0.1284441085 -0.5423311413 -0.0112637528 0.1805418535
635296190.0 -0.0460564863 0.1818356864 0.1236198575 -0.5432468356 0.1231827363 -0.5434881764 -0.008921441 0.1808735353
640296160.0 -0.0441226807 0.1824260642 0.1174474546 -0.5443591776 0.1175935925 -0.5444512522 -0.0070358911 0.1806469928
645296130.0 -0.0422898548 0.1832623691 0.1116788366 -0.5458665747 0.1117394984 -0.546203251 -0.0049155907 0.1813287649
650296100.0 -0.0403260691 0.1833027569 0.1060405434 -0.5469026857 0.1059168867 -0.5468706307 -0.0027629173 0.1805725663
655296070.0 -0.0389052862 0.1840180288 0.0999494387 -0.5481271304 0.1000359131 -0.5480560203 -0.000578389 0.181326245
660296040.0 -0.0373589741 0.1841556615 0.0941807644 -0.5489143252 0.0941666027 -0.5494880152 0.0017358556 0.1814986322
665296010.0 -0.0348340184 0.1847719225 0.0876525 -0.5500342139 0.0877219433 -0.5503922419 0.0038594043 0.1821096951
670295980.0 -0.0339098602 0.1855440852 0.0820497588 -0.5507276845 0.0820137964 -0.5514031 0.0051826689 0.18221909
675295950.0 -0.0317492156 0.1861526192 0.0765947748 -0.5518312229 0.0761841854 -0.5514658431 0.0072134034 0.1822546402
680295920.0 -0.0302992536 0.1863022086 0.0702390242 -0.5521749938 0.0697485382 -0.5529766359 0.0093751928 0.1827606864
685295890.0 -0.028003442 0.1872996142 0.0641150229 -0.5532600529 0.0643896326 -0.5535123538 0.0116200035 0.1827585855
690295860.0 -0.0257257261 0.1873113856 0.0580638591 -0.5536131064 0.0580219784 -0.5543695078 0.0135088284 0.1831744399
695295830.0 -0.0244094588 0.1873767888 0.0525034341 -0.5539544461 0.0518512008 -0.5542263574 0.0156809391 0.1829610172
700295800.0 -0.0223303273 0.1879105483 0.0463283094 -0.5547328099 0.0459640564 -0.5547120104 0.0170497819 0.1833727353
705295770.0 -0.0208313419 0.1890350138 0.0400925244 -0.5555838351 0.0405260401 -0.5552741981 0.019237752 0.1834677949
710295740.0 -0.0187742119 0.1889862992 0.0343920539 -0.5564958784 0.0345669199 -0.5563561754 0.0212196418 0.1830293102
715295710.0 -0.0173534582 0.1893049601 0.0288636004 -0.5562971183 0.0279524052 -0.5560960411 0.0236550497 0.1826299426
720295680.0 -0.0154262684 0.1895338936 0.0225488974 -0.5564928221 0.0224610371 -0.5565462424 0.0258188214 0.1829569243
725295650.0 -0.0129917779 0.1898835434 0.0161873713 -0.5566051047 0.0164790729 -0.5569791484 0.0271817946 0.1832166252
730295620.0 -0.0110567018 0.1905023472 0.0099723907 -0.5567037179 0.0105283185 -0.5570542891 0.0292488232 0.1827928106
735295590.0 -0.0094863592 0.1904848515 0.0046121689 -0.5568655324 0.0040259352 -0.556846387 0.0311857689 0.1824072266
740295560.0 -0.0081215118 0.1908771091 -0.0016423235 -0.5568917216 -0.0016155552 -0.5569279459 0.0336629895 0.1823846464
745295530.0 -0.0061954854 0.1913174295 -0.0077605285 -0.556390444 -0.0078768809 -0.556829012 0.0351166056 0.1816130294
750295500.0 -0.0039228524 0.1911247652 -0.0133296518 -0.5562607173 -0.0135437452 -0.5564468434 0.0371345647 0.1815208717
755295470.0 -0.0019691685 0.1910727242 -0.0196990281 -0.5564229251 -0.0196257178 -0.5562843267 0.0398257965 0.1811386311
760295440.0 -0.0004708541 0.1913408026 -0.0258356044 -0.5562587896 -0.0259262934 -0.5563712001 0.0413308776 0.1808720996
765295410.0 0.0015836584 0.1915159822 -0.0318248191 -0.5560589199 -0.0318082456 -0.5559610416 0.0432811726 0.1805620621
770295380.0 0.002975645 0.1916695976 -0.037834227 -0.5553622709 -0.0381194027 -0.5550951727 0.0453753752 0.1801003335
775295350.0 0.0048747296 0.1913434881 -0.0435238083 -0.5545623154 -0.0435250356 -0.5544720298 0.0468693039 0.1799155688
780295320.0 0.0069358771 0.191795432 -0.0498012753 -0.5537602769 -0.049137274 -0.5538822041 0.0488599679 0.1790333675
785295290.0 0.0086434488 0.1912052878 -0.0556133551 -0.5529309717 -0.0553572933 -0.5536584132 0.0513498517 0.1788320396
790295260.0 0.0109060918 0.1918530942 -0.0611943136 -0.5523740209 -0.0608104409 -0.5527172094 0.0534018721 0.1783406633
795295230.0 0.0124479754 0.1915025455 -0.0672775438 -0.5517697526 -0.0675914251 -0.5525596292 0.0556769436 0.1780775839
800295200.0 0.0142484752 0.1920250761 -0.0739974333 -0.5509328314 -0.0731775666 -0.5513674756 0.0573528621 0.1773313171
805295170.0 0.0164528446 0.1917833964 -0.0791415793 -0.5504478369 -0.0795405684 -0.5507547967 0.0592346074 0.1771648234
810295140.0 0.0177684797 0.1914310042 -0.0849701573 -0.5492760503 -0.0855187087 -0.5494198264 0.0618431684 0.1765255912
815295110.0 0.0198199549 0.1910999203 -0.0908055038 -0.5478892566 -0.0908178513 -0.548404655 0.0633527349 0.1759322016
820295080.0 0.0213872316 0.19199702 -0.0972860932 -0.5473647135 -0.0968670877 -0.5476498531 0.0655386617 0.1755585268
825295050.0 0.0239696424 0.1915443588 -0.1024753815 -0.5463111032 -0.1028381659 -0.5464963585 0.0675878591 0.1750090573
830295020.0 0.0253750326 0.191436217 -0.1090860689 -0.5447013078 -0.1088269698 -0.5451759348 0.0702424888 0.1744064054
