!Created with skrf (http://scikit-rf.org).
# Hz S RI R 50.0 
!freq ReS11 ImS11 ReS21 ImS21 ReS12 ImS12 ReS22 ImS22
300000.0 -0.0466418992 -0.0575219388 0.0002245677 0.0008918506 -0.0003498668 0.0011258062 -0.7635910405 -0.1672231674
5299970.0 -0.0489654581 0.0157499945 0.0001487999 6.64711e-05 0.0001419967 -3.49167e-05 -0.784530334 -0.0085125773
10299940.0 -0.0432353706 0.0333642134 -0.0001394927 0.0001179423 -4.40492e-05 -0.0001706756 -0.7883328922 -0.0051086825
15299910.0 -0.0349543582 0.0480344301 0.0001734732 0.0001945566 0.0001238959 3.39353e-05 -0.793502489 -0.0030508627
20299880.0 -0.0246160872 0.0596980125 1.02257e-05 0.0001164503 4.85458e-05 -7.13773e-05 -0.8003594846 0.0018281683
25299850.0 -0.0132242521 0.0692638142 0.0003062484 -0.0001294653 0.0001783963 -0.0001576575 -0.8064505932 0.007319856
30299820.0 -0.0012972263 0.0756639262 0.0001636396 -1.4445e-06 7.49777e-05 1.24617e-05 -0.8122185702 0.0145780674
35299790.0 0.010327639 0.0806011205 6.67675e-05 0.0002789114 0.0002068834 -7.04835e-05 -0.8177456209 0.0236226038
40299760.0 0.0217673625 0.083392011 5.7383e-05 -0.0001326917 -4.21587e-05 6.6596e-06 -0.8215609609 0.0337364283
45299730.0 0.0324649864 0.084683719 3.43018e-05 0.0001777459 -9.2656e-06 -0.0002096283 -0.8256124545 0.0426212787
50299700.0 0.0428990568 0.0843109891 0.0001590441 -4.44959e-05 0.0001265083 0.0001448543 -0.8280825971 0.0528952425
55299670.0 0.0521821558 0.0833116486 6.66729e-05 7.11606e-05 0.0002269105 9.85498e-05 -0.8296097761 0.0631865453
60299640.0 0.0606800582 0.0814621438 -0.0001877727 5.44833e-05 -2.47715e-05 0.0001456853 -0.8309206723 0.0731779451
65299610.0 0.0687670037 0.0792122941 7.91098e-05 0.0002683096 -1.73297e-05 0.000296733 -0.8314099916 0.0827209334
70299580.0 0.0756369746 0.0755790271 0.0002626058 -0.0001073149 -6.3049e-05 2.45605e-05 -0.831988652 0.0930063838
75299550.0 0.0821472442 0.0720895269 0.0001282463 0.0001247853 6.83297e-05 5.70904e-05 -0.8323721263 0.1023094861
80299520.0 0.0874694456 0.0688942168 3.11323e-05 0.0002173243 7.18596e-05 6.94929e-05 -0.8316759624 0.1121604189
85299490.0 0.0930756136 0.0646845763 -0.0002048325 0.0001126719 1.29148e-05 2.28469e-05 -0.8318466557 0.1218855036
90299460.0 0.0971036849 0.0609074197 -9.17359e-05 3.61719e-05 0.0002834165 2.8727e-06 -0.8309523829 0.1316085814
95299430.0 0.1014629449 0.0568107584 -1.97269e-05 0.0001037672 -8.02772e-05 0.0001136229 -0.8296972276 0.1408515896
100299400.0 0.1047717004 0.0531121769 0.0002359659 0.0001707065 -1.98896e-05 5.0055e-05 -0.8289035304 0.1495732106
105299370.0 0.1082276307 0.0485450267 -3.07278e-05 -2.55997e-05 5.37503e-05 -6.06865e-05 -0.8274773488 0.1592714789
110299340.0 0.1110703153 0.0446886053 8.052e-06 1.74981e-05 7.96208e-05 -6.8241e-06 -0.8265188009 0.1682760917
115299310.0 0.1135976932 0.0402226943 6.74394e-05 -0.000149436 0.0001285373 -0.000267027 -0.824582673 0.1770829078
120299280.0 0.1155954847 0.0368422782 2.82436e-05 6.37449e-05 2.61316e-05 0.0001419441 -0.8237048851 0.1861679008
125299250.0 0.117455232 0.0327074977 -6.54577e-05 0.0001771501 0.0002026784 0.0002033196 -0.8216127138 0.1954879541
130299220.0 0.1193965961 0.0289694155 7.77915e-05 0.0002049535 0.000383175 -0.0001003777 -0.8201664082 0.204284568
135299190.0 0.1208246542 0.0248589998 -5.55695e-05 -2.5779e-06 -3.1341e-06 -7.81142e-05 -0.8178430558 0.2128756925
140299160.0 0.1220127827 0.0214469192 -1.31132e-05 7.20734e-05 -4.85116e-05 -3.50893e-05 -0.8161673669 0.2211863261
145299130.0 0.1229674113 0.0177113666 0.0001651531 0.00017382 -4.95389e-05 -2.4201e-06 -0.8137956668 0.2301235643
150299100.0 0.123665523 0.0142758522 1.66675e-05 -2.42977e-05 -0.0001242181 0.0001638934 -0.8116090211 0.2380191969
155299070.0 0.1244700642 0.0109581033 -0.0001836316 -0.0001291972 7.67608e-05 -1.82449e-05 -0.8090928131 0.2477646537
160299040.0 0.1250697022 0.0073188246 0.0001401508 6.18184e-05 0.0001440671 -0.0001099095 -0.8072279404 0.2568921059
165299010.0 0.1253564217 0.0043461938 2.94812e-05 2.90428e-05 8.69054e-05 -0.0002615733 -0.8041176769 0.2651216616
170298980.0 0.1258798569 0.0008761202 -0.0001308491 9.65594e-05 -6.43397e-05 0.0001868613 -0.8020809371 0.2733319173
175298950.0 0.1261198997 -0.0017811391 0.0002632925 7.45047e-05 0.0001570536 -4.1847e-05 -0.7986482689 0.2822131167
180298920.0 0.1261225326 -0.0052955404 -7.77789e-05 -0.0001012549 1.5854e-05 9.27695e-05 -0.7958344796 0.2905516425
185298890.0 0.1260053665 -0.0081875134 4.05007e-05 0.000135115 0.0001056203 -9.13124e-05 -0.7927664448 0.2986155981
190298860.0 0.1260981355 -0.011273702 6.31374e-05 -2.57763e-05 0.0001003873 2.96365e-05 -0.7895727004 0.307468974
195298830.0 0.1262245765 -0.0142986756 0.0002000028 6.52886e-05 1.03752e-05 -0.0001374534 -0.7871608275 0.316192389
200298800.0 0.1256411645 -0.0166691172 9.53153e-05 0.0001298864 3.52523e-05 0.0002137631 -0.7831915828 0.3242949009
205298770.0 0.1253990126 -0.0196520634 0.0001957992 0.0001077342 0.0001451554 0.0001266108 -0.7795841712 0.331766485
210298740.0 0.1249753665 -0.0225626972 0.0002590916 8.63913e-05 8.31995e-05 0.0001456275 -0.7768304085 0.3409352875
215298710.0 0.1246485572 -0.0249524898 0.0001514868 0.0001629721 3.64078e-05 0.000140756 -0.7733154033 0.3482316943
220298680.0 0.1242996208 -0.0274771747 -3.15442e-05 0.0001203587 -0.0001310497 1.09361e-05 -0.7695961889 0.3572581849
225298650.0 0.1237195721 -0.0300674219 0.000218541 0.0002099069 6.33833e-05 -0.0001851496 -0.7661820326 0.3646039247
230298620.0 0.1231295035 -0.0324088807 -3.97927e-05 -3.2994e-06 3.41164e-05 7.56397e-05 -0.7616469252 0.3727825932
235298590.0 0.1221635774 -0.0350762884 -0.0001453453 0.0003207622 -1.80982e-05 0.0002295994 -0.7578782566 0.3806372966
240298560.0 0.1215819728 -0.0372517586 0.0001894891 8.43681e-05 3.07801e-05 -6.14178e-05 -0.7542478768 0.3888269055
245298530.0 0.1210886695 -0.0397364317 0.000220067 -6.57071e-05 -4.6642e-05 8.63149e-05 -0.7501868126 0.3966914968
250298500.0 0.1201817282 -0.0419460264 -1.41495e-05 0.0002586696 -0.0001514437 3.02714e-05 -0.7459714119 0.4046405517
255298470.0 0.1195849117 -0.0439276136 2.01791e-05 -0.0001623744 -0.0001351087 -7.36808e-05 -0.7412419271 0.4129451289
260298440.0 0.1187018612 -0.0458780439 -4.73569e-05 -4.36268e-05 3.6194e-06 5.60581e-05 -0.7366545066 0.4201534565
265298410.0 0.1176670126 -0.0480958291 8.2627e-05 -4.80648e-05 8.11131e-05 0.0001235971 -0.7321195604 0.427101563
270298380.0 0.1170157575 -0.0500742147 8.31367e-05 2.57968e-05 0.0001034256 -5.76266e-05 -0.7273680913 0.4353768831
275298350.0 0.1157695893 -0.0523168466 0.0001495899 0.0001707732 -3.20169e-05 6.31331e-05 -0.7225912248 0.4429514969
280298320.0 0.115243236 -0.0544871903 4.78e-06 5.74532e-05 0.0001190396 1.17835e-05 -0.7183817485 0.4503512797
285298290.0 0.114176367 -0.0559760134 -8.59184e-05 -3.21348e-05 0.0002288302 5.63608e-05 -0.7134845098 0.4577624456
290298260.0 0.1133796524 -0.0581820957 0.0003465748 2.44228e-05 2.79061e-05 -0.0001673131 -0.7087438396 0.4658098687
295298230.0 0.1122547181 -0.0602348058 0.0001036548 -3.09631e-05 0.000170831 3.29969e-05 -0.703415362 0.4731589549
300298200.0 0.1112808161 -0.0624693657 0.0003386482 1.93177e-05 0.0001963081 -3.91154e-05 -0.6988023203 0.480286104
305298170.0 0.1104482695 -0.0640101519 5.67536e-05 9.99822e-05 0.0001749818 -5.93191e-05 -0.6932029774 0.4883253089
310298140.0 0.1092176022 -0.0665170615 0.0001487936 4.72019e-05 0.0001839049 -2.0407e-06 -0.6889782351 0.4951997046
315298110.0 0.1079668128 -0.068355318 -9.14707e-05 -0.0001501916 0.0001787133 -1.17903e-05 -0.6829008384 0.502042067
320298080.0 0.1064295261 -0.0701297752 0.0001637102 2.2592e-05 -0.0001259458 0.0001213744 -0.6773718218 0.5093689405
325298050.0 0.1049200782 -0.072060821 -2.4831e-05 0.0001058682 0.0001457919 4.90459e-05 -0.6725265641 0.5163671444
330298020.0 0.1035383173 -0.0735874062 0.0002551925 0.0001861026 8.68917e-05 7.65869e-05 -0.6663348374 0.523204585
335297990.0 0.1021441493 -0.0751083004 0.0001296869 0.0002361115 0.0001744944 -0.0001019003 -0.6607832215 0.5305772275
340297960.0 0.1004218452 -0.0762934697 0.0001972281 0.0001643512 1.783e-06 -1.05094e-05 -0.65530487 0.5368145155
345297930.0 0.0993037712 -0.0779809526 2.61752e-05 1.26916e-05 1.74853e-05 0.0001333122 -0.6494597787 0.5441322926
350297900.0 0.0981365551 -0.0794377836 -6.21368e-05 -2.75591e-05 9.04332e-05 0.0002477553 -0.6440112587 0.5516259566
355297870.0 0.0963857742 -0.080922103 4.33196e-05 8.69315e-05 -4.56605e-05 5.7294e-05 -0.6378430388 0.557209285
360297840.0 0.0951363827 -0.0821098085 4.44533e-05 -9.457e-06 0.0001132583 -0.0001034426 -0.632523185 0.5639391641
365297810.0 0.0935404073 -0.0835072792 9.77576e-05 -1.27518e-05 0.0001362119 -0.0001041517 -0.6262757031 0.5707555878
370297780.0 0.0925332969 -0.0848982588 0.0001226365 0.0001133135 0.0001974427 0.0003309568 -0.6206635518 0.5767839033
375297750.0 0.0909627349 -0.0859777948 -7.1383e-06 0.0001269875 3.8624e-06 0.0002224646 -0.6141202284 0.5832973525
380297720.0 0.0899830439 -0.087456417 0.0003844532 1.9936e-05 6.5201e-05 3.81623e-05 -0.6078980197 0.5904996442
385297690.0 0.0880746202 -0.088844996 0.000188696 0.000230681 0.000180885 0.0001870314 -0.6015733784 0.5965586658
390297660.0 0.086690249 -0.0897638384 0.0001826703 0.0001135984 -5.51458e-05 -3.39014e-05 -0.5951738661 0.6017266907
395297630.0 0.0854880257 -0.0911889672 5.80153e-05 6.69076e-05 -5.57702e-05 7.4921e-05 -0.5888365014 0.6082053983
400297600.0 0.0840759416 -0.0921788334 0.0003261287 -7.91541e-05 -0.0001112539 0.0001291717 -0.5830850148 0.614365857
405297570.0 0.0827167047 -0.0935421402 -4.53145e-05 0.0001290382 0.0001255256 7.81082e-05 -0.5768690485 0.6203560058
410297540.0 0.0809495809 -0.0946671205 0.00017355 -3.05557e-05 5.2829e-05 9.7382e-06 -0.5696558249 0.6258231307
415297510.0 0.0796715059 -0.0956143818 -0.0001043321 9.28031e-05 0.0001226127 0.0001860195 -0.5634088663 0.6320063693
420297480.0 0.0779081292 -0.0968616353 0.000136893 -2.88968e-05 -7.019e-07 0.000123765 -0.5571201247 0.6368114631
425297450.0 0.0765182351 -0.0977641789 0.0001447904 0.0001202301 1.1668e-05 -0.0001713091 -0.5499898954 0.643272976
430297420.0 0.0747592718 -0.0987952646 3.46585e-05 7.60285e-05 -2.14199e-05 6.13861e-05 -0.5436535965 0.6481769994
435297390.0 0.073599326 -0.0997656745 8.64959e-05 9.99913e-05 0.0001651995 0.0002813368 -0.5368863488 0.6537440975
440297360.0 0.0719942059 -0.1007233047 8.35167e-05 -4.61903e-05 7.56393e-05 -5.49788e-05 -0.5303451207 0.6585139606
445297330.0 0.070124982 -0.1013568459 -4.30987e-05 0.0001758928 0.0002615215 2.14155e-05 -0.5235579435 0.6641142566
450297300.0 0.068829459 -0.102565576 -6.11883e-05 8.93335e-05 0.0001927463 -0.0001499096 -0.5171189972 0.6693219922
455297270.0 0.067104693 -0.103437255 0.0001796234 -2.31749e-05 0.0001356289 1.82744e-05 -0.5098672899 0.674760221
460297240.0 0.0654246699 -0.1042257492 0.0001122991 0.0002543341 9.95828e-05 -6.6209e-06 -0.5021731212 0.680448049
465297210.0 0.0641531514 -0.1049563043 0.0001553712 -1.33444e-05 -2.02044e-05 7.7381e-06 -0.496464688 0.685006565
470297180.0 0.0624680127 -0.1056690984 0.0001109174 6.46361e-05 0.000124175 2.45034e-05 -0.4893214298 0.689705141
475297150.0 0.0609797248 -0.1065668715 0.0001298878 -4.3967e-06 0.0001329094 0.0002503257 -0.4818559788 0.6945154533
480297120.0 0.0590838467 -0.1074542208 4.26234e-05 4.19267e-05 0.0001902054 7.77174e-05 -0.4749117727 0.6999412629
485297090.0 0.0579046242 -0.1081186652 6.9108e-05 0.0003779333 3.07689e-05 -8.17361e-05 -0.467750119 0.7041532143
490297060.0 0.0562715485 -0.108873313 0.0001352771 -2.96741e-05 -3.1748e-06 -0.0002247105 -0.4611333361 0.7086614879
495297030.0 0.0543767591 -0.1095235589 0.0001314487 0.0001467752 0.0001334952 8.06894e-05 -0.4528639658 0.7128306146
500297000.0 0.0530457157 -0.1103137489 0.0002637641 3.45408e-05 9.45031e-05 -0.0001731086 -0.4462276932 0.7178061159
505296970.0 0.0509238581 -0.1107692274 6.60617e-05 -7.05117e-05 2.50488e-05 -2.25479e-05 -0.4398228733 0.7221669492
510296940.0 0.0496492833 -0.1111554653 0.0001574099 -0.0001091975 0.0001721402 -7.94338e-05 -0.4316981846 0.7263894768
515296910.0 0.0480208386 -0.1117434429 6.10872e-05 -6.50269e-05 0.0001720454 5.48951e-05 -0.4246164688 0.7307099964
520296880.0 0.0462725499 -0.112521024 0.0001297174 -5.15505e-05 3.672e-05 6.8101e-06 -0.4173290353 0.7346493371
525296850.0 0.0445950135 -0.1131521239 0.0001477623 -7.94439e-05 0.000179286 5.47158e-05 -0.4095350198 0.7394901426
530296820.0 0.0427129682 -0.1134280923 3.11887e-05 6.76775e-05 5.57661e-05 8.08014e-05 -0.4032442238 0.7430136432
535296790.0 0.0414523356 -0.1139604787 0.0002133256 0.0002114934 0.0001683186 -0.0001460665 -0.3955807083 0.746353951
540296760.0 0.0395320946 -0.1147563572 -5.56259e-05 -7.18669e-05 3.24201e-05 0.0001405551 -0.3877979273 0.750801438
545296730.0 0.0380783142 -0.1148360223 0.0001915352 7.05944e-05 -0.0001356752 0.00011111 -0.3806595258 0.7536947259
550296700.0 0.0359271194 -0.1152199307 0.0002260981 1.82629e-05 -0.0001486616 9.1674e-06 -0.3729298093 0.7580600581
555296670.0 0.0346878696 -0.1156833335 -7.87098e-05 3.82734e-05 0.0001363113 0.000128453 -0.3654648091 0.7613980517
560296640.0 0.0327755754 -0.1162023493 0.0001207391 6.49184e-05 0.0002110343 0.0001762271 -0.3572552768 0.7655247792
565296610.0 0.0309267714 -0.1164788731 0.0002895984 6.33482e-05 0.0002795615 -0.0001237785 -0.3501774941 0.7688662588
570296580.0 0.0294527841 -0.1168586514 0.0001836727 -1.83242e-05 0.0001142175 5.98823e-05 -0.3429164586 0.7725957748
575296550.0 0.0280793822 -0.1169381013 8.8541e-06 0.0001109719 6.01413e-05 -8.8749e-05 -0.3347420127 0.7759636384
580296520.0 0.0264404332 -0.1172991333 1.05539e-05 7.3148e-06 0.0002307733 -0.0001708245 -0.3265447604 0.7790871539
585296490.0 0.0244086545 -0.1176012032 0.0002855965 -8.47844e-05 0.0001883785 -0.0001314267 -0.3191966668 0.7816998198
590296460.0 0.0226930918 -0.1178805409 6.3609e-05 -9.71975e-05 0.0002924929 -9.02821e-05 -0.3118286288 0.7846417692
595296430.0 0.0211409962 -0.1179475203 9.51982e-05 -0.0001176714 0.0001945798 -3.73214e-05 -0.3037960954 0.7874790458
600296400.0 0.0193094372 -0.118025766 0.0004079833 5.81433e-05 4.85106e-05 2.4941e-05 -0.2964546463 0.7908853194
605296370.0 0.017650383 -0.1181968579 0.0001856843 -5.18117e-05 9.39618e-05 6.34369e-05 -0.2883592319 0.7944349227
610296340.0 0.0161353565 -0.1184329506 0.0002174143 0.0001171883 0.0003293319 -0.0002480203 -0.2798460821 0.7972688566
615296310.0 0.014265295 -0.1183015526 6.76988e-05 -2.50737e-05 -4.40629e-05 0.0002182771 -0.2725266413 0.799225437
620296280.0 0.0126675697 -0.1185315539 0.0001568863 9.73841e-05 -0.0002260533 -0.000136707 -0.2644237137 0.801915964
625296250.0 0.011130635 -0.1183650069 0.0002848015 1.68327e-05 0.0001265446 -0.000302402 -0.2565089738 0.8044539848
630296220.0 0.009236342 -0.1186137767 -0.0001378641 0.0001962301 -6.13425e-05 -9.96975e-05 -0.2482465082 0.8077922524
635296190.0 0.0076364068 -0.1185608456 8.99575e-05 -8.41358e-05 0.0001259868 0.0001189937 -0.2411296878 0.8093847554
640296160.0 0.0058074666 -0.1185295944 1.82465e-05 -7.14726e-05 9.76659e-05 3.82844e-05 -0.2321287998 0.8117693274
645296130.0 0.0038597383 -0.1184049355 6.93204e-05 1.75786e-05 9.55473e-05 9.74601e-05 -0.2249882629 0.8137938664
650296100.0 0.0024221522 -0.1181327611 0.0002133876 -4.5469e-05 0.0001542086 -1.41229e-05 -0.2166828804 0.8165996998
655296070.0 0.0008560009 -0.1184251264 -4.21677e-05 -1.69999e-05 0.000101193 -6.12944e-05 -0.2079485262 0.818236154
660296040.0 -0.0010491041 -0.1177621596 0.0001776054 0.0001665623 -3.00789e-05 -0.0001889654 -0.2006745802 0.8200869406
665296010.0 -0.0024380467 -0.1181633201 2.45917e-05 2.32195e-05 2.5441e-06 -0.0002504696 -0.1926711334 0.8223660006
670295980.0 -0.0040504012 -0.1177200795 -3.14233e-05 -0.000127496 0.0001904644 -2.28915e-05 -0.1847113478 0.8238507863
675295950.0 -0.005708933 -0.1174016046 9.02984e-05 3.23554e-05 2.62706e-05 -0.0001244869 -0.1762193141 0.8260589596
680295920.0 -0.0076531737 -0.1173580289 2.66134e-05 -7.95264e-05 -2.91324e-05 -1.76609e-05 -0.1674583603 0.8280299635
685295890.0 -0.0092112596 -0.1167753169 0.0001942759 -0.0002547146 5.84293e-05 6.3924e-06 -0.1593121698 0.8293553657
690295860.0 -0.0107455597 -0.1166637565 -1.91151e-05 7.5357e-05 -3.83915e-05 -7.8844e-05 -0.1515838002 0.8307006203
695295830.0 -0.0124751226 -0.1167377408 0.0001442931 5.66234e-05 8.23289e-05 2.91513e-05 -0.1435224445 0.8324774905
700295800.0 -0.014024646 -0.1162419645 0.000231879 0.0001486631 0.0001322844 -7.11993e-05 -0.1344063309 0.8331833792
705295770.0 -0.0157195678 -0.1161329552 3.57754e-05 1.02312e-05 6.0993e-06 6.39602e-05 -0.1269138345 0.8353859714
710295740.0 -0.0173504356 -0.1155220128 0.0002431946 -0.0001612484 0.000198776 -0.0001002637 -0.11916951 0.836348818
715295710.0 -0.019280189 -0.1150624028 5.15404e-05 -0.0001032947 0.0001305617 2.362e-06 -0.1104033236 0.8375236826
720295680.0 -0.0207356596 -0.1147396126 0.0003059162 -0.0001129941 0.0003162038 6.62313e-05 -0.1019047413 0.8380232655
725295650.0 -0.0222774052 -0.1143788372 -0.0001325381 -0.0001212836 0.0001916791 0.0001151121 -0.0936323673 0.8394231445
730295620.0 -0.0238704713 -0.1141258797 2.19474e-05 -0.0001085609 0.0001660305 3.65652e-05 -0.0852379678 0.8401666923
735295590.0 -0.0254251219 -0.1135349306 0.0001236667 -0.0001646502 0.0002221442 3.90468e-05 -0.0765428427 0.8408652195
740295560.0 -0.0272182505 -0.113025726 8.32239e-05 -0.0002428776 0.0001459819 9.1188e-06 -0.0688324559 0.8411759998
745295530.0 -0.028803548 -0.1127401309 0.000272304 -0.0001304917 0.0002910792 6.24843e-05 -0.0604455293 0.8419735852
750295500.0 -0.0303952333 -0.1122567528 9.71492e-05 0.0001451682 0.0001954672 -0.0001829769 -0.0520315791 0.8424258017
755295470.0 -0.0316518821 -0.1111953563 6.22823e-05 -0.0001077313 -2.8405e-05 -3.02875e-05 -0.0441274674 0.842972015
760295440.0 -0.0334012584 -0.1108180359 0.0004311717 -3.95826e-05 0.0001507106 -9.85924e-05 -0.0357934433 0.843982488
765295410.0 -0.0349536163 -0.1106302151 0.0001491876 5.0501e-06 8.47234e-05 -6.73111e-05 -0.026830375 0.8438928923
770295380.0 -0.036540661 -0.1097953677 0.0002521832 -0.000221819 -9.5391e-06 -2.28645e-05 -0.0185246904 0.844032869
775295350.0 -0.0383627338 -0.1089346343 0.0003843347 6.8291e-05 0.0002287034 -0.0001061079 -0.0109674873 0.8438596349
780295320.0 -0.0398095204 -0.1085119324 -4.22735e-05 9.03724e-05 -0.000103855 0.0001144512 -0.0025926416 0.844289223
785295290.0 -0.0411800983 -0.1075509475 7.52107e-05 -0.000119599 0.0001233402 -0.00016447 0.0052685399 0.8445609542
790295260.0 -0.0426849844 -0.1069895382 0.00024178 -0.0001203144 9.64922e-05 5.91637e-05 0.0148814442 0.8442241995
795295230.0 -0.044325608 -0.1059816099 0.0001316892 -9.28352e-05 0.0001625328 -9.36532e-05 0.022586717 0.8443458489
800295200.0 -0.0454724865 -0.1055564699 0.0002090525 8.6675e-06 0.0001766131 -0.0001012695 0.0311753901 0.8431982157
805295170.0 -0.0473373634 -0.1047070177 4.41463e-05 -5.79193e-05 0.0003183629 -7.09377e-05 0.0386847705 0.842898801
810295140.0 -0.0487711409 -0.1040001181 0.00023164 -0.0002346769 0.0002549809 1.9044e-05 0.0474243796 0.8433569606
815295110.0 -0.050121927 -0.1031221891 0.0001454883 8.1266e-05 0.0002337648 -5.65824e-05 0.055549317 0.8429234005
820295080.0 -0.0518331284 -0.1024848297 -5.85396e-05 -5.49256e-05 -0.0001114397 -9.25692e-05 0.0635425267 0.8420780309
825295050.0 -0.053345081 -0.1014414776 0.0002652262 6.22852e-05 0.0001924145 2.22898e-05 0.0720781043 0.8412079857
830295020.0 -0.0543632419 -0.1003922964 9.93722e-05 0.0001807477 0.0001916927 2.63642e-05 0.0799727871 0.8403490846
835294990.0 -0.0559488008 -0.0996873177 0.0002232338 -0.0003215022 1.21817e-05 -0.0002654364 0.0885427717 0.8392531394
840294960.0 -0.0574613884 -0.0990124347 0.0002242497 6.17688e-05 0.0002373539 7.55929e-05 0.0966070646 0.8390061992
845294930.0 -0.0588556426 -0.0978272961 0.0002217198 -0.0002860269 0.0002325102 -4.60826e-05 0.1048065088 0.837804367
850294900.0 -0.0600224671 -0.0970292061 0.0002237713 -0.0001819718 2.31016e-05 8.8131e-05 0.1136611253 0.8366436098
