!Created with skrf (http://scikit-rf.org).
# Hz S RI R 50.0 
!freq ReS11 ImS11 ReS21 ImS21 ReS12 ImS12 ReS22 ImS22
300000.0 -0.2419913298 -0.0850972261 0.4711418362 0.0572910594 0.4682558899 0.0555421728 -0.2371074378 -0.0962999611
5299970.0 -0.2447828784 0.0067928448 0.4745591088 0.0048008735 0.4745194061 0.0047766535 -0.2408856608 0.007438063
10299940.0 -0.2415771545 0.0181403001 0.4766999282 0.005802191 0.4765953699 0.0061192172 -0.2376856972 0.0207579713
15299910.0 -0.237660834 0.0271820881 0.4803548257 0.0073175701 0.4804034502 0.0072400128 -0.2328383404 0.0301520175
20299880.0 -0.233024613 0.0342199179 0.4850794334 0.0080335106 0.4851812669 0.0076512001 -0.2278340236 0.038202258
25299850.0 -0.227739711 0.0402048798 0.4901866895 0.0067320188 0.4900846801 0.0070654373 -0.2218091253 0.0445202722
30299820.0 -0.2224593951 0.0450530695 0.495701563 0.004836691 0.4956796676 0.0051684824 -0.2162131854 0.0500299226
35299790.0 -0.2173129473 0.0490752915 0.5009456094 0.0015008818 0.5007987106 0.001499045 -0.2105975849 0.0544683401
40299760.0 -0.2126302194 0.0523096476 0.5055708258 -0.0026342312 0.5057650676 -0.0023587108 -0.2050420522 0.0575034353
45299730.0 -0.2080455929 0.0548202789 0.5105047118 -0.0071984613 0.5107851691 -0.0070639875 -0.2003391261 0.0606195489
50299700.0 -0.2040428144 0.0567303514 0.5151585235 -0.0124796264 0.5149536373 -0.0123798282 -0.195401736 0.0622943013
55299670.0 -0.1999821215 0.0583902355 0.5185138626 -0.018990912 0.5184088627 -0.0185976688 -0.1911920475 0.0641434289
60299640.0 -0.1959569078 0.0598594398 0.5217668721 -0.0249653493 0.5220642197 -0.0244585377 -0.1875687377 0.0652036039
65299610.0 -0.1929244449 0.0608661211 0.5249093742 -0.0313661666 0.5249169655 -0.0313998481 -0.1838646432 0.0668580836
70299580.0 -0.1899492716 0.0621802578 0.5271873088 -0.0377065582 0.527059717 -0.0378773648 -0.1807608038 0.0675367344
75299550.0 -0.1872545092 0.0630471506 0.5290984496 -0.0447792653 0.5289362475 -0.044779443 -0.1778216318 0.0683967668
80299520.0 -0.1847197658 0.0635991711 0.5310271148 -0.0516585041 0.5311908613 -0.0514767073 -0.1754123174 0.0690678696
85299490.0 -0.1826315032 0.0641660323 0.5320619371 -0.0581713982 0.5322228549 -0.0581594894 -0.1731038141 0.0695701694
90299460.0 -0.1802263696 0.0648675173 0.5329905366 -0.0655025779 0.5337685224 -0.0653342175 -0.1706360416 0.0703266052
95299430.0 -0.1782663889 0.0654444039 0.5339739202 -0.0721741344 0.5341544511 -0.0723084009 -0.1683006326 0.0710031158
100299400.0 -0.1766838328 0.0662465099 0.5338579681 -0.0792007494 0.5345184858 -0.0789521578 -0.1660821638 0.0715685911
105299370.0 -0.1749857129 0.066686202 0.5346075431 -0.0863542919 0.5351596046 -0.0860570865 -0.164144496 0.0723767602
110299340.0 -0.173475055 0.0677110534 0.5353211886 -0.0925688517 0.534616098 -0.092427541 -0.1627249289 0.0728716337
115299310.0 -0.1721301841 0.0683207592 0.5348896093 -0.0996693068 0.5348983716 -0.0997631517 -0.1611391078 0.0739899134
120299280.0 -0.1706814127 0.0684422974 0.5339058541 -0.1063149394 0.5345815185 -0.1064306814 -0.1598283889 0.0745264637
125299250.0 -0.1694711044 0.0690790717 0.533932092 -0.1129146781 0.5343219754 -0.1127931034 -0.1584016228 0.0747552334
130299220.0 -0.1687465437 0.0703035249 0.5334979083 -0.1201515597 0.5336413223 -0.1197569452 -0.1572441973 0.0755293152
135299190.0 -0.1673483992 0.0711741159 0.5333342001 -0.1265941375 0.5329938597 -0.1263995379 -0.1558928446 0.0767054101
140299160.0 -0.1666758918 0.072008968 0.5321153964 -0.1332153433 0.5320798061 -0.1332470858 -0.1546487223 0.0780586825
145299130.0 -0.1654878104 0.0727776001 0.5314791008 -0.1396381922 0.5309792975 -0.1394261689 -0.1534511698 0.0789295036
150299100.0 -0.1642815896 0.0739000833 0.5297707107 -0.1459138998 0.5300470287 -0.1458275002 -0.1524177681 0.0803683981
155299070.0 -0.1637195657 0.074606307 0.5287571437 -0.1532557855 0.5287297588 -0.1528014184 -0.1510674902 0.0813554779
160299040.0 -0.1627828679 0.0758705884 0.5268412233 -0.1591651739 0.5271693274 -0.1592132719 -0.1506318954 0.0823725164
165299010.0 -0.1622472723 0.0769703216 0.5256958528 -0.1658580215 0.5260330422 -0.1658319948 -0.1491084216 0.0838411491
170298980.0 -0.1615007799 0.0780232626 0.5238853422 -0.1717705416 0.524244299 -0.1721318822 -0.148189676 0.0845102183
175298950.0 -0.160827584 0.0789439975 0.5228562028 -0.1785947453 0.5226734183 -0.1783362287 -0.1475442242 0.0859061457
180298920.0 -0.1601161883 0.0802560299 0.5210322158 -0.1845008971 0.5214833414 -0.1840543702 -0.1466313285 0.0872966002
185298890.0 -0.1590382711 0.0810105399 0.5190853836 -0.1908373446 0.518920019 -0.1901541394 -0.1457062595 0.0886365897
190298860.0 -0.1586880552 0.0822744037 0.5170337118 -0.1971004242 0.517653587 -0.1968815563 -0.144806901 0.0897245867
195298830.0 -0.157619061 0.0831960283 0.5155277604 -0.2030290412 0.5152953873 -0.2027945798 -0.1436235618 0.0910374112
200298800.0 -0.1567763422 0.0848427995 0.5132670993 -0.2089790356 0.5131442408 -0.2094828192 -0.1430435181 0.0924584731
205298770.0 -0.15610865 0.0859061512 0.5103260053 -0.2150223762 0.5108095841 -0.2153584163 -0.1420417725 0.093227545
210298740.0 -0.1554432164 0.0868364466 0.5085914998 -0.2207788921 0.5087422285 -0.2208488102 -0.141220215 0.0953918299
215298710.0 -0.1551882673 0.0883222335 0.5063553102 -0.227291866 0.5062642493 -0.227432639 -0.1406450172 0.096432028
220298680.0 -0.1539986006 0.0893026623 0.5033803674 -0.2329936928 0.5036350286 -0.2327184003 -0.1395168454 0.0974567422
225298650.0 -0.1533857842 0.0905793928 0.501485613 -0.238753836 0.5019212072 -0.238808066 -0.1389326254 0.0987231739
230298620.0 -0.1523700937 0.0922268733 0.4990917332 -0.2442082455 0.4994085373 -0.2442657246 -0.1380979506 0.1001293991
235298590.0 -0.1518414436 0.0937024404 0.4961948914 -0.2502315839 0.496325372 -0.2498570932 -0.136760966 0.1015353749
240298560.0 -0.1511064617 0.0947629272 0.4936315617 -0.2561792306 0.4932292808 -0.256031266 -0.1356040799 0.1032175462
245298530.0 -0.1504149528 0.0960867712 0.4913320866 -0.2618546387 0.4909474717 -0.2616326853 -0.134643984 0.1036998237
250298500.0 -0.1493051141 0.0975769 0.4874576887 -0.2678103895 0.4877856926 -0.267053573 -0.1339614492 0.1055667265
255298470.0 -0.148637268 0.0987191646 0.4845289253 -0.2727004478 0.4849146541 -0.2727803299 -0.1326541157 0.1067390794
260298440.0 -0.1481262556 0.0999496439 0.4819241676 -0.2788365848 0.4821453845 -0.278471148 -0.131476943 0.1082723855
265298410.0 -0.1468242457 0.1017956056 0.4788610709 -0.2843776803 0.4796034313 -0.2839039382 -0.1305978453 0.1095763259
270298380.0 -0.1460639425 0.1031501022 0.4759205848 -0.2894564442 0.4759512493 -0.2893406286 -0.1294901223 0.1110852165
275298350.0 -0.1449759457 0.1041647911 0.4730292667 -0.2947883126 0.4729555487 -0.2948686834 -0.1283303338 0.1125964831
280298320.0 -0.1438126997 0.1058622325 0.4697858258 -0.3005843027 0.4698353411 -0.2998815974 -0.1268906328 0.1136208154
285298290.0 -0.1430106941 0.1073105577 0.4668398291 -0.3052779798 0.46630293 -0.3055849787 -0.1258807887 0.1147453366
290298260.0 -0.141751596 0.1085419815 0.462937287 -0.3101705064 0.4632378142 -0.310539596 -0.1244816263 0.1163501101
295298230.0 -0.1408752009 0.1096782878 0.4597422139 -0.3160760865 0.4596409065 -0.3162616627 -0.1228723005 0.1176899592
300298200.0 -0.1402664525 0.1110270161 0.4564073881 -0.3211901446 0.4569052529 -0.3214926876 -0.1218456008 0.1192052367
305298170.0 -0.138853234 0.1122303805 0.4529798063 -0.3267125073 0.4527379449 -0.3265292687 -0.1200024355 0.1202712741
310298140.0 -0.1380442576 0.1134994552 0.4491406729 -0.3316626097 0.4495470581 -0.3314096993 -0.1189712046 0.1213285048
315298110.0 -0.136877698 0.1145183619 0.4460176866 -0.3369235956 0.4459560884 -0.3368502789 -0.1177280319 0.1228837021
320298080.0 -0.1360889936 0.1160782472 0.4415968525 -0.3421625868 0.4417324038 -0.3420810707 -0.116640332 0.1239645461
325298050.0 -0.134990757 0.1171966666 0.4379170433 -0.3473118125 0.4382289632 -0.3471557693 -0.1154913724 0.1253237933
330298020.0 -0.1340951828 0.1182086693 0.4337977699 -0.3520090788 0.4339640604 -0.3521016931 -0.1142919814 0.126358293
335297990.0 -0.1330533479 0.1196610252 0.4298544982 -0.3565869292 0.4298597315 -0.3564986301 -0.1132871857 0.1284068043
340297960.0 -0.1324661078 0.1211743037 0.4257580966 -0.3614318382 0.4252840804 -0.3619945981 -0.1116126758 0.1295733274
345297930.0 -0.1313890885 0.1225679085 0.4214482712 -0.3661764732 0.421352243 -0.366524042 -0.110623628 0.1305223473
350297900.0 -0.1301651346 0.1236790998 0.4169887579 -0.3710178885 0.4175389774 -0.3709256174 -0.1094657279 0.1325990053
355297870.0 -0.1291291708 0.1254818947 0.4131102798 -0.3756205682 0.41367075 -0.3750333744 -0.1083532345 0.1337996876
360297840.0 -0.1280831414 0.1266412574 0.4098056594 -0.3792813719 0.4097885474 -0.3797738317 -0.1065534145 0.1354813436
365297810.0 -0.1273441001 0.1281843404 0.4052294859 -0.3847300654 0.4052201679 -0.3848000401 -0.1049822343 0.1366768573
370297780.0 -0.1256515379 0.1294430977 0.4004531573 -0.3886471668 0.4009745414 -0.388390941 -0.1038634182 0.1380418538
375297750.0 -0.1246006569 0.1307076067 0.3964385275 -0.3933241978 0.3969102661 -0.3932868359 -0.1024462492 0.1391446934
380297720.0 -0.1234880991 0.1321810433 0.3923270966 -0.3978849453 0.3922590494 -0.3969468898 -0.1009082222 0.1402908963
385297690.0 -0.1223468438 0.1334882334 0.3874802841 -0.4022880487 0.3876423021 -0.4018514488 -0.0996167496 0.1419594248
390297660.0 -0.1212206079 0.1349197924 0.3834872068 -0.4063719888 0.3833646242 -0.4061690909 -0.0983670552 0.1434093901
395297630.0 -0.1198277513 0.1362469798 0.3791698677 -0.410373655 0.3788768241 -0.4103313097 -0.096106852 0.1444785542
400297600.0 -0.1186516544 0.1377913711 0.3739680398 -0.4148390987 0.3745477394 -0.4145794068 -0.0952392856 0.1454454077
405297570.0 -0.1177448507 0.1386924364 0.3699046406 -0.4186017419 0.3698508582 -0.418431109 -0.0938589881 0.1468947149
410297540.0 -0.1159825083 0.140001947 0.3653603479 -0.4226296361 0.3655482394 -0.4226318528 -0.0922564266 0.1479037393
415297510.0 -0.1145470056 0.1409886801 0.3600361693 -0.4269933629 0.3607493463 -0.4265539682 -0.0903991016 0.1493386136
420297480.0 -0.1133551682 0.1426545575 0.3557724349 -0.4305399209 0.3558216387 -0.4309134273 -0.0891567834 0.1502659304
425297450.0 -0.1119761161 0.1434616838 0.3512195067 -0.4340905709 0.3516391079 -0.4345547293 -0.0875719802 0.1517635962
430297420.0 -0.1104710692 0.1447761681 0.3462983296 -0.4378158813 0.3466369111 -0.4377013639 -0.0860645899 0.1523402819
435297390.0 -0.1095113195 0.1459378413 0.3412757339 -0.4418413357 0.3414579404 -0.4419267539 -0.0840025479 0.1535084587
440297360.0 -0.1079914358 0.1474640221 0.336715839 -0.4453069154 0.3370938782 -0.4452902206 -0.0826949307 0.1544712876
445297330.0 -0.1067580116 0.1481601914 0.3320039366 -0.4494573223 0.3319491068 -0.4493654697 -0.0806045385 0.1549918501
450297300.0 -0.1048161323 0.1494457739 0.3268199074 -0.4526838625 0.3267768472 -0.4529012679 -0.0788054909 0.1560573869
455297270.0 -0.1038512077 0.1508566096 0.3216138101 -0.4567314547 0.3219573657 -0.4565245427 -0.0772156208 0.157224856
460297240.0 -0.1025524724 0.1517683344 0.316588578 -0.4600657438 0.3167827387 -0.4599350583 -0.0755618972 0.1585968339
465297210.0 -0.1004869457 0.1529727831 0.3120089241 -0.4632319906 0.3115515465 -0.4638354724 -0.0740086931 0.1590036997
470297180.0 -0.0992274034 0.1537242221 0.3063066465 -0.4665671537 0.3068198726 -0.4664787145 -0.0717786335 0.1602685852
475297150.0 -0.0978673033 0.1548130445 0.3015118572 -0.4692848147 0.3015718596 -0.4695792963 -0.0698612061 0.1608521963
480297120.0 -0.0962586773 0.1561728121 0.2958436763 -0.4735124662 0.2963195494 -0.4732890343 -0.0679893914 0.162234842
485297090.0 -0.0950630454 0.1572764316 0.2916306548 -0.4760234496 0.2914422117 -0.4759012705 -0.0663150372 0.1627730786
490297060.0 -0.0938058624 0.1583397473 0.2863840643 -0.4794589431 0.2863731721 -0.4789805524 -0.0642976797 0.1638724197
495297030.0 -0.092256357 0.1593903865 0.2808215348 -0.4821610121 0.2811417231 -0.4821395038 -0.0628475009 0.1649741535
500297000.0 -0.0904405384 0.160268546 0.2751968385 -0.4850840174 0.275266863 -0.4855542289 -0.0607115725 0.1661858889
505296970.0 -0.0886452239 0.1610071068 0.2701885364 -0.488211986 0.2698282519 -0.488464338 -0.0592235603 0.1664304107
510296940.0 -0.087225722 0.1623302497 0.2645522721 -0.4913035949 0.264708236 -0.4914894459 -0.0569888257 0.1674936303
515296910.0 -0.0859089758 0.1633666336 0.2590825422 -0.4943017816 0.2595834593 -0.4937733785 -0.0552755254 0.1684270362
520296880.0 -0.084281173 0.1641191205 0.2541840174 -0.4971004181 0.2542099753 -0.4967687294 -0.0537568506 0.1689776629
525296850.0 -0.0824234045 0.1647439907 0.2479899327 -0.4994082772 0.2489192268 -0.4997441898 -0.0517129292 0.1703316609
530296820.0 -0.0809248958 0.1661334846 0.243216564 -0.502192104 0.2431116613 -0.5023246623 -0.0495865217 0.1707301314
535296790.0 -0.0796256659 0.1668596196 0.2379119983 -0.5046916417 0.238040526 -0.5044497857 -0.047681925 0.1710109063
540296760.0 -0.0782301402 0.1679539014 0.2325496007 -0.5077181472 0.232356489 -0.5075818873 -0.0463516015 0.1721955942
545296730.0 -0.0763922154 0.1691152264 0.2264655916 -0.5094649216 0.2268603448 -0.5099414759 -0.0443202289 0.1725975288
550296700.0 -0.0744709099 0.1696934563 0.2210200453 -0.5118044551 0.2210118785 -0.5122872089 -0.0426020324 0.1738501866
555296670.0 -0.073090886 0.1709333153 0.2157779832 -0.5147714887 0.2157137639 -0.5147663938 -0.0404573377 0.1745330508
560296640.0 -0.071267208 0.1717771599 0.2099357313 -0.5171497903 0.2100970241 -0.5173438472 -0.0387035058 0.1751897861
565296610.0 -0.0697748498 0.1723364414 0.2042680467 -0.5189888194 0.204640127 -0.5190623329 -0.0370355057 0.175502237
570296580.0 -0.0681149244 0.1731275584 0.1987808087 -0.5217478768 0.1983211926 -0.5215013523 -0.0352802525 0.1761285537
575296550.0 -0.0665174249 0.1744962787 0.1931783663 -0.5236841535 0.192892066 -0.52353758 -0.0328300865 0.1766207395
580296520.0 -0.0645762098 0.1748440168 0.1872473208 -0.5255941577 0.1872836573 -0.5254781241 -0.0309074025 0.176934384
585296490.0 -0.0629680132 0.1752966823 0.1818374583 -0.5273190713 0.1818742062 -0.5275330402 -0.0290254225 0.1776024166
590296460.0 -0.061095913 0.1762746205 0.1761033422 -0.5288336754 0.1761506858 -0.5292213124 -0.0276908477 0.1778582759
595296430.0 -0.0594943881 0.176779913 0.1695298228 -0.5315982193 0.1702158047 -0.5313029528 -0.0253233593 0.1780333273
600296400.0 -0.057868369 0.1778732329 0.1643512269 -0.5329289409 0.1643662119 -0.5326581718 -0.0234013181 0.1783878694
605296370.0 -0.0562850888 0.1783619849 0.1584759587 -0.5350840321 0.1586492333 -0.5349511902 -0.0213815715 0.1789527992
610296340.0 -0.0544172021 0.1790167714 0.1521509091 -0.5361476267 0.152972679 -0.5360486018 -0.0192237057 0.1789514994
615296310.0 -0.0524091244 0.179148558 0.1465650868 -0.5376495658 0.1468921832 -0.5382474536 -0.0167531325 0.1796305934
620296280.0 -0.0509451278 0.1800124619 0.1414258558 -0.5393989426 0.141186248 -0.5392305617 -0.0155953607 0.180028779
625296250.0 -0.0494739245 0.1805268615 0.136209748 -0.5410811771 0.1355591259 -0.5411124936 -0.0126406974 0.1801470639
630296220.0 -0.0466807262 0.1813632168 0.1283587025 -0.5423074115 0.1291069383 -0.5421956438 -0.0111155136 0.1807212879
635296190.0 -0.0458408764 0.181732795 0.1237814585 -0.543404161 0.1234638231 -0.543477445 -0.0091406778 0.1806376292
640296160.0 -0.0440259359 0.1823845417 0.117527419 -0.5445690897 0.1181437536 -0.5447000774 -0.0068276453 0.1809986456
645296130.0 -0.0421732283 0.1834358561 0.1116441995 -0.5458785284 0.1119532811 -0.546285129 -0.0049149936 0.1810663579
650296100.0 -0.0401739691 0.1835717226 0.1056771653 -0.5469894519 0.105645957 -0.5471940843 -0.0027770488 0.1810549632
655296070.0 -0.0387510033 0.1840462192 0.0998591642 -0.5484042997 0.1001830214 -0.548252698 -0.0007854802 0.1812766661
660296040.0 -0.037322514 0.1844043407 0.0944072005 -0.5492542106 0.0941013531 -0.5495591258 0.0017683729 0.181363574
665296010.0 -0.0348976695 0.184869841 0.0876754336 -0.5502433758 0.0881121019 -0.5504033671 0.0036730758 0.1823872971
670295980.0 -0.0336372301 0.1856870828 0.08225472 -0.5509527228 0.0822837717 -0.5511469401 0.0052102571 0.182129698
675295950.0 -0.0318814194 0.1863061516 0.0766856229 -0.5518955596 0.0763113304 -0.5516356534 0.0070004454 0.1824018874
680295920.0 -0.0302064712 0.1863891443 0.0699750613 -0.5525667242 0.0699191897 -0.5535243862 0.0094536258 0.1831163464
685295890.0 -0.0281412425 0.1873650958 0.0644276512 -0.5534908041 0.0639809361 -0.553419738 0.0115895843 0.1825553407
690295860.0 -0.0259110715 0.187446288 0.0582783286 -0.5536507575 0.0581123958 -0.5541933589 0.0134117694 0.1830731569
695295830.0 -0.024073673 0.1875562709 0.0528900041 -0.5542800401 0.0521200133 -0.5542943157 0.0154776251 0.1829267141
700295800.0 -0.0225824093 0.1878185037 0.0461138587 -0.5547208971 0.0460295221 -0.5547144114 0.0174468718 0.1832422797
705295770.0 -0.0210953591 0.1889112293 0.0400960223 -0.5556921569 0.0407537236 -0.5554875532 0.0192865247 0.1830785292
710295740.0 -0.0186209649 0.1888951922 0.0344291027 -0.5564667911 0.0347768699 -0.556254752 0.0214132395 0.18275544
715295710.0 -0.0173359515 0.1889764563 0.028573661 -0.5562123965 0.0282142178 -0.5560446133 0.0236959315 0.1827070574
720295680.0 -0.0151608066 0.1895867934 0.0222737482 -0.5567346365 0.0226058044 -0.556619626 0.0255911969 0.1832721795
725295650.0 -0.0131297798 0.189912668 0.0166774363 -0.556581799 0.0164409167 -0.5568975798 0.0272419367 0.1830499142
730295620.0 -0.011039928 0.1905892692 0.0102023482 -0.5563895155 0.010469068 -0.5568187108 0.0290304195 0.1827335392
735295590.0 -0.0097704662 0.1909460291 0.004322042 -0.5572400805 0.0044049916 -0.5567565151 0.0310255106 0.182086895
740295560.0 -0.0081434101 0.1909880211 -0.0016072752 -0.5565050888 -0.0017426639 -0.5568384083 0.0335431682 0.1824467142
745295530.0 -0.0061767382 0.1911604568 -0.0078107515 -0.5561629703 -0.0082039383 -0.5568678996 0.0355498342 0.1818669885
750295500.0 -0.0037772918 0.1910138941 -0.0136290915 -0.5562251404 -0.013384129 -0.5569676191 0.0372226226 0.1818544322
755295470.0 -0.0020457071 0.1910027978 -0.0194375646 -0.5563119232 -0.0196962733 -0.5565882557 0.0395050732 0.1809034071
760295440.0 -0.0004432476 0.1917498558 -0.0255433477 -0.5566697187 -0.0257827418 -0.5563914286 0.0414509232 0.180721592
765295410.0 0.0012827998 0.1917113486 -0.0315397136 -0.5554906459 -0.0321975915 -0.555996672 0.0434740843 0.1811692484
770295380.0 0.0028699644 0.1912922542 -0.0373552628 -0.5551361202 -0.0375001591 -0.5554009751 0.0449959147 0.1800856581
775295350.0 0.0050161387 0.1916401802 -0.0440874263 -0.5546863988 -0.0433039509 -0.5549865169 0.0468206557 0.1801775223
780295320.0 0.0068029501 0.1918723077 -0.0495072236 -0.5540360222 -0.0489918917 -0.5541162777 0.0489302041 0.1790934975
785295290.0 0.0084960408 0.1914226111 -0.0554533737 -0.5531049176 -0.0555468875 -0.5537601296 0.0513205902 0.1788288077
790295260.0 0.0110864595 0.1922481219 -0.0609161806 -0.5527339015 -0.0609744828 -0.5527357609 0.0536110244 0.1784487876
795295230.0 0.012460242 0.1918374163 -0.067139496 -0.5520297643 -0.0669562622 -0.552528005 0.0553746647 0.1783647796
800295200.0 0.0143133808 0.1919210863 -0.0737703255 -0.5510713344 -0.0733044033 -0.5513769221 0.0575908075 0.1774281075
805295170.0 0.0163197289 0.1916889527 -0.0793104771 -0.5502232775 -0.0792186956 -0.5508485641 0.0596621764 0.1772983265
810295140.0 0.0179329007 0.1912426868 -0.0846323488 -0.5493714022 -0.0850562058 -0.5495976283 0.0616494083 0.1767402123
815295110.0 0.019841719 0.1913366055 -0.0907148871 -0.5481504371 -0.0906541851 -0.5486073994 0.0634277895 0.1761160022
820295080.0 0.0216496012 0.1920881413 -0.0969841937 -0.5474655763 -0.0968593053 -0.5474669733 0.0655665022 0.1753865295
825295050.0 0.0240838706 0.1916447179 -0.1023243986 -0.5463800109 -0.102678759 -0.5465344322 0.0676382627 0.1748250579
830295020.0 0.0254699664 0.1915141618 -0.1089161693 -0.5449075306 -0.1088769903 -0.545108045 0.0701194656 0.1741466951
