!Created with skrf (http://scikit-rf.org).
# Hz S RI R 50.0 
!freq ReS11 ImS11 ReS21 ImS21 ReS12 ImS12 ReS22 ImS22
300000.0 -0.320131151 -0.1083945501 0.3746932754 0.0523190267 0.3749621567 0.056419173 -0.3199623175 -0.1118709427
5299970.0 -0.3235023095 0.0047703497 0.3786210272 0.0027337637 0.3784545946 0.0030218959 -0.3261419072 0.0029798324
10299940.0 -0.3212155511 0.0155016013 0.379804821 0.0020444865 0.3798889625 0.0022145491 -0.3244726826 0.0127271129
15299910.0 -0.3181508024 0.0232168996 0.3822482391 0.0023497941 0.3820161538 0.0025923428 -0.3214287152 0.0196118616
20299880.0 -0.3144801022 0.030323573 0.3852368863 0.0014596712 0.385268777 0.0016131426 -0.3188663543 0.0259503314
25299850.0 -0.3106987919 0.0356961869 0.3883013584 -0.0003315869 0.388449254 -7.86908e-05 -0.3154082012 0.0310611113
30299820.0 -0.3067929994 0.0402922228 0.3920984365 -0.0019732135 0.3916561412 -0.0022098085 -0.3129027636 0.0355435735
35299790.0 -0.3029367797 0.0446429538 0.3951085322 -0.0052224874 0.3951278563 -0.0051205366 -0.3096722078 0.039441653
40299760.0 -0.2995732966 0.0479164875 0.3981846453 -0.0086338464 0.3986568455 -0.0089093447 -0.30723711 0.0432416415
45299730.0 -0.2966687574 0.0514436771 0.4013570189 -0.0128105616 0.4013973201 -0.0127655501 -0.3048831043 0.0459586621
50299700.0 -0.293255676 0.0537735566 0.4032844861 -0.0171158083 0.4037167947 -0.0174569601 -0.3022638156 0.0490471616
55299670.0 -0.29106793 0.0568632102 0.4057473447 -0.0219833599 0.405941606 -0.0219395269 -0.3001979755 0.0519052654
60299640.0 -0.2880591686 0.0591998118 0.407427954 -0.0271101274 0.4075610174 -0.0271462235 -0.2980654867 0.0546804726
65299610.0 -0.2861504833 0.0616497267 0.4094015944 -0.0313951815 0.4093738776 -0.0319093685 -0.2960139683 0.0573581404
70299580.0 -0.2838974908 0.0635281671 0.4106498031 -0.0367376089 0.4104764522 -0.0366846676 -0.2948547837 0.0593243598
75299550.0 -0.2818261536 0.065603512 0.4113412941 -0.0421263819 0.4116178373 -0.0423413096 -0.2930536718 0.0621316419
80299520.0 -0.2803682937 0.0681175811 0.4125876743 -0.0474519697 0.4124679894 -0.0474837717 -0.2914058219 0.0641511856
85299490.0 -0.2785698175 0.069754303 0.4129190071 -0.0524805931 0.4130740775 -0.0527488113 -0.2905956268 0.0662322573
90299460.0 -0.2769254332 0.0719216962 0.4133694388 -0.057456141 0.4137931509 -0.0578919569 -0.2886394498 0.068703335
95299430.0 -0.2756007484 0.0743768561 0.4143126801 -0.063598949 0.4140194996 -0.0629693151 -0.2876453574 0.0712431551
100299400.0 -0.2746268859 0.0765733327 0.413682679 -0.0683133577 0.4139858273 -0.0683981946 -0.2866145016 0.0732141467
105299370.0 -0.2730753904 0.0782508609 0.4133997109 -0.0732659183 0.4139156215 -0.0736456312 -0.2852757636 0.0756533389
110299340.0 -0.2718284442 0.0803195118 0.413282035 -0.0783767145 0.413307652 -0.0788612295 -0.2844446688 0.0780037175
115299310.0 -0.2706248129 0.0825638176 0.4126881714 -0.0836233897 0.4133490456 -0.0834792844 -0.2831937023 0.0801443638
120299280.0 -0.2699600825 0.084716212 0.4130169788 -0.0890472577 0.4128405568 -0.0889333085 -0.2823749303 0.0825369117
125299250.0 -0.2687377148 0.0866603882 0.4123413614 -0.0938087301 0.4122746036 -0.093853664 -0.281008357 0.0845878705
130299220.0 -0.2677600418 0.0888437681 0.4113778126 -0.098412049 0.411650016 -0.0988449134 -0.2805981303 0.0870491516
135299190.0 -0.2665508999 0.0910492367 0.4107058086 -0.1037693571 0.4108293073 -0.1040126075 -0.2799642916 0.0897222598
140299160.0 -0.2658643859 0.0937115996 0.4099217988 -0.1090394988 0.4103240123 -0.1094456711 -0.2786957983 0.0926149709
145299130.0 -0.2647764288 0.0958219883 0.4095310666 -0.1139618636 0.4092951643 -0.1138964495 -0.2779437334 0.0945044049
150299100.0 -0.2640277761 0.0980702651 0.4082349843 -0.1191476527 0.4081873769 -0.1188328262 -0.2768947506 0.0968467597
155299070.0 -0.2627576339 0.1008673743 0.4069681827 -0.1239884052 0.4071507489 -0.1239969065 -0.2763981792 0.099327337
160299040.0 -0.2618005347 0.1032367996 0.4054871555 -0.1284458886 0.4060029163 -0.1287005084 -0.2752761293 0.1022457099
165299010.0 -0.2611068407 0.1053867643 0.4048383932 -0.1337282039 0.4047003868 -0.1334927637 -0.2741782318 0.1046634343
170298980.0 -0.2602500592 0.1076608719 0.4026495798 -0.1381961207 0.4034779645 -0.1382471539 -0.2732620693 0.1071913926
175298950.0 -0.2589040409 0.1101779533 0.402172902 -0.142841562 0.4020269487 -0.1429920608 -0.2722883023 0.1096803636
180298920.0 -0.2580604142 0.1125420851 0.4004401916 -0.1480672814 0.4004034749 -0.1479266237 -0.2709721323 0.1129143944
185298890.0 -0.25676333 0.115508095 0.3983639991 -0.1527493297 0.3989942374 -0.152432671 -0.2702121207 0.1145084782
190298860.0 -0.255660204 0.1177605625 0.3973022121 -0.1573809405 0.3974854564 -0.1574123188 -0.2688416173 0.1176143671
195298830.0 -0.2545752366 0.120210686 0.3956241589 -0.161996455 0.3956544661 -0.161904214 -0.2680318129 0.1199614808
200298800.0 -0.253789036 0.1226989641 0.3942108349 -0.1660950571 0.3940264243 -0.1664182915 -0.2665999433 0.123090742
205298770.0 -0.2525328407 0.125233556 0.392398121 -0.1710523913 0.3924660892 -0.171174779 -0.2658568751 0.1253485899
210298740.0 -0.2516008818 0.1277668095 0.3905854017 -0.1759572518 0.3904970804 -0.1759903174 -0.2646326854 0.1282584119
215298710.0 -0.25050608 0.1303417795 0.3883028294 -0.1801291706 0.3882738714 -0.1801971254 -0.2638924813 0.1310114813
220298680.0 -0.2492547862 0.132868823 0.3862941686 -0.1847273856 0.3868416054 -0.1846694912 -0.2621344182 0.1337258178
225298650.0 -0.2479188097 0.1356770007 0.3843495995 -0.1891147607 0.3844926448 -0.1888897186 -0.2611329927 0.1363227676
230298620.0 -0.2467005238 0.1382635721 0.38251658 -0.1935611009 0.382648436 -0.1936999903 -0.2596975527 0.1390591628
235298590.0 -0.2455682382 0.140718547 0.3802807963 -0.1979218674 0.3802917386 -0.1981097444 -0.2583925764 0.14137814
240298560.0 -0.2442359472 0.1436199201 0.3784959948 -0.2018993922 0.3784058061 -0.2019488635 -0.2571724385 0.1444625246
245298530.0 -0.2424182603 0.1459531358 0.3756695244 -0.2068396291 0.3760497757 -0.2067032856 -0.2557133041 0.1474736626
250298500.0 -0.2416243107 0.1480275122 0.3735773969 -0.2102844791 0.3741625134 -0.2105109209 -0.2544070435 0.1497684743
255298470.0 -0.2398337027 0.1511156779 0.3713372484 -0.2152266145 0.3712996462 -0.2151382828 -0.2527949795 0.1526739125
260298440.0 -0.238676263 0.1534336218 0.3692436021 -0.218915527 0.3690266196 -0.2194632115 -0.2509106904 0.1551268011
265298410.0 -0.2370177355 0.156284938 0.3668137455 -0.2237554221 0.3665981415 -0.2232707778 -0.2498916472 0.1575343577
270298380.0 -0.2355076078 0.1586046549 0.3635892918 -0.2275260159 0.3641477332 -0.2274971864 -0.2479097874 0.1606072948
275298350.0 -0.2342195068 0.1612724038 0.3616640408 -0.231833152 0.3618170815 -0.231786969 -0.2465164966 0.162919569
280298320.0 -0.2327547402 0.1638489512 0.3593112324 -0.235343638 0.3588836851 -0.2359348179 -0.2447378772 0.1660076507
285298290.0 -0.2311132644 0.166508287 0.3568424598 -0.2399016892 0.3562933899 -0.2402496147 -0.24332291 0.1686251932
290298260.0 -0.2292488943 0.1688312719 0.3539135226 -0.2439389019 0.3540492613 -0.2436724899 -0.2414265855 0.1714383783
295298230.0 -0.227405178 0.171470654 0.3510361744 -0.2480314118 0.351207813 -0.2480311966 -0.2396658263 0.1738329722
300298200.0 -0.2257823156 0.1738328571 0.3483524372 -0.251934232 0.3488488181 -0.25205984 -0.2382264618 0.1766362641
305298170.0 -0.2238210294 0.1762191571 0.3460808963 -0.256116582 0.3457649595 -0.2559679462 -0.2358484715 0.1792185697
310298140.0 -0.2219493051 0.1782820442 0.3429722966 -0.2597398454 0.3431052325 -0.2601106449 -0.2341161001 0.1818955802
315298110.0 -0.2205954539 0.1805956353 0.3401048855 -0.2634401431 0.3401657602 -0.2637619436 -0.2321568203 0.184269028
320298080.0 -0.2189107055 0.1835923114 0.3372758611 -0.2676951744 0.3373306058 -0.267762448 -0.2303993824 0.1867432574
325298050.0 -0.2171843413 0.1853631655 0.3343371704 -0.2716870719 0.334387508 -0.2718619148 -0.2284671824 0.1895102502
330298020.0 -0.2152337748 0.1879745136 0.33020448 -0.2754643907 0.3307208847 -0.2751864113 -0.226698423 0.1916548323
335297990.0 -0.2131368033 0.1903622113 0.3275379067 -0.2789909599 0.3278125994 -0.2791146777 -0.2249487485 0.1942674023
340297960.0 -0.2120334758 0.192923162 0.3245131865 -0.2828752281 0.3248157083 -0.2827153584 -0.2230111129 0.1970323791
345297930.0 -0.2099977466 0.1950407034 0.3212675645 -0.2858175732 0.32123373 -0.2859651535 -0.2208744963 0.1993031578
350297900.0 -0.2076499956 0.1979132544 0.3177307636 -0.2896055783 0.3180699871 -0.2896756115 -0.2187672225 0.2020618181
355297870.0 -0.2056623176 0.2000338159 0.3149950027 -0.2932971581 0.3148754836 -0.2932736976 -0.2171384629 0.2046662846
360297840.0 -0.2037015082 0.2022584383 0.3116087306 -0.2966690085 0.31159843 -0.2964395204 -0.2145201596 0.2070916363
365297810.0 -0.2017765075 0.204722909 0.3080264518 -0.2999477814 0.3081345014 -0.3001835016 -0.2124396867 0.2099437984
370297780.0 -0.1993730605 0.2068148506 0.3046464015 -0.3031630269 0.3050833368 -0.303484366 -0.2104838133 0.2123358519
375297750.0 -0.1976158148 0.2093373274 0.3019809478 -0.3069746328 0.3012420842 -0.3069777467 -0.208239509 0.214864055
380297720.0 -0.1953405377 0.2113988861 0.2981578742 -0.3099147045 0.2980065681 -0.3098324786 -0.2056294299 0.2173524842
385297690.0 -0.1933721306 0.2135950654 0.2944919604 -0.3127274506 0.2945692372 -0.3133625942 -0.2039311806 0.219781982
390297660.0 -0.1909549924 0.21592051 0.2909836088 -0.3167664826 0.2911044954 -0.3169437708 -0.2014684721 0.2218643413
395297630.0 -0.1886533113 0.2181634716 0.2876820929 -0.3195732971 0.2875304448 -0.3199438535 -0.1992959137 0.224613096
400297600.0 -0.1864904204 0.2200646129 0.2839873601 -0.322695308 0.2843394884 -0.3228786727 -0.1971827053 0.2266796182
405297570.0 -0.1842565553 0.2225067492 0.2803226699 -0.325848748 0.2802939507 -0.3259880706 -0.1947066227 0.2289641971
410297540.0 -0.1816381894 0.2244520679 0.2764038169 -0.3287357693 0.2768123668 -0.3288427408 -0.1923370311 0.231496568
415297510.0 -0.1797624314 0.2266327141 0.2733804597 -0.3320469814 0.2732921675 -0.3317091741 -0.1901842863 0.2336744964
420297480.0 -0.1768308083 0.2286000144 0.2692507694 -0.3352272802 0.269421745 -0.3348682552 -0.1875875532 0.2357411385
425297450.0 -0.1744840613 0.23055722 0.2654258219 -0.3380098831 0.2659306236 -0.3377675199 -0.1850302863 0.2382308211
430297420.0 -0.1724257436 0.232668153 0.2620001285 -0.3410558864 0.2623091992 -0.3407891588 -0.183036522 0.2401953256
435297390.0 -0.1696859561 0.2345235738 0.258256678 -0.3433332872 0.2583097179 -0.3434746816 -0.1801922831 0.2425499309
440297360.0 -0.1673084004 0.2366904068 0.2542334686 -0.3462298179 0.2540642861 -0.3461674878 -0.1776519045 0.2443560641
445297330.0 -0.1649176036 0.2384812721 0.2503048239 -0.3491994179 0.2501717946 -0.3490543946 -0.1751235264 0.2467793865
450297300.0 -0.16232796 0.2400441781 0.2464699862 -0.3515871139 0.2467231484 -0.3518569895 -0.1729184977 0.2489318544
455297270.0 -0.1601453107 0.2421666407 0.2431701532 -0.3543604223 0.2432091245 -0.3541689088 -0.1700140931 0.2505588642
460297240.0 -0.1576259481 0.2440725559 0.2388008464 -0.3566722729 0.2387008284 -0.3573145779 -0.1673859913 0.2531510012
465297210.0 -0.154650631 0.2459384845 0.2349304152 -0.3593882021 0.2349905963 -0.3595988791 -0.1650345624 0.254831576
470297180.0 -0.1522566677 0.2475203195 0.2309314012 -0.3618512286 0.231301383 -0.3620253319 -0.1627988724 0.2568996424
475297150.0 -0.1495757568 0.2494559455 0.2264946961 -0.3642477773 0.2271889636 -0.3640268066 -0.1594964253 0.2586158637
480297120.0 -0.1470144254 0.2508155417 0.2226953368 -0.3667723609 0.2232994423 -0.3666660038 -0.157184848 0.2610201482
485297090.0 -0.143932688 0.2526885634 0.2190436735 -0.3695205016 0.2190719329 -0.3689637709 -0.1544526765 0.2624965119
490297060.0 -0.1416462289 0.2542939098 0.2144994335 -0.371486174 0.2148820468 -0.3715610668 -0.1517437243 0.264198247
495297030.0 -0.1391612385 0.2562865557 0.2104803659 -0.3737819329 0.2108764033 -0.3738271749 -0.1491222115 0.2655939414
500297000.0 -0.1362779427 0.2575517527 0.2064152401 -0.376336238 0.2066335154 -0.3760495989 -0.1464574536 0.2678044956
505296970.0 -0.1336939211 0.259104273 0.2022601148 -0.377741686 0.2027554473 -0.3780765552 -0.1441427789 0.2693492744
510296940.0 -0.1307855653 0.2606676362 0.1979768652 -0.3806732476 0.1982655551 -0.3805252777 -0.1405305716 0.2716270955
515296910.0 -0.1282747657 0.2623273588 0.1937807122 -0.3822872508 0.1942941745 -0.3827286739 -0.1385468764 0.2730813483
520296880.0 -0.1253592013 0.2639653299 0.1898964171 -0.3845813888 0.1898687912 -0.3843157492 -0.1350787037 0.2744805186
525296850.0 -0.1227257036 0.2650573349 0.1857058201 -0.3863856376 0.1856053292 -0.3867316508 -0.1320177078 0.2760025331
530296820.0 -0.1197738687 0.2666620198 0.1815276891 -0.3881260795 0.1813564899 -0.3884457703 -0.1296759552 0.2774946068
535296790.0 -0.1169904209 0.2680750652 0.1771679864 -0.3901461035 0.177172804 -0.3900436938 -0.127051177 0.2790488433
540296760.0 -0.1142216941 0.2692521589 0.1729841472 -0.3925719725 0.1727355764 -0.392420138 -0.1241367648 0.2810272377
545296730.0 -0.111404262 0.2708333335 0.1685079857 -0.3939893891 0.1686160476 -0.3942345329 -0.121087056 0.2821489718
550296700.0 -0.1087188003 0.2722486182 0.1642224131 -0.3959362159 0.1646946068 -0.3960245904 -0.118531045 0.2837242637
555296670.0 -0.1054733373 0.2733885782 0.160022185 -0.397424623 0.1603777589 -0.3973376578 -0.1157656966 0.285035259
560296640.0 -0.1027188683 0.2746274865 0.1556521389 -0.399642337 0.1558621453 -0.3989805861 -0.1123816034 0.2866934009
565296610.0 -0.100247052 0.275913696 0.1514872323 -0.4007202788 0.1512142389 -0.4010144389 -0.1097810732 0.2876890962
570296580.0 -0.0970010664 0.2770735527 0.146910469 -0.4022388899 0.1473483328 -0.4029073972 -0.1066422805 0.2894720852
575296550.0 -0.0940465693 0.2785036101 0.1424933626 -0.4037844212 0.1430011314 -0.4040004531 -0.1033830047 0.290768947
580296520.0 -0.0910385533 0.2795015707 0.1381519734 -0.4055870604 0.1383753399 -0.4054079936 -0.1009030153 0.2917052426
585296490.0 -0.0881603815 0.2803081816 0.1338160977 -0.4069218824 0.1337995823 -0.4069264095 -0.0976585046 0.2923799593
590296460.0 -0.0855632783 0.281244279 0.1292618833 -0.4080633147 0.1294477271 -0.4082600526 -0.0945120331 0.2940049631
595296430.0 -0.0819651642 0.2826651496 0.1246593647 -0.4094770073 0.1247270544 -0.4096734114 -0.0915597933 0.2948585637
600296400.0 -0.079340438 0.2834989077 0.120431424 -0.4108957768 0.1209460976 -0.4111628985 -0.0887320552 0.2963754332
605296370.0 -0.0763003902 0.2847711089 0.1161112623 -0.412553538 0.1161916641 -0.4119132537 -0.085532785 0.2973551807
610296340.0 -0.0733626494 0.2854711497 0.1117239526 -0.4131752985 0.1118298455 -0.4137570648 -0.0825386974 0.2984928577
615296310.0 -0.0701587606 0.2869035793 0.1068938223 -0.4146446191 0.106875701 -0.4145649854 -0.0795012086 0.2993435725
620296280.0 -0.0672304937 0.2871567007 0.1025574883 -0.415562286 0.1025126132 -0.4158174378 -0.0765257545 0.2999929583
625296250.0 -0.0639684976 0.2882333553 0.0974032973 -0.41676644 0.0980802742 -0.4165536597 -0.0732951072 0.3011065636
630296220.0 -0.0611396381 0.2892487055 0.0935038817 -0.4178207801 0.0938440798 -0.4175964696 -0.0701932888 0.3022091823
635296190.0 -0.0579166873 0.2898024969 0.0888230909 -0.4183754317 0.0887395374 -0.4181503497 -0.0671101911 0.3027724684
640296160.0 -0.0549646122 0.2902884604 0.0843846786 -0.4192932109 0.0843675284 -0.419358319 -0.0635383765 0.3035401228
645296130.0 -0.052212869 0.2912526245 0.0796045735 -0.4203447462 0.0801382666 -0.4205117588 -0.0611591295 0.3042238353
650296100.0 -0.0489490465 0.2923619274 0.0756211676 -0.4209820715 0.0755326322 -0.4210758227 -0.0576501221 0.3052690697
655296070.0 -0.0458182061 0.2927228889 0.0705539541 -0.4218926675 0.0707414917 -0.4218713529 -0.0543902347 0.3060356702
660296040.0 -0.0430611837 0.2937346911 0.0664168825 -0.4222853172 0.0663953155 -0.4221937401 -0.0514009485 0.3063840231
665296010.0 -0.0396956911 0.2939440631 0.0616498243 -0.4229295283 0.0621296465 -0.4231410734 -0.0487933004 0.3077516878
670295980.0 -0.0364277062 0.2945771159 0.0569165888 -0.4236053161 0.0573980389 -0.4237439797 -0.0458574505 0.3079475073
675295950.0 -0.0333672456 0.2945852973 0.0522721 -0.4243012272 0.0527285012 -0.4246135089 -0.0420182896 0.3087515574
680295920.0 -0.0303092975 0.2957848773 0.0477778259 -0.4249005197 0.0478370589 -0.4248793389 -0.0386894307 0.3091731473
685295890.0 -0.0271653014 0.2959161738 0.0432807156 -0.4248955618 0.0430323242 -0.4256948781 -0.0356801898 0.3099484274
690295860.0 -0.0238810389 0.2963005164 0.0385449073 -0.4253441297 0.038259443 -0.4259440342 -0.0319799786 0.3102756823
695295830.0 -0.0205828554 0.2966134376 0.0334103512 -0.4261630794 0.0337100739 -0.4260911773 -0.028871691 0.3108426024
700295800.0 -0.0173946526 0.297029149 0.0289380316 -0.426121458 0.0293697647 -0.4264337619 -0.0254992054 0.3108369305
705295770.0 -0.0141840181 0.2976781344 0.0243876191 -0.42658849 0.0250579191 -0.4266879933 -0.0229040498 0.3117163214
710295740.0 -0.011547018 0.298091859 0.0199383959 -0.4265753889 0.0203400504 -0.4268216633 -0.0202130453 0.3124175293
715295710.0 -0.0083620545 0.2981551615 0.0152568095 -0.4268894244 0.0155759243 -0.4269593729 -0.0164970275 0.3120685675
720295680.0 -0.0052188726 0.2982965093 0.0109948876 -0.4271183516 0.0108981603 -0.4275117385 -0.0127135565 0.3129539815
725295650.0 -0.0013844745 0.2986202227 0.0059921137 -0.4271199857 0.0063596459 -0.4273748665 -0.0096592858 0.3129383268
730295620.0 0.0011803696 0.2987526096 0.0014288494 -0.4270402529 0.0015524739 -0.4270158938 -0.0063716751 0.3128701117
735295590.0 0.0045590028 0.2986021519 -0.0029065153 -0.4268478254 -0.002820603 -0.4270815078 -0.0029936583 0.3133140568
740295560.0 0.0076801664 0.2993310609 -0.0077670997 -0.4268326591 -0.0078773823 -0.4269930879 0.000269407 0.3134331622
745295530.0 0.0107726003 0.2985601968 -0.0123771218 -0.4266895635 -0.0119038558 -0.427062831 0.0031251351 0.3137007559
750295500.0 0.0138253405 0.2989991392 -0.0168722573 -0.4265513661 -0.0168247171 -0.4265469638 0.0064989678 0.3134077992
755295470.0 0.0176387011 0.2991773904 -0.0217077631 -0.426383182 -0.0213298707 -0.4267842202 0.0096932916 0.3139421974
760295440.0 0.0203563626 0.2988658772 -0.0263626397 -0.4259178262 -0.0262769862 -0.4261791409 0.0130107731 0.3140506506
765295410.0 0.0234341419 0.2989212611 -0.0305234178 -0.4255677607 -0.0304810242 -0.4258463037 0.0166416848 0.3138582388
770295380.0 0.026703923 0.29896693 -0.0351180788 -0.4249523763 -0.0351918416 -0.425609988 0.0198550431 0.3137604312
775295350.0 0.0298764682 0.2987431744 -0.0399228292 -0.4248042463 -0.0396435349 -0.424986346 0.0225785035 0.3135138661
780295320.0 0.0330742306 0.2982081722 -0.0444318947 -0.4245007254 -0.0443298014 -0.4243135109 0.0261347269 0.3138502929
785295290.0 0.0362544671 0.2984402315 -0.0491256755 -0.423476911 -0.0488042058 -0.4240704142 0.0290276132 0.313739528
790295260.0 0.0393609461 0.2980687061 -0.0535809638 -0.4232572377 -0.0535794639 -0.4235006959 0.0327499262 0.3136239187
795295230.0 0.0426376087 0.2980597813 -0.0576895891 -0.4223744524 -0.0577206964 -0.4225298319 0.0359253209 0.3136636747
800295200.0 0.0456598037 0.2976127902 -0.0631683469 -0.4220476078 -0.0632036205 -0.4220298773 0.039267288 0.31312665
805295170.0 0.0486761067 0.297369065 -0.0671399601 -0.4208508724 -0.0671096945 -0.4210483768 0.0421515626 0.3126646691
810295140.0 0.0518872455 0.2970238181 -0.0716061456 -0.4205981656 -0.0715094568 -0.4206031093 0.0457541658 0.3128792278
815295110.0 0.0550255184 0.2962205933 -0.0766385382 -0.4191073313 -0.0762863037 -0.41973814 0.0487974129 0.3123883206
820295080.0 0.0584722467 0.2958267951 -0.0807557165 -0.418750792 -0.0808637748 -0.4187583048 0.0518139436 0.3119477813
825295050.0 0.061514976 0.2953645717 -0.0856285362 -0.4172340855 -0.0853384368 -0.4174953742 0.0553809039 0.311407879
830295020.0 0.0645321664 0.2951765723 -0.0899151749 -0.4166437191 -0.0901549257 -0.4167030139 0.0583336722 0.3109299343
