!Created with skrf (http://scikit-rf.org).
# Hz S RI R 50.0 
!freq ReS11 ImS11 ReS21 ImS21 ReS12 ImS12 ReS22 ImS22
300000.0 -0.2352378365 -0.127709229 0.4675810382 0.0832180386 0.4681063238 0.0821637997 -0.2353605058 -0.1272688167
5299970.0 -0.2418052014 0.0051292809 0.4750201749 0.0059639121 0.4751770594 0.0058548308 -0.2440646245 0.004856976
10299940.0 -0.2386306855 0.0189231007 0.4771180977 0.0068882538 0.4769628988 0.0069105218 -0.2408607828 0.0174310134
15299910.0 -0.2339135487 0.0286108447 0.4808314412 0.0081843819 0.4811002088 0.0082573236 -0.2370558206 0.0262745598
20299880.0 -0.2283942374 0.036817525 0.4852241528 0.0081399369 0.4855939502 0.0083808132 -0.2318726198 0.0338229162
25299850.0 -0.2223398763 0.0436549699 0.4907114628 0.0076027211 0.4909357548 0.0072232097 -0.2270850497 0.0400859936
30299820.0 -0.2170623971 0.0487916076 0.4959931229 0.005069726 0.496015025 0.0050414687 -0.2218711057 0.0449362266
35299790.0 -0.211375493 0.0528053784 0.5011230279 0.0018306 0.5014951092 0.001859061 -0.217058419 0.0491269788
40299760.0 -0.2061971479 0.0559727521 0.5064441085 -0.0022258888 0.5064846504 -0.0022535793 -0.2119401393 0.0523404175
45299730.0 -0.2008480536 0.0588450117 0.5112129192 -0.0068031103 0.5114083938 -0.0068587437 -0.2071062989 0.0544502408
50299700.0 -0.1961010212 0.0608115423 0.5153707381 -0.0124647041 0.5155687168 -0.0124535251 -0.2029045933 0.0569411597
55299670.0 -0.1918644225 0.0625641774 0.5189291461 -0.017870569 0.5185773214 -0.0184399379 -0.1990492958 0.0587257299
60299640.0 -0.1878513184 0.0642019845 0.5224266792 -0.0248184551 0.5224154625 -0.0246601643 -0.1953395318 0.0598313447
65299610.0 -0.1843340358 0.0652947034 0.5256689957 -0.0307412446 0.5256209222 -0.0314244271 -0.1919848575 0.0609762884
70299580.0 -0.1808863352 0.0656980654 0.5278178837 -0.0372158395 0.5280739794 -0.0374093976 -0.1892335089 0.0619210956
75299550.0 -0.1779632087 0.0668037915 0.5296363529 -0.0448613006 0.5296126829 -0.0443728363 -0.1864384844 0.0626355551
80299520.0 -0.1750822775 0.0679758536 0.5313813618 -0.0514274444 0.5316267346 -0.0513037777 -0.1838668868 0.0636538124
85299490.0 -0.1722660925 0.0684544926 0.5329568251 -0.058345741 0.5328322117 -0.0582184605 -0.1817741139 0.0638795033
90299460.0 -0.1701615235 0.068918087 0.5331532406 -0.0650347091 0.5335902649 -0.0650048576 -0.1794225485 0.0649945321
95299430.0 -0.1678238248 0.0697136662 0.5343824833 -0.0720371831 0.5348365345 -0.0723244454 -0.1778247474 0.0656376146
100299400.0 -0.1658224019 0.0702625149 0.5352017736 -0.0787611746 0.5350780241 -0.079186623 -0.1758938419 0.0665079126
105299370.0 -0.1642167046 0.0710055523 0.5349122887 -0.0853769809 0.5356262475 -0.0856415457 -0.1740017897 0.0664304457
110299340.0 -0.1622209509 0.0715177872 0.5353930398 -0.0923329891 0.5355660576 -0.0923473272 -0.1729755592 0.0673731816
115299310.0 -0.1610382545 0.0725247647 0.5354169669 -0.0992493498 0.5353233626 -0.0995303004 -0.171339667 0.0682979126
120299280.0 -0.1592745371 0.0732145566 0.5352377739 -0.1063960974 0.5348637103 -0.1066351162 -0.1703875726 0.0685505122
125299250.0 -0.1577131171 0.0739966202 0.5349401838 -0.1128477012 0.5346259695 -0.1129183114 -0.1688970745 0.0694750838
130299220.0 -0.1566812746 0.0747151478 0.5343837427 -0.1195477523 0.5340193735 -0.120307415 -0.1675476219 0.070421773
135299190.0 -0.1554348811 0.0756977254 0.5338453332 -0.1261138475 0.5338841603 -0.1262518851 -0.1668143149 0.0709634794
140299160.0 -0.154051305 0.0767098845 0.5327286465 -0.1331656215 0.5326856977 -0.1325991835 -0.166173715 0.0718108894
145299130.0 -0.1533819415 0.0779302574 0.531834176 -0.139536338 0.5320023539 -0.1394305544 -0.1650397606 0.0729398908
150299100.0 -0.1523088728 0.0789564502 0.5310121398 -0.1461222955 0.5306043361 -0.1461337464 -0.1643888081 0.0737285988
155299070.0 -0.150735203 0.0801198949 0.5285291234 -0.1526498279 0.5297457088 -0.1526306737 -0.1630756259 0.0746597285
160299040.0 -0.149993671 0.0814744632 0.5284127266 -0.1591607665 0.5279806885 -0.1589987447 -0.1625876375 0.075821865
165299010.0 -0.1487068443 0.0821441082 0.5268365641 -0.1652851603 0.5267339439 -0.1653199747 -0.1615762545 0.0766233777
170298980.0 -0.1479779827 0.0836633726 0.5246554981 -0.1717664928 0.5252650635 -0.1718858769 -0.1611704628 0.077665611
175298950.0 -0.1469081534 0.0848220178 0.5238163196 -0.1779221089 0.5239342138 -0.1783737136 -0.1604224913 0.0789840124
180298920.0 -0.1459771238 0.0860362628 0.5218237018 -0.1845732696 0.5215566502 -0.1844742537 -0.1594967726 0.0798445909
185298890.0 -0.1451076292 0.0870525988 0.5202764303 -0.190370092 0.5196698441 -0.1905097099 -0.1584394065 0.0811524825
190298860.0 -0.1438597621 0.0888834168 0.5176089166 -0.1967310825 0.5182365566 -0.1966163531 -0.1580630253 0.0822571643
195298830.0 -0.1430347575 0.0901160232 0.5163512319 -0.2026347025 0.5161451977 -0.2031319013 -0.1573546226 0.0835898134
200298800.0 -0.1419183019 0.0910456029 0.5141786287 -0.2094570427 0.5138946467 -0.2092191448 -0.1566079966 0.084379932
205298770.0 -0.1416922437 0.0924579832 0.5117437333 -0.2150693041 0.5118113684 -0.2146040604 -0.1555019486 0.0855097081
210298740.0 -0.1402767616 0.093833504 0.5093438114 -0.2209657894 0.5093355266 -0.2209805036 -0.1552511121 0.087031997
215298710.0 -0.1390813472 0.0954582076 0.5068492758 -0.2264871067 0.5070061726 -0.2272738861 -0.1540625446 0.0882569893
220298680.0 -0.1382509842 0.0968051288 0.5043363294 -0.232885176 0.5045746082 -0.2329564431 -0.153485945 0.0894717619
225298650.0 -0.1373434136 0.0980981835 0.501720106 -0.2383502914 0.5021477077 -0.2380825025 -0.1527490272 0.0904086507
230298620.0 -0.1360853226 0.1000762328 0.4997084399 -0.2446803497 0.4999598658 -0.2444410968 -0.1524802161 0.0919149011
235298590.0 -0.1356348221 0.1013386993 0.4973312895 -0.2505125665 0.4971539268 -0.2503017084 -0.1509444914 0.0932975774
240298560.0 -0.1339646496 0.1028809593 0.4942420822 -0.2555085619 0.4946464944 -0.2558193224 -0.1506624889 0.0942654727
245298530.0 -0.1333986407 0.1038913684 0.4914540832 -0.2614843515 0.4914117009 -0.2616230677 -0.1496458679 0.0957015225
250298500.0 -0.1321079676 0.105460888 0.4885956343 -0.2669120218 0.488969285 -0.267073398 -0.1488321213 0.0971476698
255298470.0 -0.1310622359 0.1071432087 0.4862632752 -0.2724676387 0.4864155466 -0.272983834 -0.1479197445 0.0984380634
260298440.0 -0.1303456299 0.1084658511 0.4831551256 -0.2776194477 0.4834204876 -0.2779875337 -0.1475895577 0.0997207652
265298410.0 -0.1292994049 0.1101982028 0.4798739545 -0.2841517589 0.4799778758 -0.2842114067 -0.1459885126 0.1008663029
270298380.0 -0.1282654622 0.1112415618 0.4767086853 -0.2888815754 0.4768009315 -0.2890928219 -0.1449870519 0.102619938
275298350.0 -0.1268746132 0.1131951844 0.4733239983 -0.2941628073 0.4737236261 -0.2944028741 -0.1443717046 0.1040951952
280298320.0 -0.12607651 0.1143157088 0.4707998451 -0.2996600371 0.4709385564 -0.2999601186 -0.1434172081 0.105150211
285298290.0 -0.124949821 0.1158541931 0.4678178738 -0.3051556189 0.4674376499 -0.3049740473 -0.142692343 0.1068330992
290298260.0 -0.1238452308 0.1175404143 0.4647472952 -0.3103086215 0.4644426601 -0.3105088525 -0.1416337943 0.1081380881
295298230.0 -0.1223742602 0.1183799921 0.4607323068 -0.3160116247 0.4608226507 -0.3160956686 -0.1405864867 0.1092654999
300298200.0 -0.1211805743 0.120224162 0.4576956687 -0.3209620116 0.4575099753 -0.3209197928 -0.1400037241 0.1103655778
305298170.0 -0.1201799023 0.1211874604 0.4542252653 -0.3263307651 0.4542570208 -0.3262896976 -0.1385701544 0.111551291
310298140.0 -0.1187179586 0.1224969149 0.450665152 -0.3310675819 0.450822254 -0.331002047 -0.137535265 0.112730259
315298110.0 -0.1177086223 0.1237061608 0.4472873906 -0.3370213664 0.4469872209 -0.3368061498 -0.1366409494 0.1144368487
320298080.0 -0.1165510176 0.125084369 0.4428798228 -0.3421666548 0.4435169764 -0.3417531726 -0.1357069363 0.1151979211
325298050.0 -0.115604745 0.1260521731 0.439173374 -0.3467008736 0.4395443414 -0.3472031504 -0.1344688916 0.1164598876
330298020.0 -0.1148710572 0.1275357254 0.4350691324 -0.3521813936 0.4357179895 -0.3520266962 -0.1342755159 0.117898061
335297990.0 -0.113446889 0.1288667655 0.4313012084 -0.3565673932 0.4313739144 -0.3568387361 -0.1331166751 0.1190089385
340297960.0 -0.1121427026 0.1305014401 0.4267945726 -0.3616896338 0.4271698708 -0.3616653367 -0.1321958362 0.1206501155
345297930.0 -0.1111691029 0.1314177516 0.4230721673 -0.3661058331 0.4229608024 -0.3663106309 -0.1308323884 0.1219789154
350297900.0 -0.1102003035 0.1329929029 0.4194013145 -0.3705810961 0.419577048 -0.3705534821 -0.1301627227 0.1228802881
355297870.0 -0.1088079547 0.134240233 0.4153758803 -0.374781051 0.4150658827 -0.3747508117 -0.1286357095 0.1246296407
360297840.0 -0.1074716042 0.135677128 0.4105283405 -0.3796379027 0.4111651833 -0.3799499979 -0.1282886131 0.126038932
365297810.0 -0.1061105861 0.1371938257 0.4065489339 -0.3840846328 0.4064764486 -0.3845683396 -0.1269252943 0.1272399161
370297780.0 -0.1046160426 0.1385237346 0.4020842818 -0.3892294792 0.4026923879 -0.3888695241 -0.125688056 0.1285664417
375297750.0 -0.1032540659 0.1398265346 0.3978762488 -0.3932559173 0.3981471866 -0.3933382841 -0.1245365115 0.1298942831
380297720.0 -0.1022714808 0.1411957649 0.3940860746 -0.3978703895 0.3939754481 -0.3975456097 -0.1234747795 0.1313898909
385297690.0 -0.1008625494 0.1422089925 0.389081036 -0.4017594036 0.3895957198 -0.4023043683 -0.1221333609 0.1328976254
390297660.0 -0.0990149316 0.1434309613 0.3847091781 -0.4059476634 0.3850275298 -0.4057237934 -0.1206083174 0.1336962456
395297630.0 -0.0974902552 0.1444325292 0.3807712916 -0.4097222779 0.380575245 -0.4100430621 -0.1194965574 0.1351490343
400297600.0 -0.096243807 0.1456826258 0.3759273681 -0.4144280119 0.3764193396 -0.4143205764 -0.1179533917 0.1368594656
405297570.0 -0.0945463829 0.146538245 0.3714611817 -0.4181466933 0.3715905148 -0.4183224812 -0.1167685564 0.1381567409
410297540.0 -0.0932404282 0.1484119039 0.3668520504 -0.4228704131 0.3671147295 -0.4224516622 -0.1156203353 0.1391132043
415297510.0 -0.0917741813 0.1492859659 0.362305755 -0.4267001165 0.3623575424 -0.4265669685 -0.1140450431 0.1405327744
420297480.0 -0.0902731845 0.1503673995 0.3575474264 -0.4308960671 0.3578829069 -0.4303255902 -0.1126732951 0.1420618861
425297450.0 -0.0882098386 0.151406592 0.3531715879 -0.4341366509 0.3529211074 -0.434113505 -0.1116260704 0.1425773612
430297420.0 -0.086916176 0.152189098 0.3484596936 -0.438628085 0.3485266439 -0.4379776386 -0.1100187317 0.1442089131
435297390.0 -0.0852562851 0.1533724642 0.3434069403 -0.4425158251 0.3431068308 -0.4418469859 -0.1088482289 0.1456448105
440297360.0 -0.0833491532 0.1541017598 0.3381733889 -0.4457277113 0.3384321825 -0.4459535931 -0.1074192734 0.1467324754
445297330.0 -0.0816497552 0.1550716294 0.3337095012 -0.4491169913 0.3335316848 -0.4496497646 -0.1058652934 0.1482813803
450297300.0 -0.0798789386 0.156402904 0.3285396516 -0.4529421494 0.3290132969 -0.4529324961 -0.1042542649 0.149297925
455297270.0 -0.078572192 0.1572932201 0.323755229 -0.456259824 0.3240663734 -0.4566962397 -0.1028624711 0.1503593034
460297240.0 -0.076393572 0.1584765757 0.318852211 -0.4606064928 0.3186060355 -0.4604229287 -0.1015715774 0.1515254247
465297210.0 -0.0751170182 0.1594716477 0.3136268388 -0.4640432537 0.3133235964 -0.4639787226 -0.099701709 0.1531541856
470297180.0 -0.0728113932 0.1601400559 0.3082317521 -0.4665094048 0.3087774822 -0.4665542047 -0.098254555 0.153371543
475297150.0 -0.0718013987 0.1611746413 0.3034342476 -0.4701516941 0.3038867167 -0.4703142364 -0.0970963512 0.1548809565
480297120.0 -0.0693093101 0.1622834373 0.2984217975 -0.4735116807 0.2985904571 -0.4732955688 -0.0956169529 0.1557339164
485297090.0 -0.0676925768 0.1626119356 0.2929358932 -0.4769780975 0.2932166398 -0.4767283668 -0.0941956732 0.1569696318
490297060.0 -0.0654024068 0.1637561265 0.2874096424 -0.4801688273 0.2878380056 -0.4800457485 -0.0924712501 0.1579725541
495297030.0 -0.0640355674 0.1642934105 0.283058593 -0.4828403784 0.2823959822 -0.4832383475 -0.090165581 0.1590394754
500297000.0 -0.0622586668 0.1654098939 0.277667932 -0.4859632338 0.2773018567 -0.4859809594 -0.0888378315 0.1601851002
505296970.0 -0.0598341247 0.1663419016 0.2724081121 -0.4891900379 0.2721849085 -0.4885698291 -0.0875458511 0.1607434613
510296940.0 -0.0579809663 0.1669503633 0.2672089948 -0.4927593368 0.2669391751 -0.4924603266 -0.0855399979 0.1622670704
515296910.0 -0.056251991 0.1681024036 0.261027819 -0.4949826876 0.2611979398 -0.4947341313 -0.0844911501 0.1625277318
520296880.0 -0.0542009776 0.1686996594 0.2562004261 -0.497829209 0.2556952805 -0.497473257 -0.0822405752 0.1642550145
525296850.0 -0.0524363415 0.169159439 0.2502078585 -0.5003235174 0.2501139089 -0.5004379382 -0.0806880039 0.1648396079
530296820.0 -0.0505457372 0.1699863898 0.2451413131 -0.5031301579 0.2450140048 -0.5029759213 -0.0789972741 0.1655304809
535296790.0 -0.0478906216 0.1707455044 0.2395553036 -0.5052057836 0.2394687705 -0.5056969823 -0.0771535716 0.1667866838
540296760.0 -0.0461838169 0.171815794 0.2335055843 -0.5081231451 0.2336182128 -0.5078603933 -0.0761163828 0.1670558605
545296730.0 -0.0447481817 0.1725235004 0.2284243275 -0.5105769214 0.2284162402 -0.5103253268 -0.0740447414 0.1681996927
550296700.0 -0.0421567515 0.1729707865 0.2230023173 -0.5129367866 0.2226887635 -0.5131285683 -0.0726644714 0.1690667556
555296670.0 -0.0405061463 0.1733937513 0.2171572565 -0.5156493808 0.2170235624 -0.5152293654 -0.0708867503 0.1692800716
560296640.0 -0.0378603812 0.17393852 0.2115927625 -0.5174138069 0.2116476744 -0.5178250691 -0.069196474 0.1708891584
565296610.0 -0.0365872491 0.1745708571 0.206293055 -0.5201841673 0.2059275987 -0.5199072375 -0.067284567 0.1716459503
570296580.0 -0.0345502871 0.1752770301 0.2000054874 -0.5219246633 0.2003396379 -0.5221990412 -0.0659442651 0.1720580074
575296550.0 -0.0323004553 0.1757965319 0.1948527646 -0.5243215715 0.1945861788 -0.5243824386 -0.064034387 0.1729597745
580296520.0 -0.030078524 0.1764810407 0.1889440347 -0.5264243565 0.1884570459 -0.5263796106 -0.0624736452 0.1736350071
585296490.0 -0.0281751464 0.1770870787 0.1834628186 -0.5279475326 0.1829482876 -0.5281437642 -0.0602704132 0.1746338357
590296460.0 -0.0254120679 0.1775186423 0.1776652348 -0.5302642855 0.1775170424 -0.530604198 -0.0591353023 0.1755277614
595296430.0 -0.023813567 0.1782806511 0.1713253269 -0.5321634001 0.1711306126 -0.5320774999 -0.0572533154 0.1758265256
600296400.0 -0.0216562625 0.1785880818 0.1656942106 -0.5334013456 0.1655349594 -0.5336781776 -0.0550783703 0.1763520286
605296370.0 -0.019911356 0.1790306572 0.1603231538 -0.5355576354 0.1598007839 -0.5356320799 -0.0536299345 0.1772358686
610296340.0 -0.0174025767 0.1796318708 0.1542660721 -0.5367408889 0.1544718655 -0.5372530061 -0.052294964 0.1782181877
615296310.0 -0.0150958745 0.1799689649 0.148137901 -0.5395460552 0.1477599986 -0.5389914432 -0.0498873817 0.1787320969
620296280.0 -0.0135601403 0.1808221387 0.1425745039 -0.5406082668 0.1422284298 -0.5405494023 -0.0484681465 0.1794104031
625296250.0 -0.0116145033 0.1809664743 0.1364295534 -0.5419004394 0.1366730452 -0.5419147817 -0.0466928943 0.1798873267
630296220.0 -0.0092703696 0.1811591051 0.1303651444 -0.5434970796 0.1305345961 -0.5431136257 -0.0447852924 0.1804486762
635296190.0 -0.0076604806 0.1819142572 0.1251543781 -0.5445968509 0.1247025182 -0.5445602725 -0.0432011822 0.1810947251
640296160.0 -0.0053211384 0.1818421228 0.119035404 -0.5459310303 0.1187893263 -0.5459975106 -0.0416753211 0.1813321812
645296130.0 -0.0028558768 0.1826369319 0.1127088944 -0.5473258252 0.1130081554 -0.5468327624 -0.0400164212 0.1818280924
650296100.0 -0.0009765676 0.1824363078 0.1072966704 -0.5485652254 0.1067160431 -0.5484810783 -0.0374952827 0.182525886
655296070.0 0.0008557788 0.1829868829 0.1012194967 -0.5496028022 0.1010180497 -0.5493975593 -0.036113174 0.1831501979
660296040.0 0.0029733315 0.183036738 0.0951346318 -0.5506183941 0.0951637601 -0.5507515777 -0.0341176659 0.1833032609
665296010.0 0.0051245709 0.1835522482 0.0887424503 -0.5510613785 0.0892238567 -0.5509327622 -0.0323576808 0.1839347248
670295980.0 0.0071233347 0.1836947705 0.0831136033 -0.5520582403 0.083189104 -0.5521809286 -0.0309586949 0.1841934379
675295950.0 0.009071258 0.1838003723 0.0774907775 -0.552986108 0.0772648853 -0.5530605548 -0.0290973849 0.1849218251
680295920.0 0.0109744031 0.1839631365 0.0714287702 -0.5534443306 0.0712351575 -0.5537415645 -0.0268142527 0.1852051493
685295890.0 0.0133898423 0.1843528888 0.065273021 -0.5547912072 0.0655358419 -0.5549306864 -0.0255304879 0.1856838547
690295860.0 0.0150640463 0.1845073545 0.059032786 -0.5553231317 0.0592755691 -0.5551177227 -0.0234527532 0.1860962323
695295830.0 0.0171207958 0.1843677783 0.0536547057 -0.556070159 0.0534286427 -0.5556729899 -0.0216675358 0.1867850923
700295800.0 0.0192205373 0.1846813863 0.0478161308 -0.5563559925 0.0472599822 -0.556359821 -0.0198142604 0.1868744873
705295770.0 0.0210379523 0.1847638536 0.041602958 -0.5569134586 0.0413413672 -0.5566562609 -0.01800209 0.187456383
710295740.0 0.0230360289 0.1846668796 0.035626038 -0.55730831 0.0353110725 -0.5573306151 -0.0159504501 0.1878348531
715295710.0 0.0252669545 0.1848784015 0.0298751834 -0.5575721606 0.029384284 -0.5573707207 -0.0145248869 0.1876705176
720295680.0 0.0274577559 0.1846062153 0.0233048722 -0.5576383608 0.0235089684 -0.5581117874 -0.0128020706 0.1878401462
725295650.0 0.029083087 0.1850322454 0.0179073243 -0.5579506261 0.0177071451 -0.5579813027 -0.0106732292 0.1887107623
730295620.0 0.0307075413 0.1846266666 0.0115613479 -0.5574708579 0.0115456408 -0.5575447542 -0.0093007041 0.189170235
735295590.0 0.0330154184 0.184764502 0.0055032456 -0.5582768882 0.0054995081 -0.5582863138 -0.0072308554 0.1887756435
740295560.0 0.0348492255 0.1841975772 -0.0005350943 -0.5578931401 -0.0001327424 -0.558299999 -0.0057590199 0.1893316518
745295530.0 0.0367170513 0.1844552816 -0.0061546449 -0.5572836464 -0.0057340572 -0.5580570388 -0.0038135316 0.1895892141
750295500.0 0.0386631437 0.1841640006 -0.011937621 -0.5574630742 -0.0123491555 -0.5578513293 -0.0021919434 0.1897393868
755295470.0 0.0404377096 0.184275416 -0.0181678095 -0.5581703524 -0.0185055526 -0.5579993979 6.08453e-05 0.1902261052
760295440.0 0.0425889042 0.1843491863 -0.0247101108 -0.5572814299 -0.0245778674 -0.5569439896 0.0020114245 0.189633065
765295410.0 0.0448577501 0.1836840149 -0.0304696411 -0.5570728866 -0.0299132873 -0.5571735527 0.0040223295 0.1900810403
770295380.0 0.0463499401 0.1837008115 -0.0360675052 -0.5564582772 -0.0362812514 -0.5571786295 0.0050741292 0.1905184456
775295350.0 0.0486646931 0.1830742754 -0.0418613828 -0.5562959904 -0.0420763759 -0.5557827352 0.0075321182 0.1905839744
780295320.0 0.0505066888 0.1830856315 -0.0480538143 -0.555216215 -0.0478718573 -0.5558188724 0.009452292 0.190562145
785295290.0 0.0522324865 0.1822310349 -0.0539941361 -0.5554225597 -0.0537388737 -0.5554494917 0.0105979698 0.1907332418
790295260.0 0.0544754926 0.1818728936 -0.0599604361 -0.5546848855 -0.059852607 -0.5545144942 0.0126098414 0.1911599904
795295230.0 0.056041096 0.1815262776 -0.0660327456 -0.5540980804 -0.0660757422 -0.5539184419 0.0144544529 0.1903639799
800295200.0 0.0575906541 0.1814472925 -0.0714382371 -0.5527610313 -0.0717203138 -0.5532024849 0.016402482 0.1909190689
805295170.0 0.0595754762 0.1809263291 -0.0779740356 -0.552693291 -0.07786284 -0.5522399838 0.0186660321 0.1907900076
810295140.0 0.0617735819 0.1807223515 -0.0838150472 -0.551351318 -0.0838643131 -0.5516645472 0.0204151031 0.190723162
815295110.0 0.0635228947 0.1802972988 -0.0895197757 -0.550477532 -0.0890340082 -0.5505925763 0.0221117941 0.1909259317
820295080.0 0.0652310937 0.1795487255 -0.0950756587 -0.5490491166 -0.0952490842 -0.5496820708 0.0233521314 0.1913420406
825295050.0 0.0669643557 0.1787314128 -0.1010988586 -0.5484606542 -0.1012704098 -0.5484579979 0.0260783887 0.191133829
830295020.0 0.069152498 0.1782713022 -0.1072537581 -0.5472943146 -0.1073029118 -0.5473162191 0.0276736037 0.1904882619
