!Created with skrf (http://scikit-rf.org).
# Hz S RI R 50.0 
!freq ReS11 ImS11 ReS21 ImS21 ReS12 ImS12 ReS22 ImS22
300000.0 -0.2366722084 -0.1055119019 0.4677852977 0.0681165176 0.4728017092 0.0711790357 -0.2404766187 -0.1086709454
5299970.0 -0.2407785244 0.0073496245 0.4751811673 0.0049679203 0.4750626542 0.0052097328 -0.2448233718 0.0055541791
10299940.0 -0.2371340262 0.0203785149 0.4772681778 0.0062001971 0.4769262306 0.0062233105 -0.2414046966 0.0174902407
15299910.0 -0.2327970779 0.0298273534 0.4803175484 0.0075718933 0.4804113688 0.0076104986 -0.2371650498 0.0264794849
20299880.0 -0.2274077822 0.0380704276 0.4849463284 0.0078342405 0.4854833179 0.0080307085 -0.2328344765 0.0339264922
25299850.0 -0.2216290437 0.0443003305 0.4904439822 0.0068679797 0.4903805437 0.0069229573 -0.2276582661 0.0400574856
30299820.0 -0.2156600028 0.049642292 0.4958181497 0.0048730621 0.4955053261 0.0051348463 -0.2225830559 0.0448569035
35299790.0 -0.2100359915 0.0537460509 0.5011842372 0.0016817851 0.5013697386 0.0020926646 -0.2172457323 0.0486756389
40299760.0 -0.2045456749 0.0569789405 0.5064102719 -0.0018169122 0.5065599295 -0.0023515886 -0.212792765 0.0522096294
45299730.0 -0.1995508007 0.0600315811 0.5112934114 -0.0070945869 0.5111918738 -0.0068011294 -0.2080615133 0.0545380643
50299700.0 -0.194667652 0.0619560168 0.5149582909 -0.012753227 0.515126541 -0.012874334 -0.2036697343 0.0565706951
55299670.0 -0.1903706997 0.0637433596 0.5185064377 -0.018483529 0.5188203423 -0.0187777996 -0.199802077 0.0583290379
60299640.0 -0.1863980632 0.0649149138 0.5218849477 -0.025070404 0.5220613502 -0.0248154994 -0.1961643958 0.0594890089
65299610.0 -0.1830458969 0.0662853901 0.5249754974 -0.0307170678 0.5250110708 -0.0311030969 -0.192698762 0.0606720201
70299580.0 -0.179427311 0.0671261737 0.5267195957 -0.0378732798 0.5274276723 -0.0378716669 -0.1899545169 0.0615928732
75299550.0 -0.1764684321 0.0679623565 0.5292106151 -0.0443589865 0.5291849135 -0.0446832916 -0.1870277381 0.0626079794
80299520.0 -0.1742399672 0.0691677562 0.5316292839 -0.0516092035 0.5313893705 -0.0515224749 -0.1845422237 0.0629438666
85299490.0 -0.171289663 0.0693701444 0.5326301168 -0.0585259948 0.5321932775 -0.058555268 -0.1825206406 0.0637007378
90299460.0 -0.1693759895 0.0701383593 0.5335263457 -0.0652492755 0.5335493333 -0.0656020502 -0.1799967347 0.0643953811
95299430.0 -0.1672655592 0.0712403035 0.5345561542 -0.0724150797 0.5344194367 -0.07215057 -0.1784741938 0.0651219693
100299400.0 -0.1654250212 0.0718490222 0.5344810878 -0.0790488231 0.5346076542 -0.0793722138 -0.1767835469 0.0655843433
105299370.0 -0.1632831156 0.0723142565 0.534549027 -0.0854300863 0.5349924953 -0.0860290055 -0.1749212203 0.0660819645
110299340.0 -0.1619562726 0.0729946675 0.5349003809 -0.0925644617 0.5351203398 -0.0930440881 -0.1739167738 0.06722729
115299310.0 -0.1603359748 0.0734415566 0.5347455587 -0.0995215652 0.5349888289 -0.099580277 -0.1719004703 0.0673017572
120299280.0 -0.1590592545 0.0744779394 0.5350673513 -0.1062038147 0.5349678359 -0.1065382277 -0.1714780308 0.0678705666
125299250.0 -0.1580274099 0.0751111962 0.5346632739 -0.1131183346 0.5347641234 -0.1128477773 -0.1697915955 0.0683111852
130299220.0 -0.1562701313 0.0759420131 0.5338880356 -0.1194702989 0.5337860918 -0.1200152878 -0.1688756623 0.0696710423
135299190.0 -0.1551295605 0.0765522211 0.5330719672 -0.1262023534 0.5328983706 -0.1267458569 -0.1678924034 0.0704298577
140299160.0 -0.1540694742 0.0778396816 0.5321863202 -0.1330843977 0.5324053604 -0.133093507 -0.1665734325 0.0711891559
145299130.0 -0.1534412227 0.078832507 0.5316209921 -0.139608828 0.5312852682 -0.1395336428 -0.1660512147 0.0717990681
150299100.0 -0.152039632 0.0798153855 0.5303853867 -0.1460183246 0.530409623 -0.1462413333 -0.1652956645 0.0726508668
155299070.0 -0.1511223797 0.0813388997 0.5288913953 -0.1531838342 0.5294266943 -0.1532315311 -0.1643754872 0.0737026586
160299040.0 -0.1500104868 0.0820931939 0.5274572517 -0.158757065 0.527729507 -0.1589406593 -0.1636254134 0.0748825951
165299010.0 -0.1493848428 0.0829102812 0.5264792677 -0.1655253878 0.5262983197 -0.1657799237 -0.1625408175 0.0754339485
170298980.0 -0.1485470996 0.0843203499 0.5242859311 -0.1716944027 0.5247819375 -0.1720539015 -0.1618179055 0.0764949027
175298950.0 -0.1472680798 0.0855244727 0.5236932513 -0.17767707 0.5231514951 -0.1782880851 -0.1608892745 0.0775244203
180298920.0 -0.1463629882 0.0866436004 0.5214435272 -0.1847096735 0.5214336835 -0.1842340514 -0.1602308045 0.0788597158
185298890.0 -0.1451214562 0.087850715 0.519325543 -0.1910615458 0.5194036653 -0.1906316026 -0.1595513803 0.0796470901
190298860.0 -0.1445378533 0.0891197782 0.5174762301 -0.196946666 0.5177848974 -0.1973038782 -0.1583907773 0.0809953899
195298830.0 -0.1437052959 0.0902256516 0.515848461 -0.2029755533 0.5156370112 -0.2032691695 -0.1576042147 0.0819228854
200298800.0 -0.1426531452 0.0918095962 0.5137980158 -0.208824118 0.513305685 -0.208991551 -0.1568040552 0.0835717118
205298770.0 -0.1416748068 0.093172799 0.5115966198 -0.2153039605 0.5113059245 -0.2151775002 -0.1565493245 0.0841145636
210298740.0 -0.1407994956 0.0941120568 0.5093777675 -0.221115146 0.509127128 -0.2213848826 -0.1555743574 0.0857373171
215298710.0 -0.1398350233 0.0955421708 0.5066739209 -0.2266824344 0.507114394 -0.2267489949 -0.1550760323 0.0867871927
220298680.0 -0.1387585301 0.0969908676 0.5042326583 -0.2330176072 0.504844944 -0.2329885201 -0.1538400371 0.0883354598
225298650.0 -0.1373357726 0.0984311201 0.5018371157 -0.2386359091 0.5017675051 -0.2383589965 -0.15335559 0.0893554227
230298620.0 -0.1369313349 0.0997052087 0.4997464023 -0.2444828736 0.4998860017 -0.2446406169 -0.1525333309 0.0906118732
235298590.0 -0.1359600445 0.1009178049 0.4966506748 -0.2501340258 0.4974415139 -0.2505385625 -0.1516831844 0.0914349485
240298560.0 -0.1349332509 0.1025773882 0.4944362049 -0.2556255566 0.4943539456 -0.2556582166 -0.1512591976 0.0930428854
245298530.0 -0.1337984665 0.1039159531 0.490780993 -0.2615358261 0.491314444 -0.2617050801 -0.1502713116 0.0946053974
250298500.0 -0.1332136479 0.1051296703 0.4885606347 -0.2667174317 0.488645644 -0.266809906 -0.1489481139 0.0957775696
255298470.0 -0.13185424 0.1063885941 0.4852955992 -0.2729038667 0.4855088763 -0.272970595 -0.1482181913 0.0969054218
260298440.0 -0.1308300121 0.1080592922 0.4826853519 -0.2781827187 0.482861645 -0.2785665406 -0.1469269222 0.098544348
265298410.0 -0.1296688354 0.109691357 0.4795063778 -0.2838754332 0.4795892343 -0.2841333644 -0.1465074228 0.0994071008
270298380.0 -0.1284035393 0.1108666345 0.476169971 -0.2897533573 0.4766218744 -0.2892978279 -0.1452658233 0.1010389425
275298350.0 -0.127439747 0.1123322819 0.4732597433 -0.2951194064 0.4737909582 -0.2948128817 -0.1440991821 0.1024674135
280298320.0 -0.1262249515 0.1138391084 0.4704397874 -0.2994454159 0.4701058994 -0.3001630521 -0.1433896184 0.1039001298
285298290.0 -0.1248734419 0.1155118931 0.467090101 -0.30496888 0.4669140414 -0.305619585 -0.1428841889 0.1052948205
290298260.0 -0.1236154941 0.1166644937 0.4637463569 -0.3105757603 0.4636063292 -0.3110027887 -0.1412602886 0.1066416834
295298230.0 -0.1224812017 0.1179475686 0.4601824737 -0.316008924 0.4600651742 -0.3161035138 -0.1402411807 0.1079222462
300298200.0 -0.1210514883 0.1191351486 0.4571807979 -0.3213149895 0.4567289889 -0.3216591115 -0.1395298946 0.109383456
305298170.0 -0.1195926118 0.1206366765 0.453534285 -0.326529383 0.4538496358 -0.3267960874 -0.1379594071 0.110850171
310298140.0 -0.1181092116 0.1218820316 0.4497365111 -0.3320461053 0.4497085709 -0.3324208399 -0.1370295915 0.1125420487
315298110.0 -0.1170977501 0.1230306572 0.4455266981 -0.3368178965 0.4462068253 -0.3370458921 -0.1357108672 0.113279082
320298080.0 -0.1159933003 0.1244838638 0.4425308385 -0.3421723373 0.4424253989 -0.3421993358 -0.1349873054 0.1143599904
325298050.0 -0.1149555939 0.1254241813 0.4389790647 -0.3470962817 0.4389283075 -0.347270375 -0.1340613894 0.1156386196
330298020.0 -0.113473387 0.1270576206 0.4340852321 -0.3524696837 0.434507525 -0.3522695216 -0.1327749479 0.1168371796
335297990.0 -0.1119590244 0.1281279349 0.4302967718 -0.3570251806 0.4305201782 -0.3571280607 -0.1321867361 0.1183985915
340297960.0 -0.1113413417 0.1299932576 0.4265575424 -0.3618767036 0.4266443574 -0.3619075213 -0.1312117817 0.1197680704
345297930.0 -0.1102127335 0.131085166 0.422146464 -0.3659883666 0.4217023361 -0.3660137946 -0.1299037954 0.1209592027
350297900.0 -0.1083515009 0.1322447843 0.4180362482 -0.3706590307 0.4185005144 -0.3713037336 -0.1289040068 0.1231017463
355297870.0 -0.1073058574 0.1337045615 0.4140447074 -0.3755019167 0.4141289611 -0.3755691074 -0.1279837657 0.1240392553
360297840.0 -0.1056645107 0.1351227522 0.4099137011 -0.3803282868 0.4098001516 -0.3804671035 -0.1266236153 0.1258746144
365297810.0 -0.10409988 0.1364052333 0.4057206246 -0.3846513532 0.4055710567 -0.3847861873 -0.1257165211 0.1272128711
370297780.0 -0.1026341523 0.1376318369 0.4013890086 -0.3890488193 0.4012482598 -0.3896593439 -0.124157204 0.1285187163
375297750.0 -0.1016161813 0.1391651816 0.3976011923 -0.3936122401 0.3970460808 -0.3936227031 -0.1230023786 0.1300143656
380297720.0 -0.0995604667 0.1398992629 0.3925920468 -0.3977518833 0.392571203 -0.3978507118 -0.1217782818 0.131366348
385297690.0 -0.0981613436 0.1415187743 0.3882385307 -0.4017001271 0.3882018314 -0.4022501123 -0.1204873484 0.1329100715
390297660.0 -0.0969595524 0.142871547 0.3836737191 -0.4062397906 0.3837688414 -0.4068161698 -0.1192484122 0.1339257709
395297630.0 -0.0948232754 0.1438578546 0.3794452633 -0.4102284637 0.3793695619 -0.410470279 -0.1179986614 0.1356791377
400297600.0 -0.0936019971 0.145275596 0.3751790388 -0.4148817248 0.375191321 -0.414724538 -0.1173386565 0.1367868434
405297570.0 -0.0918796118 0.1463218888 0.3704332698 -0.4187939158 0.3704056815 -0.4191888754 -0.115839516 0.1384394939
410297540.0 -0.0901459782 0.1474711415 0.3654036634 -0.4229425682 0.3655494243 -0.4229486628 -0.1142568613 0.1394155167
415297510.0 -0.0885442203 0.1489977382 0.3610887292 -0.4267102433 0.3612172258 -0.4267305783 -0.1130381699 0.1410353174
420297480.0 -0.0869844651 0.1496307928 0.3563147272 -0.4311859877 0.3562534894 -0.4307175809 -0.1113103226 0.1419392962
425297450.0 -0.0848300193 0.1506492296 0.3516418803 -0.4347671708 0.3518422054 -0.4347318107 -0.1100651413 0.1437834978
430297420.0 -0.0835353689 0.1523979003 0.3469877832 -0.4391772164 0.3470810325 -0.4387580973 -0.108846209 0.1445829422
435297390.0 -0.0816916364 0.1531621151 0.342280575 -0.4420773825 0.3422622861 -0.4419018631 -0.1075985084 0.1461018216
440297360.0 -0.079843976 0.1540746807 0.3368647253 -0.445933362 0.3369193803 -0.4458525611 -0.1062117727 0.147036044
445297330.0 -0.0781645499 0.1549135997 0.3318226525 -0.4498321857 0.3321569983 -0.4493303554 -0.1046576412 0.1482097568
450297300.0 -0.0764435319 0.1557895 0.3271556397 -0.4530292205 0.3272325194 -0.4531236382 -0.1036029944 0.1498724071
455297270.0 -0.074861273 0.1568765368 0.3224950167 -0.4570680861 0.3228524705 -0.4565429437 -0.101668307 0.1509715188
460297240.0 -0.0732019828 0.1579527531 0.3172883263 -0.4598389443 0.3171043168 -0.460193205 -0.1004362594 0.1528404747
465297210.0 -0.0712577172 0.1587699336 0.3117785539 -0.4637919798 0.3124222853 -0.463615418 -0.0991881907 0.1534946639
470297180.0 -0.0695357465 0.159884437 0.3068460432 -0.4669655265 0.3073814355 -0.4669300076 -0.097946316 0.1544699603
475297150.0 -0.0680554104 0.1606176525 0.3019408052 -0.4699632146 0.3022068167 -0.4697927725 -0.0960746896 0.1556123236
480297120.0 -0.0657330776 0.1610904358 0.2965112281 -0.4733011389 0.2969655123 -0.4732377471 -0.0950402025 0.1572325521
485297090.0 -0.0638074626 0.1621210092 0.2917145984 -0.4764911142 0.2914960786 -0.4764806913 -0.0935710261 0.1581120795
490297060.0 -0.0620306551 0.1631618349 0.2863984491 -0.4797951601 0.2868331858 -0.4797671621 -0.0918983571 0.1594308025
495297030.0 -0.0605978573 0.1639959479 0.2812320118 -0.4827643837 0.2811132901 -0.4828261162 -0.0904273077 0.1597870821
500297000.0 -0.0583754603 0.1646015841 0.2757970011 -0.486021591 0.2760888468 -0.4860012235 -0.0888680772 0.1613677055
505296970.0 -0.0567791619 0.1652503608 0.2701885632 -0.4883762923 0.270777057 -0.4888309226 -0.0880907352 0.1625150494
510296940.0 -0.0549371179 0.1662492059 0.265181942 -0.491490528 0.2651651274 -0.4916412977 -0.0858972356 0.1637181214
515296910.0 -0.0533301855 0.1672087429 0.2594153739 -0.4942028434 0.2600993672 -0.4945958344 -0.0844417705 0.1647113683
520296880.0 -0.0509419647 0.1674565942 0.2544318723 -0.4968836582 0.2545070068 -0.4970820397 -0.0828345571 0.1654428351
525296850.0 -0.0496016565 0.1684767339 0.2494274972 -0.4998903162 0.2491905503 -0.5000885859 -0.081179034 0.1664536862
530296820.0 -0.0476614035 0.1687634208 0.2440025752 -0.5017594428 0.2434727236 -0.502554677 -0.080116939 0.1671792162
535296790.0 -0.0457506636 0.1696973648 0.2379370052 -0.5047517064 0.2384553525 -0.5048499062 -0.0782915418 0.1680495391
540296760.0 -0.0439270765 0.1699829141 0.2328696695 -0.5082283576 0.2321942927 -0.5078690781 -0.0770468406 0.1691758591
545296730.0 -0.0418089847 0.1711963654 0.2267596785 -0.5099069844 0.2269632232 -0.5106172705 -0.0750029629 0.1699118668
550296700.0 -0.0401089006 0.1715135823 0.2214812764 -0.5125706381 0.2218620589 -0.5128276436 -0.0739026886 0.1713278581
555296670.0 -0.0377152305 0.1718452497 0.2157301946 -0.5147024148 0.2163450988 -0.5146912204 -0.0721577328 0.1721797132
560296640.0 -0.0362857587 0.1725671898 0.2106515435 -0.5173470364 0.2105474057 -0.5169986447 -0.0706161594 0.1726950709
565296610.0 -0.0344257495 0.1730694321 0.2047321432 -0.5193825199 0.2048058451 -0.5194463178 -0.0691946029 0.1735898838
570296580.0 -0.0319437583 0.1735636158 0.199002619 -0.5213352715 0.1992198633 -0.5216679169 -0.0673226902 0.1746471125
575296550.0 -0.0305476054 0.1743171106 0.1937793731 -0.5232889215 0.1937713644 -0.5232538188 -0.0653632655 0.1755152411
580296520.0 -0.0285034178 0.174634002 0.1882295747 -0.5256414358 0.187941989 -0.5256074359 -0.0642227759 0.1759536469
585296490.0 -0.0263255379 0.1745103445 0.1821828912 -0.5274341221 0.18216198 -0.527260041 -0.0626230921 0.1766452445
590296460.0 -0.0248044366 0.1751931676 0.1762191352 -0.5293682936 0.1763825324 -0.5298304585 -0.0605437409 0.177560959
595296430.0 -0.0226522395 0.1757465249 0.1709095109 -0.5309381973 0.1705376948 -0.5315595701 -0.0589152568 0.1782695328
600296400.0 -0.0207603294 0.1762539655 0.1646801125 -0.5329023251 0.1650318428 -0.5330290966 -0.0572479687 0.1792680122
605296370.0 -0.018766642 0.1769806278 0.1593532567 -0.5355685193 0.1596520812 -0.5349626897 -0.0554805399 0.1798341207
610296340.0 -0.0168830226 0.1769997526 0.1539784503 -0.5363235482 0.1537821398 -0.5369102937 -0.0538897736 0.1808675933
615296310.0 -0.0148692493 0.1774949486 0.1474031509 -0.5377490117 0.1474858743 -0.5377781344 -0.052329467 0.1812807455
620296280.0 -0.0129331986 0.1773924444 0.1418712272 -0.5389542608 0.1418200959 -0.5393696763 -0.0508158647 0.1814536828
625296250.0 -0.0107965426 0.1777651729 0.1354942218 -0.541415323 0.1361167462 -0.5413131372 -0.0487065281 0.1825754412
630296220.0 -0.0088831076 0.1780687436 0.1297574098 -0.5430325742 0.1304628265 -0.5424965187 -0.0471667949 0.1831755417
635296190.0 -0.0067874967 0.1786556807 0.1241861662 -0.543650161 0.1239689749 -0.5432050067 -0.0455715948 0.1834926683
640296160.0 -0.0051234628 0.1784640916 0.1184171555 -0.5447311992 0.1182242484 -0.5451044455 -0.0434950747 0.1841516988
645296130.0 -0.0027884315 0.1791153428 0.1122314698 -0.5465429088 0.1122938397 -0.5463718206 -0.0426257076 0.1841001819
650296100.0 -0.0011494356 0.179413873 0.1070303875 -0.5472447823 0.1066510328 -0.5471775896 -0.0401675519 0.185204666
655296070.0 0.000825755 0.1789087413 0.100475336 -0.5484560395 0.1002391522 -0.5487665685 -0.0380831397 0.1860248365
660296040.0 0.0026739909 0.1796134939 0.0946329763 -0.5494228186 0.0947829467 -0.5493956326 -0.0368255763 0.1860461006
665296010.0 0.004726344 0.1795976135 0.089110285 -0.5507415246 0.0893598498 -0.5504505377 -0.035438855 0.187075678
670295980.0 0.0075117013 0.1797620386 0.082853638 -0.5512967958 0.0831428621 -0.551472166 -0.0333989535 0.1872140621
675295950.0 0.0091400868 0.179675028 0.0770518463 -0.5524335699 0.0772698354 -0.5527103885 -0.031261954 0.1878449623
680295920.0 0.0110654317 0.1801016237 0.0709758226 -0.5526792401 0.0706863582 -0.5530787639 -0.0292355592 0.1880828973
685295890.0 0.0130261933 0.1797327994 0.0653314311 -0.5534225945 0.0648006702 -0.5541329263 -0.0278858538 0.1884699376
690295860.0 0.0151726983 0.179883006 0.0592469291 -0.5538600968 0.0586472757 -0.5542249074 -0.0258015081 0.1890057371
695295830.0 0.017591974 0.1795937989 0.0520497987 -0.5548673404 0.0526296493 -0.5551371049 -0.0242695912 0.189319591
700295800.0 0.0193988914 0.1798245712 0.0468463673 -0.5553060629 0.0469968352 -0.5554203965 -0.0223465214 0.1894831571
705295770.0 0.0212985957 0.1798316459 0.0409513467 -0.5555935171 0.0408681199 -0.5559442093 -0.0206370221 0.1903119125
710295740.0 0.0233211981 0.1800940638 0.0351293412 -0.5559732223 0.0348198724 -0.5562379108 -0.0193599954 0.1908478241
715295710.0 0.0250952795 0.1796978385 0.0288998552 -0.5564098283 0.0296819026 -0.5564280448 -0.0172419678 0.1901925353
720295680.0 0.0271028678 0.1790974938 0.0232440209 -0.5565079642 0.0229179411 -0.5569198822 -0.0147423821 0.1908418025
725295650.0 0.0295796147 0.1794213195 0.016550412 -0.5565896269 0.0167673425 -0.5570498764 -0.013175149 0.1915544349
730295620.0 0.0311108249 0.1791712566 0.0110234316 -0.5572062075 0.0110820976 -0.5571487174 -0.0112578895 0.1912448184
735295590.0 0.033624155 0.1790117925 0.0050678998 -0.5571995512 0.0054344621 -0.5574713226 -0.00950848 0.1918859821
740295560.0 0.0355010802 0.178633938 -0.0010430545 -0.55681894 -0.0011012955 -0.5570902235 -0.0075043694 0.1918623725
745295530.0 0.037416853 0.1781823388 -0.0069093383 -0.557142871 -0.0068750939 -0.5571676653 -0.0058079214 0.1923392854
750295500.0 0.0393779102 0.1779556029 -0.0127800841 -0.5562126088 -0.0131917274 -0.5568298101 -0.0036205298 0.1919371867
755295470.0 0.0417770514 0.1780136239 -0.0187612033 -0.5565703597 -0.0186824785 -0.5568629987 -0.0024013458 0.1925820102
760295440.0 0.0433990572 0.177825821 -0.0249405548 -0.5563169867 -0.0249761925 -0.5565008684 -0.0005172645 0.1926298705
765295410.0 0.0453382863 0.1770860066 -0.0306558762 -0.556090967 -0.0306563129 -0.5561232174 0.0018550274 0.1930705489
770295380.0 0.0477646698 0.1768609045 -0.0371669856 -0.5551015475 -0.0367479653 -0.556035876 0.0038643767 0.1929544158
775295350.0 0.0492505727 0.1767430175 -0.042935179 -0.5548361309 -0.0426549798 -0.5551884641 0.0051416515 0.1925036017
780295320.0 0.0514704809 0.1759355769 -0.0485421548 -0.5543908917 -0.0485961446 -0.5548306511 0.0072673032 0.1932756167
785295290.0 0.0534269976 0.1761825343 -0.0546686621 -0.5537620298 -0.0548951522 -0.55394357 0.0088807046 0.1934921486
790295260.0 0.0552226423 0.1754275857 -0.060606994 -0.5536554144 -0.0607893524 -0.5536279641 0.0111288189 0.1933737093
795295230.0 0.0574255806 0.1750396846 -0.0666067779 -0.5523250392 -0.0665179164 -0.5526670568 0.0129491771 0.1939904419
800295200.0 0.059506706 0.1748571449 -0.0728509887 -0.5519349748 -0.0731099216 -0.5521057289 0.0147483477 0.1934638769
805295170.0 0.0611203415 0.1739784171 -0.0784358326 -0.5504542778 -0.0784738809 -0.5509179234 0.0164649895 0.1933068849
810295140.0 0.0632218495 0.1734323795 -0.0846599898 -0.5498861225 -0.0841798575 -0.5507619107 0.0185293122 0.1937993261
815295110.0 0.0653243984 0.1731377082 -0.0905514519 -0.548883581 -0.0904701426 -0.5490747168 0.0202550675 0.1935685624
820295080.0 0.0669786325 0.1721373114 -0.0960976016 -0.5480829917 -0.096336544 -0.5481888236 0.0223172564 0.1934287079
825295050.0 0.0691263702 0.1714000913 -0.1022136264 -0.5464613958 -0.1022703754 -0.5469668438 0.0239429428 0.1934812787
830295020.0 0.0709984626 0.1709846803 -0.10815855 -0.5456592151 -0.1084258488 -0.5459847502 0.0261175381 0.1933216158
