!Created with skrf (http://scikit-rf.org).
# Hz S RI R 50.0 
!freq ReS11 ImS11 ReS21 ImS21 ReS12 ImS12 ReS22 ImS22
300000.0 -0.2319717719 -0.1368210998 0.465163295 0.0892811752 0.4681424383 0.0877402871 -0.235429824 -0.1333598316
5299970.0 -0.2418825547 0.0050577732 0.474995556 0.0059811475 0.4751338311 0.0062912892 -0.2442474375 0.0047197763
10299940.0 -0.2389243634 0.0185224076 0.4774105861 0.0070141725 0.4773836772 0.0071648299 -0.2408505321 0.0173189322
15299910.0 -0.2337301921 0.0287492645 0.480526381 0.0081214752 0.4809735687 0.0082114944 -0.2366716999 0.0263375281
20299880.0 -0.2285697506 0.0367370606 0.4854756454 0.0083008127 0.4858072385 0.0083129549 -0.2320043615 0.033891782
25299850.0 -0.2224431275 0.0435372151 0.4906825221 0.0076819924 0.491013246 0.007243403 -0.2269339581 0.0401668723
30299820.0 -0.2171104669 0.0487343497 0.4962791679 0.0052157954 0.4962447593 0.0049792001 -0.2216541296 0.0450569796
35299790.0 -0.2114675239 0.053121699 0.5008980625 0.0018429872 0.5016886036 0.0017856694 -0.2167422488 0.0491734463
40299760.0 -0.206263127 0.0561515009 0.5064683369 -0.0020345339 0.5067025518 -0.0023449476 -0.2117147349 0.0521241039
45299730.0 -0.2013327478 0.0586942154 0.5115833857 -0.0064067386 0.5115755675 -0.0070395353 -0.2070438788 0.0549078335
50299700.0 -0.196054809 0.0605576979 0.5152155069 -0.012475299 0.5153229667 -0.0125499757 -0.2024498608 0.0572231473
55299670.0 -0.1921185553 0.0624382892 0.5192600542 -0.017832973 0.5190721675 -0.0183762837 -0.1992661757 0.0587824713
60299640.0 -0.1881755999 0.0641144177 0.5226311386 -0.0246446893 0.5223912499 -0.0249841567 -0.1954759213 0.0598713091
65299610.0 -0.1844704839 0.0651236412 0.5256609084 -0.0305865115 0.5255100838 -0.0311148803 -0.1918552668 0.0607888322
70299580.0 -0.1809966705 0.0659695016 0.5276476788 -0.0372496476 0.5276981482 -0.0375211266 -0.1892760263 0.0619721514
75299550.0 -0.1781865406 0.0666559343 0.5294802539 -0.0448896932 0.5298728924 -0.0444476669 -0.1862009272 0.0629067018
80299520.0 -0.1752443004 0.0678048471 0.5316402621 -0.0515042313 0.5317796692 -0.0514846544 -0.1838507667 0.0637576584
85299490.0 -0.1726671005 0.067997621 0.5325154455 -0.0579112203 0.5329728339 -0.0578796291 -0.1814798068 0.0640981889
90299460.0 -0.17023439 0.0690481946 0.533567004 -0.0653282888 0.5338396144 -0.0650333868 -0.1790403321 0.0649469386
95299430.0 -0.1681361725 0.0696717106 0.5345484719 -0.0717755891 0.5350801627 -0.0722817468 -0.1775422235 0.0658265842
100299400.0 -0.1661652155 0.0701717569 0.5349767211 -0.0785583817 0.534856894 -0.0790300469 -0.1759541616 0.0664157753
105299370.0 -0.1640308511 0.0707593258 0.5352459772 -0.0859606839 0.5354586202 -0.0857131636 -0.1739319804 0.0668822028
110299340.0 -0.1622893171 0.0712643769 0.5355933398 -0.0920631637 0.5357745426 -0.09226892 -0.1726790196 0.0676263418
115299310.0 -0.1607896131 0.0724053821 0.5355809395 -0.0992698961 0.5354263065 -0.0991873838 -0.1713737257 0.0686298371
120299280.0 -0.1594931195 0.0731740882 0.5354562607 -0.1067590423 0.5354118639 -0.1065735518 -0.1701867999 0.0688231305
125299250.0 -0.1577655798 0.0738832291 0.5345475097 -0.1128424372 0.5348344376 -0.1126350328 -0.1685649379 0.069636632
130299220.0 -0.1565010261 0.0746582767 0.5343039295 -0.1198302448 0.5343678612 -0.1202016165 -0.1676966437 0.0706303459
135299190.0 -0.155695285 0.0757873317 0.5336682162 -0.125836186 0.5338435134 -0.1264371502 -0.1665764378 0.0711610474
140299160.0 -0.1544704524 0.0768389215 0.5332004359 -0.1328098756 0.5330594744 -0.1329206027 -0.1661248446 0.0718374714
145299130.0 -0.1533272381 0.0779456657 0.5316086188 -0.1395014842 0.5319537056 -0.1392037027 -0.1650586633 0.0727334758
150299100.0 -0.152171667 0.078857492 0.5309256012 -0.1459717236 0.530426195 -0.1462884365 -0.1641662992 0.0743102745
155299070.0 -0.1508809088 0.0799826138 0.52937519 -0.1524912535 0.5297462332 -0.1524471878 -0.1630975495 0.0748483937
160299040.0 -0.149922561 0.0812851933 0.5283843434 -0.1590601087 0.5284475589 -0.1591413109 -0.1625416143 0.0760734173
165299010.0 -0.1486267492 0.082162507 0.5267576521 -0.1650933088 0.5265045925 -0.1653290369 -0.1614387622 0.076625692
170298980.0 -0.1479381422 0.0836361941 0.5248542949 -0.1716480155 0.5254206545 -0.1718978981 -0.1608832584 0.0779576216
175298950.0 -0.1468744621 0.0846947322 0.5237150314 -0.1778143782 0.5239094988 -0.178502858 -0.1602918372 0.0795419617
180298920.0 -0.1458686402 0.0860778726 0.5218061015 -0.1848118762 0.5222247997 -0.1844677857 -0.1595382813 0.0802620063
185298890.0 -0.1450461673 0.0871119389 0.5201193329 -0.190760387 0.5202096857 -0.1903677309 -0.1585103314 0.081199024
190298860.0 -0.1437232094 0.0888371094 0.5176726813 -0.1966902613 0.5182808551 -0.1966462383 -0.1580016629 0.0822939581
195298830.0 -0.1433417602 0.0902387852 0.5167667494 -0.2026729505 0.516449056 -0.2028732692 -0.157284816 0.0834646713
200298800.0 -0.1419162689 0.0912107041 0.5140451004 -0.2089602085 0.5143726342 -0.2093193582 -0.1562933646 0.0847655133
205298770.0 -0.1413459528 0.0925670833 0.5116838733 -0.2148926954 0.5118802616 -0.2146701062 -0.1555851893 0.0860715963
210298740.0 -0.1402684796 0.0942373836 0.5098302259 -0.2207977405 0.5095104813 -0.2210039329 -0.1551931209 0.0869849753
215298710.0 -0.1393235512 0.0957173346 0.5070233825 -0.2266264162 0.5075763227 -0.227281883 -0.1540914319 0.0886853797
220298680.0 -0.1381152472 0.0967838219 0.5045627906 -0.2326506214 0.5046144049 -0.2330323716 -0.1533990261 0.0898232954
225298650.0 -0.137406717 0.0983966543 0.5021372588 -0.2383228628 0.5025670098 -0.2379234377 -0.1526580738 0.0906518375
230298620.0 -0.1360561929 0.100022179 0.4996405949 -0.2446789908 0.5001180686 -0.244300943 -0.1520903414 0.0919310257
235298590.0 -0.1354588401 0.1011090062 0.4973815983 -0.2505302359 0.4972718387 -0.2502314131 -0.1510493153 0.0934546663
240298560.0 -0.1341164611 0.1029631813 0.4942096484 -0.2559430683 0.4947936336 -0.2558421333 -0.1505108445 0.094504526
245298530.0 -0.1331537457 0.1039026819 0.4918182994 -0.2613778496 0.4916177638 -0.2616518831 -0.1496090181 0.0960796533
250298500.0 -0.1325552127 0.1055803449 0.4893421966 -0.2669932836 0.4890306984 -0.2670028632 -0.1487432017 0.0973961383
255298470.0 -0.1311186263 0.1072054231 0.4863592204 -0.2724267149 0.4865831814 -0.2725972127 -0.1477998642 0.0987837646
260298440.0 -0.1301793978 0.1084121762 0.4829689382 -0.27771797 0.4835027335 -0.2781646003 -0.1475120768 0.0999690367
265298410.0 -0.1293032027 0.1099860605 0.4800512416 -0.2837610042 0.4798028612 -0.28414872 -0.1459666402 0.1012119974
270298380.0 -0.128191836 0.1112318562 0.4769505758 -0.2890432463 0.4772853137 -0.2891252 -0.1453494571 0.1028600741
275298350.0 -0.12698181 0.1131920805 0.4736515535 -0.2945283198 0.4737112781 -0.2946968728 -0.1443302129 0.1046803449
280298320.0 -0.125997953 0.114361327 0.4708894638 -0.2996547114 0.4706526494 -0.3000794287 -0.1432298477 0.1055817622
285298290.0 -0.12472281 0.1158693799 0.4670305108 -0.304876189 0.4677229979 -0.3052089374 -0.1429115766 0.1070968514
290298260.0 -0.123689546 0.1173745116 0.4645195599 -0.3102691477 0.4641388779 -0.3104489407 -0.1413104721 0.1082053973
295298230.0 -0.1226550225 0.118407987 0.4608686657 -0.3155484471 0.4612379854 -0.3160987843 -0.140590514 0.1095993505
300298200.0 -0.1211521064 0.120264767 0.4575556817 -0.3211133879 0.4577226998 -0.3209194597 -0.1396924451 0.110625879
305298170.0 -0.1201795426 0.1215104063 0.4541548021 -0.3264803047 0.4546621805 -0.3266457255 -0.1387014023 0.1119367288
310298140.0 -0.1185690511 0.1224468412 0.4508850477 -0.3311727127 0.4508589827 -0.3308265774 -0.1375651341 0.1129802897
315298110.0 -0.1177020418 0.1236857334 0.4472010515 -0.3370390336 0.4468564664 -0.3368173993 -0.1363772315 0.1143655615
320298080.0 -0.1164736368 0.1253502562 0.4425453799 -0.3418276702 0.4434724717 -0.3418627489 -0.1357853767 0.1154119768
325298050.0 -0.1155376275 0.126034363 0.4390421203 -0.3464673642 0.4398928568 -0.346939434 -0.1346476107 0.1168426001
330298020.0 -0.114882345 0.1277275805 0.4353211547 -0.3517220864 0.4362152562 -0.3518668363 -0.1340470823 0.118043105
335297990.0 -0.1134834966 0.1289124844 0.4313006523 -0.3563796849 0.4315133882 -0.3566195441 -0.1330434 0.1196030333
340297960.0 -0.1126526665 0.1304625058 0.4272615079 -0.3614447981 0.4271056905 -0.3614452977 -0.13200235 0.1211651547
345297930.0 -0.1113333036 0.1316574543 0.4231313102 -0.3662083628 0.423510221 -0.3664958748 -0.1307929675 0.1222630379
350297900.0 -0.1101293696 0.1329123295 0.4194897486 -0.3700541088 0.4197088719 -0.3705790188 -0.1300502067 0.1234703013
355297870.0 -0.1088154244 0.1343537685 0.415121705 -0.3752484798 0.4149824662 -0.375274632 -0.1284766172 0.1248975594
360297840.0 -0.1074681005 0.1358727567 0.4109514849 -0.379963085 0.4109819866 -0.3803201351 -0.1278329542 0.1266597799
365297810.0 -0.1060497148 0.1373051039 0.4067284028 -0.3842532619 0.4069932605 -0.3842540063 -0.1269323174 0.1274743499
370297780.0 -0.1048516664 0.1384856156 0.4021653762 -0.3886154223 0.4030020695 -0.3889459326 -0.12580655 0.1290242092
375297750.0 -0.103407944 0.1396684524 0.3984623124 -0.3930725091 0.3986708329 -0.3931271041 -0.1246586079 0.1302059094
380297720.0 -0.1022409202 0.1410949686 0.3940847416 -0.3978829287 0.3940915569 -0.3976683949 -0.1233742526 0.1318167306
385297690.0 -0.1007260423 0.1422004603 0.3894475419 -0.4015873581 0.3899147884 -0.4023790452 -0.1221052316 0.1329742784
390297660.0 -0.0990353602 0.1432851819 0.3852401239 -0.405605821 0.385643954 -0.4059239923 -0.120442756 0.1342326815
395297630.0 -0.0975255506 0.1444736853 0.3808799976 -0.4096930393 0.3807792903 -0.4102811497 -0.1198244942 0.1355385713
400297600.0 -0.09619816 0.1457517878 0.3762851895 -0.4141508747 0.3766377408 -0.4144482212 -0.1180006509 0.1371469459
405297570.0 -0.0948452383 0.1465766216 0.3716736435 -0.4184283776 0.3721004683 -0.41871525 -0.1167016882 0.1384909221
410297540.0 -0.0933141638 0.1481502617 0.3669327001 -0.422724702 0.3672187583 -0.4223433403 -0.1155867981 0.1395742181
415297510.0 -0.0917582384 0.1492850171 0.3622121668 -0.4264164562 0.3627893128 -0.4267106395 -0.114077155 0.1407827014
420297480.0 -0.0903634605 0.1500992392 0.3576694811 -0.4301461387 0.3583359923 -0.4305913143 -0.1125322281 0.1425197451
425297450.0 -0.08844885 0.1515222735 0.3533971812 -0.4340384838 0.3529521518 -0.4342008119 -0.111500407 0.1432587074
430297420.0 -0.0869093161 0.1527448778 0.3488403245 -0.4381747343 0.3485085968 -0.4378270569 -0.1096250229 0.1447626851
435297390.0 -0.0850583671 0.1533204598 0.3429032775 -0.4423617691 0.3436624455 -0.4418200507 -0.1090021952 0.1460149717
440297360.0 -0.0835198118 0.1542633473 0.3384126542 -0.445768035 0.3385118745 -0.4458911775 -0.1073035478 0.1471380371
445297330.0 -0.0818285462 0.1550201646 0.3340702672 -0.4490036089 0.3337806591 -0.4499176708 -0.1057633609 0.1484919459
450297300.0 -0.0801046817 0.1561424811 0.3288710927 -0.4528583705 0.3292279217 -0.452598961 -0.1044891879 0.1492728326
455297270.0 -0.0788374238 0.1573049118 0.3240263679 -0.4569547657 0.324172958 -0.4569281033 -0.1029359966 0.1507502878
460297240.0 -0.0766651703 0.1584309489 0.319031505 -0.4604838157 0.3189862127 -0.460561917 -0.1013176768 0.1518935719
465297210.0 -0.0749225137 0.1593622388 0.3135244382 -0.4635988302 0.3136267678 -0.4637446745 -0.099898634 0.1534089281
470297180.0 -0.0732060949 0.1600692618 0.3085166966 -0.4665824669 0.3091113864 -0.4666950474 -0.0984718152 0.1541845385
475297150.0 -0.0716513078 0.1611766349 0.3039951892 -0.4702258082 0.3039730595 -0.4703118103 -0.0967973608 0.1550626455
480297120.0 -0.0692071073 0.1623031419 0.2981836698 -0.4737410554 0.2987640361 -0.4735490535 -0.095368438 0.1563375017
485297090.0 -0.0678311339 0.1624990881 0.2933165407 -0.4764009469 0.2932632797 -0.4766803364 -0.0938857802 0.1576298131
490297060.0 -0.0651452461 0.163727117 0.2878309232 -0.4802066272 0.2879981012 -0.4802945153 -0.0923186885 0.1585276881
495297030.0 -0.0640843641 0.1644183642 0.2831524331 -0.4831284045 0.28297624 -0.4832075837 -0.0908231138 0.1593604378
500297000.0 -0.0622351535 0.1654478634 0.2778725032 -0.4856314668 0.2777381343 -0.4862156748 -0.0892343047 0.1604738346
505296970.0 -0.0596546178 0.1661991417 0.2721169615 -0.4892515766 0.2722276642 -0.4886410621 -0.0875451565 0.1610961647
510296940.0 -0.0583488288 0.1669466904 0.2672800249 -0.4924015481 0.2670701647 -0.492530316 -0.0855051705 0.162613946
515296910.0 -0.0564228429 0.1679730962 0.2615703515 -0.4950229579 0.2612522111 -0.4947083279 -0.0842184656 0.1628268107
520296880.0 -0.0541274469 0.1686164075 0.2559755282 -0.4977091216 0.2558979469 -0.4972769728 -0.0822468027 0.1645924503
525296850.0 -0.0524139932 0.1690922985 0.2505708443 -0.5004514992 0.2501713909 -0.5003481572 -0.0807138085 0.1653957775
530296820.0 -0.0504909892 0.1700109145 0.2449583881 -0.5030689328 0.245269696 -0.5029241026 -0.0792030105 0.1658879894
535296790.0 -0.0481246133 0.17053958 0.2396456086 -0.5055763228 0.2396147708 -0.5057113339 -0.0771969918 0.1671212613
540296760.0 -0.0461408723 0.1713499463 0.2341156503 -0.5080575153 0.2339100102 -0.507870205 -0.0759764468 0.1673209631
545296730.0 -0.0447237229 0.172323119 0.2285491485 -0.5104621552 0.2283921141 -0.5103473133 -0.074199142 0.1685749161
550296700.0 -0.0422103116 0.1727852905 0.2228440528 -0.5129382188 0.2226188013 -0.5129482198 -0.0723156998 0.169396947
555296670.0 -0.0403672481 0.173355683 0.2174327986 -0.5156461898 0.2172913642 -0.5154347045 -0.0708637906 0.1698258444
560296640.0 -0.0380481313 0.1737485871 0.2117366432 -0.5179392221 0.2121109566 -0.517795935 -0.0690746929 0.1713324542
565296610.0 -0.036679184 0.1748089358 0.2066562322 -0.5202812247 0.2064105867 -0.5197774297 -0.0671180506 0.1720333196
570296580.0 -0.0343138487 0.1752506304 0.2005485836 -0.5221811165 0.2007956314 -0.522376782 -0.0661388717 0.1724809175
575296550.0 -0.032245469 0.1754125057 0.1952495577 -0.5241574981 0.1949493911 -0.5245455842 -0.0639795163 0.1732983027
580296520.0 -0.0302333896 0.1764914329 0.1895741505 -0.5264791908 0.1891305199 -0.5266406481 -0.062726627 0.1740854443
585296490.0 -0.0279805906 0.1770412627 0.1838940875 -0.5282245617 0.1830772678 -0.5280029303 -0.0603882626 0.1752504098
590296460.0 -0.0254287046 0.1774377422 0.1777218004 -0.5303340869 0.1778522051 -0.5304875399 -0.0589755716 0.17550729
595296430.0 -0.0236177337 0.1780515107 0.1714815623 -0.5319368323 0.1714485244 -0.5322151179 -0.057081673 0.1758645064
600296400.0 -0.0216140979 0.1784703823 0.1657096504 -0.5336510956 0.1657644659 -0.533890238 -0.0554751451 0.1768761417
605296370.0 -0.0198451006 0.1789902499 0.1605662092 -0.5355690002 0.1601604298 -0.535799799 -0.0536257517 0.1776231783
610296340.0 -0.0173078102 0.1796638892 0.1546469748 -0.536591354 0.1547983698 -0.5370900114 -0.0521715727 0.1784038449
615296310.0 -0.0150888244 0.1800751017 0.1484365196 -0.5393982726 0.1481023762 -0.5388727575 -0.0497588879 0.1791913051
620296280.0 -0.0136222159 0.1808109417 0.1426861755 -0.540295909 0.1422305616 -0.5404705349 -0.0486268438 0.1796809545
625296250.0 -0.0114108591 0.1806529529 0.1372007482 -0.5420870036 0.1369576217 -0.5420300404 -0.0471464658 0.1802262242
630296220.0 -0.0092581087 0.181269448 0.1308403641 -0.5436621381 0.1306014326 -0.5433801289 -0.0448300843 0.1808907777
635296190.0 -0.0075785193 0.1818903568 0.1251651504 -0.5444678259 0.1247710559 -0.5443945337 -0.0431302141 0.181209351
640296160.0 -0.0053227429 0.1821374676 0.1190731309 -0.5462278529 0.1190777194 -0.5460775029 -0.0415246535 0.1819892733
645296130.0 -0.0028474258 0.1826142602 0.1130678503 -0.5473022066 0.1133495355 -0.547118839 -0.0402259094 0.1820941443
650296100.0 -0.0009587351 0.1829488103 0.1074008712 -0.5484953022 0.1071553957 -0.5484188299 -0.0372852607 0.182829866
655296070.0 0.0010279273 0.1827728032 0.1015045721 -0.5494813728 0.1013208349 -0.5494026774 -0.0362419406 0.1836628488
660296040.0 0.0029795944 0.18334098 0.095876777 -0.5505421811 0.0953451295 -0.550462032 -0.0343876845 0.1836694557
665296010.0 0.005229769 0.1833067055 0.0889221845 -0.5510404472 0.0894450724 -0.5512396525 -0.0324220874 0.1842160713
670295980.0 0.0068404078 0.1840377212 0.0834143687 -0.5525129744 0.0833577297 -0.5519698438 -0.0311672776 0.1847355296
675295950.0 0.0090178499 0.1839676809 0.0774438459 -0.5527558842 0.0776422525 -0.5530168762 -0.0289594505 0.1852733465
680295920.0 0.0111345503 0.1841380136 0.0718074657 -0.5538962149 0.0714630286 -0.5537302934 -0.0270484316 0.1855249747
685295890.0 0.0133034174 0.1845163483 0.065396049 -0.5546178345 0.0654730918 -0.5546571834 -0.0253675396 0.1862900762
690295860.0 0.0151290364 0.1843478314 0.0595406629 -0.5547544483 0.0590058575 -0.5552539346 -0.0234804483 0.18648217
695295830.0 0.0174545613 0.1844583591 0.0542868992 -0.556220181 0.0535850526 -0.5557742754 -0.0218040724 0.1868169197
700295800.0 0.0192100815 0.1844927885 0.0484425728 -0.5563711299 0.0477363473 -0.5564599545 -0.0198585891 0.1872280417
705295770.0 0.0211787009 0.1848359074 0.0417988519 -0.5572302792 0.0416905993 -0.5566805812 -0.0182304886 0.1878408739
710295740.0 0.0232933469 0.1846161347 0.0360625728 -0.5572839635 0.035718777 -0.5573557487 -0.0160655438 0.1880531227
715295710.0 0.0254468764 0.1849556319 0.0298666243 -0.5572417349 0.0295994902 -0.557521557 -0.0142751886 0.1880744861
720295680.0 0.0275182527 0.1846742362 0.023830728 -0.5576296023 0.0236735298 -0.5579106067 -0.0125145313 0.1884592241
725295650.0 0.0290402622 0.1851275651 0.0184444418 -0.5579722725 0.0176448087 -0.5578933028 -0.0109004296 0.1891447985
730295620.0 0.0308493414 0.1846482511 0.0117824304 -0.5575260067 0.0116109258 -0.5575825142 -0.0092104271 0.1893897961
735295590.0 0.0331596713 0.1844296849 0.0059675072 -0.5580597187 0.0057426494 -0.5581346418 -0.0071306321 0.1892806384
740295560.0 0.034946739 0.1844002978 2.34674e-05 -0.5581063813 0.0001790788 -0.5585460787 -0.0058338421 0.1901486549
745295530.0 0.0367666349 0.1845396588 -0.0058963306 -0.5577371941 -0.0052450186 -0.5581522469 -0.0038512117 0.1898170462
750295500.0 0.0386826362 0.1844376402 -0.0117670945 -0.5578439929 -0.0121956195 -0.5580935465 -0.0021462266 0.1902131142
755295470.0 0.0406249634 0.1840708081 -0.0178336991 -0.5583762491 -0.0183474522 -0.5581973102 -0.0001409405 0.1908124704
760295440.0 0.042435594 0.1844089103 -0.0241677492 -0.557512268 -0.024353029 -0.5573257759 0.0021512264 0.1901431441
765295410.0 0.0448075916 0.1836448348 -0.0303755905 -0.5569181326 -0.0299872387 -0.557234289 0.0036930665 0.190428143
770295380.0 0.0464577021 0.1837770057 -0.0358445092 -0.5566049208 -0.0360112316 -0.5572083419 0.0052293829 0.1909335693
775295350.0 0.0485687299 0.183191201 -0.041733315 -0.556480969 -0.0418268604 -0.5561380442 0.0073179454 0.1908845913
780295320.0 0.0505258001 0.1829395042 -0.0479654038 -0.5552500431 -0.0475949656 -0.5556222371 0.0094630604 0.1908281197
785295290.0 0.0522815424 0.1823903987 -0.053817115 -0.5552380254 -0.0540298721 -0.5553806574 0.0108487293 0.1913463184
790295260.0 0.0541848178 0.1820635363 -0.0597252278 -0.5547142973 -0.0597587389 -0.555245114 0.0125984122 0.1916505236
795295230.0 0.0560874369 0.1815140711 -0.0659917358 -0.5540652272 -0.0657087986 -0.5540868814 0.0144024958 0.1908807432
800295200.0 0.0576520174 0.1814509396 -0.0708907039 -0.5531901714 -0.0717842088 -0.5532436973 0.0164281746 0.191211898
805295170.0 0.059604068 0.1811503111 -0.0774403913 -0.5522834116 -0.0775197531 -0.5526830483 0.0185383377 0.1912410553
810295140.0 0.0618179434 0.1807412841 -0.0833496722 -0.5520198102 -0.0837301129 -0.5516807453 0.0202003251 0.1911116276
815295110.0 0.0636153917 0.180237389 -0.0890213805 -0.5507108355 -0.0892959842 -0.5510756308 0.0219491745 0.1910198306
820295080.0 0.0653400329 0.1795000599 -0.0944519418 -0.5493487251 -0.0948291469 -0.5499690149 0.0233209982 0.1918647695
825295050.0 0.0670008446 0.1789604956 -0.1011215382 -0.548403567 -0.101207569 -0.5487018533 0.0260051393 0.191320862
830295020.0 0.0691168901 0.1784548808 -0.1071051177 -0.5476011115 -0.1070644504 -0.5476078218 0.0277288771 0.1908363982
