!Created with skrf (http://scikit-rf.org).
# Hz S RI R 50.0 
!freq ReS11 ImS11 ReS21 ImS21 ReS12 ImS12 ReS22 ImS22
300000.0 -0.7708031396 -0.1397677738 -0.0007403176 0.0011319476 0.0003492685 0.0004492568 -0.0447201156 -0.0693505278
5299970.0 -0.7850033645 -0.0070238351 2.83072e-05 0.0002618157 -1.45063e-05 0.0001077496 -0.0483333733 0.0141030096
10299940.0 -0.7877820674 -0.0039321471 -8.55141e-05 2.70581e-05 -0.000112207 0.0001024465 -0.0429812105 0.0313244742
15299910.0 -0.7929497551 -0.0015695996 -0.0001559585 7.87056e-05 0.0001245395 0.0001134559 -0.0344558563 0.0455885289
20299880.0 -0.7996945702 0.0019247046 -8.7025e-05 8.195e-05 6.61177e-05 -4.75832e-05 -0.0248928636 0.056970198
25299850.0 -0.8063921775 0.0088648948 0.0001803401 0.0001971126 0.0001592665 -5.80226e-05 -0.014390999 0.0662051399
30299820.0 -0.8120182939 0.0168198926 -0.0001154028 -0.0001475825 3.65885e-05 -9.26014e-05 -0.003236144 0.0725780714
35299790.0 -0.816859896 0.0254300624 0.0001495946 0.0001909755 3.9597e-06 1.65046e-05 0.0081118596 0.0771086076
40299760.0 -0.8216064661 0.0341368439 -1.11452e-05 7.93766e-05 -8.83315e-05 -6.57223e-05 0.0192942758 0.0798519542
45299730.0 -0.8242230114 0.0444553912 -0.0001169298 0.0002314848 -2.80274e-05 0.0001394606 0.0297869373 0.081313024
50299700.0 -0.8268958146 0.0542523831 3.47097e-05 -3.55834e-05 0.0001045815 -2.9106e-06 0.0396747961 0.0814248412
55299670.0 -0.8288161963 0.0641873655 2.61934e-05 -0.0001003201 6.72747e-05 -0.0001246583 0.0483017029 0.0803640244
60299640.0 -0.8302344026 0.0744047407 4.90268e-05 0.0001435911 -3.69298e-05 6.21428e-05 0.0567185685 0.0781097003
65299610.0 -0.8310102075 0.0849713841 1.24626e-05 3.45017e-05 0.00022661 0.0001696537 0.0644102424 0.0758789865
70299580.0 -0.8312187303 0.0950364535 0.0002381799 0.0001410529 -4.55165e-05 6.99569e-05 0.0712077332 0.0729027048
75299550.0 -0.8313688857 0.1050279409 0.0001508647 -0.0001264326 0.000124558 9.07278e-05 0.0774820033 0.0699225579
80299520.0 -0.831463793 0.114735435 6.25888e-05 -0.0001579829 2.84303e-05 -9.22746e-05 0.082684255 0.0661222874
85299490.0 -0.8306264654 0.1238440702 -7.24782e-05 -7.03298e-05 -4.65358e-05 -3.22641e-05 0.0878173747 0.0625948861
90299460.0 -0.8294571162 0.1341329106 -0.0001834605 2.1333e-05 6.21588e-05 5.59421e-05 0.0924829868 0.0584754086
95299430.0 -0.8286951936 0.1432366312 -0.0001129999 0.0002560126 0.0001383987 7.47321e-05 0.0967023598 0.0546468999
100299400.0 -0.8278632343 0.1530686906 8.39554e-05 0.0001401428 -0.0001172063 -0.000173266 0.0996989135 0.0508675717
105299370.0 -0.8269105899 0.1620134402 3.67098e-05 -0.0001088703 0.0002074761 7.6221e-05 0.1032257005 0.0466159074
110299340.0 -0.8252427716 0.1711292275 0.0002825555 -8.5731e-05 -9.4626e-06 6.48628e-05 0.1055546225 0.0431456777
115299310.0 -0.8233252738 0.1807104174 2.6563e-05 -5.0085e-06 7.04284e-05 8.70377e-05 0.1082644612 0.0387334282
120299280.0 -0.8219517046 0.1895200211 1.82613e-05 5.36278e-05 6.31819e-05 0.000148685 0.1103409931 0.0348581598
125299250.0 -0.8206037683 0.1985035859 0.0001855431 0.000221457 7.43855e-05 9.37511e-05 0.1126575836 0.0310529861
130299220.0 -0.8185276887 0.2073931098 9.89184e-05 7.57175e-05 -0.0001538485 0.0001378598 0.1136981779 0.0274395075
135299190.0 -0.8162495658 0.2166645324 -0.0002646979 0.0001977203 0.0001648892 4.30417e-05 0.1152654095 0.0235892116
140299160.0 -0.8148740179 0.225793908 -7.2234e-05 0.0002056434 0.000118431 6.29147e-05 0.1165962533 0.0195554806
145299130.0 -0.812125326 0.2342904581 0.0001289057 3.61169e-05 0.0001226528 -4.17996e-05 0.1171480139 0.0165749967
150299100.0 -0.8101033964 0.2435872846 3.16045e-05 -0.0001083507 5.032e-05 -7.15142e-05 0.1183023259 0.0129146415
155299070.0 -0.8075337398 0.2523790854 4.34233e-05 0.000360979 0.000155251 6.54775e-05 0.1187765865 0.009346502
160299040.0 -0.8047044288 0.2609906293 -3.53644e-05 -7.86451e-05 0.0001007763 2.41865e-05 0.11987902 0.0061167582
165299010.0 -0.8020971401 0.2692650747 -1.00954e-05 -2.57191e-05 -3.82889e-05 0.0001277346 0.120072341 0.0028037302
170298980.0 -0.7997028101 0.2780529365 0.0001722971 2.13691e-05 0.0001603183 3.94529e-05 0.1204284714 6.71742e-05
175298950.0 -0.7967714235 0.287580161 0.0001090983 -0.0002412505 2.19645e-05 1.36967e-05 0.1204979226 -0.003336791
180298920.0 -0.7937781961 0.2952776554 8.38214e-05 9.47042e-05 5.26978e-05 0.0003035466 0.120887191 -0.0064528941
185298890.0 -0.7907245021 0.3044646739 0.0001865808 1.03457e-05 6.16907e-05 0.0001262225 0.1204940032 -0.0093661317
190298860.0 -0.787191759 0.3121127764 0.0001362301 0.0001445734 2.68295e-05 -3.06638e-05 0.1210268494 -0.0120815275
195298830.0 -0.7843459565 0.3207994063 0.0001597162 0.0001404572 2.52611e-05 -0.0001545548 0.1203002867 -0.0150391259
200298800.0 -0.7810101776 0.3294487613 0.0004131768 0.0001844628 0.000114659 -8.5704e-05 0.1207693354 -0.0178460668
205298770.0 -0.7771021108 0.33726846 -8.0859e-06 -5.6137e-05 0.0001773151 5.37504e-05 0.1203134414 -0.0205461468
210298740.0 -0.7730560041 0.3463477281 0.0001289591 0.0001391036 0.0003724753 2.20708e-05 0.1198490136 -0.0232016427
215298710.0 -0.7702623383 0.353789175 -1.62532e-05 -9.07479e-05 3.62509e-05 -8.73417e-05 0.1190389414 -0.0255605384
220298680.0 -0.7671571103 0.3623967333 -8.43397e-05 -2.47501e-05 -2.08754e-05 1.34916e-05 0.1189024095 -0.0281993367
225298650.0 -0.7629665592 0.3709064699 0.0003087501 0.0001078188 -1.36328e-05 0.0001592396 0.117972159 -0.0306868992
230298620.0 -0.7587612309 0.378870268 0.0001225321 4.42182e-05 -1.19253e-05 0.0001652176 0.1180030309 -0.0330279184
235298590.0 -0.7544213184 0.386849532 0.0001481325 -0.0001622123 9.153e-05 5.27154e-05 0.1170692681 -0.0356156912
240298560.0 -0.7504268267 0.3950556673 -1.1231e-05 2.13802e-05 4.68807e-05 -3.02727e-05 0.1164743824 -0.0377752385
245298530.0 -0.7465426547 0.4033917809 0.0002360178 -2.62296e-05 -3.33652e-05 -0.0001301596 0.1159370243 -0.0399031364
250298500.0 -0.7424688968 0.4106421529 -0.0001129714 1.54568e-05 0.0001796779 0.0001632703 0.1153002445 -0.0421354639
255298470.0 -0.7379371387 0.4186102958 0.000208623 6.62462e-05 0.0001836962 1.33433e-05 0.1145136317 -0.0443911919
260298440.0 -0.7340033869 0.4262851803 0.00019102 0.0001426715 0.0001734867 -4.6927e-05 0.1133771926 -0.0464933359
265298410.0 -0.7292348666 0.4345342315 6.45077e-05 0.0001559325 -6.5694e-05 -9.6751e-06 0.112882969 -0.0484602034
270298380.0 -0.7247978363 0.4418461 0.0003834236 -2.25322e-05 0.0001261816 0.0001091754 0.1120918414 -0.0508032285
275298350.0 -0.7197865702 0.4493425845 -1.52498e-05 7.0483e-05 7.06097e-05 -0.0002493078 0.111154498 -0.0521770163
280298320.0 -0.7148374549 0.4568145197 -7.68723e-05 0.0001864304 -2.72918e-05 8.42985e-05 0.1105786749 -0.0545799679
285298290.0 -0.7098323585 0.4644084439 0.000135103 0.0001605677 -0.0001577268 2.87487e-05 0.1092938761 -0.05629148
290298260.0 -0.7055366098 0.4717425966 8.10052e-05 1.03156e-05 0.0001368357 0.0001099581 0.1087660076 -0.0581403883
295298230.0 -0.7005252293 0.4791937924 0.0001469891 -4.91391e-05 -9.1217e-06 0.0001104591 0.1076567997 -0.0599017617
300298200.0 -0.6946918595 0.4868053047 -2.78e-05 -5.29646e-05 0.0001696334 -0.0001167243 0.1067676389 -0.0618178394
305298170.0 -0.6898671522 0.4942657491 0.0002569866 -0.0001903017 -1.92274e-05 9.0641e-05 0.1060346778 -0.063435649
310298140.0 -0.6847226352 0.5006980616 0.0003001047 1.39307e-05 -6.88542e-05 0.000100185 0.1049950845 -0.0651911794
315298110.0 -0.6791161568 0.5078373246 -4.3333e-06 -0.0001643166 -8.69687e-05 9.08523e-05 0.1040443354 -0.0673341546
320298080.0 -0.674241377 0.515633203 -0.0001750696 -0.0001125343 7.57935e-05 0.000282785 0.1029076289 -0.069146422
325298050.0 -0.6685918024 0.5222721709 4.94783e-05 -3.75925e-05 -1.97495e-05 6.19175e-05 0.1015731843 -0.0711728701
330298020.0 -0.6628907587 0.5292139017 -0.0002006183 -2.7726e-06 0.0002031508 0.0001762397 0.1003719564 -0.0726761559
335297990.0 -0.6570590314 0.5367562165 0.0003769185 -5.56836e-05 0.0002138193 8.78206e-05 0.098779645 -0.0740607534
340297960.0 -0.6521358049 0.5428406414 2.49513e-05 -0.0001665362 5.24116e-05 -0.0001198441 0.0976339835 -0.0755619242
345297930.0 -0.6466122476 0.5492499392 0.0001466343 5.52162e-05 9.19689e-05 5.09369e-05 0.0960648081 -0.0768561279
350297900.0 -0.6410419359 0.5557490196 -1.36346e-05 2.0394e-06 7.27392e-05 4.88187e-05 0.0950436345 -0.0782831955
355297870.0 -0.6340648403 0.5629269884 7.674e-06 0.0001713026 0.0001906663 5.8963e-06 0.0934773709 -0.0794968392
360297840.0 -0.6282174344 0.5689717756 7.98871e-05 0.0001313651 0.000239732 -2.19318e-05 0.0920137571 -0.0809818423
365297810.0 -0.6223407631 0.57557586 0.0003407918 0.0002096895 3.54163e-05 -3.04905e-05 0.0907127468 -0.0818803132
370297780.0 -0.616168966 0.5819404895 9.94991e-05 -3.23783e-05 7.90343e-05 -3.65807e-05 0.0891782801 -0.0832046848
375297750.0 -0.6102676277 0.5883097645 5.14873e-05 0.0001483538 0.0001408187 -0.000212342 0.0880688614 -0.0843239928
380297720.0 -0.6039070274 0.5948708078 8.18421e-05 0.0002524363 0.0003292477 -7.27777e-05 0.0869185736 -0.0855941726
385297690.0 -0.5980645356 0.600338924 -8.30944e-05 -0.0001046722 0.0002533185 3.46583e-05 0.0850668398 -0.0862987161
390297660.0 -0.5915181746 0.6071619044 0.0001646912 -0.0001033861 4.7514e-06 -8.4951e-05 0.0839647444 -0.0877923718
395297630.0 -0.5856070768 0.6133515984 0.0003131069 -2.30537e-05 3.56969e-05 -5.57086e-05 0.0822501992 -0.0887684523
400297600.0 -0.5787791398 0.6192321323 7.4127e-06 5.23228e-05 9.59895e-05 2.26907e-05 0.0810139907 -0.0897664244
405297570.0 -0.5727465046 0.6252488345 4.41997e-05 -9.1172e-06 -3.8981e-06 9.87576e-05 0.0794991541 -0.090565078
410297540.0 -0.5652658331 0.6308526714 0.0002044289 -0.0001617574 0.0001295086 9.39076e-05 0.0779824221 -0.0917033831
415297510.0 -0.5593372398 0.6363693422 -0.0001001261 2.90827e-05 0.000124133 -3.52905e-05 0.0765784306 -0.0923703281
420297480.0 -0.5520796043 0.6422358796 -5.63139e-05 0.000281088 3.55441e-05 0.0002251053 0.0748873645 -0.093876989
425297450.0 -0.5462433815 0.6475781956 1.0655e-06 -0.0001360874 8.45499e-05 -1.06463e-05 0.0739764591 -0.0947101719
430297420.0 -0.5391676092 0.6534514693 0.0002310532 0.0001368276 5.5508e-05 -4.43808e-05 0.0722135479 -0.0956942091
435297390.0 -0.5324321982 0.6590854435 0.0001208992 0.0001025135 0.0002098753 0.0002373788 0.0708903516 -0.0963039235
440297360.0 -0.5252069193 0.6641919724 1.47661e-05 3.80647e-05 0.0001030511 0.0001167179 0.0687834766 -0.0973157027
445297330.0 -0.5184272341 0.6703634731 -1.4867e-06 5.05578e-05 0.0001365833 -2.51199e-05 0.0675376467 -0.0983542412
450297300.0 -0.5109286247 0.6749003903 -1.34625e-05 0.0003168332 0.000205919 0.0001364038 0.065886553 -0.0987585858
455297270.0 -0.5041895909 0.6798951273 -9.1654e-05 -9.3937e-05 -2.95406e-05 4.25039e-05 0.0641679247 -0.1000856656
460297240.0 -0.4983425802 0.6851774742 0.0004087687 3.01347e-05 0.0001003757 0.0003217061 0.0630917926 -0.1001369474
465297210.0 -0.4899019063 0.6906132727 0.0002566893 0.0001018636 -1.9157e-05 7.32727e-05 0.0608140246 -0.1016212458
470297180.0 -0.4827775295 0.6950855303 0.0002600228 -0.0004288293 2.53073e-05 0.0002840127 0.0592481371 -0.1018746091
475297150.0 -0.4759057466 0.7004028772 -3.96144e-05 6.86296e-05 -1.98002e-05 2.44295e-05 0.0579781772 -0.1028244069
480297120.0 -0.4692423014 0.7045907893 8.29024e-05 3.9031e-05 0.0002855711 -4.9186e-06 0.0564808806 -0.1029126017
485297090.0 -0.4614052215 0.709135572 0.0001066086 -6.42255e-05 8.63912e-05 3.12794e-05 0.0547579764 -0.1037937615
490297060.0 -0.4543528619 0.7143424796 0.0003014121 -3.32087e-05 -7.86474e-05 0.0002000945 0.0530841651 -0.1046596998
495297030.0 -0.4474628952 0.7188791118 0.0003061442 -6.5894e-06 0.0001276831 -0.000211221 0.0514628909 -0.1051987098
500297000.0 -0.4384751758 0.7233512068 0.0001899508 0.0003201214 -0.0001217645 0.0001505044 0.0496924044 -0.1056483029
505296970.0 -0.4315737406 0.727178469 0.0003107927 -0.0001913578 0.0002373014 -3.17326e-05 0.0480500106 -0.1060874769
510296940.0 -0.4245939083 0.7320517295 0.0001827803 -0.0001841895 5.98373e-05 0.000160631 0.0463506265 -0.1065150309
515296910.0 -0.417028321 0.736254585 -0.0001030373 0.0002867631 -5.1765e-05 -6.73501e-05 0.0446684025 -0.1072664051
520296880.0 -0.4085584897 0.7403217371 0.0001854078 -3.4725e-05 0.0003583733 9.30834e-05 0.0432986512 -0.1079042353
525296850.0 -0.4017598522 0.7449484451 0.0002640073 9.47191e-05 0.0001670171 2.8083e-06 0.0416303409 -0.1081097978
530296820.0 -0.3941580463 0.7480866614 0.0002791842 -2.18253e-05 6.98529e-05 0.0002033615 0.0398529759 -0.1087878966
535296790.0 -0.3860259849 0.752844863 0.0002367845 -2.28423e-05 2.96691e-05 8.50435e-05 0.0380184792 -0.109400538
540296760.0 -0.3783368403 0.7556818531 0.0001128635 0.0001358506 -2.42016e-05 5.57631e-05 0.0362005922 -0.1094664873
545296730.0 -0.3714817846 0.7604647906 0.0001667472 -6.01908e-05 0.0002090918 -6.25275e-05 0.0348872028 -0.1104048261
550296700.0 -0.3631519522 0.7637392905 0.0001944154 7.45252e-05 8.20251e-05 -6.80015e-05 0.0331016708 -0.1105042176
555296670.0 -0.354732433 0.7667948107 -3.2923e-06 0.0001369505 0.0001336212 1.56656e-05 0.0308580255 -0.1105983569
560296640.0 -0.3476425598 0.7705715472 8.07043e-05 -0.0001140488 4.85114e-05 -8.35507e-05 0.0300997529 -0.1113040212
565296610.0 -0.3395366168 0.7736580259 0.0001707606 -0.0001019477 0.0001653442 0.0001060048 0.0279464133 -0.111343306
570296580.0 -0.3311034247 0.7774815102 0.0002763106 7.73245e-05 0.000169236 -1.57296e-05 0.0261080372 -0.1112886335
575296550.0 -0.3233601024 0.7803225406 0.0002684673 -9.19029e-05 0.0001930814 4.49204e-05 0.0248103156 -0.1118113767
580296520.0 -0.3155198633 0.784082124 7.81962e-05 1.46932e-05 0.0001421116 -4.63079e-05 0.0225463977 -0.1119343642
585296490.0 -0.3078940815 0.7871121202 3.5176e-05 0.0001753167 -4.876e-06 7.51253e-05 0.020766331 -0.1127261816
590296460.0 -0.2998479794 0.7899345369 1.10509e-05 -9.2687e-05 0.0001066177 2.11908e-05 0.0195157103 -0.112288874
595296430.0 -0.2916288962 0.7932281015 0.0001026346 -4.20695e-05 3.0423e-06 -4.41949e-05 0.0176040715 -0.1127846548
600296400.0 -0.2836822268 0.7956338572 4.08135e-05 -3.44762e-05 0.0001091322 3.88814e-05 0.0159761579 -0.1128792851
605296370.0 -0.2756043029 0.799060498 9.16541e-05 -0.0001710926 4.36051e-05 1.73982e-05 0.0142938276 -0.1128550265
610296340.0 -0.2671195232 0.8016719012 0.0002582553 0.0002637641 0.0002898265 4.08674e-05 0.01262911 -0.1130985735
615296310.0 -0.2590729934 0.8046097055 -9.1368e-06 -0.0002110929 3.1103e-06 0.0001177218 0.0110335866 -0.1131196708
620296280.0 -0.2509234627 0.8062722844 0.0002356617 0.0001124555 5.84014e-05 -0.0001350583 0.0091667276 -0.1131219113
625296250.0 -0.2419930709 0.8090453951 0.0002960873 -0.0001175287 0.000276418 -6.20119e-05 0.0075688839 -0.1130547172
630296220.0 -0.2339706077 0.8119562224 0.0002260867 -0.0001406262 0.0001434523 -0.0001656922 0.0055171329 -0.1127263493
635296190.0 -0.2259862038 0.814072715 0.0001372035 8.4625e-05 9.70381e-05 7.89654e-05 0.0041352827 -0.1127916722
640296160.0 -0.2182616044 0.8150441804 -0.0001432077 5.50963e-05 3.14405e-05 -0.0001283535 0.0022340941 -0.1132804477
645296130.0 -0.2104712406 0.8183290771 0.0002237813 -0.0001770881 6.80607e-05 1.9785e-05 0.0005651974 -0.1129623419
650296100.0 -0.2012879594 0.820188605 0.0001091358 1.15204e-05 -1.5219e-05 0.0002210562 -0.0012835429 -0.112690929
655296070.0 -0.1929175625 0.822165658 -8.1674e-06 -5.2944e-05 8.02406e-05 -5.8992e-06 -0.0029049239 -0.1125135271
660296040.0 -0.1856604127 0.823691592 0.0001024663 4.0346e-05 -8.9963e-06 0.0001055684 -0.0046998766 -0.1125907605
665296010.0 -0.1761748984 0.8259666216 0.0001277822 -3.74124e-05 -6.673e-06 -8.39875e-05 -0.0061226763 -0.1123662938
670295980.0 -0.167840708 0.8273991027 -9.70959e-05 -8.00363e-05 0.0001921448 -5.95371e-05 -0.007632771 -0.1120543485
675295950.0 -0.1601124687 0.8287751847 0.0001240888 -1.40952e-05 -8.76895e-05 -0.0001579062 -0.0092410191 -0.1121664964
680295920.0 -0.1518549874 0.8302872622 0.000132045 -0.000178758 0.0002293826 -0.0001101506 -0.0110297876 -0.1118008463
685295890.0 -0.1427281303 0.8317586357 1.15262e-05 -0.000115406 0.0001328477 -8.83302e-05 -0.0128295353 -0.111652707
690295860.0 -0.1344017964 0.83379934 5.2622e-06 0.0001133504 0.0001979215 5.07182e-05 -0.0142446845 -0.1112742817
695295830.0 -0.1261808024 0.8339282522 0.0001669644 0.0001596022 0.0002782287 -9.07297e-05 -0.0164949927 -0.1106890037
700295800.0 -0.117552464 0.835864463 7.67506e-05 -0.0001209151 0.0001167136 -7.52265e-05 -0.0177277272 -0.1107077663
705295770.0 -0.1087618267 0.837542656 7.8369e-05 -0.000105663 0.000301086 -4.27936e-05 -0.0194101512 -0.1100355479
710295740.0 -0.100805975 0.8380934993 0.0001038087 -0.000185356 9.31934e-05 0.0001128061 -0.0213391705 -0.109514086
715295710.0 -0.0929252817 0.8393095628 9.80678e-05 -6.44205e-05 6.72202e-05 0.000169718 -0.0226748814 -0.1092522309
720295680.0 -0.0845307139 0.8393390706 0.0002440807 3.8063e-06 0.0001021299 -0.0002141464 -0.0239953642 -0.1089189783
725295650.0 -0.0751951653 0.8407372732 0.0002462825 7.7187e-06 0.0001374207 -8.84425e-05 -0.0261685756 -0.1083392188
730295620.0 -0.0674606312 0.8410715752 0.0001906215 -8.26943e-05 0.0001029641 6.66402e-05 -0.0275464892 -0.1082017882
735295590.0 -0.0583933307 0.8420080887 4.60901e-05 2.30155e-05 1.68925e-05 -0.0003144929 -0.0290955759 -0.1075152364
740295560.0 -0.0497257812 0.8422942442 0.000161822 -7.00633e-05 0.0002540083 5.82114e-05 -0.030818812 -0.1075113446
745295530.0 -0.041605701 0.842789801 0.0001678248 -0.0001518493 0.000288915 -0.000123165 -0.0326636235 -0.1067938933
750295500.0 -0.0333732131 0.8433681202 -8.75239e-05 -0.0002268553 0.0001284016 -6.13273e-05 -0.0341764513 -0.1060966627
755295470.0 -0.0246278706 0.8435121508 -2.49335e-05 -3.91974e-05 0.0002984196 -0.0001605789 -0.035741839 -0.1052414903
760295440.0 -0.0159572026 0.8440156475 6.89577e-05 -4.05286e-05 0.0001616455 7.6649e-05 -0.0374447304 -0.1048697247
765295410.0 -0.0080494196 0.8433460619 0.0001137484 4.71851e-05 0.0002003293 -0.0001933228 -0.038476247 -0.1042632943
770295380.0 0.0008139619 0.8435550281 2.15991e-05 0.0002170444 0.0001089458 7.37674e-05 -0.0401121329 -0.1036700187
775295350.0 0.0090481841 0.8436871323 0.000188461 -0.0001582266 0.0001205981 -0.0001691014 -0.0418346314 -0.1034420066
780295320.0 0.0179680758 0.843013487 0.0002083635 -0.0001237376 0.0002569984 -0.000172223 -0.0433603452 -0.1023103239
785295290.0 0.0263899576 0.8437752714 0.0002960662 6.06044e-05 -7.43531e-05 -0.0002137772 -0.0451893455 -0.1013660962
790295260.0 0.0343515256 0.8428384238 0.0001870373 0.0001551915 0.0001776935 0.0002484255 -0.0465020886 -0.1010654211
795295230.0 0.0429751115 0.8429920334 8.37807e-05 -0.0001984873 5.25e-05 -0.0001061363 -0.0479668847 -0.100040299
800295200.0 0.0515829784 0.842770622 0.0001833167 4.1737e-06 -0.0002145086 -6.32552e-05 -0.0495975853 -0.0994144937
805295170.0 0.059763448 0.8421038846 3.19861e-05 -0.0001914934 0.0001336551 6.10454e-05 -0.0510952864 -0.098702944
810295140.0 0.0680134521 0.841507923 0.0002084023 -0.00012885 0.0002547259 -7.87801e-05 -0.0525780946 -0.0977254496
815295110.0 0.076918241 0.8401896931 0.0001517301 -0.0003211063 0.0001313695 -7.3035e-06 -0.054092967 -0.0969403837
820295080.0 0.0851693706 0.8390448929 0.0002204594 1.9861e-05 0.0001399422 -6.39506e-05 -0.055801343 -0.0958972342
825295050.0 0.0935930028 0.8383815844 -2.11423e-05 -7.6136e-05 0.0002524853 -0.0001383505 -0.0567903097 -0.0951505167
830295020.0 0.1026051103 0.8380479529 0.0002699887 -6.32918e-05 4.07016e-05 -9.7822e-06 -0.0585749258 -0.0945267008
835294990.0 0.1106674077 0.8368136412 0.0004045222 -0.0001957528 2.30952e-05 -6.49583e-05 -0.0599147042 -0.0936252674
840294960.0 0.1189064485 0.8354164221 0.0004202907 -0.000112592 5.47747e-05 -0.0001789775 -0.0612608442 -0.092276594
845294930.0 0.1268721015 0.8339492606 0.0001189947 -6.55827e-05 1.0988e-05 0.000109388 -0.0624514764 -0.0914075382
850294900.0 0.1354702549 0.8326583591 4.52392e-05 -7.77932e-05 0.0002126515 8.90465e-05 -0.0640323108 -0.0902370534
