!Created with skrf (http://scikit-rf.org).
# Hz S RI R 50.0 
!freq ReS11 ImS11 ReS21 ImS21 ReS12 ImS12 ReS22 ImS22
300000.0 -0.772093051 -0.164410885 -0.0008310031 0.0009603443 -0.0007394033 -8.23697e-05 0.8597100203 -0.0026692824
5299970.0 -0.786301659 -0.009045328 8.94472e-05 -2.89835e-05 -6.60515e-05 0.0001723431 0.8595081555 -0.0104742491
10299940.0 -0.7894849504 -0.0060554531 6.03899e-05 -8.58739e-05 2.39363e-05 4.21164e-05 0.8581075489 -0.0191416745
15299910.0 -0.7942350816 -0.0033061159 0.0001210219 -0.0001873973 4.60924e-05 -0.0001111176 0.8572936038 -0.0274182094
20299880.0 -0.8008069372 0.0006792659 -4.73508e-05 -7.57918e-05 7.62832e-05 5.78067e-05 0.8565782541 -0.0353377484
25299850.0 -0.8075517573 0.0068251043 1.65083e-05 -5.96635e-05 -7.04873e-05 -9.75982e-05 0.8553760533 -0.0438552044
30299820.0 -0.8139379492 0.0140920675 2.10285e-05 -4.561e-07 1.11972e-05 -0.0001537611 0.8553913035 -0.0522529485
35299790.0 -0.8186106187 0.0228181463 -6.10128e-05 4.08988e-05 -7.91587e-05 -0.0002988677 0.8542505674 -0.0611441296
40299760.0 -0.8236209907 0.0325429774 2.02066e-05 2.20534e-05 4.2628e-06 2.3669e-05 0.8540561589 -0.0685217667
45299730.0 -0.8263629907 0.0419221114 -0.0001439786 -5.52645e-05 9.11894e-05 4.15316e-05 0.8530626848 -0.0773354271
50299700.0 -0.8293863071 0.0514636381 0.0001341844 6.41237e-05 0.0001453686 1.132e-06 0.8522315425 -0.0860606236
55299670.0 -0.8315357462 0.0615701446 2.45642e-05 -8.02694e-05 0.0002480559 -1.63316e-05 0.850690164 -0.0935938462
60299640.0 -0.8322929199 0.071545234 3.26818e-05 -1.75e-05 -6.0071e-05 -5.37903e-05 0.8498389295 -0.1029101815
65299610.0 -0.8338712583 0.0820440039 -3.66444e-05 -9.87395e-05 -0.000135657 3.44945e-05 0.8493652804 -0.1107485158
70299580.0 -0.8338469047 0.0916425542 -4.52614e-05 4.15465e-05 -0.0001187095 2.32084e-05 0.847659843 -0.1185956172
75299550.0 -0.8342095836 0.1013544813 4.61922e-05 2.9449e-06 6.48597e-05 -6.839e-05 0.8462351765 -0.1266153109
80299520.0 -0.8338229244 0.1118499918 8.5958e-06 -6.0663e-06 -2.70947e-05 -6.12692e-05 0.8448499888 -0.1354749384
85299490.0 -0.8327223376 0.1211450159 0.0002877265 -3.09279e-05 -4.4298e-05 -6.82152e-05 0.8437973467 -0.1432753576
90299460.0 -0.8328427631 0.1317562723 2.86523e-05 4.1795e-06 0.0001416984 -0.0001153161 0.842609046 -0.1518283971
95299430.0 -0.831469189 0.1406698784 0.0001113182 0.0002292845 -9.07233e-05 -0.0002188979 0.8403669291 -0.1600646826
100299400.0 -0.8304031727 0.1503390139 2.65719e-05 7.78066e-05 -1.52077e-05 0.0001321289 0.8389568779 -0.1682723537
105299370.0 -0.8293410689 0.1594381084 0.0001582751 -4.7811e-06 7.06394e-05 -4.35081e-05 0.837296011 -0.1764238129
110299340.0 -0.827272263 0.1681981937 -0.0001628853 0.000128732 -0.0001268548 -6.64492e-05 0.8353908964 -0.1845058376
115299310.0 -0.8261749158 0.1772964549 4.86029e-05 5.74979e-05 0.000130517 -7.7989e-05 0.833527832 -0.1927249322
120299280.0 -0.8244155819 0.186754266 7.74467e-05 -1.20106e-05 4.27027e-05 2.92858e-05 0.8317668329 -0.20063262
125299250.0 -0.822421542 0.1954857037 9.8918e-05 -0.0001020348 -0.0001111599 -0.0002448192 0.8294821243 -0.2093241667
130299220.0 -0.8209625884 0.2054738058 -0.0001882019 0.0002468898 4.16136e-05 -1.92248e-05 0.8277434895 -0.2164609465
135299190.0 -0.8180138572 0.2141498114 -0.0001379266 -1.24918e-05 0.0001268749 2.8016e-05 0.8254495362 -0.2252506752
140299160.0 -0.8171224565 0.2236908452 0.0001358673 0.0001416699 4.87836e-05 -1.32366e-05 0.8228662169 -0.2331118322
145299130.0 -0.8147369455 0.2323915033 8.38458e-05 -0.0001154367 0.0001293984 -2.13373e-05 0.8208158184 -0.2418423426
150299100.0 -0.8119018996 0.2409894327 5.52014e-05 -2.27437e-05 7.84028e-05 -0.000212354 0.8180602158 -0.2494763291
155299070.0 -0.8101384867 0.2501176226 -0.0001628291 -1.34626e-05 8.43575e-05 4.40897e-05 0.8156477511 -0.2573726544
160299040.0 -0.8078186946 0.2588940862 -0.0001516788 -2.83502e-05 -0.0001647221 5.82208e-05 0.8130208535 -0.2655157342
165299010.0 -0.8043985755 0.2675052434 -8.10084e-05 2.5894e-05 3.16264e-05 9.3771e-06 0.8103666284 -0.2732022671
170298980.0 -0.8010945225 0.2761872149 8.0589e-06 -7.61662e-05 2.66654e-05 -2.35857e-05 0.806938742 -0.2814861211
175298950.0 -0.7987876164 0.2840798214 0.0001511448 -0.0002562844 0.000166955 4.94464e-05 0.8049423253 -0.2891408841
180298920.0 -0.7961268231 0.2934056993 7.97209e-05 -4.51611e-05 2.77997e-05 8.2046e-05 0.8018135745 -0.2970009653
185298890.0 -0.7926116045 0.3019150947 -2.34911e-05 -8.22932e-05 -8.465e-06 -9.294e-06 0.7994344262 -0.3043071416
190298860.0 -0.7897781292 0.310949866 0.0001589917 6.35291e-05 -2.88805e-05 9.68298e-05 0.795763937 -0.3129836966
195298830.0 -0.7863469376 0.3194172749 6.33029e-05 0.0001934193 1.32565e-05 1.40007e-05 0.7929095336 -0.3204663146
200298800.0 -0.7828172932 0.3283403118 -9.43626e-05 -0.000188701 0.0001206986 0.0001610886 0.7889258844 -0.3282238905
205298770.0 -0.7790596551 0.3365657269 -0.0001310169 -0.0001749418 -0.0002320891 5.733e-06 0.7866078477 -0.3359089657
210298740.0 -0.7762491091 0.3449132302 -4.30169e-05 9.41341e-05 -0.0001363152 0.0001244766 0.7830237019 -0.3440956741
215298710.0 -0.7723106004 0.3533758633 -6.77035e-05 -6.77331e-05 5.12947e-05 6.9279e-06 0.779292217 -0.351646643
220298680.0 -0.7686201475 0.3604820924 -0.0001775328 -0.0001684809 -0.0001200514 8.34786e-05 0.7755796091 -0.3582791269
225298650.0 -0.7649823931 0.3695359661 5.85728e-05 -1.16199e-05 -0.0001118674 -0.0001884042 0.7720022312 -0.3660918179
230298620.0 -0.7611152898 0.3780143291 -0.0001465284 -3.99473e-05 5.67684e-05 -6.70779e-05 0.7687634164 -0.3736473999
235298590.0 -0.7572025761 0.386129859 4.41136e-05 5.43585e-05 7.79194e-05 -6.50309e-05 0.7645784064 -0.3810308256
240298560.0 -0.7526032545 0.3936874771 0.0001591614 0.0001873329 0.0002394788 -4.4579e-06 0.7612946637 -0.3887213397
245298530.0 -0.7485114201 0.4014973719 -0.0001511907 -0.0001390109 -4.58851e-05 8.75042e-05 0.7572720947 -0.3960986462
250298500.0 -0.7441164269 0.4091625213 5.01504e-05 0.0001579441 -0.0001119471 -7.72134e-05 0.7536371833 -0.4031594838
255298470.0 -0.7406726631 0.4175268884 -0.0001666846 4.11899e-05 3.1544e-06 -0.0002074333 0.749283255 -0.4110971891
260298440.0 -0.7363736363 0.425062676 5.9473e-06 -4.81215e-05 -1.03898e-05 -1.97141e-05 0.7451120824 -0.4183389815
265298410.0 -0.7318621161 0.4329255335 -9.08123e-05 -0.0001377314 -8.98642e-05 -2.35844e-05 0.7412260175 -0.4251378393
270298380.0 -0.7276665252 0.4403633573 0.0003419399 0.0001830452 -0.0001547804 -0.0001982439 0.7375144731 -0.4325163644
275298350.0 -0.7228628545 0.4483419985 0.0001485056 5.9542e-06 -0.0001316629 -3.1335e-06 0.7329469151 -0.4403298033
280298320.0 -0.7179064969 0.4555424675 0.0002029507 -0.0001145887 -1.73712e-05 -0.0001083402 0.7285033594 -0.4473211878
285298290.0 -0.7138486921 0.4629164039 9.73565e-05 4.77858e-05 -0.0002629244 -1.15322e-05 0.7244398562 -0.4542484206
290298260.0 -0.7084426733 0.4715356531 -0.0001017223 -5.16134e-05 5.97442e-05 -0.0001161428 0.7203038817 -0.4609350016
295298230.0 -0.7039758993 0.4776995159 7.79442e-05 6.28259e-05 2.63358e-05 6.5577e-06 0.7157166262 -0.4682297652
300298200.0 -0.6992851895 0.4853954034 -1.84405e-05 -0.0001791167 -5.84765e-05 -7.472e-07 0.7114175713 -0.4753823865
305298170.0 -0.6943128234 0.4925826627 -9.06912e-05 -4.6658e-06 0.0001765871 0.0001761559 0.7063785095 -0.4825260602
310298140.0 -0.6884832142 0.4997667183 -6.70739e-05 3.12484e-05 -2.46262e-05 4.619e-07 0.7022959951 -0.4890503018
315298110.0 -0.6844065556 0.5071686369 -0.0001535198 -0.0001939994 -4.78653e-05 2.3025e-05 0.6973821553 -0.4970576715
320298080.0 -0.6786077352 0.5143555584 3.9895e-06 0.000196531 7.0557e-05 2.14404e-05 0.6924320929 -0.504834492
325298050.0 -0.6732968856 0.5205427172 0.0001905004 3.65365e-05 3.3842e-05 5.2617e-06 0.6875700176 -0.5121794447
330298020.0 -0.6685136199 0.5282151155 -4.29282e-05 -0.0001867843 -0.0001667975 5.89532e-05 0.6821592674 -0.5200520346
335297990.0 -0.6629772904 0.5345429022 9.58514e-05 9.16597e-05 -0.0001774417 0.0001003283 0.6758791854 -0.5264460169
340297960.0 -0.6576398355 0.5414020073 -1.53331e-05 0.000137064 0.0001754871 -8.65921e-05 0.6698865161 -0.5328621331
345297930.0 -0.6517620414 0.5482414335 9.54595e-05 8.21019e-05 0.0001484768 1.865e-07 0.6637233323 -0.5391083862
350297900.0 -0.645957236 0.5548603579 0.0001368424 8.18657e-05 -0.0001358329 -9.64831e-05 0.6581669253 -0.5455959811
355297870.0 -0.6408547701 0.5612883127 -0.0001853872 -0.00012525 -0.0001291811 0.000112121 0.6530617598 -0.5514413013
360297840.0 -0.6351526498 0.5681024241 5.10877e-05 -3.27585e-05 -7.12986e-05 -0.0001861608 0.6470400092 -0.5570856469
365297810.0 -0.6296673497 0.574686542 -3.04162e-05 0.0001198309 -0.0001721634 9.19825e-05 0.6414007244 -0.5637880031
370297780.0 -0.6233993694 0.5801381576 0.0001365003 0.0001466889 -3.94446e-05 -5.10527e-05 0.6355973715 -0.5693964774
375297750.0 -0.617580848 0.5871463036 -1.23555e-05 0.00028808 -3.02759e-05 9.62503e-05 0.6298382964 -0.5759816772
380297720.0 -0.6115043407 0.5933849015 -7.78032e-05 0.0001270193 -6.76857e-05 -0.0001791049 0.6245181109 -0.5815657195
385297690.0 -0.6056299782 0.5993815096 4.47675e-05 2.55375e-05 -0.000297869 0.0001145798 0.6179851561 -0.5879393844
390297660.0 -0.5984963416 0.6054596048 -0.0001960957 0.0002920882 -5.01029e-05 7.41913e-05 0.612073664 -0.5936528202
395297630.0 -0.5924704912 0.6120722462 0.0002683805 0.0001050092 -0.0001640305 0.0001213605 0.6062977109 -0.5995643343
400297600.0 -0.5859268364 0.6183376496 5.93406e-05 -7.27302e-05 -4.53536e-05 -3.41509e-05 0.6001805477 -0.605226556
405297570.0 -0.5803311951 0.6230678985 -0.0001891051 0.000153595 -9.6444e-06 0.000100003 0.5943262067 -0.6106644024
410297540.0 -0.5735553741 0.6297805568 9.8697e-05 -8.24936e-05 -6.27015e-05 -0.0001345787 0.58830577 -0.617047638
415297510.0 -0.5674628922 0.63561406 0.0002048531 0.0001808366 -6.90436e-05 -0.0002486888 0.5821346597 -0.6222554927
420297480.0 -0.5611413231 0.6411526537 -7.12226e-05 -0.000283663 8.35411e-05 -8.16533e-05 0.5761816974 -0.627732337
425297450.0 -0.5544900433 0.6466068057 9.57324e-05 9.59804e-05 0.0001019139 0.0001743697 0.5699273601 -0.6338268161
430297420.0 -0.5479766331 0.6519596114 -0.0002853134 -0.0001808893 -7.52579e-05 9.85835e-05 0.5633949021 -0.6397212921
435297390.0 -0.540718437 0.657002945 2.2263e-06 6.43866e-05 8.0492e-06 -0.0002210504 0.5568215962 -0.6452290323
440297360.0 -0.5341208102 0.6632336069 0.0001693777 0.0001501706 5.97227e-05 -2.05995e-05 0.5505819843 -0.6498960193
445297330.0 -0.5269123496 0.6679633972 -0.0002477284 0.0001308816 0.0001353714 -3.13749e-05 0.5437266826 -0.6546316676
450297300.0 -0.5199278571 0.6736675952 0.0002172359 7.44069e-05 7.08485e-05 6.84383e-05 0.5375989025 -0.6601320498
455297270.0 -0.5134553057 0.6787995441 4.63033e-05 0.0001727004 4.2102e-06 4.2623e-05 0.5308756889 -0.6652717126
460297240.0 -0.5060258345 0.6840091591 0.0001815515 0.0001100246 4.8886e-06 -9.31708e-05 0.5236573915 -0.6708648661
465297210.0 -0.4990054681 0.6892266213 0.000132749 1.84499e-05 -3.50812e-05 5.466e-07 0.5173448968 -0.6752644076
470297180.0 -0.4919993033 0.694224676 0.00031187 -0.0001479052 -9.1015e-06 3.25785e-05 0.5106930355 -0.6807149324
475297150.0 -0.4845033427 0.6984620115 0.000172472 8.91125e-05 -5.2236e-05 0.0002845109 0.5045543924 -0.6854112163
480297120.0 -0.4768545882 0.7037245767 7.10577e-05 0.0001278362 -9.47049e-05 0.0001577555 0.4970248582 -0.690382754
485297090.0 -0.469872005 0.7085405436 -0.0002358677 -2.1625e-06 -6.32038e-05 -2.08089e-05 0.4906250923 -0.6956933007
490297060.0 -0.4617182606 0.7134899802 -0.0001340321 -0.0001599509 -0.0002099089 -2.80477e-05 0.4830528848 -0.7002888966
495297030.0 -0.454721651 0.7177895254 0.0001947013 -0.000116173 2.41409e-05 -3.39198e-05 0.4767521626 -0.7048425197
500297000.0 -0.4471546814 0.7222650395 0.0001534328 -0.0001463939 0.0001334442 -2.7442e-05 0.4695533016 -0.7090771745
505296970.0 -0.4393597807 0.7269637454 -6.528e-07 0.0002194306 0.0002285839 -0.0001440978 0.4620986673 -0.714145387
510296940.0 -0.4316771667 0.7313128771 -0.0001433428 7.8431e-06 1.51439e-05 -3.50778e-05 0.4545317228 -0.7177202787
515296910.0 -0.4242905019 0.7363338606 -8.8884e-06 -7.67561e-05 -5.35245e-05 -7.9066e-05 0.4477970353 -0.7228391637
520296880.0 -0.4158771313 0.7397161109 -0.0002825029 0.000119548 0.000129579 -2.35152e-05 0.4415171318 -0.7270128806
525296850.0 -0.4085147797 0.7438747227 0.0001106681 0.000190035 0.0001364429 0.0002369095 0.4336664059 -0.7312243601
530296820.0 -0.4010077522 0.7481011167 -7.74302e-05 1.9584e-06 0.0002217395 -0.0001786865 0.4264983636 -0.7356041532
535296790.0 -0.3932276244 0.7522341498 0.0001219366 -7.68145e-05 -0.0001806923 8.043e-07 0.419253222 -0.738789642
540296760.0 -0.3848176043 0.7556709372 1.27486e-05 -9.1601e-06 -0.0001085976 -0.0001000603 0.4118803197 -0.7434504817
545296730.0 -0.3774773086 0.7605855641 -0.0001550572 -8.8335e-06 3.06461e-05 2.7818e-06 0.4044050033 -0.7473248833
550296700.0 -0.3687997172 0.7637195638 0.0001270989 -3.04119e-05 -9.82223e-05 1.68546e-05 0.3966156608 -0.7514617309
555296670.0 -0.3612750422 0.7669597062 -8.65705e-05 -2.715e-05 0.0001911432 0.0001265438 0.389289485 -0.7551052609
560296640.0 -0.3528124039 0.7707656549 0.0001159676 6.22873e-05 2.41421e-05 4.50324e-05 0.3815876718 -0.7584434064
565296610.0 -0.3453910603 0.7743552846 -5.35411e-05 -2.07429e-05 3.39492e-05 -0.0002710636 0.3744741448 -0.7619442703
570296580.0 -0.3369230009 0.7784721255 -4.86733e-05 -9.37782e-05 1.31759e-05 2.27626e-05 0.36597764 -0.7665803293
575296550.0 -0.3279888793 0.7806873373 0.0001726101 -3.34146e-05 6.82504e-05 0.000269115 0.3592397112 -0.769334864
580296520.0 -0.3211486637 0.7845016859 -0.0001660945 6.93042e-05 7.67977e-05 8.8889e-06 0.3512872939 -0.7729688629
585296490.0 -0.3124576183 0.7873758519 -0.0003747606 2.43818e-05 -4.91327e-05 -0.0002483194 0.3434967798 -0.7759615689
590296460.0 -0.3038118348 0.7904500267 0.0001339899 -3.63227e-05 7.07908e-05 -8.28111e-05 0.3354977711 -0.7794908176
595296430.0 -0.2960067784 0.793563006 5.42671e-05 0.0001822465 1.43285e-05 2.58725e-05 0.3279728522 -0.7826509238
600296400.0 -0.2883931159 0.7966441647 3.37914e-05 0.0001164011 0.0001276881 -0.000181084 0.3204842201 -0.7852859606
605296370.0 -0.2797235995 0.7993775957 0.0001442213 -8.69061e-05 -3.1966e-06 -0.0001551158 0.3124041057 -0.7883023594
610296340.0 -0.2714598445 0.8026675515 3.81623e-05 -0.0001614306 -0.0001170859 -0.0001019816 0.3039184551 -0.7916649657
615296310.0 -0.262964981 0.8053923602 -3.67084e-05 -5.9563e-05 -2.3504e-05 -0.0001353703 0.2964109457 -0.7941159669
620296280.0 -0.2555413554 0.8082583386 -0.0001153626 -0.0001005942 -8.56777e-05 -0.0001588498 0.2887311553 -0.7965842856
625296250.0 -0.2472929295 0.8102703997 -3.85362e-05 -0.0001876315 7.40006e-05 5.99576e-05 0.2809261762 -0.8005143845
630296220.0 -0.2387239147 0.8130277082 -0.0001620046 -7.71742e-05 -0.0001140905 -3.41026e-05 0.2727099653 -0.8019505576
635296190.0 -0.2298429202 0.8156229944 6.85661e-05 -6.3784e-06 -6.27617e-05 -0.0001430949 0.2643017237 -0.8043658872
640296160.0 -0.2216906759 0.8177513612 6.02781e-05 3.91017e-05 3.02954e-05 2.47169e-05 0.2562087006 -0.8072890419
645296130.0 -0.2138346903 0.8211608072 -0.0001591655 -2.6642e-06 0.0001893424 -0.0001338438 0.2481939448 -0.8093320962
650296100.0 -0.2051316104 0.8219698238 -0.0001158398 2.15356e-05 0.0001708584 4.05953e-05 0.2406370933 -0.8120693731
655296070.0 -0.19730938 0.824891583 0.0001113791 0.0002269973 -0.0001318027 4.9243e-05 0.2318984701 -0.8149375449
660296040.0 -0.1890921472 0.8256834107 6.153e-06 -0.0001463678 0.0001606044 -2.65146e-05 0.2246427887 -0.8166440582
665296010.0 -0.1812501802 0.828357661 -4.12295e-05 -1.74835e-05 -0.0001553571 8.36636e-05 0.216494042 -0.8186312098
670295980.0 -0.1721911246 0.830475447 -0.0001438196 -5.43088e-05 -0.0001463376 -6.915e-06 0.2076791127 -0.8205080733
675295950.0 -0.1637321424 0.8319561239 -7.63721e-05 -5.20912e-05 0.0001896741 0.000161613 0.1997531625 -0.8226242272
680295920.0 -0.1570655062 0.8338038632 9.51745e-05 2.53223e-05 0.0001264108 -2.7824e-06 0.1913171148 -0.8244990834
685295890.0 -0.1473612186 0.8362072824 -0.0002811929 0.0001263027 -9.32889e-05 -0.0001142425 0.1836434457 -0.8254947886
690295860.0 -0.139043738 0.8367146197 -5.32569e-05 1.64069e-05 -5.69537e-05 -0.0001636465 0.1747733377 -0.8278185728
695295830.0 -0.1304668661 0.837970982 9.27485e-05 0.0001140268 0.0001579639 5.73925e-05 0.1667306961 -0.8289660444
700295800.0 -0.1223363264 0.8397040102 -0.0001829422 -2.1982e-06 0.000110097 1.63259e-05 0.1586498027 -0.8304397954
705295770.0 -0.1144657928 0.8413668604 -0.0001560282 2.50477e-05 -6.93501e-05 -1.11141e-05 0.1498099087 -0.8316517827
710295740.0 -0.1068102268 0.8416946612 1.46578e-05 2.31798e-05 0.0002545512 -1.89878e-05 0.1420505831 -0.8329406325
715295710.0 -0.0980375065 0.8432763535 -0.0002169791 -7.45866e-05 -7.91141e-05 5.27035e-05 0.1339865776 -0.834671502
720295680.0 -0.0891263536 0.8446487588 8.01567e-05 -0.0001017189 -2.84765e-05 0.0001129356 0.125739057 -0.8358471797
725295650.0 -0.0812347765 0.8458327723 5.15971e-05 -0.0001841444 7.05905e-05 0.000184625 0.1167605481 -0.8363610193
730295620.0 -0.0732097963 0.8467537895 -0.0001696082 -0.0001954101 -4.7227e-06 0.0003492033 0.1084536537 -0.8373486722
735295590.0 -0.0651365187 0.8472233551 9.82838e-05 0.0002569622 -1.84291e-05 -9.0604e-05 0.1006187453 -0.8379899554
740295560.0 -0.0575359035 0.8476540188 -0.0001794828 2.71547e-05 9.26937e-05 -1.59233e-05 0.0914723359 -0.8388791577
745295530.0 -0.0482316856 0.8486744077 0.0001776706 8.06181e-05 -2.78908e-05 -0.0002409813 0.0832271308 -0.8398136832
750295500.0 -0.041105215 0.8490561773 3.35324e-05 -8.0829e-05 -8.09193e-05 -6.98969e-05 0.0752461575 -0.8409490036
755295470.0 -0.0320123759 0.8494267902 2.76013e-05 0.0001268911 5.40884e-05 0.000114338 0.0667357065 -0.8407453531
760295440.0 -0.0239868977 0.8506526339 -0.0001084949 4.28724e-05 -0.0001587899 -3.33671e-05 0.0586462206 -0.8414517295
765295410.0 -0.0161716798 0.8506512349 -7.78721e-05 -0.0001916741 0.0001236553 9.45844e-05 0.0502671912 -0.8417465329
770295380.0 -0.0083568089 0.8511888906 2.10583e-05 -0.0001114379 0.0001076474 -5.29303e-05 0.0419756291 -0.8421450316
775295350.0 0.0004958141 0.8511157409 6.2738e-05 1.8095e-05 4.48955e-05 -0.000173221 0.0336165738 -0.8431734536
780295320.0 0.0094564224 0.8510706212 6.00513e-05 1.60839e-05 0.0001328347 -0.0001667084 0.0245758207 -0.8426927033
785295290.0 0.017225854 0.8510184512 -0.0003001552 0.0001156375 -0.0001349838 -0.0002662434 0.0165423892 -0.8425234585
790295260.0 0.0251618719 0.8504004502 2.1012e-05 7.22072e-05 -7.5282e-05 0.0001451512 0.0082997062 -0.8420035797
795295230.0 0.0333949269 0.850384062 -7.38395e-05 4.9228e-05 3.76577e-05 0.0001808058 -0.0008069476 -0.8432828964
800295200.0 0.0417319499 0.8503838319 0.0001954482 -1.75837e-05 -6.97138e-05 -4.91572e-05 -0.008742918 -0.8424870976
805295170.0 0.0491764795 0.8504376406 -3.95772e-05 0.0002145775 -3.65968e-05 -4.1791e-06 -0.0168101711 -0.8424465446
810295140.0 0.0581071898 0.8504933986 -0.0001213669 0.0001373561 0.0001407364 0.0002011926 -0.0255034658 -0.8421279203
815295110.0 0.0655481336 0.8493648497 0.0001226776 7.10592e-05 0.0001246406 -6.73699e-05 -0.0345267561 -0.8415774793
820295080.0 0.0737167246 0.8487181897 -4.43441e-05 0.0001568475 2.26998e-05 -5.29958e-05 -0.042690279 -0.8401814641
825295050.0 0.0821327735 0.8477733335 -0.0001436533 0.0001066989 0.0001329669 -0.0002973642 -0.0501790637 -0.8398104483
830295020.0 0.0907474474 0.8470747142 2.05199e-05 -6.60033e-05 1.46072e-05 7.77708e-05 -0.0593702891 -0.8396717121
835294990.0 0.0983399006 0.8464889045 -0.0001115925 3.62107e-05 -5.723e-05 0.0001215607 -0.0681259362 -0.8383020025
840294960.0 0.1069831947 0.8451629738 1.83348e-05 -9.74815e-05 -9.3416e-06 -7.58742e-05 -0.0757747081 -0.8373333719
845294930.0 0.1144568871 0.8441335565 1.85564e-05 -0.0002025936 3.07932e-05 -3.658e-07 -0.084176841 -0.8362515061
850294900.0 0.1238313355 0.8433902173 7.15998e-05 -0.0001158909 3.3218e-06 8.17422e-05 -0.0922161912 -0.8357711719
