!Created with skrf (http://scikit-rf.org).
# Hz S RI R 50.0 
!freq ReS11 ImS11 ReS21 ImS21 ReS12 ImS12 ReS22 ImS22
300000.0 -0.042167932 -0.0706808388 -0.000205724 0.0011804134 -0.000378568 0.001337955 -0.7633187136 -0.1932915417
5299970.0 -0.0459036697 0.0144536996 -1.20502e-05 1.53719e-05 2.18122e-05 4.346e-06 -0.7851354069 -0.009805818
10299940.0 -0.0404211177 0.032954207 -8.99354e-05 -0.0001929253 0.0001086718 -0.0001018291 -0.7874834379 -0.005693166
15299910.0 -0.0313862567 0.0473430219 9.43902e-05 -2.02718e-05 -2.11448e-05 0.0001078936 -0.7929296355 -0.0027165315
20299880.0 -0.0217456469 0.0592669692 0.000148942 -0.0001757444 -0.0001317869 3.90577e-05 -0.7996000424 0.0016261923
25299850.0 -0.0102139447 0.0686988766 0.0001937076 -0.000152358 0.0001669055 8.9237e-05 -0.8060026066 0.0077879828
30299820.0 0.0016238607 0.0757079501 9.04647e-05 -0.0002773219 -0.0001598602 0.0002029304 -0.8122391282 0.0154129488
35299790.0 0.0130960833 0.0800744403 3.50396e-05 -0.0001617354 4.43053e-05 -0.0001673955 -0.8167917976 0.0246989735
40299760.0 0.0247535522 0.0831508688 -0.0001577022 -0.000189246 -5.58493e-05 4.5071e-05 -0.8211256582 0.0340796898
45299730.0 0.0350374183 0.084425581 -3.41275e-05 0.0001042156 -6.40461e-05 -7.73422e-05 -0.8243701974 0.0439153552
50299700.0 0.0454702184 0.0843961254 -5.25883e-05 0.0002808251 1.79345e-05 2.80803e-05 -0.826941906 0.0536424221
55299670.0 0.0548155166 0.0834982217 8.7827e-05 4.01792e-05 0.0002147533 -0.000128577 -0.8289320287 0.0640246314
60299640.0 0.0633577457 0.081361787 -2.30378e-05 0.0001647549 -2.72976e-05 -0.000305573 -0.8297181423 0.0740129623
65299610.0 0.0716603517 0.0792102902 -4.40387e-05 0.0002179382 -0.0001102869 8.1775e-06 -0.8303923346 0.084123902
70299580.0 0.0778803094 0.0760296511 -4.57016e-05 4.00414e-05 0.0001479422 0.0001077876 -0.8312676912 0.0937169962
75299550.0 0.0846306719 0.0728323266 -4.86534e-05 0.0002570482 -0.0001479118 1.03189e-05 -0.8306954328 0.1041138622
80299520.0 0.0901755694 0.0694355189 -5.38173e-05 -3.07809e-05 7.4376e-05 5.9948e-06 -0.8308630333 0.1140258637
85299490.0 0.095346733 0.0655754142 0.000113811 0.0001352217 0.0001704392 -1.46546e-05 -0.830187456 0.1232791668
90299460.0 0.1005475351 0.0618317072 -0.0001086578 0.0002136056 0.000125817 0.0001486694 -0.8289210978 0.1327653404
95299430.0 0.1043652489 0.0581909277 -0.0001224068 6.1901e-06 0.0001962326 -3.62361e-05 -0.828303201 0.1425539139
100299400.0 0.1082658699 0.0542696339 -4.5065e-06 0.0001171027 0.0001367726 2.33781e-05 -0.8274822313 0.1518267735
105299370.0 0.1114907562 0.0503715124 0.0002168206 0.0001561598 0.0001822163 -0.0001242074 -0.8258835252 0.1608283851
110299340.0 0.1144041651 0.0464428505 -6.26731e-05 0.0002189756 -7.25525e-05 0.0003597067 -0.8247889075 0.1697048523
115299310.0 0.1170278202 0.0427072886 -0.0002780187 -3.05126e-05 9.10177e-05 -2.88286e-05 -0.8233984058 0.1789974265
120299280.0 0.1194596341 0.0388974762 2.22979e-05 2.1212e-05 -4.53642e-05 3.91602e-05 -0.8211478789 0.1879733384
125299250.0 0.1212811619 0.0351631859 -0.0001742263 0.0002733811 0.0001157506 0.0001011343 -0.8198218201 0.1971738957
130299220.0 0.1230963213 0.0314424364 -0.0001441998 0.0003025229 -2.4075e-05 -8.72226e-05 -0.8179628785 0.2058302661
135299190.0 0.1248676983 0.027750066 0.0003050126 0.0002795761 2.59557e-05 -0.00012183 -0.8161062274 0.2150769079
140299160.0 0.1260908932 0.0243814927 -0.000228518 0.0001347868 0.0001328678 6.75777e-05 -0.8139186109 0.2231838859
145299130.0 0.127322563 0.0211440428 -0.0001248801 7.077e-05 9.4645e-06 0.0001959248 -0.8118971136 0.2323659157
150299100.0 0.1286019856 0.0176419065 9.12538e-05 3.15067e-05 2.51157e-05 0.0001409289 -0.8096219535 0.2413971513
155299070.0 0.1291341469 0.0146505778 0.0002894921 -8.62826e-05 4.25849e-05 7.57799e-05 -0.8069098067 0.2508966406
160299040.0 0.1297395681 0.0114648674 0.0001799893 3.87515e-05 0.000169323 7.46752e-05 -0.8046616387 0.2587354255
165299010.0 0.1306023265 0.0086363468 0.0002340073 8.27269e-05 5.11448e-05 7.88655e-05 -0.801804802 0.267160572
170298980.0 0.1308224707 0.0052216998 0.0001630819 0.0002998679 0.0001107658 5.62471e-05 -0.7996602534 0.2755483374
175298950.0 0.1314253125 0.0022984425 0.0002355508 0.0003125602 5.67073e-05 -6.74386e-05 -0.7966427868 0.2848309978
180298920.0 0.1315733701 -0.0002364015 0.0001703671 0.0002177034 -0.0001321569 8.85433e-05 -0.7934674914 0.2930084379
185298890.0 0.1316052696 -0.0033699162 -0.0001111889 0.0001029348 -7.10629e-05 6.41142e-05 -0.7904245051 0.3014842368
190298860.0 0.1319628042 -0.0058877799 -0.0001506944 -6.03366e-05 0.0001367979 0.0002622275 -0.787245699 0.3097585775
195298830.0 0.1321495592 -0.0080365734 -8.24976e-05 0.0003017537 1.4681e-05 4.80635e-05 -0.7841381366 0.3179591845
200298800.0 0.1320939657 -0.0111278746 9.64243e-05 5.1564e-05 0.00019719 -0.000168737 -0.7803724281 0.3268745721
205298770.0 0.13163704 -0.0138549236 0.0001330455 7.07058e-05 6.64413e-05 0.0002153697 -0.7780020182 0.3349874168
210298740.0 0.1317747023 -0.0160292732 4.28335e-05 -2.59591e-05 0.0001197586 0.0002230078 -0.7742621206 0.3429637558
215298710.0 0.1308285649 -0.0186273866 7.46103e-05 0.0002836506 -3.60479e-05 0.0001824449 -0.7701137459 0.3512833513
220298680.0 0.1309118065 -0.0210372425 -0.0001637505 -6.74308e-05 6.66288e-05 4.4876e-06 -0.7668270666 0.3592061116
225298650.0 0.1306291397 -0.0234561202 -0.000127919 0.0002390456 1.49852e-05 0.0001402476 -0.762937377 0.3676117745
230298620.0 0.1301936976 -0.0255138662 -3.97896e-05 -7.22507e-05 2.77444e-05 8.16759e-05 -0.7591427277 0.3752633011
235298590.0 0.1296740138 -0.027592575 -2.0177e-06 0.0004217945 -4.54946e-05 0.0001046941 -0.7551955337 0.3833360037
240298560.0 0.128946017 -0.0299008579 0.0001119622 6.53091e-05 1.11898e-05 0.0001084735 -0.7511732328 0.3906136792
245298530.0 0.1286502043 -0.0317604564 9.64031e-05 0.0002210496 -3.3535e-05 4.211e-06 -0.747061789 0.3991471741
250298500.0 0.127799949 -0.0336936783 0.0002390933 2.7749e-05 7.44498e-05 -0.0001581962 -0.743135469 0.4065373504
255298470.0 0.1273381362 -0.0357584032 0.0002300737 -7.32858e-05 4.68791e-05 0.0001359684 -0.7390395087 0.4145296232
260298440.0 0.1266504858 -0.0378198397 0.0001433131 9.83303e-05 3.11328e-05 0.0001187384 -0.7346391687 0.4219026196
265298410.0 0.1255847205 -0.0398007635 0.0002322635 0.0002573867 -2.73028e-05 2.4612e-05 -0.7302548075 0.4298080828
270298380.0 0.1250807481 -0.0418905392 0.0002723553 2.01612e-05 0.0002087545 0.000276953 -0.7252402659 0.4381489401
275298350.0 0.1247779933 -0.0433934491 -3.74432e-05 -5.39906e-05 0.0001892201 0.0002575114 -0.720302269 0.4457448217
280298320.0 0.1235384698 -0.0452648338 -7.0549e-06 3.42576e-05 0.0002890589 -2.41884e-05 -0.7161680768 0.452401767
285298290.0 0.1230706487 -0.0472498352 0.0002364941 0.0003196737 0.0003549629 -2.10607e-05 -0.7122535776 0.4608768267
290298260.0 0.1220345371 -0.0490116318 0.0001906118 -8.3552e-06 0.0003005606 0.0001170376 -0.7064506571 0.4670580739
295298230.0 0.121023441 -0.0510354244 1.07712e-05 4.99471e-05 4.52387e-05 0.0001879287 -0.701154483 0.4751199172
300298200.0 0.1201772838 -0.052504578 4.85405e-05 4.32129e-05 0.0001415184 0.0001728114 -0.6965930242 0.4823352011
305298170.0 0.1193759794 -0.0545460414 0.0002553111 8.5032e-06 0.0002766154 8.77362e-05 -0.691690133 0.4889677329
310298140.0 0.118564893 -0.0567598589 1.30727e-05 0.0002724107 1.52918e-05 0.0002054665 -0.6863539466 0.4970786462
315298110.0 0.1174689757 -0.0583620854 0.0001497182 0.0002157438 5.2852e-05 4.33255e-05 -0.6812648548 0.5036076809
320298080.0 0.1162125817 -0.060242055 0.0001418798 0.0001550322 0.0002365513 -1.801e-06 -0.6760689454 0.5106264975
325298050.0 0.1145929005 -0.0620051938 3.1107e-06 0.0001217116 1.78592e-05 0.000147314 -0.6706893669 0.5176807456
330298020.0 0.1134490257 -0.0633317175 2.2734e-05 0.0002620833 9.2532e-05 0.0001344367 -0.6650470928 0.5248170296
335297990.0 0.1120172216 -0.0648025749 0.0002077363 2.383e-06 0.0002113442 9.066e-05 -0.6593640556 0.5312682625
340297960.0 0.1108521346 -0.0661339568 0.0001707677 -3.0571e-05 0.0002348268 0.0001271191 -0.6539738047 0.5381863989
345297930.0 0.1098094845 -0.0674726895 0.0002979329 7.19495e-05 0.0001551179 5.31271e-05 -0.6491741614 0.5445969249
350297900.0 0.1085324658 -0.0690047942 6.36738e-05 0.0003295869 0.0001514138 6.70815e-05 -0.643642023 0.5513478619
355297870.0 0.1072357411 -0.0703968434 -4.2241e-06 -1.42076e-05 0.0001372572 1.23106e-05 -0.6369384188 0.5593769537
360297840.0 0.1062139511 -0.07195315 0.0002183338 0.0001389263 0.0003471046 0.0002555829 -0.6306217278 0.5649626135
365297810.0 0.1051532681 -0.073045088 4.29152e-05 0.0001937427 0.0001118704 6.37651e-05 -0.6256505722 0.5706443236
370297780.0 0.1037825028 -0.0742225394 0.0001072465 0.00019946 0.0001097575 0.0002570851 -0.6196583104 0.5776318401
375297750.0 0.1023861095 -0.0757020121 0.0001772961 0.0003144387 0.0002343693 5.86634e-05 -0.6132834883 0.5834208305
380297720.0 0.1015018994 -0.0767669959 0.000136028 0.0001857131 0.0003198183 3.26352e-05 -0.6072204294 0.5902325994
385297690.0 0.1003211386 -0.0779703616 0.0002199871 0.0002476332 9.66794e-05 0.0001207786 -0.6015244796 0.596219568
390297660.0 0.099114386 -0.0797725346 0.0003962934 0.0001152227 0.0001829926 0.0002964111 -0.5947287017 0.6019771
395297630.0 0.0977810323 -0.0806919399 0.0001526118 6.51935e-05 4.41765e-05 1.46765e-05 -0.5883223532 0.6073254496
400297600.0 0.09627921 -0.0817467226 0.0002703431 4.71416e-05 0.0001481251 0.0001751496 -0.5823263602 0.6137659822
405297570.0 0.0950801129 -0.083110441 8.83215e-05 5.31521e-05 0.0001292405 8.80501e-05 -0.5755261238 0.6198001331
410297540.0 0.0941959928 -0.084341144 0.0001910771 0.0001257005 -2.51602e-05 -3.32757e-05 -0.5696030515 0.6262585896
415297510.0 0.0926430901 -0.08537459 0.0001489503 0.0001073465 0.0002601924 6.77477e-05 -0.5628238861 0.6316425901
420297480.0 0.0915647339 -0.0868504827 0.0001029691 -2.61346e-05 0.0002251139 0.000166884 -0.5564082569 0.6377882134
425297450.0 0.0905060396 -0.0877055984 0.0003053099 0.0001608502 0.000145531 -1.29186e-05 -0.5495735311 0.6423231823
430297420.0 0.0888406858 -0.088938835 4.70075e-05 0.000279833 0.0002518938 0.0002857831 -0.5427771952 0.6482539053
435297390.0 0.087349355 -0.0899064483 0.000211624 8.07177e-05 0.0003518452 0.0001493277 -0.5370102517 0.6544975002
440297360.0 0.0863668705 -0.0908506513 0.0002061648 3.82512e-05 0.0002799759 0.000130345 -0.5298147959 0.6594157556
445297330.0 0.0851815411 -0.0922190864 0.0003055093 0.0001812574 0.0002381311 0.0001062467 -0.5235699435 0.6647650426
450297300.0 0.0839161207 -0.0931628449 0.0002969956 -7.13543e-05 0.0003770055 -1.15317e-05 -0.5160089968 0.6694895271
455297270.0 0.0825641214 -0.0941593673 0.0003124032 6.45182e-05 0.000295627 -7.48032e-05 -0.5090904357 0.6749572295
460297240.0 0.0815069835 -0.0948553692 2.42369e-05 -0.0001327812 0.0003087114 0.0001076129 -0.5023475179 0.6802710214
465297210.0 0.0802172428 -0.0960648394 0.0002414599 0.0001070247 0.000191757 5.00059e-05 -0.4954595409 0.6858697329
470297180.0 0.0786238641 -0.0968031227 0.0003862622 5.30075e-05 0.0001385223 0.0002270955 -0.4885463244 0.6901358572
475297150.0 0.0773556681 -0.097771268 0.0001607683 3.24819e-05 0.0002429278 0.00017821 -0.4811631569 0.6948715347
480297120.0 0.0762705181 -0.0985827237 6.28351e-05 -2.54786e-05 0.000107426 0.0001873684 -0.4746887027 0.6997496261
485297090.0 0.0746765097 -0.099331385 0.0003696218 -3.12358e-05 0.0003460198 -1.85177e-05 -0.4674867642 0.7049076473
490297060.0 0.0738380123 -0.1005303792 0.0002741631 0.0001988359 0.0002892913 2.31978e-05 -0.45971869 0.709145591
495297030.0 0.0722867232 -0.101010023 0.0003140286 -0.0001073514 0.0002420837 0.0002023472 -0.4524418085 0.7136208844
500297000.0 0.0710117545 -0.1018525883 0.0003947433 0.0002298852 8.81702e-05 0.0002199693 -0.4456337271 0.7183492404
505296970.0 0.0696997696 -0.1027284886 0.0003803606 9.4066e-06 0.0001722607 0.000210008 -0.4380609057 0.7226983268
510296940.0 0.0686724052 -0.1034203208 0.0001399066 6.24504e-05 9.36978e-05 -6.257e-07 -0.4307456775 0.7274336649
515296910.0 0.0669421461 -0.1039918515 0.0003380063 0.0001779952 0.0001637591 5.16263e-05 -0.4231016418 0.7312112668
520296880.0 0.0659398579 -0.1048753443 0.0003764523 6.40348e-05 0.0003918661 0.000116298 -0.4151759264 0.7357704767
525296850.0 0.0644218296 -0.1057832841 0.0002949785 0.0001480056 0.0001687585 3.08203e-05 -0.4078255066 0.7395291872
530296820.0 0.0631436768 -0.1058916214 0.0004139806 7.05077e-05 0.0003813149 3.6951e-06 -0.4007526974 0.7431288343
535296790.0 0.0620879079 -0.1065799997 0.0002792991 0.0003197706 0.0003689942 0.0001049898 -0.3931089842 0.7481222911
540296760.0 0.0609389207 -0.1074882259 0.0004041133 0.000172436 0.0003478446 0.0002092608 -0.3850895417 0.7512335558
545296730.0 0.0591779444 -0.107726356 0.0003216613 8.35481e-05 0.0002486634 8.1439e-05 -0.3776380311 0.7554769796
550296700.0 0.0576705091 -0.108330716 0.0003530394 0.000121913 0.000338809 7.95178e-05 -0.370611261 0.7588998465
555296670.0 0.0567104858 -0.1086771313 0.000272572 2.99508e-05 0.0002421109 3.14241e-05 -0.3626306854 0.7621761829
560296640.0 0.0555269281 -0.1092736265 0.0002727144 -0.0001356367 0.0003927903 0.0001673556 -0.3544802273 0.7668773436
565296610.0 0.0537684016 -0.1097039771 0.0001916082 6.39799e-05 0.0003798062 0.0002526537 -0.3470586594 0.7699555685
570296580.0 0.0524376065 -0.1102524284 0.0002732386 0.0001305418 0.0002242613 7.55208e-05 -0.339581038 0.7730983125
575296550.0 0.0512171654 -0.1107734641 0.0004749613 -8.89638e-05 0.000233422 -7.76033e-05 -0.3308908181 0.7763329287
580296520.0 0.0498860681 -0.1105705111 0.0002203482 7.25427e-05 0.0001782141 0.0002135081 -0.3238611492 0.7797356525
585296490.0 0.0483884379 -0.1111702277 0.0001060069 -5.91245e-05 0.0003202974 0.0001532678 -0.3153086591 0.7831238998
590296460.0 0.0474325131 -0.1111667778 0.000369001 -3.5585e-06 0.0001715974 0.0001554045 -0.3080852153 0.785415445
595296430.0 0.0456308959 -0.1116655822 0.0005183407 8.53117e-05 0.0003335655 4.36841e-05 -0.3003007146 0.7888794604
600296400.0 0.0445040253 -0.1122137112 0.0002691484 0.0003122404 0.0002483245 0.0001717649 -0.2921316578 0.7914982409
605296370.0 0.0428970534 -0.1121005044 0.0003042641 -4.15603e-05 0.0002623465 0.000137813 -0.2839999813 0.7951994382
610296340.0 0.0415550273 -0.1124898464 0.0001922955 3.67512e-05 0.0002468903 0.0001435926 -0.2763160154 0.7978399388
615296310.0 0.0406520714 -0.112811195 0.0002983391 0.0001133618 0.0002805115 -2.90342e-05 -0.2677080203 0.8006456646
620296280.0 0.0389341024 -0.1126008757 0.0002831837 0.0001030071 0.0002464968 6.97779e-05 -0.2604400103 0.8032157912
625296250.0 0.0371560588 -0.1128710514 0.00023763 6.35411e-05 0.000508811 4.10348e-05 -0.2517842386 0.8051251143
630296220.0 0.0359854036 -0.112838728 0.0004610445 4.45017e-05 0.0003032006 -2.9426e-06 -0.2435554022 0.8079883274
635296190.0 0.0342402815 -0.1130185423 0.0002726207 -0.0001252684 0.0002152534 1.92539e-05 -0.2355761421 0.8100047339
640296160.0 0.0329964175 -0.1133787645 0.0004583426 4.22994e-05 0.0003780752 -0.0001027679 -0.2275611184 0.8129150955
645296130.0 0.0319667005 -0.1133869333 0.0004051167 0.0001958943 0.0004865012 1.67682e-05 -0.2195940552 0.8142788237
650296100.0 0.0302974326 -0.1134912106 0.000205513 1.39672e-05 0.0003074953 4.57277e-05 -0.2109742748 0.8173821801
655296070.0 0.0287487187 -0.113294115 0.0002538097 0.0003504632 0.0002938991 3.4427e-05 -0.2032455589 0.8189199012
660296040.0 0.0270961139 -0.1135059752 0.0004386384 0.0001791211 0.0003259774 -6.79834e-05 -0.1949390363 0.8207747673
665296010.0 0.0258552505 -0.1132553602 0.0002125539 -8.01555e-05 0.0002800198 -2.12172e-05 -0.1866724526 0.8221064286
670295980.0 0.0244776664 -0.1132638011 0.0003388977 -7.49331e-05 0.0003462735 5.26237e-05 -0.1786320942 0.8244633754
675295950.0 0.0228908147 -0.1130660452 0.000368157 -1.9497e-05 0.0002824978 0.0001988471 -0.1699611782 0.8264701283
680295920.0 0.0212718232 -0.1131092756 0.0004042912 -0.0001058486 0.0002695996 4.74759e-05 -0.1614532826 0.8277948961
685295890.0 0.0201022483 -0.1130424015 0.0003431937 -0.0001449696 0.0003864509 -3.45053e-05 -0.1537846733 0.8300383259
690295860.0 0.0186227987 -0.1127086861 0.0003848492 0.0001843973 0.0003693536 -5.08194e-05 -0.1453100842 0.8309536404
695295830.0 0.0171597397 -0.1128023729 0.0003020965 5.9887e-05 0.000454886 -4.07323e-05 -0.1371795077 0.8330333827
700295800.0 0.0155567984 -0.1125253795 0.0003637118 -0.0001853897 0.0004045199 5.49437e-05 -0.128653621 0.8333683251
705295770.0 0.0141158261 -0.1121260227 0.0004105766 4.99517e-05 0.000413673 6.05878e-05 -0.1204669473 0.8354740286
710295740.0 0.0127168414 -0.1122009871 0.0004196202 -0.0001118856 0.0004454448 -2.87641e-05 -0.1117209983 0.8362148966
715295710.0 0.0112213551 -0.1119120583 0.0003234712 -0.0001886413 0.0003679734 0.0001441048 -0.1032450585 0.8368694664
720295680.0 0.0096521544 -0.1119687457 0.0004101142 -0.0001054406 0.0003268589 8.55172e-05 -0.0949153496 0.8382700852
725295650.0 0.0082599447 -0.1116026321 0.0004154954 -0.0002252122 0.0003775551 1.43541e-05 -0.0872959505 0.8397818861
730295620.0 0.0063844651 -0.1113587922 0.0002831368 -2.1305e-06 0.000383299 -6.87911e-05 -0.078875188 0.8399550934
735295590.0 0.0051645972 -0.1111991493 0.0003350863 -7.26561e-05 0.0004017244 -0.000143708 -0.0702256067 0.8403465877
740295560.0 0.0035104263 -0.1109928764 0.0004051449 -0.000176682 0.000276785 7.34427e-05 -0.0617345074 0.8413805166
745295530.0 0.0019340544 -0.1105205773 0.0003571882 -2.99369e-05 0.000501133 0.0001750608 -0.0534371028 0.8415879565
750295500.0 0.0006079308 -0.1102361538 0.0003522341 -3.9855e-05 0.0001968233 5.02541e-05 -0.0450402875 0.8421430488
755295470.0 -0.0009522743 -0.1101506421 0.0004588388 9.01799e-05 0.0005138782 -0.0001233043 -0.0366617425 0.8427599533
760295440.0 -0.0023285421 -0.1094930519 0.000269611 -0.0001104091 0.0002826699 2.08316e-05 -0.0279833512 0.8427093235
765295410.0 -0.0036173269 -0.109411104 0.0002629279 -8.22601e-05 0.0003644993 4.5479e-05 -0.0198883839 0.8435637606
770295380.0 -0.0051168423 -0.1085099961 0.0002614705 3.40978e-05 0.000324577 -0.0001933464 -0.0118315936 0.8432174611
775295350.0 -0.0064677687 -0.1082309999 4.37684e-05 4.03178e-05 0.0002230589 -6.03419e-05 -0.0037436822 0.8429326266
780295320.0 -0.0080067421 -0.1080989096 0.0001461549 -0.0002647818 0.0005908472 6.07477e-05 0.0052626291 0.8437909542
785295290.0 -0.0095254971 -0.1076710903 0.0004119061 -7.5137e-05 0.0004590141 -6.02026e-05 0.0133560334 0.8437842433
790295260.0 -0.0109545482 -0.1075488398 0.0003670138 0.0001036449 0.0003556256 -0.0001988534 0.0216619768 0.8433674117
795295230.0 -0.0126614379 -0.1069305839 0.0004330823 -5.08083e-05 0.0003959111 0.0001603741 0.0300657731 0.8423284732
800295200.0 -0.0139772008 -0.1064272772 0.0003815678 -8.28298e-05 0.0002896642 -0.0004767164 0.0383621505 0.8422622452
805295170.0 -0.0151858911 -0.1058988307 0.0004096355 -5.90314e-05 0.0003845815 -8.20932e-05 0.0469369721 0.8419454042
810295140.0 -0.0166372263 -0.105304363 0.0004860373 -0.0001455766 0.000295159 -0.0001392948 0.0555237201 0.8415587665
815295110.0 -0.0185189978 -0.1051107523 0.0005583368 -0.000120064 0.0002740736 1.63056e-05 0.06340115 0.8411410478
820295080.0 -0.0196848546 -0.1045038632 0.0005247631 -4.80805e-05 0.0004479639 2.71576e-05 0.0710704718 0.8407582491
825295050.0 -0.0212690326 -0.1042671567 0.0002835416 -0.0001231086 0.0003777291 -3.68352e-05 0.0798895869 0.8398048079
830295020.0 -0.02281209 -0.103573381 0.0002639706 8.29937e-05 0.000436635 -0.0001603863 0.0876308414 0.8380144784
835294990.0 -0.0240330725 -0.1033502782 0.0004500463 -2.5509e-06 0.0004066407 -0.0002435466 0.0960748315 0.8381802475
840294960.0 -0.0253168247 -0.1027907472 0.0004691221 -0.0002074358 0.0001860014 -2.9669e-05 0.1054510578 0.837074691
845294930.0 -0.0265887929 -0.1018974389 0.0004030192 -0.000164346 0.0001563161 -7.26195e-05 0.1132138149 0.835670692
850294900.0 -0.0276965899 -0.1017515502 0.0003610338 9.48821e-05 0.0002364779 -0.0002752816 0.1210730208 0.8348071712
