!Created with skrf (http://scikit-rf.org).
# Hz S RI R 50.0 
!freq ReS11 ImS11 ReS21 ImS21 ReS12 ImS12 ReS22 ImS22
300000.0 -0.0975301543 -0.0862285278 0.6232915536 0.0787896481 0.6233298547 0.0847054334 -0.0949974106 -0.0932132165
5299970.0 -0.1003222699 0.0126784977 0.6305126852 0.0107540745 0.6306510082 0.0113387182 -0.1017408296 0.0116166498
10299940.0 -0.0952861415 0.0296388906 0.6346826228 0.0155848651 0.6343173259 0.0159711033 -0.0970010853 0.0287883939
15299910.0 -0.0884045253 0.0431350591 0.6407121221 0.0206193748 0.6403650448 0.0208894478 -0.0899460292 0.0421197699
20299880.0 -0.0795724191 0.0542150093 0.6486897484 0.0240339554 0.648566708 0.024218226 -0.0816331417 0.0532886443
25299850.0 -0.0695248264 0.0629957624 0.6577768383 0.0251021436 0.6577839071 0.0250861338 -0.0722909432 0.0618320121
30299820.0 -0.0597079922 0.0692928951 0.6683622565 0.0245646796 0.6675017165 0.0247600349 -0.062482197 0.0689311843
35299790.0 -0.0491305119 0.0743258829 0.6773569547 0.0214871799 0.6775396189 0.0219535956 -0.0524208469 0.0734591009
40299760.0 -0.0397088722 0.0770183587 0.6868809007 0.0178022607 0.6865660793 0.0174043131 -0.0435746645 0.0771235172
45299730.0 -0.0301959783 0.0793994551 0.695553208 0.0113434272 0.6957646443 0.0117936621 -0.0340988237 0.079017527
50299700.0 -0.021830942 0.0796382354 0.7030219441 0.0048532573 0.7033519828 0.0047502692 -0.025255992 0.0800633665
55299670.0 -0.0140304074 0.0798697799 0.7107031015 -0.0029922271 0.7108782557 -0.0031222301 -0.0176929451 0.0800063113
60299640.0 -0.0067656129 0.0786654743 0.7172815253 -0.0115109324 0.7174359145 -0.0112681395 -0.010299199 0.0799899967
65299610.0 -0.0001323178 0.078022095 0.7234048502 -0.0201821211 0.723826841 -0.0201990746 -0.0037117077 0.0785162417
70299580.0 0.0059790501 0.0758263542 0.7284240021 -0.0292098834 0.7282888082 -0.0292689223 0.002477419 0.0771103318
75299550.0 0.0118213317 0.0743618843 0.7330431898 -0.0391616899 0.732930917 -0.0387800378 0.0080085616 0.0757664332
80299520.0 0.0163012787 0.0721359289 0.7373952597 -0.0487954866 0.7375612012 -0.0488986722 0.013210177 0.0729960026
85299490.0 0.020948045 0.0696517446 0.7404252429 -0.0588332147 0.740491541 -0.058976044 0.0177953402 0.0710418878
90299460.0 0.0247334946 0.0672003557 0.7435873918 -0.068799772 0.7433583429 -0.0686529378 0.0221184177 0.068828027
95299430.0 0.0282854454 0.0650585671 0.7459215558 -0.0793231389 0.7459517917 -0.0792305892 0.0256099852 0.0664943676
100299400.0 0.0314703748 0.0629484836 0.7477494289 -0.0894044421 0.7470972897 -0.0895753687 0.0286371481 0.0639943298
105299370.0 0.0347578067 0.0601353864 0.7483679421 -0.0990599629 0.7489685874 -0.0993561966 0.0318817815 0.0619227338
110299340.0 0.0368143056 0.0577062792 0.7495215704 -0.1088990039 0.7500503473 -0.109463254 0.0345338556 0.0591303005
115299310.0 0.0395898301 0.0549033012 0.7509621696 -0.1191995091 0.7513971928 -0.1190641981 0.0370503554 0.0563126579
120299280.0 0.0416057015 0.0525324925 0.7518468964 -0.1293829451 0.7514318542 -0.1297875059 0.0388889276 0.0542012935
125299250.0 0.0431984909 0.0501719009 0.7519339295 -0.1391378964 0.7518757607 -0.1397795957 0.0412069812 0.0513015733
130299220.0 0.0451574636 0.0478595832 0.7513052563 -0.1491076595 0.7516887841 -0.1493013266 0.0433703885 0.0493641696
135299190.0 0.0468626112 0.0453303346 0.7510015491 -0.1587932184 0.7510051677 -0.1590226541 0.0444746345 0.0475792565
140299160.0 0.0477386332 0.0442872399 0.7509032127 -0.1687270879 0.7508939745 -0.1686565891 0.0460853091 0.0453787764
145299130.0 0.0492481989 0.0417076931 0.7502308367 -0.178368511 0.7499763663 -0.1785102813 0.0474297971 0.0426024882
150299100.0 0.050578387 0.0397874029 0.7490747435 -0.1881859836 0.7490752493 -0.188066798 0.0484675173 0.0409353409
155299070.0 0.0513000863 0.0383090712 0.747903951 -0.1980341267 0.7476657881 -0.1985306322 0.0492336949 0.0389032805
160299040.0 0.0525095707 0.0358488966 0.7458858262 -0.2068527413 0.7460961607 -0.2072449453 0.0506155955 0.0372290202
165299010.0 0.0526501195 0.0341347973 0.7448772511 -0.2170361568 0.7448648745 -0.2169698986 0.0516311168 0.0348175964
170298980.0 0.0531636726 0.0326900454 0.7421284513 -0.226391415 0.7423494754 -0.2265035564 0.0525068919 0.0327763304
175298950.0 0.0544418363 0.0306359475 0.7416561336 -0.235138734 0.7414787638 -0.2354562368 0.0530954772 0.0308449934
180298920.0 0.055159252 0.028910568 0.7391515337 -0.2450224009 0.739189732 -0.244384914 0.053638852 0.02985475
185298890.0 0.0558727629 0.0274186288 0.7369094041 -0.25420886 0.7367670829 -0.2539331952 0.0541695709 0.0276371734
190298860.0 0.0560351135 0.0260277528 0.7343548213 -0.2628849112 0.7345694794 -0.2630337458 0.0554634636 0.0260647657
195298830.0 0.0563447667 0.0238947591 0.731785376 -0.2714321988 0.7320651269 -0.2726721483 0.0560089219 0.0238480088
200298800.0 0.0569148915 0.0228671205 0.7293790037 -0.2803477926 0.7290415564 -0.2803921734 0.0562202427 0.0228658729
205298770.0 0.0570536286 0.0213400624 0.7268591947 -0.2894981282 0.7267323482 -0.2899106668 0.0565092353 0.020587576
210298740.0 0.0569498454 0.0196795312 0.723814395 -0.2987947426 0.7236342176 -0.2988622232 0.0565540501 0.0198108047
215298710.0 0.0579475001 0.0186180519 0.7209271942 -0.3069409091 0.7204341123 -0.306634461 0.0572274245 0.0181037432
220298680.0 0.058055184 0.0171692967 0.7173634705 -0.3161552752 0.7171395269 -0.3155298274 0.0573617328 0.0172577802
225298650.0 0.0584532264 0.0160915861 0.7136382968 -0.3238191088 0.7138857791 -0.3243176532 0.0575670994 0.0153806484
230298620.0 0.0582442734 0.0149493336 0.7109972108 -0.3325640518 0.7111273703 -0.3332002618 0.0577038437 0.0141597175
235298590.0 0.0586545418 0.0134835262 0.7071911863 -0.3408783276 0.7075237598 -0.3417686045 0.0580397192 0.0125978614
240298560.0 0.0583548737 0.0120332347 0.7039739266 -0.3494933735 0.703987451 -0.349096279 0.0580432356 0.0119533041
245298530.0 0.0588167128 0.0110487861 0.6987218621 -0.3581728463 0.7001999255 -0.3579722479 0.0584026571 0.0104468331
250298500.0 0.0583621946 0.0094965817 0.6960237945 -0.3657873962 0.696484779 -0.3652767566 0.0589127544 0.0088394126
255298470.0 0.0583932129 0.0089263224 0.6912468328 -0.3744446651 0.6921038252 -0.3743686214 0.0587946967 0.0072582656
260298440.0 0.0584562651 0.0077960343 0.6882879485 -0.3826437186 0.6879619046 -0.3821355748 0.0595020937 0.0070174311
265298410.0 0.0588155923 0.0070007958 0.6840290313 -0.3907460688 0.683858226 -0.3905822584 0.0587904187 0.0055027095
270298380.0 0.0592356932 0.0055429655 0.679564566 -0.3987806084 0.6798989908 -0.3985378055 0.0588552292 0.0050939299
275298350.0 0.0585811241 0.0048837358 0.6754752873 -0.4068379105 0.6757657912 -0.4068141669 0.0591940628 0.0035609183
280298320.0 0.0585881097 0.0039019118 0.6710616183 -0.4137269527 0.6711311088 -0.4147552135 0.0594865724 0.0025997456
285298290.0 0.058862183 0.0032432039 0.666491897 -0.421701428 0.6663779542 -0.4222698134 0.0588360985 0.0014599196
290298260.0 0.0590022982 0.0018284878 0.6626272021 -0.4296769876 0.6620930493 -0.4297451201 0.0594956704 0.0003402604
295298230.0 0.0586758079 0.0007380417 0.6578691644 -0.437377347 0.6575396995 -0.4374624383 0.059834225 -0.0004940321
300298200.0 0.0592104952 6.82477e-05 0.6532718023 -0.4450026492 0.6531509095 -0.4452376171 0.0593868926 -0.0015605695
305298170.0 0.0589674021 -0.0012969132 0.6478381117 -0.4530005287 0.6487824358 -0.4532198471 0.0597685141 -0.0021484905
310298140.0 0.0593651347 -0.0025126629 0.6437398181 -0.4608678623 0.6435527431 -0.4605097386 0.059705157 -0.0029734187
315298110.0 0.05875295 -0.0036641207 0.6383709767 -0.4681269114 0.6382255992 -0.4684263946 0.0599645259 -0.0048049645
320298080.0 0.0586229275 -0.0043775928 0.6331344395 -0.4758592202 0.6334158925 -0.4759086257 0.0596504623 -0.0059103136
325298050.0 0.0582597187 -0.0057802636 0.6286401719 -0.4838638144 0.6281454781 -0.4836280999 0.0593157188 -0.0070758727
330298020.0 0.0579476993 -0.0067972134 0.621564213 -0.4905851992 0.6219380036 -0.4907585427 0.058524837 -0.0082993952
335297990.0 0.0575007668 -0.0078244704 0.6165390661 -0.4978369578 0.6163599846 -0.4977966821 0.0581080567 -0.0088818878
340297960.0 0.0565140756 -0.0080861031 0.6101719932 -0.5049043416 0.6105323337 -0.5045306572 0.0575276923 -0.009526641
345297930.0 0.0561589708 -0.0085788557 0.6048252492 -0.5110470553 0.6044309746 -0.5114533825 0.0575742234 -0.0108283128
350297900.0 0.0565289683 -0.0093542208 0.5984444932 -0.5178824153 0.5989716831 -0.5176967953 0.0567519796 -0.010558251
355297870.0 0.0559476715 -0.0104670199 0.5932487535 -0.524792371 0.5929690131 -0.5251328818 0.0563925013 -0.0114064743
360297840.0 0.0558985724 -0.0106604005 0.5876411319 -0.5312615348 0.5868103789 -0.5315767015 0.0565090072 -0.0118167261
365297810.0 0.0557438777 -0.0116795843 0.5814501704 -0.5380252009 0.5811997014 -0.538143017 0.0558762812 -0.0122823842
370297780.0 0.0554701649 -0.0121575897 0.5751891892 -0.5443608554 0.575414651 -0.5442550771 0.0561792258 -0.0130263389
375297750.0 0.0548875675 -0.0123202532 0.5698500077 -0.5511920646 0.5691234267 -0.5512480357 0.055571585 -0.0136811107
380297720.0 0.0550071678 -0.0140105018 0.5635381941 -0.5566896719 0.5631585788 -0.5568951062 0.0552158486 -0.0143434472
385297690.0 0.0548721021 -0.0142165283 0.5572461963 -0.5630674561 0.5566422618 -0.5629375628 0.0550262328 -0.0147739155
390297660.0 0.054162298 -0.0149288433 0.5502159438 -0.5701868547 0.5508308565 -0.5700381945 0.0549214193 -0.0158382174
395297630.0 0.0545487727 -0.0158318762 0.545372737 -0.5752441418 0.5449598728 -0.5756523951 0.0542903264 -0.0156911614
400297600.0 0.053642526 -0.0160603273 0.5378395912 -0.5820415238 0.5388495457 -0.5825451934 0.0532416245 -0.0168892996
405297570.0 0.0538607685 -0.0165248996 0.5315862843 -0.5885019174 0.5319280667 -0.5881376058 0.0536792509 -0.016787417
410297540.0 0.0538463017 -0.0174766834 0.5250459011 -0.5939914328 0.5250613643 -0.5940857797 0.0530074647 -0.0179388145
415297510.0 0.0531822882 -0.0171778386 0.5191115845 -0.5987790187 0.5190255822 -0.5995276658 0.0524848313 -0.0180560023
420297480.0 0.0529286449 -0.0190091715 0.5122091908 -0.6058497231 0.51233234 -0.605769687 0.0528272327 -0.0188962421
425297450.0 0.0532199729 -0.0196615947 0.5054194775 -0.6113773305 0.5056618457 -0.6108251004 0.0522170033 -0.0189824854
430297420.0 0.0524276064 -0.0196548532 0.4991109149 -0.6173764431 0.4992664269 -0.6172096195 0.051864233 -0.0204023405
435297390.0 0.0524847186 -0.0207147159 0.4920321111 -0.622030346 0.4919446428 -0.6219493404 0.0511592343 -0.0199452758
440297360.0 0.0520633031 -0.0217407733 0.4847638837 -0.6278745592 0.4845790174 -0.6281683026 0.051127215 -0.0214248896
445297330.0 0.0522374923 -0.0221076673 0.4778844332 -0.6335456895 0.4780453878 -0.6334245219 0.0504557158 -0.0219001058
450297300.0 0.0516452142 -0.0227158292 0.4712704751 -0.6382634596 0.4711995613 -0.6385791078 0.0500301631 -0.0221627
455297270.0 0.0509954229 -0.0231958403 0.4643639583 -0.6432678318 0.4647838437 -0.6434097952 0.0501896688 -0.0227298226
460297240.0 0.0505390937 -0.0240225033 0.4573012491 -0.6483502277 0.4568626336 -0.648822068 0.0495917542 -0.022635858
465297210.0 0.0503886207 -0.0247057185 0.4499346737 -0.654010397 0.4504415081 -0.6542686345 0.0485986206 -0.0237459288
470297180.0 0.0498413907 -0.0251757015 0.4427158878 -0.6585179652 0.4432769825 -0.6590153544 0.047885837 -0.0244536688
475297150.0 0.0493206772 -0.0263436945 0.4353702965 -0.663384196 0.4359184859 -0.6629021958 0.0481951414 -0.0246753056
480297120.0 0.0497531722 -0.0268542307 0.4286328358 -0.6679065281 0.4283564639 -0.6678792869 0.0474020554 -0.0245958028
485297090.0 0.0492081389 -0.0272424201 0.4213064497 -0.6728912267 0.4212739797 -0.6736756739 0.0469443576 -0.0261275163
490297060.0 0.048820012 -0.0281973781 0.4138953951 -0.6778100945 0.4142750111 -0.6777699168 0.0467938629 -0.0256954932
495297030.0 0.0478354927 -0.02802833 0.4056671515 -0.6821537806 0.4061658211 -0.6826586627 0.0466143168 -0.0267264808
500297000.0 0.0479729562 -0.0290018762 0.3990343092 -0.6866866154 0.3982382768 -0.6869073471 0.0454079048 -0.0268803379
505296970.0 0.0472806975 -0.0298116863 0.3907510531 -0.6907714168 0.3903499026 -0.690902078 0.0447105672 -0.027304652
510296940.0 0.0466442086 -0.0302383846 0.3834744071 -0.6954779159 0.3834786481 -0.6954168533 0.0447639524 -0.0272895814
515296910.0 0.0464710661 -0.030380621 0.3755937339 -0.6988809292 0.3755357922 -0.6997958453 0.0440408037 -0.0286083084
520296880.0 0.0460248217 -0.031350851 0.3682307931 -0.7036505284 0.3678700207 -0.7033179722 0.0442390282 -0.0282197694
525296850.0 0.0452977491 -0.0323969339 0.3600778125 -0.7079979594 0.3603646273 -0.7078623278 0.0438976188 -0.0290590655
530296820.0 0.0450504904 -0.0323339691 0.3530507171 -0.7110550779 0.3523101014 -0.7113707211 0.0424952104 -0.0301100335
535296790.0 0.0439845144 -0.0330045649 0.3442586647 -0.7147882531 0.345234669 -0.7150952085 0.0424401907 -0.0304898617
540296760.0 0.0439513959 -0.0339258931 0.3373983115 -0.7194844394 0.3365323756 -0.7191861487 0.0414934983 -0.0301513606
545296730.0 0.043386666 -0.0338004893 0.3287023215 -0.7220984408 0.3290089298 -0.7229892878 0.0410461881 -0.0309987006
550296700.0 0.0425440111 -0.0345232649 0.32129139 -0.726480091 0.3216234514 -0.7263975112 0.0406288672 -0.0308151693
555296670.0 0.0425170844 -0.0351798389 0.3131850479 -0.7299657455 0.3131788598 -0.7299324683 0.0402973594 -0.031245631
560296640.0 0.0419349964 -0.0356617503 0.3055207847 -0.7329629953 0.3052839098 -0.7329856886 0.0398474252 -0.0317354032
565296610.0 0.0407140813 -0.0361001846 0.2971268058 -0.7370325031 0.2969487028 -0.7365568087 0.039123884 -0.0328124044
570296580.0 0.0410514031 -0.0366372917 0.2895021584 -0.7397234135 0.2892754252 -0.7397733423 0.0386434375 -0.0316841425
575296550.0 0.0401299758 -0.0363995333 0.2811241401 -0.7420831255 0.2813459166 -0.7422994182 0.0381720062 -0.0325800175
580296520.0 0.039401181 -0.0370219594 0.2732892866 -0.7459270935 0.2723952619 -0.7461158363 0.0377254874 -0.0335836826
585296490.0 0.0392497643 -0.0377035413 0.2650221416 -0.7484838128 0.2645627836 -0.7486574991 0.0368336174 -0.033759118
590296460.0 0.0380293485 -0.0386318249 0.2564142688 -0.7516170302 0.2561311317 -0.7520955354 0.036841794 -0.0335980996
595296430.0 0.0375047438 -0.0384033266 0.248377658 -0.7545818011 0.2479087327 -0.7545436654 0.0363948218 -0.0340565605
600296400.0 0.0371293732 -0.0386353019 0.2401134305 -0.7572253301 0.2400286261 -0.7571494845 0.0353124373 -0.0340713346
605296370.0 0.0366919127 -0.0386176273 0.2317817552 -0.7595736375 0.2318132438 -0.7597998648 0.0349531808 -0.0350528821
610296340.0 0.0360298303 -0.0395178278 0.223750902 -0.7626285332 0.2237498551 -0.7623693123 0.0343407681 -0.0343489867
615296310.0 0.0353732842 -0.0395129357 0.2151125458 -0.764750834 0.2153032808 -0.7644223191 0.0342388625 -0.0351460613
620296280.0 0.0346136283 -0.0400406077 0.2071713003 -0.7668998309 0.2072340675 -0.7667086879 0.0335277467 -0.035966051
625296250.0 0.0344770884 -0.040194808 0.1977189635 -0.7690920071 0.1983611042 -0.7688793725 0.032855597 -0.0353686431
630296220.0 0.0335665624 -0.0404004795 0.1897850774 -0.7712740631 0.1903251187 -0.7711167485 0.0318304431 -0.0359668556
635296190.0 0.0328818761 -0.0408054179 0.1814274907 -0.7725190824 0.1812950689 -0.7726541956 0.031557985 -0.0365889553
640296160.0 0.0323154206 -0.0411646468 0.1735570469 -0.7749664833 0.1729917609 -0.7753081975 0.0315727892 -0.0363885228
645296130.0 0.0319890995 -0.0412109881 0.1642853686 -0.7772136997 0.1645989724 -0.7769464958 0.0299715406 -0.0374919135
650296100.0 0.0310410553 -0.0409657561 0.1567692574 -0.7785286369 0.1567306569 -0.7781130965 0.0297303128 -0.0372303134
655296070.0 0.0303030204 -0.0419055412 0.1476299166 -0.7800039947 0.1479007063 -0.7800497025 0.029659039 -0.0369358914
660296040.0 0.0291231197 -0.0416907559 0.1393222949 -0.7814259569 0.1392921342 -0.7819334685 0.0283821314 -0.0378791482
665296010.0 0.0292007803 -0.0422624406 0.1311581451 -0.7831726657 0.131476766 -0.7831819042 0.0278307286 -0.0373204068
670295980.0 0.029197886 -0.0423181642 0.1228831235 -0.7849830968 0.1226428363 -0.7848012216 0.0269690373 -0.0380808942
675295950.0 0.0283103529 -0.0424441173 0.1134756039 -0.7862388755 0.1139274771 -0.786295348 0.0269000721 -0.0375989945
680295920.0 0.0273567332 -0.0423443089 0.1048551575 -0.7870705055 0.1044003795 -0.7872858156 0.0265324868 -0.038561375
685295890.0 0.0265717619 -0.0427525509 0.0971189852 -0.7882514404 0.0960477118 -0.7885170517 0.0255116273 -0.0380729163
690295860.0 0.0265723023 -0.043114248 0.0885142483 -0.7884504107 0.0876180293 -0.7888981271 0.0253917376 -0.0383012749
695295830.0 0.0260614372 -0.0435223307 0.0784442459 -0.7902325969 0.078671462 -0.789770614 0.0239666656 -0.0385072918
700295800.0 0.0256167803 -0.0433573014 0.0705950745 -0.7908729797 0.0703783732 -0.79123676 0.0236956077 -0.0393928886
705295770.0 0.0247456768 -0.0435172763 0.0617273161 -0.7914177878 0.0619887788 -0.7917764586 0.0227283568 -0.0390652744
710295740.0 0.0238268785 -0.0434354245 0.0531601295 -0.7921169408 0.0529725104 -0.7924847415 0.021553983 -0.0387541136
715295710.0 0.0234602104 -0.0438781428 0.0447209181 -0.7924022113 0.0448576965 -0.7928422285 0.0217506714 -0.0399112211
720295680.0 0.0225827604 -0.0443474738 0.0367582365 -0.7932072857 0.036491383 -0.7937579852 0.0215444085 -0.0391189476
725295650.0 0.0225066361 -0.0442998719 0.0272000734 -0.7932649981 0.0277334851 -0.7936409198 0.0208641555 -0.0393437581
730295620.0 0.0211336018 -0.0445136863 0.0185650523 -0.7935849223 0.0189685856 -0.7937617855 0.020386594 -0.0402712774
735295590.0 0.0212610467 -0.0441940707 0.0103043738 -0.793909597 0.0105748 -0.7937791902 0.019640693 -0.0393447439
740295560.0 0.0201741506 -0.0442359039 0.0019091837 -0.7934664588 0.0013005612 -0.7934756028 0.0196313429 -0.0397360386
745295530.0 0.0200585739 -0.0447272606 -0.0066574387 -0.7941149825 -0.0067769901 -0.7940097439 0.0180691476 -0.0399268454
750295500.0 0.019274987 -0.0447516177 -0.0154583222 -0.7933816566 -0.0151134933 -0.7933883353 0.0181892698 -0.0404212218
755295470.0 0.0189138462 -0.0445323623 -0.0238714218 -0.7936381937 -0.0241881685 -0.7936628358 0.0167399232 -0.0401040878
760295440.0 0.0179744475 -0.0444855781 -0.033151997 -0.7931135587 -0.0333327969 -0.7931319337 0.0159350495 -0.040417697
765295410.0 0.0169016251 -0.0451582306 -0.0408254529 -0.7927280025 -0.0410656844 -0.7929281523 0.016355372 -0.0397272065
770295380.0 0.0169003634 -0.0448139572 -0.0504929952 -0.791844258 -0.0501485727 -0.7923564706 0.0158928317 -0.039808509
775295350.0 0.0160936925 -0.0445591776 -0.0587227714 -0.7912539261 -0.0584902261 -0.7918551675 0.0145176918 -0.0409937125
780295320.0 0.0157400743 -0.0450031246 -0.0669430868 -0.7910976032 -0.0668589652 -0.7911256792 0.0141032791 -0.0398786101
785295290.0 0.0147086104 -0.0445598105 -0.0757167515 -0.7893199431 -0.0758969711 -0.7900884297 0.0128814032 -0.0404330657
790295260.0 0.0139977696 -0.044749722 -0.0840947554 -0.7895211111 -0.0841338693 -0.7893624767 0.0132519905 -0.0403060615
795295230.0 0.013466893 -0.0448037193 -0.0922506449 -0.7878546534 -0.0927569947 -0.7882376434 0.0121976648 -0.0395708353
800295200.0 0.0128368614 -0.0445677695 -0.102331236 -0.7875188576 -0.1021229559 -0.787494789 0.0118655312 -0.0399683799
805295170.0 0.0116733636 -0.0448508075 -0.1102303502 -0.7853213106 -0.1100521558 -0.7860810617 0.0108953651 -0.0403962358
810295140.0 0.0114391117 -0.0447386655 -0.1185140645 -0.785076421 -0.1185419951 -0.7851807733 0.0106112793 -0.0398524482
815295110.0 0.0108370567 -0.0442581547 -0.1272459025 -0.7826804823 -0.1275721442 -0.7834238025 0.0095897077 -0.0407636648
820295080.0 0.010314758 -0.0446467997 -0.1350110955 -0.7816114462 -0.135803137 -0.7819538372 0.0088370623 -0.0400841769
825295050.0 0.0095858479 -0.0448611132 -0.14391231 -0.7800383662 -0.1440475645 -0.7799973979 0.0088024164 -0.0396437467
830295020.0 0.008672569 -0.0442574949 -0.1527117473 -0.7787476026 -0.1533264545 -0.7791561454 0.0078478039 -0.0401923281
