!Created with skrf (http://scikit-rf.org).
# Hz S RI R 50.0 
!freq ReS11 ImS11 ReS21 ImS21 ReS12 ImS12 ReS22 ImS22
300000.0 -0.3141857461 -0.1278821719 0.3719523427 0.065538042 0.3719532149 0.0653810124 -0.3153676344 -0.1308057897
5299970.0 -0.3249589895 0.0028061779 0.3783327133 0.0031507103 0.3787387261 0.0036620876 -0.3257257331 0.0022749004
10299940.0 -0.3225940782 0.014237347 0.3802235586 0.0026932661 0.3797360453 0.0028031629 -0.3236487311 0.0126227584
15299910.0 -0.3191530613 0.0220575103 0.3821792408 0.0029915343 0.3822949536 0.0025223899 -0.320575024 0.0200085223
20299880.0 -0.3153028729 0.0291751535 0.3849820279 0.0016311367 0.3852188601 0.0019070525 -0.3179529091 0.026154478
25299850.0 -0.3114443188 0.0348118285 0.3884583149 0.0004568895 0.3887637453 0.0003486668 -0.3150511494 0.0311701826
30299820.0 -0.3081459729 0.0396437252 0.3917800657 -0.0022748515 0.3921924752 -0.0019426028 -0.3118821071 0.035586283
35299790.0 -0.3043551549 0.0437722579 0.3949844865 -0.0051768096 0.3953491047 -0.0050781694 -0.3093406564 0.0398483236
40299760.0 -0.3015085164 0.0468682858 0.3984844413 -0.0085029261 0.3984806632 -0.008564739 -0.3064991045 0.043021282
45299730.0 -0.298054081 0.0500574135 0.4011906711 -0.0124828956 0.401719546 -0.0125927137 -0.3040160748 0.0466448968
50299700.0 -0.2945540186 0.0527363558 0.4036556225 -0.0172935749 0.4038547343 -0.0175704708 -0.3013678874 0.0498346084
55299670.0 -0.2925033234 0.0553140395 0.405882941 -0.0217394145 0.4061365229 -0.0219580008 -0.2995074247 0.0523208963
60299640.0 -0.289867924 0.0578746051 0.4079095609 -0.0266002267 0.4079921151 -0.0267931778 -0.2971425883 0.0548605853
65299610.0 -0.2875918912 0.0602355758 0.4100374549 -0.0317903527 0.4098474863 -0.0318012452 -0.2951922858 0.0575522202
70299580.0 -0.28525332 0.0620198506 0.4106934462 -0.036617703 0.4107676932 -0.0368799771 -0.2936522578 0.0600369356
75299550.0 -0.2833110717 0.0640869701 0.41163116 -0.042053465 0.4119908157 -0.0421846905 -0.291907128 0.0624451035
80299520.0 -0.2816024012 0.066686293 0.4127800613 -0.0473720431 0.4129758715 -0.0476163804 -0.2903561987 0.0649834026
85299490.0 -0.2800474624 0.0685237177 0.4134368559 -0.0524010053 0.4136925563 -0.0521802703 -0.2891764783 0.0667886385
90299460.0 -0.2785575045 0.070450336 0.4137874335 -0.0575344118 0.4136441433 -0.0575705317 -0.2877112581 0.0694056069
95299430.0 -0.2766773411 0.0725662062 0.41364784 -0.0629342737 0.4143901718 -0.0633225937 -0.2865860019 0.0721738704
100299400.0 -0.2754094707 0.0748781526 0.413954352 -0.0683410189 0.4141827909 -0.0683100581 -0.285163817 0.0742936707
105299370.0 -0.2738685507 0.0766709219 0.4138799714 -0.0730161995 0.414177674 -0.073301848 -0.28395511 0.0763286981
110299340.0 -0.2727147372 0.0786026152 0.4135772905 -0.0778442435 0.4139310675 -0.0784006759 -0.283244142 0.0787135649
115299310.0 -0.2715819426 0.0810972316 0.4132839809 -0.0834379101 0.4132484391 -0.0836040627 -0.2821653886 0.0811085778
120299280.0 -0.2705778569 0.0832076576 0.4134660937 -0.088990068 0.4130314359 -0.089140421 -0.2807203525 0.0832751221
125299250.0 -0.2692275286 0.0853258509 0.4127644696 -0.0938102862 0.4126101806 -0.0939206361 -0.2801081807 0.0857845404
130299220.0 -0.2684081185 0.0873803286 0.4119080603 -0.0989542404 0.4117765416 -0.0995595045 -0.2788245663 0.088360433
135299190.0 -0.2671779211 0.089982508 0.4113199298 -0.1041260529 0.4113763959 -0.1040587915 -0.2780382501 0.0904550305
140299160.0 -0.2663413436 0.0921900919 0.4104817224 -0.1092600756 0.4106114222 -0.1089512034 -0.2776935973 0.0932234039
145299130.0 -0.2654677889 0.0945287846 0.4095847644 -0.1138087771 0.4096875164 -0.1139267629 -0.2766786283 0.0957003584
150299100.0 -0.2640926603 0.0968958094 0.4084744125 -0.118895892 0.4085705626 -0.118872166 -0.2756814698 0.0984320802
155299070.0 -0.2631101357 0.099363359 0.4074046445 -0.1238032013 0.4075656028 -0.1238190563 -0.2749904374 0.1010049694
160299040.0 -0.2620908727 0.1015467409 0.4058798582 -0.1283603688 0.40593925 -0.1287952379 -0.2738320058 0.103603674
165299010.0 -0.2609846424 0.1043801149 0.405015818 -0.1333051998 0.4047631036 -0.1337150807 -0.2726844348 0.1058390547
170298980.0 -0.260119785 0.1067045715 0.4029621955 -0.1383060579 0.4038679952 -0.138486304 -0.2722701826 0.1086604851
175298950.0 -0.258947479 0.1091913572 0.4022278633 -0.1430821366 0.4023486278 -0.143219152 -0.2711081988 0.1113374765
180298920.0 -0.2582576191 0.1116261656 0.4004580247 -0.1479133304 0.4010085931 -0.148377151 -0.2698072522 0.1138932939
185298890.0 -0.2569070227 0.1142062531 0.3993948234 -0.1528514223 0.3989985297 -0.1528367547 -0.2686304119 0.1165250767
190298860.0 -0.2556854511 0.1173172246 0.3972500677 -0.1574826127 0.3977418851 -0.1571016542 -0.2679810142 0.1190959948
195298830.0 -0.2545391775 0.1194761602 0.3960718708 -0.1616219579 0.396180178 -0.1619501305 -0.2666735188 0.1216640503
200298800.0 -0.2533789444 0.1218110694 0.3942609046 -0.1666137617 0.3945413236 -0.1668144481 -0.2655751718 0.1247514622
205298770.0 -0.2528223318 0.1245376451 0.3919670461 -0.1711142948 0.3924828165 -0.1709690854 -0.2645983446 0.1274537059
210298740.0 -0.2515027405 0.1274288852 0.3908896677 -0.175364627 0.3905709969 -0.1756329155 -0.2636405183 0.1297788077
215298710.0 -0.250399367 0.1303711877 0.388443239 -0.1799958533 0.3888906084 -0.1802650155 -0.2624490092 0.1324619
220298680.0 -0.2490814082 0.1325325199 0.3864515923 -0.1847256743 0.3866375498 -0.1848186564 -0.2613528347 0.135215027
225298650.0 -0.2478601896 0.1351970451 0.3845043944 -0.1888614335 0.3848107398 -0.1891059059 -0.260022887 0.1379614965
230298620.0 -0.2466581958 0.1381912311 0.3824555894 -0.1932783491 0.3829294891 -0.1936473061 -0.2587543539 0.1406913495
235298590.0 -0.2455287443 0.140657852 0.3806113303 -0.1979788648 0.3807609115 -0.1980579008 -0.2573543025 0.1431414778
240298560.0 -0.2439151105 0.1430376843 0.3783332269 -0.2018727114 0.3785009066 -0.2023703727 -0.2561975758 0.1459436532
245298530.0 -0.2429964742 0.1457309207 0.3760629475 -0.2066955243 0.3763056921 -0.2064346106 -0.2549690477 0.1484950903
250298500.0 -0.2416512136 0.148189226 0.3737805073 -0.2106085901 0.3741831747 -0.2106887619 -0.253367886 0.1514292522
255298470.0 -0.2398546652 0.1514315402 0.371561009 -0.2148709261 0.371978155 -0.2152793559 -0.2519417207 0.1543444817
260298440.0 -0.2390494139 0.153501733 0.3696729796 -0.2187789651 0.3694034041 -0.2188238592 -0.2507148866 0.1565620812
265298410.0 -0.2373314061 0.1560411702 0.3665305958 -0.2234858685 0.3667352716 -0.2236391305 -0.2490914222 0.1592321447
270298380.0 -0.2358562702 0.1585794796 0.3641235912 -0.2276574439 0.3645599324 -0.2274827135 -0.2473978108 0.1620612249
275298350.0 -0.2345203627 0.1617688279 0.3615654946 -0.2315966584 0.3620282353 -0.2318001673 -0.2456609765 0.1649832803
280298320.0 -0.2328850095 0.1639370344 0.3594433153 -0.2354864494 0.3595307922 -0.2358688527 -0.2441975072 0.1674606345
285298290.0 -0.2314220041 0.1668349071 0.3567183379 -0.2394828524 0.3571082848 -0.2397324689 -0.2428936454 0.1702078217
290298260.0 -0.2299638606 0.1692611287 0.3544186987 -0.2438388195 0.3542352812 -0.2438002314 -0.2410496838 0.1729476042
295298230.0 -0.2283792705 0.1714352339 0.3515817278 -0.2477490825 0.3519161938 -0.2479212649 -0.2397386067 0.1754356959
300298200.0 -0.2268436098 0.1743383335 0.3489697658 -0.2517308871 0.3489143729 -0.2513823274 -0.2378690225 0.1778025306
305298170.0 -0.2252316432 0.176570204 0.3462158998 -0.2557902031 0.3467146115 -0.2556450298 -0.2359210081 0.1802699032
310298140.0 -0.2233691044 0.1785053261 0.3433371708 -0.259294851 0.3435246188 -0.2595098219 -0.2339941642 0.1832150511
315298110.0 -0.2219833267 0.1812198939 0.3405348235 -0.2635913974 0.3405443518 -0.2639073717 -0.2321003958 0.1855251081
320298080.0 -0.2199226282 0.1837639074 0.3372409624 -0.2676453241 0.3377265114 -0.2674210036 -0.2305515019 0.1879410692
325298050.0 -0.2186541189 0.1857179619 0.334295012 -0.2710338093 0.3348444201 -0.2712185069 -0.2283839556 0.1902303518
330298020.0 -0.2170535166 0.1885073258 0.3315135987 -0.2750372329 0.3315967042 -0.2752081225 -0.2267989094 0.1928559902
335297990.0 -0.2155520199 0.1910267143 0.3282602685 -0.2785375017 0.3284365909 -0.2788512075 -0.2249992301 0.1955876332
340297960.0 -0.213724093 0.1932152366 0.3247692718 -0.2822345656 0.3250921463 -0.2826162569 -0.2232651897 0.1979915847
345297930.0 -0.2117453026 0.1957321924 0.3219351093 -0.2860726763 0.3215315711 -0.2858369412 -0.220914685 0.200187251
350297900.0 -0.2101848004 0.1979317154 0.3187753592 -0.2889164013 0.3189614542 -0.2893886151 -0.2195372213 0.202599517
355297870.0 -0.2081224553 0.2002631764 0.3156684529 -0.2924338808 0.3154842857 -0.2926469692 -0.2171097492 0.2054771577
360297840.0 -0.206387463 0.2027920346 0.3122488187 -0.2962148194 0.3125119672 -0.2963625179 -0.2151785038 0.2077543831
365297810.0 -0.2044884391 0.2052814876 0.3088735256 -0.299706623 0.309020744 -0.2997476667 -0.2131971501 0.2102394811
370297780.0 -0.2020637679 0.2073182717 0.3052155862 -0.3032220782 0.3059239902 -0.3032001115 -0.21121721 0.2127944108
375297750.0 -0.2005102864 0.2097694185 0.30221989 -0.3064276157 0.3022445717 -0.3062534218 -0.2088007519 0.2147230844
380297720.0 -0.1986092337 0.2121749334 0.2991955774 -0.3100895278 0.2987920751 -0.3100014539 -0.2066339479 0.2176750954
385297690.0 -0.1964133797 0.2138202481 0.2953916356 -0.3128106403 0.2959169216 -0.3134865951 -0.2043190631 0.2199488499
390297660.0 -0.1940182511 0.2160537048 0.2916531193 -0.3158640219 0.2921883651 -0.3162272306 -0.2021200669 0.2218232914
395297630.0 -0.1916594501 0.2183502651 0.2885893144 -0.3188360033 0.2881562929 -0.3192923993 -0.2000452953 0.2238867718
400297600.0 -0.1898788872 0.2204859319 0.2851333534 -0.3225025054 0.2852675718 -0.3226094337 -0.1973005027 0.2267970002
405297570.0 -0.1883016154 0.2223642836 0.2816894295 -0.3253518756 0.2817561585 -0.325525748 -0.1950506322 0.2286363172
410297540.0 -0.1854058941 0.2249186141 0.2776321472 -0.3288829298 0.2781202603 -0.3285860923 -0.1929544284 0.2311890342
415297510.0 -0.1835234297 0.2268597798 0.2740690199 -0.3313748388 0.2743490536 -0.3318011134 -0.1900989377 0.2334770808
420297480.0 -0.1810183271 0.2288464119 0.2703611946 -0.3348037359 0.270583921 -0.3346089841 -0.187227459 0.2356867487
425297450.0 -0.1782963004 0.2306819217 0.266728888 -0.337299725 0.2667704206 -0.3374681978 -0.1855762298 0.2375476303
430297420.0 -0.176396374 0.2327472045 0.2633595788 -0.3408006395 0.2636446554 -0.3402404474 -0.1830435764 0.2396539875
435297390.0 -0.1739758947 0.2344533528 0.2589943849 -0.3435298206 0.2591213377 -0.3433879446 -0.1807633803 0.242088036
440297360.0 -0.1713193331 0.2364164924 0.2551189257 -0.3463765015 0.2554843831 -0.3464646802 -0.1782296624 0.2442636823
445297330.0 -0.1691805778 0.2383712974 0.2514742607 -0.3491339029 0.2521384315 -0.3492403371 -0.1753026482 0.2464289873
450297300.0 -0.1663949202 0.2402522714 0.2481694743 -0.3516765439 0.2481627523 -0.3518316382 -0.1729101131 0.2481201709
455297270.0 -0.1642471303 0.2420449238 0.2437862156 -0.3542325987 0.2440418437 -0.3545619019 -0.1702192106 0.2502568838
460297240.0 -0.1615000017 0.2443504148 0.2402373823 -0.3576383732 0.2402168561 -0.3571512576 -0.1676421062 0.2519244012
465297210.0 -0.159038579 0.2459754914 0.2358347385 -0.3599144957 0.2358952048 -0.3598185987 -0.1647939888 0.2542225268
470297180.0 -0.156440305 0.247665351 0.2321353429 -0.361759504 0.2323228588 -0.3621134912 -0.1622033764 0.2559172359
475297150.0 -0.1538907313 0.2496370733 0.2281845047 -0.364586132 0.2281242994 -0.364783937 -0.1593562393 0.2577889235
480297120.0 -0.1509133211 0.2514640819 0.2238499211 -0.3673632029 0.2242082073 -0.3670240036 -0.1571654716 0.2599365704
485297090.0 -0.148465047 0.2528458714 0.2198306535 -0.3695019609 0.2201114102 -0.3695124613 -0.1542867514 0.2616218158
490297060.0 -0.1452538715 0.2543982849 0.215712187 -0.372095395 0.2159331097 -0.3720907621 -0.1513803484 0.2630722015
495297030.0 -0.1431136047 0.2561370332 0.2119866495 -0.3744341096 0.2118745625 -0.3743777263 -0.1484253929 0.2649911806
500297000.0 -0.1402803699 0.2578304569 0.2078457923 -0.3762674931 0.207787606 -0.3767042214 -0.1458160481 0.2668413917
505296970.0 -0.137105389 0.2596101628 0.203806372 -0.3788428052 0.2038367924 -0.3787086246 -0.1429879927 0.2680609369
510296940.0 -0.1344814227 0.2608843707 0.1993713723 -0.3814833539 0.1995312119 -0.3816060372 -0.1397086961 0.270437653
515296910.0 -0.1317741442 0.2627183738 0.1950230276 -0.3830935938 0.1947591042 -0.382912673 -0.1370800989 0.2714283528
520296880.0 -0.1290165298 0.2639940894 0.1910339311 -0.3851968412 0.190914267 -0.3851347379 -0.1339494847 0.2733936977
525296850.0 -0.1257980053 0.265566939 0.18663643 -0.3871041079 0.1863248063 -0.387027819 -0.1312049519 0.274451941
530296820.0 -0.1236393044 0.2671137452 0.1824594969 -0.389093962 0.1824736308 -0.3891134234 -0.1281598797 0.2758308947
535296790.0 -0.1197856267 0.2684556698 0.1779393576 -0.3911501874 0.1782497995 -0.39120888 -0.125386223 0.2776714558
540296760.0 -0.1171502167 0.2699484862 0.1736681035 -0.3929520021 0.1735237161 -0.3927253784 -0.1224653603 0.2789521395
545296730.0 -0.1147470663 0.2718052822 0.1696948492 -0.3949943555 0.169400236 -0.3945717701 -0.1194199871 0.280574318
550296700.0 -0.1112979893 0.2728281677 0.1650902425 -0.3965349103 0.1647072207 -0.3967605555 -0.1161879018 0.2818299469
555296670.0 -0.1086175886 0.2742245408 0.1609482092 -0.3986363164 0.1607546227 -0.398314405 -0.1138302119 0.2827664377
560296640.0 -0.1051840435 0.2755636977 0.1563614435 -0.4000159508 0.1567376117 -0.4000081704 -0.1108618657 0.2847520569
565296610.0 -0.1025839817 0.2770668618 0.1521246468 -0.4016104226 0.1521615932 -0.401321533 -0.1075958179 0.2861985147
570296580.0 -0.0995688537 0.2782870094 0.1474668145 -0.403117258 0.1474813556 -0.403136523 -0.1044017031 0.2868071474
575296550.0 -0.0959312039 0.2792191742 0.1433814362 -0.4047854765 0.142751863 -0.4045634328 -0.1012946025 0.2882185055
580296520.0 -0.09341217 0.2807244798 0.1387164987 -0.4060603033 0.1386728545 -0.4063747964 -0.0986256203 0.2895275021
585296490.0 -0.0901690201 0.2819397204 0.1346120984 -0.407712286 0.1337715428 -0.4077256014 -0.0948234249 0.2909471637
590296460.0 -0.0865667995 0.282828967 0.1298165851 -0.4089908716 0.1300097216 -0.409323074 -0.0925269965 0.2918561256
595296430.0 -0.0839820169 0.2840869231 0.1251246618 -0.4104617183 0.1248714608 -0.4106358922 -0.0893343522 0.2929578405
600296400.0 -0.0810171037 0.2850775947 0.1207459502 -0.4114844261 0.1207581487 -0.4117524233 -0.0862346708 0.2936855262
605296370.0 -0.0778663263 0.2864102252 0.1172088497 -0.4128045229 0.1161788718 -0.4130998477 -0.0831214434 0.2950814602
610296340.0 -0.0744888802 0.2875392434 0.1120458159 -0.4138698382 0.1120065385 -0.4140765184 -0.0798374441 0.2963452174
615296310.0 -0.0713747737 0.288171001 0.1073482644 -0.4153405746 0.1067804478 -0.415392308 -0.0766343284 0.2970757341
620296280.0 -0.0685420977 0.2898373896 0.102529553 -0.4167439771 0.1023759397 -0.4163293676 -0.0735834649 0.2985419923
625296250.0 -0.0654287982 0.2904253138 0.098192239 -0.4174321923 0.0981512437 -0.4175863207 -0.0703613291 0.2988765688
630296220.0 -0.0621237303 0.2915930389 0.0935018887 -0.4183948368 0.0934727424 -0.4184675829 -0.0671212875 0.2997079105
635296190.0 -0.0591777138 0.2926997778 0.0891970564 -0.4194700177 0.0892410054 -0.4190126129 -0.0644550662 0.3004361924
640296160.0 -0.0562277569 0.2932721323 0.0847156075 -0.4203206396 0.0843362183 -0.4206710757 -0.0611825427 0.3013564176
645296130.0 -0.0528115912 0.294304342 0.0801440913 -0.4212119123 0.0797330993 -0.4210813059 -0.0581248284 0.3019693332
650296100.0 -0.0495569786 0.2950596725 0.0753225229 -0.4220607358 0.0748541534 -0.4220809441 -0.0542789668 0.3029577561
655296070.0 -0.04648554 0.2958063771 0.0704556319 -0.4225728889 0.0707000198 -0.4226377194 -0.0515387819 0.3039866746
660296040.0 -0.0434530363 0.2965448593 0.066394883 -0.4233064248 0.0660436467 -0.4236955802 -0.048404617 0.3040392497
665296010.0 -0.0405615699 0.2973150906 0.0612045962 -0.4239032285 0.0612084218 -0.423900317 -0.0450945976 0.3049564826
670295980.0 -0.0371419882 0.2979196601 0.0567966099 -0.4247130253 0.0567042643 -0.4243219094 -0.0420917728 0.3053251109
675295950.0 -0.0339467062 0.2984727042 0.0521926478 -0.4249455057 0.0524890769 -0.4251561473 -0.0387334461 0.3060710112
680295920.0 -0.031281753 0.2994559789 0.0479881911 -0.4251364424 0.0471950237 -0.4256354658 -0.0354766344 0.3065236111
685295890.0 -0.0278459095 0.2999272154 0.0429545205 -0.426267218 0.0429626119 -0.4262972729 -0.0322062439 0.3075464405
690295860.0 -0.0246471363 0.3006540486 0.0384667667 -0.4265486248 0.0381927876 -0.4264858429 -0.0288834167 0.3076903451
695295830.0 -0.0214611278 0.3010008941 0.0338201825 -0.4269857132 0.0337871623 -0.4270694387 -0.0259807082 0.3083940878
700295800.0 -0.0183062348 0.3015703276 0.0295120683 -0.4271055462 0.0288310545 -0.4270291524 -0.0223169293 0.3083885248
705295770.0 -0.0151862548 0.3022372935 0.0245810522 -0.4275156271 0.0244115733 -0.4274745989 -0.0193856657 0.3092348443
710295740.0 -0.0128173926 0.3020399903 0.020678572 -0.4275953869 0.0198149985 -0.4280695128 -0.015903788 0.3095866234
715295710.0 -0.0090671396 0.30301497 0.0157405541 -0.4280129887 0.0152012295 -0.4280762317 -0.0123883086 0.3093945712
720295680.0 -0.0057295426 0.3030104731 0.0107320268 -0.4277482325 0.0105932549 -0.4283092286 -0.0096167884 0.3098934328
725295650.0 -0.003039867 0.303582783 0.006769658 -0.4278856073 0.0060362893 -0.428180898 -0.006508877 0.310174343
730295620.0 -0.0003771163 0.3039875624 0.0016408233 -0.4276060221 0.0015741648 -0.4279190808 -0.0033058824 0.3108660583
735295590.0 0.0028465293 0.3041030558 -0.0029761639 -0.4281493871 -0.003367525 -0.4278726739 0.0002675907 0.3103312701
740295560.0 0.0058015919 0.3042492463 -0.0076269834 -0.4279582694 -0.0076507386 -0.4280358835 0.00326502 0.3109596924
745295530.0 0.0088649833 0.3044653616 -0.0116754811 -0.4274085485 -0.0118953376 -0.4275370404 0.0063574426 0.3109189171
750295500.0 0.0121328069 0.3050043384 -0.0163625469 -0.4274189362 -0.0168928101 -0.4277429087 0.0098358353 0.3109299701
755295470.0 0.0151471704 0.3049653017 -0.0213354125 -0.4276295751 -0.0210822753 -0.4276192806 0.0130093109 0.3111221594
760295440.0 0.0183995571 0.3054781363 -0.0262399976 -0.4272925776 -0.0260390279 -0.4266571508 0.0164689811 0.3105423362
765295410.0 0.0216399394 0.3049086588 -0.0307780667 -0.4263722524 -0.030715475 -0.4265266511 0.01963146 0.3108107879
770295380.0 0.0243333591 0.3051586123 -0.0347245769 -0.4261791011 -0.0353141334 -0.4267513557 0.022636023 0.3107340499
775295350.0 0.0275154612 0.3050181238 -0.0397869864 -0.4257594986 -0.039789885 -0.4257386548 0.0262415406 0.3107023811
780295320.0 0.0306683948 0.3049816543 -0.0441357821 -0.4249346866 -0.044202845 -0.4252019472 0.029538012 0.3106493945
785295290.0 0.0338480992 0.3047055852 -0.048907568 -0.4247460696 -0.0483440036 -0.4248146016 0.0318222308 0.3103809096
790295260.0 0.0367117937 0.304394795 -0.0533734495 -0.4240901385 -0.0531337308 -0.4250644925 0.0357117555 0.3107736398
795295230.0 0.039594022 0.3042546846 -0.0581558884 -0.4236377545 -0.0581101904 -0.4236673228 0.0387743913 0.309720267
800295200.0 0.0426485836 0.3045148523 -0.0619596891 -0.422713095 -0.0626563557 -0.4233638517 0.0420447611 0.3099112193
805295170.0 0.0457646715 0.3041612277 -0.0667886303 -0.4222199836 -0.0666918368 -0.4224293256 0.0457708096 0.3095300622
810295140.0 0.0492587398 0.3039784752 -0.0716663162 -0.4213177355 -0.071359714 -0.4212451124 0.0490552842 0.3090436966
815295110.0 0.0517585925 0.3034367564 -0.0756921876 -0.4207870593 -0.0759454637 -0.4211446895 0.0517147048 0.308707077
820295080.0 0.0545228538 0.3031598589 -0.0798445081 -0.4196400118 -0.0802661998 -0.4201559272 0.0545541831 0.3088092121
825295050.0 0.0576074703 0.3024896865 -0.0851769107 -0.4191367426 -0.085432773 -0.4190822996 0.0586733731 0.3082862225
830295020.0 0.0611088624 0.3020951318 -0.0894500097 -0.4178026998 -0.0895070171 -0.417937741 0.0617542893 0.3073480573
