!Created with skrf (http://scikit-rf.org).
# Hz S RI R 50.0 
!freq ReS11 ImS11 ReS21 ImS21 ReS12 ImS12 ReS22 ImS22
300000.0 -0.2411462836 -0.0869097271 0.4731091506 0.0572652219 0.4673711815 0.0555309688 -0.239817098 -0.0954565866
5299970.0 -0.2441698552 0.0070259822 0.4735275244 0.0052001872 0.4734768551 0.0048437165 -0.2436340691 0.0071551479
10299940.0 -0.2412026104 0.0184738306 0.4754312692 0.0062391813 0.4758394562 0.0063744978 -0.2404239495 0.0204068927
15299910.0 -0.236621495 0.0278469585 0.4792352228 0.0076235438 0.4792887256 0.0075745468 -0.2356633151 0.0297372069
20299880.0 -0.2320541817 0.0353991792 0.4836141187 0.0080894653 0.483807253 0.008451801 -0.2307837676 0.0375233415
25299850.0 -0.2268355572 0.0421859504 0.4890706726 0.0074393349 0.4892802843 0.0076260998 -0.2247065466 0.0439016305
30299820.0 -0.2212755222 0.0469559369 0.4944579744 0.0056442753 0.4945603163 0.0052606544 -0.218960539 0.0493458221
35299790.0 -0.2163628959 0.0513724842 0.4998598904 0.0019592303 0.4999869847 0.001924892 -0.213317637 0.0535736693
40299760.0 -0.2112707671 0.054726931 0.5045329082 -0.0018073961 0.5051015409 -0.0018268206 -0.2079891693 0.05650767
45299730.0 -0.2068392393 0.0579873763 0.5096484109 -0.0066392849 0.5102919026 -0.0062830551 -0.2033728063 0.0593736749
50299700.0 -0.2025040406 0.0597961228 0.5140816911 -0.0120818843 0.5145458307 -0.011895022 -0.1983167831 0.0610225554
55299670.0 -0.1982613213 0.0618396643 0.5177510414 -0.0185828367 0.5180911925 -0.0180492353 -0.1942746918 0.0624461654
60299640.0 -0.1944087435 0.0636436384 0.5214882541 -0.0244474 0.5212389298 -0.0240951263 -0.1904995412 0.0632221943
65299610.0 -0.191226081 0.0647865 0.5238129134 -0.0306124949 0.5241946522 -0.0305708378 -0.1875386256 0.0644138481
70299580.0 -0.1879519529 0.0660577571 0.5264522302 -0.0374633345 0.5264037593 -0.0372528015 -0.1837505461 0.0647768837
75299550.0 -0.1850758946 0.0670348256 0.5287673473 -0.0440913411 0.528385781 -0.0441981547 -0.181109921 0.0654574633
80299520.0 -0.1825784432 0.0682646737 0.5305104004 -0.0513146131 0.5306635983 -0.0512389183 -0.1786945796 0.0659850589
85299490.0 -0.1802725082 0.0689341063 0.5316040703 -0.0577977586 0.5318441937 -0.0575764958 -0.1764379874 0.066365347
90299460.0 -0.1780318286 0.0699592607 0.5321569711 -0.0650520726 0.5327872159 -0.0647096915 -0.1739170111 0.0668077348
95299430.0 -0.1756815167 0.0703456141 0.5337388092 -0.0716310325 0.5338196697 -0.0719021521 -0.1717499386 0.0673560289
100299400.0 -0.173907513 0.0718253387 0.5336169551 -0.0786360711 0.5339245769 -0.0787875165 -0.1694503185 0.0673086481
105299370.0 -0.1720880268 0.0725833546 0.5344301192 -0.0855811201 0.5349385614 -0.0858063603 -0.1682323872 0.0680376545
110299340.0 -0.1702798069 0.0735118516 0.5345068857 -0.092004424 0.5343481241 -0.0924156681 -0.166587928 0.06837801
115299310.0 -0.1688539409 0.0740879894 0.5346768422 -0.0994897905 0.5343640104 -0.0991481879 -0.1648815159 0.0687220948
120299280.0 -0.1673938019 0.0748422539 0.5339427686 -0.1063157197 0.5341958767 -0.1059392637 -0.1633619866 0.0692445272
125299250.0 -0.1660984346 0.0756877784 0.5340301006 -0.1123567582 0.534163614 -0.112543667 -0.1625358553 0.0692371885
130299220.0 -0.1649763643 0.0770747686 0.5328666926 -0.1197561343 0.5331639878 -0.1194179698 -0.1611970411 0.0698551092
135299190.0 -0.1636343612 0.0783199132 0.5325354827 -0.1262240175 0.5325966382 -0.1259963194 -0.1594954483 0.0707898707
140299160.0 -0.162663066 0.0789794364 0.5318111245 -0.1330894988 0.5317232192 -0.1329049727 -0.1587832103 0.0718375293
145299130.0 -0.1612808648 0.0798561786 0.5311161603 -0.1393188612 0.5305329041 -0.1393336469 -0.1577455933 0.0726053925
150299100.0 -0.1601803301 0.0811722649 0.5295271807 -0.1458019115 0.529527463 -0.145404937 -0.1566847884 0.0738837675
155299070.0 -0.1591777604 0.0822109369 0.5287742611 -0.1528175709 0.5282176656 -0.1524846347 -0.1556852233 0.0743486714
160299040.0 -0.1579886035 0.0835872545 0.5270362176 -0.1588191044 0.5269112999 -0.1594953279 -0.1554497742 0.0755220056
165299010.0 -0.1573243439 0.0843719547 0.5256116288 -0.1653510357 0.5257230834 -0.1656292326 -0.1538996889 0.0765727359
170298980.0 -0.1561569279 0.0856747872 0.5242109335 -0.1716448203 0.524367065 -0.1716600409 -0.152970609 0.0772758258
175298950.0 -0.1554884828 0.0869941892 0.5227990176 -0.1780415395 0.5224275311 -0.1780977151 -0.15255885 0.0787772048
180298920.0 -0.1546685837 0.0885041398 0.5206991723 -0.1843656974 0.5208042888 -0.1838356162 -0.1518181311 0.0798142505
185298890.0 -0.1533184638 0.0895403626 0.5185117444 -0.1904032461 0.5189451832 -0.1903233408 -0.1510004062 0.0810596275
190298860.0 -0.1527986397 0.0911396424 0.5173353709 -0.1969746649 0.5175564395 -0.1968857603 -0.1502580729 0.0820733519
195298830.0 -0.1519047951 0.0918857605 0.5150178367 -0.2026196981 0.5151106275 -0.2028888525 -0.1493917313 0.0829507622
200298800.0 -0.1505765522 0.0937430157 0.5129321553 -0.2090256558 0.5132635916 -0.2091530758 -0.1490897796 0.0843983747
205298770.0 -0.1498460354 0.0952038007 0.5106118201 -0.2152875745 0.5109574175 -0.2147499767 -0.1484281549 0.0847676246
210298740.0 -0.1490149347 0.0962220647 0.5082455881 -0.2211231707 0.5086520697 -0.220545352 -0.1476339561 0.0869339837
215298710.0 -0.1483843801 0.0977679402 0.5062285486 -0.2268035506 0.5059423991 -0.2275436652 -0.1470919685 0.0878765746
220298680.0 -0.1471170661 0.0990565424 0.5034464898 -0.2328585995 0.5036312716 -0.2325389164 -0.146971507 0.0886349172
225298650.0 -0.1463099761 0.100243024 0.5011525183 -0.2386201011 0.5014397332 -0.2386672691 -0.1461986169 0.0899181341
230298620.0 -0.1450892083 0.1020882209 0.4987082542 -0.2441648217 0.4991625643 -0.2445769109 -0.1456051566 0.0908535899
235298590.0 -0.1441814618 0.1036620471 0.4960676782 -0.2504389082 0.4961696233 -0.2498579285 -0.1449057197 0.0924024952
240298560.0 -0.1434221311 0.1052331352 0.4933802063 -0.2559323039 0.4932887738 -0.2560457862 -0.1440697552 0.0938648535
245298530.0 -0.142365339 0.1065029266 0.4910837941 -0.2619480691 0.4904932146 -0.2619409495 -0.1430348262 0.0945423073
250298500.0 -0.1410490734 0.1084007705 0.4874253385 -0.2675730285 0.4871138643 -0.2670020054 -0.1424850395 0.0958336954
255298470.0 -0.1399314442 0.109151342 0.4841130988 -0.2728022841 0.4847719742 -0.2728816009 -0.1417579866 0.0968524255
260298440.0 -0.1391166715 0.110522708 0.481720247 -0.2784182099 0.4818048737 -0.2784873864 -0.1404155455 0.0983408456
265298410.0 -0.1375369097 0.1126552322 0.4789476729 -0.28407148 0.478889765 -0.2839604602 -0.1402402798 0.0997327987
270298380.0 -0.136717187 0.1138821775 0.4761974783 -0.2893488674 0.4759671263 -0.2897088542 -0.1390902565 0.1004930489
275298350.0 -0.135155754 0.115238802 0.4722735784 -0.2948137331 0.4728664772 -0.2950769387 -0.1382613926 0.1015852975
280298320.0 -0.134128541 0.1168565639 0.4696322968 -0.3001271474 0.4695379505 -0.3001328983 -0.1369023118 0.1029350135
285298290.0 -0.1328966748 0.1183956585 0.4660844458 -0.3056493959 0.4663263074 -0.3056489373 -0.1359110321 0.1040402136
290298260.0 -0.1313328327 0.1199511781 0.462306228 -0.3105701733 0.462767174 -0.3110843339 -0.1349216044 0.1055948514
295298230.0 -0.1301490931 0.1208943807 0.4592550169 -0.3159833128 0.459468885 -0.3159216162 -0.1335455333 0.1063512082
300298200.0 -0.1290686231 0.1224269885 0.4562261907 -0.3210038357 0.4562597414 -0.3217625961 -0.132906248 0.1077687078
305298170.0 -0.1276011957 0.1238245015 0.4520552688 -0.3266674097 0.452513308 -0.3265485266 -0.1311520817 0.1088334197
310298140.0 -0.1264298773 0.1250357315 0.4489399505 -0.3318505532 0.4491736094 -0.3316743267 -0.1307624555 0.1099156856
315298110.0 -0.1251356555 0.1260517642 0.4455733541 -0.3367918008 0.4453602215 -0.3364735973 -0.1293619979 0.111096915
320298080.0 -0.123472565 0.1275372552 0.4413154248 -0.342372147 0.4416803547 -0.3418604592 -0.1286361279 0.1125149763
325298050.0 -0.1225479639 0.1289343769 0.438008082 -0.3470645134 0.4376268505 -0.3471513399 -0.1277133048 0.1136627444
330298020.0 -0.1213885459 0.1299376301 0.4337850734 -0.3519928575 0.4338186248 -0.3523608043 -0.1268063644 0.1148850097
335297990.0 -0.1200470781 0.1312118863 0.4300142987 -0.3567357232 0.4296080225 -0.3570517106 -0.1263085889 0.116895828
340297960.0 -0.1191291844 0.1326123942 0.4254167401 -0.3613557009 0.4250343097 -0.3618095948 -0.1244729847 0.1180988059
345297930.0 -0.1179662606 0.1346875312 0.4212504438 -0.3668650177 0.4209937797 -0.366381876 -0.1238966197 0.1189363855
350297900.0 -0.1163539384 0.1357095381 0.4168660086 -0.3712157532 0.417187788 -0.3707050468 -0.1232018758 0.1211019315
355297870.0 -0.1151582593 0.1375621418 0.4127841683 -0.3754979772 0.4134026997 -0.3755512846 -0.1218439798 0.1221163405
360297840.0 -0.1137309527 0.1388442487 0.4092809928 -0.3799140527 0.4094688719 -0.3799514887 -0.121020545 0.1240956697
365297810.0 -0.112590592 0.1403723446 0.4047141484 -0.3849835717 0.4052999276 -0.3845411429 -0.1198466702 0.1252394738
370297780.0 -0.1106950412 0.1413792244 0.4002260733 -0.3888368746 0.4009707709 -0.388826033 -0.1189560301 0.1266904793
375297750.0 -0.109270321 0.1429757384 0.3962816691 -0.3934033468 0.3967583751 -0.3933971182 -0.1177011257 0.1276489573
380297720.0 -0.1076819574 0.144362505 0.3917220252 -0.3977863515 0.3918765622 -0.3974709983 -0.1169926756 0.1291081941
385297690.0 -0.106668113 0.1455377438 0.3874420539 -0.4017958075 0.3870431107 -0.4018676842 -0.1157216852 0.1304550214
390297660.0 -0.1049223599 0.1472066189 0.3830884699 -0.406576882 0.3828658119 -0.4058990078 -0.1146578737 0.1314694448
395297630.0 -0.1029668405 0.1484393612 0.3785444802 -0.4101271654 0.3785402865 -0.410840887 -0.1131013994 0.1329535849
400297600.0 -0.1017785689 0.1497530852 0.3736345116 -0.4148627593 0.3741063911 -0.4147192465 -0.1121660507 0.1340967801
405297570.0 -0.1003093751 0.1508637675 0.3693464284 -0.4186321966 0.3694351027 -0.4180861401 -0.1113969327 0.1351252698
410297540.0 -0.0984514525 0.1518838114 0.3648558697 -0.4230241639 0.3651560232 -0.4228147438 -0.1100698373 0.1366693321
415297510.0 -0.0963731713 0.1531811094 0.3599396399 -0.4270571604 0.3601956649 -0.4268612122 -0.1089807358 0.1375928437
420297480.0 -0.0951747328 0.154572216 0.3549228219 -0.4304543127 0.3555254541 -0.4307770725 -0.1078947789 0.1384919747
425297450.0 -0.0934183999 0.1553366619 0.3506893689 -0.4346035693 0.3512523252 -0.4345660124 -0.1069073733 0.1399729365
430297420.0 -0.0920172162 0.1567111842 0.3457842894 -0.4378987317 0.3457153353 -0.4379672279 -0.1052794908 0.1406533603
435297390.0 -0.0902356741 0.1578972413 0.3406517717 -0.4420344892 0.3404170236 -0.4421026767 -0.1033292247 0.1418467231
440297360.0 -0.088283429 0.1589865802 0.3361715648 -0.4455283308 0.3361825426 -0.4457940756 -0.1026579587 0.1425728619
445297330.0 -0.0867351805 0.1598009978 0.3316898907 -0.4491282148 0.3313881796 -0.4491944765 -0.1010659376 0.1433781414
450297300.0 -0.0847534462 0.1609366031 0.3265248953 -0.453080201 0.3262244 -0.4529513862 -0.0998750905 0.1443761292
455297270.0 -0.0831148826 0.1621157164 0.3212953084 -0.4562528911 0.3214220463 -0.4563786502 -0.0980244107 0.1457609685
460297240.0 -0.081737168 0.1633291704 0.3163171716 -0.4597861398 0.3164025527 -0.4597980963 -0.0967590981 0.146902944
465297210.0 -0.0794087354 0.1644467539 0.31141194 -0.4633704321 0.3112163735 -0.4638012778 -0.095146659 0.1476222737
470297180.0 -0.0776014594 0.1650042589 0.3059082747 -0.4667658737 0.3061807384 -0.4669040315 -0.0935619535 0.1488711621
475297150.0 -0.0759397257 0.1657787976 0.300911565 -0.4694338837 0.3010919627 -0.4698809862 -0.0917943806 0.1497124291
480297120.0 -0.0739954041 0.1671352475 0.295512916 -0.4736824177 0.2958204561 -0.4737339963 -0.0901645055 0.1507247369
485297090.0 -0.0723858793 0.1679360644 0.2907980185 -0.4760849397 0.2907985204 -0.4761655816 -0.0887377017 0.1518368865
490297060.0 -0.070947918 0.169124578 0.2861983397 -0.4799108309 0.2854587233 -0.4791539057 -0.0875328305 0.1529737455
495297030.0 -0.0687358971 0.1701749732 0.2800358824 -0.4825432517 0.2810358169 -0.4823481288 -0.0861433245 0.153989554
500297000.0 -0.0670670613 0.1706447418 0.2752455259 -0.484791775 0.2746394619 -0.4855789149 -0.0843451586 0.1556393342
505296970.0 -0.0646292544 0.1714338603 0.2696047354 -0.4884135881 0.2696041235 -0.4886518603 -0.0829099665 0.1562560584
510296940.0 -0.0630433016 0.1721876412 0.2642287723 -0.491240303 0.2639637659 -0.4917509606 -0.0811085797 0.1572819979
515296910.0 -0.060998463 0.173443817 0.2587954077 -0.4943039049 0.2587310932 -0.4942032501 -0.0798291002 0.1582752598
520296880.0 -0.0594458472 0.1743778663 0.2536781152 -0.4974588226 0.2533844503 -0.4970588899 -0.0781408586 0.1592839346
525296850.0 -0.0571442984 0.1746363003 0.2478163765 -0.4996489256 0.2485492566 -0.4995431457 -0.0770415421 0.160458619
530296820.0 -0.0553737384 0.1759037044 0.2426925447 -0.5024047239 0.2428083172 -0.5027269679 -0.0751533082 0.1614939466
535296790.0 -0.0533749516 0.1767149784 0.2373520341 -0.5048472496 0.2374109834 -0.504470976 -0.0738478453 0.1619314301
540296760.0 -0.051607441 0.1774793732 0.2314424363 -0.5076591976 0.2315654299 -0.5075435583 -0.0723541178 0.1636215609
545296730.0 -0.0498926124 0.177997734 0.2260106394 -0.5095164731 0.2261040627 -0.5096628806 -0.0711036659 0.1639500945
550296700.0 -0.0475756661 0.1789972178 0.2203939683 -0.5120730838 0.2206098487 -0.5125390517 -0.0695908108 0.1652445334
555296670.0 -0.0458545476 0.1794542114 0.2151067473 -0.5149081407 0.2155058391 -0.5149974408 -0.0680134051 0.1662956816
560296640.0 -0.0435518422 0.180394547 0.2094733741 -0.517335191 0.2094915754 -0.5173688021 -0.0663494271 0.1672627011
565296610.0 -0.0419423979 0.1809661595 0.2035918254 -0.519252686 0.2037987187 -0.5192165259 -0.0649938777 0.1672744001
570296580.0 -0.0399446567 0.1815585463 0.1982883183 -0.5222100523 0.1977583801 -0.5216862273 -0.0636970013 0.1688369475
575296550.0 -0.0379708661 0.1823367974 0.192387202 -0.5240162653 0.1920877722 -0.5235690345 -0.0615952411 0.1692577589
580296520.0 -0.0356275884 0.1824907746 0.1865245922 -0.5258211761 0.1868049548 -0.5257650301 -0.0604175212 0.1698974163
585296490.0 -0.0340846168 0.18282133 0.1811455663 -0.5270048003 0.1810916642 -0.527684316 -0.0586967934 0.1707508509
590296460.0 -0.031369898 0.1836295547 0.1750382329 -0.5289776988 0.1750598691 -0.5293924299 -0.0576869917 0.1713942204
595296430.0 -0.0295926477 0.1841191954 0.1687917478 -0.5314618848 0.1690878788 -0.5311836139 -0.0555526947 0.1713346016
600296400.0 -0.0277496788 0.1844170034 0.1636211829 -0.5330181942 0.163919181 -0.532996723 -0.0541655131 0.1722175203
605296370.0 -0.0257930087 0.184938707 0.1574188444 -0.5345734457 0.1578155943 -0.5349104891 -0.0520789549 0.1731677847
610296340.0 -0.0237008815 0.1853134959 0.1519210476 -0.5364322739 0.152075171 -0.5363802873 -0.0504773317 0.1733731397
615296310.0 -0.021334322 0.1853990942 0.1455894195 -0.5377261401 0.1458944212 -0.5383472385 -0.0486398549 0.1737576525
620296280.0 -0.019667789 0.18567278 0.1403196474 -0.5393313274 0.1403032256 -0.5392130286 -0.0471960213 0.1744573502
625296250.0 -0.0177341355 0.1859501986 0.1348744922 -0.5408899332 0.1345763116 -0.5412943672 -0.0451165161 0.1747945105
630296220.0 -0.0149234892 0.1864739591 0.1279597614 -0.5422219851 0.1281143537 -0.5422848837 -0.0436184396 0.1753237502
635296190.0 -0.0138955989 0.1864467331 0.1229363044 -0.5434350749 0.1227118041 -0.5435349429 -0.0416285806 0.176060839
640296160.0 -0.0114963401 0.1872799371 0.1167669679 -0.5449608538 0.1170620917 -0.5448459044 -0.0399272734 0.1763845015
645296130.0 -0.0093935373 0.187655932 0.1107949711 -0.5456792105 0.1112900681 -0.5459111387 -0.0379100483 0.1769773715
650296100.0 -0.0072569707 0.1874395088 0.1050552832 -0.5471744667 0.1050363634 -0.5472274328 -0.0358769324 0.1769307547
655296070.0 -0.0055449128 0.1875322459 0.0991844308 -0.5483753638 0.0993925173 -0.5481378714 -0.0340780927 0.1779321983
660296040.0 -0.0037304023 0.1873765233 0.0931214781 -0.5490720178 0.0937737491 -0.5493700967 -0.0321827135 0.1786472507
665296010.0 -0.0010019492 0.1876714596 0.0866480843 -0.5501563589 0.0875223785 -0.5501475759 -0.0304126504 0.1792973466
670295980.0 0.0002540452 0.1881174816 0.0810018212 -0.5510873114 0.0814585303 -0.5508125632 -0.0289956897 0.1795913937
675295950.0 0.0025840428 0.1883193187 0.0756622659 -0.551631871 0.0755401452 -0.5513109652 -0.0273817529 0.1801361713
680295920.0 0.0049676808 0.1882050786 0.069140696 -0.552348282 0.0689072059 -0.5527740043 -0.0252869392 0.1809327989
685295890.0 0.0069939015 0.1889829795 0.0634288111 -0.5530318424 0.0633623292 -0.5534482943 -0.0236023073 0.1814870047
690295860.0 0.0092467459 0.1887296056 0.057570084 -0.5533465989 0.0571616447 -0.5541167233 -0.0218982866 0.1823594939
695295830.0 0.0109162278 0.1886681716 0.0521590909 -0.5540180732 0.0509797455 -0.5545377868 -0.0199757665 0.1826574465
700295800.0 0.0135457038 0.1885255432 0.0455769352 -0.5545712231 0.0449397642 -0.5546011618 -0.018386203 0.1836239455
705295770.0 0.0151629766 0.1894192857 0.0393113973 -0.5553423318 0.0395655551 -0.5552838553 -0.0167784638 0.1837564805
710295740.0 0.0175359581 0.1891427607 0.033902101 -0.5559329665 0.0336941418 -0.5559726382 -0.0150065719 0.1832906707
715295710.0 0.0192464878 0.1888021448 0.0282750558 -0.5562729674 0.0271975087 -0.5559758666 -0.0131464508 0.1841233246
720295680.0 0.0215111342 0.1884789504 0.0214509464 -0.5560052291 0.0217544406 -0.5564765558 -0.0112907038 0.1849805979
725295650.0 0.0236866773 0.1887254519 0.0153783769 -0.556327945 0.0157356711 -0.5566823392 -0.0101087565 0.18514807
730295620.0 0.025809866 0.188457189 0.0094071689 -0.5561603322 0.0093778587 -0.556632291 -0.0084070775 0.185091003
735295590.0 0.0277287205 0.1885071231 0.0038333359 -0.5568089777 0.0032433906 -0.5562706292 -0.0068017132 0.1853099845
740295560.0 0.0296713413 0.1886989859 -0.0026219449 -0.5564961736 -0.002906921 -0.5566149631 -0.0045783517 0.1857371468
745295530.0 0.0320489995 0.1883730615 -0.0085198188 -0.5558680982 -0.0087396175 -0.5562776507 -0.0030230244 0.1855333105
750295500.0 0.0341800642 0.187913204 -0.0141873311 -0.5561905067 -0.0145813001 -0.5564150029 -0.001330159 0.1856687757
755295470.0 0.0360978086 0.1872583442 -0.0200449933 -0.5561020255 -0.02042081 -0.5559387935 0.0006449973 0.1853682369
760295440.0 0.0381632498 0.1874116563 -0.0263190718 -0.555843803 -0.0267504019 -0.5560249811 0.0024259104 0.1859206256
765295410.0 0.040253963 0.1874853048 -0.0324492089 -0.555098721 -0.0327716906 -0.5556150486 0.004347427 0.1860603226
770295380.0 0.0419712888 0.1868018578 -0.0386312191 -0.5550287499 -0.0387651903 -0.5545976076 0.0055342492 0.1857959232
775295350.0 0.0439397651 0.1859804803 -0.0446234708 -0.5540752784 -0.044312302 -0.5543408753 0.0071998853 0.1857635662
780295320.0 0.0464262726 0.1860147211 -0.0505810855 -0.5533787268 -0.0500399329 -0.5538756542 0.0090119737 0.1855565919
785295290.0 0.0480100926 0.1849874222 -0.0568336336 -0.5528372344 -0.0563302455 -0.5532015124 0.0116765071 0.1857170847
790295260.0 0.0504972983 0.185267489 -0.0617041911 -0.5527723884 -0.0613953252 -0.5525711787 0.0130982552 0.1854538594
795295230.0 0.0522523613 0.184372798 -0.0683874414 -0.5518255506 -0.0678222659 -0.5521465736 0.0152367018 0.1858190242
800295200.0 0.053974765 0.1844175011 -0.0746534006 -0.5508912027 -0.0742887023 -0.5510593406 0.0171430652 0.1859167903
805295170.0 0.056469629 0.1836237011 -0.0800760831 -0.5499061142 -0.0802803984 -0.5502973989 0.018725568 0.1855397533
810295140.0 0.0582180479 0.1827316664 -0.086323978 -0.548943096 -0.0859516779 -0.549586406 0.0210789876 0.185654199
815295110.0 0.0604393302 0.182256185 -0.0918603358 -0.547956038 -0.0917449325 -0.5482300835 0.0227209498 0.185612195
820295080.0 0.0620228973 0.1825624598 -0.0977444585 -0.5471852737 -0.0973374227 -0.5469206826 0.0246156693 0.1855112173
825295050.0 0.0644048877 0.1812079328 -0.1032691899 -0.5455936654 -0.1035646149 -0.5460928584 0.0266982782 0.1857489556
830295020.0 0.0663112811 0.1812677221 -0.1095099166 -0.544963818 -0.10973079 -0.544724068 0.02939753 0.185398325
