!Created with skrf (http://scikit-rf.org).
# Hz S RI R 50.0 
!freq ReS11 ImS11 ReS21 ImS21 ReS12 ImS12 ReS22 ImS22
300000.0 -0.2394923997 -0.0965738888 0.4682942822 0.065029722 0.4690091005 0.0688109618 -0.2379283916 -0.110843702
5299970.0 -0.2439091088 0.0071571786 0.4738527962 0.0052797873 0.4736640339 0.0057215629 -0.2440481061 0.0058716314
10299940.0 -0.2402566177 0.0199201541 0.4760546049 0.0061936006 0.4755820753 0.0065985467 -0.2410055509 0.018502118
15299910.0 -0.235885351 0.02934641 0.4790985834 0.0077764927 0.4792987204 0.0081076745 -0.236639253 0.0275721359
20299880.0 -0.2304355032 0.0370562179 0.4838589735 0.0083422585 0.4841777728 0.0085149716 -0.2320838098 0.0352503098
25299850.0 -0.224833926 0.0435299279 0.4891504049 0.0071868618 0.4893866117 0.007282096 -0.2267788864 0.0416852887
30299820.0 -0.2187303633 0.0483637896 0.4949100573 0.0055484419 0.4947643022 0.0055071831 -0.2214592685 0.0469318616
35299790.0 -0.2131405388 0.0528114434 0.5003885809 0.0022222183 0.5002855974 0.0022122556 -0.2159842261 0.0509786966
40299760.0 -0.207346405 0.055737441 0.5055659137 -0.0013754303 0.5052935459 -0.0016246232 -0.2114748346 0.0546978896
45299730.0 -0.2024312376 0.0585512629 0.5101373178 -0.006884686 0.5100893402 -0.0066274849 -0.2067935455 0.0573090491
50299700.0 -0.1973818964 0.0601510662 0.5136859421 -0.0122769922 0.5142621321 -0.0121028261 -0.2020956267 0.059692137
55299670.0 -0.1933657532 0.0617164012 0.5178496015 -0.0181518368 0.5183503898 -0.0179097358 -0.1984940425 0.0615646252
60299640.0 -0.1893215696 0.0627775459 0.5210590677 -0.0241707429 0.5214663673 -0.0242707715 -0.1943548929 0.063078834
65299610.0 -0.1860622744 0.0638953308 0.524311624 -0.0301694087 0.5244272727 -0.0305879741 -0.1908735275 0.0644746827
70299580.0 -0.1826852885 0.0641498187 0.5267904468 -0.0367124437 0.5269640997 -0.0372469095 -0.1880323416 0.0656859416
75299550.0 -0.1795037953 0.0650239572 0.5285838425 -0.0439627341 0.5287905803 -0.0442186677 -0.1850584837 0.066932587
80299520.0 -0.1773672823 0.0657189391 0.5311341163 -0.0512931836 0.5310224598 -0.0509792966 -0.1826937028 0.0675261027
85299490.0 -0.1745370701 0.0658771704 0.5322575983 -0.0577336871 0.5320482727 -0.0578828261 -0.180164267 0.0681858977
90299460.0 -0.1725065447 0.0664937705 0.5331078521 -0.0643150287 0.5332561854 -0.0648117148 -0.1776415851 0.0691876499
95299430.0 -0.1706181294 0.0671289468 0.5342417258 -0.0718692855 0.5342855374 -0.0717534638 -0.1761174761 0.0702102843
100299400.0 -0.1686159716 0.0676575532 0.5341095801 -0.0784122979 0.5341138168 -0.0787647951 -0.1742170439 0.0711145714
105299370.0 -0.1670278202 0.067931864 0.5344366168 -0.0847834715 0.5347040171 -0.0854729259 -0.1722344484 0.0715323434
110299340.0 -0.1656196891 0.0683883315 0.5348452569 -0.0921137048 0.5347135082 -0.0925462211 -0.1704183074 0.072790506
115299310.0 -0.1638717685 0.068878421 0.535075342 -0.0990725034 0.5348930299 -0.0988436136 -0.1692683604 0.0731633806
120299280.0 -0.1629238491 0.0693941686 0.534840521 -0.1059380065 0.5346019797 -0.1062078885 -0.1678389468 0.0740373016
125299250.0 -0.1617367236 0.0697881308 0.5345185449 -0.1127078389 0.5343708795 -0.1130755017 -0.1662036446 0.0749243577
130299220.0 -0.1604549912 0.070673913 0.5339027932 -0.1190609121 0.5337684962 -0.1194286676 -0.1650892975 0.0761049544
135299190.0 -0.1593504109 0.0710083898 0.5329145635 -0.1257708815 0.5327021718 -0.1260947803 -0.1643020298 0.0768687654
140299160.0 -0.1585504222 0.0721570964 0.5321872937 -0.1328250998 0.5323364472 -0.1330064709 -0.163025212 0.0781039921
145299130.0 -0.1575282447 0.072713292 0.5317643938 -0.1395829015 0.5312039513 -0.138986337 -0.1623044282 0.07895196
150299100.0 -0.1567634073 0.0735192265 0.5304505414 -0.1461554123 0.5300978121 -0.1457758955 -0.1609956785 0.0799081015
155299070.0 -0.155844559 0.0748280056 0.5291614914 -0.1529530574 0.5290301049 -0.1527482887 -0.16018765 0.0808884384
160299040.0 -0.1548712025 0.0753697309 0.5274767055 -0.1584035748 0.527639634 -0.1591631796 -0.1589307543 0.0826057124
165299010.0 -0.1544425071 0.0762635491 0.5265039808 -0.1656055343 0.5262692986 -0.1655970149 -0.1579365697 0.0832635527
170298980.0 -0.153562442 0.0772767135 0.5240627539 -0.1714464151 0.5244497914 -0.1716828262 -0.1570759424 0.0846311783
175298950.0 -0.152601342 0.0782498686 0.5234448876 -0.1779958868 0.5233986883 -0.1777974279 -0.1559528636 0.0855797788
180298920.0 -0.1518731198 0.079279552 0.5215379342 -0.1845306916 0.5214480463 -0.1840147604 -0.154972227 0.087020322
185298890.0 -0.1509490491 0.0800383184 0.5192025097 -0.1906405467 0.5194780758 -0.1907090929 -0.1544769708 0.0880475285
190298860.0 -0.1502071799 0.0811985253 0.5171721905 -0.1963987408 0.5175669181 -0.1967387674 -0.1527612662 0.0894704637
195298830.0 -0.1494542673 0.0820016428 0.5157844674 -0.2023752877 0.5157575761 -0.2029647852 -0.1519316296 0.0904678013
200298800.0 -0.1489676471 0.0835404678 0.5138089385 -0.2081716329 0.5135993354 -0.2087748175 -0.1508415375 0.0920703637
205298770.0 -0.1480622668 0.0844537949 0.5115732224 -0.214546929 0.5114575702 -0.2148578198 -0.1500665978 0.0931147692
210298740.0 -0.1476264764 0.0852609202 0.5091503843 -0.2211011477 0.5093984124 -0.2213591708 -0.1493367333 0.0947361648
215298710.0 -0.1465681977 0.0869882602 0.5068022212 -0.2268726967 0.5068522723 -0.2267477769 -0.1486323128 0.0961813741
220298680.0 -0.1458611617 0.0879404071 0.5044095019 -0.2327447005 0.5045886171 -0.2325839789 -0.1469708273 0.0973518313
225298650.0 -0.1448968071 0.0892344531 0.5015807283 -0.2382450529 0.5016440131 -0.2384035959 -0.1462029949 0.0990504279
230298620.0 -0.144651065 0.0905751337 0.4998675264 -0.2442697872 0.4997160991 -0.244381801 -0.1448605343 0.1001447038
235298590.0 -0.1438817885 0.091535589 0.4968020264 -0.2495597959 0.4966698747 -0.2504018815 -0.1442040956 0.1013366872
240298560.0 -0.1430276932 0.0928916103 0.4945363733 -0.2553645499 0.494173206 -0.2555162529 -0.1430964229 0.1032522357
245298530.0 -0.1418389449 0.0941699368 0.490643467 -0.2613506352 0.4914188954 -0.2617659532 -0.141991303 0.1047738422
250298500.0 -0.1414530296 0.0953122657 0.4884295111 -0.2668351141 0.488821009 -0.266783985 -0.1405687754 0.1058004807
255298470.0 -0.1408055945 0.0967397484 0.4852099681 -0.2731413164 0.4855297218 -0.2726397226 -0.1395914173 0.1072857158
260298440.0 -0.1395706013 0.0979372818 0.4827684797 -0.2780415643 0.4826653284 -0.2781021714 -0.1381230752 0.1087008698
265298410.0 -0.1386465341 0.0994090221 0.479898885 -0.2840994601 0.4793910003 -0.284059077 -0.1374394137 0.1101064585
270298380.0 -0.1378794426 0.1006860918 0.4763130417 -0.2894961766 0.4766413222 -0.2893033671 -0.1359338746 0.1119681024
275298350.0 -0.1371638495 0.1019378595 0.4732025471 -0.2953679042 0.473665968 -0.2949665045 -0.1347265328 0.113351293
280298320.0 -0.1364349114 0.1031558606 0.4698609862 -0.2995875468 0.4698065894 -0.3001811078 -0.1334685346 0.1147271519
285298290.0 -0.1351569507 0.1046191942 0.4669346659 -0.3050211175 0.4668291551 -0.3056255284 -0.132361214 0.1162637265
290298260.0 -0.1343518025 0.1060632263 0.4639140472 -0.310630146 0.4638196839 -0.3107885503 -0.1306026559 0.1180720092
295298230.0 -0.1333984109 0.1071207374 0.4606573027 -0.3159344478 0.4599163706 -0.3161521687 -0.1296410558 0.1192699319
300298200.0 -0.1320331736 0.1082558204 0.4563362731 -0.3212433095 0.4568308174 -0.3213642955 -0.1282367782 0.1205435157
305298170.0 -0.1311638956 0.1096840559 0.4534983893 -0.3265514792 0.4536444888 -0.3265473898 -0.1265977658 0.1226825181
310298140.0 -0.1296445562 0.1105539428 0.4499914559 -0.3318668463 0.450142144 -0.3323371317 -0.1254241647 0.1242207906
315298110.0 -0.1292450636 0.1116054164 0.4459714347 -0.3367058641 0.4461768023 -0.3372551942 -0.1236846137 0.124982665
320298080.0 -0.1281687575 0.1131452198 0.4424817218 -0.3422059899 0.4422974794 -0.3418353842 -0.1226457475 0.1262381181
325298050.0 -0.1272687876 0.1141482717 0.4390100104 -0.3471596421 0.4386115071 -0.3473423919 -0.1212159503 0.1276072231
330298020.0 -0.1265375697 0.1157807407 0.4338179474 -0.3522131144 0.4340016279 -0.352159845 -0.1201740424 0.1288635241
335297990.0 -0.1251900949 0.1166442001 0.4302086261 -0.3572540681 0.4306847004 -0.3572718869 -0.1190682623 0.130359112
340297960.0 -0.1247893741 0.1181749631 0.4263361905 -0.3619405444 0.4263207162 -0.3618200079 -0.1178604794 0.1316735467
345297930.0 -0.1239181126 0.1193523379 0.4221493972 -0.3660196122 0.4218580225 -0.3664547796 -0.1162964652 0.1332741015
350297900.0 -0.1223453577 0.1208462538 0.4181806855 -0.3706727094 0.4182279673 -0.3710659699 -0.1149848608 0.1348039427
355297870.0 -0.1214511385 0.1220425614 0.4138780865 -0.3755718646 0.4138052096 -0.3757266875 -0.1138875977 0.1363016737
360297840.0 -0.120075822 0.1236892091 0.4097689099 -0.380812241 0.4092943935 -0.3801485962 -0.1119841007 0.137949554
365297810.0 -0.1189887631 0.1246344664 0.4052745982 -0.384673682 0.4053870288 -0.3844988472 -0.1108211638 0.1394524543
370297780.0 -0.1180191561 0.1258835073 0.4008768291 -0.3890989161 0.4012725846 -0.3896663424 -0.1092187781 0.140994047
375297750.0 -0.1167810352 0.1275161699 0.3972805947 -0.3938939934 0.3968683261 -0.3938312764 -0.1076704191 0.1423852483
380297720.0 -0.1153747419 0.1283222838 0.3927023585 -0.3976539748 0.3924499611 -0.3980010937 -0.1059975386 0.1436744927
385297690.0 -0.1142918454 0.1296764744 0.3881201747 -0.4016509233 0.3879552282 -0.4022831436 -0.1045399715 0.1454686289
390297660.0 -0.1133544254 0.1309802591 0.3834960876 -0.4065482654 0.3836123393 -0.4066729837 -0.1030655407 0.1462159757
395297630.0 -0.1115534602 0.1320794215 0.3793399208 -0.4105329174 0.3791873806 -0.4106312513 -0.1015231499 0.1478609671
400297600.0 -0.1107269117 0.1335407921 0.3745419697 -0.4150158271 0.375034242 -0.4151992108 -0.1002825071 0.149183379
405297570.0 -0.1094807448 0.1348216998 0.370362222 -0.418919572 0.3701304722 -0.4190668024 -0.0984580878 0.1505703378
410297540.0 -0.1078708202 0.1358555483 0.3652546225 -0.4228498102 0.3652293979 -0.4230145167 -0.0965873755 0.1518477956
415297510.0 -0.1065494933 0.1373380932 0.3605027311 -0.4268025825 0.3609120798 -0.4268129632 -0.0952098272 0.1533497891
420297480.0 -0.1053169917 0.1379944001 0.3560409328 -0.4310915726 0.3561040738 -0.4309032432 -0.0934306314 0.1539665364
425297450.0 -0.1037366285 0.1391414478 0.3510404681 -0.4347941333 0.3516681423 -0.4349333119 -0.0918251488 0.1557866786
430297420.0 -0.1029049667 0.1405853704 0.3469733828 -0.4386310696 0.3466755879 -0.4386760207 -0.0902906637 0.1567461963
435297390.0 -0.1013349474 0.1414793219 0.3419465596 -0.4419874546 0.3417078907 -0.4418798738 -0.0884041476 0.1584161817
440297360.0 -0.0993231128 0.1425614343 0.3365172302 -0.4459785028 0.3364758022 -0.4458224631 -0.0867953072 0.1587174052
445297330.0 -0.0981203764 0.143800292 0.331252121 -0.4499166992 0.33189707 -0.4494867432 -0.0850199969 0.1601809755
450297300.0 -0.0969228698 0.1447564734 0.326758343 -0.4531887024 0.327072446 -0.4533050701 -0.0836159143 0.1615697751
455297270.0 -0.0956715827 0.1460319746 0.3224335278 -0.4570256934 0.3222634872 -0.4566754404 -0.0811605805 0.1628761008
460297240.0 -0.0944466701 0.146692035 0.3168923609 -0.4596796242 0.3166788249 -0.460258787 -0.0795351747 0.1642375977
465297210.0 -0.0925674384 0.1478485935 0.311887421 -0.463722234 0.3122699131 -0.4635253758 -0.0784102242 0.1645460168
470297180.0 -0.0914459849 0.1485626843 0.3068863195 -0.4665692123 0.3070323637 -0.4671901143 -0.0769370321 0.1657368323
475297150.0 -0.0901202298 0.1495984448 0.3010548707 -0.4701111329 0.3018102569 -0.4699366998 -0.0745985377 0.1668032077
480297120.0 -0.0882373426 0.1506056865 0.2965791464 -0.4732641971 0.296606454 -0.473269387 -0.073256102 0.1684217119
485297090.0 -0.0868214358 0.151538219 0.291456468 -0.4765432645 0.2917075266 -0.4766658146 -0.0712932295 0.1688684439
490297060.0 -0.0853275132 0.1524710557 0.2864372421 -0.4797709751 0.2864981023 -0.4799557261 -0.0691515022 0.1701025758
495297030.0 -0.0844574622 0.153601784 0.2811922044 -0.482344129 0.2806584768 -0.4830238343 -0.0674145544 0.1708138935
500297000.0 -0.0824068598 0.1541269429 0.27531748 -0.485547434 0.275639075 -0.4856477972 -0.0658042485 0.1717560701
505296970.0 -0.0810924702 0.1552899491 0.2700815132 -0.4886816746 0.2699316157 -0.4884035198 -0.0642295564 0.1730211983
510296940.0 -0.0795315242 0.1563607685 0.2648507887 -0.4920168074 0.2651144843 -0.4913260199 -0.0619128785 0.1739007231
515296910.0 -0.0781756713 0.1574167042 0.2590926076 -0.4941149645 0.2594604041 -0.4944377423 -0.0604485441 0.1747847931
520296880.0 -0.0766151331 0.1579382244 0.2542723658 -0.4970820756 0.2546206275 -0.4970702247 -0.0580693706 0.1757492856
525296850.0 -0.0750820944 0.158827027 0.2486510732 -0.4999054813 0.2489699453 -0.4999215255 -0.0560381064 0.1763063414
530296820.0 -0.0735637792 0.1597152949 0.2436277999 -0.5019119143 0.243197809 -0.5026981292 -0.055000173 0.1765591944
535296790.0 -0.0721865619 0.1604448158 0.2375887683 -0.5048811979 0.2379834672 -0.5046467377 -0.0526399821 0.1775538378
540296760.0 -0.0703673667 0.1611314133 0.2320673105 -0.5078482603 0.2323175534 -0.5078620544 -0.0508759857 0.1785046199
545296730.0 -0.0688998356 0.1622222416 0.2266366914 -0.5095720927 0.2267187591 -0.5101084211 -0.0491773236 0.1789230959
550296700.0 -0.067673943 0.1628988457 0.2215296637 -0.5125220367 0.2216813828 -0.512684558 -0.047197228 0.1802718507
555296670.0 -0.0654924703 0.163673468 0.2158740908 -0.5151876094 0.2159342665 -0.514613516 -0.0453207063 0.1808483117
560296640.0 -0.0639727899 0.1643520985 0.2098819395 -0.5168299511 0.2101497254 -0.5168493638 -0.0430045524 0.1811826558
565296610.0 -0.0628341388 0.1651932866 0.2044550397 -0.519470549 0.2040714868 -0.5195608004 -0.0416889449 0.1821100997
570296580.0 -0.0607530607 0.1655300991 0.1984891528 -0.5211822383 0.1992333038 -0.5214232934 -0.0393876553 0.1831077783
575296550.0 -0.0592356206 0.1668837149 0.1929214239 -0.5234964958 0.1934083613 -0.523267016 -0.0370387199 0.1833163274
580296520.0 -0.0577725256 0.1672307771 0.1875954266 -0.5254657483 0.1873088257 -0.5258133528 -0.0351737144 0.1837405292
585296490.0 -0.0558389283 0.1678742381 0.1818228149 -0.5275213952 0.1818889421 -0.5277075831 -0.0334929981 0.1837451994
590296460.0 -0.0546890654 0.1683231702 0.1759397503 -0.5294977357 0.1758560125 -0.5296490389 -0.0314061209 0.1848763637
595296430.0 -0.0528709575 0.1695655299 0.1704746732 -0.5314783891 0.1701340733 -0.5316060429 -0.0292177985 0.1852218805
600296400.0 -0.051283461 0.1700345406 0.1649688124 -0.5331763162 0.1648580764 -0.5330529757 -0.0272511474 0.1859070066
605296370.0 -0.0496543424 0.1707630258 0.1588786393 -0.5351766141 0.1589811308 -0.5344836632 -0.0253134291 0.1861770515
610296340.0 -0.0479623626 0.1711159413 0.1533156021 -0.5364137097 0.1530651502 -0.5368383867 -0.0232380114 0.1869388477
615296310.0 -0.046166321 0.172028362 0.1471670985 -0.5380434065 0.1472040135 -0.5380891201 -0.0213975385 0.1871441259
620296280.0 -0.0446600436 0.1727160799 0.1416923318 -0.5392643563 0.141522544 -0.5396774177 -0.0192592693 0.1873194101
625296250.0 -0.0426532676 0.1731468297 0.1351218952 -0.5414485038 0.1356186711 -0.5414932028 -0.0172043805 0.1881900447
630296220.0 -0.0411868335 0.1736759741 0.1291906821 -0.5424304902 0.1299040791 -0.5423614549 -0.0152629548 0.1881718963
635296190.0 -0.0396102403 0.1740829941 0.1233210855 -0.5434629513 0.1235051908 -0.5434908977 -0.0134467824 0.1884488046
640296160.0 -0.0379185103 0.1745855649 0.1181869139 -0.5450729083 0.1177996914 -0.5449823926 -0.0111024865 0.1887207018
645296130.0 -0.0361122029 0.1754319855 0.1115581227 -0.5464105147 0.1118639066 -0.5463079111 -0.0094762624 0.1886747662
650296100.0 -0.0348318458 0.1759934902 0.1067619633 -0.5473965754 0.1061308195 -0.5468990124 -0.0074008924 0.189003121
655296070.0 -0.0328999067 0.176158759 0.1000384074 -0.5483968206 0.1000497951 -0.5484386866 -0.0047447474 0.1895951219
660296040.0 -0.0313769727 0.1770017988 0.0947357626 -0.5492373306 0.0943520245 -0.5491517813 -0.0028969313 0.1894331885
665296010.0 -0.0291882796 0.1769982574 0.0887226423 -0.5503987787 0.0890934377 -0.5503932147 -0.0014108079 0.1898556717
670295980.0 -0.0274663766 0.1774149828 0.0824189411 -0.5510161874 0.0827839945 -0.5512742477 0.0007645426 0.190184652
675295950.0 -0.0258029633 0.1778435931 0.0763920181 -0.5519863072 0.0766749037 -0.5525729373 0.0031438903 0.1902041893
680295920.0 -0.0240614466 0.1788164585 0.0704436964 -0.5531237431 0.0703852273 -0.5530425421 0.0053198839 0.1903479395
685295890.0 -0.0227356708 0.178725536 0.0647623504 -0.5533467371 0.0641167882 -0.5538210867 0.0071404884 0.1905313188
690295860.0 -0.0203815845 0.179299416 0.058646645 -0.5539855033 0.0579692415 -0.5539424735 0.009674554 0.1905976935
695295830.0 -0.0185167521 0.1794787787 0.0519880286 -0.5544511486 0.052237202 -0.5549647596 0.0111502874 0.1907899961
700295800.0 -0.0165265425 0.1799124469 0.0460885989 -0.5555604111 0.0465132641 -0.5553735599 0.0135200406 0.1902954297
705295770.0 -0.0150860543 0.1804300139 0.0403630443 -0.5554485299 0.0407640901 -0.5558382346 0.0150196746 0.190583833
710295740.0 -0.0133854821 0.1807850539 0.0346959108 -0.556019711 0.0346789523 -0.5562756737 0.0169224238 0.1910364416
715295710.0 -0.011877817 0.1809541654 0.0284052143 -0.5567412765 0.0287229562 -0.5564326048 0.019126945 0.1901704708
720295680.0 -0.0100120544 0.1810750659 0.0227681979 -0.5560777658 0.0225372184 -0.5568087586 0.0217950281 0.190471196
725295650.0 -0.0077714362 0.1812299224 0.0161390671 -0.5566251678 0.0162711606 -0.5567543438 0.0237481044 0.1902815202
730295620.0 -0.0063877993 0.1815901641 0.0100822445 -0.5566756896 0.0103185013 -0.5570765748 0.025903229 0.1896536171
735295590.0 -0.0042899739 0.1818761528 0.0049589568 -0.5570559518 0.004830403 -0.5568788583 0.0280548133 0.1900913628
740295560.0 -0.0027515918 0.1822112696 -0.0013796236 -0.5566758722 -0.0015243927 -0.5570412339 0.0300859611 0.1896918868
745295530.0 -0.0008367411 0.1820494257 -0.0076616204 -0.5565294895 -0.0074221814 -0.5570317684 0.0318567157 0.1895368698
750295500.0 0.0008436142 0.182059348 -0.0132183785 -0.5560637937 -0.0136362069 -0.5564110535 0.0339623435 0.1889019072
755295470.0 0.0032368822 0.1827054823 -0.0192583401 -0.556414831 -0.0191003294 -0.5566205813 0.0357814257 0.1893091601
760295440.0 0.0044411995 0.182986655 -0.0256202622 -0.5561898524 -0.0252940919 -0.5561489623 0.0374981706 0.1885298575
765295410.0 0.0060436902 0.1825342333 -0.0308873492 -0.5556166415 -0.0314757074 -0.5561049383 0.0404146005 0.1887923772
770295380.0 0.0084195371 0.1828984794 -0.0378215172 -0.5551352761 -0.0374873529 -0.555701532 0.0426389216 0.1885703425
775295350.0 0.0099361553 0.1828850309 -0.0433262901 -0.5545935907 -0.0434762357 -0.5545316353 0.0438736684 0.1876890454
780295320.0 0.0119588385 0.1826881458 -0.0490423398 -0.554206298 -0.0489056173 -0.554506511 0.046137951 0.1878050292
785295290.0 0.0136185374 0.1831464123 -0.0552858719 -0.5530824414 -0.0553747364 -0.5540993688 0.0479447875 0.1874470896
790295260.0 0.0154854414 0.182990632 -0.0615050522 -0.5528838276 -0.0613260504 -0.5534111424 0.0505249537 0.1869220077
795295230.0 0.0170901505 0.18317375 -0.0670233708 -0.5517082203 -0.0672058168 -0.5524758006 0.0523506669 0.1869742216
800295200.0 0.0188700945 0.183343985 -0.0735110233 -0.5518771343 -0.0735494732 -0.551938427 0.0547579489 0.1862213329
805295170.0 0.0203732622 0.1831379483 -0.0789774684 -0.5507513388 -0.0787018515 -0.5506800815 0.0563299365 0.1858033706
810295140.0 0.0224605814 0.18281211 -0.0848614007 -0.5498489619 -0.0849167491 -0.5504618656 0.0588028641 0.1856664391
815295110.0 0.0244779002 0.1830239923 -0.0912613619 -0.5484933991 -0.0911668892 -0.5489239126 0.0601546466 0.1848074096
820295080.0 0.0261770441 0.1826592252 -0.0967593986 -0.5479332591 -0.0968489133 -0.5478467344 0.0622905916 0.1840930702
825295050.0 0.0279473608 0.1826767163 -0.1022760026 -0.5465986719 -0.1027127074 -0.5468044933 0.0646667372 0.1836848784
830295020.0 0.0295677893 0.1827732109 -0.1088218803 -0.5457555989 -0.1088670894 -0.5455228776 0.0662877021 0.1830415567
