!Created with skrf (http://scikit-rf.org).
# Hz S RI R 50.0 
!freq ReS11 ImS11 ReS21 ImS21 ReS12 ImS12 ReS22 ImS22
300000.0 -0.3219077122 -0.0812869883 0.3743563315 0.0443612386 0.3750721351 0.0410226498 -0.318580791 -0.1007715052
5299970.0 -0.326361343 0.0041625526 0.3787265132 0.002584181 0.378225226 0.0023719222 -0.3239453894 0.0050084793
10299940.0 -0.3241124891 0.0134468356 0.3791550277 0.0021057671 0.3794209713 0.0025234104 -0.3213642976 0.0159478555
15299910.0 -0.3214975655 0.0203178479 0.3819540908 0.0018410621 0.3820308952 0.0023580453 -0.3185772667 0.0238856176
20299880.0 -0.3188846625 0.026036812 0.3850552922 0.0019419998 0.3846256419 0.0014056878 -0.3146524893 0.0305319972
25299850.0 -0.3157684277 0.0316765924 0.3881584201 8.36559e-05 0.3880718501 0.0003062396 -0.3108336171 0.0359804153
30299820.0 -0.3126958424 0.0358939885 0.3913123774 -0.0021998086 0.3911460696 -0.0023451615 -0.3068291312 0.0408953527
35299790.0 -0.3101927118 0.0398211979 0.3949112535 -0.0054292871 0.394741099 -0.0054761462 -0.3035362838 0.0452032366
40299760.0 -0.3073029996 0.0436205416 0.3978140583 -0.009049031 0.398202576 -0.0087869495 -0.3002710611 0.04848041
45299730.0 -0.3045083723 0.0465904092 0.4005784501 -0.0128102388 0.40111532 -0.0125314183 -0.2971817981 0.0519733357
50299700.0 -0.302459041 0.0493702157 0.4033488907 -0.0171650501 0.403339716 -0.0169373578 -0.2939936227 0.0546428797
55299670.0 -0.3002642978 0.0522482317 0.40571917 -0.0224039036 0.4055983707 -0.0219742859 -0.2916817192 0.0569563098
60299640.0 -0.2979195933 0.0551534263 0.4075976738 -0.0268403172 0.4075487727 -0.0268005484 -0.289148369 0.0593862751
65299610.0 -0.2963847265 0.0573162486 0.4093938415 -0.0320351759 0.409127564 -0.0321217249 -0.2872641431 0.0618029588
70299580.0 -0.2945230865 0.0598873883 0.410100408 -0.0370235064 0.4102962908 -0.0368576052 -0.2851721873 0.063854455
75299550.0 -0.2930386098 0.0622941391 0.4113703654 -0.0416724785 0.4113497966 -0.0422093354 -0.2831471153 0.065986186
80299520.0 -0.2916087552 0.0650875521 0.4125868945 -0.0475737298 0.4124307536 -0.0474772666 -0.2814544456 0.0682101555
85299490.0 -0.2901934284 0.0670581929 0.4126338155 -0.0526391891 0.412568249 -0.0523302722 -0.2802293835 0.070124457
90299460.0 -0.288687661 0.0693161971 0.4128734187 -0.0579287579 0.4135048305 -0.0578504831 -0.2781979667 0.0718204897
95299430.0 -0.2873825804 0.0715749751 0.4136497309 -0.0631871402 0.4134776931 -0.0634724786 -0.2767940029 0.0744564971
100299400.0 -0.286499092 0.0741189295 0.4132357937 -0.0683482968 0.4131589023 -0.0679303694 -0.2751708551 0.0762403862
105299370.0 -0.2851151495 0.0764807171 0.4129760188 -0.0736969891 0.4135130249 -0.0735604463 -0.273567369 0.0784139071
110299340.0 -0.2840747861 0.0788185034 0.4133703155 -0.0788691871 0.4130784709 -0.0785493352 -0.273023953 0.0802219685
115299310.0 -0.2829781064 0.0808298602 0.4131665851 -0.0838302006 0.4130193765 -0.0838113932 -0.271428329 0.0824677304
120299280.0 -0.2818970185 0.0832444264 0.4122820897 -0.0890494819 0.4123789638 -0.0887493155 -0.2702723549 0.0848051211
125299250.0 -0.2810603608 0.0853169112 0.411664112 -0.0938492573 0.4118397669 -0.0937828778 -0.2696329112 0.0863695992
130299220.0 -0.2804611098 0.0882877044 0.4109079641 -0.0991480649 0.4111466476 -0.0991458242 -0.2683896843 0.088676531
135299190.0 -0.279142708 0.0908475011 0.4105734161 -0.1041137768 0.4105299663 -0.1039474365 -0.2671343554 0.0909959974
140299160.0 -0.2780306307 0.0934591042 0.4095159975 -0.1092129307 0.4095214386 -0.1089834603 -0.2661772827 0.0935846225
145299130.0 -0.2774605484 0.095704709 0.4091136899 -0.1141669609 0.4085333916 -0.1138684146 -0.265539925 0.0956071319
150299100.0 -0.2762917165 0.0982864387 0.4078089775 -0.1188313947 0.4075115825 -0.1186642697 -0.2642690404 0.0986674725
155299070.0 -0.2753807689 0.1007115984 0.4068324476 -0.1242429075 0.4062086996 -0.1239250179 -0.2631749897 0.1005753533
160299040.0 -0.2744612058 0.1033651887 0.4052046111 -0.128789391 0.4052143011 -0.1289273222 -0.2627558344 0.1032579332
165299010.0 -0.2737244117 0.106132311 0.4040157463 -0.1340914587 0.404303897 -0.1340440275 -0.2611348668 0.105912903
170298980.0 -0.2726913196 0.108582751 0.4024801595 -0.1385365243 0.4029890528 -0.1382637718 -0.2599838035 0.1081089449
175298950.0 -0.2719145314 0.1113048067 0.4016157406 -0.1433157489 0.4013135783 -0.1431001859 -0.2595261888 0.1107015889
180298920.0 -0.2710128744 0.1139162756 0.3999896901 -0.147963442 0.3997858958 -0.1476435227 -0.2582963302 0.1135035344
185298890.0 -0.2693119703 0.1165504032 0.39833708 -0.1528515463 0.398348208 -0.152387923 -0.2571983971 0.1161493398
190298860.0 -0.2689568094 0.1194706247 0.397134771 -0.1574287368 0.3972213191 -0.1574926959 -0.2563772369 0.1183145372
195298830.0 -0.2675849528 0.1218413558 0.3951617764 -0.1618701347 0.3951190866 -0.1618710994 -0.2550643472 0.1209658532
200298800.0 -0.2661295892 0.1246566044 0.3930754355 -0.1669033308 0.393497303 -0.166463777 -0.2544747963 0.1234159563
205298770.0 -0.2653187079 0.1270583162 0.391134383 -0.1715417109 0.3916038338 -0.1709932888 -0.2532163906 0.125544824
210298740.0 -0.2643937355 0.1299525588 0.3894320139 -0.1754106939 0.389851061 -0.1754439705 -0.2519279477 0.1283435909
215298710.0 -0.2635886598 0.1327374362 0.3879969374 -0.180265145 0.3877749773 -0.1803550081 -0.2511341576 0.1311528426
220298680.0 -0.2622096149 0.1350078677 0.3857167063 -0.1844275041 0.3856615492 -0.1847662485 -0.2500057869 0.1332819972
225298650.0 -0.260945342 0.1379669079 0.3838884089 -0.189003955 0.3841767512 -0.1891870876 -0.2489381232 0.1362614023
230298620.0 -0.2596391839 0.1406000188 0.3818798337 -0.1932905034 0.3823410127 -0.1938412622 -0.247595888 0.1383493704
235298590.0 -0.2583528197 0.1438371493 0.3797891145 -0.1982059668 0.3798539211 -0.1975675976 -0.2465551699 0.140998979
240298560.0 -0.2569940563 0.1463062593 0.3777608564 -0.2024459157 0.3778603012 -0.2023182679 -0.2454537135 0.1438521508
245298530.0 -0.255769168 0.1488918926 0.3755804352 -0.2068314271 0.3756153504 -0.2068270842 -0.2439192287 0.1457325718
250298500.0 -0.2543774367 0.1519130435 0.3726724262 -0.2106728077 0.372905298 -0.2105270179 -0.2426647556 0.1487059704
255298470.0 -0.252984293 0.1542598238 0.3701119941 -0.2149251667 0.3705324904 -0.2149725076 -0.2410510537 0.1508652655
260298440.0 -0.2515588409 0.1566767429 0.3680084278 -0.2194265547 0.3685084171 -0.2193366611 -0.2395370318 0.1536897909
265298410.0 -0.2499761081 0.1601969451 0.3659273405 -0.2235612511 0.366176769 -0.2233979237 -0.2383068457 0.1562532826
270298380.0 -0.2487484001 0.1622778548 0.3636997705 -0.2271249657 0.3635751149 -0.2274730574 -0.236736956 0.1586349867
275298350.0 -0.2468623824 0.165028233 0.3609880884 -0.2315421982 0.3611860291 -0.2317767161 -0.2351333641 0.1610367251
280298320.0 -0.2449762936 0.1678643518 0.3584785204 -0.2355567993 0.3586256064 -0.2354176015 -0.2332623152 0.1635966044
285298290.0 -0.2436849017 0.1708627996 0.3559768995 -0.2399235836 0.3561974467 -0.2397054734 -0.2320082535 0.1660617944
290298260.0 -0.2417670323 0.1730882623 0.3532082975 -0.2435065559 0.3536359602 -0.2440303154 -0.2301735173 0.1685676223
295298230.0 -0.2399320494 0.1754559857 0.3504637616 -0.2477917903 0.3505027506 -0.2478332352 -0.2282442905 0.1707762119
300298200.0 -0.2385872912 0.1784725899 0.3483898972 -0.2519243574 0.3480364085 -0.2519250869 -0.2266748252 0.1732882616
305298170.0 -0.2363711507 0.1805646235 0.3447031754 -0.2560377476 0.3450064188 -0.2556062527 -0.2244339849 0.1757142277
310298140.0 -0.2347016175 0.1835369308 0.3422898529 -0.259553863 0.342196267 -0.259570545 -0.2229995282 0.1781474318
315298110.0 -0.2331967527 0.1857231024 0.339350272 -0.2634639999 0.3395861777 -0.2635070135 -0.2211755147 0.1806182319
320298080.0 -0.2310860697 0.1883133147 0.3360703613 -0.2675802237 0.3362875769 -0.2674206443 -0.2195115909 0.1829656027
325298050.0 -0.2293233344 0.1906994039 0.3336425897 -0.2713471577 0.3333972158 -0.2710509145 -0.2181006112 0.1850362577
330298020.0 -0.2276501478 0.1929624559 0.3299849135 -0.2749692088 0.3304299756 -0.2748858677 -0.2161191059 0.1878290638
335297990.0 -0.2252716687 0.1953581047 0.3268183802 -0.2787095384 0.3269522232 -0.2787180444 -0.214651782 0.1905846473
340297960.0 -0.2241946212 0.1982960012 0.3238906465 -0.2820895528 0.3235699081 -0.282740788 -0.2121130628 0.1927848557
345297930.0 -0.2222201151 0.2008825717 0.3207378893 -0.2860432156 0.3205028166 -0.2858465199 -0.2107245804 0.1950980269
350297900.0 -0.2201918883 0.2031319029 0.3170461811 -0.2894848283 0.3173338357 -0.2892791037 -0.2087232368 0.1978348651
355297870.0 -0.2178154958 0.2059774559 0.3141697594 -0.2930747369 0.3144071426 -0.2929146087 -0.2068563615 0.2000934355
360297840.0 -0.2160752846 0.2082063235 0.3111268767 -0.2959703738 0.3110277529 -0.2962623084 -0.2048411874 0.2025965028
365297810.0 -0.2140896267 0.210804991 0.3074640765 -0.2996440978 0.3078627634 -0.3000183805 -0.202709404 0.2049562868
370297780.0 -0.2116137766 0.2133200831 0.3040149814 -0.303197803 0.3042506431 -0.3025833228 -0.2007338075 0.2076063633
375297750.0 -0.2093201689 0.2157469151 0.300932311 -0.3065404852 0.3011817232 -0.3063680028 -0.1989877902 0.2097005038
380297720.0 -0.2074165044 0.2175749736 0.2975811827 -0.3098415444 0.2975276462 -0.3090437453 -0.196949493 0.2116132066
385297690.0 -0.2053634104 0.2203723468 0.2940941034 -0.3128379096 0.2939077562 -0.3130580158 -0.1946621321 0.2143554252
390297660.0 -0.2032185603 0.2227156934 0.2905600912 -0.3162031216 0.2905140026 -0.3159542933 -0.1926667778 0.2164022588
395297630.0 -0.2004318811 0.2249555997 0.2869657565 -0.3193124365 0.2871457239 -0.3192531059 -0.1899202239 0.2186448165
400297600.0 -0.1985199213 0.2275587452 0.2834981112 -0.3229631982 0.2834440092 -0.322541066 -0.1879308668 0.2208482617
405297570.0 -0.1964088276 0.2294375554 0.2796810478 -0.3254387458 0.2796667379 -0.3255992364 -0.1860835171 0.2231131734
410297540.0 -0.1938445303 0.2316414628 0.2763511227 -0.328517428 0.2766517664 -0.3285843026 -0.1838926393 0.2250629477
415297510.0 -0.1912226355 0.2338561248 0.2723080921 -0.331931808 0.2728785582 -0.3315839328 -0.1810988947 0.2269967257
420297480.0 -0.1891770098 0.2363756183 0.2690768503 -0.3348675149 0.2688872658 -0.3349036527 -0.1793044909 0.228979517
425297450.0 -0.186718794 0.2382198599 0.2656204 -0.3372987162 0.2655380047 -0.3379734772 -0.1769841458 0.231432175
430297420.0 -0.1840880719 0.2402337888 0.2613435035 -0.3400654646 0.2613532451 -0.3401856626 -0.1749077102 0.233154513
435297390.0 -0.1816986655 0.2422848146 0.2576223844 -0.3431478119 0.2575495132 -0.3430050295 -0.1718235068 0.2351759848
440297360.0 -0.1793472539 0.2446044905 0.2537959148 -0.3458801835 0.2540742091 -0.3459725624 -0.169739846 0.2370052983
445297330.0 -0.1765178498 0.2465093511 0.2503106643 -0.3486542386 0.250393081 -0.348412197 -0.1673816599 0.2386480585
450297300.0 -0.1739761966 0.2484448273 0.246418929 -0.3514606045 0.246128843 -0.3516206718 -0.1644565564 0.240360861
455297270.0 -0.1714353951 0.2504339424 0.2420906689 -0.3539454441 0.2422216597 -0.3541393913 -0.1621133413 0.2424204123
460297240.0 -0.1690715265 0.2523070451 0.2383756145 -0.3563232355 0.2385219552 -0.3561821316 -0.1596245528 0.2444596803
465297210.0 -0.1661409228 0.2544763018 0.2348872502 -0.3592707896 0.2345546861 -0.3597564537 -0.1565451021 0.2462962295
470297180.0 -0.163494525 0.2562195307 0.2301720872 -0.3617269972 0.2307846894 -0.3620983032 -0.15418521 0.2479782699
475297150.0 -0.1610973445 0.2578818686 0.2262984928 -0.3639218027 0.2265167031 -0.3637542007 -0.1513337399 0.2494736372
480297120.0 -0.158053337 0.2600572442 0.2223178959 -0.3666338482 0.2223022308 -0.3668088331 -0.1490006774 0.2513226206
485297090.0 -0.1555684549 0.2618506534 0.2186266453 -0.3687636743 0.2185359226 -0.3688681707 -0.1461805401 0.2530955322
490297060.0 -0.153195031 0.2636236772 0.2147991489 -0.3712860319 0.2146638728 -0.3711117123 -0.1436794116 0.2548752518
495297030.0 -0.1502134464 0.2654244367 0.2101492844 -0.373676965 0.2108780116 -0.373401276 -0.1410284768 0.2564418523
500297000.0 -0.1475071294 0.2672670912 0.2061831362 -0.3758936022 0.2062447843 -0.3754954139 -0.1380897292 0.2587500991
505296970.0 -0.1442377067 0.2688549557 0.2020170518 -0.3778647951 0.2017977377 -0.3781011693 -0.1355438207 0.2599403049
510296940.0 -0.1417179044 0.2703520417 0.1976920832 -0.380438059 0.1977372218 -0.3801559917 -0.1325826685 0.2615705485
515296910.0 -0.1388317312 0.271956203 0.1938582908 -0.3823365542 0.1934990603 -0.3822839975 -0.1298734269 0.2632328711
520296880.0 -0.1360289717 0.2733889299 0.1892399007 -0.3844131411 0.1895713433 -0.384359161 -0.1272159047 0.2650961781
525296850.0 -0.1329615343 0.2749672833 0.1852914175 -0.3861437779 0.1855354908 -0.3863703371 -0.1244139446 0.2662466007
530296820.0 -0.1301728765 0.2766292097 0.1812279175 -0.3885036837 0.1810572365 -0.3885077594 -0.1215624426 0.2677546262
535296790.0 -0.1277457471 0.2782234412 0.1771281913 -0.3901690643 0.1769453457 -0.3898989366 -0.1191819128 0.2693676415
540296760.0 -0.1247736499 0.2799611143 0.17260335 -0.3924164616 0.1725666093 -0.3922154542 -0.1163173478 0.2710015083
545296730.0 -0.121918515 0.2813625953 0.1682588712 -0.3937697272 0.1682936041 -0.3938756156 -0.1136046045 0.2721979691
550296700.0 -0.1187471311 0.2826817928 0.1638464488 -0.3956786286 0.1638409655 -0.3959320607 -0.1109195675 0.2736587546
555296670.0 -0.1157863512 0.283984621 0.1598550134 -0.3973752261 0.1599410018 -0.397319707 -0.1079066945 0.2753642104
560296640.0 -0.1123985517 0.2855095376 0.154925593 -0.3993394558 0.1553817896 -0.399299822 -0.1047445174 0.2763257936
565296610.0 -0.1097737922 0.2868598455 0.1509361139 -0.4007931175 0.1512306433 -0.4006750809 -0.1020880168 0.2773248979
570296580.0 -0.1070507771 0.288020784 0.1463145387 -0.4029155041 0.1460977611 -0.4022458663 -0.0993354606 0.2790748536
575296550.0 -0.1040261855 0.289602863 0.1424129737 -0.4041703034 0.1419902736 -0.4039985327 -0.0963753086 0.2799768782
580296520.0 -0.1005685835 0.2906293862 0.1376642131 -0.4058538128 0.1376518574 -0.4055755497 -0.0933979559 0.2810206931
585296490.0 -0.0980354158 0.2917044046 0.1334020211 -0.4066901823 0.1334086357 -0.407001102 -0.0904925718 0.2822111794
590296460.0 -0.0941818596 0.2926427278 0.1287998827 -0.407729124 0.128936272 -0.4079327673 -0.0881444817 0.2836012753
595296430.0 -0.0914805461 0.2938835827 0.1239486956 -0.4096955111 0.124278916 -0.4097582165 -0.084794385 0.2840817216
600296400.0 -0.0886149179 0.2949001717 0.1197392778 -0.4106734505 0.1197318633 -0.4107239313 -0.0821474124 0.2852718008
605296370.0 -0.0857595917 0.296316959 0.1156741775 -0.4121189963 0.1156617929 -0.4120205598 -0.0785317429 0.286279126
610296340.0 -0.0824142963 0.2971559075 0.1107764683 -0.4134320201 0.1110907272 -0.4133853578 -0.0758147578 0.2869843415
615296310.0 -0.0789553672 0.2979032975 0.1060059731 -0.4140867924 0.1063622573 -0.4146576413 -0.0724659719 0.2878884295
620296280.0 -0.0761955229 0.2986436867 0.101674556 -0.415427099 0.1019540366 -0.4153685658 -0.0697196757 0.2891352625
625296250.0 -0.0730897225 0.2994826494 0.0975694034 -0.4165461414 0.0973010019 -0.4167764151 -0.0660065135 0.2894069504
630296220.0 -0.0692567683 0.3005939212 0.0922732881 -0.4174001007 0.092353163 -0.4177160336 -0.0634780429 0.2904783816
635296190.0 -0.0669201928 0.3019767345 0.0881118356 -0.4186182762 0.087986203 -0.4187405183 -0.0601735402 0.291212119
640296160.0 -0.0635487202 0.3024010764 0.0838874412 -0.4190115702 0.0839996563 -0.4192693787 -0.0571621506 0.2921309817
645296130.0 -0.0604115805 0.303566423 0.0791286913 -0.4198573286 0.0793424846 -0.4202940988 -0.0541173506 0.2927546664
650296100.0 -0.0570581203 0.303865216 0.0743369732 -0.4206983355 0.074459307 -0.4206266227 -0.050653381 0.2934031942
655296070.0 -0.0544802224 0.3049072796 0.0702863932 -0.4215776436 0.0701061496 -0.4214866282 -0.0475592789 0.2941885592
660296040.0 -0.051175268 0.3051469178 0.0657340068 -0.4223650024 0.0654971444 -0.4224447101 -0.0443689154 0.2950402298
665296010.0 -0.0472688435 0.3058264503 0.0604676028 -0.4231852075 0.0610631345 -0.423190324 -0.0410750056 0.2960614303
670295980.0 -0.0449636868 0.3066505992 0.0562938528 -0.4233234176 0.0563335542 -0.4234273136 -0.0382576948 0.2963417508
675295950.0 -0.0413566175 0.307423011 0.0516334559 -0.423968385 0.0515510236 -0.4235763001 -0.0353472708 0.2969590705
680295920.0 -0.0380613823 0.3076712787 0.0468364339 -0.4242945898 0.0467690436 -0.4249997388 -0.0314803763 0.2979531122
685295890.0 -0.0346241416 0.3089540641 0.0427567494 -0.4251330593 0.0421199472 -0.4251130118 -0.0290908738 0.298263145
690295860.0 -0.0314118588 0.3093127475 0.0379824254 -0.4250943626 0.0378014808 -0.4256417261 -0.0261613346 0.2991055289
695295830.0 -0.0285117706 0.3093542018 0.03320135 -0.4255980848 0.0330254146 -0.4255784791 -0.0226960386 0.2992689659
700295800.0 -0.0252488797 0.3096601394 0.02846227 -0.4254821694 0.0283251992 -0.4259262885 -0.0197829452 0.2999817903
705295770.0 -0.0220090585 0.3105908779 0.023637401 -0.4263357279 0.0243655129 -0.4261958198 -0.0164867905 0.3002337984
710295740.0 -0.0186327486 0.3104191478 0.0194145793 -0.4270037697 0.0196671849 -0.4267153246 -0.0136026987 0.3004605151
715295710.0 -0.0156157027 0.3113499909 0.0150330317 -0.4267983907 0.01432386 -0.4268677165 -0.0099910309 0.3006453126
720295680.0 -0.0124307066 0.3111299163 0.0100576665 -0.4270523365 0.0102730462 -0.4273727618 -0.0071918304 0.3014853717
725295650.0 -0.0086211638 0.3112582148 0.005199817 -0.4268696182 0.0054297508 -0.4271990582 -0.0042744532 0.3017045132
730295620.0 -0.0054140542 0.3118939862 0.0006788482 -0.4267607463 0.0008588689 -0.4269339161 -0.001364265 0.3015141839
735295590.0 -0.0024928735 0.312235587 -0.0033935338 -0.4268756549 -0.0039956471 -0.4265270867 0.0019212207 0.3013415448
740295560.0 0.000536088 0.3125020224 -0.0083502845 -0.4268262603 -0.0086129493 -0.4267698872 0.0056830842 0.3018643354
745295530.0 0.0040740308 0.3125444689 -0.013257607 -0.4264172513 -0.0131948507 -0.4266625222 0.0085445889 0.3016006967
750295500.0 0.0075515747 0.3124870443 -0.0175998324 -0.4260339591 -0.0172783641 -0.4267041555 0.011325819 0.301732022
755295470.0 0.0105327579 0.3120303335 -0.0222162581 -0.4259193424 -0.0224610111 -0.426224961 0.0150868833 0.3014077606
760295440.0 0.0135582231 0.3125878685 -0.0267105856 -0.4263660276 -0.02700678 -0.4261286777 0.0177599164 0.3015545249
765295410.0 0.017081374 0.3125856595 -0.0314540237 -0.4253181923 -0.0318847051 -0.4257286477 0.0210604339 0.3015705079
770295380.0 0.020367074 0.3122595292 -0.0365081579 -0.425026728 -0.0361380251 -0.4245642903 0.024341317 0.3012155897
775295350.0 0.0233258898 0.3118219219 -0.0407413216 -0.4244530724 -0.0402162159 -0.4246753334 0.0267830737 0.3011869006
780295320.0 0.0268268468 0.3118780153 -0.0451196689 -0.4238135662 -0.0446829639 -0.4237058791 0.0302871769 0.3009217134
785295290.0 0.0298373459 0.3113200624 -0.0501223445 -0.4228864754 -0.0497089527 -0.4232461286 0.0338364929 0.3006321556
790295260.0 0.0334726449 0.3116906147 -0.0541976912 -0.4228372923 -0.0537275938 -0.4226800474 0.0370977796 0.3006836722
795295230.0 0.0364315313 0.3115132409 -0.0586496112 -0.4221937172 -0.0583747407 -0.4223662901 0.0404025428 0.3002811912
800295200.0 0.0397955549 0.3112284017 -0.0638200684 -0.4212312502 -0.063570039 -0.4214505837 0.04369397 0.3000489644
805295170.0 0.0432743253 0.3105130007 -0.0682035824 -0.4203584352 -0.0680474443 -0.4210706694 0.0464989602 0.2997617927
810295140.0 0.0462360135 0.3102667381 -0.0723307437 -0.4197272151 -0.0727315967 -0.4198701277 0.050042921 0.2993617048
815295110.0 0.0495115266 0.309588019 -0.0771177919 -0.4186513726 -0.0772612523 -0.4190290879 0.0531912953 0.2986514507
820295080.0 0.0524343907 0.3099843828 -0.081539397 -0.4180265952 -0.0815650442 -0.4182459555 0.0562254626 0.2985874606
825295050.0 0.0563922068 0.3090641022 -0.0858192343 -0.4169535265 -0.0860415998 -0.4173716909 0.0595193736 0.2982526642
830295020.0 0.0592454537 0.30880566 -0.0904728308 -0.4159887752 -0.0906389444 -0.4160862633 0.0634112232 0.2974730913
