!Created with skrf (http://scikit-rf.org).
# Hz S RI R 50.0 
!freq ReS11 ImS11 ReS21 ImS21 ReS12 ImS12 ReS22 ImS22
300000.0 -0.7745538123 -0.1334059456 -0.001687581 -0.0014346508 0.0028523113 0.0023953163 -0.7690081911 -0.1631578224
5299970.0 -0.7849746967 -0.0069273971 -0.0001458428 -2.16434e-05 -4.4278e-05 -2.98022e-05 -0.7841334173 -0.0086206617
10299940.0 -0.7876289464 -0.0041316966 3.05456e-05 -0.0001839392 0.0001442872 -3.15445e-05 -0.7881545737 -0.0052958626
15299910.0 -0.793504085 -0.0016600625 3.46841e-05 -0.0001530309 5.93931e-05 -2.30283e-05 -0.7933045385 -0.0032662976
20299880.0 -0.799335109 0.0023492945 1.7035e-05 4.419e-05 -8.75385e-05 -2.89363e-05 -0.8002364903 0.0017013002
25299850.0 -0.8069401023 0.0088964671 -3.42931e-05 0.0001580689 -1.55017e-05 -0.0001147506 -0.806458269 0.0072924285
30299820.0 -0.8119945005 0.0161416668 -0.0001118653 1.75824e-05 4.82659e-05 6.95905e-05 -0.81270678 0.014772179
35299790.0 -0.8166102594 0.0251748711 -5.71162e-05 -3.8377e-05 -6.86645e-05 -0.0001715836 -0.8175973069 0.0239836647
40299760.0 -0.8215043112 0.0341258023 4.94144e-05 0.0001428087 -2.62279e-05 -9.86159e-05 -0.8212893492 0.03301934
45299730.0 -0.8245522628 0.0444174964 7.24786e-05 -0.0003365227 0.0001390973 8.357e-05 -0.8251094078 0.042643207
50299700.0 -0.8270562751 0.0540307522 0.0001656129 0.0002284551 -0.0001261636 7.02402e-05 -0.8273361994 0.0527254878
55299670.0 -0.8291471644 0.0642903396 0.0002684543 -6.32188e-05 0.0001104518 7.54677e-05 -0.8295422405 0.0632523771
60299640.0 -0.8303026983 0.0743402888 -1.65047e-05 -7.2521e-06 -2.58441e-05 -1.185e-07 -0.8308811962 0.0731571824
65299610.0 -0.8310053754 0.084815492 8.445e-05 0.0001323596 -8.63476e-05 7.09053e-05 -0.8312055048 0.0827758757
70299580.0 -0.8314406489 0.0948244028 -7.66721e-05 0.0001142037 -0.0001162512 -4.00234e-05 -0.8323675409 0.0925868518
75299550.0 -0.8314599942 0.1046556744 -5.73674e-05 6.16336e-05 -7.60469e-05 -5.42068e-05 -0.83222411 0.1029081405
80299520.0 -0.8314437682 0.1144580421 0.0001228535 7.14046e-05 -0.0001330054 0.0002373979 -0.8319424047 0.1123424583
85299490.0 -0.8307881486 0.1240906666 -0.0001874855 0.000143131 0.0001708221 -4.11896e-05 -0.8316509179 0.1218474447
90299460.0 -0.8299143207 0.1338882813 -0.0001799628 9.33444e-05 -0.0001511758 2.4354e-06 -0.8308916024 0.131690683
95299430.0 -0.8286205944 0.1436896774 0.0001971448 -0.0001576952 -0.0001499959 -5.27386e-05 -0.8302489707 0.1415000979
100299400.0 -0.8273539572 0.1527434195 -4.60984e-05 -0.0002299538 0.0001141899 -0.0001272065 -0.828995991 0.1496171922
105299370.0 -0.8259934248 0.1621250673 -1.39523e-05 0.0001218236 -0.0002133985 -0.0001297922 -0.8277993138 0.1592842843
110299340.0 -0.8246696158 0.1710720698 0.0001827492 -0.000165763 -9.1131e-06 -3.49132e-05 -0.8267432279 0.1682895288
115299310.0 -0.8237622564 0.1806121662 8.38614e-05 0.0001543138 -3.041e-05 -0.0002225809 -0.8246003336 0.1773498148
120299280.0 -0.8225085372 0.1894683586 -5.12169e-05 -9.7607e-05 5.40419e-05 -0.0002958535 -0.8232565908 0.1860587226
125299250.0 -0.8204468071 0.198716551 0.0001825565 1.24513e-05 -0.0001767811 -2.62805e-05 -0.8219109325 0.1955989231
130299220.0 -0.8187353902 0.2073875556 0.0001841456 -5.46248e-05 5.86811e-05 -5.7883e-06 -0.819620149 0.2038179945
135299190.0 -0.8169148964 0.2166584449 -6.9082e-06 3.95049e-05 -9.36819e-05 8.68028e-05 -0.8182070994 0.212545236
140299160.0 -0.8145401896 0.2258253025 -5.23313e-05 8.05631e-05 0.0002328082 1.66778e-05 -0.8158862057 0.2217829638
145299130.0 -0.8123095214 0.2345770525 0.0002044683 -0.0001522299 -0.0001594289 0.0002285608 -0.8137819972 0.229990045
150299100.0 -0.8105669409 0.2428142045 5.31522e-05 0.0001617884 1.49471e-05 -0.0001171921 -0.8116231181 0.2385246876
155299070.0 -0.8077768532 0.2525135187 -0.0001823404 -0.0002196843 -9.0807e-06 -6.45604e-05 -0.8092581939 0.2472180694
160299040.0 -0.8047053417 0.2613339064 -4.5734e-05 8.46459e-05 0.0001183663 6.76176e-05 -0.8072366167 0.2567612877
165299010.0 -0.8020704826 0.2693220626 -4.8842e-05 -1.25141e-05 3.9796e-06 0.0001179886 -0.8041856572 0.2648752953
170298980.0 -0.7995566904 0.2783642822 4.519e-05 -1.98445e-05 -3.1122e-06 -9.30768e-05 -0.8022781013 0.2739103883
175298950.0 -0.7969800205 0.2876469437 -1.3481e-06 0.0002008821 -3.65226e-05 2.89594e-05 -0.7996090446 0.2819234638
180298920.0 -0.7936869029 0.2949213995 0.0001288043 -6.70596e-05 -7.31562e-05 7.7032e-06 -0.795055557 0.2902870421
185298890.0 -0.7908439726 0.3041604154 0.0001172697 8.19973e-05 -3.72726e-05 -1.24606e-05 -0.7928762469 0.298284291
190298860.0 -0.787703206 0.312468628 -0.0001206463 4.43133e-05 0.0001992926 5.94017e-05 -0.7894697252 0.3078017976
195298830.0 -0.7837771291 0.3210895067 0.0001956208 4.77657e-05 -0.0001220861 -3.83032e-05 -0.7868773753 0.3154747434
200298800.0 -0.7807188241 0.3292800457 -2.25498e-05 -0.0001342966 8.04364e-05 1.1815e-05 -0.7835944473 0.3239714563
205298770.0 -0.77735828 0.3373836206 2.18254e-05 -9.45803e-05 1.51541e-05 6.57262e-05 -0.7797563063 0.3322754245
210298740.0 -0.7735490523 0.3457722853 0.000136004 -0.0002994593 9.37572e-05 3.8729e-06 -0.7763361348 0.3403880249
215298710.0 -0.7701636868 0.3542289628 6.89263e-05 -2.8648e-05 0.0002301417 -0.0001147056 -0.7732184972 0.3480551003
220298680.0 -0.7674232972 0.3621042896 -5.26152e-05 0.0001746301 -7.43608e-05 -4.13845e-05 -0.769247182 0.3567691108
225298650.0 -0.7628480889 0.3712302467 -0.0001124463 -9.85221e-05 0.0002117477 0.0001782132 -0.7657826143 0.3647647334
230298620.0 -0.7583937906 0.3789290639 -1.25136e-05 9.457e-05 0.0001439443 6.7317e-05 -0.7613547102 0.3729661156
235298590.0 -0.7546602205 0.387147895 -2.76471e-05 -0.0002389057 4.615e-06 2.58076e-05 -0.7574974587 0.3804072274
240298560.0 -0.7508658992 0.3953711531 8.51199e-05 -0.0001596998 7.82318e-05 0.0001330109 -0.7540096994 0.3882117778
245298530.0 -0.7463313911 0.4031681981 3.14582e-05 -3.53104e-05 0.0001165502 -8.44284e-05 -0.7497064404 0.3967387579
250298500.0 -0.7418825535 0.410604703 0.0001968174 -3.30055e-05 3.95302e-05 1.4182e-06 -0.7456976251 0.4047763893
255298470.0 -0.7378065828 0.4189393436 -0.0001592176 -0.0001302889 -5.21386e-05 0.000145926 -0.7411166491 0.4123528649
260298440.0 -0.7336822835 0.4261419736 -3.30445e-05 5.866e-06 -6.2909e-05 2.92542e-05 -0.736870179 0.4200075801
265298410.0 -0.7290913903 0.434163163 -0.0001739374 0.0001346417 -3.48318e-05 -7.44623e-05 -0.7324969757 0.4274109076
270298380.0 -0.7242511053 0.4415615439 0.0001677435 5.8766e-05 0.0001956081 -0.0002287698 -0.7274704303 0.4353872068
275298350.0 -0.7194961538 0.4492818532 0.0003558979 -2.002e-06 -5.54856e-05 6.24115e-05 -0.7227876056 0.442629217
280298320.0 -0.7152069384 0.4564677253 0.0001152242 -0.0002417715 0.0001437301 1.89349e-05 -0.7184078108 0.4502019018
285298290.0 -0.7102783475 0.4645220267 -3.50717e-05 -0.0001432978 7.9484e-06 0.0002604278 -0.7134835693 0.4578978155
290298260.0 -0.7054489903 0.472163289 -0.0003225029 5.52336e-05 2.60866e-05 -9.13528e-05 -0.7086954026 0.4655349371
295298230.0 -0.7010875461 0.4791076675 0.0001731077 0.0001221214 -8.20726e-05 0.000180499 -0.7034681024 0.4731210842
300298200.0 -0.6947358998 0.4868160243 8.97557e-05 -9.24466e-05 -2.2327e-06 2.22976e-05 -0.6986029327 0.479597144
305298170.0 -0.6901466978 0.4941784434 -0.0001474036 -5.03652e-05 0.000119217 5.81489e-05 -0.6934378269 0.487681227
310298140.0 -0.6846634628 0.5011523968 0.0002055289 3.72413e-05 2.66479e-05 -6.97334e-05 -0.6891956282 0.4949797576
315298110.0 -0.6792336998 0.508251893 -0.0001827506 -6.81445e-05 -5.92952e-05 5.88507e-05 -0.6833492801 0.5021128391
320298080.0 -0.6744183756 0.5155631897 7.2857e-06 8.23876e-05 -9.53072e-05 6.70448e-05 -0.6779101475 0.5094465031
325298050.0 -0.6686672693 0.5221229762 0.0002003855 -4.2345e-06 0.0001256481 9.06059e-05 -0.6723034198 0.5160165295
330298020.0 -0.6635052873 0.5291036436 5.41227e-05 1.56106e-05 -0.0001077576 -0.0002303654 -0.6664351197 0.5233349072
335297990.0 -0.6570947023 0.5364112998 0.0001976017 -1.15007e-05 0.0001631803 5.54261e-05 -0.6614126375 0.5302620323
340297960.0 -0.6517207227 0.54257545 0.0001886697 -5.6403e-05 0.0001535118 -5.7099e-06 -0.6553291323 0.5371317323
345297930.0 -0.6464170214 0.5487080076 -3.15281e-05 0.0001009186 -3.06588e-05 0.0001652165 -0.6501463106 0.5437406105
350297900.0 -0.6404451408 0.5563653795 -4.6855e-06 5.6995e-05 9.0343e-05 4.66054e-05 -0.6439468064 0.5510631082
355297870.0 -0.6339790016 0.5629688381 -0.0001105943 -2.04752e-05 4.74884e-05 -5.38868e-05 -0.6382801751 0.5575631286
360297840.0 -0.6285047959 0.5691319438 -0.0001103176 -5.9155e-06 -5.97792e-05 -5.55041e-05 -0.6320717538 0.5640273481
365297810.0 -0.6222767594 0.5757497584 3.37361e-05 0.0001950405 -2.01157e-05 -3.60377e-05 -0.6259696428 0.5706209513
370297780.0 -0.6160372248 0.5818686449 -1.04437e-05 9.6916e-06 0.0001136127 -4.16442e-05 -0.6209680594 0.5766320735
375297750.0 -0.6102186177 0.5882143754 8.4174e-05 -3.09684e-05 4.77127e-05 -7.43348e-05 -0.6146586786 0.5832321959
380297720.0 -0.6040496428 0.5949091677 -0.0001596766 -0.0001308368 -0.0001508393 3.9263e-06 -0.6076999633 0.590440254
385297690.0 -0.5976650378 0.6006899819 4.27801e-05 -1.80498e-05 -0.0002847813 -0.0001701915 -0.6013251766 0.5960153216
390297660.0 -0.59146463 0.6073129063 4.139e-07 0.0003022457 -0.000166341 -4.20067e-05 -0.5945897538 0.6020613344
395297630.0 -0.5853981606 0.6133072514 7.30029e-05 8.5234e-05 5.62695e-05 -8.86287e-05 -0.5891474691 0.6083815531
400297600.0 -0.5784728631 0.6189965646 7.33317e-05 -0.00015489 -5.48106e-05 -5.55903e-05 -0.5827319104 0.6140838284
405297570.0 -0.5722809118 0.6250584705 -6.3371e-06 -1.19005e-05 0.0002215242 -4.07405e-05 -0.5774842626 0.6197031618
410297540.0 -0.5653936237 0.6306023081 0.0001965285 8.0559e-05 0.0001269763 -0.0001253702 -0.5698587396 0.6254334315
415297510.0 -0.5590550451 0.636373336 0.0001321512 -4.20898e-05 2.87966e-05 8.98238e-05 -0.5635440503 0.6319099504
420297480.0 -0.5517827742 0.6420259827 6.30157e-05 -7.40186e-05 -9.1458e-05 -7.29829e-05 -0.5569682892 0.6368875865
425297450.0 -0.5459379171 0.6476248172 -0.0003412834 0.0001510967 4.90851e-05 0.0001283326 -0.5499609995 0.6432444399
430297420.0 -0.5392657771 0.6535266752 -8.3289e-06 -5.13121e-05 5.86979e-05 0.0001868895 -0.5435648684 0.6488368311
435297390.0 -0.5321986767 0.6587889665 0.0001945695 7.28907e-05 3.14327e-05 7.57032e-05 -0.5367805286 0.6535939932
440297360.0 -0.5251367749 0.6645758258 -1.81971e-05 8.0804e-05 6.24749e-05 6.92794e-05 -0.5299652153 0.6584935744
445297330.0 -0.5180526982 0.6696728266 2.93348e-05 2.84852e-05 -3.69e-08 1.79597e-05 -0.5236180697 0.6646237114
450297300.0 -0.5111962164 0.6743230857 -4.37952e-05 0.0002271966 -0.0001027754 -1.76434e-05 -0.5169888121 0.6697384957
455297270.0 -0.5039393645 0.6805290205 -0.0001618541 0.000265068 2.62685e-05 3.78399e-05 -0.5095778671 0.6750527857
460297240.0 -0.4982455731 0.6853494759 0.0001930971 0.0002151446 -2.39032e-05 -3.97631e-05 -0.502564368 0.6807616075
465297210.0 -0.4896877751 0.6902221501 0.0002150843 0.0002378534 0.0001633753 -0.0001227056 -0.4964442156 0.6843645927
470297180.0 -0.4832546229 0.6947090338 -0.0001105266 -4.5845e-06 2.36358e-05 -2.85e-05 -0.4896506531 0.6894784811
475297150.0 -0.4755692534 0.7002493607 -2.7745e-06 -0.0001969699 -0.0001289291 -9.64856e-05 -0.4817262538 0.6948590239
480297120.0 -0.468838567 0.7047868573 2.98333e-05 0.0001039696 -4.85721e-05 -1.50016e-05 -0.4750240995 0.7000606221
485297090.0 -0.4613765303 0.7091498923 -8.50116e-05 4.66684e-05 1.4351e-06 0.0001014419 -0.4675940129 0.7038450166
490297060.0 -0.4540854683 0.7141221668 4.982e-07 0.0001363574 4.08968e-05 -5.71125e-05 -0.4611008179 0.708835031
495297030.0 -0.4471333851 0.7186526741 0.0001503225 0.0002034819 -0.0001901245 0.0001444163 -0.4532368984 0.7129965496
500297000.0 -0.438613838 0.7229792364 -1.14629e-05 -1.53299e-05 -0.000112757 -0.0001153401 -0.4470272812 0.7177471775
505296970.0 -0.4317590658 0.7273077307 -0.0001047701 0.0001936579 -2.45703e-05 3.82983e-05 -0.4397099092 0.7218071737
510296940.0 -0.4240822771 0.7324591832 0.0003484448 8.437e-07 5.1054e-06 -0.0001797378 -0.4316875217 0.725956771
515296910.0 -0.4170483229 0.7365117471 -0.0002141094 -0.0002206759 -1.06987e-05 -0.0001333569 -0.4246841866 0.7309419441
520296880.0 -0.4093952052 0.7413805722 5.1264e-05 -0.0001444898 -1.93688e-05 0.0001655775 -0.4171530425 0.7346391077
525296850.0 -0.4014118751 0.7449930626 0.0001163554 -5.141e-06 0.0001952374 -8.16525e-05 -0.4096280973 0.739031999
530296820.0 -0.394258639 0.7482313123 9.96689e-05 0.0001209766 -0.000127271 2.60448e-05 -0.4030827507 0.7433276911
535296790.0 -0.386073876 0.7521879461 0.0002409002 2.68144e-05 -3.45123e-05 -5.69987e-05 -0.3950367125 0.7464518308
540296760.0 -0.3780354623 0.7561303455 -7.507e-06 3.8165e-06 -9.06243e-05 8.04285e-05 -0.3875465775 0.7508652669
545296730.0 -0.3707506096 0.7597155302 -4.93857e-05 8.0686e-06 0.0001402512 -9.7988e-05 -0.3806202998 0.7542484049
550296700.0 -0.3629653071 0.7638469319 -0.0001697931 -8.65174e-05 5.92426e-05 -2.87649e-05 -0.3724602528 0.7580812945
555296670.0 -0.3546646763 0.7672012967 0.0002844509 -9.9314e-05 -8.95894e-05 -0.0001091318 -0.3653146424 0.7617461789
560296640.0 -0.3474696986 0.7708932095 0.0001772509 9.2354e-05 -0.0001426112 4.06146e-05 -0.3570268041 0.7658808475
565296610.0 -0.3392557763 0.7739047612 4.73473e-05 2.1984e-06 0.0002407944 6.04246e-05 -0.35022509 0.7690178325
570296580.0 -0.3315883496 0.7780154419 2.36141e-05 -0.0002046547 -9.454e-07 -0.0001935559 -0.3426132026 0.7727254066
575296550.0 -0.3235251724 0.7805786906 2.81615e-05 9.58491e-05 9.31858e-05 -5.16468e-05 -0.3343200496 0.7754400721
580296520.0 -0.3159499732 0.7841389763 -0.000306057 1.52047e-05 0.0001573704 -0.0001085542 -0.3265426013 0.7788713865
585296490.0 -0.3073831553 0.786284077 1.95373e-05 -3.61862e-05 -0.0001308685 -0.0001485805 -0.3192655388 0.7822305272
590296460.0 -0.2995752018 0.789982715 0.0001051435 -0.0001907228 0.0001144252 0.0001305126 -0.3114954654 0.784961777
595296430.0 -0.2917542178 0.7936781876 -3.1883e-06 4.81876e-05 4.27694e-05 -0.0001116128 -0.3034440081 0.7873539057
600296400.0 -0.2837372799 0.7958804819 0.0001022563 2.13673e-05 6.79866e-05 7.37322e-05 -0.2959111611 0.7912306648
605296370.0 -0.2757613744 0.7990126681 -0.0001641912 0.0002147776 -6.42461e-05 -6.42648e-05 -0.2883803207 0.7940224811
610296340.0 -0.2674621314 0.8011093982 2.14579e-05 0.0001285078 -1.13249e-05 7.52101e-05 -0.2803539118 0.7971170884
615296310.0 -0.259016645 0.8043586564 9.75837e-05 0.0001154656 -4.61788e-05 2.20474e-05 -0.2727437952 0.7995975685
620296280.0 -0.2505673709 0.8062937867 -9.11219e-05 1.73974e-05 0.0001087894 -0.000168737 -0.2646418246 0.8018371597
625296250.0 -0.2424713527 0.8092537999 -6.04549e-05 -0.0001016623 1.62197e-05 -3.72935e-05 -0.2565026314 0.8049274603
630296220.0 -0.2338005591 0.8114384908 -0.0001133896 8.64304e-05 2.78729e-05 -8.11489e-05 -0.2483734709 0.8074693817
635296190.0 -0.2258773408 0.8137630009 -3.73791e-05 -5.16087e-05 6.76585e-05 0.0001851655 -0.240573105 0.8093343048
640296160.0 -0.2179819224 0.815192379 1.7093e-06 2.71772e-05 -0.0001197085 6.76142e-05 -0.2327714765 0.8116549287
645296130.0 -0.2098518662 0.8181907773 -0.0001485194 9.7009e-05 -0.0001483211 -8.80186e-05 -0.2249326035 0.8145107279
650296100.0 -0.2018895104 0.8200370413 2.44283e-05 -5.54018e-05 -0.0001432173 0.0001459876 -0.2163280541 0.81617206
655296070.0 -0.1933691792 0.8218930972 -0.0001472795 1.7082e-05 -4.174e-05 -4.1227e-05 -0.2085148663 0.8175670549
660296040.0 -0.1850996402 0.8242239628 -0.0002087966 -0.000111081 2.91312e-05 -1.9372e-05 -0.2003784494 0.8198556046
665296010.0 -0.1766577393 0.8260259116 -5.725e-07 -1.46758e-05 0.0001936218 5.66507e-05 -0.1922747225 0.822098902
670295980.0 -0.1678280386 0.8276937546 7.58072e-05 4.19813e-05 2.26725e-05 -0.0001081937 -0.1850964179 0.8239206364
675295950.0 -0.1601375734 0.8284951313 -8.00478e-05 4.30476e-05 -6.97262e-05 9.17954e-05 -0.1763262401 0.8261174468
680295920.0 -0.1513822093 0.8308271514 -0.0001145863 9.18717e-05 -8.49594e-05 3.4029e-05 -0.1676864196 0.8276680306
685295890.0 -0.1428842434 0.832057359 0.0001580805 -5.38018e-05 0.0001178912 -5.02669e-05 -0.1598545302 0.8292094688
690295860.0 -0.1342547549 0.8339420152 -0.0001341395 0.0002417212 -8.58426e-05 -7.6101e-06 -0.1515469282 0.8307325541
695295830.0 -0.1260466138 0.8346412677 -1.9297e-06 0.0001868522 -0.0001164887 -5.47757e-05 -0.1437373184 0.8323625203
700295800.0 -0.117791069 0.8359252161 8.56885e-05 -0.0001660896 0.0002291784 0.0001016099 -0.1344826504 0.8332031149
705295770.0 -0.1092129618 0.8373543079 8.3927e-06 4.15845e-05 -3.95282e-05 -2.6918e-06 -0.1274121682 0.8346946087
710295740.0 -0.1009796713 0.8386193304 0.0001725669 0.0001366509 -2.4647e-06 -5.23491e-05 -0.1190348188 0.8363101066
715295710.0 -0.0933151957 0.839267158 -1.54759e-05 3.26207e-05 0.0001433693 0.0001411642 -0.1103330923 0.8370926936
720295680.0 -0.0844592695 0.8397246903 7.08592e-05 1.9447e-06 1.99613e-05 -0.0001477103 -0.1021678638 0.838401016
725295650.0 -0.0745991833 0.8413708118 5.07884e-05 -2.98857e-05 0.0001382958 5.41397e-05 -0.0936512847 0.8393336806
730295620.0 -0.0673886174 0.8418550253 0.0001074401 0.0001028429 1.99233e-05 -0.0001485636 -0.0855849479 0.8402652451
735295590.0 -0.0585029031 0.8420050709 5.40931e-05 -0.0001063402 0.0001046366 0.0001249958 -0.0769473481 0.8406736071
740295560.0 -0.0500359094 0.8423024387 -7.86008e-05 5.44485e-05 -0.0001363413 6.46929e-05 -0.0689170412 0.8411880948
745295530.0 -0.0417460999 0.8429358488 -9.64469e-05 0.0001712078 8.66669e-05 6.96153e-05 -0.0604715085 0.8422023695
750295500.0 -0.0337587036 0.8439744139 5.88632e-05 -0.0001449322 -2.10461e-05 -0.0001007869 -0.0518503725 0.8427551655
755295470.0 -0.0241467243 0.8435343618 -8.92609e-05 -7.84561e-05 6.45434e-05 6.792e-06 -0.0445958816 0.8438234294
760295440.0 -0.0157581272 0.8435381011 -0.0001177147 -0.0001171477 -6.04558e-05 6.65016e-05 -0.0361362711 0.8440248602
765295410.0 -0.0076307625 0.8437706878 0.000224702 7.73533e-05 -0.0001169858 -5.36851e-05 -0.0269313767 0.8444175514
770295380.0 0.0006919347 0.8443590743 0.0001189856 7.29815e-05 5.17562e-05 -9.67873e-05 -0.0187118702 0.8436494179
775295350.0 0.0092957644 0.8439226573 3.04153e-05 -3.25727e-05 0.0001255353 0.0001788671 -0.0113639487 0.8444048528
780295320.0 0.0179128692 0.8431978541 1.3e-06 7.59178e-05 1.94362e-05 0.0001227737 -0.002619142 0.844433541
785295290.0 0.0264278698 0.843718479 -2.17208e-05 -0.0002039013 -3.41692e-05 1.49231e-05 0.0052720305 0.8438692515
790295260.0 0.0346120895 0.843372698 -5.53876e-05 -6.09478e-05 3.70921e-05 1.8141e-05 0.0145213797 0.8442560319
795295230.0 0.0426202801 0.8430590814 -7.05317e-05 -0.0001498191 -0.000154712 0.0001936529 0.0227320749 0.8442121811
800295200.0 0.0518591395 0.8425831469 6.1368e-05 4.80988e-05 0.0001281467 0.0001384437 0.0304989408 0.8431437324
805295170.0 0.0598970775 0.842482485 0.0001470398 9.72353e-05 -9.18522e-05 2.04566e-05 0.0388392012 0.8432516117
810295140.0 0.0681104961 0.8410863152 0.0001388918 -4.9395e-05 3.21602e-05 -2.2564e-06 0.0472613947 0.843607608
815295110.0 0.0771782423 0.8400510534 -5.21903e-05 -2.14816e-05 0.0001232663 4.35721e-05 0.055612074 0.842909916
820295080.0 0.0851234065 0.838933292 3.54375e-05 -0.0002155048 -0.0001442434 -0.0001606504 0.0635205232 0.8413347289
825295050.0 0.0937940293 0.8387471405 2.93284e-05 -5.746e-06 -0.0001661786 2.30344e-05 0.0718728866 0.8412063545
830295020.0 0.1026375147 0.8381036052 -0.0001812996 -7.68432e-05 0.0002671242 9.23021e-05 0.0799794103 0.8408550225
835294990.0 0.1103142367 0.8370482384 -1.18255e-05 0.0001116421 -8.3953e-05 0.0001361032 0.088667811 0.8399771625
840294960.0 0.1187180008 0.8349004778 6.07101e-05 -0.0001039839 -4.99775e-05 -0.0001132852 0.0965440757 0.8387120105
845294930.0 0.1270056678 0.8342745853 -0.0001322532 7.35121e-05 -1.70259e-05 2.15272e-05 0.105273223 0.837733672
850294900.0 0.1356230713 0.8329802822 -5.71859e-05 -6.87068e-05 -2.63746e-05 -6.04766e-05 0.1130062252 0.837352202
