!Created with skrf (http://scikit-rf.org).
# Hz S RI R 50.0 
!freq ReS11 ImS11 ReS21 ImS21 ReS12 ImS12 ReS22 ImS22
300000.0 -0.0949309044 -0.1005393951 0.6233495069 0.0911442722 0.6212350852 0.094170981 -0.0956078084 -0.1041122312
5299970.0 -0.1015536828 0.0113862733 0.6304425414 0.0112035262 0.6307854391 0.0111656812 -0.1017682832 0.0114017604
10299940.0 -0.0969858981 0.0288017502 0.6345802048 0.0158800044 0.6344658415 0.0167490908 -0.0966703245 0.0284708659
15299910.0 -0.0893455758 0.042344371 0.6402963015 0.0213995665 0.6406345981 0.0212558094 -0.089825559 0.0416976002
20299880.0 -0.0804039941 0.0535955969 0.648685732 0.0239829284 0.6488416325 0.0243192911 -0.0808853747 0.052678934
25299850.0 -0.0703213264 0.0625127673 0.6581913951 0.0260128733 0.6587320108 0.025667448 -0.0716615599 0.0617026628
30299820.0 -0.0607727673 0.0687337905 0.6680941402 0.024279488 0.6680104738 0.0246621544 -0.0618948739 0.0684757116
35299790.0 -0.0506399134 0.0734892446 0.6770516674 0.0224834686 0.6774221144 0.022004746 -0.0522894672 0.0735509535
40299760.0 -0.0413857194 0.0763149066 0.6869726748 0.0180775942 0.6869993432 0.0180270392 -0.0428541159 0.0769123054
45299730.0 -0.0321077338 0.0782671268 0.6956544285 0.0125928332 0.6962596184 0.0121493735 -0.0333298703 0.0790217126
50299700.0 -0.023044385 0.0788926516 0.7034727211 0.0050214615 0.7040281619 0.005075939 -0.0243626483 0.0802453087
55299670.0 -0.0151431588 0.0790141431 0.7113248829 -0.0024515629 0.7108295488 -0.0026028554 -0.0173023457 0.0804990158
60299640.0 -0.0077807081 0.0788600918 0.7182788962 -0.0105100689 0.7178503942 -0.0113395472 -0.0098945396 0.0796321632
65299610.0 -0.0014404029 0.0770359686 0.7243374758 -0.0194766765 0.7242407629 -0.0197544656 -0.0029103351 0.0786096853
70299580.0 0.005258828 0.0749581095 0.7291383419 -0.028352971 0.7291767247 -0.028950736 0.0028211127 0.0772011452
75299550.0 0.0102631248 0.0729283269 0.7333894872 -0.0389632918 0.7332490788 -0.0390058177 0.0087777221 0.0751634303
80299520.0 0.0155997648 0.0713574195 0.7374146028 -0.0488498776 0.73793169 -0.0486175554 0.0135329468 0.0735443984
85299490.0 0.0200601554 0.0691499496 0.7409884716 -0.0585691144 0.7410976942 -0.0581279031 0.018048516 0.0711671725
90299460.0 0.0239306957 0.0666572091 0.7436087154 -0.0681954861 0.7436422605 -0.068353198 0.0225873298 0.0692856069
95299430.0 0.0279994576 0.0642321707 0.7462895607 -0.0791666951 0.7462343367 -0.0788608859 0.0256988196 0.0667030232
100299400.0 0.0311623205 0.0616170447 0.7479559879 -0.0880402481 0.7478811035 -0.0889978316 0.0291848452 0.0647892455
105299370.0 0.0345084388 0.0589946122 0.7493711707 -0.0989195491 0.7494548949 -0.0985979923 0.0325276644 0.0615265353
110299340.0 0.0373197061 0.0563940537 0.7504183919 -0.1086286431 0.751098212 -0.1086311226 0.0348746738 0.059372449
115299310.0 0.0394743546 0.0544906952 0.7515153518 -0.1192514329 0.7516393289 -0.1186996936 0.0373829902 0.0577463516
120299280.0 0.0416932496 0.0519233087 0.7521178624 -0.1294211452 0.7517502219 -0.1295756434 0.0395724274 0.054583958
125299250.0 0.0438218094 0.0493384679 0.7519431147 -0.1390261662 0.7521033356 -0.1385979268 0.0421199684 0.0529182018
130299220.0 0.0456707047 0.0469599829 0.7522641167 -0.1490178858 0.7522798069 -0.1491055497 0.0439363058 0.0507687903
135299190.0 0.0469822384 0.0453521552 0.7520506196 -0.1582535731 0.7521693619 -0.1586922211 0.0454146111 0.0479965946
140299160.0 0.0489112858 0.0433104208 0.7518765413 -0.1687531569 0.7514909104 -0.1684638189 0.0461975041 0.0457902232
145299130.0 0.0493486662 0.041017389 0.7502064993 -0.1783312986 0.7503386379 -0.178289683 0.0481280546 0.0439234227
150299100.0 0.050975089 0.0391661183 0.749626753 -0.1876193271 0.7493088505 -0.1876406236 0.0491054272 0.0420381127
155299070.0 0.0526246866 0.0370416306 0.7475619834 -0.1971122361 0.7485791093 -0.1975690954 0.0504485049 0.0395214697
160299040.0 0.0532808124 0.0354962043 0.7470082637 -0.2066605851 0.7466987127 -0.2070143678 0.0507241598 0.03803879
165299010.0 0.0545556387 0.0333170878 0.7453884365 -0.2161172173 0.7452069762 -0.2168141417 0.0521421605 0.035939147
170298980.0 0.0549801559 0.0319525683 0.7428714122 -0.2258804577 0.7432202939 -0.2261089967 0.0524456072 0.033914959
175298950.0 0.0559012361 0.0301559167 0.7417508065 -0.234730038 0.7416129202 -0.2356116838 0.0534087593 0.0324764852
180298920.0 0.0563385526 0.0288808858 0.7393479911 -0.2443936325 0.739564006 -0.2441116732 0.0540033721 0.0309189413
185298890.0 0.0568353208 0.027112672 0.7380898157 -0.2533461328 0.737095728 -0.2530383375 0.0550465984 0.0289946237
190298860.0 0.0580202136 0.0258615635 0.7346622639 -0.2624661839 0.7349489964 -0.2624161683 0.0549045378 0.0272555839
195298830.0 0.0578858768 0.0240874734 0.7322924593 -0.2714130915 0.7326663146 -0.2717517628 0.0556087344 0.0260790174
200298800.0 0.0584959071 0.0222876769 0.7298817311 -0.2816605713 0.7299344051 -0.2808347922 0.0562292331 0.0240096525
205298770.0 0.0582800224 0.0208043195 0.7268680166 -0.2892693245 0.7273251429 -0.2892338457 0.0569399588 0.0226109195
210298740.0 0.0589927766 0.020162935 0.7241330234 -0.2984495109 0.7237965616 -0.2980133389 0.0563920058 0.0210103432
215298710.0 0.0594504274 0.0187132183 0.7211768861 -0.3065287283 0.7212025538 -0.3067964628 0.0571083518 0.0198069801
220298680.0 0.0598266163 0.0174636398 0.7176226331 -0.3156175985 0.7176600528 -0.3158083074 0.0572994291 0.0186032397
225298650.0 0.0598054311 0.0163367801 0.7141501691 -0.3240965815 0.7144323012 -0.3234464332 0.0575740322 0.0163372226
230298620.0 0.0603310321 0.0150889885 0.7114379879 -0.3329602554 0.7113594852 -0.3326476477 0.0571392683 0.0152508062
235298590.0 0.0598596493 0.0139373755 0.7082973172 -0.3420696615 0.7077746758 -0.3412979978 0.0578705224 0.0141083947
240298560.0 0.060373484 0.0128723853 0.7043373245 -0.3491466851 0.7040194636 -0.3497834685 0.0577154291 0.0127353943
245298530.0 0.0600363687 0.0115392388 0.7008202775 -0.3578339297 0.7005359229 -0.3576820953 0.0579463133 0.0117842619
250298500.0 0.0603542899 0.0100824994 0.6969883455 -0.3663276974 0.6966182632 -0.365523842 0.0576860925 0.0107365721
255298470.0 0.0607739175 0.0095321278 0.6932729811 -0.3742386618 0.6934965728 -0.3743379222 0.058087888 0.0101890699
260298440.0 0.0607939903 0.0080613928 0.6895886476 -0.3818740457 0.6887388268 -0.3821416781 0.0577308831 0.0076049172
265298410.0 0.0602056428 0.0074277567 0.6848442977 -0.3906303332 0.6844888279 -0.3907411694 0.0585198375 0.006490514
270298380.0 0.0602753479 0.0064598755 0.6806556079 -0.3984469627 0.6807608046 -0.3981055503 0.0581391659 0.0057284782
275298350.0 0.0605138949 0.0056320792 0.6758197467 -0.4057885859 0.6757556001 -0.4062705875 0.0579134875 0.0049474373
280298320.0 0.059857803 0.0045453917 0.6721632432 -0.413572072 0.672196393 -0.4140521722 0.0582662813 0.0037305444
285298290.0 0.0598681272 0.0036081878 0.6675181103 -0.4216606425 0.6676369926 -0.4215747348 0.0581422328 0.0026998536
290298260.0 0.0599416688 0.0028088831 0.6637466738 -0.4295262471 0.6629356867 -0.4297334032 0.0582400516 0.0016259517
295298230.0 0.0600939861 0.0015133583 0.6587427498 -0.4382603287 0.6582799037 -0.4378153429 0.0579206658 0.0006245787
300298200.0 0.0601830002 0.0008848677 0.6537625533 -0.4451607623 0.6538710513 -0.4447914358 0.0578644613 -0.0007038572
305298170.0 0.0601851036 -0.0005895586 0.6498123825 -0.4530889517 0.6489979909 -0.4528539902 0.0578987023 -0.0022399652
310298140.0 0.0604600697 -0.0015016257 0.6445151341 -0.4602792417 0.6443681872 -0.460761275 0.0580276806 -0.0036976128
315298110.0 0.0596553619 -0.0029657951 0.6393395952 -0.468663574 0.6392709589 -0.4677352966 0.0574696634 -0.0042904818
320298080.0 0.0594887939 -0.003684618 0.633461376 -0.4757045132 0.6342250121 -0.4760172805 0.0574438893 -0.0054213124
325298050.0 0.0587168765 -0.0050839221 0.6285929036 -0.4829047083 0.6290490423 -0.4829843766 0.0570963474 -0.0068090692
330298020.0 0.0574827215 -0.0058495161 0.6226721539 -0.4909044463 0.6235029175 -0.4909077306 0.0562243317 -0.0079260654
335297990.0 0.0575597261 -0.0066579944 0.6170132845 -0.4973448185 0.6176700748 -0.4978253621 0.0555982422 -0.0086724706
340297960.0 0.0570444044 -0.0076253761 0.6111533473 -0.5047109541 0.6107979369 -0.5049204693 0.0554455723 -0.0091938803
345297930.0 0.0563621056 -0.0083016494 0.6057919803 -0.5120961021 0.6059025287 -0.511870796 0.0553280391 -0.0101084182
350297900.0 0.0558159717 -0.0089128125 0.6003261694 -0.518273074 0.6006571402 -0.5182746388 0.0546786754 -0.0114306108
355297870.0 0.055489269 -0.0095557951 0.5943853278 -0.5243547237 0.5940643182 -0.5245318173 0.0547488842 -0.0121353312
360297840.0 0.0551941656 -0.0103671847 0.5881859532 -0.5317645827 0.5886347911 -0.5320470756 0.0535310742 -0.0121398419
365297810.0 0.0547582219 -0.010966849 0.5824217996 -0.5379035211 0.5825610103 -0.5382555792 0.0532874046 -0.0132669928
370297780.0 0.054570133 -0.0112172976 0.5761547298 -0.5443861623 0.5768164963 -0.5442392655 0.0526988908 -0.0140420091
375297750.0 0.0543634537 -0.0120665657 0.5701835086 -0.5504829991 0.5705825202 -0.5511528364 0.0527989548 -0.014592206
380297720.0 0.0532780424 -0.0127914472 0.5647298224 -0.5579559231 0.5647995959 -0.5576336986 0.0523858701 -0.0150250295
385297690.0 0.0531029784 -0.0138113271 0.5578815033 -0.5635556703 0.5583009765 -0.564447807 0.05221154 -0.0156428285
390297660.0 0.0530582945 -0.0145114365 0.5519189703 -0.5694236211 0.5525061278 -0.5701337925 0.052277493 -0.0167656538
395297630.0 0.053066528 -0.0148320705 0.5459585454 -0.5748770343 0.5457940877 -0.5755638621 0.0515166844 -0.0172063032
400297600.0 0.0520852048 -0.0157282551 0.5400016779 -0.5818155239 0.53963586 -0.5818538556 0.051533229 -0.0174984389
405297570.0 0.0517407986 -0.0166293464 0.5335697143 -0.5876425314 0.5331837879 -0.5876368817 0.0508669469 -0.0177878649
410297540.0 0.0515649762 -0.0166390787 0.5263869474 -0.5941051627 0.5270868563 -0.5937725381 0.0504122428 -0.0187800149
415297510.0 0.051044341 -0.0173904401 0.5200467899 -0.5995980272 0.5209230097 -0.6000288715 0.0505863059 -0.0193198853
420297480.0 0.0506692696 -0.0186271795 0.5138365666 -0.6055153395 0.5140842681 -0.6053397112 0.0502246611 -0.0196827058
425297450.0 0.0509662325 -0.0189208575 0.5069452424 -0.6110799285 0.5071266992 -0.6109722895 0.0497911744 -0.02084582
430297420.0 0.0500412015 -0.0191842205 0.5006946745 -0.6169694531 0.5007922466 -0.6163107993 0.0500324718 -0.0211648291
435297390.0 0.0498725422 -0.0202659708 0.4934460902 -0.6229821554 0.4935482174 -0.6224063815 0.0486738838 -0.0213319357
440297360.0 0.0497527032 -0.0208861381 0.485985961 -0.6276569399 0.486192597 -0.6280531588 0.0487487254 -0.0218314334
445297330.0 0.049341892 -0.0220118923 0.4800264057 -0.632573619 0.4796274647 -0.6330379517 0.0482418165 -0.0222651528
450297300.0 0.0489432305 -0.0223765299 0.4728005377 -0.6382330484 0.473173944 -0.6384533171 0.0482010526 -0.0226305982
455297270.0 0.0481101925 -0.0230394904 0.4662921424 -0.6435825737 0.4659443365 -0.6434540356 0.0477829976 -0.0232113244
460297240.0 0.0483039127 -0.0234887263 0.4591574635 -0.6494256223 0.4585521459 -0.6488448002 0.0473156548 -0.0242240077
465297210.0 0.0476212637 -0.0239629896 0.4513310892 -0.6538138912 0.4510756914 -0.6541579357 0.0473927472 -0.0237286897
470297180.0 0.0473151568 -0.0250564657 0.4442949579 -0.6584562463 0.4447685091 -0.659081938 0.0471487752 -0.0250569914
475297150.0 0.0465660397 -0.0248666038 0.4366932323 -0.6636486938 0.4373901353 -0.6639747315 0.0466837155 -0.025749663
480297120.0 0.0467666456 -0.0252813149 0.4295303248 -0.6683840018 0.4297333101 -0.6681901079 0.0460184356 -0.0262293507
485297090.0 0.0462362963 -0.0268154486 0.4226174316 -0.673963294 0.4224222083 -0.6729918755 0.0458197087 -0.0262864421
490297060.0 0.0463563824 -0.0266059276 0.414749911 -0.6777226431 0.4147529964 -0.6780522865 0.0451914416 -0.0269794322
495297030.0 0.0450857115 -0.0278584447 0.4081096151 -0.6823966419 0.4078605526 -0.6826586451 0.0454619386 -0.0275752482
500297000.0 0.0448829627 -0.0280011201 0.4004054485 -0.6867518869 0.4000616132 -0.6869236656 0.0446725336 -0.0277375317
505296970.0 0.0452417779 -0.0283561541 0.3930470116 -0.6915329417 0.392943877 -0.6910452993 0.0444664113 -0.0290652327
510296940.0 0.0444601691 -0.0290536667 0.3848260205 -0.6959521612 0.385180753 -0.6962994875 0.0443371561 -0.0290723627
515296910.0 0.0438868358 -0.0291772783 0.3768856175 -0.6997233878 0.3771683835 -0.7001013232 0.0436614443 -0.0301132004
520296880.0 0.0436561161 -0.0295007081 0.3700816904 -0.7036502776 0.3693282789 -0.7036102012 0.0436204083 -0.0298710076
525296850.0 0.0433558823 -0.0302034365 0.3620170796 -0.7075480931 0.3616311319 -0.7079065251 0.0434769055 -0.0302261647
530296820.0 0.042623529 -0.0312266157 0.3542056559 -0.7119266769 0.3543297416 -0.7121541222 0.0430376647 -0.0315040359
535296790.0 0.0429841769 -0.0312290082 0.346313217 -0.715645047 0.3466527127 -0.715747761 0.0431132222 -0.0309980783
540296760.0 0.0421724593 -0.0314152779 0.3379584189 -0.7189792663 0.3382095303 -0.719217894 0.0422655816 -0.0323540986
545296730.0 0.0409584415 -0.0317869087 0.3302377035 -0.7231088141 0.3303716495 -0.7227351695 0.0420229168 -0.032643201
550296700.0 0.0415461428 -0.0321879191 0.3221354529 -0.7266657758 0.3226838552 -0.7271949455 0.041878699 -0.0330559823
555296670.0 0.0407716207 -0.0326289308 0.3143253923 -0.730654372 0.3149045043 -0.7302901285 0.0409232355 -0.0339056194
560296640.0 0.0412814197 -0.0333299246 0.3064770517 -0.7330664476 0.3073276194 -0.7335588337 0.0404925491 -0.033736796
565296610.0 0.0398759318 -0.0334939066 0.2988452496 -0.7371695351 0.2989760566 -0.7364423164 0.0404615572 -0.0342161484
570296580.0 0.0395816467 -0.0338021195 0.2900081282 -0.7405281034 0.2909939952 -0.7407650191 0.0398943083 -0.0352416846
575296550.0 0.0391482841 -0.0343333351 0.2833185606 -0.7437591969 0.2826747962 -0.7434156073 0.0393176563 -0.0352322877
580296520.0 0.038735594 -0.0343892473 0.2745873903 -0.7466389331 0.2739166836 -0.7466900077 0.0383382227 -0.0356993296
585296490.0 0.0383014306 -0.0346630403 0.2663278241 -0.7488146809 0.2660414911 -0.7493286089 0.0388164716 -0.0357585926
590296460.0 0.0385436176 -0.0349902084 0.2579881022 -0.7521919048 0.2577510029 -0.7527238647 0.0375601688 -0.0361158506
595296430.0 0.0380500935 -0.0354256562 0.2490349364 -0.7549705056 0.2491437308 -0.7552502548 0.037654361 -0.0369583059
600296400.0 0.0377933368 -0.0356282703 0.2408885077 -0.7577965197 0.2408990608 -0.7577793821 0.0370319117 -0.0371142419
605296370.0 0.0364018378 -0.0360401533 0.2337470474 -0.7604230654 0.2331673288 -0.7607760343 0.0363740875 -0.0374610475
610296340.0 0.0364317205 -0.0358086867 0.2247214325 -0.7620058952 0.2249375786 -0.7624071014 0.0356130916 -0.0376012779
615296310.0 0.0361961828 -0.0361908983 0.2165308927 -0.7653646316 0.2155641721 -0.7655429624 0.0355016094 -0.0375425358
620296280.0 0.0349423828 -0.0360724113 0.2073945983 -0.7675185115 0.207371741 -0.7672972316 0.0345625316 -0.0381868997
625296250.0 0.0347375238 -0.0369253426 0.1993701542 -0.7700882102 0.2000591359 -0.7703032413 0.0334995148 -0.0389129475
630296220.0 0.034318238 -0.0365689556 0.1904776795 -0.7722056671 0.190744798 -0.7720188259 0.03387241 -0.0389518505
635296190.0 0.0335004213 -0.036750632 0.1830110231 -0.773916226 0.182732115 -0.7737042365 0.0331052752 -0.0393947733
640296160.0 0.0328389789 -0.0370231878 0.1735892986 -0.7757736572 0.1739569747 -0.7760415364 0.0322280805 -0.0395153617
645296130.0 0.0329277568 -0.0367546761 0.1654097106 -0.7775866999 0.1658852299 -0.7773499201 0.0315276962 -0.0403314132
650296100.0 0.0320940452 -0.0373900394 0.1567907012 -0.7797935549 0.1573459418 -0.7802930386 0.03205444 -0.0405190561
655296070.0 0.0316377332 -0.0376145894 0.1484039576 -0.7814209294 0.1485327422 -0.7811781833 0.0303564299 -0.0403943187
660296040.0 0.0313132048 -0.0374315434 0.1402620562 -0.7829037516 0.1400755739 -0.7827914493 0.0298142658 -0.041348317
665296010.0 0.030715386 -0.0379174825 0.1310759595 -0.7838430535 0.1312505365 -0.7839470621 0.0297043396 -0.0409515784
670295980.0 0.0303476542 -0.0377627969 0.1228055714 -0.7855144986 0.1230103084 -0.7848398312 0.0287339917 -0.0416166339
675295950.0 0.0294805432 -0.0379943005 0.1140191737 -0.7869977703 0.1146112814 -0.7870673479 0.0280782033 -0.0414174002
680295920.0 0.0290239546 -0.037863496 0.1054762056 -0.7883347043 0.1064119886 -0.7880838162 0.0279433808 -0.0422661117
685295890.0 0.0286119379 -0.037913452 0.0969188583 -0.7891888024 0.0974112607 -0.7891983399 0.0274753529 -0.0416767795
690295860.0 0.0275922807 -0.0381071691 0.0884391471 -0.7901545139 0.0880618506 -0.7903388074 0.0265241013 -0.042112436
695295830.0 0.0274064631 -0.0383170524 0.0805488529 -0.7909144745 0.0803165177 -0.7908433569 0.0259357153 -0.0419975497
700295800.0 0.0269167863 -0.0379879778 0.0716709425 -0.7918284419 0.0710870882 -0.7917422125 0.0252293879 -0.0424024055
705295770.0 0.0257923487 -0.0383078768 0.0624512797 -0.7930838745 0.0628655733 -0.7924663678 0.0244586622 -0.042073254
710295740.0 0.0255496356 -0.0384852435 0.0543488477 -0.7931126874 0.0543461446 -0.7938529217 0.0239520125 -0.0424945392
715295710.0 0.0250560796 -0.0381160186 0.0460530477 -0.7941860232 0.0458178345 -0.7940500604 0.0231718384 -0.042791947
720295680.0 0.0249160324 -0.0383452589 0.0367959201 -0.7937993167 0.0373502828 -0.7944961435 0.0227591625 -0.0431408784
725295650.0 0.0232792012 -0.0382118881 0.0285227062 -0.7945909929 0.0285344372 -0.7946982661 0.0215090462 -0.0422056026
730295620.0 0.0222997775 -0.0388395066 0.019422902 -0.7947515523 0.019991444 -0.793878711 0.0212291029 -0.0422710768
735295590.0 0.0223392047 -0.0384730791 0.0112676295 -0.7953812777 0.0108864824 -0.7949617133 0.0202637525 -0.0433013591
740295560.0 0.0218043316 -0.0387847187 0.0027829968 -0.7952181498 0.0028071722 -0.7956229038 0.019343931 -0.0424984115
745295530.0 0.0210995033 -0.0384395964 -0.0060395731 -0.7939359297 -0.0053227284 -0.7948660586 0.0183363253 -0.0430213682
750295500.0 0.019997981 -0.0384733873 -0.0142174907 -0.7946082771 -0.0146084525 -0.7946130252 0.0180717637 -0.0428921555
755295470.0 0.0194324772 -0.0384023788 -0.0231364277 -0.7948374687 -0.0231167977 -0.795022228 0.0178727851 -0.0421860335
760295440.0 0.0189030177 -0.0377332348 -0.0330846355 -0.7941117706 -0.0318444136 -0.7940266569 0.0170008562 -0.0437247053
765295410.0 0.0188637486 -0.038501194 -0.0407618999 -0.7937708444 -0.0403625535 -0.7939183828 0.0163354797 -0.0430503196
770295380.0 0.0178528322 -0.0377911131 -0.0487330774 -0.7924238931 -0.0489883413 -0.7936668762 0.0152690613 -0.0428121579
775295350.0 0.017397142 -0.0384109198 -0.0576505248 -0.7926854541 -0.0576114628 -0.7919869798 0.0153094297 -0.0425034326
780295320.0 0.0165207005 -0.0380449261 -0.0665658859 -0.791688365 -0.0658458196 -0.7917181144 0.01458654 -0.0428787009
785295290.0 0.015878534 -0.0381984244 -0.0746688484 -0.7909615738 -0.0744370425 -0.7908807289 0.0130566344 -0.0423192756
790295260.0 0.0155403158 -0.0382878108 -0.0833666935 -0.7907530771 -0.0828839194 -0.7903671147 0.012839182 -0.0417596446
795295230.0 0.0144672208 -0.0384978579 -0.0918376255 -0.7896599157 -0.09190608 -0.7899769444 0.0124459694 -0.0431457557
800295200.0 0.0134942333 -0.0377646901 -0.100218726 -0.7878864891 -0.1006258164 -0.7885623305 0.0113832821 -0.0423735105
805295170.0 0.0128432377 -0.0381498865 -0.1092018506 -0.7871271922 -0.1088329152 -0.7873297224 0.0115270526 -0.0422219798
810295140.0 0.0129420155 -0.0378451752 -0.1177879047 -0.7862261621 -0.1176365485 -0.7858784203 0.0104388877 -0.0421313452
815295110.0 0.0119363855 -0.0375120303 -0.1258829941 -0.7844362343 -0.1250635216 -0.7847148336 0.0098590681 -0.0422314294
820295080.0 0.0114057945 -0.0377224328 -0.1335581871 -0.7831986001 -0.1340801905 -0.7833106448 0.0079938103 -0.0412716955
825295050.0 0.0104278758 -0.0376045318 -0.1430396485 -0.7817806755 -0.142500657 -0.7810295318 0.0090655718 -0.0408916692
830295020.0 0.0100409543 -0.0376826112 -0.1508589267 -0.7796238381 -0.1512991547 -0.7800475827 0.0075867114 -0.0420220047
