!Created with skrf (http://scikit-rf.org).
# Hz S RI R 50.0 
!freq ReS11 ImS11 ReS21 ImS21 ReS12 ImS12 ReS22 ImS22
300000.0 -0.3153296333 -0.1310284541 0.3721756364 0.0654044725 0.3726716826 0.065064472 -0.3184824741 -0.1319685757
5299970.0 -0.3249268609 0.0025753804 0.3783633124 0.0034480691 0.3789027999 0.0030847415 -0.3259060532 0.0020433783
10299940.0 -0.3227284508 0.0139058629 0.3800748585 0.0026331422 0.3798074584 0.0030098177 -0.3232277625 0.0123928677
15299910.0 -0.3190976961 0.0224540661 0.3819404673 0.0027409571 0.3825780566 0.002766894 -0.3207018934 0.0198244493
20299880.0 -0.3156313726 0.028831963 0.3849312773 0.0018398311 0.3852562063 0.0019714662 -0.3177733401 0.02620693
25299850.0 -0.3117583372 0.0349737053 0.3885325211 0.0003570689 0.3889953707 0.0001638042 -0.3151222899 0.0313095837
30299820.0 -0.3081194489 0.0394884223 0.3920245547 -0.0022045281 0.3920768864 -0.0019914795 -0.3120553771 0.0357155622
35299790.0 -0.3044821683 0.0433865441 0.3946939812 -0.004920058 0.3955100201 -0.0051569902 -0.3092946339 0.0399429835
40299760.0 -0.3012934412 0.0469077766 0.3984580882 -0.0085312664 0.3986039652 -0.0087361223 -0.3064556177 0.0434163639
45299730.0 -0.2977639495 0.0499624041 0.4009639946 -0.0122741962 0.4014970849 -0.0125547453 -0.3036066408 0.0466036096
50299700.0 -0.2947590655 0.0524774495 0.4038858273 -0.016996069 0.4036690009 -0.0172136159 -0.3013207145 0.0498058122
55299670.0 -0.2921832597 0.0552793691 0.4059118072 -0.0213006726 0.4058196824 -0.0218768259 -0.2994226157 0.0523569916
60299640.0 -0.2897045901 0.0578391642 0.4082243912 -0.0266951014 0.4078678601 -0.0268908352 -0.2970465124 0.0549600765
65299610.0 -0.2873967046 0.0600718338 0.4094680204 -0.0315133321 0.4098588658 -0.0318137873 -0.2951746454 0.0575685803
70299580.0 -0.2853038505 0.0618367168 0.4107096493 -0.0367196057 0.4111115771 -0.0369091042 -0.2936091974 0.0598862
75299550.0 -0.2835839253 0.0643184224 0.4115676484 -0.0420986656 0.4119056757 -0.0421348358 -0.2919007295 0.0625298252
80299520.0 -0.2816610689 0.0664967383 0.4128870954 -0.0471265515 0.413193042 -0.0477402189 -0.2907099761 0.0649939132
85299490.0 -0.2798087133 0.0683628955 0.4132979256 -0.0525565309 0.4135576204 -0.0523657247 -0.2892163886 0.0670060227
90299460.0 -0.2781492855 0.0706494403 0.4140262055 -0.0576186564 0.4138282791 -0.0575979455 -0.2875029142 0.0693590221
95299430.0 -0.277024183 0.0726636411 0.4142212963 -0.0630951874 0.4140817482 -0.063089307 -0.286275466 0.0718933269
100299400.0 -0.2754017586 0.0746525226 0.4139849779 -0.0680346083 0.4141386191 -0.0685469422 -0.2852496387 0.0743104193
105299370.0 -0.2739329267 0.076650492 0.413790658 -0.073304861 0.4141983191 -0.073304365 -0.2838824737 0.0762820329
110299340.0 -0.2727332936 0.0786444719 0.4138261577 -0.0780616957 0.4142476451 -0.0782229926 -0.2832445991 0.0786815013
115299310.0 -0.2715090138 0.0810261796 0.4136563321 -0.0833674243 0.4135599039 -0.08344323 -0.2821466035 0.0811595129
120299280.0 -0.270472113 0.0833624365 0.4133673287 -0.089454875 0.4132768879 -0.0889781731 -0.2810253828 0.0833902342
125299250.0 -0.2690057121 0.0853216304 0.4121689752 -0.0939425082 0.4128590894 -0.093891005 -0.2800280326 0.0861141332
130299220.0 -0.2683473237 0.0873997789 0.4119793466 -0.0990415419 0.4117338815 -0.0991782387 -0.2792031472 0.0883547013
135299190.0 -0.2673093492 0.0900530722 0.4114235937 -0.1036186419 0.4116357291 -0.1041989255 -0.278299581 0.0910120754
140299160.0 -0.2661827995 0.0923445569 0.4107048435 -0.1091693538 0.4107189373 -0.1091238175 -0.2778088201 0.0934569468
145299130.0 -0.2653680777 0.0948503388 0.4097785931 -0.1138256907 0.409662305 -0.1141174406 -0.2764690375 0.0959512362
150299100.0 -0.2642825958 0.0968390935 0.4084739632 -0.1186552083 0.4086809718 -0.1191454485 -0.2753261814 0.0985081863
155299070.0 -0.2630726073 0.0995528044 0.4068405505 -0.1238951127 0.407530938 -0.1238533296 -0.2746354684 0.1009396877
160299040.0 -0.2621016682 0.1022605128 0.406074999 -0.1285664344 0.4061540648 -0.1290330627 -0.2742411703 0.1035840317
165299010.0 -0.2610026656 0.1042984126 0.4047458882 -0.1332567958 0.4047893489 -0.1337658561 -0.2726836856 0.1060569625
170298980.0 -0.2599525354 0.1069586147 0.4030543992 -0.1385298804 0.4037912308 -0.1382035104 -0.2719530323 0.1086513838
175298950.0 -0.2589640569 0.109449233 0.4019922715 -0.1429817176 0.4026434294 -0.1434588976 -0.2708431532 0.1116215191
180298920.0 -0.2580435109 0.111759119 0.4003888819 -0.1480205281 0.4007678036 -0.1481643456 -0.2697327824 0.1140922147
185298890.0 -0.2570539594 0.1142074884 0.3994050896 -0.1525160308 0.3994554071 -0.1526791051 -0.2685573684 0.116678508
190298860.0 -0.2557170336 0.1173495354 0.3972754888 -0.1573500133 0.3980522206 -0.1572876983 -0.2679013531 0.1193803085
195298830.0 -0.2548323738 0.1196298118 0.3960662508 -0.1618291364 0.3960371719 -0.1619582208 -0.2670131582 0.1220411545
200298800.0 -0.2537721894 0.1219074334 0.394498125 -0.1669099247 0.3944137487 -0.1664757805 -0.2657680829 0.1246518057
205298770.0 -0.2528217728 0.1246919836 0.3923172113 -0.1709100793 0.3926611727 -0.1709642802 -0.2644034469 0.1274100115
210298740.0 -0.2512068431 0.1272672736 0.3904502055 -0.1756764977 0.390693301 -0.1756037959 -0.2638060162 0.1300256473
215298710.0 -0.2503197803 0.130324651 0.3884989316 -0.1799583145 0.3886449318 -0.1803747417 -0.262041015 0.1326553473
220298680.0 -0.2489996019 0.1325464912 0.3863108461 -0.1845143206 0.3868488804 -0.1845907459 -0.2613509552 0.1354384546
225298650.0 -0.2477934581 0.135357933 0.3843109593 -0.1887702303 0.3849191183 -0.1887353854 -0.2597311284 0.1382526568
230298620.0 -0.2463541459 0.1381941255 0.382706344 -0.1938751929 0.3829544658 -0.1937894726 -0.2587813429 0.1406252405
235298590.0 -0.2454333441 0.1407207014 0.3806248042 -0.1980084341 0.3809761591 -0.1978911236 -0.2572841702 0.14376541
240298560.0 -0.2440705607 0.1434076325 0.3784702835 -0.2023403463 0.3782792334 -0.202250425 -0.2560783955 0.146092931
245298530.0 -0.2427238591 0.1458951292 0.3759727031 -0.2065610768 0.3761005146 -0.2066180195 -0.2548824712 0.1486344024
250298500.0 -0.2414981737 0.1482268144 0.3739964559 -0.2104691761 0.3742796559 -0.2106032588 -0.2533434656 0.1515921562
255298470.0 -0.2399216004 0.1513092384 0.3718393869 -0.2147671151 0.3722897414 -0.2152125169 -0.2519506549 0.1543869763
260298440.0 -0.2385369578 0.1533325995 0.3691563039 -0.2186462702 0.3693836378 -0.219037579 -0.2506427823 0.1566812934
265298410.0 -0.2374927465 0.1563302187 0.3668634297 -0.2234859871 0.3668720008 -0.2234331632 -0.2485662919 0.1591712931
270298380.0 -0.2359639184 0.1588701352 0.3644631399 -0.2274769796 0.3645506817 -0.2275982915 -0.2474079859 0.1622206026
275298350.0 -0.2345735676 0.1614895645 0.3614850167 -0.2313065135 0.3619088012 -0.2313423334 -0.245917139 0.1648346858
280298320.0 -0.2332537437 0.1640485236 0.3595883898 -0.2353913725 0.3597610393 -0.2359278205 -0.2440546584 0.167613289
285298290.0 -0.2317768451 0.1665875204 0.3567285983 -0.2395195849 0.3571088804 -0.2397047591 -0.2428268165 0.1706169153
290298260.0 -0.2302149758 0.169122196 0.3546845059 -0.2433618248 0.354294421 -0.24374374 -0.2408956328 0.1729550007
295298230.0 -0.228552855 0.1715625883 0.3517743576 -0.2476895576 0.3517660004 -0.2483645674 -0.2393527352 0.1756409897
300298200.0 -0.2267548076 0.17421025 0.3488687815 -0.2513489074 0.3492253854 -0.251122033 -0.2374608478 0.1777774427
305298170.0 -0.2251134789 0.1763631998 0.3462701446 -0.2555228738 0.3465087662 -0.255671471 -0.2355452812 0.1801665935
310298140.0 -0.2234182977 0.1788824278 0.343499564 -0.2595622689 0.3434405702 -0.2592796921 -0.2340381056 0.1828832283
315298110.0 -0.2218726411 0.1811153704 0.3405334537 -0.2634820729 0.3407248887 -0.263611686 -0.2321492279 0.1856475894
320298080.0 -0.2201409974 0.1838592121 0.3374531438 -0.2677328941 0.3378459401 -0.2675380528 -0.2307026633 0.187911993
325298050.0 -0.218587604 0.1859176877 0.3347830823 -0.2710067826 0.3348915893 -0.2713360084 -0.2284015121 0.1904885615
330298020.0 -0.2170523538 0.1887351826 0.3313382249 -0.2749460043 0.3318991497 -0.2747252088 -0.227053007 0.1928001468
335297990.0 -0.2153320703 0.1909408211 0.3282450468 -0.2784096983 0.3286801473 -0.2788144061 -0.2247483864 0.1954926021
340297960.0 -0.213647099 0.1934937406 0.3250670422 -0.2824169525 0.3250588441 -0.2823141404 -0.2231753138 0.1979560754
345297930.0 -0.2121456899 0.195831023 0.3219482993 -0.2861205677 0.322094161 -0.2861913985 -0.2212421584 0.2007045554
350297900.0 -0.21021342 0.1980456287 0.3188364696 -0.2888634533 0.3187481509 -0.2892821186 -0.2191985503 0.2026762956
355297870.0 -0.208425309 0.2005108652 0.3155998685 -0.2927483593 0.315675486 -0.2928980592 -0.2169311679 0.2055761803
360297840.0 -0.2063174245 0.2026212778 0.311843312 -0.2961662025 0.3124940844 -0.2965094198 -0.2150487874 0.2082100835
365297810.0 -0.2043035745 0.2050409167 0.3090012654 -0.2994131521 0.3092387898 -0.2999439425 -0.2132709236 0.2103704913
370297780.0 -0.2024664218 0.207498433 0.3052836857 -0.3031204611 0.305713152 -0.3033302109 -0.2110645632 0.2128567387
375297750.0 -0.2006515224 0.2096713253 0.3023862865 -0.3063353933 0.3024360118 -0.3063110973 -0.2089009075 0.2147770786
380297720.0 -0.1986087635 0.2120093737 0.299462019 -0.3096460945 0.2990471147 -0.3099278446 -0.2063739425 0.217794884
385297690.0 -0.1964679695 0.214230027 0.2952947313 -0.3133005009 0.2957514349 -0.3134052058 -0.2047075535 0.2199464846
390297660.0 -0.1942816645 0.216058816 0.2919761912 -0.3157843302 0.2920033768 -0.3163639796 -0.2020597155 0.2221079439
395297630.0 -0.1921240704 0.2185735971 0.2885372303 -0.3189993069 0.2886101909 -0.3191921676 -0.1995687325 0.2243185109
400297600.0 -0.1903155486 0.2208595036 0.2851350583 -0.3226854477 0.2853081967 -0.3226268045 -0.1974478832 0.2270547263
405297570.0 -0.1882653439 0.2224198683 0.2815697365 -0.3254198106 0.2817437893 -0.3255446306 -0.1951035226 0.229147267
410297540.0 -0.1855418805 0.2248440083 0.2777876378 -0.3288269591 0.2781229414 -0.3282684718 -0.1930202784 0.2312006634
415297510.0 -0.1836999056 0.2267056118 0.2739500594 -0.3317033457 0.2746482548 -0.3319763655 -0.1904212001 0.233404908
420297480.0 -0.1811682899 0.2287636661 0.2704409095 -0.3346434948 0.270878054 -0.3348692423 -0.1874693686 0.2360340321
425297450.0 -0.1787323638 0.2307985904 0.2672845209 -0.3376388822 0.2667452376 -0.337745674 -0.1854577531 0.2378235177
430297420.0 -0.1767014468 0.2327019741 0.2634770577 -0.3404591822 0.2634145585 -0.3403092868 -0.1825859805 0.2399984158
435297390.0 -0.1743540768 0.2346199785 0.2595388675 -0.3438293111 0.259577718 -0.3432548961 -0.1807122952 0.2421449952
440297360.0 -0.1718555743 0.2367058088 0.2556199083 -0.3464747623 0.2555364327 -0.346316478 -0.1781402573 0.2444391479
445297330.0 -0.1692942126 0.2380885299 0.252076115 -0.3482925256 0.2519509831 -0.3491411366 -0.175191608 0.2463041902
450297300.0 -0.1666686925 0.2402467748 0.2480233673 -0.3512168749 0.2482969963 -0.3517194757 -0.1726330039 0.2483780896
455297270.0 -0.164686984 0.2421088969 0.2441579047 -0.3542710091 0.24424894 -0.3544395326 -0.1700874224 0.2508079504
460297240.0 -0.1616082417 0.2440297364 0.2400920923 -0.3575127013 0.2402336941 -0.3570117735 -0.1674882758 0.2521669438
465297210.0 -0.1592478046 0.2457309209 0.2360501053 -0.3595656881 0.2360451564 -0.3599139801 -0.1647090872 0.2544749515
470297180.0 -0.1564376849 0.2475053645 0.2319387095 -0.3616245453 0.2324541757 -0.3622856248 -0.1620339459 0.2558621928
475297150.0 -0.1544067446 0.2495860152 0.2282124486 -0.3645725182 0.2283480845 -0.3649010142 -0.159565958 0.2580150595
480297120.0 -0.1510206407 0.2513130505 0.224411332 -0.3673847765 0.2244163769 -0.3668935884 -0.1571005461 0.2595300681
485297090.0 -0.1486031527 0.2529121666 0.2199676798 -0.3695395797 0.2201615377 -0.3697239308 -0.154054469 0.2616958661
490297060.0 -0.1453150298 0.2545654534 0.2154870669 -0.3719821806 0.2159125285 -0.3720485918 -0.1511296013 0.2631571817
495297030.0 -0.1431096799 0.2560423167 0.2121000864 -0.374216154 0.2117334813 -0.3744379844 -0.1485031788 0.2652665523
500297000.0 -0.1405513247 0.2576352175 0.2081538344 -0.3760842586 0.2079686037 -0.3765045489 -0.1457976223 0.2667480183
505296970.0 -0.1371153983 0.2595786832 0.2039474011 -0.3787743318 0.2039188423 -0.3787210333 -0.1427513517 0.2683239014
510296940.0 -0.1346839785 0.2610213838 0.199733203 -0.3814583913 0.1998294896 -0.3813744856 -0.1398680581 0.2705809794
515296910.0 -0.1318330341 0.2625653319 0.1952317009 -0.383054808 0.1950257125 -0.3827868895 -0.1374036333 0.2715154371
520296880.0 -0.1287980023 0.2640973213 0.1911585497 -0.3851043039 0.190516721 -0.385065856 -0.1337675587 0.273490025
525296850.0 -0.1262201536 0.2655764016 0.1869673412 -0.3871368592 0.1866373104 -0.3873834694 -0.1313146604 0.2750001076
530296820.0 -0.1233085462 0.2668020168 0.1823384371 -0.389075995 0.1825640152 -0.3889022112 -0.1283636881 0.2762027156
535296790.0 -0.1197968344 0.2685304232 0.1782387574 -0.3908707957 0.1781775391 -0.3909064181 -0.1252727049 0.2777822698
540296760.0 -0.1170126411 0.270166124 0.1737264733 -0.3930263303 0.1737341783 -0.3926088464 -0.1225074776 0.2790758984
545296730.0 -0.1147219408 0.2719133912 0.1699566187 -0.394538378 0.1697817596 -0.3947448202 -0.1197779005 0.2811122614
550296700.0 -0.1112934589 0.2729232864 0.1653001873 -0.3966635417 0.1649956449 -0.3968050036 -0.1163926242 0.2825875352
555296670.0 -0.1085292177 0.274047011 0.1609505881 -0.3984034918 0.160678991 -0.3982107803 -0.1136086761 0.2831047345
560296640.0 -0.1053206686 0.2751630192 0.1565144513 -0.3996912141 0.1568355401 -0.4001335043 -0.1107195309 0.284988621
565296610.0 -0.1025897863 0.2767613893 0.152476167 -0.4017253091 0.1520771522 -0.4013320358 -0.1074838441 0.2860851041
570296580.0 -0.09944921 0.2781703392 0.147877199 -0.4034467361 0.1476489828 -0.4029820958 -0.1045488049 0.2872017891
575296550.0 -0.0962771964 0.2791785709 0.1435281362 -0.4046415985 0.1434995186 -0.4045964708 -0.1016463754 0.2887428487
580296520.0 -0.0931182005 0.2807131021 0.1389047723 -0.4065215229 0.1387257203 -0.4065156203 -0.0986118483 0.289930704
585296490.0 -0.0902724528 0.2818192104 0.1350294459 -0.4076549705 0.1342196222 -0.4076859532 -0.0951462919 0.291150863
590296460.0 -0.0867025575 0.2828934192 0.1299679197 -0.4088929822 0.1300410132 -0.4094013067 -0.0923856534 0.2921381348
595296430.0 -0.0838201702 0.2841137856 0.1252698748 -0.410557854 0.1252662852 -0.4105777777 -0.0895249141 0.2931263124
600296400.0 -0.0807089677 0.285213105 0.1205829776 -0.4116614678 0.1206905282 -0.411695339 -0.0860092791 0.2939135062
605296370.0 -0.0779690619 0.2863763176 0.1168347357 -0.4128020146 0.1163404591 -0.4129897814 -0.083097303 0.2952629773
610296340.0 -0.0745801444 0.2878364851 0.1119732729 -0.4136816012 0.1120674881 -0.4143246131 -0.080245908 0.2963359466
615296310.0 -0.0711067375 0.2885979938 0.1074437898 -0.4154958086 0.1070106093 -0.4154565753 -0.0763167714 0.2972940085
620296280.0 -0.0686338642 0.289916745 0.1029829428 -0.4161937151 0.1028656376 -0.416408409 -0.073927272 0.2986096549
625296250.0 -0.0656361508 0.2903588068 0.0984743861 -0.4176285416 0.0984042165 -0.4176995988 -0.0707206065 0.2990028062
630296220.0 -0.0621175308 0.2916061992 0.0934847614 -0.4186169191 0.0936111971 -0.4186146515 -0.0673844901 0.300077398
635296190.0 -0.0590803777 0.2924870984 0.0895506668 -0.4188612112 0.0890438348 -0.4194465165 -0.0643296182 0.3009721074
640296160.0 -0.0560206834 0.2931064596 0.0845900125 -0.420639341 0.084618682 -0.4203321077 -0.0611966194 0.3016337604
645296130.0 -0.0526072823 0.2943974145 0.0800523642 -0.4211526396 0.0799778278 -0.4208089033 -0.0583933941 0.3024700253
650296100.0 -0.0497169127 0.2950040189 0.0757096115 -0.4220244088 0.075282957 -0.4221713701 -0.0545230108 0.3032434001
655296070.0 -0.0467554009 0.2958045515 0.0707248637 -0.4226726274 0.0708849799 -0.4226090525 -0.0516842192 0.3042018802
660296040.0 -0.0437156843 0.2967856032 0.0663668055 -0.4235918101 0.0659318343 -0.4234604922 -0.0481741922 0.3044529805
665296010.0 -0.0402067338 0.2974267848 0.0615916232 -0.4238734309 0.0614714351 -0.4238590118 -0.0449176091 0.3051069474
670295980.0 -0.0371970938 0.2983401466 0.0569751077 -0.4249133504 0.0566969432 -0.4241965585 -0.0422277363 0.3054827192
675295950.0 -0.034121149 0.298617215 0.0524957614 -0.4247619795 0.0525178937 -0.425483462 -0.0386900312 0.3066521764
680295920.0 -0.0311396983 0.2997655592 0.0480070562 -0.4255086837 0.0479400616 -0.4255567162 -0.0352013634 0.3067158451
685295890.0 -0.0273942316 0.3001423926 0.0429683157 -0.426197877 0.0431718535 -0.4261862397 -0.0323252606 0.3074341283
690295860.0 -0.0248992338 0.3004437072 0.0389305135 -0.4263788401 0.0384450651 -0.4264234721 -0.0290076678 0.3081818426
695295830.0 -0.0214428478 0.3011074565 0.0345326784 -0.4268787488 0.0338136146 -0.4268854203 -0.0260201525 0.3083510741
700295800.0 -0.0182712316 0.3018560489 0.0296667825 -0.4272213164 0.0296951242 -0.4272513635 -0.0228841346 0.3087068321
705295770.0 -0.0156970801 0.302501477 0.0248222705 -0.4280245454 0.0245809473 -0.4275891386 -0.0193645051 0.3094588485
710295740.0 -0.0126252963 0.3022996993 0.0206303386 -0.4273562315 0.0199920511 -0.4280905429 -0.0158234671 0.3097480509
715295710.0 -0.009253067 0.3031143598 0.0158428232 -0.428313019 0.0154991835 -0.4279812166 -0.0127702942 0.3095973786
720295680.0 -0.005848218 0.303377225 0.0109464169 -0.4279667564 0.0107827431 -0.428217228 -0.0096791923 0.3100563994
725295650.0 -0.0031950801 0.3039456304 0.006893921 -0.4280470274 0.0064619106 -0.4280954825 -0.0066039865 0.3105915137
730295620.0 -0.0003841078 0.3038425613 0.0019405191 -0.4274526737 0.0016555225 -0.427944962 -0.0034809754 0.3110278938
735295590.0 0.0028196778 0.3043761568 -0.002867311 -0.4280831542 -0.0028189634 -0.4280211733 -7.17701e-05 0.3105626528
740295560.0 0.0060864974 0.3041302361 -0.0073165938 -0.4277532545 -0.0074230525 -0.4280493408 0.0031249857 0.3111350748
745295530.0 0.0090714282 0.304893181 -0.0117984629 -0.427444082 -0.0114964286 -0.4276313589 0.0062866179 0.3110406321
750295500.0 0.0121767931 0.3049557627 -0.0162319521 -0.4272660974 -0.0168108594 -0.4277991076 0.0095163941 0.3114035476
755295470.0 0.0153217052 0.3049033847 -0.0206608074 -0.4274742742 -0.0211007828 -0.4278538998 0.0127572216 0.3118666877
760295440.0 0.0184141564 0.3054882985 -0.0260884982 -0.4269475688 -0.0260348366 -0.42684241 0.0163831397 0.3109141331
765295410.0 0.0213534439 0.3050707275 -0.030300131 -0.4268331302 -0.0305047789 -0.4268614064 0.0195719317 0.311249647
770295380.0 0.0243698682 0.305170586 -0.0346151749 -0.4257978322 -0.0348050328 -0.4266569441 0.0224508406 0.3112664327
775295350.0 0.0270966076 0.3051154414 -0.039429811 -0.4257604146 -0.0395268383 -0.4258599819 0.0260161085 0.3112267456
780295320.0 0.0305220713 0.3050025364 -0.0435617041 -0.4251338024 -0.0441248022 -0.4255310518 0.0294590435 0.3110426612
785295290.0 0.0334481204 0.304797363 -0.0484020287 -0.42471347 -0.0486793725 -0.4252408092 0.0321186599 0.3107610585
790295260.0 0.0365356847 0.3047518301 -0.052949091 -0.4245372293 -0.0527554203 -0.4247450394 0.0355096341 0.3109181051
795295230.0 0.0393951777 0.3045456338 -0.057644893 -0.4242084466 -0.0580542893 -0.4239418938 0.0388023656 0.3100284997
800295200.0 0.0425417978 0.3045462359 -0.0617665077 -0.4228412273 -0.062406267 -0.4231986616 0.0417844422 0.309736795
805295170.0 0.0452539711 0.3043327409 -0.0665105035 -0.4225817001 -0.0667413672 -0.4226654228 0.0456858485 0.3096447406
810295140.0 0.0490090383 0.3041973277 -0.0713715605 -0.421415184 -0.071422981 -0.4215747837 0.0486694182 0.3092927389
815295110.0 0.0514256935 0.3035693598 -0.0758720336 -0.4205683157 -0.0757931524 -0.4210479808 0.0518697054 0.3090420519
820295080.0 0.0549367562 0.303110334 -0.0795846066 -0.4196606765 -0.0798327712 -0.420169192 0.0545959768 0.3089791907
825295050.0 0.0576385979 0.3026545224 -0.0847709536 -0.419404107 -0.0853812388 -0.4190302053 0.0586769146 0.3083406281
830295020.0 0.0608023624 0.3025365881 -0.0891171874 -0.4180315708 -0.0896509546 -0.41831209 0.061574506 0.3073161649
