!Created with skrf (http://scikit-rf.org).
# Hz S RI R 50.0 
!freq ReS11 ImS11 ReS21 ImS21 ReS12 ImS12 ReS22 ImS22
300000.0 -0.0957767006 -0.096097458 0.6242939251 0.0893027956 0.6214099027 0.0904000439 -0.0960773647 -0.1015420684
5299970.0 -0.1013244939 0.0118038224 0.6303117641 0.0105622538 0.631092489 0.0110424306 -0.1012746574 0.0111954185
10299940.0 -0.0967681164 0.0287293439 0.6344814515 0.0161795764 0.6343066046 0.0160902983 -0.0964807122 0.0285302906
15299910.0 -0.0892219704 0.0422889541 0.6402220067 0.0208101335 0.6404431973 0.0215462862 -0.0898058979 0.0416181213
20299880.0 -0.0805298672 0.0536377799 0.6489674544 0.0240753799 0.6489787264 0.0243644301 -0.0809005583 0.0527899843
25299850.0 -0.0703299292 0.0624783827 0.6582271485 0.0259320599 0.6582833439 0.0252585221 -0.0716861185 0.0617549472
30299820.0 -0.0610829877 0.0688053552 0.6676562459 0.0245535202 0.6677546082 0.0243135599 -0.0616778244 0.0682349334
35299790.0 -0.0507537087 0.0733725468 0.6766029734 0.0221697809 0.6774870909 0.0217612097 -0.0520809843 0.0738333826
40299760.0 -0.0411356965 0.0765829808 0.6866933388 0.0178120422 0.6869994023 0.0175426565 -0.0423458908 0.07675182
45299730.0 -0.0318223696 0.0784236997 0.6957872142 0.01240641 0.6960438153 0.0120189671 -0.0332129871 0.0791638567
50299700.0 -0.0227617631 0.0791972204 0.7039058778 0.0052960029 0.7039005318 0.0050196013 -0.0245691105 0.080374635
55299670.0 -0.0150738908 0.0790558095 0.7110765937 -0.0021712376 0.7109935955 -0.0024986629 -0.0172329028 0.080378675
60299640.0 -0.0075475779 0.0787341226 0.7183022341 -0.0114204987 0.7178026519 -0.0115224706 -0.009557048 0.0794814036
65299610.0 -0.0010131151 0.0771661981 0.7241581898 -0.0198463758 0.7242285549 -0.0200183393 -0.0023955723 0.0786522863
70299580.0 0.0053823484 0.0754526564 0.7294082405 -0.0287004217 0.7294306343 -0.0290589349 0.0029279967 0.0771896572
75299550.0 0.0105674139 0.0735542839 0.7335052567 -0.0396156595 0.7337705986 -0.0390333191 0.0088390718 0.0754318248
80299520.0 0.0156766075 0.0713617454 0.7375956822 -0.0486017617 0.7376758856 -0.0486910336 0.01357148 0.0733379608
85299490.0 0.0200513929 0.0693054743 0.7412479598 -0.0588508874 0.7410552071 -0.0582493 0.0179687255 0.0708069384
90299460.0 0.0236850639 0.0667634567 0.7435067433 -0.0686495842 0.7436559767 -0.0683103979 0.0226018401 0.0692706326
95299430.0 0.0279621559 0.0641451197 0.745994064 -0.0789333821 0.7465350744 -0.0794480198 0.0259578268 0.0663670118
100299400.0 0.0312392807 0.0616182631 0.7478174753 -0.0885749609 0.7471848636 -0.0890650676 0.0289876097 0.0646154728
105299370.0 0.0344327909 0.0590577538 0.7491305187 -0.0990574633 0.7495521478 -0.0993561673 0.0328158241 0.061441671
110299340.0 0.0373025448 0.0565291716 0.7504770386 -0.1084963429 0.7510145828 -0.1086993245 0.0350594607 0.0593591739
115299310.0 0.0393750975 0.0543590369 0.7513632632 -0.1193547549 0.7509543564 -0.1188548486 0.0372951001 0.0573779144
120299280.0 0.0415450666 0.0523561743 0.7522507851 -0.1295760999 0.7514815688 -0.1295620159 0.0396776896 0.0546250693
125299250.0 0.0438509241 0.0496704499 0.7520772039 -0.139084051 0.7521544341 -0.1386639746 0.0419890365 0.0526345356
130299220.0 0.0459180871 0.0472171972 0.7524020555 -0.1493938445 0.7517640669 -0.1494331469 0.0440485841 0.0505733054
135299190.0 0.0468992583 0.0455669597 0.7521999408 -0.1587538296 0.7520017298 -0.1592301931 0.0456442671 0.0479281287
140299160.0 0.0487691926 0.0432222989 0.7517325527 -0.1687459469 0.7508538096 -0.1680768581 0.0461171529 0.0454558782
145299130.0 0.049434702 0.0411024257 0.7504777498 -0.1786838771 0.7503598853 -0.1782255167 0.0482187524 0.0434528844
150299100.0 0.0510173928 0.039286391 0.7496065717 -0.1881304172 0.749072038 -0.1880363371 0.0492287079 0.0419759824
155299070.0 0.052521768 0.037107003 0.7475112198 -0.1972593615 0.7482000386 -0.1978746918 0.0504232372 0.0394707075
160299040.0 0.0531003434 0.0355352881 0.7468144368 -0.2070440607 0.7468785963 -0.2072794548 0.0510214177 0.03781675
165299010.0 0.0542015907 0.0334614808 0.7451256425 -0.216578264 0.7445745037 -0.2166107609 0.0522267717 0.0358652583
170298980.0 0.0551753524 0.0318959822 0.742932223 -0.2260885856 0.7433370053 -0.2259749007 0.0527650626 0.0337391603
175298950.0 0.0558685082 0.0302160057 0.7417168392 -0.2348824662 0.7416582084 -0.2358079689 0.0537397101 0.0324742649
180298920.0 0.0562630057 0.0286484035 0.7393868568 -0.2447965814 0.7389902735 -0.2446557601 0.053919035 0.0308610035
185298890.0 0.0567708708 0.0270783784 0.7375862788 -0.2534259861 0.7368537178 -0.2535270248 0.0551437905 0.0289083693
190298860.0 0.0577427375 0.0257280891 0.7342496117 -0.2628488044 0.7352052625 -0.2625467761 0.0552500771 0.027502036
195298830.0 0.0578663755 0.0242276232 0.7325616135 -0.2717719063 0.7322271605 -0.2716876726 0.0556122235 0.0257452728
200298800.0 0.0584734681 0.0224874423 0.7297001092 -0.2814694429 0.7295635502 -0.2809018651 0.0560875916 0.0238454823
205298770.0 0.0581631053 0.0208582766 0.7267700456 -0.2895658288 0.7272725594 -0.2891300624 0.0568124022 0.0226544889
210298740.0 0.058872933 0.0198836329 0.7244695109 -0.2984223317 0.7234812012 -0.2984278572 0.0565875459 0.0206632209
215298710.0 0.0591705158 0.0184186068 0.7210934262 -0.3069435637 0.7206683962 -0.3069642288 0.0570170751 0.0197413286
220298680.0 0.0595938562 0.0176032892 0.7173261252 -0.3156802645 0.7174886127 -0.31609382 0.0574186722 0.0181157166
225298650.0 0.0595587975 0.016097616 0.7142004736 -0.3242105704 0.7142639952 -0.3239522908 0.0575823984 0.0162810462
230298620.0 0.0602373433 0.0150090659 0.7112466069 -0.3332352485 0.7111988024 -0.3329560544 0.0573063602 0.0150193206
235298590.0 0.059725499 0.0135790377 0.7077795934 -0.341731097 0.7075464189 -0.3413478055 0.0576862046 0.0140009396
240298560.0 0.0602784567 0.0129724392 0.7042465179 -0.3492690414 0.7039834502 -0.3494475147 0.057857007 0.0126289011
245298530.0 0.0601992097 0.0113106964 0.7001834205 -0.3581633921 0.7002050876 -0.3582301044 0.0579756493 0.0118223756
250298500.0 0.0601171738 0.0102694681 0.6971054786 -0.3662408583 0.696532447 -0.3656626974 0.0578581926 0.0105460601
255298470.0 0.0604701991 0.0096559046 0.6924690992 -0.3739654173 0.6931731013 -0.3746476376 0.0578944497 0.0095930936
260298440.0 0.0605094146 0.008308779 0.6890989125 -0.3819776123 0.6888199247 -0.3820733734 0.0575071264 0.007745765
265298410.0 0.0597755802 0.0073893336 0.6844149881 -0.3903694997 0.6841579141 -0.3909863036 0.0585619879 0.006366385
270298380.0 0.0600081539 0.0061645579 0.680322185 -0.3990094073 0.6804935241 -0.3985306537 0.058198323 0.0059839586
275298350.0 0.0605086408 0.0058199843 0.6751014535 -0.405807389 0.6755509926 -0.4060957479 0.0577546036 0.0050016851
280298320.0 0.0596031432 0.0042775822 0.6721166331 -0.4138971423 0.6724000408 -0.4144183197 0.0581902282 0.0039382568
285298290.0 0.0599215474 0.0034650337 0.6671526959 -0.4217541465 0.6676570708 -0.42138732 0.0579749615 0.0026141639
290298260.0 0.0598093769 0.0025045155 0.6634377583 -0.4296874348 0.6633490408 -0.4297909201 0.0582795263 0.0015810537
295298230.0 0.0599248475 0.0011226044 0.6584318271 -0.4378399016 0.658133093 -0.4378392347 0.0579465013 0.0003307519
300298200.0 0.0602143232 0.0008005914 0.6538353345 -0.4456766563 0.6532495489 -0.4449363882 0.0573808847 -0.0007965221
305298170.0 0.0599489216 -0.000806113 0.6489773281 -0.4533103898 0.6488789722 -0.4534342721 0.0577110188 -0.0023671362
310298140.0 0.0600129569 -0.0018641618 0.6445454308 -0.4602935652 0.643880572 -0.4601122316 0.0580568739 -0.00387578
315298110.0 0.059522351 -0.0030532905 0.6391768557 -0.4688037623 0.6386068005 -0.4686149477 0.0577915063 -0.0046713205
320298080.0 0.0594414477 -0.0040255591 0.6334292407 -0.4761332182 0.6339198783 -0.4759769713 0.0569051965 -0.0057988987
325298050.0 0.0582467254 -0.0053688447 0.6285192079 -0.4827005788 0.6287793736 -0.4833964165 0.0569365017 -0.0070461449
330298020.0 0.0570864806 -0.0059487352 0.6223373109 -0.4908984142 0.6232493389 -0.4908847964 0.056132023 -0.0077955692
335297990.0 0.0574998432 -0.006671354 0.6173916498 -0.4973139469 0.6171810469 -0.497612339 0.0554668348 -0.0088396921
340297960.0 0.0569153945 -0.0077386927 0.6108442253 -0.5051546322 0.6108747936 -0.5048174781 0.0549873455 -0.0094343618
345297930.0 0.0561730486 -0.0083570334 0.6056270284 -0.5119385426 0.6051370575 -0.5113943598 0.0551241679 -0.0106857923
350297900.0 0.0557377531 -0.0091269268 0.6004094794 -0.518108514 0.6003995432 -0.5184271761 0.054580792 -0.0115303892
355297870.0 0.0556874472 -0.0096313789 0.5944825653 -0.5246617838 0.5941127748 -0.5243544505 0.054568042 -0.0121205361
360297840.0 0.055005911 -0.0103378249 0.5880395191 -0.5312176874 0.5884640333 -0.5319116151 0.0533894713 -0.0124414916
365297810.0 0.0546267631 -0.010864365 0.5821801777 -0.538200091 0.5820983846 -0.5382157149 0.0530243034 -0.0133304094
370297780.0 0.0546401615 -0.0114219343 0.5758723745 -0.5444705113 0.576008673 -0.5443415191 0.0527855531 -0.0142482299
375297750.0 0.0544528396 -0.0124949651 0.5705694817 -0.5509596851 0.5703005021 -0.5514939868 0.0528812245 -0.014722089
380297720.0 0.0531848131 -0.0127235387 0.5642879683 -0.5575915303 0.5640132395 -0.5578187519 0.0522125081 -0.0149629546
385297690.0 0.053258415 -0.0137501481 0.5578370614 -0.5637595315 0.5579947519 -0.5644440979 0.0518622034 -0.0158001602
390297660.0 0.0529317219 -0.0141388632 0.5521132394 -0.5690352526 0.5519829864 -0.5700297467 0.0523030604 -0.0169005825
395297630.0 0.0530192996 -0.0149621184 0.5456515748 -0.5753370543 0.5454861614 -0.57554862 0.0515047378 -0.0174661599
400297600.0 0.0522113301 -0.015766692 0.5392748101 -0.5819999937 0.5395501015 -0.5818963605 0.0512313898 -0.0176221035
405297570.0 0.0519767713 -0.0170269537 0.5332629773 -0.5877326072 0.5331136437 -0.5880734354 0.0508715546 -0.0179906621
410297540.0 0.051465993 -0.0164418118 0.5264956667 -0.5940304911 0.5262420295 -0.5938979657 0.050398056 -0.0188842915
415297510.0 0.0509751246 -0.0173999687 0.5198843682 -0.5997484203 0.5202620257 -0.5999403064 0.0504240245 -0.019289332
420297480.0 0.0507274513 -0.0183631195 0.5130611837 -0.6058778825 0.5134953923 -0.6056451036 0.0502998319 -0.0195605201
425297450.0 0.0507695911 -0.018940368 0.5071784214 -0.6106509543 0.5063834912 -0.6109848449 0.0497730914 -0.0207584658
430297420.0 0.0497927828 -0.0193274186 0.5003566289 -0.6166367217 0.5006225704 -0.6163972697 0.0499930138 -0.0208936525
435297390.0 0.0496440646 -0.0201304846 0.4929135304 -0.6231827491 0.4929324594 -0.6223193885 0.048679243 -0.0215523063
440297360.0 0.0494375958 -0.0208448531 0.4862075834 -0.6274775557 0.4860545806 -0.6278010743 0.0484546435 -0.0221812797
445297330.0 0.0493542732 -0.0219037766 0.4799984266 -0.632723378 0.4791440195 -0.6332730126 0.0482869982 -0.0223973643
450297300.0 0.0489654482 -0.0220741725 0.4725064752 -0.638170226 0.4723463308 -0.638199183 0.0482701343 -0.02286131
455297270.0 0.0477570376 -0.0227717236 0.4658384212 -0.6436527003 0.4657851898 -0.6433988295 0.0475679463 -0.0237873115
460297240.0 0.047971794 -0.023301219 0.4586268132 -0.6498006682 0.4581544415 -0.6493190135 0.047246582 -0.0243209767
465297210.0 0.0477808117 -0.024043786 0.4507272446 -0.653897786 0.4505082053 -0.6538642192 0.0474103568 -0.0241995534
470297180.0 0.0470406705 -0.025013979 0.4438427859 -0.6586928206 0.444364198 -0.658471763 0.0473033653 -0.0254778024
475297150.0 0.0464646627 -0.0248911817 0.43660658 -0.6638299552 0.4368840408 -0.6640404537 0.046596928 -0.025901961
480297120.0 0.0465233891 -0.0250675341 0.4293080779 -0.6682424759 0.4297700326 -0.6683134145 0.0458007581 -0.0263908952
485297090.0 0.0460932595 -0.0266326065 0.4216966895 -0.6731532671 0.4219572592 -0.6732353253 0.0457038552 -0.0267397046
490297060.0 0.0461967549 -0.0264823265 0.4134477658 -0.6776580275 0.4143547428 -0.6780476015 0.0450852693 -0.0273349229
495297030.0 0.0451746937 -0.02780259 0.4073221963 -0.6827086532 0.4069884084 -0.6825111102 0.0454037414 -0.0281424112
500297000.0 0.0445855209 -0.0275697773 0.3994305798 -0.6866359747 0.3999232204 -0.6871471973 0.0445952536 -0.0276503116
505296970.0 0.0449738182 -0.0280383238 0.3927788737 -0.6915031658 0.3922510643 -0.6909670655 0.0442977915 -0.0295126976
510296940.0 0.0440962422 -0.0289389921 0.3845577759 -0.6967945672 0.3849253031 -0.6963247175 0.0440802604 -0.0293081702
515296910.0 0.0437952485 -0.0289864236 0.3761951733 -0.699922414 0.3764629537 -0.6999234687 0.0436988606 -0.0306695084
520296880.0 0.0433951467 -0.0293770917 0.3692284458 -0.7035267794 0.3692666719 -0.7038216428 0.0436153286 -0.030065356
525296850.0 0.0431385702 -0.0303472382 0.3612368069 -0.7080324969 0.3609899535 -0.7079621332 0.0432565196 -0.0307574557
530296820.0 0.0423486524 -0.0310745808 0.3531107418 -0.7122901796 0.3539637004 -0.7120766492 0.0429616004 -0.0316416391
535296790.0 0.0430647276 -0.0310296043 0.3459222143 -0.7159714948 0.3462435941 -0.7156362358 0.0429323329 -0.0316814951
540296760.0 0.0416328486 -0.0312622404 0.3377686928 -0.7189893787 0.3376059443 -0.7195397605 0.0422223863 -0.0326226147
545296730.0 0.0406794029 -0.0317122289 0.3296559688 -0.7235527741 0.3299679867 -0.7226115436 0.0416743621 -0.0329745992
550296700.0 0.0411923339 -0.0319984928 0.3221541437 -0.7267628878 0.3219121755 -0.7270966284 0.0415653025 -0.0332658362
555296670.0 0.0408053387 -0.0326867768 0.3140588637 -0.7307477318 0.314502629 -0.7300902847 0.040991287 -0.0342412472
560296640.0 0.0407535172 -0.0330139781 0.3057120352 -0.7333835001 0.3067347188 -0.7337105596 0.0402302247 -0.0341041268
565296610.0 0.0395123704 -0.033417981 0.2984499355 -0.737197559 0.2984986693 -0.7365215514 0.0401262821 -0.0344363206
570296580.0 0.0390031557 -0.0334909982 0.2896172488 -0.7401879336 0.2902999884 -0.7409196542 0.0395371293 -0.0355140848
575296550.0 0.0387475038 -0.0340163252 0.2826229889 -0.7438196759 0.28174869 -0.7433489948 0.0388667078 -0.0354752925
580296520.0 0.0386509576 -0.034088322 0.2739273383 -0.7469663088 0.2737756157 -0.7466225168 0.0380533 -0.036038631
585296490.0 0.0381032285 -0.034597448 0.2662646607 -0.7494910466 0.2652365061 -0.7493002814 0.038582981 -0.0359742408
590296460.0 0.03856755 -0.034702988 0.2574552868 -0.7521502354 0.2577155636 -0.7526315618 0.0374773316 -0.0363472153
595296430.0 0.0376212333 -0.0351759568 0.24839477 -0.7549743929 0.248334202 -0.7553540141 0.0372626857 -0.0373137218
600296400.0 0.0375547866 -0.0354299937 0.2404984338 -0.7573045663 0.240921046 -0.7576398561 0.0370568338 -0.0376228812
605296370.0 0.0360956368 -0.0357088441 0.232805229 -0.760555894 0.2323565778 -0.7604960175 0.0360404824 -0.0376360181
610296340.0 0.036292148 -0.0354289091 0.2243437074 -0.7615921897 0.2243372825 -0.7627474335 0.0353515744 -0.0378692726
615296310.0 0.0360042641 -0.0362202545 0.2158853749 -0.7653956442 0.2152755726 -0.7653742707 0.0354726281 -0.0380153241
620296280.0 0.0346453154 -0.0360603455 0.2071606513 -0.7678949175 0.2071691167 -0.7671655669 0.0342212516 -0.0384271894
625296250.0 0.034447559 -0.0366035765 0.1987672749 -0.7703889972 0.1992005155 -0.7701308813 0.0336384575 -0.0388671701
630296220.0 0.0340786123 -0.0366582679 0.1905510244 -0.7720640084 0.1903869708 -0.771820977 0.0333955864 -0.0391504986
635296190.0 0.0332936242 -0.0368977919 0.1816560047 -0.7737831158 0.1817651154 -0.773844464 0.0329105025 -0.0395710934
640296160.0 0.0325718917 -0.0371242252 0.1733499686 -0.7767854734 0.1735735743 -0.7761937481 0.0319818986 -0.0402180122
645296130.0 0.0326914208 -0.0367392696 0.1647978302 -0.7771827559 0.1654106729 -0.777583215 0.0312723085 -0.0406265715
650296100.0 0.0319980613 -0.0374577881 0.1570056688 -0.7795156707 0.1566766954 -0.779415233 0.0318591589 -0.0406954157
655296070.0 0.0314382891 -0.0377231749 0.1475552702 -0.7813759119 0.1482454244 -0.7809015149 0.0301870447 -0.0406289896
660296040.0 0.0310026727 -0.0373547078 0.139584875 -0.7831035081 0.1396918051 -0.7834661758 0.0297511726 -0.0415745592
665296010.0 0.0305638237 -0.0376438256 0.1308402799 -0.7840524544 0.1310589911 -0.7841358614 0.0292562404 -0.0414269401
670295980.0 0.0299150083 -0.0375798175 0.1224913646 -0.7853827478 0.1223359891 -0.7848996036 0.0282156941 -0.0417298726
675295950.0 0.0292182169 -0.0379435119 0.1134578163 -0.7864679156 0.1135236307 -0.7865802993 0.0275844179 -0.041620609
680295920.0 0.0288076517 -0.0377758479 0.1048735246 -0.7880794764 0.1056023463 -0.787979769 0.0276302196 -0.0424126813
685295890.0 0.0284514362 -0.0378469568 0.0962745541 -0.7893717138 0.0968050399 -0.7889028672 0.0269233634 -0.0417486101
690295860.0 0.0276237915 -0.0377971807 0.0878419439 -0.7900915853 0.0875924963 -0.7897928815 0.0261097618 -0.0427947614
695295830.0 0.0269856512 -0.0383299406 0.0801101196 -0.7907552916 0.0794094088 -0.7905212858 0.0256193081 -0.0424339603
700295800.0 0.0265674384 -0.0382134957 0.0714499425 -0.7917843866 0.0712923816 -0.7916616723 0.0250028745 -0.0424789784
705295770.0 0.0258858996 -0.0381930614 0.0623517378 -0.7927108813 0.0623871796 -0.7918581403 0.0242946473 -0.0424048696
710295740.0 0.0253667807 -0.0383293623 0.0538864087 -0.7934868403 0.0535123256 -0.7936021623 0.0239042232 -0.0426182727
715295710.0 0.0248776821 -0.0380898796 0.0453617743 -0.793923451 0.0454585778 -0.7939172632 0.0229460097 -0.0429111012
720295680.0 0.0246081159 -0.0382011132 0.0363428625 -0.7937490484 0.0366218888 -0.7941311875 0.0224077125 -0.0430266323
725295650.0 0.0230909876 -0.0379785869 0.0278106537 -0.794301111 0.0282127078 -0.7943160184 0.0215614138 -0.0423170021
730295620.0 0.022008263 -0.0387288437 0.0192175271 -0.7947346405 0.0190911966 -0.7937194642 0.0207950203 -0.0424009202
735295590.0 0.0223832265 -0.0383339246 0.0104074705 -0.7951318058 0.0109072066 -0.7945416083 0.020118509 -0.0432399862
740295560.0 0.0216791904 -0.038657322 0.001647886 -0.79505201 0.0019848256 -0.7947852507 0.0188157048 -0.0426914032
745295530.0 0.0208307663 -0.0381584958 -0.0063618134 -0.7936617499 -0.0060408351 -0.7944633809 0.0179846493 -0.0432116224
750295500.0 0.0199819891 -0.0384029876 -0.015003733 -0.7944950734 -0.0154997103 -0.7943605149 0.0178463512 -0.0430004333
755295470.0 0.0192917497 -0.0384188738 -0.0240903352 -0.794588125 -0.0233925403 -0.7944502124 0.0175311141 -0.0424618457
760295440.0 0.018702269 -0.0377723416 -0.032809709 -0.7942662737 -0.0321936672 -0.7931989397 0.0168867559 -0.0440199384
765295410.0 0.0186690838 -0.0385271745 -0.0408625497 -0.7934321367 -0.0402260102 -0.7931060137 0.0163230629 -0.043137427
770295380.0 0.0176200069 -0.0378708173 -0.049496199 -0.7922666833 -0.0493690285 -0.7932208492 0.0150099893 -0.0431233732
775295350.0 0.0170780673 -0.0382307095 -0.0584842817 -0.7929065742 -0.0580418436 -0.7918881917 0.0150751451 -0.0431891978
780295320.0 0.0160953779 -0.0377764189 -0.0667611687 -0.7906904816 -0.0664411378 -0.7917531134 0.0144382071 -0.0433022026
785295290.0 0.0157014438 -0.0382342535 -0.0749462761 -0.7909944312 -0.0750302833 -0.7910480712 0.0127875224 -0.0425245084
790295260.0 0.0153958712 -0.0383272456 -0.0835816267 -0.7902982223 -0.0830553524 -0.7902689791 0.0126210075 -0.0421969615
795295230.0 0.0146987843 -0.0383819952 -0.0925308728 -0.7895203913 -0.0926291559 -0.7893323391 0.0120060825 -0.0431339248
800295200.0 0.0134703349 -0.0375946563 -0.1003293407 -0.7872445731 -0.1006150121 -0.7879505872 0.0112064009 -0.0424779414
805295170.0 0.0128950923 -0.0380526401 -0.1095871482 -0.7872464068 -0.1092224488 -0.786607661 0.0112710108 -0.042310787
810295140.0 0.0126931336 -0.0376663866 -0.1178608083 -0.7850839852 -0.1181012792 -0.7860686691 0.0102272917 -0.0427205024
815295110.0 0.0118479675 -0.0375557631 -0.1261494595 -0.7845222075 -0.1259150895 -0.7842262486 0.0095909438 -0.0424899351
820295080.0 0.0115755659 -0.0377836848 -0.1343680682 -0.7823521694 -0.1346352215 -0.7828523734 0.0080441594 -0.0413221594
825295050.0 0.0104451174 -0.0374078441 -0.1434463337 -0.7810180827 -0.1431909013 -0.7806053018 0.0087273826 -0.0412531215
830295020.0 0.0099563816 -0.0376530966 -0.1515947737 -0.7796851792 -0.1519321171 -0.7796122503 0.0076059061 -0.0419815796
