!Created with skrf (http://scikit-rf.org).
# Hz S RI R 50.0 
!freq ReS11 ImS11 ReS21 ImS21 ReS12 ImS12 ReS22 ImS22
300000.0 -0.3236079003 -0.0837759776 0.3796627621 0.0427522252 0.3754869845 0.0409505445 -0.3237806381 -0.0991817513
5299970.0 -0.3265529186 0.0044315923 0.3782555438 0.0023938489 0.3788311996 0.0026450378 -0.3241330358 0.0047677174
10299940.0 -0.3243838992 0.0133431541 0.379656409 0.0019348657 0.379959536 0.002214629 -0.321511336 0.0159905017
15299910.0 -0.3215087858 0.0203292575 0.3821205728 0.0022372246 0.3819027815 0.0021173786 -0.3183581665 0.0238309569
20299880.0 -0.3187158266 0.0262976918 0.3848251998 0.0017679534 0.3851439967 0.0018606527 -0.3148986778 0.0301829017
25299850.0 -0.3157911721 0.0315684057 0.387981658 -0.0001609411 0.3881084059 5.26998e-05 -0.3108433015 0.0361221864
30299820.0 -0.3128553675 0.035782768 0.3914063419 -0.0025021827 0.3914527195 -0.0019361784 -0.307428844 0.0405527277
35299790.0 -0.3100918358 0.0400026466 0.3948234528 -0.0057145674 0.3948419687 -0.0055011433 -0.3037386024 0.0452602185
40299760.0 -0.3073360731 0.0434052101 0.3980427883 -0.0085260202 0.3981116943 -0.0086967483 -0.3003614356 0.0485323117
45299730.0 -0.3044244273 0.0465417151 0.4005878087 -0.0128200315 0.4009637256 -0.0125120188 -0.2972600039 0.0520038192
50299700.0 -0.3026571954 0.0492667477 0.403837872 -0.0173994383 0.403545932 -0.0170660148 -0.294304588 0.0546445485
55299670.0 -0.3003375571 0.0521829573 0.4057345891 -0.0223013515 0.4054330299 -0.0220110034 -0.2918292091 0.0572383198
60299640.0 -0.2978283425 0.055080413 0.4072811506 -0.0270908364 0.4075235298 -0.0265183395 -0.2892192441 0.0594483579
65299610.0 -0.2962689554 0.057519103 0.4092054239 -0.0320466176 0.4090540376 -0.0319155423 -0.2870165401 0.0615729656
70299580.0 -0.29479996 0.0602387227 0.4104703133 -0.037026946 0.4102748576 -0.0369917022 -0.2849273199 0.0638497666
75299550.0 -0.2929916105 0.0627145811 0.4115001271 -0.0420495649 0.4112843744 -0.0420614007 -0.2833327023 0.0658495862
80299520.0 -0.2915344066 0.0647286052 0.4124820805 -0.0474546342 0.4122159104 -0.0473684785 -0.2814893101 0.0680606302
85299490.0 -0.2902139632 0.0669748974 0.4127702757 -0.0523148475 0.4127880473 -0.0520974448 -0.2800024028 0.0697204231
90299460.0 -0.2889357466 0.0693495885 0.4129663539 -0.0580780464 0.4134506348 -0.0579942158 -0.2782227817 0.0722167777
95299430.0 -0.2872582137 0.0714496194 0.4137102731 -0.0629139427 0.4136257679 -0.063357541 -0.2768037139 0.0742930094
100299400.0 -0.2862956244 0.0740463654 0.4132868141 -0.0682382095 0.4135554001 -0.0681705755 -0.2755290543 0.0760729013
105299370.0 -0.2851760953 0.0762916978 0.4133222455 -0.0736709897 0.4135527639 -0.0735867583 -0.2738115679 0.0783154128
110299340.0 -0.2840767764 0.0786961995 0.4133008639 -0.0784033656 0.4133234513 -0.0783393094 -0.2730245631 0.0804274109
115299310.0 -0.2828820212 0.0809586198 0.412722221 -0.083591463 0.4128875216 -0.0838182425 -0.2718317008 0.0825716886
120299280.0 -0.2822896309 0.0830071513 0.4124116766 -0.0887830147 0.4125317304 -0.0891494208 -0.2703459835 0.0845385788
125299250.0 -0.2811909245 0.0855224727 0.4117192684 -0.0938868403 0.41209251 -0.0939155147 -0.2697246955 0.0864729584
130299220.0 -0.2799277446 0.0880831505 0.4106973205 -0.0989182123 0.4111800937 -0.0989084762 -0.2684500542 0.0883383894
135299190.0 -0.2791013039 0.0907600783 0.4106881006 -0.104157538 0.4103491607 -0.1037761126 -0.2670561746 0.091085919
140299160.0 -0.278515807 0.093211938 0.4098940607 -0.1091381027 0.4098817886 -0.1093652366 -0.265965294 0.0937435667
145299130.0 -0.2774902407 0.0955365238 0.4092444141 -0.1140778443 0.4087058931 -0.1138244079 -0.2650885728 0.0956273792
150299100.0 -0.2763824952 0.0981779102 0.4074628533 -0.1186517592 0.4075754531 -0.1184049177 -0.2642138916 0.0987405293
155299070.0 -0.2756137898 0.1007935934 0.4066461019 -0.124208681 0.4064945946 -0.1236110554 -0.2630487295 0.1007493879
160299040.0 -0.2744947908 0.1034987766 0.4054468962 -0.1286258789 0.4052488124 -0.128713263 -0.2625020171 0.1033055941
165299010.0 -0.2738840544 0.1058526677 0.4043341948 -0.1337231014 0.4043473775 -0.1334931478 -0.2614586515 0.1057225626
170298980.0 -0.2728389019 0.1084624392 0.4026615814 -0.1386812004 0.4029066118 -0.1385567616 -0.2604494056 0.1083088329
175298950.0 -0.2718092417 0.1115108714 0.4016439851 -0.1431672028 0.4013399383 -0.1430702329 -0.259105674 0.1107775698
180298920.0 -0.2708217064 0.114014963 0.4000115766 -0.1477577184 0.4000391479 -0.1477244015 -0.2588493262 0.1134398304
185298890.0 -0.2696113845 0.1163604004 0.3983989691 -0.1526338292 0.3983495343 -0.1523681519 -0.2571987397 0.1159599295
190298860.0 -0.2685462991 0.1195006765 0.3971659708 -0.1577806174 0.3971305206 -0.1573989485 -0.2564412638 0.1180584949
195298830.0 -0.2678423713 0.1217062205 0.395370803 -0.1617372694 0.3955770206 -0.1619369548 -0.2550803288 0.1209161391
200298800.0 -0.2662741242 0.1245776427 0.3934283369 -0.166508156 0.3937194074 -0.1667975609 -0.2543538502 0.1233151038
205298770.0 -0.2654587306 0.1273967772 0.3913729843 -0.1713980638 0.3915009494 -0.1711143106 -0.2532229492 0.1256153034
210298740.0 -0.2640463686 0.1297415215 0.3897852387 -0.1753488561 0.3897081416 -0.1755182555 -0.2517992869 0.128533058
215298710.0 -0.2632492719 0.1327633335 0.388177618 -0.1802284926 0.3878384967 -0.1801754287 -0.2509840376 0.1310485605
220298680.0 -0.2618245031 0.135246878 0.3855439003 -0.1845851632 0.3859445701 -0.1845713001 -0.2499551327 0.1333280478
225298650.0 -0.2609510825 0.1379331604 0.3840008443 -0.189133515 0.3841203774 -0.1889896114 -0.2492688067 0.1359657381
230298620.0 -0.2597463291 0.1408546626 0.381874187 -0.193082492 0.3824563474 -0.1932816456 -0.2478783769 0.1384063946
235298590.0 -0.258423994 0.1433234163 0.3798769846 -0.1979145277 0.3802168982 -0.1975660761 -0.2467200006 0.14114844
240298560.0 -0.2574051449 0.1462723926 0.3778080924 -0.2024244995 0.3774993644 -0.2023531992 -0.2450308556 0.1440770808
245298530.0 -0.2558172522 0.1490283016 0.3756592852 -0.2067484099 0.3756358569 -0.2066179118 -0.2439426781 0.1456924937
250298500.0 -0.2541958994 0.1519358265 0.3723779529 -0.2107746658 0.3728143657 -0.2105367474 -0.2429583077 0.148671299
255298470.0 -0.2529698014 0.15423151 0.3705524558 -0.2146182706 0.3706130495 -0.2150022041 -0.2409598856 0.1509318977
260298440.0 -0.2516543718 0.1566763111 0.3681604812 -0.2192618589 0.3684784174 -0.2192126924 -0.2395390915 0.1539049961
265298410.0 -0.250220978 0.1597886005 0.3659805256 -0.2231921154 0.3663416701 -0.2230533182 -0.2384579002 0.1561971348
270298380.0 -0.2484825217 0.1623202332 0.3638371711 -0.2273002847 0.3637045757 -0.2272761851 -0.2366661658 0.158778615
275298350.0 -0.2471149548 0.1651134083 0.3607362095 -0.2316452791 0.3611538925 -0.2316379486 -0.2350492897 0.1611834382
280298320.0 -0.2449896893 0.1678995965 0.3584653603 -0.2358903412 0.3588289119 -0.2354621164 -0.2335044492 0.1633664677
285298290.0 -0.2435753167 0.1707667667 0.3561370127 -0.2395759372 0.3559556965 -0.2395526445 -0.2317697127 0.1659387706
290298260.0 -0.2416871938 0.1731157075 0.3532625879 -0.2436690418 0.3536409868 -0.2437863023 -0.2302937735 0.1685581811
295298230.0 -0.240067211 0.1753255971 0.3505836944 -0.2477756404 0.3505070983 -0.2476301641 -0.2281613214 0.1709410852
300298200.0 -0.2385728418 0.1781241231 0.3484444238 -0.2515146322 0.3481128445 -0.2516182581 -0.2266266423 0.1736354836
305298170.0 -0.2367894154 0.1806700569 0.3447532471 -0.2559752256 0.3449229844 -0.2554824475 -0.2244196655 0.1756513198
310298140.0 -0.2350186765 0.1836477442 0.3423663956 -0.2593504984 0.3425454205 -0.2595963747 -0.2232128218 0.1781143774
315298110.0 -0.2331626951 0.1859318943 0.3396498937 -0.2636587817 0.3396761852 -0.2633757324 -0.2213068526 0.1804148208
320298080.0 -0.2311007506 0.1884556952 0.3359373431 -0.2677477964 0.3366034511 -0.2670676861 -0.2193767112 0.1831078164
325298050.0 -0.2292403205 0.1906505643 0.3333296988 -0.2711325247 0.3333626121 -0.2709478419 -0.2179755096 0.1854728971
330298020.0 -0.2273220974 0.1932590175 0.3301589059 -0.274638052 0.3305681012 -0.2749249546 -0.2161571889 0.1879204729
335297990.0 -0.2254609537 0.1953302322 0.3269660349 -0.2784339408 0.3271548259 -0.2785860144 -0.2147069053 0.1905489593
340297960.0 -0.2239862812 0.1982941477 0.3236824607 -0.2821887044 0.3237072192 -0.2820919799 -0.2121579701 0.1930232577
345297930.0 -0.2221895021 0.2011168147 0.3207942925 -0.2861112123 0.320894835 -0.2856974793 -0.2106148553 0.1951374954
350297900.0 -0.219998242 0.203052968 0.3171555514 -0.2893513678 0.3173452044 -0.2894493391 -0.20886743 0.1979423013
355297870.0 -0.21810422 0.2062393953 0.3141907526 -0.2930456388 0.3143828555 -0.2928117596 -0.2069625756 0.2002493551
360297840.0 -0.2161656861 0.208425633 0.3112574602 -0.2962262666 0.3115237966 -0.2959298524 -0.2053173962 0.2028825092
365297810.0 -0.2143373916 0.2110357565 0.307686767 -0.2996071476 0.3079985567 -0.3000581086 -0.20286519 0.2049989645
370297780.0 -0.2118894966 0.2130606834 0.304271349 -0.3029807884 0.3046114726 -0.3026144046 -0.2009192687 0.2073923912
375297750.0 -0.2095352119 0.2152091271 0.3009913784 -0.3062348284 0.3012712452 -0.3062459232 -0.1987314978 0.2092519664
380297720.0 -0.2077501111 0.2177343273 0.2976201019 -0.3098793942 0.2977905625 -0.3089191415 -0.1970433288 0.2114050966
385297690.0 -0.2056960272 0.2203298669 0.2941411891 -0.3124310352 0.2939816004 -0.3126374653 -0.1948916387 0.2139555788
390297660.0 -0.2033649059 0.2227153834 0.2906487229 -0.3158842761 0.2907793603 -0.3156957716 -0.1929773147 0.2163608441
395297630.0 -0.2006624361 0.2251487994 0.2871109353 -0.3193035599 0.2873453791 -0.3191466793 -0.1904882654 0.2184463077
400297600.0 -0.198400423 0.2277888569 0.2832692881 -0.3226315232 0.2838985734 -0.3221231064 -0.1882489929 0.2206955343
405297570.0 -0.1965251733 0.2293062171 0.2804891454 -0.3252960577 0.2802982035 -0.3252832818 -0.1862138582 0.2227953332
410297540.0 -0.1940054439 0.2315818518 0.2766299512 -0.3288405985 0.2768252386 -0.3284901142 -0.1838317861 0.2251975157
415297510.0 -0.191520485 0.233772452 0.2724289122 -0.3313722374 0.2731742568 -0.3315554894 -0.1815830176 0.2271267994
420297480.0 -0.1893296988 0.2362671471 0.2689377108 -0.3346187415 0.2692569739 -0.3348258256 -0.1793593133 0.2291644562
425297450.0 -0.1866385708 0.2383722856 0.2656613559 -0.3373338527 0.2659707575 -0.337476988 -0.17731022 0.2315275745
430297420.0 -0.1843090844 0.2404295129 0.2615527389 -0.3400812013 0.2618214669 -0.3400229054 -0.1746717027 0.2331300519
435297390.0 -0.1819898838 0.2422037634 0.2576030209 -0.3429170279 0.2575769159 -0.3429512837 -0.171775882 0.2352314953
440297360.0 -0.1792911569 0.2445181667 0.2542538082 -0.3457784836 0.2539441676 -0.3460970595 -0.1694063798 0.2367774522
445297330.0 -0.1766958642 0.246317669 0.2505050524 -0.3484621552 0.2505963664 -0.3483602435 -0.1669713543 0.2385901303
450297300.0 -0.1742012115 0.248342158 0.246418129 -0.351053242 0.2465682122 -0.3511785761 -0.1644387604 0.2404960973
455297270.0 -0.1716514929 0.2506383148 0.2423786173 -0.3537493669 0.2428856069 -0.3540113532 -0.1621347714 0.2421331816
460297240.0 -0.169217177 0.2524046346 0.2386607933 -0.3561315779 0.2386754953 -0.3564881213 -0.1594389217 0.2441119375
465297210.0 -0.1665237829 0.2544410667 0.2348583176 -0.3588806774 0.2347853753 -0.3593445597 -0.1570050771 0.2461708752
470297180.0 -0.1636059371 0.2561985386 0.2307683351 -0.36137813 0.2305345984 -0.3617345516 -0.1541475585 0.2482134237
475297150.0 -0.160971093 0.2579420868 0.2265259424 -0.364031572 0.2268641692 -0.3637097525 -0.1514025669 0.2495533874
480297120.0 -0.1582076403 0.2601168266 0.2226160726 -0.3664382228 0.2227205538 -0.3669753602 -0.1489890613 0.2515072642
485297090.0 -0.1554398754 0.2617936603 0.2186169722 -0.3687971333 0.2191134635 -0.3688205925 -0.1463433171 0.2528684717
490297060.0 -0.1532225662 0.2637059238 0.2151264319 -0.3713854277 0.2147936781 -0.3710725155 -0.1435017763 0.2549616792
495297030.0 -0.1503313356 0.2652495211 0.2107341725 -0.3735280494 0.2110734386 -0.3730895008 -0.1410561924 0.2568548002
500297000.0 -0.1473368051 0.2671319204 0.206476085 -0.375478817 0.2061433356 -0.3754225764 -0.1381231505 0.2584439647
505296970.0 -0.1444324148 0.2688413327 0.2022416677 -0.3778140258 0.2021183448 -0.378011124 -0.1357828129 0.2601422985
510296940.0 -0.1417230267 0.2706375311 0.1984360244 -0.3801192869 0.1981153957 -0.3805636977 -0.133037238 0.2620466591
515296910.0 -0.1384477243 0.2720320588 0.193714464 -0.3822933873 0.1940857313 -0.3822208459 -0.1301364332 0.2632829078
520296880.0 -0.1362115017 0.2738551997 0.1897577388 -0.3846449857 0.1897732537 -0.3840883089 -0.127391532 0.2650971893
525296850.0 -0.133303235 0.2750213415 0.1851685939 -0.3863559922 0.186033676 -0.3860771205 -0.1247045333 0.2664277701
530296820.0 -0.1304368156 0.276858363 0.1810332877 -0.3882911151 0.1815551575 -0.3885936809 -0.121700678 0.268011077
535296790.0 -0.1278390193 0.2784810845 0.1771677062 -0.3900941632 0.1773214294 -0.3898681545 -0.1191939626 0.2691797113
540296760.0 -0.1249045639 0.2798406073 0.1729687982 -0.3920802307 0.1729005517 -0.3921116647 -0.1165800237 0.270772977
545296730.0 -0.1217919469 0.2812893714 0.1682965532 -0.3937724929 0.1681360535 -0.3939470889 -0.1138951542 0.2718234581
550296700.0 -0.1186007942 0.2827598216 0.1638027682 -0.3958497906 0.1642483701 -0.3958216582 -0.1109221832 0.2740777385
555296670.0 -0.1154619211 0.2837940638 0.1596354062 -0.3972984882 0.160334623 -0.3972876453 -0.1081214487 0.275604365
560296640.0 -0.1126322754 0.2855629676 0.1554378853 -0.3990235637 0.1556965513 -0.3992107221 -0.1053213716 0.276457337
565296610.0 -0.1097266956 0.2870222077 0.1508977172 -0.4006412321 0.1512405213 -0.4006328364 -0.1026146022 0.2775824552
570296580.0 -0.1070807911 0.2878747908 0.1469811017 -0.4025721698 0.146447468 -0.4024855204 -0.0996028433 0.2792483163
575296550.0 -0.1038646592 0.289628445 0.1423666639 -0.4039142024 0.1422994819 -0.4040217762 -0.0965772337 0.2800781107
580296520.0 -0.1005762383 0.2905242139 0.1377628221 -0.4056794625 0.1380527243 -0.4056838325 -0.0933424082 0.2812596585
585296490.0 -0.0979820392 0.2913438168 0.1335596195 -0.406308735 0.1337342717 -0.4067691496 -0.0904309721 0.2820313662
590296460.0 -0.0947137634 0.2930245552 0.1292651685 -0.4079904345 0.1293339278 -0.4081860203 -0.0880439705 0.2833854717
595296430.0 -0.0916780049 0.293883039 0.1244967241 -0.4097492482 0.1244341115 -0.4094063062 -0.0846220552 0.2838406225
600296400.0 -0.0884771433 0.2954049509 0.1199982076 -0.411186837 0.1201500849 -0.4108164925 -0.0820480287 0.2854758926
605296370.0 -0.0857448944 0.2959525283 0.1156773053 -0.4120018701 0.115892561 -0.4120260909 -0.0785325196 0.2862631908
610296340.0 -0.0823789158 0.297056828 0.1108376679 -0.4133485649 0.1112664903 -0.4132668556 -0.0755161736 0.2871339372
615296310.0 -0.0790287075 0.298245149 0.1063900324 -0.4143313239 0.106653794 -0.4147132479 -0.0722427112 0.2880117284
620296280.0 -0.0762265875 0.2987421927 0.1020729468 -0.4152740885 0.1024696366 -0.4152708817 -0.0698938803 0.2890437012
625296250.0 -0.0731164838 0.2999507372 0.0979386458 -0.4166345256 0.097737818 -0.4169667872 -0.0664389794 0.2896374482
630296220.0 -0.069449482 0.3009781236 0.0923119127 -0.4177547608 0.0926418054 -0.4176165225 -0.06341592 0.2906918589
635296190.0 -0.0671062254 0.3019940011 0.0885935099 -0.4181265752 0.0886064464 -0.4184060367 -0.0602587419 0.2912391813
640296160.0 -0.0636042067 0.3024380636 0.0840271454 -0.4191587329 0.0841972768 -0.4194861571 -0.0571718285 0.2921155176
645296130.0 -0.0604624285 0.3037544051 0.079327437 -0.4199722942 0.0796901349 -0.4198933351 -0.0542014245 0.2930928516
650296100.0 -0.0572462345 0.3042729583 0.074661339 -0.4209546195 0.0749636399 -0.4206538415 -0.0509141697 0.2933142417
655296070.0 -0.0541486225 0.3049739501 0.0702901772 -0.4217828271 0.0703477037 -0.4216539032 -0.0477644036 0.2944644826
660296040.0 -0.0511820193 0.3054683037 0.0659009387 -0.4222561319 0.0656748543 -0.4224345494 -0.0440675895 0.2949907184
665296010.0 -0.0474170085 0.3059591771 0.0605521054 -0.4227856341 0.0612048757 -0.4229012356 -0.0413787305 0.2961342091
670295980.0 -0.0451017829 0.3067604952 0.0563374795 -0.4233098214 0.0564521802 -0.4234588024 -0.0384989054 0.2964409525
675295950.0 -0.0413507697 0.307632193 0.0520013433 -0.4242834969 0.0521825574 -0.4238259642 -0.0355204092 0.2971632239
680295920.0 -0.0385322027 0.3082754674 0.0473109543 -0.4245588686 0.0471291205 -0.4249730798 -0.0320023265 0.2979772679
685295890.0 -0.034940182 0.3091362157 0.0428452307 -0.4250807199 0.0425521423 -0.4252130998 -0.0290466059 0.2980101614
690295860.0 -0.0316738663 0.3094259598 0.0383207314 -0.4251602657 0.0383014 -0.4256141467 -0.0262027586 0.2992569194
695295830.0 -0.0285109974 0.3096987841 0.033603023 -0.4256658828 0.0335490297 -0.4258094303 -0.0227947185 0.2995038067
700295800.0 -0.0250654426 0.3098198067 0.0287041076 -0.4257875422 0.0287112572 -0.4259043527 -0.0199254187 0.299908323
705295770.0 -0.0222069116 0.3106444732 0.0242727239 -0.4263433899 0.0244998615 -0.4265885362 -0.0166637748 0.3003231434
710295740.0 -0.0186954855 0.3108361782 0.0198935834 -0.4266528026 0.0197141647 -0.4268019355 -0.0134189141 0.3003409755
715295710.0 -0.0157036274 0.3114646464 0.0151898117 -0.4267813344 0.0151242068 -0.4268343662 -0.0101874353 0.3009290309
720295680.0 -0.0122366267 0.3114372435 0.0104035107 -0.4269200414 0.010704123 -0.4268183421 -0.0068921954 0.3010923684
725295650.0 -0.0090201438 0.3115401759 0.0059219985 -0.4267424281 0.0059083434 -0.4269244857 -0.0042934803 0.30144147
730295620.0 -0.005531095 0.3120232511 0.0010960375 -0.4265694351 0.001435769 -0.4268808186 -0.0013882583 0.3014215252
735295590.0 -0.0025439908 0.3123725359 -0.0034885483 -0.426915151 -0.0035027136 -0.4267833688 0.001786844 0.3014984271
740295560.0 0.0007895219 0.312522103 -0.0081509346 -0.4266303189 -0.0082549792 -0.4270090474 0.0055008696 0.3019366842
745295530.0 0.0036692132 0.3124911846 -0.0125112532 -0.426208842 -0.012931801 -0.4265658242 0.0085148931 0.3017513385
750295500.0 0.0072017959 0.3125344018 -0.0172424249 -0.4260577947 -0.0173221341 -0.4265463495 0.0114589039 0.3021738852
755295470.0 0.0108288253 0.3126386174 -0.0219598698 -0.4259989615 -0.0216161543 -0.4263235098 0.0151005647 0.301361472
760295440.0 0.0137862966 0.3127700722 -0.026550281 -0.4261004982 -0.0266728007 -0.4258701013 0.0176687397 0.3013401218
765295410.0 0.017023741 0.3128399534 -0.0312226874 -0.4254816576 -0.0313177541 -0.4256303104 0.0211885618 0.3019791542
770295380.0 0.0200308965 0.3127557364 -0.0358467356 -0.4252417365 -0.0358080939 -0.4246188715 0.023848423 0.3013596499
775295350.0 0.0233607467 0.3122241789 -0.0404727773 -0.4244989771 -0.040002332 -0.4247405202 0.0265489506 0.3013745697
780295320.0 0.0267683023 0.3122100057 -0.0452081974 -0.4238385674 -0.0444006664 -0.4238869395 0.0303217394 0.3008426882
785295290.0 0.0295744966 0.3119293588 -0.0497785091 -0.4233768744 -0.0493038958 -0.4235710568 0.0337481531 0.3007965231
790295260.0 0.0334236502 0.3117964426 -0.05388298 -0.4227885204 -0.0533073967 -0.4226509589 0.036858813 0.3005304653
795295230.0 0.0365349114 0.3117322539 -0.0587285245 -0.422115912 -0.058443325 -0.4222759359 0.0405802743 0.3002562005
800295200.0 0.0395234323 0.3112845032 -0.063887563 -0.4211262522 -0.0628912731 -0.4214896587 0.0435625853 0.3000750004
805295170.0 0.0432235576 0.3110860342 -0.0680305327 -0.4207449129 -0.0674670414 -0.4211330289 0.0465210389 0.2999094772
810295140.0 0.0461432262 0.3103718342 -0.0718453595 -0.4195229295 -0.0724792659 -0.4199955252 0.0501166816 0.2994593841
815295110.0 0.0494737355 0.3102237729 -0.0767089905 -0.4187582443 -0.0766248806 -0.4192384203 0.0529413909 0.2989207024
820295080.0 0.052327249 0.3102982725 -0.0810227652 -0.418125533 -0.0810165228 -0.4182997223 0.0560826709 0.2988697224
825295050.0 0.0562928059 0.3094628265 -0.085157131 -0.4170444231 -0.0856891196 -0.4172374819 0.05962714 0.2982402019
830295020.0 0.0591036112 0.3090979355 -0.0900490786 -0.4156848977 -0.0903293908 -0.4160767008 0.0631473419 0.2975655089
