!Created with skrf (http://scikit-rf.org).
# Hz S RI R 50.0 
!freq ReS11 ImS11 ReS21 ImS21 ReS12 ImS12 ReS22 ImS22
300000.0 -0.2315878012 -0.1342934126 0.46618099 0.0872125661 0.4679485234 0.0848498314 -0.2343590567 -0.1294758954
5299970.0 -0.2418461556 0.0051859676 0.4751901762 0.0063736903 0.4754532801 0.0059006848 -0.2445336351 0.0046803519
10299940.0 -0.2391272433 0.018504252 0.4776209813 0.0071385383 0.477349799 0.0070782506 -0.2407459127 0.0170565405
15299910.0 -0.2338679821 0.0287747257 0.4804803043 0.0078370685 0.4809374767 0.0080915506 -0.2369103538 0.0263912815
20299880.0 -0.2286968966 0.0368293062 0.4854294028 0.0081625055 0.485841148 0.0078545104 -0.2318724239 0.0339502337
25299850.0 -0.2224170774 0.0435653475 0.49043972 0.0076050228 0.4910650674 0.0072526515 -0.2265425029 0.0400827359
30299820.0 -0.2170978275 0.0486645222 0.4960130513 0.0049056882 0.4961645557 0.0050179097 -0.2214636021 0.0447259552
35299790.0 -0.2115319134 0.0528183599 0.5010002075 0.0017589676 0.5014380244 0.0017897899 -0.2168065935 0.0492352417
40299760.0 -0.206171739 0.0561191702 0.506416867 -0.0020364775 0.5067287876 -0.0021901841 -0.2117163015 0.0521794395
45299730.0 -0.2010703272 0.0587891467 0.5113347068 -0.0064375091 0.5114674648 -0.0070132261 -0.2071490486 0.0549521431
50299700.0 -0.1960319111 0.06081125 0.5149757577 -0.0124712983 0.5151709446 -0.0123968938 -0.2026480191 0.0568218367
55299670.0 -0.1920909867 0.0623247311 0.5189612584 -0.0178423049 0.5190759038 -0.0186794856 -0.1993087792 0.0584134206
60299640.0 -0.1877335896 0.0640737051 0.5223953317 -0.0246046802 0.5225551132 -0.0244546503 -0.1954860092 0.0598323914
65299610.0 -0.1840475714 0.0648478039 0.5254079861 -0.0307735093 0.5254394103 -0.0310938538 -0.1920809129 0.0609037458
70299580.0 -0.1809209845 0.0658206456 0.5273879793 -0.0374659704 0.5278646477 -0.0375646923 -0.1892175552 0.0617832328
75299550.0 -0.1780702136 0.0666256903 0.5293016489 -0.04441813 0.5297793959 -0.0445406942 -0.1860304061 0.0628712984
80299520.0 -0.1752565748 0.0676078054 0.531278618 -0.0517109408 0.5316858431 -0.0511405318 -0.1836752728 0.0635597563
85299490.0 -0.1724541074 0.0682497146 0.5326761102 -0.0586342796 0.5327680077 -0.0579798386 -0.181453808 0.0641111358
90299460.0 -0.1701614059 0.0691809031 0.533743916 -0.0653249457 0.5338586574 -0.0652693936 -0.17921488 0.0650506999
95299430.0 -0.167841698 0.0695487135 0.53434789 -0.0719297384 0.535007543 -0.072142754 -0.1775854449 0.0656799774
100299400.0 -0.1661048202 0.0701860036 0.5351076489 -0.078356256 0.5350426692 -0.0789397417 -0.1759710586 0.06644684
105299370.0 -0.164253733 0.0708807344 0.5350437001 -0.0858842025 0.5357569367 -0.0855603043 -0.174146233 0.0667115088
110299340.0 -0.1622977771 0.0714182289 0.5353424839 -0.0920955207 0.5358066474 -0.0924652736 -0.1726391157 0.067427158
115299310.0 -0.1607721726 0.0722772943 0.5353057205 -0.0989708674 0.5354096399 -0.0991590008 -0.1713688946 0.0681816095
120299280.0 -0.1593795863 0.0733526199 0.5351948007 -0.1065534105 0.5354622642 -0.1067206399 -0.1699993011 0.0688767108
125299250.0 -0.1579979198 0.0737881653 0.5347391798 -0.1129100132 0.5350623628 -0.1127134902 -0.1687862015 0.0697690499
130299220.0 -0.1566144874 0.0745641184 0.5345117205 -0.1197018408 0.5343637471 -0.1200250438 -0.1678839987 0.0707701968
135299190.0 -0.1553767154 0.075843124 0.5339263292 -0.1260298692 0.5338095122 -0.1264926863 -0.1668124352 0.0710436951
140299160.0 -0.1541467727 0.0769168229 0.5335234918 -0.1332167559 0.5330503652 -0.132768845 -0.1664407697 0.0718182348
145299130.0 -0.1534580328 0.0775959722 0.5319068517 -0.1393027478 0.5319236745 -0.1394718539 -0.1648275342 0.0728441158
150299100.0 -0.1519630599 0.0788793741 0.5309581071 -0.1462384393 0.5307934174 -0.1463215995 -0.1639601359 0.0741632342
155299070.0 -0.1511242697 0.0799475458 0.5291791527 -0.1524737826 0.5300567864 -0.1526361891 -0.1631086456 0.075073427
160299040.0 -0.149764587 0.081275249 0.5283170516 -0.1589619725 0.5279220731 -0.1590713845 -0.1627558181 0.0758098183
165299010.0 -0.1487482166 0.0820725164 0.5268858993 -0.1650536909 0.5265161645 -0.1654443799 -0.1615436206 0.0766073117
170298980.0 -0.1476523234 0.0834462353 0.5248216418 -0.1717954 0.5253532675 -0.1717219345 -0.1609501327 0.0782052025
175298950.0 -0.1467996037 0.0845919708 0.5237622381 -0.1780329705 0.5241511141 -0.1781349027 -0.1603564097 0.0793390181
180298920.0 -0.1457988675 0.0859626856 0.5216439176 -0.1846785618 0.5220680232 -0.184555103 -0.1593569 0.0802406647
185298890.0 -0.1449937212 0.0871288958 0.5205191603 -0.1900652478 0.5200048233 -0.1904802036 -0.1584641491 0.0813415546
190298860.0 -0.1436367138 0.0888270151 0.5176549541 -0.1968958795 0.5186469253 -0.1964875389 -0.1580026089 0.0824643179
195298830.0 -0.1429818759 0.0900132277 0.5165355493 -0.2024921982 0.516100554 -0.2027329343 -0.1572126545 0.0837774069
200298800.0 -0.1419797134 0.0910005593 0.5143720103 -0.209339028 0.5140871601 -0.208924375 -0.1562912743 0.084623086
205298770.0 -0.1413948505 0.0923898121 0.5117477468 -0.2145244946 0.5119489885 -0.2145944336 -0.1554998974 0.086131813
210298740.0 -0.1401642299 0.0942763306 0.5098520574 -0.2208656838 0.5094907918 -0.2209820268 -0.1552121821 0.0872538871
215298710.0 -0.1392098767 0.095378687 0.5071445783 -0.2263380505 0.5072105781 -0.2270416511 -0.1539135047 0.0881252243
220298680.0 -0.1381935967 0.0969710753 0.5044825215 -0.2324723387 0.5048390546 -0.2329158105 -0.1533183525 0.0893732205
225298650.0 -0.1370775238 0.0985119168 0.5018787634 -0.2382337182 0.5024632119 -0.2380537598 -0.1525749171 0.0904401146
230298620.0 -0.1362392985 0.0999663117 0.4997113684 -0.2441195446 0.5003222816 -0.2444752313 -0.1520780505 0.091963882
235298590.0 -0.1354709554 0.1013950817 0.4973362264 -0.2506735111 0.4974512698 -0.2504889793 -0.1509885244 0.0935541575
240298560.0 -0.1341854215 0.1028725631 0.4942562576 -0.2557968038 0.4947406472 -0.2559286305 -0.1506518172 0.0944163367
245298530.0 -0.1331331259 0.104030091 0.4917394048 -0.2616108712 0.49191566 -0.2619310467 -0.1496128277 0.0961820783
250298500.0 -0.1323121393 0.105555346 0.489022699 -0.2666997735 0.4891835932 -0.267156545 -0.149186367 0.0974942931
255298470.0 -0.1309842063 0.10728684 0.4862765779 -0.2726366918 0.4866901442 -0.2728897489 -0.1482679579 0.0988026864
260298440.0 -0.1301968987 0.1083451601 0.4833280393 -0.2772924295 0.483487321 -0.2781055652 -0.1473997302 0.0997704071
265298410.0 -0.1292498818 0.1100428929 0.4801288998 -0.2839280642 0.4802289984 -0.2838349449 -0.1460370544 0.1012543194
270298380.0 -0.1281423035 0.1111182288 0.477169399 -0.2889190103 0.4773021952 -0.2889249158 -0.1452344338 0.1028757454
275298350.0 -0.1269320457 0.1131521812 0.4737460961 -0.2942536039 0.4740214906 -0.2945055237 -0.1445915998 0.1042093946
280298320.0 -0.1262133202 0.1142439963 0.4706713498 -0.2996136323 0.4711654774 -0.3001187753 -0.143433875 0.1055381235
285298290.0 -0.1250078636 0.1159630142 0.4672892642 -0.3051013496 0.46787558 -0.3049501115 -0.1429731269 0.1069010701
290298260.0 -0.1238556816 0.1173905334 0.4647025516 -0.310267059 0.4645372444 -0.3104911794 -0.1416167151 0.1081851524
295298230.0 -0.1225943814 0.1186482171 0.4608454989 -0.315700079 0.4610805553 -0.3160066937 -0.1407738148 0.1096338598
300298200.0 -0.1215104323 0.1202080522 0.4576048187 -0.3208732469 0.4578047427 -0.320761312 -0.1398473596 0.1109649892
305298170.0 -0.1204838998 0.121264371 0.4543801726 -0.3262304393 0.4543614251 -0.3262433701 -0.1387305883 0.1116224367
310298140.0 -0.1184674277 0.1224435949 0.4503470275 -0.3312453301 0.4509925113 -0.3311235652 -0.1375109725 0.1129065246
315298110.0 -0.1177925259 0.1236947358 0.4471598868 -0.3365213848 0.44735523 -0.3370324482 -0.136608086 0.1143872809
320298080.0 -0.116502519 0.1254221935 0.4429617258 -0.3416735712 0.4437085325 -0.3418322281 -0.1358604359 0.1157163392
325298050.0 -0.1156422869 0.1259410913 0.4390470075 -0.3466155167 0.4397558328 -0.346740419 -0.1344314011 0.1167407071
330298020.0 -0.1149327413 0.1276716351 0.4355242364 -0.3518485961 0.4360499946 -0.3518924937 -0.1342573316 0.1180427494
335297990.0 -0.1136619768 0.1290900003 0.4312652975 -0.3566012743 0.4316714496 -0.3564449819 -0.1332177989 0.1192467731
340297960.0 -0.1124686403 0.1303011695 0.4270352015 -0.3618241528 0.4273434528 -0.3616889522 -0.1317487561 0.1209705604
345297930.0 -0.1113913983 0.1315650229 0.42341845 -0.3662661274 0.4231883495 -0.366287999 -0.1307166258 0.1219841891
350297900.0 -0.1099565543 0.1328950384 0.4192598563 -0.3702796241 0.4196271407 -0.3705545241 -0.1301472387 0.1231903525
355297870.0 -0.1088837727 0.134171889 0.4151437263 -0.3749798133 0.4152871763 -0.3748130193 -0.1287244945 0.1247845354
360297840.0 -0.1074403885 0.1357654974 0.4109132807 -0.3798721852 0.4113166057 -0.380065703 -0.1277225325 0.1263373386
365297810.0 -0.1061106577 0.1372026443 0.4066584052 -0.3846370977 0.4071212296 -0.3844827789 -0.1271199498 0.1274562494
370297780.0 -0.1048095169 0.138425711 0.402254317 -0.3889601704 0.4025841035 -0.3889592026 -0.1258114102 0.1288013581
375297750.0 -0.1033991082 0.1396343331 0.3985579045 -0.3926346943 0.3983336543 -0.3933786788 -0.124273409 0.1302449962
380297720.0 -0.1022676528 0.1411400359 0.3942353027 -0.3974699941 0.3938788355 -0.3975678202 -0.1232372702 0.1316926022
385297690.0 -0.1007270056 0.1423148937 0.3892691953 -0.4018817246 0.3896998184 -0.4023380295 -0.1219162406 0.1332728837
390297660.0 -0.0991928124 0.1430419563 0.3850755303 -0.4054071442 0.3854336775 -0.4057229221 -0.120454978 0.1339051918
395297630.0 -0.0976759569 0.1445559158 0.3808536882 -0.4100718418 0.38071531 -0.410050566 -0.1195492516 0.1353349088
400297600.0 -0.0964342605 0.1458298074 0.3764765523 -0.4144556214 0.3766650693 -0.4143698295 -0.1182021985 0.1371228464
405297570.0 -0.0947383781 0.1465686236 0.3718719481 -0.4175673627 0.3719249761 -0.4185221399 -0.1169183869 0.1383593296
410297540.0 -0.0932594923 0.1480885533 0.3673593033 -0.4229011397 0.3673548371 -0.4222706162 -0.115695783 0.1397124913
415297510.0 -0.0917313419 0.1494268638 0.3623191098 -0.4267830961 0.3630901238 -0.426618344 -0.1141510669 0.1408768128
420297480.0 -0.0902289493 0.150084008 0.357719615 -0.4301704502 0.3582437954 -0.4305982489 -0.1125180429 0.1424569048
425297450.0 -0.0882798923 0.1511120383 0.3531177347 -0.4340419997 0.3532005405 -0.4344788858 -0.1113897692 0.143190008
430297420.0 -0.0871497805 0.1523433929 0.3488658555 -0.43796298 0.348720401 -0.437796354 -0.1098780268 0.1445580972
435297390.0 -0.0853094319 0.1533182549 0.3432871386 -0.4425041552 0.3436530156 -0.4419854831 -0.1088224414 0.1461217488
440297360.0 -0.0835123183 0.1540684519 0.3385401712 -0.4454994072 0.3388072799 -0.4456261252 -0.1075210319 0.1471832595
445297330.0 -0.0815714563 0.1549494554 0.3336185532 -0.4490354999 0.3338441481 -0.4494368782 -0.1057885842 0.1483481968
450297300.0 -0.0800850489 0.1563125493 0.3290990621 -0.4528020291 0.3295383441 -0.4529398757 -0.104543925 0.1494673601
455297270.0 -0.0790239834 0.1569542011 0.3243766071 -0.4565192617 0.3241370811 -0.4565019089 -0.1028367434 0.150324408
460297240.0 -0.0765359263 0.1583801382 0.319254942 -0.4604862095 0.3191869107 -0.4603450486 -0.1013195826 0.1518331405
465297210.0 -0.0748983874 0.1590659467 0.3138559387 -0.4635689534 0.3136262825 -0.4636514117 -0.0997905953 0.1531714387
470297180.0 -0.0732694954 0.1597439763 0.3086564961 -0.4664480374 0.3093151169 -0.4669280988 -0.0983394488 0.1537973256
475297150.0 -0.0716632179 0.161197961 0.303865697 -0.4703258049 0.3041025937 -0.4704183446 -0.0970241168 0.1551744611
480297120.0 -0.0693245716 0.1621114034 0.298640447 -0.4735100483 0.2988201597 -0.4731844885 -0.0954355608 0.1558379961
485297090.0 -0.0676612629 0.1625614141 0.2935193397 -0.4768045596 0.2933792896 -0.4769481179 -0.093879153 0.1574542876
490297060.0 -0.0652799023 0.1635530431 0.2878433825 -0.4799352475 0.2881965374 -0.4800250392 -0.092435508 0.158081736
495297030.0 -0.0640708476 0.1643775768 0.2833562403 -0.4830105956 0.2832962924 -0.4830698479 -0.0905126651 0.1591253662
500297000.0 -0.0620961489 0.1655175767 0.2776466584 -0.4856644249 0.2775472224 -0.486169065 -0.0891146494 0.1603919003
505296970.0 -0.059854053 0.1660796297 0.2725850372 -0.4891409689 0.272420285 -0.4886133327 -0.0873968964 0.1608883337
510296940.0 -0.0581100304 0.1667892768 0.2672775299 -0.4927408015 0.2673407078 -0.4925376059 -0.0855118497 0.1624222213
515296910.0 -0.0561310356 0.1675857808 0.2612479451 -0.4945756641 0.2613766855 -0.494510281 -0.0845508847 0.1629938954
520296880.0 -0.0543280798 0.1684357491 0.2560826196 -0.4974808454 0.2559872876 -0.4977002614 -0.0822689899 0.1645799086
525296850.0 -0.0521912526 0.1690039508 0.2504252382 -0.5000770121 0.2505029799 -0.5002982743 -0.0806460191 0.1651994978
530296820.0 -0.0506589707 0.1694958085 0.2453481406 -0.5027867242 0.2453369657 -0.5028478702 -0.0793320747 0.1658843062
535296790.0 -0.0480819026 0.170428986 0.2397364257 -0.5051743911 0.2399991226 -0.5055136636 -0.0771865037 0.1669870778
540296760.0 -0.0460165781 0.1714558187 0.233802393 -0.5080687185 0.2337686336 -0.5079151724 -0.0758867921 0.1676804794
545296730.0 -0.0447124167 0.1721439119 0.228924094 -0.5105908988 0.2283061198 -0.5105794593 -0.0738914197 0.1688863449
550296700.0 -0.0420003692 0.1729226496 0.222922317 -0.5132681525 0.2229445717 -0.5132272746 -0.0724858903 0.1692676282
555296670.0 -0.0403455538 0.1733642644 0.2174048633 -0.5158469573 0.2176072007 -0.5154645914 -0.0710620614 0.1698003926
560296640.0 -0.0380197147 0.1738317362 0.2116186512 -0.5173706979 0.2119589218 -0.5177189746 -0.0693607411 0.1712394421
565296610.0 -0.0364116497 0.1744514676 0.2067353489 -0.5201339395 0.2062967443 -0.5195650342 -0.0674855496 0.17199044
570296580.0 -0.0344961173 0.1752504425 0.2002096653 -0.522108706 0.2004241054 -0.5222161538 -0.0656613269 0.1726270803
575296550.0 -0.0321130955 0.1755550319 0.1950337388 -0.5239666846 0.1948222984 -0.5243235716 -0.0639512218 0.1735419551
580296520.0 -0.0299730068 0.1765502775 0.1894713122 -0.5266408282 0.1890904357 -0.5261955922 -0.0625230525 0.1736905321
585296490.0 -0.0279053853 0.1770088266 0.1833696305 -0.5279533419 0.1832425294 -0.5282157247 -0.0604826828 0.1750772264
590296460.0 -0.0254348786 0.1774116468 0.1781269404 -0.5304539935 0.1776341342 -0.5302746136 -0.0589499684 0.1756467374
595296430.0 -0.0236644588 0.1778891141 0.1715532123 -0.5320471186 0.1713624971 -0.5322613614 -0.0572378844 0.1764132033
600296400.0 -0.0214887283 0.1785570037 0.1659613182 -0.5338852744 0.1659518259 -0.5341646316 -0.0551778954 0.1767147768
605296370.0 -0.0199580782 0.1788213045 0.1608032388 -0.5354147009 0.1598201007 -0.5359697478 -0.0535764204 0.1777717047
610296340.0 -0.0174296534 0.1795999768 0.1545181909 -0.5366206765 0.1545921849 -0.537045762 -0.0520258136 0.1783591067
615296310.0 -0.0151262074 0.1798660395 0.1487153454 -0.5390048369 0.1481576673 -0.5390795482 -0.0497919053 0.1790148097
620296280.0 -0.0134659926 0.1805796624 0.1427292065 -0.5400442987 0.1428535132 -0.5404491494 -0.0485983043 0.17987231
625296250.0 -0.0116843702 0.1809347282 0.1371730504 -0.5418655593 0.1368230177 -0.5421137908 -0.0467399129 0.180020173
630296220.0 -0.0091256266 0.1813775757 0.130546823 -0.5433187675 0.1310802592 -0.543173577 -0.0448673042 0.180493438
635296190.0 -0.0075320974 0.1816729377 0.125178291 -0.544718013 0.1250572064 -0.5445115886 -0.042968543 0.1811210416
640296160.0 -0.0051946103 0.1819045485 0.1191504048 -0.5460587796 0.1189359573 -0.5459377864 -0.0415022186 0.18175477
645296130.0 -0.0028147376 0.1825606691 0.113271899 -0.5471556124 0.1133390728 -0.5468647846 -0.0398330286 0.1820934275
650296100.0 -0.0010747153 0.1823026567 0.1073211151 -0.5484785918 0.1071938027 -0.5484913065 -0.0373037356 0.1825345164
655296070.0 0.0008044776 0.1827359369 0.1013206407 -0.5494662103 0.1015973514 -0.5494425713 -0.0363389486 0.1835128824
660296040.0 0.0029586303 0.1833467406 0.0956710534 -0.5503380691 0.0956222668 -0.5502706269 -0.0340446953 0.1835749515
665296010.0 0.0051252798 0.1834808889 0.0892020423 -0.5509203952 0.089321278 -0.5512577617 -0.0324520031 0.1842199191
670295980.0 0.0072734645 0.1837778397 0.083352192 -0.5523856426 0.0834368467 -0.5515549423 -0.0309657691 0.1845968949
675295950.0 0.009186795 0.183787949 0.077724556 -0.5528944179 0.077700789 -0.5531053344 -0.028802211 0.1851779422
680295920.0 0.0111118893 0.1843689144 0.0720095825 -0.5535611957 0.0721306644 -0.5538912898 -0.0272537035 0.1851383317
685295890.0 0.0134676901 0.1845690815 0.0655038718 -0.5547122705 0.0658453332 -0.5548637956 -0.025243563 0.1862243992
690295860.0 0.0147206069 0.1842668994 0.0598240071 -0.5549658631 0.0595917296 -0.5553923687 -0.0235811632 0.1861854254
695295830.0 0.0174815881 0.1843126045 0.0541371913 -0.5554152911 0.0538769332 -0.5557110222 -0.0216924804 0.1868777261
700295800.0 0.0196319056 0.1848126285 0.0479620817 -0.5562129799 0.0477673205 -0.5562287624 -0.0197685598 0.187441225
705295770.0 0.0210437626 0.1849269745 0.0420988483 -0.5571791099 0.0416600408 -0.556718919 -0.0181080501 0.1876346936
710295740.0 0.0231679997 0.1849186141 0.0358511711 -0.5573687781 0.0359473077 -0.5574768631 -0.0160274381 0.1879507535
715295710.0 0.025274357 0.1847679233 0.0298332 -0.5577044162 0.0297296281 -0.5578172515 -0.0143651972 0.187961546
720295680.0 0.0275757513 0.1848264225 0.0237782709 -0.5578365519 0.0236127786 -0.5579559447 -0.0126230971 0.1883873345
725295650.0 0.029009321 0.1847245136 0.0182855675 -0.5577054142 0.0181322264 -0.5576112691 -0.0111105136 0.1890902097
730295620.0 0.0302608849 0.1844023756 0.0121556225 -0.557495613 0.0119583933 -0.557813577 -0.0091536374 0.1895953666
735295590.0 0.0331550612 0.184804269 0.0058903077 -0.5582144566 0.0059549583 -0.5579576036 -0.0071078537 0.1891972046
740295560.0 0.0348788595 0.1843091115 0.0001150406 -0.5582631461 9.19454e-05 -0.5584822051 -0.0055902071 0.1898753435
745295530.0 0.0369163691 0.1845168131 -0.0059348927 -0.5580071403 -0.0054770447 -0.5580973444 -0.0039884544 0.1898631367
750295500.0 0.038573818 0.1843141189 -0.0116172159 -0.5577543702 -0.0120086458 -0.5581573912 -0.0021900796 0.1900836432
755295470.0 0.0406019296 0.1840468849 -0.0175270397 -0.5578164031 -0.0180235336 -0.5582855406 0.0001403587 0.1907656695
760295440.0 0.0425277317 0.1842020221 -0.0244423248 -0.557401075 -0.0239704722 -0.5574119505 0.001973448 0.1899022027
765295410.0 0.0448263665 0.1833804679 -0.0299689978 -0.5567833878 -0.029662369 -0.557394736 0.0035668308 0.1904705145
770295380.0 0.0463990955 0.1836861894 -0.035471292 -0.5569398901 -0.0358665785 -0.5573061173 0.0052723946 0.1906235125
775295350.0 0.0482539569 0.1831855348 -0.0419176098 -0.5568190972 -0.0418399192 -0.5562706762 0.0075673548 0.1908292361
780295320.0 0.0503121336 0.1830865907 -0.0475140704 -0.5556203675 -0.0477472253 -0.5560838136 0.0095635109 0.1908378322
785295290.0 0.0518672038 0.1825966407 -0.0536116069 -0.5549427264 -0.0533946277 -0.5555620968 0.0104850426 0.1914761345
790295260.0 0.0542088731 0.1819383413 -0.059366764 -0.5547224412 -0.0593613591 -0.5552718362 0.0125884556 0.1916196758
795295230.0 0.0559336965 0.1813003385 -0.065673689 -0.5538836217 -0.0655541634 -0.5543091452 0.0145087079 0.1908401783
800295200.0 0.0575946127 0.1813426468 -0.0708284686 -0.5529866578 -0.0711543085 -0.5537075988 0.0160634011 0.1910778794
805295170.0 0.0595594668 0.1810434234 -0.0774306456 -0.5527395872 -0.077604 -0.5528005579 0.0186694643 0.1910742337
810295140.0 0.061650404 0.1806303943 -0.0833582856 -0.5514023446 -0.0831309154 -0.5518620753 0.0204215438 0.1909167064
815295110.0 0.0632022168 0.1800240689 -0.0890529485 -0.5505672322 -0.0889145361 -0.5507125956 0.0219587404 0.1912097198
820295080.0 0.0654320695 0.1796074595 -0.0944358481 -0.5493017654 -0.0948167476 -0.5499262223 0.0233063739 0.1916220665
825295050.0 0.0669025573 0.1789514995 -0.1010104223 -0.5490716951 -0.1012312214 -0.5487215327 0.0261142238 0.1915074341
830295020.0 0.0690319944 0.1784447036 -0.1066245373 -0.5474182395 -0.1062755806 -0.5475829429 0.0273717546 0.1908963004
