!Created with skrf (http://scikit-rf.org).
# Hz S RI R 50.0 
!freq ReS11 ImS11 ReS21 ImS21 ReS12 ImS12 ReS22 ImS22
300000.0 -0.2368836895 -0.1099249776 0.4678253518 0.0723994682 0.4716954586 0.0739311057 -0.2387263644 -0.1130473041
5299970.0 -0.2405880538 0.0069447031 0.4748591763 0.005290399 0.4747533074 0.0056785981 -0.2448671652 0.005263217
10299940.0 -0.2373147162 0.0198809208 0.4774216315 0.0063528973 0.4768416838 0.0062229612 -0.2416611757 0.0173972913
15299910.0 -0.2329284659 0.029763492 0.4804919002 0.0072963443 0.4804800066 0.007841539 -0.237553559 0.0263631066
20299880.0 -0.2275387078 0.0379338462 0.4853462693 0.0081751441 0.4851442173 0.0080890741 -0.2328347551 0.0340854151
25299850.0 -0.2215004434 0.0442175312 0.4905065425 0.0068492487 0.4907871207 0.0073420785 -0.227801597 0.0399634119
30299820.0 -0.215656253 0.0496208534 0.496371494 0.0048638656 0.4958882084 0.0045350836 -0.2226506343 0.0448655356
35299790.0 -0.2098771625 0.0542197819 0.5008989266 0.0015625899 0.5012704418 0.0017414096 -0.2171717977 0.048884443
40299760.0 -0.204508027 0.0568723253 0.5062846367 -0.001987569 0.5062897393 -0.0025980336 -0.2126991519 0.0522662905
45299730.0 -0.1995451675 0.0602427625 0.5110719159 -0.0074026834 0.5109838565 -0.0072145246 -0.2078749535 0.0544077898
50299700.0 -0.1945113226 0.0620128943 0.5149795829 -0.012593395 0.5151606362 -0.012683973 -0.2036327887 0.056598281
55299670.0 -0.1907927915 0.0638475455 0.5184273926 -0.0188591299 0.5188801922 -0.0187964271 -0.199942764 0.0581137322
60299640.0 -0.1865043011 0.0649589159 0.5219568276 -0.0248279114 0.5218332285 -0.0249402251 -0.1962691635 0.0596298715
65299610.0 -0.1830814189 0.0664141975 0.5251113722 -0.0309256406 0.5252297089 -0.0310658888 -0.1928137355 0.0605741836
70299580.0 -0.1794332041 0.0670700592 0.5271212656 -0.0376458693 0.5274813927 -0.0376314221 -0.1901070003 0.0616919331
75299550.0 -0.1766367889 0.0683969098 0.5291119961 -0.0443091857 0.5290134987 -0.0446445068 -0.1873027625 0.0627308079
80299520.0 -0.1738311843 0.0688822832 0.5312333098 -0.0514797231 0.5310793106 -0.0514751709 -0.1844895063 0.0628796241
85299490.0 -0.1714857027 0.0693581368 0.5325590501 -0.0583267225 0.5323274952 -0.058216015 -0.1829040952 0.0636931462
90299460.0 -0.1694859905 0.0702807128 0.5333585933 -0.064744563 0.5335965257 -0.0655419544 -0.1799993593 0.0643273553
95299430.0 -0.1671346118 0.0712168084 0.5343874465 -0.0725647305 0.534599302 -0.0722489222 -0.1785053335 0.0651560258
100299400.0 -0.1653644833 0.0718885303 0.5346250182 -0.0791766652 0.5347221224 -0.0793176884 -0.1769139467 0.0656387154
105299370.0 -0.1635159495 0.0722634567 0.5346331764 -0.0855259444 0.5350137935 -0.0861564817 -0.1748916042 0.0666523275
110299340.0 -0.1619627947 0.0731241659 0.5347518156 -0.0925174707 0.5352741042 -0.0927852643 -0.1739989352 0.0670217737
115299310.0 -0.1599683962 0.0734489893 0.5346107563 -0.0994558818 0.5353179401 -0.0992377987 -0.1723157425 0.0671690245
120299280.0 -0.1592145647 0.0742663108 0.5348199024 -0.1063136815 0.5348358839 -0.1064845653 -0.1713216432 0.0681420063
125299250.0 -0.1576199048 0.0749934885 0.5345873148 -0.1129179228 0.534758923 -0.1133323727 -0.1699110492 0.0683607203
130299220.0 -0.1564099557 0.0760673475 0.5337922437 -0.1194945559 0.5340646249 -0.1201011042 -0.1687557637 0.0695919916
135299190.0 -0.155350889 0.0768730248 0.5333019647 -0.1262440973 0.5329097202 -0.1262140035 -0.1682093732 0.0700192086
140299160.0 -0.1543954608 0.0781484326 0.5324852968 -0.1330321501 0.5325699178 -0.1329369705 -0.1669075281 0.070766009
145299130.0 -0.1533053329 0.0788254622 0.5317337461 -0.1395756172 0.5313945573 -0.1391933783 -0.1662799775 0.0719207314
150299100.0 -0.1521769271 0.0797020528 0.5304276947 -0.1461540829 0.5305246485 -0.1461563407 -0.1651553909 0.0725146641
155299070.0 -0.1514226497 0.0810578066 0.5293219025 -0.1529249129 0.5292906579 -0.1528983309 -0.1645154616 0.0734351462
160299040.0 -0.1498371848 0.0819226143 0.5276877069 -0.1587796766 0.5274739305 -0.1591240758 -0.1634681214 0.0749888721
165299010.0 -0.1491626418 0.0832818941 0.5262250656 -0.1654102075 0.5265381387 -0.1656703924 -0.1627761525 0.075397407
170298980.0 -0.1484063052 0.0844409601 0.52401935 -0.1718827357 0.5249795235 -0.1718119576 -0.1617360968 0.0765877111
175298950.0 -0.1473512436 0.0855196672 0.5237022785 -0.177769711 0.523709934 -0.1781332246 -0.1611486317 0.0774305666
180298920.0 -0.1463633952 0.086504054 0.5214715211 -0.1844887535 0.5215859123 -0.1841852497 -0.1602689153 0.0787286773
185298890.0 -0.1449408717 0.0880876874 0.5190317169 -0.1906927113 0.5197753171 -0.1904973524 -0.1596303359 0.0795688743
190298860.0 -0.1442921533 0.0892070762 0.5174314637 -0.1967641237 0.5177463684 -0.1968628949 -0.1584269456 0.0808504051
195298830.0 -0.1434738646 0.0899705126 0.5156585011 -0.2027615362 0.5156021273 -0.2029938858 -0.1576323685 0.0818799044
200298800.0 -0.1427627174 0.0918522816 0.5142096684 -0.2088439602 0.5134263327 -0.2088722388 -0.1569219334 0.083236348
205298770.0 -0.1417583209 0.0930898799 0.511414209 -0.2148695578 0.51142638 -0.2147742888 -0.1565518957 0.0838113511
210298740.0 -0.1409291433 0.0943309692 0.5095814279 -0.221007178 0.5093239212 -0.2213473875 -0.1558194858 0.0855033505
215298710.0 -0.1397348309 0.0954858391 0.5066185696 -0.2267969461 0.5068210155 -0.2268507078 -0.155169129 0.086587736
220298680.0 -0.1389508956 0.0971117641 0.504199654 -0.233107537 0.5044017695 -0.2326336904 -0.1538955181 0.0881172921
225298650.0 -0.1373844591 0.0984368169 0.5017800746 -0.2384483144 0.5018346071 -0.23836168 -0.1534945948 0.08939846
230298620.0 -0.1370526746 0.0998145233 0.4998193135 -0.2440226441 0.499929986 -0.2444871613 -0.1526919211 0.0905484902
235298590.0 -0.1358821781 0.1011131581 0.4968446775 -0.2500703061 0.4968950028 -0.2504953056 -0.151664602 0.0915782003
240298560.0 -0.135013877 0.1025420827 0.4940092105 -0.2555960149 0.4944114949 -0.2554648457 -0.150896861 0.0931861396
245298530.0 -0.133658824 0.1039407053 0.4908666475 -0.2617424733 0.4913479748 -0.2617469615 -0.149895918 0.0943735314
250298500.0 -0.1331024759 0.1050254027 0.4887773943 -0.2667350069 0.4889492058 -0.2664946433 -0.1489074499 0.0956944064
255298470.0 -0.1319109358 0.1068096833 0.4856670792 -0.2727168902 0.4856753852 -0.2724405178 -0.1481111876 0.0966266795
260298440.0 -0.130681561 0.1082591601 0.4828195786 -0.2782119378 0.4824378831 -0.2784462583 -0.1470408299 0.0982489881
265298410.0 -0.1294048313 0.1095501353 0.4793483306 -0.283985121 0.4793849338 -0.2839674991 -0.1463739927 0.0996537084
270298380.0 -0.128163077 0.1108930342 0.4760978506 -0.2889240266 0.4764589163 -0.2893162663 -0.1451246406 0.1012106971
275298350.0 -0.1276172087 0.1123249697 0.473229595 -0.2947382788 0.4735721899 -0.2949042004 -0.144262559 0.1024239925
280298320.0 -0.1262168425 0.1139691284 0.4700388943 -0.2997448863 0.4699227526 -0.3000809298 -0.1433825989 0.1039667359
285298290.0 -0.124898611 0.1155617519 0.4669833599 -0.3052810321 0.4667957378 -0.3054612028 -0.1424886688 0.1051451239
290298260.0 -0.123877971 0.1168396598 0.464021523 -0.310483412 0.4636980274 -0.3106376737 -0.1412521323 0.1065704079
295298230.0 -0.1224913114 0.1181387405 0.460726573 -0.3162123356 0.4600393013 -0.3158658234 -0.1401912317 0.1081096568
300298200.0 -0.1208566205 0.119489982 0.4569285835 -0.3211421705 0.4569805704 -0.3213517098 -0.1393406817 0.1093798253
305298170.0 -0.119551398 0.1204286614 0.4535126091 -0.3262782991 0.4537098026 -0.3265883351 -0.137812124 0.1107900894
310298140.0 -0.1179299386 0.1216319839 0.4499164155 -0.3317375921 0.4500238259 -0.33180541 -0.1371635725 0.1123591864
315298110.0 -0.1172863426 0.1231917256 0.4463028641 -0.3369503137 0.4464874439 -0.3369443978 -0.1357439057 0.1134336098
320298080.0 -0.1159593501 0.124604 0.4425527342 -0.3421983119 0.4427928426 -0.3419140366 -0.1348257141 0.1145629082
325298050.0 -0.1147829354 0.1255503731 0.43891131 -0.3469958541 0.4390780667 -0.3473598046 -0.1334957738 0.1160734053
330298020.0 -0.1134903168 0.1269969118 0.4339133056 -0.3522228341 0.4345976273 -0.3520573017 -0.1331286005 0.1171649515
335297990.0 -0.1123348651 0.1280803812 0.4307990886 -0.3568457451 0.4305727282 -0.3571162426 -0.1321257241 0.1185004765
340297960.0 -0.1114233931 0.1299815858 0.4265564096 -0.3617541993 0.4268616393 -0.3614439437 -0.1311742556 0.119958116
345297930.0 -0.1100327377 0.1312084243 0.4226187962 -0.3657955684 0.4220801787 -0.3661008953 -0.129860081 0.121083734
350297900.0 -0.1084188781 0.132634938 0.4182671938 -0.3707832957 0.4184918968 -0.3708367421 -0.1288998392 0.1230319526
355297870.0 -0.1070057782 0.1338679463 0.4142739067 -0.3755235875 0.4142947402 -0.3758113389 -0.1282765115 0.1243252667
360297840.0 -0.1054615144 0.135155528 0.4099701006 -0.380310031 0.4098727112 -0.3801041551 -0.1266602686 0.1257516087
365297810.0 -0.1041133067 0.1366412866 0.4056584775 -0.3848435298 0.4058588336 -0.38451557 -0.1255536684 0.127338524
370297780.0 -0.1024182255 0.1376034824 0.4013006556 -0.3889216255 0.4016766978 -0.3893027379 -0.1245093445 0.1285762279
375297750.0 -0.1012390896 0.1392552373 0.3975945613 -0.3936842657 0.39734275 -0.3937654566 -0.1228649469 0.1301361682
380297720.0 -0.0996487374 0.1402186173 0.3932205615 -0.397533157 0.3929713521 -0.3976783176 -0.1218445156 0.131827527
385297690.0 -0.0980775362 0.1417529025 0.3888837514 -0.4018923636 0.3882811029 -0.4020176174 -0.1207041776 0.132946402
390297660.0 -0.0965389259 0.1429906513 0.3838305639 -0.4063839344 0.3838289406 -0.4066201436 -0.1192338556 0.13421675
395297630.0 -0.0948151192 0.1439047188 0.3799394074 -0.4105205095 0.3794591422 -0.4103323473 -0.1180652626 0.1361014231
400297600.0 -0.0934133932 0.1451806768 0.3751628735 -0.4146325685 0.3753828608 -0.4149160819 -0.1173286112 0.1369390739
405297570.0 -0.091650221 0.1465204596 0.3702257062 -0.4189861473 0.370520698 -0.4186872942 -0.1158075052 0.1383819637
410297540.0 -0.089998005 0.1475622955 0.3655714011 -0.4228365351 0.3654920313 -0.4227363015 -0.114637527 0.1397172934
415297510.0 -0.0886092788 0.1490257595 0.3610055011 -0.4268271389 0.3612240799 -0.4267921582 -0.1134744075 0.1413604556
420297480.0 -0.086841898 0.1493806376 0.356129694 -0.4307609968 0.356442053 -0.4308191888 -0.1117101318 0.1422129618
425297450.0 -0.0849134988 0.1508026337 0.3515431539 -0.4346153616 0.3520407622 -0.4346246558 -0.110313187 0.1436465021
430297420.0 -0.0837599706 0.1520272383 0.347183161 -0.4386632393 0.3470731036 -0.4385490674 -0.1091938458 0.1449355602
435297390.0 -0.0816215963 0.15305974 0.3418577822 -0.4422398597 0.3423077907 -0.4422669879 -0.1079013165 0.1465590215
440297360.0 -0.0799933111 0.1540460131 0.3371433497 -0.4456711148 0.3370080134 -0.4458205833 -0.1063140978 0.1475687502
445297330.0 -0.0780090953 0.1550329829 0.3319166707 -0.4499786227 0.3320591169 -0.449586287 -0.104994085 0.1485082119
450297300.0 -0.0763996144 0.1560745094 0.3269195255 -0.4529325708 0.327617552 -0.4531421529 -0.1038736797 0.1497811351
455297270.0 -0.0749172727 0.1569568613 0.3226881949 -0.4565193436 0.3229756563 -0.4564149423 -0.1020788646 0.1512547187
460297240.0 -0.0730840384 0.1579117624 0.3174042858 -0.4596646282 0.3171082911 -0.4599327851 -0.1004952721 0.1527282496
465297210.0 -0.0710643055 0.1585913494 0.3125901179 -0.4633048873 0.3126054523 -0.4637430664 -0.0996456638 0.1533609075
470297180.0 -0.0695224181 0.1596608357 0.3074077547 -0.466743444 0.3078346101 -0.4669533406 -0.0986392627 0.1545186598
475297150.0 -0.0678584931 0.1605688413 0.301592474 -0.469840744 0.302288002 -0.4697685451 -0.0965375155 0.1559003696
480297120.0 -0.0658781758 0.1611171768 0.2969256443 -0.4727650792 0.2974777765 -0.4730289229 -0.0950218371 0.1573559114
485297090.0 -0.0640674224 0.1623139165 0.2920955767 -0.4765253916 0.2919832409 -0.4766410165 -0.0939445573 0.1578717325
490297060.0 -0.0621727469 0.1630067626 0.287150756 -0.4798298082 0.2868122021 -0.4798641393 -0.0921791384 0.1591907916
495297030.0 -0.0607658578 0.1642925982 0.2815520618 -0.4827929854 0.2813403887 -0.4829982452 -0.0906323262 0.1599559824
500297000.0 -0.0583895196 0.1646983155 0.2762152336 -0.4858392278 0.2760863066 -0.4857368159 -0.0895035114 0.1613572234
505296970.0 -0.0568923399 0.1655721112 0.2706070691 -0.488195918 0.2709886238 -0.4885466268 -0.0884341963 0.1623322398
510296940.0 -0.0551238568 0.1666335248 0.2654805005 -0.4917437586 0.2654827711 -0.4916421423 -0.0860478394 0.1638704343
515296910.0 -0.0535359108 0.1674328472 0.2600627011 -0.494245994 0.2600241249 -0.4944830434 -0.0845719708 0.1647359023
520296880.0 -0.0514622343 0.1674867568 0.2546384578 -0.4971116509 0.254725787 -0.4969567903 -0.082946644 0.1655458551
525296850.0 -0.0493696969 0.1684216958 0.249301335 -0.4999496538 0.249351804 -0.499863817 -0.0810793682 0.1664623955
530296820.0 -0.0475647787 0.1691870485 0.2440292759 -0.501949179 0.2437165056 -0.5023017353 -0.0805259884 0.1668523306
535296790.0 -0.0455503432 0.169643616 0.2384709633 -0.5043001978 0.2383773732 -0.5047866636 -0.078607968 0.168007246
540296760.0 -0.0439934584 0.169933922 0.2330869314 -0.5077206839 0.2326889997 -0.5076039147 -0.0772031793 0.1692098721
545296730.0 -0.0419387824 0.1712091442 0.2269451649 -0.5100059235 0.227465251 -0.5101679462 -0.0756686586 0.1699795866
550296700.0 -0.0403149669 0.171748104 0.2221683172 -0.5125728532 0.2224787816 -0.5132197158 -0.0740392334 0.1713578139
555296670.0 -0.0378057469 0.1721622196 0.216255883 -0.5147006881 0.2166488058 -0.5148346909 -0.0725805014 0.1720019782
560296640.0 -0.0360894466 0.1725585594 0.2105768693 -0.5167050809 0.2108114265 -0.516938025 -0.0705032141 0.1730085194
565296610.0 -0.0345301269 0.1732650426 0.2049753988 -0.5194200186 0.2049450601 -0.5190450295 -0.0691556911 0.173490618
570296580.0 -0.0320236939 0.1736002268 0.1989293188 -0.5215290061 0.199678629 -0.5213717474 -0.0675217224 0.1748359262
575296550.0 -0.0303635203 0.1744792604 0.193891163 -0.5232338185 0.1939930776 -0.5231920085 -0.0656034854 0.1752645888
580296520.0 -0.0285377525 0.1746409972 0.1882492583 -0.5254612318 0.1881999774 -0.5257421317 -0.0641891937 0.1760185512
585296490.0 -0.0263783316 0.1748437143 0.1824776244 -0.5272403256 0.1825355002 -0.5275333585 -0.0624642796 0.1764522083
590296460.0 -0.0249091496 0.1749747947 0.1768532322 -0.5291015683 0.1765105293 -0.5295921971 -0.0607705092 0.177547058
595296430.0 -0.0228086207 0.1759124425 0.1710735707 -0.5312995873 0.1708485959 -0.53140148 -0.0588577501 0.1782479909
600296400.0 -0.0205463195 0.1762613208 0.1649024007 -0.5331928667 0.1656110356 -0.5329018019 -0.0572599715 0.1792637086
605296370.0 -0.018794497 0.176811149 0.1595464467 -0.5348507976 0.1593596937 -0.5347461116 -0.0555125761 0.1796273615
610296340.0 -0.0169576234 0.1770227071 0.1539499337 -0.5362076739 0.1537779567 -0.5365118783 -0.0542408457 0.1806836914
615296310.0 -0.0148009107 0.177390972 0.1474350478 -0.5375032277 0.1478276323 -0.5380104202 -0.0522778349 0.1811431314
620296280.0 -0.0129855174 0.1778119792 0.1424332928 -0.539661602 0.1419754018 -0.5395295432 -0.0505755434 0.1814691776
625296250.0 -0.0108648021 0.177897816 0.135986128 -0.5414968397 0.1362136894 -0.54149853 -0.0487377884 0.1825337694
630296220.0 -0.008783435 0.1783607946 0.1303353693 -0.542803298 0.1304311019 -0.5427830516 -0.0471124402 0.1831406051
635296190.0 -0.0067837452 0.1785980576 0.1240049291 -0.5434822799 0.1242184825 -0.5435075262 -0.0452292495 0.1835282844
640296160.0 -0.0050439612 0.1787629988 0.1187071466 -0.5449406205 0.1188677659 -0.5453669957 -0.0434497358 0.1842810204
645296130.0 -0.0028899065 0.1792576651 0.112710794 -0.546440842 0.1124516327 -0.5463849105 -0.0419794476 0.1844218672
650296100.0 -0.0010623638 0.1794231709 0.1072313115 -0.5472100214 0.1072853575 -0.5471488924 -0.0403065784 0.1853153378
655296070.0 0.0008352042 0.179204455 0.1007644275 -0.5485839005 0.1007021138 -0.5483823923 -0.0379324199 0.1861116732
660296040.0 0.0026631908 0.1796716105 0.0953791472 -0.549279745 0.0950614484 -0.5491577952 -0.0368086538 0.1858365532
665296010.0 0.0051136121 0.1794551655 0.0891425763 -0.5504993437 0.089719916 -0.5504945657 -0.0349333396 0.1870657828
670295980.0 0.0075357112 0.1797449835 0.0832238081 -0.5514027005 0.0833975298 -0.5513279444 -0.0332484399 0.1871961022
675295950.0 0.0094267162 0.1796836139 0.076989912 -0.5521607654 0.0772389263 -0.552598024 -0.0312111703 0.1878946312
680295920.0 0.0108896199 0.1800192389 0.0712205315 -0.5530037465 0.0710665804 -0.5529059306 -0.0292541818 0.1879353228
685295890.0 0.013134812 0.1799710833 0.0657455142 -0.553603146 0.0650601971 -0.5539549099 -0.0275418689 0.1889980109
690295860.0 0.0153875399 0.1799778069 0.0591584948 -0.5540160091 0.0588930694 -0.5542170984 -0.0255599385 0.1894045514
695295830.0 0.0174766398 0.179667594 0.0522157923 -0.5547888356 0.0530397966 -0.5552854984 -0.0242452968 0.1900869291
700295800.0 0.0196816713 0.1798201667 0.04687379 -0.5556177844 0.0474707871 -0.5555056712 -0.0224445005 0.1896031326
705295770.0 0.0213376639 0.1799351984 0.0411795215 -0.5559779571 0.0415825448 -0.5559903771 -0.0207009866 0.1903316169
710295740.0 0.0232411992 0.1798793735 0.0354148196 -0.5561867904 0.035183875 -0.555849479 -0.0193418843 0.1905827157
715295710.0 0.0253470102 0.179802122 0.0290775436 -0.5567260872 0.0297097483 -0.5567443755 -0.0171443759 0.1906366458
720295680.0 0.0273908913 0.1792991557 0.0231126502 -0.556614128 0.0235264461 -0.5572786737 -0.0146762687 0.1913068488
725295650.0 0.0297550835 0.1793150038 0.0171074956 -0.5569164872 0.0173481808 -0.55697144 -0.0131140892 0.1918231177
730295620.0 0.0312375244 0.1789765637 0.0112654069 -0.557063867 0.011194016 -0.5570544325 -0.0112937107 0.191587695
735295590.0 0.0336307941 0.1788818234 0.0054911884 -0.5569833248 0.0054476924 -0.5576476485 -0.0097076692 0.1920188105
740295560.0 0.0352036478 0.178903873 -0.000926536 -0.5570606415 -0.0005698179 -0.5570191158 -0.0076028395 0.1920538268
745295530.0 0.0374626855 0.1783956151 -0.0069339174 -0.556914644 -0.0063670779 -0.557357021 -0.0059194125 0.1927070003
750295500.0 0.0393703933 0.1780955111 -0.012648657 -0.5570336261 -0.0126759423 -0.5564598035 -0.0037485349 0.1922580605
755295470.0 0.0419251054 0.1781202221 -0.0185567483 -0.5566319234 -0.0185591388 -0.5572086704 -0.0025776208 0.1929194697
760295440.0 0.0432183202 0.1777274993 -0.0249135033 -0.5564548354 -0.0246070108 -0.5565985082 -0.0007318083 0.1930787167
765295410.0 0.0452554938 0.1767932762 -0.0299397869 -0.5557682356 -0.0307046917 -0.5563934739 0.0019900069 0.1934576499
770295380.0 0.0475530825 0.1770994575 -0.0366474503 -0.5555268039 -0.0363507523 -0.555893357 0.0040277315 0.1932542819
775295350.0 0.0493723634 0.1766401891 -0.042770077 -0.5548359162 -0.0423116914 -0.5550890299 0.0050880698 0.1931423014
780295320.0 0.0516274355 0.1760331936 -0.0482219492 -0.5549694624 -0.0485125452 -0.5547476035 0.007139552 0.1938908214
785295290.0 0.0534679664 0.1759211572 -0.0544443429 -0.553444006 -0.0543287592 -0.5541633219 0.0087476739 0.1935864717
790295260.0 0.0553784565 0.1754682229 -0.0604804873 -0.553370302 -0.0602886926 -0.5535815898 0.0109803477 0.1937234945
795295230.0 0.0572973891 0.1750865271 -0.0662151426 -0.552474544 -0.0661632295 -0.5528493274 0.0127278018 0.1942908637
800295200.0 0.0593219614 0.1745015561 -0.0724495093 -0.5522609591 -0.0726672934 -0.5522484603 0.0146797831 0.1936955507
805295170.0 0.0609748543 0.1737820503 -0.0781803856 -0.5505509708 -0.0781356387 -0.5509977555 0.0162035474 0.1936369453
810295140.0 0.0633185426 0.1735695503 -0.0838910732 -0.5500948917 -0.0841726711 -0.5506638303 0.0185008453 0.1942951307
815295110.0 0.0650525041 0.1728449983 -0.0899749634 -0.5488608585 -0.0903416033 -0.5492566668 0.019791933 0.1934236655
820295080.0 0.0669916513 0.1719901198 -0.0957332645 -0.5480812261 -0.0958274073 -0.5488146837 0.0218117061 0.1939167466
825295050.0 0.0689979219 0.1716142338 -0.1018233952 -0.5468375601 -0.102123249 -0.5471565712 0.0241258412 0.1938757444
830295020.0 0.0709421848 0.1711877096 -0.1077973627 -0.545751432 -0.1080322424 -0.5460861698 0.0257672025 0.1936156297
