!Created with skrf (http://scikit-rf.org).
# Hz S RI R 50.0 
!freq ReS11 ImS11 ReS21 ImS21 ReS12 ImS12 ReS22 ImS22
300000.0 -0.3230459291 -0.0753987082 0.3775774634 0.0392163247 0.3756830968 0.0367714476 -0.3239365287 -0.0889364566
5299970.0 -0.326641061 0.0044172354 0.3784124153 0.0023447411 0.3784588432 0.0024391741 -0.3242851624 0.004894413
10299940.0 -0.324330931 0.013399374 0.3797830169 0.0019892784 0.3794307294 0.0023115611 -0.3220872319 0.0159184811
15299910.0 -0.3214998987 0.0203875702 0.38182523 0.0021798801 0.3820832326 0.0021269267 -0.3186979485 0.0235307641
20299880.0 -0.3187635166 0.0262952466 0.3847253041 0.0019493833 0.3849955483 0.0016587576 -0.3150943293 0.030035292
25299850.0 -0.3159095377 0.0314755497 0.3883299914 3.19831e-05 0.3880222908 -7.67486e-05 -0.3111232747 0.0357852308
30299820.0 -0.3128227375 0.0357045505 0.3912806431 -0.0022138162 0.3914013377 -0.002491051 -0.3074075595 0.0408869409
35299790.0 -0.3099201929 0.0398747256 0.3949625182 -0.0054419893 0.3947687487 -0.005305831 -0.3038190661 0.044993642
40299760.0 -0.3073535712 0.043187825 0.3982482232 -0.0084970587 0.3980294923 -0.0088604526 -0.3001180442 0.048078493
45299730.0 -0.3044530528 0.0467467448 0.4006199601 -0.0129756256 0.4009619909 -0.0127247999 -0.2972236012 0.0518759671
50299700.0 -0.3023029687 0.0493782667 0.4035853575 -0.0173582021 0.4036205447 -0.017165969 -0.2940884471 0.0541705019
55299670.0 -0.3002491182 0.052219518 0.4059187632 -0.0224040402 0.4054399495 -0.0221292172 -0.2917367021 0.0568941306
60299640.0 -0.2981205123 0.0549756435 0.40734763 -0.0269633502 0.4078338129 -0.026825622 -0.2890346179 0.0592208847
65299610.0 -0.2963532205 0.0569850906 0.4091702317 -0.0319059332 0.4093124651 -0.0318273377 -0.2870698363 0.0615613969
70299580.0 -0.294550215 0.0600277864 0.4105983286 -0.0371581702 0.4102076186 -0.0365058238 -0.2848497007 0.0636608715
75299550.0 -0.292812842 0.0623270501 0.4112556767 -0.0422843556 0.4112727878 -0.0421771335 -0.2830143714 0.0655366745
80299520.0 -0.2916029072 0.0648602825 0.4122451909 -0.0477192684 0.4125295267 -0.0474466975 -0.2814019018 0.0678901429
85299490.0 -0.2904907476 0.0667720706 0.4128236724 -0.0523489602 0.4127715805 -0.0523048108 -0.2799076542 0.0697662251
90299460.0 -0.2885632782 0.0690928445 0.4127456392 -0.0578627723 0.4134767003 -0.0577872326 -0.2780561872 0.0722034639
95299430.0 -0.2871024897 0.0713607748 0.4136745532 -0.0629332831 0.4136994334 -0.063273124 -0.2765763108 0.07436082
100299400.0 -0.2865398257 0.0741219116 0.4134431515 -0.0680046788 0.4132880625 -0.0680434756 -0.2751684931 0.0760388863
105299370.0 -0.2850047886 0.0764402271 0.4131185465 -0.073787423 0.4135652946 -0.0734933064 -0.2736362798 0.0784979936
110299340.0 -0.2838216885 0.078710963 0.4134708265 -0.0784510303 0.4133828308 -0.078415036 -0.2729251366 0.0804754189
115299310.0 -0.2828879705 0.0809948352 0.4131489439 -0.0838608075 0.4131848086 -0.083492622 -0.2715641001 0.0826819834
120299280.0 -0.2819584088 0.0831967036 0.4121676015 -0.0890070854 0.4124159698 -0.0887533133 -0.2704643349 0.0846714687
125299250.0 -0.2811483079 0.0854174111 0.4117585071 -0.093865124 0.4120313949 -0.0939983691 -0.2698473917 0.0867877944
130299220.0 -0.2800725423 0.0880529058 0.4111418107 -0.0990751267 0.411222067 -0.0990103033 -0.2684975448 0.0888368028
135299190.0 -0.2791929598 0.0906573697 0.4107829592 -0.1038641663 0.4108337385 -0.1038243767 -0.2674494319 0.0913547919
140299160.0 -0.2786515329 0.0929990077 0.4099327675 -0.1091044394 0.4097454865 -0.1091544198 -0.2664204513 0.0936118424
145299130.0 -0.2776055028 0.0955799953 0.4089718471 -0.1137723817 0.4086553274 -0.1141427165 -0.2655426874 0.0958767586
150299100.0 -0.2763531003 0.0982539659 0.408281762 -0.1186749091 0.4079681986 -0.1185805046 -0.2649082769 0.0988535103
155299070.0 -0.2757776469 0.1006089026 0.4069765797 -0.1242111206 0.4067896007 -0.1239994067 -0.2638071584 0.1009579086
160299040.0 -0.274739219 0.1034117377 0.4056327126 -0.1283447739 0.4053893644 -0.1286857755 -0.2631299738 0.1029258654
165299010.0 -0.2736372576 0.1059596642 0.4041888977 -0.133457164 0.404309916 -0.1336057821 -0.2617508046 0.1059004192
170298980.0 -0.2729568378 0.1084288776 0.4029097425 -0.1381513723 0.4031797618 -0.1383016197 -0.260761289 0.1082524785
175298950.0 -0.2719935565 0.1113351388 0.4019188589 -0.1432312539 0.4013558223 -0.1430097583 -0.2599950207 0.1105564623
180298920.0 -0.2710435352 0.1140295188 0.4002444051 -0.1480480081 0.4000150122 -0.1475827153 -0.2587187465 0.113229574
185298890.0 -0.2695676882 0.1162491191 0.3988572706 -0.1524837847 0.3981581875 -0.1524102831 -0.2576165518 0.1157012022
190298860.0 -0.2687975284 0.1196385086 0.3969490426 -0.1575215681 0.3970614601 -0.1572456549 -0.2568751181 0.1182214592
195298830.0 -0.2677598389 0.1216471456 0.3952942048 -0.1618995259 0.3953629224 -0.161715455 -0.255532883 0.1208810754
200298800.0 -0.26656973 0.1247484418 0.3933368779 -0.1667305096 0.3937969999 -0.1665593328 -0.2546134241 0.1231774864
205298770.0 -0.2656305977 0.1272205559 0.3917601183 -0.1713516655 0.3915592947 -0.1709353829 -0.2535808967 0.1251333954
210298740.0 -0.2642944976 0.1296733621 0.3898832472 -0.175531208 0.3899741251 -0.1755881356 -0.2521492376 0.1284450099
215298710.0 -0.2634205419 0.1327513159 0.3881595621 -0.180206729 0.3878102135 -0.1802790825 -0.2511023346 0.1307531432
220298680.0 -0.2622229978 0.1351236521 0.3856889203 -0.1844773042 0.3858688452 -0.1846033756 -0.250258343 0.133181339
225298650.0 -0.2609951375 0.1379628107 0.3840536176 -0.1889594905 0.3844156354 -0.1888100642 -0.2490934169 0.1357333801
230298620.0 -0.2596556807 0.1409732764 0.3823528896 -0.1933923984 0.3824124979 -0.1935189465 -0.2477962852 0.1384067288
235298590.0 -0.2582824922 0.1437376984 0.3799607116 -0.1976945209 0.3801051997 -0.197187197 -0.2466312835 0.1408724842
240298560.0 -0.257250425 0.1461965032 0.378223067 -0.2023555442 0.3780720358 -0.202335809 -0.2452086046 0.1438813715
245298530.0 -0.2558053905 0.1489567328 0.375991509 -0.2065182217 0.3754934334 -0.2062808897 -0.2436606747 0.1456798102
250298500.0 -0.2541901545 0.1515926366 0.3727313417 -0.21094579 0.3731310868 -0.2102843393 -0.2426145189 0.1481592116
255298470.0 -0.2528627803 0.1541042266 0.3706274314 -0.2147435248 0.3709683346 -0.2148562421 -0.2409008638 0.1509617784
260298440.0 -0.2516804583 0.15658067 0.3684395432 -0.2196174836 0.368570752 -0.2192662682 -0.2394595738 0.1536097153
265298410.0 -0.2498965374 0.1596917771 0.3657869624 -0.2233548462 0.3664600425 -0.2230957088 -0.2382090962 0.1563478868
270298380.0 -0.2486856648 0.1626056695 0.3637186514 -0.2274375831 0.364015893 -0.2273012869 -0.23690602 0.158734654
275298350.0 -0.2469590285 0.1649735139 0.3609786473 -0.231557204 0.3614472799 -0.2315344492 -0.2351504492 0.1610810112
280298320.0 -0.245286471 0.1678956529 0.358751949 -0.2359819011 0.358760705 -0.2356762061 -0.2334186929 0.1638620022
285298290.0 -0.2436323364 0.170681663 0.3560513489 -0.239750204 0.3558826066 -0.2397994996 -0.2319129057 0.1663048065
290298260.0 -0.2418717507 0.1730339504 0.3533727992 -0.2435595498 0.3538257772 -0.2438081883 -0.230406026 0.1689842464
295298230.0 -0.2403305883 0.1752949205 0.3506355216 -0.2478114759 0.3505849278 -0.2477727688 -0.2283737991 0.1710605779
300298200.0 -0.2385479851 0.1782606526 0.3480923082 -0.2514648889 0.3482816599 -0.2518876365 -0.2268139451 0.1737521721
305298170.0 -0.236610649 0.1804863577 0.3448731007 -0.2558388911 0.3451764819 -0.2554842784 -0.2246460954 0.1762870873
310298140.0 -0.235142379 0.1836106137 0.3426235303 -0.2595856311 0.342507264 -0.2594515686 -0.2233741313 0.1784867544
315298110.0 -0.2331905156 0.1858718911 0.3396591448 -0.2632515638 0.3398318444 -0.2636386743 -0.221730106 0.1807959844
320298080.0 -0.2313895194 0.1883785621 0.3363473807 -0.2677260435 0.3366685046 -0.2674754185 -0.2198685395 0.1834939417
325298050.0 -0.2294741633 0.1908938271 0.3336960845 -0.2712692095 0.3337040611 -0.2714118438 -0.2181234257 0.1858917229
330298020.0 -0.2276924117 0.1929926146 0.3299415565 -0.2748916067 0.330630662 -0.2747264596 -0.2165793613 0.1881657299
335297990.0 -0.2256597305 0.1955229502 0.3270897675 -0.2784463003 0.3274529578 -0.2785087528 -0.2153190568 0.1906025188
340297960.0 -0.2243192276 0.1983948924 0.3241770876 -0.282321593 0.3236836552 -0.2822414251 -0.2125443488 0.1933164188
345297930.0 -0.2222180231 0.2009708984 0.3207758579 -0.2860226433 0.3207744004 -0.2855949002 -0.2111158886 0.1951638324
350297900.0 -0.2202335121 0.2033412942 0.3172708335 -0.2894294333 0.3175581014 -0.289246351 -0.2095450902 0.1978671017
355297870.0 -0.2179293029 0.2060533869 0.314204953 -0.2927583149 0.3144248445 -0.2927559353 -0.2074430316 0.200233062
360297840.0 -0.2161137968 0.2081312867 0.3113407994 -0.2960207949 0.3114380835 -0.2960184796 -0.2054193243 0.202632007
365297810.0 -0.2142526223 0.2108457584 0.3081272584 -0.2995880447 0.3081666391 -0.2997514702 -0.2033186944 0.2049379457
370297780.0 -0.2117729266 0.213412662 0.3042089478 -0.3029209725 0.3047547276 -0.3028411074 -0.2011688883 0.2072680547
375297750.0 -0.2094956293 0.2157262156 0.3010832548 -0.3063804764 0.3016657519 -0.3065085622 -0.1992932539 0.2093282617
380297720.0 -0.2076358756 0.2176357293 0.2976604963 -0.3094952455 0.2978762309 -0.3089697423 -0.1971761478 0.2114747468
385297690.0 -0.2057103723 0.220225294 0.2942248596 -0.3128857532 0.2940701589 -0.3127684709 -0.1947434634 0.2139530089
390297660.0 -0.2032461425 0.22275296 0.2907334174 -0.3162996895 0.2907125009 -0.3158430445 -0.1927736989 0.2162146194
395297630.0 -0.2007795633 0.2252675299 0.2875035541 -0.3193888365 0.2873609915 -0.3195125293 -0.1902169916 0.2181793982
400297600.0 -0.198541843 0.2274876502 0.2835106728 -0.3228435858 0.2836369451 -0.3221926501 -0.1881401028 0.2205836258
405297570.0 -0.1965623359 0.2292511627 0.280149136 -0.3250745884 0.2802417237 -0.3251482538 -0.186380828 0.2222309185
410297540.0 -0.1939586575 0.2316163426 0.2764759953 -0.3286156296 0.2769125494 -0.3284815093 -0.183609416 0.2251358782
415297510.0 -0.1912448561 0.2336987372 0.2727798804 -0.3315854872 0.2727066669 -0.3317267348 -0.1813674917 0.2270871686
420297480.0 -0.1891819297 0.236249441 0.2687804369 -0.3344040421 0.2689994528 -0.3347136686 -0.1791192371 0.2291793816
425297450.0 -0.186546494 0.2381486241 0.2653446015 -0.3375454331 0.2660183294 -0.3374278671 -0.1770269561 0.2313373977
430297420.0 -0.1843510452 0.2402687468 0.2617363881 -0.3401440908 0.2618012397 -0.3398125328 -0.1743600079 0.2330922333
435297390.0 -0.1818426725 0.2424921293 0.2576260824 -0.3430706606 0.2577859087 -0.3433201267 -0.1719301411 0.2349006148
440297360.0 -0.1792965252 0.2446674197 0.253773036 -0.3460959099 0.2543930087 -0.3461340512 -0.1695263333 0.2369847803
445297330.0 -0.1765527257 0.2464766078 0.2503891011 -0.3485217438 0.2506535593 -0.3484081273 -0.1668934724 0.2387015602
450297300.0 -0.1738541021 0.2485857442 0.246295209 -0.3511464564 0.2463994636 -0.3513100466 -0.1646541575 0.2407279292
455297270.0 -0.1720034368 0.25035129 0.2425490888 -0.3538563564 0.2429823552 -0.3539514313 -0.1622621299 0.2423703699
460297240.0 -0.1692227398 0.2523215958 0.2386421584 -0.3561308413 0.23899358 -0.356613761 -0.1597349271 0.2447250837
465297210.0 -0.1662757977 0.2545242714 0.2348786541 -0.3591530962 0.2348622995 -0.3592854271 -0.157106148 0.2461681345
470297180.0 -0.1637071414 0.2561673937 0.2307277193 -0.3614457263 0.2308531488 -0.3617730943 -0.1543525172 0.2483981541
475297150.0 -0.1609992076 0.2579402533 0.2264366911 -0.3637954044 0.2269707206 -0.3638657502 -0.1517891943 0.249843768
480297120.0 -0.1583850861 0.2602199434 0.2227060343 -0.366780149 0.2225758651 -0.3669896654 -0.1488215621 0.2517780187
485297090.0 -0.1558802063 0.2619301613 0.2189281605 -0.3686383532 0.2192388543 -0.3688200016 -0.1464376795 0.2533776741
490297060.0 -0.1531480461 0.2637196852 0.2149896769 -0.3714018817 0.2148369626 -0.3708806353 -0.1439599183 0.2552832802
495297030.0 -0.1503353267 0.2652318438 0.2103467246 -0.3735445082 0.2110062007 -0.3734018326 -0.141276063 0.2571941833
500297000.0 -0.1475467039 0.2670910065 0.2063272635 -0.375677089 0.2061759557 -0.3756206906 -0.1382771824 0.2591038933
505296970.0 -0.1447989105 0.2687282699 0.2025403086 -0.3779288896 0.2022824728 -0.3777337534 -0.1361047449 0.2601643357
510296940.0 -0.141822136 0.2705656984 0.1980310539 -0.3803006231 0.1981054108 -0.3802072952 -0.1331731146 0.2620337891
515296910.0 -0.1389530597 0.2720508518 0.1938440207 -0.3821381124 0.1940588585 -0.3823478983 -0.1304295545 0.2634199404
520296880.0 -0.1363548912 0.2739376702 0.1900295963 -0.3847936027 0.1901659756 -0.3839236015 -0.1278151906 0.2646249076
525296850.0 -0.1330624844 0.2749464451 0.1854656118 -0.3864978291 0.1856674167 -0.386375204 -0.1248625218 0.2665970893
530296820.0 -0.1305975105 0.2769398456 0.1812489644 -0.3885573483 0.1810262015 -0.3881590696 -0.1221277629 0.2677650006
535296790.0 -0.1277308898 0.2782916885 0.1773251261 -0.3901744447 0.177527987 -0.3896172493 -0.1197436344 0.2689568307
540296760.0 -0.1248429582 0.2795402217 0.1729172475 -0.3924185848 0.1728336554 -0.3921324657 -0.1169862249 0.2708459476
545296730.0 -0.1217434236 0.2815903879 0.168367883 -0.3940412688 0.1686154388 -0.3938641919 -0.1139642212 0.2718313945
550296700.0 -0.1188622611 0.2831317567 0.1643229245 -0.396198199 0.1644155896 -0.3956062534 -0.1111759306 0.2735062375
555296670.0 -0.1157443127 0.2838630368 0.1596990268 -0.3974328784 0.1601150528 -0.3974666493 -0.1083631737 0.2752507166
560296640.0 -0.1126599023 0.2854189316 0.1556535604 -0.3996044592 0.1556779393 -0.3992651931 -0.1050763984 0.2763619331
565296610.0 -0.1102117999 0.2866724877 0.1513460177 -0.4006415432 0.1514279516 -0.4006218855 -0.1021271373 0.2772091438
570296580.0 -0.1071566183 0.2881787959 0.1469401214 -0.4026963983 0.1465995123 -0.4023423203 -0.0997570704 0.2786987902
575296550.0 -0.1040076032 0.2895295817 0.1424222186 -0.4042418258 0.1426269098 -0.4038962429 -0.096564175 0.2796195474
580296520.0 -0.1006901494 0.2905811618 0.1379434455 -0.4051800631 0.1383534806 -0.4056287569 -0.0935347634 0.2809988743
585296490.0 -0.0977634957 0.2917312076 0.133540724 -0.4065814796 0.1338823502 -0.4069712908 -0.0905518791 0.2824589564
590296460.0 -0.0947180974 0.2928537859 0.1291088966 -0.4077415553 0.1293021765 -0.4084956262 -0.0878121192 0.2833230964
595296430.0 -0.0918773756 0.294080928 0.1244794782 -0.4098867489 0.1245682513 -0.4096317332 -0.0847025075 0.2842344015
600296400.0 -0.0889411052 0.2951135885 0.1201316001 -0.4108316227 0.1199832422 -0.4107444051 -0.0820681683 0.2853587565
605296370.0 -0.0859082932 0.2961620618 0.1156226469 -0.4120484479 0.1159767267 -0.4123346628 -0.0786045788 0.2864314156
610296340.0 -0.0825610226 0.2971686117 0.1108654665 -0.4132186789 0.1112571792 -0.4132183534 -0.0756784719 0.2873761838
615296310.0 -0.0790494551 0.298079673 0.1064392568 -0.4141986111 0.1064059823 -0.4148646201 -0.07226599 0.2881607268
620296280.0 -0.0762547509 0.298878413 0.101964637 -0.4152132969 0.1022084172 -0.4153155108 -0.0696091464 0.289430593
625296250.0 -0.0732773409 0.2999119941 0.0979790676 -0.4171874895 0.0974838388 -0.4168866029 -0.0661194355 0.2898600472
630296220.0 -0.0693239793 0.3009714135 0.0922661484 -0.4178559016 0.092664868 -0.4174182209 -0.0634053875 0.2909262908
635296190.0 -0.0670146085 0.3015817792 0.0885349461 -0.4182457036 0.0887964063 -0.4185455561 -0.0603912634 0.2917990887
640296160.0 -0.0637978035 0.3025601058 0.084039568 -0.4190219211 0.0841579595 -0.4194342316 -0.0569560678 0.2927559041
645296130.0 -0.060471537 0.3038116649 0.0791070574 -0.4201325299 0.0797137466 -0.4202561858 -0.0542531642 0.2936114451
650296100.0 -0.0572556862 0.3042127849 0.0747723077 -0.4207621821 0.074838404 -0.4208712484 -0.0509900042 0.2938239989
655296070.0 -0.054009851 0.3051286453 0.0701482974 -0.4218882435 0.0700828003 -0.4220617194 -0.0477150717 0.2945592585
660296040.0 -0.0510316873 0.305598676 0.0655885891 -0.422107002 0.0660653281 -0.4224552055 -0.0445610497 0.2952518901
665296010.0 -0.0473419531 0.3059927198 0.06071714 -0.4231384835 0.0610554793 -0.4233234956 -0.041358858 0.2962410078
670295980.0 -0.0452319713 0.3072748505 0.0566660159 -0.4238729938 0.056533639 -0.4234631847 -0.0388169644 0.2966401796
675295950.0 -0.0413893308 0.3076503011 0.0519581125 -0.4242043907 0.0523480413 -0.4237901058 -0.0358624215 0.2975135212
680295920.0 -0.0379720181 0.307958835 0.0469298685 -0.424360946 0.0468840971 -0.4252093995 -0.0324125585 0.2983642383
685295890.0 -0.0347866329 0.3089716823 0.0426326775 -0.4251960739 0.0424667761 -0.4252814173 -0.0289179948 0.2981303481
690295860.0 -0.031316123 0.3092419894 0.0379444242 -0.4254293827 0.0382528315 -0.425637682 -0.0263661652 0.2993032404
695295830.0 -0.0285957734 0.3095463453 0.0339591305 -0.4256704047 0.0333142262 -0.4257320802 -0.0230286326 0.2995038025
700295800.0 -0.0252626405 0.3098957137 0.0288008264 -0.425933429 0.0289717204 -0.4260996289 -0.0204040118 0.3000687557
705295770.0 -0.0223180765 0.3108668723 0.0241172593 -0.4263998517 0.0245379549 -0.42651754 -0.0168186539 0.3001215107
710295740.0 -0.018886535 0.3111138478 0.0197671718 -0.4270833464 0.0198896935 -0.4268603524 -0.0135793197 0.3001778504
715295710.0 -0.0158246265 0.3111348784 0.0152506029 -0.4267850117 0.015049979 -0.4267518177 -0.0106210183 0.3005178986
720295680.0 -0.0123793426 0.3115512821 0.0102040233 -0.4272075869 0.0105459222 -0.4270539586 -0.0072643654 0.3009294432
725295650.0 -0.008990632 0.3118184961 0.0055383199 -0.4269974633 0.006185877 -0.4271274754 -0.0045671388 0.3015521702
730295620.0 -0.0056371792 0.3122578915 0.0012518548 -0.4271113397 0.0012480765 -0.4267267146 -0.0014563183 0.3013197097
735295590.0 -0.002601156 0.3121871056 -0.0033124573 -0.4270385895 -0.0034670364 -0.4271678277 0.0017197928 0.3011719419
740295560.0 0.0005459604 0.3123271534 -0.0079567279 -0.4264913561 -0.008018872 -0.4269268338 0.00537226 0.301938426
745295530.0 0.0036976506 0.3125934834 -0.0127757822 -0.4263965807 -0.0125874578 -0.4267281052 0.0085694041 0.3013277338
750295500.0 0.0073223456 0.3126598673 -0.0171293982 -0.4263062286 -0.0173464337 -0.426395947 0.0118885697 0.3016247508
755295470.0 0.0103661168 0.3126876879 -0.0216772187 -0.4261374065 -0.0220300932 -0.4263701941 0.015013164 0.301450892
760295440.0 0.0135977924 0.312453937 -0.0267653025 -0.4261444144 -0.0264795868 -0.4262558201 0.0178292396 0.3013964603
765295410.0 0.017001526 0.3128494173 -0.0310898314 -0.425652381 -0.031172701 -0.4257157835 0.0211704956 0.3016046519
770295380.0 0.0196193513 0.3122725177 -0.0357282497 -0.4248248775 -0.0354963891 -0.4251439195 0.0240329014 0.3014949704
775295350.0 0.0230550453 0.3121770696 -0.0405115859 -0.4244373251 -0.0397879041 -0.4245727329 0.027069542 0.3013425943
780295320.0 0.026516846 0.3121988215 -0.0449110249 -0.4239267371 -0.0442881204 -0.4243952158 0.0302506296 0.3010216892
785295290.0 0.0298880663 0.3113073075 -0.0498736769 -0.4229201233 -0.0492419931 -0.4237381369 0.0341175865 0.3011260832
790295260.0 0.033639999 0.3121372196 -0.053666143 -0.4232347044 -0.0530801305 -0.4227471569 0.0368544239 0.301021916
795295230.0 0.0362512661 0.3117273649 -0.0584615253 -0.4222406281 -0.0581040383 -0.4223640477 0.0404987648 0.3005970743
800295200.0 0.0395671624 0.3113991866 -0.0634954694 -0.4210491828 -0.0630447433 -0.421560878 0.0435095235 0.3002840603
805295170.0 0.0430734053 0.3110197287 -0.0675490262 -0.4206540545 -0.067630124 -0.4213514596 0.0465722432 0.3001568627
810295140.0 0.0461328126 0.3103832202 -0.071777218 -0.4202834193 -0.071994553 -0.4202989312 0.0502590572 0.2997561161
815295110.0 0.049334331 0.3099742654 -0.0767351045 -0.418736368 -0.0765671252 -0.4194293489 0.0529645002 0.2992995091
820295080.0 0.0522771859 0.3100160864 -0.0810075623 -0.4184025442 -0.0808296531 -0.4183572551 0.0560258415 0.2991916156
825295050.0 0.0563791006 0.3093269167 -0.0855378731 -0.417429527 -0.0854530315 -0.4174677656 0.0592879544 0.2987957962
830295020.0 0.0593712233 0.3090830252 -0.090522185 -0.4162054884 -0.0903229581 -0.4163045337 0.0632155572 0.2982805486
