!Created with skrf (http://scikit-rf.org).
# Hz S RI R 50.0 
!freq ReS11 ImS11 ReS21 ImS21 ReS12 ImS12 ReS22 ImS22
300000.0 -0.0970177618 -0.085077006 0.6234929996 0.0804107612 0.626252241 0.0838973976 -0.0974037397 -0.0950608492
5299970.0 -0.1000232061 0.0128786155 0.6303621736 0.0101433 0.6305055289 0.0107488017 -0.1021115816 0.0119099856
10299940.0 -0.095250318 0.0297112839 0.6347310129 0.0157250379 0.6343762307 0.0160294717 -0.0971788244 0.0287693325
15299910.0 -0.0882885805 0.0432087282 0.6406509857 0.0205104577 0.6403459956 0.0209074222 -0.0900872744 0.0421319542
20299880.0 -0.0794777918 0.0543704262 0.6487203369 0.0239838983 0.6489282846 0.0240046365 -0.0816241711 0.0533307507
25299850.0 -0.0696544108 0.0627764232 0.657776271 0.0251034935 0.6579706836 0.0250565387 -0.0724957227 0.0619401068
30299820.0 -0.0594634615 0.0690691839 0.6681441174 0.0247350265 0.6671798541 0.0246333423 -0.0624964862 0.0686729491
35299790.0 -0.0492839158 0.0741628665 0.677328333 0.0215922183 0.6772045808 0.0215262161 -0.0523294265 0.0735109931
40299760.0 -0.0394114699 0.0770531055 0.6869727391 0.0175962896 0.6870450867 0.0175517972 -0.0433628265 0.0772523994
45299730.0 -0.0304477085 0.0792341166 0.6955803029 0.0116597419 0.6956954311 0.0121285741 -0.0340724309 0.0790141266
50299700.0 -0.0217214709 0.0796596109 0.7035799483 0.0045420492 0.7035140984 0.0043093091 -0.0252140292 0.079789712
55299670.0 -0.0141454725 0.0798866829 0.710283775 -0.0031741605 0.7112017319 -0.0028268645 -0.0177778709 0.079953503
60299640.0 -0.0066334819 0.0787360897 0.7172180089 -0.0113388781 0.7177638144 -0.0112615217 -0.0103595623 0.0797180991
65299610.0 -0.000249676 0.0780340481 0.7238346677 -0.01949023 0.7235401777 -0.0199699363 -0.0038303741 0.0785002894
70299580.0 0.0060678669 0.0756637369 0.728394412 -0.0292715373 0.7281877083 -0.0293521097 0.002539124 0.0771855778
75299550.0 0.011633375 0.0742524265 0.7325944737 -0.0389232488 0.732755627 -0.0391443655 0.0081196186 0.0758154508
80299520.0 0.0162497488 0.0720836337 0.737683669 -0.0490365868 0.7378082646 -0.0486389542 0.0129537628 0.0728152276
85299490.0 0.0207641586 0.0696092165 0.7402605782 -0.0589196318 0.7404853044 -0.0591430411 0.0173391496 0.0709015564
90299460.0 0.0247249751 0.0673322844 0.7433403068 -0.069085451 0.7437285648 -0.0690785805 0.0221391674 0.0690257343
95299430.0 0.0283345915 0.0652384938 0.7461431841 -0.0793683186 0.7458827421 -0.0791715657 0.0253029681 0.0662384586
100299400.0 0.0315882432 0.0626456047 0.7475884175 -0.0894081707 0.7473415926 -0.0889829336 0.0286805727 0.0639841064
105299370.0 0.0346225364 0.0601930078 0.7485870434 -0.0991183393 0.7488061883 -0.0993335102 0.0319463203 0.0618216888
110299340.0 0.036916834 0.0577157498 0.7495992432 -0.1089323792 0.749963206 -0.1096298045 0.0349571884 0.0590675865
115299310.0 0.0398239345 0.054798072 0.7509119188 -0.1192035008 0.7510306512 -0.1190343134 0.0371873434 0.0561694822
120299280.0 0.041304281 0.052494792 0.751702996 -0.1297428618 0.7513494176 -0.1295686821 0.0387717134 0.0542292786
125299250.0 0.0432677258 0.050136614 0.7517622832 -0.1397200402 0.7519421067 -0.1398908545 0.0415056019 0.0514398245
130299220.0 0.0450176262 0.0478145692 0.7514195393 -0.1485326194 0.7516038643 -0.14927969 0.0434010778 0.0495359981
135299190.0 0.0468642125 0.0453233319 0.7513151512 -0.1586983806 0.7507769473 -0.1590366805 0.0443710903 0.047553103
140299160.0 0.0477020896 0.0440690012 0.7511124543 -0.1688697967 0.7511877646 -0.1690588888 0.0461740302 0.0456269823
145299130.0 0.0492557978 0.0417133441 0.7500242114 -0.1785763369 0.7496942708 -0.1784709124 0.0470931868 0.0428310744
150299100.0 0.0507583551 0.0398157944 0.7492139542 -0.1882594775 0.7489276013 -0.1879482434 0.04873204 0.0406813181
155299070.0 0.0513099948 0.0383278083 0.7479086952 -0.1982989617 0.7478240011 -0.1983452474 0.0492638812 0.0388498466
160299040.0 0.0523092163 0.0356988026 0.7459688375 -0.2072884608 0.7467786022 -0.207471913 0.0506523662 0.0372180126
165299010.0 0.0527740633 0.0342386312 0.7446599336 -0.21687977 0.7450554865 -0.2169585598 0.0515038494 0.0348905562
170298980.0 0.0532864784 0.0327021719 0.7419848807 -0.2262336541 0.7425738116 -0.2266296336 0.0526814255 0.032925539
175298950.0 0.0543352638 0.0306665247 0.7413227693 -0.2353262047 0.7418899681 -0.2352408183 0.0530946014 0.0307490231
180298920.0 0.0552385538 0.0292319621 0.7391976164 -0.2448198759 0.7387183266 -0.2442426109 0.0536947085 0.0299092325
185298890.0 0.0560048383 0.027461212 0.7371717725 -0.2540143113 0.736756235 -0.253832591 0.0544158452 0.0275794226
190298860.0 0.0563449105 0.0256979049 0.7336422926 -0.2637770305 0.7347548908 -0.2628931262 0.0553593028 0.0261261714
195298830.0 0.056191301 0.0238823359 0.7317271364 -0.2715585404 0.7321891191 -0.2720020593 0.0556880818 0.0241745375
200298800.0 0.0569463657 0.0227088114 0.7294375097 -0.2804563185 0.7293911659 -0.2803144526 0.0560518889 0.0230074568
205298770.0 0.0570639025 0.0214125015 0.7271624291 -0.2893063166 0.7268842455 -0.2896379923 0.0564478261 0.0207174736
210298740.0 0.0572032555 0.0197377029 0.7240208427 -0.2992550195 0.7234157312 -0.2988296552 0.0567659169 0.0199114711
215298710.0 0.0578335519 0.0187549539 0.7208187014 -0.3072393711 0.7205759009 -0.3071908628 0.0568853232 0.0182490556
220298680.0 0.058292695 0.0170883197 0.7173405154 -0.3162514445 0.7172821351 -0.3159413112 0.0572019682 0.0171665798
225298650.0 0.0587002088 0.0161804317 0.7140138508 -0.3237224022 0.7135665287 -0.3243791731 0.0576115686 0.0155885827
230298620.0 0.0580541317 0.0149522652 0.7113242534 -0.3327450199 0.7105005092 -0.333060722 0.0577867507 0.014318287
235298590.0 0.0586382461 0.013223522 0.7075939259 -0.3410677776 0.7072900937 -0.3417132652 0.0580084147 0.0126364314
240298560.0 0.058168713 0.0120463822 0.7041358917 -0.3490231708 0.7037501747 -0.3493859839 0.0581312648 0.0115586734
245298530.0 0.0590437472 0.0110826193 0.6993279121 -0.3582074505 0.6996686243 -0.3580147924 0.0581665741 0.0104781276
250298500.0 0.058536012 0.0097123096 0.6960578591 -0.3655990079 0.6960778634 -0.3656215069 0.0584956965 0.0088053549
255298470.0 0.0582400916 0.0088887956 0.6917103265 -0.3745373808 0.6918949059 -0.374042386 0.0587009845 0.0075202443
260298440.0 0.0585567877 0.0075163862 0.6879637991 -0.3821185483 0.6883349602 -0.3826959862 0.0594126338 0.0067850013
265298410.0 0.0590378903 0.00700755 0.6841460168 -0.3913652124 0.6836683222 -0.3908702413 0.0585064039 0.0052195645
270298380.0 0.0589957517 0.0054701279 0.6791014404 -0.3985006671 0.6798706463 -0.3987165643 0.0591140207 0.0051646235
275298350.0 0.0582932397 0.0047311998 0.6752938873 -0.4067412352 0.6756575931 -0.4067353162 0.0588257714 0.0036801218
280298320.0 0.0587108966 0.0040190114 0.6709086969 -0.4138140342 0.670757119 -0.4140781386 0.059185814 0.0026380066
285298290.0 0.0587440083 0.0030257552 0.6662719869 -0.4219802425 0.6663821792 -0.4219011009 0.0589247002 0.0013554824
290298260.0 0.0587303092 0.001703664 0.6625352649 -0.4299089322 0.6623009399 -0.4299997666 0.0596566661 0.0006554934
295298230.0 0.0586178936 0.0006094665 0.657678293 -0.4376001584 0.6572355844 -0.4375409047 0.0595606981 -0.0004552514
300298200.0 0.0592204397 -6.91973e-05 0.6529055709 -0.4452309488 0.6527654633 -0.4456035926 0.0591634287 -0.0013357934
305298170.0 0.0589299719 -0.0015841168 0.6481048319 -0.4528285066 0.6489497354 -0.4532318828 0.0595691543 -0.0021952226
310298140.0 0.0595966085 -0.0026047075 0.6437824015 -0.4604854025 0.6432308745 -0.4610193512 0.0598218845 -0.0030348208
315298110.0 0.0587930252 -0.0034249984 0.6384395124 -0.4679384667 0.638535025 -0.4686080757 0.0600729062 -0.0047933078
320298080.0 0.0586480231 -0.004597437 0.6329777659 -0.4759535539 0.6334091687 -0.475889233 0.0594470517 -0.0059735244
325298050.0 0.0580673314 -0.0058534493 0.6278395114 -0.4833793908 0.6283383178 -0.4835869783 0.0591910227 -0.0069015138
330298020.0 0.0580578515 -0.0064977428 0.621550817 -0.4906684512 0.6214104271 -0.4910068014 0.0583364801 -0.0084015857
335297990.0 0.0573428015 -0.007791163 0.6160103481 -0.4976634678 0.6163745325 -0.4982038248 0.0580809718 -0.0089890863
340297960.0 0.0564489314 -0.0081124488 0.6100275256 -0.5045958502 0.61064601 -0.5046157358 0.0575533869 -0.0094195531
345297930.0 0.0560768211 -0.0087465799 0.6051191068 -0.5108524999 0.6043745993 -0.5112490339 0.0578912228 -0.0107996777
350297900.0 0.0564202114 -0.0096320658 0.5989725906 -0.5176819211 0.5990367811 -0.517890762 0.0568186507 -0.0107276695
355297870.0 0.0559494098 -0.0105296184 0.5927827313 -0.5250721576 0.5929309562 -0.5250077971 0.0564539335 -0.0114601343
360297840.0 0.0561773352 -0.0107188822 0.5874893263 -0.5316405718 0.5869407408 -0.5316369377 0.0564369156 -0.011837282
365297810.0 0.0556431578 -0.0116203864 0.5810058026 -0.5377515381 0.581462588 -0.537864823 0.0558312075 -0.0125412388
370297780.0 0.0556234848 -0.0125563401 0.5756263428 -0.5443515196 0.5757391648 -0.5446327336 0.0560648934 -0.013079346
375297750.0 0.0549794935 -0.0126218673 0.5701219161 -0.5509662379 0.569260279 -0.5516702923 0.0556228814 -0.0136189303
380297720.0 0.055091855 -0.013971685 0.5634996552 -0.5567925768 0.5632567509 -0.5574425756 0.0551711952 -0.0141773373
385297690.0 0.0548015061 -0.014094447 0.5577156674 -0.5632254426 0.5569228976 -0.5636939515 0.0549675832 -0.0149080662
390297660.0 0.0543179281 -0.0147468853 0.5505743245 -0.5702428548 0.5506655016 -0.5701505449 0.0548746602 -0.0156738955
395297630.0 0.0543853186 -0.0159570677 0.5450375822 -0.5758529603 0.5445971585 -0.5760085169 0.0544983396 -0.0159103185
400297600.0 0.0535018651 -0.0160375616 0.5381293692 -0.5822585199 0.5384594171 -0.5822814055 0.0532097736 -0.0170353425
405297570.0 0.0538407254 -0.0163397014 0.5319989711 -0.5873081653 0.5321729401 -0.588221505 0.0536638864 -0.016981778
410297540.0 0.0536654779 -0.0174500276 0.5246965096 -0.5937787782 0.5251066829 -0.5938862267 0.052991255 -0.0179087647
415297510.0 0.0532141659 -0.017396858 0.5189565584 -0.5991504388 0.5192044189 -0.5997748478 0.0525816213 -0.0179553781
420297480.0 0.0530619852 -0.0189799397 0.5117505219 -0.6054686989 0.5123397308 -0.6057945809 0.0527563634 -0.0190756211
425297450.0 0.0532550337 -0.0196168831 0.5055008392 -0.6108707771 0.5062954407 -0.6110375003 0.052122113 -0.0193459471
430297420.0 0.0523691015 -0.0195458698 0.4986142715 -0.6171917876 0.4989488758 -0.61693005 0.0514934873 -0.0205397585
435297390.0 0.0524357493 -0.0206941082 0.4922780192 -0.6219394985 0.4919739112 -0.6219553514 0.051211281 -0.0199786868
440297360.0 0.0522572581 -0.0214316181 0.4849697404 -0.6283243874 0.4850480775 -0.6278479905 0.0508103431 -0.021526052
445297330.0 0.0522070917 -0.0220722819 0.4779086469 -0.6334490239 0.4779051995 -0.6330858215 0.0505122085 -0.0219396898
450297300.0 0.0518106715 -0.0224571725 0.4710461018 -0.638145893 0.4715667182 -0.6386098349 0.0503259922 -0.0221436868
455297270.0 0.0510036513 -0.0232299564 0.4645951669 -0.6437578071 0.4649637227 -0.6438069371 0.0501206142 -0.0226667427
460297240.0 0.0503518022 -0.0238893153 0.4569123035 -0.6482772669 0.4568236106 -0.6486467588 0.049693955 -0.0224457024
465297210.0 0.0506085266 -0.0246657403 0.4504323649 -0.6541121181 0.4508750955 -0.6536760805 0.0489337227 -0.0239345817
470297180.0 0.0498464028 -0.0251698716 0.4429356368 -0.6586312438 0.4434746354 -0.6588668267 0.0479323104 -0.024350175
475297150.0 0.0491647233 -0.0263293482 0.4355379298 -0.6632437517 0.435654143 -0.6630322747 0.0480550201 -0.0245428146
480297120.0 0.0498602848 -0.0268635132 0.428353422 -0.6678234901 0.4281881806 -0.6679060456 0.0473388439 -0.0244774074
485297090.0 0.0492879751 -0.0272260109 0.421353389 -0.6726873823 0.4213947935 -0.673812041 0.0469206823 -0.0259873037
490297060.0 0.0489829461 -0.0282229907 0.4137343163 -0.677717918 0.4132514222 -0.6777195878 0.047023904 -0.0256602759
495297030.0 0.0478611079 -0.0282019049 0.4059417089 -0.6824684004 0.4058302477 -0.6819265418 0.0465015134 -0.0264388556
500297000.0 0.047863614 -0.0293518432 0.3984253726 -0.6865214234 0.398582304 -0.6869783925 0.0453200466 -0.0271017062
505296970.0 0.0471290283 -0.0296688543 0.3903482025 -0.6907432673 0.3907756238 -0.6908703709 0.044789942 -0.0275144749
510296940.0 0.0468313488 -0.0300644507 0.3831514152 -0.6954896329 0.3833835708 -0.6955368825 0.0450034212 -0.0273847759
515296910.0 0.0459792993 -0.0306586038 0.3758286532 -0.6990589125 0.3758806607 -0.6997236741 0.0440435026 -0.0282245548
520296880.0 0.0458734022 -0.03135262 0.3675639753 -0.7033650993 0.3685808299 -0.7035499466 0.0441720634 -0.02846599
525296850.0 0.0453180293 -0.0322395166 0.3602760063 -0.7078498264 0.3603205366 -0.7074911147 0.0437117339 -0.0289474565
530296820.0 0.0447912512 -0.0323622545 0.3526045487 -0.7108076701 0.3524894987 -0.7117368462 0.042642776 -0.0300432641
535296790.0 0.0441333746 -0.0330038921 0.3442232816 -0.7145857716 0.3447924737 -0.7153320804 0.042399267 -0.0304319859
540296760.0 0.0438261667 -0.0339788154 0.3368607292 -0.719382455 0.33635398 -0.7198394935 0.0412938623 -0.0302127205
545296730.0 0.0433307515 -0.033452316 0.3286522211 -0.7220357951 0.3285637243 -0.7232623033 0.0411271162 -0.0311667732
550296700.0 0.0426185496 -0.0345371637 0.3211815269 -0.7263031747 0.3214765034 -0.726223324 0.0405611643 -0.030437237
555296670.0 0.0424600709 -0.0351631347 0.313133087 -0.7300998003 0.3131021578 -0.7299392926 0.0400066741 -0.0312358311
560296640.0 0.041882637 -0.0356208912 0.3057404546 -0.7329826136 0.3050001584 -0.7331367467 0.0396449974 -0.0316467112
565296610.0 0.040460488 -0.0361039435 0.2969699316 -0.7364430521 0.2966221846 -0.7368988149 0.0392118318 -0.0326496718
570296580.0 0.0409450038 -0.0366305692 0.2890155743 -0.7394833611 0.2894122151 -0.7400928612 0.038905045 -0.0317719234
575296550.0 0.040322334 -0.0362433266 0.2805116654 -0.7421573277 0.2811367012 -0.7424483207 0.0385098789 -0.0327739916
580296520.0 0.0393273672 -0.0371439164 0.2734099956 -0.7457143449 0.2723575646 -0.7460630286 0.0373160681 -0.0332597782
585296490.0 0.039193807 -0.0378502771 0.2650900463 -0.7486304513 0.2645313992 -0.748437301 0.0369929776 -0.0341187332
590296460.0 0.0380932067 -0.0385737183 0.2560943511 -0.7517796866 0.2561134424 -0.7515965189 0.0366907598 -0.033728588
595296430.0 0.0375278417 -0.0383262309 0.248513281 -0.7542940931 0.2481668093 -0.7548812855 0.0364876245 -0.0341970768
600296400.0 0.037186452 -0.038688617 0.2399415976 -0.7574231613 0.24051312 -0.7572744889 0.0353922242 -0.0341752001
605296370.0 0.0367147854 -0.0388674157 0.2315980314 -0.7599809426 0.2315287284 -0.7598664457 0.0349419669 -0.0352360577
610296340.0 0.0358614302 -0.0394151012 0.2239302165 -0.7622472068 0.2236370786 -0.7625556324 0.0343831395 -0.0346262507
615296310.0 0.0352589149 -0.0395072449 0.2146293777 -0.7643133146 0.2150956915 -0.7648753995 0.0342195918 -0.0349680863
620296280.0 0.0345584042 -0.0400105534 0.206848428 -0.7664631777 0.2069675265 -0.7669069176 0.0333748288 -0.0357375644
625296250.0 0.0346548445 -0.0403131674 0.1977109485 -0.7695340995 0.1982948043 -0.7692958393 0.0331418705 -0.0353189109
630296220.0 0.0336169018 -0.0403917087 0.189643796 -0.7715529806 0.1905246067 -0.7712242921 0.0319645102 -0.0360251258
635296190.0 0.0330708521 -0.0409918756 0.181735513 -0.7729305084 0.181157585 -0.7727693144 0.0315127863 -0.0364755449
640296160.0 0.0321575033 -0.0411195715 0.1734589832 -0.7749175815 0.1732163998 -0.7757122623 0.0316915035 -0.0366581385
645296130.0 0.0318791663 -0.0411233272 0.164676474 -0.7771169937 0.1644864916 -0.7771908004 0.0294633415 -0.0373069338
650296100.0 0.0309919385 -0.0407468134 0.1564321693 -0.7783262044 0.1564321493 -0.7782970095 0.029859525 -0.0373533648
655296070.0 0.030299699 -0.0420439583 0.147969756 -0.780481662 0.1473362895 -0.7799837226 0.0299593854 -0.0368309921
660296040.0 0.0290544437 -0.0418629034 0.1387082422 -0.7814973845 0.1395448754 -0.7814670394 0.0284403041 -0.0378240265
665296010.0 0.0292944701 -0.0422107196 0.1307235048 -0.7833438065 0.1310350717 -0.7831506027 0.0276894416 -0.0374179339
670295980.0 0.0290874154 -0.0421021095 0.1225672054 -0.7843614435 0.1223915384 -0.7845664415 0.0269205843 -0.0381154046
675295950.0 0.0282701487 -0.042406079 0.1135038874 -0.7860739175 0.1140726661 -0.7865727041 0.026733648 -0.0377586893
680295920.0 0.0274124562 -0.0424254151 0.1053712206 -0.7872193159 0.1050438633 -0.7874375999 0.0261428021 -0.0383070296
685295890.0 0.0266494288 -0.042826445 0.0971671844 -0.7880717708 0.0966062034 -0.7885486973 0.0257041272 -0.0381808504
690295860.0 0.0265496941 -0.0432020519 0.0882539389 -0.7887510198 0.0874090441 -0.788680355 0.0255598508 -0.0381506403
695295830.0 0.0262546357 -0.043488755 0.0787910148 -0.7895548521 0.0784502103 -0.7901863259 0.0240243731 -0.038499277
700295800.0 0.0257798531 -0.0435753183 0.0706047768 -0.7908790835 0.0704149856 -0.7913471829 0.0236652975 -0.0395319468
705295770.0 0.0247571512 -0.0434625431 0.061616815 -0.7917316927 0.0620895478 -0.7914736366 0.0228521914 -0.0391724138
710295740.0 0.0240032067 -0.0434400363 0.0530273025 -0.7925214166 0.0530447905 -0.7919378691 0.0215116428 -0.0389015837
715295710.0 0.0236168247 -0.0438022477 0.0447418277 -0.7924106807 0.0449141761 -0.7927412529 0.0215415202 -0.0399069284
720295680.0 0.0227229211 -0.0440227388 0.0361739345 -0.792931543 0.0361502692 -0.793646646 0.0217085553 -0.0396669047
725295650.0 0.0225430771 -0.0441047031 0.0273569741 -0.7933437291 0.0271381607 -0.7931912154 0.0207363052 -0.0392094499
730295620.0 0.0213249145 -0.0444305937 0.018521956 -0.7935320707 0.0183272083 -0.7938204615 0.0205107889 -0.0404905069
735295590.0 0.0211122575 -0.0440475389 0.0106448463 -0.793228082 0.0103041019 -0.794000747 0.0194156984 -0.039682657
740295560.0 0.0202698675 -0.0441771194 0.0018525006 -0.7934177204 0.0012524553 -0.7939489777 0.0192595793 -0.039974562
745295530.0 0.0199153811 -0.0448166375 -0.0070213895 -0.7942240347 -0.0069509555 -0.7940943902 0.0180707854 -0.0399908865
750295500.0 0.0192435978 -0.0449056137 -0.0156304696 -0.7933711609 -0.0158820129 -0.7934036358 0.0179809516 -0.0404553869
755295470.0 0.0188227224 -0.0445696202 -0.0238611996 -0.7935914216 -0.0246074893 -0.7937336887 0.0164929605 -0.0399463766
760295440.0 0.0179131649 -0.04450404 -0.0334242828 -0.7935873884 -0.0332848615 -0.7933267771 0.0158563861 -0.0403716339
765295410.0 0.0171677413 -0.0453280131 -0.0408187767 -0.7922990293 -0.0412812354 -0.7932564858 0.0165374084 -0.0399873144
770295380.0 0.0170370407 -0.0447877618 -0.0498817141 -0.7918064007 -0.0503357814 -0.7925156195 0.0156572659 -0.0400473343
775295350.0 0.0160566132 -0.0447526792 -0.0585047619 -0.7910741944 -0.0583120748 -0.7916344659 0.0146872212 -0.0410873388
780295320.0 0.0157618522 -0.0448022562 -0.0667186162 -0.7906705406 -0.0671695407 -0.7909164459 0.0139795024 -0.0399793652
785295290.0 0.0146536894 -0.0445093059 -0.0760961318 -0.7890783377 -0.0761929318 -0.7904108096 0.0130678938 -0.0403408897
790295260.0 0.0141702237 -0.0444149074 -0.0853170342 -0.7892682179 -0.0842581048 -0.7895400162 0.0131032191 -0.0406512461
795295230.0 0.01322631 -0.0448237512 -0.0924156713 -0.7880188784 -0.0927713349 -0.7881500076 0.0122797333 -0.039833751
800295200.0 0.0128780114 -0.0444974224 -0.1016590764 -0.7871498791 -0.1019968519 -0.787525496 0.0116794865 -0.0402210198
805295170.0 0.0117372197 -0.0448382861 -0.1102077161 -0.7853669147 -0.110080831 -0.7860298542 0.0109160666 -0.0405832329
810295140.0 0.0113059314 -0.0447007302 -0.1187265552 -0.7848136441 -0.1187773992 -0.7850487315 0.0105811326 -0.0398478078
815295110.0 0.0107150526 -0.0442021998 -0.1271744881 -0.7829575538 -0.1278337079 -0.7834204918 0.009500676 -0.0405773629
820295080.0 0.0102137045 -0.0446675091 -0.1352283977 -0.7818704926 -0.1358531601 -0.7824507084 0.008966714 -0.0403628694
825295050.0 0.0094705723 -0.0448722312 -0.1440550092 -0.7792586708 -0.144235174 -0.7801987676 0.0088155647 -0.0395722071
830295020.0 0.0086991646 -0.0440586404 -0.1527387365 -0.7787151501 -0.1530111977 -0.7793042106 0.0082858011 -0.0401899281
