!Created with skrf (http://scikit-rf.org).
# Hz S RI R 50.0 
!freq ReS11 ImS11 ReS21 ImS21 ReS12 ImS12 ReS22 ImS22
300000.0 -0.2388620306 -0.0981735362 0.4673378301 0.0641440444 0.4674628997 0.0695307937 -0.2361144809 -0.1088861343
5299970.0 -0.2437178827 0.0072007073 0.4737275534 0.0051050826 0.473606407 0.0058440741 -0.2439292809 0.0058690733
10299940.0 -0.2404254771 0.0197556153 0.4758758343 0.0064584927 0.4758348621 0.006545461 -0.240954031 0.0184482598
15299910.0 -0.2359776677 0.0294136985 0.4793155295 0.0075797024 0.4792006088 0.0077992861 -0.2365647366 0.0273846694
20299880.0 -0.2304569351 0.0373312432 0.4839109722 0.0078389985 0.4842840365 0.0084389038 -0.231973638 0.035354636
25299850.0 -0.2247520618 0.0434953246 0.4893705818 0.0069472885 0.4896115124 0.0076415151 -0.2270911187 0.0418577813
30299820.0 -0.2186419739 0.0485303789 0.49514538 0.0053600261 0.4945684867 0.0052244186 -0.2213323329 0.047041333
35299790.0 -0.2129868247 0.052685227 0.5001246631 0.0017384546 0.5002210587 0.0021029787 -0.2159610099 0.0512188646
40299760.0 -0.2074563687 0.0555982787 0.5049269534 -0.0012503029 0.5051759599 -0.0018679422 -0.2110946645 0.0548144164
45299730.0 -0.2024315748 0.0585004685 0.5101446349 -0.0067090084 0.5103925341 -0.0067822281 -0.2065289062 0.0573951346
50299700.0 -0.1977898185 0.060038151 0.5139166132 -0.0116738118 0.5144723948 -0.0122754863 -0.2020662617 0.0597150406
55299670.0 -0.1937703059 0.0616470733 0.5177932147 -0.0179309423 0.5182652143 -0.017870975 -0.198327579 0.06153036
60299640.0 -0.189429103 0.0626738655 0.5212833545 -0.0243905245 0.5214360044 -0.0241138487 -0.1943145627 0.0630313975
65299610.0 -0.1862024719 0.0635632049 0.5246309052 -0.0302753771 0.5244625436 -0.0303486905 -0.1909137239 0.0646950454
70299580.0 -0.1826432027 0.064301896 0.5268078808 -0.0369681603 0.5265306683 -0.0373675416 -0.1878423241 0.0656088225
75299550.0 -0.1795145233 0.06511071 0.5288854277 -0.0438574525 0.5287786076 -0.0439940587 -0.1849889012 0.0669333394
80299520.0 -0.1772593665 0.0656036425 0.5308942839 -0.0509214007 0.5309596247 -0.0509922428 -0.1825701929 0.0674844038
85299490.0 -0.1745324548 0.0658317055 0.5321784021 -0.0579077977 0.5318888349 -0.0579339746 -0.1800103838 0.0686597568
90299460.0 -0.1725208146 0.0663649947 0.5330111789 -0.0644043587 0.5331173696 -0.0647353679 -0.1777201887 0.0692669471
95299430.0 -0.1706232387 0.0671346625 0.5338634114 -0.07209679 0.5342034339 -0.07158961 -0.1759022729 0.0701665113
100299400.0 -0.1686216626 0.0678247037 0.5343120283 -0.0788817145 0.5342344714 -0.0787857124 -0.1740257934 0.0707882244
105299370.0 -0.1667812385 0.0681465673 0.5345662235 -0.0852538232 0.5348747312 -0.0856386302 -0.1721597567 0.0719183654
110299340.0 -0.1654213287 0.0683812227 0.5345210844 -0.0919338205 0.5348678873 -0.0924781869 -0.1707151798 0.0724975312
115299310.0 -0.1640092722 0.0686976129 0.5344849625 -0.0986553415 0.5348782109 -0.0988559323 -0.16884526 0.0731391597
120299280.0 -0.1629626403 0.0693206101 0.5346529001 -0.1060430487 0.5345928421 -0.1060782721 -0.1678153422 0.0742211568
125299250.0 -0.1619137106 0.0699282833 0.5344957711 -0.1127133538 0.5346646015 -0.1125918265 -0.1663268631 0.0748061346
130299220.0 -0.1606536529 0.070528845 0.5338466602 -0.118952977 0.5339342313 -0.1194669766 -0.165224289 0.0759691791
135299190.0 -0.1593625384 0.0711414051 0.5331261232 -0.1258381816 0.5325368952 -0.126053089 -0.1641760928 0.0769280863
140299160.0 -0.1586257075 0.0721202404 0.5325427793 -0.1323778407 0.532266189 -0.1329160076 -0.162876787 0.0778852244
145299130.0 -0.1573768826 0.072711951 0.5316009504 -0.1393500671 0.5309451562 -0.1392812139 -0.1618995277 0.0788703282
150299100.0 -0.15642241 0.0737738163 0.5303736704 -0.1461856429 0.5302966133 -0.1459024248 -0.1606974062 0.0801113628
155299070.0 -0.155861857 0.0748108863 0.5291629538 -0.152999866 0.5290243556 -0.1525661217 -0.1600804408 0.0810034961
160299040.0 -0.1549410015 0.0753135389 0.5275142549 -0.1585434547 0.5275965612 -0.1588297407 -0.1591135932 0.0825677914
165299010.0 -0.1544057371 0.075997754 0.5266110102 -0.1649865751 0.5263867097 -0.1652642324 -0.1581481946 0.0830878563
170298980.0 -0.1535990427 0.0772700569 0.5241692695 -0.1714246625 0.5247311184 -0.1715082657 -0.1568420798 0.0842011795
175298950.0 -0.152600923 0.0784065877 0.5234599182 -0.1780490624 0.523052457 -0.1779105828 -0.1560866734 0.0856483157
180298920.0 -0.1517663735 0.0791379757 0.5213489934 -0.184403308 0.5214206053 -0.1838997667 -0.1549415589 0.0869692841
185298890.0 -0.1505100708 0.080346236 0.5190084628 -0.1905431075 0.5193927453 -0.1902633614 -0.1541949144 0.087836274
190298860.0 -0.1502372668 0.081370395 0.5177170442 -0.1967262478 0.517925112 -0.1964414585 -0.1526748596 0.089310445
195298830.0 -0.1497539442 0.0820730914 0.5157582228 -0.2024160568 0.5158985834 -0.2028461523 -0.1519854584 0.0904049107
200298800.0 -0.1488703516 0.0834731414 0.5139753196 -0.2082154937 0.5135309424 -0.2088625052 -0.1507831705 0.0920862259
205298770.0 -0.1481850602 0.084463145 0.5113662773 -0.2145655614 0.5114316254 -0.2149403331 -0.1502145636 0.0930614603
210298740.0 -0.1475897196 0.0854447148 0.5093281868 -0.2210229376 0.509366901 -0.221088263 -0.149050295 0.0945235482
215298710.0 -0.1465953374 0.0869609017 0.5068175766 -0.2268956238 0.5071317532 -0.2266103726 -0.1481693878 0.0957809378
220298680.0 -0.1461090588 0.0879465363 0.504482721 -0.2326346267 0.5043495227 -0.2328473732 -0.1470596271 0.0975550605
225298650.0 -0.1448768823 0.0893720675 0.5017602898 -0.238594726 0.5015125474 -0.2382905912 -0.1464376296 0.0990048689
230298620.0 -0.1443083634 0.090787411 0.4997653267 -0.2446834613 0.4995821106 -0.2446283319 -0.1451950977 0.1003172017
235298590.0 -0.1435945347 0.0916315559 0.4967417234 -0.2498945355 0.4970172396 -0.2503014938 -0.1440153787 0.1013783485
240298560.0 -0.1430001126 0.0929434854 0.4940605847 -0.2554501055 0.4939603015 -0.2552613558 -0.1430081423 0.1032815241
245298530.0 -0.142035651 0.0943221132 0.4908768583 -0.2616515258 0.4911979354 -0.261706 -0.1419836071 0.1045569348
250298500.0 -0.1414601353 0.0951930386 0.4885486778 -0.2670603345 0.4887061813 -0.2665033201 -0.1402970369 0.106186784
255298470.0 -0.1407703536 0.0968499108 0.4855136665 -0.272750573 0.4854335822 -0.2726853638 -0.1396658526 0.1071939068
260298440.0 -0.1399732909 0.0980492151 0.4831882725 -0.2781694472 0.4826000697 -0.2783107262 -0.1380962382 0.1091020577
265298410.0 -0.1385972001 0.0995891832 0.4794493917 -0.2839569637 0.479447544 -0.2840896101 -0.1373329832 0.1100564384
270298380.0 -0.1375053432 0.1004524868 0.4760681702 -0.2890910752 0.4768993657 -0.2894470721 -0.1358748529 0.1115793987
275298350.0 -0.1370903615 0.1021925407 0.4732459132 -0.2950652442 0.4733557771 -0.2949320412 -0.134729644 0.113257472
280298320.0 -0.1362168439 0.1033213547 0.4697583719 -0.2995969465 0.4699745475 -0.3003404163 -0.1333091967 0.1148022507
285298290.0 -0.1351958137 0.1047569489 0.466725827 -0.3055494536 0.4664755484 -0.305611107 -0.132594806 0.1163008167
290298260.0 -0.1343608358 0.1057974049 0.4636033698 -0.3109844677 0.4632722959 -0.3107958235 -0.1309140605 0.1177682552
295298230.0 -0.1332009851 0.1070283343 0.4605174984 -0.3158792029 0.4599598999 -0.3162661077 -0.1293733666 0.1192513866
300298200.0 -0.1318280228 0.1082801564 0.4563323596 -0.3212917585 0.4568542889 -0.3213212149 -0.128292104 0.1207549667
305298170.0 -0.1312040347 0.1094909285 0.4533529471 -0.3267025857 0.4535608367 -0.3265451461 -0.1268039963 0.1222282959
310298140.0 -0.1298395228 0.1106966143 0.4502737647 -0.3318354014 0.4494887025 -0.3325341886 -0.1252185899 0.1238999058
315298110.0 -0.1292199187 0.1118840342 0.446019781 -0.3368362259 0.4461436161 -0.3371600434 -0.1237375377 0.1249501841
320298080.0 -0.1279891852 0.1132073082 0.442551815 -0.3422088442 0.4423516476 -0.3419018721 -0.1225868032 0.1260015626
325298050.0 -0.1274098784 0.114083751 0.438762441 -0.3471686438 0.4386401477 -0.3473618587 -0.121298385 0.1277731034
330298020.0 -0.1263589444 0.1155672877 0.4340591093 -0.3525252771 0.4340889379 -0.3522361997 -0.120030781 0.1287488643
335297990.0 -0.1252644547 0.1166187848 0.4306580394 -0.3573406871 0.4305601309 -0.3573253214 -0.1190412392 0.1302466136
340297960.0 -0.1248422859 0.1181336205 0.4262186637 -0.36196555 0.4265233712 -0.362114995 -0.1177836301 0.1321273266
345297930.0 -0.1238338771 0.1195324486 0.4222043149 -0.3665019616 0.4219071303 -0.3665589497 -0.1162459632 0.1330418524
350297900.0 -0.1225246163 0.1207688605 0.417838497 -0.3708977476 0.4182964357 -0.3711412283 -0.1149002617 0.1351014647
355297870.0 -0.1215318376 0.1219792556 0.4134234616 -0.375568892 0.4136834973 -0.375797544 -0.1138036159 0.1363435192
360297840.0 -0.1202586523 0.1233585658 0.4096229563 -0.3803894047 0.409260145 -0.3804693658 -0.1117712802 0.1380197927
365297810.0 -0.1188069835 0.1246154693 0.405300837 -0.3846735575 0.4056101632 -0.3850290218 -0.1105727695 0.1395190911
370297780.0 -0.11787792 0.1259337314 0.4010742816 -0.3894900394 0.4014589375 -0.3894092206 -0.1090389876 0.1408372788
375297750.0 -0.1168328715 0.127330661 0.3975596082 -0.3936780001 0.3968548292 -0.3938847535 -0.1074443042 0.1423986238
380297720.0 -0.1156484897 0.1283994942 0.3924428151 -0.3980071883 0.3923711608 -0.3980785122 -0.1060113076 0.1440843606
385297690.0 -0.1145108217 0.1298717068 0.3883835529 -0.4022252407 0.3881710026 -0.4022748486 -0.1046405583 0.1453979909
390297660.0 -0.1131477529 0.1309449777 0.3837299749 -0.4065063672 0.3834351946 -0.4069098353 -0.1026030994 0.1462347473
395297630.0 -0.1120141093 0.1318375669 0.3798060421 -0.4107666378 0.3789578425 -0.4107638669 -0.1015260799 0.1480783771
400297600.0 -0.1106307214 0.1334941763 0.3747943024 -0.4149142364 0.3746841712 -0.4150347335 -0.1001550943 0.1488509771
405297570.0 -0.1093627808 0.1346974271 0.3702508133 -0.4189790576 0.370158424 -0.419229638 -0.0984078165 0.1507795178
410297540.0 -0.1080578306 0.1357878274 0.365015518 -0.4228463423 0.365170105 -0.4226155796 -0.0968808324 0.1516381865
415297510.0 -0.1068997786 0.1374066664 0.3607542177 -0.4266393019 0.3608081213 -0.4269074278 -0.0951768645 0.1537010647
420297480.0 -0.1051971154 0.1379307953 0.355886727 -0.4308770958 0.356044807 -0.4309818375 -0.0933771739 0.1543203768
425297450.0 -0.1036760811 0.1391910854 0.3514153671 -0.4346042688 0.35156383 -0.4346274416 -0.0917815838 0.1559442382
430297420.0 -0.1029243856 0.1404937808 0.3467205041 -0.4388374791 0.3465375092 -0.4385648691 -0.0902749608 0.1568445191
435297390.0 -0.1010410112 0.1415675155 0.3416625903 -0.4423491144 0.341847842 -0.4420746775 -0.0883677359 0.1582074539
440297360.0 -0.0997702715 0.1425402865 0.3363346293 -0.4463273876 0.3362177113 -0.4458419993 -0.0867370944 0.1589501269
445297330.0 -0.0982220944 0.1435481496 0.3315488339 -0.4498825085 0.3311254704 -0.4497832247 -0.0851398286 0.1603059028
450297300.0 -0.0970582005 0.1447424433 0.3267394114 -0.4529874614 0.3270835281 -0.4535410444 -0.0836328433 0.1618333271
455297270.0 -0.0957601436 0.1455277126 0.3222587574 -0.4568138849 0.3220655947 -0.4569180341 -0.0816502289 0.1624427426
460297240.0 -0.0946081592 0.1468080924 0.3171905238 -0.4602179527 0.3166189506 -0.4604137626 -0.0797996955 0.1641463359
465297210.0 -0.092553547 0.1479273507 0.3119880998 -0.4636600563 0.3119577999 -0.463357426 -0.0784769994 0.1646479651
470297180.0 -0.0911693316 0.1490363347 0.306973989 -0.4668413934 0.3068276171 -0.4669744434 -0.0767910483 0.1659269444
475297150.0 -0.0899440841 0.1495470763 0.3012663152 -0.4699932804 0.3017280752 -0.4697810021 -0.074590562 0.1669164305
480297120.0 -0.0884547098 0.1502926462 0.2963897207 -0.4730619285 0.2971061671 -0.473367971 -0.0727790415 0.1682433949
485297090.0 -0.0868060398 0.151734806 0.2913557842 -0.4764635431 0.2912291124 -0.4764595999 -0.0712738411 0.1687129151
490297060.0 -0.0854633905 0.1523901927 0.2859965882 -0.4797337542 0.2862402626 -0.4797728476 -0.0694147956 0.1699716463
495297030.0 -0.0841905319 0.1538792863 0.2809423705 -0.4831230757 0.2805960059 -0.4827031684 -0.0673242543 0.1707772493
500297000.0 -0.0822593275 0.1543611411 0.2753352262 -0.4860627107 0.275689525 -0.4858894135 -0.0658732797 0.1717316841
505296970.0 -0.0811854442 0.1552993131 0.2700462764 -0.4886133635 0.2700726299 -0.4888259375 -0.0645062466 0.1725165916
510296940.0 -0.0796896918 0.1563388035 0.2651173911 -0.492015708 0.2649515554 -0.4916210776 -0.0618427562 0.173962715
515296910.0 -0.0782870663 0.1575343789 0.2591745199 -0.4944180684 0.259498639 -0.4943285913 -0.0600349255 0.174399861
520296880.0 -0.0765632933 0.1579907217 0.2540845629 -0.4970368025 0.2542215951 -0.4971308276 -0.0582122745 0.1754134941
525296850.0 -0.0750657686 0.1587718012 0.2486507993 -0.5002793339 0.2490120565 -0.5000101425 -0.0560491892 0.176104746
530296820.0 -0.073364378 0.1597062592 0.2437580867 -0.5020471715 0.2431772528 -0.5024300024 -0.0548071841 0.17685393
535296790.0 -0.0718668383 0.160611075 0.2374803653 -0.5050404918 0.2380937908 -0.5048840221 -0.0528785436 0.177264009
540296760.0 -0.0704091334 0.1609724641 0.2321756972 -0.507810155 0.2320183365 -0.5080828615 -0.0509962028 0.1789086979
545296730.0 -0.0687164628 0.1622008622 0.2264003841 -0.5099856772 0.2270166892 -0.5105043543 -0.0492966749 0.1789696691
550296700.0 -0.0674233177 0.1628559136 0.2210169276 -0.5120679535 0.221726682 -0.5128195531 -0.0468970486 0.1800390815
555296670.0 -0.0654935894 0.1634567188 0.2158591492 -0.514714015 0.2158030751 -0.5149756561 -0.0453451666 0.1807694094
560296640.0 -0.0642024846 0.1643710727 0.2099593596 -0.5169018004 0.2102015111 -0.5173516496 -0.0429893792 0.1814250794
565296610.0 -0.0630381103 0.1649820676 0.204392648 -0.5195491535 0.2039902061 -0.5194751915 -0.041168716 0.1817693878
570296580.0 -0.0607914253 0.1656631665 0.1987536668 -0.5213097414 0.1989807584 -0.5216232339 -0.0393930743 0.1829808338
575296550.0 -0.0593438398 0.1671252738 0.1930402787 -0.5236979968 0.1934964658 -0.5233501224 -0.0370047262 0.1830944904
580296520.0 -0.0578670707 0.1677657906 0.1875636402 -0.525569804 0.187621209 -0.5255129991 -0.0351893644 0.1837320322
585296490.0 -0.0560491885 0.1677734137 0.1821212374 -0.5273348923 0.1818149404 -0.5274532046 -0.0336219242 0.1838726671
590296460.0 -0.054707709 0.168576138 0.1759946525 -0.5297203078 0.1759174835 -0.5297442188 -0.0313728312 0.1849425518
595296430.0 -0.0528475031 0.1695348403 0.1702456423 -0.5315215653 0.1701409921 -0.5313837091 -0.0291404408 0.1848953987
600296400.0 -0.0513961463 0.1700327744 0.164306584 -0.532923605 0.1647567136 -0.5332224869 -0.0273650877 0.185859582
605296370.0 -0.0497136789 0.1710437475 0.1590057665 -0.5352037495 0.1585643879 -0.5347846921 -0.025134704 0.1861027246
610296340.0 -0.0479061025 0.1711685592 0.1531683984 -0.5363931315 0.1534102448 -0.5368432488 -0.0231397255 0.1872523383
615296310.0 -0.046322434 0.1719200507 0.1468560913 -0.5376825242 0.1469599703 -0.5379635874 -0.020981051 0.1873034015
620296280.0 -0.0446010189 0.172361981 0.1418055794 -0.5392182904 0.1411551503 -0.5395185994 -0.0191431626 0.1872500154
625296250.0 -0.0429176291 0.1731301662 0.1349973982 -0.5413188285 0.1351997009 -0.5413233648 -0.0167069438 0.187952541
630296220.0 -0.0410840108 0.1738292913 0.1292101602 -0.5426035793 0.1297131503 -0.5422635828 -0.0152588443 0.1884800788
635296190.0 -0.0397018315 0.1744032353 0.1236128634 -0.5437139993 0.1233744888 -0.5433747398 -0.0132981997 0.1883102912
640296160.0 -0.0380361366 0.1745613441 0.1182935561 -0.545174371 0.1175512215 -0.5452314378 -0.010983334 0.1889117397
645296130.0 -0.0360960664 0.175299721 0.1114596887 -0.5461810166 0.1123842408 -0.545959541 -0.0097853465 0.1887237343
650296100.0 -0.0345162066 0.1760465035 0.1063378176 -0.5473799786 0.106367908 -0.5470488505 -0.0072799944 0.18895202
655296070.0 -0.0327852661 0.176002783 0.1002594992 -0.5485101601 0.0998895984 -0.5486739245 -0.0045791647 0.1898143073
660296040.0 -0.031542412 0.1770491362 0.094332804 -0.5494836762 0.0941913444 -0.5491393327 -0.0032200617 0.1895335565
665296010.0 -0.0293373853 0.1769425512 0.0885139816 -0.5502423734 0.0884625356 -0.5504051593 -0.001074199 0.1899053668
670295980.0 -0.0271459262 0.1778358355 0.0823571316 -0.5514908925 0.0825572009 -0.5511918148 0.0008406254 0.1897516831
675295950.0 -0.0256892373 0.1781199729 0.0759312976 -0.5522125635 0.0766266749 -0.5524819291 0.0034453918 0.1902924881
680295920.0 -0.0239428164 0.1787464174 0.0702380748 -0.5528071034 0.0702517976 -0.5529371604 0.0055808994 0.1902351093
685295890.0 -0.0221844193 0.1790335961 0.0645307488 -0.5536061876 0.0642280406 -0.5539305603 0.0072428453 0.1908008881
690295860.0 -0.0204667568 0.1792119871 0.0581809648 -0.5539944437 0.0579982175 -0.5540243515 0.0096951502 0.1907197838
695295830.0 -0.0184145188 0.1796595884 0.0518434913 -0.5545461603 0.0519034521 -0.5550607138 0.011283509 0.1908006256
700295800.0 -0.0166748342 0.1797820215 0.0459816343 -0.5556480585 0.046563333 -0.5556360065 0.0132740882 0.1904630844
705295770.0 -0.0147881036 0.1803151579 0.0401450822 -0.5554438981 0.0409102787 -0.5558862638 0.01501717 0.19015433
710295740.0 -0.0132686468 0.1807916273 0.0344899302 -0.5561519424 0.0344956498 -0.5561461356 0.0171375015 0.1908479335
715295710.0 -0.011638192 0.1807656251 0.02826217 -0.5564628802 0.0287684133 -0.5564654934 0.0194422113 0.1902884435
720295680.0 -0.0098025114 0.1810821834 0.0221295444 -0.5563363772 0.0222874 -0.5568633646 0.0216803963 0.1906254893
725295650.0 -0.0076044865 0.1814732686 0.0161718075 -0.5570991065 0.0164095302 -0.556638194 0.0237355552 0.1904586564
730295620.0 -0.0065707533 0.1815174228 0.010539502 -0.5567546896 0.0101225251 -0.5570759363 0.0259084229 0.1898798999
735295590.0 -0.0043297368 0.1818311612 0.0046975066 -0.5569442368 0.0048044355 -0.5570590535 0.0278767095 0.1901418122
740295560.0 -0.0027449887 0.1820584096 -0.0018731508 -0.556698637 -0.0016825976 -0.5566733382 0.0300510497 0.1899194434
745295530.0 -0.0006632417 0.1820343131 -0.0073408567 -0.5567758344 -0.0073013244 -0.5568541696 0.0317900833 0.1896979344
750295500.0 0.0008610113 0.1823838391 -0.0135365166 -0.5565111299 -0.0135724209 -0.5565098707 0.0342154171 0.1890231371
755295470.0 0.0031281245 0.1824911398 -0.0196635174 -0.5565153638 -0.0194495723 -0.5565697237 0.0357855175 0.1890436391
760295440.0 0.004408449 0.1827635387 -0.0260059319 -0.5561188481 -0.0256211257 -0.55628708 0.0377620845 0.1886755616
765295410.0 0.0062286765 0.1826702003 -0.031459972 -0.5554835049 -0.0314008455 -0.5560773131 0.0404467148 0.189095748
770295380.0 0.0084477496 0.1828139687 -0.0378675497 -0.5550060427 -0.0373595734 -0.5554636893 0.042565201 0.1883561847
775295350.0 0.009974561 0.1830736906 -0.0433666574 -0.5548028469 -0.0432731292 -0.5548859373 0.0439078428 0.1875038415
780295320.0 0.0121205945 0.1831029835 -0.049574437 -0.5542500027 -0.0493255195 -0.5546379818 0.0462907224 0.187941156
785295290.0 0.0134810124 0.1833308608 -0.0554972916 -0.5530741472 -0.0555120722 -0.5540732146 0.0481560853 0.1872938052
790295260.0 0.0151820167 0.1831514507 -0.0613957361 -0.5531740567 -0.0614370413 -0.5536243381 0.0504806871 0.1868013101
795295230.0 0.0170403774 0.1832780005 -0.0669154693 -0.5524168574 -0.0669875088 -0.5527063923 0.0524494021 0.1870605503
800295200.0 0.0191306906 0.1834748484 -0.0737062028 -0.5518808848 -0.0735047683 -0.5520344885 0.0546630001 0.1862970103
805295170.0 0.0205293522 0.1832497194 -0.0793612566 -0.55059673 -0.0790941904 -0.5507137792 0.0561438838 0.1852883576
810295140.0 0.0226659202 0.1827331216 -0.084918517 -0.5498103055 -0.0848580129 -0.5503723311 0.058498484 0.1854981554
815295110.0 0.0244051098 0.1830381364 -0.0913140641 -0.5486069724 -0.091101511 -0.5487879284 0.0602133799 0.1845236826
820295080.0 0.0261415875 0.1826623155 -0.0968064214 -0.5480823926 -0.096798004 -0.5479822709 0.0622612734 0.1840956681
825295050.0 0.0281628145 0.1827445426 -0.1028855438 -0.5466140875 -0.1028922043 -0.5465436345 0.0648276017 0.1837964409
830295020.0 0.0299012301 0.1827562397 -0.1087783299 -0.5458254329 -0.1089923778 -0.5460963704 0.0662753883 0.1828297161
