!Created with skrf (http://scikit-rf.org).
# Hz S RI R 50.0 
!freq ReS11 ImS11 ReS21 ImS21 ReS12 ImS12 ReS22 ImS22
300000.0 -0.0986586147 -0.0726885229 0.6296151716 0.0678663167 0.6228868246 0.0677425177 -0.0993672062 -0.0787114411
5299970.0 -0.1021684026 0.0126867173 0.6307250987 0.0101488624 0.6304902189 0.0106716577 -0.1005249758 0.012773724
10299940.0 -0.0972426284 0.0293483009 0.633727348 0.0156222831 0.633690887 0.0158140166 -0.095498753 0.0301497406
15299910.0 -0.0898515999 0.0425977698 0.6403524233 0.0199111745 0.6403838499 0.0205639129 -0.0886021432 0.0435670783
20299880.0 -0.0815411003 0.0531671487 0.6488810192 0.024093941 0.6484723661 0.0239908172 -0.0798700099 0.0545084606
25299850.0 -0.0722872519 0.0619606822 0.657582336 0.0254879743 0.6574595307 0.0253207854 -0.0698936467 0.0633732466
30299820.0 -0.0621861481 0.0685705316 0.6671364552 0.0243346257 0.6673341867 0.0244064582 -0.0598296437 0.0701874592
35299790.0 -0.0523988758 0.0737222539 0.6771232393 0.0216038791 0.6770557808 0.0213896908 -0.0498953982 0.0750028363
40299760.0 -0.0432296274 0.0774265586 0.6860283557 0.0171709729 0.6864479378 0.0173891953 -0.0404080162 0.077658956
45299730.0 -0.0336887464 0.0793104255 0.6953418952 0.0119422586 0.6953997426 0.0122718382 -0.0315454376 0.0798394961
50299700.0 -0.0256990594 0.0802920325 0.7035917463 0.0048601051 0.7033943869 0.0057810453 -0.0227110967 0.0805299714
55299670.0 -0.0175577654 0.0807496322 0.7111212663 -0.0035745878 0.7108649562 -0.0025638347 -0.0146733466 0.0806715966
60299640.0 -0.0100587236 0.0800583875 0.7174966093 -0.0115627217 0.717408459 -0.0107660679 -0.0076483092 0.0795424809
65299610.0 -0.0037526131 0.0788570551 0.7225998689 -0.0201159478 0.7235821171 -0.0197188699 -0.0013026305 0.0786344507
70299580.0 0.0025705776 0.0778730238 0.7286978302 -0.0293640597 0.7288311089 -0.0292081695 0.0046875437 0.0767572765
75299550.0 0.0080490998 0.0760246065 0.7326325084 -0.0389014223 0.7325976503 -0.0385206082 0.0101157438 0.0746112023
80299520.0 0.0131439371 0.0736192458 0.7372897701 -0.0491265127 0.7374133522 -0.0486599687 0.0151863631 0.0729811033
85299490.0 0.0177827322 0.0714911426 0.740213148 -0.0583488217 0.7404217832 -0.058385435 0.0194877505 0.0698785648
90299460.0 0.0214969558 0.069213508 0.7429541536 -0.0689530458 0.7435231255 -0.0686957612 0.0236565456 0.0681143009
95299430.0 0.0257307749 0.0666753108 0.7452336805 -0.0790886815 0.7458021693 -0.0789221271 0.0274084954 0.0653161691
100299400.0 0.0288029588 0.0648486868 0.7462757481 -0.0889277954 0.7469436272 -0.0892180961 0.0311814501 0.0628125086
105299370.0 0.0322196815 0.062033994 0.7487841417 -0.0995371959 0.7491788778 -0.0995480026 0.0341512376 0.0607725076
110299340.0 0.0350081611 0.0596938254 0.7501298747 -0.1087738254 0.7500283618 -0.108736933 0.0362852686 0.0577099294
115299310.0 0.0375090906 0.0573597883 0.7504136189 -0.1195665768 0.750830416 -0.118903205 0.0390013772 0.055674564
120299280.0 0.0397964778 0.0547796526 0.7512516491 -0.1295938846 0.7512767471 -0.1292498161 0.0413320361 0.0531245725
125299250.0 0.042108779 0.0522573836 0.7517158254 -0.1388157125 0.751671974 -0.1383879402 0.0429935603 0.0505659644
130299220.0 0.0436419775 0.0503280421 0.7515403917 -0.1488009454 0.7519042217 -0.1489378726 0.0450401838 0.0483218783
135299190.0 0.0452901777 0.0483766926 0.7512661399 -0.1591757444 0.7514491833 -0.158481693 0.0467621625 0.0461440071
140299160.0 0.0464732785 0.0462365905 0.7508642963 -0.168864972 0.7505719034 -0.1688191612 0.0482171392 0.0446917714
145299130.0 0.0481770218 0.0441655734 0.749997551 -0.1783730867 0.7495748538 -0.1782723987 0.0494195773 0.0421232924
150299100.0 0.0497164361 0.0422930061 0.7484934265 -0.1872589089 0.7488268436 -0.1877931011 0.0509608733 0.0401999788
155299070.0 0.0502668048 0.0397231192 0.7478521985 -0.1983438049 0.7476471969 -0.1974066878 0.0518262661 0.038514854
160299040.0 0.0518666949 0.0380097215 0.7465424619 -0.2075556329 0.7460537783 -0.2075823468 0.0522148165 0.0362766677
165299010.0 0.0524515728 0.0363548516 0.7444840153 -0.2169531085 0.7444790671 -0.2166909268 0.0535627853 0.0349158856
170298980.0 0.0532617024 0.034146368 0.7431688829 -0.2260413587 0.7428505162 -0.2259300712 0.0542517856 0.0330399815
175298950.0 0.053993366 0.0323631423 0.7412935022 -0.2353525743 0.7409543691 -0.235267146 0.0548618436 0.0315978
180298920.0 0.0544050768 0.0306272519 0.7390650422 -0.2450677424 0.7386762456 -0.2442503276 0.0556187503 0.0298892812
185298890.0 0.0556183179 0.0287760305 0.7366914133 -0.2534873187 0.7362329137 -0.25348228 0.0558994049 0.0286175763
190298860.0 0.0554448389 0.0273694638 0.7338683821 -0.2628668835 0.7347388609 -0.262690753 0.056214447 0.0263386893
195298830.0 0.0561177756 0.0253418764 0.7321800221 -0.2720166149 0.7324553416 -0.271564285 0.0573416682 0.0252628422
200298800.0 0.0564244856 0.0242418061 0.729207628 -0.2814912608 0.7293696158 -0.2809272519 0.05692993 0.0238385474
205298770.0 0.0568525816 0.0230075648 0.7259633389 -0.2899048481 0.7261872339 -0.2892323459 0.0573592427 0.0215775169
210298740.0 0.0572188937 0.0210003113 0.7233920324 -0.2979921254 0.7233320132 -0.2972526226 0.0579005789 0.0215354138
215298710.0 0.056815598 0.0196114208 0.7204677388 -0.3071350168 0.7203514696 -0.3071005866 0.0575514181 0.0199343083
220298680.0 0.0578755295 0.0178357471 0.7170362932 -0.3157287323 0.7175514415 -0.3155711792 0.0574618462 0.0182870544
225298650.0 0.0579681839 0.0168465434 0.7138722905 -0.3250764921 0.7142789372 -0.3240698385 0.0574363049 0.0166196835
230298620.0 0.0578701203 0.0159789514 0.7106508638 -0.3325381733 0.7108413025 -0.3328056663 0.0574763381 0.0152070916
235298590.0 0.0579084634 0.0147015141 0.7070192655 -0.3411195524 0.7070920453 -0.3411634109 0.0577296245 0.013967444
240298560.0 0.0580412087 0.0134805729 0.7032995231 -0.3498104278 0.7034868932 -0.3497377262 0.0577354092 0.0129262833
245298530.0 0.0579770149 0.0121788331 0.7001567298 -0.3577464081 0.6998270425 -0.3579593382 0.0585344094 0.0109946109
250298500.0 0.0586034344 0.0111605989 0.6951265242 -0.3658981672 0.6950683553 -0.3655048131 0.05813768 0.0103371405
255298470.0 0.0588760316 0.0092665794 0.6911859442 -0.3742026823 0.6922004929 -0.373884767 0.0583078548 0.0091929118
260298440.0 0.058099171 0.0084241384 0.6875522985 -0.3830788743 0.6879037142 -0.382289297 0.0584298026 0.0080930321
265298410.0 0.0590567742 0.0078658494 0.6839249059 -0.3909424558 0.6839514966 -0.3904992805 0.0581570662 0.0072581783
270298380.0 0.0587759015 0.0063396625 0.6796965886 -0.3982618418 0.679727327 -0.3984579867 0.0581579211 0.0058099177
275298350.0 0.0593195914 0.0054003474 0.6755358174 -0.406372956 0.6753560643 -0.40621716 0.0583754371 0.0044540284
280298320.0 0.0588759201 0.0044726145 0.6709282173 -0.4142139832 0.6714525282 -0.4141199939 0.0587550769 0.0033391839
285298290.0 0.0589616567 0.0033058985 0.6668357319 -0.4224063621 0.6665218967 -0.4222014526 0.058561568 0.0022544889
290298260.0 0.0591490566 0.0022541053 0.6620822483 -0.4291287467 0.6618596 -0.4299137701 0.0587796606 0.001932351
295298230.0 0.0590549094 0.0007714071 0.6575252941 -0.4379631703 0.6578186857 -0.4372701619 0.0595365137 0.0005445027
300298200.0 0.0583142075 -0.0002393219 0.6531417749 -0.4451514917 0.6529703382 -0.4456247999 0.0588804158 -0.0008514665
305298170.0 0.0587551455 -0.0013526794 0.647536896 -0.4537249558 0.6482230599 -0.4525082961 0.0594290553 -0.0021431815
310298140.0 0.0585908999 -0.002234396 0.6428301754 -0.4611397788 0.6437668582 -0.4603422905 0.0594285969 -0.0029387266
315298110.0 0.0585611181 -0.0042240427 0.6379457688 -0.4684889593 0.6382547757 -0.4681733372 0.0590009397 -0.0044625376
320298080.0 0.0586855528 -0.0048037468 0.6323858579 -0.4766482893 0.633282686 -0.4757820371 0.0589148478 -0.0050392659
325298050.0 0.0576676562 -0.0059200821 0.6275341995 -0.4836859702 0.6275921119 -0.4830238328 0.0582948369 -0.0063365255
330298020.0 0.0574337167 -0.0072484624 0.621364953 -0.4907754822 0.621848413 -0.4906823481 0.0577421721 -0.0076815055
335297990.0 0.0573213276 -0.00823936 0.6162126461 -0.4972238028 0.6153626145 -0.4976303696 0.0565455839 -0.007610285
340297960.0 0.0560897559 -0.0088143792 0.6100379024 -0.504349303 0.6096783848 -0.504598239 0.0569600683 -0.0087274215
345297930.0 0.055868152 -0.009128249 0.6045235435 -0.5121764337 0.6041949882 -0.511858275 0.0564479214 -0.0095713464
350297900.0 0.0552609222 -0.0106077641 0.5978449853 -0.5183876176 0.5984474039 -0.5183842762 0.0556085015 -0.0094377503
355297870.0 0.0551772683 -0.0102833643 0.5924742853 -0.5250602822 0.5930476169 -0.5245482846 0.0554797256 -0.0105096174
360297840.0 0.0547469066 -0.0115575864 0.5874645061 -0.5314213825 0.5880816618 -0.531258984 0.0549981283 -0.0108069924
365297810.0 0.0542343515 -0.0118835303 0.580787721 -0.538396011 0.581448163 -0.5382891848 0.0550133716 -0.0115863935
370297780.0 0.0543968831 -0.0129950176 0.5753355665 -0.5439904546 0.575156503 -0.5437665846 0.0542171331 -0.012270066
375297750.0 0.0539748021 -0.0138463646 0.5692474046 -0.550668592 0.5698834384 -0.5512177632 0.0545029982 -0.012721934
380297720.0 0.0538177012 -0.0141189617 0.5625924855 -0.5575885858 0.5634063648 -0.556479357 0.0534023326 -0.0139056392
385297690.0 0.0528347708 -0.0150130303 0.5561638609 -0.5641391967 0.5565243055 -0.5632532054 0.0532523326 -0.014171797
390297660.0 0.0529226139 -0.0152176697 0.5504364393 -0.5699126654 0.5504402457 -0.5697506036 0.0526885689 -0.015266563
395297630.0 0.0521888836 -0.016051764 0.5436442813 -0.5759738894 0.5445071356 -0.5762672444 0.0528765585 -0.0154504792
400297600.0 0.0518840518 -0.0165483086 0.5372305418 -0.5827882779 0.538077485 -0.5817515072 0.0523816479 -0.0164181929
405297570.0 0.0514812993 -0.0173565605 0.5313770318 -0.5879055312 0.5315769319 -0.5874957947 0.051688727 -0.016802604
410297540.0 0.05143383 -0.0181106704 0.5250142038 -0.5940403134 0.5253783233 -0.5938547838 0.0513828874 -0.017086455
415297510.0 0.0513577082 -0.0186747142 0.5178118517 -0.6000511901 0.5187495181 -0.5998457279 0.0512116458 -0.0179108643
420297480.0 0.0510781074 -0.0188962373 0.511707959 -0.6057507112 0.5114515776 -0.6056272741 0.0504552789 -0.0190745808
425297450.0 0.0501209088 -0.0204922011 0.5053619344 -0.6115119307 0.5054950435 -0.6108138991 0.0496526588 -0.0188906318
430297420.0 0.0499923471 -0.0205071768 0.4979747594 -0.6164550927 0.4981896455 -0.6161933304 0.0497830902 -0.0199351082
435297390.0 0.0495717462 -0.0212532823 0.4910882127 -0.6222231614 0.4913388014 -0.6221186126 0.0502371503 -0.0205819604
440297360.0 0.0493720781 -0.021578945 0.4842179552 -0.6274262544 0.4848930705 -0.6276415253 0.0490355703 -0.0214535341
445297330.0 0.0489178252 -0.0228109408 0.4780061918 -0.632745648 0.4780239728 -0.6321536603 0.049026316 -0.0220278705
450297300.0 0.0487538716 -0.0231397762 0.4706398752 -0.6383273486 0.4708191782 -0.6386904952 0.0486931604 -0.0230953171
455297270.0 0.0482957336 -0.0235209563 0.4632441011 -0.6435580855 0.4639689716 -0.6437451441 0.0484298894 -0.0233184849
460297240.0 0.0477599882 -0.0240903647 0.4566192515 -0.6483438834 0.4568060208 -0.6489389043 0.0480485873 -0.0237556793
465297210.0 0.0480289498 -0.0247683637 0.449682685 -0.6534024357 0.4495356449 -0.6542008314 0.0478215219 -0.0244991473
470297180.0 0.0473322138 -0.0258192371 0.4422052137 -0.6581079984 0.4423042112 -0.658596194 0.0473418332 -0.0249878712
475297150.0 0.0467315165 -0.0262800894 0.4347906072 -0.6630536147 0.4354233166 -0.6629705603 0.047537837 -0.0258428761
480297120.0 0.0463588676 -0.0259366731 0.4275044171 -0.6683339317 0.4276101519 -0.668512353 0.047188923 -0.0262253474
485297090.0 0.0457722276 -0.0271111404 0.4201052734 -0.6725867737 0.4206294714 -0.6725808087 0.0465176466 -0.0269398106
490297060.0 0.0446027338 -0.0276379824 0.4129542994 -0.6777673261 0.4135018652 -0.6769527907 0.0460463896 -0.0266757348
495297030.0 0.0448546128 -0.027871222 0.4048458087 -0.6819815762 0.4062420614 -0.6819979846 0.0453395191 -0.0276665902
500297000.0 0.0442367121 -0.0287612861 0.3974318378 -0.6860709839 0.3973953185 -0.6859319934 0.0452288573 -0.0275016733
505296970.0 0.0439001075 -0.0290709006 0.3904381338 -0.6905046361 0.3897517795 -0.6908806067 0.0444645181 -0.0281107752
510296940.0 0.0434695114 -0.0291812414 0.3825308648 -0.6951805862 0.3831933986 -0.6952766747 0.0449418765 -0.02822867
515296910.0 0.0428729618 -0.0297060626 0.3752163517 -0.6992586046 0.3752123379 -0.6985841493 0.0437675834 -0.0285955128
520296880.0 0.0421672035 -0.0305654019 0.3672469057 -0.7037777617 0.3673903589 -0.7026940315 0.0431385632 -0.0297038391
525296850.0 0.042245233 -0.0313172033 0.3593955158 -0.7072584353 0.3598866996 -0.7071995334 0.042653468 -0.029778176
530296820.0 0.0414882494 -0.0311435754 0.3513957266 -0.7111979846 0.3517533356 -0.7108019644 0.0425952843 -0.0299189647
535296790.0 0.0406729562 -0.0316707344 0.3445166424 -0.7152028817 0.34449707 -0.7149319563 0.0419776892 -0.0310471088
540296760.0 0.0402367101 -0.0315991336 0.3360768783 -0.7191511907 0.3363314279 -0.7186611291 0.040986727 -0.030315627
545296730.0 0.0399164102 -0.032457977 0.3279218366 -0.7221559838 0.3283568646 -0.7223399336 0.0405267445 -0.0313249928
550296700.0 0.0400103699 -0.0324716297 0.3201074619 -0.7262105717 0.3204606561 -0.7262132145 0.0397381071 -0.0316495985
555296670.0 0.0388296663 -0.032946472 0.3127325637 -0.7293559139 0.3123899115 -0.7296355411 0.0397460987 -0.0320751977
560296640.0 0.0388361 -0.0330368287 0.3038924171 -0.73299746 0.3048792378 -0.7331068112 0.0391595706 -0.0323809569
565296610.0 0.0377037099 -0.033687902 0.2957291004 -0.7361756016 0.2966876622 -0.7360224996 0.0383389757 -0.033151715
570296580.0 0.0372453739 -0.0336768719 0.288016166 -0.7400308681 0.287861915 -0.739604751 0.0377950077 -0.0324945325
575296550.0 0.0364647245 -0.0340199673 0.2803829443 -0.7427812619 0.2803916618 -0.7427651263 0.0376342538 -0.0334995829
580296520.0 0.0361441077 -0.0342123451 0.2719825328 -0.746103841 0.2722593701 -0.7459653956 0.0368750116 -0.0338718011
585296490.0 0.0356130455 -0.0355701833 0.2642845666 -0.7482970199 0.2644706519 -0.7486067491 0.0361204693 -0.0339389708
590296460.0 0.0354068238 -0.0353948829 0.2559961569 -0.7510410836 0.255768395 -0.751162415 0.0349690132 -0.0345838786
595296430.0 0.0351689067 -0.0355772402 0.2471307412 -0.75457272 0.2474016103 -0.7538961027 0.0352161331 -0.0353376981
600296400.0 0.0341564213 -0.0362000259 0.2392112872 -0.7570303713 0.2393982803 -0.756690966 0.0344950605 -0.0354904975
605296370.0 0.0337840249 -0.0364368401 0.2312684046 -0.7593066606 0.2310821169 -0.7588173791 0.0338572711 -0.0359025357
610296340.0 0.033506769 -0.0368464911 0.2221649397 -0.7616995938 0.2229076356 -0.7616142041 0.0336599101 -0.0365111683
615296310.0 0.0330570162 -0.0376748356 0.213925335 -0.7639646058 0.2142159484 -0.7645916713 0.0330868827 -0.036383227
620296280.0 0.0323005465 -0.0378445085 0.2065276329 -0.766544388 0.2060530589 -0.7662578819 0.0324303971 -0.036878196
625296250.0 0.0313725369 -0.0384976202 0.1985584645 -0.7689460506 0.1978961422 -0.7687550287 0.0328227078 -0.0369433163
630296220.0 0.0318787188 -0.0381748058 0.1885316518 -0.7707848685 0.1886141178 -0.7703950478 0.0316727877 -0.0370838533
635296190.0 0.030073422 -0.0391923532 0.1810165978 -0.7729617943 0.1811226444 -0.7732761435 0.0314221716 -0.0376541907
640296160.0 0.029683757 -0.0386468701 0.1723819552 -0.7740284185 0.1727808696 -0.7744684421 0.0307506103 -0.0376829061
645296130.0 0.0291201886 -0.0389141739 0.1635332428 -0.7761926717 0.1646030761 -0.7768725485 0.0302808349 -0.0381925593
650296100.0 0.0286755015 -0.0394376892 0.1548614294 -0.7783187077 0.1557273903 -0.7781262888 0.0301508732 -0.0390369601
655296070.0 0.0276752095 -0.0399250149 0.1469249773 -0.7798998167 0.1470426207 -0.7799901626 0.029685228 -0.0388826905
660296040.0 0.0267207175 -0.0406543772 0.1385529443 -0.7811461449 0.1388958835 -0.7816467436 0.0290380084 -0.0386843976
665296010.0 0.0269364249 -0.0403489052 0.1291408883 -0.7827645166 0.1301945883 -0.782418396 0.0284010078 -0.0387320836
670295980.0 0.0251732108 -0.0403619158 0.1213124931 -0.7842327642 0.1212110877 -0.7840896128 0.027199012 -0.0391584746
675295950.0 0.0252795026 -0.0401967438 0.1131281884 -0.785063264 0.1131203661 -0.7846952559 0.0267905867 -0.0393815201
680295920.0 0.0242210338 -0.0409222239 0.1039399802 -0.7863796937 0.103707388 -0.7870171756 0.0264421994 -0.0387615008
685295890.0 0.0243057997 -0.0403022021 0.0955358886 -0.7876252909 0.0952591395 -0.7876646507 0.025334769 -0.0394011069
690295860.0 0.0238739144 -0.0406389123 0.0868734086 -0.7881649827 0.0873324178 -0.7887553392 0.0247987545 -0.0384429177
695295830.0 0.0231615832 -0.0411356646 0.0788799316 -0.7893648392 0.0781742181 -0.7893799534 0.0244845156 -0.0391461026
700295800.0 0.0223919537 -0.041572376 0.0701350031 -0.7897514635 0.0691448803 -0.790155592 0.0237268553 -0.0386227488
705295770.0 0.0214817562 -0.0404312622 0.060778634 -0.7905496161 0.0614290974 -0.7909101168 0.0229030961 -0.0390958023
710295740.0 0.0212807423 -0.0412975303 0.0528340115 -0.7920030718 0.0531479188 -0.7922318668 0.0227849253 -0.0399514479
715295710.0 0.0198070156 -0.0413181029 0.044142547 -0.7921615265 0.0440378994 -0.7919414262 0.0223607419 -0.0396360299
720295680.0 0.0197892527 -0.0415862775 0.0356947579 -0.7928390307 0.0358791965 -0.7922989423 0.021503109 -0.0390484147
725295650.0 0.0193201238 -0.0414746385 0.0265290584 -0.7928102987 0.027210048 -0.7933443809 0.0202380765 -0.0393660953
730295620.0 0.0191406703 -0.0412910527 0.0182717436 -0.7929194136 0.018376101 -0.7931956767 0.0196450209 -0.0398758692
735295590.0 0.0180859552 -0.0413547761 0.0096574406 -0.793470097 0.0095578463 -0.792957141 0.0187069546 -0.0400757296
740295560.0 0.0172723414 -0.0414797017 0.0006920605 -0.7931525046 0.0010186382 -0.7931871724 0.0189195958 -0.0399922295
745295530.0 0.0168532777 -0.0412000672 -0.0079322826 -0.7926547717 -0.0077454443 -0.7930506314 0.0184182518 -0.0405950175
750295500.0 0.0162749879 -0.0415993577 -0.0161717847 -0.7926069808 -0.0161521949 -0.7933366033 0.0176011612 -0.0405431334
755295470.0 0.0157257452 -0.0420547745 -0.0250176214 -0.7928662477 -0.0247297336 -0.7935000408 0.017510701 -0.0407530121
760295440.0 0.0152078687 -0.0417769892 -0.0339068004 -0.7932035146 -0.0334660361 -0.7932023292 0.0162677622 -0.0406691806
765295410.0 0.0144905831 -0.0418600842 -0.0425380598 -0.7920115625 -0.0425486414 -0.7923598712 0.0162940279 -0.0405203273
770295380.0 0.0133241232 -0.042347862 -0.0513921894 -0.7915802634 -0.0505268415 -0.7914292022 0.0155413361 -0.0410606926
775295350.0 0.0129598939 -0.0427095068 -0.0599596784 -0.7904605079 -0.0588440475 -0.7906354478 0.0138209251 -0.0403916299
780295320.0 0.0125941494 -0.0423313143 -0.0684819069 -0.78995213 -0.0671105436 -0.790042344 0.0135269748 -0.0415470872
785295290.0 0.0115274089 -0.0426438248 -0.0771733474 -0.7889588591 -0.0758649276 -0.7893207574 0.0141990909 -0.0407549677
790295260.0 0.0117012245 -0.0418845659 -0.084371864 -0.788406732 -0.0837817361 -0.788382624 0.0128171334 -0.0409912885
795295230.0 0.0106889601 -0.042422895 -0.0939572075 -0.7876806481 -0.0930646711 -0.7874534242 0.0124716798 -0.0406169334
800295200.0 0.0097579578 -0.0418257709 -0.1030743306 -0.786321949 -0.1020826386 -0.7862306108 0.0120461011 -0.0407879927
805295170.0 0.0092190023 -0.0424124946 -0.110804519 -0.7847831999 -0.1107035456 -0.7854496342 0.0113928844 -0.0407487671
810295140.0 0.0084695223 -0.04293393 -0.1192632838 -0.7833165363 -0.1191317908 -0.7839429732 0.0114742229 -0.0402832183
815295110.0 0.0082662643 -0.0427734717 -0.1275805409 -0.7822540764 -0.1275317751 -0.7823641526 0.0101642453 -0.0407331023
820295080.0 0.0071515305 -0.041593076 -0.1363015044 -0.7806125003 -0.1361970257 -0.7808086557 0.0095300392 -0.0405258923
825295050.0 0.0070923284 -0.0419765012 -0.1439317189 -0.7790863641 -0.1444870593 -0.7794529444 0.0092698833 -0.0405137406
830295020.0 0.0062393333 -0.0417786102 -0.1537410803 -0.77747008 -0.1531708593 -0.7774937926 0.0097450324 -0.0401665444
