!Created with skrf (http://scikit-rf.org).
# Hz S RI R 50.0 
!freq ReS11 ImS11 ReS21 ImS21 ReS12 ImS12 ReS22 ImS22
300000.0 -0.0979370192 -0.0816322718 0.6235264498 0.0751776151 0.6247828045 0.0810832276 -0.0960353358 -0.0888581848
5299970.0 -0.1004424236 0.0130988846 0.6305347992 0.0101832888 0.6306814623 0.011026849 -0.1020277409 0.0118897612
10299940.0 -0.0953288352 0.0296825419 0.6342836501 0.0158633384 0.6342501748 0.0162535762 -0.0974733052 0.0289679939
15299910.0 -0.0885368781 0.0428877036 0.6405973168 0.0201460162 0.6405730817 0.0209142699 -0.0901729141 0.0421563598
20299880.0 -0.079463236 0.0541214587 0.6486040889 0.0241825847 0.6491127323 0.0243852487 -0.0820639187 0.0534460828
25299850.0 -0.0699506295 0.0627219432 0.658220438 0.0246411487 0.6582548058 0.0253225859 -0.0726634593 0.0618338628
30299820.0 -0.0596693006 0.0691994659 0.6680673558 0.024651034 0.6672296342 0.0245783558 -0.0627655758 0.0684957477
35299790.0 -0.0495423526 0.0743526247 0.6770467102 0.0216408411 0.6775014081 0.0217744624 -0.052575299 0.0731425319
40299760.0 -0.039557253 0.0772016515 0.6867967541 0.0180030548 0.6867607615 0.0177469541 -0.0439267513 0.0769723787
45299730.0 -0.0303434671 0.0794074113 0.6959483451 0.0118395279 0.6955306216 0.0122514134 -0.0343579429 0.0789528774
50299700.0 -0.0216839251 0.0798696114 0.7037660064 0.0045352938 0.7038323316 0.0048820485 -0.0258567708 0.0802113877
55299670.0 -0.0143233167 0.0799458037 0.7106878553 -0.0026660849 0.7111268676 -0.0030697306 -0.017797449 0.0799111736
60299640.0 -0.0065790775 0.0787818424 0.717372189 -0.0116147319 0.7171210834 -0.0113625814 -0.0101840746 0.0797177187
65299610.0 -0.0002093306 0.07802889 0.7235304529 -0.0189649946 0.7237644683 -0.0201804294 -0.003746065 0.0785539998
70299580.0 0.006011723 0.0759894251 0.7286869068 -0.0291182384 0.7287557514 -0.0290660957 0.0022454076 0.0769966601
75299550.0 0.0117092271 0.0740480423 0.7327470481 -0.0388875271 0.7329214172 -0.0389718505 0.0080523831 0.0757329561
80299520.0 0.016054303 0.0720556593 0.7379689583 -0.0486644314 0.7376483139 -0.0486963242 0.0131525742 0.0727120889
85299490.0 0.0207545277 0.0696011214 0.7407191714 -0.0585156794 0.7407376787 -0.0585895508 0.0175072417 0.0708108931
90299460.0 0.0245097512 0.0675066505 0.7437170963 -0.0686636629 0.7438863201 -0.0690685563 0.0220970311 0.0686793903
95299430.0 0.0281683504 0.0655207097 0.7462480513 -0.0792477262 0.746304178 -0.078754297 0.0251893573 0.0664521121
100299400.0 0.0313520849 0.0624298683 0.7472714656 -0.0891929421 0.7473634312 -0.0891688269 0.0286176088 0.0639820969
105299370.0 0.0348473603 0.0601771172 0.748967505 -0.0990421449 0.749091534 -0.0990987085 0.0318838304 0.061717911
110299340.0 0.0371757365 0.0579088553 0.7499792435 -0.1086837468 0.750105858 -0.1095704303 0.0347601404 0.0592887415
115299310.0 0.0396432562 0.0548416506 0.7508363919 -0.1189601659 0.75133861 -0.1191335356 0.0372436502 0.0562221653
120299280.0 0.0414340909 0.0528347394 0.7519420267 -0.129517903 0.7516201548 -0.1292102374 0.0390659966 0.0540958118
125299250.0 0.0432365417 0.0504693868 0.7518332409 -0.1392825286 0.7520645545 -0.1394085986 0.041555894 0.0510171053
130299220.0 0.0451645406 0.0477603887 0.75206931 -0.1490562752 0.7518059901 -0.14929211 0.0431562202 0.0493711208
135299190.0 0.0468153266 0.0454392686 0.7514495595 -0.1584619062 0.7507881217 -0.1586845955 0.0445483537 0.0474461305
140299160.0 0.0476698239 0.0442069774 0.7505915585 -0.1685678984 0.7512755173 -0.1685119025 0.0463859218 0.0453097942
145299130.0 0.0492525048 0.042061318 0.7503434302 -0.1781890886 0.7501096449 -0.1782908383 0.0471618538 0.0426877288
150299100.0 0.0504270624 0.0396011484 0.7492359756 -0.1882888702 0.7493314589 -0.1879619099 0.0486447337 0.0406576694
155299070.0 0.0511672543 0.0382682916 0.7477504718 -0.1975444445 0.7481094381 -0.1982044869 0.0491365178 0.0390125566
160299040.0 0.0523555206 0.0358725323 0.7459571967 -0.2067560325 0.7462988051 -0.2070164765 0.0508215018 0.0373780666
165299010.0 0.052659081 0.0343069432 0.7454290421 -0.2167790203 0.7451457307 -0.2168760637 0.0517344139 0.0350557864
170298980.0 0.0533028844 0.0325702469 0.7420864093 -0.2258501551 0.7428085013 -0.226367954 0.0527791786 0.0331242285
175298950.0 0.0544351103 0.0306161977 0.7416211648 -0.2350079423 0.7414489235 -0.2350457522 0.0530898579 0.0311897307
180298920.0 0.0552199943 0.0291091549 0.7392583951 -0.2449199162 0.7391646221 -0.2443572988 0.0539513395 0.0299716704
185298890.0 0.0560381593 0.0272531151 0.7366720342 -0.2537292437 0.7370173162 -0.2537902158 0.0542925704 0.0279577954
190298860.0 0.0562626062 0.0257511906 0.7343526187 -0.2632911422 0.7348797384 -0.2627957332 0.0557296143 0.0263150557
195298830.0 0.056342369 0.0241060801 0.7317119496 -0.2710314089 0.7320766728 -0.2720823548 0.055707903 0.0241052797
200298800.0 0.0568920344 0.0227294769 0.7296467124 -0.2801152313 0.7291160451 -0.2802251863 0.0562499445 0.0233866675
205298770.0 0.0571032466 0.0214204657 0.7271897217 -0.289687375 0.7265860822 -0.2893932588 0.0564190555 0.0212667502
210298740.0 0.056943448 0.0196882484 0.7239165036 -0.2987272736 0.723813631 -0.2988260559 0.056854358 0.0201097478
215298710.0 0.0576865538 0.0186557238 0.7211928707 -0.3070093908 0.720743695 -0.3068889828 0.0571442493 0.0184838407
220298680.0 0.0580843738 0.0171561643 0.7176594519 -0.3161777883 0.7175636935 -0.3156553883 0.057452985 0.0176328207
225298650.0 0.0582613907 0.0159898241 0.7140310081 -0.3237430313 0.7142115463 -0.3241229319 0.057639746 0.0158572067
230298620.0 0.0579218958 0.0149698745 0.711405533 -0.3330026476 0.7109701861 -0.3330136539 0.0575456264 0.0142147181
235298590.0 0.0586029951 0.0132736193 0.7075360279 -0.3411447243 0.707748594 -0.3415045815 0.0579007345 0.0129706632
240298560.0 0.0581707181 0.0121282935 0.703864581 -0.349698205 0.7041225165 -0.3488526734 0.0580624382 0.01193926
245298530.0 0.0589533335 0.011240577 0.6991549657 -0.3576381118 0.7000456361 -0.3577500778 0.0583620911 0.0109561336
250298500.0 0.0584386598 0.0097001765 0.6961610418 -0.3650854526 0.696712378 -0.3657300077 0.0586140606 0.0088958491
255298470.0 0.0582093132 0.0088668686 0.6916671243 -0.3745670857 0.6924332055 -0.3741954297 0.0588303073 0.0077072603
260298440.0 0.05807413 0.0078483295 0.687898957 -0.3817708112 0.6885117195 -0.3824859619 0.0592592385 0.0069161764
265298410.0 0.0590312892 0.0068760612 0.6837070862 -0.3909385926 0.6839592356 -0.3907176447 0.058685903 0.0056693135
270298380.0 0.0590718862 0.0058106076 0.6793312755 -0.3984504744 0.6802811547 -0.3984037185 0.0589431971 0.0053758879
275298350.0 0.0584256648 0.0049671937 0.6756698881 -0.4067324415 0.6760483778 -0.4066281164 0.0588863726 0.0038442951
280298320.0 0.0586344613 0.0040126173 0.671009326 -0.4131334944 0.6713242193 -0.4142470066 0.059125111 0.0031498435
285298290.0 0.0587242177 0.0032200659 0.666292438 -0.4214260907 0.6666465439 -0.4221438266 0.0585155517 0.0015580617
290298260.0 0.0588390991 0.0018189418 0.6621479024 -0.4299921994 0.6624241201 -0.4296932226 0.0593590565 0.0006946883
295298230.0 0.0588418234 0.0007775406 0.6579491704 -0.4374072259 0.6578280361 -0.4371571723 0.0596676948 -0.0002663716
300298200.0 0.0590119603 0.0001416435 0.6531510053 -0.4447348375 0.6531418671 -0.4452045302 0.0592739238 -0.0013851342
305298170.0 0.0587405128 -0.001317531 0.6488004195 -0.4530464557 0.648947451 -0.4531540999 0.0597562603 -0.0019283973
310298140.0 0.0596015145 -0.0024455336 0.644073565 -0.4607249716 0.6434885899 -0.4611581527 0.0596331712 -0.0026061117
315298110.0 0.058740043 -0.0033463467 0.6385137111 -0.4679614935 0.6387296682 -0.4681875314 0.0598070871 -0.0045899022
320298080.0 0.0585002262 -0.0045088101 0.6331474466 -0.4753466259 0.6338263669 -0.4757458705 0.0593739453 -0.0057057881
325298050.0 0.0583888538 -0.0056556342 0.6281690505 -0.4835412893 0.6280739145 -0.4834162847 0.0589443161 -0.0069691965
330298020.0 0.0579845461 -0.0064230792 0.6215771776 -0.4903800379 0.6220845349 -0.4905249768 0.058192318 -0.0083333398
335297990.0 0.0576837023 -0.0078484659 0.616453054 -0.4977727457 0.6167963859 -0.4981945663 0.0579668013 -0.0090639214
340297960.0 0.0564732785 -0.0078152147 0.6107961565 -0.5050367206 0.6109196536 -0.5044155038 0.057410239 -0.0095843803
345297930.0 0.056381162 -0.0085203345 0.6053418969 -0.5106248249 0.6047393434 -0.5109306464 0.0575017075 -0.010836047
350297900.0 0.0566233303 -0.0092450686 0.5992878997 -0.5175383262 0.5996561902 -0.5175947923 0.0567715949 -0.0104476784
355297870.0 0.0559841852 -0.0102768506 0.5934613711 -0.5243826351 0.5935467068 -0.5249286702 0.0563252795 -0.0115512995
360297840.0 0.0561800677 -0.0105641842 0.5878991108 -0.5318927699 0.5874262836 -0.5313770263 0.0563782551 -0.0117972353
365297810.0 0.0559685685 -0.0113372379 0.582022513 -0.5379207595 0.5815022274 -0.5377722887 0.055974083 -0.0123050101
370297780.0 0.0556239913 -0.0123342676 0.5756935971 -0.5442037602 0.5757797546 -0.5449043116 0.0558732343 -0.0131083841
375297750.0 0.0552547376 -0.0122981323 0.5704086796 -0.5506782934 0.5698491169 -0.5513065277 0.0554588409 -0.0135494744
380297720.0 0.0552673238 -0.0136536426 0.5636583994 -0.556851256 0.5637021804 -0.5569188278 0.0551954046 -0.0144664129
385297690.0 0.0547466544 -0.0140801694 0.5574443488 -0.5626857256 0.5573475419 -0.5634479368 0.0548979838 -0.0148397559
390297660.0 0.0543850112 -0.0149503574 0.5511694961 -0.5702212913 0.5514839003 -0.5702773781 0.0549440562 -0.0157424979
395297630.0 0.0545662146 -0.0156951644 0.5453030291 -0.5753305662 0.5449876144 -0.5756513276 0.0545261141 -0.0159243409
400297600.0 0.0537915601 -0.0159876097 0.5382721462 -0.5818281899 0.5396271148 -0.5824810292 0.0533437384 -0.0169811946
405297570.0 0.0540216798 -0.0163700069 0.5324084967 -0.5877399363 0.5325037449 -0.587800754 0.0536840248 -0.016895657
410297540.0 0.0536918475 -0.0176097879 0.5249389052 -0.5935181537 0.5256080262 -0.594280352 0.0531858608 -0.0177801252
415297510.0 0.0531674104 -0.017178889 0.518907335 -0.5988341869 0.5193354618 -0.5997326483 0.0527170018 -0.018039483
420297480.0 0.0530833157 -0.0188605233 0.5120919751 -0.6055112841 0.5129475035 -0.6057765363 0.0528863051 -0.0192771885
425297450.0 0.0533644041 -0.0197780625 0.5058316669 -0.6110533584 0.5066886393 -0.6108657463 0.0524292718 -0.0189207118
430297420.0 0.0525968718 -0.0196066025 0.499194067 -0.616753333 0.4995416548 -0.6169087192 0.0515485786 -0.0202841644
435297390.0 0.0525587805 -0.0207038441 0.4925148305 -0.6220569817 0.4924746066 -0.621899502 0.0512017973 -0.0197945498
440297360.0 0.0520635925 -0.0214756061 0.4848593076 -0.6270144185 0.4850554336 -0.6273848386 0.0510891025 -0.0213189333
445297330.0 0.0523333035 -0.0221059917 0.4783576733 -0.6336828196 0.4783859224 -0.6330146017 0.0510284387 -0.0216199353
450297300.0 0.051698778 -0.0225918705 0.4711975559 -0.6385778938 0.4716448644 -0.6387883887 0.0501576297 -0.0219582406
455297270.0 0.0509874027 -0.0232880225 0.4650293413 -0.6432151953 0.4649074768 -0.6434264185 0.0503281149 -0.0224410969
460297240.0 0.0503689748 -0.0240857665 0.4572429968 -0.6483437421 0.4573646392 -0.6485759527 0.0498399957 -0.0224202974
465297210.0 0.0505457507 -0.0248705672 0.4506805519 -0.6535831535 0.4506982653 -0.6539747218 0.0488294816 -0.0238848617
470297180.0 0.0498914554 -0.0251751923 0.4431661351 -0.6584462763 0.4436516472 -0.658970857 0.0480386436 -0.0240118437
475297150.0 0.0493752358 -0.0266349189 0.435671619 -0.663417624 0.4361976528 -0.6631183525 0.0483722794 -0.0246173707
480297120.0 0.0497808662 -0.0269297665 0.4287663241 -0.6678957748 0.4291420339 -0.668025501 0.0478160361 -0.0245057114
485297090.0 0.0491269716 -0.0271485394 0.421554788 -0.6731229672 0.4213566877 -0.6734408993 0.0470046652 -0.0257539182
490297060.0 0.0488648917 -0.0282969605 0.4141765306 -0.6777461568 0.4140975318 -0.6778284562 0.0469691569 -0.0257672637
495297030.0 0.0477380735 -0.0281284863 0.4061335791 -0.6824065462 0.4061458152 -0.6827142704 0.0467727647 -0.0263385308
500297000.0 0.0480718042 -0.0292862696 0.3994504243 -0.6864326891 0.3987652471 -0.6866321345 0.0456471542 -0.026881122
505296970.0 0.0471659417 -0.0297636082 0.3906888479 -0.69087412 0.3910090407 -0.6908115326 0.044852735 -0.0269107214
510296940.0 0.0467317883 -0.0300381885 0.3834788259 -0.6954300528 0.3842743741 -0.6954598643 0.0453101564 -0.0272574876
515296910.0 0.0459030907 -0.030437367 0.3757806819 -0.6988764926 0.3758752429 -0.6994954061 0.044146464 -0.0278951869
520296880.0 0.0457203743 -0.0313556099 0.3679027147 -0.7036033485 0.36871074 -0.7035503951 0.044133421 -0.0281748567
525296850.0 0.0453466862 -0.0321012247 0.3606584649 -0.7076730767 0.3609438589 -0.7076343814 0.0437393802 -0.0283678911
530296820.0 0.0451334467 -0.0322989372 0.3534124381 -0.7105057255 0.353062122 -0.7118326234 0.0431027264 -0.0298257149
535296790.0 0.0442577673 -0.0329212863 0.3451258513 -0.7149533481 0.3453778839 -0.7153469414 0.0427539959 -0.0303421562
540296760.0 0.0438744585 -0.0336299526 0.337746088 -0.7195174951 0.3364034271 -0.7192802356 0.0415927293 -0.0298769412
545296730.0 0.0437304233 -0.0336165005 0.3294182619 -0.7224077803 0.3290912461 -0.7233502794 0.0411760712 -0.0308752431
550296700.0 0.0427995148 -0.0343536256 0.3214449819 -0.7262326379 0.3217865002 -0.7268753157 0.0405362011 -0.0305408004
555296670.0 0.0426033733 -0.0350543817 0.3134879569 -0.7299493749 0.3135168368 -0.730170867 0.0400711991 -0.0308913421
560296640.0 0.0416387021 -0.0353767343 0.3059793414 -0.7332139241 0.3054606185 -0.7329033307 0.0397222334 -0.0313841604
565296610.0 0.0406142919 -0.0359677008 0.2974596025 -0.7367278103 0.2971802292 -0.7369337842 0.0388785211 -0.0322630432
570296580.0 0.0410938828 -0.0364765531 0.2894270341 -0.7397928158 0.2895366463 -0.7399689463 0.0387526574 -0.0315613459
575296550.0 0.0404075979 -0.0363481056 0.2812454154 -0.7423914785 0.2820149043 -0.7425112263 0.0385020503 -0.0326575907
580296520.0 0.0396039237 -0.0370555655 0.2739100412 -0.7458975019 0.2730073428 -0.7463297473 0.0377101617 -0.0332797188
585296490.0 0.0393376224 -0.0378270061 0.2655120234 -0.7491883566 0.2646950641 -0.7488419158 0.0371130966 -0.0336232363
590296460.0 0.0379404412 -0.0384471375 0.2568959186 -0.7517992321 0.2566908266 -0.7517484766 0.0366748882 -0.0333213713
595296430.0 0.037793917 -0.038087397 0.2491040121 -0.7543732296 0.2487484744 -0.7547337015 0.0362863981 -0.0339511225
600296400.0 0.0372245096 -0.038708162 0.240768739 -0.7567465224 0.2408395924 -0.7568550921 0.0352698301 -0.0340770018
605296370.0 0.0368685778 -0.0385348665 0.2321828862 -0.7598562663 0.2324539213 -0.7597460773 0.0349923266 -0.0349748494
610296340.0 0.0357878762 -0.0392872487 0.2243279325 -0.7623759178 0.2242689099 -0.7623726935 0.0341757242 -0.0343285605
615296310.0 0.0356866805 -0.039556962 0.2154708966 -0.7646612026 0.215642167 -0.7648082852 0.0341393856 -0.0352935778
620296280.0 0.0346408006 -0.0399983907 0.207467876 -0.7666883361 0.2069968597 -0.7671699481 0.0333052138 -0.0356836311
625296250.0 0.0347289912 -0.0403004822 0.1988194612 -0.7690348072 0.1987977706 -0.7693503704 0.0330724535 -0.0355795073
630296220.0 0.0337820722 -0.0405127469 0.1899085451 -0.771480924 0.1907607815 -0.7714820594 0.0318250996 -0.0360075828
635296190.0 0.0330885621 -0.0409162441 0.1818211027 -0.7726704267 0.1816273841 -0.7730708046 0.0312720303 -0.0366224269
640296160.0 0.0322868694 -0.0410514745 0.173807739 -0.7749013823 0.1735566965 -0.7753122716 0.0314181093 -0.0367778734
645296130.0 0.0321617483 -0.0412002541 0.1652571953 -0.7774296443 0.1649555199 -0.7772956022 0.029857552 -0.037494529
650296100.0 0.0310613204 -0.0410361267 0.1572186997 -0.7781453885 0.1568727316 -0.7785702323 0.0297480942 -0.0372638219
655296070.0 0.0304043896 -0.0419574574 0.1480520347 -0.779977329 0.1480583245 -0.7802424815 0.0300663197 -0.0371009411
660296040.0 0.0292126244 -0.0416272917 0.1397693524 -0.7814399994 0.1397531165 -0.7817384557 0.0287618389 -0.0378645555
665296010.0 0.0293203717 -0.0423706404 0.1309823782 -0.7829452663 0.131796283 -0.7832177179 0.0278650855 -0.0373963963
670295980.0 0.0292485984 -0.0422210914 0.123121559 -0.7849718666 0.1231443983 -0.7845447642 0.0268296261 -0.0383100002
675295950.0 0.0284482123 -0.0424787158 0.1138202938 -0.7856348679 0.1145280326 -0.7867559487 0.0272366678 -0.0377831447
680295920.0 0.0276975411 -0.0427005514 0.1054326343 -0.7874790888 0.1052461193 -0.7872092997 0.0266261358 -0.038549028
685295890.0 0.0267462667 -0.0426820263 0.0973355285 -0.7878352627 0.0967746608 -0.7886504275 0.0259031686 -0.0381515326
690295860.0 0.0264370805 -0.0431570691 0.0886332616 -0.7888451915 0.0881678591 -0.7889397615 0.025652828 -0.0382488246
695295830.0 0.0262707188 -0.0435889711 0.0786980075 -0.7902921382 0.0790200923 -0.7904380215 0.0241305517 -0.0387148332
700295800.0 0.0259389905 -0.0434562377 0.0712034048 -0.7909521047 0.0706254802 -0.7916255214 0.0238945565 -0.0396189793
705295770.0 0.0246799892 -0.0435678632 0.0622911385 -0.7915498915 0.0624294386 -0.7917953328 0.0230561875 -0.0391752606
710295740.0 0.0242676669 -0.043328873 0.0536041444 -0.7916820415 0.0534470363 -0.79215395 0.022121691 -0.0390548134
715295710.0 0.0236555438 -0.0438653949 0.0452607749 -0.7928427053 0.0454899444 -0.7930536248 0.0220394934 -0.0398501088
720295680.0 0.022847292 -0.0442385538 0.0367732709 -0.7931555379 0.0366392419 -0.7940784465 0.0216849406 -0.0390512749
725295650.0 0.0222773567 -0.0440682747 0.0277235184 -0.7931775703 0.0277695447 -0.7934316994 0.0212416108 -0.0393319396
730295620.0 0.0212447848 -0.0442613422 0.019259056 -0.7941563218 0.019211507 -0.7941321393 0.0207407143 -0.0404212572
735295590.0 0.0212706937 -0.0442119436 0.0110355141 -0.7937154105 0.0112212071 -0.7941574132 0.0197649649 -0.0397531227
740295560.0 0.0200951521 -0.0442431545 0.0021059105 -0.7934183036 0.0020265601 -0.7937571392 0.0196407979 -0.0400881577
745295530.0 0.0197494842 -0.0447661234 -0.0065019829 -0.794357436 -0.0066191236 -0.794496084 0.018276671 -0.0398835387
750295500.0 0.018933462 -0.0445592099 -0.0151311728 -0.7931776992 -0.0154863132 -0.794121492 0.0182844835 -0.0404922212
755295470.0 0.0189883301 -0.0444906139 -0.0239327799 -0.7936746473 -0.0235130757 -0.7938153042 0.0167598579 -0.040259121
760295440.0 0.0178715813 -0.0445870185 -0.0322388924 -0.7934802822 -0.0327591534 -0.7935229774 0.0160829398 -0.0403889425
765295410.0 0.0169477792 -0.0450159279 -0.0403910824 -0.7927440103 -0.0405111169 -0.7932865529 0.017048202 -0.0397933896
770295380.0 0.0169147222 -0.0446321438 -0.0498110801 -0.7918375648 -0.0493838761 -0.7922315048 0.0162887753 -0.0396447005
775295350.0 0.0161474542 -0.0447424358 -0.0579468012 -0.7915072784 -0.058048367 -0.7923521234 0.0146032755 -0.0410990223
780295320.0 0.0157749784 -0.0450292933 -0.0668879536 -0.7909797004 -0.0666330057 -0.7912952471 0.0144088411 -0.0400561577
785295290.0 0.0146337397 -0.0443369125 -0.074866234 -0.7888613466 -0.07571789 -0.790775653 0.0130780438 -0.0401709892
790295260.0 0.0139254134 -0.0443952913 -0.0837964252 -0.7891699034 -0.0837535458 -0.7899501927 0.0130801071 -0.0402840542
795295230.0 0.0132363742 -0.0447467987 -0.0920771851 -0.7877620605 -0.0922065968 -0.7883106323 0.0124218004 -0.0395325535
800295200.0 0.0130560278 -0.0445953068 -0.1011561629 -0.7875774404 -0.1016136037 -0.7875756859 0.0120069573 -0.0399067477
805295170.0 0.0117929389 -0.0448518506 -0.1096746959 -0.7854877506 -0.1095739749 -0.7860230822 0.0110976041 -0.0402587633
810295140.0 0.0114711167 -0.0445277382 -0.1179726331 -0.784825183 -0.1179118361 -0.7856756089 0.0107198597 -0.0398448812
815295110.0 0.0106508192 -0.044324215 -0.1270226004 -0.7832354103 -0.1272841632 -0.7837190947 0.0096503292 -0.0402719624
820295080.0 0.0102567247 -0.0450897507 -0.1350806458 -0.7821227358 -0.1354957523 -0.7825135016 0.0089554359 -0.0400044152
825295050.0 0.0096700129 -0.0447620915 -0.1438773326 -0.7798735575 -0.1436903943 -0.7808105673 0.0089851592 -0.0394289909
830295020.0 0.0086381256 -0.0442022835 -0.1523079378 -0.7784226536 -0.1524980567 -0.7790753045 0.0083124182 -0.0400790582
