!Created with skrf (http://scikit-rf.org).
# Hz S RI R 50.0 
!freq ReS11 ImS11 ReS21 ImS21 ReS12 ImS12 ReS22 ImS22
300000.0 -0.2404008681 -0.0888112623 0.4718433946 0.0607043647 0.4702160546 0.0569536548 -0.2367443576 -0.0991169147
5299970.0 -0.2447772327 0.0066323796 0.4747324391 0.0050660221 0.474917757 0.0049921945 -0.240849193 0.0076353905
10299940.0 -0.2414672253 0.0181062145 0.4765248022 0.0056927063 0.4767312975 0.0059363762 -0.2373324709 0.0208233104
15299910.0 -0.2373826699 0.0267376144 0.4802048537 0.0074547501 0.4805547361 0.00721827 -0.232807256 0.0302428911
20299880.0 -0.2329651765 0.033934379 0.4850001915 0.0081867031 0.4850851284 0.0076797364 -0.2276446699 0.0384641857
25299850.0 -0.2276926329 0.04030245 0.4901705873 0.0068453874 0.4900093607 0.0070573755 -0.2219297691 0.0447543407
30299820.0 -0.2222820559 0.0451826462 0.4956951472 0.0047618347 0.495338503 0.0045456038 -0.2157831364 0.0501757132
35299790.0 -0.2174916951 0.0490936004 0.5007818801 0.0016091455 0.5006850824 0.0013713627 -0.2103993542 0.0544574369
40299760.0 -0.2126930864 0.0526064647 0.5057839776 -0.0025110085 0.505858085 -0.0026664904 -0.2050585093 0.0575911093
45299730.0 -0.2076894881 0.0548468375 0.5102122345 -0.0072724854 0.5105756811 -0.0073122393 -0.2000132353 0.0606137308
50299700.0 -0.2037384215 0.0567452902 0.5144980204 -0.0125837302 0.5147688127 -0.012839913 -0.1952771877 0.0625680499
55299670.0 -0.1999562987 0.0585025775 0.5183397415 -0.0188350888 0.5184252806 -0.0185084329 -0.1914165717 0.0644660268
60299640.0 -0.1958411025 0.0598290964 0.5216108022 -0.0252092608 0.5221666098 -0.0248895472 -0.1876793789 0.0653948842
65299610.0 -0.1928037425 0.0612013012 0.5245294196 -0.0314638164 0.5248845299 -0.0313292222 -0.1840397624 0.0666760368
70299580.0 -0.1899757793 0.0620038594 0.5269478047 -0.0377545594 0.5269678838 -0.0380021813 -0.180938378 0.0677307004
75299550.0 -0.1871092226 0.0631759515 0.5290286028 -0.0449756068 0.5288203277 -0.044836185 -0.1780362177 0.0682967959
80299520.0 -0.1845846885 0.0638681701 0.5310625023 -0.0518524134 0.5310696233 -0.0517965139 -0.1752149753 0.0693006645
85299490.0 -0.1826808354 0.0642516851 0.5318781099 -0.0580478044 0.5320440303 -0.0581270815 -0.1732407639 0.0697979773
90299460.0 -0.1805159841 0.0648708983 0.5327636575 -0.0655400963 0.5333833464 -0.0656143617 -0.1707092144 0.0707263734
95299430.0 -0.1782251847 0.0652922945 0.5339573875 -0.0718129637 0.5340329981 -0.0725185071 -0.1681053855 0.0712217179
100299400.0 -0.1767183433 0.0663119749 0.5339987217 -0.0791003352 0.5339637076 -0.0792970225 -0.1659057735 0.0717376515
105299370.0 -0.174686948 0.0668448388 0.5343669617 -0.0865326382 0.5348209773 -0.0861767538 -0.1639055932 0.0725410354
110299340.0 -0.1734152992 0.0674247556 0.5350177579 -0.0930724567 0.5346521816 -0.092912381 -0.1629870369 0.072733993
115299310.0 -0.1718959889 0.0682079642 0.534792963 -0.0997674737 0.5348837245 -0.0995203924 -0.1613227805 0.0736658899
120299280.0 -0.1705705189 0.0685970483 0.5344454674 -0.1067474138 0.5341267263 -0.1066030058 -0.1595038259 0.0742660634
125299250.0 -0.169600959 0.0691776667 0.5339775082 -0.1129668064 0.5342816708 -0.1130888725 -0.1583981826 0.0748412802
130299220.0 -0.1685784412 0.0702230813 0.5334989309 -0.1201255556 0.5329877978 -0.1201420931 -0.1572232585 0.0757234191
135299190.0 -0.1675652205 0.0712807107 0.5331835449 -0.1270399518 0.5324023152 -0.1263545447 -0.1554188732 0.0768131055
140299160.0 -0.166523942 0.0722071575 0.5320044143 -0.1335248687 0.5320500307 -0.1336578529 -0.1546225438 0.0781167027
145299130.0 -0.1654285976 0.0729225244 0.5313060501 -0.1400494059 0.5306826977 -0.1396120901 -0.1533458627 0.0788911135
150299100.0 -0.1643394646 0.073868932 0.5299469306 -0.1461418798 0.5299582806 -0.1461154703 -0.1521036338 0.0801545452
155299070.0 -0.1638410327 0.0747185571 0.5289465274 -0.1532897034 0.528453458 -0.1527736987 -0.1511950937 0.0810491376
160299040.0 -0.1628367618 0.0758682978 0.5271682171 -0.1589676378 0.5267624593 -0.1591182101 -0.1504455869 0.0822360639
165299010.0 -0.1620990893 0.0769269562 0.5258510076 -0.1662172834 0.5258937196 -0.1659268187 -0.1491627544 0.08349021
170298980.0 -0.1612451163 0.0777422987 0.5240361311 -0.1721262675 0.5244143651 -0.172249083 -0.1483029396 0.08468177
175298950.0 -0.1607469565 0.078787779 0.5229979426 -0.1780384579 0.5224664973 -0.1783499643 -0.1474272482 0.0863764061
180298920.0 -0.1600952052 0.080060084 0.5210489199 -0.1848411291 0.5205813358 -0.1844746206 -0.1464529916 0.087230273
185298890.0 -0.15897782 0.0808784436 0.5193664488 -0.1903496663 0.5188961303 -0.1905646538 -0.1456388929 0.0888531765
190298860.0 -0.1585344185 0.0824503208 0.5170471608 -0.197026433 0.5176317415 -0.1968431797 -0.1446006611 0.0899391716
195298830.0 -0.1577108977 0.0832919958 0.5150704342 -0.2031774067 0.5153577741 -0.2030323166 -0.1434788602 0.0911683766
200298800.0 -0.1568388837 0.0846738234 0.5129299263 -0.2093343342 0.5131539988 -0.2092150234 -0.143050567 0.0924203732
205298770.0 -0.1562450628 0.0858931104 0.5108174001 -0.2153605045 0.5105777083 -0.2149428298 -0.1419770502 0.0932195108
210298740.0 -0.1552960401 0.0871188895 0.5083078951 -0.2209541739 0.508515808 -0.2207296818 -0.1409845184 0.0954276542
215298710.0 -0.1550712339 0.0882926803 0.5065435299 -0.2273431222 0.5061137334 -0.2275644227 -0.1401615039 0.0967669394
220298680.0 -0.1538902023 0.0893172322 0.5032076527 -0.2328958876 0.5037050184 -0.2329195126 -0.1396638216 0.0977054889
225298650.0 -0.1535723591 0.0906559246 0.5012644734 -0.2389167921 0.5016346533 -0.238788046 -0.1388129222 0.0989799582
230298620.0 -0.1524719751 0.0923076605 0.4989023324 -0.2442426118 0.4991117286 -0.244783301 -0.1378266804 0.1000324604
235298590.0 -0.1518612338 0.0937589579 0.4962329716 -0.2505881189 0.4961832345 -0.2501492349 -0.1369096318 0.1017168789
240298560.0 -0.1509682672 0.0948650597 0.4938254379 -0.2564382117 0.4934413787 -0.2562645275 -0.1361949256 0.1034440896
245298530.0 -0.1504260506 0.0962098243 0.4906920107 -0.2619537236 0.4909851262 -0.2620490581 -0.1347775689 0.1040403975
250298500.0 -0.1492900229 0.0975345819 0.4872611108 -0.2676025725 0.4877399376 -0.2671070427 -0.1342058961 0.1055508193
255298470.0 -0.1486992259 0.0987654108 0.4845813371 -0.273045493 0.4848609577 -0.2728396179 -0.1330215889 0.1069110291
260298440.0 -0.1481108094 0.0999852017 0.4817822499 -0.2786059693 0.4821240853 -0.2784946628 -0.1316583113 0.1084576022
265298410.0 -0.1466741479 0.1017743417 0.478479369 -0.2842363947 0.4792073131 -0.2838630944 -0.1305450246 0.1097531747
270298380.0 -0.1459267619 0.1029808569 0.4758007362 -0.2890173564 0.4758533704 -0.2893582519 -0.1298330677 0.1110336003
275298350.0 -0.1451119451 0.1042369131 0.4727023673 -0.295035101 0.4728829776 -0.2949437778 -0.1283097006 0.1124288829
280298320.0 -0.1439865237 0.1058865482 0.4697780162 -0.3004062498 0.4695031519 -0.3001344047 -0.1268309662 0.1134304625
285298290.0 -0.142914268 0.107096299 0.4663109971 -0.3053843329 0.4661681241 -0.3056716984 -0.1257312167 0.1149030149
290298260.0 -0.1419265546 0.1086834492 0.4627640863 -0.3105208609 0.4630717453 -0.310904467 -0.1244199365 0.1166192891
295298230.0 -0.1408185384 0.1096569414 0.4594986693 -0.3163980381 0.4594396532 -0.316538321 -0.1230250385 0.1175675648
300298200.0 -0.1404182009 0.1111208174 0.4566259864 -0.3210025409 0.4563699659 -0.3214008655 -0.121858037 0.1187996309
305298170.0 -0.1388593052 0.1119326941 0.4521353818 -0.3266379446 0.4526054842 -0.3266918096 -0.1200822225 0.1201664328
310298140.0 -0.1380676363 0.1134770898 0.4492768212 -0.3318601054 0.4494437265 -0.3316906666 -0.118857286 0.1212955253
315298110.0 -0.1369813977 0.1146261331 0.4455846277 -0.3368663304 0.44553579 -0.3371497119 -0.1176879692 0.1224087393
320298080.0 -0.136016735 0.1157022586 0.4412742705 -0.3423651699 0.4417666943 -0.3421101369 -0.1164376953 0.1237915534
325298050.0 -0.1350501443 0.1171430805 0.4380170576 -0.3473060256 0.4376460868 -0.3471218591 -0.115503307 0.1252173299
330298020.0 -0.1342523308 0.1180236516 0.4338500711 -0.3520140065 0.4338281001 -0.352229465 -0.1141854919 0.1264443401
335297990.0 -0.1330167476 0.1194684803 0.4298431281 -0.3568949444 0.429768965 -0.3569840995 -0.1132128532 0.1284755548
340297960.0 -0.1324791065 0.1209410198 0.4253682993 -0.3614660787 0.4251268496 -0.3618339777 -0.1114200575 0.1294982623
345297930.0 -0.1315273062 0.122645327 0.4216652046 -0.36649698 0.4209324834 -0.3667693268 -0.1101453033 0.1306762123
350297900.0 -0.1303556725 0.123597878 0.4167907619 -0.3711894516 0.416995363 -0.3710006344 -0.1093798164 0.1326124294
355297870.0 -0.1293096534 0.1254793594 0.4129245242 -0.3756920348 0.4136658059 -0.3755196872 -0.1080268264 0.1336539687
360297840.0 -0.1282543083 0.126725535 0.4094112523 -0.3797335278 0.4095890194 -0.3797072275 -0.1066742105 0.1356077717
365297810.0 -0.1270878948 0.1282055473 0.4047554974 -0.3852117512 0.4052177312 -0.3846577552 -0.1048817011 0.136528947
370297780.0 -0.1259010853 0.1293493238 0.4003364623 -0.3891277158 0.4013767153 -0.3887356649 -0.103800763 0.1381603944
375297750.0 -0.1242654643 0.1304443792 0.3961647404 -0.3932199564 0.3967239589 -0.3936494588 -0.102349492 0.1393203098
380297720.0 -0.1235324554 0.1321206733 0.3917983388 -0.3978391391 0.3918839494 -0.3971174048 -0.1012198652 0.1404970942
385297690.0 -0.1223892013 0.1333145071 0.3873007414 -0.4016696954 0.3875883721 -0.402056397 -0.0995586529 0.1421008662
390297660.0 -0.1213300917 0.1351554419 0.383565279 -0.4064103456 0.3828788053 -0.4058987046 -0.0982692743 0.1429922099
395297630.0 -0.1200087491 0.1362589176 0.37879486 -0.4105128283 0.3787913143 -0.4106519219 -0.0963540164 0.1446308987
400297600.0 -0.1185990393 0.13754378 0.3739979834 -0.4149475682 0.3743091256 -0.4144902927 -0.0951030489 0.1457106297
405297570.0 -0.1175310514 0.1383622736 0.3696513931 -0.4182558543 0.3698976012 -0.4185484579 -0.094033562 0.1471058726
410297540.0 -0.1160010424 0.1399931583 0.3653668253 -0.422652241 0.3651409682 -0.4227916978 -0.0920576338 0.1485488187
415297510.0 -0.1146855452 0.1412348576 0.3602489033 -0.426913129 0.3604707129 -0.4268280629 -0.0905059845 0.1495171625
420297480.0 -0.113525509 0.1426958793 0.3553015829 -0.4308000294 0.3554400412 -0.4309197515 -0.0891084736 0.1501948493
425297450.0 -0.1119416207 0.1435843686 0.3510265824 -0.434648073 0.3513042367 -0.4346898976 -0.0881291437 0.1518693758
430297420.0 -0.1106140996 0.1448323685 0.3458800986 -0.4379431978 0.3461913485 -0.4378115792 -0.0860668739 0.1522207244
435297390.0 -0.1095997282 0.1461436755 0.3413749934 -0.4419764385 0.3405812931 -0.4421094808 -0.083881947 0.1534999394
440297360.0 -0.1078958985 0.1474928636 0.3362855066 -0.4453433049 0.336456327 -0.4456429335 -0.0827302846 0.1544703455
445297330.0 -0.1067386319 0.148250795 0.3318702813 -0.4493534348 0.3315937031 -0.4492899839 -0.0806588765 0.1548720958
450297300.0 -0.104978382 0.1494839749 0.3267763399 -0.4526445707 0.3265794732 -0.4531049474 -0.0792445399 0.1561252922
455297270.0 -0.1036564476 0.1504495032 0.3213455834 -0.4562083974 0.3216913362 -0.4565648203 -0.0772676271 0.1570752961
460297240.0 -0.1024569692 0.1516406213 0.3162383158 -0.4595911055 0.3168483483 -0.4599983956 -0.0757536994 0.1582621547
465297210.0 -0.1005973353 0.1529478388 0.3118766536 -0.4632682143 0.311793575 -0.4636024525 -0.0737839723 0.1587751539
470297180.0 -0.0993061152 0.153729613 0.3060537303 -0.4667139138 0.3064187087 -0.4669902653 -0.0718691245 0.1600799426
475297150.0 -0.0978514979 0.1546786511 0.3010969784 -0.4696312136 0.3013206971 -0.4694605987 -0.0699565548 0.1605759856
480297120.0 -0.0963552018 0.1562461386 0.2962933853 -0.473307332 0.2960998857 -0.4734849909 -0.067912947 0.1617539426
485297090.0 -0.0949500003 0.1573068517 0.291132071 -0.4762072361 0.2911336424 -0.4762306925 -0.0660886001 0.162721279
490297060.0 -0.0938222144 0.158342043 0.2862449757 -0.4797410348 0.2860186921 -0.479352871 -0.0643545179 0.1637483979
495297030.0 -0.0919518909 0.1592551892 0.2805773402 -0.4826381163 0.2809474919 -0.4822739538 -0.0626024599 0.1647111806
500297000.0 -0.0903040143 0.1600826668 0.2752608784 -0.4850985462 0.2749412463 -0.4852376428 -0.0607273018 0.1658650415
505296970.0 -0.0888232287 0.1610621461 0.2705238102 -0.4882054478 0.2698133406 -0.4885201964 -0.058934894 0.166528334
510296940.0 -0.0873676526 0.1621350585 0.264232483 -0.4912297365 0.2643817411 -0.4916121643 -0.0568714042 0.1672325845
515296910.0 -0.0858226264 0.1631831634 0.2591724131 -0.4943699175 0.2593048568 -0.4940071326 -0.0550959135 0.1683959839
520296880.0 -0.0842790836 0.1643664809 0.2540202392 -0.4975980849 0.2540111114 -0.4967054231 -0.0532115122 0.1690390706
525296850.0 -0.0825534783 0.1645396687 0.2481465719 -0.4993946083 0.2485169579 -0.4993146554 -0.0516351249 0.1698043701
530296820.0 -0.0809993164 0.1660382785 0.2430759591 -0.5024214264 0.2428666557 -0.5023625057 -0.0496536994 0.1707936486
535296790.0 -0.0797570351 0.1669103422 0.2382641027 -0.5046817029 0.2376856494 -0.5047488727 -0.0481863852 0.171127271
540296760.0 -0.0779860203 0.1679439798 0.2319894962 -0.5075383367 0.2320173259 -0.5078369752 -0.0461757174 0.1727280599
545296730.0 -0.0762785027 0.1686252185 0.2263519806 -0.5096665169 0.2264854901 -0.5100275368 -0.0441234163 0.1728990547
550296700.0 -0.0743711619 0.1699052268 0.2206361775 -0.5123135718 0.221081236 -0.5122457562 -0.0424754605 0.1736498961
555296670.0 -0.0731089461 0.1705280599 0.2155786816 -0.5145627194 0.2155259954 -0.5145600741 -0.0406240183 0.1744804403
560296640.0 -0.0711029218 0.1715222222 0.209894913 -0.5168366753 0.2097722723 -0.5170736428 -0.0383212965 0.1748906031
565296610.0 -0.0698819149 0.172289258 0.2042780947 -0.5193008738 0.2043449254 -0.5193042848 -0.0369028596 0.1754643936
570296580.0 -0.0682642171 0.1731940661 0.1987299168 -0.5219130208 0.1979914181 -0.5215063846 -0.0350618257 0.1764039977
575296550.0 -0.0665134046 0.1740310343 0.1930272856 -0.523718412 0.1925195796 -0.5238272888 -0.0328644048 0.1768118041
580296520.0 -0.0644577644 0.1746381765 0.1868658323 -0.5257679237 0.1869616432 -0.5253089763 -0.0311310404 0.1768716218
585296490.0 -0.0631426633 0.1750467251 0.1815441894 -0.5268711419 0.1815798664 -0.5273363424 -0.0292169605 0.1776106096
590296460.0 -0.0610804387 0.1762105362 0.1758210633 -0.5289347953 0.1758436633 -0.5289758965 -0.0275316559 0.1782648659
595296430.0 -0.05941783 0.1768854496 0.1694745197 -0.53153817 0.1697459914 -0.5314039803 -0.0251383057 0.1778070806
600296400.0 -0.0579744823 0.177536893 0.1642317136 -0.5331250538 0.1643422074 -0.5329212484 -0.0237696907 0.1784198469
605296370.0 -0.0561866718 0.1781802129 0.1585965809 -0.5348092873 0.1583800741 -0.5347367728 -0.0215602244 0.1789526436
610296340.0 -0.0542202884 0.1790566601 0.1518785366 -0.5359991235 0.1524947004 -0.5361269208 -0.0193566243 0.1792447282
615296310.0 -0.0524364675 0.1792068835 0.1468469278 -0.5376411813 0.1464601475 -0.5384855722 -0.0171292546 0.1793164007
620296280.0 -0.0506554351 0.1799387156 0.1410320951 -0.5390695292 0.14074283 -0.5388687509 -0.0153768717 0.1798508963
625296250.0 -0.04939173 0.1805585044 0.1356400314 -0.5411567308 0.135129846 -0.5410978063 -0.0124351203 0.1797888608
630296220.0 -0.046769585 0.1812035682 0.1287517766 -0.5423298773 0.1290517488 -0.5421958078 -0.0111561883 0.180420172
635296190.0 -0.0459682899 0.1815540455 0.1236218011 -0.5436577726 0.1231449043 -0.5435123517 -0.0089231541 0.1803838374
640296160.0 -0.0439721217 0.1824848943 0.1173839099 -0.544686811 0.1176928858 -0.5446384454 -0.0069191762 0.180749839
645296130.0 -0.0419446664 0.1832139865 0.1110853597 -0.5457082474 0.1119170156 -0.5460332399 -0.0048642124 0.1808898758
650296100.0 -0.0404680749 0.1835710139 0.1057072121 -0.5472420688 0.1057096942 -0.547312671 -0.0025418268 0.1807028998
655296070.0 -0.038732611 0.1839875516 0.099968942 -0.5483332426 0.0998773056 -0.5483965462 -0.0006296089 0.1814192401
660296040.0 -0.0374780029 0.1841603953 0.0942487196 -0.5490702372 0.0938702696 -0.5495457173 0.0017154833 0.1813201483
665296010.0 -0.0347977467 0.1846174322 0.0878477703 -0.5501335524 0.0876933809 -0.5503559456 0.0037268634 0.1819603197
670295980.0 -0.0339300517 0.1856502806 0.0819516885 -0.5508505291 0.0818400712 -0.5509729411 0.005462274 0.1820694285
675295950.0 -0.0315706056 0.1858172497 0.0761900903 -0.5519084322 0.0759789896 -0.5515838891 0.0072460316 0.1821434734
680295920.0 -0.0300706701 0.1863402339 0.0696292525 -0.5526057541 0.069759802 -0.5532284404 0.0099138112 0.1827436422
685295890.0 -0.027712466 0.1870762864 0.0635046275 -0.5534436849 0.0637947049 -0.5534287426 0.0112689248 0.1823823204
690295860.0 -0.0261747543 0.1873589002 0.0579597473 -0.5536201972 0.0579671518 -0.5541977236 0.0136164185 0.1832803689
695295830.0 -0.0243986921 0.1876761019 0.0526094845 -0.5545686105 0.0516479163 -0.5545319551 0.015694574 0.1828133518
700295800.0 -0.0223253795 0.187778527 0.0458832663 -0.5549258414 0.0456498159 -0.5547643766 0.0173664033 0.1831294332
705295770.0 -0.0207711833 0.1890041642 0.039653314 -0.5558125006 0.0402594753 -0.5554980325 0.0194802414 0.1832764717
710295740.0 -0.0188426143 0.1888993202 0.0343475307 -0.556605583 0.0339404165 -0.5563111108 0.0215830035 0.1826286764
715295710.0 -0.0174024331 0.1889781713 0.0287625566 -0.5558857999 0.0279462608 -0.556229309 0.0238303592 0.1829661699
720295680.0 -0.0151058186 0.1894831345 0.0219701156 -0.556667718 0.0223296025 -0.5561368413 0.0255913353 0.1831700014
725295650.0 -0.0133022704 0.1898796543 0.0162220812 -0.5566787069 0.0162983327 -0.5564853781 0.0270641729 0.1831411259
730295620.0 -0.0110200334 0.1902771055 0.0099557051 -0.5562962102 0.0101386381 -0.5568811042 0.0291372531 0.1824816234
735295590.0 -0.0096949659 0.1904665726 0.0041416936 -0.5572554215 0.004080284 -0.5566586552 0.0312730884 0.1823397269
740295560.0 -0.0079249231 0.1909269031 -0.0016900641 -0.5569509374 -0.0020659587 -0.5569128424 0.0338374726 0.1826050092
745295530.0 -0.0060511866 0.1910609342 -0.0080058138 -0.5563346015 -0.0083079943 -0.5567641228 0.0353861281 0.181733838
750295500.0 -0.0039461696 0.1909752111 -0.0141891299 -0.5561766693 -0.0139748087 -0.5567513473 0.0374767605 0.1818319056
755295470.0 -0.002043868 0.1909279774 -0.0197484604 -0.5560340119 -0.019888298 -0.5563875848 0.0396186269 0.1809239036
760295440.0 -0.0003480696 0.1914217313 -0.0255860591 -0.5564346573 -0.0260676659 -0.5564945423 0.0412161906 0.1808939839
765295410.0 0.0014682269 0.1915687286 -0.0317043567 -0.5554669528 -0.0322334377 -0.5558675882 0.0433371931 0.1806308618
770295380.0 0.003022854 0.1914547347 -0.0378994132 -0.5552038254 -0.0378731254 -0.5551560449 0.0449711696 0.1797737926
775295350.0 0.0047620376 0.1914343725 -0.0441228784 -0.5544750939 -0.043504611 -0.5549517215 0.0465331858 0.1799189604
780295320.0 0.0071773889 0.1915889716 -0.0499605354 -0.5538590116 -0.0496366015 -0.5539266924 0.048737767 0.1790102426
785295290.0 0.0086596994 0.1913128013 -0.0559746064 -0.5533735409 -0.0559537164 -0.5534637266 0.0513558208 0.1786944297
790295260.0 0.0111812017 0.1918974574 -0.0613035894 -0.5528716365 -0.06102234 -0.55245813 0.0534507262 0.1781917824
795295230.0 0.0124613839 0.1916920037 -0.0675289866 -0.5522284178 -0.0671655392 -0.5521261547 0.0556625547 0.1779464509
800295200.0 0.0140389325 0.1919539274 -0.0741828947 -0.551307508 -0.0734399633 -0.5511630799 0.0572856895 0.1774271558
805295170.0 0.0163406804 0.1915707612 -0.0790887863 -0.5503008325 -0.0794339092 -0.5505999613 0.0594984349 0.1770486748
810295140.0 0.0178537544 0.1913472041 -0.0850428253 -0.5492113834 -0.085356493 -0.5498394021 0.0617482345 0.1764360649
815295110.0 0.0198302704 0.1910746616 -0.0912690441 -0.5479363741 -0.0909710056 -0.5483757386 0.0634958389 0.1758604009
820295080.0 0.0215884182 0.1916951513 -0.0973407249 -0.5471646894 -0.0969184242 -0.5473992173 0.065411289 0.1753442952
825295050.0 0.0241662303 0.1913594024 -0.1026520796 -0.5459702096 -0.1029188837 -0.5464124231 0.0675335157 0.174477661
830295020.0 0.0254353956 0.1914007372 -0.1094385496 -0.5450174683 -0.1089362304 -0.5446899706 0.070209727 0.1740475784
