!Created with skrf (http://scikit-rf.org).
# Hz S RI R 50.0 
!freq ReS11 ImS11 ReS21 ImS21 ReS12 ImS12 ReS22 ImS22
300000.0 -0.3163875965 -0.1301699081 0.3722775999 0.0638171909 0.3720081314 0.06496831 -0.3158574942 -0.1296617564
5299970.0 -0.3250308388 0.0026773803 0.3786020682 0.0032332026 0.3785569109 0.0032806315 -0.325847524 0.0020071897
10299940.0 -0.3223602807 0.0142906224 0.3796996367 0.0028433006 0.3800919713 0.0030394998 -0.3232007977 0.0126108868
15299910.0 -0.318902326 0.0223208257 0.3817891029 0.0025028749 0.382275 0.002816343 -0.3203973441 0.0199222794
20299880.0 -0.3156262539 0.0288022213 0.3851315962 0.0019684413 0.3852302449 0.0019514179 -0.3176944497 0.0260524026
25299850.0 -0.3116654096 0.0345846869 0.3885649986 0.0006170349 0.3886749312 0.0004509854 -0.3147338546 0.0311644941
30299820.0 -0.3082897288 0.0394690112 0.3919984649 -0.0019541091 0.3917675212 -0.0021210877 -0.3117299891 0.0357565913
35299790.0 -0.3044673718 0.0433937689 0.3949845968 -0.0050142371 0.3952152934 -0.0051231848 -0.3091498771 0.0399721874
40299760.0 -0.3014875361 0.0469770135 0.3984375646 -0.0087710793 0.3981902998 -0.0086515617 -0.3062727692 0.04319393
45299730.0 -0.2981588725 0.0500691269 0.4012149854 -0.0122907997 0.4015244974 -0.0127860575 -0.3033046554 0.0468554203
50299700.0 -0.2948882344 0.0528502905 0.4036512868 -0.0171284474 0.4038898348 -0.0173571826 -0.3009318575 0.0496895666
55299670.0 -0.2922941824 0.0553854887 0.4061097627 -0.0217043778 0.4060337123 -0.0217528208 -0.2992985764 0.0523017675
60299640.0 -0.2898705299 0.0578233443 0.4079024233 -0.0268775777 0.4078483465 -0.0269597048 -0.297090094 0.0549063443
65299610.0 -0.2872527789 0.0601169629 0.409774164 -0.0316349801 0.409789585 -0.0317277864 -0.2953658754 0.0573714314
70299580.0 -0.2854261809 0.0618468544 0.4109183019 -0.0363144912 0.4110887095 -0.03686001 -0.293566963 0.0599097463
75299550.0 -0.2835732918 0.0641872681 0.4117229039 -0.0418163964 0.4118204681 -0.0421138446 -0.291589493 0.062431452
80299520.0 -0.281589793 0.0666516922 0.4126364983 -0.0472284282 0.4129597151 -0.0472507183 -0.2901627004 0.0648390487
85299490.0 -0.2797474963 0.0681590596 0.4132804617 -0.0528893769 0.4134224256 -0.0521755492 -0.2892791192 0.0669023044
90299460.0 -0.2783664737 0.0707315661 0.4136223365 -0.0578886623 0.4135606044 -0.057784924 -0.2875919493 0.0693421869
95299430.0 -0.276882725 0.0728431313 0.4140946049 -0.0628004802 0.4143209146 -0.0630689676 -0.286482322 0.0718327782
100299400.0 -0.2753223904 0.0744621208 0.4141704503 -0.0678877521 0.4140406225 -0.0679285374 -0.2851917821 0.0742748146
105299370.0 -0.2738960711 0.0768228183 0.4140520708 -0.0730474976 0.4139614765 -0.073294609 -0.2837519148 0.076541832
110299340.0 -0.2725597676 0.0788121453 0.4136458184 -0.0784267434 0.4140946783 -0.0782352009 -0.2831662848 0.0787300114
115299310.0 -0.2714954237 0.0808048851 0.4133752602 -0.0831930131 0.4136866004 -0.0838198044 -0.2820915282 0.0813226073
120299280.0 -0.2705192379 0.0833767164 0.4133234191 -0.0890752829 0.4129838655 -0.0889161697 -0.2809854292 0.0831062988
125299250.0 -0.2693339016 0.0851949703 0.4122561858 -0.0938756493 0.4124155991 -0.0936604305 -0.279720729 0.0859990874
130299220.0 -0.2682454034 0.0873655421 0.411923405 -0.0989338534 0.4118013918 -0.0995057789 -0.2787404706 0.0882894256
135299190.0 -0.2670710392 0.0898124752 0.4113241796 -0.1035798385 0.4112582624 -0.1043974895 -0.2780274653 0.0906197269
140299160.0 -0.2662103482 0.0920632596 0.4105835646 -0.1090110525 0.4098823007 -0.1089530555 -0.2775030815 0.0931516729
145299130.0 -0.2654906664 0.0944865096 0.4094813758 -0.1136109076 0.4096718509 -0.1139814737 -0.2766425614 0.0958858218
150299100.0 -0.2641621869 0.0968847444 0.4083573214 -0.1190997022 0.4083484759 -0.118900229 -0.2756853453 0.0985502763
155299070.0 -0.2630538894 0.0994491732 0.4070637942 -0.1238434169 0.4071346689 -0.1238527995 -0.2746870574 0.1009424999
160299040.0 -0.2622517546 0.1019040285 0.4057168922 -0.1286240231 0.4060535541 -0.1288863217 -0.2737575335 0.1037271916
165299010.0 -0.2611971189 0.1042750769 0.4049956013 -0.1333481387 0.4050638794 -0.1334349681 -0.2725614354 0.1061026026
170298980.0 -0.2601862992 0.1068891454 0.4033046733 -0.138258906 0.4037781804 -0.1384748601 -0.2720007112 0.1085965268
175298950.0 -0.2590728691 0.1092679004 0.4021875156 -0.1430296251 0.4024658734 -0.143394141 -0.2706811053 0.1115230294
180298920.0 -0.2583590226 0.1117771011 0.4006018443 -0.1479814755 0.4007537948 -0.148201347 -0.2696413982 0.1137547099
185298890.0 -0.2570764681 0.1147264315 0.3991982179 -0.1529725409 0.3992984318 -0.1525832877 -0.2687297591 0.1165670018
190298860.0 -0.2559027063 0.1171427747 0.3970864514 -0.1572329505 0.3976504921 -0.157326739 -0.2676863218 0.1193294345
195298830.0 -0.2548684141 0.1197062219 0.3964439858 -0.1620136924 0.3960902762 -0.1620621807 -0.2667221562 0.1219804047
200298800.0 -0.253441817 0.1218869757 0.3941499151 -0.1667887762 0.3942165619 -0.1667399755 -0.2655725762 0.1245915711
205298770.0 -0.2528103193 0.1245936291 0.3922342712 -0.1706174946 0.3923150038 -0.1708230762 -0.2643418882 0.1274024994
210298740.0 -0.2515916862 0.1274499409 0.3906414551 -0.1757461378 0.3903290143 -0.1756115378 -0.2634968957 0.1299586698
215298710.0 -0.2502256606 0.1299936028 0.3882494268 -0.1802196408 0.3887433193 -0.180215137 -0.2622032217 0.1326561679
220298680.0 -0.2488086309 0.1325908161 0.3864779803 -0.1849160142 0.3863928747 -0.1846163237 -0.2607733726 0.1354584797
225298650.0 -0.2479718177 0.1352895612 0.3845233906 -0.1889349438 0.3845345455 -0.1884512567 -0.2599671965 0.1379645446
230298620.0 -0.2464128818 0.1382643328 0.3824717624 -0.1938915146 0.3830103387 -0.1934223875 -0.2588857982 0.1406431109
235298590.0 -0.245502291 0.1407199911 0.3804255828 -0.1983453705 0.3808375736 -0.1980348118 -0.2572157517 0.1435422417
240298560.0 -0.2440370271 0.14322792 0.3783161724 -0.2021020805 0.3785309686 -0.202120101 -0.2560462151 0.1456950023
245298530.0 -0.2425490381 0.145731078 0.3760811239 -0.2067123693 0.3760065664 -0.206609523 -0.2546586262 0.1486266825
250298500.0 -0.2416383372 0.1481782496 0.3739635397 -0.210399983 0.3743972619 -0.2106162151 -0.2537252603 0.151504413
255298470.0 -0.2401322688 0.1511198578 0.3717556482 -0.214675872 0.371980934 -0.2150409424 -0.2520039351 0.1543571792
260298440.0 -0.2387290106 0.153683068 0.3695115591 -0.2190538092 0.3695450652 -0.2190936709 -0.2506009233 0.1565737635
265298410.0 -0.2374457072 0.1563661256 0.3668251768 -0.22363023 0.3664885444 -0.2235991199 -0.2484640096 0.159233888
270298380.0 -0.2359918534 0.1587985748 0.3642576338 -0.2275359585 0.3641058872 -0.2275871007 -0.2470638738 0.1623977831
275298350.0 -0.2345420635 0.1616003983 0.3618079948 -0.2315345968 0.3618030963 -0.2314015605 -0.2457517968 0.1647527691
280298320.0 -0.2331183302 0.1636639609 0.3592338607 -0.2353351914 0.3595551498 -0.2356627723 -0.2444737415 0.1677480623
285298290.0 -0.2316797592 0.1665856993 0.3567705249 -0.2394041615 0.3568591126 -0.2395488796 -0.2429079626 0.1703143229
290298260.0 -0.2298806628 0.1692762488 0.354386424 -0.2436504667 0.3541821102 -0.2438258897 -0.2409784046 0.1728408995
295298230.0 -0.2283277154 0.1715139192 0.3514930884 -0.2479581703 0.3516028398 -0.2482129522 -0.2390881895 0.1757369211
300298200.0 -0.2268517075 0.1743273497 0.3487899729 -0.2517747722 0.3491039423 -0.2518558895 -0.2374380313 0.1780959904
305298170.0 -0.2250552829 0.1763105984 0.3462656591 -0.2555697553 0.3464221305 -0.2557401743 -0.2355702883 0.1803344964
310298140.0 -0.2232460528 0.1788355362 0.3432979189 -0.2592525799 0.3435706893 -0.2595769575 -0.233815525 0.1830548827
315298110.0 -0.2216942945 0.1811421383 0.3403027561 -0.2637758547 0.3404821457 -0.2637402339 -0.231963317 0.1856419876
320298080.0 -0.2197666585 0.1837682608 0.3367340733 -0.2674440958 0.3379383172 -0.2674960793 -0.2304745643 0.1877403038
325298050.0 -0.2184980365 0.1856529531 0.334522483 -0.2711593685 0.3346672064 -0.2709967944 -0.2281963717 0.1902479943
330298020.0 -0.2173968947 0.1885254538 0.3312531798 -0.2748576641 0.3316348645 -0.2749677369 -0.2268392977 0.1927517535
335297990.0 -0.2152969279 0.1910207778 0.3283131971 -0.2789544541 0.3287586946 -0.2787171705 -0.2248756673 0.1955250453
340297960.0 -0.2136445955 0.193427432 0.3246175048 -0.2823310296 0.3252162856 -0.2823114363 -0.2233772959 0.1981011101
345297930.0 -0.2118093418 0.1956327025 0.3218289837 -0.286269307 0.3218831312 -0.2859856107 -0.2210801008 0.2004662762
350297900.0 -0.2099701053 0.197861977 0.3189451053 -0.289343677 0.3187517563 -0.2892333388 -0.2193107514 0.2026468776
355297870.0 -0.208424088 0.2002636406 0.3155459082 -0.2923583962 0.3154381171 -0.2927770942 -0.2170733587 0.2052780868
360297840.0 -0.2062043131 0.2027191982 0.3119209986 -0.296683999 0.3123750869 -0.2965647911 -0.2150095703 0.2077659635
365297810.0 -0.2045628216 0.2047832251 0.3089647869 -0.299494637 0.3089077388 -0.2996031491 -0.2132430394 0.2099581734
370297780.0 -0.2024852244 0.2072411371 0.3052345379 -0.3033927739 0.305753127 -0.3030639333 -0.2110750418 0.2125734222
375297750.0 -0.2005227974 0.2099656859 0.3023353744 -0.3063712991 0.3024832125 -0.306409239 -0.208844676 0.215308287
380297720.0 -0.19877156 0.2121962813 0.2989346578 -0.3101365433 0.2987381296 -0.3100509963 -0.2064950476 0.2175802849
385297690.0 -0.1966037092 0.2141065303 0.2956796176 -0.3131564095 0.295694579 -0.3131396769 -0.2042732604 0.2200181741
390297660.0 -0.1939767363 0.2160927866 0.2916675679 -0.3156788264 0.291895821 -0.3161235002 -0.2020016533 0.2220570185
395297630.0 -0.192015528 0.2185162637 0.288425629 -0.3189402069 0.2885321499 -0.3193858675 -0.199859656 0.224274071
400297600.0 -0.1898402754 0.2209502707 0.2845956318 -0.322406055 0.2851482728 -0.3224769492 -0.1973874348 0.2267779559
405297570.0 -0.187996312 0.2227012348 0.2815113212 -0.3252432144 0.281577385 -0.3258460426 -0.1949170755 0.2293260494
410297540.0 -0.185349723 0.2249085186 0.2775966478 -0.3289976792 0.2778181373 -0.3285559825 -0.1927562265 0.2313516324
415297510.0 -0.1833977296 0.226897911 0.2740093563 -0.3318204209 0.2745576262 -0.3318749349 -0.1903270939 0.2335376483
420297480.0 -0.1811351121 0.2289216886 0.2703887651 -0.3348217672 0.2705374837 -0.3345939296 -0.1878610893 0.2358527301
425297450.0 -0.1784885172 0.2307278789 0.266683185 -0.3376132139 0.2669025317 -0.337832297 -0.1855033233 0.2378683668
430297420.0 -0.1765158796 0.2327301317 0.2634831257 -0.3406185726 0.2632324715 -0.3401680383 -0.1827813893 0.2397267998
435297390.0 -0.1741252535 0.2349519711 0.2594781239 -0.3439957378 0.2594499395 -0.3433863325 -0.1806582069 0.2425299724
440297360.0 -0.1715347485 0.2365952005 0.2549660055 -0.3465528098 0.2554817422 -0.3461922037 -0.1783875617 0.2443708005
445297330.0 -0.1691104193 0.2380915735 0.2518111784 -0.3486772525 0.2520597309 -0.3491972976 -0.1752013451 0.2463032653
450297300.0 -0.1667571196 0.2402562553 0.2480184254 -0.3515866904 0.2482219746 -0.3515170789 -0.1726860932 0.2481964822
455297270.0 -0.1644458928 0.2420962289 0.2442173964 -0.3543453225 0.2441640875 -0.3543087902 -0.1700721703 0.2502574435
460297240.0 -0.1614682839 0.2442018534 0.2400171804 -0.3572965578 0.2399619487 -0.3572085903 -0.1675177517 0.2517764203
465297210.0 -0.1593123625 0.2457852559 0.2360318043 -0.3598054347 0.2356078217 -0.3597894906 -0.1645760905 0.2546871071
470297180.0 -0.156413609 0.2476347301 0.2321594929 -0.3618808334 0.2323329457 -0.362050255 -0.1621275273 0.2557409517
475297150.0 -0.1540137986 0.2494184168 0.2279296094 -0.3645251669 0.2282450795 -0.3649233511 -0.159607056 0.2581974827
480297120.0 -0.150959192 0.2514066052 0.2239302463 -0.3670759018 0.2242893382 -0.367041942 -0.1571120605 0.2600200569
485297090.0 -0.1483674651 0.2527989713 0.2198657297 -0.3694374416 0.2201625603 -0.3696273765 -0.1542381042 0.2619485418
490297060.0 -0.1452626465 0.2544704599 0.2155773016 -0.3721822682 0.2158181009 -0.3720134259 -0.1514111878 0.2631133712
495297030.0 -0.1430710862 0.2561256009 0.2121355981 -0.3743272099 0.2117854334 -0.3743823283 -0.1482802259 0.264823367
500297000.0 -0.1403624152 0.2579245726 0.2077356071 -0.3763999625 0.2076717486 -0.3764724345 -0.1457090525 0.266712455
505296970.0 -0.1371308478 0.2596452459 0.2036026835 -0.3787959088 0.2035489858 -0.3786036196 -0.1428424219 0.2683262653
510296940.0 -0.1344401796 0.2612595863 0.1997748978 -0.3816541619 0.1996487889 -0.3811862697 -0.1398097029 0.27037234
515296910.0 -0.1318593971 0.2627604587 0.195100741 -0.3831010927 0.1947473104 -0.3829040854 -0.1373981813 0.2713874639
520296880.0 -0.1289351262 0.2643216677 0.1909200435 -0.3851491061 0.1905739004 -0.3851799485 -0.1340828427 0.273619376
525296850.0 -0.1259792425 0.2656387082 0.1862899528 -0.3871242929 0.1860914698 -0.387059975 -0.1311067243 0.2748715831
530296820.0 -0.1236676673 0.2670675392 0.1825454261 -0.3892243958 0.1825314736 -0.3890955904 -0.1282466792 0.2761885845
535296790.0 -0.119919265 0.2685329734 0.1780670674 -0.3908882824 0.1780219897 -0.3911832857 -0.1250793061 0.2781542063
540296760.0 -0.1169852938 0.2699816269 0.1736375329 -0.393145195 0.1735273308 -0.3926623954 -0.122396889 0.2790397381
545296730.0 -0.1145289799 0.2717194512 0.1694865054 -0.3946339263 0.1693014314 -0.3946244347 -0.1194666499 0.2809093528
550296700.0 -0.1113044776 0.2727180169 0.1650712141 -0.3964535356 0.165020013 -0.3968356251 -0.116570718 0.2821756502
555296670.0 -0.1082738948 0.2743947049 0.160621834 -0.3984263936 0.1605893287 -0.3982324974 -0.1138116876 0.2827434717
560296640.0 -0.1052227448 0.2752689747 0.1562489438 -0.40001544 0.156532423 -0.3999237613 -0.1104597884 0.2850023028
565296610.0 -0.1026914962 0.2766284379 0.1524353839 -0.401691721 0.1522395718 -0.4010737342 -0.1074886756 0.2862783412
570296580.0 -0.0992637938 0.2784301266 0.1475303502 -0.4034087866 0.1475202175 -0.4031832554 -0.1044445634 0.2871859726
575296550.0 -0.0960817765 0.2792552317 0.1433349617 -0.4046537339 0.143364612 -0.4049176682 -0.1017210616 0.2886243531
580296520.0 -0.0933672847 0.2806909819 0.1390316985 -0.4064508745 0.1385101196 -0.4063544513 -0.0988686273 0.2896280538
585296490.0 -0.0900704392 0.2817398058 0.1347365008 -0.407633796 0.1343237214 -0.4077536514 -0.0950439968 0.2912249206
590296460.0 -0.0865150272 0.2828699284 0.1297768107 -0.40893962 0.130034878 -0.4091098095 -0.092526815 0.2918879814
595296430.0 -0.0836611924 0.2839903386 0.125066857 -0.4101595821 0.1250654343 -0.4103577726 -0.0891116069 0.2928496822
600296400.0 -0.0806756956 0.2851088309 0.1204961164 -0.4115104852 0.1208123314 -0.411676121 -0.0862524189 0.2940151478
605296370.0 -0.077823427 0.2865792065 0.1169075274 -0.4127617611 0.1160762025 -0.4130396106 -0.0828114565 0.2953469931
610296340.0 -0.0746155309 0.2877011562 0.1119626367 -0.41390911 0.1119852038 -0.4139446055 -0.0802035207 0.2963857754
615296310.0 -0.0710993118 0.2881449946 0.1074589972 -0.4152051021 0.1069606187 -0.4154407388 -0.0761580116 0.2973466512
620296280.0 -0.0685723419 0.2896707561 0.1026180844 -0.4164771412 0.1025644438 -0.4162919731 -0.0737696733 0.2982395628
625296250.0 -0.0653445272 0.2903362179 0.0980871626 -0.4174080779 0.0982321795 -0.4175968802 -0.0708861679 0.2987686948
630296220.0 -0.0621612259 0.2913106441 0.0936915484 -0.4187347088 0.0935630756 -0.4183663207 -0.0672663105 0.2996134657
635296190.0 -0.0590657728 0.2926300432 0.0893198903 -0.4194246749 0.0888271464 -0.4192439442 -0.0641015326 0.3008034674
640296160.0 -0.0560505405 0.2932371603 0.0846140611 -0.4203305852 0.0843959286 -0.4202842867 -0.0615121436 0.3014701736
645296130.0 -0.0525871395 0.2946609 0.0799826828 -0.4211554716 0.0797485453 -0.4211870687 -0.0582171505 0.3021769992
650296100.0 -0.0497517682 0.2948743363 0.0755356171 -0.4221742919 0.0750343072 -0.4219398183 -0.0545298416 0.3030103179
655296070.0 -0.0465773221 0.2956661774 0.0707124816 -0.4225403581 0.0706257104 -0.4226766323 -0.0518014751 0.303724736
660296040.0 -0.0435578191 0.2964704863 0.0661606431 -0.4233622628 0.0661401038 -0.4233347596 -0.0482949527 0.3041141866
665296010.0 -0.0403008103 0.2975143463 0.0613571656 -0.4237882343 0.0614149738 -0.4238605855 -0.0451541387 0.3047423018
670295980.0 -0.0372750198 0.2982337666 0.0567975206 -0.4246539052 0.0567882724 -0.4240742577 -0.0421674452 0.305016072
675295950.0 -0.0341453304 0.2985427 0.0523539916 -0.4251294764 0.0525835508 -0.4252229574 -0.0387650352 0.3061052205
680295920.0 -0.0310497485 0.2996963215 0.0475285886 -0.4252279619 0.0475189782 -0.4253107452 -0.0353968535 0.3064707925
685295890.0 -0.0277859563 0.2998674847 0.0430560721 -0.4262316021 0.0428770269 -0.4263976814 -0.0323779644 0.3073738299
690295860.0 -0.0247855371 0.3007768786 0.0385735176 -0.4267718655 0.0379418028 -0.4265441391 -0.0289891876 0.3076821121
695295830.0 -0.0217054228 0.3008955579 0.0341882038 -0.4268411957 0.0338636803 -0.4268671194 -0.0260038946 0.3085615657
700295800.0 -0.0182691353 0.3014135268 0.0293494993 -0.4271573033 0.0291656603 -0.4272041561 -0.0221473991 0.3085745433
705295770.0 -0.015608363 0.3022108705 0.0247100222 -0.4280018569 0.0244555248 -0.4272183315 -0.0195609627 0.3092001687
710295740.0 -0.0124416951 0.3024746639 0.0198787203 -0.4279074639 0.0197294609 -0.4278083314 -0.0161321187 0.3094780826
715295710.0 -0.008987483 0.3028350707 0.0156479737 -0.4277045517 0.0153555142 -0.428036193 -0.0126274325 0.3094477124
720295680.0 -0.0056951664 0.3033809868 0.0108218398 -0.4279026996 0.0106490599 -0.4280779245 -0.0095761181 0.3096867948
725295650.0 -0.0031816042 0.3036886253 0.0063574287 -0.428012031 0.0061986458 -0.4284029032 -0.0067063491 0.3103792658
730295620.0 -0.0003595192 0.3042013665 0.0015903061 -0.4278121891 0.0015193795 -0.4274179587 -0.003350203 0.3106550744
735295590.0 0.0032105918 0.3043236794 -0.0029234705 -0.4279389039 -0.0034464513 -0.4280171189 0.0003438346 0.310648446
740295560.0 0.0058237263 0.3040738472 -0.0075181039 -0.4280412753 -0.0075252719 -0.4281213206 0.0033477803 0.311118062
745295530.0 0.0093878819 0.3047149516 -0.0122985715 -0.4273813433 -0.0118241261 -0.4275116959 0.006344267 0.310776874
750295500.0 0.0120030513 0.3049372383 -0.0162619575 -0.4274036174 -0.0169622875 -0.4277003807 0.009752811 0.3108700833
755295470.0 0.0153957781 0.3049340209 -0.0211832362 -0.4276749574 -0.0212679067 -0.4273115941 0.0128360504 0.3110222265
760295440.0 0.0183026483 0.3050902161 -0.0263053605 -0.4270506152 -0.0262492862 -0.426637792 0.0165229217 0.3106595862
765295410.0 0.021530443 0.3048980039 -0.0308193568 -0.4267813798 -0.0305303309 -0.4266842918 0.0195825524 0.3111145682
770295380.0 0.024288432 0.3051621734 -0.0350079658 -0.4260154148 -0.0351601603 -0.4265117576 0.0226834882 0.3107777949
775295350.0 0.0272820723 0.304968625 -0.0395795695 -0.4257820993 -0.0397392164 -0.4256527631 0.0260454911 0.3108378271
780295320.0 0.0306416164 0.3049139076 -0.0438514513 -0.4250746635 -0.0445150293 -0.4254784399 0.0295761266 0.3107727908
785295290.0 0.0336059143 0.3047004501 -0.0486361174 -0.4249849679 -0.0485258319 -0.4249594785 0.0321107425 0.3105916
790295260.0 0.0367575342 0.3045845149 -0.0532804349 -0.4243433206 -0.0532089724 -0.4247159894 0.0355480466 0.3107183408
795295230.0 0.0398664271 0.3042386341 -0.0581720348 -0.4234406749 -0.0579748519 -0.4236902549 0.0387421305 0.3097103467
800295200.0 0.0426433158 0.3044041498 -0.0620994824 -0.422771124 -0.0625948857 -0.4229159659 0.041857799 0.3098560842
805295170.0 0.0453491632 0.3040277333 -0.0670304957 -0.4221768948 -0.0669687423 -0.4228097084 0.045928517 0.3094643363
810295140.0 0.0487822078 0.3041640281 -0.0714317143 -0.4216629549 -0.071894623 -0.4214917488 0.0490543072 0.3090104966
815295110.0 0.0518854201 0.3033201943 -0.076023812 -0.420477457 -0.0760288531 -0.4207623223 0.0518523158 0.3088686053
820295080.0 0.0550869156 0.3028911072 -0.0803483789 -0.4197665152 -0.0801237772 -0.4200120171 0.0545910147 0.3086816565
825295050.0 0.0576284165 0.3025857555 -0.0848475314 -0.4189133941 -0.0851252884 -0.4189084298 0.0585504843 0.308069101
830295020.0 0.0610464908 0.3019909462 -0.0895148381 -0.417542355 -0.0897527143 -0.4180021226 0.0611876705 0.3072305687
