!Created with skrf (http://scikit-rf.org).
# Hz S RI R 50.0 
!freq ReS11 ImS11 ReS21 ImS21 ReS12 ImS12 ReS22 ImS22
300000.0 0.8593186406 -0.0023537174 -0.000955086 0.0004882068 -0.0004885314 0.0008006097 -0.7764876219 -0.1284625548
5299970.0 0.8590789164 -0.0094261083 0.0001950721 -0.0001463047 -7.90034e-05 1.6846e-06 -0.7844177749 -0.006930516
10299940.0 0.8574766662 -0.0183614698 8.44823e-05 -3.02972e-05 -0.0002614769 -0.0001407166 -0.7875263805 -0.003468321
15299910.0 0.8564943484 -0.0268332151 -0.0001356854 5.02256e-05 -2.38477e-05 -5.36037e-05 -0.7933751156 -0.0013918483
20299880.0 0.8563119885 -0.0358652045 -4.45736e-05 4.953e-06 7.65977e-05 2.89589e-05 -0.7999273836 0.0021859367
25299850.0 0.8561786807 -0.0438757275 -7.95114e-05 5.70152e-05 -4.32781e-05 0.0001976056 -0.8064307487 0.0082977695
30299820.0 0.854835031 -0.0524872179 -0.0002108749 0.0002771102 0.0001104133 0.0001663177 -0.8123214259 0.0164555554
35299790.0 0.8542278388 -0.0605763592 4.18413e-05 -0.0002863333 -0.0001337603 0.0001504555 -0.8171365518 0.0250670919
40299760.0 0.8527331159 -0.0694688056 -3.06807e-05 -5.07016e-05 -0.0002820706 0.0001050448 -0.8212688673 0.034076103
45299730.0 0.8531555848 -0.0769577339 -0.0001440112 0.0001540216 3.33598e-05 -6.39223e-05 -0.8252654835 0.0438440587
50299700.0 0.8522415839 -0.0856617828 -1.7781e-05 8.75476e-05 -0.0001949059 -0.0001088225 -0.8270795646 0.0545542463
55299670.0 0.8506525937 -0.093684252 -0.0002541635 -0.0001669585 -0.0001112423 0.0001018802 -0.829365208 0.0647758181
60299640.0 0.8498954053 -0.1018149134 8.43731e-05 8.18403e-05 -6.49846e-05 -3.90441e-05 -0.8305671997 0.0741860289
65299610.0 0.8485720964 -0.1101939058 -0.0002772926 6.269e-07 4.1365e-05 -9.6769e-06 -0.8324687056 0.084211905
70299580.0 0.8476287059 -0.1189342404 -0.0002070242 3.84221e-05 -8.83013e-05 6.5817e-05 -0.8322000217 0.0944771037
75299550.0 0.8461868458 -0.1265929341 -8.42062e-05 -6.90637e-05 -7.36058e-05 -3.81947e-05 -0.832500987 0.1041729373
80299520.0 0.8445955058 -0.1352915169 -6.7019e-05 8.1007e-06 -2.41499e-05 0.0001378086 -0.8323341588 0.1140948006
85299490.0 0.8435072801 -0.1434741622 -0.0001927346 -1.80314e-05 -6.13888e-05 0.0001862552 -0.8320115635 0.1237672473
90299460.0 0.8417035582 -0.1510950378 -2.26776e-05 -9.577e-06 8.92617e-05 0.000233083 -0.8308493932 0.1328792596
95299430.0 0.840371529 -0.1602503926 -7.6567e-06 -0.0001887619 6.0193e-06 8.17391e-05 -0.8288017569 0.1428679502
100299400.0 0.8383188499 -0.1676479408 2.1467e-05 -0.0001158475 2.38196e-05 -5.34024e-05 -0.8284701132 0.1522983987
105299370.0 0.8374665374 -0.1761347548 -0.00019703 9.95976e-05 0.0002292459 0.0001095886 -0.8270217384 0.161118496
110299340.0 0.8351351143 -0.1844508526 -3.62089e-05 0.0002889735 -0.0001331359 6.02161e-05 -0.8257106824 0.1706883333
115299310.0 0.8331444904 -0.1924017121 -0.0001386519 -0.0001391435 2.01749e-05 -9.81319e-05 -0.8242748529 0.1796649223
120299280.0 0.831395186 -0.2005222592 5.21992e-05 0.0001099842 -0.0001127637 -9.12947e-05 -0.8225653601 0.1890732655
125299250.0 0.8295034964 -0.2088203263 6.41801e-05 -0.0001947855 0.0001785442 0.0001273946 -0.8210548861 0.1977351104
130299220.0 0.8273461562 -0.2162445931 5.53988e-05 0.0001212159 -0.0002232249 -0.0001513328 -0.8189031286 0.2069724548
135299190.0 0.8253701522 -0.2243276469 0.0001715463 5.80859e-05 0.0001054567 -0.000241297 -0.8168403891 0.2160642786
140299160.0 0.8229116208 -0.2321981271 9.00478e-05 -0.0001008633 8.21188e-05 9.69869e-05 -0.8142820136 0.2251478694
145299130.0 0.8203547354 -0.2414397173 0.0001832497 -3.5646e-05 2.34388e-05 4.6864e-05 -0.8119883402 0.2341599074
150299100.0 0.8183565064 -0.2493066695 -0.0002653892 5.35351e-05 8.91134e-05 -7.22901e-05 -0.8104866742 0.2433120721
155299070.0 0.8152559009 -0.2569030166 -2.84317e-05 -0.0001677958 -7.42922e-05 3.12673e-05 -0.8073205845 0.2518897673
160299040.0 0.8124108089 -0.2649686742 -0.0003070171 0.0001195036 0.0001946227 -0.0001670192 -0.8055853848 0.2608028883
165299010.0 0.8103562398 -0.2728654163 5.57448e-05 4.72853e-05 -8.98689e-05 -0.0001082956 -0.8026783942 0.2695024806
170298980.0 0.8074551006 -0.2805708225 -8.75644e-05 0.0001295849 -3.44812e-05 6.28323e-05 -0.7992962439 0.2780136504
175298950.0 0.8046176824 -0.2888853953 -3.34913e-05 -4.69756e-05 0.0001171867 0.0001230749 -0.7969387472 0.2866590981
180298920.0 0.8022029061 -0.2963473372 -1.39279e-05 0.0001862433 3.26153e-05 -4.3365e-05 -0.7938324867 0.2951184153
185298890.0 0.7983795945 -0.3044701663 1.0799e-05 7.45843e-05 0.0001154685 -0.0001069583 -0.7902418574 0.3040920111
190298860.0 0.7953781571 -0.3119447749 3.5328e-05 0.0002584967 0.0001242774 -7.45367e-05 -0.7881940603 0.3125625018
195298830.0 0.7927669135 -0.3192559517 -5.02417e-05 3.22512e-05 -0.0002689003 3.76354e-05 -0.7842715474 0.3210707549
200298800.0 0.7890156597 -0.326889397 -2.50811e-05 0.0001478428 -0.0001033182 -6.88226e-05 -0.7819251031 0.3292717536
205298770.0 0.7857940558 -0.3346031533 -0.0003034286 1.9226e-05 -7.46162e-05 0.000196374 -0.7779681227 0.3377480667
210298740.0 0.7824752573 -0.3425970676 -0.0001166212 1.53232e-05 0.0001137472 -8.20461e-05 -0.7745731845 0.3461070941
215298710.0 0.7787444424 -0.3505129825 0.00013887 7.25145e-05 -0.0001119374 9.51441e-05 -0.7711285938 0.3535840185
220298680.0 0.7756348339 -0.3576912217 3.71645e-05 -1.20802e-05 -1.5518e-06 -8.14757e-05 -0.7673489907 0.3623714275
225298650.0 0.7719025442 -0.3656756246 2.57016e-05 0.0001285686 -0.0001444247 4.3794e-05 -0.7640489764 0.3707501955
230298620.0 0.768552123 -0.3730037193 0.000211684 0.000140629 -7.45823e-05 -0.0001451672 -0.7595305784 0.3783706432
235298590.0 0.7647030939 -0.3804307669 0.0001288979 3.26855e-05 4.7833e-06 7.998e-07 -0.7559122029 0.3869477591
240298560.0 0.7612426603 -0.3881557377 -0.0001757289 2.94497e-05 6.99414e-05 0.0002455732 -0.7514093208 0.3951312022
245298530.0 0.7568542455 -0.3950478633 -0.0001324953 0.0001638616 0.0001599662 7.55426e-05 -0.7480819983 0.4025932183
250298500.0 0.7533864203 -0.402474666 -0.0001356978 8.1117e-06 6.68669e-05 -0.0001434277 -0.7438127324 0.4102671407
255298470.0 0.7489637368 -0.4101236714 0.0001763301 0.0001318293 -8.41519e-05 -0.0001367888 -0.7387614721 0.4176816425
260298440.0 0.7447127724 -0.4174965242 -3.62954e-05 -0.0001012 1.96304e-05 0.0001182973 -0.7350235162 0.4268404578
265298410.0 0.7408298971 -0.4244233008 -5.62106e-05 -0.0001158813 9.93195e-05 0.0002516646 -0.730493917 0.4335676689
270298380.0 0.7364187928 -0.4320501294 -0.0001598327 0.0001737371 0.0001957878 3.36423e-05 -0.7256401376 0.440940931
275298350.0 0.7326325213 -0.43891873 -8.37699e-05 -8.18234e-05 -9.48035e-05 7.42856e-05 -0.7210517543 0.4487765385
280298320.0 0.7277207582 -0.4460155106 0.0001362338 0.0002751412 4.95703e-05 0.0001509511 -0.7161877369 0.4557077118
285298290.0 0.7248614663 -0.4531536653 4.35851e-05 -0.0002985398 5.76615e-05 2.60618e-05 -0.7107574922 0.4635316371
290298260.0 0.7197970833 -0.4600618217 0.0002132798 -2.57746e-05 0.0002142295 1.27356e-05 -0.7062555039 0.4710713104
295298230.0 0.7157645108 -0.4670960271 -4.65652e-05 -9.13303e-05 3.9717e-06 -4.13542e-05 -0.7014362895 0.4782809291
300298200.0 0.7109804332 -0.4750352004 -3.87468e-05 -1.94478e-05 0.0001181203 0.0001795599 -0.6957892105 0.4856415321
305298170.0 0.7067164901 -0.4818740459 -2.97843e-05 0.0001393676 -1.88587e-05 -4.73689e-05 -0.6904776226 0.4932226126
310298140.0 0.7026490119 -0.489162438 5.12727e-05 -1.2683e-05 -0.0001447379 -0.000128588 -0.6857518316 0.5001617394
315298110.0 0.6978293802 -0.4961336179 0.0001076693 0.0002708875 -3.98125e-05 -0.0001744459 -0.679759832 0.5069335396
320298080.0 0.6932075022 -0.503267176 -0.0001487609 0.0001688569 -2.7609e-05 -8.24903e-05 -0.6748927462 0.5146085724
325298050.0 0.6868838533 -0.5112383617 7.50881e-05 6.4433e-05 0.000231862 3.01161e-05 -0.6689027523 0.521457758
330298020.0 0.6816882414 -0.5188633742 -8.6336e-06 -1.28318e-05 -0.0001056341 0.0002064937 -0.6639713128 0.5285646154
335297990.0 0.6753657163 -0.5256672 -0.0001384124 3.91805e-05 0.0001658451 -3.16054e-05 -0.6585742555 0.5354915522
340297960.0 0.6693096235 -0.5318903333 0.0001093447 -0.000127114 -9.45631e-05 0.0001182226 -0.6525822637 0.5423134619
345297930.0 0.6635227357 -0.5378757149 0.0001971009 -0.0002004855 -0.0001441452 2.48223e-05 -0.6470201582 0.5486470217
350297900.0 0.6578609359 -0.5438049525 0.0001297339 0.0001352091 6.11387e-05 -6.86086e-05 -0.6407265527 0.5559531385
355297870.0 0.6527251756 -0.5503769274 -0.0001014741 -4.12776e-05 -8.297e-05 5.44289e-05 -0.6355671663 0.5621071862
360297840.0 0.6467947836 -0.556219915 -0.0001822546 0.0001386291 -1.97859e-05 9.985e-07 -0.6297125034 0.5690988663
365297810.0 0.6404463588 -0.5626067649 0.0002158685 4.52895e-05 -2.35696e-05 -4.26313e-05 -0.6231565831 0.5753830894
370297780.0 0.6357582169 -0.5690624487 1.87652e-05 7.81924e-05 -7.7883e-06 3.02473e-05 -0.617531423 0.5820401469
375297750.0 0.629157076 -0.5749387712 -8.86461e-05 -0.0001074428 9.35767e-05 -3.13066e-05 -0.6112783962 0.588149783
380297720.0 0.6234652764 -0.5811242556 -0.000107007 -9.425e-07 -3.33681e-05 2.212e-05 -0.605235183 0.5940785554
385297690.0 0.6179300715 -0.5869359421 0.0001361495 2.03008e-05 -3.70203e-05 -5.48564e-05 -0.5992661723 0.6010653827
390297660.0 0.6120822844 -0.5925777048 -0.0002080068 0.000121024 5.24513e-05 5.26016e-05 -0.593341378 0.606890501
395297630.0 0.6057294325 -0.5985438894 -0.0001015318 7.63703e-05 -0.0001023602 6.29037e-05 -0.586528399 0.6134468993
400297600.0 0.6002055975 -0.6039912561 7.49752e-05 -9.8475e-06 4.69736e-05 -0.0001624585 -0.5804036883 0.6190419477
405297570.0 0.5942431146 -0.6097031514 2.2725e-05 0.0001219485 -1.67035e-05 -0.000134873 -0.5736690722 0.6248408648
410297540.0 0.5881185484 -0.6163655112 -0.0001551684 0.000154322 0.0001727662 3.28053e-05 -0.5676930798 0.6308699427
415297510.0 0.5819486989 -0.6213728661 -0.0002165184 8.81801e-05 -0.0001063738 -0.0002082402 -0.5611030828 0.6367159334
420297480.0 0.5756329868 -0.6268036264 -1.52472e-05 1.67483e-05 1.5205e-06 3.4858e-06 -0.5541084901 0.6425861428
425297450.0 0.5694159795 -0.6329223928 1.24952e-05 -8.30962e-05 -2.4021e-06 1.46764e-05 -0.548548244 0.6480538954
430297420.0 0.56327676 -0.6380059997 -6.3074e-05 -6.93001e-05 -0.0001155861 7.67394e-05 -0.5410431045 0.6530657013
435297390.0 0.5568325094 -0.643576459 1.16823e-05 0.0002519504 0.0001301716 1.9127e-05 -0.5339508229 0.6588402806
440297360.0 0.5507840472 -0.6489075685 -4.10112e-05 -0.0001287809 0.0001764007 -6.4634e-06 -0.5275113 0.664085941
445297330.0 0.5437818459 -0.6542378122 2.35832e-05 -4.6244e-06 0.0001560476 6.40668e-05 -0.5204429864 0.669068617
450297300.0 0.5376550781 -0.6597507889 -0.0002971174 2.0264e-05 -0.0002275004 3.5435e-06 -0.5129834524 0.6743259833
455297270.0 0.5308735629 -0.6646948705 3.63921e-05 7.72552e-05 6.61717e-05 -4.36935e-05 -0.506294114 0.6788245629
460297240.0 0.5242648051 -0.6702654059 -2.4757e-06 -5.75396e-05 7.50277e-05 -0.0001964982 -0.4995657137 0.6842924715
465297210.0 0.5173546772 -0.6752781877 0.0001634607 1.92429e-05 -1.55927e-05 -5.98777e-05 -0.4919784819 0.689324435
470297180.0 0.5101476028 -0.6792297796 3.0612e-06 0.0001034519 -4.2422e-06 -0.0001788742 -0.4847739485 0.6945892852
475297150.0 0.5040785421 -0.6851686873 -0.000108846 -0.0001488826 -2.26694e-05 -0.0001211606 -0.4773014219 0.6988505355
480297120.0 0.4965114084 -0.6894345289 -5.1262e-05 0.0002807473 4.49186e-05 -3.19243e-05 -0.4699289827 0.7034400806
485297090.0 0.4900162647 -0.6942095593 -0.0004222808 -0.0001285397 6.42734e-05 -1.01682e-05 -0.4628819994 0.7084098909
490297060.0 0.4834030867 -0.6995311387 -0.000119046 -4.49235e-05 -6.90169e-05 -3.4167e-06 -0.4561885264 0.7127312557
495297030.0 0.4756883156 -0.7036673652 3.77989e-05 -1.87377e-05 4.18839e-05 -0.0002128066 -0.4486823431 0.7178318024
500297000.0 0.4692042198 -0.7082816973 -7.15205e-05 -0.0002230244 5.99632e-05 0.000206375 -0.440532132 0.7225341855
505296970.0 0.4621233016 -0.7128857617 -0.000241783 4.17505e-05 -2.6024e-05 0.0001330671 -0.4335105231 0.726860643
510296940.0 0.4547048943 -0.7176639659 5.07655e-05 -0.0001479431 -9.0661e-05 0.0001043359 -0.4257575193 0.7311797642
515296910.0 0.4484106877 -0.7213583902 0.0002036828 7.76727e-05 -8.0194e-05 8.15509e-05 -0.418138457 0.7354394516
520296880.0 0.4400956584 -0.7265257681 -0.0003476114 -6.19182e-05 3.6677e-06 4.92165e-05 -0.4109682259 0.7392118885
525296850.0 0.4332499331 -0.7301277662 7.07249e-05 8.92149e-05 7.67338e-05 0.0002241535 -0.404023304 0.7441257736
530296820.0 0.4260741702 -0.7342163539 0.0001045558 4.94635e-05 -2.7567e-06 -0.0002668876 -0.3961899762 0.7479786517
535296790.0 0.4190195071 -0.7377380477 0.0001615792 -0.0001193736 0.0003362019 -0.0001608207 -0.3889487125 0.7516041079
540296760.0 0.4114994553 -0.7422129527 -6.20846e-05 4.90919e-05 -0.000175242 -1.69601e-05 -0.381066222 0.7555967106
545296730.0 0.4038280897 -0.7464922246 -7.61746e-05 6.78479e-05 4.60238e-05 0.0001714052 -0.3736524005 0.7598196193
550296700.0 0.3967868386 -0.7495249517 -5.67712e-05 -9.82712e-05 -2.42559e-05 -0.0001705933 -0.3654156853 0.7635977947
555296670.0 0.3889533276 -0.7539540553 -0.0001315764 3.33596e-05 4.3959e-05 -2.46561e-05 -0.3579767137 0.7677092969
560296640.0 0.3818163425 -0.7574499562 -0.0003027131 2.32493e-05 -0.0001212684 -1.98268e-05 -0.3495741787 0.7706709109
565296610.0 0.3740186654 -0.7612476904 -0.0001170038 -3.25706e-05 -0.0002518654 -0.00013101 -0.3419954429 0.7738844398
570296580.0 0.3657420702 -0.7645217388 -6.66562e-05 0.0001869557 -0.0001443385 -5.85004e-05 -0.3347145582 0.7779826941
575296550.0 0.3585274745 -0.7675926897 -1.78013e-05 3.99563e-05 1.24479e-05 5.30975e-05 -0.3265635483 0.7812442063
580296520.0 0.351228888 -0.7715744234 -0.0001825391 6.17379e-05 -7.16417e-05 0.0001156582 -0.3181751976 0.7840883107
585296490.0 0.3432380646 -0.7758034812 0.0001411893 1.53578e-05 7.71324e-05 1.05761e-05 -0.3100702125 0.7876274895
590296460.0 0.335696017 -0.7775045517 0.0001048781 -8.46789e-05 -3.58149e-05 -2.84591e-05 -0.3029240251 0.7903892231
595296430.0 0.3278806725 -0.7813315868 9.75963e-05 7.8963e-05 2.57845e-05 4.87202e-05 -0.2944467348 0.7927729146
600296400.0 0.3200796367 -0.784209081 -1.94515e-05 -0.0001901717 -9.93547e-05 -0.0001502096 -0.2865636585 0.7956140483
605296370.0 0.3116591777 -0.7875028937 6.68373e-05 -4.77249e-05 -0.0001233674 3.20287e-05 -0.277730287 0.7985769656
610296340.0 0.303866663 -0.7903364247 4.04792e-05 -6.65942e-05 -4.05962e-05 -8.66981e-05 -0.270391888 0.8013143786
615296310.0 0.2970180762 -0.7935602154 -3.91651e-05 -1.9858e-06 0.0001244531 -0.0001250614 -0.2618716273 0.8036772098
620296280.0 0.2883694463 -0.7960796842 2.86944e-05 -5.6263e-06 -0.0001630981 2.60499e-05 -0.2542489959 0.8065993565
625296250.0 0.2807820626 -0.7988001609 -9.5606e-05 0.0001384587 -0.0002236901 -8.41798e-05 -0.2452054985 0.8081411877
630296220.0 0.2728365603 -0.8010084678 7.2742e-05 2.67898e-05 -0.0002361795 -3.2577e-06 -0.2373782814 0.8112426451
635296190.0 0.2648378075 -0.8040520759 -0.0002027997 -0.0001757515 -8.98413e-05 1.91161e-05 -0.2296642731 0.8128908324
640296160.0 0.2564894403 -0.8064470427 -0.0001230126 0.0001370809 -1.68606e-05 3.40541e-05 -0.221455541 0.8154935518
645296130.0 0.248522595 -0.8088618378 -0.000217086 6.32386e-05 -0.0001823528 6.91727e-05 -0.212702781 0.8174114947
650296100.0 0.2407734564 -0.810687154 0.0001435661 -0.0001316634 -0.0001748373 -2.37273e-05 -0.2046352417 0.8191257098
655296070.0 0.2318448836 -0.8137749554 4.04824e-05 -0.0001869036 6.30605e-05 -7.72771e-05 -0.1959882659 0.8211589832
660296040.0 0.2243519553 -0.8155779779 7.65159e-05 -2.23709e-05 -9.47093e-05 0.0001481775 -0.1875305648 0.8231639714
665296010.0 0.21576656 -0.8174597907 5.79548e-05 7.46291e-05 0.0002667477 8.11197e-05 -0.1793214527 0.8256367262
670295980.0 0.2077856075 -0.8197038928 0.0001293964 1.88365e-05 -2.43517e-05 -4.82949e-05 -0.1713724014 0.8267116799
675295950.0 0.1999173428 -0.821279299 7.8714e-05 0.0001559633 4.6638e-06 0.0001235134 -0.1635747236 0.8288036899
680295920.0 0.1913947507 -0.8229818393 -9.86481e-05 -9.18003e-05 -0.0001130303 -5.96464e-05 -0.1547048969 0.8313421915
685295890.0 0.1833224301 -0.8246027073 0.0001792029 -2.13908e-05 4.16511e-05 0.0001261505 -0.1460415954 0.8318877525
690295860.0 0.1745838467 -0.826114635 -0.0001386711 -0.0001609033 -0.0001158018 3.49895e-05 -0.1378113309 0.8339531171
695295830.0 0.1670334617 -0.8278592175 4.62106e-05 0.0001077652 2.88299e-05 -0.0002207195 -0.1285789694 0.8348631503
700295800.0 0.1589595091 -0.8299823389 -1.68793e-05 -5.77897e-05 -4.61666e-05 8.955e-07 -0.1215346633 0.8363767145
705295770.0 0.1498135236 -0.8307163605 3.57186e-05 -3.4054e-05 7.4991e-06 -8.27688e-05 -0.1132951028 0.8381769009
710295740.0 0.1413997965 -0.8320875697 2.17988e-05 8.88705e-05 -0.0001332868 -4.37355e-05 -0.1042575896 0.8386388606
715295710.0 0.1335589425 -0.833645144 0.0001377322 4.00273e-05 -0.0001762495 4.15315e-05 -0.0961000745 0.8394963454
720295680.0 0.1252013966 -0.8346578337 -6.52294e-05 -7.54705e-05 -0.0001090756 0.0002183962 -0.0873024927 0.8410496059
725295650.0 0.1166080979 -0.8350784597 0.0001476616 -1.00511e-05 -9.6182e-05 -4.90353e-05 -0.0798334544 0.8418737643
730295620.0 0.1081842859 -0.836440829 5.00688e-05 -2.04999e-05 -4.98238e-05 -9.03514e-05 -0.0716055896 0.8422714171
735295590.0 0.1002428942 -0.8365904297 6.96423e-05 -0.0001899658 3.71363e-05 -4.89684e-05 -0.0630549844 0.8427970228
740295560.0 0.0912144542 -0.8379824602 -0.0002112047 -9.69292e-05 0.0001008916 0.0001437309 -0.0536709273 0.8437187222
745295530.0 0.0828665903 -0.8387777256 -0.0001080874 0.0002539239 -8.1676e-06 -9.17355e-05 -0.0454717118 0.8437636572
750295500.0 0.0747234128 -0.839468206 -6.64018e-05 -0.0001244694 -6.21614e-05 -5.085e-06 -0.0379499368 0.8446403065
755295470.0 0.0662287803 -0.8398989423 -1.1004e-05 -0.0001176 -6.35451e-05 5.8123e-05 -0.028839062 0.8439756973
760295440.0 0.0576876371 -0.8403695897 -1.65743e-05 5.2816e-06 9.9667e-05 9.83927e-05 -0.0204649227 0.8452252347
765295410.0 0.0498969142 -0.8408037186 -0.000100905 0.0002621745 0.0002081166 7.0455e-06 -0.0121741164 0.8450908083
770295380.0 0.0411867975 -0.8407413212 1.17346e-05 -0.0001478683 -8.73404e-05 -4.09359e-05 -0.0039903175 0.8449026533
775295350.0 0.0321197759 -0.8416795908 -0.0001961984 -5.54155e-05 6.84877e-05 -8.45205e-05 0.004076662 0.8441850031
780295320.0 0.0246747778 -0.8413773569 -3.95018e-05 0.0002199355 0.0001191647 -0.0001050672 0.0127503273 0.8439880889
785295290.0 0.0160898411 -0.8419682463 -0.0001048152 -0.0001881249 0.0001073617 -0.0002326353 0.0213586981 0.8438706211
790295260.0 0.0075074134 -0.8414397837 -7.81759e-05 -0.0001218911 -2.46352e-05 8.01683e-05 0.0302518788 0.8441842727
795295230.0 -0.0008871756 -0.8412119635 -0.0002718473 0.0001625127 -5.70454e-05 -1.79003e-05 0.0394557164 0.842783455
800295200.0 -0.009374309 -0.8408798837 -0.0002496738 5.04363e-05 5.93205e-05 3.86247e-05 0.0471686601 0.8429053015
805295170.0 -0.0180139038 -0.8408173008 0.0001305659 -0.0002652708 -0.0001614454 0.00016802 0.0548901933 0.8427468391
810295140.0 -0.0255482624 -0.8407564647 2.77922e-05 1.95241e-05 0.000107531 0.0001828047 0.0635371492 0.8418398269
815295110.0 -0.0344192381 -0.840262312 0.0001866049 -6.71401e-05 -7.51682e-05 -7.94113e-05 0.0725433223 0.8410969625
820295080.0 -0.0427827786 -0.8399388322 7.01504e-05 9.25287e-05 -1.28227e-05 7.4988e-06 0.0805754431 0.8403501245
825295050.0 -0.0512676327 -0.839081184 2.20846e-05 8.24345e-05 -0.0002162762 -0.0001042784 0.0888657703 0.8394723448
830295020.0 -0.0601018328 -0.838269095 -8.86205e-05 7.57829e-05 -9.0413e-06 -0.0002516235 0.0982397849 0.8384282401
835294990.0 -0.0680192938 -0.8374234384 2.24364e-05 -0.0001188201 0.0001802952 -1.072e-05 0.1051009349 0.8374237699
840294960.0 -0.0764360225 -0.8365393894 0.0003199794 -0.0001465088 -0.0002584921 2.72874e-05 0.1140017637 0.8365738956
845294930.0 -0.0840738526 -0.8356295256 6.26964e-05 0.000138093 -0.0001346647 -0.0001902723 0.1225051293 0.8347263947
