!Created with skrf (http://scikit-rf.org).
# Hz S RI R 50.0 
!freq ReS11 ImS11 ReS21 ImS21 ReS12 ImS12 ReS22 ImS22
300000.0 -0.3220124165 -0.0773330072 0.377753519 0.0412337908 0.3736597113 0.0382871286 -0.3215495893 -0.0933364891
5299970.0 -0.3264382663 0.0041989378 0.378288004 0.0026777274 0.3785227332 0.002538434 -0.3240222307 0.0050739507
10299940.0 -0.3240191878 0.0132505007 0.3794652228 0.0022048794 0.3795467779 0.0021837777 -0.32198912 0.0159888876
15299910.0 -0.3215202093 0.0203761065 0.3819891672 0.0019822694 0.3819452676 0.002337772 -0.3186086459 0.0237541385
20299880.0 -0.3188102878 0.0263556479 0.3848892815 0.0016420195 0.3847672755 0.0017055458 -0.3149934025 0.0301043581
25299850.0 -0.3155685138 0.0314525533 0.3880797397 0.0005961974 0.3879811271 -6.127e-06 -0.3111132556 0.0357507378
30299820.0 -0.3126493639 0.0358714132 0.3915935336 -0.0020636847 0.391360976 -0.0018871437 -0.3072707983 0.0407060343
35299790.0 -0.3098147102 0.03981078 0.3946727104 -0.0052373218 0.3950218149 -0.0053352588 -0.303789074 0.0450457295
40299760.0 -0.3071358803 0.043578342 0.3978198134 -0.0090711909 0.3980837221 -0.0087106321 -0.3005186901 0.0480933952
45299730.0 -0.3045898056 0.0465271381 0.4008489677 -0.0129439938 0.4011621576 -0.0124879036 -0.297635651 0.0515132681
50299700.0 -0.3022289996 0.0493182565 0.4036240973 -0.0174941628 0.403420561 -0.0171338626 -0.2944841402 0.0544821325
55299670.0 -0.3002970527 0.0519059138 0.4056605385 -0.0219491443 0.4056909409 -0.0219363723 -0.2916007502 0.0570106138
60299640.0 -0.2978319634 0.0547817593 0.4072655184 -0.027042034 0.4077753879 -0.0266354133 -0.2891756323 0.0593156918
65299610.0 -0.2960418716 0.0573786569 0.4089813793 -0.0317136138 0.4090881161 -0.0320273635 -0.2869766146 0.0618520792
70299580.0 -0.2946067615 0.0596865914 0.4105481559 -0.0373005487 0.4103630731 -0.0366850172 -0.2850051633 0.0637557638
75299550.0 -0.2929913203 0.0624079931 0.4113538336 -0.0422244261 0.4112483762 -0.0419459721 -0.2831153033 0.0656164775
80299520.0 -0.2914572428 0.0647101119 0.4122653136 -0.047311048 0.4123322833 -0.0473216978 -0.2813447144 0.0679361363
85299490.0 -0.2902112637 0.0665867644 0.4129794165 -0.0522442784 0.4128322287 -0.052441492 -0.2800125357 0.0701435859
90299460.0 -0.2888457279 0.0693999783 0.412913536 -0.0575857515 0.4134580475 -0.0577470248 -0.2780788678 0.0719709317
95299430.0 -0.2872683851 0.0712628385 0.4136836309 -0.063043794 0.413362944 -0.0632091662 -0.2767182004 0.0743805419
100299400.0 -0.2861118959 0.0738457045 0.4130452921 -0.0680603569 0.4135704365 -0.0681576771 -0.2749048948 0.0762222046
105299370.0 -0.2852819131 0.0761804484 0.4134768617 -0.0736666906 0.4136213505 -0.0736007675 -0.2736021851 0.0783350316
110299340.0 -0.2836100863 0.0787777661 0.4132281008 -0.0785131864 0.4130735651 -0.0784425153 -0.2729015086 0.0802585802
115299310.0 -0.2829131669 0.0811568142 0.4130182861 -0.0838754653 0.4129045189 -0.0836456313 -0.2714353354 0.0825415307
120299280.0 -0.2821029638 0.0832238154 0.4123837334 -0.0890185961 0.4125521578 -0.0891245621 -0.2706260974 0.0845293921
125299250.0 -0.2810145169 0.085270488 0.4120078795 -0.0937780625 0.4119148352 -0.0937529972 -0.2695709239 0.0866885915
130299220.0 -0.2802608262 0.0881222562 0.4109583911 -0.0991328929 0.4110867578 -0.0991209615 -0.2685091198 0.0887734315
135299190.0 -0.2790159778 0.0906639997 0.4105799768 -0.1042614238 0.4105559642 -0.1037644266 -0.2673130791 0.0912946078
140299160.0 -0.2785921997 0.0929577423 0.4098938846 -0.1090869923 0.4101176403 -0.1089936773 -0.2663629337 0.0936341928
145299130.0 -0.2775681016 0.0956747618 0.4091847475 -0.1142561327 0.4087123814 -0.114371891 -0.2657298705 0.0960040148
150299100.0 -0.2762191609 0.0981453405 0.4076396668 -0.118410176 0.4078429599 -0.1185480689 -0.2646500567 0.0986204729
155299070.0 -0.2757972185 0.1004699442 0.4068494136 -0.1240234158 0.4065770131 -0.1240749372 -0.2634693571 0.1010181036
160299040.0 -0.2747135377 0.1032828385 0.4053940062 -0.1287702553 0.4052858057 -0.128581987 -0.2629000531 0.1033505057
165299010.0 -0.2737208723 0.1059504486 0.404416479 -0.133749284 0.4042783393 -0.1337636338 -0.261295077 0.1058225139
170298980.0 -0.272743388 0.1086195268 0.4027168022 -0.1385728455 0.4028938971 -0.1381544904 -0.2606490111 0.1082417505
175298950.0 -0.2719246082 0.1112911604 0.401782922 -0.1428088662 0.4012869135 -0.1430253463 -0.2599019096 0.1105367163
180298920.0 -0.2709158189 0.1140888458 0.4001528607 -0.1482247232 0.3999848986 -0.1475985279 -0.2586469111 0.1134052717
185298890.0 -0.2690632126 0.1163316789 0.3983281158 -0.1525390232 0.3986187138 -0.1525113536 -0.2575231069 0.1161144534
190298860.0 -0.2688713666 0.1193289655 0.3970111816 -0.1573043508 0.3970519626 -0.1568224965 -0.2565627119 0.1178786193
195298830.0 -0.2677580268 0.1217584804 0.3953418143 -0.1615027828 0.3951712418 -0.1618774866 -0.2553041961 0.1207228426
200298800.0 -0.2661669862 0.1244844523 0.3932996186 -0.1665873264 0.3935962783 -0.1665560144 -0.2545217808 0.1231637826
205298770.0 -0.2652600893 0.1273374377 0.3913148458 -0.1715871411 0.3916123278 -0.1707990016 -0.253418435 0.125567283
210298740.0 -0.2644849015 0.1297300789 0.389892503 -0.1752557309 0.3896786143 -0.1754802312 -0.2518060749 0.1286081488
215298710.0 -0.2634413798 0.1327948238 0.3882500413 -0.1801935454 0.3879102158 -0.1803659131 -0.2511194723 0.1306251386
220298680.0 -0.2620662647 0.1352812769 0.385314689 -0.184641352 0.3858385455 -0.1846076374 -0.2498847419 0.133312642
225298650.0 -0.2612837523 0.1377845207 0.3838752332 -0.1891007708 0.3842782721 -0.1889016814 -0.2493274166 0.1355240288
230298620.0 -0.2593111794 0.1406311862 0.3816505585 -0.1932205269 0.3822496835 -0.1931073791 -0.2478093886 0.1380934048
235298590.0 -0.2582214643 0.1434203515 0.3799546632 -0.1975064744 0.3799583642 -0.1972024031 -0.2464317069 0.1410313655
240298560.0 -0.2571218994 0.1462621437 0.3776787115 -0.2025240092 0.3776304637 -0.2022910311 -0.2452989704 0.1438583948
245298530.0 -0.2555764606 0.1489336058 0.3758525913 -0.2068224258 0.3754436047 -0.2068055801 -0.2439590062 0.1459318036
250298500.0 -0.2540623901 0.1518927817 0.37276276 -0.2110160885 0.3729190911 -0.2105249006 -0.2427067611 0.1484939181
255298470.0 -0.2529281713 0.1540036176 0.3702134845 -0.2149013636 0.3707480267 -0.2149285084 -0.2410220839 0.1508802618
260298440.0 -0.2516613123 0.1568784716 0.3685800774 -0.2192618898 0.3686368737 -0.2191265066 -0.2393193977 0.1535728443
265298410.0 -0.2496483631 0.1598941675 0.3658881636 -0.2235779182 0.3661723101 -0.2230999926 -0.2383078749 0.1563012044
270298380.0 -0.2486441182 0.1624828887 0.3636852189 -0.2270985959 0.3637596008 -0.227360056 -0.2366665515 0.1588093358
275298350.0 -0.2468287164 0.1651541215 0.3609409995 -0.231463501 0.361439673 -0.2314986325 -0.2353739269 0.1612841995
280298320.0 -0.2450476003 0.1678408375 0.3584361942 -0.2357244973 0.3587476397 -0.2355128966 -0.2334708653 0.1635240476
285298290.0 -0.2436188141 0.1706571098 0.35625603 -0.2396499566 0.3559690912 -0.2394402441 -0.2316723492 0.1660513515
290298260.0 -0.2417282609 0.1729694878 0.3532770945 -0.243614721 0.3533450914 -0.2435644238 -0.2299766359 0.1687571794
295298230.0 -0.2400710644 0.1753831197 0.3506011467 -0.2474655828 0.3506563604 -0.2473435671 -0.2281095508 0.1710117838
300298200.0 -0.2385256155 0.1782665198 0.3483189591 -0.2513517491 0.3479348656 -0.2516932695 -0.2266297075 0.173635043
305298170.0 -0.2366546767 0.1805506752 0.3450676564 -0.2557771574 0.3452252768 -0.2552972832 -0.2245734827 0.1760277765
310298140.0 -0.2348555755 0.1834188063 0.3423720751 -0.2596806842 0.3424720713 -0.2591794024 -0.2231714906 0.1783698195
315298110.0 -0.2331596243 0.185505338 0.3396745015 -0.2633860949 0.3395320048 -0.2635131793 -0.2213291127 0.1806101431
320298080.0 -0.2313974633 0.1881310482 0.3362818928 -0.267504035 0.3364904134 -0.2675118969 -0.219345336 0.1833826446
325298050.0 -0.2294425092 0.1907371103 0.3334620695 -0.2714555743 0.333477274 -0.2710070496 -0.2183262714 0.1856456801
330298020.0 -0.2275017206 0.1932912212 0.3302768616 -0.2753084925 0.330346867 -0.2747626247 -0.2166166717 0.1878212889
335297990.0 -0.2255529303 0.1954381691 0.3272175526 -0.2785265769 0.3272102639 -0.2785663225 -0.2149919149 0.1908463769
340297960.0 -0.2242553751 0.198340266 0.3239520971 -0.2824118704 0.3237912143 -0.2823915801 -0.2124533113 0.1930446408
345297930.0 -0.2221533399 0.2009593317 0.3205006534 -0.2861217438 0.3205861159 -0.2857910512 -0.2109671191 0.1948703984
350297900.0 -0.2201629514 0.2029011041 0.3169332691 -0.2893745342 0.3170869754 -0.2890479894 -0.2092541328 0.1978708682
355297870.0 -0.2179999383 0.2060484847 0.3142175908 -0.2929054766 0.3146996734 -0.2922091323 -0.2073151066 0.1999250435
360297840.0 -0.2159407268 0.208090695 0.3113314164 -0.2960781632 0.3112159218 -0.2962416867 -0.2052353972 0.2025549342
365297810.0 -0.2141548509 0.2110211307 0.3076464801 -0.2998969055 0.3080375744 -0.2996525351 -0.2031057995 0.2048098907
370297780.0 -0.2117831469 0.2129980207 0.3041483897 -0.302963536 0.3046645168 -0.3028089051 -0.2009609137 0.207314287
375297750.0 -0.2095341697 0.2154114353 0.3007032662 -0.3065469336 0.3013064845 -0.30628476 -0.1989229268 0.2093211489
380297720.0 -0.2074327962 0.2178362247 0.2973745784 -0.3098348368 0.2974528476 -0.3092464813 -0.1972097389 0.2117576115
385297690.0 -0.2054816673 0.220128226 0.2942440666 -0.3126213091 0.2938919003 -0.3127967071 -0.1946686496 0.213860428
390297660.0 -0.2030155204 0.2225977537 0.2906098755 -0.3162001727 0.2905979932 -0.3157667709 -0.1927758388 0.2162276663
395297630.0 -0.2006402867 0.224995439 0.2870746775 -0.3192441547 0.2870539627 -0.3192848291 -0.1903082992 0.2185108726
400297600.0 -0.1983497941 0.2271290643 0.2832455468 -0.3224252827 0.2839142999 -0.3221913216 -0.187987731 0.2203874819
405297570.0 -0.1964668951 0.2296792191 0.2801565678 -0.3255452631 0.2801729611 -0.3252453637 -0.1859617099 0.2226594285
410297540.0 -0.1937929322 0.2315859585 0.276572042 -0.3284072416 0.2766218749 -0.3284985651 -0.1833147645 0.2252750621
415297510.0 -0.1913715912 0.2337989973 0.2728124808 -0.3317049307 0.2730132134 -0.3316311068 -0.1813773567 0.22692429
420297480.0 -0.1891208823 0.2361667703 0.2689455843 -0.33487465 0.2689890748 -0.3344868079 -0.1791698684 0.2288281291
425297450.0 -0.1865632368 0.2379981946 0.2655490724 -0.3374376857 0.2657694529 -0.3373186341 -0.1771148683 0.2312837709
430297420.0 -0.1842213019 0.2400766124 0.26174409 -0.3400357901 0.2619091333 -0.3398996635 -0.174441575 0.2331511583
435297390.0 -0.1819138631 0.2424565259 0.2578748065 -0.3430806735 0.2577109342 -0.3429450921 -0.1716945084 0.2350998047
440297360.0 -0.1792852171 0.2443741918 0.2542226241 -0.3457243525 0.2542226103 -0.3456775897 -0.1694243465 0.2367469695
445297330.0 -0.1767487842 0.2463915814 0.2501345584 -0.3486522734 0.2503837648 -0.3483599645 -0.1673685314 0.2385096176
450297300.0 -0.1741462582 0.2483190171 0.2465118487 -0.3514455793 0.2464667972 -0.3513123792 -0.1644827967 0.2407041198
455297270.0 -0.1714558449 0.2505352158 0.2425600629 -0.354031835 0.2428861002 -0.3538141827 -0.1621888453 0.2424505305
460297240.0 -0.1692703685 0.2524622758 0.2387010431 -0.3562456908 0.2384764601 -0.3565480828 -0.1597167942 0.2446683195
465297210.0 -0.1663962716 0.254268403 0.2350002696 -0.3590766878 0.2346594875 -0.3595271833 -0.1570139208 0.2462613688
470297180.0 -0.1634886511 0.2562455905 0.2305226357 -0.3615402659 0.2308468953 -0.3618424471 -0.1542747212 0.2483309542
475297150.0 -0.1608616889 0.2578520217 0.226370975 -0.363814483 0.226879657 -0.364000621 -0.1514720759 0.2496155484
480297120.0 -0.1583340002 0.2601775391 0.2228348342 -0.3668609633 0.2226223581 -0.3668676833 -0.1488536216 0.2517460352
485297090.0 -0.1556123726 0.261844235 0.2188512839 -0.3688778408 0.2189119608 -0.3686004351 -0.1465304871 0.2534067141
490297060.0 -0.1529348012 0.2637497281 0.2147589378 -0.3714180841 0.2148150343 -0.3711412834 -0.1438020992 0.2550185319
495297030.0 -0.1503185603 0.2652700211 0.2103287851 -0.3734865798 0.2108020289 -0.3733063733 -0.1412935743 0.2567221898
500297000.0 -0.1473247563 0.2667163533 0.2064354354 -0.3755750757 0.2064607826 -0.3756072583 -0.1381222555 0.259165429
505296970.0 -0.1446455523 0.2687592021 0.202479951 -0.3778898067 0.2023914946 -0.3777541205 -0.135841856 0.2601678092
510296940.0 -0.141823239 0.2703490603 0.1982953545 -0.3803716752 0.1978299663 -0.3804065857 -0.1327965852 0.262169018
515296910.0 -0.1387379324 0.2719673402 0.1935067569 -0.3819761145 0.1939067272 -0.3823473253 -0.1300244144 0.2633881584
520296880.0 -0.1361565166 0.2734762754 0.1898979644 -0.3845727548 0.1899187744 -0.3843272427 -0.1276105237 0.2650538605
525296850.0 -0.1330427523 0.2749486457 0.1853184667 -0.3864497317 0.1859641167 -0.3863980257 -0.1249479371 0.266594585
530296820.0 -0.1300572657 0.2766344277 0.1812698124 -0.3885315555 0.1815966325 -0.3882602512 -0.1219674048 0.2678108305
535296790.0 -0.1277160568 0.2781829144 0.1770788228 -0.3901441697 0.1772383586 -0.3896520644 -0.1194422066 0.2690854951
540296760.0 -0.1246032917 0.279544827 0.1727720061 -0.3919624149 0.172650609 -0.3921656343 -0.116667099 0.2708208476
545296730.0 -0.1220607474 0.2812618932 0.1680701922 -0.3938632921 0.1683652956 -0.3941795246 -0.1138199288 0.2722248008
550296700.0 -0.1187461215 0.2827479088 0.1642171059 -0.3957590621 0.1643007772 -0.3956405639 -0.1111684037 0.2734814694
555296670.0 -0.1158641736 0.2837690453 0.1597089252 -0.3972670125 0.1602589993 -0.397212378 -0.1079669733 0.2749146107
560296640.0 -0.1125845108 0.2854198453 0.1554910718 -0.3992052516 0.1554138793 -0.3991098055 -0.1047436953 0.2760145758
565296610.0 -0.1098827223 0.2866678852 0.1510704467 -0.4008153187 0.1513598553 -0.4005347907 -0.1023356033 0.2772654877
570296580.0 -0.1071179232 0.2879169637 0.1468294678 -0.4029572219 0.1463999749 -0.4025903661 -0.099604714 0.2789450343
575296550.0 -0.1040905309 0.2896127657 0.1425322045 -0.4039099126 0.1421225701 -0.4040101878 -0.0962420185 0.2798022542
580296520.0 -0.1010239481 0.2903170102 0.1378823225 -0.4055230175 0.1381452909 -0.4054087372 -0.0934455895 0.280941885
585296490.0 -0.0983169321 0.2916201827 0.1336253541 -0.4069876414 0.1335721421 -0.4066720275 -0.0903635612 0.2824590685
590296460.0 -0.0944497746 0.2926848875 0.1288905772 -0.4079093353 0.1294558918 -0.4080638262 -0.0879051569 0.2834582844
595296430.0 -0.0919891794 0.2937552813 0.1242014488 -0.409592805 0.1243365228 -0.4093323381 -0.084717875 0.2840624697
600296400.0 -0.0887628463 0.2951485505 0.1200276559 -0.4109819366 0.1203504956 -0.4104288482 -0.0818349003 0.2850464545
605296370.0 -0.0858078098 0.2961157413 0.1159107857 -0.4118045982 0.115665296 -0.4121001124 -0.0785274002 0.2864180653
610296340.0 -0.0821939611 0.2973514985 0.1107226459 -0.4129910925 0.111204248 -0.4130065345 -0.0755162584 0.2870016637
615296310.0 -0.0790165626 0.2980667075 0.1064136881 -0.4142233467 0.1065044427 -0.4145812702 -0.0723592632 0.2879727537
620296280.0 -0.0762220814 0.2985865056 0.10214001 -0.4151982571 0.1021613076 -0.4153544308 -0.0696431321 0.2890172767
625296250.0 -0.0732423406 0.29994951 0.0975582514 -0.4168841359 0.0972642213 -0.4164808578 -0.0661851471 0.2897756432
630296220.0 -0.0692375702 0.3007929702 0.0924833181 -0.4174998922 0.0928141124 -0.4174586507 -0.0633745446 0.2911726313
635296190.0 -0.0670206258 0.3013217377 0.0886423368 -0.4180967418 0.0884223859 -0.4183213075 -0.0602932308 0.2916816224
640296160.0 -0.0638350917 0.3026048784 0.0839622967 -0.4190707578 0.0841061961 -0.4193956272 -0.0572327207 0.2925454273
645296130.0 -0.0606044327 0.3035841432 0.0794203072 -0.4200049667 0.0795842791 -0.4201863097 -0.0539074799 0.2932849524
650296100.0 -0.0571632216 0.3039672628 0.0747262348 -0.4207161765 0.074692221 -0.4207900944 -0.0510372907 0.2936188078
655296070.0 -0.0542057964 0.3048112933 0.0702897288 -0.4217127699 0.070131293 -0.4217771586 -0.0477905377 0.2945178894
660296040.0 -0.0510426894 0.3053574819 0.0655606334 -0.4223334579 0.0656969258 -0.4224696326 -0.0444696431 0.2951929845
665296010.0 -0.0474438227 0.305881827 0.0608172512 -0.4228593665 0.0610853512 -0.4229819242 -0.041515642 0.2963227199
670295980.0 -0.0450785623 0.3065709462 0.0567101928 -0.4231567347 0.0564259686 -0.4236007204 -0.0385890656 0.2964033187
675295950.0 -0.0414479596 0.307317627 0.051919915 -0.4237712085 0.0523532703 -0.4237261174 -0.0358151764 0.2970719473
680295920.0 -0.0381661787 0.3081182241 0.0467640953 -0.4243668934 0.0470229748 -0.4248114619 -0.0325663304 0.2984087553
685295890.0 -0.0348117998 0.3088792592 0.0426596048 -0.4250363513 0.0426278044 -0.4248923066 -0.0292404814 0.2982280892
690295860.0 -0.0316303455 0.3089920656 0.0379558287 -0.4253694178 0.038209236 -0.4255211767 -0.0261769522 0.2992696002
695295830.0 -0.0285171325 0.309116455 0.0335415821 -0.4253882193 0.0336650018 -0.4258111004 -0.0232090229 0.2994581548
700295800.0 -0.024824646 0.309666566 0.0283637457 -0.4259602053 0.0288176986 -0.4258400997 -0.0205304273 0.2997871994
705295770.0 -0.0223402479 0.3104545783 0.0241157596 -0.4258815049 0.024625207 -0.4265159424 -0.0171003457 0.3005021442
710295740.0 -0.0188233275 0.3106331202 0.0196313072 -0.4266044863 0.0199440439 -0.4268203798 -0.0137493219 0.3003084195
715295710.0 -0.0155617972 0.3109837233 0.0152031153 -0.4266223466 0.0151811668 -0.4267357527 -0.0104066483 0.3005696543
720295680.0 -0.0122779283 0.3112348147 0.0103059625 -0.4268448756 0.0107386522 -0.4270658813 -0.0073829205 0.3015240505
725295650.0 -0.0090288855 0.3120227746 0.0058416013 -0.4268484078 0.0059281477 -0.4271085473 -0.004349667 0.3011290983
730295620.0 -0.0056461015 0.3118296547 0.0010090655 -0.4266810013 0.0015262079 -0.4271006021 -0.0016255622 0.3013346198
735295590.0 -0.0023188828 0.3121782783 -0.0036465773 -0.4268885622 -0.0033453501 -0.4266831574 0.0015326944 0.3009718634
740295560.0 0.0005522796 0.3125381003 -0.0079555199 -0.4269297358 -0.0080112652 -0.4266046418 0.0055043117 0.301844879
745295530.0 0.0039176587 0.3125104941 -0.0130949589 -0.4263265279 -0.0128672435 -0.426526496 0.0084796227 0.3013510855
750295500.0 0.0073743727 0.3122884014 -0.0174237986 -0.4262799037 -0.0172574619 -0.4262277146 0.0115516041 0.3017532926
755295470.0 0.0105958221 0.3124090573 -0.0216804199 -0.4262483163 -0.0221612221 -0.4260750617 0.0152940949 0.3014407412
760295440.0 0.0136751477 0.3124001137 -0.0265319647 -0.4261520575 -0.0268721027 -0.4257388055 0.0179495586 0.3012921605
765295410.0 0.0170704799 0.3124528808 -0.0312487886 -0.4254777673 -0.0314617087 -0.425498682 0.0213195849 0.3015976151
770295380.0 0.0199768589 0.3123683878 -0.0358312685 -0.4251495098 -0.0358696805 -0.4248331067 0.024023375 0.3013114888
775295350.0 0.0232075941 0.3117622664 -0.0404173 -0.4242057462 -0.0401301399 -0.4245609678 0.0270358487 0.3012016061
780295320.0 0.026896833 0.3119685607 -0.0451857989 -0.4237969994 -0.0447632976 -0.4240618828 0.0302381191 0.3008593406
785295290.0 0.0298396188 0.3113882955 -0.0499447334 -0.4231339011 -0.0494291654 -0.4234788858 0.0338026158 0.3007561406
790295260.0 0.0335859158 0.3118721441 -0.054018287 -0.4229310115 -0.0534189684 -0.422875731 0.0373790797 0.3006490925
795295230.0 0.036542864 0.3115149227 -0.0584435961 -0.4222417995 -0.0583855607 -0.4224002324 0.040298598 0.3003056114
800295200.0 0.0393765812 0.3113062755 -0.0632928389 -0.4215647035 -0.0629840834 -0.4215937817 0.0434167516 0.3002812909
805295170.0 0.0431597934 0.3105425436 -0.0679118636 -0.4207022784 -0.0677455149 -0.4213847907 0.0466435596 0.3000976457
810295140.0 0.0462050816 0.3104365902 -0.0719238703 -0.4198283868 -0.0721585881 -0.4202382555 0.0501445253 0.2996541124
815295110.0 0.0495069048 0.309875023 -0.0769535801 -0.4187571734 -0.0764299582 -0.4192734936 0.0530268766 0.2992156761
820295080.0 0.0523454762 0.3100099646 -0.0812341308 -0.4180709263 -0.0810276533 -0.4183579082 0.0563562899 0.2990175513
825295050.0 0.0562233301 0.3092868247 -0.0854924817 -0.4172104351 -0.0856699577 -0.4173259606 0.059597303 0.2986276104
