!Created with skrf (http://scikit-rf.org).
# Hz S RI R 50.0 
!freq ReS11 ImS11 ReS21 ImS21 ReS12 ImS12 ReS22 ImS22
300000.0 -0.239482423 -0.0914193752 0.4697626387 0.0606501772 0.4694080165 0.0568227192 -0.2375707242 -0.0981207397
5299970.0 -0.2450912407 0.0062611882 0.4749059154 0.0050284458 0.4747588139 0.005322327 -0.2410440533 0.0071346051
10299940.0 -0.2417054533 0.0178665598 0.4766000746 0.0058364565 0.4769010864 0.0060326527 -0.2376794214 0.0203012862
15299910.0 -0.2375540038 0.0270530252 0.48069228 0.0072594561 0.4805962049 0.0074044687 -0.2333382326 0.0300231608
20299880.0 -0.2331216952 0.0340579233 0.4851661528 0.0082145798 0.4852291795 0.0079467242 -0.2278319886 0.0378664292
25299850.0 -0.2276640002 0.0403659546 0.4900830262 0.0069783281 0.4900959466 0.0072546508 -0.2218168178 0.0445850052
30299820.0 -0.2225744911 0.0447308086 0.4955337401 0.0052455335 0.495372162 0.0048918514 -0.216175188 0.0503118372
35299790.0 -0.2174675064 0.0492149476 0.5009075521 0.0013383703 0.50094652 0.0018259946 -0.2105932931 0.0546635552
40299760.0 -0.2125386254 0.0525072893 0.5059712307 -0.0023002062 0.5057554348 -0.0024460574 -0.2050062679 0.0574834253
45299730.0 -0.2078935583 0.0548271702 0.5103504116 -0.0069592118 0.5109509708 -0.0068776099 -0.200302154 0.0603230494
50299700.0 -0.2038479866 0.05703016 0.5153267084 -0.0127287612 0.5150018481 -0.0121426913 -0.1952720097 0.0624333819
55299670.0 -0.1998948011 0.0584213213 0.5187468014 -0.0192138907 0.5183834826 -0.0183844724 -0.1913681492 0.0640521307
60299640.0 -0.1958784896 0.0598774196 0.5215894449 -0.024890674 0.5220848652 -0.0243262043 -0.187467854 0.0653408751
65299610.0 -0.1930107566 0.0611370195 0.5250765097 -0.0313058083 0.5247571172 -0.0311114253 -0.184010489 0.0666918258
70299580.0 -0.1899462493 0.062063704 0.5273523474 -0.0378035995 0.5271060103 -0.0374666589 -0.180588937 0.0675527309
75299550.0 -0.187321723 0.0629965002 0.5290203926 -0.044336738 0.5288781493 -0.0447081774 -0.1778188969 0.0684066946
80299520.0 -0.1846909299 0.0637036267 0.5308444087 -0.0516305885 0.5312283483 -0.0513679519 -0.1753005 0.0692439985
85299490.0 -0.1824831046 0.0639262365 0.5320699234 -0.0581784289 0.5317733159 -0.0580436377 -0.1727329733 0.0697370554
90299460.0 -0.1801534936 0.0649145188 0.5328738384 -0.0649985507 0.5334380523 -0.065128191 -0.1705093244 0.070464634
95299430.0 -0.1781388126 0.0654694597 0.534115271 -0.0720062681 0.5342305062 -0.072395055 -0.1680970423 0.0713021063
100299400.0 -0.1767301199 0.0662302776 0.5338193768 -0.0787024181 0.5341551611 -0.079094604 -0.1661109356 0.0715358322
105299370.0 -0.1749540041 0.0670638441 0.5344184222 -0.0865287161 0.5348364011 -0.0858610802 -0.1638127508 0.0723683086
110299340.0 -0.1733741262 0.0677176041 0.5350843784 -0.0925943404 0.5346257091 -0.0925415355 -0.1628680902 0.0731107377
115299310.0 -0.1719297617 0.0680404201 0.5346762652 -0.0991766763 0.5348702677 -0.0992933379 -0.1612611252 0.0737533958
120299280.0 -0.1706953229 0.0685432356 0.5344573151 -0.1066147127 0.5348604665 -0.1062947111 -0.159521955 0.074907717
125299250.0 -0.1696451997 0.0693742753 0.5342300527 -0.1128740469 0.5344398302 -0.1125012185 -0.1582608602 0.0748862948
130299220.0 -0.1684927976 0.0701078099 0.533416228 -0.1196721666 0.533560935 -0.1195647033 -0.1572371673 0.0756828128
135299190.0 -0.1674296611 0.0710167363 0.5327060209 -0.1264337876 0.5327090496 -0.1258659561 -0.1555057542 0.0768627027
140299160.0 -0.166657497 0.0722355752 0.5319356729 -0.1333571229 0.5323196165 -0.1329157587 -0.1545447661 0.0780645398
145299130.0 -0.16563466 0.0728116628 0.5314966277 -0.1399908991 0.5311471825 -0.1394284375 -0.1537081801 0.0791855016
150299100.0 -0.1645058379 0.0737287515 0.5299425464 -0.1456274448 0.5303575404 -0.1454759606 -0.1525734462 0.0801719908
155299070.0 -0.1641978855 0.0746905625 0.5288455673 -0.1528990801 0.5288379769 -0.1526207098 -0.1513221339 0.0813372394
160299040.0 -0.163072897 0.075804674 0.5274533761 -0.1589518593 0.5273998243 -0.1591068742 -0.1505842191 0.0821971184
165299010.0 -0.162346472 0.0769146198 0.5260772768 -0.1658854502 0.5261248192 -0.1656451593 -0.1491074033 0.083859077
170298980.0 -0.1615041957 0.0776847848 0.5243588575 -0.1720361655 0.5245204645 -0.1717848013 -0.148334641 0.0850003217
175298950.0 -0.1606817261 0.0790527768 0.5230859668 -0.177780491 0.5223055533 -0.1780239664 -0.147798683 0.0861665537
180298920.0 -0.1599950021 0.080146311 0.5212860034 -0.1839686599 0.5212552825 -0.184439132 -0.1467617354 0.0875202353
185298890.0 -0.1588498279 0.0808294209 0.5190475469 -0.1902634568 0.5189359168 -0.1902461611 -0.1456813782 0.0885253334
190298860.0 -0.1585236961 0.0825434006 0.5175548611 -0.1971424515 0.5173422194 -0.196490267 -0.1447001635 0.0897228208
195298830.0 -0.1577539226 0.0834121421 0.5153472891 -0.2031560725 0.5154654507 -0.2024745807 -0.1434984228 0.0911190258
200298800.0 -0.1568386055 0.0845444042 0.5129461458 -0.2092178831 0.5134844352 -0.2092342435 -0.143382808 0.0927740781
205298770.0 -0.1562238856 0.0856977967 0.5106141979 -0.2152874544 0.5109790936 -0.2149933017 -0.1420290455 0.0933074372
210298740.0 -0.155430987 0.0871120573 0.5090017307 -0.2209843395 0.5088193994 -0.2203474432 -0.1408067012 0.0952374197
215298710.0 -0.1550882405 0.0883320876 0.5067916591 -0.226993499 0.5065091489 -0.2270250261 -0.1406648541 0.0965107888
220298680.0 -0.1539043762 0.0892633242 0.5038337197 -0.232821419 0.5039581714 -0.2326247056 -0.139728026 0.097480287
225298650.0 -0.1535585407 0.0907826265 0.5014103806 -0.2387487971 0.5017006397 -0.2385414002 -0.1391175563 0.0986856679
230298620.0 -0.1525539766 0.0923617616 0.4990490396 -0.2442993518 0.499524822 -0.2445478409 -0.1381603451 0.1001784765
235298590.0 -0.1518518305 0.0937976318 0.4966902518 -0.2502121305 0.4968897218 -0.2496690488 -0.136899022 0.1016069771
240298560.0 -0.1509091973 0.0949996514 0.4939495134 -0.2559431461 0.4939671608 -0.2558026706 -0.1361529812 0.1031651487
245298530.0 -0.1504857024 0.0961273213 0.491300791 -0.2613120438 0.4912237765 -0.2614868728 -0.1345312823 0.1037924696
250298500.0 -0.1489423453 0.0975222696 0.4875722887 -0.2672549661 0.487544504 -0.2667547693 -0.1338868787 0.1057039678
255298470.0 -0.1486565978 0.0986408328 0.4844419084 -0.2722888046 0.4852013903 -0.2726109199 -0.132792334 0.1069104196
260298440.0 -0.1481572861 0.0998752874 0.4822686533 -0.2784715767 0.4822939626 -0.2781291723 -0.1312857596 0.1082330904
265298410.0 -0.1467824227 0.1019260768 0.4792472337 -0.2841250978 0.4793635809 -0.2835050296 -0.1303670583 0.1097706192
270298380.0 -0.1460088591 0.1030065217 0.4763438636 -0.2890456154 0.4763258126 -0.2889266815 -0.1294962333 0.1113000248
275298350.0 -0.1449128168 0.104254118 0.4727741962 -0.294802172 0.4730336763 -0.2943658189 -0.1278374465 0.1124184425
280298320.0 -0.1437654918 0.1061834611 0.4698728121 -0.3003880783 0.4700758875 -0.2996818389 -0.1266314474 0.1137989631
285298290.0 -0.1429232528 0.1075031408 0.4666395203 -0.3053910522 0.4662254209 -0.3052674504 -0.1256177098 0.1150514471
290298260.0 -0.1419165109 0.1083344628 0.4631124519 -0.3101021565 0.4632872872 -0.310554963 -0.1245164751 0.1167226147
295298230.0 -0.1406550309 0.1097962301 0.4599348482 -0.3157408008 0.4597743852 -0.3155885707 -0.1225831861 0.1176129844
300298200.0 -0.1402741074 0.1112112582 0.4566287139 -0.3209430241 0.4567238332 -0.321342077 -0.1216807572 0.1188960645
305298170.0 -0.13901724 0.1120251427 0.452853833 -0.3266399077 0.4529651684 -0.3263234885 -0.1199216548 0.1202733875
310298140.0 -0.1380133462 0.1134660871 0.4494622111 -0.3315527262 0.4497112578 -0.3315767141 -0.1188691773 0.1216503031
315298110.0 -0.1370563858 0.1144530729 0.4460162581 -0.3366008788 0.4458458361 -0.3362900539 -0.1177872422 0.1227756318
320298080.0 -0.1359344709 0.1159240723 0.4416587505 -0.3418225173 0.4422329539 -0.3419617417 -0.1163227948 0.1243197465
325298050.0 -0.1350866042 0.1171991062 0.4380991463 -0.3471278419 0.4381479076 -0.3470282039 -0.115428207 0.1254359964
330298020.0 -0.1340718504 0.1183515935 0.4338026134 -0.3520065119 0.4341960738 -0.3517091903 -0.1143258569 0.1266186855
335297990.0 -0.1328822454 0.1195811309 0.429892345 -0.356502199 0.4301012779 -0.3569466684 -0.1133034908 0.1284163817
340297960.0 -0.1325328211 0.121070134 0.425967812 -0.3615117111 0.4256066606 -0.3615416518 -0.1117585187 0.129955054
345297930.0 -0.1315153653 0.1226464338 0.422040155 -0.3662109009 0.4217093879 -0.3661443682 -0.11047733 0.1307951504
350297900.0 -0.1304840073 0.1239046764 0.4173869877 -0.3713525843 0.4176494069 -0.3706399935 -0.1093839426 0.1329317238
355297870.0 -0.1292044774 0.1257787037 0.4133895901 -0.3752054077 0.4137744552 -0.3755516812 -0.1081311957 0.1342335748
360297840.0 -0.1281113937 0.1268982639 0.4098189214 -0.3796991177 0.4100500316 -0.3793722534 -0.1070134524 0.1355516056
365297810.0 -0.127534905 0.128467166 0.4051663446 -0.3843524832 0.4057092632 -0.3842333152 -0.1054205148 0.1367616085
370297780.0 -0.1256486181 0.1295147341 0.4006940746 -0.3883718034 0.4011213364 -0.3881892835 -0.1041816234 0.1381306227
375297750.0 -0.1246757837 0.1308837942 0.3967603257 -0.3932926108 0.3970623679 -0.3932040324 -0.1025377798 0.1392211711
380297720.0 -0.1233738812 0.1321864351 0.3923710817 -0.3975951372 0.3926985606 -0.3968018103 -0.1012640475 0.1405833963
385297690.0 -0.1223546009 0.1334863608 0.3876249255 -0.4017576935 0.387968261 -0.4018559237 -0.099761548 0.1420220885
390297660.0 -0.1211554804 0.135149191 0.3836503802 -0.406160074 0.3833288929 -0.4059222154 -0.0985250453 0.1431183606
395297630.0 -0.1198479285 0.1362453861 0.3789520041 -0.409918627 0.3793536026 -0.4103140398 -0.0963162182 0.1445903929
400297600.0 -0.1186998379 0.137581133 0.3742367142 -0.4149397058 0.3746384031 -0.4143527987 -0.0951572884 0.1455363435
405297570.0 -0.1177212998 0.1386510443 0.3700424874 -0.4181398655 0.370314338 -0.418344285 -0.0937699521 0.146968699
410297540.0 -0.115824202 0.1399812746 0.3655583665 -0.422618284 0.3660470013 -0.4223128251 -0.0920429221 0.1480439461
415297510.0 -0.1146315014 0.1410985519 0.3603248405 -0.4263436574 0.3611077997 -0.4265634035 -0.0905871614 0.1492581908
420297480.0 -0.1135745865 0.1426154036 0.3557816481 -0.4305801584 0.3562069625 -0.4306608697 -0.0891518831 0.1501421286
425297450.0 -0.1121717169 0.1437551035 0.3515991825 -0.4343275652 0.3518286802 -0.4344866427 -0.08760221 0.1518460957
430297420.0 -0.1108513343 0.1448746529 0.346788084 -0.4375460141 0.346403362 -0.4374659475 -0.0858586612 0.1523617077
435297390.0 -0.1092508541 0.1461636273 0.3413417706 -0.4416377483 0.3416249134 -0.4417213983 -0.0837786315 0.1534211579
440297360.0 -0.1079411768 0.147508748 0.3366790775 -0.4453151114 0.337017062 -0.4452384993 -0.0826003802 0.1544078411
445297330.0 -0.1063971943 0.1482980645 0.3323950644 -0.449011965 0.3321538056 -0.4487952545 -0.0805400409 0.1552628681
450297300.0 -0.1050093239 0.1495457667 0.327038712 -0.4525714971 0.3269879739 -0.4527224179 -0.0789592386 0.1562613911
455297270.0 -0.103760873 0.1507879645 0.3219871196 -0.4557766541 0.3223045861 -0.4563818558 -0.0773485974 0.1572872224
460297240.0 -0.1024517631 0.1518404178 0.3168293869 -0.4594923856 0.3171237603 -0.4597077426 -0.0755205954 0.1585068558
465297210.0 -0.1007668914 0.1528249495 0.3120755598 -0.4633343231 0.3119694283 -0.4635258609 -0.0736446863 0.1591104134
470297180.0 -0.0994015635 0.1538686652 0.3068347247 -0.4663629776 0.3074179302 -0.4668018908 -0.0717464476 0.1603869386
475297150.0 -0.0977968733 0.1549079064 0.3015411345 -0.4692587092 0.3019142909 -0.4692079134 -0.0696034435 0.1607822873
480297120.0 -0.0963165005 0.1564922314 0.2967572209 -0.4733567238 0.2966248377 -0.4735096513 -0.0675708615 0.1620127039
485297090.0 -0.0948918004 0.157269258 0.2915654926 -0.4760766206 0.291936699 -0.475648791 -0.0662819674 0.162916944
490297060.0 -0.0936707081 0.1583601327 0.2866321167 -0.479335268 0.2867390716 -0.4791433777 -0.0644835148 0.164146226
495297030.0 -0.0921699946 0.1593159446 0.2809271325 -0.4822873849 0.2817024955 -0.4821659144 -0.0629014194 0.1649548217
500297000.0 -0.0902980471 0.1601955948 0.2759494994 -0.4849371647 0.2753986637 -0.4850377018 -0.0605572697 0.1659947777
505296970.0 -0.0887376604 0.161405185 0.2707344279 -0.4884241275 0.2701836499 -0.4882116364 -0.0592339519 0.1666836675
510296940.0 -0.0873163024 0.16256305 0.2652534219 -0.4916845492 0.2649247453 -0.491385759 -0.0571357159 0.1675709905
515296910.0 -0.0857198456 0.1634458925 0.259730032 -0.494323809 0.2599359053 -0.4939363216 -0.0554178629 0.1684225612
520296880.0 -0.0841110341 0.164330943 0.2545633297 -0.4971867482 0.2546675567 -0.4966757433 -0.0533945833 0.1689805307
525296850.0 -0.0824714449 0.1648738258 0.2485502818 -0.4989653242 0.2493128339 -0.4993103671 -0.0517747653 0.1700804634
530296820.0 -0.0808128421 0.1661264966 0.2434671 -0.5023025179 0.2438016427 -0.5023222571 -0.0498096984 0.17080554
535296790.0 -0.0798443858 0.1670195436 0.2383780175 -0.504933084 0.2385972811 -0.5042376298 -0.0478724489 0.1710853043
540296760.0 -0.078064106 0.1681657171 0.2327606469 -0.5076968134 0.2325879595 -0.5070856116 -0.0464352428 0.1724545389
545296730.0 -0.0766913886 0.1689776297 0.2270613844 -0.5096871783 0.2270817486 -0.5096913529 -0.0443390506 0.1726016514
550296700.0 -0.0741337132 0.1699901106 0.2214854898 -0.5118763959 0.2218204433 -0.512314957 -0.0425868413 0.173604881
555296670.0 -0.0729403861 0.1706456714 0.2161550751 -0.5145778395 0.2161393876 -0.5142793521 -0.0404659151 0.1745250246
560296640.0 -0.0708914677 0.1718199921 0.2100522157 -0.5170245199 0.2109027677 -0.5167117555 -0.0385623235 0.1746905676
565296610.0 -0.0697602671 0.1723869505 0.2043994899 -0.5191717573 0.2049415713 -0.5191082199 -0.036871635 0.1750601604
570296580.0 -0.0680008826 0.1733409925 0.198921593 -0.5216977202 0.1989283571 -0.5212202758 -0.035214729 0.1761886055
575296550.0 -0.066464516 0.1744604366 0.1934342088 -0.5236410959 0.1932632676 -0.5233650356 -0.0326631012 0.1765348868
580296520.0 -0.0645768166 0.1751723881 0.1875947066 -0.5256530352 0.188050233 -0.5254534948 -0.0309193683 0.1770528815
585296490.0 -0.0631576819 0.1757127028 0.1822771122 -0.5273343444 0.182182386 -0.5274671117 -0.0290343757 0.1775281765
590296460.0 -0.0609257898 0.1765509012 0.1764314024 -0.5289947672 0.1763982035 -0.5291564799 -0.0276313465 0.1779449777
595296430.0 -0.0592390619 0.1771916553 0.1701017445 -0.5312521958 0.1705550057 -0.5312315437 -0.0253553677 0.1779584732
600296400.0 -0.0579324923 0.1777690094 0.1647257673 -0.5328807545 0.1651107786 -0.5326886235 -0.0232721887 0.1783845768
605296370.0 -0.0562825249 0.1784955146 0.1590959814 -0.5346538273 0.1590521827 -0.5346899387 -0.0209282357 0.1787482129
610296340.0 -0.0545077244 0.1793131006 0.1529069992 -0.5363169135 0.1533812332 -0.5358257763 -0.0191781754 0.1792971527
615296310.0 -0.0522422449 0.1796432299 0.1470860636 -0.5378765641 0.1474161137 -0.5380150984 -0.0170892146 0.1795456331
620296280.0 -0.0508901783 0.1801679946 0.1413201217 -0.5396754386 0.1415611848 -0.539391635 -0.0153902483 0.1798739095
625296250.0 -0.0492157165 0.1805585452 0.1363421873 -0.5412547382 0.1359240919 -0.5410114446 -0.0127947023 0.1801348914
630296220.0 -0.0470303202 0.1814864653 0.1292133601 -0.5420542531 0.1295406466 -0.5420511796 -0.010937251 0.1809538633
635296190.0 -0.0460074539 0.1818826018 0.1237820159 -0.5434826883 0.1239452057 -0.5436008095 -0.0087067077 0.1808300789
640296160.0 -0.0438938434 0.1827143197 0.117919252 -0.5446455025 0.1184373756 -0.5446460651 -0.0069995354 0.1810398825
645296130.0 -0.0422343823 0.183567228 0.1122883721 -0.5459251833 0.1125996172 -0.5458745298 -0.0048574766 0.1815311668
650296100.0 -0.0401880387 0.1837203573 0.1060263422 -0.5471800026 0.1065538714 -0.5470252684 -0.0023444908 0.1813371666
655296070.0 -0.0385960115 0.1842554049 0.1006228062 -0.5482964732 0.100584931 -0.5482841605 -0.0007193134 0.1815526678
660296040.0 -0.0370946597 0.1845546747 0.0943884913 -0.5492171036 0.0943945796 -0.549516407 0.0018054178 0.1817008643
665296010.0 -0.034837192 0.1849293921 0.088020903 -0.5497192021 0.0886996617 -0.5502187651 0.0035125818 0.1822254009
670295980.0 -0.0337303663 0.1858879293 0.0826320528 -0.5511062579 0.0825436532 -0.5511563263 0.0055255086 0.1823471143
675295950.0 -0.0315974581 0.1862979421 0.0767740459 -0.5517563484 0.0769303586 -0.5513877812 0.0073552499 0.1823441373
680295920.0 -0.029971237 0.1869144636 0.0706466668 -0.5523221772 0.0702300161 -0.5529796437 0.0094299303 0.1828720269
685295890.0 -0.0278617795 0.18761241 0.0645127088 -0.5533392599 0.0645172575 -0.5535705413 0.0111763046 0.1826581332
690295860.0 -0.0260393133 0.1878286609 0.0589024183 -0.5533740488 0.0588357938 -0.5542417393 0.0134254798 0.1833320867
695295830.0 -0.0244069557 0.1881972167 0.0531363089 -0.5544056295 0.0524439359 -0.554355692 0.0154849113 0.1831542235
700295800.0 -0.0222785357 0.1879094776 0.0464276419 -0.5548123297 0.0464935226 -0.5548008528 0.0171795695 0.1833726851
705295770.0 -0.0205817419 0.1891586012 0.0404502559 -0.5558411632 0.0413215117 -0.5557356786 0.0192262404 0.1833408612
710295740.0 -0.0185321898 0.1892727636 0.0342097931 -0.556037657 0.0349966886 -0.556255843 0.0215452452 0.182630374
715295710.0 -0.0174408423 0.1894787165 0.0292093492 -0.5561759072 0.0285147739 -0.5561109026 0.0233636796 0.1826580587
720295680.0 -0.0154058792 0.1897553687 0.0229071814 -0.5566471157 0.0232376656 -0.5563466768 0.0256649486 0.1833469925
725295650.0 -0.0133019027 0.1899307017 0.0169040868 -0.5564441697 0.0169390835 -0.556750236 0.0268902119 0.1829772326
730295620.0 -0.0110115457 0.1906622364 0.0103320891 -0.5563765845 0.0107202075 -0.5566563435 0.029028078 0.182617174
735295590.0 -0.0097970723 0.1910147854 0.0049454897 -0.5568436244 0.0047759995 -0.5569267087 0.0308854203 0.1821317587
740295560.0 -0.0079941165 0.1911091661 -0.0014268839 -0.5564946106 -0.001182733 -0.556712668 0.0335408524 0.1824065957
745295530.0 -0.0058683466 0.1913204863 -0.0074465998 -0.5562189799 -0.0074617698 -0.5567504351 0.0353275652 0.1817927205
750295500.0 -0.0040117427 0.1914549666 -0.0131708212 -0.5566069573 -0.0130322089 -0.5565412389 0.0370673429 0.1817926047
755295470.0 -0.0019844214 0.1912998804 -0.0190847731 -0.5563822908 -0.0192522766 -0.5566205505 0.0396269555 0.1810517251
760295440.0 -0.0005532925 0.1916800832 -0.0250447321 -0.5562880174 -0.0252618923 -0.5567148505 0.0414004021 0.1808220255
765295410.0 0.0014380509 0.1919308462 -0.0312571144 -0.5559565737 -0.0311696981 -0.5559126664 0.0435160613 0.1806234703
770295380.0 0.0032204245 0.1920478171 -0.0374988915 -0.5553063529 -0.0371104645 -0.5553906326 0.0451859935 0.1800776128
775295350.0 0.0047118115 0.1914250915 -0.0433144021 -0.5544748654 -0.0424489385 -0.5547643046 0.0465515031 0.1798562924
780295320.0 0.0070395735 0.1919908704 -0.0493354677 -0.554131297 -0.0486594835 -0.5538613998 0.0490422406 0.1790903945
785295290.0 0.008314662 0.1917598841 -0.0553638636 -0.5529962723 -0.0546205536 -0.5536567247 0.0517320703 0.1787897339
790295260.0 0.0111647126 0.1920604209 -0.0605957211 -0.552944918 -0.0602705226 -0.5525883412 0.053505103 0.1786049682
795295230.0 0.0124198679 0.1920808308 -0.0668799437 -0.5521967426 -0.066182277 -0.552559485 0.0555471831 0.1783693982
800295200.0 0.014243138 0.1923115376 -0.0734377555 -0.5512310081 -0.0723855452 -0.5514227794 0.0575167878 0.1775605906
805295170.0 0.0162092389 0.1923099593 -0.0789290361 -0.5508592007 -0.0787191538 -0.5510741853 0.0593898194 0.1771751668
810295140.0 0.0180786116 0.1917114578 -0.0845205798 -0.5495261743 -0.0847383155 -0.549967229 0.061691257 0.1767063931
815295110.0 0.0199943986 0.1916458974 -0.0904253252 -0.5486638977 -0.0902864612 -0.5488771732 0.0634085792 0.1761699411
820295080.0 0.0214966313 0.1921676636 -0.0964817685 -0.5474214095 -0.0958202594 -0.5474994552 0.0657248182 0.175566215
825295050.0 0.0239922579 0.191835375 -0.10189162 -0.5463179115 -0.1020413895 -0.5465215003 0.0677936383 0.1752750049
830295020.0 0.0254770963 0.1918284106 -0.108289845 -0.5451607627 -0.1080307921 -0.5454125697 0.0700853197 0.1746920014
