!Created with skrf (http://scikit-rf.org).
# Hz S RI R 50.0 
!freq ReS11 ImS11 ReS21 ImS21 ReS12 ImS12 ReS22 ImS22
300000.0 -0.7746249255 -0.1463132955 -0.0025829595 0.0015221363 0.0001546836 0.0015758361 -0.7676237094 -0.1694975588
5299970.0 -0.7849783749 -0.0075569276 5.60285e-05 1.87658e-05 -9.18944e-05 9.9896e-05 -0.7850262501 -0.0086812629
10299940.0 -0.7875002368 -0.0043349868 -0.0002049363 -0.0003242289 -7.60809e-05 -7.13978e-05 -0.7881416404 -0.0053068357
15299910.0 -0.7934405366 -0.0015308716 -1.55016e-05 0.0001475864 -2.76782e-05 0.0001178507 -0.7933265004 -0.0027838815
20299880.0 -0.7997976811 0.0023694578 -1.45159e-05 5.8856e-06 -6.66631e-05 -0.000245674 -0.8002397768 0.001439736
25299850.0 -0.8064155314 0.0084368781 -2.81686e-05 -1.02639e-05 8.65984e-05 0.0002313763 -0.8065346775 0.0077961621
30299820.0 -0.8123015177 0.0163132249 0.0003102386 -0.0001344222 -3.18901e-05 -0.0002761892 -0.8124467966 0.0146807663
35299790.0 -0.8169521414 0.0251993314 -1.36171e-05 -0.0001413706 -3.2002e-06 2.801e-06 -0.8176114575 0.0240833826
40299760.0 -0.8212832017 0.034596806 -0.0001025425 -0.0001030597 0.0001079967 -0.0001849164 -0.8212685704 0.0330994107
45299730.0 -0.8247379715 0.0441719677 4.06975e-05 -6.24812e-05 -8.10222e-05 0.0002149421 -0.825278047 0.0424381378
50299700.0 -0.8266922503 0.0537423573 0.0001330223 7.27386e-05 5.36632e-05 0.0001999313 -0.8275366832 0.0524927681
55299670.0 -0.8288174204 0.0642814518 0.000106771 0.0001378745 -5.00589e-05 0.0001016594 -0.8294851486 0.0629018249
60299640.0 -0.8301594489 0.0745794882 -0.0002237601 5.35731e-05 3.34664e-05 5.21867e-05 -0.8311029126 0.0732410308
65299610.0 -0.8311049737 0.0843888104 -1.36969e-05 -0.000157194 -7.65057e-05 7.76314e-05 -0.8310898212 0.0832045277
70299580.0 -0.8310112157 0.0943522991 -0.000139967 -8.46588e-05 -0.0001515329 -4.98953e-05 -0.8320700858 0.092777813
75299550.0 -0.8313691735 0.1047761852 -2.11289e-05 -8.4698e-06 0.0001099297 0.0002311811 -0.832567575 0.1029905013
80299520.0 -0.8316523967 0.114965125 2.56548e-05 -5.73804e-05 -0.0001715972 1.79436e-05 -0.8321789764 0.1129591755
85299490.0 -0.8307026725 0.1242315005 -4.885e-06 -0.0001490921 -1.24808e-05 -3.26835e-05 -0.8320895183 0.1216758849
90299460.0 -0.8299549729 0.13409946 7.96104e-05 -5.20993e-05 0.0001306103 0.0001670089 -0.8310338182 0.1314293256
95299430.0 -0.8285476667 0.1437050758 -1.98062e-05 -4.12427e-05 2.38231e-05 8.06662e-05 -0.829939777 0.1412797174
100299400.0 -0.8280230285 0.1530483335 -9.1194e-06 -6.4871e-06 4.50541e-05 -8.28208e-05 -0.8289208631 0.1495102734
105299370.0 -0.8264139913 0.162213708 -0.0001164789 0.0001396871 -4.26599e-05 0.000156627 -0.827467992 0.1591184403
110299340.0 -0.8253181931 0.1712548593 2.982e-06 0.0001639462 -1.50139e-05 0.0001644163 -0.8275085425 0.1680251985
115299310.0 -0.8235657709 0.1806433523 1.35349e-05 6.17653e-05 1.562e-07 8.24228e-05 -0.8248486404 0.1773217115
120299280.0 -0.8218304267 0.1893600466 -3.51687e-05 -4.0072e-06 -0.0001302266 6.8934e-05 -0.823122875 0.1860151905
125299250.0 -0.8202784935 0.1985241879 -6.81246e-05 2.06991e-05 -0.0001838237 -0.0001698447 -0.8220471236 0.1952265805
130299220.0 -0.8182528731 0.2074730911 -8.11771e-05 -0.0001648848 -0.0001900983 4.22015e-05 -0.8206634711 0.2039095868
135299190.0 -0.8163252524 0.2166410147 -7.80647e-05 8.03174e-05 0.0001515784 2.61714e-05 -0.8181629496 0.2123430904
140299160.0 -0.8145474482 0.2255894514 5.42601e-05 2.93654e-05 -4.11594e-05 -5.82392e-05 -0.815431492 0.2217894053
145299130.0 -0.8122316195 0.2344025509 7.89202e-05 0.0001437742 2.78451e-05 0.0001700006 -0.8136856061 0.2296009526
150299100.0 -0.8097407459 0.2432237188 0.0001266516 -6.2182e-06 0.0001872885 7.21048e-05 -0.8119335228 0.2384074283
155299070.0 -0.8073135769 0.2521840232 4.49539e-05 -1.09852e-05 0.0002017555 0.0001064745 -0.810035946 0.247294051
160299040.0 -0.8048667746 0.2612617477 -0.0001069626 0.0001567448 -1.97972e-05 3.13627e-05 -0.8078511531 0.2568776177
165299010.0 -0.8020046233 0.2694087096 -2.92887e-05 2.4125e-05 1.71775e-05 0.0001134394 -0.8039542901 0.2649364067
170298980.0 -0.7994798711 0.278196681 0.0001356666 0.0001701463 0.0001685658 6.29483e-05 -0.8021016354 0.2733514825
175298950.0 -0.7967245467 0.2870068859 -0.0003565738 1.1045e-06 -0.0001471376 0.0001136343 -0.7989149129 0.281952975
180298920.0 -0.7938367359 0.295133873 8.44168e-05 7.41576e-05 2.70286e-05 0.0001058437 -0.7958386793 0.2902709146
185298890.0 -0.7904604623 0.3041415072 3.76515e-05 -1.81194e-05 -2.9008e-06 9.8019e-06 -0.7927622397 0.2985486078
190298860.0 -0.7871913372 0.3124134377 0.0001271331 -9.18308e-05 -3.22884e-05 -6.44928e-05 -0.7894391299 0.3072834414
195298830.0 -0.7837005708 0.320729498 -3.8956e-06 0.0001555339 2.556e-07 -8.49707e-05 -0.7866551959 0.3153937494
200298800.0 -0.7806194667 0.3294000835 -0.0002952926 1.5143e-06 1.14346e-05 -9.12792e-05 -0.7831724532 0.323735359
205298770.0 -0.7773294851 0.3372748352 3.85275e-05 5.71825e-05 -5.25318e-05 3.783e-05 -0.7798174389 0.3321252026
210298740.0 -0.7736017171 0.3458719217 6.72308e-05 -9.18382e-05 -6.10091e-05 0.0001273199 -0.7767650245 0.3404042561
215298710.0 -0.7701044905 0.3538266582 -6.85044e-05 -5.01383e-05 -0.0001321213 -0.0001162827 -0.7735919312 0.3479353748
220298680.0 -0.7669794162 0.362552915 -0.0001147813 -4.24644e-05 4.864e-06 0.0001107217 -0.7691076748 0.3569602746
225298650.0 -0.7631368043 0.3704586841 0.0001500514 -0.0002416352 -0.0002091945 -2.44914e-05 -0.7659871398 0.3645640498
230298620.0 -0.7589135584 0.3788509017 -0.0002223034 9.44014e-05 -4.75801e-05 1.84119e-05 -0.7615308491 0.3724839152
235298590.0 -0.7544162206 0.3873608259 -0.0001042559 0.0001574542 0.0002139895 -8.42342e-05 -0.7576740015 0.3806401475
240298560.0 -0.7507869483 0.3947404521 -0.0001236983 -0.000157429 -0.0001331704 0.0001396752 -0.754330702 0.3880428852
245298530.0 -0.7468174344 0.4029519731 9.43526e-05 0.0001133243 9.3967e-06 5.33728e-05 -0.7501159219 0.3961510288
250298500.0 -0.7423875819 0.4106629802 -9.18721e-05 -3.97904e-05 0.000136441 -5.25603e-05 -0.7457577346 0.4046091607
255298470.0 -0.7375314045 0.4186528705 -0.0001301899 -3.13737e-05 -2.55413e-05 -0.0001115915 -0.741018084 0.412487596
260298440.0 -0.7333679813 0.4261838162 -9.4555e-06 0.000123315 -0.0001505253 5.06614e-05 -0.7365217345 0.4197122791
265298410.0 -0.7289209842 0.4339642682 0.0001738353 0.0002455294 7.61648e-05 4.20129e-05 -0.7324114477 0.4271500306
270298380.0 -0.7245614426 0.4418698307 -0.0001264123 2.10973e-05 -9.30277e-05 -0.0001165264 -0.7276402926 0.4348427505
275298350.0 -0.7197758946 0.4490813847 -1.50045e-05 2.84084e-05 9.1317e-05 -7.6605e-05 -0.7228303952 0.4429815482
280298320.0 -0.7149105345 0.4568305459 -4.78449e-05 0.0003241518 -0.0002151005 8.65473e-05 -0.7184606121 0.4498283873
285298290.0 -0.7101792435 0.4648750979 5.80574e-05 -2.28562e-05 -8.92168e-05 -3.0913e-05 -0.7133840132 0.4577811136
290298260.0 -0.7058390371 0.4717160821 -0.0001566485 -3.33255e-05 3.24447e-05 -2.3217e-05 -0.7083261609 0.4660031383
295298230.0 -0.7005605612 0.4791526545 0.0002545923 -0.000112954 6.76552e-05 7.9129e-05 -0.7033651838 0.4728598411
300298200.0 -0.6948005986 0.4863825538 9.75712e-05 -0.0002366938 -7.24376e-05 4.35719e-05 -0.698296043 0.4801880848
305298170.0 -0.6899898378 0.4941574533 -0.0001677928 -7.08152e-05 -1.24503e-05 -5.71634e-05 -0.6929953716 0.4877611176
310298140.0 -0.6845807942 0.5008324354 0.0001456268 4.2399e-06 0.0002920081 -0.0001875736 -0.6886524465 0.4951377924
315298110.0 -0.6794240051 0.5084171267 6.1534e-05 0.0001191322 -5.3436e-05 -2.239e-06 -0.6830217892 0.5023464712
320298080.0 -0.6741485763 0.5155476681 8.39668e-05 -2.39695e-05 0.0001267854 -2.45452e-05 -0.6776470825 0.5095984559
325298050.0 -0.668256084 0.522055727 -0.0001928966 -4.11406e-05 -6.59894e-05 2.4708e-06 -0.6722574596 0.5160147304
330298020.0 -0.6632213324 0.5289591332 -5.29992e-05 -0.0001032883 -0.000172647 -0.0001026524 -0.6666598175 0.5229660577
335297990.0 -0.6572316377 0.5366862815 2.02197e-05 0.000197897 0.0001535131 -2.4541e-06 -0.6614722551 0.5296017623
340297960.0 -0.6518781219 0.5428948785 -6.65374e-05 -0.0002178125 0.0001351744 0.0001900647 -0.6556265334 0.5368144036
345297930.0 -0.6460255401 0.5488161895 -0.0001318724 -2.13177e-05 0.0001461284 9.03929e-05 -0.6496012681 0.5441793519
350297900.0 -0.6406945085 0.5561867199 -1.90127e-05 -5.3981e-05 6.47456e-05 0.0001272436 -0.6437994145 0.5506026761
355297870.0 -0.6343584442 0.5625995977 6.52122e-05 1.56298e-05 2.53714e-05 -4.59049e-05 -0.6384026488 0.5578047758
360297840.0 -0.6287847871 0.5698793603 -1.47563e-05 7.94423e-05 -3.20772e-05 -0.000157212 -0.631931975 0.5637860343
365297810.0 -0.6223218032 0.5762073216 -5.51865e-05 -0.0001938128 -3.46931e-05 1.08784e-05 -0.626064086 0.5702204719
370297780.0 -0.6164766805 0.5815801871 6.30862e-05 4.24232e-05 9.52328e-05 9.10003e-05 -0.6206358729 0.5765032953
375297750.0 -0.6105011819 0.5881793004 5.94973e-05 -3.09839e-05 -9.1266e-05 1.6732e-06 -0.6142974345 0.5835520088
380297720.0 -0.6037444362 0.5948338533 0.0001262442 8.57107e-05 5.17421e-05 -8.6244e-05 -0.6079201916 0.5904651709
385297690.0 -0.5978113849 0.60074529 -1.92549e-05 0.0002420682 5.12632e-05 0.0001144567 -0.6013321865 0.5960322089
390297660.0 -0.5912872459 0.6074424836 1.26076e-05 -0.0001020187 0.0001743135 -3.54495e-05 -0.5953587388 0.6017640571
395297630.0 -0.5852389378 0.6136810368 -0.0002415052 0.0003031257 -6.54386e-05 0.0001326214 -0.5887631265 0.6084277422
400297600.0 -0.578755412 0.6193366574 1.72649e-05 3.21122e-05 -0.0001397998 -1.84449e-05 -0.5834674384 0.61406515
405297570.0 -0.5732145491 0.6248979437 7.142e-05 -2.9691e-05 -2.14236e-05 2.0164e-05 -0.5766159897 0.6200463117
410297540.0 -0.5656897298 0.6309781725 9.85137e-05 5.62872e-05 -0.0001402879 8.3803e-05 -0.5700274297 0.6251803826
415297510.0 -0.5590449462 0.636463685 -0.0001168136 -0.0001844828 0.0001118001 -4.41914e-05 -0.5638361989 0.6315468577
420297480.0 -0.5519934721 0.6424572473 0.0001107207 3.05659e-05 -0.000130489 5.29043e-05 -0.557675301 0.6368414788
425297450.0 -0.5455223661 0.6480289032 -6.24307e-05 2.63472e-05 -0.0002059365 -2.89834e-05 -0.550205023 0.6432657661
430297420.0 -0.539359352 0.65352045 -4.35856e-05 4.64273e-05 -0.0002140698 7.4779e-06 -0.543496133 0.6487228262
435297390.0 -0.5318968022 0.6593341404 9.04629e-05 0.0001274724 0.0001042399 8.6219e-05 -0.5368735055 0.6538087437
440297360.0 -0.5255319111 0.6644142332 0.0001165506 -9.79822e-05 -4.3473e-05 -1.43435e-05 -0.5308172306 0.6588089678
445297330.0 -0.5184689244 0.6700585325 6.7106e-06 -2.07036e-05 -0.000144277 -0.000107525 -0.5237824976 0.6642649466
450297300.0 -0.5110494285 0.6747333532 0.0001344493 3.679e-06 0.0001055959 0.0001065203 -0.5171229414 0.6697711771
455297270.0 -0.5046534906 0.6800216131 -2.4252e-06 -4.76296e-05 -5.30451e-05 -4.75295e-05 -0.5102641725 0.675078399
460297240.0 -0.497510281 0.6851760389 -3.73824e-05 -0.0002936998 0.0002072269 -4.01396e-05 -0.5026411451 0.6804572613
465297210.0 -0.4900143914 0.6903090218 0.0001146478 2.95686e-05 -9.76918e-05 -5.10803e-05 -0.4964262197 0.6851613081
470297180.0 -0.482877023 0.6948484392 -1.58953e-05 -0.0001314641 -0.0001610451 -1.21789e-05 -0.4896354044 0.6894725172
475297150.0 -0.4760353341 0.7001936807 3.84933e-05 -2.567e-06 9.75615e-05 0.0002667846 -0.4821656179 0.6946576458
480297120.0 -0.4688492776 0.7046181144 -1.16267e-05 -4.6045e-05 4.29866e-05 3.17378e-05 -0.4758639599 0.699975729
485297090.0 -0.4612370002 0.7097570626 7.3328e-06 -0.0001053948 -5.19374e-05 -0.0001477009 -0.4676644995 0.7037320542
490297060.0 -0.4540453677 0.7141167414 -1.05421e-05 0.000200924 -7.80888e-05 -1.60506e-05 -0.4611539769 0.7085132769
495297030.0 -0.4470905964 0.7185817565 -3.6557e-06 0.0001148777 -0.0001677851 2.89646e-05 -0.4531159155 0.712122525
500297000.0 -0.4389320564 0.7233064511 1.66037e-05 -4.40683e-05 1.22553e-05 0.0001023352 -0.4465040846 0.7174987444
505296970.0 -0.4316284781 0.7273838311 5.60908e-05 8.5051e-06 0.0001049555 0.0001006496 -0.4398574443 0.7214391704
510296940.0 -0.4245815263 0.7322368413 0.0001122572 0.0001492088 -3.22917e-05 9.59964e-05 -0.4320273018 0.7265051047
515296910.0 -0.4171173829 0.7358176998 -3.10017e-05 -2.76439e-05 -1.69075e-05 -0.0001607006 -0.4251745633 0.730923909
520296880.0 -0.4090676076 0.7404772864 -0.0001723755 0.0001196206 3.5424e-05 -0.0001027916 -0.4170552661 0.7346529985
525296850.0 -0.4019310258 0.744546628 6.18513e-05 -0.0001073533 0.0001550382 0.0001089992 -0.4097250632 0.7394667231
530296820.0 -0.3943022594 0.748058372 0.0001163474 0.0001208407 -2.37811e-05 2.3274e-06 -0.4035026762 0.7429242064
535296790.0 -0.3859050662 0.7525722529 -0.0001477967 5.82458e-05 0.0001518483 3.88229e-05 -0.3956794277 0.7462052423
540296760.0 -0.378237965 0.7554950024 -0.0004075121 6.75303e-05 1.3529e-05 0.0001475602 -0.3880855492 0.751145045
545296730.0 -0.3707479371 0.7596514722 2.66463e-05 -2.11452e-05 -0.000132284 3.59209e-05 -0.380364314 0.7539290839
550296700.0 -0.3630529734 0.7638736438 -0.000108646 0.0001599995 -0.0001153413 -0.0001599476 -0.3728022869 0.7578728119
555296670.0 -0.3545692364 0.7674327974 -1.0947e-05 2.25705e-05 0.0001687184 1.28499e-05 -0.3652398604 0.7615477212
560296640.0 -0.3474208915 0.7702471591 -0.0001439641 0.0002099332 -8.0488e-05 -7.12183e-05 -0.3573948207 0.7657245808
565296610.0 -0.3397109948 0.7742616136 5.35076e-05 3.20766e-05 -0.0001078868 -4.23555e-05 -0.3504907478 0.7688494435
570296580.0 -0.3312796464 0.7774605184 -7.5211e-06 -0.0002199268 -0.0001489016 6.75722e-05 -0.3427014072 0.7722947877
575296550.0 -0.3237986865 0.7807668567 6.30604e-05 -0.0001289989 -4.26436e-05 -2.87086e-05 -0.3348223225 0.7755206113
580296520.0 -0.3157534166 0.7837434504 1.81326e-05 0.00014023 -4.20646e-05 -0.0001578888 -0.3271773253 0.7788572005
585296490.0 -0.3076545836 0.7868409242 3.46531e-05 7.58437e-05 -0.000329442 -0.0002656471 -0.3193728371 0.7814280622
590296460.0 -0.2994662539 0.7899469865 -6.44689e-05 0.0003165364 -1.14033e-05 -0.0001461994 -0.3119338999 0.7849025111
595296430.0 -0.2912663218 0.7934016858 -2.85784e-05 5.89056e-05 -0.0001395299 6.11395e-05 -0.303986842 0.7872408779
600296400.0 -0.283209919 0.7953169314 4.0049e-06 0.0002577095 1.39795e-05 -0.0001115896 -0.2962890547 0.7914305754
605296370.0 -0.2754222686 0.7990184937 -5.36055e-05 2.32061e-05 -7.09605e-05 -7.91797e-05 -0.2882541726 0.7944497731
610296340.0 -0.2677387543 0.8013793582 -0.0001943136 0.0001021254 6.16368e-05 -3.50448e-05 -0.2805115058 0.7966904061
615296310.0 -0.2590381675 0.8045778718 -4.73404e-05 -0.0002622603 -1.48746e-05 -8.80046e-05 -0.2725438847 0.7990067689
620296280.0 -0.2508469437 0.8063666714 0.0001744488 0.0001484169 0.0001565397 1.13308e-05 -0.2648079848 0.8017580579
625296250.0 -0.2422919837 0.8087173718 -0.0001205751 0.0002189205 0.0001398324 -3.19052e-05 -0.2568953608 0.8046404314
630296220.0 -0.2342659767 0.8118661563 -1.94718e-05 -2.56341e-05 0.0001419764 -8.7302e-06 -0.248654469 0.8072135803
635296190.0 -0.2263661327 0.8137309135 0.0001664184 0.0001618853 -5.40289e-05 -4.75715e-05 -0.2408448123 0.8093745843
640296160.0 -0.2180619685 0.8153026198 -0.0001762451 0.0001275205 1.30874e-05 -0.0001699547 -0.2324000637 0.8119666351
645296130.0 -0.2099050229 0.8183159088 3.5737e-06 4.96402e-05 -1.69161e-05 1.63338e-05 -0.225319392 0.8141233187
650296100.0 -0.2015298092 0.8203357831 0.0001815728 9.424e-06 0.0002913782 -9.73707e-05 -0.2167204109 0.8163099302
655296070.0 -0.1927115903 0.8225286005 5.87531e-05 5.72475e-05 5.11245e-05 -0.0002142373 -0.2086758346 0.8181474491
660296040.0 -0.1853113175 0.8240931008 8.48749e-05 -5.3804e-05 2.89412e-05 -1.09958e-05 -0.200553605 0.8203633527
665296010.0 -0.1766854482 0.8260062044 6.55501e-05 -2.86816e-05 -0.0001134456 -0.0001903877 -0.1930645441 0.822499236
670295980.0 -0.1678930941 0.8279825466 0.0001146918 -1.41356e-05 -5.9481e-05 4.41574e-05 -0.1857439173 0.8242165113
675295950.0 -0.1595683392 0.8287481641 -6.09695e-05 4.89088e-05 0.000132452 4.91714e-05 -0.1763778107 0.8260840321
680295920.0 -0.1516606969 0.8308906763 9.29437e-05 3.30072e-05 0.0001181526 -0.0001466911 -0.1680382884 0.8279968609
685295890.0 -0.1425725817 0.8318572731 0.0001240443 -2.81139e-05 -3.41093e-05 8.0679e-06 -0.15961047 0.8294109205
690295860.0 -0.134444253 0.833325511 -6.83e-07 -5.75086e-05 1.08389e-05 -5.38378e-05 -0.1511702133 0.8304999129
695295830.0 -0.1262855518 0.8338067595 -0.0001176739 5.067e-06 2.02422e-05 -0.0001871084 -0.1435044726 0.8327068297
700295800.0 -0.1181243026 0.8353832206 -9.96219e-05 -7.10904e-05 -4.642e-06 0.0001397164 -0.1349668292 0.8329309602
705295770.0 -0.109061736 0.8375373492 -9.18252e-05 -0.0001216051 7.80337e-05 2.081e-05 -0.1273848621 0.8347170363
710295740.0 -0.1011934998 0.8381338584 -0.000127763 -0.000110434 7.34291e-05 -0.0002281229 -0.1197327366 0.836635836
715295710.0 -0.0927846651 0.8389855906 1.38033e-05 0.0002337069 1.88671e-05 -7.93239e-05 -0.1107499961 0.8373028384
720295680.0 -0.0843227202 0.8395427939 -4.4084e-05 -0.0001944406 -6.21109e-05 -0.0002256255 -0.1025424199 0.8388774503
725295650.0 -0.0755429497 0.8411470082 -4.32647e-05 0.0001613986 -0.0001017359 -3.2209e-05 -0.0942942709 0.8392638696
730295620.0 -0.0673961034 0.8411852252 -7.59233e-05 -8.67935e-05 -7.67919e-05 -0.0001894487 -0.0858435038 0.8401634426
735295590.0 -0.0579887076 0.8417572918 0.0001249702 -0.0001204194 -7.09842e-05 0.0001344698 -0.0769790836 0.8406598678
740295560.0 -0.0500004051 0.8427057005 -6.56499e-05 -0.0001417 1.51292e-05 -1.24125e-05 -0.069469431 0.8412541797
745295530.0 -0.0420344887 0.8428080797 -0.0001949052 -0.0001785822 -8.50015e-05 7.32571e-05 -0.060952835 0.8422526092
750295500.0 -0.0338563721 0.842625075 -9.98006e-05 -0.0001598778 -2.93527e-05 -3.2615e-06 -0.052619626 0.8422766482
755295470.0 -0.0243336889 0.8437480092 -0.0001353838 -7.4874e-05 -5.08456e-05 0.0001010331 -0.0444489681 0.8434565441
760295440.0 -0.0164648089 0.8437159121 -4.31831e-05 -2.8805e-05 9.5403e-06 -1.11122e-05 -0.0365159367 0.8434406946
765295410.0 -0.0079368634 0.8439142569 3.1084e-06 4.95246e-05 0.0001410772 0.0001286189 -0.0273798409 0.8442822074
770295380.0 0.0004818267 0.8441043001 0.0001248932 0.0001304649 -0.0002093356 -5.613e-07 -0.019168372 0.8444300051
775295350.0 0.0091794281 0.8444847956 6.13114e-05 0.0001296396 0.000224936 6.40487e-05 -0.0113347261 0.8439057163
780295320.0 0.017783675 0.8429481782 0.0002035493 1.43719e-05 -8.57212e-05 -6.22786e-05 -0.0031766657 0.8447079398
785295290.0 0.0262497724 0.8434079261 -6.09493e-05 0.0002392681 8.67426e-05 0.0001265395 0.0051924154 0.8446083946
790295260.0 0.034499087 0.842972943 7.60382e-05 0.000288811 1.12232e-05 4.95746e-05 0.0145859279 0.8445534263
795295230.0 0.0428824657 0.8436012646 -2.38534e-05 -0.0002537281 0.0001252634 -5.53781e-05 0.0219076481 0.8443220335
800295200.0 0.0516102992 0.8428010696 -0.0001361848 -2.74023e-05 0.0001976693 -7.70767e-05 0.0302591848 0.8436764503
805295170.0 0.0597313068 0.842333747 -5.40537e-05 5.8636e-05 4.79203e-05 0.0002644142 0.0386297258 0.8435429965
810295140.0 0.0681938651 0.8412633224 0.0001275289 -8.92033e-05 -9.0149e-05 4.2267e-05 0.0467619613 0.8439401952
815295110.0 0.0769868005 0.8399266812 5.89102e-05 -0.0001398306 -7.30794e-05 6.02484e-05 0.0546890924 0.8429389515
820295080.0 0.085040176 0.8387917358 8.71288e-05 -0.0002452553 -5.70198e-05 0.0001215422 0.0631282712 0.841950343
825295050.0 0.0939192392 0.8383805749 -8.00168e-05 2.23589e-05 -0.000122195 8.91287e-05 0.0712450203 0.841770325
830295020.0 0.1021876293 0.8373751284 -0.0002576418 -6.31243e-05 8.4771e-05 7.25956e-05 0.0795885458 0.8407868801
835294990.0 0.1098784529 0.8372087404 6.17087e-05 -0.0002395785 -0.0001883747 8.30246e-05 0.0881698064 0.8398561205
840294960.0 0.1186770723 0.8355313399 0.0002318585 6.08148e-05 -0.0001462381 0.0001610365 0.0959987891 0.8389316814
845294930.0 0.1267605431 0.8346302575 -7.36886e-05 -1.04426e-05 -1.21616e-05 -4.70678e-05 0.1042649008 0.837695704
850294900.0 0.1356804801 0.8328954919 -2.01963e-05 0.0001061585 -8.80694e-05 -0.0001658802 0.1126375724 0.8368171464
