!Created with skrf (http://scikit-rf.org).
# Hz S RI R 50.0 
!freq ReS11 ImS11 ReS21 ImS21 ReS12 ImS12 ReS22 ImS22
300000.0 -0.3190184487 -0.0833151429 0.3765250815 0.0425774007 0.3731768676 0.041027549 -0.3206500045 -0.0981911824
5299970.0 -0.3263606494 0.004366218 0.378173052 0.0023842383 0.378260706 0.0024638241 -0.3241110188 0.0049240051
10299940.0 -0.3243649009 0.0133884189 0.3792991005 0.0022317165 0.379328569 0.0021983163 -0.321485718 0.0161192356
15299910.0 -0.3213118467 0.0204348449 0.3818015883 0.0020887684 0.3818779041 0.0022673074 -0.3182706746 0.0238542808
20299880.0 -0.3188436459 0.0263645585 0.3849806325 0.0013991089 0.3848841176 0.0013735031 -0.3147674299 0.0303279069
25299850.0 -0.315598786 0.0315970087 0.3879469546 -0.0001261213 0.3882217919 8.68361e-05 -0.3107139902 0.0359486623
30299820.0 -0.3128594156 0.0354575421 0.3912891429 -0.0019383108 0.3915286056 -0.0021638592 -0.3069533596 0.0409915531
35299790.0 -0.3098487802 0.0398245793 0.3947715711 -0.0056242276 0.3949289473 -0.0056542395 -0.3035344688 0.0452074831
40299760.0 -0.3071609742 0.0435537821 0.3979107825 -0.009063997 0.3978132206 -0.0088565248 -0.3002530231 0.0483047318
45299730.0 -0.3046695003 0.0465591468 0.4005892811 -0.0129778533 0.4008345456 -0.0128220862 -0.2976151802 0.051992366
50299700.0 -0.3025790858 0.0492999517 0.403629482 -0.0171697966 0.4035240124 -0.0169372825 -0.2941424561 0.0546766568
55299670.0 -0.3003836994 0.0521582726 0.4058967246 -0.0222832497 0.4056762023 -0.0219614652 -0.2915293459 0.0572259792
60299640.0 -0.29771536 0.055110054 0.4070891974 -0.0273445721 0.407752212 -0.0268187886 -0.2891207714 0.0596157239
65299610.0 -0.2964346118 0.057603148 0.4090573145 -0.032161032 0.4094288752 -0.0321444321 -0.2873002491 0.0615216974
70299580.0 -0.2944862486 0.0601744482 0.4104082423 -0.0370300033 0.4103268894 -0.0368994577 -0.2850222745 0.064025612
75299550.0 -0.2928524246 0.0626728385 0.4111554307 -0.0424942849 0.4111625819 -0.042241338 -0.2834392697 0.0657478086
80299520.0 -0.291642151 0.0648943533 0.4123639365 -0.0477362516 0.4125321455 -0.04730064 -0.2815688451 0.0681728192
85299490.0 -0.2903532529 0.0668876207 0.4126346121 -0.0524903276 0.4128844884 -0.0523548757 -0.2801792315 0.0700063477
90299460.0 -0.2889075739 0.0694515695 0.4128477658 -0.0578583544 0.4131937224 -0.0579620502 -0.2783427418 0.0723017717
95299430.0 -0.2873622833 0.0715589431 0.4137187086 -0.0631353195 0.4136147632 -0.0633687374 -0.2767308123 0.0745201407
100299400.0 -0.2863921336 0.0740729967 0.4132221697 -0.0683202537 0.4135465285 -0.0682854707 -0.2751023869 0.0757332011
105299370.0 -0.2851258463 0.0763983079 0.4131618681 -0.0735441579 0.4134802469 -0.0736706654 -0.2737361606 0.0781284887
110299340.0 -0.2840014589 0.0787177353 0.4134440884 -0.0786690418 0.4130207892 -0.0786197353 -0.2727661221 0.0803026697
115299310.0 -0.2827245427 0.0809640123 0.412778828 -0.0838164406 0.4125911302 -0.0839152919 -0.2716674633 0.0824910859
120299280.0 -0.2819947769 0.0829709213 0.412022837 -0.0891117809 0.4126369826 -0.0889311381 -0.2705312467 0.0844444334
125299250.0 -0.2809023831 0.0854879192 0.4118355522 -0.0940470759 0.4118727461 -0.093958714 -0.2697788609 0.0865628398
130299220.0 -0.280120388 0.0882897816 0.410767605 -0.0993036086 0.4112358699 -0.0991343804 -0.2683247606 0.0884911729
135299190.0 -0.2794311222 0.0905973109 0.4104629672 -0.1042071749 0.4103984582 -0.1039969562 -0.267391471 0.0907416916
140299160.0 -0.2784990068 0.093206227 0.4099159839 -0.1094343093 0.4096604301 -0.1092459843 -0.2660651382 0.093735214
145299130.0 -0.277395897 0.0957480965 0.4087449254 -0.1140442331 0.408748037 -0.1141380979 -0.2651438352 0.0954744266
150299100.0 -0.2761423609 0.0982179626 0.4075917648 -0.1185993517 0.407634499 -0.1184765047 -0.2640893888 0.0983960328
155299070.0 -0.2755997598 0.1007773098 0.4068816557 -0.124321579 0.4065042697 -0.1238927715 -0.2630658922 0.1008556491
160299040.0 -0.274398672 0.1035958298 0.4051978327 -0.1290435407 0.4053032201 -0.1292095315 -0.2625640801 0.1031446322
165299010.0 -0.273689017 0.1059553846 0.4043358766 -0.1337877291 0.4041396242 -0.1336899099 -0.2611862278 0.1060027045
170298980.0 -0.2727118253 0.1083589609 0.4023745893 -0.1384552954 0.403013163 -0.1380874314 -0.260183161 0.1079245718
175298950.0 -0.2717068796 0.1111232267 0.4017008948 -0.1431268169 0.4009411765 -0.1431012468 -0.2594014221 0.1106055768
180298920.0 -0.2710069767 0.1140207716 0.4000950835 -0.1478701606 0.3996653617 -0.1477171035 -0.2581678906 0.1132972839
185298890.0 -0.2694286157 0.1164047861 0.3982749085 -0.1526507654 0.3981875437 -0.1525140617 -0.2571360315 0.1159914169
190298860.0 -0.2687714549 0.1194478448 0.3969697789 -0.1576529531 0.3969565206 -0.1574024802 -0.2563859137 0.118258206
195298830.0 -0.2676689346 0.1217268847 0.3952123162 -0.1618597709 0.3950362714 -0.1619939289 -0.255063034 0.1207215517
200298800.0 -0.2665322003 0.1245816914 0.3934007297 -0.1668817643 0.3938580485 -0.1668733104 -0.2542400396 0.1234614207
205298770.0 -0.2653618562 0.1272629839 0.3912512416 -0.1712642323 0.391534265 -0.1706515775 -0.2531833259 0.1256085156
210298740.0 -0.2643632108 0.1298025642 0.3897478336 -0.1754535433 0.3898504883 -0.175508864 -0.2520512505 0.1288579888
215298710.0 -0.2636885783 0.1326020024 0.3881278554 -0.1802244862 0.3877926837 -0.1805332239 -0.2510156422 0.1312831669
220298680.0 -0.2620312627 0.1352283844 0.3856871225 -0.1846709324 0.3858773393 -0.1846215349 -0.2498979985 0.1332911644
225298650.0 -0.2609963277 0.1378807515 0.3840290918 -0.1891195058 0.3841496722 -0.1892143404 -0.2489855443 0.1360326887
230298620.0 -0.2596978042 0.1404309359 0.382261885 -0.193310422 0.3822546579 -0.1936709395 -0.2478491354 0.1383696769
235298590.0 -0.257917621 0.1439726854 0.3795136646 -0.1980064382 0.3799666535 -0.197471825 -0.246422192 0.1414500644
240298560.0 -0.2573488813 0.1464475521 0.3777183786 -0.2025577002 0.377438275 -0.2023892896 -0.2452777201 0.1439600494
245298530.0 -0.2556571542 0.149149399 0.3756654726 -0.2067257051 0.3753547971 -0.2067428248 -0.2438370423 0.1460251782
250298500.0 -0.2539451413 0.151834842 0.3724138471 -0.2108859378 0.3726590222 -0.2109327254 -0.2431059417 0.1484530055
255298470.0 -0.2527727264 0.154092602 0.3704488204 -0.2146777649 0.3706633538 -0.2149108169 -0.2411170458 0.1508820392
260298440.0 -0.2516707889 0.1567625681 0.3684144543 -0.2192657594 0.3683981964 -0.2190280284 -0.2395058102 0.1535757762
265298410.0 -0.25010027 0.1597926109 0.3660022803 -0.2236197331 0.3659413706 -0.2232711494 -0.2382596663 0.1562133487
270298380.0 -0.2486801684 0.162675712 0.3636811377 -0.2276603378 0.3640418595 -0.2274957734 -0.2368312714 0.1585245226
275298350.0 -0.246972164 0.1651793556 0.3610366369 -0.2319333698 0.3611857658 -0.2314817351 -0.2353899256 0.1611373464
280298320.0 -0.2451096501 0.1677809654 0.3585574913 -0.2360084991 0.3585785525 -0.2359429492 -0.2334977691 0.1635202143
285298290.0 -0.2436516036 0.1707661387 0.3560746936 -0.239791841 0.3557133265 -0.2395528857 -0.2319347314 0.1658840526
290298260.0 -0.2418840046 0.1731207111 0.352974429 -0.2435784541 0.3534406901 -0.2438260835 -0.2301844496 0.1685042531
295298230.0 -0.239948168 0.1757768875 0.3506065439 -0.247825697 0.3505800062 -0.2478644254 -0.2280918697 0.170787451
300298200.0 -0.2385284372 0.178327017 0.3479767363 -0.251686142 0.3482487779 -0.2518061402 -0.2269145911 0.1732122808
305298170.0 -0.2364905503 0.1809109492 0.3446308837 -0.2560270939 0.3450935116 -0.2557275245 -0.224476148 0.1758849464
310298140.0 -0.2349448281 0.1834352413 0.342256698 -0.2594278662 0.3424459574 -0.2595554988 -0.2230452806 0.1780610432
315298110.0 -0.233072622 0.1858120782 0.3393761587 -0.2636491646 0.3396059053 -0.2632496736 -0.2212357295 0.1805097336
320298080.0 -0.2310834509 0.1882207644 0.3358561894 -0.267732439 0.3363796385 -0.2673830188 -0.2193632833 0.1829209917
325298050.0 -0.229292335 0.1905786106 0.3332338668 -0.2716583446 0.3331324844 -0.2714806296 -0.2175577936 0.1853395063
330298020.0 -0.2274828055 0.1929972408 0.3299262604 -0.2752749267 0.3303981101 -0.2751487509 -0.2160276759 0.1878648899
335297990.0 -0.2256781301 0.195498422 0.3271742273 -0.278473325 0.3270694877 -0.2786368901 -0.2146404305 0.1905051947
340297960.0 -0.2240190007 0.1982488689 0.323507817 -0.2821418081 0.3235941024 -0.2827777131 -0.2121507675 0.192733984
345297930.0 -0.2223123831 0.2011661623 0.3208844856 -0.2862900864 0.3204070565 -0.2859734814 -0.2107280007 0.1949194775
350297900.0 -0.2202375004 0.2030668601 0.3171108595 -0.2894986705 0.3170705285 -0.289347758 -0.2086574236 0.1979617044
355297870.0 -0.2178832797 0.2060375474 0.3141443509 -0.2928136201 0.3142280218 -0.2928750789 -0.2068495547 0.1999186955
360297840.0 -0.2158569894 0.2083133997 0.3110695943 -0.2966706088 0.3110745032 -0.2960303414 -0.2050165612 0.2027793485
365297810.0 -0.2141323558 0.2108925079 0.3075363921 -0.3000749629 0.3078371576 -0.3000840845 -0.2025627842 0.2051518056
370297780.0 -0.2118565848 0.2129512628 0.3039699999 -0.3030046297 0.304571702 -0.3026602948 -0.2009107805 0.2074476978
375297750.0 -0.2095079087 0.2156694639 0.3005872743 -0.306331112 0.3012156319 -0.3061904447 -0.1988011564 0.209257297
380297720.0 -0.2075184762 0.2176826964 0.2974210143 -0.3098689614 0.2975034563 -0.3091243614 -0.1968046855 0.2117572786
385297690.0 -0.2056352063 0.2202096186 0.2940106472 -0.3125837614 0.293502709 -0.3128503395 -0.1943125233 0.2140969306
390297660.0 -0.2030247046 0.2225026397 0.2902697612 -0.3162353505 0.2903903915 -0.3160109396 -0.1924163602 0.2165233953
395297630.0 -0.2005519429 0.2252577377 0.2873131151 -0.3195193005 0.2871733452 -0.3195743799 -0.1900556808 0.2185178193
400297600.0 -0.1983490359 0.227340586 0.2832187172 -0.3231579243 0.2834952345 -0.3224557767 -0.1882515963 0.2204172917
405297570.0 -0.1966412834 0.2293352817 0.2800225896 -0.3254418437 0.2800775339 -0.3254683167 -0.1862451898 0.2229553004
410297540.0 -0.1937579168 0.2317522246 0.2761236162 -0.3283523372 0.2765251239 -0.3289394181 -0.1836694941 0.2252841047
415297510.0 -0.1911683774 0.2335643081 0.2721536879 -0.3315802939 0.2728739249 -0.3318890616 -0.1816081381 0.2271063263
420297480.0 -0.1892369752 0.2365688802 0.2687100224 -0.3346249684 0.268860661 -0.3348009423 -0.1793498855 0.2292400176
425297450.0 -0.1864080699 0.2382955394 0.2655183188 -0.3371769369 0.2658140969 -0.337669152 -0.1771541916 0.2313912931
430297420.0 -0.1841325948 0.2403793275 0.2616545558 -0.3398260607 0.2617859639 -0.3399673301 -0.1752163798 0.23294862
435297390.0 -0.1818854622 0.2426285889 0.2573010076 -0.342934576 0.257389001 -0.3432976832 -0.1718445425 0.2352376957
440297360.0 -0.1790505971 0.2446061663 0.2535914217 -0.3458914523 0.2538528719 -0.3459491331 -0.1697184289 0.2370391663
445297330.0 -0.17662041 0.2463631767 0.2502682998 -0.3485366608 0.2505227991 -0.3483665108 -0.1673176306 0.2385060969
450297300.0 -0.1740348408 0.2483283738 0.2460572494 -0.3513684327 0.2461824601 -0.3517015537 -0.1646280241 0.2405546646
455297270.0 -0.1713978787 0.2503595293 0.242078567 -0.3537403264 0.2424889537 -0.3541344355 -0.1622727729 0.2420911725
460297240.0 -0.1690892628 0.2524002395 0.2383546528 -0.356685061 0.2384696681 -0.3563056292 -0.1596552964 0.2443398158
465297210.0 -0.1662343528 0.2544423672 0.2347431689 -0.3596622869 0.2345958723 -0.3593900781 -0.1569903544 0.2460131144
470297180.0 -0.1636967582 0.2562122819 0.2306873397 -0.3616423746 0.2306649585 -0.361774967 -0.1541789616 0.24801197
475297150.0 -0.161000062 0.2578250753 0.2261410387 -0.3634981967 0.2266273769 -0.3640596032 -0.1513081203 0.2493581051
480297120.0 -0.1583541983 0.2600979678 0.2226887769 -0.3668692136 0.2223549694 -0.3665520747 -0.1488835851 0.2515659296
485297090.0 -0.1555608727 0.261563452 0.2185142685 -0.3691013162 0.2187962323 -0.3685889429 -0.1462481579 0.2531264736
490297060.0 -0.153042131 0.2637256975 0.2147016164 -0.3718415669 0.2148445487 -0.3711110695 -0.1435335569 0.2548678638
495297030.0 -0.1501868062 0.2652274938 0.2101426582 -0.3734976412 0.2108350702 -0.373505408 -0.1410623097 0.2564417304
500297000.0 -0.1471190269 0.2669279153 0.2061744304 -0.3756783087 0.2059709773 -0.3754323632 -0.1379995731 0.2585540331
505296970.0 -0.1444329541 0.268838605 0.2021570649 -0.3778497387 0.201982329 -0.3780571946 -0.1352602253 0.2600123395
510296940.0 -0.1415511902 0.2703385363 0.1978294289 -0.3800275764 0.1976384445 -0.3803128054 -0.1325538425 0.2618769881
515296910.0 -0.1388165946 0.2718048837 0.1937083316 -0.3822309231 0.1938422795 -0.3823150644 -0.1299597514 0.2633071636
520296880.0 -0.1361552503 0.2736528747 0.1894854992 -0.3842461436 0.1897096895 -0.3841086449 -0.1271860032 0.2647218957
525296850.0 -0.132941171 0.2747937659 0.1848760571 -0.3862442618 0.185416581 -0.3862611221 -0.1244240779 0.2662450889
530296820.0 -0.1300797964 0.2764849976 0.1810795014 -0.3882819954 0.1810549697 -0.3884501132 -0.1215569973 0.2679104986
535296790.0 -0.1275643024 0.2781388781 0.1771046111 -0.3900013168 0.1770770355 -0.3898877103 -0.1193836324 0.269292631
540296760.0 -0.1248846351 0.2795425826 0.1725630116 -0.3921224443 0.1724770205 -0.392395035 -0.1162500025 0.2709172423
545296730.0 -0.1219511259 0.2811584351 0.1681857508 -0.3936150217 0.1682493617 -0.3939923673 -0.1134877979 0.2722057799
550296700.0 -0.1184522696 0.2826760904 0.1638808136 -0.3956581684 0.1636837843 -0.395844202 -0.1107342755 0.2737165274
555296670.0 -0.1159524415 0.2838542624 0.1597290926 -0.3972905431 0.1595832714 -0.3973694311 -0.107745475 0.2752617059
560296640.0 -0.1127066899 0.285534896 0.1554168959 -0.3992720809 0.1552089161 -0.3993318711 -0.1047083785 0.2763578239
565296610.0 -0.1099577303 0.2868515445 0.1508105225 -0.4007724289 0.1509400256 -0.4010210723 -0.1023650044 0.2775668998
570296580.0 -0.1068980272 0.2879262029 0.1465380826 -0.4025503315 0.1461386121 -0.402511326 -0.0995596161 0.2792445017
575296550.0 -0.1039042861 0.2897636402 0.1422559819 -0.4043941999 0.1420038412 -0.403834883 -0.0962986091 0.2801442052
580296520.0 -0.1006226315 0.2907684552 0.1375202821 -0.4058292612 0.1377524543 -0.4051934524 -0.0933119455 0.280949512
585296490.0 -0.09754749 0.2915437877 0.1332110459 -0.4066881082 0.1331346695 -0.40725141 -0.0905690823 0.2824471359
590296460.0 -0.0944183338 0.2928129923 0.1284474941 -0.4078565039 0.1288010125 -0.408128865 -0.0879972365 0.2834419402
595296430.0 -0.0913897523 0.2939661001 0.1238521602 -0.4099499074 0.1240583317 -0.4097487973 -0.0848561719 0.2841765982
600296400.0 -0.0887846519 0.2954473873 0.1195699432 -0.4110766745 0.1195176107 -0.4106255358 -0.0817520457 0.2852276171
605296370.0 -0.0857166036 0.2961883345 0.1153984108 -0.412072641 0.1154892369 -0.4120066221 -0.0783692085 0.2863868303
610296340.0 -0.0824435944 0.2971837691 0.1105358383 -0.4131923102 0.1108371332 -0.4134896895 -0.0756623792 0.2874532567
615296310.0 -0.0790516656 0.2979960957 0.1062277059 -0.4140200596 0.1060177904 -0.4146441286 -0.0725388009 0.2881152304
620296280.0 -0.0762070162 0.2988206319 0.1020676542 -0.415692166 0.1018588667 -0.4152742373 -0.0697098899 0.2890388247
625296250.0 -0.0728316573 0.2998945748 0.0974116174 -0.4168479099 0.0973000241 -0.4165150099 -0.0660225227 0.2894227796
630296220.0 -0.0691266204 0.3007433869 0.0922156209 -0.4177715158 0.0925286436 -0.417532967 -0.0634676184 0.2908338161
635296190.0 -0.0669774989 0.3014879568 0.0884556115 -0.4181009679 0.0880390145 -0.4185623973 -0.0600868013 0.2914908266
640296160.0 -0.0636371421 0.30229574 0.083754353 -0.419091429 0.0839595281 -0.4193795072 -0.0570210809 0.2920243827
645296130.0 -0.0603274948 0.3036380996 0.0790610308 -0.4200385328 0.0794910245 -0.4200920992 -0.0541204917 0.2928440654
650296100.0 -0.057223664 0.3039433978 0.0744577264 -0.4206580044 0.0747242518 -0.420808223 -0.0507763309 0.2934457791
655296070.0 -0.0540025497 0.3047319189 0.0696917938 -0.4216184505 0.0702161138 -0.421654564 -0.0475103721 0.2940095539
660296040.0 -0.0511769017 0.3052211993 0.065609661 -0.4220650884 0.0653557448 -0.4224819515 -0.0443933633 0.294698475
665296010.0 -0.0473516054 0.305820515 0.0602221098 -0.423152671 0.0607194757 -0.4231082532 -0.0411069628 0.2958641785
670295980.0 -0.045053847 0.3067454591 0.0563849217 -0.4234896591 0.0562550321 -0.4235118464 -0.0383939364 0.29633004
675295950.0 -0.0414496285 0.3073489364 0.0517074949 -0.4237293548 0.0517850473 -0.4238134664 -0.0353379451 0.2968664748
680295920.0 -0.0380755657 0.3080020197 0.0470073797 -0.4241764892 0.0467312143 -0.4249221005 -0.031912697 0.2977960026
685295890.0 -0.0345805981 0.3086775616 0.0421381667 -0.4250178585 0.0421775555 -0.4250595618 -0.0291375979 0.2980667087
690295860.0 -0.03142536 0.3090954247 0.0377415286 -0.425127994 0.037663686 -0.4252553975 -0.0259267565 0.2988968001
695295830.0 -0.0285352492 0.3094571468 0.0334584392 -0.425376808 0.0329529623 -0.4258210861 -0.0226074001 0.2993717018
700295800.0 -0.024821056 0.3097530783 0.0283439335 -0.4261457403 0.0283809109 -0.4258179077 -0.0200300438 0.2996113389
705295770.0 -0.0218115925 0.3103227854 0.0232839774 -0.4263441848 0.0243035763 -0.4266427584 -0.0165251063 0.3004374961
710295740.0 -0.0183317403 0.31053359 0.0193379701 -0.4264824365 0.0197961678 -0.4269043512 -0.01349242 0.3003324716
715295710.0 -0.015604561 0.3109369087 0.0151845917 -0.426800911 0.0144356353 -0.4265158101 -0.0100680349 0.3002596172
720295680.0 -0.0121387453 0.3113191408 0.0101116243 -0.4267912697 0.0102751954 -0.4269298974 -0.0070995533 0.3014614953
725295650.0 -0.0088274142 0.3114630986 0.005210585 -0.4268415937 0.0055305434 -0.4270965886 -0.0042140335 0.3015804562
730295620.0 -0.0053403452 0.3119273052 0.0006522914 -0.4269345827 0.0008702156 -0.4269336453 -0.0010936374 0.3013367153
735295590.0 -0.002414459 0.3120352527 -0.0037360901 -0.4268482143 -0.003879119 -0.4269367542 0.0016951172 0.3015404649
740295560.0 0.0007099142 0.312299008 -0.0084799713 -0.4262556093 -0.0083169215 -0.4267875963 0.0055212459 0.3019157066
745295530.0 0.0039998702 0.3122404161 -0.0130406061 -0.4262763173 -0.0132080598 -0.4263493264 0.0084668177 0.301550464
750295500.0 0.0077127134 0.3125090919 -0.0176845486 -0.4265450306 -0.0175315662 -0.4265275185 0.0116210513 0.301766919
755295470.0 0.010630685 0.3123095258 -0.0223913973 -0.4262099589 -0.0225339055 -0.4262620686 0.015036909 0.3014166074
760295440.0 0.0137596963 0.3122353384 -0.0265063281 -0.4258567123 -0.02689276 -0.4263145043 0.0178088555 0.3014090505
765295410.0 0.0174799457 0.3124296535 -0.0315818494 -0.4253332942 -0.0318126708 -0.4256994524 0.0211069143 0.3015071444
770295380.0 0.0201097326 0.3123411916 -0.0359898143 -0.425066389 -0.0360071133 -0.4246964541 0.0240660444 0.3011195375
775295350.0 0.0232250275 0.3119783382 -0.040663508 -0.4240934287 -0.0402840966 -0.4245593418 0.0268223406 0.3013935647
780295320.0 0.0269812801 0.312160315 -0.045427228 -0.4239442578 -0.0450650107 -0.423856687 0.030441024 0.3005252153
785295290.0 0.0298701107 0.3113008734 -0.0499320063 -0.4231117779 -0.049636828 -0.4235116368 0.0340081963 0.3005875962
790295260.0 0.0336623446 0.3118439286 -0.054450991 -0.4229215835 -0.0539164738 -0.4226857527 0.0370837567 0.3007039444
795295230.0 0.0367945994 0.311245042 -0.0590543001 -0.4222070662 -0.0584615899 -0.4220611518 0.0402595455 0.300195347
800295200.0 0.0394788155 0.3111686368 -0.06392539 -0.4211796253 -0.0634415996 -0.4215002252 0.0435667058 0.2997934663
805295170.0 0.0433154274 0.3107097024 -0.0680635384 -0.4209364679 -0.06832469 -0.4208474635 0.0464348092 0.2995286395
810295140.0 0.0460672381 0.3102103999 -0.072368645 -0.4196859583 -0.0722743749 -0.4199006218 0.0499019193 0.2992570871
815295110.0 0.0495452755 0.3097416276 -0.076973707 -0.4185876808 -0.076640396 -0.4192023487 0.052911636 0.2987007114
820295080.0 0.0527219805 0.3099618605 -0.0813754996 -0.4179456997 -0.0812678911 -0.4181703997 0.0564874248 0.2982950566
825295050.0 0.0565901311 0.3091600436 -0.0860468731 -0.4168991992 -0.0859839471 -0.417356762 0.0595873634 0.2981098786
830295020.0 0.0596055506 0.3087585353 -0.0907914459 -0.4159201354 -0.0903559044 -0.415832015 0.0629444538 0.297550394
