!Created with skrf (http://scikit-rf.org).
# Hz S RI R 50.0 
!freq ReS11 ImS11 ReS21 ImS21 ReS12 ImS12 ReS22 ImS22
300000.0 -0.322286415 -0.0800701345 0.3756339204 0.043300539 0.3731315429 0.0413630623 -0.3166311394 -0.0996277742
5299970.0 -0.3265243931 0.004567903 0.3781995033 0.0022326403 0.3783976683 0.0024057037 -0.323760995 0.004915637
10299940.0 -0.3241523052 0.0134194596 0.3793160998 0.0019110251 0.3794669669 0.0019692367 -0.3214431695 0.0160030883
15299910.0 -0.3214002625 0.0205377304 0.3817922231 0.0020071522 0.3823301002 0.0019538445 -0.3184126503 0.0238846994
20299880.0 -0.3185846542 0.0263218256 0.3847779613 0.0018133924 0.3847397764 0.001612685 -0.3147230713 0.030046022
25299850.0 -0.3158658319 0.0313362625 0.3878873225 2.15297e-05 0.3880569798 -0.0001029776 -0.3107534803 0.0361183561
30299820.0 -0.3128182385 0.0357996066 0.3915771382 -0.0023657558 0.3914450516 -0.0025157648 -0.3068551332 0.0409349477
35299790.0 -0.309935431 0.0398044061 0.3949297599 -0.0056073614 0.3947108528 -0.0058450769 -0.3033738376 0.0452353982
40299760.0 -0.3072169999 0.0435342083 0.3976140868 -0.0090478943 0.3980997752 -0.008764082 -0.3001834373 0.0485596044
45299730.0 -0.3045743789 0.0465929691 0.4008438895 -0.012578423 0.4010478056 -0.0125519472 -0.2973428868 0.051786099
50299700.0 -0.3023436488 0.0495882213 0.4037529396 -0.0175064031 0.4032987403 -0.0169601931 -0.294376455 0.0545871493
55299670.0 -0.3005994576 0.0521156256 0.4058140728 -0.0223192629 0.4054079783 -0.022050646 -0.291760135 0.0572329659
60299640.0 -0.297866664 0.0552271049 0.4072322298 -0.0273000422 0.4075743445 -0.0268396433 -0.2893441606 0.0596410867
65299610.0 -0.2962795019 0.0571056185 0.4090660824 -0.0321330007 0.4093821668 -0.031980604 -0.2871168321 0.0614793616
70299580.0 -0.2945873762 0.060246301 0.4107374099 -0.0371352954 0.4103863543 -0.037202975 -0.2849147458 0.0641839179
75299550.0 -0.2930133172 0.0626535054 0.4111779301 -0.0423246744 0.4111286815 -0.0423413826 -0.2831181302 0.0661141558
80299520.0 -0.2912979964 0.0649937093 0.4122412406 -0.0476223484 0.4124433086 -0.0476396681 -0.2817353096 0.0682376249
85299490.0 -0.2902720295 0.0670219489 0.4125531378 -0.052546898 0.4127808528 -0.0524700027 -0.2800698768 0.0698115604
90299460.0 -0.2887574407 0.0694303885 0.4127464815 -0.0581564736 0.4133379248 -0.0581255769 -0.2784369945 0.0723376132
95299430.0 -0.2874336983 0.0716722864 0.4137567421 -0.0629078593 0.4135584397 -0.0634301429 -0.2767002148 0.0744504377
100299400.0 -0.2861822506 0.0739588866 0.412762514 -0.0681865188 0.4132474419 -0.0682603825 -0.2755474975 0.0761583347
105299370.0 -0.2852989525 0.0766226817 0.4134362118 -0.0738288368 0.4134827571 -0.0737078084 -0.2738543064 0.0781378799
110299340.0 -0.2839999211 0.0791698044 0.4132462051 -0.0788582811 0.4130383048 -0.0785842719 -0.2729604707 0.0799884919
115299310.0 -0.2827022205 0.0813892023 0.4125601965 -0.0841884491 0.4127094201 -0.0839765808 -0.2716082438 0.0823537945
120299280.0 -0.2820478868 0.0831849793 0.4124739288 -0.0890470357 0.4124003722 -0.0891174278 -0.2703162777 0.0843993835
125299250.0 -0.2810473026 0.0856871148 0.4119409437 -0.0939416012 0.411826289 -0.0938776439 -0.2696958887 0.0863968876
130299220.0 -0.2802643782 0.0880508469 0.4111528244 -0.0991618124 0.4110709007 -0.0987877014 -0.2687287005 0.0883239065
135299190.0 -0.2790305423 0.0909928532 0.4105219242 -0.1042210283 0.4102617055 -0.1043456332 -0.2672147769 0.0909153988
140299160.0 -0.278597413 0.0933242229 0.4097452911 -0.1093858716 0.4096136438 -0.109361601 -0.2661249073 0.0934751149
145299130.0 -0.27728882 0.0958523868 0.4089567097 -0.1143064662 0.4086385771 -0.1142340674 -0.2653714452 0.0957194756
150299100.0 -0.2763189154 0.0985141309 0.4075218525 -0.1190003528 0.4076636545 -0.1185746997 -0.2641080541 0.0982001624
155299070.0 -0.2759001529 0.100649408 0.406791491 -0.1240424246 0.406306655 -0.1240534503 -0.2631254841 0.1008449134
160299040.0 -0.2743073148 0.103228054 0.4052510215 -0.1287222629 0.4051316226 -0.1288974337 -0.2625340184 0.1029862354
165299010.0 -0.2736149413 0.1061159535 0.4041876402 -0.1340879453 0.4039115532 -0.1340240075 -0.2611702991 0.1058293451
170298980.0 -0.2726482808 0.1084321184 0.4025307802 -0.1385330388 0.4026831579 -0.1387271821 -0.2599315568 0.1081917267
175298950.0 -0.2717363962 0.1112511133 0.4015069086 -0.1432170545 0.4008699028 -0.1431733794 -0.259447139 0.1107877751
180298920.0 -0.2710128967 0.1140683722 0.4000775328 -0.1481627153 0.3999529815 -0.1476363763 -0.2585588087 0.1130506028
185298890.0 -0.2694057343 0.1164487186 0.3979792931 -0.1524696934 0.3982335593 -0.1526743203 -0.2571638777 0.1158280937
190298860.0 -0.2690748773 0.1192369783 0.3971378219 -0.1576394232 0.3972137517 -0.157429827 -0.256306895 0.1183955049
195298830.0 -0.2677699009 0.1219296229 0.3952997915 -0.1617847514 0.3951991035 -0.1618454963 -0.2552632317 0.1210019712
200298800.0 -0.2662431304 0.1247210438 0.3933108948 -0.1667753315 0.3936745152 -0.1672136147 -0.2544746539 0.1235191883
205298770.0 -0.2656427764 0.1271851022 0.3916487751 -0.1713708832 0.3915086664 -0.1711832328 -0.2528154802 0.1256542114
210298740.0 -0.264300488 0.129931385 0.3895674803 -0.175488246 0.38970495 -0.1755803214 -0.2519273015 0.1285617168
215298710.0 -0.2636417953 0.1326527845 0.3881447603 -0.180146755 0.3878159283 -0.1807013093 -0.2509550631 0.1311642256
220298680.0 -0.2619306689 0.1352711378 0.3856116618 -0.1847171566 0.3856296533 -0.1850633718 -0.2500065524 0.1335877411
225298650.0 -0.2609622528 0.137884922 0.3837310221 -0.1893824109 0.3845046023 -0.1890869626 -0.2493041398 0.1360224966
230298620.0 -0.2593260842 0.1410325839 0.3816599834 -0.1934635331 0.382207485 -0.1936291127 -0.2479827321 0.1386208051
235298590.0 -0.2583348403 0.1435018035 0.3797844307 -0.1979043982 0.3799263857 -0.1978638887 -0.2464664584 0.1413463379
240298560.0 -0.2571565375 0.146258225 0.3779700341 -0.20212265 0.3773491095 -0.2024086249 -0.2453380097 0.1442653392
245298530.0 -0.2558499062 0.1490859802 0.3755600133 -0.2067328784 0.3753219762 -0.2065549169 -0.2438872489 0.1459511187
250298500.0 -0.2544732602 0.1517262309 0.3727093265 -0.2110623564 0.3726640154 -0.2105831228 -0.2431855174 0.1485349354
255298470.0 -0.2528239029 0.1543090365 0.3701350758 -0.214906381 0.3706534088 -0.2149794465 -0.2412611268 0.1511457981
260298440.0 -0.2513961427 0.1570485223 0.3680904459 -0.2194514232 0.3682161162 -0.2193642234 -0.2396666696 0.1537350929
265298410.0 -0.2498692657 0.160151242 0.3656370084 -0.2238096748 0.366040303 -0.2234632269 -0.2385098991 0.1561844977
270298380.0 -0.2484547301 0.1625446697 0.3633621492 -0.2276062262 0.3635431476 -0.2276803389 -0.2370772604 0.1586175023
275298350.0 -0.2466847182 0.1651536201 0.3608036145 -0.2319285106 0.3611336565 -0.2321303991 -0.2351784292 0.1610285936
280298320.0 -0.245044708 0.167925708 0.3586187376 -0.2361034832 0.3585225928 -0.2360710508 -0.2333130001 0.1636152872
285298290.0 -0.2434385024 0.1708374095 0.3557562977 -0.2397184926 0.3555482402 -0.2398414934 -0.2318784284 0.1660831011
290298260.0 -0.2417848042 0.1733483219 0.3530450069 -0.2437519199 0.3531800794 -0.2437576255 -0.2301763801 0.1685498573
295298230.0 -0.2399835379 0.1756000806 0.350951457 -0.2478525623 0.3501549449 -0.2477854936 -0.2283186318 0.1710797254
300298200.0 -0.2386527847 0.178596785 0.3479094383 -0.2516664426 0.34790164 -0.2520841653 -0.2267448334 0.1731834764
305298170.0 -0.2364901392 0.1804291986 0.3449362391 -0.2562643641 0.3450957078 -0.2559150023 -0.224518675 0.175699906
310298140.0 -0.2349028863 0.1833420907 0.3422056982 -0.2599021454 0.3422846389 -0.2597059046 -0.223168116 0.1780280174
315298110.0 -0.2332311947 0.1855788264 0.3394455435 -0.26350359 0.3394418577 -0.2635900323 -0.2213600226 0.1803885073
320298080.0 -0.2310802802 0.1884391287 0.3358733285 -0.2677291691 0.3362562868 -0.2677090607 -0.2194039169 0.1828207276
325298050.0 -0.229341125 0.1907409331 0.3334506892 -0.2715174122 0.3331169313 -0.2715941591 -0.2177926778 0.1852156646
330298020.0 -0.2273926007 0.1932043311 0.3299425698 -0.2750209969 0.3301335363 -0.2754566455 -0.216270113 0.1878805612
335297990.0 -0.2253971521 0.1954041302 0.3269701522 -0.2785228662 0.3270927036 -0.2786673238 -0.214856597 0.1907743838
340297960.0 -0.2241977817 0.1980834472 0.3233963248 -0.2822178719 0.3234958394 -0.2827124003 -0.2122016797 0.192970685
345297930.0 -0.2219024575 0.200557673 0.3204593025 -0.2861157291 0.3204347228 -0.2859827616 -0.2106780381 0.1951458069
350297900.0 -0.2200910798 0.2031946102 0.317001541 -0.2894974312 0.3169933067 -0.2892760455 -0.2087336768 0.1977842594
355297870.0 -0.2180148631 0.2060404528 0.3139989214 -0.2932760196 0.3142618612 -0.2928811156 -0.2071325401 0.200152046
360297840.0 -0.2158333418 0.2083097394 0.3112985428 -0.2963631625 0.3111679383 -0.2962828915 -0.2048135221 0.202647804
365297810.0 -0.214395971 0.2109579778 0.3076539942 -0.29997179 0.3075566798 -0.2997635245 -0.2026122425 0.2050800549
370297780.0 -0.2119285231 0.2128516815 0.303870593 -0.3030625791 0.3043756179 -0.3026311552 -0.2005449559 0.2074116128
375297750.0 -0.209315683 0.215504481 0.3007550768 -0.3065179779 0.301021912 -0.3067209366 -0.1985321742 0.2097314354
380297720.0 -0.2074412113 0.2176965316 0.2977046752 -0.3098997932 0.2976125207 -0.3095569736 -0.1970261412 0.2119360857
385297690.0 -0.2053237043 0.2202210154 0.2940346337 -0.3128707118 0.2938387937 -0.3127407644 -0.1946381905 0.2142191447
390297660.0 -0.2030043924 0.2226834073 0.2903184956 -0.316470601 0.2906399293 -0.3161426918 -0.1929576489 0.2165549109
395297630.0 -0.2009334915 0.2251797323 0.2868521073 -0.3197416517 0.2871058389 -0.3195124015 -0.1902847767 0.2187345541
400297600.0 -0.1985000961 0.2272636431 0.2833394028 -0.3226999591 0.2832118899 -0.3227105037 -0.1880162039 0.2209524152
405297570.0 -0.1963997514 0.2295287694 0.2800172462 -0.3256223014 0.2799085061 -0.3252080799 -0.1861773393 0.2228603248
410297540.0 -0.1936480816 0.2317619667 0.2761021145 -0.3289129122 0.2766415473 -0.3287477157 -0.1837347827 0.2250730522
415297510.0 -0.1911435466 0.2338884957 0.2722871095 -0.3319512295 0.2727007321 -0.3319687854 -0.181554404 0.2271934737
420297480.0 -0.1892448152 0.2362936022 0.268576379 -0.3347721603 0.2686759931 -0.3346613644 -0.1792442328 0.2293107137
425297450.0 -0.1865657746 0.2381958166 0.2651040738 -0.3375507175 0.2654149424 -0.3377623022 -0.1769396627 0.2314949323
430297420.0 -0.1839254187 0.240389237 0.2614818047 -0.3401237766 0.261502356 -0.3403107635 -0.1747752031 0.2329227699
435297390.0 -0.1818640087 0.2423540037 0.257481739 -0.3431022404 0.257463298 -0.3432281459 -0.171740251 0.2351492665
440297360.0 -0.1790855907 0.2445203163 0.253937767 -0.3457417022 0.2537950305 -0.3461174783 -0.1696850586 0.2369111577
445297330.0 -0.1767775859 0.2465561827 0.250089534 -0.3488038916 0.2503174522 -0.3485040063 -0.1670774605 0.2386203835
450297300.0 -0.1737359004 0.2482266724 0.2459885862 -0.351275408 0.2462082434 -0.3516281111 -0.1647918242 0.2404757913
455297270.0 -0.1713733932 0.2506346773 0.2421372577 -0.3540361136 0.2422638642 -0.3540604762 -0.1624162718 0.2422865717
460297240.0 -0.1689153335 0.2524439848 0.238354282 -0.3567752906 0.2384650517 -0.3566808139 -0.1598358758 0.2442661264
465297210.0 -0.1661268837 0.2544886626 0.2343926303 -0.3590131201 0.2343874012 -0.3596854138 -0.1567910707 0.2459513713
470297180.0 -0.1632337083 0.2562324622 0.2301567534 -0.361766554 0.2304698717 -0.3617260811 -0.1542246729 0.2480806392
475297150.0 -0.1608415078 0.2579398 0.2262265519 -0.3638102532 0.2262978959 -0.364163667 -0.151394627 0.249339861
480297120.0 -0.1580734817 0.2600729009 0.2223679324 -0.3668614619 0.2223256853 -0.3666069995 -0.1487365113 0.2512903897
485297090.0 -0.1556784506 0.2616982626 0.2186726645 -0.3689395424 0.2185671526 -0.3688434179 -0.1460324382 0.2530768425
490297060.0 -0.1528546643 0.2635218704 0.2146703358 -0.3713739397 0.2143312904 -0.3711702722 -0.1433156155 0.2547531878
495297030.0 -0.1505641402 0.2654634076 0.210335399 -0.373714755 0.210652327 -0.3735438969 -0.1410026883 0.2566909677
500297000.0 -0.1472310163 0.2669563266 0.205762867 -0.3754686947 0.2057927714 -0.3758691495 -0.1379888493 0.2587902288
505296970.0 -0.1445514026 0.2684956599 0.2020530777 -0.3777581877 0.2016605975 -0.3780293275 -0.1354838703 0.2599949024
510296940.0 -0.1416307727 0.2701640176 0.1978559824 -0.380284413 0.1977654449 -0.3805134214 -0.1322896554 0.2616187826
515296910.0 -0.1386632477 0.2720941328 0.1935504562 -0.3824739318 0.193580928 -0.3824644859 -0.129825815 0.2635197995
520296880.0 -0.1360634657 0.2739085331 0.1893184758 -0.3850071954 0.1891595275 -0.3843216843 -0.1272702877 0.2647354732
525296850.0 -0.1329538787 0.2746496038 0.1850452239 -0.3862606648 0.185205414 -0.3862678508 -0.1245447867 0.2664916441
530296820.0 -0.1299844524 0.2769765842 0.180539847 -0.3886034979 0.180836443 -0.3887033909 -0.121664292 0.2678360382
535296790.0 -0.1277589697 0.2781785647 0.1770212843 -0.390056293 0.1768923661 -0.3900617592 -0.1189980829 0.2691730843
540296760.0 -0.1246281594 0.2795027641 0.1724580358 -0.392296794 0.1724470015 -0.3924114574 -0.1161973231 0.2711353684
545296730.0 -0.1218897882 0.2811695262 0.1680760941 -0.3938121035 0.1681581856 -0.3938769667 -0.1138335009 0.2720904434
550296700.0 -0.1181890534 0.2826433872 0.1638505222 -0.3957846761 0.1637115146 -0.395812561 -0.1106002231 0.2737793685
555296670.0 -0.1156420768 0.2839420011 0.1596793049 -0.3976487962 0.1599928343 -0.3974022337 -0.1079584877 0.2754509417
560296640.0 -0.1125904456 0.2855755385 0.1554866051 -0.3997407497 0.1551721418 -0.398895695 -0.1050795881 0.2764362645
565296610.0 -0.1098182874 0.2865678645 0.1503010346 -0.4007944131 0.1508183324 -0.4009332187 -0.1021687073 0.2773442025
570296580.0 -0.1067853212 0.288003733 0.1466300375 -0.4025929325 0.1458388437 -0.4026099465 -0.0990959759 0.2792245278
575296550.0 -0.1038857312 0.2896765354 0.1421609413 -0.4041799074 0.1416487333 -0.4040123393 -0.0962729002 0.2801833124
580296520.0 -0.1004319951 0.2904971129 0.137312457 -0.4057379047 0.1376868611 -0.4058902827 -0.0934136428 0.2812128951
585296490.0 -0.09771776 0.2914345139 0.1334335553 -0.4061586533 0.1332370614 -0.406812271 -0.0905007341 0.2821695224
590296460.0 -0.0945458337 0.2927670366 0.128901449 -0.4081448391 0.128736728 -0.4083988032 -0.0880958354 0.2836421449
595296430.0 -0.0913524817 0.2940431491 0.12376237 -0.4097927906 0.1239055436 -0.4097189493 -0.0848047887 0.2840925505
600296400.0 -0.0885748928 0.2952527331 0.1197630961 -0.4108052847 0.1198373964 -0.4108011311 -0.0819459783 0.2853101527
605296370.0 -0.0855486334 0.2961113841 0.115579197 -0.4120889922 0.1155416916 -0.4120152329 -0.0787030687 0.2863788631
610296340.0 -0.0824465494 0.2970839348 0.1104771458 -0.4132151105 0.1107724619 -0.4134985023 -0.0758813838 0.2871348472
615296310.0 -0.0788660359 0.297912262 0.1060492658 -0.4142406232 0.1058514292 -0.4146735298 -0.0723989496 0.2877550632
620296280.0 -0.0759359406 0.2987967328 0.1014135461 -0.415290203 0.1017308685 -0.4154106176 -0.0699363487 0.2889181413
625296250.0 -0.0730863354 0.299524855 0.0974339512 -0.4166445821 0.0971192356 -0.4168518826 -0.0662619648 0.2896662193
630296220.0 -0.0691159904 0.3007600295 0.0919099557 -0.4174598136 0.0923746041 -0.417652105 -0.0634981027 0.2906244308
635296190.0 -0.0666841867 0.3016134147 0.0880791712 -0.4184143544 0.0879174108 -0.4184768515 -0.0601279332 0.2912153701
640296160.0 -0.0636186575 0.3023515602 0.0836881159 -0.4189563172 0.0838247804 -0.4192353967 -0.0570073372 0.2919669796
645296130.0 -0.0602862165 0.3030500259 0.0788215502 -0.4199123136 0.07912895 -0.4202727198 -0.0540878569 0.2929843878
650296100.0 -0.0570983844 0.3039391634 0.0742760458 -0.4211789541 0.0744479881 -0.420863641 -0.0510154548 0.2929986936
655296070.0 -0.0541172712 0.3048158128 0.0698408609 -0.4216672476 0.0699603344 -0.4216426577 -0.0474049782 0.2941275394
660296040.0 -0.0511255937 0.3053901519 0.0652033276 -0.4225698065 0.0654007649 -0.422561154 -0.0441187511 0.2950629677
665296010.0 -0.0475343633 0.3054296207 0.0605806964 -0.422785097 0.0606335758 -0.423013518 -0.041253329 0.2959197047
670295980.0 -0.0448483159 0.3066958889 0.0561044803 -0.4232814306 0.0561109125 -0.4233025767 -0.0383815829 0.2962574244
675295950.0 -0.0411313032 0.3072976685 0.0514716534 -0.4241659606 0.0515521507 -0.4240334586 -0.0352134097 0.2969095687
680295920.0 -0.0382272902 0.3075997231 0.0471219087 -0.4245568156 0.0463677808 -0.4250783435 -0.0318103511 0.2979315117
685295890.0 -0.0348264861 0.308690901 0.042208396 -0.4249926009 0.0423750876 -0.4253164109 -0.0288881666 0.2980452745
690295860.0 -0.0315344687 0.3091185985 0.0379195376 -0.4253336873 0.0375113923 -0.4258782503 -0.0256812587 0.2990117447
695295830.0 -0.0284086496 0.309251855 0.033532689 -0.4257966209 0.0326419738 -0.4255740686 -0.0226087943 0.2991637787
700295800.0 -0.0247572522 0.3093545181 0.028019344 -0.4258316345 0.0283922465 -0.426086868 -0.0196579854 0.300024928
705295770.0 -0.0220214731 0.3102973532 0.0233527959 -0.4263258085 0.0239108507 -0.4263379867 -0.0162879939 0.3001311018
710295740.0 -0.0184754684 0.3108055986 0.019370417 -0.4267636716 0.0195723907 -0.4268275858 -0.0134580221 0.3000643339
715295710.0 -0.015456197 0.3107873776 0.0147194498 -0.4268989987 0.0144039443 -0.4268015649 -0.0098603494 0.3005773042
720295680.0 -0.0123865467 0.3110952989 0.0099168676 -0.4271272173 0.0100336983 -0.4269620934 -0.0068872108 0.3012774748
725295650.0 -0.0089324997 0.3113819921 0.0052447965 -0.4269726139 0.0054391382 -0.4271663844 -0.0042803188 0.3021396173
730295620.0 -0.0052434802 0.311964035 0.0005306349 -0.4266701092 0.0010049346 -0.4269061793 -0.0009845783 0.3016169042
735295590.0 -0.0022414187 0.3118512574 -0.0037356736 -0.4267716802 -0.0042061123 -0.4268218633 0.0018325976 0.3012772368
740295560.0 0.0006821587 0.3122520329 -0.0086430799 -0.426927931 -0.0086829283 -0.4266194648 0.0058021145 0.3018870102
745295530.0 0.0039251942 0.3123062295 -0.0131640432 -0.4262875663 -0.0135430456 -0.4264229308 0.0084511382 0.30218683
750295500.0 0.0076301902 0.3121509085 -0.0176272252 -0.4259101562 -0.0176085308 -0.4263207894 0.0114175453 0.3016813728
755295470.0 0.0110432735 0.3122245093 -0.0222985056 -0.4260678411 -0.0226661148 -0.4261943111 0.0148625692 0.301380284
760295440.0 0.0137532387 0.3124538012 -0.026995796 -0.4261630328 -0.0270107577 -0.4259666646 0.0179066358 0.3016372182
765295410.0 0.0172231356 0.3124835791 -0.0314487605 -0.4253582745 -0.0320961 -0.425767077 0.0213017183 0.3017445136
770295380.0 0.0203405418 0.3120594867 -0.0366442662 -0.4248495777 -0.0364694477 -0.4249325116 0.0241474492 0.3012473018
775295350.0 0.023346212 0.3118690343 -0.0409566607 -0.4240932766 -0.0407702121 -0.4244017561 0.0271290012 0.301406048
780295320.0 0.0270605353 0.3120760383 -0.0459498429 -0.4237780255 -0.0450131549 -0.4238879088 0.030297878 0.3008815921
785295290.0 0.0300426612 0.3115411592 -0.0503106603 -0.4233659669 -0.0499325017 -0.4236163092 0.0336931596 0.3007196898
790295260.0 0.0335731995 0.3117792138 -0.0544863657 -0.4230575998 -0.0542964383 -0.4226582123 0.0371795899 0.3006869862
795295230.0 0.0369131361 0.3110886875 -0.0589704252 -0.4217819636 -0.0589974563 -0.4223726487 0.0404094807 0.3002828114
800295200.0 0.0398030741 0.3110163542 -0.0638910871 -0.4212117558 -0.0637937698 -0.4211116423 0.0436344854 0.2999923967
805295170.0 0.0431864105 0.3105256647 -0.0681279418 -0.420527132 -0.0682610878 -0.4207719859 0.0466792942 0.299759775
810295140.0 0.0462698441 0.3103285279 -0.07257287 -0.4197966305 -0.0726501483 -0.4199858944 0.0499039239 0.2992620539
815295110.0 0.0495312085 0.3099740112 -0.0770995161 -0.41878266 -0.0769765653 -0.4189444467 0.0531937999 0.2990600339
820295080.0 0.0527623727 0.309844349 -0.0819201711 -0.4181831493 -0.0815414353 -0.4181297718 0.0564302634 0.298320138
825295050.0 0.0564305881 0.3089927329 -0.0858001741 -0.4169885645 -0.0860497583 -0.4172126292 0.0596377945 0.2982278292
830295020.0 0.0594371616 0.3087911747 -0.0907377489 -0.4158650354 -0.0908203542 -0.4160527162 0.0631828903 0.2976020942
