!Created with skrf (http://scikit-rf.org).
# Hz S RI R 50.0 
!freq ReS11 ImS11 ReS21 ImS21 ReS12 ImS12 ReS22 ImS22
300000.0 -0.0484289181 -0.0602588465 -0.0023971601 0.0011878952 0.001544808 -5.91723e-05 -0.7716769756 -0.1681919982
5299970.0 -0.0492009451 0.0158212577 0.000181171 0.0001805325 2.25487e-05 0.0001042095 -0.7849436073 -0.0088017382
10299940.0 -0.0432703754 0.0333424721 8.24016e-05 0.0001114933 -2.86084e-05 0.0001163188 -0.7884486768 -0.0052459698
15299910.0 -0.0350317892 0.0479599414 -5.82838e-05 -4.8116e-06 -7.37112e-05 0.0001545453 -0.7941545601 -0.0029758581
20299880.0 -0.0245972051 0.0597555622 0.0001233122 -8.60964e-05 -0.0001627808 8.95874e-05 -0.8009380164 0.0015554326
25299850.0 -0.0132647825 0.0690581113 0.0003876928 3.95954e-05 -1.74022e-05 -9.97422e-05 -0.806706016 0.0074779725
30299820.0 -0.0012525961 0.0757920258 4.457e-06 -8.01717e-05 -4.6242e-06 0.0001672652 -0.812890057 0.0148530032
35299790.0 0.0103474705 0.08049963 0.0001032858 -0.0002048411 -0.0001350244 -6.30301e-05 -0.8179046602 0.0235044722
40299760.0 0.0219944535 0.0832374389 0.0001733729 0.0001135067 1.89945e-05 0.0001062525 -0.8219107065 0.0326990711
45299730.0 0.0324509549 0.0845941817 7.20472e-05 -0.0001806093 -2.77795e-05 -7.24059e-05 -0.8254291008 0.0425256066
50299700.0 0.0429694429 0.0845695043 -2.89944e-05 8.49277e-05 0.0001271841 -0.0001164225 -0.8276723047 0.052868463
55299670.0 0.0521178414 0.0834717478 -7.91647e-05 -5.5066e-06 -9.91609e-05 -2.63001e-05 -0.8301178783 0.0626915317
60299640.0 0.0606990649 0.0812915496 0.0001306675 0.0001771654 0.0002175734 -1.85401e-05 -0.8312924648 0.0726800561
65299610.0 0.0687357803 0.0788950031 7.34108e-05 0.0002647397 4.23968e-05 -5.61547e-05 -0.8315756405 0.0826331943
70299580.0 0.0758692206 0.0756838636 1.5673e-05 -0.0001826159 3.62955e-05 4.75675e-05 -0.8324383548 0.0926585413
75299550.0 0.0820384514 0.0722530234 4.344e-07 -6.2863e-06 4.60953e-05 -0.0001826517 -0.8327646445 0.102446356
80299520.0 0.0875742226 0.0688420753 -0.000275957 0.0001791419 -0.0001420341 -4.24063e-05 -0.83200215 0.1122165512
85299490.0 0.0928096836 0.0646076932 -9.09642e-05 -3.23784e-05 0.0002043386 0.0001797624 -0.832112158 0.1216535822
90299460.0 0.0973906771 0.0612738775 -5.32649e-05 0.0001782612 4.87415e-05 -3.63079e-05 -0.8309913151 0.1308966958
95299430.0 0.1014148769 0.0568516538 -2.34594e-05 -7.19668e-05 -0.0001023318 -9.77738e-05 -0.8300988757 0.1409777011
100299400.0 0.104736437 0.0531348363 -6.74834e-05 -4.96539e-05 -3.35635e-05 -2.85987e-05 -0.8290799484 0.1493774272
105299370.0 0.10810388 0.0488406285 3.3326e-06 8.47131e-05 8.15996e-05 2.72546e-05 -0.8274045106 0.1588667468
110299340.0 0.1106566464 0.0448795802 -0.0001044872 5.01841e-05 -6.21576e-05 8.74194e-05 -0.8271609994 0.1679558394
115299310.0 0.1135644415 0.0404615637 -0.0001407459 5.84894e-05 7.36888e-05 1.1242e-05 -0.8252875049 0.1770436405
120299280.0 0.115601808 0.0366821593 9.40585e-05 5.491e-06 0.0001192215 0.0001909971 -0.8236093215 0.185935415
125299250.0 0.1173650149 0.0324627948 0.0001490343 0.0001389188 0.0001264271 -6.00593e-05 -0.8218220018 0.1951270831
130299220.0 0.1192018999 0.0290595354 0.0001050742 -5.66367e-05 1.51605e-05 -0.0001807 -0.8201988125 0.2037090999
135299190.0 0.1206691356 0.0250632888 -0.0002271707 -6.59395e-05 1.95637e-05 7.24306e-05 -0.8175849632 0.212847525
140299160.0 0.1220634008 0.0214388929 2.50395e-05 -3.8322e-06 9.68696e-05 -3.95e-05 -0.8160651592 0.221608144
145299130.0 0.1230289525 0.0179429262 -0.0001384079 2.15574e-05 9.62385e-05 -0.0001078345 -0.8136510018 0.2298222319
150299100.0 0.1236840207 0.0141848305 0.000128658 0.0001024268 1.63679e-05 7.33825e-05 -0.8122079208 0.2387390893
155299070.0 0.1246797305 0.0111787056 -6.06469e-05 -3.04041e-05 -0.0001529104 -9.13869e-05 -0.809606752 0.2475259711
160299040.0 0.1250949556 0.0075533238 -4.09724e-05 -0.0001617901 0.0001424391 0.0002625586 -0.8075745908 0.2568570542
165299010.0 0.1255493306 0.0044072652 0.0001424105 3.63819e-05 -0.0001820595 5.5634e-05 -0.8044890074 0.2645534829
170298980.0 0.1257750885 0.0011147749 4.06751e-05 6.87772e-05 2.54493e-05 0.0001090543 -0.802229347 0.2734847945
175298950.0 0.126149501 -0.0017003126 0.0001069459 0.000156914 0.0002766496 -0.0001078079 -0.7994815983 0.2817559479
180298920.0 0.1261029238 -0.0051982768 8.88549e-05 -6.79414e-05 -1.25723e-05 -5.11599e-05 -0.7957169063 0.2907317423
185298890.0 0.126212432 -0.0080360617 -0.0001871694 -6.26093e-05 -3.71262e-05 0.0001282502 -0.7933164634 0.2983207245
190298860.0 0.1260522191 -0.0109958807 0.0001330143 3.62263e-05 -7.40907e-05 -6.1558e-06 -0.7892809354 0.307327235
195298830.0 0.1262247814 -0.0142344943 -3.00508e-05 -6.28538e-05 -6.80671e-05 0.0001427471 -0.787540433 0.3154298815
200298800.0 0.1256705629 -0.0168507047 0.0001806299 7.02449e-05 -2.63981e-05 0.000242428 -0.7835582009 0.3242084735
205298770.0 0.1255969152 -0.0196691906 0.0001705347 0.0004102099 8.07844e-05 9.86308e-05 -0.7800077906 0.3320628952
210298740.0 0.1252073601 -0.0222651871 0.0001955329 -7.25363e-05 -8.08627e-05 0.0001185186 -0.7774013742 0.3403537782
215298710.0 0.1245328294 -0.024755094 4.60104e-05 0.0001944899 7.76538e-05 0.0001530352 -0.7732821939 0.3485319329
220298680.0 0.1245114935 -0.0277825755 -0.000108325 -0.0001429467 9.23234e-05 -8.84097e-05 -0.7695161146 0.3569850678
225298650.0 0.1239300734 -0.0299211074 0.0001455603 -4.34497e-05 0.0001548685 3.61765e-05 -0.7662883677 0.3649774778
230298620.0 0.1231938773 -0.0322634524 0.0001153883 0.0001105579 8.6105e-05 2.53789e-05 -0.761669273 0.3723992064
235298590.0 0.1223774687 -0.0350228648 7.92922e-05 -9.6453e-05 0.0001041422 5.35554e-05 -0.7583478275 0.3808993232
240298560.0 0.1217618638 -0.0372999265 -5.85243e-05 -1.20705e-05 0.0001039757 -0.0001237874 -0.7542070211 0.3884335465
245298530.0 0.1211852622 -0.0394708849 7.80353e-05 0.0001780928 5.91169e-05 0.0002236928 -0.7503315106 0.3968498879
250298500.0 0.1204079029 -0.0416394682 -5.65256e-05 6.593e-07 0.0001572171 -2.7733e-06 -0.7464278907 0.404968937
255298470.0 0.1193113957 -0.0440857181 -0.0001732384 0.0002038077 4.94938e-05 0.0001040562 -0.7414325574 0.4122869641
260298440.0 0.1186993746 -0.0458935801 -3.82196e-05 -0.0002533604 6.75768e-05 -9.8735e-05 -0.7371100283 0.4197943003
265298410.0 0.1177283207 -0.0483893623 8.93213e-05 0.0001607963 -2.63905e-05 -4.81728e-05 -0.7328562612 0.4277823632
270298380.0 0.1170607838 -0.0501511191 -0.0003130109 7.22745e-05 0.0001577024 4.65111e-05 -0.728077506 0.4351622972
275298350.0 0.1161029643 -0.052294763 0.0002610766 6.74738e-05 9.58458e-05 0.0002269454 -0.7230153562 0.4431446869
280298320.0 0.115065276 -0.0542370348 0.000294083 -6.082e-05 -5.15566e-05 0.0001145963 -0.7189507948 0.4503626902
285298290.0 0.1141364961 -0.0561668178 0.0003141749 0.0001166143 0.0001847966 -7.64631e-05 -0.7137480963 0.4580925558
290298260.0 0.1133228087 -0.05806318 2.12371e-05 0.0001379923 5.91391e-05 7.7412e-06 -0.7089659228 0.4659475882
295298230.0 0.1122929946 -0.0598905792 0.0002504075 7.96895e-05 0.0001341647 -2.3332e-06 -0.7040237502 0.472878272
300298200.0 0.1113539884 -0.0624283472 -0.0002091925 1.94021e-05 0.0001586365 0.0001562433 -0.6988533943 0.4802369972
305298170.0 0.1107609305 -0.0641707494 -6.65169e-05 0.0003133177 4.06643e-05 0.0002578405 -0.6933486599 0.4879911419
310298140.0 0.109292079 -0.0661369428 0.0002774378 3.34369e-05 6.7557e-05 0.0001129005 -0.6888659056 0.4952224074
315298110.0 0.1076282944 -0.0681058143 0.0001710992 0.000192917 -1.56011e-05 6.08567e-05 -0.6834995495 0.5019971813
320298080.0 0.106491356 -0.0700581777 0.0001334047 0.0001716194 -0.0001185004 0.000175066 -0.6781828286 0.5098612529
325298050.0 0.1052360842 -0.0718658144 5.55401e-05 0.0001607443 6.12547e-05 2.52846e-05 -0.6730028856 0.5163613743
330298020.0 0.1036806577 -0.0734104141 -5.8506e-05 -0.0001696687 -8.51683e-05 -2.63294e-05 -0.6669459434 0.5232343547
335297990.0 0.1020574767 -0.074837139 0.0001749802 0.0001117881 -5.72848e-05 -0.0001572549 -0.6616037283 0.5301555024
340297960.0 0.1006727073 -0.0765336142 0.0002425236 0.000103228 0.0002693214 -3.69621e-05 -0.6557901385 0.5369641491
345297930.0 0.0990924196 -0.0777676262 0.0001735222 4.58133e-05 0.0001177793 -5.89052e-05 -0.6500839287 0.5441334204
350297900.0 0.0982691263 -0.0793702446 0.0001238649 -0.0002269273 0.0001240519 9.1756e-05 -0.6448512956 0.5513368173
355297870.0 0.0962083775 -0.08070463 0.0001799298 0.0001821438 6.25308e-05 2.893e-06 -0.6388283707 0.5576314844
360297840.0 0.0951039383 -0.0820823854 0.0001605606 -5.01894e-05 -0.000190116 3.1463e-06 -0.6327368914 0.5639515798
365297810.0 0.0940653927 -0.0835639819 0.0001542275 0.0002081019 0.000123083 6.8464e-06 -0.6266527111 0.5708948885
370297780.0 0.0923885761 -0.0848810557 0.0001517271 -0.000140652 0.0002785755 8.26305e-05 -0.6206258718 0.5772499304
375297750.0 0.0909843266 -0.0858334798 -5.88716e-05 6.01751e-05 0.0001992615 4.62841e-05 -0.6145613269 0.5828452405
380297720.0 0.0898095848 -0.0873232074 -2.67366e-05 8.8016e-05 0.0003224816 -0.0002548886 -0.6084858385 0.5904857373
385297690.0 0.0883286877 -0.0884540563 8.68045e-05 -0.0002365351 0.0001836691 0.0001302574 -0.6024209738 0.5960633951
390297660.0 0.0868489848 -0.0898091288 4.98218e-05 -6.05362e-05 0.0001838434 7.30522e-05 -0.5955504608 0.6016614213
395297630.0 0.0856190896 -0.091086219 7.82502e-05 9.665e-07 0.0001910389 -0.0001014651 -0.5893053769 0.6082367469
400297600.0 0.0840058278 -0.0919339663 0.0001437937 0.0002025099 0.0002251823 -7.906e-06 -0.5838580552 0.6136364522
405297570.0 0.0825249167 -0.0930471685 5.58071e-05 0.0001890282 0.0001116176 -7.73198e-05 -0.5773763471 0.6196881119
410297540.0 0.0810113917 -0.0945045824 8.49275e-05 0.0002493407 0.0002558271 1.21004e-05 -0.5704111173 0.6254894971
415297510.0 0.0796337294 -0.0955947519 4.49188e-05 0.0001702936 0.0001983929 1.85856e-05 -0.5636936091 0.6320044987
420297480.0 0.0780207803 -0.0966152007 -3.0272e-06 5.61494e-05 9.1851e-05 -0.0002315367 -0.5573924563 0.6367434857
425297450.0 0.0765530585 -0.0977478941 -1.758e-06 -1.58783e-05 0.0001530135 6.62705e-05 -0.5506817231 0.6432938665
430297420.0 0.0748782336 -0.0986672622 5.37119e-05 4.00179e-05 5.779e-06 0.0001342936 -0.54446095 0.6486366795
435297390.0 0.0732939968 -0.0995301338 0.000202255 0.0001677768 1.38132e-05 0.0002142045 -0.5372083848 0.6535180203
440297360.0 0.0720169888 -0.1005342655 5.06659e-05 -8.1547e-06 0.0001872829 6.92152e-05 -0.5308137988 0.6586425327
445297330.0 0.0703847281 -0.1015122856 0.0001652056 -3.07641e-05 6.79402e-05 7.16805e-05 -0.5240521496 0.66416449
450297300.0 0.0687510864 -0.1022848619 1.5094e-06 3.86175e-05 4.89714e-05 -0.0001315692 -0.5170313179 0.6695482138
455297270.0 0.0672032169 -0.1032006426 0.0002917039 -4.65039e-05 3.36767e-05 -0.0002185777 -0.5101956031 0.6745486593
460297240.0 0.0658151577 -0.1040557868 0.000168463 -2.88833e-05 8.15579e-05 8.88707e-05 -0.5028983492 0.6804371115
465297210.0 0.0643041114 -0.1047912177 0.0002089174 5.65038e-05 0.0002445038 2.5057e-05 -0.4968744102 0.6851640464
470297180.0 0.0626436737 -0.1056546775 0.0002810666 7.60597e-05 -0.0001347863 0.0001012171 -0.4897499532 0.6896015476
475297150.0 0.0608994283 -0.1064662004 0.0001808146 0.0001309437 2.97144e-05 9.6238e-06 -0.4822742627 0.6948212482
480297120.0 0.0592252716 -0.1075240241 0.0001066035 -1.6305e-05 0.0001633539 8.63555e-05 -0.475717485 0.6997898892
485297090.0 0.0578881407 -0.1079816244 0.0003045266 2.27276e-05 7.37507e-05 0.0001146706 -0.4681205825 0.7043966025
490297060.0 0.0562531058 -0.1087011142 4.75751e-05 2.36651e-05 0.0002352778 9.97317e-05 -0.4611388465 0.7087800311
495297030.0 0.0543269538 -0.1093834555 0.0001799951 9.44438e-05 0.0001025805 -7.94428e-05 -0.4539418169 0.7127882812
500297000.0 0.0531311836 -0.1101651098 0.0001765082 -9.24317e-05 4.71505e-05 0.0001551564 -0.4471310113 0.7178311839
505296970.0 0.0512300279 -0.1106243275 -1.9689e-05 -5.68465e-05 0.0001591815 0.0001211842 -0.4405636964 0.7219936179
510296940.0 0.0496321832 -0.1110888995 8.50965e-05 -0.0001099651 0.0001307144 4.68305e-05 -0.4324911937 0.7264168544
515296910.0 0.0479133174 -0.1117445858 0.0001703696 4.89661e-05 -1.94234e-05 1.33726e-05 -0.4251386463 0.7311319626
520296880.0 0.0462658736 -0.1125189192 -3.5431e-05 3.70506e-05 1.7152e-06 -1.86269e-05 -0.417936909 0.7348025545
525296850.0 0.0447336882 -0.1128026997 8.78533e-05 -3.8526e-05 -0.000126377 -1.72312e-05 -0.4102046166 0.739213021
530296820.0 0.0429466796 -0.1134131575 0.000206484 0.000161306 0.0002077506 0.0002130214 -0.40319542 0.7431309774
535296790.0 0.0415553596 -0.1136614608 0.0001007545 2.77905e-05 0.0001430514 -8.91234e-05 -0.3956468845 0.7465369457
540296760.0 0.0395582091 -0.1146615437 0.0002195234 -7.1483e-06 0.0001026559 -2.60059e-05 -0.3890309855 0.7511204002
545296730.0 0.03825467 -0.1147944293 0.000225409 2.5361e-06 0.0003278477 4.8419e-06 -0.3810406838 0.7542246634
550296700.0 0.0360752848 -0.1152645969 1.46488e-05 0.000132062 0.0001517848 5.73982e-05 -0.3734650869 0.7578616327
555296670.0 0.0348703164 -0.1155694061 0.0003427621 0.0001380752 -2.85338e-05 -2.78591e-05 -0.3657038983 0.76191113
560296640.0 0.032852278 -0.1160794581 -8.67188e-05 -6.5882e-06 0.0001534105 0.0001128571 -0.3586330975 0.7654292425
565296610.0 0.0312793788 -0.116167061 0.0002321909 -2.03016e-05 0.0001926145 0.0001275388 -0.3506596875 0.7688891492
570296580.0 0.0295920316 -0.1167647279 0.0001592791 9.45542e-05 0.0003031206 -9.2556e-06 -0.3434794548 0.7728714246
575296550.0 0.0280399699 -0.1167950538 0.0001174745 0.0001077551 -6.12758e-05 0.0001024278 -0.335229758 0.776237974
580296520.0 0.0264131579 -0.1170448283 0.0001636059 -9.76745e-05 3.77705e-05 0.000332166 -0.3280133345 0.7793856273
585296490.0 0.0244370706 -0.1174733733 2.33085e-05 0.0001500132 0.0002320182 0.0001928972 -0.3200701387 0.7818812137
590296460.0 0.0224713375 -0.1176954258 0.0001900082 0.0002761742 0.0001519815 0.0001041724 -0.3117884783 0.7855429581
595296430.0 0.0212067461 -0.1176232737 0.0001160821 -5.56103e-05 2.17618e-05 0.0002305208 -0.3043974631 0.787662257
600296400.0 0.0194358472 -0.1178518806 4.86898e-05 5.38024e-05 6.15055e-05 5.33708e-05 -0.2966806816 0.7911399944
605296370.0 0.0179799772 -0.1181484685 0.0001599682 -0.0001350818 0.0002127657 -0.0001448552 -0.2884682289 0.7945991187
610296340.0 0.0161105533 -0.1181159867 -5.98724e-05 -0.0003098064 -7.42397e-05 -0.0002512048 -0.2807451299 0.7971394426
615296310.0 0.014381802 -0.1180357691 0.0003045752 -5.54985e-05 0.0001771121 0.0001050543 -0.273129914 0.7995922361
620296280.0 0.012753975 -0.1180394881 0.0003054187 0.0002623779 7.81355e-05 -8.9023e-06 -0.2649039593 0.8019786713
625296250.0 0.0110376016 -0.1184575967 0.000260745 0.0002134038 0.0001521726 -0.0001938904 -0.2573073901 0.8049688278
630296220.0 0.00942448 -0.1184977447 0.0002498657 -0.0001771247 8.73563e-05 -8.0177e-06 -0.2489870244 0.8078756917
635296190.0 0.007710677 -0.1185370498 7.52632e-05 -0.0001060455 0.0001056913 -8.41335e-05 -0.2415649632 0.8097957839
640296160.0 0.006025317 -0.1184918608 0.0001083003 -5.7006e-05 0.0002170928 0.0001595521 -0.2330386792 0.811875351
645296130.0 0.0039779125 -0.1187022778 -5.1647e-05 9.18089e-05 0.0001184394 0.0002780543 -0.2249296108 0.8140646774
650296100.0 0.0025202474 -0.1180366547 -5.40118e-05 0.0001039218 2.53829e-05 -0.0003634931 -0.2169799731 0.8166644833
655296070.0 0.0008468088 -0.1181585538 -5.2526e-05 -7.60909e-05 0.0001820792 -0.0001042205 -0.209014497 0.8181737737
660296040.0 -0.0011213958 -0.1176313264 7.3314e-05 5.49168e-05 3.29059e-05 -5.94547e-05 -0.201121627 0.8203021459
665296010.0 -0.0023617539 -0.1178497926 7.69145e-05 -0.0001777206 8.19499e-05 -0.0001212416 -0.1931302548 0.8224934977
670295980.0 -0.0041247578 -0.1177801285 8.00076e-05 1.68773e-05 0.000134243 0.0001679028 -0.1854620859 0.8241576168
675295950.0 -0.0057743227 -0.1175400029 0.0001564476 -4.4002e-06 9.17791e-05 7.58045e-05 -0.1765299377 0.8258066132
680295920.0 -0.0075323823 -0.1170911368 6.35857e-05 0.0001243813 6.87774e-05 7.14664e-05 -0.1685480748 0.8276874387
685295890.0 -0.0090020381 -0.1169840011 0.0002373392 4.24433e-05 8.64778e-05 -7.84815e-05 -0.1601716591 0.8291289583
690295860.0 -0.0106512825 -0.1168263373 0.0001115648 -7.7687e-06 0.000316157 -1.10725e-05 -0.151816042 0.8303625503
695295830.0 -0.0124031509 -0.116449659 0.0001643872 0.000253222 1.28349e-05 -0.0002148243 -0.1442716131 0.8328066152
700295800.0 -0.0138716081 -0.1160442145 -2.9909e-05 1.091e-05 0.0002869377 3.70863e-05 -0.1353093146 0.8337422947
705295770.0 -0.0156586916 -0.1159246902 5.77773e-05 -0.0002371474 0.0001361067 5.85069e-05 -0.1277804433 0.8348764353
710295740.0 -0.0172374434 -0.1154731386 0.0002565015 -1.5888e-06 0.0002098093 0.0001902705 -0.1198538869 0.8370020774
715295710.0 -0.0190156952 -0.1150417118 8.99748e-05 0.000231949 0.0002030277 -0.0001415421 -0.1114492838 0.8375146326
720295680.0 -0.0206983775 -0.1147694449 0.0001982658 2.43272e-05 0.0001065601 9.25042e-05 -0.1032574892 0.838725349
725295650.0 -0.02216836 -0.1142089873 0.0001106647 8.50876e-05 9.24848e-05 4.23553e-05 -0.0943529482 0.8397943217
730295620.0 -0.0240388928 -0.1139990448 0.0002347182 -0.0001409072 -3.07884e-05 4.82386e-05 -0.0860510531 0.8404801217
735295590.0 -0.0253419339 -0.1133623476 7.26632e-05 -7.52272e-05 0.0001435664 -4.70746e-05 -0.077149236 0.8410372084
740295560.0 -0.0270096302 -0.1128673528 0.0001764006 -2.9235e-06 2.75305e-05 0.0001463898 -0.0695516606 0.8416332033
745295530.0 -0.0284517749 -0.1123611936 0.0001623442 -0.0002030031 4.96025e-05 -4.25913e-05 -0.0612482808 0.8425112901
750295500.0 -0.0305244823 -0.1117509331 -0.0001524559 0.0002234304 0.0001601376 -9.86836e-05 -0.0526217453 0.8421987051
755295470.0 -0.0315215533 -0.1114145555 0.0001895634 -3.03129e-05 0.0002032683 6.8431e-05 -0.0447713657 0.8434433589
760295440.0 -0.0335142345 -0.1105978524 1.58094e-05 2.66274e-05 0.0002139454 4.54191e-05 -0.0368145662 0.8440281994
765295410.0 -0.0350576962 -0.110491861 0.0002456652 5.33542e-05 0.000131058 4.36004e-05 -0.0273694571 0.8444206899
770295380.0 -0.0367922947 -0.1094037363 0.0001355236 0.000174942 0.0002404655 8.9278e-05 -0.0193246824 0.8443805787
775295350.0 -0.0382250847 -0.1089523906 8.3799e-06 -0.0003472208 0.0002085922 -5.71766e-05 -0.0117345508 0.8440280654
780295320.0 -0.0397110072 -0.1086052881 0.0001078453 0.0001130134 0.0001729606 0.0002133535 -0.0030169416 0.8448101296
785295290.0 -0.0411230367 -0.1077363443 0.0003107107 -0.000141885 0.0001174027 -8.94269e-05 0.0045067692 0.8449998058
790295260.0 -0.0426357902 -0.1068505461 1.29955e-05 0.0001435643 0.0003164169 -4.92776e-05 0.0141607768 0.8452668908
795295230.0 -0.043998991 -0.1061351073 0.000156357 -0.0002736501 0.0002583722 -1.93955e-05 0.0221051322 0.844685877
800295200.0 -0.0455251438 -0.105305555 0.0001468943 -0.0001166374 0.000285052 -0.0001939792 0.0298448336 0.8442472253
805295170.0 -0.0472178604 -0.1046889931 0.000197805 0.0001012759 2.46993e-05 -7.19416e-05 0.0379173279 0.8433191556
810295140.0 -0.0484997378 -0.103854974 9.63362e-05 -0.0001500322 8.3697e-05 -0.0002324776 0.0464458669 0.8445550237
815295110.0 -0.0500850924 -0.1031482558 6.46769e-05 -5.90277e-05 0.0003431006 -0.0001246524 0.0548900628 0.8433602589
820295080.0 -0.0514940661 -0.1024303948 0.0002730941 -0.0001577184 0.0001385636 6.17991e-05 0.062710644 0.8426802689
825295050.0 -0.0530186984 -0.1016563078 0.0002630495 3.18941e-05 -1.65711e-05 -0.0001733365 0.0713929176 0.8423473689
830295020.0 -0.0542504829 -0.1003659686 -9.42623e-05 1.56743e-05 9.46378e-05 -2.79131e-05 0.0793604008 0.8416377131
835294990.0 -0.0558071051 -0.0997145704 0.000250101 -0.0003008267 -3.45509e-05 -2.802e-07 0.0881045996 0.8404475231
840294960.0 -0.057173418 -0.0988753513 9.84308e-05 -9.14348e-05 0.000227274 -0.0001211486 0.0957716583 0.839502189
845294930.0 -0.0588469006 -0.0976272706 -3.08475e-05 -0.000150599 0.0003852473 -0.0001048985 0.1039585664 0.8383420195
850294900.0 -0.060035436 -0.0970221728 -2.0168e-06 -5.28817e-05 0.0002480629 -5.69214e-05 0.1123798395 0.8379755148
