!Created with skrf (http://scikit-rf.org).
# Hz S RI R 50.0 
!freq ReS11 ImS11 ReS21 ImS21 ReS12 ImS12 ReS22 ImS22
300000.0 -0.0997272507 -0.0669501719 0.6305762389 0.0622114614 0.6238257876 0.063239932 -0.1021173634 -0.073761825
5299970.0 -0.1019832164 0.0131591732 0.631004188 0.009936335 0.6305149111 0.0101114492 -0.1008839582 0.0133009966
10299940.0 -0.0971916553 0.0292562498 0.6340564088 0.0155559726 0.6341155638 0.0158888374 -0.0958953246 0.0301245676
15299910.0 -0.0900131253 0.0425639496 0.640140718 0.0204167366 0.6408539021 0.0201811517 -0.0886740672 0.0434241405
20299880.0 -0.0816041129 0.0530171674 0.6484349905 0.0239245742 0.6485284063 0.0241456611 -0.0798901796 0.0545450527
25299850.0 -0.0721315476 0.0622337631 0.6577569885 0.0250847117 0.6577205152 0.0253583327 -0.0697944926 0.0634860455
30299820.0 -0.0623561893 0.0689367134 0.6671633651 0.0246445698 0.667491446 0.0246198418 -0.0598633457 0.0697041529
35299790.0 -0.0523407218 0.0737117255 0.6769908846 0.0213009779 0.6770165952 0.0214972202 -0.0499289741 0.0749569113
40299760.0 -0.0434296479 0.0772757225 0.686237729 0.0175741785 0.6867055901 0.0177988548 -0.0406001982 0.0774885113
45299730.0 -0.0340743848 0.0792547272 0.6948362994 0.0121857181 0.6953234733 0.0120497457 -0.0313949086 0.0799062628
50299700.0 -0.025758189 0.0800971986 0.7036568002 0.0050964396 0.7038771683 0.0054628679 -0.0229169796 0.080410649
55299670.0 -0.0178701128 0.0803864268 0.7108054127 -0.0032878213 0.7109765781 -0.0026269397 -0.014942796 0.0809067479
60299640.0 -0.009976118 0.0801152682 0.7168803601 -0.0117750861 0.7180695207 -0.0108473828 -0.0080727007 0.0793983729
65299610.0 -0.0038190262 0.0788115325 0.7233622915 -0.0202630429 0.7236156739 -0.0201012844 -0.0013424926 0.0785871619
70299580.0 0.0024527395 0.0777046767 0.7290455714 -0.0293188045 0.7285528754 -0.0293447909 0.0048740143 0.0767740175
75299550.0 0.0080559795 0.0759151939 0.7327505076 -0.0386521369 0.7327880636 -0.0389858292 0.0101168331 0.0747769923
80299520.0 0.0129800567 0.0735827495 0.7372633243 -0.0486225099 0.7373464225 -0.0488030804 0.0150505938 0.0727524407
85299490.0 0.0177111493 0.0714020537 0.7402453802 -0.0585276901 0.740581166 -0.058349566 0.019527482 0.0698153146
90299460.0 0.021669051 0.0691636797 0.7428270605 -0.0690377564 0.7433182675 -0.0690354904 0.0234933356 0.0679819089
95299430.0 0.0259081027 0.0663822572 0.7450274762 -0.0791715392 0.745932302 -0.0791335521 0.0273973056 0.0656878
100299400.0 0.028759905 0.0646263263 0.7467685606 -0.0890208642 0.7469556754 -0.0892112995 0.0310987246 0.062821893
105299370.0 0.0323269687 0.0619505242 0.7485371381 -0.0993446703 0.7492553946 -0.0995177742 0.0344260447 0.0606309267
110299340.0 0.0351070583 0.0597192897 0.7501733098 -0.1087405615 0.7496386433 -0.1088240037 0.0361387439 0.0579092558
115299310.0 0.0375563887 0.0574027944 0.7509927208 -0.1192814496 0.7504901855 -0.1193681873 0.0389363773 0.0555144845
120299280.0 0.0399255404 0.0545209484 0.7514019578 -0.1291233024 0.7513131715 -0.1295891772 0.0410845966 0.0532078439
125299250.0 0.0421663802 0.0522077485 0.7518012288 -0.1389025631 0.7516290132 -0.1385917629 0.0427655692 0.0503394287
130299220.0 0.043575114 0.0502335262 0.751309308 -0.1490352858 0.7514209317 -0.1491196456 0.0448246128 0.0481121574
135299190.0 0.0453502366 0.0483214886 0.7514709725 -0.1589653142 0.7512910761 -0.1584947144 0.0466845433 0.0460400567
140299160.0 0.0465029575 0.0463125194 0.7507403338 -0.1687674934 0.7508119897 -0.1692742694 0.0478770058 0.0443741877
145299130.0 0.0482055826 0.0438328512 0.7497507305 -0.1788022964 0.750013666 -0.1785797562 0.0492761674 0.0420231176
150299100.0 0.0498579718 0.0419631047 0.7489817284 -0.1872893489 0.7490136399 -0.1876069225 0.0506002512 0.0402509301
155299070.0 0.0504116895 0.039868875 0.7477484154 -0.1984778529 0.7476525639 -0.1976975128 0.0517768546 0.0384109635
160299040.0 0.0519390759 0.0380319415 0.7465605533 -0.2073941541 0.7458716742 -0.2074827888 0.0520757891 0.0363187799
165299010.0 0.0523832231 0.036434215 0.7446764303 -0.2168121577 0.744800499 -0.2170167893 0.0536278057 0.0348187019
170298980.0 0.0533221601 0.033841145 0.7428872833 -0.2263184321 0.7430240078 -0.2262444304 0.054140244 0.0329798954
175298950.0 0.0535199201 0.0320853335 0.7412758931 -0.2350773913 0.741068816 -0.2351442715 0.0546383175 0.0314657839
180298920.0 0.0542323978 0.0308257032 0.7389047957 -0.244777364 0.7387494203 -0.2446190584 0.0555294962 0.0297507187
185298890.0 0.0554108703 0.0286748737 0.7364621914 -0.2532395462 0.736322133 -0.2534876295 0.0557054989 0.0282354668
190298860.0 0.0554904437 0.0275414774 0.7342758251 -0.2629417301 0.7346068391 -0.2630030637 0.0561707537 0.0261277346
195298830.0 0.0561016344 0.025450317 0.731883089 -0.2715886774 0.7321098815 -0.271800721 0.0570454041 0.0253141083
200298800.0 0.0563098428 0.0240883797 0.7286808659 -0.2810994325 0.7291678997 -0.2811796206 0.0568892351 0.0238912212
205298770.0 0.05691065 0.0228319293 0.7260288629 -0.289740509 0.7264716278 -0.2897348316 0.0574859378 0.0212145435
210298740.0 0.0573607612 0.0211068573 0.7234444373 -0.2982070316 0.7232126337 -0.2976820165 0.0579477814 0.0211998088
215298710.0 0.056778667 0.0197934138 0.7201096284 -0.3072529134 0.7199742098 -0.3075307719 0.0579632519 0.0197353676
220298680.0 0.0574747688 0.0177231596 0.7166729189 -0.3156874599 0.7170964383 -0.3159027604 0.0575785526 0.0181912942
225298650.0 0.0577336583 0.0165281126 0.7138052759 -0.3249008938 0.7141928389 -0.3246643883 0.057243918 0.016500138
230298620.0 0.0578973659 0.0159473611 0.7106652141 -0.3328907629 0.710719699 -0.3330652889 0.057390617 0.0150375427
235298590.0 0.0576731895 0.0146437352 0.7072484211 -0.3415878861 0.7070788766 -0.341126544 0.0576919645 0.0139816763
240298560.0 0.0578845389 0.0133543199 0.7032255964 -0.3496862135 0.7029267695 -0.349816353 0.0577592745 0.0130527505
245298530.0 0.0577598432 0.0121447915 0.7002016979 -0.3579039083 0.6997777075 -0.3585830911 0.0582351872 0.0107996096
250298500.0 0.058513073 0.0110587754 0.6953239891 -0.3661941583 0.6951961147 -0.3662138675 0.0577931545 0.0105350679
255298470.0 0.0581015875 0.0096471049 0.6912294475 -0.3745222641 0.6916698855 -0.3738722594 0.0583378496 0.0088795452
260298440.0 0.057957074 0.0081721176 0.6874603651 -0.3832881933 0.688106547 -0.3823640293 0.0584640569 0.0079345945
265298410.0 0.0589698184 0.0077353323 0.6836960887 -0.3909652952 0.6838097134 -0.3905402058 0.0583310345 0.0069254041
270298380.0 0.0586633985 0.006025325 0.6803941761 -0.3988349666 0.6795154287 -0.3985893959 0.0577930017 0.0058176297
275298350.0 0.0588295748 0.0051264416 0.67541964 -0.4068089287 0.6755089828 -0.4071542404 0.0584274791 0.0045486486
280298320.0 0.0587418914 0.0041818731 0.6710082216 -0.4147361853 0.6714206912 -0.4145647369 0.0586043584 0.0035591985
285298290.0 0.0586375813 0.0029809981 0.6667687753 -0.4223845183 0.6662552031 -0.422399882 0.0585265195 0.0025322092
290298260.0 0.0590257764 0.0022321147 0.6620932718 -0.4295832628 0.6620715403 -0.430321806 0.0585157039 0.0018120237
295298230.0 0.0589788748 0.0010191211 0.6575955441 -0.4376318176 0.6573089376 -0.4374701299 0.0594010577 0.0003577372
300298200.0 0.0581741743 -0.0003169854 0.6535864779 -0.4451043647 0.6534250665 -0.445792227 0.0586757425 -0.0007851504
305298170.0 0.0587111549 -0.0013886575 0.6476058318 -0.4533975975 0.6479836696 -0.4532415312 0.0591539783 -0.002102819
310298140.0 0.0586251471 -0.0022996347 0.6434384266 -0.4607892238 0.6436909775 -0.4608064015 0.059352724 -0.0030743713
315298110.0 0.0584274367 -0.0043003642 0.6378444537 -0.4688685036 0.6384321574 -0.4684391164 0.0589152334 -0.0043970111
320298080.0 0.0587749892 -0.0048422439 0.6320628973 -0.4768144457 0.6326946694 -0.4758781749 0.0586773697 -0.0050327136
325298050.0 0.0578856165 -0.0061984338 0.6273686127 -0.4834550823 0.627252723 -0.4834856595 0.0577049433 -0.0065268435
330298020.0 0.0573000236 -0.007307406 0.6211498419 -0.4912286318 0.6216532934 -0.4909043572 0.0573339954 -0.007450407
335297990.0 0.0571654673 -0.008727598 0.6159279435 -0.4976472628 0.6158767825 -0.49770874 0.0567170515 -0.0077229902
340297960.0 0.0562040264 -0.0089266341 0.6103740986 -0.504638671 0.6094977192 -0.5051628269 0.0569044233 -0.0085694856
345297930.0 0.0558733891 -0.0091378444 0.6042955498 -0.5121488605 0.6043309567 -0.5119879621 0.0563988033 -0.0096225698
350297900.0 0.0549541667 -0.010964504 0.5974701351 -0.5188939585 0.5979582765 -0.518503453 0.0554883939 -0.0099012446
355297870.0 0.0550341822 -0.0103519842 0.5925084507 -0.5253321549 0.5931024596 -0.525009335 0.0552493596 -0.0105949601
360297840.0 0.0546043118 -0.0113098333 0.5877897929 -0.5313085013 0.5871873592 -0.5314310668 0.0550743772 -0.0112862207
365297810.0 0.0538954566 -0.0120386734 0.5808652292 -0.5386193052 0.5812266298 -0.5383041718 0.0547617443 -0.0115904287
370297780.0 0.0542015522 -0.0133490072 0.5745240027 -0.5448368185 0.5752819507 -0.5439871684 0.0540921008 -0.0122440634
375297750.0 0.05386748 -0.0137511268 0.5692484607 -0.5515652425 0.5697406939 -0.5509962437 0.0541410798 -0.0129512202
380297720.0 0.0536979419 -0.0142064343 0.5627127246 -0.5576866921 0.5631480811 -0.5567594259 0.0533864899 -0.0137941523
385297690.0 0.0527972414 -0.0150513213 0.5566598933 -0.5640045448 0.5564558223 -0.5635160754 0.0533542702 -0.0141842697
390297660.0 0.0527764003 -0.0152244536 0.5503903941 -0.5699708661 0.5503399602 -0.569651728 0.0525273193 -0.0152333674
395297630.0 0.0523723663 -0.0159574729 0.5438654399 -0.5759478161 0.5441171421 -0.5764691951 0.0530658065 -0.0155715872
400297600.0 0.0518791431 -0.016834054 0.5369825172 -0.5828014 0.5378844669 -0.5823557743 0.0522005896 -0.0160763832
405297570.0 0.0512121134 -0.0173858206 0.5311966781 -0.5877448115 0.531358361 -0.5877823635 0.051506754 -0.0167956991
410297540.0 0.0515088214 -0.0181054668 0.5253008199 -0.5942815558 0.5255293504 -0.594008998 0.0514308892 -0.017099854
415297510.0 0.0514048487 -0.0186153657 0.5182290052 -0.5999448338 0.5185574956 -0.6000705057 0.0513036832 -0.0176928441
420297480.0 0.051067797 -0.0188923233 0.5116041496 -0.605740687 0.5112530494 -0.6058605204 0.0504261734 -0.0189639917
425297450.0 0.0500799654 -0.0203384903 0.5051227134 -0.6116373991 0.5050427253 -0.6112456604 0.0496756785 -0.0188403036
430297420.0 0.0497589952 -0.0207430628 0.4982163361 -0.6165497128 0.4980912117 -0.6161300251 0.0496362595 -0.0199482879
435297390.0 0.049579155 -0.0212816012 0.4905858923 -0.622799297 0.4907857321 -0.6225057516 0.0501771105 -0.0206522397
440297360.0 0.0494394057 -0.0215489034 0.484273649 -0.6275252356 0.4842094076 -0.6275536496 0.0487373624 -0.0214227525
445297330.0 0.0485712666 -0.0228492792 0.4773491501 -0.6331527055 0.4780862875 -0.632644105 0.0489606724 -0.0222274963
450297300.0 0.0486030184 -0.0232424065 0.4708873671 -0.638264778 0.4703195576 -0.6388559178 0.0484178443 -0.0231497677
455297270.0 0.048257474 -0.0235048571 0.4633199722 -0.6435064105 0.4640877652 -0.6440420472 0.0483905549 -0.023179053
460297240.0 0.0477007757 -0.0242737923 0.4563181995 -0.6486610916 0.4565020355 -0.6489167167 0.0477853784 -0.0237505132
465297210.0 0.0476452732 -0.0249376055 0.4495153673 -0.6539327403 0.4493518624 -0.6544659831 0.0476006015 -0.0244602084
470297180.0 0.0468874778 -0.0255675963 0.4421449711 -0.6585264601 0.4421172946 -0.6589717611 0.0472538702 -0.0247722559
475297150.0 0.0468178328 -0.0263600251 0.434444188 -0.6631479442 0.4347976328 -0.6631924411 0.0469457995 -0.0260283879
480297120.0 0.0459998173 -0.0260183541 0.4276169471 -0.6686743869 0.42715205 -0.6689079753 0.0468426016 -0.0258129091
485297090.0 0.0456310968 -0.0270055842 0.4205601655 -0.6727345659 0.4203400005 -0.6725517947 0.0463142554 -0.026750436
490297060.0 0.0447266382 -0.0278171723 0.4128698726 -0.6780335138 0.4128203972 -0.6774725245 0.0459910473 -0.0266261502
495297030.0 0.0445572849 -0.0280277679 0.4048434319 -0.6818578194 0.405715556 -0.6821015238 0.0452223048 -0.0276530285
500297000.0 0.0440053379 -0.0287461105 0.3973494242 -0.6863955178 0.3973108686 -0.6859658726 0.0452651272 -0.0273282166
505296970.0 0.0439103638 -0.0292946376 0.3904177602 -0.6907236193 0.3899040817 -0.6909212086 0.0445841011 -0.0281231722
510296940.0 0.043220143 -0.0297667723 0.3824326333 -0.6953517123 0.3825331678 -0.6954881372 0.044379332 -0.0281700231
515296910.0 0.0427493623 -0.0297318434 0.3745957068 -0.6993755765 0.3747651382 -0.6992031172 0.0440997025 -0.0285650854
520296880.0 0.0419838323 -0.0303764423 0.3675655824 -0.7039439466 0.367437455 -0.7034646791 0.0434424341 -0.0295550899
525296850.0 0.042286946 -0.0313208718 0.3593037266 -0.7075752845 0.3594644247 -0.7074590014 0.0425787318 -0.0298294305
530296820.0 0.0413013206 -0.0312760297 0.3514622353 -0.7117053445 0.3517854082 -0.7114152968 0.0424089189 -0.0302221675
535296790.0 0.0405923545 -0.0318758174 0.3440200506 -0.715297324 0.3440751988 -0.7148645213 0.0421601624 -0.0307858944
540296760.0 0.0400586257 -0.0317115485 0.3359895443 -0.7193360167 0.3358598696 -0.7192212279 0.0407575706 -0.0306339877
545296730.0 0.0398085978 -0.0325535754 0.3279197852 -0.7225546855 0.3279136553 -0.7225480516 0.0402615609 -0.0311637353
550296700.0 0.0398515293 -0.0326336321 0.3203788923 -0.7260969317 0.320152493 -0.7270364308 0.0400804252 -0.0317545101
555296670.0 0.0385018605 -0.0331887732 0.3122113747 -0.7294375127 0.3121434761 -0.729357306 0.0395011529 -0.0319433318
560296640.0 0.0387911109 -0.0330902517 0.3041442099 -0.7333365758 0.3041510544 -0.7327085483 0.0390003506 -0.0324447211
565296610.0 0.037536812 -0.0339306752 0.2955900888 -0.7366063499 0.2962178014 -0.7364679635 0.0379361782 -0.0330091969
570296580.0 0.0369904668 -0.0338554532 0.2882100292 -0.7404078609 0.2874494801 -0.7390675071 0.0377846267 -0.0328843369
575296550.0 0.0363700156 -0.0341943822 0.2801691709 -0.7430924773 0.2798707701 -0.7428009597 0.0374670463 -0.0334712331
580296520.0 0.0362231011 -0.0348031686 0.2719060529 -0.7459993869 0.2717898059 -0.7459905353 0.0366300724 -0.0339917352
585296490.0 0.0356349226 -0.0358265423 0.2637722323 -0.7486563057 0.2641805187 -0.7485240682 0.0358590775 -0.0340419064
590296460.0 0.0355662926 -0.0353114828 0.2556552018 -0.7505756267 0.2553636878 -0.7512720278 0.0347852996 -0.0345223228
595296430.0 0.0349279589 -0.0356706475 0.2467895442 -0.7548290494 0.2470752639 -0.7541368576 0.035023575 -0.0353520679
600296400.0 0.0339676982 -0.036123785 0.2390496541 -0.7573087003 0.2391063287 -0.7566601903 0.0343340035 -0.0355680309
605296370.0 0.0334755301 -0.0364649307 0.230757984 -0.7592795805 0.2308505116 -0.7593870325 0.0337139052 -0.0356652792
610296340.0 0.033361588 -0.036779045 0.2221118547 -0.7618781822 0.222885357 -0.7619907808 0.033647317 -0.0362349287
615296310.0 0.0328828404 -0.0377287894 0.2137773864 -0.7643598416 0.2135594211 -0.7646637841 0.0331676743 -0.0362367726
620296280.0 0.032105551 -0.038031518 0.2061735951 -0.7661691094 0.2058890562 -0.766721629 0.0323552528 -0.0368644314
625296250.0 0.0313102135 -0.0385657381 0.1980615052 -0.768917123 0.1972591183 -0.7689501761 0.0328235556 -0.0370962372
630296220.0 0.0318679031 -0.0381731162 0.1884099923 -0.7708030955 0.1879422915 -0.7708509508 0.031487753 -0.0370883996
635296190.0 0.0298432188 -0.039187299 0.1804805198 -0.772804304 0.1806942932 -0.7727706511 0.0310925418 -0.0375904447
640296160.0 0.0294216434 -0.0389927391 0.1717314265 -0.7747884093 0.1724589924 -0.7749594832 0.0306526479 -0.0378330973
645296130.0 0.0289830135 -0.0391561304 0.1630218126 -0.775932736 0.1637450754 -0.776673822 0.0301154192 -0.0379738712
650296100.0 0.028560911 -0.039485665 0.1548534541 -0.7778699009 0.155286949 -0.7785174356 0.0298736885 -0.0392533143
655296070.0 0.0275878791 -0.0400194035 0.1462784774 -0.7799094707 0.1468977623 -0.7800710371 0.0295146901 -0.0385733554
660296040.0 0.0265855514 -0.0403838705 0.1379285098 -0.7815621042 0.1384126477 -0.7816076416 0.0288622018 -0.0387965022
665296010.0 0.0268710248 -0.0402974644 0.1289570979 -0.7828339293 0.1292397181 -0.7829405405 0.028380007 -0.0385245323
670295980.0 0.0250944945 -0.0403553375 0.1211027399 -0.7845169834 0.1206798454 -0.7842515024 0.0272296115 -0.0387832281
675295950.0 0.0252212856 -0.0403906695 0.112705154 -0.7856385327 0.1124899203 -0.7850229626 0.0267793923 -0.0390977786
680295920.0 0.0241363315 -0.0411768677 0.1034185718 -0.7860431436 0.1035379908 -0.7873802001 0.026237524 -0.0385128256
685295890.0 0.0238248631 -0.0403141788 0.0950212465 -0.7876404662 0.0951399747 -0.7877021571 0.0255099036 -0.0389691992
690295860.0 0.0237969748 -0.0407537747 0.086650307 -0.788183924 0.0863789228 -0.7889195477 0.0247950198 -0.0386689618
695295830.0 0.0228885482 -0.0410747385 0.0786220053 -0.78916163 0.0778343737 -0.7894278204 0.0243852027 -0.0390889056
700295800.0 0.0222074489 -0.041717717 0.0691252428 -0.7898878073 0.0691779304 -0.7895623127 0.0236978447 -0.0383611534
705295770.0 0.0214772075 -0.0406478458 0.0608436633 -0.7908922711 0.0609539673 -0.7912572159 0.0229073662 -0.0390222437
710295740.0 0.0212730189 -0.0413474082 0.0521070578 -0.792401615 0.0530442548 -0.7921394034 0.022565031 -0.0396703302
715295710.0 0.0197028863 -0.0418101096 0.04412691 -0.7920958783 0.0434710443 -0.792051481 0.0222838664 -0.0398372914
720295680.0 0.0199622677 -0.0416064961 0.0352714624 -0.7924855275 0.0353821089 -0.7923891086 0.0214061001 -0.0390014179
725295650.0 0.0192774705 -0.0417631696 0.0262305111 -0.7933884073 0.0263208795 -0.793367402 0.0201096081 -0.0393060593
730295620.0 0.0189639295 -0.0412422689 0.0174594331 -0.7926775463 0.0177018142 -0.7928675421 0.0193568436 -0.0400585891
735295590.0 0.0178047578 -0.041488112 0.0093501947 -0.7932344099 0.0089611031 -0.7933006736 0.0186982227 -0.0401588864
740295560.0 0.0170480013 -0.041774749 0.0003867927 -0.7931983788 0.0004891084 -0.7931474781 0.0189371632 -0.039857563
745295530.0 0.0167149918 -0.041327707 -0.0082360315 -0.7925963064 -0.0081681537 -0.7932317835 0.0184383049 -0.0400763868
750295500.0 0.0162200709 -0.0417844012 -0.0168792519 -0.7926634836 -0.0164573064 -0.793231128 0.017464966 -0.0403527494
755295470.0 0.0158381446 -0.0421327706 -0.025099544 -0.7926027692 -0.0250829241 -0.792823798 0.0174079135 -0.0406144838
760295440.0 0.0148855354 -0.0417754125 -0.0338689307 -0.7927128722 -0.0340236749 -0.7930291411 0.0162704733 -0.0405681177
765295410.0 0.0142463775 -0.0420064157 -0.0428969623 -0.792137512 -0.0430560892 -0.7924065853 0.0161366663 -0.0403866431
770295380.0 0.0131317663 -0.0423562033 -0.0511306826 -0.7921271141 -0.0514572006 -0.7917808439 0.0149787327 -0.0408412213
775295350.0 0.0128185947 -0.0427363749 -0.0605330303 -0.7904638042 -0.0599242849 -0.7908878849 0.0136663955 -0.0401988086
780295320.0 0.0124810143 -0.0421948679 -0.0687436507 -0.7901788321 -0.0679332521 -0.7898907183 0.0137124409 -0.0410211539
785295290.0 0.0116102772 -0.0427500663 -0.0771504891 -0.7885364295 -0.0771908078 -0.7893180547 0.0137016219 -0.0406293596
790295260.0 0.0114428738 -0.0414101794 -0.0852638176 -0.7881143272 -0.0848004759 -0.7882889819 0.0128372449 -0.0406876926
795295230.0 0.0105327435 -0.0423994892 -0.0938721073 -0.7873208619 -0.0936263699 -0.7876290099 0.0126021628 -0.0403801617
800295200.0 0.0095850273 -0.0418899716 -0.103300608 -0.7860124138 -0.1025630287 -0.7859196916 0.0118463483 -0.0411542851
805295170.0 0.0090040559 -0.0423245853 -0.1112794478 -0.7848127754 -0.1109641248 -0.7854586991 0.011497018 -0.0406215188
810295140.0 0.0082603249 -0.0426851536 -0.1192119583 -0.7832395153 -0.1198438662 -0.7836849183 0.0113196516 -0.0403118185
815295110.0 0.0081692965 -0.0429295417 -0.1281028994 -0.781849092 -0.1277903858 -0.7825468266 0.0100746181 -0.0402746396
820295080.0 0.0067784749 -0.0416969984 -0.1368999821 -0.7804296644 -0.1363297982 -0.781001298 0.0093562558 -0.0406474694
825295050.0 0.0071354611 -0.0420037749 -0.144775518 -0.7787086889 -0.1448826784 -0.779962609 0.0096037428 -0.0398890404
830295020.0 0.0059677148 -0.0417628281 -0.1541118404 -0.7769288177 -0.1539201181 -0.7770711972 0.0094208048 -0.0402246269
