!Created with skrf (http://scikit-rf.org).
# Hz S RI R 50.0 
!freq ReS11 ImS11 ReS21 ImS21 ReS12 ImS12 ReS22 ImS22
300000.0 -0.2358737481 -0.1214441857 0.4657340852 0.0799120761 0.4658558223 0.0818051359 -0.2347371852 -0.1293170565
5299970.0 -0.244719245 0.0053668819 0.4732923959 0.0056563154 0.4739980017 0.0060508173 -0.2435841755 0.0049165241
10299940.0 -0.2418453653 0.0186277948 0.4761693885 0.0067441653 0.4756757723 0.0074110733 -0.2401109865 0.0178983623
15299910.0 -0.2369109004 0.0282207827 0.4793682424 0.0081591034 0.4796530104 0.0084204036 -0.2362186126 0.0272949004
20299880.0 -0.2317584923 0.036309391 0.4841580185 0.0082509857 0.4844689697 0.0084266014 -0.2311482078 0.0355369931
25299850.0 -0.2255983808 0.0426787336 0.4893430535 0.0079210238 0.4899851756 0.0078986274 -0.2260665042 0.0417795735
30299820.0 -0.2200826684 0.0480639911 0.4950596241 0.0055251933 0.4950687297 0.0052509744 -0.2208601647 0.0470287561
35299790.0 -0.2143655896 0.0517355193 0.5001063546 0.0027525935 0.5006758817 0.0023369892 -0.2156462956 0.0514406511
40299760.0 -0.2092417997 0.0547963274 0.505658195 -0.0015690794 0.5058478591 -0.0016405377 -0.2107611111 0.0547717362
45299730.0 -0.2040911904 0.0571996038 0.5104126263 -0.0055934331 0.5105670428 -0.0062327052 -0.2055644982 0.0577612286
50299700.0 -0.1991262935 0.0589908043 0.5145705625 -0.0117055054 0.5148960452 -0.0121337643 -0.2012752081 0.0601345487
55299670.0 -0.1949014965 0.0606451555 0.5181598125 -0.017394798 0.5185517881 -0.0179030068 -0.1975834958 0.0618087261
60299640.0 -0.1907129 0.0617657351 0.5216086057 -0.0240157601 0.5218794513 -0.0244044655 -0.1935202789 0.0635683972
65299610.0 -0.1874038179 0.0626736451 0.5248013195 -0.029816588 0.5248037 -0.0305967755 -0.1898708705 0.0646557424
70299580.0 -0.1840402434 0.0630265914 0.5273305849 -0.0365704472 0.5271779765 -0.0369183299 -0.1872724186 0.0657771137
75299550.0 -0.181111285 0.0636379772 0.5288897367 -0.0437519758 0.5293353192 -0.0438500191 -0.1841654074 0.0672310691
80299520.0 -0.1782664922 0.0645264677 0.5310191695 -0.0509401335 0.5313161311 -0.0508360974 -0.1814415929 0.0680883164
85299490.0 -0.1759168265 0.0649798844 0.5322268126 -0.0577014419 0.5323939355 -0.0577531779 -0.1793161825 0.0688420906
90299460.0 -0.173601626 0.0654112042 0.5333010937 -0.0642850541 0.5331888515 -0.0644760734 -0.1768094983 0.0699007135
95299430.0 -0.1714185715 0.0657122049 0.5342364701 -0.0713650386 0.5350117221 -0.0716420614 -0.1749467451 0.0706734042
100299400.0 -0.1693836686 0.0661244492 0.5344378217 -0.0782851866 0.5349693512 -0.0784076426 -0.1730497621 0.0716249818
105299370.0 -0.1674780891 0.0665924582 0.534797406 -0.0853167274 0.5352931947 -0.0854114387 -0.1710168807 0.0720583674
110299340.0 -0.1656702718 0.0669790484 0.5347277143 -0.0918830493 0.5355289281 -0.0920026531 -0.1697646319 0.0728515021
115299310.0 -0.1645238631 0.0677498221 0.5349534044 -0.0985760459 0.5352850273 -0.0986191481 -0.1686280022 0.0743916665
120299280.0 -0.1635178857 0.0680917208 0.5354956416 -0.1062552337 0.5349851823 -0.1060054189 -0.1668084125 0.0747882451
125299250.0 -0.1617029721 0.0687023152 0.5344823294 -0.1124847795 0.534758396 -0.1125515429 -0.1653108134 0.0759649721
130299220.0 -0.1605810392 0.0690714512 0.5339266292 -0.1193600238 0.533779023 -0.1195943313 -0.163858933 0.0769414261
135299190.0 -0.1595876524 0.0702217765 0.5338739917 -0.1257752666 0.5339790003 -0.1260190682 -0.1628047592 0.0777542196
140299160.0 -0.158576026 0.0707402968 0.5326436806 -0.1329376574 0.5327391433 -0.1323521504 -0.1623545965 0.0788640751
145299130.0 -0.157859315 0.0716653255 0.5316277043 -0.1392475143 0.5317110754 -0.1390927916 -0.1608886777 0.0799239491
150299100.0 -0.1565681327 0.0726911845 0.5304636477 -0.1458816517 0.5305120786 -0.1460521868 -0.1597386173 0.0811806904
155299070.0 -0.1557658367 0.073389242 0.5289873484 -0.1519438753 0.5291249172 -0.1524199191 -0.1585184187 0.0821528799
160299040.0 -0.1549217085 0.0746431541 0.5282490727 -0.1586137116 0.5281538216 -0.1589744891 -0.1578576037 0.0837087597
165299010.0 -0.1537612803 0.075260115 0.5266058087 -0.1651115104 0.5265003566 -0.1647956423 -0.1567395487 0.0842887437
170298980.0 -0.1531691086 0.0763164963 0.5247815855 -0.171378329 0.5250345771 -0.1717059379 -0.1558009184 0.085939904
175298950.0 -0.1521937522 0.0774139044 0.5237069044 -0.1777914457 0.5235434478 -0.1784806711 -0.1550794287 0.0875601035
180298920.0 -0.1514667626 0.0784916416 0.5216264045 -0.1841025098 0.5216508689 -0.1845090284 -0.1540774798 0.0886986611
185298890.0 -0.1506643588 0.079680353 0.5202120444 -0.1906372456 0.5198500574 -0.190059464 -0.1528228298 0.0896097233
190298860.0 -0.1498605121 0.0808885174 0.5173961411 -0.1962924755 0.5181891672 -0.1965002677 -0.1521189208 0.0911244988
195298830.0 -0.1491969747 0.0820192609 0.5159518956 -0.2025021596 0.516548827 -0.2025774174 -0.1510802236 0.0925197715
200298800.0 -0.147964833 0.0828566004 0.5137640068 -0.2094099922 0.5139300078 -0.2088974424 -0.1501399238 0.0935891979
205298770.0 -0.1478555454 0.0840268019 0.5115195954 -0.2148998057 0.5120183455 -0.2145984611 -0.1492866389 0.0951822081
210298740.0 -0.1469234215 0.0853384562 0.5095329661 -0.2207461118 0.5094208159 -0.2208761624 -0.1484224359 0.096272189
215298710.0 -0.1460821327 0.0866557135 0.5063560249 -0.226505964 0.5069248843 -0.2268801807 -0.1474079611 0.0978129161
220298680.0 -0.1451717084 0.087687054 0.5042276951 -0.2327221758 0.5044837967 -0.232903217 -0.1462214875 0.0991828774
225298650.0 -0.1443736425 0.089164955 0.5019989089 -0.2383407905 0.5022069917 -0.2382919834 -0.1456296999 0.1000854598
230298620.0 -0.1436353184 0.0904106608 0.4997674341 -0.2443586388 0.4997635535 -0.2443788449 -0.144419619 0.1020046637
235298590.0 -0.1431693873 0.0920497429 0.4968311243 -0.2507135105 0.4973409954 -0.2500420945 -0.1435579218 0.1034959105
240298560.0 -0.1421322573 0.0931622212 0.4939815148 -0.256012034 0.4941903038 -0.2557428121 -0.1425282962 0.1045902884
245298530.0 -0.1414934039 0.0942233897 0.4912429032 -0.2614354104 0.491595374 -0.261529321 -0.1415961779 0.1061252342
250298500.0 -0.1408679948 0.0955258212 0.4890903995 -0.2671845014 0.4887768968 -0.2670132204 -0.1404241582 0.1077724376
255298470.0 -0.1399251538 0.0971526225 0.4859248414 -0.2721730306 0.4862813223 -0.2729574569 -0.1393990318 0.1091603804
260298440.0 -0.1390393862 0.0982783237 0.4829743986 -0.277719496 0.4831679994 -0.2780707017 -0.1384549401 0.1103095776
265298410.0 -0.1385446888 0.0996759335 0.4801446007 -0.2839713782 0.4799045217 -0.2840254795 -0.1365782674 0.1117890754
270298380.0 -0.1378831226 0.1010719038 0.4767874642 -0.288968552 0.4770990901 -0.2890479533 -0.1357025514 0.113604229
275298350.0 -0.1367989695 0.1025365175 0.4734601784 -0.2944413425 0.4736323385 -0.2946327066 -0.1346896078 0.115184909
280298320.0 -0.1362679236 0.1036168286 0.4706777365 -0.2989455439 0.4709213535 -0.2997902954 -0.1334370703 0.1165084151
285298290.0 -0.1353381685 0.1050455032 0.4670638265 -0.3050557875 0.4678373896 -0.3048191914 -0.1327632677 0.1181214618
290298260.0 -0.1343486994 0.1066419256 0.4646228594 -0.3103295187 0.4643452266 -0.3106295736 -0.1311351357 0.1193765003
295298230.0 -0.1334577099 0.1075443784 0.4606369732 -0.3160146797 0.4610094123 -0.3160845839 -0.1299989726 0.1206179351
300298200.0 -0.1323241274 0.1092246982 0.4575781889 -0.3211433124 0.4572668904 -0.3207082707 -0.1286840168 0.1221303455
305298170.0 -0.1315239248 0.1098450508 0.45392308 -0.3260583412 0.454396296 -0.3265645669 -0.1274209407 0.1232417432
310298140.0 -0.1300344504 0.1111248704 0.4503673662 -0.3313335821 0.4507565138 -0.3309974873 -0.1259108452 0.1244738062
315298110.0 -0.1296568141 0.1122136087 0.4466959071 -0.336935153 0.4468261443 -0.3368726224 -0.1246977278 0.1259911135
320298080.0 -0.1286160784 0.1136501141 0.4424173207 -0.3419322064 0.4435151682 -0.3423240654 -0.1234686497 0.1270229492
325298050.0 -0.1281441739 0.114650596 0.4388037889 -0.3468097379 0.4394366654 -0.3471987387 -0.1219968571 0.1285262113
330298020.0 -0.1276824149 0.1161784396 0.4348594781 -0.3518967207 0.4356224284 -0.3523594995 -0.1215199434 0.1297144878
335297990.0 -0.1263608927 0.1173486374 0.4310689995 -0.3568152006 0.4312761076 -0.3568123056 -0.1200575566 0.1312060085
340297960.0 -0.1259568464 0.1188193678 0.4270645573 -0.3614028819 0.4269425333 -0.3617826805 -0.1186910651 0.1327127993
345297930.0 -0.1253427666 0.1198549791 0.4229409681 -0.366293527 0.4228283042 -0.3663644921 -0.1172629182 0.1339605104
350297900.0 -0.1241753466 0.1211797859 0.4191148104 -0.3704849509 0.4193084136 -0.37064444 -0.1163736719 0.13502078
355297870.0 -0.1229615895 0.1223824247 0.4145225571 -0.3748015207 0.4150275147 -0.374875532 -0.1145780235 0.1365475863
360297840.0 -0.1221685759 0.124005985 0.4103743127 -0.3798641756 0.4106084791 -0.3798373401 -0.1131936709 0.1381060633
365297810.0 -0.1209899256 0.1252592131 0.4063947445 -0.3847741985 0.4064011539 -0.3846744473 -0.1121336296 0.1393060784
370297780.0 -0.1199790358 0.1263939901 0.4015371388 -0.3889985836 0.4023916072 -0.3890113643 -0.1105905977 0.1409985641
375297750.0 -0.1190017491 0.1279582778 0.3980828249 -0.3933240316 0.39818764 -0.393417911 -0.1089840432 0.1422970119
380297720.0 -0.1182053822 0.1294187167 0.3941159798 -0.3978188279 0.3934678966 -0.397794327 -0.1072467072 0.1436325779
385297690.0 -0.1169890484 0.1303036819 0.3891486722 -0.401851231 0.3893012854 -0.4026989372 -0.1058004762 0.1454116847
390297660.0 -0.1159006674 0.1314203423 0.3848628915 -0.4057364141 0.3849663849 -0.4061727631 -0.1043451284 0.1460128855
395297630.0 -0.1143407111 0.1324973088 0.3803800063 -0.4096059556 0.3802626666 -0.4099640073 -0.1026634861 0.1471603968
400297600.0 -0.1138379307 0.1341121264 0.3758754028 -0.4146873249 0.3761647321 -0.414465716 -0.1010825902 0.14928696
405297570.0 -0.1123793396 0.1346444932 0.3715017622 -0.4185539929 0.371417076 -0.4189052775 -0.0994905951 0.1504691323
410297540.0 -0.1110291938 0.1363807028 0.3669329269 -0.4228414053 0.3666323141 -0.4226038011 -0.0979145348 0.1513888296
415297510.0 -0.1100214166 0.1375300422 0.3617725585 -0.4268771506 0.3623734257 -0.4267636879 -0.0960381405 0.1526129759
420297480.0 -0.1085992239 0.1381880197 0.3574069196 -0.4308765064 0.3577991271 -0.4307219567 -0.0941139842 0.1540141407
425297450.0 -0.1071414534 0.1395294205 0.352764494 -0.4343045237 0.3528306101 -0.4346867768 -0.0928607414 0.1548129244
430297420.0 -0.1061555464 0.1407672777 0.3486089907 -0.4382927327 0.3485295851 -0.4378615911 -0.090886601 0.1560427589
435297390.0 -0.1047845388 0.1416563457 0.3430558762 -0.4427629854 0.3430466436 -0.4421365286 -0.0896046835 0.1576810753
440297360.0 -0.1031561317 0.1427637745 0.3379661211 -0.4459615829 0.3383201142 -0.4459378766 -0.0877449899 0.1584344105
445297330.0 -0.1018112426 0.1434175655 0.3332775514 -0.4492056544 0.333405486 -0.4501114089 -0.0857918293 0.160050201
450297300.0 -0.1004822583 0.1446648946 0.3284572452 -0.4529127066 0.3287451185 -0.4529152786 -0.0838588478 0.1609569727
455297270.0 -0.0995939839 0.1457554009 0.3236375215 -0.4564172016 0.3237969901 -0.4566086815 -0.0822681074 0.1618268373
460297240.0 -0.0978979824 0.1470716065 0.3184962383 -0.4606847071 0.3182448763 -0.4604289851 -0.0806325971 0.1627254012
465297210.0 -0.0966439567 0.1478029942 0.3133698943 -0.4639539483 0.3127612829 -0.4639071473 -0.0785010684 0.164322752
470297180.0 -0.0950236875 0.1489991423 0.3078092317 -0.4668703582 0.3083213749 -0.4670806195 -0.0764276463 0.165080023
475297150.0 -0.0937312667 0.1504660895 0.3033016297 -0.4702301417 0.3034162838 -0.4707406911 -0.0748609888 0.1660686915
480297120.0 -0.0918061488 0.1514791818 0.2979940401 -0.4735100417 0.2983535964 -0.473774032 -0.0732843217 0.1672641835
485297090.0 -0.0906852319 0.1518902097 0.2928104346 -0.4771608346 0.2926311315 -0.4766806224 -0.0715287169 0.1682591575
490297060.0 -0.0886495634 0.1531257645 0.2871087999 -0.4804318609 0.2875585929 -0.4800931307 -0.06962402 0.1688493735
495297030.0 -0.0876018635 0.1536189447 0.2824267447 -0.48358181 0.2824420759 -0.4834562925 -0.0674507985 0.1698323165
500297000.0 -0.0862185414 0.1549321959 0.2772199977 -0.4861542998 0.2770334337 -0.4865133889 -0.065686746 0.1711690843
505296970.0 -0.0842418097 0.1557895778 0.2718352317 -0.4895967643 0.271929698 -0.4891684725 -0.0634316443 0.1709778734
510296940.0 -0.0828473279 0.1566685008 0.2668879581 -0.4925103589 0.2666277125 -0.4927478614 -0.0614701613 0.1725010669
515296910.0 -0.0812619773 0.1579658893 0.2608731469 -0.4950239726 0.2605699957 -0.4950229822 -0.0598175915 0.1728513275
520296880.0 -0.0797167735 0.1586733541 0.2556335797 -0.4977983003 0.2554665694 -0.4977085321 -0.0572387219 0.1742941884
525296850.0 -0.0780119246 0.1594072807 0.2498208327 -0.5003429867 0.2498300777 -0.5003371196 -0.0556998463 0.174791261
530296820.0 -0.0765801688 0.1602400608 0.2443892556 -0.5029565426 0.2444495014 -0.5030945051 -0.0536076309 0.1753258371
535296790.0 -0.0743396621 0.1614387395 0.2389102056 -0.5055992058 0.2393708132 -0.5056986742 -0.0514975734 0.1763761143
540296760.0 -0.0729059818 0.1626626013 0.233394097 -0.5085343729 0.2335459549 -0.5083025824 -0.0497119073 0.1764958859
545296730.0 -0.0718466571 0.1633464052 0.2284042913 -0.5105108388 0.2274359848 -0.5104027393 -0.0473264099 0.1776797981
550296700.0 -0.0694107355 0.1641679614 0.2223625703 -0.5134518175 0.2218364665 -0.513252195 -0.045469276 0.1782892123
555296670.0 -0.068289879 0.1645904698 0.2169623423 -0.5157341246 0.2167957178 -0.5156548109 -0.0437128087 0.1784182601
560296640.0 -0.066024645 0.1656955893 0.2108499204 -0.5177797326 0.2111915871 -0.5178312468 -0.0414622165 0.1797029677
565296610.0 -0.0647631916 0.1664942695 0.2058290668 -0.5202902665 0.2056905207 -0.5197250449 -0.0395094118 0.1802994142
570296580.0 -0.0630653333 0.1673938096 0.1996618278 -0.5222039344 0.1997993178 -0.5222520873 -0.0375662069 0.1804474232
575296550.0 -0.0611553746 0.1680030261 0.194546869 -0.5244647785 0.1941032018 -0.524250813 -0.0357338356 0.1809758856
580296520.0 -0.0596179629 0.169044416 0.1880990438 -0.5263591033 0.1882711851 -0.5268413281 -0.0337644205 0.1815848746
585296490.0 -0.0575744621 0.1698780435 0.1831373949 -0.5282091292 0.1825104076 -0.5284002477 -0.0311123029 0.182213982
590296460.0 -0.0554808647 0.1705956487 0.1770507587 -0.5305636331 0.1768315583 -0.5306246039 -0.0296326607 0.1826577872
595296430.0 -0.0540294882 0.1711518576 0.170707359 -0.5321039924 0.1708843922 -0.532282825 -0.0274845237 0.1827204276
600296400.0 -0.0520022456 0.1719870395 0.1648889912 -0.5336959891 0.1645898239 -0.5338273054 -0.0252637679 0.1833609024
605296370.0 -0.0506386232 0.1729440159 0.1599841616 -0.5357521414 0.1590517842 -0.5357996245 -0.0231990799 0.1839467072
610296340.0 -0.0484795398 0.1737484101 0.1534850803 -0.5369162716 0.1540985782 -0.5371990094 -0.021517028 0.1843020087
615296310.0 -0.0467370883 0.1742387549 0.1479725114 -0.5392524365 0.1472581769 -0.5391639994 -0.0190350033 0.1847056121
620296280.0 -0.0454925822 0.1751107445 0.1420664733 -0.5403175478 0.1414842328 -0.5406038767 -0.0172948986 0.1853063182
625296250.0 -0.0437276316 0.1755085303 0.1360796686 -0.5418530867 0.1360713769 -0.5420125284 -0.0156798058 0.1852993847
630296220.0 -0.0420326591 0.1763798487 0.1301078586 -0.5436993365 0.1297264128 -0.5432071342 -0.0131432048 0.1856804284
635296190.0 -0.0402772679 0.1772107354 0.1243541097 -0.5446743274 0.1242953252 -0.5443688091 -0.011216766 0.1860414475
640296160.0 -0.0385564076 0.1777538673 0.1184060109 -0.546225065 0.1180212622 -0.5460944405 -0.0089692428 0.1859969251
645296130.0 -0.036539671 0.1787775057 0.112259369 -0.5471800421 0.1123553562 -0.5470908902 -0.0070981677 0.1859836705
650296100.0 -0.0346181378 0.1789495921 0.1065698902 -0.5485931663 0.1062601415 -0.5487269167 -0.0042126055 0.186647875
655296070.0 -0.0329356805 0.1794995584 0.1001413176 -0.5495456907 0.1005487578 -0.5492493199 -0.0030042745 0.1867853084
660296040.0 -0.0312412201 0.1803545359 0.0947344677 -0.5507510965 0.0944096398 -0.5507534399 -0.0006215733 0.18673451
665296010.0 -0.0294023587 0.1806554782 0.0881069139 -0.5511259236 0.0885954145 -0.5514136714 0.0014679153 0.1870073479
670295980.0 -0.0276966035 0.1815692134 0.0827758043 -0.5523893058 0.0822845307 -0.5520462279 0.0033624876 0.1871849581
675295950.0 -0.0258694306 0.1817592017 0.0768296854 -0.5525848944 0.0768992164 -0.5533023236 0.0050427425 0.1874697141
680295920.0 -0.0243661714 0.1825235342 0.0708506115 -0.55336316 0.0706033487 -0.5536428094 0.007586199 0.1870562426
685295890.0 -0.022157561 0.1832617744 0.0643120006 -0.5545609654 0.0645217673 -0.5546124254 0.0097808465 0.1875838603
690295860.0 -0.0209912526 0.1835650365 0.0587195147 -0.5552839855 0.0584477089 -0.5554066006 0.0115913052 0.1871459892
695295830.0 -0.0185468233 0.1839854866 0.05304515 -0.5556351427 0.0526881815 -0.5555465974 0.0137693866 0.1875037553
700295800.0 -0.0168493598 0.1843568972 0.046972977 -0.5561336964 0.0467792285 -0.5560610645 0.0160754977 0.1874884893
705295770.0 -0.0154360192 0.1848123972 0.0407060225 -0.5567293053 0.040449497 -0.5568746143 0.0177649114 0.1878693836
710295740.0 -0.0138365015 0.1850040595 0.0354530083 -0.5568117054 0.034753625 -0.5573041082 0.0202754132 0.1877618747
715295710.0 -0.0118602182 0.1858688157 0.0290287273 -0.5574980531 0.0284447458 -0.5576103295 0.0222218208 0.187479222
720295680.0 -0.0096512575 0.1860103623 0.0228795454 -0.5573015987 0.0227733786 -0.558037354 0.0242259882 0.1872272472
725295650.0 -0.0084401731 0.1863840637 0.017161637 -0.5573747189 0.0167235925 -0.5577367945 0.0259042583 0.1875113364
730295620.0 -0.0071938851 0.1864203548 0.0108823603 -0.5576216177 0.0106562931 -0.5574794424 0.0280839122 0.1876151437
735295590.0 -0.0051713876 0.1874390197 0.0048876785 -0.5578604675 0.0046486249 -0.5579000177 0.0300044351 0.1868594096
740295560.0 -0.0037055607 0.1871509231 -0.0007448823 -0.5579636377 -0.0009980753 -0.5581398627 0.0320412359 0.1870398122
745295530.0 -0.0016532791 0.1876538298 -0.0069001717 -0.5570122957 -0.0064884217 -0.557732183 0.0339243789 0.1868816003
750295500.0 -0.0002602052 0.1882192163 -0.0127364444 -0.5576515362 -0.0133378603 -0.5575687545 0.0359042271 0.1863708032
755295470.0 0.0017761294 0.188221889 -0.0189505393 -0.5575977557 -0.0191002261 -0.5577240241 0.0384893271 0.1866040779
760295440.0 0.0034225904 0.1889767088 -0.0255258107 -0.5575502797 -0.0252421279 -0.5568068141 0.0403806179 0.1853640083
765295410.0 0.0054539807 0.1883525024 -0.0307442641 -0.5566971367 -0.0307439293 -0.5569552409 0.042258075 0.1858612958
770295380.0 0.0068023933 0.1891180596 -0.0366606829 -0.5564017214 -0.0369973793 -0.5572090843 0.0440741727 0.1854016424
775295350.0 0.0086638829 0.1888736894 -0.0430218394 -0.5560454869 -0.0429789701 -0.5555128705 0.0465530173 0.1851520861
780295320.0 0.010483564 0.1892727648 -0.0487162589 -0.5552136819 -0.0486719343 -0.5557626647 0.0485721309 0.1844143973
785295290.0 0.0120815249 0.1891808531 -0.0546311683 -0.5548341518 -0.05466032 -0.5552000533 0.0501084608 0.1847572888
790295260.0 0.0139067331 0.1892045039 -0.0605340646 -0.5545444446 -0.0604565287 -0.5545951092 0.0520290434 0.1844260163
795295230.0 0.0153900877 0.1891279261 -0.0664212027 -0.5536664237 -0.0666861943 -0.5539689872 0.0543599168 0.1833745162
800295200.0 0.0171072609 0.1896481495 -0.0721092606 -0.5523624466 -0.0728362097 -0.5530793585 0.0563278333 0.1832544262
805295170.0 0.018707766 0.1895449466 -0.0781024624 -0.5520986625 -0.0785476238 -0.5523291937 0.0588578076 0.1827807129
810295140.0 0.0207729664 0.1896243847 -0.0838345083 -0.551176985 -0.084247738 -0.5509885394 0.0606850309 0.1823076456
815295110.0 0.0222893304 0.1898119983 -0.0905384383 -0.5503252017 -0.0898966689 -0.5506527731 0.0623089356 0.1817189124
820295080.0 0.0241962576 0.1896197034 -0.0955635537 -0.5485241378 -0.0957356927 -0.5495641219 0.063635229 0.1818141603
825295050.0 0.0257505688 0.1893719522 -0.1020242392 -0.5479900551 -0.1020077716 -0.5479565656 0.0665132577 0.1809762036
830295020.0 0.0274852871 0.1894697062 -0.1078806008 -0.5467070735 -0.108082515 -0.5471578758 0.0682546738 0.1799433363
