!Created with skrf (http://scikit-rf.org).
# Hz S RI R 50.0 
!freq ReS11 ImS11 ReS21 ImS21 ReS12 ImS12 ReS22 ImS22
300000.0 -0.321986495 -0.0696196608 0.3773988868 0.038267017 0.373244207 0.0350919025 -0.3225927395 -0.0867197504
5299970.0 -0.3267594348 0.0045771855 0.3783129104 0.0021066575 0.3787156041 0.0027756388 -0.3243721653 0.0050936524
10299940.0 -0.3245252463 0.0134072063 0.3797089799 0.0018812445 0.3794873078 0.0021007888 -0.3223973246 0.0160431062
15299910.0 -0.321702461 0.0204849283 0.3817867593 0.0020085338 0.381961534 0.0019899962 -0.3186744381 0.0236220958
20299880.0 -0.318689321 0.0261849245 0.3847363739 0.0017489787 0.385109959 0.001539741 -0.3152250866 0.0301832887
25299850.0 -0.3159313776 0.0316223754 0.3884146261 -1.71859e-05 0.3880759159 0.0003403718 -0.3113070777 0.0356562022
30299820.0 -0.3130739581 0.0357412004 0.3917549644 -0.0020745407 0.3913397429 -0.0019997781 -0.3074923631 0.0407164665
35299790.0 -0.3098803125 0.0398349719 0.3947216491 -0.005310262 0.3951098698 -0.0054533931 -0.3041502273 0.044849428
40299760.0 -0.307421968 0.0435321449 0.3981144559 -0.0088771132 0.3981504001 -0.0087327808 -0.3004680633 0.0480585049
45299730.0 -0.304757582 0.0464975341 0.4008292797 -0.0128353954 0.4008810095 -0.0126563873 -0.2975511263 0.0516358464
50299700.0 -0.3025368805 0.0495310133 0.4038755022 -0.0171952508 0.4035704261 -0.0171582118 -0.2942832872 0.0540720453
55299670.0 -0.3003541975 0.0521780248 0.4055172076 -0.0223634072 0.405554387 -0.022067752 -0.2919189233 0.0568920785
60299640.0 -0.2980355505 0.0548244384 0.4075172404 -0.0271465913 0.4075916986 -0.0267001102 -0.2889144462 0.0594233315
65299610.0 -0.2962985126 0.0570785625 0.4090983351 -0.0319080946 0.4092569289 -0.0317049541 -0.2870471527 0.0613592023
70299580.0 -0.2946443653 0.0599633236 0.4104393153 -0.037113307 0.4107477241 -0.0368075456 -0.2849568292 0.0636169274
75299550.0 -0.2930395889 0.062374051 0.4115595786 -0.0419853364 0.4113130896 -0.042183557 -0.2829626615 0.0657884822
80299520.0 -0.2912732393 0.0649488126 0.4125695095 -0.047694603 0.4126021444 -0.0473862857 -0.2814930697 0.0680775827
85299490.0 -0.2900815954 0.0668847621 0.4127574845 -0.052489561 0.4131014187 -0.0522948813 -0.2799410129 0.0699469763
90299460.0 -0.2886672233 0.0694097789 0.4130733936 -0.0579973468 0.4133845394 -0.0577319667 -0.2782764368 0.0718046677
95299430.0 -0.2874067681 0.071519196 0.4139283062 -0.0629334679 0.4134232991 -0.0631437219 -0.276369442 0.0744607885
100299400.0 -0.2861569012 0.0738844586 0.4130860605 -0.0680422369 0.4132833514 -0.0681990827 -0.2749835349 0.0762484929
105299370.0 -0.2850667133 0.0761123681 0.4132158487 -0.0733749803 0.4137699937 -0.0735165663 -0.2737478001 0.078362637
110299340.0 -0.2842811841 0.0784975937 0.4136530983 -0.0782862694 0.4131964878 -0.0782213115 -0.2728803873 0.0803519534
115299310.0 -0.2831439028 0.0810792668 0.4130588276 -0.0836375325 0.412927882 -0.0836876524 -0.2715102994 0.0827016468
120299280.0 -0.2821626566 0.083005299 0.4125875432 -0.088724503 0.4126954901 -0.0888868806 -0.2704666061 0.0849282588
125299250.0 -0.2811457829 0.0852323393 0.412012804 -0.0938085965 0.4121665695 -0.0937079841 -0.2697594213 0.0864579327
130299220.0 -0.2805070612 0.0881625817 0.4115461604 -0.098875158 0.4112666837 -0.0987266738 -0.2685599635 0.0890585119
135299190.0 -0.2792791915 0.0905548149 0.4106376288 -0.1036791 0.4106331013 -0.1038826086 -0.267441949 0.091066189
140299160.0 -0.2784762963 0.0931173403 0.4099719576 -0.1088442548 0.4099812843 -0.1093181911 -0.2667476702 0.0938401135
145299130.0 -0.2775148236 0.0958067095 0.4091611297 -0.1142126016 0.4085003634 -0.1138311714 -0.2656198935 0.0960498599
150299100.0 -0.2763792678 0.0982578849 0.4077879405 -0.1183820353 0.4080425472 -0.1183208874 -0.2648152516 0.0990533236
155299070.0 -0.2758419055 0.1006826177 0.4069515743 -0.1242685802 0.4068799752 -0.1235623018 -0.2634798328 0.1010825091
160299040.0 -0.2746002763 0.1036408172 0.4053576387 -0.1286607968 0.4054252376 -0.1287598671 -0.2633591415 0.1030866669
165299010.0 -0.2736483014 0.105907776 0.4039963971 -0.133852807 0.4046212739 -0.1335824279 -0.2616718286 0.1059404068
170298980.0 -0.2729303396 0.108625574 0.4026442946 -0.1383259246 0.4031403607 -0.1383560037 -0.260664916 0.1082609187
175298950.0 -0.2720772157 0.1113988118 0.4020177655 -0.1431325128 0.4014251544 -0.1430420123 -0.2599485253 0.1109115608
180298920.0 -0.2711182937 0.1140450889 0.3999975793 -0.1482284399 0.4003320026 -0.1478389392 -0.2588343511 0.1134278033
185298890.0 -0.2694078385 0.1163050681 0.3985420153 -0.1524298881 0.3982049628 -0.1526964195 -0.2575880381 0.1159670248
190298860.0 -0.2690188745 0.1194551131 0.3975076063 -0.1574283372 0.3974357353 -0.1570559263 -0.2570082918 0.1181295255
195298830.0 -0.2680031465 0.1219045688 0.3954971915 -0.1618075962 0.3954487714 -0.1617258673 -0.2554378918 0.120776773
200298800.0 -0.2667312726 0.12455869 0.3934330716 -0.1667167112 0.3937873954 -0.1665185644 -0.2547257857 0.1231951512
205298770.0 -0.2655660866 0.1270940145 0.3916073705 -0.1711329067 0.3917906028 -0.1709697616 -0.2534243701 0.1251476755
210298740.0 -0.2645815124 0.1297764538 0.3897674799 -0.1753989879 0.3901036921 -0.1752151151 -0.2523839736 0.1283685756
215298710.0 -0.2638208509 0.1326181883 0.3884490059 -0.1803091948 0.3880004124 -0.1801341326 -0.2513850093 0.130573462
220298680.0 -0.2618773584 0.1349205537 0.3854101361 -0.1844434748 0.3859882756 -0.1844960142 -0.2504279738 0.1331302702
225298650.0 -0.2613209725 0.1378327518 0.3840119365 -0.1890091662 0.3843040651 -0.1888586634 -0.2489518724 0.1357052165
230298620.0 -0.2597667127 0.1409792937 0.3821411484 -0.1930676272 0.3823370126 -0.193213139 -0.2477493162 0.138382341
235298590.0 -0.2582260218 0.1435833474 0.3801659888 -0.1975984498 0.3801588184 -0.1975160334 -0.2464398083 0.1410295785
240298560.0 -0.2570585207 0.146282744 0.3779039009 -0.2023653224 0.3776541213 -0.2021742639 -0.244912326 0.1436319879
245298530.0 -0.2558986806 0.1488665408 0.3759532331 -0.2063826937 0.3755532352 -0.2065365764 -0.2437443271 0.1456358327
250298500.0 -0.2541008215 0.1519148313 0.37295821 -0.2109151763 0.3729293966 -0.2106613076 -0.2425539752 0.1484074456
255298470.0 -0.2527205803 0.153988745 0.370507306 -0.2148708906 0.3707288498 -0.2149075189 -0.2406007377 0.1509900526
260298440.0 -0.2519069975 0.1566138485 0.3685447222 -0.2189020484 0.3683232771 -0.2189667528 -0.2389764597 0.1538496301
265298410.0 -0.2501589165 0.1600823566 0.3663464869 -0.2236364312 0.366456227 -0.2234708637 -0.2380581059 0.156611477
270298380.0 -0.2487384884 0.1623930914 0.3637266303 -0.2273264875 0.3638593508 -0.2273855507 -0.2369536549 0.1589797652
275298350.0 -0.2468480712 0.1650012995 0.3609027337 -0.2316227343 0.3614247156 -0.2311732636 -0.2350466431 0.1612828104
280298320.0 -0.2451077571 0.1677502739 0.3587528128 -0.2357557393 0.3589118008 -0.2354061861 -0.2333163106 0.1638357189
285298290.0 -0.2439418089 0.1704902423 0.356483025 -0.2396337803 0.3562286067 -0.239656716 -0.231671874 0.1663835948
290298260.0 -0.2422629549 0.1731289049 0.3536196714 -0.2433988089 0.3538631116 -0.2438397217 -0.2303944002 0.1691459104
295298230.0 -0.2403837434 0.1757075577 0.3507202891 -0.2477797486 0.3508039035 -0.2479279174 -0.2282473954 0.1713758119
300298200.0 -0.2387121171 0.1783385511 0.3487182697 -0.2517055105 0.3483393377 -0.2519371837 -0.226934723 0.1740517143
305298170.0 -0.2368097023 0.180691829 0.345252572 -0.2558726652 0.345333935 -0.2557061333 -0.2249190539 0.1759962686
310298140.0 -0.2349882133 0.1836237351 0.3422929375 -0.2596691642 0.3426324504 -0.2594238467 -0.2234397337 0.1785544444
315298110.0 -0.2331230951 0.1860047965 0.3400023437 -0.2635003519 0.3400591245 -0.2635392937 -0.2217678638 0.1806867559
320298080.0 -0.2313801024 0.1883377523 0.3363949362 -0.2674608323 0.3367537565 -0.2674534341 -0.2199066481 0.183310396
325298050.0 -0.2295777938 0.190740333 0.3337219345 -0.2714012508 0.3336426768 -0.2711615769 -0.2183374595 0.1854501056
330298020.0 -0.2278217389 0.1933588504 0.3303739321 -0.2753996625 0.3307883188 -0.2750554194 -0.2164738287 0.1882677018
335297990.0 -0.2260371449 0.1957396063 0.3271771735 -0.2785782506 0.3276122442 -0.2787301907 -0.2150263495 0.1911180007
340297960.0 -0.2241407141 0.1983464649 0.3237852386 -0.28206656 0.3237098214 -0.2822588671 -0.2128431029 0.1932013919
345297930.0 -0.222469599 0.2009281125 0.3207015965 -0.2859640994 0.3208072895 -0.2860963433 -0.2113138675 0.1952367951
350297900.0 -0.220171129 0.2029844007 0.3169600533 -0.2891518154 0.3177320309 -0.2893268795 -0.2093976508 0.1979607993
355297870.0 -0.2179471778 0.2060611744 0.3139613657 -0.2925142828 0.3144209751 -0.293004097 -0.2073648914 0.2002089723
360297840.0 -0.2163167175 0.208284029 0.3118115081 -0.2960811889 0.3118223321 -0.2959329254 -0.2055639492 0.2026061611
365297810.0 -0.2142690735 0.2110021118 0.3078775195 -0.299552011 0.307967624 -0.2999080533 -0.2033241029 0.2049116743
370297780.0 -0.2118021667 0.2131670438 0.3043692233 -0.3029592815 0.3048848807 -0.3025544438 -0.2012992701 0.2072483631
375297750.0 -0.2096555823 0.2156971238 0.3010027342 -0.3063581917 0.3016504342 -0.3062471009 -0.1993823104 0.2093831772
380297720.0 -0.2074828316 0.2178432299 0.29777155 -0.3098143219 0.2978911592 -0.3093292807 -0.1974377015 0.2116815713
385297690.0 -0.2057575908 0.2204037216 0.2943486675 -0.3130312071 0.2940915088 -0.3128984487 -0.1948332278 0.214179844
390297660.0 -0.203304577 0.2226810974 0.2908907299 -0.3164421966 0.2908383278 -0.3161421653 -0.1930033566 0.2160954331
395297630.0 -0.2003294585 0.2249776974 0.2873078436 -0.319144825 0.2874957262 -0.3192782866 -0.1904280465 0.2186077612
400297600.0 -0.19866247 0.2274747954 0.2833180658 -0.3224366519 0.2839281507 -0.3226478281 -0.1882691515 0.2204107636
405297570.0 -0.1963423842 0.2294292995 0.2801787142 -0.3253597989 0.2800797987 -0.3251958194 -0.1860116926 0.2225056715
410297540.0 -0.1939989569 0.2316191292 0.2764777029 -0.3284828407 0.2769399006 -0.3286650193 -0.1836502747 0.2249968545
415297510.0 -0.1912247762 0.2336128501 0.2725967712 -0.3316725204 0.2731361017 -0.3315947259 -0.1811695129 0.227187601
420297480.0 -0.1892279386 0.2363829888 0.2691893847 -0.3346769467 0.2693278195 -0.3346822665 -0.1790591523 0.228978029
425297450.0 -0.1867712439 0.2381081228 0.2654827226 -0.3372458367 0.2659432892 -0.3374785507 -0.177041587 0.2312674242
430297420.0 -0.1843228722 0.2400707453 0.2618358551 -0.3399478676 0.2622055375 -0.3400214947 -0.1745989938 0.233050238
435297390.0 -0.1818885242 0.2423937537 0.2577757542 -0.3430108461 0.2577412101 -0.3432256028 -0.1715276415 0.2354650537
440297360.0 -0.1791408633 0.2447922815 0.2541815426 -0.3461414428 0.2542284729 -0.3459549131 -0.1696246257 0.2369619302
445297330.0 -0.1766746042 0.2465444767 0.2505843154 -0.3485639168 0.2505026112 -0.3481933168 -0.1670366552 0.2387116754
450297300.0 -0.1740816683 0.2483481407 0.246412778 -0.3513728665 0.2466812924 -0.3515712491 -0.1647528543 0.2407502318
455297270.0 -0.1716413101 0.250650969 0.2424947556 -0.3540557304 0.2428686751 -0.3538709303 -0.1621425361 0.2427668953
460297240.0 -0.1692459462 0.2524309356 0.2386690564 -0.3563858595 0.2391264555 -0.3565778246 -0.1597499342 0.2447696361
465297210.0 -0.1663519587 0.2546054504 0.2351845862 -0.3591831744 0.2347793767 -0.3592978115 -0.1567879121 0.2462933607
470297180.0 -0.163449497 0.2562566415 0.2308245499 -0.3617798749 0.2310326072 -0.3615842466 -0.15416948 0.2484714185
475297150.0 -0.1611402278 0.2580365663 0.2268719664 -0.3635713551 0.2269445314 -0.3636141324 -0.1518411503 0.2498649116
480297120.0 -0.1583464292 0.260150853 0.2225460519 -0.3664806768 0.2229141822 -0.366738554 -0.1490305029 0.2518403668
485297090.0 -0.1557315883 0.2617081411 0.2188115609 -0.3687988667 0.2190331357 -0.3685241778 -0.1464508312 0.2535936092
490297060.0 -0.1534830801 0.2635413291 0.2150589806 -0.3714155736 0.2151650872 -0.371376412 -0.144020359 0.2553924896
495297030.0 -0.1504726962 0.2654027293 0.2106186983 -0.3730598295 0.2111485528 -0.3736523794 -0.1413450564 0.2570491682
500297000.0 -0.1474308867 0.2671093569 0.2068329823 -0.3757855508 0.2066262574 -0.3755595675 -0.1386192954 0.2589297099
505296970.0 -0.1446330772 0.2687731169 0.2025647612 -0.3778657862 0.2023252631 -0.3780755889 -0.1361654165 0.2603493527
510296940.0 -0.1419354425 0.2706418972 0.1981481933 -0.3801999968 0.1982925723 -0.3803729019 -0.1330970097 0.2623195619
515296910.0 -0.1389077477 0.2720644408 0.1941953781 -0.3823111805 0.1940712817 -0.3821461131 -0.1303366884 0.2636147463
520296880.0 -0.1360558501 0.2741416101 0.1899633415 -0.3845337699 0.1900900582 -0.3841000959 -0.1275425805 0.2649136715
525296850.0 -0.1333234998 0.2748290353 0.1855938037 -0.386435654 0.1859042951 -0.3862794137 -0.1248427931 0.2667442193
530296820.0 -0.1301666161 0.2769329604 0.1813549288 -0.388544375 0.1813801458 -0.3881535817 -0.1220696853 0.2679499489
535296790.0 -0.1278261732 0.2784591958 0.1777262079 -0.3904326624 0.1776660287 -0.3898709467 -0.1196917074 0.2694175078
540296760.0 -0.1247282216 0.279745562 0.1727830108 -0.3922637904 0.172918347 -0.3922871877 -0.1168992866 0.2707209199
545296730.0 -0.1219555784 0.2812859967 0.1683898279 -0.393936303 0.1683981345 -0.3940139161 -0.1142414237 0.2722777195
550296700.0 -0.1188024823 0.2826369685 0.1642954582 -0.3955501724 0.1644732711 -0.3958693995 -0.1111956207 0.273770299
555296670.0 -0.1159347715 0.2837804127 0.1599114035 -0.397213465 0.1600842174 -0.3976212526 -0.1082675448 0.2751536804
560296640.0 -0.1125438548 0.2856973496 0.1554593038 -0.3994543997 0.155599952 -0.3991540758 -0.1053086379 0.2762623436
565296610.0 -0.1102327823 0.2869295342 0.1510837927 -0.401040091 0.1516424448 -0.4006819475 -0.102598859 0.27712351
570296580.0 -0.1070889988 0.2882453785 0.1469200017 -0.4028028269 0.1467995781 -0.4025994679 -0.0997117697 0.2787781838
575296550.0 -0.1040681082 0.2896113528 0.1425131099 -0.4040541255 0.1424272827 -0.403847875 -0.0963455263 0.2797874607
580296520.0 -0.1006551741 0.2907595516 0.137699799 -0.4056610617 0.1378868886 -0.40551293 -0.0932397402 0.2811383566
585296490.0 -0.0982170632 0.291566271 0.1339734753 -0.4066574979 0.1338392736 -0.4069462307 -0.0904755063 0.2822413872
590296460.0 -0.0946005977 0.2928712335 0.1293064821 -0.407768476 0.1293481235 -0.4081609586 -0.0880231383 0.2833578326
595296430.0 -0.0917020362 0.2941014116 0.1245223669 -0.4102165946 0.1247013826 -0.4096407482 -0.084878921 0.2840656626
600296400.0 -0.088815516 0.2951404592 0.1205048618 -0.4111599273 0.120076639 -0.4106909351 -0.082139246 0.2851061767
605296370.0 -0.0857395416 0.2961140577 0.1155337231 -0.4122139924 0.1160043573 -0.4122836964 -0.0782280117 0.2866288909
610296340.0 -0.0827006819 0.2972595946 0.1112201225 -0.4135060209 0.1113714466 -0.4132308096 -0.0754760043 0.287234253
615296310.0 -0.0792285812 0.2981734712 0.1066564918 -0.4142177651 0.1064945838 -0.4148233096 -0.072294695 0.2883322378
620296280.0 -0.0762251314 0.2989433381 0.102180719 -0.4151805854 0.102159134 -0.4151917533 -0.0697925149 0.2893598482
625296250.0 -0.0730886846 0.299780631 0.0980714216 -0.4167183198 0.0976844768 -0.4167671802 -0.0660408357 0.2898679887
630296220.0 -0.0696867399 0.3010352724 0.0927774351 -0.4179181229 0.0930250029 -0.4174168251 -0.0631294942 0.2909956642
635296190.0 -0.0670548846 0.3017163631 0.088387783 -0.418460241 0.0886111968 -0.4187096264 -0.0602341788 0.2922031009
640296160.0 -0.063880498 0.3026002136 0.0846444035 -0.4191093555 0.0844449736 -0.4194799906 -0.0570018211 0.2928170171
645296130.0 -0.0605178591 0.3033986673 0.07944551 -0.4199869549 0.0798399233 -0.4205265135 -0.0541221996 0.293695853
650296100.0 -0.057143913 0.3042149639 0.0750520086 -0.4210487143 0.0746828263 -0.4211612867 -0.051083094 0.2936965141
655296070.0 -0.0542246675 0.3052409495 0.0706308896 -0.4215682201 0.0705668502 -0.4217233752 -0.0477019219 0.2949157591
660296040.0 -0.0511687244 0.3053713161 0.0659275461 -0.4221546419 0.0660077741 -0.4224139144 -0.0445801854 0.2954919285
665296010.0 -0.047398103 0.3060498551 0.060856863 -0.4231737232 0.0611064859 -0.4231496604 -0.0416278903 0.2964263007
670295980.0 -0.044773163 0.3070815614 0.0567898654 -0.4236102599 0.0565298075 -0.4235977302 -0.0390976538 0.2968150209
675295950.0 -0.041440406 0.3076857606 0.0521879068 -0.4238093063 0.0523292555 -0.4241215259 -0.0356389596 0.2974406614
680295920.0 -0.0382402965 0.3081399549 0.0472507936 -0.4245109208 0.0472964112 -0.4251368269 -0.0325919436 0.298437644
685295890.0 -0.0350445081 0.3093091853 0.0427622924 -0.4256167076 0.0428732835 -0.4253180119 -0.0292927687 0.2981652446
690295860.0 -0.0317034781 0.309206 0.0381504693 -0.4250721832 0.0384428631 -0.426086307 -0.0262418533 0.2990385162
695295830.0 -0.0285477336 0.3096392756 0.0336803016 -0.4257082363 0.0332066675 -0.4257646237 -0.0229573287 0.2994526239
700295800.0 -0.0252191428 0.3098596449 0.028869277 -0.4259567221 0.0285209383 -0.4260523457 -0.0201080016 0.29997919
705295770.0 -0.0221876799 0.3111123298 0.0242155955 -0.4262472401 0.0248477228 -0.4265594998 -0.0169861853 0.300488985
710295740.0 -0.0185892189 0.3109455592 0.0199241616 -0.4268759053 0.0201120906 -0.4270457468 -0.014113916 0.3004597699
715295710.0 -0.0158526692 0.3112191009 0.015515261 -0.4268006001 0.0152925913 -0.4270572809 -0.010867223 0.3005042453
720295680.0 -0.012544063 0.311511181 0.0106369591 -0.4270998953 0.010951514 -0.4270873028 -0.0074698716 0.3010638304
725295650.0 -0.0089351271 0.3119263249 0.0058602155 -0.4269103216 0.0060641908 -0.4271826912 -0.0047149606 0.3014196837
730295620.0 -0.005725017 0.3122006037 0.0013597011 -0.427014189 0.0012551524 -0.4269372284 -0.0014576587 0.3017723488
735295590.0 -0.0028004485 0.3126011273 -0.0030059122 -0.4271302405 -0.0034820433 -0.426832911 0.0019093058 0.3012229272
740295560.0 0.0005792012 0.3124723994 -0.008107622 -0.426923926 -0.0077635808 -0.4269699218 0.0053882763 0.3020586257
745295530.0 0.003683263 0.3126220072 -0.0125882932 -0.4263173434 -0.0127177262 -0.4267960753 0.0082895743 0.3016029292
750295500.0 0.0072915509 0.312520292 -0.01732238 -0.4264194458 -0.016904374 -0.426715444 0.011046553 0.3017018048
755295470.0 0.010477335 0.3124576883 -0.0215193695 -0.4261141975 -0.0215681304 -0.4261653601 0.0150476798 0.3014987586
760295440.0 0.0136844494 0.3126102649 -0.0265015662 -0.4262773647 -0.0262535385 -0.4263007402 0.0178984716 0.301706683
765295410.0 0.0168584533 0.3127392918 -0.0306654521 -0.4256393431 -0.0313041972 -0.4258230031 0.0210575848 0.3018656926
770295380.0 0.0197930561 0.3125125445 -0.0356288482 -0.4253283657 -0.0358370894 -0.4252248354 0.0243025628 0.3015364802
775295350.0 0.0230526799 0.3121202771 -0.0405370298 -0.4243818912 -0.0400681426 -0.4250150936 0.0269351265 0.3018176855
780295320.0 0.0266104647 0.3121932264 -0.0449169549 -0.4237733328 -0.0443941599 -0.4239550197 0.0301575181 0.3011681845
785295290.0 0.0295350261 0.3116241732 -0.0496446145 -0.4234880133 -0.0491842055 -0.4236611328 0.0339524042 0.3011763969
790295260.0 0.0334193375 0.312182197 -0.0539634741 -0.4231772268 -0.0534191054 -0.4231474963 0.0371892212 0.3009028663
795295230.0 0.0363011136 0.311517487 -0.0583176753 -0.4219642962 -0.0582585028 -0.4224219413 0.040497395 0.300814768
800295200.0 0.0398576194 0.3116347278 -0.0633152577 -0.4214150341 -0.0629633016 -0.4216856581 0.0436713378 0.300244481
805295170.0 0.0428252994 0.3109087576 -0.0677935897 -0.4207069337 -0.0675595463 -0.4210567039 0.0465771064 0.3003066572
810295140.0 0.0462751938 0.3105032415 -0.0720234709 -0.4196821762 -0.0722656049 -0.4205519335 0.0503582911 0.2999617046
815295110.0 0.0495841195 0.3100682311 -0.0766520117 -0.4191633633 -0.0763835669 -0.4193517285 0.0529675008 0.2996757755
820295080.0 0.0524992338 0.3100333083 -0.0811894253 -0.4183664694 -0.0806302473 -0.4183624419 0.0562075498 0.2993441419
825295050.0 0.0563260821 0.3094794931 -0.0853775421 -0.4171586542 -0.0856292621 -0.4173590576 0.059247998 0.2988363879
830295020.0 0.0590681119 0.3093481753 -0.09003414 -0.4165396164 -0.0901191508 -0.4160969818 0.0631856788 0.298247782
