!Created with skrf (http://scikit-rf.org).
# Hz S RI R 50.0 
!freq ReS11 ImS11 ReS21 ImS21 ReS12 ImS12 ReS22 ImS22
300000.0 -0.2328016262 -0.1309685508 0.4656460259 0.0833959054 0.4684416834 0.083263433 -0.236162641 -0.1271519772
5299970.0 -0.2421362066 0.0052249673 0.4749445733 0.0059378798 0.4756397528 0.0058776981 -0.244329784 0.004589242
10299940.0 -0.2387297319 0.0185574282 0.4775166604 0.0070238549 0.4770498702 0.0072090877 -0.2410239799 0.01727028
15299910.0 -0.2337818462 0.0285960604 0.4803294588 0.0081918576 0.4811299315 0.0082831514 -0.2370378751 0.0264239388
20299880.0 -0.2286986149 0.0369523418 0.485510431 0.0080982471 0.4857546742 0.0086348169 -0.2321274369 0.0339119803
25299850.0 -0.2225537765 0.0437550362 0.4906959158 0.007689835 0.4907385666 0.0074215729 -0.2270359239 0.0402610772
30299820.0 -0.2171418915 0.0484897875 0.4960590532 0.0049861021 0.4960470398 0.0053111917 -0.2218573669 0.0448945427
35299790.0 -0.211438012 0.0528790863 0.5012193517 0.0020750058 0.5015671082 0.0017896576 -0.2168429333 0.0491036208
40299760.0 -0.2061946865 0.0557278951 0.5065477333 -0.0019279582 0.5068935222 -0.0022633713 -0.2120975474 0.0521919899
45299730.0 -0.2010426871 0.0586347402 0.5111287224 -0.0066532065 0.5115229384 -0.0070020152 -0.2069760122 0.05478659
50299700.0 -0.1962918764 0.0609325474 0.5152610606 -0.0125928252 0.5153070383 -0.0126047718 -0.2028797209 0.0570771533
55299670.0 -0.1920754016 0.0625366379 0.5191274374 -0.0180759781 0.5189862537 -0.0183361675 -0.1992160094 0.0586941891
60299640.0 -0.1875536177 0.0640106064 0.5224657388 -0.0248024742 0.522301671 -0.0243034277 -0.1955944619 0.0599269553
65299610.0 -0.1842119491 0.0649475466 0.5260314861 -0.0305816607 0.5252219804 -0.0310291842 -0.1918696133 0.0609606232
70299580.0 -0.1808128217 0.0656796588 0.5273173615 -0.0372481516 0.5279492006 -0.0375285105 -0.1892747581 0.0619597303
75299550.0 -0.1782128026 0.0664997613 0.5293691908 -0.0446461469 0.5299461597 -0.0441922692 -0.1863625496 0.0628514429
80299520.0 -0.1752761016 0.0677032989 0.5312498622 -0.0513893985 0.5316410223 -0.0514905403 -0.1839608459 0.0636130618
85299490.0 -0.1726143978 0.0683590409 0.5326393788 -0.0582572195 0.5329247233 -0.057993983 -0.1816818127 0.0643304047
90299460.0 -0.1703172557 0.0690025743 0.5337306124 -0.0653016871 0.5338564995 -0.0650270137 -0.1795159708 0.0650168133
95299430.0 -0.1682778755 0.0698674886 0.5346102858 -0.0722527899 0.5348216458 -0.0725566592 -0.1774862153 0.0657998046
100299400.0 -0.1659748283 0.0702477264 0.5350105012 -0.0788788379 0.5350229302 -0.0789086445 -0.1757895699 0.0664265069
105299370.0 -0.1639579256 0.0707108475 0.535140072 -0.0856856687 0.5356134072 -0.0857489988 -0.1739107647 0.0667751237
110299340.0 -0.1621323953 0.0716854449 0.5353003678 -0.0923490152 0.5356390436 -0.0921042026 -0.1729682402 0.0673712285
115299310.0 -0.1608754509 0.0726715772 0.5353805798 -0.099100727 0.5354352208 -0.0990023098 -0.1713505586 0.0681587872
120299280.0 -0.159549842 0.0732770898 0.5352928016 -0.1065377528 0.5352938368 -0.1063864422 -0.1702744456 0.0686048177
125299250.0 -0.157940707 0.0739744385 0.5346021067 -0.1129653047 0.5347478784 -0.1126501434 -0.1689252142 0.0697497253
130299220.0 -0.1567684373 0.0746501654 0.534516793 -0.1198605474 0.5340331297 -0.1198284186 -0.1677972162 0.0704956718
135299190.0 -0.1554488914 0.0756858758 0.5338594414 -0.1258440111 0.5338189252 -0.1264697673 -0.1664780741 0.0710993604
140299160.0 -0.1542068189 0.0768669473 0.5332887329 -0.1329751796 0.5330691229 -0.132691923 -0.1663083727 0.0718066058
145299130.0 -0.1535657884 0.0780703616 0.5319708182 -0.1396022426 0.5318213297 -0.1396874716 -0.1650007186 0.0729798004
150299100.0 -0.1521741405 0.0787473072 0.5308583135 -0.1461320359 0.5308307024 -0.1460297608 -0.1642859529 0.0739723633
155299070.0 -0.1506717862 0.0801565955 0.5289876246 -0.1527543905 0.5298729983 -0.1527118303 -0.1632597378 0.0747683824
160299040.0 -0.1500366179 0.0812071288 0.5282479048 -0.1587105445 0.5280814047 -0.1592630936 -0.1626997393 0.075879628
165299010.0 -0.1489319981 0.0820623085 0.5267362321 -0.1651215284 0.5267647594 -0.1651457623 -0.1615932397 0.0765822409
170298980.0 -0.1477590923 0.0833526949 0.5245547347 -0.171813862 0.5250893901 -0.171690504 -0.1611231044 0.0776067228
175298950.0 -0.1467565959 0.084935326 0.5240415364 -0.1781962882 0.5237193742 -0.1783936536 -0.1601607256 0.0790928797
180298920.0 -0.1463058497 0.0860772817 0.5219837568 -0.1846683873 0.5218798366 -0.1845800192 -0.1594864096 0.0800408242
185298890.0 -0.1451397053 0.08722201 0.5199714678 -0.1905545918 0.5202386482 -0.1903764567 -0.1583736593 0.0812752413
190298860.0 -0.1437979903 0.0887223006 0.5175679608 -0.1966810351 0.5180548145 -0.1967377614 -0.1579822431 0.0822106396
195298830.0 -0.1432996961 0.0899329402 0.5162687319 -0.202538088 0.5163892568 -0.2027706022 -0.1573326917 0.0835363831
200298800.0 -0.1417814301 0.0909842984 0.5140369287 -0.2094315925 0.5144473077 -0.2092762821 -0.1561872901 0.0846841296
205298770.0 -0.1411877805 0.0926323583 0.5115987929 -0.2147123538 0.5121903985 -0.2147637772 -0.1555825898 0.0861793399
210298740.0 -0.1405324164 0.0942139928 0.5096579733 -0.2209787524 0.5094426038 -0.2211321444 -0.1553980211 0.0870466895
215298710.0 -0.1391218895 0.0954949971 0.507182385 -0.2262987842 0.5071318748 -0.2271156618 -0.1541932509 0.0883768553
220298680.0 -0.1380473096 0.097070335 0.504636588 -0.2326763357 0.5044468181 -0.2330848082 -0.1533820701 0.089619023
225298650.0 -0.1371345038 0.0982730473 0.5019337706 -0.2382791547 0.5025225379 -0.238290972 -0.1528094431 0.0906869552
230298620.0 -0.1362676649 0.0998826226 0.499708282 -0.2445843238 0.4999140104 -0.2444720647 -0.1522191986 0.0917632795
235298590.0 -0.1353078469 0.1013910255 0.4971445764 -0.2506451592 0.4975948044 -0.2503101429 -0.1513352584 0.093268977
240298560.0 -0.1342065521 0.1028539035 0.4944960794 -0.2552632127 0.4946271808 -0.2556969595 -0.1506157184 0.094544861
245298530.0 -0.1331266296 0.1042155272 0.4915613783 -0.2614003538 0.4917122545 -0.2619355949 -0.1495810634 0.0959622829
250298500.0 -0.1323775795 0.105443674 0.488964211 -0.2667301111 0.4890426528 -0.2670721474 -0.1488985621 0.0974367046
255298470.0 -0.1310161254 0.1073297395 0.4859983534 -0.2724548448 0.4865858312 -0.2727764978 -0.1482571448 0.0990123393
260298440.0 -0.1302015805 0.108342331 0.4833150675 -0.2779891899 0.4833056476 -0.2780555104 -0.1475242993 0.0996085846
265298410.0 -0.129264323 0.1100974278 0.4798629984 -0.283921637 0.4801017938 -0.2839080678 -0.145834381 0.1008110729
270298380.0 -0.1284275541 0.1116003576 0.4769517297 -0.2891619744 0.4769051349 -0.289102076 -0.1454070082 0.1025431771
275298350.0 -0.1270442826 0.113017803 0.4733922018 -0.294096297 0.4734102193 -0.2946677555 -0.1442330133 0.1041879802
280298320.0 -0.1260076126 0.1143182083 0.4704021957 -0.2992571485 0.4709907805 -0.2997793683 -0.1434102721 0.1057050629
285298290.0 -0.1248665113 0.1160072657 0.4674617064 -0.3050881458 0.4675405398 -0.3048453776 -0.1426872493 0.1067518963
290298260.0 -0.1237155664 0.1173100545 0.4648442 -0.3105625607 0.4642434574 -0.3108294965 -0.1414115712 0.1082911375
295298230.0 -0.1226591988 0.1182920503 0.4611585824 -0.315717153 0.4609836208 -0.3161241706 -0.1406465762 0.1092283228
300298200.0 -0.121260992 0.1202497817 0.4576681706 -0.321041046 0.4575333286 -0.3207327966 -0.1396119598 0.1104431885
305298170.0 -0.1200513274 0.1213276724 0.4537971559 -0.3262991121 0.4542849526 -0.3263683836 -0.1386413714 0.1114631257
310298140.0 -0.1185155076 0.1225948424 0.4504649408 -0.331559774 0.4508426911 -0.331421066 -0.1375584338 0.1130970889
315298110.0 -0.1176755611 0.1238124433 0.4470745156 -0.3368186975 0.4470738406 -0.3369428131 -0.1366896539 0.1142348205
320298080.0 -0.1163878446 0.1250428851 0.4427579609 -0.3418788617 0.4434269214 -0.3418462377 -0.1358976208 0.1155248247
325298050.0 -0.1156092188 0.1261303995 0.4388196101 -0.3467105001 0.4400180765 -0.3468883643 -0.1348737723 0.1169021553
330298020.0 -0.1149050264 0.1280995156 0.4350190854 -0.3518285439 0.4358392164 -0.3520401459 -0.1341371337 0.1178266621
335297990.0 -0.1135543525 0.1288600744 0.4315039164 -0.3564984416 0.4315737102 -0.3561867601 -0.1330441983 0.1190499067
340297960.0 -0.112444526 0.1303500763 0.4272879538 -0.3616847148 0.4271939938 -0.3613806185 -0.1321629688 0.1207579044
345297930.0 -0.1110910479 0.1316835663 0.4231908978 -0.366313011 0.423265269 -0.3663537434 -0.1308030078 0.1219791322
350297900.0 -0.110076729 0.132878237 0.4192791448 -0.3704588274 0.4196844326 -0.3705584559 -0.1298611429 0.123117758
355297870.0 -0.1087739628 0.1343883235 0.4153306187 -0.3748100405 0.4151745859 -0.3751049882 -0.1287243031 0.1248440133
360297840.0 -0.1074581084 0.1357593598 0.4109906166 -0.3798185563 0.4110750505 -0.3801821352 -0.1280621388 0.1261664616
365297810.0 -0.1061585878 0.1372009423 0.4064627266 -0.3841440639 0.4064829918 -0.3843902768 -0.1270128499 0.1275766196
370297780.0 -0.1046195138 0.1384233608 0.4023497032 -0.3887018931 0.4025012436 -0.3888163672 -0.1256796107 0.1286762145
375297750.0 -0.1034903392 0.1397866726 0.3983112695 -0.3931245564 0.3982503957 -0.3931877417 -0.1243206277 0.1302741491
380297720.0 -0.1021999848 0.141216722 0.3939311095 -0.3979612776 0.3935978622 -0.397691952 -0.1232739127 0.1315221645
385297690.0 -0.1007344997 0.142353346 0.3896863407 -0.4020908307 0.389643932 -0.4023930975 -0.1222753136 0.1334748375
390297660.0 -0.0991428602 0.1431516896 0.3849907231 -0.4056546861 0.3853262234 -0.4057528157 -0.1206392933 0.1339106445
395297630.0 -0.0973517696 0.1445581098 0.3806512797 -0.4094229209 0.3810530476 -0.4097450819 -0.1198690098 0.1351142032
400297600.0 -0.0965758425 0.1461252962 0.3761408121 -0.4143679448 0.3764465242 -0.4143962131 -0.1180796894 0.136964178
405297570.0 -0.0949208854 0.1466404893 0.3716886514 -0.4181556904 0.3716576738 -0.4185604101 -0.1167392672 0.1384096314
410297540.0 -0.0931109064 0.1480650749 0.3674737578 -0.4223266014 0.3672569545 -0.4227901722 -0.1156309133 0.1397685551
415297510.0 -0.0916502915 0.1493424245 0.3622845774 -0.4265273121 0.3627358478 -0.4264200518 -0.1140331202 0.1406796141
420297480.0 -0.090055719 0.1500555104 0.3578392686 -0.4306342304 0.3577815735 -0.4306312971 -0.1125559624 0.1420801394
425297450.0 -0.0881582496 0.1513525342 0.3528043639 -0.4341201705 0.3530726681 -0.434339003 -0.1115537844 0.1429277987
430297420.0 -0.0869652556 0.1525326286 0.3487599176 -0.4382275264 0.3486257491 -0.43792094 -0.1096323154 0.1445711077
435297390.0 -0.0852857342 0.153371106 0.3435894935 -0.4421316697 0.3435286668 -0.442070904 -0.1088164223 0.146161381
440297360.0 -0.0834119882 0.1543938739 0.3382685196 -0.4459149794 0.3385209799 -0.4457745203 -0.1075100815 0.1468259064
445297330.0 -0.081827935 0.1551555481 0.3339365564 -0.4489757208 0.3338193772 -0.4496429676 -0.1057252353 0.148349263
450297300.0 -0.0800833511 0.1564249488 0.3290355981 -0.4529068258 0.3291667817 -0.4528714901 -0.1043320143 0.1494860341
455297270.0 -0.0787143062 0.1569666858 0.3241225601 -0.4561416457 0.3240948004 -0.4565916427 -0.1029678909 0.1504552658
460297240.0 -0.0765211535 0.1583981416 0.3191140846 -0.460725655 0.3190929525 -0.4603970903 -0.1014070895 0.151453521
465297210.0 -0.0747652687 0.1593197254 0.3136323033 -0.463583266 0.3134630445 -0.4639665872 -0.0995458802 0.1535435519
470297180.0 -0.0733170504 0.1599901312 0.3087297214 -0.4666701095 0.3089268076 -0.4670113387 -0.0982373561 0.1539895039
475297150.0 -0.0715032489 0.1613611071 0.3036727126 -0.4701133277 0.3038679364 -0.4704617984 -0.0968818676 0.1550623158
480297120.0 -0.0691702967 0.1623366369 0.2983466787 -0.4737700071 0.2987571787 -0.4732897756 -0.0956478183 0.1559298452
485297090.0 -0.0676166753 0.1627899753 0.2932104045 -0.4767516103 0.2928221517 -0.4767907385 -0.0938922765 0.1575854607
490297060.0 -0.0652778288 0.1639294967 0.2876907181 -0.4799829888 0.2879956616 -0.4798694537 -0.09243658 0.1580393129
495297030.0 -0.0639424949 0.1642298818 0.2829484862 -0.4826776735 0.2830653422 -0.4834452827 -0.0905019362 0.1590928061
500297000.0 -0.0622011381 0.1653464269 0.2776498581 -0.4856246603 0.2775140022 -0.4861081912 -0.0891294435 0.1607526191
505296970.0 -0.059646678 0.1663702911 0.2722914 -0.4891189496 0.2725860269 -0.4889898655 -0.0878347813 0.1608142551
510296940.0 -0.0582895322 0.1668624202 0.2670130326 -0.4925813526 0.2670725243 -0.4923684585 -0.0856155992 0.1624320504
515296910.0 -0.0563537991 0.1680107332 0.2611932531 -0.4950556919 0.2612538462 -0.4949530811 -0.0839909116 0.16294999
520296880.0 -0.0541269617 0.1685393273 0.255935538 -0.4974624778 0.255683173 -0.4975261912 -0.0821593788 0.1640378785
525296850.0 -0.0522125538 0.1693100211 0.2508322462 -0.5000702908 0.2503531763 -0.5000442231 -0.0809099008 0.164775693
530296820.0 -0.0506559873 0.169636499 0.24517281 -0.5027407677 0.2450601623 -0.5028039794 -0.0791015123 0.1653271681
535296790.0 -0.0480782224 0.1706331916 0.2395690865 -0.505136377 0.2395335276 -0.5058773812 -0.0771121869 0.1672235166
540296760.0 -0.0463725524 0.1714828391 0.2337895823 -0.5081196903 0.2337224195 -0.5083023884 -0.075907877 0.1676102739
545296730.0 -0.0448384165 0.1723267388 0.2285698429 -0.5103364471 0.2285650285 -0.5106158455 -0.0740512267 0.1686562902
550296700.0 -0.042128468 0.1730003305 0.2229502595 -0.5130588899 0.2225839411 -0.5131504575 -0.0722383784 0.1693282102
555296670.0 -0.0404640478 0.1734612343 0.2174422995 -0.5156523576 0.2174839443 -0.515476629 -0.0707099432 0.1697698331
560296640.0 -0.0379953246 0.1737593326 0.2112494792 -0.5174980674 0.2121186006 -0.5177823567 -0.0691525879 0.1710110941
565296610.0 -0.0364815265 0.1746344548 0.2063514861 -0.5199185834 0.206244946 -0.519734092 -0.0672415548 0.1720230604
570296580.0 -0.0342512074 0.1752884875 0.2006191472 -0.5221779922 0.2002829985 -0.5219906138 -0.0655879063 0.1721716078
575296550.0 -0.0321215931 0.1757251202 0.1950151736 -0.5243473538 0.1946675862 -0.5242246845 -0.0638909754 0.173300466
580296520.0 -0.0303372254 0.176530472 0.1891711576 -0.5263715087 0.188749177 -0.5264799292 -0.0622979884 0.1739811133
585296490.0 -0.028036203 0.177105672 0.1837520988 -0.5283511623 0.1827651037 -0.5282204968 -0.0601245015 0.1747635224
590296460.0 -0.0255070785 0.177575973 0.177513269 -0.5306751473 0.1775945083 -0.5306310867 -0.0591136064 0.1757124378
595296430.0 -0.0236236296 0.177882404 0.1714364851 -0.532284985 0.17135595 -0.5322463063 -0.0570484961 0.1760167583
600296400.0 -0.0216805633 0.1785875979 0.1654003662 -0.5337344582 0.1657377527 -0.5339290458 -0.0553310235 0.1768130203
605296370.0 -0.0200325037 0.1789054918 0.1608560956 -0.5352352937 0.1599537298 -0.5357418624 -0.0536264584 0.1775636638
610296340.0 -0.0174345129 0.1795695265 0.1546198817 -0.5368004978 0.1549708209 -0.5370507803 -0.0520577804 0.1781726793
615296310.0 -0.0151359189 0.1799898049 0.1486099094 -0.5390343811 0.1483455554 -0.5390034305 -0.0500063793 0.179070302
620296280.0 -0.0137011893 0.1807848747 0.1425137839 -0.5407015027 0.1422367321 -0.5404770724 -0.048467524 0.1798063236
625296250.0 -0.0115986982 0.1809033146 0.13679652 -0.5424076295 0.1368538996 -0.5423180273 -0.0468834589 0.1800857542
630296220.0 -0.0090828881 0.1812085413 0.1305679483 -0.5432552224 0.1309820072 -0.5431833363 -0.0449711588 0.1808077598
635296190.0 -0.0077709993 0.1818915084 0.1252591553 -0.5443870183 0.1250026776 -0.5446032783 -0.04327219 0.1814319519
640296160.0 -0.0054764628 0.1819608734 0.1189419011 -0.5462563468 0.1191564645 -0.546001368 -0.0415600398 0.1817162687
645296130.0 -0.0029395643 0.1825079545 0.1133924099 -0.5471871219 0.1131221589 -0.5468380673 -0.0396897913 0.1818247561
650296100.0 -0.000893126 0.1824483484 0.1071979995 -0.5482887145 0.1068997669 -0.5483333057 -0.0375517278 0.1825420746
655296070.0 0.0007815144 0.1831601865 0.1010978874 -0.5496723729 0.1013909679 -0.5493676232 -0.0362515343 0.1834900596
660296040.0 0.0029150812 0.1833115768 0.095386737 -0.5506927055 0.0955045659 -0.5506605319 -0.0344245102 0.1833965665
665296010.0 0.0050348557 0.1838017207 0.0890419684 -0.5510447059 0.0890443821 -0.5514677146 -0.0321036262 0.1843566991
670295980.0 0.0071729476 0.1838172305 0.0831296334 -0.5523809314 0.0836344544 -0.5515974165 -0.0309389895 0.1843579548
675295950.0 0.0089526228 0.1839567297 0.0774565862 -0.552749807 0.0776409358 -0.5529576994 -0.0289574768 0.1847995341
680295920.0 0.0108490013 0.1841953926 0.0718697454 -0.5534385834 0.0714856287 -0.5536549619 -0.0266213036 0.1852889114
685295890.0 0.0133017017 0.1845770617 0.0655795723 -0.5550513198 0.0655999943 -0.554800833 -0.025286879 0.1859422029
690295860.0 0.0151399364 0.1847939934 0.0596374066 -0.5552920253 0.0592627455 -0.555367093 -0.0237757123 0.186239794
695295830.0 0.0172497627 0.1844267418 0.0543043036 -0.5556033764 0.0537883941 -0.555894114 -0.0218194539 0.1866823168
700295800.0 0.0193792419 0.1846647954 0.0479447707 -0.5565021388 0.0475920017 -0.5563506881 -0.0198476605 0.1870316328
705295770.0 0.0208474434 0.184844766 0.0419605224 -0.5571031269 0.0415957663 -0.5569960005 -0.0181366852 0.1877961209
710295740.0 0.0230014339 0.1845704271 0.03575839 -0.5573465809 0.0353029176 -0.5573267946 -0.0158418827 0.1878751314
715295710.0 0.025306543 0.1848619652 0.0296272349 -0.5577244689 0.0293561857 -0.5578254794 -0.0144866475 0.1879634004
720295680.0 0.0277596473 0.184747255 0.0237065413 -0.5580646759 0.0236097893 -0.5578592734 -0.0124140393 0.1881569681
725295650.0 0.0290397251 0.1847337587 0.0181603549 -0.558051077 0.0180794657 -0.557918185 -0.0112197887 0.1890518082
730295620.0 0.0305243099 0.1844762607 0.0118193009 -0.5575779675 0.0117294937 -0.5574718646 -0.0090702171 0.1894235185
735295590.0 0.0332015394 0.1846707332 0.0055986751 -0.5587145067 0.0057839936 -0.558277266 -0.0072682339 0.1890122205
740295560.0 0.0347236566 0.1843510156 0.0002794047 -0.5579863168 -8.95719e-05 -0.5585550512 -0.0056390276 0.1895310991
745295530.0 0.0369278102 0.1844970768 -0.0061159118 -0.5574811941 -0.0060420364 -0.5576755541 -0.0040655664 0.1897096055
750295500.0 0.0386484169 0.1842859175 -0.0119689722 -0.5578947918 -0.0122547162 -0.5582562061 -0.0020537927 0.1899777819
755295470.0 0.0407017185 0.1840710096 -0.0180851004 -0.5583794739 -0.0181460952 -0.5578535024 0.0002531946 0.1906166147
760295440.0 0.0427647535 0.1843543754 -0.0245289922 -0.5575265448 -0.024291943 -0.5571959565 0.0020286756 0.1898289302
765295410.0 0.0448702835 0.1835076362 -0.0300355118 -0.5569511077 -0.0299484665 -0.5568255714 0.0034780667 0.1903358231
770295380.0 0.0464317741 0.1838832734 -0.0359312503 -0.5564113609 -0.0360777484 -0.5574085003 0.0050744904 0.1907610565
775295350.0 0.0483392119 0.1833119664 -0.0420498857 -0.5567342873 -0.0418436359 -0.5558663944 0.0074447903 0.1908095976
780295320.0 0.0504051042 0.1832190337 -0.0477815591 -0.5553611366 -0.0476966669 -0.5558894971 0.009181581 0.190650181
785295290.0 0.0519930978 0.1823803423 -0.0539037868 -0.5548970205 -0.0540442008 -0.5552953117 0.0107695222 0.191467309
790295260.0 0.0540675427 0.1818143605 -0.0593953115 -0.5547815622 -0.0596729264 -0.5548861735 0.0125932404 0.1915348662
795295230.0 0.0560840204 0.1813192269 -0.065826514 -0.5541885025 -0.066064978 -0.5542743432 0.0147105045 0.1906283826
800295200.0 0.0578917788 0.1815888091 -0.0716828444 -0.5529330468 -0.0721121148 -0.5533120899 0.01599987 0.1910141962
805295170.0 0.0597652137 0.1811149853 -0.0778245196 -0.5521830586 -0.0776110348 -0.5528698367 0.0187401651 0.1910310135
810295140.0 0.0617169331 0.1805758924 -0.0833977922 -0.5514449368 -0.0835133709 -0.5515501311 0.0205152898 0.1909110451
815295110.0 0.0634479801 0.1800458793 -0.0890189565 -0.5505579246 -0.0891858777 -0.5508630026 0.0220428848 0.1909689843
820295080.0 0.0654864907 0.1795494404 -0.0946168533 -0.5493606755 -0.0949054088 -0.5497810876 0.0233483028 0.1914087241
825295050.0 0.0668616177 0.1789096808 -0.1008966367 -0.5487784706 -0.1009308998 -0.5484707657 0.0259980697 0.1912133563
830295020.0 0.0690350036 0.1784499503 -0.1068875558 -0.5475129323 -0.1068598008 -0.5474811366 0.0274561948 0.1907101044
