!Created with skrf (http://scikit-rf.org).
# Hz S RI R 50.0 
!freq ReS11 ImS11 ReS21 ImS21 ReS12 ImS12 ReS22 ImS22
300000.0 -0.0956649645 -0.0831901629 0.6227004059 0.0785020527 0.6247407264 0.082959652 -0.0967867943 -0.0913096585
5299970.0 -0.1004527364 0.012983537 0.6310447696 0.010475337 0.6306659807 0.0113498013 -0.1020598706 0.0119914614
10299940.0 -0.0954491056 0.0298291082 0.6344698192 0.0156739813 0.63455231 0.0159886552 -0.0970926323 0.028945995
15299910.0 -0.0884039063 0.0430778658 0.6404523371 0.0204151177 0.64034884 0.0210152038 -0.0903689836 0.0420738686
20299880.0 -0.0794416076 0.0542527287 0.6483656524 0.0243149292 0.6488163134 0.0243669563 -0.0818621644 0.0533753472
25299850.0 -0.0696238107 0.0630877786 0.6578275486 0.0250059213 0.658251561 0.0253543636 -0.0727101607 0.0621875455
30299820.0 -0.0597235504 0.0692798431 0.6680275727 0.0245542332 0.6674441911 0.0241833246 -0.0625375878 0.0689293623
35299790.0 -0.0493800297 0.0743908143 0.6774811663 0.021576709 0.677653461 0.0216908247 -0.0526237456 0.0734220649
40299760.0 -0.0395862943 0.0770965836 0.6867135793 0.0180242473 0.6866042424 0.01744661 -0.0437693044 0.0770503146
45299730.0 -0.0305382952 0.079529153 0.6961301176 0.0116272075 0.6956886984 0.0118201088 -0.0342636793 0.0789271171
50299700.0 -0.0219349017 0.079860973 0.703462251 0.0045614059 0.7036635389 0.0049740809 -0.0256932098 0.079963462
55299670.0 -0.0144278989 0.0800666948 0.7101246126 -0.0030078162 0.7110295197 -0.0029719124 -0.017944427 0.0798591188
60299640.0 -0.0067683054 0.0790289803 0.7171832066 -0.0113951017 0.7174837447 -0.0114162507 -0.0102540513 0.0794077291
65299610.0 -0.0003801143 0.077900865 0.7239153306 -0.019872743 0.7239845128 -0.0199554234 -0.0035841984 0.0786200722
70299580.0 0.0061243513 0.0759473901 0.7285115466 -0.0290600776 0.7286430515 -0.0293509283 0.0023139385 0.076963827
75299550.0 0.0115487242 0.0742881098 0.7326443267 -0.0387962075 0.7332060208 -0.0389333181 0.0081440699 0.0756523845
80299520.0 0.0159305167 0.072163659 0.7376825016 -0.0488541987 0.737866633 -0.0485930147 0.0131917942 0.0727656899
85299490.0 0.0206833346 0.0694500721 0.740508914 -0.0591813972 0.7405466596 -0.0588763061 0.0174202809 0.0707334152
90299460.0 0.0246563754 0.067199494 0.7430126757 -0.0686930104 0.7437017593 -0.068795289 0.0219811994 0.0685843612
95299430.0 0.0282752863 0.0652205996 0.746264511 -0.07932771 0.7460793677 -0.0789361469 0.0252071846 0.0662106522
100299400.0 0.0315009003 0.0628881755 0.7474304038 -0.0892929415 0.7476370572 -0.0889997192 0.028431346 0.0638273054
105299370.0 0.0344707189 0.0602608482 0.7489547679 -0.0992015642 0.7489968403 -0.0992033304 0.0320171714 0.0616081616
110299340.0 0.0369316926 0.0578480132 0.7497915028 -0.1091389131 0.750587609 -0.1095124472 0.0345142055 0.0593820463
115299310.0 0.0397728971 0.0547907541 0.7509373971 -0.1190081642 0.7511229346 -0.1190681843 0.0371906574 0.0564085918
120299280.0 0.0416164411 0.052812756 0.7521015218 -0.1293947951 0.7517127472 -0.129291488 0.0389537482 0.0541094114
125299250.0 0.043384507 0.0503170256 0.7518329378 -0.1390484607 0.7521369163 -0.1393963843 0.0414369059 0.0512640416
130299220.0 0.0450676845 0.0478754971 0.7513144364 -0.1489874642 0.7520010779 -0.1493068161 0.0432424299 0.0495200213
135299190.0 0.0468797974 0.0456807725 0.7512103471 -0.1586016739 0.7513973674 -0.1588628223 0.0446632713 0.0477729397
140299160.0 0.0477547977 0.0440399115 0.7505541259 -0.1687706248 0.7510191325 -0.1691612146 0.0464043009 0.0453385215
145299130.0 0.0490992338 0.0418132867 0.7507081216 -0.1782256792 0.7501176112 -0.1781321331 0.0472322719 0.0429385492
150299100.0 0.0505471304 0.0398413528 0.7493546454 -0.1881165324 0.7495550554 -0.1882056729 0.0489140036 0.0408045357
155299070.0 0.0511585821 0.0383183608 0.7482361348 -0.1976922387 0.7479490174 -0.1981499199 0.0492810811 0.0387500743
160299040.0 0.0520731833 0.0360248337 0.7459021746 -0.206723235 0.7464088043 -0.2075411467 0.0507888651 0.0372255456
165299010.0 0.0527320748 0.0341524515 0.7448176782 -0.2168657463 0.7451054419 -0.2171338047 0.0517430165 0.0347482786
170298980.0 0.0533423038 0.0326311828 0.7423040747 -0.2260417181 0.7429151505 -0.2260496112 0.0529340833 0.0328477255
175298950.0 0.054465608 0.0305154032 0.7417520028 -0.2350626003 0.7415704092 -0.2357000548 0.0533219032 0.0313670628
180298920.0 0.055184163 0.0291212738 0.7390262631 -0.2444756149 0.7389692385 -0.2441317823 0.0539248261 0.0300468527
185298890.0 0.0559635417 0.0274000733 0.7368132242 -0.2539324926 0.7371942195 -0.2537579091 0.0543447507 0.0277712268
190298860.0 0.0562874533 0.0257867363 0.7341737522 -0.2629658214 0.7345410086 -0.262996302 0.0555310187 0.0260741583
195298830.0 0.0562218132 0.0239671396 0.7316437418 -0.2711522797 0.7319609987 -0.2724923308 0.056020886 0.0242895824
200298800.0 0.0568960794 0.0227897999 0.7296409927 -0.2800481031 0.7294431791 -0.2805821472 0.0561595995 0.0232497517
205298770.0 0.0569605307 0.0212299074 0.7266664704 -0.289026513 0.7266768673 -0.2896655675 0.0565896682 0.0210301092
210298740.0 0.0568497679 0.0197757398 0.7238217932 -0.2986296321 0.7244377333 -0.298860992 0.0567523122 0.019817401
215298710.0 0.0576494141 0.018656029 0.7208800117 -0.3066521116 0.7208371648 -0.3069717151 0.0569521245 0.0185295204
220298680.0 0.0581548818 0.0172051626 0.7174949844 -0.3158271086 0.7175675595 -0.31581348 0.0573857498 0.01753393
225298650.0 0.058553995 0.016136224 0.7138814044 -0.3238957601 0.713949233 -0.3239645895 0.0576339688 0.0159380133
230298620.0 0.0580928944 0.0149159301 0.7113158837 -0.3326585636 0.7113472628 -0.3330051862 0.0577697746 0.0146227413
235298590.0 0.0584391401 0.0132357981 0.7077120451 -0.3407901285 0.7074811306 -0.3413407371 0.058078843 0.012980359
240298560.0 0.0580223559 0.0120073425 0.7042056034 -0.349238128 0.7042575531 -0.3489792038 0.0582392493 0.011926812
245298530.0 0.0587247686 0.0111137216 0.6994272397 -0.3577330913 0.6998537254 -0.3576825665 0.0583297105 0.0110747571
250298500.0 0.0582130079 0.0095460504 0.6961950415 -0.3654192824 0.6967796404 -0.365564865 0.0587375719 0.0089355914
255298470.0 0.0582528308 0.0089271405 0.6922034263 -0.3747646374 0.6924935353 -0.3741694568 0.0587267873 0.0076021945
260298440.0 0.0581437527 0.0079869024 0.6885599217 -0.3816755971 0.6883780983 -0.3826202288 0.0593636743 0.0069351388
265298410.0 0.0588313633 0.0071361961 0.6841743855 -0.3905214821 0.6841266827 -0.3909055178 0.0585713765 0.0054778951
270298380.0 0.059044988 0.0058483697 0.6798510725 -0.3983295559 0.6805351343 -0.3982799674 0.0589801508 0.0053501635
275298350.0 0.0581117741 0.0047392818 0.6757993034 -0.4066990531 0.6760920982 -0.4067457465 0.0590594186 0.0036829447
280298320.0 0.0585284512 0.0041444166 0.6711343526 -0.4136803464 0.6713930201 -0.4142159588 0.0593478766 0.0030975555
285298290.0 0.058617671 0.0031901161 0.6669482742 -0.4217077635 0.6669250617 -0.4219621573 0.058488483 0.0016871736
290298260.0 0.0587382991 0.0018996611 0.662624304 -0.4293502685 0.6627910698 -0.429832751 0.0597424082 0.0007738114
295298230.0 0.0588047887 0.000965681 0.6580401051 -0.4375468631 0.6577565555 -0.4375088709 0.0595873137 -0.0003423403
300298200.0 0.0590856248 3.8704e-06 0.6527980867 -0.445103733 0.6536344626 -0.44554616 0.0589207557 -0.0013105025
305298170.0 0.0588725022 -0.0013255928 0.6487437294 -0.4536659733 0.6488140996 -0.4530042288 0.0595130654 -0.0022072998
310298140.0 0.0594467968 -0.0023817389 0.6435663765 -0.4607778638 0.6435284699 -0.4611724266 0.0596110861 -0.0030088541
315298110.0 0.0587451185 -0.0032207444 0.6385710237 -0.4681471046 0.6388351396 -0.4682723472 0.0596776356 -0.0044664333
320298080.0 0.0585128812 -0.0043258566 0.6332126736 -0.4753576905 0.6336102686 -0.4758215444 0.0591828799 -0.005752853
325298050.0 0.0581411511 -0.0056994064 0.6284383673 -0.4835816462 0.628513374 -0.4836680649 0.0589340502 -0.0070315511
330298020.0 0.0579780742 -0.0065946579 0.6217198097 -0.4906025449 0.622024787 -0.4906628541 0.0582759041 -0.0082046471
335297990.0 0.057499519 -0.0076017407 0.6165098778 -0.4976776944 0.6167427119 -0.4979200568 0.0579403262 -0.0089995801
340297960.0 0.0563624921 -0.0078858395 0.6104573186 -0.5047645649 0.6106795998 -0.5043430681 0.0571828079 -0.0094148524
345297930.0 0.0563596646 -0.0083698464 0.6048380023 -0.5105774823 0.6049047492 -0.5112133336 0.0575708275 -0.0107034775
350297900.0 0.0561631353 -0.0092110944 0.5989482817 -0.5177632589 0.5997586861 -0.5181400902 0.0564881833 -0.010718599
355297870.0 0.0559635888 -0.0102212604 0.5931748481 -0.5247832756 0.5933651398 -0.5249505415 0.0565008019 -0.0112027897
360297840.0 0.0559343489 -0.0106956144 0.5875275198 -0.5317759243 0.5875886025 -0.5314271163 0.0562363353 -0.0119095868
365297810.0 0.0558960387 -0.0114118557 0.5818111032 -0.5374863219 0.5820810727 -0.5379438227 0.0558198397 -0.0122437603
370297780.0 0.0556336842 -0.0121372074 0.5757611356 -0.5444625139 0.5758559809 -0.5447635905 0.0559603584 -0.0128771122
375297750.0 0.0550324395 -0.0124207725 0.5705980032 -0.5503965849 0.5696467469 -0.5509394497 0.055430114 -0.0136100849
380297720.0 0.0550218972 -0.013659357 0.5637179447 -0.5566536311 0.5637792022 -0.5572184151 0.0550372477 -0.0142462634
385297690.0 0.0550243431 -0.0139839802 0.5575956557 -0.5631241425 0.5572485803 -0.5630958008 0.0549841753 -0.0147914541
390297660.0 0.0541315634 -0.014811169 0.5508005807 -0.5699240883 0.5514836816 -0.5704773537 0.0549840331 -0.0156855647
395297630.0 0.0546091149 -0.0157527851 0.5454186931 -0.5754038476 0.544966064 -0.5761462312 0.054490031 -0.0157696126
400297600.0 0.0537180371 -0.0158713135 0.5384167764 -0.5817357281 0.5392768485 -0.5820384094 0.0532514315 -0.0171758601
405297570.0 0.0540220457 -0.0164825297 0.5324739726 -0.5876692535 0.5324850403 -0.5882961002 0.0538089136 -0.0170045019
410297540.0 0.0537614699 -0.017470803 0.5251737543 -0.593494156 0.5254346559 -0.594113863 0.0532142464 -0.0178275717
415297510.0 0.0533795137 -0.0173957005 0.5191403405 -0.5994096356 0.5195216448 -0.5998620371 0.0527191509 -0.0181385862
420297480.0 0.0529005416 -0.0188985058 0.5121049104 -0.6055175167 0.512516101 -0.6055696391 0.0525749405 -0.0192834808
425297450.0 0.0533080472 -0.0196577147 0.5058507778 -0.6109826114 0.5065393919 -0.6112044707 0.0521661096 -0.0188384254
430297420.0 0.0524869236 -0.0196891681 0.499118329 -0.6170404932 0.4994121145 -0.6171384041 0.0515731309 -0.0202786965
435297390.0 0.0525034991 -0.0205562119 0.492943699 -0.6218414489 0.4924798908 -0.6217958846 0.0513577173 -0.0200079595
440297360.0 0.0522713145 -0.0214823058 0.4852409524 -0.6277636961 0.4849053082 -0.6274396317 0.0513922316 -0.0216827519
445297330.0 0.0523417666 -0.0221357377 0.4782334248 -0.6330708274 0.4784485091 -0.6333669614 0.0508636973 -0.0217070509
450297300.0 0.0517427916 -0.0224780977 0.4714838531 -0.6384737639 0.4718850048 -0.6386961638 0.0502412145 -0.0220937878
455297270.0 0.050960073 -0.0232596578 0.4646272012 -0.6431363896 0.4653580068 -0.6434190869 0.0505221786 -0.0226070619
460297240.0 0.0504768726 -0.0240222319 0.4571492314 -0.6484439011 0.4565294173 -0.6486090268 0.0497870118 -0.0224023608
465297210.0 0.050867 -0.024633158 0.4505115625 -0.6538369042 0.4508426023 -0.6541562618 0.049283856 -0.0235879028
470297180.0 0.0499199542 -0.0251412353 0.4431602636 -0.6582205253 0.4436061222 -0.6589664889 0.048010621 -0.0241684515
475297150.0 0.0490907806 -0.0263499509 0.4358961464 -0.6631924677 0.4360875852 -0.6633192692 0.0483431078 -0.0244256852
480297120.0 0.0498751858 -0.0268714133 0.4285622805 -0.6684795616 0.4289321396 -0.6684383327 0.0478338712 -0.0243273391
485297090.0 0.0494030753 -0.0271710829 0.421436884 -0.6734349324 0.4213373892 -0.6734557505 0.0470414296 -0.0256621278
490297060.0 0.0487465474 -0.0280847757 0.4139832044 -0.6774216388 0.4141988828 -0.6776476468 0.0473863002 -0.0256296221
495297030.0 0.0479880956 -0.0281952856 0.406136618 -0.6819134683 0.4062249429 -0.6821480625 0.046743656 -0.0264888838
500297000.0 0.047948141 -0.0292680638 0.3987165025 -0.6866819165 0.3989516491 -0.6871900579 0.0456523782 -0.026815256
505296970.0 0.0469516726 -0.0297034291 0.3905267448 -0.6903367815 0.3911984987 -0.6913974626 0.0451128838 -0.0270077523
510296940.0 0.0468736974 -0.02979483 0.3839207953 -0.6954348854 0.3838431331 -0.695196689 0.0450182522 -0.0271197141
515296910.0 0.0460349715 -0.0303108422 0.3760367929 -0.6993438725 0.3760789857 -0.6994658361 0.0443772078 -0.0279728639
520296880.0 0.04577074 -0.0315634746 0.3682853235 -0.703828934 0.3685068394 -0.7032070905 0.044103243 -0.0281048823
525296850.0 0.04514575 -0.0319556799 0.3609240769 -0.7075297912 0.3609096861 -0.7076885572 0.0439748521 -0.0286802941
530296820.0 0.0450041082 -0.032348445 0.3535753912 -0.7107337754 0.3529405437 -0.711567695 0.0429675446 -0.0296263719
535296790.0 0.044232085 -0.0329082009 0.3450285811 -0.7147120963 0.3453311568 -0.7156168135 0.0426745928 -0.0301656384
540296760.0 0.0436995716 -0.0336847081 0.3377069506 -0.7192754222 0.3366337513 -0.7196654101 0.0417040493 -0.0299241219
545296730.0 0.0432420021 -0.033320147 0.3296743688 -0.7217736143 0.3294696782 -0.7234734688 0.0414218121 -0.0307824182
550296700.0 0.0427250975 -0.0342692644 0.3218522778 -0.7261502949 0.3222592359 -0.7269257354 0.0404327793 -0.0305871444
555296670.0 0.0426781653 -0.0351176707 0.3138897939 -0.730312777 0.3139409989 -0.729938596 0.0400663208 -0.03103615
560296640.0 0.0415543471 -0.0355684081 0.305713837 -0.733027261 0.305962401 -0.7327880948 0.0397101745 -0.0314977396
565296610.0 0.040945633 -0.0360758652 0.2973668831 -0.7367660995 0.29722266 -0.7370646774 0.039007572 -0.0323437953
570296580.0 0.0412306586 -0.0364207612 0.2897044066 -0.7395528831 0.2896344197 -0.7400464217 0.0388129204 -0.0316691254
575296550.0 0.0402486362 -0.0360857561 0.280954049 -0.7420092234 0.282041708 -0.7427590141 0.0383111169 -0.0324281612
580296520.0 0.0396306145 -0.036911029 0.2736112099 -0.7458892591 0.2730205822 -0.7460466344 0.0375331398 -0.0333174213
585296490.0 0.0392663743 -0.037707988 0.265465853 -0.7489333955 0.2652080175 -0.7487145396 0.0368734405 -0.0336143002
590296460.0 0.0383762227 -0.0384934715 0.2568442742 -0.7517732232 0.2567495688 -0.7521021154 0.0368875491 -0.0332436576
595296430.0 0.0377076923 -0.0382861808 0.2490442338 -0.7544235626 0.2484321311 -0.7548179543 0.0363162012 -0.0339877794
600296400.0 0.0372824364 -0.0385117231 0.2406488196 -0.757296405 0.2410296248 -0.757205216 0.0352271582 -0.0339054574
605296370.0 0.0368544687 -0.0385705036 0.2321949853 -0.7599505131 0.2321814334 -0.7594530889 0.0348783175 -0.0349898175
610296340.0 0.0359647406 -0.0393559365 0.2243353437 -0.7620217835 0.2240164532 -0.7623428975 0.034179178 -0.0342237183
615296310.0 0.0353183915 -0.0395764338 0.2152036432 -0.7642657847 0.2153663355 -0.7649400094 0.034032636 -0.0352564476
620296280.0 0.034692074 -0.0399187562 0.2073267945 -0.7667710592 0.2077398898 -0.7670014425 0.0333734336 -0.0355655088
625296250.0 0.0346096792 -0.0404126709 0.1985529453 -0.7690969014 0.1986306521 -0.7698244105 0.0329919102 -0.0355215526
630296220.0 0.0337648619 -0.0405372554 0.1902530244 -0.7714951297 0.1907403548 -0.7713047843 0.0315456874 -0.0357011907
635296190.0 0.033233604 -0.0410372069 0.1820504855 -0.7731389964 0.1817591 -0.7729278067 0.0315916513 -0.0364635463
640296160.0 0.0323816017 -0.0410086747 0.1736738163 -0.7749158125 0.1734498593 -0.7754813193 0.0315734343 -0.0366797886
645296130.0 0.0320116041 -0.04119396 0.1651959886 -0.777756258 0.1649779726 -0.7770503646 0.0296648204 -0.0373463656
650296100.0 0.0310707332 -0.0411855487 0.1573366087 -0.7782954989 0.1569929819 -0.7786124908 0.0297467825 -0.0372419478
655296070.0 0.0302625844 -0.0419481875 0.1480297562 -0.7804817294 0.1479798374 -0.7803375458 0.0298689842 -0.0368532471
660296040.0 0.0295077197 -0.0416664897 0.1397106165 -0.7813110523 0.139704272 -0.7818337195 0.0285114458 -0.0381230691
665296010.0 0.0294162907 -0.042483834 0.1309758346 -0.7831722894 0.1315698569 -0.783656089 0.0277219136 -0.0373778834
670295980.0 0.0291620881 -0.0424175323 0.1226459208 -0.7849832395 0.1231123766 -0.7843220608 0.0267967622 -0.0382428646
675295950.0 0.0286484605 -0.0424861214 0.114039517 -0.7855859132 0.1146298927 -0.7865748562 0.0269198943 -0.038122812
680295920.0 0.0275037891 -0.0424959667 0.1056534388 -0.7870712449 0.1052823242 -0.7878414181 0.0265576192 -0.0388175611
685295890.0 0.0267382159 -0.0427478773 0.0975873804 -0.7881547315 0.0973724066 -0.7885839082 0.0259510858 -0.0385064716
690295860.0 0.0267031469 -0.0432015356 0.0887123401 -0.7890317174 0.0880797566 -0.7890496613 0.0254909215 -0.0380596432
695295830.0 0.0263897101 -0.043584603 0.0786691609 -0.7894884882 0.0791354098 -0.7906075086 0.0244276707 -0.0387643481
700295800.0 0.0258995871 -0.0434606466 0.070771718 -0.7910096352 0.0708887216 -0.7912861197 0.0237270528 -0.0396170532
705295770.0 0.0247598875 -0.0438091999 0.0627333203 -0.7916791892 0.0625491514 -0.7917962735 0.0231942877 -0.0393450564
710295740.0 0.023954878 -0.0433921381 0.0538322997 -0.7924253593 0.0540177823 -0.7925199118 0.0216003253 -0.0392109078
715295710.0 0.023688908 -0.0438202915 0.0452088505 -0.792882004 0.0455290841 -0.7934484145 0.0219235869 -0.040158888
720295680.0 0.0226546845 -0.0442646581 0.0364406186 -0.7933518162 0.0365312358 -0.7938956383 0.0217781626 -0.0395033286
725295650.0 0.0224509946 -0.043933649 0.027537049 -0.7934740702 0.028026434 -0.7930643495 0.0208456663 -0.0393766566
730295620.0 0.0211918543 -0.0447994688 0.0193219669 -0.7942027441 0.019449229 -0.794329019 0.0205989714 -0.0405979829
735295590.0 0.0212707631 -0.0442892878 0.0111503199 -0.7935991868 0.0106835218 -0.7945834096 0.019513463 -0.0394670028
740295560.0 0.020236744 -0.0442014194 0.0020877491 -0.7931479647 0.0018805252 -0.7938646448 0.0196595263 -0.0398148429
745295530.0 0.0198568047 -0.0448848809 -0.0064294597 -0.7941179977 -0.0064974413 -0.7945329523 0.0182892873 -0.039954636
750295500.0 0.0191530903 -0.0447653651 -0.0148337352 -0.7940107037 -0.0151641583 -0.7935157115 0.0185979614 -0.0403649862
755295470.0 0.0189760875 -0.0444243309 -0.0238700414 -0.7934266872 -0.0238877617 -0.7936675759 0.0169615181 -0.0402761096
760295440.0 0.0178246311 -0.044466329 -0.0326420107 -0.7932784542 -0.0325059632 -0.793592046 0.0160978883 -0.0405274504
765295410.0 0.0169502952 -0.0450692545 -0.0408833393 -0.792277605 -0.0408781522 -0.7931855951 0.016733712 -0.0399446521
770295380.0 0.0169241032 -0.0448055728 -0.0497979719 -0.7920067006 -0.0494775992 -0.7926767049 0.0163327137 -0.0398627572
775295350.0 0.0163077146 -0.0447259283 -0.05803917 -0.791278607 -0.0582250097 -0.7917425945 0.0147397179 -0.0408455224
780295320.0 0.0156597921 -0.0448168319 -0.0665934881 -0.7908883349 -0.066379111 -0.7909829813 0.0144852239 -0.0400399199
785295290.0 0.0148154519 -0.0442253246 -0.0751534114 -0.7897080563 -0.0757199268 -0.7906254084 0.0133019652 -0.0402043899
790295260.0 0.0141156384 -0.0443384085 -0.0839238427 -0.7893194943 -0.0834638459 -0.7896553981 0.0135357942 -0.0403040488
795295230.0 0.0134813599 -0.0445717283 -0.091797487 -0.7878822456 -0.0921964362 -0.7887467917 0.0125124648 -0.0394323819
800295200.0 0.0130661751 -0.0443723622 -0.1014821102 -0.7875844106 -0.1015712629 -0.7876336793 0.0120853977 -0.0400979864
805295170.0 0.0118225863 -0.0445967876 -0.1094706933 -0.7856000262 -0.1097371603 -0.7860588991 0.0111485952 -0.0401039252
810295140.0 0.0116569159 -0.0445944506 -0.117657652 -0.7849924641 -0.1182232928 -0.7854890089 0.0110689999 -0.0396474819
815295110.0 0.0108599351 -0.0445625861 -0.1262695986 -0.783161914 -0.1273444369 -0.7839150672 0.0099533348 -0.0401431664
820295080.0 0.0102534582 -0.0449631401 -0.1350565368 -0.7826621907 -0.135197026 -0.7822823358 0.0093932352 -0.0395329254
825295050.0 0.0098033384 -0.0447849762 -0.1438096207 -0.7803724343 -0.1439573769 -0.7807556426 0.0090934104 -0.0396787671
830295020.0 0.0087957294 -0.0440392548 -0.152259579 -0.7789432823 -0.1525418531 -0.7791490673 0.008115479 -0.0399544624
