!Created with skrf (http://scikit-rf.org).
# Hz S RI R 50.0 
!freq ReS11 ImS11 ReS21 ImS21 ReS12 ImS12 ReS22 ImS22
300000.0 -0.7701417847 -0.1750745441 6.86324e-05 0.0006356589 -0.0008619472 0.001855677 -0.0455629658 -0.0773987801
5299970.0 -0.7857891946 -0.009385868 0.0001834027 0.0002020573 0.0001586022 -0.000131178 -0.047840757 0.0138288229
10299940.0 -0.7893671181 -0.0057636758 2.41142e-05 -7.60675e-05 -6.17245e-05 0.0001356477 -0.0418482486 0.0316673117
15299910.0 -0.7939900314 -0.0032590715 -0.000138953 4.45268e-05 0.0001092264 -1.21151e-05 -0.0339172358 0.045643692
20299880.0 -0.8008358431 0.0006721351 0.0002192186 9.53838e-05 6.47752e-05 -0.0002152891 -0.0241586441 0.0570359641
25299850.0 -0.8078600652 0.0067750095 0.0002286142 -0.0002574005 -3.82516e-05 0.0001564333 -0.013534321 0.0661764001
30299820.0 -0.8142404274 0.0138099392 5.18425e-05 5.64486e-05 0.0002286685 0.000140878 -0.0020406631 0.0728675688
35299790.0 -0.8188268843 0.0235279873 4.74907e-05 -0.0002104134 -1.18956e-05 0.0001822434 0.0089666401 0.0775497721
40299760.0 -0.8237384993 0.0319895581 0.0002336793 -3.38276e-05 -4.62685e-05 -0.0001455363 0.0201507926 0.0800051633
45299730.0 -0.82676841 0.0416354867 -0.0001052049 5.75619e-05 -6.97683e-05 1.06867e-05 0.0303985922 0.0815368662
50299700.0 -0.8293346174 0.0518257966 0.0001036991 0.0001333528 3.513e-06 2.16088e-05 0.0404410167 0.081521557
55299670.0 -0.8312540476 0.0616715344 -7.38623e-05 7.15666e-05 1.8619e-06 0.0001822884 0.049138736 0.0801527721
60299640.0 -0.8323974733 0.0719525064 -2.42162e-05 -8.9748e-06 0.0002278053 3.54824e-05 0.0579069017 0.0784299134
65299610.0 -0.8340141829 0.0812187119 -0.0001689944 0.0001654481 -7.85984e-05 2.42477e-05 0.0653439447 0.0763409621
70299580.0 -0.8340797679 0.0916383089 -6.76507e-05 0.0001429034 -3.4474e-06 -2.93131e-05 0.0718178375 0.073078489
75299550.0 -0.834024199 0.101618235 3.91456e-05 0.0001609342 0.0001391373 8.60701e-05 0.0786016961 0.0698897968
80299520.0 -0.8337626079 0.1118242971 8.261e-07 0.0002287513 2.2392e-06 2.24108e-05 0.0838747376 0.0664016473
85299490.0 -0.8327842 0.1212552151 -2.59492e-05 8.38105e-05 -5.06382e-05 0.0001804373 0.0887796925 0.0625498126
90299460.0 -0.8327331166 0.1317389209 -7.65553e-05 -0.0001006029 4.43426e-05 0.0001138666 0.0932282829 0.0586910215
95299430.0 -0.8316349132 0.1405196553 0.0001461301 0.0002015204 0.0001606508 2.49118e-05 0.0974386088 0.0548691581
100299400.0 -0.8304318823 0.1495770289 1.89636e-05 -1.3854e-05 -6.68895e-05 5.80731e-05 0.1011554963 0.0511855934
105299370.0 -0.8293278239 0.1592358794 1.91105e-05 -6.24963e-05 -6.73541e-05 1.35916e-05 0.1042494018 0.046902402
110299340.0 -0.8278321224 0.1683693961 2.30798e-05 -0.0001478125 -2.15484e-05 8.24338e-05 0.1067867592 0.0428305301
115299310.0 -0.8260672366 0.1773114763 -2.464e-06 0.0002586498 5.72892e-05 2.44426e-05 0.1091270549 0.0393065459
120299280.0 -0.8246785305 0.1869869474 0.0001636493 0.0001592749 -5.1377e-05 -7.4207e-05 0.1111474317 0.0350812607
125299250.0 -0.8221109949 0.1951808451 -7.5727e-06 6.09734e-05 9.08877e-05 -5.2031e-06 0.1131314856 0.0311751
130299220.0 -0.82095551 0.2055175621 0.0001504951 -0.0001097392 -6.46238e-05 7.08748e-05 0.1149815925 0.0275410411
135299190.0 -0.8188510464 0.2146199335 0.0001071479 -2.10143e-05 -1.6783e-06 6.71696e-05 0.1164791618 0.0236535492
140299160.0 -0.8170123605 0.223375536 -7.77093e-05 3.2361e-06 -7.52876e-05 2.027e-05 0.1170815487 0.0205274369
145299130.0 -0.8149257786 0.2325582516 1.90936e-05 9.55443e-05 -8.36428e-05 0.0001436343 0.1184156977 0.0168100824
150299100.0 -0.811985277 0.2411119334 0.0002566177 0.0001235542 0.0001893086 4.72683e-05 0.1191460171 0.0130929626
155299070.0 -0.8097931477 0.2501265378 -0.0001551567 8.60695e-05 0.0002233971 9.82057e-05 0.1200017869 0.0097986069
160299040.0 -0.8077584655 0.2594108571 0.0001395205 2.7678e-06 8.3374e-06 7.90408e-05 0.1201982138 0.0067512039
165299010.0 -0.8045549843 0.2671581749 4.10995e-05 0.0001400217 -3.97667e-05 -2.17347e-05 0.1211995149 0.0033202225
170298980.0 -0.8018262668 0.2761675037 1.86409e-05 2.28897e-05 8.7662e-06 5.44934e-05 0.1210581812 0.0003851885
175298950.0 -0.7992362834 0.2839792159 -1.85288e-05 0.0001651893 4.86055e-05 -8.40112e-05 0.1211906059 -0.0023534771
180298920.0 -0.7957036852 0.2932439203 0.0001517212 -6.49892e-05 0.0001547909 -5.82434e-05 0.1214132154 -0.0059758497
185298890.0 -0.792336316 0.3024091648 -1.2463e-05 -6.40407e-05 9.9189e-06 -0.0001870247 0.1212715496 -0.0088017714
190298860.0 -0.7892823476 0.3106960273 0.0001907712 0.0001952041 2.64504e-05 -4.24946e-05 0.1212038682 -0.0115952504
195298830.0 -0.786498474 0.3187757465 0.0001572225 -9.94838e-05 0.0001532386 4.77945e-05 0.1209440514 -0.0141825359
200298800.0 -0.7831940862 0.3280580088 0.0001119897 2.6522e-05 -4.27458e-05 0.0001817354 0.1207478062 -0.0170849524
205298770.0 -0.7789434063 0.3364972592 1.80884e-05 0.0001512395 9.7153e-06 0.0002590941 0.1206820621 -0.0199693488
210298740.0 -0.7761134512 0.3442017115 -5.79113e-05 0.000193334 4.76978e-05 5.28426e-05 0.1201318482 -0.0223017442
215298710.0 -0.7724813083 0.3533285943 0.0001099302 2.07074e-05 -0.000178216 -6.09315e-05 0.1197756987 -0.0253561253
220298680.0 -0.7688893959 0.360759473 -3.82678e-05 8.41099e-05 7.30658e-05 0.0001922594 0.1194776267 -0.0272728514
225298650.0 -0.7643578723 0.3692991928 -3.84599e-05 6.56956e-05 -0.0001123787 0.0001145955 0.1185766193 -0.0300808292
230298620.0 -0.7611556198 0.3775953336 2.5104e-05 0.0001448309 -0.0001089887 -6.83596e-05 0.1180643969 -0.0323479868
235298590.0 -0.7570557512 0.3863785446 -6.6722e-06 0.0001865682 8.64893e-05 -0.0001061175 0.1173064216 -0.0346036314
240298560.0 -0.752914898 0.3935594344 -0.000105588 3.4359e-06 0.0001255777 7.52629e-05 0.1169755136 -0.0370613926
245298530.0 -0.7488171939 0.4015987169 0.0002687142 4.5379e-06 0.0001551309 8.3772e-05 0.11585797 -0.0393077447
250298500.0 -0.7444933935 0.4093656199 0.0002123801 0.0002236355 7.372e-05 -4.38669e-05 0.1151721934 -0.0414259738
255298470.0 -0.740514878 0.4177896067 1.45627e-05 8.3847e-05 4.8313e-05 3.51373e-05 0.1144214119 -0.0437530308
260298440.0 -0.7361692977 0.4249523078 2.53935e-05 2.64514e-05 5.15583e-05 8.86777e-05 0.1129709155 -0.0455963186
265298410.0 -0.7320204854 0.4327357632 4.399e-05 -8.67437e-05 -0.0001246451 0.0001611469 0.1129312736 -0.0477116388
270298380.0 -0.7271092005 0.440632634 4.32447e-05 3.9311e-05 -1.25656e-05 1.20328e-05 0.1120099728 -0.0500148855
275298350.0 -0.7233448332 0.4482854047 -7.76184e-05 9.23842e-05 5.03259e-05 2.11406e-05 0.1109247489 -0.0518193214
280298320.0 -0.7182948933 0.4557184076 0.0002563825 4.0977e-06 6.17922e-05 -5.81427e-05 0.1098173396 -0.0537623638
285298290.0 -0.7137646299 0.4635129565 6.4661e-06 -1.25171e-05 0.0001189164 3.82821e-05 0.1086805367 -0.0555387141
290298260.0 -0.7083211821 0.4711511318 -4.9403e-05 0.00012946 7.76009e-05 0.0003286382 0.1077588948 -0.0573375962
295298230.0 -0.704080073 0.4785682537 3.40639e-05 7.3142e-05 0.0002554402 -7.58983e-05 0.107011499 -0.0594410671
300298200.0 -0.6992071393 0.485632729 -6.33392e-05 5.07591e-05 0.0001830403 -5.35739e-05 0.1060004368 -0.0611711511
305298170.0 -0.6947163825 0.4921480359 0.0001126711 7.06326e-05 0.0001150877 6.11572e-05 0.1049074587 -0.0627976846
310298140.0 -0.6890709214 0.4998837283 9.59115e-05 5.11514e-05 -3.27138e-05 -5.6915e-05 0.1039879533 -0.0644597674
315298110.0 -0.6847675922 0.5072828063 8.15226e-05 -3.61564e-05 2.21839e-05 0.0001009147 0.1030391788 -0.0666574756
320298080.0 -0.6788800694 0.514127195 -0.0001260623 -2.57777e-05 4.48239e-05 -0.0003202524 0.1015851405 -0.06826101
325298050.0 -0.6734871984 0.5207521854 0.0001528267 6.57606e-05 2.75174e-05 -0.0001161901 0.1006544093 -0.0704755341
330298020.0 -0.6678951864 0.5280324732 -4.29063e-05 -3.84683e-05 0.0001076363 -3.53431e-05 0.098992972 -0.0722937227
335297990.0 -0.6631372295 0.535078065 0.0001053781 0.0001185747 7.3586e-05 6.7045e-06 0.0977606049 -0.0740947823
340297960.0 -0.6577725145 0.5417726311 7.63655e-05 -0.0001658727 0.0001218136 4.51987e-05 0.0964832273 -0.0752319318
345297930.0 -0.6526560466 0.5481239533 -9.44919e-05 9.64175e-05 9.25908e-05 -1.59e-05 0.0948540746 -0.0768396378
350297900.0 -0.6461470638 0.5549736879 -0.0002161475 -5.22183e-05 3.9564e-06 -5.74918e-05 0.0930474256 -0.0782124584
355297870.0 -0.641095522 0.561296508 -5.0328e-06 5.96085e-05 0.0003096183 -2.54028e-05 0.0918092646 -0.0792740731
360297840.0 -0.6350911322 0.5683901744 0.0003343076 9.4917e-06 -0.0001751561 5.84458e-05 0.090676348 -0.0809890046
365297810.0 -0.6292567197 0.5744596004 2.54513e-05 -8.38108e-05 4.20684e-05 -5.67887e-05 0.0888803521 -0.0819508884
370297780.0 -0.62345975 0.5805331922 3.83475e-05 0.0001508815 8.44591e-05 9.62725e-05 0.0874497407 -0.0833922063
375297750.0 -0.6178712648 0.5871175332 0.0002270453 8.05763e-05 6.751e-05 -4.466e-07 0.0862592371 -0.0844838077
380297720.0 -0.6119386224 0.5934420701 1.48481e-05 0.0001961644 0.0001641601 0.0001980933 0.0851731172 -0.0858266315
385297690.0 -0.6057067407 0.5994147544 0.000212698 1.45842e-05 -7.24682e-05 7.9588e-05 0.0833481991 -0.0870470581
390297660.0 -0.5982265831 0.6058443943 3.5349e-05 1.00524e-05 -7.06242e-05 -0.0001720253 0.0820335362 -0.0880839917
395297630.0 -0.5931342057 0.6119390624 0.0001488676 7.95386e-05 9.08262e-05 6.608e-05 0.080281565 -0.0896976507
400297600.0 -0.5864204836 0.618313733 -2.50843e-05 8.28217e-05 0.0001601128 1.3534e-05 0.0791127204 -0.090398888
405297570.0 -0.5802529047 0.6233298227 0.0001019718 0.0001430009 9.5205e-05 -0.0001020841 0.0777000442 -0.091762187
410297540.0 -0.5734982768 0.6296827781 0.0001096265 0.000260297 -9.99338e-05 4.59309e-05 0.0761105032 -0.0924972615
415297510.0 -0.5677577076 0.6355872567 -0.0001590073 -7.77302e-05 0.0002465138 6.59818e-05 0.074644899 -0.0935901757
420297480.0 -0.560617749 0.6406850284 -6.23407e-05 -5.4539e-05 0.0002241733 -0.0001104674 0.0734509633 -0.0945735933
425297450.0 -0.5546011556 0.6468536885 4.90219e-05 5.99956e-05 7.92339e-05 2.9585e-05 0.0715735702 -0.096011924
430297420.0 -0.547735027 0.6518539377 0.0001774161 -5.5489e-05 2.52415e-05 0.0001208777 0.0702290705 -0.0969235352
435297390.0 -0.5406889054 0.657170582 0.0001827817 0.0001577386 0.0001376329 -4.19079e-05 0.0681906428 -0.0973573139
440297360.0 -0.5339370849 0.6630406705 1.2716e-05 -0.0002130418 8.88201e-05 8.23793e-05 0.0671929648 -0.0983928776
445297330.0 -0.5273790865 0.6684526008 -2.96466e-05 -9.18823e-05 3.40469e-05 1.82048e-05 0.0658321861 -0.0994546538
450297300.0 -0.51973339 0.673776806 -5.04682e-05 4.98325e-05 -9.05519e-05 9.55037e-05 0.0642087948 -0.1002848611
455297270.0 -0.5137280743 0.6787770211 0.0001960095 -0.0001095513 0.0001683141 0.0001276299 0.0625574311 -0.1009234064
460297240.0 -0.5056594271 0.6840830868 7.84614e-05 0.0001126396 0.0001498029 -0.0001448799 0.06079316 -0.1021285348
465297210.0 -0.4991205424 0.6892074038 -3.53184e-05 -1.19959e-05 8.28702e-05 -3.01732e-05 0.0594343109 -0.1025056724
470297180.0 -0.491677086 0.6944710655 0.0001301641 0.0001799453 0.0002274287 -7.81457e-05 0.0577303375 -0.1034701865
475297150.0 -0.4845618566 0.6986755543 -4.68746e-05 0.0001098768 4.28629e-05 0.0002269972 0.0562266503 -0.1042093062
480297120.0 -0.4769890876 0.704408236 0.0001616523 -5.30001e-05 2.79439e-05 3.9601e-06 0.0544948815 -0.1048375339
485297090.0 -0.4702444435 0.7084722689 0.0001830414 -5.42571e-05 2.79708e-05 0.0001367456 0.0527659962 -0.105802756
490297060.0 -0.4620719568 0.7136731848 0.000327495 9.63643e-05 7.99915e-05 0.0001893998 0.0512976109 -0.1065310199
495297030.0 -0.4550770209 0.7181307607 0.0001653513 4.91491e-05 0.0002317067 2.20978e-05 0.0498319927 -0.1070695169
500297000.0 -0.4476334512 0.7222495177 0.0002900331 0.0001611922 7.06765e-05 3.34001e-05 0.0481870927 -0.1076899369
505296970.0 -0.4392698138 0.7273340156 -4.57534e-05 -0.000122162 0.0001446368 -0.0001690539 0.0465490706 -0.1084325326
510296940.0 -0.4319814215 0.731453637 -4.1095e-05 0.0001011255 4.7961e-05 -4.67159e-05 0.0448857174 -0.1085822584
515296910.0 -0.4246262546 0.735866672 0.0001696234 8.60133e-05 0.0001938821 -1.0007e-06 0.0431413972 -0.1094827323
520296880.0 -0.4160054858 0.7398033345 0.0002919623 -1.62059e-05 0.0001223454 5.59306e-05 0.042093132 -0.1100800292
525296850.0 -0.4092329477 0.7441473308 6.75479e-05 1.45632e-05 9.69147e-05 -5.97255e-05 0.040080884 -0.1104080728
530296820.0 -0.4010584344 0.7477264725 2.70986e-05 0.0001649089 -0.0001483941 8.1628e-06 0.0387066499 -0.1107406119
535296790.0 -0.3926741861 0.7517256937 -3.65004e-05 -2.19744e-05 0.0001568173 3.013e-05 0.0371002062 -0.111232515
540296760.0 -0.3847653365 0.755692611 0.0001145238 0.0003650831 2.77693e-05 3.06131e-05 0.0350381684 -0.1116458083
545296730.0 -0.3775758324 0.7601338706 0.000173723 3.36723e-05 0.0001287719 -4.4964e-05 0.0336193368 -0.111931648
550296700.0 -0.369315356 0.7636786103 -0.0001083615 -0.0001789165 0.0002378552 -0.0001370355 0.0317550959 -0.1123162761
555296670.0 -0.3614004926 0.7671015501 0.0001010053 0.0001161806 9.5758e-05 4.82162e-05 0.0299573613 -0.1130286918
560296640.0 -0.3531819774 0.7702778936 0.0003041411 -2.8253e-06 7.29086e-05 -7.41295e-05 0.028129459 -0.1133117887
565296610.0 -0.3458963779 0.7742738874 0.0003615025 -0.0001075186 4.86161e-05 0.0001924898 0.0269768143 -0.1135986247
570296580.0 -0.3371117521 0.7781348337 0.000164449 0.0001155449 0.0001278481 1.95536e-05 0.024806898 -0.1140855614
575296550.0 -0.3283142435 0.7813580577 0.0001477826 -5.23409e-05 0.0001140157 -4.4634e-05 0.0235009556 -0.1142680734
580296520.0 -0.3211074173 0.7846361645 3.4828e-06 8.89807e-05 4.62736e-05 7.45697e-05 0.0218525178 -0.1142759238
585296490.0 -0.3127516123 0.7877665589 0.0001773936 3.73704e-05 0.0001557764 1.86359e-05 0.0201829036 -0.1144735012
590296460.0 -0.3043877922 0.7909219265 4.13886e-05 9.42825e-05 0.0001624531 -3.56892e-05 0.0183343364 -0.1147255859
595296430.0 -0.295792813 0.7937185051 4.93481e-05 9.1853e-06 6.31552e-05 -3.91794e-05 0.0168463372 -0.1148765108
600296400.0 -0.288165564 0.7967757706 0.0001583278 -0.0001194634 0.0001079869 -0.0001756008 0.0151409765 -0.1152057223
605296370.0 -0.2794771729 0.7996969201 -4.69426e-05 -6.10518e-05 8.8954e-05 4.24599e-05 0.0133751101 -0.1149761081
610296340.0 -0.2715221944 0.8031480334 0.0001929354 1.65838e-05 0.0001238686 0.0001357417 0.0116977803 -0.1151402098
615296310.0 -0.2625664586 0.8054841956 0.0001131017 1.43554e-05 2.98322e-05 -3.94743e-05 0.0099349559 -0.1152570576
620296280.0 -0.2553781486 0.8087169983 0.0001262403 -0.0001777286 -5.63349e-05 7.60157e-05 0.0082349443 -0.1150009643
625296250.0 -0.2480139221 0.8107995321 9.2658e-05 3.66823e-05 0.0001267845 1.4508e-06 0.0066228764 -0.1152587859
630296220.0 -0.2389879645 0.8125036425 0.0001237524 -0.0001365902 0.0001802468 5.75001e-05 0.005101626 -0.1149737611
635296190.0 -0.2303758806 0.815804547 0.000125257 4.13478e-05 0.0002883359 2.19393e-05 0.0031826176 -0.1150558535
640296160.0 -0.2219996519 0.8173979276 -7.7455e-06 -1.69341e-05 4.64391e-05 0.0001389304 0.0013537839 -0.1147310259
645296130.0 -0.2136983486 0.8205922864 4.41957e-05 2.93679e-05 7.42372e-05 -3.26445e-05 -9.82316e-05 -0.1152198628
650296100.0 -0.2051433374 0.8221137477 0.0001622385 3.31207e-05 -1.73717e-05 9.39563e-05 -0.0016398771 -0.1148617847
655296070.0 -0.1976650986 0.8241885934 0.0001871007 -0.0004347317 0.0002186891 -3.0559e-05 -0.0036741562 -0.1148620116
660296040.0 -0.1890507995 0.8264317745 0.0001364129 -7.78176e-05 4.76683e-05 -0.0001253497 -0.0051586507 -0.1148391114
665296010.0 -0.1811029694 0.8283562406 2.76674e-05 2.05778e-05 0.0001151082 0.000177232 -0.0067851502 -0.1143007174
670295980.0 -0.1728563787 0.8307453406 8.64111e-05 -0.0001156046 0.0002685991 -0.0002457684 -0.0085337954 -0.1144356825
675295950.0 -0.1634443581 0.8326992616 -2.27148e-05 7.18043e-05 0.0002352123 7.59294e-05 -0.0101736865 -0.1138663883
680295920.0 -0.1569271415 0.8340539988 -9.14971e-05 -0.0001499367 -5.513e-05 0.0002657564 -0.0119296019 -0.1138425293
685295890.0 -0.147466069 0.8351938168 -6.66223e-05 -5.65745e-05 8.14999e-05 -2.24783e-05 -0.0132160901 -0.1135203512
690295860.0 -0.1388850563 0.837017577 0.000112501 -0.0001500834 0.0001616149 0.0001657436 -0.0151620902 -0.1132410285
695295830.0 -0.1306432253 0.8382915738 0.0001600892 -0.0001022377 0.0002468571 -0.0001212044 -0.016836898 -0.1128693999
700295800.0 -0.1220648633 0.8394418225 -3.27989e-05 6.69952e-05 0.0002198369 7.00553e-05 -0.0181554493 -0.1126506042
705295770.0 -0.1145638032 0.8413592183 0.0004242854 1.89199e-05 0.0002849627 3.05826e-05 -0.019717998 -0.1117806619
710295740.0 -0.1071107878 0.8423281659 0.0002342816 -4.64215e-05 0.0001871424 5.0152e-06 -0.021394688 -0.1118146679
715295710.0 -0.0974907019 0.8434647973 0.0002834819 -1.01458e-05 0.000158579 1.19183e-05 -0.0230318877 -0.1115617174
720295680.0 -0.0894573509 0.844824146 0.0001594763 9.09306e-05 0.0002543837 -2.87556e-05 -0.0248370115 -0.1110051127
725295650.0 -0.0816956123 0.845318181 -0.0001458452 -4.73215e-05 0.0003095765 0.0001293447 -0.0262897029 -0.1102709106
730295620.0 -0.0736473128 0.8468621531 0.0002420612 -0.0001710242 0.0003573572 7.17129e-05 -0.0282434194 -0.109820598
735295590.0 -0.06624433 0.8479497097 0.0001324989 -1.20014e-05 7.70816e-05 -0.0001774511 -0.0294573196 -0.1095585749
740295560.0 -0.0573169328 0.8476633086 9.09858e-05 -0.0001371307 0.0001648323 6.27495e-05 -0.031084441 -0.1090731329
745295530.0 -0.0489488924 0.8487006749 0.0003395262 -1.24531e-05 0.0002773237 9.03822e-05 -0.0329067632 -0.1084367865
750295500.0 -0.0409894013 0.8494353337 0.0001654559 5.30841e-05 0.0001807291 -6.09747e-05 -0.0343642617 -0.1078838317
755295470.0 -0.0322356271 0.850276766 0.0001085953 -6.326e-07 0.0001589057 -1.61542e-05 -0.0361209365 -0.1069477159
760295440.0 -0.0246969008 0.8508207474 0.0002793408 -1.51135e-05 0.0002624233 -0.0002364072 -0.037517027 -0.1068946194
765295410.0 -0.0159993013 0.8505723312 4.6504e-05 -0.000169165 8.41725e-05 -4.46656e-05 -0.0390977939 -0.1061332482
770295380.0 -0.0085649469 0.8511204157 0.0003470798 -9.79958e-05 0.0003324635 9.6731e-05 -0.040728999 -0.1055721467
775295350.0 0.0001076813 0.8511410353 0.0002204146 5.5469e-05 0.0001767881 5.29628e-05 -0.041990256 -0.1049917932
780295320.0 0.008572501 0.8509894208 0.0001849696 -1.76309e-05 0.0002421117 8.0333e-05 -0.0439380768 -0.1039739943
785295290.0 0.016837368 0.8512268304 0.0002444523 -0.000136173 0.0001820895 -6.51058e-05 -0.0453137852 -0.1033374703
790295260.0 0.0249236296 0.8505842122 0.0001150227 -0.0002725516 -9.8601e-06 -0.0002256618 -0.0468241188 -0.102645633
795295230.0 0.0329434036 0.8505520552 0.0003317571 2.81561e-05 0.0001716947 0.000243523 -0.0485424325 -0.1022893364
800295200.0 0.0408513635 0.8506043297 0.0001496869 4.78545e-05 0.0002026995 -7.83317e-05 -0.049722376 -0.1014883069
805295170.0 0.0494949021 0.8504184761 0.0003472426 -0.0001355765 9.91873e-05 -5.40229e-05 -0.0510250462 -0.100805475
810295140.0 0.0578850386 0.8507355651 0.0002019935 -7.09726e-05 0.0002355951 2.74435e-05 -0.0527964389 -0.0994047549
815295110.0 0.0651884688 0.8498818768 0.0002645928 -5.36732e-05 0.0001734588 4.15374e-05 -0.0544403394 -0.0987247669
820295080.0 0.073697475 0.8488779415 0.000146749 -0.0001400332 0.0001029373 8.42985e-05 -0.0559689232 -0.0977176094
825295050.0 0.0822889449 0.8483624267 5.34021e-05 2.3336e-06 -2.37879e-05 -2.93962e-05 -0.0570873097 -0.097320152
830295020.0 0.0904192018 0.8475678222 0.000229541 3.08817e-05 0.0001572393 -2.62958e-05 -0.0586487376 -0.0964333642
835294990.0 0.0977583887 0.8464263916 6.83989e-05 -0.0003460856 0.0002424294 -0.000129372 -0.0600605513 -0.0953269665
840294960.0 0.1071127823 0.8451162555 0.0003558584 2.40721e-05 9.76779e-05 0.0001042209 -0.0611418196 -0.0943073503
845294930.0 0.114681877 0.844201045 0.0003533654 -1.99e-06 0.0003901508 -9.16466e-05 -0.0630459031 -0.0932759553
850294900.0 0.1237799851 0.8430033638 4.84504e-05 0.0001014925 0.0001122872 -7.76166e-05 -0.0641394799 -0.0924467162
855294870.0 0.1314693648 0.8421283642 0.0001698917 5.08504e-05 0.0002095873 0.0001005913 -0.0655245069 -0.0913239634
