!Created with skrf (http://scikit-rf.org).
# Hz S RI R 50.0 
!freq ReS11 ImS11 ReS21 ImS21 ReS12 ImS12 ReS22 ImS22
300000.0 -0.2109594398 -0.09790713 -0.0012641432 0.000960426 -0.0003575772 0.0020293099 -0.7643268304 -0.1860346456
5299970.0 -0.2156906324 0.0069720066 2.90276e-05 -9.30236e-05 4.88283e-05 -6.26174e-05 -0.7852893748 -0.0092957386
10299940.0 -0.2117823404 0.0203948125 6.7776e-06 -0.0001386006 -0.0001378923 2.45042e-05 -0.7879286078 -0.0050845571
15299910.0 -0.2063185524 0.0302019254 0.000166783 -0.0003049264 8.98041e-05 -0.0001508409 -0.7931448569 -0.0025681671
20299880.0 -0.2007767054 0.0381248343 -9.88592e-05 -1.01607e-05 -4.37168e-05 -8.65773e-05 -0.7997471649 0.0016600147
25299850.0 -0.1941376091 0.0447486793 -4.62604e-05 -0.0001971692 0.0001313705 2.32856e-05 -0.8065489417 0.0080423276
30299820.0 -0.1879481742 0.0498066987 2.42063e-05 -0.0001478612 0.0001576369 -5.59622e-05 -0.812317732 0.0157579314
35299790.0 -0.1814974458 0.0532393157 -8.19464e-05 0.0001354294 -9.03773e-05 -8.44254e-05 -0.8172718421 0.0246500721
40299760.0 -0.1754083251 0.0563198754 -0.0002647017 6.01251e-05 -1.40427e-05 -7.8008e-06 -0.8209901576 0.033927037
45299730.0 -0.1698426294 0.0580198704 9.92867e-05 -4.26984e-05 1.93184e-05 0.0002441351 -0.8242082637 0.0438513769
50299700.0 -0.1643121256 0.0594080986 -0.000198893 -5.02342e-05 0.0001211911 -0.0001491035 -0.8269110723 0.054203842
55299670.0 -0.1598218919 0.0605396276 0.0001308474 0.0001113417 3.74648e-05 -5.46735e-05 -0.8288562244 0.0639581178
60299640.0 -0.1554719585 0.061150509 -2.84909e-05 -9.56456e-05 4.2387e-05 -3.6474e-06 -0.8299860569 0.0741586575
65299610.0 -0.1508424516 0.0615443941 -4.55671e-05 0.0001090913 -0.0001025564 2.70262e-05 -0.8302528718 0.0840035775
70299580.0 -0.1479062709 0.0612035253 3.49895e-05 2.41674e-05 0.0001032858 2.32478e-05 -0.8311908842 0.0932919694
75299550.0 -0.1445049721 0.0614596324 -5.89289e-05 9.0524e-05 4.06614e-05 0.0002134508 -0.8312076251 0.1042361021
80299520.0 -0.1417349694 0.0615282461 -2.16075e-05 0.0001199333 -8.39905e-05 5.28139e-05 -0.8310130612 0.1141844088
85299490.0 -0.1391081602 0.0609984316 -3.7572e-06 3.70151e-05 -3.1365e-06 -3.91507e-05 -0.830386538 0.1233774343
90299460.0 -0.1364989431 0.0608939054 -4.08864e-05 0.0001388235 0.000203926 -0.0002558622 -0.8291150773 0.1326725904
95299430.0 -0.1345268134 0.0606320718 -0.0001223891 8.94104e-05 -0.0001672728 -0.0002736312 -0.8287154583 0.1427638605
100299400.0 -0.1325910309 0.0604646662 0.0001211172 2.92446e-05 -0.0001328713 1.46218e-05 -0.8270794158 0.151957506
105299370.0 -0.1306175138 0.0603735528 3.55951e-05 -0.0001023705 4.8257e-05 0.0001524682 -0.8262664112 0.1612621144
110299340.0 -0.1289777958 0.0598711966 -0.0002692147 -6.08165e-05 -0.0001850558 0.0001377925 -0.8249287761 0.1696020051
115299310.0 -0.1275899443 0.0601656382 0.0001945282 0.0001770568 7.55041e-05 -1.2905e-05 -0.8231944747 0.1793819818
120299280.0 -0.1257687269 0.0600468874 2.89293e-05 -5.64183e-05 -5.04706e-05 -3.75547e-05 -0.8212366723 0.1882521224
125299250.0 -0.1247665667 0.0597709843 5.22364e-05 0.0002176077 4.6508e-05 -3.91897e-05 -0.8200748661 0.1972750718
130299220.0 -0.1238159538 0.0597644565 -0.0001248807 0.0001798327 0.0001320283 4.5735e-05 -0.817982769 0.2058454156
135299190.0 -0.1225635594 0.0601354849 -6.71427e-05 -4.57958e-05 7.59753e-05 -8.77951e-05 -0.8162688924 0.2152445703
140299160.0 -0.1218873126 0.060004506 4.5652e-06 -3.298e-07 -0.000104641 -2.20073e-05 -0.8139649107 0.2232100568
145299130.0 -0.1212013036 0.0604911981 -1.02578e-05 2.33677e-05 -0.0002419094 -0.0001352856 -0.8122533944 0.2328811724
150299100.0 -0.1202964238 0.060650231 0.0001300207 2.61943e-05 -0.0001543141 9.78552e-05 -0.8098762145 0.2414265413
155299070.0 -0.1192914933 0.0610462809 0.0002266777 6.65476e-05 6.81898e-05 6.41954e-05 -0.8072679155 0.2506258308
160299040.0 -0.1186610044 0.0613549866 4.6336e-06 0.0001617638 6.96228e-05 0.000124593 -0.8043353176 0.2592075229
165299010.0 -0.117871267 0.0620241537 5.13199e-05 0.0002271397 8.49835e-05 7.12198e-05 -0.802183402 0.2674426826
170298980.0 -0.1173297513 0.0623721527 0.0002180489 -6.53747e-05 8.80919e-05 5.1204e-05 -0.7997439268 0.2757979687
175298950.0 -0.1167369848 0.0628426693 7.47588e-05 -0.0001090383 -3.91491e-05 2.50632e-05 -0.7967812334 0.2847530022
180298920.0 -0.1162141473 0.0630789961 0.0001752761 0.0001966141 -4.61204e-05 0.0001665358 -0.7932694368 0.292917481
185298890.0 -0.1155398235 0.0637117573 -0.0001132883 0.0001452493 -1.95601e-05 -2.60428e-05 -0.7904808891 0.301716833
190298860.0 -0.1149952221 0.0643811993 3.53715e-05 4.41857e-05 0.0001325653 -5.3599e-05 -0.7874482751 0.3101444201
195298830.0 -0.1142632255 0.0652856373 2.50569e-05 0.0001363048 6.02792e-05 -0.000179213 -0.7838936894 0.3178810259
200298800.0 -0.1137331977 0.0655697577 1.32672e-05 -0.0002485157 5.6051e-06 -8.49538e-05 -0.7807551723 0.3263920936
205298770.0 -0.1138646722 0.0663974294 4.45896e-05 6.12192e-05 4.19026e-05 -1.84187e-05 -0.778013486 0.3349500085
210298740.0 -0.1130679994 0.0672313077 0.0003364502 8.77735e-05 2.43449e-05 5.81686e-05 -0.7744218422 0.3429863724
215298710.0 -0.1127743345 0.0679598105 5.18562e-05 0.0001459695 0.0001198011 1.3656e-05 -0.7707733678 0.3513746385
220298680.0 -0.1119281109 0.0683130652 -1.34194e-05 8.94485e-05 -0.0001051449 3.6475e-06 -0.7670654054 0.3594897698
225298650.0 -0.1116706838 0.0694312096 -0.0001818575 4.09751e-05 -1.50299e-05 0.0001296449 -0.7629057251 0.367482946
230298620.0 -0.1112521876 0.0705822621 0.0002208171 0.0001780343 0.0001191565 0.0001333724 -0.7592032321 0.3756218973
235298590.0 -0.1110193037 0.0712868616 0.0001816905 -8.4405e-05 2.86294e-05 8.02614e-05 -0.7554783685 0.3834181503
240298560.0 -0.110616386 0.072028933 1.52157e-05 -3.73692e-05 4.37823e-05 -2.3319e-05 -0.7508538735 0.3907407424
245298530.0 -0.1098947171 0.0729330804 0.0001027699 -9.59266e-05 3.73783e-05 0.0002266151 -0.7477120164 0.3988746846
250298500.0 -0.1094560718 0.0737384758 -2.07561e-05 6.9163e-05 0.0001388419 -0.0001972284 -0.7428478426 0.4068292605
255298470.0 -0.1089971326 0.0747150008 5.61332e-05 -0.000182795 8.34826e-05 -0.0002199594 -0.7389497755 0.4144637752
260298440.0 -0.1085811908 0.0752966072 0.0001658834 8.13744e-05 0.0002276293 0.0001376167 -0.7346737357 0.4221410302
265298410.0 -0.1081828722 0.0763890286 -8.51408e-05 -0.0001388992 9.23689e-05 -0.000119163 -0.7297549706 0.4300138711
270298380.0 -0.1076305278 0.0773349661 0.0001319088 0.0001682678 -5.37e-05 -2.50998e-05 -0.7252987496 0.4379204522
275298350.0 -0.1073240782 0.0783117435 4.869e-05 0.0001956984 3.84735e-05 -4.42113e-05 -0.7207166242 0.4455702627
280298320.0 -0.1066701069 0.0793322002 0.0001255482 0.0001370289 0.0001313215 -4.6774e-06 -0.7164534723 0.4528394758
285298290.0 -0.1060334959 0.0803938213 0.0001854327 4.3887e-06 9.87054e-05 0.0001340477 -0.7117761974 0.4607887715
290298260.0 -0.1056548992 0.0816065376 3.13185e-05 1.30669e-05 -4.51935e-05 4.19675e-05 -0.7064343944 0.4676236312
295298230.0 -0.1052631401 0.0822498277 0.0002181522 -3.45071e-05 9.3672e-06 -0.0002275778 -0.7019347862 0.4746993317
300298200.0 -0.104640797 0.0831635907 0.0001558788 0.0001836982 0.0001684178 -1.371e-06 -0.6965756559 0.4827261102
305298170.0 -0.1040137459 0.0840131352 -0.0001866055 -4.05961e-05 0.0001843659 3.00683e-05 -0.6916369714 0.4894789277
310298140.0 -0.103533911 0.084669471 0.000326136 -6.08797e-05 0.0002532057 8.87888e-05 -0.6866256159 0.496915988
315298110.0 -0.1031188379 0.0856953111 0.0001180127 5.45783e-05 6.97465e-05 2.29802e-05 -0.6815719992 0.5041323962
320298080.0 -0.1026294513 0.0864073775 0.0001741506 0.0001518063 0.0001250104 0.0003075868 -0.6765875123 0.5105854068
325298050.0 -0.1024515431 0.0871000539 9.71473e-05 5.69002e-05 -0.0002020493 0.0002661842 -0.6703645508 0.5179529696
330298020.0 -0.1020181899 0.0886259946 -4.66941e-05 0.0001215923 0.0001134782 -3.53734e-05 -0.6650929241 0.5246195544
335297990.0 -0.1015686584 0.0892186346 0.0002817918 0.000246966 -4.99142e-05 -2.00091e-05 -0.6594230967 0.5313851714
340297960.0 -0.1008794739 0.0905551509 5.99135e-05 0.0001574193 0.0001208706 -9.32983e-05 -0.654548594 0.538425552
345297930.0 -0.1004159839 0.0914868106 0.0001900752 0.0002792797 0.0003323552 0.0002128851 -0.649343706 0.5446741023
350297900.0 -0.0999697417 0.0923603921 0.0001000517 8.66045e-05 0.0001200195 -8.1163e-06 -0.6430595998 0.551463593
355297870.0 -0.0995307214 0.0934538378 0.0001536568 -0.0001420789 0.0001592086 -0.0001079083 -0.6372012205 0.5590270048
360297840.0 -0.0989839576 0.094589589 0.0001316885 7.087e-05 7.21907e-05 0.0001021135 -0.6305690866 0.5652425558
365297810.0 -0.0979835336 0.0955985124 0.0001727209 6.52966e-05 -3.08611e-05 0.0001459274 -0.625779489 0.5709866099
370297780.0 -0.0975450278 0.0965581523 0.0002443231 -9.9474e-06 0.000230073 2.10419e-05 -0.6195219028 0.5779924395
375297750.0 -0.0967864824 0.0975487294 8.99857e-05 -6.09492e-05 7.95322e-05 9.56066e-05 -0.6134180707 0.5838660022
380297720.0 -0.0960434784 0.0988300655 2.65119e-05 0.0001288986 -5.67105e-05 2.29349e-05 -0.6066776145 0.5901646666
385297690.0 -0.0953965618 0.099544608 4.95054e-05 0.0001888941 0.0001192663 0.0001296004 -0.6014635411 0.5969481976
390297660.0 -0.0945622 0.1003154322 0.0001287275 1.77926e-05 9.805e-07 -8.72093e-05 -0.5948142793 0.6019780067
395297630.0 -0.0937572707 0.1013595161 0.0001140446 -5.21625e-05 0.0001587246 -4.93206e-05 -0.588107085 0.6078627725
400297600.0 -0.0933570442 0.1022990878 7.9332e-05 -7.52866e-05 2.25508e-05 -5.80499e-05 -0.5826725884 0.6143293567
405297570.0 -0.092787625 0.1033103023 -3.7376e-05 -1.67306e-05 0.0001751128 0.000189582 -0.5757532708 0.6202626081
410297540.0 -0.0913720527 0.104326736 0.000255748 8.38626e-05 0.0002877611 0.0001570977 -0.5693268878 0.6257783361
415297510.0 -0.0909636167 0.1051144704 0.0002534754 8.26322e-05 3.12708e-05 2.83709e-05 -0.5632043399 0.6313398487
420297480.0 -0.0901889403 0.1058034795 0.0001563796 -7.0283e-06 0.0001829641 0.00022832 -0.5566754106 0.6374712571
425297450.0 -0.0889012504 0.1069982718 0.0001044016 2.21738e-05 0.0002366552 6.40544e-05 -0.5494793687 0.6426161446
430297420.0 -0.0883305015 0.107719938 0.0001683945 0.0001278171 0.0001310101 0.0001452458 -0.5431865951 0.6483791348
435297390.0 -0.0876396087 0.1087837152 0.0002463071 0.0001714597 0.0001494535 0.0001516537 -0.5363202435 0.654341051
440297360.0 -0.0864780095 0.109551391 0.0002867065 0.0001343013 0.0003099474 0.0001245162 -0.5304455101 0.6594294097
445297330.0 -0.0856777152 0.1104196394 0.0001659867 0.0001961083 0.0002994807 -1.29231e-05 -0.522777472 0.6650028061
450297300.0 -0.0848148186 0.1111855715 9.53946e-05 8.43045e-05 0.0002096398 5.96615e-05 -0.5158543767 0.6697352564
455297270.0 -0.083969592 0.1121848715 0.0002162729 8.95783e-05 0.0002488181 -0.0001312554 -0.5089545252 0.6751678644
460297240.0 -0.0826610044 0.1131675104 0.0002726299 4.17068e-05 0.0001408305 4.33328e-05 -0.5021355298 0.6800683439
465297210.0 -0.0816883058 0.1140609282 0.0001137673 0.0002901253 0.0001058725 -0.0001003731 -0.4949550867 0.6863310659
470297180.0 -0.0807289747 0.1149076545 0.0001874038 -6.28391e-05 5.18915e-05 -4.91939e-05 -0.487949583 0.6899514002
475297150.0 -0.0798336494 0.1157480207 0.0002907624 2.26468e-05 0.0001799262 -0.000103615 -0.4810997836 0.6953214182
480297120.0 -0.0784571923 0.1166367637 0.0001968101 0.0001035662 8.88844e-05 -3.12542e-05 -0.4744376117 0.7002432892
485297090.0 -0.0778491026 0.1175058247 3.90051e-05 8.6718e-06 0.0001447486 8.62962e-05 -0.4677410227 0.7047525366
490297060.0 -0.0761385662 0.1182706487 2.20652e-05 0.0001571435 0.0001760993 0.0001477167 -0.4594772477 0.7087147507
495297030.0 -0.0753594958 0.1189753117 -5.37324e-05 0.0001362848 0.0004017089 -0.0002182554 -0.4526950356 0.7134647468
500297000.0 -0.0741724519 0.1200495039 0.0002591592 0.0002411381 0.0003257037 0.0001381314 -0.4448192842 0.7184984045
505296970.0 -0.072835565 0.1207799419 0.0002776009 -1.21927e-05 0.0001032381 0.0002543867 -0.4375834089 0.7229762978
510296940.0 -0.0718368722 0.1217576805 -3.47754e-05 -3.54466e-05 -1.09576e-05 4.63154e-05 -0.4301335235 0.7278232195
515296910.0 -0.0707094805 0.1224586493 0.0001539752 0.0001351877 0.0002537817 0.0001150936 -0.4234014304 0.7313946222
520296880.0 -0.0694123739 0.1232127321 0.0001197306 7.61399e-05 0.0001720152 0.0002386331 -0.4155647213 0.7359577308
525296850.0 -0.068488315 0.1239469831 0.0002493127 0.0001692116 0.0001081398 0.0001027185 -0.4082820112 0.7392601618
530296820.0 -0.0674811245 0.1247197721 0.0004271 1.66837e-05 3.80679e-05 -2.14822e-05 -0.4006853044 0.743295947
535296790.0 -0.0657326213 0.1256407252 0.0001160189 7.68278e-05 0.0001497941 0.0001348138 -0.3935527925 0.7482504167
540296760.0 -0.0645845322 0.1265361545 0.0002070669 0.0001424572 0.0004001387 7.8698e-05 -0.3852853626 0.7517005195
545296730.0 -0.0634630957 0.1278655615 5.64178e-05 3.9795e-06 9.05904e-05 0.0002198366 -0.3777573411 0.7556894611
550296700.0 -0.0623797461 0.1282124255 0.0002496832 5.28139e-05 0.0002138282 2.62252e-05 -0.3699131537 0.7592986375
555296670.0 -0.0612318611 0.1291877106 2.47208e-05 0.0001326168 0.0002759978 0.0001923941 -0.3624559249 0.7623955205
560296640.0 -0.0596050179 0.1299406735 7.40209e-05 0.0001304582 0.0002013771 -3.30572e-05 -0.3543830618 0.7669275135
565296610.0 -0.0587459144 0.1306477316 0.0003049909 4.5834e-06 0.000162435 3.08287e-05 -0.3465691804 0.769615893
570296580.0 -0.0571822809 0.1315773952 4.26484e-05 -1.55966e-05 0.000175188 0.0001247449 -0.33890093 0.7727672458
575296550.0 -0.0556897301 0.1322664346 0.0001946247 -1.09071e-05 0.0002448413 -6.02295e-05 -0.3309855354 0.7763657885
580296520.0 -0.054690308 0.133263617 0.0003102045 -4.57098e-05 0.0003500279 0.0001241604 -0.3237718954 0.7796628392
585296490.0 -0.0532155303 0.1339067261 0.0002497462 7.58705e-05 0.000238321 9.37934e-05 -0.3154351722 0.7832703256
590296460.0 -0.0517507206 0.1347602592 0.0004836198 0.0003120087 0.0001950718 -0.000184892 -0.3077730681 0.7856068982
595296430.0 -0.0506202589 0.1352144004 5.55646e-05 5.0166e-06 0.0002227892 9.38679e-05 -0.3002178849 0.7894641266
600296400.0 -0.0493341204 0.1360556374 0.0002193555 9.40125e-05 0.0001388449 -2.09988e-05 -0.2920464808 0.7922126787
605296370.0 -0.0482757125 0.1370853557 0.0001351699 -0.0001017305 4.11353e-05 6.74451e-05 -0.2835301758 0.7954372795
610296340.0 -0.0464516083 0.1379455711 0.0001885077 0.0001669572 0.0002908991 1.26917e-05 -0.2762886425 0.7973367608
615296310.0 -0.045056141 0.1384579613 0.0002266262 -0.000119575 0.0001873191 5.78114e-05 -0.2673018717 0.8004166133
620296280.0 -0.0436819454 0.1395615453 0.0001498852 1.08973e-05 0.0003131763 -0.0001782842 -0.2600009146 0.8033318579
625296250.0 -0.0427029218 0.1398993303 6.08308e-05 4.32623e-05 0.0002076574 1.64427e-05 -0.251709425 0.8051700033
630296220.0 -0.041275914 0.1410498878 0.0001778389 7.77072e-05 0.0001197691 8.75692e-05 -0.243180554 0.8082439239
635296190.0 -0.0401234689 0.1415234711 9.449e-05 -5.2893e-05 0.0003894504 -0.0001227104 -0.2355149957 0.810343593
640296160.0 -0.0385498324 0.1418382223 0.0002171708 1.80402e-05 0.0002960109 7.08138e-05 -0.2272978218 0.8129594518
645296130.0 -0.0370661705 0.1428524742 0.0001773815 0.0001764056 0.0001225131 -8.77712e-05 -0.219813465 0.814646605
650296100.0 -0.0357946733 0.1433893681 5.91472e-05 8.49719e-05 0.0001550869 9.469e-05 -0.2108690068 0.8169530614
655296070.0 -0.0348584389 0.144216678 0.0002102776 -0.0001842999 0.0002147371 -7.46609e-05 -0.2033423099 0.8190849578
660296040.0 -0.0332986082 0.1448707431 4.48299e-05 -9.30821e-05 0.0003015426 0.0001234554 -0.1941700801 0.8211789498
665296010.0 -0.0318515898 0.145570014 0.0005144659 -0.0001734696 0.0001092986 -0.00011181 -0.1860419303 0.822576825
670295980.0 -0.0307129435 0.1460720634 0.0002291584 -8.79173e-05 0.0002595288 3.26556e-05 -0.1784710323 0.8250864952
675295950.0 -0.029296628 0.1466119235 0.0001340946 -0.0002953278 0.0001951049 6.16549e-05 -0.1698749557 0.826741788
680295920.0 -0.0281782911 0.1475400091 0.0001581784 -1.65406e-05 0.0001712904 2.00648e-05 -0.1615451596 0.8278619217
685295890.0 -0.0262457484 0.1480680995 0.0001534231 7.15285e-05 0.0002122227 -2.62267e-05 -0.1532573724 0.8296692948
690295860.0 -0.0249493545 0.1485679591 0.0001648991 0.0001894266 5.14146e-05 -5.29742e-05 -0.1450241617 0.8314351019
695295830.0 -0.0240414258 0.1489518245 0.0001171308 -0.0002141042 0.0004229165 -8.60634e-05 -0.1368839665 0.8329491505
700295800.0 -0.0224397998 0.1499215906 0.0001895663 -0.0001198049 0.000225198 -0.0001223111 -0.1285241609 0.8340399837
705295770.0 -0.0211864355 0.1505405462 0.0001986728 -3.35791e-05 0.0002835715 5.45352e-05 -0.1200135473 0.8356473645
710295740.0 -0.0197003553 0.1507020997 0.0001787826 0.0001331321 0.0002248354 2.6458e-05 -0.111556338 0.8364558764
715295710.0 -0.0183730004 0.1512292754 0.0001360823 -4.93273e-05 0.0002826854 7.29834e-05 -0.1031272898 0.836934362
720295680.0 -0.0167383868 0.1517014335 0.0003445821 0.0001886454 0.0001403808 -6.15971e-05 -0.0946154202 0.8376476
725295650.0 -0.0158058474 0.1524343744 0.0003153781 -0.0001429378 0.0001158698 -1.98277e-05 -0.0872355157 0.8394029177
730295620.0 -0.0146724554 0.1528367086 0.0003649571 -5.28779e-05 8.95118e-05 0.0001618092 -0.0787345061 0.8400839467
735295590.0 -0.0130283332 0.1532330229 0.0001598458 -5.00407e-05 0.0004044102 -5.006e-07 -0.0699276565 0.8400876389
740295560.0 -0.0120401078 0.1536993924 6.84514e-05 7.1908e-05 0.0003704448 -6.62544e-05 -0.0614606115 0.8419627507
745295530.0 -0.0102281388 0.15414734 0.0001777528 -0.0002136954 0.0001229009 0.0001580323 -0.0535136492 0.842043963
750295500.0 -0.009215448 0.154844462 0.000419035 -2.42856e-05 0.0003081253 7.9572e-05 -0.0450343709 0.8425206137
755295470.0 -0.0078809069 0.1549952229 0.0001500095 -5.59738e-05 0.0002345323 -6.28751e-05 -0.0367451569 0.8428319764
760295440.0 -0.0065714788 0.1556405304 0.0002635749 -3.41983e-05 0.0005111913 -1.19235e-05 -0.0282510388 0.8428389268
765295410.0 -0.0049802485 0.1554894805 0.0002007161 -4.40667e-05 0.0004153856 -2.97708e-05 -0.0200812899 0.8433893849
770295380.0 -0.0039005027 0.1560735457 0.0002363183 0.000126142 0.0001840447 -3.05564e-05 -0.0114162623 0.8434354775
775295350.0 -0.0024268749 0.1564533311 0.0002889186 -0.0002897264 0.0004043553 -2.857e-07 -0.0031506799 0.8433287768
780295320.0 -0.0009832849 0.1569365407 0.000279172 -2.58381e-05 0.0001268801 0.0001942488 0.0052131299 0.8438145314
785295290.0 0.0001319182 0.1570110421 9.93803e-05 -0.0003325578 0.0002006906 1.84872e-05 0.0135440838 0.8438853841
790295260.0 0.001363887 0.1570355596 0.0003018624 -9.17909e-05 0.0002134328 1.76607e-05 0.022068281 0.8436735162
795295230.0 0.0028861679 0.1573459221 0.0004765912 0.0001241362 0.0002856499 -0.0001012666 0.0302386115 0.8424067349
800295200.0 0.0041323548 0.1575656592 0.0002985107 6.3174e-06 0.0002799528 -0.0001103089 0.0387578734 0.8427008077
805295170.0 0.0055190238 0.1579481039 0.0004348495 -9.94209e-05 0.0003622004 -4.02047e-05 0.0474018779 0.841992427
810295140.0 0.0071452326 0.1581018785 0.0003769542 -7.36951e-05 0.0002729407 -9.98813e-05 0.0557325002 0.841413201
815295110.0 0.0081173064 0.1584067084 0.0005973002 -0.0001340407 0.0004080079 6.4947e-06 0.0630922047 0.8411447456
820295080.0 0.0096492856 0.1586541713 0.0001276529 2.28826e-05 0.000103443 -2.6772e-05 0.0710906492 0.8406529231
825295050.0 0.0108058788 0.158249925 0.0001700002 -0.0001492113 6.79529e-05 -0.0001741516 0.0803231256 0.8396149675
830295020.0 0.0123902003 0.1585613872 0.0004120537 0.0001107971 0.0002638916 -0.0001572316 0.0879578814 0.8385448952
835294990.0 0.0135410842 0.1585441302 0.0002860585 -0.0001380372 7.46353e-05 7.71917e-05 0.0966939832 0.8379690786
840294960.0 0.0152686294 0.1585851117 0.0002810896 -9.33696e-05 0.0001815549 -0.0002885727 0.1053670918 0.836910515
845294930.0 0.0165129066 0.1588388003 0.0004015246 -2.75333e-05 0.0004102012 -0.0001087086 0.1134910688 0.8353485023
850294900.0 0.0183465752 0.1585990524 0.0004068003 -8.04727e-05 0.0001879023 -0.0001409482 0.1218238601 0.8350380885
