!Created with skrf (http://scikit-rf.org).
# Hz S RI R 50.0 
!freq ReS11 ImS11 ReS21 ImS21 ReS12 ImS12 ReS22 ImS22
300000.0 -0.7756089462 -0.089908303 -0.0010846603 0.0010931091 0.0015386608 0.0004231919 -0.2112007654 -0.0781550505
5299970.0 -0.784853882 -0.0050284342 0.0002652714 2.16436e-05 3.22865e-05 7.48256e-05 -0.215205486 0.0084699644
10299940.0 -0.7878595851 -0.0038813738 -6.47768e-05 2.65604e-05 -5.04199e-05 -5.12633e-05 -0.2113479256 0.0215365415
15299910.0 -0.7939661693 -0.0022585736 7.6471e-05 6.02363e-05 -8.66949e-05 -9.73696e-05 -0.2063143041 0.0310710549
20299880.0 -0.7998732412 0.0024048909 0.0001420257 7.95496e-05 -5.25545e-05 2.16525e-05 -0.2004689692 0.0391396282
25299850.0 -0.8063704755 0.0076004149 -0.0001470486 -0.0001908869 -2.39919e-05 8.48656e-05 -0.1938078694 0.0454697048
30299820.0 -0.8122383953 0.0152787414 -4.07064e-05 3.8308e-05 3.75083e-05 -9.19814e-05 -0.1875443234 0.0505592176
35299790.0 -0.8176349711 0.0242801128 3.53157e-05 -7.0748e-06 7.1051e-06 -6.51445e-05 -0.1813085798 0.0545494602
40299760.0 -0.8217243186 0.0335243129 9.83795e-05 0.0001061023 -0.0001690794 0.0001864791 -0.1752413514 0.0573463228
45299730.0 -0.8246940195 0.0427771228 -0.0001386524 -1.80974e-05 -8.93595e-05 1.96764e-05 -0.1695937642 0.0596305721
50299700.0 -0.827311453 0.0529484688 -7.13949e-05 0.0001058192 0.0001278783 8.37545e-05 -0.1642052234 0.060605454
55299670.0 -0.829132708 0.0628635768 -9.19348e-05 -4.7072e-05 6.23667e-05 0.0001740538 -0.1597664305 0.0617191249
60299640.0 -0.8304071899 0.0734017195 -4.61308e-05 8.88394e-05 -7.0576e-05 0.0001625942 -0.1547001364 0.0622842582
65299610.0 -0.8313509582 0.0832233972 0.0001387653 2.073e-05 -3.55589e-05 3.94806e-05 -0.1513373435 0.062589036
70299580.0 -0.8319547759 0.0933077425 8.81126e-05 -0.0001169544 -2.6522e-05 -5.9664e-06 -0.1477707439 0.0625992067
75299550.0 -0.8313764254 0.1034180332 -0.00013997 1.74044e-05 0.0001545985 -4.9076e-06 -0.1443675625 0.0625461497
80299520.0 -0.8314415272 0.113060109 -0.0001321257 0.0001573344 0.0001921084 0.0001715915 -0.1414589378 0.0628449477
85299490.0 -0.8306463823 0.1225708329 0.0002750764 1.98279e-05 -5.90494e-05 7.00757e-05 -0.1393054947 0.0624163708
90299460.0 -0.8297254907 0.1318170697 6.71168e-05 9.8024e-05 -6.975e-06 6.83155e-05 -0.1368245605 0.0624130413
95299430.0 -0.8291285407 0.1416963989 8.9243e-06 4.9959e-06 0.0001510818 1.61659e-05 -0.1345585937 0.0622831462
100299400.0 -0.8280382603 0.1507992433 3.98301e-05 0.0001169921 0.000180264 0.00019301 -0.1323854123 0.0618815132
105299370.0 -0.8266242564 0.1599848238 3.1339e-05 9.23626e-05 0.0003233111 0.0002555134 -0.1307177839 0.0617655116
110299340.0 -0.8252106611 0.1692967432 0.0001943671 2.81993e-05 -0.0001171194 0.0002230627 -0.1293896847 0.0616140396
115299310.0 -0.8236994 0.178336632 -7.40664e-05 7.52526e-05 0.00011426 0.0001084516 -0.1279497891 0.0615156233
120299280.0 -0.8219816896 0.1871203186 0.00018513 5.42702e-05 0.0001445381 -1.49994e-05 -0.1266406727 0.0613850945
125299250.0 -0.8203481536 0.1956163094 -0.0001335287 -7.43177e-05 3.90011e-05 1.82693e-05 -0.1256741587 0.060933313
130299220.0 -0.8187847761 0.2053244533 0.0002390939 -8.325e-07 2.70037e-05 -6.006e-05 -0.1242964818 0.0609469473
135299190.0 -0.816978753 0.2138694758 0.0001820073 0.000153674 0.0001147896 0.0001472762 -0.1235398477 0.0612558125
140299160.0 -0.8147351838 0.2231208445 -0.000231835 -5.1647e-06 4.7636e-05 0.0001658058 -0.1225126927 0.0615710673
145299130.0 -0.8126672356 0.2323927649 -5.8855e-05 -3.22641e-05 0.0001014133 0.0001738173 -0.121654554 0.0617147268
150299100.0 -0.8102023522 0.2404094816 -9.8683e-06 0.0001050825 0.0002093908 9.65583e-05 -0.1210434852 0.0624390564
155299070.0 -0.8080024973 0.2497591416 0.0002428993 -5.12277e-05 0.0001004261 6.3084e-05 -0.1202385045 0.062352003
160299040.0 -0.8053034279 0.258073899 -4.2644e-06 9.42528e-05 -0.0001531616 -9.78218e-05 -0.1198358435 0.0628272656
165299010.0 -0.8029189943 0.2662409608 -5.10606e-05 2.03395e-05 -1.08204e-05 -4.19182e-05 -0.1190681814 0.0630981077
170298980.0 -0.7997198973 0.2748012903 -4.70307e-05 4.34044e-05 0.0001780134 0.0001410679 -0.1185593889 0.0636422363
175298950.0 -0.7970266283 0.2837560057 0.0001367674 -1.90625e-05 3.08108e-05 -2.70184e-05 -0.1180479851 0.0639341172
180298920.0 -0.7943327578 0.2923998544 0.0001485151 0.0002058931 -8.5708e-06 5.0443e-06 -0.1175497825 0.0645090509
185298890.0 -0.7911156778 0.3005809801 -6.41592e-05 -8.03836e-05 -0.000156659 -3.73556e-05 -0.116706469 0.0649616025
190298860.0 -0.7887342269 0.3093903981 9.94712e-05 4.59793e-05 0.0001543365 -2.77396e-05 -0.1163943885 0.0653329323
195298830.0 -0.7855530569 0.3176283663 3.58339e-05 -2.0571e-06 3.4356e-06 -1.46537e-05 -0.1158001633 0.0662667461
200298800.0 -0.7808968759 0.326418816 6.79844e-05 0.0001500124 0.0001382224 0.00022281 -0.1155027175 0.0665280963
205298770.0 -0.7788509866 0.3340096431 8.32415e-05 0.0001232282 -5.34174e-05 5.03232e-05 -0.1150691996 0.0672442758
210298740.0 -0.7750182753 0.3419573216 5.81048e-05 -6.869e-06 4.45795e-05 0.0001865753 -0.1143809416 0.0679281785
215298710.0 -0.7715180969 0.3506426061 -1.46499e-05 6.83652e-05 0.0002732842 -8.48681e-05 -0.1143983636 0.0683835431
220298680.0 -0.7672150612 0.3586726608 -4.51957e-05 8.7092e-06 -0.0002051538 -7.82343e-05 -0.113515899 0.0690419994
225298650.0 -0.7640699241 0.3661598463 -2.89052e-05 5.32701e-05 5.32696e-05 4.55658e-05 -0.1134485364 0.0697206985
230298620.0 -0.760189556 0.3748210889 2.10423e-05 3.32267e-05 -4.90805e-05 5.24291e-05 -0.112909951 0.0704388949
235298590.0 -0.756212802 0.383019707 -6.1827e-06 7.95423e-05 0.0001355103 4.58411e-05 -0.1123391766 0.0713428308
240298560.0 -0.7523143548 0.3908467635 0.000260789 -2.41392e-05 0.0001169062 0.0002530987 -0.1120636724 0.0723690936
245298530.0 -0.7489123179 0.3989338277 1.57877e-05 0.0001700239 0.0002358146 0.0001350558 -0.1114963892 0.0728012626
250298500.0 -0.7438347039 0.406782884 -5.477e-07 5.70868e-05 0.0001900453 0.0001238928 -0.1111847355 0.073521167
255298470.0 -0.7396883036 0.4132055565 2.93872e-05 9.13873e-05 -0.0001526136 5.73022e-05 -0.1104301625 0.0741845799
260298440.0 -0.7354748892 0.4211544885 -9.60574e-05 0.0001229696 -4.1465e-06 0.0002640923 -0.1098406705 0.0754980612
265298410.0 -0.7310904436 0.4292266426 -3.54844e-05 4.87164e-05 7.2031e-06 0.0001110585 -0.1094278263 0.0766011629
270298380.0 -0.7273240842 0.4371302057 0.0001802291 9.44231e-05 7.8919e-06 0.0002024257 -0.108927253 0.077198439
275298350.0 -0.7224417632 0.4443271398 8.42282e-05 0.0004287353 0.0001705047 0.0001976159 -0.1081898554 0.078297054
280298320.0 -0.7175417022 0.4519939549 0.0002351984 0.0001346852 -5.85806e-05 7.65554e-05 -0.107434514 0.0790438476
285298290.0 -0.7130613285 0.4595015832 0.0001816049 0.0003244687 0.0001244311 0.000113902 -0.1070845592 0.0798062411
290298260.0 -0.7079457741 0.4670336142 7.5732e-05 -2.04702e-05 -0.0001145777 8.33174e-05 -0.1065873539 0.0810550606
295298230.0 -0.7024121102 0.4746453949 0.0001401369 5.87148e-05 4.43642e-05 8.36235e-05 -0.1058831307 0.0814237335
300298200.0 -0.6978500886 0.481637715 2.06124e-05 2.92103e-05 -0.0001992867 -0.0001153563 -0.1053358076 0.0827197876
305298170.0 -0.692617281 0.4878037371 0.0001445854 2.39282e-05 0.0001226376 0.0001178393 -0.1043673098 0.0833570063
310298140.0 -0.6878357218 0.4960781071 -3.22168e-05 -9.56673e-05 4.19681e-05 0.0001145226 -0.1043051937 0.084294012
315298110.0 -0.6830281635 0.5029725232 0.0002067241 -5.30561e-05 0.0002237332 -0.0001143656 -0.1037655796 0.0852840095
320298080.0 -0.6777035621 0.5099013723 0.0001328075 0.0001315619 1.36327e-05 0.0001280312 -0.1028314302 0.0861810064
325298050.0 -0.6718040313 0.5170817451 3.84302e-05 1.94201e-05 -2.09234e-05 2.96069e-05 -0.1026860691 0.0867958964
330298020.0 -0.6662935066 0.5238665808 0.0002883611 0.0001882128 4.48145e-05 0.0002174456 -0.1019998956 0.0879772174
335297990.0 -0.6611222428 0.5305632557 -6.6126e-05 0.0002105114 0.0001723467 9.73497e-05 -0.1016432384 0.0895693372
340297960.0 -0.6557708944 0.5373412404 7.83854e-05 3.87997e-05 -2.21721e-05 0.0001191886 -0.1007136909 0.0901910045
345297930.0 -0.6503796008 0.5438929801 0.0001575604 0.00031816 -0.0001133367 0.0001991206 -0.1004710048 0.0908765375
350297900.0 -0.6447891348 0.5510843705 7.35043e-05 6.54944e-05 7.65193e-05 3.3341e-06 -0.0999659763 0.0925193693
355297870.0 -0.6382396655 0.5578530003 -3.97958e-05 -3.59235e-05 0.0001482555 0.0001659479 -0.0996640668 0.0933125852
360297840.0 -0.6323141862 0.5631101451 8.751e-05 0.0001496419 9.006e-07 5.0456e-05 -0.0985979518 0.0942961344
365297810.0 -0.6270833907 0.5702826649 0.0002797575 -0.0001765062 4.6553e-05 0.00014024 -0.0977457319 0.0949708554
370297780.0 -0.6214489956 0.5762907067 0.000126903 0.0002220007 1.7246e-06 0.0002746662 -0.0964054655 0.0962871188
375297750.0 -0.6151002798 0.582978725 5.72812e-05 0.0002499953 7.11167e-05 6.42385e-05 -0.0964016837 0.0970614235
380297720.0 -0.6087040619 0.5888345043 -4.23983e-05 0.0001121772 -0.0001070693 8.39047e-05 -0.0958972785 0.0981425091
385297690.0 -0.6031071295 0.5950091255 0.0002310809 0.0001711323 -2.02799e-05 3.2337e-05 -0.0949945862 0.0991439346
390297660.0 -0.5967712843 0.6011240937 4.74544e-05 -0.0001203256 0.0002182844 0.0001307183 -0.0941510007 0.1003896728
395297630.0 -0.5909859772 0.6076440513 -3.57117e-05 1.4182e-05 -5.45942e-05 8.39344e-05 -0.0932927813 0.1016937155
400297600.0 -0.5843449941 0.6136836303 1.84542e-05 -0.0002316562 0.000196144 -0.000122668 -0.0922289732 0.1024378176
405297570.0 -0.5783162354 0.6193994818 7.63334e-05 2.7288e-06 0.0002020677 0.0001636418 -0.0918762597 0.1030772336
410297540.0 -0.5712770807 0.6247194665 0.000118559 -7.61497e-05 3.98089e-05 0.0002850539 -0.090858027 0.1044953206
415297510.0 -0.5647418529 0.6305632091 0.0001859144 0.0002507876 0.0004608743 0.000174684 -0.090169823 0.1052667018
420297480.0 -0.5593768705 0.637163437 0.0001819358 0.0001755906 0.000174654 -0.0001510502 -0.0891830516 0.1064293101
425297450.0 -0.5519552117 0.6423059602 0.0001592253 0.0001096088 9.82314e-05 -0.0001306772 -0.0881644262 0.1074725799
430297420.0 -0.5452997228 0.6481232965 0.0001955138 0.0001887558 -1.11044e-05 -1.95599e-05 -0.0876338605 0.1082343995
435297390.0 -0.5387226719 0.6529699198 0.0002670123 -1.72795e-05 0.0002919941 0.0001348602 -0.0866202124 0.1093293168
440297360.0 -0.5326054106 0.6588959715 0.0001166062 -9.02513e-05 0.0001877506 0.0001530108 -0.0855255713 0.1101360866
445297330.0 -0.5251798086 0.6642941955 0.0001507458 0.0002087676 0.0002493357 0.0002070634 -0.0847824237 0.1106724164
450297300.0 -0.5182336698 0.6690789378 0.000304757 3.35068e-05 0.0001145786 0.0003469607 -0.0837495012 0.1121077926
455297270.0 -0.5114078619 0.6740679938 7.28118e-05 0.0002638438 0.0001540891 0.0001260299 -0.082969212 0.1129284814
460297240.0 -0.5052412351 0.6795923022 0.0001461029 7.13301e-05 0.0001949485 3.52219e-05 -0.0822273891 0.1141392724
465297210.0 -0.4975521077 0.6842783194 0.000209868 -2.75306e-05 0.000253217 -4.4e-09 -0.0809072413 0.1149189672
470297180.0 -0.4904927082 0.6899902503 0.0002494046 0.0002348748 0.000154807 3.29686e-05 -0.0797792746 0.1158219206
475297150.0 -0.483619649 0.6941714604 0.0002914375 -7.0743e-05 -1.35716e-05 0.0002348978 -0.078436259 0.1168403076
480297120.0 -0.4763621343 0.6991974872 0.0001592935 0.000120121 8.7077e-06 -9.76404e-05 -0.0779399797 0.1176293202
485297090.0 -0.4692425285 0.7041484722 -0.0001291805 0.0003278126 0.0001711586 0.0001327989 -0.0764823789 0.1185182131
490297060.0 -0.4627310762 0.7079296558 0.0001571576 0.0001557385 0.0001706621 0.0001027361 -0.0757229806 0.1193259388
495297030.0 -0.4549938429 0.7130684516 0.0002049063 0.0002023148 0.0003304378 3.82229e-05 -0.0750524112 0.1206080306
500297000.0 -0.4475675953 0.7184467606 6.53979e-05 5.48861e-05 0.0001813592 0.0003669781 -0.0738757072 0.1216368212
505296970.0 -0.4407271871 0.7226834246 0.0003219368 3.69474e-05 0.0001350979 0.0001454194 -0.0728467381 0.122154015
510296940.0 -0.4329913765 0.7267653772 0.0003246472 0.0001869598 5.749e-05 -2.46554e-05 -0.071687775 0.1228476581
515296910.0 -0.42463385 0.7302979788 0.0002449248 -8.74974e-05 -8.9538e-06 -8.9378e-05 -0.0705375314 0.1235495482
520296880.0 -0.4183458568 0.7350506914 0.0002767238 8.07526e-05 0.0003709516 8.8557e-06 -0.0697096257 0.1242940903
525296850.0 -0.4105372606 0.7386577279 0.0001155698 0.0001098059 0.0001478173 -1.83695e-05 -0.068615252 0.1255876032
530296820.0 -0.4027793697 0.7429638224 0.0004092671 0.0002425042 2.58888e-05 0.000191772 -0.0674446361 0.1263699661
535296790.0 -0.3960217937 0.7466267047 -3.77129e-05 -0.0001021069 0.0002045364 1.06874e-05 -0.066665413 0.127078614
540296760.0 -0.388124814 0.7507269347 0.0001677082 0.0002797778 0.0001198731 0.0001487919 -0.0651274502 0.1278883762
545296730.0 -0.3806109777 0.754736131 0.0004070653 0.0002140884 0.0002166 9.28301e-05 -0.0641997173 0.1285504196
550296700.0 -0.3734843655 0.7584537916 0.0002453686 8.41217e-05 0.0005157595 1.62396e-05 -0.0630435518 0.1296037242
555296670.0 -0.3653986356 0.7613682147 0.0002103688 -4.4266e-05 0.0002984399 -2.77917e-05 -0.0614625643 0.1306778634
560296640.0 -0.3579233679 0.7656558771 0.0001372305 0.0001358381 0.0001772373 7.08872e-05 -0.0606124013 0.1311462373
565296610.0 -0.3500431504 0.769128158 0.0002162846 -5.57948e-05 0.0002530737 5.6629e-06 -0.0592266102 0.1317057817
570296580.0 -0.3424772202 0.7719229675 0.0002241094 1.37324e-05 0.0001715393 -4.81534e-05 -0.0583374485 0.1328710898
575296550.0 -0.3347616449 0.7766748088 0.0001759891 0.0002823596 0.0001116589 9.48825e-05 -0.0570181742 0.1334839647
580296520.0 -0.3268921344 0.7791729079 0.0001884807 -2.29338e-05 0.0002687285 0.0001414984 -0.0559562348 0.1341158578
585296490.0 -0.3187982965 0.7825123558 0.0002403714 0.0001555124 0.0003339834 -5.19335e-05 -0.0547155851 0.1348242365
590296460.0 -0.311000026 0.7854043423 1.45498e-05 0.0001948081 0.000388333 3.02172e-05 -0.0535096632 0.1356096941
595296430.0 -0.3028759163 0.7879781394 7.95162e-05 0.0001173554 0.0002436671 1.51221e-05 -0.0521754659 0.1358058995
600296400.0 -0.2952577873 0.7918009204 0.0002013952 0.0001270375 0.0002350824 7.60509e-05 -0.0511234052 0.1368680289
605296370.0 -0.2879997848 0.7936728552 9.87804e-05 5.17088e-05 0.0003017329 -1.7552e-05 -0.0496421201 0.1376314471
610296340.0 -0.279316367 0.7968810601 0.0001168753 -1.30189e-05 0.0002230396 0.000221034 -0.0483318158 0.1382974988
615296310.0 -0.2704986662 0.800009501 0.0002169704 -4.62646e-05 0.0002487074 4.16541e-05 -0.0469303569 0.138774092
620296280.0 -0.2632524352 0.8018927787 0.000237379 0.0002251457 0.0002449457 -5.61849e-05 -0.0457431896 0.1397778404
625296250.0 -0.2551648 0.8048179328 0.0001936719 -5.2598e-05 0.0002222253 8.73523e-05 -0.0443170951 0.1399696507
630296220.0 -0.2464060687 0.8075204551 0.0002578372 0.0001330875 0.0004215829 -8.06316e-05 -0.0431085819 0.1409287524
635296190.0 -0.2388987053 0.810363936 0.0002901917 0.0001222216 0.0001698605 2.77953e-05 -0.0418933779 0.1414912011
640296160.0 -0.2309905702 0.8122928313 0.0001425654 -0.0002192633 0.0002296022 9.48172e-05 -0.0404611327 0.141900602
645296130.0 -0.2223892287 0.8150730279 0.0001919982 -3.16698e-05 0.0002267096 1.0892e-05 -0.0393059419 0.1429519023
650296100.0 -0.2143990109 0.8168160716 0.0001540504 8.05186e-05 -2.08075e-05 0.0001597255 -0.0380973789 0.1429383115
655296070.0 -0.2064318537 0.8191062119 6.66895e-05 9.43186e-05 0.0002722399 2.06056e-05 -0.0361595371 0.143952763
660296040.0 -0.1982962642 0.820698955 0.0002379695 -5.93184e-05 0.0001968838 -0.0001755285 -0.035058929 0.1440609486
665296010.0 -0.1895132596 0.822008869 0.0002516243 0.0001885372 0.0002856936 0.0001222457 -0.033799244 0.1452442433
670295980.0 -0.1820123815 0.8239253256 0.0003438671 -0.0002488339 0.0002421674 -6.72745e-05 -0.0326522894 0.1453672753
675295950.0 -0.1731881609 0.8263638914 0.0001835193 -8.36363e-05 0.0001244997 -0.0002196394 -0.0315920654 0.1460143265
680295920.0 -0.1651597352 0.8279893697 0.0001979403 -9.74926e-05 9.70769e-05 -0.000185425 -0.0299039058 0.147103427
685295890.0 -0.1567998759 0.8297814429 8.02411e-05 0.0002649544 0.0004253876 -9.13912e-05 -0.0286356616 0.1469413008
690295860.0 -0.1486056905 0.8307643683 0.0003611234 -6.16079e-05 0.0003102942 -0.0001011346 -0.0273686755 0.1480260024
695295830.0 -0.1409058193 0.8321613032 -0.0001735702 3.3551e-06 0.0002087399 -6.77728e-05 -0.0258663788 0.1482479584
700295800.0 -0.1320251418 0.8331202771 0.0004299233 0.0001252654 0.0001196385 -4.58357e-05 -0.0248113269 0.1486319515
705295770.0 -0.1246064476 0.8350222171 4.95702e-05 -9.67256e-05 7.78517e-05 -2.68263e-05 -0.0233132177 0.1494885677
710295740.0 -0.115897031 0.8360230004 0.0003318668 -0.0002772532 0.0002774514 2.47245e-05 -0.0218851155 0.1493756699
715295710.0 -0.1075552394 0.8370168312 0.0001830085 -5.66764e-05 0.0002687555 -0.0002266636 -0.0201342701 0.1497972581
720295680.0 -0.0987837743 0.8384840447 0.0001168732 -0.0001540703 5.5077e-06 4.8566e-06 -0.0187781703 0.150176206
725295650.0 -0.0911860871 0.8393417646 0.0003872003 1.22219e-05 6.90718e-05 0.0001857539 -0.0177257614 0.1506241496
730295620.0 -0.0827786976 0.839984375 0.0002339725 -0.0001954696 0.0002099104 -9.0406e-05 -0.0165751988 0.1511141835
735295590.0 -0.0746848962 0.8409915256 0.0002646551 -5.37222e-05 3.4714e-06 -0.0001224248 -0.0151720668 0.1510231723
740295560.0 -0.06580966 0.8419387559 0.0002310819 0.0001817097 0.0001419192 -4.56533e-05 -0.0134163321 0.1518122472
745295530.0 -0.0577384625 0.8425553828 3.88452e-05 -0.0001052381 7.24559e-05 -3.871e-07 -0.0119640504 0.1519517454
750295500.0 -0.0491629312 0.8427726616 0.000373651 -0.0003175697 0.0002756975 2.7541e-05 -0.0103965694 0.1523103267
755295470.0 -0.0409827743 0.8429378599 0.0001647585 5.49513e-05 0.0003181286 8.59171e-05 -0.0090327574 0.1520783223
760295440.0 -0.0328580149 0.8432579465 0.0002066716 6.36156e-05 0.0004332129 8.82745e-05 -0.0076876682 0.1527451644
765295410.0 -0.0244920779 0.8434507663 8.39541e-05 6.23949e-05 0.0002421159 -9.31835e-05 -0.0061411313 0.1532370869
770295380.0 -0.016182867 0.8442356626 0.0001440163 0.0001156942 0.0002682414 -8.55447e-05 -0.0048379917 0.1534757707
775295350.0 -0.007931582 0.8439257154 0.0002117076 -0.0001211247 0.0002924187 0.0001621955 -0.0037344092 0.1534725404
780295320.0 0.0004923439 0.8441271688 0.0002073807 -5.4212e-06 3.04775e-05 -0.0001891695 -0.0020082769 0.1536198037
785295290.0 0.0085188091 0.8434862294 0.0003689351 -8.14755e-05 0.0002256991 -3.95468e-05 -0.0002962985 0.1542046197
790295260.0 0.0174380043 0.8433764947 6.6817e-05 -0.0001338068 0.0001602989 -7.90167e-05 0.0015776776 0.15431619
795295230.0 0.025563259 0.8431552663 0.0002393735 -9.92189e-05 0.0003068122 -0.0002216423 0.0029202051 0.1543929669
800295200.0 0.0339750142 0.8431477075 0.0002682633 -1.17608e-05 0.0003708997 -9.44656e-05 0.0042334495 0.1550092206
805295170.0 0.0426939232 0.8428109645 0.0003065397 -4.10076e-05 0.0002606535 -0.0001589441 0.0055587481 0.1548781747
810295140.0 0.0508935978 0.842475582 -2.66384e-05 -8.59177e-05 0.0004722633 5.04813e-05 0.0075173597 0.1550962245
815295110.0 0.0588228766 0.8419327 0.0004546398 -7.88683e-05 8.46568e-05 -2.03819e-05 0.0083680399 0.1554043775
820295080.0 0.0666885917 0.8413191431 0.000220216 -7.19644e-05 0.0003609954 -0.0001467274 0.0101620729 0.1554706413
825295050.0 0.0763692778 0.8402361735 0.0002621955 -8.48223e-05 0.0003165517 -0.0001737585 0.0115520215 0.1555425949
830295020.0 0.0839152775 0.8401471391 0.0002166363 -0.0002444976 0.0002309467 0.0001581863 0.0136785786 0.1557242703
835294990.0 0.092469977 0.8390923899 0.0002118213 -1.49483e-05 0.0002295792 -8.27526e-05 0.0146687668 0.1560877536
840294960.0 0.1004408901 0.8383492483 9.97177e-05 7.60398e-05 0.000423739 -0.0002294993 0.0160315301 0.1559577829
845294930.0 0.108269903 0.8364002371 0.0002004161 0.000122254 5.42313e-05 -2.3002e-06 0.0174874434 0.1555579679
850294900.0 0.1166176279 0.8361722834 0.0003524711 -0.000198932 0.0002057978 -1.29959e-05 0.018818863 0.1560262132
