!Created with skrf (http://scikit-rf.org).
# Hz S RI R 50.0 
!freq ReS11 ImS11 ReS21 ImS21 ReS12 ImS12 ReS22 ImS22
300000.0 -0.1002191846 -0.0715020813 0.628861051 0.0660458118 0.6233343898 0.0669468188 -0.0984873478 -0.0776190723
5299970.0 -0.1020469486 0.0128721577 0.6307038412 0.0102535221 0.6302382104 0.01040781 -0.1006697536 0.0130385748
10299940.0 -0.0973738137 0.0293365447 0.6337475534 0.015116411 0.6342271496 0.0160016672 -0.0959235795 0.0303793479
15299910.0 -0.0900983014 0.0424056045 0.6404113166 0.0205587389 0.6409179596 0.0207412603 -0.0887793312 0.0435164581
20299880.0 -0.0815226579 0.0529106805 0.6486812212 0.0242711708 0.6484724468 0.0242618031 -0.0798124352 0.0544172903
25299850.0 -0.07239103 0.0622427002 0.6579781796 0.0253043626 0.6576916177 0.0256510207 -0.0699958875 0.0633895085
30299820.0 -0.0622527762 0.0689038095 0.6675922818 0.0242445055 0.667194946 0.0245911782 -0.059897888 0.0700546027
35299790.0 -0.0524961627 0.0737282926 0.6772119844 0.0213995551 0.6773900608 0.0215709762 -0.0497970453 0.0748371784
40299760.0 -0.0432958808 0.0773821614 0.6863045717 0.0170679325 0.6865062621 0.0178510043 -0.0405736009 0.0777755988
45299730.0 -0.0339770181 0.0793372656 0.6948649214 0.0118388929 0.6956364762 0.0119540876 -0.0313379456 0.0797557504
50299700.0 -0.0257655288 0.0802343291 0.7036546216 0.0044525431 0.7036370444 0.0056388973 -0.0224721756 0.0805765481
55299670.0 -0.0176794554 0.0804701775 0.7111470508 -0.003134331 0.7106048802 -0.0024138461 -0.0146823969 0.0807434474
60299640.0 -0.0100635036 0.0800413797 0.7176091279 -0.0109616145 0.7179187101 -0.0105184652 -0.0078026816 0.079537116
65299610.0 -0.0036685757 0.0789494994 0.7232615683 -0.0203880422 0.7236124861 -0.0196403234 -0.0010723863 0.0788147712
70299580.0 0.0027337074 0.0776148735 0.7288381012 -0.0293537194 0.7286656237 -0.0290901395 0.0048482535 0.0767241261
75299550.0 0.0081594703 0.0759670043 0.7326659299 -0.0390420176 0.7326661879 -0.0384015498 0.0101920514 0.0747521848
80299520.0 0.012993216 0.0738527295 0.7372012427 -0.0491991924 0.7375801551 -0.0491750829 0.0151927751 0.0727174858
85299490.0 0.0177800681 0.071426894 0.7399857307 -0.0584517362 0.7406141945 -0.0583515661 0.0194559704 0.0701916757
90299460.0 0.0217429877 0.0692277194 0.7429467985 -0.0691064708 0.7433816519 -0.0684106098 0.0237218137 0.0682087643
95299430.0 0.0258555482 0.0666443272 0.7452942703 -0.0787486954 0.7455113108 -0.079119778 0.027516517 0.0656341444
100299400.0 0.0289174316 0.0645814875 0.7466767209 -0.0889524471 0.7471841032 -0.0889148572 0.0311303636 0.0625804054
105299370.0 0.0324004645 0.0622766907 0.7486684417 -0.0993721311 0.7490122147 -0.0992267324 0.0343752818 0.0606693711
110299340.0 0.0350011049 0.0599510409 0.7500055933 -0.1090742007 0.7497390404 -0.1089349707 0.0362494177 0.0580194807
115299310.0 0.0375989176 0.0574559545 0.7508001873 -0.1194340584 0.750650315 -0.1190568087 0.0389477917 0.0556067128
120299280.0 0.0399174936 0.0547012161 0.7510844648 -0.1295419923 0.751396248 -0.129351627 0.0411522763 0.0532107377
125299250.0 0.0417770884 0.0522892717 0.7514709918 -0.1386263676 0.7518043602 -0.1384488512 0.042993716 0.0505388875
130299220.0 0.0436760862 0.0502195954 0.7511353389 -0.1493649382 0.7511839973 -0.1487628087 0.0450953514 0.0482798237
135299190.0 0.0453717664 0.0482842499 0.7511061281 -0.1590760879 0.7511313515 -0.1583641484 0.046643214 0.0463149318
140299160.0 0.0468776965 0.0461645306 0.7511392351 -0.1687555316 0.7510093486 -0.1685207087 0.047931601 0.0446935647
145299130.0 0.0484393875 0.0440276202 0.7497123723 -0.1782930903 0.7494175156 -0.1777105412 0.0492907904 0.0420724534
150299100.0 0.0497986884 0.0422824514 0.7487818197 -0.1874625004 0.7488090537 -0.1872444812 0.050827187 0.0403519646
155299070.0 0.050455826 0.0397326972 0.7480862756 -0.1983244955 0.7473391602 -0.1974537312 0.051699474 0.0386143819
160299040.0 0.0519825795 0.0382810724 0.7467482999 -0.2070027077 0.7458221823 -0.2073559276 0.0520739188 0.0362676459
165299010.0 0.0524249633 0.0365050195 0.7447390198 -0.2169402782 0.7448610927 -0.2168237723 0.0536508927 0.0348755326
170298980.0 0.0533571367 0.0341432944 0.7429159415 -0.2262891803 0.7432366883 -0.2258792951 0.0541805587 0.0331772592
175298950.0 0.0537782752 0.0321698979 0.7412768442 -0.2351145176 0.7405669597 -0.2351824392 0.0547355694 0.0316234927
180298920.0 0.0546549865 0.0305137302 0.7393719838 -0.244972291 0.738837314 -0.243952928 0.0554180778 0.029933655
185298890.0 0.0555641474 0.028975225 0.7364415438 -0.2536810626 0.7365057044 -0.2534230906 0.0559291423 0.0283889767
190298860.0 0.0554401175 0.0276481904 0.7343761885 -0.2633026635 0.7349617167 -0.2629487635 0.0567343506 0.0262243652
195298830.0 0.0558134392 0.0254412979 0.7320011911 -0.2719518052 0.7319865067 -0.2716510034 0.0571094782 0.0249466438
200298800.0 0.0562870154 0.0241424929 0.7292619828 -0.2810757934 0.7289582132 -0.2809178463 0.0568030645 0.0236285877
205298770.0 0.057094132 0.0228412269 0.7262323054 -0.2896578995 0.7263290104 -0.2896606211 0.0575198018 0.0216447618
210298740.0 0.0571026019 0.0209396797 0.7236611626 -0.2977391288 0.7231465587 -0.2977983323 0.0578076099 0.0215172018
215298710.0 0.0569484342 0.0198259062 0.7208373595 -0.3078977547 0.7200850757 -0.3072729758 0.0578543284 0.019906666
220298680.0 0.0577375432 0.0178628802 0.716702699 -0.3157811169 0.7165427788 -0.3159230538 0.0575769549 0.0181048028
225298650.0 0.0577288463 0.0165648508 0.714067004 -0.3248833518 0.7142528937 -0.3240544783 0.0574053587 0.0164390431
230298620.0 0.0581662715 0.0159310438 0.7105564332 -0.3326471066 0.7111337641 -0.33330066 0.0575328199 0.0153557694
235298590.0 0.0580917347 0.0147835725 0.707077636 -0.3412289894 0.7073593759 -0.3408503336 0.0576078668 0.0139138809
240298560.0 0.058201242 0.0137596262 0.7038238455 -0.3502283915 0.7033807659 -0.3497097709 0.057896143 0.0130591042
245298530.0 0.0580765485 0.0121207739 0.7000926397 -0.3582058403 0.6999213566 -0.3585037764 0.058601176 0.0108220388
250298500.0 0.0588377373 0.0110079421 0.6952092207 -0.3662930942 0.6951400389 -0.3654758298 0.0580383161 0.0104815424
255298470.0 0.0582094263 0.0096329165 0.6911860428 -0.3739316429 0.6918206884 -0.374017983 0.0584083889 0.0091057418
260298440.0 0.0581441298 0.0084348872 0.6875985637 -0.3829050121 0.6882464236 -0.3820545036 0.0585799663 0.008070449
265298410.0 0.0590253259 0.0077642375 0.6836914985 -0.3907167389 0.6847194986 -0.3901717317 0.0581979751 0.0069272457
270298380.0 0.0584763996 0.0065660104 0.6797222416 -0.3982566076 0.6800018373 -0.3982265926 0.0582703944 0.0056162733
275298350.0 0.0591608981 0.0052039636 0.6753707114 -0.4065319557 0.6757175321 -0.406186431 0.0585069496 0.0043792972
280298320.0 0.0587973293 0.0045223177 0.6712904702 -0.4146236348 0.6712715577 -0.4137936689 0.05870252 0.0034400096
285298290.0 0.0587844119 0.003098588 0.6668089306 -0.4222176844 0.6668150141 -0.4219373487 0.0586652216 0.0022477434
290298260.0 0.0589458652 0.0022875955 0.6620514578 -0.4295268365 0.662142564 -0.4299637415 0.0585325493 0.0018029434
295298230.0 0.0590380037 0.0010467521 0.6579154013 -0.4370158628 0.657432402 -0.437260073 0.0593416881 0.0005136581
300298200.0 0.0586082902 -8.76845e-05 0.653578976 -0.4446735018 0.653195935 -0.4454972016 0.0587984882 -0.0006845656
305298170.0 0.058913351 -0.0013835461 0.6478122193 -0.4534261021 0.648213521 -0.4527683271 0.0593987235 -0.0018932302
310298140.0 0.0585708117 -0.002342919 0.6429521336 -0.4608348923 0.6436106823 -0.4607030297 0.0594910152 -0.003188882
315298110.0 0.0585246013 -0.004075853 0.6382508963 -0.4685380897 0.6381892517 -0.4680131256 0.0589440255 -0.0043851331
320298080.0 0.0586230361 -0.0046899662 0.6322050577 -0.4765885381 0.6330302062 -0.4759543681 0.0587971054 -0.0053737963
325298050.0 0.0577315057 -0.0061540665 0.6271721277 -0.4840862217 0.6273216962 -0.4832619343 0.0580690246 -0.00633993
330298020.0 0.0573891162 -0.0072008715 0.6215196067 -0.4909848694 0.6218059625 -0.4905918571 0.0573948418 -0.0074944368
335297990.0 0.0571873402 -0.0086697657 0.6162392858 -0.4976764248 0.6157067632 -0.4976102639 0.0566220286 -0.007806444
340297960.0 0.0563767171 -0.0086258031 0.6099545319 -0.504946017 0.6101874179 -0.5047060528 0.0571343109 -0.0081208138
345297930.0 0.0557519722 -0.0089587185 0.6040410598 -0.5116008364 0.6047357967 -0.5120037521 0.056707024 -0.0098684208
350297900.0 0.055387289 -0.0106197008 0.598096095 -0.5185619447 0.5982929813 -0.5182840261 0.0555757943 -0.0097470134
355297870.0 0.0549981637 -0.0105676761 0.592555922 -0.5250967785 0.5930239916 -0.5245941918 0.0554340975 -0.0108538165
360297840.0 0.054734145 -0.011620189 0.5876663115 -0.5317396445 0.587743114 -0.5313142042 0.0550780599 -0.0109603141
365297810.0 0.0540854035 -0.0117358932 0.5808335908 -0.5382758108 0.5814022002 -0.5380474412 0.0546285847 -0.0118471938
370297780.0 0.0542947843 -0.0129767531 0.5748401838 -0.5442065599 0.5754939265 -0.5437454253 0.0541990695 -0.0125680349
375297750.0 0.0537969102 -0.0137508476 0.5691368777 -0.551056081 0.5697509686 -0.5509500199 0.0545165477 -0.0130734607
380297720.0 0.0534252695 -0.0141995457 0.5632118248 -0.5573662159 0.56330407 -0.556377191 0.053490553 -0.0139357594
385297690.0 0.0529893937 -0.0151642903 0.5565974647 -0.5634714466 0.5566012877 -0.5635084817 0.0537568876 -0.0142070702
390297660.0 0.0528305905 -0.0153173793 0.5502280508 -0.5703335188 0.5504974256 -0.5695735165 0.0525778834 -0.0153048604
395297630.0 0.0524266366 -0.0160485321 0.5440450904 -0.5759916021 0.5442392603 -0.5759341238 0.0534807025 -0.0157109726
400297600.0 0.0518923276 -0.0166457961 0.5378982491 -0.5824230232 0.5378285809 -0.581843705 0.0527483208 -0.0163597131
405297570.0 0.0511395118 -0.0172542064 0.5311577896 -0.5877430287 0.5310404883 -0.5872022545 0.0516985757 -0.016834693
410297540.0 0.0512888557 -0.0181660217 0.5247391045 -0.5942151373 0.5252260602 -0.5939682938 0.0512911976 -0.0170411857
415297510.0 0.0514558603 -0.0185620719 0.5181116016 -0.599869287 0.5187863413 -0.5996601496 0.0512216345 -0.0178881392
420297480.0 0.0508853793 -0.0188937345 0.5111821234 -0.6058667337 0.5115680283 -0.6056972487 0.0505244641 -0.0192001625
425297450.0 0.0505190619 -0.0203886412 0.5052889403 -0.6111540867 0.5049202444 -0.6113073251 0.0495534671 -0.0185700009
430297420.0 0.04986889 -0.0206689017 0.498290801 -0.6160544433 0.4982831139 -0.6161144873 0.0493539918 -0.0198774729
435297390.0 0.0494641848 -0.0213204466 0.4913842754 -0.622609205 0.4910527199 -0.6220863234 0.0501251479 -0.0207439211
440297360.0 0.0493780452 -0.0214525411 0.4844998424 -0.627484544 0.4847746035 -0.6280883097 0.0491197027 -0.0213683287
445297330.0 0.0487871254 -0.0228760578 0.4786538357 -0.6334315311 0.4782253761 -0.6324631523 0.0491861986 -0.0221428505
450297300.0 0.0489404009 -0.0229346627 0.4708151742 -0.6386033166 0.4705250265 -0.6384929277 0.0484136811 -0.0229718337
455297270.0 0.0482669467 -0.0236023671 0.4639432235 -0.6437903934 0.4638155374 -0.6432343933 0.0482847516 -0.0232840178
460297240.0 0.047692719 -0.0244128805 0.4564815758 -0.6486571798 0.4569401084 -0.6485874506 0.0477552439 -0.0236164935
465297210.0 0.0479113007 -0.0247499359 0.4493934097 -0.6540449865 0.4494273494 -0.654738726 0.0478091779 -0.024642743
470297180.0 0.0472673639 -0.0256115989 0.4418380498 -0.6588640538 0.4419622999 -0.6586087865 0.0472110629 -0.0247521972
475297150.0 0.0469864112 -0.0262028555 0.4351171313 -0.6630279504 0.4355456223 -0.6627248677 0.0475445389 -0.0258072915
480297120.0 0.0463661906 -0.0259914059 0.4276055972 -0.6687240635 0.427851139 -0.6684463452 0.0470450657 -0.0258240967
485297090.0 0.0454749365 -0.0269620535 0.4200527567 -0.6731067037 0.4204606906 -0.6724129969 0.0464838912 -0.0266774848
490297060.0 0.0449302494 -0.0276271305 0.4127960263 -0.6780677013 0.4135111973 -0.6770756105 0.0461129566 -0.0263528243
495297030.0 0.0448749523 -0.0279132681 0.4056652278 -0.6823442313 0.4058003387 -0.6819686446 0.0453347788 -0.0277435462
500297000.0 0.0443110838 -0.0285217188 0.3979285814 -0.6866405538 0.3973413523 -0.6856817619 0.0449033083 -0.0272337557
505296970.0 0.0441191459 -0.029200584 0.3902314636 -0.6907550381 0.3903286137 -0.6907962044 0.0449300992 -0.0280563704
510296940.0 0.0433921665 -0.0293601235 0.3821294706 -0.6955011465 0.3827574018 -0.694961469 0.0443520057 -0.0283703065
515296910.0 0.0428059402 -0.029471641 0.3745866753 -0.6990731852 0.3753451135 -0.6990094356 0.0444339989 -0.0285930183
520296880.0 0.0422663108 -0.0302736927 0.3676270888 -0.7036807539 0.367453002 -0.7028379766 0.0431767988 -0.0296436221
525296850.0 0.0421807694 -0.0312471101 0.359320876 -0.7076324214 0.3599878276 -0.7071130492 0.0427852077 -0.0298535676
530296820.0 0.0417208359 -0.0312657055 0.3511843844 -0.7113995663 0.3519566362 -0.7112264915 0.0425506736 -0.0301318582
535296790.0 0.0407069818 -0.0315848416 0.3444927466 -0.7149213945 0.3447245046 -0.7143022896 0.0418586032 -0.0308779086
540296760.0 0.0402226215 -0.0317225307 0.3364857628 -0.7188419786 0.3362384522 -0.7189584837 0.040875422 -0.0300805351
545296730.0 0.0397084366 -0.0323910468 0.3277681921 -0.722621318 0.3280763617 -0.7225569026 0.0404866607 -0.0316052266
550296700.0 0.0398233231 -0.0325446019 0.3199351221 -0.7259849668 0.3203404843 -0.7261687445 0.0399338046 -0.0314597537
555296670.0 0.0387658749 -0.032997265 0.3126343006 -0.7292218961 0.31289335 -0.7294792782 0.0395433543 -0.0319015294
560296640.0 0.038641531 -0.0329800025 0.3044135025 -0.7327361307 0.3047373559 -0.733136018 0.0393408333 -0.0324596712
565296610.0 0.0376986665 -0.0339534498 0.2962484222 -0.7366222732 0.296799741 -0.7364168528 0.038153655 -0.0332181728
570296580.0 0.0371975205 -0.0337239772 0.288326316 -0.7399880716 0.2878039496 -0.7390484507 0.0377762784 -0.0327360969
575296550.0 0.0365041297 -0.0341811231 0.2804824149 -0.7425499978 0.2799272058 -0.7425118145 0.0376909222 -0.0336640049
580296520.0 0.036118712 -0.0347097914 0.2716253874 -0.7458591702 0.2724012982 -0.745866416 0.0366660946 -0.0340161667
585296490.0 0.0355984804 -0.0356901407 0.2642635025 -0.7485495322 0.2642943298 -0.7486319301 0.0362817917 -0.0342394484
590296460.0 0.0358695567 -0.0354892292 0.2559183042 -0.7509864466 0.2560365991 -0.7516596884 0.0349906049 -0.034656213
595296430.0 0.0349986472 -0.0355211414 0.2473895811 -0.7542751719 0.2474582444 -0.7536742028 0.0351849993 -0.0354598215
600296400.0 0.0339933693 -0.0363396291 0.2394086289 -0.7569179693 0.2394536901 -0.75592582 0.0346484904 -0.035380562
605296370.0 0.0336679431 -0.0364358751 0.2308859596 -0.7592961534 0.2311200624 -0.7594315716 0.0338539758 -0.035877321
610296340.0 0.0332562578 -0.0367964729 0.2223542163 -0.7617280541 0.2228845709 -0.7620669158 0.0339660187 -0.0362624021
615296310.0 0.0329609694 -0.0377562856 0.2139658592 -0.7640029293 0.2141174154 -0.7643748411 0.0335556262 -0.0365722963
620296280.0 0.032062889 -0.0379310697 0.2059979485 -0.7665915774 0.2062229796 -0.7662388679 0.0323163149 -0.0366615045
625296250.0 0.0312645915 -0.0387717858 0.1983754386 -0.7686481896 0.1979327904 -0.769376246 0.0328407142 -0.0371224411
630296220.0 0.0319844479 -0.0382871375 0.1883983199 -0.7709776986 0.1886158623 -0.7703626059 0.0317139047 -0.03732676
635296190.0 0.0298263737 -0.038854302 0.18049869 -0.7729278327 0.1807443528 -0.7727714361 0.0312991275 -0.0375712555
640296160.0 0.0295129526 -0.0388665639 0.1720868821 -0.7740555647 0.172534845 -0.7745222183 0.030533263 -0.03792332
645296130.0 0.029393217 -0.0392094478 0.1632599058 -0.7763148764 0.1640736008 -0.7766608981 0.0300371931 -0.038234584
650296100.0 0.0287514546 -0.0395817766 0.1553176113 -0.7780275958 0.1554365176 -0.7784194167 0.0303946942 -0.0391464379
655296070.0 0.0278052466 -0.0398229051 0.1466268055 -0.7800804506 0.1472606995 -0.7798528902 0.0292451868 -0.0385446529
660296040.0 0.02683003 -0.0404278781 0.1382950115 -0.7813916644 0.138761481 -0.781438676 0.0289966604 -0.0389476623
665296010.0 0.0272902426 -0.0402850524 0.1295168425 -0.7832909177 0.1301225842 -0.7824953389 0.0282748301 -0.0384858987
670295980.0 0.0251187627 -0.0404200754 0.1210135227 -0.7840596926 0.1214240445 -0.7839314716 0.0271822811 -0.0390090115
675295950.0 0.0251416429 -0.0401193003 0.1133275282 -0.785247715 0.1131830641 -0.7845643936 0.0264759155 -0.0390534736
680295920.0 0.0242350803 -0.0411699702 0.1037788173 -0.7860060797 0.1036301008 -0.7872164371 0.0267255584 -0.0384005481
685295890.0 0.0240155544 -0.0404000244 0.0954532886 -0.7875983403 0.0951164575 -0.7876985917 0.0256888811 -0.0390875139
690295860.0 0.0237178595 -0.0404707632 0.0868667748 -0.7879033802 0.0870561863 -0.7890696383 0.0249762732 -0.0386169612
695295830.0 0.0229897475 -0.0411761475 0.0788499874 -0.78968917 0.0781962689 -0.789543569 0.0242386294 -0.0392261299
700295800.0 0.0225120522 -0.0416534527 0.0695425503 -0.7898969088 0.0691307853 -0.789569849 0.0235513332 -0.0385333726
705295770.0 0.0214234068 -0.0404567246 0.0608727947 -0.7904480831 0.061452047 -0.7908730773 0.0229080947 -0.0390233804
710295740.0 0.0211983401 -0.0411044227 0.0528085002 -0.7922317911 0.0533476737 -0.7920625756 0.0229860286 -0.039979651
715295710.0 0.0198795577 -0.0414305827 0.0445296592 -0.7925023832 0.0438749826 -0.7919211647 0.0220792437 -0.0395559389
720295680.0 0.0197779007 -0.0414078691 0.0355056378 -0.7927776576 0.0359135814 -0.792582297 0.0215068261 -0.0391816707
725295650.0 0.0195577053 -0.0416699478 0.0264982575 -0.7932859867 0.0267600695 -0.7932048608 0.020206365 -0.0391923349
730295620.0 0.0191013861 -0.0412914927 0.0185077542 -0.7929518335 0.0181101212 -0.7930120519 0.0196232049 -0.0400822918
735295590.0 0.0180784112 -0.0413566756 0.0095627461 -0.7934795814 0.0095566141 -0.7936294608 0.0189479106 -0.040180277
740295560.0 0.017264221 -0.0415972022 0.0006935613 -0.7933611249 0.0007847583 -0.793148955 0.0189881072 -0.0398188783
745295530.0 0.0169656499 -0.0412324129 -0.0079426761 -0.7927096877 -0.0079759969 -0.7933535011 0.0183937263 -0.0403819333
750295500.0 0.0164191843 -0.0418191663 -0.0163707184 -0.7925291386 -0.0159284538 -0.7932733493 0.0172860604 -0.0402473043
755295470.0 0.0160834538 -0.0418996656 -0.0243631973 -0.7922072936 -0.0243624315 -0.7929362481 0.0175463396 -0.0408262678
760295440.0 0.0150274792 -0.0416012818 -0.0339824695 -0.7929318448 -0.0336696216 -0.7929966664 0.0165111227 -0.040717595
765295410.0 0.0143013066 -0.0419201642 -0.0425814977 -0.792320902 -0.0426280006 -0.792368367 0.0162348623 -0.0406486618
770295380.0 0.013319484 -0.042211298 -0.051343234 -0.7920862056 -0.050742539 -0.7914280234 0.0151160141 -0.0411270251
775295350.0 0.0127907075 -0.0426766654 -0.0596296912 -0.7905431543 -0.0587949188 -0.7906210088 0.0138117323 -0.0404729394
780295320.0 0.012652211 -0.0419430376 -0.0686404217 -0.7896803362 -0.0670994412 -0.7900883346 0.0135552809 -0.0410402861
785295290.0 0.0117037452 -0.0428325672 -0.0773198234 -0.7889267601 -0.0763981091 -0.7892547716 0.0139547225 -0.0409473816
790295260.0 0.011591984 -0.0416939522 -0.0848143541 -0.7884861696 -0.0842728975 -0.7881481737 0.0129389083 -0.0409645161
795295230.0 0.0106955571 -0.0423590277 -0.0938239886 -0.7870217147 -0.0930001542 -0.7875262573 0.0125242568 -0.040540781
800295200.0 0.0096538663 -0.0418371164 -0.1031907114 -0.7860606783 -0.1020207485 -0.7865427568 0.0120783408 -0.0411056269
805295170.0 0.0092638924 -0.0424022845 -0.1108159317 -0.7848453193 -0.1108060027 -0.7851298277 0.0112650841 -0.0406060384
810295140.0 0.0080794555 -0.042680577 -0.1194454263 -0.783703641 -0.1190134278 -0.7839833768 0.0114056235 -0.0404424605
815295110.0 0.0083462014 -0.0427916358 -0.1279057993 -0.7822966567 -0.1272725295 -0.7824823963 0.0097236641 -0.0404686926
820295080.0 0.0067683787 -0.0419241811 -0.1363011843 -0.7808667386 -0.1361100497 -0.7806194559 0.0094848294 -0.0405048714
825295050.0 0.0069783935 -0.0421080295 -0.1442677668 -0.779225026 -0.1449423336 -0.7797042904 0.0091961789 -0.0404772865
830295020.0 0.0063661963 -0.0415335573 -0.1534380038 -0.7770557989 -0.1533469644 -0.7773663139 0.0093996939 -0.0400926732
