!Created with skrf (http://scikit-rf.org).
# Hz S RI R 50.0 
!freq ReS11 ImS11 ReS21 ImS21 ReS12 ImS12 ReS22 ImS22
300000.0 -0.7740176114 -0.0851317545 -0.0012470809 0.0017670935 -7.01482e-05 0.0018186203 -0.7734811273 -0.1284345407
5299970.0 -0.7846582248 -0.0046484989 0.0002099611 9.84255e-05 3.86374e-05 0.0001710647 -0.7844055792 -0.0070217621
10299940.0 -0.7876118735 -0.0040134811 -0.0001428646 -0.0001661443 9.98981e-05 0.000245449 -0.7872908014 -0.0033229739
15299910.0 -0.7933186569 -0.0013697306 -2.62847e-05 -0.0001220276 1.17369e-05 8.9226e-05 -0.7928945535 -0.0012925809
20299880.0 -0.7999807393 0.0023935588 -8.86604e-05 -0.0002327686 1.99221e-05 -0.0001246308 -0.7996794964 0.0024141717
25299850.0 -0.8065815449 0.0080639129 -2.7501e-05 0.0001086646 7.83682e-05 0.0001083594 -0.8056330809 0.0080958614
30299820.0 -0.8121629425 0.0151225774 -5.83075e-05 0.0003017345 -0.0001207897 -0.000143837 -0.811918088 0.016305982
35299790.0 -0.8174036611 0.0244622784 -4.78483e-05 0.0001040922 -4.59311e-05 0.0001236007 -0.8173646921 0.0254036523
40299760.0 -0.8213683516 0.0338997588 -8.29843e-05 0.0001737391 1.89862e-05 0.0001137634 -0.8207672389 0.0348278728
45299730.0 -0.8247422109 0.0431014634 4.3368e-06 5.83683e-05 -8.52083e-05 9.8821e-05 -0.8250177195 0.0441084338
50299700.0 -0.8272045185 0.0534995916 3.10266e-05 0.0001020128 -0.0002475695 0.0001631544 -0.8273461009 0.0540490715
55299670.0 -0.8290670537 0.0632750813 9.45958e-05 -5.2097e-05 7.181e-06 8.04504e-05 -0.8298421259 0.064454753
60299640.0 -0.8304427019 0.0737871702 4.53994e-05 -6.29948e-05 -0.0002509289 -0.0002602963 -0.8305367957 0.0744311502
65299610.0 -0.8314118743 0.0840018393 -7.11903e-05 4.44092e-05 0.0001035304 -0.0002674661 -0.8322174914 0.0843555059
70299580.0 -0.8319223767 0.0938279271 -0.0001224266 2.11822e-05 -5.54533e-05 5.20299e-05 -0.8318187009 0.0945673039
75299550.0 -0.8319543528 0.1041426685 -3.80515e-05 -0.0002139534 -1.07351e-05 0.0001737559 -0.8327083443 0.1042599562
80299520.0 -0.8317722403 0.1135593894 0.0001785433 -7.06008e-05 -8.71808e-05 -8.17966e-05 -0.8326687411 0.1132699584
85299490.0 -0.8309221983 0.1227789712 -0.0002264291 0.0001763174 0.0002468292 -8.89788e-05 -0.8319958718 0.1234511618
90299460.0 -0.8297682741 0.1329434037 -1.5025e-06 5.0872e-05 0.0001007688 -3.49508e-05 -0.8309650544 0.1333466089
95299430.0 -0.8290468248 0.1421760871 -0.0002097548 -3.72438e-05 1.80276e-05 -7.7092e-05 -0.8296458505 0.1431371182
100299400.0 -0.8284274183 0.1510344615 -5.68085e-05 2.07237e-05 0.0001029021 -4.2886e-05 -0.8288711143 0.1524948426
105299370.0 -0.8272407025 0.1602468888 -5.85508e-05 -7.981e-07 -7.02857e-05 -0.0001181868 -0.8269593563 0.1610994504
110299340.0 -0.8256638971 0.1699891842 0.0001377056 -4.75482e-05 0.0001302962 -5.0243e-05 -0.8258295215 0.1711794874
115299310.0 -0.8235536165 0.1784486866 -2.2399e-05 5.26913e-05 -0.0001184341 -0.0001611982 -0.8241887848 0.1795712374
120299280.0 -0.8222276191 0.1873535781 0.0002206462 0.0002414021 -0.0001159015 -0.0002519122 -0.8226538863 0.1890790046
125299250.0 -0.8206576936 0.1959541215 -0.0002855227 -0.0001067075 6.25112e-05 -7.27022e-05 -0.8213196703 0.1980411317
130299220.0 -0.8189052331 0.2056238779 4.77341e-05 1.365e-06 -0.0001338214 3.03635e-05 -0.8185438566 0.206855905
135299190.0 -0.8169853816 0.2142941998 -0.0001995292 -3.63359e-05 -0.000154899 0.0001033017 -0.8167369855 0.2159013629
140299160.0 -0.8146845534 0.2235581988 0.0001645683 -2.67892e-05 -0.0001195381 2.4331e-05 -0.8143659886 0.225137412
145299130.0 -0.8123967151 0.2324660483 6.7204e-06 0.0001999301 -0.0001335207 -0.0001941331 -0.8123645731 0.2341102195
150299100.0 -0.8099928244 0.2406812785 -2.64483e-05 -0.000126887 -0.0001273515 -0.0001261144 -0.8106947874 0.2431682319
155299070.0 -0.8077315162 0.2496010413 -6.96046e-05 2.07492e-05 2.04561e-05 0.0001492429 -0.8070949226 0.2517097987
160299040.0 -0.8050387633 0.2582552119 -9.9722e-05 4.56205e-05 -0.0002168905 5.25078e-05 -0.8054089122 0.2603276795
165299010.0 -0.8027248077 0.267271159 -6.88865e-05 -3.16467e-05 -0.0001221735 -3.35137e-05 -0.8019110826 0.2697892684
170298980.0 -0.7995558209 0.2751914715 0.0001990005 0.0001358186 9.391e-06 -0.0001037863 -0.7995265233 0.2783877539
175298950.0 -0.7972184806 0.2843982748 0.0003212392 -8.60397e-05 4.37295e-05 -0.0001188118 -0.7962517283 0.2866074226
180298920.0 -0.7945537779 0.2931988182 -0.0001812714 4.64491e-05 0.0001458101 6.15541e-05 -0.7938314495 0.2953579675
185298890.0 -0.7909089844 0.3009977413 0.0001702719 0.0001608128 2.20263e-05 6.18002e-05 -0.7906162123 0.304234187
190298860.0 -0.7883621047 0.3098171778 6.47681e-05 -3.37647e-05 -0.0001798793 -0.0001628799 -0.7882561668 0.3128255508
195298830.0 -0.7852815036 0.3180716832 -2.02421e-05 0.0001272578 0.0001214578 -3.76001e-05 -0.7846001741 0.3210413376
200298800.0 -0.7814009549 0.32608903 -1.84933e-05 -0.0001384908 7.01287e-05 6.74299e-05 -0.781892715 0.3295321418
205298770.0 -0.7785946617 0.3344254127 -1.48887e-05 0.0001228726 0.0001460658 -0.0001159303 -0.7775069097 0.3377656256
210298740.0 -0.7754350204 0.3426867402 -0.0002113181 0.0001509446 -6.8618e-06 1.59752e-05 -0.7744487834 0.3461832367
215298710.0 -0.7716291487 0.350949535 -0.0002149195 -0.0001253011 -0.0001178555 -1.3239e-05 -0.771159255 0.3544787291
220298680.0 -0.7674333316 0.3595226917 -0.0003015383 9.87925e-05 -0.0002010026 1.65603e-05 -0.7673453286 0.3623556737
225298650.0 -0.7640535602 0.3669769065 -6.27798e-05 9.97267e-05 -6.6906e-05 7.26469e-05 -0.7640583208 0.3703493928
230298620.0 -0.7602405449 0.3752033634 -6.72866e-05 0.000161834 4.67089e-05 -8.54421e-05 -0.759892121 0.3790836488
235298590.0 -0.7562720443 0.3836775229 -0.0001852113 0.0001728376 -2.366e-05 -5.4513e-05 -0.7560906948 0.3870517387
240298560.0 -0.752435602 0.3916074288 -3.98968e-05 -0.000113155 -9.01561e-05 0.0002787581 -0.7514266412 0.3950957633
245298530.0 -0.7483187694 0.3987824123 -0.0001047782 1.74654e-05 -0.000137323 -0.0001839902 -0.7473854505 0.4022061388
250298500.0 -0.7437018273 0.4072628362 -7.68217e-05 -1.92966e-05 3.10726e-05 3.04743e-05 -0.7437473844 0.4102367399
255298470.0 -0.73970762 0.4141298994 -0.0001344678 0.0002724803 0.000149089 9.5109e-06 -0.7386983195 0.4179018516
260298440.0 -0.7355631156 0.4215272985 4.68256e-05 9.16165e-05 -4.06966e-05 1.89929e-05 -0.7350978897 0.4265048239
265298410.0 -0.7310780558 0.4301489477 -8.2504e-06 -0.0001633194 -0.00014148 4.565e-05 -0.7305750617 0.4335651373
270298380.0 -0.7270230542 0.4374903776 -3.421e-07 9.5651e-06 -0.0001058428 9.57037e-05 -0.7256631577 0.44144815
275298350.0 -0.7218784068 0.4452607604 -0.0001905963 -0.0001549594 0.0001320928 9.71112e-05 -0.7214187969 0.4492295122
280298320.0 -0.7171790341 0.4523266841 5.9314e-05 8.23309e-05 -6.87709e-05 -0.0001790024 -0.7160656191 0.4564170714
285298290.0 -0.7128866099 0.4602059566 -1.30154e-05 -6.25488e-05 -7.9297e-05 -9.52411e-05 -0.7105667704 0.4638875779
290298260.0 -0.7080794287 0.4680228332 -2.75015e-05 1.2512e-05 0.0001965659 0.0001346129 -0.7061934272 0.4711520187
295298230.0 -0.7024674894 0.4746269791 0.0002897818 0.000203006 0.0002328743 0.000106514 -0.7011884446 0.4780010255
300298200.0 -0.6977862851 0.4816230439 9.08377e-05 -0.000167174 -8.79792e-05 -0.0001302264 -0.6957490868 0.4852768673
305298170.0 -0.6920436926 0.488156122 5.46223e-05 -0.0001636851 8.05781e-05 -0.0001895833 -0.6900109694 0.4929480693
310298140.0 -0.6872422211 0.4964964643 0.0001270057 -5.76465e-05 -2.29775e-05 -0.0002201878 -0.6859363176 0.4999705288
315298110.0 -0.6822088184 0.503438159 0.0002973803 5.5616e-05 -0.000123946 5.69336e-05 -0.6798719426 0.5069523409
320298080.0 -0.6770159088 0.5106653998 -9.68627e-05 0.0001062788 -1.86904e-05 2.66474e-05 -0.6746695171 0.515042856
325298050.0 -0.671780161 0.5175559882 -0.0002393063 0.0001249297 5.7562e-06 6.96004e-05 -0.6692679828 0.5209208672
330298020.0 -0.6660367157 0.5240183235 8.74786e-05 -6.6845e-06 -0.0002011454 -6.58104e-05 -0.6638847416 0.5282539493
335297990.0 -0.6602955702 0.5307781666 1.85912e-05 -0.0001937602 -1.4047e-05 -4.41339e-05 -0.658674569 0.5357511159
340297960.0 -0.6556168445 0.5379616083 0.0001263969 -9.59247e-05 -2.58379e-05 -6.18159e-05 -0.652776178 0.5425878961
345297930.0 -0.6498371907 0.5446122018 -1.98864e-05 -2.56298e-05 2.80583e-05 6.20167e-05 -0.6466204109 0.5484894152
350297900.0 -0.644518993 0.5511233133 -3.85223e-05 1.13615e-05 0.0001962327 7.23956e-05 -0.6413675776 0.5558063685
355297870.0 -0.6374436486 0.5586481523 -6.76438e-05 5.67886e-05 0.0002027606 0.0001123395 -0.6358668137 0.562080206
360297840.0 -0.6328883781 0.5642400578 2.01838e-05 4.3924e-06 0.0001358603 -0.0001563886 -0.6293066784 0.5691843976
365297810.0 -0.6272321471 0.5707333181 -6.17614e-05 -2.48379e-05 -0.0001038859 8.87606e-05 -0.6226822792 0.5753472282
370297780.0 -0.6204360323 0.5773717796 7.25823e-05 -0.000263256 7.39897e-05 0.0001726037 -0.6169572663 0.5819967345
375297750.0 -0.614273525 0.5835352223 3.98653e-05 -0.0001465926 -1.7619e-05 -0.0002373109 -0.6114574316 0.5879271803
380297720.0 -0.6077943629 0.5892847548 4.93614e-05 -5.9474e-06 -3.74144e-05 0.0001002993 -0.6055970277 0.5942675499
385297690.0 -0.603328301 0.5956268889 -0.0002297531 0.0001815445 6.60798e-05 -5.32731e-05 -0.5989778192 0.6008759019
390297660.0 -0.5965382119 0.6014836331 -1.73339e-05 -2.55478e-05 4.57207e-05 0.0002758494 -0.5935139558 0.6071423516
395297630.0 -0.5902960659 0.608541015 -0.0001752451 4.37497e-05 -5.08464e-05 -0.0002940908 -0.5863419874 0.6133070538
400297600.0 -0.5835389044 0.6144121971 -2.93712e-05 -5.73558e-05 -7.9418e-06 -0.0001005361 -0.5810098738 0.6193327758
405297570.0 -0.5776475132 0.6200493913 6.60353e-05 9.5585e-05 -0.0001169118 7.73945e-05 -0.5736742622 0.6250734789
410297540.0 -0.5708233598 0.6252184846 -8.1807e-06 0.0001203406 -0.0001318639 -1.50184e-05 -0.567378994 0.6311141645
415297510.0 -0.5640044214 0.6314982099 -0.0001577532 -0.0003258588 0.0001484181 0.0001066706 -0.5613671584 0.6365515948
420297480.0 -0.5587974079 0.6370935978 -9.51308e-05 1.587e-07 8.76406e-05 2.928e-06 -0.5546028313 0.6427817912
425297450.0 -0.5513074114 0.6430606983 0.0001365788 4.28047e-05 1.8869e-05 -6.1872e-05 -0.5479445402 0.6480330549
430297420.0 -0.5451839341 0.6486474685 -0.0001364181 -5.94871e-05 -6.8691e-06 0.0001961075 -0.5412964851 0.6535255942
435297390.0 -0.5381537625 0.6536122859 0.0001546637 4.4582e-05 -1.27636e-05 0.0002212876 -0.5337226334 0.658679592
440297360.0 -0.5314253204 0.6594724417 1.68072e-05 2.10305e-05 4.53656e-05 -2.0654e-05 -0.5271382595 0.6636573861
445297330.0 -0.5245260027 0.6643541694 1.07088e-05 8.83058e-05 -0.0001082147 1.84354e-05 -0.5203268305 0.6683728691
450297300.0 -0.5177995187 0.6697559561 8.3168e-05 -0.0002332283 -0.0002068706 -2.47691e-05 -0.5130048301 0.6738829673
455297270.0 -0.5113844716 0.6751126383 7.51184e-05 0.000172458 -3.78096e-05 -0.0001319762 -0.5063068258 0.6787795904
460297240.0 -0.5049204325 0.6798329536 3.85496e-05 -0.0002606884 4.65701e-05 -0.0002598427 -0.4994916706 0.6843760383
465297210.0 -0.4973679053 0.6853063943 -9.54698e-05 -3.72046e-05 7.83427e-05 0.0001595231 -0.4917342208 0.6887743457
470297180.0 -0.4901164382 0.6900169556 0.0001899505 6.93073e-05 0.0002012801 8.07828e-05 -0.4843969506 0.6945797689
475297150.0 -0.4832073155 0.6948512094 -5.43549e-05 -4.45133e-05 -0.0002167354 -3.8498e-06 -0.4773640846 0.69882429
480297120.0 -0.4759982089 0.6998862061 -0.0001353794 -6.41751e-05 1.00024e-05 7.57275e-05 -0.470293123 0.7039980799
485297090.0 -0.4688181894 0.7041902211 -1.96588e-05 2.51267e-05 -9.78314e-05 0.0001156336 -0.4633560896 0.7086655574
490297060.0 -0.4619196758 0.7087631477 -0.0001378286 -0.000258484 -9.3014e-06 0.000284215 -0.4556778369 0.7125051789
495297030.0 -0.4550873112 0.7132871409 -8.02685e-05 0.0002238569 7.65333e-05 2.4072e-05 -0.4482484412 0.7177956717
500297000.0 -0.4475441649 0.7185094221 -8.298e-05 0.0002535555 0.0001476122 0.0002706569 -0.4405799692 0.7226420087
505296970.0 -0.4397801193 0.7224283935 3.01456e-05 7.32065e-05 0.0001372783 0.0003093634 -0.4335603113 0.7266293194
510296940.0 -0.4326199483 0.7263738515 0.0001571149 -0.0003873675 -0.0001018432 1.38769e-05 -0.4260297223 0.7308711554
515296910.0 -0.424367472 0.7308371255 0.0001481756 -4.87501e-05 -0.0001672186 -3.35449e-05 -0.4187627152 0.7354316308
520296880.0 -0.4177594248 0.7357385367 -0.0001370008 -2.87424e-05 0.0001033787 -9.15351e-05 -0.4112403128 0.739347582
525296850.0 -0.4095976048 0.7393393708 7.70835e-05 0.0001992807 8.18244e-05 -7.73285e-05 -0.4041417832 0.7441214446
530296820.0 -0.4024664259 0.7436583939 -0.0001300966 8.86277e-05 -8.5007e-06 -5.05311e-05 -0.3962615651 0.7475018708
535296790.0 -0.3958964026 0.7470492091 -0.0002100805 -0.0001775349 -2.78342e-05 -0.0001794794 -0.3892268352 0.751451294
540296760.0 -0.3875862363 0.7510584703 -6.70632e-05 -0.0001542745 -3.19235e-05 8.41342e-05 -0.3810187304 0.756250736
545296730.0 -0.3802518015 0.7552289486 -0.0001809191 -1.9743e-06 -9.74635e-05 -0.0001326572 -0.3735042349 0.7592705083
550296700.0 -0.3729805057 0.7589618785 -0.0002612665 8.88895e-05 -5.98575e-05 9.09127e-05 -0.3654501387 0.7635160917
555296670.0 -0.3648335514 0.7620085402 0.0001590115 7.63361e-05 0.0001738002 0.000210959 -0.3579246265 0.7671152035
560296640.0 -0.3569968141 0.7661170483 -0.0004104745 -7.4951e-06 0.0001425132 -2.36049e-05 -0.3499721917 0.7712980729
565296610.0 -0.3495758827 0.7699434316 -8.15977e-05 -7.3372e-05 3.70078e-05 -0.0001077087 -0.3418045151 0.7741693272
570296580.0 -0.341547244 0.7727684686 -4.15111e-05 -9.00117e-05 4.28868e-05 -7.19512e-05 -0.3348908519 0.7782394065
575296550.0 -0.3345689625 0.7771876082 -8.29299e-05 2.77848e-05 0.0001815121 -0.0001131033 -0.3260990191 0.7809445818
580296520.0 -0.3260390801 0.7798335066 -0.0001812341 1.8716e-05 7.73731e-05 8.114e-06 -0.3181538608 0.7843666665
585296490.0 -0.3181654704 0.7828073616 -8.98004e-05 0.0001208432 -0.0002128525 9.8894e-05 -0.3100876007 0.7872696744
590296460.0 -0.3104211098 0.7863078467 9.54148e-05 4.39381e-05 -9.50644e-05 0.0001611812 -0.3029818847 0.7905377206
595296430.0 -0.3024563402 0.7883224221 0.0002170027 0.0001091173 5.13785e-05 -8.00381e-05 -0.2945027603 0.7926935398
600296400.0 -0.294518624 0.7919089104 -7.45021e-05 -0.0002735188 -6.23695e-05 0.0001057691 -0.2866670994 0.795475217
605296370.0 -0.2872664744 0.7948532889 2.98669e-05 -0.0001645538 -4.3782e-06 -0.0001351043 -0.2781723868 0.7989781304
610296340.0 -0.2785230451 0.797577716 -5.64721e-05 -0.0001782781 4.91165e-05 3.71159e-05 -0.2699292856 0.8009448595
615296310.0 -0.2699304262 0.8004569666 -1.70909e-05 0.0001465688 0.0001779197 5.80886e-05 -0.2612539965 0.8035751292
620296280.0 -0.262321885 0.802039788 0.0001119932 -4.43962e-05 5.28573e-05 -0.0001360224 -0.2540651982 0.8067038192
625296250.0 -0.2540881405 0.8053379074 0.00015593 -8.45691e-05 0.0001557339 7.234e-06 -0.2453725402 0.8082407404
630296220.0 -0.2456173544 0.8076496487 -1.7783e-05 0.000208874 -0.0001273568 0.0002086543 -0.2374659938 0.8111594746
635296190.0 -0.2384381755 0.8107853629 -0.0001600472 -6.25615e-05 -2.11855e-05 0.000200319 -0.2295401552 0.8128408055
640296160.0 -0.230646765 0.8121527877 -0.0001191177 4.7649e-06 0.000255886 2.5689e-06 -0.2210339804 0.8155891624
645296130.0 -0.2219508962 0.815660765 -0.0001667776 -1.97902e-05 -7.21104e-05 0.0003042593 -0.2126147969 0.8179738212
650296100.0 -0.2133987107 0.816764321 4.50839e-05 0.0001555112 -6.85735e-05 0.0001770069 -0.2047181146 0.8189862225
655296070.0 -0.2057906097 0.8191200015 0.0002022075 -0.0001577154 -8.9573e-05 -6.5874e-06 -0.1959740077 0.8209308119
660296040.0 -0.1974832698 0.8203843041 5.96791e-05 -0.0001686369 4.85055e-05 -5.73242e-05 -0.1876123003 0.8232059632
665296010.0 -0.1890576412 0.8218443523 -0.0002420144 3.60165e-05 1.04192e-05 -0.0001505173 -0.178794503 0.8254144503
670295980.0 -0.1815035937 0.8242408988 0.000179696 -9.2348e-06 0.0001184228 0.0002106511 -0.1717988278 0.8267951339
675295950.0 -0.1729127261 0.8261248329 -0.0001993584 -9.72085e-05 9.85587e-05 -0.0001216379 -0.1631452763 0.8289163272
680295920.0 -0.1647518459 0.828142347 5.23595e-05 9.74592e-05 -0.0002137558 0.0001226536 -0.1546015907 0.8310185806
685295890.0 -0.1561579978 0.8304428117 0.0001491568 -4.8648e-05 0.0001351635 0.0002373038 -0.1454996714 0.8314825578
690295860.0 -0.1480302664 0.8309777791 -0.0001680394 4.55413e-05 -0.0001326958 0.0001513543 -0.1381240376 0.8341727392
695295830.0 -0.1402890254 0.8319568449 0.0001656642 4.59113e-05 -6.22165e-05 8.55077e-05 -0.1290347543 0.8346750664
700295800.0 -0.1311086729 0.8336021821 -2.93424e-05 0.0001907083 -4.79003e-05 0.0001043415 -0.1216941934 0.8361072178
705295770.0 -0.1236376125 0.8358273609 4.67065e-05 3.05655e-05 -0.0001852605 -0.0001166015 -0.1129114494 0.8380361746
710295740.0 -0.1149203721 0.8363056222 -8.36907e-05 4.29795e-05 5.85779e-05 -5.752e-07 -0.1045667 0.8381844881
715295710.0 -0.107101535 0.837227768 0.0001553852 -0.0002278167 -0.0001407549 -8.07546e-05 -0.0958871972 0.839734743
720295680.0 -0.0983534274 0.8387450402 0.0001327842 2.39604e-05 6.37066e-05 2.9464e-05 -0.0875911238 0.8408534362
725295650.0 -0.0901627205 0.8393270671 2.89791e-05 4.29137e-05 7.83019e-05 -0.0001354885 -0.0793766332 0.8414603771
730295620.0 -0.0815127075 0.8402992753 0.0001226007 -0.0002977383 0.0001023177 2.10115e-05 -0.0713240669 0.8426044458
735295590.0 -0.0737987437 0.8413641537 -0.0002092718 -0.0001670757 -4.30356e-05 0.0001710914 -0.0629179042 0.8428947684
740295560.0 -0.064619763 0.8416240764 0.0001198177 -0.0001147701 -8.09928e-05 3.32134e-05 -0.053785677 0.8440059736
745295530.0 -0.056884879 0.8426752516 -4.567e-06 9.87509e-05 3.18161e-05 -0.0001085103 -0.0454034511 0.8438544364
750295500.0 -0.0477114005 0.8430278541 7.2084e-06 1.64331e-05 2.90641e-05 6.73464e-05 -0.0370827602 0.8442541141
755295470.0 -0.0404330983 0.8429250412 5.65795e-05 -4.7452e-06 0.0001018332 -7.19701e-05 -0.0287446629 0.8440518851
760295440.0 -0.0323054119 0.8432168793 0.0001067626 -0.0001068225 -0.0001138774 -0.0001614025 -0.0203426629 0.844739971
765295410.0 -0.023228042 0.8438053972 -4.64121e-05 -0.0001151421 -3.48784e-05 -0.0001352374 -0.0117713903 0.8450982488
770295380.0 -0.0153073172 0.8436370275 0.0002359692 2.84969e-05 -0.0001538421 0.0001745574 -0.0039078324 0.8448523254
775295350.0 -0.007408984 0.8441841655 -6.3569e-06 -2.0783e-05 3.05449e-05 -0.0002042464 0.0041660744 0.8441468017
780295320.0 0.0016807191 0.8439547479 4.67561e-05 -0.0001550012 0.0001764452 -0.0001356388 0.0128103844 0.8444542318
785295290.0 0.0094403374 0.8435817443 0.0001158896 3.18347e-05 -0.0001262763 8.37631e-05 0.0213899692 0.843568942
790295260.0 0.0188653501 0.8437124941 -0.0001464377 -4.48379e-05 8.9543e-06 0.0002322308 0.0303062676 0.8439782579
795295230.0 0.0267033715 0.843566446 -4.43826e-05 3.9914e-05 2.29959e-05 9.0934e-06 0.0388773383 0.8428432698
800295200.0 0.0347820492 0.8431899129 8.0761e-06 -0.0001510939 0.0001731159 0.0001086918 0.0472353974 0.8425918313
805295170.0 0.0435715799 0.842735428 -0.0001691466 1.54649e-05 0.0001316124 -8.63318e-05 0.055315045 0.8422029617
810295140.0 0.0520295717 0.8421423181 0.0001490923 0.0001437798 8.94907e-05 -6.63052e-05 0.0643978942 0.8416177894
815295110.0 0.0599638061 0.8419260379 0.0001258571 -0.00023132 0.0002207009 2.05386e-05 0.0723013006 0.8407777278
820295080.0 0.0679479077 0.8412216178 3.9106e-06 0.0003004648 -1.75382e-05 0.0001104562 0.0806055164 0.8402436839
825295050.0 0.0773610056 0.8401947354 -6.33844e-05 0.00018 0.0001672142 -0.0001207845 0.0889902411 0.8398299139
830295020.0 0.0850955918 0.8398487342 -5.20879e-05 -0.0001290129 8.1521e-06 -5.41318e-05 0.0984906506 0.8385248951
835294990.0 0.0925783499 0.838558832 0.0001944389 0.0001495833 -0.0001129348 7.29696e-05 0.105826258 0.8373505616
840294960.0 0.1012934438 0.8381806796 -7.50251e-05 -8.39277e-05 -7.95031e-05 5.86673e-05 0.1144832585 0.836326584
845294930.0 0.1091423677 0.8365641914 -4.54989e-05 -5.18399e-05 -1.66258e-05 0.0001724311 0.1227766592 0.8348011464
