!Created with skrf (http://scikit-rf.org).
# Hz S RI R 50.0 
!freq ReS11 ImS11 ReS21 ImS21 ReS12 ImS12 ReS22 ImS22
300000.0 -0.3196455083 -0.081096024 0.3745460462 0.0426695742 0.372909082 0.0411235741 -0.3203905874 -0.0955298147
5299970.0 -0.326522918 0.0040257089 0.3781637785 0.0029629998 0.3782428626 0.0025745108 -0.3240870142 0.0047016413
10299940.0 -0.3241022302 0.0132273481 0.3794539844 0.0021404091 0.3796880712 0.0025652664 -0.3216723769 0.0160673789
15299910.0 -0.321510281 0.0202671513 0.3819851867 0.0021295664 0.3818690223 0.0020694761 -0.3182718244 0.0238599581
20299880.0 -0.3188217948 0.0263077063 0.3849631196 0.0018654871 0.3849790216 0.0017848001 -0.3149056528 0.030065669
25299850.0 -0.3157411793 0.0313997811 0.3879050108 0.0003525932 0.3880328558 0.0001607352 -0.3106780505 0.036025984
30299820.0 -0.3129682303 0.0359337726 0.3915776542 -0.0023872318 0.3911943613 -0.0020060056 -0.3070789525 0.0409634574
35299790.0 -0.3099578855 0.039793369 0.3949353515 -0.0053688215 0.3947449124 -0.00562328 -0.3035803658 0.0453551696
40299760.0 -0.3072486942 0.0436581772 0.3977527711 -0.0088295478 0.3978777594 -0.0086504948 -0.3002593085 0.0482354866
45299730.0 -0.3046781644 0.0466256861 0.4006732616 -0.0131465242 0.4010831532 -0.0126058767 -0.297446985 0.0517831816
50299700.0 -0.3025050201 0.0493655349 0.4036122498 -0.0171592167 0.4036410235 -0.0171104958 -0.2944935983 0.0546618035
55299670.0 -0.3003244729 0.0521227808 0.405575483 -0.0222909601 0.4055497652 -0.0217298825 -0.2916443253 0.0574096821
60299640.0 -0.297957064 0.0551596847 0.407451752 -0.0270597208 0.4077214252 -0.0268946331 -0.2893062816 0.059475746
65299610.0 -0.2961850668 0.0575842396 0.4092820295 -0.0321401563 0.409078268 -0.0319112857 -0.2872049286 0.061592947
70299580.0 -0.294801557 0.0599666152 0.4103593771 -0.037046631 0.4104045378 -0.0368431015 -0.2852249889 0.0640485298
75299550.0 -0.2931767336 0.0625737702 0.4114702533 -0.0422428047 0.4114605687 -0.0423286697 -0.2833033826 0.0659291071
80299520.0 -0.291733609 0.0648216605 0.4124183083 -0.0476226081 0.4124248626 -0.0472564324 -0.2816488932 0.0677977786
85299490.0 -0.2901304445 0.0669782314 0.4128742902 -0.0525394612 0.4128777367 -0.0522621144 -0.280186553 0.069801792
90299460.0 -0.2887685889 0.0693898434 0.4130121286 -0.0576895581 0.4132510828 -0.0579631313 -0.2781412623 0.0723440091
95299430.0 -0.2873810051 0.0716363145 0.4136252412 -0.063215927 0.4133204308 -0.0632049982 -0.2764580214 0.0740574301
100299400.0 -0.2864463295 0.07400107 0.4133612769 -0.0683367363 0.4132555075 -0.0682990401 -0.2754661554 0.0759290346
105299370.0 -0.2851537036 0.0766487248 0.4131823621 -0.0736712474 0.4136358529 -0.0736226745 -0.2735287152 0.078268676
110299340.0 -0.2840481329 0.0787419261 0.4132557297 -0.0785186417 0.4130727476 -0.0784885445 -0.2729502649 0.080327604
115299310.0 -0.2828592896 0.0810337631 0.4130245744 -0.0837468106 0.4127651341 -0.083583991 -0.2716293552 0.0824525786
120299280.0 -0.2820110354 0.0829780938 0.4124016587 -0.0886843765 0.412340499 -0.0889055155 -0.2703719932 0.0847433659
125299250.0 -0.2810099218 0.0855051576 0.4119217781 -0.0937616355 0.4121274708 -0.0937746262 -0.2698568639 0.0861641121
130299220.0 -0.2802299777 0.0882334392 0.4110955501 -0.099042415 0.4112476719 -0.0990494078 -0.2682890301 0.0885910937
135299190.0 -0.2792379188 0.0908916001 0.410587415 -0.1041412157 0.4104876086 -0.103999482 -0.2671774729 0.0910257037
140299160.0 -0.278503777 0.0933434572 0.4095856985 -0.1093911652 0.409682341 -0.1090942675 -0.2659647548 0.0932806111
145299130.0 -0.277380714 0.0957785881 0.4088780021 -0.1139258502 0.4087246291 -0.1138857698 -0.2651366337 0.0959449163
150299100.0 -0.2762222741 0.0983240711 0.4075782832 -0.1184785348 0.407680278 -0.1186125747 -0.2644516764 0.0983977709
155299070.0 -0.2756380875 0.1005299178 0.406881043 -0.124069084 0.4065867644 -0.1236779938 -0.2630661293 0.1008040195
160299040.0 -0.2745943004 0.1032883292 0.4055288217 -0.1284640125 0.4053020494 -0.1288174115 -0.2628163921 0.1032494605
165299010.0 -0.2734645334 0.1057515657 0.4040049847 -0.1336545618 0.4044366719 -0.1338594563 -0.2610868315 0.1058803982
170298980.0 -0.2730806356 0.1083676958 0.4030777235 -0.138325465 0.4031700957 -0.1383653851 -0.2603239885 0.1081386317
175298950.0 -0.2719300531 0.111249115 0.4017882364 -0.1433238527 0.4013874521 -0.1433611872 -0.2594817624 0.1105261536
180298920.0 -0.2709668377 0.1137198196 0.4001268944 -0.1480764908 0.4002303317 -0.1476341409 -0.2586216525 0.113403763
185298890.0 -0.269290508 0.1165535087 0.3984163963 -0.1528056513 0.398497732 -0.1525017687 -0.2570714631 0.1159536497
190298860.0 -0.2686499383 0.1193049287 0.3970376261 -0.1572293485 0.3971214133 -0.1574318165 -0.2560764192 0.1183178915
195298830.0 -0.2676804609 0.1217560129 0.3949909286 -0.1618317107 0.3951304926 -0.1615548654 -0.2549374673 0.1210111931
200298800.0 -0.2665103871 0.1244916612 0.3935861971 -0.1666984495 0.393429127 -0.1665199638 -0.2545060107 0.1232413997
205298770.0 -0.2653701905 0.12745555 0.3913328753 -0.1715750399 0.3916778154 -0.1708788095 -0.2531004652 0.1255181754
210298740.0 -0.2641847047 0.1300919024 0.3898801298 -0.1759093726 0.3897640407 -0.1754405668 -0.2518679883 0.1284782276
215298710.0 -0.2635704919 0.1327501515 0.3879447606 -0.180210439 0.3879953025 -0.1804904795 -0.2511451926 0.1308901589
220298680.0 -0.2621170614 0.1352398811 0.3856745874 -0.1845829061 0.3858462647 -0.1846170099 -0.2502456963 0.1333418802
225298650.0 -0.2611028989 0.1380286199 0.3838964616 -0.1891698515 0.3841968262 -0.1888333452 -0.2491916663 0.1358610626
230298620.0 -0.2597468241 0.1408434911 0.3819084473 -0.19316433 0.38243356 -0.193437297 -0.2476284008 0.1384978153
235298590.0 -0.2581630803 0.1434031969 0.3797199981 -0.1974718642 0.380022503 -0.1971843895 -0.2463083286 0.141196115
240298560.0 -0.2568411815 0.146228409 0.3776219716 -0.2025077321 0.3776515492 -0.2023041563 -0.2454290891 0.1438985068
245298530.0 -0.2559051839 0.1488977004 0.3759842469 -0.2068197271 0.3752934509 -0.2067355454 -0.243711327 0.146111948
250298500.0 -0.2542348038 0.1517836618 0.3726925654 -0.2109276122 0.3730231825 -0.210748067 -0.2427412402 0.1484194377
255298470.0 -0.2529810243 0.1541733796 0.3704588151 -0.2148036777 0.3708139534 -0.2149649675 -0.2410485144 0.1509682613
260298440.0 -0.2517373505 0.1567935221 0.3681682894 -0.2194104713 0.3682211441 -0.2190398057 -0.2393862208 0.1535318499
265298410.0 -0.2499152716 0.1601839606 0.3656456143 -0.2236422331 0.3662878568 -0.2234127379 -0.2382333822 0.156090608
270298380.0 -0.2487073982 0.1623538789 0.3638162885 -0.2274289204 0.3635389713 -0.2272722327 -0.2367692129 0.1587150302
275298350.0 -0.2470724441 0.165148723 0.3611297104 -0.2317898954 0.3611304952 -0.2316269952 -0.2353128532 0.1612700614
280298320.0 -0.2449101983 0.1679637395 0.3588438965 -0.2360294497 0.3584714447 -0.2355917171 -0.2334489834 0.1638195513
285298290.0 -0.2439128287 0.170521972 0.3558122195 -0.239563302 0.3558151052 -0.2397360031 -0.2318461186 0.1662525295
290298260.0 -0.2417416458 0.1732018292 0.353140726 -0.2435299115 0.3534057263 -0.2436482434 -0.2299385066 0.1688415248
295298230.0 -0.2400527526 0.1754364397 0.3508540088 -0.2476407843 0.3504080427 -0.247794923 -0.2280665315 0.1707881655
300298200.0 -0.2385974125 0.1781208065 0.3480099213 -0.2513117 0.3479739047 -0.2518557081 -0.2265052057 0.1734269255
305298170.0 -0.2368933981 0.1807964443 0.3450192672 -0.2560767293 0.3452303862 -0.2552226294 -0.2242725512 0.1756423384
310298140.0 -0.2348054399 0.1833547199 0.3424403853 -0.2595723089 0.3422046896 -0.2597714454 -0.2231238564 0.1783767441
315298110.0 -0.2330958064 0.1859535205 0.3395423435 -0.2635317412 0.3397900308 -0.2633357724 -0.2212959811 0.1805156313
320298080.0 -0.2311944688 0.188320262 0.3362886927 -0.2674708886 0.3366506053 -0.2672961698 -0.2193982652 0.1830767457
325298050.0 -0.2294074759 0.1907827466 0.3331198141 -0.2713307937 0.3335538861 -0.2712958266 -0.2176106887 0.18530779
330298020.0 -0.2275289949 0.1930636605 0.3300532651 -0.2752221257 0.3304702304 -0.2749881669 -0.216113057 0.1879140879
335297990.0 -0.2256454999 0.1956439448 0.3271617118 -0.2783439764 0.3273426409 -0.2782594975 -0.2146892523 0.1905555403
340297960.0 -0.224009143 0.1984945605 0.323582401 -0.2822664541 0.3236951645 -0.2824796664 -0.2122804709 0.1931323792
345297930.0 -0.2223117874 0.2011152479 0.3205208477 -0.2862095934 0.3206339861 -0.2855970155 -0.2106792254 0.1950681643
350297900.0 -0.2201568675 0.2032066635 0.3171836743 -0.2896030052 0.3174383837 -0.2891801581 -0.2091256065 0.1982168987
355297870.0 -0.2179360737 0.2061077982 0.3138488025 -0.2927665403 0.3143336852 -0.2922907595 -0.2070791085 0.1997391887
360297840.0 -0.2160153778 0.2084624491 0.3110381654 -0.2960716678 0.3115228362 -0.2962975685 -0.2050321708 0.2029708018
365297810.0 -0.2142023572 0.2111196033 0.3074449373 -0.2996711616 0.3077755012 -0.2997447652 -0.2027342685 0.2049223974
370297780.0 -0.2116781164 0.2133673586 0.3042043427 -0.3027779885 0.3047827691 -0.3027308967 -0.2007812867 0.2074315214
375297750.0 -0.2096686078 0.2157633206 0.3010411822 -0.3062682419 0.3011426341 -0.3063774234 -0.1988417 0.2094020279
380297720.0 -0.2072872064 0.217825976 0.2974733125 -0.3099232075 0.297719253 -0.3092591314 -0.1970055966 0.2118116393
385297690.0 -0.205826096 0.2204939892 0.2941748016 -0.3128539694 0.2941306314 -0.312789648 -0.1947817444 0.2142719381
390297660.0 -0.2029317455 0.2229211008 0.2906882453 -0.3164209605 0.2906511199 -0.3155814722 -0.1926217748 0.2162837836
395297630.0 -0.2005990319 0.224955704 0.2873242357 -0.3195408616 0.2872902103 -0.3194151009 -0.1902359843 0.2185948748
400297600.0 -0.1984834868 0.2276611142 0.283614575 -0.3227178196 0.2836885469 -0.3224118296 -0.187935665 0.2206528221
405297570.0 -0.1964793892 0.229505658 0.2800472571 -0.3252973652 0.2799291337 -0.3252834321 -0.1859876971 0.2228973996
410297540.0 -0.1938582162 0.232013056 0.2764761119 -0.3287981324 0.2767298323 -0.328468874 -0.1839672544 0.2252618289
415297510.0 -0.1914719709 0.2340531611 0.272438825 -0.3319051843 0.2727232321 -0.331528858 -0.181360084 0.2270422667
420297480.0 -0.1891722604 0.2363484512 0.2689035893 -0.3347458265 0.2688453509 -0.3349079752 -0.1793299641 0.2295225885
425297450.0 -0.1863859108 0.2383145859 0.2656222918 -0.3373075813 0.2659210955 -0.337408681 -0.1771683621 0.2312201231
430297420.0 -0.1842205695 0.2400954251 0.2617579765 -0.3400921416 0.2617407561 -0.3399932896 -0.1746471111 0.2330563997
435297390.0 -0.1819450716 0.2425357983 0.2576358227 -0.3432031559 0.2574012808 -0.3430343006 -0.1717811993 0.235178404
440297360.0 -0.1792598304 0.244551006 0.2540954105 -0.3459266249 0.2542799485 -0.3460316663 -0.1698723755 0.2368804513
445297330.0 -0.1768471561 0.2466673214 0.2505376779 -0.3489174999 0.2506593441 -0.3483924963 -0.1672230343 0.2384107338
450297300.0 -0.1738178223 0.2485812778 0.2462458045 -0.3512372359 0.2463681225 -0.3513980394 -0.1646639325 0.2404612877
455297270.0 -0.1714456993 0.2506004102 0.2421445119 -0.3540955644 0.2424891333 -0.3542676809 -0.1621981719 0.2424274197
460297240.0 -0.1692141442 0.2524145053 0.2385855734 -0.3564614572 0.2388747193 -0.3565431361 -0.1595009515 0.2444794612
465297210.0 -0.1663829837 0.2546181757 0.2350662313 -0.3589436626 0.2348040702 -0.3595849165 -0.1571657836 0.2460796853
470297180.0 -0.1637388742 0.2561924995 0.2304871319 -0.3616030695 0.2307556225 -0.3617019436 -0.1543930983 0.2481852441
475297150.0 -0.1609452554 0.2579670327 0.2266580876 -0.3638988888 0.2268153784 -0.3635074367 -0.151700187 0.2492270692
480297120.0 -0.1582600429 0.2599352724 0.2229430073 -0.3666731539 0.2224699686 -0.3669034852 -0.1487739886 0.2513740933
485297090.0 -0.1556303189 0.2618562536 0.2188380092 -0.3687408802 0.2186579453 -0.3687871896 -0.1462735838 0.2531651824
490297060.0 -0.1533747101 0.2638687932 0.2147871883 -0.3713891922 0.2149240816 -0.3710870043 -0.1434717051 0.2548285369
495297030.0 -0.1502410823 0.2652276931 0.2102225054 -0.3733650911 0.2110020018 -0.3733601016 -0.1412180113 0.2567021663
500297000.0 -0.1474753015 0.2671612109 0.206584673 -0.3755116936 0.2062451444 -0.3752727406 -0.138167676 0.2590910536
505296970.0 -0.1445177657 0.2688313877 0.2021722954 -0.3778277617 0.2023328293 -0.3778234223 -0.1357350263 0.2600996586
510296940.0 -0.1416133452 0.2705445785 0.198080018 -0.3804879358 0.1980170688 -0.380078748 -0.1325247756 0.2616676056
515296910.0 -0.1388253079 0.2719430731 0.1937985786 -0.3824975413 0.1940249532 -0.3822269004 -0.1299820661 0.2631940493
520296880.0 -0.1362378262 0.2737960706 0.1895683868 -0.3847031137 0.1897830336 -0.3843113625 -0.1271632576 0.2650717802
525296850.0 -0.1334301815 0.2749559545 0.1852995236 -0.386203411 0.1859330827 -0.3863550372 -0.1247818665 0.2665190896
530296820.0 -0.1298268377 0.2766590526 0.1807455216 -0.3886004098 0.18124333 -0.3882194969 -0.1217254867 0.2682506259
535296790.0 -0.1276389981 0.2784545389 0.1773291196 -0.3900348707 0.177070284 -0.389747694 -0.1192507839 0.2691979817
540296760.0 -0.1245777411 0.2798248786 0.1727794869 -0.3923383073 0.1728228172 -0.3922483045 -0.116390832 0.2711739553
545296730.0 -0.1219438152 0.281307957 0.1684902853 -0.3937571224 0.1683776956 -0.3940788821 -0.1133776892 0.2722216
550296700.0 -0.1187684223 0.2828587691 0.1639647866 -0.3956812148 0.1639694502 -0.3957298303 -0.1109323709 0.2737555211
555296670.0 -0.1158239245 0.2838782626 0.1596730588 -0.3974271165 0.1600388932 -0.3974704695 -0.1080421063 0.2754554689
560296640.0 -0.1124029952 0.285901977 0.1553768422 -0.399272367 0.1555321803 -0.3993010654 -0.1049974334 0.2764409004
565296610.0 -0.1097052179 0.2869534896 0.1508876682 -0.4010507388 0.151039788 -0.4007377016 -0.1021689899 0.2771344737
570296580.0 -0.1070725774 0.2883382693 0.1468941505 -0.4027520595 0.1464263505 -0.4022394329 -0.099488794 0.2794110955
575296550.0 -0.10415861 0.2898444398 0.1423305613 -0.4043498517 0.1422020886 -0.4038897403 -0.0965931856 0.2801764208
580296520.0 -0.100680601 0.290882778 0.137869809 -0.4056783017 0.1382704198 -0.4055653684 -0.0935942735 0.2810882748
585296490.0 -0.0978326312 0.2914519462 0.1334929928 -0.4066893334 0.1337375107 -0.4071497367 -0.0909454718 0.282358641
590296460.0 -0.0944525633 0.2928148543 0.1291233521 -0.4080800113 0.1293357158 -0.4081214627 -0.088166794 0.2835504269
595296430.0 -0.0913769074 0.2940538737 0.1242412541 -0.409577451 0.1242820456 -0.4094453824 -0.0846633231 0.2838083155
600296400.0 -0.0886569477 0.2952659608 0.1201826861 -0.4110292334 0.1202120598 -0.4106768812 -0.0819940081 0.2855141513
605296370.0 -0.085755591 0.2962498571 0.1153663592 -0.4120906518 0.1156763829 -0.4120882021 -0.0785242374 0.2863044272
610296340.0 -0.0822982045 0.2971255983 0.1109220512 -0.4130038269 0.1113096189 -0.4129597474 -0.0756856152 0.2871342761
615296310.0 -0.0788927581 0.2981187323 0.1064862513 -0.4140578623 0.1065528375 -0.4147337444 -0.0726235059 0.2878909324
620296280.0 -0.0758870268 0.2987028455 0.1017262284 -0.415257647 0.1016962861 -0.4154590603 -0.0696320745 0.289022052
625296250.0 -0.0731701555 0.2998021864 0.0977520282 -0.4166367927 0.097564668 -0.4168451636 -0.0659307786 0.2896302468
630296220.0 -0.0695224886 0.300769201 0.0924098122 -0.4178597463 0.0925683545 -0.4174305197 -0.0635812361 0.2905953918
635296190.0 -0.0669147604 0.3017651928 0.0883311879 -0.4180203467 0.0882715906 -0.4184000985 -0.0601853143 0.291338646
640296160.0 -0.063671344 0.3027180324 0.0839945985 -0.4192071882 0.0841232374 -0.4192823949 -0.0573386096 0.2922102457
645296130.0 -0.0604325712 0.3037919519 0.0789152634 -0.4204787881 0.0798367105 -0.420239524 -0.0540406118 0.2929879925
650296100.0 -0.0573342567 0.3040351762 0.0744465523 -0.4208225803 0.0748471279 -0.4209039563 -0.0507547375 0.2934556241
655296070.0 -0.0541433318 0.3048675177 0.0701563109 -0.4217420558 0.0700367598 -0.4214203629 -0.0473087543 0.2943528262
660296040.0 -0.051429235 0.305463187 0.065847968 -0.422534649 0.0656337029 -0.4222877479 -0.0442993412 0.2951184987
665296010.0 -0.0474952279 0.3058064438 0.0606051302 -0.4229554327 0.0608305261 -0.4229879066 -0.0413426707 0.2960893641
670295980.0 -0.045095471 0.3069132651 0.0564257689 -0.4233360813 0.0563266479 -0.4233270756 -0.0384188235 0.2963568384
675295950.0 -0.0416311885 0.3075979177 0.0520056342 -0.4241621556 0.0518485414 -0.4241011648 -0.0355450309 0.2970453268
680295920.0 -0.0382970746 0.307783781 0.0472754293 -0.4242524765 0.046700049 -0.4249705218 -0.032132446 0.2976419254
685295890.0 -0.0347421827 0.308823195 0.0427230158 -0.4248405969 0.0423936831 -0.4252751569 -0.028831593 0.2978641503
690295860.0 -0.0316133927 0.3091355017 0.0382303445 -0.4247932217 0.0378295764 -0.4255691115 -0.0258040466 0.2988283931
695295830.0 -0.0287753253 0.3095159734 0.033735053 -0.4252193357 0.0331481384 -0.4255784464 -0.022690777 0.2994345023
700295800.0 -0.0252062755 0.3098021495 0.0284806697 -0.4256840657 0.0285763468 -0.4258347912 -0.0196797965 0.2998960953
705295770.0 -0.0224454304 0.310889507 0.0239731652 -0.4260675551 0.0244217529 -0.4262510664 -0.0163908731 0.3004744658
710295740.0 -0.0185446608 0.3109465844 0.0195200342 -0.4269085148 0.0198669121 -0.4270781114 -0.0136077151 0.3004284233
715295710.0 -0.0157779596 0.3108703513 0.0151646623 -0.4267833974 0.0147394962 -0.4268058243 -0.010390323 0.3003961218
720295680.0 -0.0123861044 0.3115038238 0.0103103513 -0.4267293144 0.0106968546 -0.4271163077 -0.0071951342 0.3013509125
725295650.0 -0.008848472 0.311727771 0.0056128412 -0.4270514946 0.0058195677 -0.4271964966 -0.0041738005 0.3017051525
730295620.0 -0.0054711922 0.3121416267 0.0009339805 -0.4268115579 0.0011016846 -0.4267292999 -0.0013561899 0.301232432
735295590.0 -0.0024365829 0.312268836 -0.0032223039 -0.426900433 -0.0035243367 -0.426780579 0.0019027771 0.3015770286
740295560.0 0.0005918065 0.3126700429 -0.0083122093 -0.4270342262 -0.0081956274 -0.4268028325 0.0055617012 0.3020025271
745295530.0 0.0039370166 0.3124718753 -0.0128988563 -0.4260548165 -0.0128851391 -0.4265480015 0.0084374848 0.3016513576
750295500.0 0.0074994625 0.3128348406 -0.0171736449 -0.426202916 -0.0171539613 -0.4265229839 0.0114718654 0.3016062773
755295470.0 0.0106131065 0.3124896162 -0.0218005398 -0.4262593397 -0.02212305 -0.4258967887 0.0150406769 0.3013574882
760295440.0 0.0135596698 0.31239514 -0.0264001164 -0.4257822116 -0.0265039119 -0.4263750852 0.0176669393 0.3015202903
765295410.0 0.0168237605 0.3127331535 -0.0311795962 -0.4255783827 -0.0317272718 -0.4258351281 0.0213812699 0.3019031601
770295380.0 0.0201062464 0.3127536789 -0.0361956583 -0.4252744067 -0.0359271764 -0.4250154076 0.02411321 0.3018375933
775295350.0 0.0231530546 0.3120024758 -0.040292044 -0.4240776038 -0.039931362 -0.4245789685 0.0269464114 0.3012697146
780295320.0 0.0268148479 0.3123868148 -0.0452146732 -0.4240732847 -0.0443457437 -0.424047094 0.0302353682 0.3007260858
785295290.0 0.0296671697 0.3116862544 -0.049706466 -0.4234788711 -0.0496052186 -0.4237848218 0.0340009505 0.3009438732
790295260.0 0.0334202328 0.3119355753 -0.0535114803 -0.4226957745 -0.0533763719 -0.4225495029 0.0369206906 0.300522256
795295230.0 0.0366772406 0.3116172412 -0.0586562445 -0.422161388 -0.0585347452 -0.4222893731 0.0404962857 0.3003712776
800295200.0 0.0398248039 0.311415787 -0.0635653277 -0.4212320485 -0.0630949725 -0.4212094165 0.04366219 0.3000201408
805295170.0 0.0429902704 0.3109151597 -0.0677885289 -0.4204335922 -0.0678030934 -0.421133409 0.0466410568 0.3000086562
810295140.0 0.0461896873 0.3103427184 -0.0720883503 -0.419424923 -0.0722863778 -0.4198315948 0.0499517288 0.2994189737
815295110.0 0.0494184616 0.309825268 -0.0767035224 -0.4187841108 -0.0766794966 -0.4193786717 0.0530941979 0.2989578487
820295080.0 0.0524804662 0.3101387162 -0.0810658294 -0.4177950105 -0.0811711112 -0.4181027172 0.0564020932 0.2985255513
825295050.0 0.0564239194 0.3095049173 -0.0854354195 -0.4172787131 -0.0857742767 -0.4171275357 0.0594518055 0.2980219938
830295020.0 0.0591693059 0.3091068354 -0.0904773131 -0.4161885652 -0.0902488041 -0.4160763847 0.0631272639 0.2978594412
