!Created with skrf (http://scikit-rf.org).
# Hz S RI R 50.0 
!freq ReS11 ImS11 ReS21 ImS21 ReS12 ImS12 ReS22 ImS22
300000.0 0.8609972131 -0.0019924709 -0.0007068979 -0.0002209713 -0.0002317679 0.0001928282 -0.772730965 -0.1582688183
5299970.0 0.8595094496 -0.01005064 -9.27483e-05 -0.0002673565 -5.11692e-05 0.00020556 -0.7852298999 -0.0084543443
10299940.0 0.8582661219 -0.0192855116 -6.9559e-05 -7.10026e-05 -0.0001342011 -5.1882e-06 -0.7886830725 -0.0046630562
15299910.0 0.8577974975 -0.0278865653 0.0002695316 -0.0001317592 8.032e-06 5.6714e-05 -0.7936895182 -0.0030294076
20299880.0 0.8572682056 -0.0360018536 -9.51151e-05 -1.87489e-05 -3.99383e-05 -0.0001101956 -0.8003781038 0.0015219765
25299850.0 0.8562277636 -0.0437825137 -5.34632e-05 3.96951e-05 -8.85295e-05 2.37964e-05 -0.8068948639 0.0073373413
30299820.0 0.8558294273 -0.0525619667 0.0002550531 1.00282e-05 -5.15942e-05 5.31556e-05 -0.812716724 0.014959423
35299790.0 0.8551244006 -0.0601551875 -2.4169e-05 0.0001732998 -0.0001024491 1.6532e-05 -0.8182901107 0.0240828374
40299760.0 0.8544353748 -0.0682268245 0.0002984718 -2.03429e-05 -6.61048e-05 3.46588e-05 -0.8218021156 0.0330855135
45299730.0 0.8534952576 -0.076873968 -0.0001383015 5.31557e-05 -3.55333e-05 0.0001024157 -0.8255584948 0.0425516692
50299700.0 0.8522952003 -0.0851938488 -0.0001390792 -0.0001288009 0.0002762007 0.0001816898 -0.8278203271 0.0524329347
55299670.0 0.8513741061 -0.0930458497 -5.54642e-05 3.42728e-05 -0.0001647038 6.48364e-05 -0.829686669 0.0630670987
60299640.0 0.8504024194 -0.1013447757 3.0656e-05 -0.000113738 4.49594e-05 8.48323e-05 -0.8305075956 0.0731100441
65299610.0 0.8501911205 -0.1090766499 0.000151783 -4.02237e-05 0.0002013631 -1.65875e-05 -0.8315465416 0.0829164789
70299580.0 0.8486707104 -0.1180430718 -0.0001069212 0.0003132767 4.66575e-05 -6.9664e-06 -0.8320483729 0.0926493432
75299550.0 0.8472500194 -0.1262064937 -8.71131e-05 1.38244e-05 0.0001408138 -0.0001221748 -0.8327622918 0.102551943
80299520.0 0.8455924956 -0.1344311508 6.59069e-05 6.13502e-05 2.65107e-05 -0.0001286772 -0.8320600849 0.1124410724
85299490.0 0.8450609924 -0.1425445954 0.0001267202 0.0001121143 1.33911e-05 0.0002078024 -0.8321847987 0.1216610863
90299460.0 0.842970459 -0.1505482403 5.41183e-05 7.32717e-05 -9.0425e-06 -1.23736e-05 -0.8312436625 0.1310334027
95299430.0 0.8413727292 -0.1588693949 7.80854e-05 0.0002002093 -0.000156138 2.24231e-05 -0.8300504111 0.1411501762
100299400.0 0.839617909 -0.1664842728 0.0001612666 -8.0795e-06 0.0001486537 0.0001762609 -0.8285385919 0.1495241417
105299370.0 0.83840063 -0.1757488803 0.000202127 4.81699e-05 -0.0001160982 -2.25617e-05 -0.8274525007 0.1590782084
110299340.0 0.8361893284 -0.1832436249 -8.77262e-05 3.0278e-05 7.98915e-05 -2.04281e-05 -0.826895405 0.1685375307
115299310.0 0.8345018802 -0.1920417526 0.0001830979 5.74937e-05 0.0001272527 -5.19328e-05 -0.8249340184 0.1769234675
120299280.0 0.8328375621 -0.1992897904 0.0001063724 0.0002558882 2.59119e-05 -4.93015e-05 -0.8235165572 0.1860113603
125299250.0 0.830485545 -0.2078538145 6.20018e-05 3.32411e-05 -0.0001565742 9.20831e-05 -0.8216580839 0.1955263056
130299220.0 0.8287781011 -0.2154717233 -0.0002546017 -2.16538e-05 5.1063e-05 0.0001093656 -0.8199283726 0.2046086688
135299190.0 0.8263232046 -0.2233260952 -6.82902e-05 -0.0001589895 9.13414e-05 6.25443e-05 -0.8177573755 0.2128376571
140299160.0 0.8245571002 -0.2317860126 6.34348e-05 6.4791e-05 0.0001445062 -2.17983e-05 -0.8161457642 0.2216654692
145299130.0 0.8211436684 -0.2395809639 8.49139e-05 -1.0863e-06 4.5343e-06 5.14794e-05 -0.8139019404 0.2301843572
150299100.0 0.8197004051 -0.2473015905 -8.24493e-05 1.00885e-05 3.40013e-05 -0.0002746943 -0.8116796317 0.2382010762
155299070.0 0.8168404857 -0.2556299143 -6.00221e-05 -1.79864e-05 1.3911e-06 0.0001323766 -0.8092348966 0.2477115554
160299040.0 0.8141938462 -0.2637032586 -9.85352e-05 2.31557e-05 3.18304e-05 -2.69121e-05 -0.8071886095 0.2566403355
165299010.0 0.8121049279 -0.2710719655 -7.0518e-05 -8.25657e-05 -5.38548e-05 -7.06477e-05 -0.8043593979 0.2650727317
170298980.0 0.8096765244 -0.2792780752 -0.000119232 -1.95806e-05 -0.0002205285 -7.0335e-06 -0.8022118457 0.273326455
175298950.0 0.8060435071 -0.2864345951 5.83669e-05 -8.04315e-05 5.07023e-05 0.000132201 -0.7991025374 0.2822152927
180298920.0 0.8035637265 -0.2945647941 2.3056e-05 -0.0001403838 -7.8844e-05 -9.2859e-05 -0.7955670758 0.2907560332
185298890.0 0.8001457658 -0.303259457 0.0002532055 0.0003508234 0.0002554373 -7.22251e-05 -0.7931906226 0.2986210711
190298860.0 0.7974453813 -0.3107638768 -4.2757e-06 0.0001173907 -0.0001556379 -6.86875e-05 -0.7892101372 0.3079798013
195298830.0 0.7942770652 -0.3181254803 5.27122e-05 -9.64199e-05 -8.93018e-05 -5.55e-06 -0.7871015242 0.3154921055
200298800.0 0.790822989 -0.3262986457 0.0001511474 5.68656e-05 -4.75697e-05 -0.0001204699 -0.7837196151 0.3244829372
205298770.0 0.7882877769 -0.3339385478 -0.0002423893 -2.783e-06 -8.32878e-05 0.0001023532 -0.7797040706 0.3319274138
210298740.0 0.7849141478 -0.3408339012 6.28761e-05 0.0001704177 8.52996e-05 1.12765e-05 -0.776956577 0.3407053242
215298710.0 0.7810553552 -0.3485149276 4.99147e-05 0.0001154447 0.0001044724 1.16231e-05 -0.7735593814 0.3484063651
220298680.0 0.7784000357 -0.3566229254 -4.0676e-06 6.34267e-05 1.56444e-05 9.77045e-05 -0.7696042886 0.357199061
225298650.0 0.7738524289 -0.3633453184 -7.27503e-05 -2.65035e-05 0.0001128104 3.87244e-05 -0.7659769009 0.364920445
230298620.0 0.7706075197 -0.371653529 -5.3702e-05 2.51744e-05 -6.98796e-05 2.619e-06 -0.7615915916 0.3729835168
235298590.0 0.7666499736 -0.3787532435 -0.0001630547 -4.03154e-05 -3.82778e-05 5.51859e-05 -0.7583801903 0.3808230132
240298560.0 0.7633032184 -0.3872062236 -6.87043e-05 0.0002515029 0.000122675 -8.67911e-05 -0.7538652595 0.3884562183
245298530.0 0.7599293517 -0.3935397777 6.95088e-05 0.0001293992 -4.6804e-05 2.01075e-05 -0.7502185101 0.3970443422
250298500.0 0.7553673188 -0.4013664788 0.0001088818 7.02038e-05 -6.7548e-05 4.13647e-05 -0.7462495885 0.4047942551
255298470.0 0.7517513516 -0.4083688881 -8.1992e-05 -0.0002192224 -4.17304e-05 -5.20076e-05 -0.7414532115 0.4127932713
260298440.0 0.7476193832 -0.415338686 0.0001815165 -1.73592e-05 0.0001310034 -9.8301e-05 -0.7368592164 0.4201920383
265298410.0 0.7435750588 -0.4226519487 -2.58476e-05 -0.0001290555 8.8906e-05 0.0002221831 -0.7325993086 0.4275562129
270298380.0 0.7399556561 -0.4295203134 0.0001342806 9.14274e-05 -1.22375e-05 0.0001883014 -0.7277495021 0.4358242421
275298350.0 0.7358102285 -0.4376060738 3.0338e-05 0.0002028049 0.0001190894 -0.0001399377 -0.7227269795 0.4430541935
280298320.0 0.7319228807 -0.4440590695 0.0001593061 1.48535e-05 6.18474e-05 0.0001247106 -0.718713097 0.4504582111
285298290.0 0.7270586069 -0.451029043 -9.49884e-05 4.426e-07 -0.0001092469 0.0001821733 -0.7135581112 0.4583592446
290298260.0 0.7231834495 -0.4583537327 0.0003274735 -2.06753e-05 7.5023e-06 1.935e-06 -0.7090687086 0.4664333935
295298230.0 0.7186976817 -0.4661993358 -6.74589e-05 -7.37875e-05 5.8181e-05 0.0002543335 -0.7038172267 0.4733599525
300298200.0 0.7146829034 -0.4738110692 -2.96006e-05 -6.07075e-05 -7.13853e-05 -5.30987e-05 -0.698767131 0.4800781943
305298170.0 0.7102679411 -0.4799276249 -4.9487e-05 -6.99412e-05 8.99916e-05 1.29248e-05 -0.693241571 0.4878994789
310298140.0 0.7058890747 -0.4877249278 9.98308e-05 0.0001253933 0.0001177222 -0.0001771948 -0.6889825269 0.495577661
315298110.0 0.7002968626 -0.4959938608 -1.1038e-05 -3.80141e-05 -3.76166e-05 9.67101e-05 -0.6835253537 0.5021955932
320298080.0 0.6948887363 -0.5029839404 -0.0001713418 -9.47054e-05 4.68358e-05 5.0372e-06 -0.6777804528 0.509306047
325298050.0 0.6900279469 -0.5101514553 7.28495e-05 0.0001092662 -0.0001245189 -0.0001015842 -0.6722499199 0.5160558524
330298020.0 0.6836009274 -0.5166726037 -0.0001843495 -7.27756e-05 8.33126e-05 -0.0001352798 -0.6671308482 0.5233736343
335297990.0 0.6778790212 -0.522797687 0.0001155795 -7.98587e-05 -9.39362e-05 -2.4697e-06 -0.6614316954 0.5300181281
340297960.0 0.6724159371 -0.5293469932 -4.69441e-05 -8.60844e-05 6.01121e-05 4.69932e-05 -0.6558932309 0.5371321253
345297930.0 0.6667981082 -0.5360463226 2.07685e-05 -2.83452e-05 6.46252e-05 -6.38426e-05 -0.6498797175 0.5441023136
350297900.0 0.6609377367 -0.5420502909 3.98456e-05 -5.1212e-06 -0.0002003705 0.0002146072 -0.6439878328 0.5511226183
355297870.0 0.6559283359 -0.5483814772 1.67167e-05 -0.0001393907 0.0002078582 -0.0002154385 -0.6383159569 0.5572799065
360297840.0 0.6506718874 -0.5544477997 -1.26502e-05 0.0001420907 -3.21215e-05 -6.66471e-05 -0.6321971295 0.5639644343
365297810.0 0.64515759 -0.5604810579 9.46577e-05 0.0001862659 4.75537e-05 -3.44612e-05 -0.6262777519 0.5707587363
370297780.0 0.6398465235 -0.5666369587 -2.75269e-05 -7.02244e-05 3.49685e-05 0.0002193324 -0.6204578161 0.57624206
375297750.0 0.6334966466 -0.5723777286 0.0001415518 0.0001126297 1.54488e-05 -4.13382e-05 -0.6140249676 0.5832124177
380297720.0 0.6289349386 -0.5784086518 2.22219e-05 0.0001236013 -1.92343e-05 4.26746e-05 -0.607680811 0.590356144
385297690.0 0.6220600505 -0.5842924865 3.71449e-05 5.98525e-05 -3.22043e-05 4.39871e-05 -0.601735346 0.596079011
390297660.0 0.617025749 -0.5905174289 -8.6407e-05 3.32296e-05 -0.0001070311 -0.0001268483 -0.5953378826 0.6015235762
395297630.0 0.6116029676 -0.5963889147 6.97417e-05 0.0001707838 -0.0001353122 0.0002343783 -0.589146972 0.608304898
400297600.0 0.6048022121 -0.6014503352 -0.0001561502 -9.63799e-05 -5.49445e-05 -9.99139e-05 -0.5827575673 0.6138319435
405297570.0 0.5992761612 -0.6076957275 0.0001641182 -0.0001410466 2.59118e-05 5.51138e-05 -0.5770137275 0.6200196622
410297540.0 0.5926629763 -0.6136275201 4.01631e-05 -3.84182e-05 1.88323e-05 -4.64089e-05 -0.5697280166 0.62581215
415297510.0 0.5871654713 -0.6191210376 0.0001145245 -7.83791e-05 -0.0002669321 -9.2437e-05 -0.5632080945 0.6321169519
420297480.0 0.5808435614 -0.6252343283 0.0001606855 -2.18395e-05 0.0001084998 4.93468e-05 -0.5568099206 0.6371894628
425297450.0 0.5744221291 -0.6302086822 -2.12393e-05 -0.0002032368 -6.68353e-05 6.70589e-05 -0.5500796722 0.6433419118
430297420.0 0.5682513329 -0.6362534518 -7.67409e-05 -0.000161975 -2.20526e-05 2.22193e-05 -0.5437455553 0.6488262814
435297390.0 0.5622598503 -0.6413726398 6.26577e-05 0.0001825925 1.52682e-05 0.0001484896 -0.5367621698 0.6540275338
440297360.0 0.5558366932 -0.6471281306 0.000242693 -0.000277035 -0.0001720812 -0.0001820139 -0.5300236816 0.6589968691
445297330.0 0.549346239 -0.6521080019 -0.0001815101 -9.93497e-05 5.51091e-05 -4.52818e-05 -0.5234824343 0.664692613
450297300.0 0.5427464922 -0.6576503262 -3.67871e-05 -6.09065e-05 5.00866e-05 1.23833e-05 -0.5167940763 0.6700220197
455297270.0 0.53598331 -0.6623972337 0.0001693707 -0.0001114609 4.8423e-05 5.98996e-05 -0.5093208426 0.6751655207
460297240.0 0.5296126452 -0.6673866429 0.0001301428 -6.13844e-05 0.0002882212 -9.23646e-05 -0.5023358519 0.6810182257
465297210.0 0.5231726614 -0.6728197069 -0.0002861708 -0.0001500591 -7.48265e-05 0.0001327846 -0.4959325175 0.6850023935
470297180.0 0.5165724949 -0.67820954 6.99366e-05 7.995e-07 -7.96446e-05 -0.000226067 -0.489248193 0.6894066091
475297150.0 0.5098434509 -0.6831431363 -4.86514e-05 6.29889e-05 0.0001861764 -1.48579e-05 -0.481718381 0.6944532896
480297120.0 0.5033283955 -0.6879150888 0.0001433006 0.0001029638 1.64854e-05 0.0001792473 -0.4748899502 0.7003889629
485297090.0 0.496309113 -0.6922658361 -5.42303e-05 3.23978e-05 3.84434e-05 -2.51307e-05 -0.4676234588 0.7040058361
490297060.0 0.4896018635 -0.6974163821 -7.25454e-05 -6.47517e-05 -5.74621e-05 0.0001379809 -0.4610550597 0.7087069494
495297030.0 0.4825529228 -0.7026684538 0.0001546961 -6.17258e-05 -6.98636e-05 3.21652e-05 -0.4532530674 0.7128670157
500297000.0 0.4759477543 -0.7067858706 0.0003595341 0.0001710842 0.0001997611 -9.78499e-05 -0.4464815835 0.7178744496
505296970.0 0.4687417837 -0.7112466651 8.75578e-05 -7.35481e-05 0.0001432484 6.23366e-05 -0.4397184708 0.7225248883
510296940.0 0.4615607186 -0.7158839137 0.0001668767 8.6573e-05 -8.41431e-05 -4.91805e-05 -0.4316799292 0.7266782321
515296910.0 0.4543481697 -0.7197743418 -4.39408e-05 -5.2926e-06 -7.32503e-05 -0.0001886347 -0.4241656979 0.7311200081
520296880.0 0.4474860035 -0.7244756874 -6.99754e-05 -0.0001571148 0.0001653439 -3.92565e-05 -0.4172692739 0.7347251046
525296850.0 0.4404392363 -0.7282138055 -1.11008e-05 2.85856e-05 5.9861e-05 -8.80212e-05 -0.4098503971 0.7395213778
530296820.0 0.4324505292 -0.7327401675 -0.0002154663 4.06016e-05 0.0002766709 -6.32986e-05 -0.4031112333 0.7429780887
535296790.0 0.4257695994 -0.7363954246 -9.1392e-06 7.7889e-05 6.39388e-05 -0.0001166126 -0.3952865271 0.7465083424
540296760.0 0.4187615666 -0.7416923763 2.94591e-05 -0.000229715 -0.000239138 -5.84125e-05 -0.3877058869 0.7510130407
545296730.0 0.4111808007 -0.7441436274 3.74601e-05 -0.0001107548 -0.0001000102 0.0002603111 -0.3803420937 0.7542777997
550296700.0 0.4039395633 -0.7493903251 8.70916e-05 -7.03901e-05 -0.000140043 -0.0001785808 -0.3729731084 0.758250115
555296670.0 0.3963847187 -0.7532016727 0.000164838 -0.0001667171 0.0001732878 0.0001619091 -0.3651535893 0.7618928743
560296640.0 0.3891653876 -0.7570209344 7.1677e-05 -9.289e-06 3.19972e-05 -4.53819e-05 -0.3574383559 0.7653819255
565296610.0 0.3816043409 -0.7609502478 7.22328e-05 -4.95997e-05 0.0001389144 3.60203e-05 -0.350359797 0.7691342964
570296580.0 0.3743122232 -0.7641208074 7.34656e-05 7.71e-08 5.39225e-05 1.1984e-05 -0.3425644857 0.773090247
575296550.0 0.3664927862 -0.766897573 9.35835e-05 5.89363e-05 -0.0001473236 5.05904e-05 -0.3345658419 0.7758916024
580296520.0 0.3591947236 -0.7702803078 -0.0001407042 -9.24606e-05 -5.0606e-06 -1.449e-07 -0.3272932781 0.7794092136
585296490.0 0.3507619513 -0.7745596666 0.0001801991 2.23204e-05 -2.57874e-05 -0.0001102107 -0.3192791311 0.782066356
590296460.0 0.3432429026 -0.7777099376 -2.40655e-05 0.0001569794 -0.0001796002 -5.69393e-05 -0.311379124 0.785247128
595296430.0 0.3356569361 -0.7808430143 -0.0001454697 -7.52292e-05 -5.08403e-05 -8.17874e-05 -0.3040750083 0.7876932456
600296400.0 0.3280387114 -0.7838553567 0.0002026741 5.2554e-05 9.12891e-05 7.67189e-05 -0.2959876125 0.7916233656
605296370.0 0.3204026381 -0.786887752 -5.12344e-05 2.92124e-05 4.7805e-06 -1.71194e-05 -0.2881338284 0.794443204
610296340.0 0.3128469494 -0.7903586084 0.0001018148 -0.0001560563 9.11417e-05 2.28813e-05 -0.2802128792 0.7973187575
615296310.0 0.3045876027 -0.7928376292 0.0001019103 -0.0001476346 1.34074e-05 8.20753e-05 -0.2718600896 0.7998121816
620296280.0 0.296927834 -0.7952237723 8.17802e-05 7.33643e-05 5.53879e-05 -4.92176e-05 -0.2645613571 0.8022852859
625296250.0 0.2893955453 -0.7983935269 -7.08166e-05 0.000166892 9.31695e-05 2.25957e-05 -0.2564192572 0.8049133838
630296220.0 0.2810760176 -0.8014133685 9.13752e-05 -0.0002022988 3.24016e-05 -6.34453e-05 -0.2486874222 0.8076859542
635296190.0 0.2732622873 -0.8045596099 8.9468e-06 -0.0001637757 0.0001749606 -3.33312e-05 -0.2405593797 0.8095377448
640296160.0 0.2656354217 -0.8061903879 -0.0002056138 -1.95367e-05 4.35479e-05 8.39604e-05 -0.231897581 0.812009336
645296130.0 0.2578280027 -0.8091585365 5.5381e-05 0.0001336255 6.9375e-06 3.20724e-05 -0.2250095891 0.8134520247
650296100.0 0.2493841759 -0.8107138454 5.73156e-05 -4.5864e-05 -7.24288e-05 5.0831e-06 -0.2167979455 0.8162842747
655296070.0 0.2419386309 -0.8133567044 -4.16172e-05 0.0001107469 -5.06338e-05 -9.48292e-05 -0.2081908124 0.8179983302
660296040.0 0.2328951549 -0.8156054315 6.2002e-06 0.0003453782 4.19917e-05 7.19015e-05 -0.2000722322 0.8201638042
665296010.0 0.2248174449 -0.8177540433 7.46465e-05 8.93033e-05 0.000132776 -0.0002662128 -0.1929538818 0.8227397886
670295980.0 0.2176884511 -0.820363116 -5.96159e-05 0.0002017422 -0.0001222698 -7.87154e-05 -0.1848563481 0.8242168914
675295950.0 0.2094679719 -0.8218310475 -4.7193e-06 -5.2333e-06 0.0001888985 -2.3011e-05 -0.1764099467 0.8255283258
680295920.0 0.2001340289 -0.8236911878 -1.45587e-05 2.77014e-05 0.0001656905 -5.26362e-05 -0.167929217 0.8270389987
685295890.0 0.1926338338 -0.8252613533 8.03506e-05 -4.77932e-05 0.0001144291 0.0001270042 -0.159580545 0.8296684568
690295860.0 0.1847548785 -0.8271028914 -0.0002795745 0.0001399477 8.56342e-05 0.0001284308 -0.1513621824 0.8306742071
695295830.0 0.1767484594 -0.8292068493 -0.0001772612 -8.03531e-05 -4.69571e-05 0.0001741238 -0.1435893417 0.83223827
700295800.0 0.1684471854 -0.8301459024 -1.17712e-05 9.28249e-05 -8.30128e-05 1.37337e-05 -0.1347889261 0.8332635813
705295770.0 0.160574869 -0.8322547689 0.0001227801 -4.76428e-05 -2.74091e-05 5.19369e-05 -0.1270606051 0.8351271081
710295740.0 0.1519558464 -0.8331221155 6.38634e-05 5.21912e-05 -7.9836e-05 -1.11018e-05 -0.1189848424 0.8366020306
715295710.0 0.1434968031 -0.8341251858 0.0002482949 5.6738e-05 8.7767e-06 -1.79285e-05 -0.1109485819 0.8372894756
720295680.0 0.1352915525 -0.8356137883 0.0001346189 7.52643e-05 7.56881e-05 3.08835e-05 -0.1019168996 0.8385319238
725295650.0 0.1271284691 -0.8368554006 0.0001143124 4.5573e-06 -5.29427e-05 -5.46393e-05 -0.0933252665 0.8393659894
730295620.0 0.1189067213 -0.8388694534 -8.55749e-05 -0.000233075 0.0001498774 9.35e-05 -0.0852851294 0.8403242139
735295590.0 0.1107486301 -0.8388182577 -2.83391e-05 -0.0002896072 -0.0001287007 -6.21177e-05 -0.0765619073 0.8409707445
740295560.0 0.1026378156 -0.840065805 7.56106e-05 2.5687e-05 -3.666e-07 -1.98726e-05 -0.0686181686 0.8413818167
745295530.0 0.0937146398 -0.8417968288 -5.91997e-05 -5.81132e-05 3.46457e-05 -7.63715e-05 -0.0600497449 0.8421017268
750295500.0 0.0850410442 -0.8409250433 0.0002577008 -1.62486e-05 0.0002025887 1.24914e-05 -0.0523748221 0.8420512751
755295470.0 0.0773745253 -0.8428003635 -8.78402e-05 -8.93266e-05 -0.0001592287 7.31712e-05 -0.0443747098 0.8432504304
760295440.0 0.0690198757 -0.8428666471 -8.48957e-05 0.0001361931 4.00206e-05 2.82014e-05 -0.0359875851 0.8435423798
765295410.0 0.0605930497 -0.8433486807 6.05288e-05 0.0002009641 0.0001367286 1.58541e-05 -0.0270210399 0.8438576559
770295380.0 0.0521469558 -0.8440937234 -4.97329e-05 -0.0001648215 7.34241e-05 7.99024e-05 -0.018024148 0.8439220099
775295350.0 0.0436013109 -0.8440480793 2.97073e-05 0.0001740331 3.97878e-05 7.26543e-05 -0.0107672035 0.8441483295
780295320.0 0.0347501058 -0.8447678405 -8.67011e-05 -4.14687e-05 -0.0001013278 -0.0001146323 -0.0020931003 0.844655784
785295290.0 0.0274988145 -0.8445045294 -6.48591e-05 7.74887e-05 0.0001250819 -2.74256e-05 0.0059081976 0.844299895
790295260.0 0.019078968 -0.845013396 -9.91691e-05 -0.0001480476 3.94411e-05 5.0593e-05 0.0147937836 0.8441115279
795295230.0 0.0106918511 -0.8445628417 0.0001097957 -9.49561e-05 6.8678e-05 -1.61232e-05 0.0226563019 0.8444394988
800295200.0 0.0027054337 -0.843888246 5.79316e-05 -0.0001788366 -3.30274e-05 8.56001e-05 0.0310754147 0.8434853009
805295170.0 -0.0060022608 -0.8443827562 4.3166e-05 -0.0001880903 0.0001173858 -7.21173e-05 0.0389332021 0.8431512371
810295140.0 -0.0144371104 -0.8442772284 0.0002108976 0.0001398201 -0.0002430159 -0.0001724664 0.0475426216 0.844084446
815295110.0 -0.0221067747 -0.843629741 -3.0003e-06 -0.0001569227 -4.51376e-05 2.0247e-06 0.0559391145 0.8430703869
820295080.0 -0.0310298498 -0.843416252 5.61754e-05 0.0002900464 0.000101754 -2.66267e-05 0.064193247 0.8417468462
825295050.0 -0.0393371015 -0.8428940334 0.0001458326 -3.85515e-05 0.0002177582 -3.27443e-05 0.0728454357 0.8415912163
830295020.0 -0.0476769951 -0.8420744751 -0.0002454846 -3.4437e-06 -5.80716e-05 8.5507e-06 0.0803592798 0.8402185727
835294990.0 -0.0557085665 -0.8413190594 9.89597e-05 5.46254e-05 -1.99466e-05 -3.75162e-05 0.0889578222 0.8398140741
840294960.0 -0.0644245526 -0.8409613734 -0.0001541516 -0.000199012 0.0001540259 -7.54909e-05 0.0971185761 0.8388141918
845294930.0 -0.0725197675 -0.840408736 -0.0001666873 -0.0001506501 -1.03775e-05 1.73542e-05 0.1051382355 0.8384355684
850294900.0 -0.0808290621 -0.8391393816 0.0002642975 6.40864e-05 6.45414e-05 2.6031e-06 0.113421704 0.8369359326
