!Created with skrf (http://scikit-rf.org).
# Hz S RI R 50.0 
!freq ReS11 ImS11 ReS21 ImS21 ReS12 ImS12 ReS22 ImS22
300000.0 -0.0485838716 -0.0485807686 -0.0016159791 0.0006259222 6.52048e-05 -0.0003006848 -0.7737048074 -0.1365559465
5299970.0 -0.0487183353 0.0154021596 -7.2063e-05 0.0001316174 -2.1309e-05 6.88615e-05 -0.7846351747 -0.0075054022
10299940.0 -0.0431062131 0.0318625785 7.43299e-05 0.0001507854 4.32913e-05 1.25869e-05 -0.7881000219 -0.0037559866
15299910.0 -0.0351756674 0.0460143959 -2.62834e-05 0.000152175 -7.72264e-05 -0.0001150408 -0.7929863412 -0.0014607475
20299880.0 -0.0252604328 0.0573064055 0.0003305907 -0.0001831962 2.4487e-05 -4.91502e-05 -0.7998269554 0.0020162707
25299850.0 -0.014428728 0.0666584135 -4.18244e-05 -3.91006e-05 -3.76219e-05 -0.0001002882 -0.8058583677 0.0087077623
30299820.0 -0.0035560147 0.0731495959 0.0002129627 9.4431e-05 5.7995e-05 0.0001147516 -0.8120628394 0.016425733
35299790.0 0.0078181451 0.0775098113 1.80855e-05 7.99789e-05 -2.11914e-05 -0.0001442306 -0.8171158701 0.0251643367
40299760.0 0.0192932703 0.0806145662 0.0001380549 -5.24101e-05 6.80307e-05 1.76852e-05 -0.8213366259 0.0344029885
45299730.0 0.0297102798 0.0817213958 -2.95261e-05 0.0001083971 0.0001178155 -0.0001488937 -0.8251387857 0.044332309
50299700.0 0.0394123526 0.0815443911 0.0002275053 5.53472e-05 -6.6698e-05 -6.11246e-05 -0.8272746663 0.0536542335
55299670.0 0.0483000852 0.0802504883 0.0002000313 0.0001161375 -0.0002193856 0.0002070254 -0.8294203385 0.064174795
60299640.0 0.0568962331 0.078865334 6.99025e-05 -1.8534e-05 0.000235744 0.0001575895 -0.8306561483 0.0744320764
65299610.0 0.0641632403 0.0760502945 0.000128593 0.0001520742 -0.0001341536 -6.36095e-05 -0.8316400565 0.0843172298
70299580.0 0.0708897403 0.0733174971 5.7429e-06 -0.0001253555 -0.0001007731 -8.80928e-05 -0.8313487142 0.0942784024
75299550.0 0.0775209046 0.070291992 5.34076e-05 7.03223e-05 0.0001284214 7.56213e-05 -0.8324039225 0.1043640903
80299520.0 0.08305881 0.0666913718 -4.82099e-05 0.0001878947 -7.11174e-05 -0.0001531864 -0.8322576647 0.11398683
85299490.0 0.0874974481 0.0626585977 0.0001508653 0.0002343732 4.72224e-05 1.90344e-05 -0.8314116013 0.1233100562
90299460.0 0.0921527886 0.0592996315 -6.09474e-05 -2.14667e-05 6.2126e-06 8.3654e-05 -0.8309356509 0.133263998
95299430.0 0.0963225783 0.054783457 7.30554e-05 -0.0001403119 6.69867e-05 0.0001010374 -0.8288820192 0.1430079997
100299400.0 0.0997120807 0.0511663124 9.34551e-05 8.87858e-05 -2.73395e-05 -5.91509e-05 -0.8286598006 0.1524415514
105299370.0 0.1030525095 0.0473651889 -0.0001736265 0.0001332724 -8.12212e-05 -0.0001877683 -0.8272088359 0.1610372889
110299340.0 0.105734956 0.0434859275 -0.0001528193 0.0001219545 0.0001667268 5.8699e-05 -0.8255129218 0.1707361664
115299310.0 0.1086563555 0.0393796999 -2.0525e-05 -0.0001365841 -9.28887e-05 0.0001101826 -0.8238515942 0.1799839657
120299280.0 0.1102906118 0.0352798783 -6.09916e-05 9.23429e-05 -8.3317e-05 0.0001586712 -0.8226526334 0.1885666588
125299250.0 0.1118690992 0.0314632231 -6.33315e-05 0.0001751742 7.62326e-05 -1.08044e-05 -0.8207063765 0.1975932612
130299220.0 0.1137170804 0.0280266989 0.000280372 -0.0003676482 0.000117703 1.73897e-05 -0.8187178797 0.2069488717
135299190.0 0.1154588677 0.0243902272 2.90189e-05 0.0001091911 3.97681e-05 0.000275918 -0.8164465156 0.216211587
140299160.0 0.116174178 0.0208747253 -7.35622e-05 0.000114255 -0.0002127344 -3.1324e-05 -0.8140237911 0.2248682407
145299130.0 0.1175227757 0.0169333467 -0.0001729926 -3.13755e-05 8.99016e-05 -1.19092e-05 -0.8118584712 0.234262504
150299100.0 0.1185553783 0.0137188105 0.0002552821 -8.32316e-05 9.8328e-06 7.6368e-05 -0.8103284678 0.242937473
155299070.0 0.1192351666 0.0102186894 -9.38321e-05 -0.0001287787 0.0001522292 0.000195352 -0.8069901512 0.2519753683
160299040.0 0.1192245288 0.0070846772 0.0002808911 4.28675e-05 -0.000152819 -1.36653e-05 -0.8051032943 0.2607891517
165299010.0 0.1200894864 0.0035671 -7.59891e-05 1.03021e-05 0.0003361764 7.6763e-06 -0.8019497255 0.269432259
170298980.0 0.1201581398 0.0009315059 2.80518e-05 6.7695e-06 9.79395e-05 -2.93345e-05 -0.7990797587 0.2781607408
175298950.0 0.1204065692 -0.0021175147 0.0001075564 0.0002361096 -0.0001175108 7.05576e-05 -0.7965942451 0.2864754678
180298920.0 0.1204517038 -0.0049832434 -8.58204e-05 5.12425e-05 0.0002337636 5.83152e-05 -0.7936119821 0.2947916662
185298890.0 0.1207773858 -0.0081922854 0.0002456073 -8.28949e-05 2.23376e-05 -2.60268e-05 -0.7903946613 0.3040643244
190298860.0 0.1206872635 -0.0109791159 -0.0002012384 0.000171648 -8.69639e-05 8.54084e-05 -0.7875793084 0.3121118469
195298830.0 0.1200253232 -0.0137577022 -8.03671e-05 -4.54824e-05 -0.0001052483 -8.25848e-05 -0.7843851836 0.3206221733
200298800.0 0.1200343651 -0.0164510216 -0.0001067944 7.43955e-05 0.000291524 -0.0001493912 -0.7815012881 0.3293680142
205298770.0 0.1196442344 -0.0192540454 7.88632e-05 -5.16678e-05 0.0001060586 4.14278e-05 -0.7775591853 0.3376814683
210298740.0 0.1190582426 -0.0216687122 2.23238e-05 7.15188e-05 2.80119e-05 -8.5116e-06 -0.7745170218 0.3457544893
215298710.0 0.1185417408 -0.0240360921 0.0001781953 1.32529e-05 6.95911e-05 -6.36268e-05 -0.770929643 0.3541866833
220298680.0 0.1180848973 -0.0270260676 -0.0001346973 7.26095e-05 -3.37061e-05 0.0001223926 -0.7671790645 0.3617184651
225298650.0 0.117572624 -0.0292791235 3.46297e-05 -0.0001426856 -0.000124953 7.92314e-05 -0.7640534934 0.3702255218
230298620.0 0.1169932665 -0.0314903598 -3.43129e-05 6.9257e-05 0.0001562338 0.0003008122 -0.759778296 0.3788277441
235298590.0 0.116517251 -0.033786076 -2.04916e-05 -4.80522e-05 5.93189e-05 0.0001064744 -0.7558510485 0.386690467
240298560.0 0.1155439369 -0.0363496615 0.0001790414 0.0001900648 -3.7272e-05 9.90983e-05 -0.7515538886 0.3953937511
245298530.0 0.1151653757 -0.0387699057 3.5263e-06 -3.45479e-05 8.14382e-05 -5.98258e-05 -0.7475461358 0.402323758
250298500.0 0.114083124 -0.0406100866 5.9302e-05 -5.0953e-05 0.0002237537 -8.29009e-05 -0.743840391 0.4100810711
255298470.0 0.1131847718 -0.0430515172 -4.29164e-05 -2.23483e-05 3.48056e-05 4.83059e-05 -0.7385398804 0.4178912855
260298440.0 0.1125704179 -0.0451527902 -9.14332e-05 0.0001499018 -6.48533e-05 7.71598e-05 -0.7351794759 0.4259719552
265298410.0 0.1115066755 -0.0466157131 -2.26408e-05 0.0001200928 -0.0001168191 8.17233e-05 -0.7301440479 0.4333110429
270298380.0 0.1104998577 -0.0488825958 0.000158135 -3.36861e-05 -0.0001541375 2.12879e-05 -0.7254027458 0.4409464962
275298350.0 0.1096440155 -0.0508800648 0.0001179293 -3.78637e-05 -4.37202e-05 0.0001444926 -0.7206420437 0.4485355296
280298320.0 0.1089809271 -0.0531027056 -7.81532e-05 -3.9076e-06 0.0002427897 4.4036e-06 -0.7157707234 0.4554531545
285298290.0 0.1082830107 -0.0546534602 8.90466e-05 0.0001001578 -7.06679e-05 0.0001819331 -0.7108236871 0.4635987134
290298260.0 0.1070226154 -0.0565645428 0.0001566152 0.0001695424 3.1019e-05 0.0002590652 -0.705969026 0.4707387538
295298230.0 0.1061396407 -0.0586399897 0.000120263 0.0002005159 -1.77471e-05 0.0001437603 -0.7010041814 0.4776124899
300298200.0 0.1051163934 -0.0603153245 1.17255e-05 6.83526e-05 1.63781e-05 6.23868e-05 -0.6962331984 0.4855126801
305298170.0 0.1043003192 -0.0622710339 0.0003313036 0.0001758292 -7.3077e-06 -1.06113e-05 -0.6900748358 0.4928913911
310298140.0 0.103015405 -0.0638564707 2.87007e-05 -8.61274e-05 -0.0001746058 5.13833e-05 -0.6858607381 0.4998625625
315298110.0 0.1022897224 -0.0659902101 -0.0002519709 0.0001199569 2.78685e-05 3.99654e-05 -0.6798982953 0.5065653191
320298080.0 0.1010707962 -0.0679593277 0.0003207767 -9.81271e-05 -5.14459e-05 -1.89161e-05 -0.6747749037 0.5141789526
325298050.0 0.0995578924 -0.0697874533 -7.99374e-05 1.1265e-06 1.78801e-05 -4.42337e-05 -0.6691223772 0.5209746352
330298020.0 0.0980528134 -0.0715747193 0.0001834317 0.0001706059 0.0002514264 -4.50332e-05 -0.6636922893 0.5284486124
335297990.0 0.0966881144 -0.0732060088 0.0001821176 -0.0001044314 0.0001572584 0.0001117057 -0.6583995233 0.5348664271
340297960.0 0.0948722859 -0.0747619992 0.0001858877 2.7387e-06 4.7173e-05 8.96766e-05 -0.65271082 0.5422798678
345297930.0 0.0934560656 -0.0759884555 -0.0001436936 0.0001197382 7.24844e-05 9.6202e-06 -0.6466315922 0.5482978817
350297900.0 0.0921950866 -0.0772097051 0.0002211673 -9.29594e-05 1.41674e-05 4.8108e-06 -0.6415620258 0.555316986
355297870.0 0.0911166064 -0.0785887486 8.15947e-05 9.49816e-05 -7.34986e-05 0.0001623416 -0.6355836107 0.5617686212
360297840.0 0.0896249731 -0.0798961887 -8.94491e-05 -3.85027e-05 -0.0002837886 -0.0001906802 -0.6297212429 0.5684172504
365297810.0 0.0879986918 -0.0810011015 0.0002381942 -2.59239e-05 -8.64164e-05 7.11185e-05 -0.6232865392 0.5749593247
370297780.0 0.0867994346 -0.0824037131 0.0001333186 6.0901e-05 -0.0002339939 -6.59853e-05 -0.6172616254 0.5815368183
375297750.0 0.0851452856 -0.0836535782 2.45e-07 2.09364e-05 -2.64892e-05 2.70425e-05 -0.6116746685 0.5879803555
380297720.0 0.0838848803 -0.0850224722 7.78425e-05 -3.1192e-06 0.0001986871 0.0001472882 -0.60552123 0.5941048735
385297690.0 0.0823430975 -0.0860519619 0.0001258374 2.279e-06 0.0001084896 -0.0001002962 -0.5993488721 0.6005185307
390297660.0 0.0807228252 -0.0871107761 0.0001589266 -5.06174e-05 0.0001084676 -0.0001156971 -0.5933517078 0.6062788825
395297630.0 0.0797018452 -0.0882805985 0.0001592863 -9.15381e-05 6.6807e-05 0.0001112028 -0.5861162533 0.6129368601
400297600.0 0.0783966275 -0.0893571844 -6.6641e-06 9.80578e-05 0.0001302321 0.0001205772 -0.580605364 0.6188793205
405297570.0 0.0763687376 -0.0902283582 0.0001207152 4.69712e-05 0.0001342807 -0.0001709646 -0.5740764895 0.6248413762
410297540.0 0.0749010521 -0.0916158086 -2.09899e-05 -3.16228e-05 0.0001988962 -7.85988e-05 -0.5672302091 0.6306023858
415297510.0 0.0738901073 -0.0930107252 0.0004097254 0.0002043656 0.0001116419 9.81935e-05 -0.5611889773 0.6362390273
420297480.0 0.0722359832 -0.0933407937 0.0002655785 -4.16582e-05 0.0001416321 4.45528e-05 -0.5543642368 0.6420569355
425297450.0 0.0707421153 -0.094703696 -8.36308e-05 -5.03397e-05 5.10532e-05 0.0001162651 -0.5480141769 0.6478010028
430297420.0 0.0691417713 -0.0958469014 0.0001477941 0.0001846756 -9.3604e-06 0.000111406 -0.5410881877 0.65275678
435297390.0 0.0678617339 -0.0965463229 0.0001186233 -0.000166222 -8.45973e-05 -4.56115e-05 -0.5339387251 0.6584936453
440297360.0 0.0662357182 -0.0975906567 0.0001684492 9.30506e-05 -4.45909e-05 6.06083e-05 -0.5272522152 0.6632802654
445297330.0 0.0645575502 -0.0984132039 6.62425e-05 3.08778e-05 0.0001748053 0.0001425253 -0.5207846924 0.668509518
450297300.0 0.0631118387 -0.099503436 0.0002647995 -9.5691e-05 0.0001316003 0.0001159187 -0.5132433009 0.6741475946
455297270.0 0.0614573582 -0.1001076324 -8.31293e-05 6.32348e-05 0.0001052845 9.16394e-05 -0.5060162251 0.6782573315
460297240.0 0.0598945553 -0.1008414423 0.0001553617 0.0001606435 0.000156757 2.14233e-05 -0.4996499859 0.6838932927
465297210.0 0.058484053 -0.1018535562 0.0001675954 -0.0001575536 5.33567e-05 -7.8568e-06 -0.4921019237 0.6886103802
470297180.0 0.0569552231 -0.1022008545 -1.59132e-05 0.0001464188 0.0002288148 5.5028e-06 -0.4848280633 0.6942312998
475297150.0 0.0551782957 -0.1036454799 0.0001997961 0.0001304935 6.85394e-05 7.4857e-05 -0.4776373887 0.6982869175
480297120.0 0.0538561553 -0.1038446961 0.0002086587 0.0001806708 0.0002148163 0.0001027276 -0.4702877868 0.7032753065
485297090.0 0.0522236032 -0.1045778166 0.0002608217 -0.0001305024 5.12504e-05 -4.00746e-05 -0.4632311573 0.7081141116
490297060.0 0.0502917047 -0.1049147239 0.0001876936 0.0001830609 0.0001054122 0.0001086957 -0.4560740366 0.7122970874
495297030.0 0.0487962334 -0.1056842122 1.32765e-05 -0.0001283631 7.37832e-05 0.0002014117 -0.4484870115 0.7175247057
500297000.0 0.0472554018 -0.106385261 -8.57162e-05 0.0001278399 0.0001903506 0.0001053173 -0.4404492347 0.7223894304
505296970.0 0.0457540903 -0.1067261596 4.50219e-05 4.06816e-05 0.0001829035 0.0001038738 -0.4333317287 0.7265644693
510296940.0 0.0440685302 -0.1076016255 0.000160875 -0.0001997222 9.42958e-05 0.0001204042 -0.4263630165 0.7306899468
515296910.0 0.0424551144 -0.1081157287 0.0002577949 -0.0001350943 0.0001678211 0.0002143139 -0.4186447362 0.7349074457
520296880.0 0.0407109796 -0.1087486476 0.0001015197 0.0001451052 -1.01819e-05 0.0001025982 -0.4109578171 0.7389794068
525296850.0 0.0390606793 -0.1094729864 0.0001909809 6.20319e-05 0.0002107794 -0.0001490084 -0.4036321093 0.7435273007
530296820.0 0.0373480674 -0.1096750339 0.0001337114 0.0001292998 -4.58933e-05 6.31877e-05 -0.3968071313 0.7474224247
535296790.0 0.0356224231 -0.1101762952 0.0001151526 5.08202e-05 0.0001043954 -0.0002194979 -0.3889485 0.7513258576
540296760.0 0.0340818179 -0.1104663925 -0.0001030093 -4.1469e-05 0.0001840936 6.47452e-05 -0.381103071 0.7551971936
545296730.0 0.0323151377 -0.1109224553 -5.22814e-05 -6.19822e-05 9.44726e-05 2.8617e-06 -0.373951983 0.7590716926
550296700.0 0.0313699774 -0.1110756117 5.07546e-05 -2.45051e-05 0.0001270649 2.9591e-05 -0.3652691347 0.7630900253
555296670.0 0.0292403285 -0.1117173583 0.0002144726 0.0003557162 0.0002661589 5.68388e-05 -0.3576883341 0.7672272561
560296640.0 0.0276051763 -0.1119286845 -5.11805e-05 -0.0001035203 0.0003655734 0.0001064199 -0.3501429331 0.7710562855
565296610.0 0.025723984 -0.111973402 -0.0003376671 5.92202e-05 0.0001244512 0.0001344626 -0.3419607671 0.7737673478
570296580.0 0.0242784591 -0.1119841575 8.86924e-05 7.0053e-05 -7.22408e-05 3.85857e-05 -0.335087961 0.7775833289
575296550.0 0.0222857028 -0.1124931781 6.66993e-05 2.97154e-05 0.0002134004 -1.62452e-05 -0.3268802641 0.7808942993
580296520.0 0.020934893 -0.112865335 0.000139042 2.9829e-05 5.1303e-05 7.71294e-05 -0.318225033 0.7840237356
585296490.0 0.0187905601 -0.113378783 -2.22175e-05 -0.0002035927 0.000111825 -0.0002144341 -0.3107054537 0.7876060382
590296460.0 0.0175880647 -0.1131450925 0.0001873654 -7.56691e-05 9.67535e-05 -9.36152e-05 -0.3031962286 0.7897676071
595296430.0 0.0158357334 -0.1133936243 0.0001039163 2.01734e-05 0.0002439254 2.92847e-05 -0.2947678284 0.7923363521
600296400.0 0.0137632233 -0.1135199076 4.47142e-05 4.84337e-05 0.0001868541 -8.41508e-05 -0.2868918706 0.7958488758
605296370.0 0.0122826172 -0.1136739634 1.1587e-06 -6.53625e-05 0.00022754 0.0001834238 -0.2784085104 0.798231763
610296340.0 0.0107652304 -0.1135709918 0.0003921234 -8.90599e-05 6.40108e-05 5.56047e-05 -0.2704063443 0.8008661166
615296310.0 0.0090613123 -0.1137473862 0.0001657769 -2.63398e-05 5.2949e-05 -2.38264e-05 -0.2617245137 0.8029893892
620296280.0 0.0071166897 -0.1139961784 0.0002020467 -9.71164e-05 0.00010536 0.0001182735 -0.2544923911 0.8062041541
625296250.0 0.0056014912 -0.1140484483 0.0003088867 -0.0001451884 0.0002293669 0.0003157803 -0.2457577226 0.8079596881
630296220.0 0.0043733149 -0.1144071829 0.0002528738 -0.0001231534 0.0001582023 -0.0001664753 -0.2377158269 0.8102461347
635296190.0 0.0020473479 -0.1138399082 3.97277e-05 -1.32281e-05 0.00012744 0.0001960301 -0.2296101388 0.8125808165
640296160.0 0.0004536319 -0.1138168081 -5.60921e-05 -8.29497e-05 0.0001148986 -0.0001278583 -0.2210215217 0.8156919222
645296130.0 -0.0012292652 -0.113332419 -9.4048e-06 -0.0001179019 -7.31386e-05 -0.0001474527 -0.2129111949 0.8174323222
650296100.0 -0.0027013696 -0.1133077049 0.0001965397 0.0002017276 0.0002120977 0.0001262805 -0.2048410114 0.8186082161
655296070.0 -0.004541869 -0.1134935317 0.0002863826 9.55893e-05 0.0001824535 0.0001411955 -0.1963182493 0.8208777669
660296040.0 -0.0060958641 -0.1133106783 0.0003346539 -0.000128056 -0.0001844387 0.0002387158 -0.1876757862 0.8233892036
665296010.0 -0.0077117208 -0.1134951371 0.0001204203 -0.0001997932 0.0002250886 -0.0002533439 -0.1796536187 0.8254822927
670295980.0 -0.0095297687 -0.1127658321 6.96969e-05 4.29458e-05 0.0001217517 0.0001364426 -0.1714597357 0.8265017145
675295950.0 -0.0110628872 -0.1125042154 -6.47279e-05 -0.0001642317 0.0001708023 -0.0001322261 -0.1633969763 0.8287040304
680295920.0 -0.0128299216 -0.112341134 0.0002958632 -0.0002628237 -0.0001050441 0.0001448111 -0.1552680576 0.8307459128
685295890.0 -0.0142560872 -0.1119750654 0.0001621946 0.0001224407 0.0001219451 0.0001152588 -0.1460300763 0.8319149409
690295860.0 -0.0161404293 -0.1117289538 -1.34142e-05 5.15376e-05 0.0001171173 -7.56417e-05 -0.138641523 0.833355685
695295830.0 -0.0176153793 -0.111431256 0.0002099243 0.0001114523 0.000179818 0.0001299874 -0.1298658346 0.8351474584
700295800.0 -0.0192806665 -0.1113774895 0.0004858521 -1.78974e-05 0.0002747828 -0.0001248354 -0.1216592015 0.8360970954
705295770.0 -0.0211104564 -0.1105738094 0.0002651045 -8.07309e-05 -0.000219407 0.0001757926 -0.1132570154 0.8380660635
710295740.0 -0.0226187915 -0.1101880259 6.11742e-05 0.0001930029 -4.4355e-06 0.0001254681 -0.1050162073 0.8381631816
715295710.0 -0.0243096444 -0.1102876179 0.0002331382 -2.21566e-05 0.0003507686 4.12755e-05 -0.0971185857 0.8395123006
720295680.0 -0.025971832 -0.1096883458 0.0002981734 -0.0001644653 1.95149e-05 -0.0002569768 -0.0879559374 0.8408321463
725295650.0 -0.027433664 -0.1087381862 8.81615e-05 -8.659e-07 -7.0351e-06 -0.0001457096 -0.0797940763 0.8419146105
730295620.0 -0.0291099906 -0.1084476347 0.0001151804 -3.7866e-06 3.299e-05 -0.000229659 -0.0721800839 0.8420201976
735295590.0 -0.030667551 -0.108033343 0.0002527396 -1.53581e-05 0.0002093873 -4.28692e-05 -0.0634738482 0.8426635801
740295560.0 -0.0322462323 -0.1076006248 0.0001211578 -0.0001702394 -9.42656e-05 -9.6001e-05 -0.0543307056 0.8439371831
745295530.0 -0.0341819631 -0.1069897741 0.0002009014 9.57295e-05 9.61955e-05 4.25601e-05 -0.0460888018 0.8438628331
750295500.0 -0.0353838896 -0.1064844468 6.14211e-05 1.67721e-05 0.0002801828 8.70214e-05 -0.0381520882 0.8444358427
755295470.0 -0.0370424974 -0.1056734716 -4.99291e-05 -0.0001339072 6.45662e-05 4.29675e-05 -0.0292422256 0.8437320206
760295440.0 -0.0385711795 -0.1051466445 5.14289e-05 -0.0001334626 0.0001081316 -1.02434e-05 -0.0213520038 0.8446157339
765295410.0 -0.0400557601 -0.1043131488 4.60209e-05 -6.1905e-05 9.41673e-05 6.53956e-05 -0.0127757084 0.8450201438
770295380.0 -0.0418091634 -0.1038630436 0.0002635814 -0.0001009325 -0.0002213112 2.90115e-05 -0.0044376706 0.8445614489
775295350.0 -0.0436707707 -0.103468604 0.0001058544 3.00547e-05 0.0003133938 -2.6715e-06 0.0036099221 0.8441378508
780295320.0 -0.0448026665 -0.1026203572 0.0002738504 -0.0001583226 0.0002804649 0.0001068458 0.0123450883 0.8442418492
785295290.0 -0.0465966178 -0.1021994449 4.78677e-05 -2.70623e-05 0.0003501169 -1.1601e-05 0.0213922508 0.8437841932
790295260.0 -0.0480329659 -0.1010284695 0.0004044219 -4.06551e-05 0.0002349361 -0.0003402024 0.0299433166 0.8439426037
795295230.0 -0.0492765255 -0.1005700248 0.0002671384 -0.0002155022 0.000290606 -1.32253e-05 0.0383564606 0.842872585
800295200.0 -0.0510723844 -0.0995663205 -8.54153e-05 8.55399e-05 0.0001875882 8.2375e-06 0.046745994 0.8423943881
805295170.0 -0.0525962788 -0.0989087167 -0.000102446 -2.04241e-05 0.0001997318 1.12355e-05 0.0547018704 0.842204544
810295140.0 -0.0535955626 -0.0982528389 0.000308653 -0.00015642 9.12914e-05 -0.0002652546 0.0637075092 0.8412729255
815295110.0 -0.055298048 -0.097424655 0.0003042431 0.0003107884 0.0002672977 -5.28164e-05 0.0718550289 0.8405881324
820295080.0 -0.0567589556 -0.0963852698 0.0001339696 -9.14812e-05 0.0001430074 -3.73116e-05 0.0800937777 0.8400603366
825295050.0 -0.058047985 -0.0957535292 0.0004299905 -0.0002056063 3.68078e-05 -0.0001697913 0.0885091368 0.8394074742
830295020.0 -0.0596743833 -0.0947201559 -4.15577e-05 -0.0001330395 0.0002630921 -0.0001987824 0.0982084928 0.8385107751
835294990.0 -0.0609164125 -0.0936820612 3.48655e-05 -1.53041e-05 0.0003005792 0.0001104884 0.1048917079 0.8376144735
840294960.0 -0.0624360677 -0.0927778855 0.0002937025 4.6248e-06 0.0003569589 3.27268e-05 0.1137540528 0.8364061332
845294930.0 -0.0639487642 -0.0916888232 0.0002087313 -0.0001284569 0.0002137836 -0.0002129314 0.1218153567 0.8351782355
