!Created with skrf (http://scikit-rf.org).
# Hz S RI R 50.0 
!freq ReS11 ImS11 ReS21 ImS21 ReS12 ImS12 ReS22 ImS22
300000.0 -0.0478478232 -0.0751326043 -0.0004635518 -0.0004720269 0.0006710758 0.0002176614 -0.7648809082 -0.1965958722
5299970.0 -0.0501384052 0.0140636391 0.0001529746 -0.000125922 -0.0002641329 4.94313e-05 -0.7845563206 -0.0099248326
10299940.0 -0.044418552 0.0326255052 8.1602e-05 7.92797e-05 -5.35529e-05 8.14388e-05 -0.7870842232 -0.0054519116
15299910.0 -0.0356386149 0.0472197635 4.5725e-06 0.0001482331 4.1559e-05 -6.71397e-05 -0.7923648843 -0.0029002198
20299880.0 -0.0257438433 0.0593567747 -0.00043419 -0.0001708863 -0.0001204644 0.0002519025 -0.7987493823 0.0012048319
25299850.0 -0.0140558297 0.0684811737 8.08109e-05 6.57952e-05 1.26295e-05 -0.0001114514 -0.8054550065 0.0079010692
30299820.0 -0.0026076477 0.0752093321 -3.2748e-05 0.0001013336 5.8218e-06 -2.9624e-05 -0.8114763308 0.0156491293
35299790.0 0.0090223391 0.0795956489 -0.0001125964 -0.0001569556 -0.000112924 -1.33457e-05 -0.8164460695 0.0243887815
40299760.0 0.0206304912 0.0827080877 -0.0001591813 -8.54362e-05 7.8398e-05 5.2009e-06 -0.8206843361 0.0340689634
45299730.0 0.0310748302 0.0835980009 -0.0002030532 -0.0001417427 0.0001351727 1.94851e-05 -0.8236465326 0.0437474041
50299700.0 0.0418076016 0.0835889691 0.0001566964 0.0001534462 0.0002551012 -4.45482e-05 -0.8262721166 0.0534479148
55299670.0 0.0510255307 0.0828706304 1.68446e-05 -0.0001051961 -6.7605e-06 -4.97894e-05 -0.8282061622 0.0634873236
60299640.0 0.0596896058 0.0808876584 3.66804e-05 0.0001532331 -1.25472e-05 -2.68067e-05 -0.8293122 0.0740418306
65299610.0 0.0677184954 0.0778929943 6.61231e-05 1.2944e-05 2.5557e-05 2.21961e-05 -0.8297303252 0.0839516268
70299580.0 0.0744387251 0.0749095068 -0.0001397794 -1.35535e-05 -9.90144e-05 -2.21463e-05 -0.830838491 0.0933678848
75299550.0 0.0811640492 0.0717502668 4.89494e-05 -3.08799e-05 -1.36315e-05 -0.0001338576 -0.830010872 0.1039175852
80299520.0 0.0868498293 0.0678121631 -4.71466e-05 -0.0001607547 2.00441e-05 4.3397e-05 -0.8306083756 0.1140709032
85299490.0 0.0920681634 0.0642634856 -8.27416e-05 6.87019e-05 -6.7885e-06 1.1536e-05 -0.8298342279 0.1234387709
90299460.0 0.0971353463 0.060102098 8.53491e-05 2.70913e-05 -9.48767e-05 8.96754e-05 -0.8284393178 0.1326198259
95299430.0 0.1010047413 0.0560742951 6.26047e-05 -3.55663e-05 0.0001041465 -0.0001494685 -0.8279456346 0.1428604918
100299400.0 0.1047280249 0.0521106174 0.0001818754 -3.406e-07 -1.31908e-05 7.2947e-05 -0.8268385889 0.1519952283
105299370.0 0.1079335933 0.0480398497 -5.22686e-05 -2.58289e-05 -9.4604e-06 0.0001686992 -0.8254469728 0.1607399689
110299340.0 0.110989752 0.0436649581 -1.78828e-05 -7.9321e-06 5.06187e-05 -5.11667e-05 -0.8237664048 0.1695863512
115299310.0 0.1133528108 0.0399771564 9.60873e-05 -0.000163841 -4.65949e-05 7.91171e-05 -0.8224749868 0.1791421105
120299280.0 0.1158682249 0.0360932941 0.0002549495 9.9407e-05 2.45703e-05 -2.31679e-05 -0.8203280204 0.1881273128
125299250.0 0.1175327633 0.0320407187 6.22347e-05 0.0002282653 -8.47338e-05 -0.0001967169 -0.8190749881 0.1969316819
130299220.0 0.1192262614 0.0282655376 0.0002276782 2.37445e-05 -0.0001110957 8.17459e-05 -0.816973521 0.2060458649
135299190.0 0.1208620171 0.0243389922 0.0002594917 8.30744e-05 0.0001064883 -3.15469e-05 -0.8152565337 0.2152494028
140299160.0 0.122203125 0.0208596845 -0.0001346392 0.0002785133 0.0002127837 -1.14999e-05 -0.8136351683 0.2233253976
145299130.0 0.1233467083 0.0177073416 6.09748e-05 0.000144841 6.4552e-06 9.43299e-05 -0.8114023691 0.2327203546
150299100.0 0.1241598903 0.0139182698 2.10295e-05 0.0003040362 5.81005e-05 0.0002455793 -0.8091060456 0.2414877091
155299070.0 0.1250658146 0.010799337 2.43198e-05 0.0001803428 -0.0001582245 9.84083e-05 -0.8068538377 0.2504376125
160299040.0 0.1255585854 0.007190776 4.23992e-05 -0.0001512027 9.40443e-05 1.4959e-05 -0.8045648666 0.2588930385
165299010.0 0.1260869453 0.0041863448 -7.46139e-05 -6.33678e-05 0.0001527994 -0.0001030158 -0.8012887643 0.2672066422
170298980.0 0.1265768218 0.0004984281 -3.60146e-05 9.39462e-05 9.09861e-05 0.0001354245 -0.7991721725 0.2756779761
175298950.0 0.1268840942 -0.0022855722 0.0001085917 0.0001066153 9.90017e-05 -0.0001174917 -0.7964791417 0.2854419884
180298920.0 0.1267923035 -0.0053264344 7.87394e-05 3.20473e-05 0.0001071141 -3.15717e-05 -0.7925814364 0.2931755963
185298890.0 0.1270017435 -0.0082410629 0.0003418653 -8.95881e-05 -0.0001051148 1.64928e-05 -0.7901627913 0.3013496983
190298860.0 0.1271125914 -0.0109751241 0.0003103138 0.000123232 0.0001692083 -9.0407e-06 -0.7868393293 0.3097713328
195298830.0 0.1271761537 -0.0137279048 -1.4459e-06 0.000130449 9.71318e-05 0.0001125682 -0.783621617 0.3179138037
200298800.0 0.1270127449 -0.0166951564 7.2963e-06 -0.0001237723 0.0001225099 1.84885e-05 -0.7805910696 0.3267449897
205298770.0 0.1263363262 -0.0190996947 0.0001284907 0.0002378346 0.0001827202 -6.2615e-05 -0.777038918 0.3353034527
210298740.0 0.1263652614 -0.0218112962 -3.01315e-05 -1.56948e-05 0.0001362258 0.0002296459 -0.7735607279 0.343585401
215298710.0 0.1256807267 -0.0243563796 5.09212e-05 -0.0002242062 3.26158e-05 -8.06673e-05 -0.7700527859 0.3512381989
220298680.0 0.1253174475 -0.0268086029 6.03624e-05 7.3152e-05 3.36025e-05 0.0002926373 -0.7663835588 0.3596242332
225298650.0 0.1247770159 -0.0292363788 0.0001280023 0.0001488456 -1.18429e-05 0.0001969085 -0.7627339327 0.367878352
230298620.0 0.1242200657 -0.0315114909 1.4166e-06 -5.5595e-06 -4.8295e-06 -5.16729e-05 -0.7590700045 0.3757755219
235298590.0 0.1236080362 -0.0340014709 0.0002198492 0.0001824627 1.63875e-05 8.9765e-06 -0.7547838054 0.3835449264
240298560.0 0.1226628707 -0.0360900648 7.5782e-05 0.0001563283 0.000272979 0.0001628509 -0.7509268255 0.3909512289
245298530.0 0.1218970045 -0.0384840608 7.21116e-05 0.0003946551 0.0001202638 0.0001701652 -0.7469821183 0.398961754
250298500.0 0.1212457924 -0.0408725963 0.000168174 6.14022e-05 0.0001838975 0.0002346789 -0.742551266 0.4071305516
255298470.0 0.1206587397 -0.0425817589 5.32168e-05 -7.0237e-06 -2.52367e-05 0.0002018544 -0.7385934367 0.4146356465
260298440.0 0.1198533753 -0.0449780634 9.82256e-05 5.06901e-05 5.91318e-05 7.95524e-05 -0.7339256544 0.422155131
265298410.0 0.1190615239 -0.0470077214 -0.0001009517 -0.0002073039 0.0001492149 5.04814e-05 -0.7300714118 0.4298211392
270298380.0 0.1179280537 -0.0491016226 -2.20161e-05 -3.41788e-05 0.0002615969 -0.0001131626 -0.7244738244 0.4378893659
275298350.0 0.1168922171 -0.0505360356 7.79244e-05 8.00991e-05 -9.62274e-05 -1.51111e-05 -0.7199537914 0.4455800589
280298320.0 0.1159151248 -0.052936236 3.16773e-05 -8.25865e-05 0.0001203827 -9.01874e-05 -0.7159448098 0.4532997433
285298290.0 0.1150642173 -0.0545857491 0.0002269394 -1.85163e-05 7.10769e-05 0.0001062725 -0.7117324599 0.4603600044
290298260.0 0.1139505578 -0.0566945534 3.67112e-05 -6.03025e-05 -0.0001017496 7.02695e-05 -0.7062518498 0.4680294087
295298230.0 0.1128258619 -0.0588162446 0.0001248467 4.65531e-05 -2.99624e-05 6.90843e-05 -0.7013332855 0.4750153816
300298200.0 0.112016018 -0.0603900248 -1.64091e-05 -5.46864e-05 -3.8564e-05 -1.46808e-05 -0.6963271462 0.4825876909
305298170.0 0.1110710973 -0.0624180619 -5.4642e-05 -1.577e-05 -5.109e-07 0.0001131413 -0.6913756879 0.4895295073
310298140.0 0.1096149454 -0.0644655524 4.22529e-05 -7.51561e-05 7.86942e-05 3.49804e-05 -0.6866147926 0.497012513
315298110.0 0.1086299752 -0.0664421291 0.0001963942 0.0001088505 1.4318e-06 3.63097e-05 -0.68113649 0.5039597431
320298080.0 0.106907746 -0.0683847936 -7.00598e-05 0.0001395269 -5.20126e-05 9.00859e-05 -0.6760095689 0.510151216
325298050.0 0.1052617167 -0.0702636724 0.0002280404 -3.93286e-05 -7.70515e-05 2.19242e-05 -0.6695630018 0.5175230081
330298020.0 0.1037969449 -0.071582315 -0.00015018 -0.0001240388 0.0001446306 0.0001251647 -0.664509165 0.5245903475
335297990.0 0.1023100426 -0.0730830621 0.0002308772 4.32988e-05 8.46082e-05 2.74e-05 -0.6590325985 0.5315981232
340297960.0 0.1009881816 -0.0744546037 0.0001655825 0.0001718507 6.11179e-05 0.0001644039 -0.6540574954 0.5384631655
345297930.0 0.0995384964 -0.0759731545 0.0001097831 -3.01532e-05 0.000108883 2.52125e-05 -0.648423545 0.5452257781
350297900.0 0.0981366168 -0.0776345558 3.10663e-05 -1.89354e-05 0.0001783412 -0.0001109105 -0.6432157402 0.5516402283
355297870.0 0.0968799192 -0.0790895746 0.0001501385 0.0002374224 -0.0001579209 -0.0001028856 -0.6372713577 0.5587892173
360297840.0 0.0953300565 -0.080054697 0.0001896585 -3.78213e-05 7.3323e-05 5.8863e-06 -0.6304726142 0.5650254198
365297810.0 0.0940922798 -0.0815056879 3.91664e-05 1.57882e-05 5.48608e-05 -3.6162e-05 -0.6256056541 0.5712342286
370297780.0 0.092538394 -0.0829125123 7.36819e-05 0.0001481111 8.14409e-05 0.0002280414 -0.6192265466 0.5776192342
375297750.0 0.09126673 -0.0842096241 5.51886e-05 6.68515e-05 5.0194e-06 0.0001334084 -0.6131247726 0.5843134977
380297720.0 0.0896796496 -0.0852708779 -2.51945e-05 -5.9209e-06 0.0001047913 2.4228e-05 -0.6064764257 0.5908048139
385297690.0 0.088224621 -0.0866979749 0.0001551772 9.60572e-05 0.0001697811 5.43416e-05 -0.601129408 0.5964102917
390297660.0 0.0869283659 -0.0884032139 -5.66874e-05 -0.000125072 8.06612e-05 -0.0002409022 -0.5943474888 0.6022815087
395297630.0 0.0854766853 -0.0893499513 0.0001618212 1.38941e-05 0.0001685048 -1.11697e-05 -0.5878005244 0.6077166027
400297600.0 0.0836334178 -0.0906272801 0.0001273314 -0.0002024615 0.000248394 0.0002188678 -0.5823404706 0.6142469046
405297570.0 0.0821599071 -0.0919351348 9.8886e-05 -0.0001467211 7.10509e-05 5.34703e-05 -0.5754219354 0.6203340395
410297540.0 0.0812146914 -0.092813393 -9.47631e-05 -2.99335e-05 -5.5669e-06 -0.0002130982 -0.569165817 0.6259101035
415297510.0 0.0791985245 -0.0939029622 -7.882e-06 0.0001393065 -0.0001622775 0.0001383952 -0.5629403955 0.6315144862
420297480.0 0.0779161483 -0.0953242314 0.0001291385 -9.18111e-05 0.0002015307 0.0001690688 -0.5562495276 0.6381802519
425297450.0 0.0765628193 -0.0964314401 0.0001763293 0.0001173784 1.88537e-05 8.00553e-05 -0.5493248591 0.6426461147
430297420.0 0.074858657 -0.0976201353 -5.44338e-05 4.21946e-05 4.11612e-05 0.0001924366 -0.5426621349 0.6484265986
435297390.0 0.0732911851 -0.0987374201 0.0001777422 0.0001284217 -9.2073e-06 0.00018509 -0.5367545037 0.6542778336
440297360.0 0.071826543 -0.0996315956 7.31906e-05 -1.44054e-05 1.31124e-05 0.0001199342 -0.5297183967 0.6599161942
445297330.0 0.0703719028 -0.1006125932 -1.55372e-05 -2.91813e-05 7.73129e-05 0.0001260907 -0.5230865456 0.6653689288
450297300.0 0.0690075857 -0.1018749109 -2.2569e-05 2.162e-07 4.79065e-05 -0.0001741423 -0.5154000459 0.670069335
455297270.0 0.0670312348 -0.1027992761 0.0001928297 8.98175e-05 0.0002419762 6.38617e-05 -0.5089505754 0.675519394
460297240.0 0.0656935081 -0.1033325448 0.0002316755 5.33e-08 0.0002234146 7.33153e-05 -0.5023102533 0.6803797054
465297210.0 0.0644415381 -0.1043531508 0.0001136158 4.82556e-05 0.0002152133 9.41366e-05 -0.4950900182 0.6859157424
470297180.0 0.062906716 -0.1051272737 6.69927e-05 -3.14012e-05 0.0002461414 8.73065e-05 -0.4878169899 0.6902140598
475297150.0 0.0608180904 -0.1058819107 -0.0002016281 -9.49739e-05 0.0001837023 9.17583e-05 -0.481077535 0.695677826
480297120.0 0.0598893864 -0.1071575597 -8.7641e-05 -6.34157e-05 0.0001934882 -0.0002143949 -0.4745493255 0.7001734712
485297090.0 0.0579726122 -0.1078834572 0.0001433132 0.0001196359 3.49495e-05 4.61229e-05 -0.467214857 0.7052212875
490297060.0 0.0568676536 -0.1084357284 -2.83484e-05 3.83961e-05 0.0001910208 -1.7046e-06 -0.4597983293 0.7091157621
495297030.0 0.0549022092 -0.1093248453 6.10437e-05 5.80437e-05 1.82196e-05 6.8877e-05 -0.4524952824 0.7139205699
500297000.0 0.0533740173 -0.1100267785 0.0003530221 1.84619e-05 0.0001340416 0.0002104248 -0.4449177559 0.7187463781
505296970.0 0.0519279007 -0.1106881543 6.58299e-05 -6.26508e-05 -4.689e-06 0.0001095529 -0.4370540051 0.7230591272
510296940.0 0.050374242 -0.1112942943 7.99576e-05 0.0002474615 0.0003301377 8.74148e-05 -0.4300993052 0.7275406441
515296910.0 0.0487950891 -0.1119449962 9.71687e-05 0.0001076844 0.0001768585 -1.45188e-05 -0.4231946452 0.7313009124
520296880.0 0.0474459564 -0.1124642955 -5.12137e-05 0.0001114736 -2.20075e-05 7.26678e-05 -0.4150086918 0.7362603256
525296850.0 0.0456020509 -0.1134318081 4.61272e-05 8.48368e-05 1.65103e-05 3.57792e-05 -0.4080588866 0.7398821324
530296820.0 0.0438832374 -0.113620636 7.92795e-05 0.0002395769 0.0001529164 -0.0001586818 -0.4000804681 0.7439148975
535296790.0 0.0425966807 -0.113857902 3.94304e-05 0.0001478664 -2.81922e-05 0.0001290483 -0.3927327492 0.7482993519
540296760.0 0.0412868657 -0.1145542381 7.83385e-05 -9.1993e-06 0.0001348448 4.3319e-06 -0.3848842914 0.7518197154
545296730.0 0.0392321672 -0.1148655393 3.84098e-05 0.0001000474 0.0001467189 9.22588e-05 -0.3775313257 0.7555925525
550296700.0 0.0377663218 -0.1151919818 0.0002258354 -9.89968e-05 -7.29197e-05 5.01586e-05 -0.3699500983 0.7593041474
555296670.0 0.0361405887 -0.115615358 0.0001562259 -0.0001423581 0.0001789219 2.28319e-05 -0.362838621 0.7626107822
560296640.0 0.0350362396 -0.1161499034 3.16999e-05 -5.78485e-05 0.000234375 8.45186e-05 -0.3544882359 0.766972402
565296610.0 0.0329776793 -0.1163317977 7.90795e-05 -4.79607e-05 -3.15228e-05 -3.56898e-05 -0.3462158314 0.770219311
570296580.0 0.0311552284 -0.1167074002 0.0001339291 -0.0001514329 0.0002774666 8.81843e-05 -0.3387977993 0.7729523077
575296550.0 0.0297283352 -0.1171665648 2.46538e-05 6.17554e-05 0.0001383258 -0.0001179307 -0.3306833112 0.7762941337
580296520.0 0.0281459771 -0.1168578607 0.0001611837 -0.000123305 9.12873e-05 -8.77272e-05 -0.3235794744 0.7796103608
585296490.0 0.0266278691 -0.1169668243 2.58851e-05 -0.0001788121 0.0001443164 4.61241e-05 -0.3152431177 0.7834562138
590296460.0 0.0252170854 -0.1172756717 -5.58e-06 0.0001326708 0.0001032511 0.0001533494 -0.3074889168 0.786178814
595296430.0 0.0235680573 -0.117471429 4.94874e-05 0.0003528026 0.0002074493 -9.28968e-05 -0.2998692719 0.7893493548
600296400.0 0.0217486455 -0.1178296432 5.79934e-05 0.0001960127 5.70394e-05 1.8369e-06 -0.292313289 0.79181005
605296370.0 0.0199876898 -0.1176167643 3.44322e-05 7.94343e-05 2.19457e-05 1.3696e-05 -0.283633522 0.7957667481
610296340.0 0.0185215046 -0.1176452154 0.0001566347 -1.10018e-05 1.55431e-05 7.1123e-06 -0.2758343222 0.7978113614
615296310.0 0.0170541058 -0.1178203236 0.0001980998 -5.79079e-05 1.48109e-05 0.0001138148 -0.2674674106 0.8008080953
620296280.0 0.0153500356 -0.1173927786 0.000140688 -6.82225e-05 0.0001274439 7.82329e-05 -0.2597035274 0.8031883715
625296250.0 0.0133128539 -0.1177565723 0.0001598089 9.066e-06 0.0001490176 -2.46562e-05 -0.2520551326 0.8056455803
630296220.0 0.0120900723 -0.117502146 0.0002263601 9.2708e-05 -1.44892e-05 0.0001214181 -0.2433915099 0.8083264081
635296190.0 0.0101820361 -0.1172413795 0.0001817966 8.87896e-05 0.0002266886 -0.000102898 -0.2354254778 0.8101697863
640296160.0 0.0086101824 -0.1175022758 4.22155e-05 -2.47203e-05 0.0001785574 0.0001768053 -0.2271798728 0.8127480973
645296130.0 0.0072482023 -0.1170246161 0.0001100619 -2.29439e-05 0.0002175636 4.63474e-05 -0.2193154131 0.8143329639
650296100.0 0.0053605597 -0.1171329996 0.0001127678 -5.40057e-05 0.000185757 9.29046e-05 -0.2107315888 0.8167486437
655296070.0 0.0037190549 -0.1168854744 0.0002951065 3.8788e-06 0.0002135493 0.0001843046 -0.2032744169 0.8195058941
660296040.0 0.0018604974 -0.1164169775 0.0001203893 -0.0001097772 0.000121172 -8.5789e-06 -0.1942583132 0.8210678656
665296010.0 0.0003784393 -0.11612325 -1.97731e-05 -7.9831e-05 0.000155782 0.000215572 -0.1858530373 0.8222779452
670295980.0 -0.0015607613 -0.1159978352 7.8324e-05 0.0001954311 0.0003505048 -0.0001688082 -0.1779891854 0.8243980625
675295950.0 -0.0029815325 -0.1156956298 -1.26544e-05 -9.43527e-05 -1.40172e-05 -8.9325e-06 -0.169437755 0.8267083293
680295920.0 -0.005078911 -0.1152321188 0.0001302823 -0.0003052103 -0.0002127604 -0.0001514441 -0.1615107762 0.8278481117
685295890.0 -0.0063276137 -0.1149454118 -2.80817e-05 -0.0002515134 0.0002363971 -5.6469e-05 -0.1533033167 0.8297312516
690295860.0 -0.0081920326 -0.1147085778 0.0004190786 -0.0001518893 0.0001090134 0.0002240919 -0.144956199 0.8311742514
695295830.0 -0.0099855271 -0.1144377462 0.0002626019 5.59656e-05 0.0001000686 0.0001664972 -0.1368495328 0.8326083532
700295800.0 -0.0114998993 -0.1138292717 0.0001193338 6.40145e-05 0.0002398108 4.04741e-05 -0.1282400974 0.8340819369
705295770.0 -0.0132059436 -0.1133134593 -8.5504e-06 7.26583e-05 0.0001243467 -0.0001035168 -0.1201715989 0.8356828435
710295740.0 -0.0146547747 -0.1130314043 4.57496e-05 0.0002549881 1.95705e-05 -3.08315e-05 -0.1113681774 0.8361299037
715295710.0 -0.0160865783 -0.1126229103 0.0001167681 -0.0001077535 0.0001427081 -0.0001963471 -0.1031084996 0.8365938946
720295680.0 -0.0181224973 -0.1123407746 0.0001739993 -9.86474e-05 0.0001201594 -2.853e-05 -0.0944939406 0.8377298277
725295650.0 -0.0201656738 -0.1116680287 0.000471767 -9.63551e-05 0.0001860601 -0.0002221796 -0.0872467887 0.8394492929
730295620.0 -0.0218433431 -0.1113062245 5.46483e-05 -5.46272e-05 5.64389e-05 -4.80712e-05 -0.0786786467 0.8400583573
735295590.0 -0.0231934085 -0.1105214912 0.000143827 0.0002709822 0.0001765543 1.64586e-05 -0.0697485552 0.8404602832
740295560.0 -0.0251612213 -0.1100627659 0.0001341484 -2.66362e-05 4.07822e-05 0.0001960025 -0.0615945296 0.8415283662
745295530.0 -0.0265945214 -0.1093187033 0.0002347188 -0.0001534222 0.0001825881 7.51974e-05 -0.0533868939 0.8417590318
750295500.0 -0.0283492049 -0.1088469353 6.27401e-05 -0.0003413636 0.000385956 6.33778e-05 -0.0445118096 0.8425205377
755295470.0 -0.0299647499 -0.1082904602 4.63045e-05 -8.29826e-05 -6.98854e-05 4.05379e-05 -0.0366343724 0.8426516325
760295440.0 -0.0318128892 -0.1073350911 0.0001874364 3.96777e-05 0.0002123611 -0.0001339186 -0.0279496243 0.8428730987
765295410.0 -0.0332260085 -0.1071679631 0.0002507513 -5.89365e-05 0.0003666447 -3.56683e-05 -0.0197216155 0.8430611959
770295380.0 -0.0349671349 -0.1059971405 7.38029e-05 2.53197e-05 8.36989e-05 4.05872e-05 -0.0112232393 0.8429858983
775295350.0 -0.036459844 -0.1054320654 0.0003426366 6.42522e-05 0.000160463 -0.000134564 -0.003305021 0.8430763687
780295320.0 -0.0381004923 -0.1046835841 0.0001912908 0.0001175124 -2.8474e-06 -1.21243e-05 0.0057401301 0.8433975556
785295290.0 -0.0398891068 -0.1039808669 0.0001064995 -5.08784e-05 0.0001594288 -6.60116e-05 0.0134726733 0.8433772402
790295260.0 -0.041465936 -0.1036051685 0.0001602316 0.0001756766 8.91813e-05 -0.0002705294 0.0222636047 0.8431248619
795295230.0 -0.0431625569 -0.1030151281 -0.0001481197 -0.0001045917 0.0001707123 0.0002415766 0.0300420879 0.8422438194
800295200.0 -0.0446703695 -0.101980668 0.0001682254 6.0557e-06 0.0001033437 -0.0001290235 0.038174056 0.8418484543
805295170.0 -0.0461593718 -0.1014408613 3.5889e-05 -0.0001975275 0.0002351266 0.0001093245 0.0473635352 0.8416586792
810295140.0 -0.0478063254 -0.1002921634 -1.76897e-05 7.70997e-05 0.0002075719 -7.46635e-05 0.0558037417 0.8412464813
815295110.0 -0.0495214882 -0.0997969004 0.0002320679 8.7633e-06 0.0002608948 2.60409e-05 0.0636544291 0.8405725871
820295080.0 -0.0511141693 -0.0989133142 0.000316905 -6.34692e-05 0.0002756248 -1.31481e-05 0.0715281384 0.8400823148
825295050.0 -0.0528786744 -0.0981832182 0.0003119271 -0.0001647845 0.0001174816 -1.58932e-05 0.0797948706 0.839517317
830295020.0 -0.0542068697 -0.0972257249 0.0002098489 9.2709e-05 0.0002016698 -0.0001195633 0.0881702128 0.837866248
835294990.0 -0.0555870842 -0.0964681426 2.52464e-05 -1.56816e-05 0.0001336391 -0.0002318321 0.0967943312 0.8375474147
840294960.0 -0.0570637695 -0.0955947844 0.0002215463 -2.09114e-05 0.0001710283 2.77776e-05 0.1058525579 0.837169958
845294930.0 -0.0586338306 -0.0946226162 0.0003686354 3.8334e-05 0.0001524319 -2.04805e-05 0.1136573824 0.8353855485
850294900.0 -0.0599532323 -0.0939427271 -6.02966e-05 -0.0002327717 0.0002610709 -6.45135e-05 0.1209994253 0.8343353206
