!Created with skrf (http://scikit-rf.org).
# Hz S RI R 50.0 
!freq ReS11 ImS11 ReS21 ImS21 ReS12 ImS12 ReS22 ImS22
300000.0 -0.237383985 -0.1082729541 0.4653853228 0.0699507738 0.4710571513 0.0731287776 -0.2351646631 -0.1117228285
5299970.0 -0.2407656415 0.0070369224 0.4750414766 0.0050924964 0.475255296 0.005213814 -0.2447118972 0.0054381285
10299940.0 -0.2372467288 0.0199925061 0.4771951656 0.006282214 0.4772392426 0.0067148238 -0.2415588364 0.0176547952
15299910.0 -0.2329242692 0.0299222243 0.4803197549 0.0074015234 0.480590379 0.0076902615 -0.2372231867 0.026485713
20299880.0 -0.2272825936 0.0380442494 0.4850446304 0.0080133537 0.485380901 0.0078241306 -0.232700366 0.034006619
25299850.0 -0.2214672793 0.0445589671 0.4903641075 0.0069885611 0.4904673084 0.006952174 -0.2278759968 0.0399979755
30299820.0 -0.2158921641 0.0494820074 0.4963044663 0.005007959 0.495847626 0.0050398203 -0.2223852681 0.0449081298
35299790.0 -0.2097107079 0.0539186414 0.5012603438 0.0016470391 0.5011418684 0.0016537391 -0.2171432759 0.0488969465
40299760.0 -0.204289782 0.0570383815 0.5060551943 -0.002045424 0.5063905612 -0.0024028961 -0.2126788852 0.052297149
45299730.0 -0.1995125632 0.060290627 0.5111009446 -0.0073930082 0.5109002333 -0.0072715245 -0.2075932606 0.0543787089
50299700.0 -0.19441968 0.0617745631 0.5149706908 -0.0123681826 0.515284659 -0.0127723628 -0.2036291744 0.0565559842
55299670.0 -0.1903502278 0.0636916223 0.518254748 -0.0187785808 0.5187281875 -0.0186761279 -0.1997906089 0.0582870997
60299640.0 -0.1864806372 0.0649720581 0.5219854501 -0.0251752409 0.5218892117 -0.0250190302 -0.195975825 0.0595558748
65299610.0 -0.1831739214 0.0662581448 0.5248351754 -0.0305759698 0.5249084396 -0.0311260141 -0.1928469574 0.0609332241
70299580.0 -0.1795986762 0.066813998 0.5270954397 -0.0374597023 0.5273396272 -0.0378174462 -0.1898947315 0.0619066205
75299550.0 -0.17645128 0.0679412268 0.5291878452 -0.044464806 0.5292314394 -0.0446904606 -0.1872457833 0.0626490781
80299520.0 -0.1742457337 0.0690690348 0.5314407304 -0.0515208313 0.531358718 -0.0513258214 -0.1849770013 0.0629848757
85299490.0 -0.1712122185 0.069336074 0.5323486893 -0.0586062228 0.5323296558 -0.0582574453 -0.1826380392 0.0634916121
90299460.0 -0.1692152849 0.0701830661 0.5329738134 -0.065019203 0.5337003875 -0.0655120792 -0.1800405705 0.0644565195
95299430.0 -0.1672354781 0.0713130201 0.5345747134 -0.0727851767 0.534429213 -0.0720267286 -0.1786053814 0.0649958396
100299400.0 -0.1652994315 0.0718262098 0.5347738192 -0.0790509503 0.5345787443 -0.0792524614 -0.1766035295 0.065638183
105299370.0 -0.1634714926 0.0725132714 0.534565279 -0.085783629 0.5348967989 -0.0859899016 -0.1751231798 0.0665030032
110299340.0 -0.161737904 0.0728875785 0.5346920099 -0.0925562291 0.5350592087 -0.0929553759 -0.1735736561 0.0669626489
115299310.0 -0.1601583689 0.0734700524 0.5349016023 -0.0991140562 0.5353405975 -0.0993599406 -0.1720483542 0.0672517595
120299280.0 -0.1591622106 0.0745591423 0.5352190896 -0.1062862763 0.5351571414 -0.1065623973 -0.1712814339 0.0681854044
125299250.0 -0.1578569731 0.0751034354 0.5343036249 -0.1130875591 0.534777717 -0.1134373788 -0.1697030734 0.0683729559
130299220.0 -0.1564063755 0.0760612141 0.533929563 -0.119349982 0.5340721496 -0.1197402209 -0.1688540507 0.0694326955
135299190.0 -0.1550285915 0.0766939711 0.5331924093 -0.1262746964 0.5328034551 -0.1263745393 -0.168024665 0.0703317242
140299160.0 -0.1543906787 0.0782501367 0.5326261895 -0.1331536575 0.5329480931 -0.1331710116 -0.1670878283 0.0710788859
145299130.0 -0.1533155696 0.0791317207 0.5318625285 -0.1397008986 0.5314103435 -0.1393972529 -0.1662302001 0.0717559002
150299100.0 -0.1520171155 0.0795955695 0.5304757524 -0.1461172832 0.5303443226 -0.1462992252 -0.16516661 0.0726039096
155299070.0 -0.1512151693 0.0813647514 0.5291867237 -0.1532745869 0.5291707844 -0.1532191868 -0.164424118 0.073570024
160299040.0 -0.1500753824 0.0820852111 0.5271379045 -0.1589078816 0.5276883155 -0.1592577119 -0.1633462967 0.0749075866
165299010.0 -0.1493356255 0.0831301114 0.5266635825 -0.1658331791 0.5264398962 -0.1656059995 -0.1627270837 0.0754163575
170298980.0 -0.1486780258 0.0843588812 0.5241752822 -0.1718680362 0.5248592468 -0.171797477 -0.1619042486 0.0765380861
175298950.0 -0.1472041881 0.0856490597 0.5232619008 -0.1782271615 0.5233746651 -0.178280111 -0.1612118256 0.0775616144
180298920.0 -0.1461248382 0.0866988497 0.521444487 -0.1845334491 0.5215019408 -0.184155252 -0.1603280234 0.0787446642
185298890.0 -0.1450977175 0.0878603358 0.5192359979 -0.1907077291 0.5197035127 -0.1907074716 -0.159862432 0.0798234396
190298860.0 -0.1443777291 0.0891860046 0.5174224629 -0.1972275559 0.5177085131 -0.1969750066 -0.1585289435 0.0806599786
195298830.0 -0.1434570972 0.0902161985 0.515568356 -0.2023948195 0.5158752505 -0.2033338469 -0.1579196612 0.0817707873
200298800.0 -0.1426017341 0.0917567231 0.5138836487 -0.2084402874 0.5137709989 -0.2089123113 -0.1571606043 0.0832232866
205298770.0 -0.1416232323 0.0931583321 0.5116056539 -0.2148789833 0.5116686176 -0.2151345803 -0.1565559418 0.0841385194
210298740.0 -0.1409384849 0.0941852457 0.5094054477 -0.2211145809 0.5092852929 -0.2213755504 -0.1555124716 0.0854322344
215298710.0 -0.1395744137 0.0957193022 0.5069375403 -0.2270010902 0.5068441864 -0.2269085929 -0.1550299366 0.0865032799
220298680.0 -0.1390045109 0.0969467864 0.5045075971 -0.2331206341 0.5045953295 -0.2330754654 -0.1542773138 0.0880460582
225298650.0 -0.1374938981 0.0983242133 0.5015158013 -0.2384857056 0.5018043235 -0.2385146083 -0.1536814561 0.0892853691
230298620.0 -0.1368091944 0.099771471 0.4997483714 -0.2443785315 0.499614197 -0.2444262772 -0.1525802116 0.0903848443
235298590.0 -0.1359846086 0.1007188881 0.4971467092 -0.2498727404 0.4972222065 -0.2506092409 -0.1516217078 0.0914512038
240298560.0 -0.1350586195 0.1025501579 0.4941163372 -0.255383661 0.4943191702 -0.2556732007 -0.1509591979 0.0930919047
245298530.0 -0.1336276909 0.103733279 0.4909387429 -0.2612317268 0.4911993844 -0.2615138219 -0.1500022315 0.0944106797
250298500.0 -0.1330075435 0.105249424 0.4883009488 -0.2665885217 0.4888122951 -0.266748989 -0.1489011478 0.0956143362
255298470.0 -0.1320726373 0.1067499809 0.4857161384 -0.2729725599 0.4859310219 -0.2726954376 -0.1481217624 0.0968125467
260298440.0 -0.1307753822 0.1078758792 0.4828659084 -0.2780048773 0.4827532229 -0.2785078988 -0.1471451316 0.0984492234
265298410.0 -0.1294960444 0.1100084876 0.4796988763 -0.2842336998 0.4794461687 -0.2841841423 -0.146498756 0.0992812814
270298380.0 -0.1282222686 0.1109145902 0.4763659166 -0.2891150058 0.4766568171 -0.2898406926 -0.1454244622 0.1009506794
275298350.0 -0.1272493005 0.1125811323 0.4733562333 -0.2950034881 0.4735559403 -0.2947680282 -0.1445516059 0.102385522
280298320.0 -0.1262469853 0.1138218876 0.4702242863 -0.2997024068 0.4701161337 -0.30046327 -0.1432882525 0.1037921866
285298290.0 -0.1247574168 0.1154284986 0.4665536419 -0.3053702556 0.4668177816 -0.3058060297 -0.1424674181 0.1051952387
290298260.0 -0.1237078225 0.1166539139 0.464018067 -0.3106499795 0.4638458301 -0.3105753903 -0.1413861608 0.1064907249
295298230.0 -0.1224999518 0.118001579 0.4607099822 -0.3159653147 0.4600649677 -0.316149956 -0.1401660432 0.1080018307
300298200.0 -0.1207970882 0.1193489403 0.4565725942 -0.321412582 0.4569387772 -0.3214132181 -0.1395266259 0.1093127167
305298170.0 -0.1195922043 0.1205470128 0.4533980645 -0.3263646426 0.4533368049 -0.3267700034 -0.1379504542 0.1109556322
310298140.0 -0.1181280067 0.1219021814 0.4502469381 -0.3321123228 0.450046078 -0.3320591583 -0.1368222127 0.1121841262
315298110.0 -0.1172221211 0.1231231158 0.445994642 -0.3367921211 0.4464710655 -0.3370460755 -0.1358680633 0.1134168611
320298080.0 -0.1160435482 0.1243793541 0.4427810593 -0.34238039 0.4425052894 -0.3420222272 -0.1350999297 0.1145306494
325298050.0 -0.1148870856 0.1254592881 0.4388404095 -0.34727398 0.4388288659 -0.3476104024 -0.1338903383 0.1157653823
330298020.0 -0.1136104809 0.127156848 0.4341788868 -0.352149269 0.4345099769 -0.3522690645 -0.1329987292 0.1167656557
335297990.0 -0.1123712276 0.1280246196 0.4309253041 -0.3571182773 0.4307992516 -0.3569533388 -0.1319937139 0.1183973607
340297960.0 -0.1112454505 0.129528099 0.4259946456 -0.3617166374 0.426637099 -0.3615941734 -0.1311913921 0.1199262261
345297930.0 -0.1101788174 0.1311080765 0.4224202338 -0.36609044 0.4219230975 -0.3662485207 -0.1297291593 0.1210981519
350297900.0 -0.1082935216 0.1322582107 0.4178731068 -0.3704648807 0.4183230294 -0.3709233978 -0.1288565094 0.1228477864
355297870.0 -0.107249027 0.1334856587 0.4139463293 -0.375317192 0.4138772183 -0.3756126016 -0.1279956548 0.1244492579
360297840.0 -0.1054404131 0.1348260707 0.4096579752 -0.380316994 0.4099255707 -0.3803985098 -0.1263624111 0.1259306708
365297810.0 -0.1042449323 0.1362603739 0.4054565577 -0.3846602422 0.4058673809 -0.3844198164 -0.1257007214 0.1274431234
370297780.0 -0.1025659648 0.1375539356 0.4012879117 -0.3889182303 0.4011803738 -0.3897895226 -0.1240987599 0.128910337
375297750.0 -0.101472796 0.1390668675 0.397496072 -0.3934258985 0.3971071009 -0.3936893331 -0.1229356372 0.1305109097
380297720.0 -0.0994881262 0.1399912354 0.3929001325 -0.3974504985 0.3929521816 -0.3977265758 -0.1218809675 0.1317155026
385297690.0 -0.0980718523 0.1418843692 0.3883127536 -0.4017241333 0.3882656253 -0.4018758389 -0.120689439 0.1330534878
390297660.0 -0.0969465338 0.142703358 0.3837688265 -0.4064764568 0.3838179742 -0.4070311547 -0.1192866939 0.1341223368
395297630.0 -0.0949187976 0.1437575623 0.3798443346 -0.4100906584 0.3796486074 -0.4106516232 -0.1178694006 0.1356698901
400297600.0 -0.0936454679 0.1453853544 0.3749381867 -0.4145882494 0.3754143723 -0.4151760927 -0.1173892053 0.1370509366
405297570.0 -0.0917945603 0.1466723572 0.3703520039 -0.4187157093 0.3704651749 -0.4190368434 -0.1155040483 0.1387398847
410297540.0 -0.0898046904 0.1475204259 0.3649853104 -0.4229312274 0.3657622031 -0.4227086369 -0.1145664146 0.1395654297
415297510.0 -0.088400559 0.1491532112 0.3609799187 -0.426853075 0.3612149352 -0.4267375082 -0.1130714924 0.1414729129
420297480.0 -0.0867080693 0.1495288382 0.3562897644 -0.4312452072 0.3562798732 -0.4309482327 -0.1114970061 0.1423403161
425297450.0 -0.0846859251 0.1505892093 0.3511830236 -0.4346228749 0.351791989 -0.4346065234 -0.1102827302 0.143960079
430297420.0 -0.0837869998 0.1520750364 0.3472670481 -0.4384378002 0.3473444637 -0.4388513028 -0.1093088427 0.1448153279
435297390.0 -0.0816563012 0.1529687637 0.3419592649 -0.4417931618 0.3423189038 -0.4422335455 -0.1076961894 0.1466635853
440297360.0 -0.0798177393 0.1540495949 0.3366703622 -0.4458202512 0.3369635035 -0.4452727228 -0.1063769353 0.1468427764
445297330.0 -0.0780573742 0.1551152733 0.3318730811 -0.4502178864 0.3321711885 -0.4492855851 -0.1048454712 0.1481647316
450297300.0 -0.0763252795 0.1560485233 0.3272088909 -0.4533145913 0.3273654279 -0.4534592848 -0.1035181547 0.1499858786
455297270.0 -0.0746593403 0.1570612038 0.3225331928 -0.456577526 0.3226112822 -0.45661538 -0.1017926552 0.1511966273
460297240.0 -0.073371757 0.157752461 0.3172638859 -0.4596984772 0.3169185103 -0.4605344497 -0.1003434044 0.1528981883
465297210.0 -0.0708982927 0.1587629275 0.3121913679 -0.463820527 0.3125178098 -0.4635752681 -0.0993051388 0.1533103548
470297180.0 -0.0695757992 0.159841309 0.307505239 -0.4669367641 0.307855623 -0.4671124991 -0.0983401475 0.1544948801
475297150.0 -0.0677713628 0.1604524738 0.3017832937 -0.469889506 0.3022432555 -0.469630185 -0.0966253284 0.1556921465
480297120.0 -0.0656239093 0.1611455986 0.2970276074 -0.4737592835 0.2970190234 -0.4732066319 -0.0952816228 0.1573996773
485297090.0 -0.0637486802 0.1622950592 0.2918134319 -0.476634444 0.2918171359 -0.4766211235 -0.093574665 0.1580003192
490297060.0 -0.0620561966 0.1630647501 0.2865582387 -0.4796829876 0.2866761916 -0.479905609 -0.0919974907 0.1592971324
495297030.0 -0.060688236 0.1640878329 0.2812828904 -0.4826119533 0.2812603948 -0.4829379475 -0.0906426679 0.1600034486
500297000.0 -0.0582642862 0.1645784788 0.2756817489 -0.486011673 0.2758141018 -0.4854493267 -0.089522675 0.1611677016
505296970.0 -0.0570004419 0.1652037155 0.2705525328 -0.4883061025 0.2704969645 -0.4884947288 -0.0880880878 0.1624807377
510296940.0 -0.0550338327 0.1662887795 0.2654428452 -0.491624316 0.2654939702 -0.4915825712 -0.0859939675 0.163603821
515296910.0 -0.0534328962 0.1673376963 0.259494897 -0.4942846084 0.260064216 -0.4944040247 -0.0847001802 0.1644077597
520296880.0 -0.0510653249 0.1677545892 0.254347666 -0.4971512999 0.2545141192 -0.4973085881 -0.0828973498 0.1654864324
525296850.0 -0.0493857533 0.1684177901 0.2491425427 -0.5000993889 0.2490631918 -0.5001262425 -0.0810951873 0.1665785596
530296820.0 -0.0473576083 0.1687083902 0.2439396501 -0.5016928693 0.2437252128 -0.5026678542 -0.0803528599 0.1670266865
535296790.0 -0.0456149991 0.169654125 0.2381996113 -0.5049344402 0.2385343119 -0.5045623142 -0.0786093358 0.1680493444
540296760.0 -0.0438387344 0.1700239656 0.2327919345 -0.5080019719 0.2324604712 -0.5077986479 -0.0772492767 0.1691963693
545296730.0 -0.0417104817 0.1711012854 0.2271216298 -0.509610023 0.227119593 -0.510503385 -0.0753918006 0.1697214357
550296700.0 -0.0402140583 0.1715888397 0.2219277844 -0.5123868476 0.2223350075 -0.5127500136 -0.07387858 0.1711718884
555296670.0 -0.0378011335 0.171800034 0.2162023486 -0.5150706498 0.2164420185 -0.5148004214 -0.0723294194 0.1720581793
560296640.0 -0.0361159842 0.1725402328 0.2107553046 -0.5167831855 0.2106186404 -0.5167961543 -0.0707136151 0.1726585608
565296610.0 -0.0347258119 0.1730494835 0.2048653225 -0.5190957014 0.2047139778 -0.5192370972 -0.0690641446 0.173394622
570296580.0 -0.0323508941 0.1733469653 0.1993043613 -0.5211511228 0.1996075308 -0.5215087887 -0.0672690467 0.1746483196
575296550.0 -0.0303680527 0.1743757809 0.1933670493 -0.5233925247 0.1942114983 -0.523436999 -0.0654214297 0.1752426381
580296520.0 -0.0285680809 0.1746166582 0.1877498802 -0.5254552252 0.1875297445 -0.5256514904 -0.0640575029 0.1758096048
585296490.0 -0.0263911638 0.1746599667 0.1824588203 -0.5273762446 0.1822381416 -0.5275964902 -0.0624688002 0.1764364574
590296460.0 -0.0247526475 0.1750445322 0.1761004466 -0.5294212646 0.1764545684 -0.5295228941 -0.06043105 0.1775494594
595296430.0 -0.0226924017 0.1760520176 0.1712582947 -0.5317033587 0.1711077221 -0.5313224391 -0.058956126 0.178141557
600296400.0 -0.0209074298 0.1763435286 0.1651165718 -0.5333164951 0.1653145859 -0.5332317115 -0.057124265 0.1790573137
605296370.0 -0.0188251975 0.1769906314 0.1593196559 -0.5351388342 0.1596622737 -0.5346950073 -0.0554551531 0.1795240517
610296340.0 -0.0167572118 0.1769475292 0.1537207695 -0.5361671768 0.1537390888 -0.5367080512 -0.053864753 0.1808250731
615296310.0 -0.0148171261 0.1775185879 0.1474688317 -0.5381621965 0.1476193688 -0.5377718387 -0.0521018365 0.1809527669
620296280.0 -0.0130216292 0.1776579548 0.1418741034 -0.5396562078 0.1422217466 -0.5395329902 -0.0505026376 0.1812195843
625296250.0 -0.0107587732 0.1778259401 0.1357443334 -0.5412751858 0.1357767961 -0.5410882282 -0.0484281139 0.1823475032
630296220.0 -0.0088201931 0.1782897666 0.1299024231 -0.5423089342 0.130278103 -0.5424282545 -0.0470619152 0.1831851201
635296190.0 -0.0068649072 0.1786342482 0.1240887237 -0.5436110999 0.1242839397 -0.543538682 -0.0454489178 0.1834398251
640296160.0 -0.0049836333 0.178572104 0.1182656489 -0.5449280277 0.1180684641 -0.5451993498 -0.0431984808 0.1841223934
645296130.0 -0.0030558869 0.1790443696 0.1126612498 -0.5463258888 0.1127379642 -0.5463939373 -0.0423482414 0.1843111717
650296100.0 -0.0011126695 0.1797088327 0.1070175073 -0.5473962277 0.1069601083 -0.5473212481 -0.0401821893 0.185326281
655296070.0 0.0009288512 0.1790991471 0.1010291437 -0.5485492257 0.1005409857 -0.5485170702 -0.0378761573 0.1857857711
660296040.0 0.0027683851 0.1797041498 0.0949850495 -0.5492485136 0.0950840746 -0.5493498587 -0.0366260455 0.1862164068
665296010.0 0.0048685254 0.179599701 0.0887738843 -0.5504251271 0.089444727 -0.5502451769 -0.0352937054 0.1867441213
670295980.0 0.007269651 0.1798351488 0.0831016039 -0.5515190887 0.0832234613 -0.5512859387 -0.0335676363 0.1870711849
675295950.0 0.0090081486 0.1795494686 0.076807351 -0.5519757005 0.0773392416 -0.5526730208 -0.0314763629 0.18812692
680295920.0 0.011077782 0.1800694643 0.0710915182 -0.5528175444 0.0710078583 -0.5532278591 -0.0297413949 0.1882472031
685295890.0 0.0131075845 0.1799318371 0.0652167757 -0.5535906214 0.0650483707 -0.5542771767 -0.0278976533 0.1889139795
690295860.0 0.0153223184 0.1798697231 0.0592187437 -0.5539183141 0.0584859684 -0.5537466325 -0.025631202 0.1890925997
695295830.0 0.0174015113 0.1797839434 0.0525655962 -0.5549998665 0.0528968441 -0.5552198009 -0.0244842007 0.1897385705
700295800.0 0.0194077498 0.179799118 0.0469452079 -0.5553580906 0.0471668369 -0.5557213454 -0.0224758426 0.1896032497
705295770.0 0.0213512463 0.1799331816 0.0409933467 -0.5558514496 0.0411362226 -0.5559415129 -0.0207181653 0.1902020143
710295740.0 0.0234201622 0.1798683767 0.0348626926 -0.5560986405 0.0348357684 -0.5560987992 -0.0193755487 0.1905799617
715295710.0 0.0252265154 0.1798096729 0.0292197136 -0.556214366 0.02958903 -0.5564666245 -0.0166895321 0.1906826352
720295680.0 0.0272139896 0.1793961215 0.0231194224 -0.5567145459 0.0230477143 -0.5570475906 -0.0149839976 0.1912707833
725295650.0 0.029691151 0.179343713 0.0166131652 -0.5570268288 0.01739048 -0.5568682565 -0.0133890903 0.1916208952
730295620.0 0.03112017 0.1789143215 0.0109857178 -0.557041727 0.0110427603 -0.5568183093 -0.0112125158 0.1913040207
735295590.0 0.0339530306 0.1787559343 0.005373244 -0.557198922 0.005469676 -0.5570383225 -0.009508047 0.1919594164
740295560.0 0.0353130301 0.1788177774 -0.0008691106 -0.5566569395 -0.0013668894 -0.5566525366 -0.0073126921 0.1921981404
745295530.0 0.0373342295 0.1781731117 -0.0066901678 -0.5569574052 -0.0064223525 -0.5573647677 -0.0060273462 0.1923291409
750295500.0 0.0394337049 0.1781110293 -0.0128026828 -0.5567957554 -0.0131400735 -0.5568220704 -0.0038578709 0.1921080743
755295470.0 0.0418351786 0.1777809115 -0.0187865762 -0.5564049649 -0.018850972 -0.5571721758 -0.0026322014 0.1926809382
760295440.0 0.0434684257 0.1778215093 -0.0249803669 -0.5566866253 -0.0246177998 -0.5563172464 -0.000708972 0.1929942414
765295410.0 0.0450899007 0.1769240995 -0.030382893 -0.5559201789 -0.0305806605 -0.5560077167 0.0019538476 0.1932341778
770295380.0 0.0477376744 0.1770374 -0.0370652391 -0.555560163 -0.0366774041 -0.5561608628 0.0034500528 0.1933660589
775295350.0 0.0491142202 0.1767391948 -0.0429343515 -0.555097015 -0.0428762579 -0.5551142099 0.0047781673 0.1927120006
780295320.0 0.0515133784 0.1761553155 -0.0483971744 -0.5549698509 -0.0482700374 -0.5551145415 0.0072545923 0.1934947617
785295290.0 0.053633612 0.1759840887 -0.0547994245 -0.5535762226 -0.0547775889 -0.5539907644 0.0085874673 0.1934157342
790295260.0 0.0553981752 0.175559232 -0.0608986492 -0.5538080948 -0.0607519377 -0.5537465419 0.011096736 0.1933485463
795295230.0 0.0574894067 0.1751186029 -0.0662372171 -0.5527669507 -0.0662357479 -0.5530236574 0.0126772458 0.1941986285
800295200.0 0.0593845732 0.1746611343 -0.0731995958 -0.5521332263 -0.0729296889 -0.5522933109 0.0147707876 0.1937061692
805295170.0 0.061028036 0.1739681977 -0.0783077484 -0.5507815349 -0.0783311144 -0.5511627179 0.0160450438 0.193769536
810295140.0 0.0633526985 0.1734236897 -0.0842065278 -0.5504200001 -0.0841310856 -0.5506140355 0.018485401 0.1941464307
815295110.0 0.0652454294 0.1727889217 -0.0901563827 -0.5486264491 -0.0903521847 -0.549128772 0.0201998727 0.1932250437
820295080.0 0.0671106108 0.1719612661 -0.0962124326 -0.5480281445 -0.0960544016 -0.5484880513 0.0217223593 0.1934854344
825295050.0 0.0691688484 0.1716496737 -0.1020830758 -0.5466601581 -0.1018590895 -0.5470620956 0.0239006816 0.1936907284
830295020.0 0.0708336052 0.1710130881 -0.1081371642 -0.5459059063 -0.108412365 -0.5460944913 0.0256346752 0.1934373111
