!Created with skrf (http://scikit-rf.org).
# Hz S RI R 50.0 
!freq ReS11 ImS11 ReS21 ImS21 ReS12 ImS12 ReS22 ImS22
300000.0 -0.1010691178 -0.0691231507 0.6292417723 0.064492116 0.6231756105 0.0658730361 -0.100077445 -0.0769707829
5299970.0 -0.1021695788 0.0129568051 0.6303958543 0.0097629356 0.6307819788 0.0108296127 -0.1006685802 0.0130655744
10299940.0 -0.0970419474 0.029273607 0.634302254 0.0155525225 0.6340965298 0.0158757084 -0.0955435936 0.0302497406
15299910.0 -0.0900684744 0.0425824681 0.6405514825 0.0205286098 0.6406656919 0.0206659011 -0.0887115383 0.0434061602
20299880.0 -0.0815855483 0.0529609855 0.6484940325 0.0244426633 0.6485436571 0.0243421617 -0.0796650798 0.0545505553
25299850.0 -0.072229903 0.0620961658 0.6576157918 0.0252765473 0.6575206861 0.0252824355 -0.0695820013 0.0633724404
30299820.0 -0.0622250409 0.0689616548 0.6674640691 0.0244037356 0.6674864642 0.024346877 -0.0596527923 0.0698235004
35299790.0 -0.0525106463 0.0736842655 0.6771897782 0.0214214455 0.677120948 0.0214163896 -0.0496918898 0.0749944119
40299760.0 -0.0430679419 0.07728 0.6861399144 0.017157802 0.6864515885 0.017791275 -0.040589933 0.0775889257
45299730.0 -0.0340064768 0.0794386318 0.695014869 0.0114806557 0.6955291765 0.0123561677 -0.0315346507 0.079629996
50299700.0 -0.0256102961 0.0802706655 0.7037145859 0.0046743943 0.7033309357 0.0054891382 -0.0226101643 0.0807383321
55299670.0 -0.0177253632 0.0806308635 0.7109168546 -0.0030447647 0.7108661018 -0.0021909649 -0.0146821243 0.0807319786
60299640.0 -0.0099730007 0.0801756125 0.717213392 -0.0115723666 0.7178811325 -0.0109070387 -0.007828634 0.0795765432
65299610.0 -0.003827582 0.0789276252 0.7235277688 -0.0196969659 0.7234735524 -0.0200671853 -0.0011433748 0.0785193146
70299580.0 0.0026042007 0.0776009533 0.7285912666 -0.0296447687 0.7287045204 -0.0290375995 0.0047890737 0.0768541229
75299550.0 0.0081192321 0.0758469307 0.7329797757 -0.038779042 0.7326024125 -0.0390654385 0.0099783647 0.0749609168
80299520.0 0.0131195619 0.0736274994 0.7372984343 -0.0490651869 0.7375391976 -0.0487598995 0.0150397884 0.0727363003
85299490.0 0.0178246638 0.0715665867 0.7402439261 -0.0583543437 0.7405531943 -0.0580412679 0.0192879312 0.0700199047
90299460.0 0.0216734084 0.0691074977 0.7427199398 -0.0690976644 0.7434012543 -0.0685149347 0.0234721939 0.0679930603
95299430.0 0.0257366068 0.0665725882 0.7453017457 -0.0786577129 0.7458275619 -0.0789259999 0.027366901 0.0656560261
100299400.0 0.0288148639 0.064735526 0.7466276356 -0.0887666168 0.746869117 -0.0888320967 0.0310825022 0.0628398222
105299370.0 0.0324391159 0.0620004805 0.7485658951 -0.0995229558 0.749017634 -0.0989189395 0.0340299637 0.060768409
110299340.0 0.0350249959 0.0598657192 0.7496669246 -0.1091767759 0.749640109 -0.1086620358 0.0360770661 0.0579231696
115299310.0 0.0375800289 0.0573576652 0.7506698804 -0.1193677117 0.7507604799 -0.1191263734 0.0391253131 0.0555855745
120299280.0 0.0398592438 0.0546734429 0.7514343305 -0.1290512114 0.7516719085 -0.1290786735 0.0413901513 0.0530961696
125299250.0 0.0419139918 0.052382026 0.7513176816 -0.1387535037 0.7515931607 -0.1383304383 0.042666336 0.0503252497
130299220.0 0.0435278143 0.0501678626 0.751248761 -0.1491830286 0.7511589265 -0.1489156558 0.0447784923 0.0482718284
135299190.0 0.0453221693 0.0483958457 0.7513285726 -0.1590720415 0.7513775975 -0.1586302961 0.0467907772 0.0460351566
140299160.0 0.0465824122 0.046243707 0.750629901 -0.1688641599 0.7508557939 -0.1691437441 0.0479040597 0.0445716928
145299130.0 0.0483226405 0.0439792863 0.7499138 -0.1784406465 0.7497850035 -0.1781057347 0.0495090873 0.0420772369
150299100.0 0.0495308521 0.0421356622 0.7484531903 -0.1870010955 0.749115584 -0.1874876288 0.0509982069 0.0402294662
155299070.0 0.0504855942 0.0398259181 0.7474608657 -0.1982988406 0.7477899368 -0.1976142826 0.0517044076 0.0385112953
160299040.0 0.0519425641 0.038254574 0.746373379 -0.2071592836 0.7459366661 -0.2071862299 0.052123424 0.0363048554
165299010.0 0.0524474232 0.0364518524 0.744379468 -0.2173157665 0.7448085449 -0.2166915225 0.0537268727 0.0349701649
170298980.0 0.0534433106 0.0341845111 0.7429676586 -0.2263519541 0.7428653825 -0.2260329118 0.0542060947 0.0331303061
175298950.0 0.0538021053 0.0322129845 0.7411906493 -0.2347801163 0.740903657 -0.2355433655 0.054753427 0.0314342647
180298920.0 0.0544376665 0.0305820684 0.739046665 -0.2448096211 0.7384479452 -0.244355074 0.0556972247 0.0297360455
185298890.0 0.0554958883 0.0287893147 0.7367635943 -0.2536512834 0.7361541252 -0.2533469205 0.0560803268 0.0284734734
190298860.0 0.0556804024 0.0276323694 0.73419668 -0.2630739046 0.7343925726 -0.2628952743 0.0564102515 0.0264780625
195298830.0 0.0563046374 0.0252402359 0.7317190499 -0.2721052866 0.7321870593 -0.2715867492 0.0571079837 0.025242157
200298800.0 0.0564660411 0.0241247266 0.7290003855 -0.2814851537 0.7291465035 -0.2810641879 0.0567396948 0.0239333762
205298770.0 0.056848776 0.0229183695 0.7263624419 -0.2900637689 0.7261858665 -0.2895727909 0.0572311854 0.0214651942
210298740.0 0.0569569898 0.0209617555 0.7232049056 -0.2984241947 0.723511723 -0.2976130742 0.0578740286 0.0215790212
215298710.0 0.056918567 0.0197160854 0.7203078805 -0.3075373202 0.7202799698 -0.3070428038 0.0577344791 0.0199637179
220298680.0 0.0576103848 0.0178725632 0.7164938708 -0.3156674091 0.7168226927 -0.3156919072 0.0576639714 0.0181148139
225298650.0 0.0579961678 0.0165475979 0.7136907583 -0.3246685822 0.7138603806 -0.3244363314 0.05752035 0.0163337196
230298620.0 0.0580833185 0.0157833705 0.7106148495 -0.3328898312 0.7108467022 -0.332884595 0.0575501793 0.014966389
235298590.0 0.0578090021 0.0147562018 0.7071654992 -0.3413301155 0.706675734 -0.3404381142 0.0579231284 0.0136210045
240298560.0 0.0582171512 0.0135329378 0.7037295281 -0.3501523586 0.7030953253 -0.3498212143 0.0574544483 0.0130871228
245298530.0 0.0579434123 0.012082012 0.7002195043 -0.3579824464 0.7000256415 -0.3580598821 0.0582307498 0.0111066857
250298500.0 0.0587360691 0.0110913145 0.6954174553 -0.3667930921 0.6949081455 -0.3657606692 0.0580915663 0.010415464
255298470.0 0.0583763913 0.0096461917 0.691428821 -0.3740127389 0.6918810043 -0.3740678781 0.0582255622 0.0091046272
260298440.0 0.0581097538 0.0084523441 0.6875348849 -0.3831209086 0.6881411554 -0.3824436227 0.0587103403 0.0080586708
265298410.0 0.0587913458 0.007730452 0.683425256 -0.3910680308 0.6839952556 -0.3906449749 0.0583272312 0.0070383911
270298380.0 0.0585826273 0.0065047929 0.6801286046 -0.3980631467 0.6798080024 -0.3981944667 0.0580830376 0.0059301041
275298350.0 0.0590369496 0.0050759862 0.6754335009 -0.4066925701 0.6754798724 -0.4066587224 0.058593298 0.0043810247
280298320.0 0.0588591666 0.004284731 0.6711896262 -0.4144832752 0.6710049018 -0.4138953993 0.058790145 0.003576518
285298290.0 0.0586581958 0.003315204 0.6667055973 -0.421936501 0.6665330623 -0.4224872493 0.0584383233 0.0023347582
290298260.0 0.0591540511 0.0022561309 0.6623222602 -0.4293886869 0.6620537872 -0.429666922 0.0585927056 0.0018252793
295298230.0 0.0589637297 0.0011777197 0.6579304151 -0.4372812225 0.6576917863 -0.4375467155 0.0594895572 0.0003404392
300298200.0 0.0583580216 -3.2905e-05 0.6530262519 -0.4447725584 0.6528928049 -0.4458329555 0.0591043269 -0.0008497266
305298170.0 0.0587771046 -0.0013296875 0.6477413284 -0.4532124748 0.6477802142 -0.4529572831 0.059771795 -0.0021317385
310298140.0 0.0584233605 -0.0023719774 0.6427115767 -0.4606217617 0.6433357188 -0.4603971556 0.0597054699 -0.0030565096
315298110.0 0.0584468786 -0.0040744913 0.6377718412 -0.4681586637 0.6383221228 -0.4683140798 0.0591334236 -0.0041097677
320298080.0 0.0588319619 -0.004791203 0.6323366716 -0.4763507665 0.6331146375 -0.4758994662 0.0585498713 -0.0052922754
325298050.0 0.0579488549 -0.005923756 0.6273451733 -0.4833877196 0.6273672223 -0.4832943945 0.057984128 -0.0062388481
330298020.0 0.0575458104 -0.0070964475 0.6215643734 -0.4901295708 0.6218915911 -0.4908846336 0.0576887266 -0.0077466037
335297990.0 0.057244991 -0.0084699595 0.6162646222 -0.4976492519 0.6159856572 -0.4979904418 0.0566432555 -0.007723288
340297960.0 0.0562327405 -0.0087878757 0.6100637862 -0.5047279215 0.6096175445 -0.5049205323 0.0572853869 -0.0085055368
345297930.0 0.0558390213 -0.0090375679 0.6044026037 -0.5119101557 0.6042771513 -0.5119344565 0.0565883244 -0.0100044516
350297900.0 0.0551577427 -0.0107920554 0.597186956 -0.5185286267 0.5985122281 -0.5185470514 0.0556243033 -0.0095538721
355297870.0 0.055166109 -0.0103602826 0.5922918842 -0.5246615223 0.5930575978 -0.5250794096 0.0552735205 -0.0107241142
360297840.0 0.0546625641 -0.0114206335 0.5876956761 -0.5315962586 0.5878126873 -0.5313830268 0.0553102653 -0.0109545898
365297810.0 0.0542377416 -0.0117936329 0.581059289 -0.5386071697 0.5816233616 -0.5385409134 0.0548676316 -0.0117223027
370297780.0 0.0545959506 -0.0132793283 0.5749186998 -0.5449373728 0.5753995225 -0.5439272076 0.0544512752 -0.0122119526
375297750.0 0.0541896258 -0.0136395045 0.5687803355 -0.5510287138 0.5694944266 -0.551419981 0.0543859777 -0.0130989845
380297720.0 0.0535788265 -0.0142560083 0.5628075563 -0.5574853292 0.5632396167 -0.5565511853 0.0534161208 -0.01379735
385297690.0 0.0529382679 -0.0150012086 0.5564194967 -0.563717855 0.5566723241 -0.5631690078 0.0534719955 -0.0142992258
390297660.0 0.0528326488 -0.0150651708 0.5505352655 -0.5699255925 0.5503770077 -0.5696010869 0.0526010242 -0.0151231041
395297630.0 0.0522655364 -0.0159654705 0.5442154178 -0.5756330814 0.5441320308 -0.5760839682 0.0530471393 -0.0155251445
400297600.0 0.051883255 -0.0165781667 0.5376146695 -0.5824873872 0.5378759711 -0.5821351338 0.0522455035 -0.016146611
405297570.0 0.0513886852 -0.0174262246 0.5310204865 -0.5881245369 0.5312901223 -0.5874196522 0.0518608594 -0.0166954268
410297540.0 0.0513366982 -0.0179316141 0.5251690282 -0.594248466 0.5250896297 -0.5940257252 0.051271417 -0.0170639535
415297510.0 0.0515517825 -0.0186942786 0.51802303 -0.5997738378 0.5188653366 -0.5996497333 0.0511814371 -0.0178119098
420297480.0 0.0510666816 -0.0187329577 0.5112484554 -0.6052271737 0.5118208089 -0.6058498922 0.0504538992 -0.0189275635
425297450.0 0.0502689551 -0.0203913632 0.5052090218 -0.6114619476 0.5051875694 -0.6109188959 0.0493467555 -0.0188385668
430297420.0 0.0498413492 -0.020749515 0.4978268522 -0.6160328904 0.4979557177 -0.616432947 0.0495117726 -0.0198922957
435297390.0 0.049541908 -0.0211746175 0.4908556606 -0.6224525517 0.4913629819 -0.6218763923 0.0504818346 -0.0206090778
440297360.0 0.049406607 -0.0216819567 0.4844228685 -0.6275449131 0.4846358285 -0.6276859772 0.0488687004 -0.0215516888
445297330.0 0.0487516093 -0.0229853315 0.4783033955 -0.6331063105 0.4780415712 -0.6322760069 0.0493135986 -0.0221304922
450297300.0 0.048808324 -0.0232928695 0.4710826392 -0.6382411038 0.470765588 -0.6382854553 0.0486544018 -0.0230644333
455297270.0 0.0482774875 -0.0237161553 0.4634096751 -0.6436163372 0.4641770447 -0.6441548571 0.0481284263 -0.0232209671
460297240.0 0.0479572321 -0.0242635878 0.4560849959 -0.6487398042 0.456689248 -0.6487599242 0.0477450752 -0.0237615163
465297210.0 0.0478535647 -0.0248240676 0.4495070404 -0.6536919715 0.4493456497 -0.654355083 0.0476145924 -0.0247327116
470297180.0 0.0472266453 -0.0255978709 0.4418289171 -0.6592692504 0.4426986208 -0.6588132439 0.0473082607 -0.0250337391
475297150.0 0.0468910381 -0.0261759427 0.4350029725 -0.6633808944 0.4351502604 -0.6630169161 0.0472482398 -0.0260270261
480297120.0 0.04627023 -0.02622548 0.4274589257 -0.6680838983 0.4272433109 -0.6685307969 0.0470000088 -0.026155735
485297090.0 0.0456543514 -0.0269796158 0.4203210491 -0.6725195296 0.4204666856 -0.6724148807 0.0465248836 -0.0268539749
490297060.0 0.0448517238 -0.0275007272 0.413388177 -0.6783089003 0.4134706503 -0.6769626283 0.0461411386 -0.0266421266
495297030.0 0.0447288703 -0.0280296551 0.4047666096 -0.6822862191 0.4059614136 -0.6817138893 0.0451126916 -0.0278267253
500297000.0 0.0443614591 -0.0288140223 0.3975519699 -0.685797124 0.3974063485 -0.6855254014 0.0449413014 -0.0273062812
505296970.0 0.0440137125 -0.0290889585 0.3900763984 -0.6907980477 0.3902493013 -0.6907367216 0.0445067223 -0.0281399624
510296940.0 0.0432686074 -0.0294967909 0.3825996539 -0.6951657285 0.382597893 -0.6953332835 0.0445064844 -0.0283239127
515296910.0 0.0428034143 -0.0298713015 0.3745462767 -0.6999659784 0.3750699468 -0.6992334112 0.0440392141 -0.028718659
520296880.0 0.0424219083 -0.0304418989 0.3672980335 -0.703990653 0.3671107364 -0.7026168914 0.0432663053 -0.0297259348
525296850.0 0.0422057896 -0.0314843789 0.3588699494 -0.7071488945 0.3598618771 -0.7072100922 0.0428036396 -0.0297912033
530296820.0 0.041519038 -0.0311071482 0.3518351335 -0.7113218957 0.3522823393 -0.7115086403 0.042576688 -0.0301045239
535296790.0 0.040502036 -0.0316231089 0.3448082745 -0.7149157186 0.3445961979 -0.7146248467 0.0419570428 -0.0311623943
540296760.0 0.0402419987 -0.0316892884 0.3360216674 -0.7193783348 0.335914719 -0.7188955066 0.0408409077 -0.030720968
545296730.0 0.0399823063 -0.0324231092 0.3281837221 -0.7226317391 0.3283858516 -0.7223788554 0.0406869034 -0.0312236904
550296700.0 0.03989628 -0.0323313925 0.320351015 -0.7260522245 0.3201424282 -0.7261640121 0.0396732914 -0.0316199011
555296670.0 0.0387209376 -0.0329910168 0.3126177047 -0.7297407027 0.3127759139 -0.7294051684 0.0397330953 -0.0318187518
560296640.0 0.0386170073 -0.0327121056 0.3040419116 -0.7333833579 0.304722186 -0.7325689205 0.0388890882 -0.0327080645
565296610.0 0.0376172929 -0.033927229 0.2959354724 -0.7363464235 0.2965530858 -0.7363025378 0.0378358353 -0.0331907113
570296580.0 0.0374329935 -0.0338086486 0.2883928216 -0.7400925806 0.2874260574 -0.7393872317 0.0377570816 -0.0324904565
575296550.0 0.0362947428 -0.034194523 0.2802669342 -0.7428339734 0.2801663238 -0.7429510903 0.0374297052 -0.0335090238
580296520.0 0.0363304315 -0.0343761313 0.2715409175 -0.7456361574 0.2722911314 -0.7457510635 0.0366257739 -0.0342049191
585296490.0 0.0355670015 -0.0358403379 0.2638310631 -0.748454814 0.2643197217 -0.7488790091 0.0362128363 -0.0343691138
590296460.0 0.0355333511 -0.0354104394 0.2562648972 -0.7510392715 0.2557883482 -0.750975373 0.0348851485 -0.0344887669
595296430.0 0.03524659 -0.0358932094 0.2470803635 -0.7543385347 0.2476924622 -0.7541208702 0.0351343129 -0.035468734
600296400.0 0.0341720445 -0.0361145737 0.2387496655 -0.7570172293 0.239164988 -0.7560271542 0.0343169135 -0.0353854733
605296370.0 0.0335800093 -0.036501548 0.2309017989 -0.7595669272 0.231383916 -0.7595183707 0.0339212117 -0.035888818
610296340.0 0.0331218353 -0.0368969782 0.2225200824 -0.7614804159 0.2222915136 -0.7621579213 0.0335434452 -0.0363210117
615296310.0 0.0328534533 -0.0376587065 0.2136003349 -0.7643327948 0.2139935226 -0.7645251052 0.0331237279 -0.0364592168
620296280.0 0.0322219588 -0.0378248786 0.2061001637 -0.7665478858 0.2060726599 -0.7661204417 0.0322812376 -0.0368629953
625296250.0 0.0313058352 -0.0385520496 0.1982312905 -0.7688581442 0.1972217324 -0.7686950221 0.0325759619 -0.0369992789
630296220.0 0.0319206957 -0.0383294295 0.1885477547 -0.7706768883 0.1888049339 -0.7704352311 0.0316527801 -0.0369578911
635296190.0 0.0299237147 -0.0392049208 0.1804832395 -0.7731656765 0.1806055417 -0.7726611505 0.031398174 -0.0374944705
640296160.0 0.0296353594 -0.0389243101 0.1716027423 -0.7744016859 0.1727032886 -0.7745895357 0.0305920056 -0.0378443835
645296130.0 0.0293050205 -0.0390523225 0.1632157525 -0.7761474991 0.1642436957 -0.7765194948 0.0301898017 -0.0381351403
650296100.0 0.0288902589 -0.0394647533 0.154984677 -0.7781592298 0.1557567965 -0.7784680527 0.0301373648 -0.0391042118
655296070.0 0.027489131 -0.0399162336 0.1462726339 -0.7796684635 0.1472283632 -0.7794740112 0.0295268894 -0.0385487618
660296040.0 0.0267142674 -0.0404530817 0.1385797073 -0.78185687 0.138621336 -0.7815799161 0.0293892818 -0.0387846174
665296010.0 0.0269393879 -0.0405590333 0.1292493445 -0.782794125 0.130267056 -0.7823679692 0.0284885812 -0.0384963984
670295980.0 0.0249785952 -0.0404372262 0.1208331974 -0.7843073167 0.1214499959 -0.7841085649 0.0273635006 -0.0389554633
675295950.0 0.025193007 -0.0402659674 0.1128528438 -0.7852344459 0.1129810395 -0.785060457 0.0266701202 -0.0392103982
680295920.0 0.0240501926 -0.0409906127 0.1034867875 -0.7868411231 0.1033205364 -0.7871934083 0.0261652932 -0.0387232647
685295890.0 0.0240443803 -0.0402929208 0.0952177549 -0.7876410496 0.0953941834 -0.7875025355 0.0255613729 -0.0391104607
690295860.0 0.0240330028 -0.0407560262 0.0868804731 -0.787839975 0.0867761481 -0.78857596 0.0250029473 -0.0384021046
695295830.0 0.0228777734 -0.0411310576 0.0785670467 -0.7893357385 0.0780785689 -0.7891725113 0.024345083 -0.0389121208
700295800.0 0.0224969039 -0.0416467463 0.0694990181 -0.7906820017 0.0691561773 -0.7897236434 0.023855404 -0.0384888711
705295770.0 0.0214995119 -0.0405408037 0.0608081342 -0.7904821771 0.0615151786 -0.7909369568 0.0230748088 -0.0391338876
710295740.0 0.0214118732 -0.0413842823 0.0524611928 -0.7923468161 0.0529651773 -0.7923630657 0.0228493044 -0.0399200626
715295710.0 0.0200406068 -0.0415122648 0.0439729571 -0.7925136525 0.0438668521 -0.7924090467 0.022499394 -0.0396229107
720295680.0 0.0197793056 -0.0416402441 0.0348883627 -0.7930223404 0.0357674363 -0.7923829511 0.0213966256 -0.0388450198
725295650.0 0.0194958923 -0.0414580517 0.0264798997 -0.7927277568 0.0269518525 -0.7929103115 0.02024765 -0.0393912635
730295620.0 0.0190098773 -0.0412751626 0.01796034 -0.7929755113 0.0180706095 -0.7933063282 0.0197032134 -0.0399605893
735295590.0 0.0183275312 -0.0412100608 0.0091437076 -0.7933287229 0.0092612065 -0.7934284304 0.0189904197 -0.0399876454
740295560.0 0.0169211834 -0.0414436349 0.0006130413 -0.7928951165 0.0007441076 -0.7931974983 0.0191554762 -0.0395520938
745295530.0 0.0168122648 -0.0414921278 -0.0077866611 -0.7927961809 -0.0080731759 -0.7932249262 0.0182423597 -0.0404013207
750295500.0 0.0163208324 -0.0418298393 -0.0165710154 -0.7926924274 -0.0163810165 -0.7927929158 0.0172256106 -0.0399981799
755295470.0 0.0158159713 -0.0418322475 -0.0249830214 -0.79279195 -0.0244866154 -0.7931313654 0.0176068181 -0.0408426663
760295440.0 0.015004636 -0.0416912703 -0.03379326 -0.7928841281 -0.0336878616 -0.7929433465 0.0165908113 -0.0405931805
765295410.0 0.0144158089 -0.0419113035 -0.0421235503 -0.7918682374 -0.0425497681 -0.7924262215 0.0162256465 -0.0406085381
770295380.0 0.013478477 -0.0423404687 -0.0514068587 -0.7914160278 -0.0512583419 -0.7916050502 0.015080488 -0.0406760219
775295350.0 0.0129457886 -0.0427044549 -0.0598949611 -0.7904541024 -0.0589900447 -0.791290139 0.0138014171 -0.0405266905
780295320.0 0.0124878689 -0.0425264638 -0.0684388568 -0.7893922579 -0.0672659733 -0.7901106992 0.0136820738 -0.041505244
785295290.0 0.0113074766 -0.0428120448 -0.0770429367 -0.7891128449 -0.0765332222 -0.7892445383 0.0140558563 -0.0407123019
790295260.0 0.0117934061 -0.0418886688 -0.0848707083 -0.7884359307 -0.0838357253 -0.788009498 0.0129480885 -0.0409734283
795295230.0 0.0108241881 -0.0424525145 -0.0943879739 -0.787158053 -0.0928579119 -0.7876990925 0.0124873269 -0.0404253184
800295200.0 0.0097118972 -0.0418988963 -0.1032797626 -0.7862516083 -0.1022383815 -0.786175528 0.0118155979 -0.0406259825
805295170.0 0.0093165053 -0.0421490906 -0.1114791445 -0.7849319446 -0.1108205558 -0.7858599289 0.011128851 -0.0406683357
810295140.0 0.0081850407 -0.0426894153 -0.1192573362 -0.7834869748 -0.1193795995 -0.7841436438 0.0113651004 -0.0403846148
815295110.0 0.0082173957 -0.0427556308 -0.1278357459 -0.7820840636 -0.1278325713 -0.7822200925 0.0101157106 -0.0405316447
820295080.0 0.0068125423 -0.0415741478 -0.1363898948 -0.7807077778 -0.1359547937 -0.7804262065 0.0095062211 -0.0402668642
825295050.0 0.007204029 -0.04205055 -0.1444366767 -0.7792343523 -0.1449212791 -0.7796485287 0.0092716624 -0.0404901127
830295020.0 0.0061653402 -0.0415322191 -0.1536126524 -0.7774741382 -0.1533224945 -0.7776003657 0.0094989268 -0.0399829989
