!Created with skrf (http://scikit-rf.org).
# Hz S RI R 50.0 
!freq ReS11 ImS11 ReS21 ImS21 ReS12 ImS12 ReS22 ImS22
300000.0 -0.3236681929 -0.0733642811 0.3770007233 0.0379957965 0.3732289461 0.0359789495 -0.3196663417 -0.0871584704
5299970.0 -0.3266192951 0.0046273548 0.3783465008 0.0021094318 0.3784546907 0.0026603395 -0.3243312351 0.0051444875
10299940.0 -0.3243316182 0.0134568379 0.3794904733 0.0019019466 0.3797418834 0.002238812 -0.3221257672 0.0161573878
15299910.0 -0.3214429981 0.0203329084 0.381648778 0.00205551 0.3821018064 0.0022679513 -0.3186412579 0.0237531407
20299880.0 -0.3189106788 0.0262322857 0.3848698126 0.0019068218 0.3849570728 0.0014766171 -0.3152753397 0.030180049
25299850.0 -0.3157537893 0.0315739353 0.3882564858 0.0001466758 0.387944223 0.0003338133 -0.3112362775 0.035712205
30299820.0 -0.3128474591 0.0361154374 0.3916499863 -0.0024512667 0.391640252 -0.0023822864 -0.3074994491 0.0407709206
35299790.0 -0.3102989604 0.039823736 0.3950169986 -0.0055680787 0.3947907993 -0.0056124938 -0.3039220456 0.0450251124
40299760.0 -0.3075064372 0.0433858498 0.3978338954 -0.0088396642 0.3980684141 -0.0087507937 -0.3005288259 0.0481129667
45299730.0 -0.3047551836 0.0463474209 0.4007850948 -0.0128005435 0.4011329177 -0.012690191 -0.29767586 0.0516370355
50299700.0 -0.3023638892 0.0492786413 0.4036062263 -0.0171791311 0.403668466 -0.0171388677 -0.294342463 0.0542605422
55299670.0 -0.3002221946 0.0523205338 0.4056435551 -0.022518521 0.4056265658 -0.021874744 -0.2918975957 0.0569024949
60299640.0 -0.2980803002 0.0548356056 0.4074923253 -0.0268239517 0.4076973992 -0.0266496384 -0.2888977147 0.0589108871
65299610.0 -0.2963698679 0.0571851837 0.4091620193 -0.0317829488 0.4092492863 -0.0316718922 -0.2870508636 0.0615298262
70299580.0 -0.2946807193 0.0599856121 0.4106001096 -0.0370008164 0.4106112791 -0.0369402801 -0.2850751821 0.063875378
75299550.0 -0.2928617238 0.0624709811 0.4112755117 -0.0422369671 0.4111872011 -0.0423196216 -0.2829514699 0.0656769775
80299520.0 -0.291385823 0.0648370842 0.4123441521 -0.047766297 0.4126955834 -0.0475126861 -0.2817685591 0.0680907074
85299490.0 -0.2903179935 0.06663916 0.4130830496 -0.0523271848 0.4129375024 -0.0523159169 -0.2798470353 0.0698008115
90299460.0 -0.2887611175 0.0692735095 0.4131882 -0.0577856828 0.4134602534 -0.0576529927 -0.2783764793 0.0721702461
95299430.0 -0.2873589272 0.0711769238 0.4138021271 -0.0629048122 0.4136426185 -0.0630510811 -0.2766218723 0.0743422365
100299400.0 -0.2866232673 0.0741669301 0.4134585847 -0.0682786052 0.4134964127 -0.0679244737 -0.2751435277 0.0760517659
105299370.0 -0.2849440595 0.0762766682 0.413187803 -0.0736740726 0.4134349423 -0.0734110268 -0.2735772475 0.0784000691
110299340.0 -0.2839541307 0.0785560158 0.4134611379 -0.0784830611 0.4132278777 -0.0785011706 -0.2728357461 0.0804212563
115299310.0 -0.2829292147 0.0809466699 0.4132414853 -0.0837064748 0.4129142081 -0.0834529351 -0.2715994287 0.0827410177
120299280.0 -0.2821888176 0.0829962672 0.4125997153 -0.0890586993 0.4125391635 -0.0887361895 -0.2704722374 0.0845695915
125299250.0 -0.2810725634 0.0852474452 0.4117501203 -0.0936725504 0.4119755103 -0.093829653 -0.2696341525 0.0864380192
130299220.0 -0.2804994365 0.0883226897 0.4115151561 -0.0993182333 0.4112024884 -0.0990302928 -0.2682949926 0.089134175
135299190.0 -0.2794312026 0.0908183724 0.4108376917 -0.1042575725 0.4104470683 -0.1039804527 -0.2673972171 0.0912722718
140299160.0 -0.2785779956 0.0932322979 0.4099097053 -0.1090367715 0.4099421224 -0.1090590026 -0.2667065225 0.0938644635
145299130.0 -0.2773773176 0.0958369886 0.4090284798 -0.1138895952 0.4091020799 -0.1138774623 -0.2657191399 0.0959682403
150299100.0 -0.2765995596 0.0982290211 0.4078500687 -0.1185125798 0.4081331141 -0.1187146949 -0.2648600368 0.0988504807
155299070.0 -0.2755797963 0.1007726684 0.4067427606 -0.1242342908 0.406553104 -0.1236834806 -0.2637198078 0.100944075
160299040.0 -0.2747494055 0.1034293146 0.4052953902 -0.1286936013 0.405404244 -0.1287956317 -0.2630589141 0.1034145323
165299010.0 -0.2738927251 0.105995837 0.404038554 -0.1338593533 0.4048234847 -0.1335428354 -0.2621159048 0.1058027093
170298980.0 -0.2730626208 0.1085893423 0.4029957752 -0.1385452049 0.4032028924 -0.1384050157 -0.2607440066 0.1081206804
175298950.0 -0.2718578665 0.1112949287 0.401793608 -0.1430987724 0.4015601489 -0.1433019453 -0.2599568682 0.1107111879
180298920.0 -0.2713008304 0.1140531177 0.4000711134 -0.1478093632 0.4002885437 -0.14741772 -0.2589102277 0.1130612752
185298890.0 -0.2695709709 0.1164045774 0.3985479642 -0.152528536 0.3984029677 -0.1525627962 -0.2575474354 0.1158901676
190298860.0 -0.2687184426 0.1194960451 0.3972022279 -0.1571854432 0.3972254129 -0.1571918383 -0.2569440515 0.1185407542
195298830.0 -0.2680481735 0.1214999577 0.3953300965 -0.1617585987 0.3955496877 -0.1620398723 -0.2554820859 0.1209112216
200298800.0 -0.2664081462 0.1246248294 0.3933736562 -0.1665748644 0.39384352 -0.1663747532 -0.2549331544 0.1232532466
205298770.0 -0.2656470067 0.1272574315 0.3917026216 -0.171304208 0.3918995578 -0.1709107608 -0.2533798022 0.1253355789
210298740.0 -0.2643208834 0.1297990197 0.3897429509 -0.1751689291 0.3898167868 -0.1753432466 -0.252358261 0.1283937108
215298710.0 -0.2637332139 0.1328385645 0.3883699937 -0.1802421544 0.3882128285 -0.1802064198 -0.2514461742 0.1307038538
220298680.0 -0.2622947388 0.1350371115 0.3857524083 -0.1842704462 0.3857748642 -0.1846298147 -0.2501494592 0.1329677252
225298650.0 -0.2610717142 0.1377083728 0.3840864975 -0.1889791055 0.3843417145 -0.188927284 -0.2491657781 0.1355696804
230298620.0 -0.2596509458 0.1407240484 0.3821312084 -0.1932651554 0.3826836259 -0.1935397814 -0.2481327779 0.1382851909
235298590.0 -0.2583530019 0.1435529084 0.3801081696 -0.1977382687 0.3800509391 -0.1974144826 -0.2464481356 0.1408757927
240298560.0 -0.2572697837 0.1462184349 0.3781888526 -0.2024318687 0.3778659714 -0.202202427 -0.2455714939 0.1435819415
245298530.0 -0.2558354367 0.1491698628 0.3757915889 -0.2064603139 0.3757957648 -0.2064656694 -0.2437091379 0.1456900271
250298500.0 -0.2544959872 0.1517754738 0.3728391868 -0.2110009653 0.372906113 -0.2105720543 -0.2425262247 0.1484757493
255298470.0 -0.2530895099 0.15376282 0.3705579452 -0.2144032067 0.3706987632 -0.2148648423 -0.2411092139 0.1511707434
260298440.0 -0.2516789503 0.15686615 0.368608098 -0.2194093085 0.3686021198 -0.21910648 -0.2394842127 0.1535686938
265298410.0 -0.2499311092 0.1598648276 0.3660465755 -0.2232124139 0.3665437903 -0.2232172503 -0.2381891444 0.1563113227
270298380.0 -0.2488001966 0.1624075083 0.3638325799 -0.2274475452 0.3641228995 -0.2273869321 -0.2366104792 0.1588182372
275298350.0 -0.24713679 0.1653034492 0.3612785341 -0.2314577155 0.3615438218 -0.2315773298 -0.2351827447 0.1611117357
280298320.0 -0.2451205916 0.167551424 0.3586779326 -0.2356046994 0.3588037922 -0.2355032353 -0.2334303312 0.1638704344
285298290.0 -0.2435865802 0.1704995555 0.3563292927 -0.2396286814 0.3559509119 -0.2397352676 -0.2318382298 0.1663455639
290298260.0 -0.2416980777 0.1730787261 0.3534060395 -0.2434118032 0.3533469662 -0.2434307605 -0.2302666201 0.1693120911
295298230.0 -0.2400767947 0.1755767452 0.3507491539 -0.2475266813 0.3505105629 -0.2476055863 -0.2283662515 0.1712531827
300298200.0 -0.2388656911 0.1784717447 0.3481906995 -0.2518053145 0.3484192228 -0.2518743785 -0.2270580658 0.1737641847
305298170.0 -0.2366037957 0.1805253045 0.3448018772 -0.2559131169 0.3452078747 -0.2555054464 -0.2246735377 0.1761091654
310298140.0 -0.23513202 0.1834261077 0.3423679441 -0.2595606192 0.342608433 -0.2594437237 -0.223315074 0.1784080563
315298110.0 -0.233322207 0.1859010276 0.3395966281 -0.2634204418 0.339855598 -0.2636750088 -0.2217580434 0.1809926297
320298080.0 -0.2313271339 0.1881737676 0.3365557635 -0.2673327482 0.3366556217 -0.2675766109 -0.2200545308 0.1833867634
325298050.0 -0.2295626548 0.1907095741 0.3339700442 -0.2713472383 0.3336898304 -0.2713358645 -0.2183737365 0.1856343812
330298020.0 -0.227677381 0.1931149307 0.3301151501 -0.2750406952 0.3306424702 -0.2751275046 -0.2164005679 0.188246394
335297990.0 -0.2257236094 0.1956243552 0.3272997405 -0.2782048683 0.3273463517 -0.2786086149 -0.2152253775 0.1908378683
340297960.0 -0.2242596107 0.1983416793 0.3242604357 -0.2823668909 0.3238273958 -0.2823449473 -0.2127417945 0.1931299216
345297930.0 -0.2222692983 0.2008928903 0.3211721532 -0.286025957 0.3207190139 -0.2860077466 -0.2111163328 0.1953441771
350297900.0 -0.2203864942 0.2031031954 0.3174510638 -0.289195227 0.317533338 -0.2893922496 -0.2092512507 0.1981904699
355297870.0 -0.218187023 0.205988675 0.3146656414 -0.2931644307 0.3143820676 -0.2927520389 -0.2077531157 0.2002017963
360297840.0 -0.2160736603 0.2084258924 0.3115340539 -0.2961325302 0.3116388555 -0.2961154438 -0.2056003998 0.2026460186
365297810.0 -0.2144960392 0.2108990083 0.3080008587 -0.2997965324 0.3077932164 -0.2998643659 -0.203105344 0.204658105
370297780.0 -0.2117554479 0.2130604681 0.3042421628 -0.3027217929 0.3047492583 -0.302760112 -0.2014240064 0.2073131616
375297750.0 -0.2094720635 0.2156194597 0.3007373713 -0.3064957524 0.3013806634 -0.3064076279 -0.1990807809 0.2092221964
380297720.0 -0.2075148111 0.2177506172 0.297435898 -0.309573228 0.2975790791 -0.3090229061 -0.1975074895 0.211452311
385297690.0 -0.205731456 0.2199990182 0.2940520008 -0.3124321082 0.2941278088 -0.3130042152 -0.1947998957 0.2136969341
390297660.0 -0.2034159156 0.2225672741 0.2905466589 -0.3159648239 0.2907554673 -0.3159121315 -0.1930872405 0.2163869866
395297630.0 -0.2006903373 0.2248794239 0.2871726816 -0.3190906518 0.2875773999 -0.3191913572 -0.190203043 0.2182668577
400297600.0 -0.1985166856 0.2271478942 0.2835681872 -0.3226326783 0.2839470013 -0.3224065886 -0.1881216493 0.2205554849
405297570.0 -0.1964134149 0.2294360948 0.2800473742 -0.3251681524 0.2801920354 -0.3253189518 -0.1861952449 0.2226052751
410297540.0 -0.1937936072 0.2316842591 0.2769103752 -0.3287213351 0.2769084161 -0.3286512799 -0.1836116471 0.2250551375
415297510.0 -0.1913764645 0.2337003329 0.2728497482 -0.3314475022 0.2732001227 -0.331609675 -0.1815201494 0.2267062226
420297480.0 -0.1894083842 0.2363344362 0.2691428689 -0.3346586844 0.2693491136 -0.3346524463 -0.1793076353 0.2291039873
425297450.0 -0.1865699082 0.2380187219 0.265603406 -0.3374785251 0.2660313527 -0.3376556352 -0.1768187764 0.2314779705
430297420.0 -0.1843365154 0.2400704579 0.261782101 -0.3397470733 0.2619046691 -0.3400176798 -0.1744676004 0.2329852126
435297390.0 -0.1820903787 0.2424628402 0.2579596707 -0.343220651 0.2576894105 -0.3430790295 -0.171787209 0.2350493327
440297360.0 -0.1793791632 0.2446356721 0.2541137654 -0.3457265065 0.2544576067 -0.3461361675 -0.1698586619 0.2370495178
445297330.0 -0.1768112689 0.2462590516 0.2504575775 -0.3485468935 0.2506818461 -0.3484744886 -0.1671523209 0.2389143109
450297300.0 -0.1741901106 0.2487077363 0.2467718429 -0.3512327425 0.2467691917 -0.3514953812 -0.1647839481 0.2407791166
455297270.0 -0.1718272546 0.2504321906 0.2423939476 -0.3540996707 0.242937901 -0.3539631542 -0.1621427284 0.2427983429
460297240.0 -0.1691799195 0.2522604141 0.2385187039 -0.3562212172 0.2388502515 -0.3564191419 -0.1595874814 0.2446503135
465297210.0 -0.166379459 0.2543488 0.2348263273 -0.3592820088 0.2350144677 -0.3592706707 -0.1569610241 0.2462956795
470297180.0 -0.1636014779 0.2560599966 0.2306511657 -0.3616046397 0.2309361249 -0.3618523661 -0.1541874551 0.2487402922
475297150.0 -0.1611284332 0.2579550365 0.2264853332 -0.3638489427 0.227080062 -0.3641989545 -0.1515803407 0.2498511685
480297120.0 -0.1583760948 0.2601715205 0.2229293591 -0.3666178096 0.2227783433 -0.3666523827 -0.1490213254 0.2518668498
485297090.0 -0.1556129147 0.2617797793 0.2188981007 -0.3687683045 0.2188157894 -0.3687818114 -0.14670788 0.2535286732
490297060.0 -0.1532349979 0.2638590664 0.2149986174 -0.371492661 0.2148836408 -0.3712857369 -0.1439194544 0.2555622153
495297030.0 -0.150399744 0.2656104266 0.2106463516 -0.3736329283 0.2114571262 -0.3739070573 -0.1417709367 0.25740337
500297000.0 -0.1472781055 0.2671296992 0.2063146831 -0.3754364749 0.2062851518 -0.3756509234 -0.1384688906 0.2593204204
505296970.0 -0.1443796038 0.2689174403 0.2021609414 -0.3777390336 0.2024165606 -0.3781185884 -0.1359105792 0.2604492252
510296940.0 -0.1421073544 0.2705109088 0.1979464202 -0.3801673104 0.1983532609 -0.380254434 -0.1332722109 0.2621815762
515296910.0 -0.1389390145 0.2722035388 0.1940925401 -0.3825526258 0.1939598514 -0.3822185207 -0.1303121462 0.2635148237
520296880.0 -0.1362648709 0.2741216541 0.1901456293 -0.3848185833 0.18995792 -0.3845000114 -0.1280556521 0.2647482039
525296850.0 -0.133216052 0.2751756296 0.1851049481 -0.3865557763 0.1858931388 -0.3864688922 -0.1250987034 0.2665657483
530296820.0 -0.1304349904 0.2768319408 0.181334495 -0.3886040708 0.1814034207 -0.3886825325 -0.1223614869 0.2682174647
535296790.0 -0.1278247935 0.2781138508 0.1771847285 -0.3898840104 0.1773941806 -0.3899707179 -0.1193039725 0.2695005008
540296760.0 -0.1248737722 0.2801188232 0.173176857 -0.3922520977 0.1727590284 -0.3918870843 -0.1168552858 0.270788
545296730.0 -0.1221429194 0.2811297128 0.1684408466 -0.393737153 0.1684034498 -0.3943234738 -0.1138387119 0.2720749365
550296700.0 -0.1189034413 0.2827753356 0.1643543303 -0.3957367804 0.1641651384 -0.3961842255 -0.1111287718 0.2738786947
555296670.0 -0.1158038893 0.2841830013 0.1599199113 -0.3971478243 0.1604198487 -0.397332727 -0.1081219412 0.2752856358
560296640.0 -0.1126950019 0.2853753927 0.1557278088 -0.3993077068 0.1557630337 -0.3992143264 -0.1051232978 0.2760282541
565296610.0 -0.109930277 0.2868541927 0.1512371081 -0.4006490055 0.1513376776 -0.4007197636 -0.1024261276 0.2774810267
570296580.0 -0.1071001023 0.2878751565 0.1467093001 -0.4028170719 0.146687756 -0.4027046227 -0.0996988083 0.2790760504
575296550.0 -0.1042502318 0.289731605 0.1426943771 -0.4044341399 0.1422855401 -0.4038425117 -0.0964754771 0.2800343674
580296520.0 -0.1008376424 0.29076102 0.1378180251 -0.4057757009 0.1380987569 -0.4057327731 -0.0933540639 0.2810719034
585296490.0 -0.0981203745 0.291603024 0.1337247694 -0.4065371804 0.1339758066 -0.4071861811 -0.0905788838 0.2825086514
590296460.0 -0.0948493755 0.2927943547 0.1294169828 -0.4076661575 0.1294096869 -0.4083641031 -0.0880489367 0.2836038535
595296430.0 -0.0917145457 0.2941100553 0.1240925572 -0.4097863605 0.1243205591 -0.4095645036 -0.084518318 0.2843501453
600296400.0 -0.0886789155 0.2953932699 0.1201290263 -0.4109084069 0.1202920997 -0.4107177176 -0.0818259571 0.2852333062
605296370.0 -0.0858300039 0.2965075965 0.1155934751 -0.4119106194 0.115699282 -0.4119993553 -0.0786255093 0.2864275386
610296340.0 -0.0825523358 0.2976226736 0.1108356996 -0.4133635217 0.1113278497 -0.4132488434 -0.0753759856 0.2871046491
615296310.0 -0.07908584 0.2981966121 0.1065529991 -0.4140681909 0.1066206314 -0.4148131259 -0.0723780513 0.288149364
620296280.0 -0.0760771482 0.2989226973 0.1020033804 -0.4155383459 0.1022961353 -0.4154625103 -0.0696675238 0.2893347318
625296250.0 -0.0732522912 0.2998632849 0.0980494535 -0.4165732244 0.0976369241 -0.4171041178 -0.0660765216 0.289986632
630296220.0 -0.0696341204 0.3012689518 0.0925236806 -0.4178869737 0.0930295938 -0.4176986935 -0.0633764596 0.2912714708
635296190.0 -0.0671731952 0.301630942 0.08884545 -0.4183359098 0.088700123 -0.4184833363 -0.0600546579 0.2920219747
640296160.0 -0.0640114886 0.3028371125 0.0845047693 -0.4194160181 0.0841947857 -0.4200112844 -0.0572755495 0.2926512559
645296130.0 -0.0605951252 0.3038119331 0.0793637465 -0.4198914426 0.0796222729 -0.4203765565 -0.0540356195 0.2937622649
650296100.0 -0.057193957 0.3042201096 0.0748396579 -0.420974594 0.0746835081 -0.4208752109 -0.051109386 0.2937967005
655296070.0 -0.054176705 0.3052020224 0.0702085748 -0.421881357 0.0707295061 -0.4218180124 -0.0477290176 0.2947284556
660296040.0 -0.0513921298 0.3054285847 0.066165912 -0.42259566 0.0657469946 -0.422751963 -0.0445633917 0.2955178306
665296010.0 -0.0476693527 0.3058324459 0.0609986809 -0.423244278 0.0612222242 -0.4232938884 -0.0414868358 0.2965046063
670295980.0 -0.0450884329 0.3070159335 0.0564445974 -0.4234376606 0.0568463816 -0.4234953949 -0.0390436503 0.2966143611
675295950.0 -0.0414968317 0.3075035639 0.0520866774 -0.4239728056 0.0522187038 -0.4238943403 -0.0357566618 0.2975245206
680295920.0 -0.0382854789 0.3080713357 0.0472699422 -0.4243932209 0.0471215402 -0.4249851725 -0.0323390574 0.2985084228
685295890.0 -0.0349534015 0.3090978099 0.0424202206 -0.4250950344 0.0425809701 -0.425562508 -0.0293056104 0.2986257285
690295860.0 -0.0317630414 0.3091101067 0.0380502536 -0.4250065002 0.0381624951 -0.4257586867 -0.0262885992 0.2993198286
695295830.0 -0.0287867206 0.309806724 0.0339369088 -0.4258610786 0.0334143645 -0.426014664 -0.0230609048 0.299485323
700295800.0 -0.0252479405 0.3100207487 0.0287632199 -0.4261157171 0.0287588372 -0.4261523418 -0.0201440359 0.3001986995
705295770.0 -0.0220014629 0.3105967144 0.0242002989 -0.4264666531 0.0241838432 -0.4266922597 -0.0167150824 0.3006284516
710295740.0 -0.0187222404 0.3111060489 0.019566233 -0.4271865642 0.019885625 -0.4269930561 -0.0137499129 0.2999501574
715295710.0 -0.0161381017 0.3111375043 0.015542459 -0.4269117971 0.0149863724 -0.426633741 -0.0103803162 0.3005984532
720295680.0 -0.0124388168 0.3116117011 0.0107051379 -0.4271705512 0.0107715543 -0.4270574616 -0.0075930169 0.3015944618
725295650.0 -0.0088134033 0.3116737065 0.0057899841 -0.4271136499 0.0059105 -0.4274294353 -0.0044274938 0.3013369331
730295620.0 -0.0056680644 0.3120998464 0.0010818552 -0.4266324685 0.001368274 -0.4268723703 -0.0012854941 0.3014749732
735295590.0 -0.0025985353 0.3123673322 -0.0033063882 -0.4270420919 -0.0036018719 -0.4270710152 0.0015787265 0.3014561697
740295560.0 0.0003569376 0.312704265 -0.0077032641 -0.42664822 -0.0077955877 -0.4269836824 0.0056843438 0.3014637432
745295530.0 0.0033153486 0.3127642022 -0.0124552153 -0.426522511 -0.0127971442 -0.4265891837 0.0087076387 0.3016300106
750295500.0 0.0073489209 0.3125467 -0.0170853234 -0.4261591531 -0.0169310259 -0.4267181241 0.011547406 0.3018815887
755295470.0 0.0106351977 0.3125532493 -0.0217240194 -0.4263406523 -0.0220197769 -0.4262968246 0.0151808077 0.3013213806
760295440.0 0.013620102 0.3126371608 -0.0261388439 -0.4261366348 -0.0266045225 -0.4262520254 0.0180937909 0.3015996719
765295410.0 0.0170598476 0.3126510512 -0.0309816661 -0.4254632382 -0.0314557829 -0.4257170309 0.0213703961 0.3016961179
770295380.0 0.0198909404 0.3122509582 -0.0357253488 -0.4252970769 -0.0354999907 -0.4251669704 0.0240545535 0.3013225378
775295350.0 0.0231061169 0.3125319682 -0.0404769071 -0.4244846989 -0.0399729919 -0.424665324 0.026997736 0.301247675
780295320.0 0.026395271 0.3122184364 -0.0449023552 -0.4242927059 -0.044495632 -0.4241409972 0.0301510273 0.3012163275
785295290.0 0.0295893637 0.3117312496 -0.0497452219 -0.4233834294 -0.0495480605 -0.4236955199 0.0338946724 0.301236495
790295260.0 0.0335945772 0.3121667101 -0.0537742453 -0.4230649533 -0.0536338692 -0.4229524588 0.037243043 0.3010080512
795295230.0 0.0363863761 0.3116959647 -0.0587290968 -0.4219062271 -0.0581836418 -0.4227761991 0.0404218303 0.3006780354
800295200.0 0.0394225299 0.3114960478 -0.0633841086 -0.4215020479 -0.0631587772 -0.4214124116 0.0435333251 0.3006521464
805295170.0 0.0429969478 0.3107884384 -0.0676133749 -0.420764713 -0.0677150137 -0.421004808 0.0466829174 0.3003582453
810295140.0 0.0460667367 0.3105682495 -0.0720923847 -0.4201247686 -0.0719730749 -0.4205335392 0.0502488571 0.3000647988
815295110.0 0.0494401999 0.3099972408 -0.0767812687 -0.4190433915 -0.0762388796 -0.4195198209 0.0529207686 0.2996229047
820295080.0 0.0527062392 0.3102210924 -0.0810545986 -0.4181817465 -0.080638044 -0.41850516 0.0561856087 0.2991471608
825295050.0 0.0560445797 0.3094503226 -0.0855142425 -0.4169374982 -0.0855419983 -0.4175714428 0.0597370856 0.2986534375
830295020.0 0.05907266 0.3091856969 -0.0904596196 -0.4164267746 -0.0903008074 -0.4167124543 0.0633396621 0.2983004976
