!Created with skrf (http://scikit-rf.org).
# Hz S RI R 50.0 
!freq ReS11 ImS11 ReS21 ImS21 ReS12 ImS12 ReS22 ImS22
300000.0 -0.2410362504 -0.0964553758 0.4675994396 0.063595593 0.469099568 0.0682367896 -0.2355125421 -0.108638278
5299970.0 -0.2440379364 0.0074003244 0.4741999229 0.0052600548 0.4737646004 0.0058364082 -0.2443027865 0.0059760432
10299940.0 -0.2403415364 0.0197244334 0.4758872655 0.0060813338 0.4757588712 0.0065906784 -0.2411850595 0.0183296687
15299910.0 -0.2361148036 0.0295708889 0.4791502923 0.0076930319 0.4794136628 0.0080374937 -0.2366380912 0.0276029514
20299880.0 -0.2305010046 0.0372777836 0.4839016178 0.0082808533 0.48451481 0.0084594148 -0.2321654261 0.035433097
25299850.0 -0.2247467645 0.0437614461 0.4894789278 0.0070420474 0.4896554888 0.0075069161 -0.2269794216 0.0414818984
30299820.0 -0.2187410509 0.0484618309 0.4950175081 0.0057149991 0.494842742 0.0055387601 -0.2217506357 0.0467314478
35299790.0 -0.2133065165 0.0526561074 0.5004611722 0.0021975466 0.500337906 0.0022391375 -0.21626946 0.051175592
40299760.0 -0.207777267 0.055586144 0.5054250749 -0.0014456853 0.5054836943 -0.0017905876 -0.2114944925 0.0544087803
45299730.0 -0.2025669953 0.0585245834 0.5102305163 -0.0064204206 0.5104890956 -0.00644492 -0.2069515546 0.0573589751
50299700.0 -0.197594372 0.0602773948 0.5144540393 -0.0121701424 0.51430781 -0.0121421243 -0.2020302212 0.0596136224
55299670.0 -0.1935428219 0.0617801295 0.5178120734 -0.0179463555 0.5181124269 -0.0179963868 -0.1985187774 0.0612682516
60299640.0 -0.1896003574 0.0625445722 0.5212390086 -0.0245226291 0.5213810219 -0.024251851 -0.1944941308 0.0633005751
65299610.0 -0.1859130098 0.0638375249 0.5241042054 -0.0302787967 0.5245064937 -0.0304049298 -0.1912242538 0.0643061402
70299580.0 -0.1823791659 0.0644507359 0.5264777644 -0.0373579877 0.5267837044 -0.0373080359 -0.1880325582 0.06544627
75299550.0 -0.1796118479 0.0651798978 0.5287450889 -0.0439871403 0.5288190883 -0.0440148384 -0.1852010559 0.0667575255
80299520.0 -0.1770356531 0.0654933258 0.5307960777 -0.05094771 0.5309529748 -0.0509037557 -0.1827016331 0.0673149856
85299490.0 -0.1746709284 0.0661095564 0.5323556825 -0.0577328337 0.5320046126 -0.0575913812 -0.1806237541 0.0681666048
90299460.0 -0.1725797704 0.0666047927 0.5330143662 -0.0643690604 0.5332643281 -0.0649236303 -0.1774902003 0.0693104279
95299430.0 -0.1706350255 0.0673426114 0.5343377857 -0.0720645761 0.5342659622 -0.0718447456 -0.1759238252 0.0702784439
100299400.0 -0.1685755967 0.0678261504 0.5342968666 -0.0785360702 0.5345988837 -0.0787951009 -0.174251746 0.0708027523
105299370.0 -0.1668577851 0.06795738 0.534774465 -0.0850450231 0.5348068066 -0.0858490082 -0.1721367412 0.0718217546
110299340.0 -0.1655661725 0.068368021 0.5348354713 -0.0918820758 0.5347887949 -0.0926944915 -0.1705883356 0.0722684729
115299310.0 -0.1639368513 0.0688453598 0.5345381173 -0.0990462218 0.5350436924 -0.0990450792 -0.1691392963 0.0732546291
120299280.0 -0.1629937283 0.0693686514 0.5350228549 -0.1056263708 0.5344520301 -0.1059770185 -0.1678134143 0.0739831536
125299250.0 -0.1618620577 0.0698754194 0.5340998307 -0.1124022797 0.5345050394 -0.1126718304 -0.166324941 0.0747800101
130299220.0 -0.1605273493 0.0706301653 0.5336134451 -0.1188277011 0.5335264931 -0.1195266435 -0.165051237 0.0756522614
135299190.0 -0.1593198724 0.0712812692 0.5331631864 -0.1258916664 0.5325210987 -0.1260165256 -0.1641795668 0.076732238
140299160.0 -0.1587543057 0.0722199488 0.5322150815 -0.1326235184 0.5324210046 -0.1327726312 -0.1630461519 0.0780370611
145299130.0 -0.1575293037 0.072789942 0.5315216774 -0.1390809196 0.5310529664 -0.1390143353 -0.1619215062 0.0788839768
150299100.0 -0.1566220391 0.0735077642 0.5304703105 -0.1458598505 0.5300988289 -0.1456750114 -0.1607991638 0.0797681645
155299070.0 -0.1559472471 0.0745016904 0.5291379431 -0.1527352646 0.5295243022 -0.1529204157 -0.160253638 0.0810595172
160299040.0 -0.1550148673 0.0755000075 0.5274577026 -0.1584923057 0.5277162679 -0.1586714224 -0.1587633178 0.082446907
165299010.0 -0.1542340529 0.0763149565 0.5266493395 -0.1652442755 0.5262482826 -0.165495805 -0.1579868402 0.0834943669
170298980.0 -0.1537762497 0.0770476404 0.5241866348 -0.171491459 0.5243815479 -0.17162977 -0.1566775726 0.0843949933
175298950.0 -0.1525313961 0.0780782255 0.5233790735 -0.1774857309 0.5236433974 -0.1778692085 -0.1558447096 0.0856765438
180298920.0 -0.1518266341 0.0790498098 0.5214935733 -0.1843561382 0.5214524219 -0.1839521511 -0.1549515589 0.0870355813
185298890.0 -0.1509477369 0.0802011914 0.5190741643 -0.1905934902 0.5197096297 -0.1904921191 -0.1541990318 0.0879660492
190298860.0 -0.1505107465 0.0812088045 0.5176865489 -0.1964256592 0.5177736128 -0.1966926546 -0.152473794 0.0895864896
195298830.0 -0.1496634293 0.0821056103 0.515584972 -0.2027483984 0.5156288716 -0.2027429122 -0.1516142785 0.090636177
200298800.0 -0.1488147501 0.0835206902 0.5139786839 -0.2084901189 0.5135422676 -0.2087285517 -0.150525686 0.0922177701
205298770.0 -0.1480714932 0.0844742044 0.5113761331 -0.2148252005 0.5113854459 -0.2148384656 -0.1500011116 0.093272565
210298740.0 -0.1475608811 0.0857665664 0.5093059169 -0.221212368 0.5093540705 -0.2211964346 -0.1489785258 0.094808203
215298710.0 -0.1464591448 0.0869488403 0.5070329992 -0.2267021785 0.5072265444 -0.2266345307 -0.1486523114 0.0962362884
220298680.0 -0.1459069073 0.0879227166 0.5039720787 -0.2324031987 0.5044748049 -0.2326237022 -0.1470706076 0.0976840971
225298650.0 -0.1448747766 0.0895131878 0.5017490342 -0.2381336361 0.5015587948 -0.2385496523 -0.1463876153 0.0992317519
230298620.0 -0.1445914317 0.0907654677 0.4996903205 -0.2447075256 0.4999990367 -0.2442138835 -0.145167508 0.1002103814
235298590.0 -0.1438704976 0.0917649389 0.4969238307 -0.2499623024 0.4972820302 -0.2507747555 -0.1440010348 0.1016163738
240298560.0 -0.1431132311 0.0929279033 0.4940617181 -0.2554601309 0.4943443125 -0.2556681643 -0.1432157305 0.1035436473
245298530.0 -0.1417704165 0.0941755415 0.4909370664 -0.2614339585 0.491174065 -0.2616280496 -0.1419248265 0.1048122457
250298500.0 -0.1416258427 0.0953477411 0.4885679624 -0.2667704773 0.4884880474 -0.2663290669 -0.140655754 0.1061037177
255298470.0 -0.1407110593 0.0964968098 0.4852787952 -0.2730559332 0.4858428839 -0.2725086835 -0.1395693284 0.1073989715
260298440.0 -0.1398268102 0.0977245114 0.4827363857 -0.2779514707 0.4827270582 -0.2784373292 -0.1379997194 0.1090885933
265298410.0 -0.1385358275 0.0993512273 0.4795058071 -0.2840094745 0.4792294704 -0.2841378193 -0.137614518 0.1102375496
270298380.0 -0.1380077163 0.1006325327 0.4764650045 -0.2890438577 0.4763257175 -0.2895703576 -0.1360552852 0.1121629065
275298350.0 -0.1369621242 0.101944854 0.4733167634 -0.2950174152 0.4735924054 -0.2949204514 -0.1349169261 0.1133795348
280298320.0 -0.1362057675 0.1035193583 0.4700854021 -0.2997389315 0.4702917435 -0.3003704766 -0.1335797574 0.1151817081
285298290.0 -0.1352159993 0.1047016871 0.466877228 -0.305293222 0.4667601913 -0.3054504945 -0.132418834 0.1162676247
290298260.0 -0.134138588 0.1060040519 0.4637030564 -0.3107705999 0.4635948538 -0.3107179238 -0.1311013361 0.1179263248
295298230.0 -0.1333052517 0.1071450424 0.4605514261 -0.316025084 0.4600250592 -0.3157349263 -0.1295001676 0.119549228
300298200.0 -0.1320896432 0.1084939321 0.456613452 -0.3214256142 0.4569167075 -0.3213855144 -0.1288409551 0.1209720219
305298170.0 -0.1310362622 0.1096248691 0.453500336 -0.326782768 0.4535976464 -0.3264795123 -0.1267701466 0.1224543183
310298140.0 -0.1299820349 0.110475173 0.4503835877 -0.3317163679 0.4500670046 -0.3322967264 -0.1255013191 0.1241967146
315298110.0 -0.1293353533 0.1120883418 0.4460785566 -0.3370021175 0.4462516166 -0.3369371991 -0.1241205143 0.1249029093
320298080.0 -0.1281646003 0.1132360742 0.4427047562 -0.3425307248 0.4425263259 -0.342115885 -0.1228571172 0.1260990168
325298050.0 -0.1274102452 0.1140239816 0.4390207912 -0.3471179644 0.4388670946 -0.3472674942 -0.1216119081 0.1276150864
330298020.0 -0.1261764141 0.1155089022 0.4341614234 -0.3523719005 0.4343610459 -0.352681452 -0.1204489996 0.1288064436
335297990.0 -0.1254672316 0.1165777402 0.4305736341 -0.3570171219 0.4306672975 -0.3569261103 -0.1191475473 0.1303055681
340297960.0 -0.125054859 0.1181235472 0.4263152168 -0.3616424037 0.4265420094 -0.3614900817 -0.1179982365 0.1316966152
345297930.0 -0.123961567 0.1195058665 0.4221893699 -0.3660796634 0.4218748757 -0.3663006898 -0.1161755466 0.1331083827
350297900.0 -0.1224744169 0.1207936954 0.4177968939 -0.370830998 0.4183108869 -0.3710638257 -0.1151610595 0.1347836936
355297870.0 -0.121540822 0.1219808356 0.4136468816 -0.3755814528 0.4137149761 -0.3758441668 -0.1136121835 0.136295026
360297840.0 -0.1201435424 0.123416266 0.4095184889 -0.3805001724 0.4099107905 -0.380610352 -0.1122849197 0.1378695847
365297810.0 -0.1191749392 0.1245632623 0.4053542985 -0.3844261478 0.4055729861 -0.3849840472 -0.1109367987 0.1394303201
370297780.0 -0.1178842953 0.1258779646 0.4010773989 -0.3892523178 0.4014789786 -0.3893810712 -0.1093806271 0.140739516
375297750.0 -0.1168751222 0.1275173793 0.3975065693 -0.3935734768 0.3969599381 -0.3940373552 -0.1075487228 0.1426655197
380297720.0 -0.115563238 0.1282845079 0.392577781 -0.3978360163 0.3925491058 -0.3973863084 -0.1063023818 0.1437964828
385297690.0 -0.1140604687 0.1297549005 0.387722217 -0.4014991653 0.3882038021 -0.4022333067 -0.1050903245 0.1450304428
390297660.0 -0.1131487413 0.131096512 0.3836411049 -0.4068757757 0.3837590004 -0.4067526251 -0.102929422 0.1462561663
395297630.0 -0.1118031087 0.1322049469 0.3794302128 -0.4103696666 0.3792906513 -0.4104273071 -0.101328469 0.1479113023
400297600.0 -0.1108585796 0.1335661674 0.3744570449 -0.4148396072 0.3749143026 -0.4150541717 -0.0999810794 0.1490579017
405297570.0 -0.1091318904 0.1349633236 0.3703684515 -0.4190519767 0.3704324393 -0.419019212 -0.098446337 0.1506510269
410297540.0 -0.1078506598 0.1358693625 0.3650186837 -0.4226389975 0.3652343749 -0.4227298278 -0.096754221 0.1517563172
415297510.0 -0.1066145951 0.1374550258 0.3613302708 -0.4265824949 0.3610958001 -0.4267030502 -0.0954775119 0.1534276888
420297480.0 -0.10537866 0.1380259961 0.3560333255 -0.4306834322 0.3562660211 -0.4307581728 -0.0935047389 0.1542544142
425297450.0 -0.1036405597 0.1389258906 0.3514791986 -0.434670691 0.3516032728 -0.4348030356 -0.0916564476 0.1558623799
430297420.0 -0.1026564646 0.140417969 0.3466928725 -0.4388652904 0.3465019853 -0.4388697162 -0.0904158498 0.1566476945
435297390.0 -0.1012332579 0.1416090122 0.3419690483 -0.4418090949 0.3419438603 -0.4422287835 -0.0885781035 0.1582602435
440297360.0 -0.099782984 0.1424869675 0.3364904482 -0.4459812687 0.3366374047 -0.4459828358 -0.0867107701 0.1588596862
445297330.0 -0.0981033056 0.1436479095 0.3316467274 -0.4501129286 0.3321329458 -0.4494355453 -0.0851299368 0.1601138679
450297300.0 -0.0968495345 0.144770106 0.3267673398 -0.4530367421 0.3271991499 -0.4532543698 -0.0836522366 0.1619012487
455297270.0 -0.0955002347 0.145644105 0.3221103129 -0.4568019658 0.3223399505 -0.4563777758 -0.0813482844 0.1625041179
460297240.0 -0.0945854313 0.1468016626 0.3168064995 -0.459964621 0.3166363975 -0.4603885627 -0.0796939309 0.1642403107
465297210.0 -0.0927299489 0.1477299471 0.3121359712 -0.4634927872 0.3119985334 -0.4639172382 -0.0783691617 0.1650378728
470297180.0 -0.0916644349 0.1487340942 0.3071313147 -0.4667729454 0.3072984917 -0.4668237389 -0.0770000058 0.1660270535
475297150.0 -0.0901319701 0.1497902463 0.3017742003 -0.4699625503 0.3019884196 -0.4698578288 -0.0744487595 0.1670578451
480297120.0 -0.0882063709 0.1505601519 0.2964130989 -0.4732769209 0.2966912293 -0.4735293498 -0.0728503788 0.1684612881
485297090.0 -0.0866588123 0.1514955476 0.2915763221 -0.4766799531 0.2917993625 -0.4763845463 -0.0713496701 0.1691114284
490297060.0 -0.0854827094 0.152486 0.2864869916 -0.4799723702 0.2866198258 -0.4799660672 -0.0693424277 0.1702281036
495297030.0 -0.0841465302 0.1537417455 0.2807343939 -0.4829770377 0.2809288351 -0.4828104662 -0.0672899063 0.1708004866
500297000.0 -0.0823507665 0.1543110652 0.2753365319 -0.4855927296 0.2759647712 -0.4857393023 -0.0659381997 0.1719081333
505296970.0 -0.0813067613 0.1551023697 0.2698944618 -0.4883939462 0.2702996492 -0.4883176906 -0.0644643562 0.1730614066
510296940.0 -0.079664516 0.1565555024 0.2654318124 -0.4920092986 0.2651937417 -0.4916069265 -0.0617925156 0.1739977375
515296910.0 -0.0782681151 0.1572884052 0.2594590425 -0.494092059 0.2597447257 -0.4943976701 -0.0602582374 0.1745482021
520296880.0 -0.0764006465 0.1580419656 0.2542884685 -0.4971919766 0.2545927176 -0.4971292311 -0.0581885247 0.1756523799
525296850.0 -0.0751891718 0.1589675782 0.2488575084 -0.5001429911 0.249085629 -0.5000888278 -0.0560099126 0.1763085612
530296820.0 -0.0734906394 0.1596006972 0.2437406764 -0.5021583205 0.2431648599 -0.5022758316 -0.0546506903 0.17688466
535296790.0 -0.0722694246 0.160605958 0.2380707916 -0.5051503094 0.2384270133 -0.504818485 -0.0527426724 0.1774868851
540296760.0 -0.0706661962 0.1611796924 0.232210387 -0.5076223823 0.232506458 -0.5082515081 -0.0511534223 0.1786785441
545296730.0 -0.0688876937 0.1623425128 0.2268621929 -0.509941453 0.2269868556 -0.5102467163 -0.049129178 0.1789199653
550296700.0 -0.0675800597 0.1632004403 0.2216083105 -0.5127406055 0.2218299542 -0.5127991899 -0.0472489456 0.1804397934
555296670.0 -0.0654609506 0.163703863 0.2155040058 -0.5150115948 0.2158115977 -0.5149435439 -0.0453902751 0.1809124252
560296640.0 -0.064291543 0.1644968701 0.2106019852 -0.5172165828 0.2101510016 -0.5168040295 -0.0432504189 0.1812925596
565296610.0 -0.062938167 0.1649796259 0.2045502813 -0.5188398174 0.2044598409 -0.5194783978 -0.0412040557 0.1820223916
570296580.0 -0.0609159968 0.1656257793 0.1989085551 -0.521087007 0.1994005234 -0.5218214571 -0.0392978395 0.18332241
575296550.0 -0.0593265887 0.1667304735 0.1932467625 -0.5231252221 0.1936555224 -0.5233303596 -0.037172633 0.1833129486
580296520.0 -0.057817431 0.167388639 0.1875896689 -0.5255687334 0.187577069 -0.5257933633 -0.03545781 0.1839108154
585296490.0 -0.0559414053 0.1679575635 0.1821887397 -0.5273764343 0.1817796767 -0.5273405998 -0.0335189361 0.1841951943
590296460.0 -0.0546792148 0.1685942888 0.1760027169 -0.5295325026 0.1762280974 -0.5294299074 -0.0315193361 0.1849464081
595296430.0 -0.0529171451 0.1694759521 0.1706704023 -0.5314843428 0.1705526909 -0.5316386354 -0.0295270267 0.1851232285
600296400.0 -0.051140792 0.1701360833 0.16460981 -0.5333318082 0.1652863331 -0.5330763608 -0.0273187617 0.1859903425
605296370.0 -0.0494982785 0.1710528357 0.1589927582 -0.5349003451 0.1589382046 -0.5346773608 -0.0255242026 0.1862401655
610296340.0 -0.0481342028 0.1712907382 0.1533906831 -0.5361517261 0.153554277 -0.5366889317 -0.0234064549 0.1870877597
615296310.0 -0.0461644596 0.1720297464 0.1469072404 -0.5377510291 0.1472799134 -0.5380975852 -0.0213732918 0.1870472835
620296280.0 -0.0445629783 0.1722711546 0.141945022 -0.5391902286 0.1414689707 -0.5393546495 -0.0196082135 0.1873452657
625296250.0 -0.0427324558 0.1732680333 0.1354974236 -0.5409551751 0.1357754917 -0.5412646375 -0.0174169586 0.1879929655
630296220.0 -0.0410866451 0.1738200702 0.1297998472 -0.5426475123 0.1301147493 -0.5424778376 -0.0157430649 0.1881859113
635296190.0 -0.0396533424 0.1743177221 0.1237620969 -0.5435267972 0.1238069987 -0.5433399684 -0.0133633738 0.1886382882
640296160.0 -0.0378552874 0.1745659335 0.1182214779 -0.5450207982 0.1179814311 -0.5448508366 -0.0108611918 0.1887586049
645296130.0 -0.0361487577 0.1753482142 0.1121999681 -0.5465962303 0.1122022279 -0.5462356072 -0.0099086784 0.188666705
650296100.0 -0.0346254319 0.1760032319 0.1065598567 -0.5474014616 0.1065026884 -0.5475354927 -0.0072323738 0.1895816778
655296070.0 -0.0327339626 0.1762296843 0.1003408903 -0.5484655525 0.1001304361 -0.5483693181 -0.0049455955 0.1894762163
660296040.0 -0.0313973187 0.1770872861 0.0944899056 -0.5491449761 0.0946825593 -0.5493470234 -0.0032175237 0.1894958142
665296010.0 -0.0293691174 0.1771430797 0.0885667668 -0.5504324313 0.0890190402 -0.5504795528 -0.0011015803 0.190345858
670295980.0 -0.0271391291 0.1776561915 0.0825111495 -0.5512391421 0.0829611389 -0.5515442806 0.0005055822 0.1900461565
675295950.0 -0.0255635877 0.1779388701 0.0767097039 -0.5519973508 0.0771088837 -0.552666617 0.00312943 0.1901812982
680295920.0 -0.0241585363 0.1789745104 0.0706108194 -0.5529159878 0.0703152765 -0.5530345302 0.0053051717 0.1899359479
685295890.0 -0.0223892921 0.178853299 0.0650043088 -0.5534289493 0.0646532005 -0.5541603919 0.0072292136 0.1907145511
690295860.0 -0.0203916307 0.1792623008 0.0586727955 -0.5539051773 0.0586143499 -0.5540251072 0.0094262606 0.1906849836
695295830.0 -0.0184136951 0.1794741751 0.051842116 -0.5548059403 0.052411831 -0.5552501173 0.0113700244 0.1907889991
700295800.0 -0.0166191919 0.1798727924 0.0462341386 -0.5556243092 0.0466529951 -0.5556993489 0.0135230913 0.1904706565
705295770.0 -0.0148940213 0.1803680339 0.0405075175 -0.5556270377 0.0409460369 -0.5557840749 0.0153957964 0.1905134738
710295740.0 -0.0133298342 0.1808288992 0.0344902047 -0.5560572171 0.0344950479 -0.5557323641 0.017090984 0.1907925689
715295710.0 -0.0116358575 0.1809594632 0.0284852792 -0.5566116686 0.0290470199 -0.5565377291 0.0196294941 0.1904606862
720295680.0 -0.0099250652 0.1806714544 0.0226991648 -0.5560588683 0.0229168886 -0.5571288728 0.0215203146 0.1906329443
725295650.0 -0.0075982773 0.181391017 0.0161134822 -0.5566937324 0.0166852026 -0.556697811 0.0235316946 0.1904004469
730295620.0 -0.0066681824 0.1814700996 0.0104781016 -0.5568148043 0.0104511637 -0.5569722304 0.0259295409 0.1898351441
735295590.0 -0.0042772094 0.1817558364 0.0048575861 -0.5568175241 0.00511998 -0.5571381932 0.0279241156 0.1902186484
740295560.0 -0.0025524942 0.1819820872 -0.0012665589 -0.5563524864 -0.0017008658 -0.5567843057 0.0302089 0.189803
745295530.0 -0.0009877423 0.181935849 -0.0074479698 -0.5567548707 -0.007137705 -0.5571737417 0.0317830955 0.1897115193
750295500.0 0.000814629 0.18221245 -0.013264115 -0.5562777215 -0.0131555894 -0.556561763 0.034083445 0.1889785658
755295470.0 0.0033365562 0.1829025932 -0.0193282258 -0.556656008 -0.0190509404 -0.5567813431 0.0358477093 0.1893260653
760295440.0 0.00426936 0.1827352495 -0.0253654425 -0.556123381 -0.025253255 -0.5563976398 0.0378570387 0.1887187916
765295410.0 0.006142874 0.1824825123 -0.0307106235 -0.5556487522 -0.0310327361 -0.556127801 0.0405987413 0.189190948
770295380.0 0.0082165437 0.1830514107 -0.0373038472 -0.5556191915 -0.0374234961 -0.5557938697 0.0425956375 0.1884813247
775295350.0 0.0099243271 0.1832119235 -0.0435421848 -0.5548640389 -0.043248172 -0.5547093605 0.0441373272 0.1879216657
780295320.0 0.0118925274 0.1831098311 -0.0492083081 -0.554584462 -0.0490658015 -0.5547194041 0.0465868375 0.1878798343
785295290.0 0.0134541542 0.1829740402 -0.0548919412 -0.5532886944 -0.0552114703 -0.5538151794 0.0479516529 0.1872647673
790295260.0 0.015286664 0.1831938635 -0.0610988069 -0.5532307005 -0.0608442191 -0.5536179865 0.0505982429 0.1872003055
795295230.0 0.0170735367 0.1833017703 -0.0667559961 -0.5521352344 -0.0667341791 -0.5527427352 0.0528273247 0.1873428523
800295200.0 0.0189418211 0.1834263449 -0.0730094409 -0.5514255092 -0.0733597064 -0.5522265933 0.0546662528 0.1862192972
805295170.0 0.0207224491 0.182945225 -0.078689715 -0.550807967 -0.0787948662 -0.5506499725 0.0562153603 0.1857431156
810295140.0 0.022584567 0.1827305651 -0.0849132809 -0.5499413826 -0.0847310902 -0.5504390833 0.0583936992 0.1856110715
815295110.0 0.0242400406 0.1831177305 -0.0913298507 -0.5488436796 -0.0907720179 -0.5489290443 0.0606850489 0.1849099487
820295080.0 0.026230044 0.1827054 -0.096594222 -0.5479313397 -0.0966767729 -0.5486037048 0.0626675588 0.1843613863
825295050.0 0.027940522 0.1826404855 -0.1024484001 -0.5461709379 -0.1026065215 -0.5467261789 0.0647606507 0.1839382193
830295020.0 0.0296186122 0.1827740037 -0.1082889676 -0.5453915739 -0.1091790208 -0.5454125274 0.066290768 0.1832966776
