!Created with skrf (http://scikit-rf.org).
# Hz S RI R 50.0 
!freq ReS11 ImS11 ReS21 ImS21 ReS12 ImS12 ReS22 ImS22
300000.0 -0.0937972693 -0.1057700066 0.6227748746 0.0977338436 0.6207978797 0.0988196331 -0.0953172408 -0.1126204902
5299970.0 -0.1011715567 0.0112453542 0.6300930611 0.0118629387 0.6309257023 0.0110501796 -0.1015866147 0.0108106223
10299940.0 -0.0967695894 0.0286335719 0.6346213984 0.0160439519 0.6342007993 0.0163653899 -0.0961755637 0.0280729179
15299910.0 -0.0892412272 0.0424459387 0.6405128557 0.0212714879 0.6408394338 0.0212353253 -0.089408234 0.0417204078
20299880.0 -0.0802885652 0.0535332342 0.6487210295 0.024086101 0.6493173859 0.0244150413 -0.0806413526 0.0528052943
25299850.0 -0.0702515591 0.0622947563 0.6585312449 0.025876904 0.6583259014 0.0251059457 -0.0714481406 0.0619107203
30299820.0 -0.0607879738 0.0688044351 0.668127566 0.0246473698 0.6680980962 0.0244253902 -0.0614428853 0.0680664141
35299790.0 -0.0504963854 0.0735704326 0.6770856469 0.0219636863 0.6776421937 0.0218350153 -0.0520222176 0.0736235626
40299760.0 -0.0409009091 0.0762242594 0.6867993183 0.0174841904 0.686806818 0.0175436479 -0.042399769 0.0767207537
45299730.0 -0.0316331605 0.0784070257 0.6957130162 0.012421474 0.696133276 0.0119572767 -0.0329199431 0.0791339745
50299700.0 -0.0227222818 0.079227861 0.7036656116 0.005070866 0.7039845561 0.00485853 -0.0243247265 0.0803720878
55299670.0 -0.0149626763 0.0790297475 0.7111692212 -0.0024915196 0.7107789274 -0.0025952754 -0.0169488035 0.0806730438
60299640.0 -0.0074665109 0.0786979139 0.7181457984 -0.0111421162 0.7178727527 -0.0112518453 -0.0091757477 0.0796777034
65299610.0 -0.0010384048 0.0770580696 0.7242894957 -0.0196572246 0.7241070304 -0.019958813 -0.0026909133 0.0785750716
70299580.0 0.0053044395 0.0750509735 0.7289601702 -0.0289313731 0.7289849498 -0.028725445 0.0034824597 0.077265429
75299550.0 0.0106249889 0.073327501 0.7335203911 -0.039144295 0.7336283892 -0.0389772592 0.0089865004 0.075189789
80299520.0 0.0156824235 0.0715711122 0.7378152758 -0.0485189473 0.7372890068 -0.0490962141 0.0140092602 0.0736080545
85299490.0 0.0199664784 0.0692233693 0.7409045908 -0.0585314749 0.7412315438 -0.058372457 0.0182819839 0.0710302326
90299460.0 0.0242650407 0.0667416403 0.743279546 -0.0687100033 0.7433954934 -0.0681623449 0.0226171128 0.0694653631
95299430.0 0.028160831 0.0640959551 0.7460395896 -0.0789108865 0.7463047743 -0.07899977 0.0261295186 0.0666650623
100299400.0 0.0314794587 0.0614157612 0.7477519304 -0.088675331 0.7478235672 -0.088494922 0.0290764959 0.0648681812
105299370.0 0.0344387665 0.0591419092 0.7492553903 -0.0989055313 0.7495232601 -0.09897429 0.0329324908 0.0615367017
110299340.0 0.0372983677 0.0564729345 0.7504031466 -0.1080777267 0.7506647741 -0.1088687801 0.0353772653 0.0592237091
115299310.0 0.039760241 0.0544350108 0.7514088384 -0.1193438956 0.7513801475 -0.118891835 0.0375703392 0.0576692078
120299280.0 0.0414792426 0.0520594218 0.7519733976 -0.1293061176 0.7515116496 -0.1295689425 0.0401094769 0.054542899
125299250.0 0.0438972409 0.0497679513 0.7520720765 -0.1387802975 0.7525993343 -0.1387630105 0.0421910473 0.0527583791
130299220.0 0.0460446631 0.046815585 0.7518088933 -0.1491924268 0.7520027077 -0.1491640617 0.0440038341 0.0506415313
135299190.0 0.0471704761 0.0454933489 0.7522520296 -0.1584356678 0.7524111712 -0.1588757293 0.0456844645 0.0479446808
140299160.0 0.0487858589 0.0431321718 0.751369819 -0.1688757528 0.7510162724 -0.1680708666 0.0462742414 0.0456557484
145299130.0 0.0495121036 0.0408569721 0.749960839 -0.1782571018 0.7504976673 -0.1778846756 0.0482581399 0.0437331655
150299100.0 0.0510064488 0.0390187336 0.7490786157 -0.1883383779 0.7494825613 -0.1880577613 0.0494411556 0.0421345091
155299070.0 0.052651036 0.0371672134 0.747745647 -0.1976416 0.7483303193 -0.1977950109 0.0507904768 0.0397939824
160299040.0 0.0533981774 0.0355092809 0.7470388035 -0.2069349899 0.7465779499 -0.207467082 0.0510515831 0.0381864331
165299010.0 0.0545455859 0.0332312657 0.7453135055 -0.2168427932 0.7445553866 -0.2165763944 0.0525214846 0.0358421492
170298980.0 0.0552081567 0.0319695467 0.7429719598 -0.2259010693 0.7435965227 -0.2262574551 0.0527313282 0.0339653434
175298950.0 0.0559368042 0.0301790177 0.7418372389 -0.2357231024 0.7421542392 -0.2357550489 0.0536977017 0.032745874
180298920.0 0.0562008754 0.0288647766 0.7393228574 -0.2448237001 0.7392597639 -0.244847258 0.0544929059 0.0309117987
185298890.0 0.0568177062 0.0272076626 0.7377477947 -0.2536999804 0.7370648552 -0.2531614716 0.055378558 0.0290017461
190298860.0 0.0578483287 0.0256005337 0.7346382547 -0.2628431908 0.7351093847 -0.262867591 0.0553754194 0.027492033
195298830.0 0.0577870146 0.0240626955 0.7326918618 -0.271796697 0.732336895 -0.2717464698 0.0559969923 0.0259761237
200298800.0 0.0585531217 0.0220972081 0.7298292657 -0.2809240571 0.7300476808 -0.2809380206 0.0565947431 0.0243223814
205298770.0 0.0581884771 0.0206344711 0.7265797388 -0.2897100744 0.7270630537 -0.2893316158 0.0571667439 0.0229102658
210298740.0 0.0589088864 0.0196615708 0.7242706642 -0.2983184118 0.7237799225 -0.2983568923 0.0569744161 0.0211636417
215298710.0 0.0592236735 0.0184083457 0.7209076119 -0.3066442965 0.7207851336 -0.3072697211 0.0573579985 0.0199971912
220298680.0 0.0596858716 0.0174454466 0.7178761766 -0.3155598761 0.7173038629 -0.3158414521 0.0573799761 0.0182275542
225298650.0 0.0599155995 0.0160001581 0.7138617609 -0.3241430155 0.714231688 -0.3237322386 0.057720687 0.016493209
230298620.0 0.0604001796 0.0149091879 0.7109453071 -0.3327425326 0.7114909951 -0.3328969117 0.0575591142 0.0153312567
235298590.0 0.0598484708 0.0136004238 0.7077908551 -0.3417856381 0.7076513409 -0.3413961784 0.0579524404 0.0143470548
240298560.0 0.0603634626 0.0127474475 0.7043291237 -0.3491563226 0.7037117448 -0.3496366239 0.0582123033 0.0129818452
245298530.0 0.0602500933 0.0112302763 0.700390674 -0.358234104 0.7001644715 -0.3578000207 0.0578945042 0.0119048648
250298500.0 0.0600155175 0.01008307 0.6967889951 -0.3664865974 0.6965108912 -0.3658006784 0.0577218742 0.0108274752
255298470.0 0.0606253064 0.0095642404 0.6931148068 -0.3741073647 0.6933209017 -0.3740516298 0.0580957794 0.0099561696
260298440.0 0.0607772058 0.0083024311 0.6894922375 -0.3816975164 0.6889509461 -0.3823370837 0.0578461973 0.0078179389
265298410.0 0.0597722726 0.0071630843 0.684179391 -0.3910092655 0.6842634088 -0.3908254748 0.0588973945 0.0066176379
270298380.0 0.060182512 0.0063440272 0.6801820545 -0.3983949541 0.6805277052 -0.3983110744 0.0583371794 0.0061012651
275298350.0 0.0605244933 0.0056599902 0.6753334895 -0.4061277474 0.675846619 -0.4062194828 0.0579658331 0.0051015823
280298320.0 0.0597558576 0.0043195305 0.6720211612 -0.4139584647 0.6720047167 -0.4140519266 0.0583415763 0.0038515758
285298290.0 0.0599985617 0.0034884841 0.6673796258 -0.4221290836 0.6674875849 -0.4216238906 0.0580059228 0.0025708111
290298260.0 0.059856368 0.0026268708 0.6636078107 -0.4298975196 0.6632004634 -0.4297864858 0.0583521845 0.001718726
295298230.0 0.0599695171 0.0012201587 0.6583973196 -0.4374988073 0.6584324051 -0.4376204477 0.0582035931 0.0005726711
300298200.0 0.0602248021 0.0007627554 0.6538961296 -0.4449432914 0.6538372782 -0.4450587221 0.0579703483 -0.0005883205
305298170.0 0.0598721198 -0.0009570765 0.6492900828 -0.452759148 0.6492304012 -0.4534461759 0.0579869548 -0.0019750425
310298140.0 0.0604087664 -0.0018418441 0.644301397 -0.4606358205 0.6441749402 -0.4601359776 0.0581833443 -0.0034304953
315298110.0 0.0596973342 -0.0032293114 0.6393942073 -0.4683818818 0.6389342405 -0.4685136736 0.0577841118 -0.0043668169
320298080.0 0.0594516398 -0.0040202502 0.6334646871 -0.4758987769 0.6341664454 -0.4759799862 0.0572520697 -0.0056669252
325298050.0 0.058619978 -0.0052548433 0.6285250912 -0.4828019104 0.6287454764 -0.483351861 0.057192012 -0.0066247087
330298020.0 0.057417949 -0.0061237247 0.623084592 -0.4909533599 0.6229219195 -0.4904796454 0.0560792226 -0.007695181
335297990.0 0.0578517135 -0.0066322016 0.617726745 -0.4976466055 0.6175596243 -0.4977085825 0.055668264 -0.008755782
340297960.0 0.0569346788 -0.0077641909 0.6112232972 -0.5047974967 0.610844467 -0.5049125015 0.0551210284 -0.0089273023
345297930.0 0.0563222423 -0.0086553282 0.6053156057 -0.51183137 0.6053674297 -0.5118027531 0.0551132198 -0.0103420922
350297900.0 0.0557422889 -0.009230026 0.600294437 -0.5177998571 0.6005141322 -0.5181381731 0.054730437 -0.0112197149
355297870.0 0.0555464528 -0.0097271256 0.5942686474 -0.524332967 0.5942748503 -0.5247426245 0.0548597741 -0.0118426636
360297840.0 0.0552475066 -0.0104025978 0.5883258742 -0.5315084222 0.5884194176 -0.5319354315 0.0536020364 -0.0123268304
365297810.0 0.0545431354 -0.0111633919 0.5822971555 -0.537647505 0.5826071435 -0.5377361034 0.0527701164 -0.0131431796
370297780.0 0.0548400608 -0.0114554903 0.5763983505 -0.5447844401 0.5767500327 -0.5445458111 0.052882786 -0.0141017373
375297750.0 0.0542844494 -0.0120451678 0.5706760869 -0.5509337407 0.5705041469 -0.5509547774 0.0527180011 -0.0144717831
380297720.0 0.0533408635 -0.0129200491 0.5643928363 -0.5575003587 0.5640105216 -0.5574684989 0.0522828452 -0.0149283394
385297690.0 0.0532017334 -0.013749809 0.5580556146 -0.5633098198 0.5584451551 -0.5644076189 0.0521793524 -0.0154353698
390297660.0 0.0530713963 -0.0144095001 0.5520877954 -0.5689979009 0.5524365159 -0.5701138105 0.0520682209 -0.0164632952
395297630.0 0.0531113941 -0.0149573453 0.5461343314 -0.5752857589 0.5453868033 -0.5755938978 0.0513380001 -0.0169474928
400297600.0 0.0521876606 -0.0158529417 0.5391843903 -0.5817799482 0.5396532432 -0.5821023996 0.0515602822 -0.0172697293
405297570.0 0.0518063993 -0.0165926613 0.5331680657 -0.5878154743 0.5332064798 -0.5880325741 0.0508797677 -0.0175180356
410297540.0 0.0514732335 -0.0166952241 0.5265641745 -0.5941659237 0.5268528532 -0.5937578927 0.0503422404 -0.018643661
415297510.0 0.051040882 -0.0176149874 0.5198003285 -0.5993855309 0.5211470176 -0.5999662441 0.0502983536 -0.018823539
420297480.0 0.0507393633 -0.0183953931 0.5130523402 -0.6057883747 0.513840391 -0.6059508629 0.0502463886 -0.0194276947
425297450.0 0.0508140959 -0.0187660563 0.506966967 -0.6110012525 0.5067050356 -0.6110001846 0.0498808791 -0.0206018558
430297420.0 0.0499639193 -0.0195173324 0.5008489041 -0.6168408496 0.5005017873 -0.6161886436 0.0497015298 -0.0207052652
435297390.0 0.0495951345 -0.0203838145 0.4930779129 -0.6228645771 0.4933745214 -0.6222026148 0.0489263293 -0.0212899948
440297360.0 0.0497952724 -0.020994694 0.4860678825 -0.6277645519 0.4862522504 -0.6277767413 0.0486395083 -0.0216075158
445297330.0 0.0494689657 -0.0218790548 0.4796707593 -0.6327538543 0.4792510858 -0.633165691 0.0482881593 -0.0220119309
450297300.0 0.0489255868 -0.0222435101 0.4726077018 -0.6381551691 0.4729759334 -0.6385716154 0.0482330876 -0.0224119451
455297270.0 0.0480373288 -0.0228838141 0.4655338954 -0.643456814 0.4652869973 -0.6439271353 0.0477630668 -0.0231813932
460297240.0 0.0481090932 -0.0234066327 0.4584619179 -0.6493402787 0.4584795494 -0.6493495321 0.047423056 -0.0238517667
465297210.0 0.0476231538 -0.0241140481 0.4507529613 -0.6537202846 0.4506480495 -0.6541704377 0.0475035799 -0.0237892691
470297180.0 0.0473630243 -0.0248431431 0.4439844057 -0.6584922029 0.4450813125 -0.6585684255 0.0471367889 -0.0250892981
475297150.0 0.0465012165 -0.0251339741 0.4371663246 -0.6631271463 0.4370242337 -0.6638236646 0.0464500877 -0.0256177381
480297120.0 0.0467275872 -0.0248609735 0.4294251206 -0.6679855319 0.4296635172 -0.668249173 0.0457648957 -0.0261415652
485297090.0 0.0460783097 -0.0265516881 0.4220938867 -0.6736264169 0.422486043 -0.6729222553 0.0454520891 -0.0262381157
490297060.0 0.0462684207 -0.0268720593 0.414094948 -0.6778249367 0.4150881065 -0.6781362653 0.0450381239 -0.0270138853
495297030.0 0.0449887291 -0.0277806891 0.4079626989 -0.6826362027 0.4074295022 -0.6825929532 0.0455733845 -0.0275877977
500297000.0 0.0447558777 -0.027739458 0.4000524243 -0.6867637269 0.3997864999 -0.6872082201 0.0448923243 -0.027601165
505296970.0 0.0450505727 -0.0284150554 0.3928927378 -0.6916915368 0.3927735791 -0.6907997047 0.0444038468 -0.0292146581
510296940.0 0.0441804048 -0.0292487748 0.3847583355 -0.6962711466 0.384880133 -0.6964543894 0.0442715656 -0.0287868893
515296910.0 0.0438716059 -0.0291767444 0.3767509924 -0.6998720812 0.3766855808 -0.6998319154 0.0436938682 -0.0302066707
520296880.0 0.0433667324 -0.0294302885 0.3694789866 -0.7035481002 0.369190139 -0.7035379847 0.0437592299 -0.029330923
525296850.0 0.0431150178 -0.0304650639 0.3617717447 -0.7079415573 0.361531953 -0.7079373702 0.043754767 -0.030723426
530296820.0 0.0427811907 -0.0311243124 0.3535344013 -0.7122865409 0.3540090229 -0.7119538309 0.042856235 -0.0314728118
535296790.0 0.0428013467 -0.0310863669 0.345812644 -0.7152224683 0.3463030162 -0.7156058129 0.0428518818 -0.0312249767
540296760.0 0.0421635878 -0.0314839281 0.3383153499 -0.719315604 0.3378255862 -0.7192741429 0.0423939521 -0.0323641433
545296730.0 0.0409768537 -0.0319778874 0.3303528196 -0.7226379376 0.330009149 -0.7232886008 0.0418021145 -0.0323214245
550296700.0 0.0413474599 -0.0322583889 0.3223698721 -0.7270020891 0.3220614885 -0.7269631736 0.0417966661 -0.0329770229
555296670.0 0.0405996616 -0.0328324368 0.31462746 -0.7303231263 0.3147663396 -0.7304897796 0.0409595204 -0.0338915744
560296640.0 0.0409582075 -0.0329752999 0.3062788054 -0.733398169 0.3068746897 -0.7337235859 0.0404190797 -0.0335635517
565296610.0 0.0397280506 -0.0333270672 0.2986056837 -0.7365884921 0.298408283 -0.7361432951 0.0401970861 -0.0340105237
570296580.0 0.0394721042 -0.0336807492 0.2901394867 -0.7398971292 0.290467514 -0.7408690508 0.0397117453 -0.0347798859
575296550.0 0.0391023263 -0.0343669638 0.2823702731 -0.7434386187 0.2822902356 -0.7431466804 0.0389806681 -0.0351783411
580296520.0 0.0386589202 -0.0344070465 0.2742065056 -0.7463662308 0.2737697922 -0.7467395703 0.0384870389 -0.0357425724
585296490.0 0.038180097 -0.0347820696 0.2664981722 -0.7492105972 0.2657319063 -0.7490686137 0.0386373878 -0.0357219956
590296460.0 0.0384999964 -0.0352365125 0.2578155523 -0.7522063469 0.2581220089 -0.7526038284 0.0371014777 -0.0359380571
595296430.0 0.0377896924 -0.0354089347 0.2490995225 -0.7547453302 0.2492326217 -0.7553244303 0.0371747977 -0.0372003017
600296400.0 0.0374987845 -0.0356686949 0.2405125083 -0.7577041643 0.2412696294 -0.7578154209 0.0368751242 -0.0372313996
605296370.0 0.0362258373 -0.0358781522 0.2328840496 -0.7603045011 0.2324631845 -0.7603889346 0.0363583334 -0.0373096136
610296340.0 0.036525906 -0.0357337179 0.2246914204 -0.7622468986 0.2250203594 -0.7626376699 0.0353390907 -0.0376157902
615296310.0 0.036228495 -0.036319906 0.2161392245 -0.765462933 0.2157707143 -0.7651967909 0.0352301997 -0.0378551121
620296280.0 0.0351362051 -0.036175472 0.2072152302 -0.7675067947 0.2072406114 -0.7674692199 0.0344269456 -0.0380541322
625296250.0 0.0346646057 -0.0366040592 0.1989715826 -0.7699402083 0.1993898513 -0.769992109 0.0335288275 -0.0385975625
630296220.0 0.0345922643 -0.0369966871 0.1904575182 -0.7722541699 0.1905377837 -0.7713671989 0.0332965437 -0.0389358378
635296190.0 0.0334208035 -0.0366216513 0.1827717666 -0.7738023116 0.1822092086 -0.7737652578 0.0329566215 -0.0391695474
640296160.0 0.0329654681 -0.0372110951 0.1735460637 -0.7762684165 0.1739283082 -0.775982373 0.0317349797 -0.0396531273
645296130.0 0.0328847382 -0.0367933371 0.1652746392 -0.7772719023 0.1652236446 -0.7773125539 0.0313536077 -0.0403874515
650296100.0 0.0322815518 -0.0374999858 0.1570748927 -0.7792840921 0.1568339038 -0.7798899385 0.0319646665 -0.040143886
655296070.0 0.0314576178 -0.0375729879 0.1477614764 -0.7809535384 0.1482767885 -0.7807939036 0.0301609566 -0.0401840379
660296040.0 0.0311174501 -0.0371960362 0.1397616459 -0.7826889181 0.1397730635 -0.7829080244 0.029582435 -0.0409732078
665296010.0 0.0307149535 -0.0379721903 0.1306721191 -0.7838454472 0.1311639398 -0.7837018614 0.0295553431 -0.040827125
670295980.0 0.0303153329 -0.0377373998 0.1230772516 -0.7852674446 0.1224550321 -0.7846589978 0.0283760074 -0.0415727889
675295950.0 0.0293810468 -0.0380933475 0.1137294197 -0.7867128348 0.1141657415 -0.7866155894 0.0276712042 -0.0413286766
680295920.0 0.0289198365 -0.0379060028 0.1055688668 -0.7877485889 0.1054329001 -0.7875686411 0.0276407964 -0.0418799232
685295890.0 0.0287079387 -0.0377430162 0.0964423396 -0.7894110654 0.0967660617 -0.7892811857 0.0272159965 -0.0415347216
690295860.0 0.0274727317 -0.0378273963 0.088081858 -0.790158564 0.0877564528 -0.7900741544 0.0260191787 -0.0424076352
695295830.0 0.0272876726 -0.0385464007 0.080217881 -0.7911661348 0.0796722207 -0.7908985437 0.0256674641 -0.0421822797
700295800.0 0.0268823012 -0.0383220306 0.0719407253 -0.7914466513 0.0715704568 -0.7918290655 0.0249159918 -0.0421422672
705295770.0 0.0256574374 -0.038459225 0.0625234529 -0.7929393543 0.0624820154 -0.7922110299 0.0242510552 -0.0420032133
710295740.0 0.025588228 -0.0387149266 0.053536267 -0.7931792865 0.0540370396 -0.7934124007 0.0238693235 -0.0421768823
715295710.0 0.0249352811 -0.0381605929 0.0454540965 -0.7935745871 0.0453958982 -0.7938315624 0.0231767556 -0.042795269
720295680.0 0.0247987324 -0.0382512714 0.0368500684 -0.7938527381 0.0367061391 -0.7943290384 0.0223717446 -0.0427854169
725295650.0 0.0233677178 -0.0383427934 0.0286814226 -0.7941737065 0.0281593964 -0.7944618067 0.0217201757 -0.042198697
730295620.0 0.0221896676 -0.0387271142 0.0189097091 -0.7940381191 0.019614722 -0.7941722264 0.0208632991 -0.0420054489
735295590.0 0.022708439 -0.0386087368 0.0109014311 -0.7944412306 0.0107691711 -0.7947469491 0.0200194858 -0.0426899182
740295560.0 0.0218071297 -0.0389921113 0.0022337701 -0.7949368641 0.0026248181 -0.7947744367 0.01900144 -0.0423635639
745295530.0 0.0211090518 -0.0385044313 -0.0063040785 -0.7940185353 -0.0058038427 -0.7942040918 0.0179817788 -0.0429454212
750295500.0 0.0200366922 -0.0385791985 -0.0143319068 -0.7941473146 -0.015247931 -0.7944312195 0.0178362697 -0.0425893079
755295470.0 0.0193810338 -0.0385342954 -0.0229718009 -0.7948953037 -0.0232995601 -0.7943625477 0.0173069079 -0.0419637587
760295440.0 0.0187538012 -0.0380355137 -0.0330233648 -0.7940505933 -0.03218614 -0.7938189782 0.0169299906 -0.0437079566
765295410.0 0.0188712265 -0.0386790005 -0.041340504 -0.793675218 -0.0405951008 -0.7938564794 0.0159829396 -0.0428941703
770295380.0 0.0179455881 -0.0381037729 -0.0490195678 -0.792521144 -0.0494078427 -0.7935084933 0.0151500456 -0.0429649871
775295350.0 0.0173249996 -0.0383383902 -0.0581755682 -0.7928135788 -0.0576927091 -0.7916248741 0.015031672 -0.0424475974
780295320.0 0.016480065 -0.0378940245 -0.0665261195 -0.7909292285 -0.0661150871 -0.7914406832 0.01455446 -0.0430117747
785295290.0 0.0157913917 -0.0382223605 -0.0750556553 -0.7911620169 -0.0748133974 -0.7909102975 0.0129805111 -0.0423828815
790295260.0 0.0154299414 -0.0388053923 -0.0833580387 -0.7901399684 -0.0834944505 -0.7903964367 0.0123050071 -0.0417648057
795295230.0 0.0147198352 -0.0386487426 -0.0919531935 -0.7894610574 -0.0921116562 -0.7893789439 0.012288755 -0.0432403148
800295200.0 0.0136883512 -0.0380815488 -0.1005282699 -0.7875128791 -0.1006451769 -0.7881849407 0.0111597735 -0.0422977849
805295170.0 0.012851481 -0.0383021613 -0.1088940287 -0.7870317963 -0.1084690333 -0.7869810563 0.011230149 -0.04214682
810295140.0 0.0128442697 -0.0380969755 -0.1175284782 -0.78591836 -0.1176387804 -0.7859645974 0.0104032109 -0.042272995
815295110.0 0.0119116755 -0.0377571205 -0.1259496305 -0.7840064747 -0.126178342 -0.7846275852 0.0093984589 -0.0424232842
820295080.0 0.0114952521 -0.0377170699 -0.1335406056 -0.7825264418 -0.1342676584 -0.7830260203 0.0079029184 -0.0413778393
825295050.0 0.0104723975 -0.0378824016 -0.1433056055 -0.7815403784 -0.1428582376 -0.7811026004 0.0085303087 -0.0411015053
830295020.0 0.0095857704 -0.0376204759 -0.1519492666 -0.779968024 -0.1516797335 -0.7802248437 0.0074810165 -0.0420434806
