!Created with skrf (http://scikit-rf.org).
# Hz S RI R 50.0 
!freq ReS11 ImS11 ReS21 ImS21 ReS12 ImS12 ReS22 ImS22
300000.0 -0.3141750311 -0.1293522733 0.370321185 0.0651476667 0.3703221066 0.0648317989 -0.3138646432 -0.130638154
5299970.0 -0.3247956581 0.002788968 0.378001959 0.0032135606 0.3785862245 0.0035553158 -0.3255669823 0.0018177065
10299940.0 -0.3225208038 0.0140333365 0.3800325205 0.0028084278 0.3796552924 0.0032084627 -0.3231161249 0.0124928918
15299910.0 -0.3191534926 0.0226841623 0.381900468 0.0022619112 0.3821770541 0.0027239377 -0.3207295992 0.0200530335
20299880.0 -0.3157148453 0.0291478607 0.3847548501 0.0020080259 0.385363199 0.0016770396 -0.3177857877 0.0260549223
25299850.0 -0.3117295771 0.0347296175 0.3886341481 0.0005052366 0.3887518538 8.61317e-05 -0.3146879248 0.0312023459
30299820.0 -0.3084269803 0.0393483374 0.3920706868 -0.001920429 0.3918953757 -0.0020696149 -0.311865059 0.0359060889
35299790.0 -0.3043047056 0.0435772789 0.3948018975 -0.0047603518 0.3956061696 -0.0051352077 -0.3092087614 0.0398248912
40299760.0 -0.3015270962 0.0469226298 0.3984026054 -0.0085407785 0.398541241 -0.008627547 -0.3063461689 0.0432814431
45299730.0 -0.2982903733 0.0498485279 0.4012447353 -0.0123738641 0.4015910492 -0.0125802298 -0.3036693241 0.0466750123
50299700.0 -0.2948989888 0.0529951094 0.4037218412 -0.0173929045 0.4037710741 -0.0172614765 -0.3010679526 0.0500229154
55299670.0 -0.2924705277 0.0554749411 0.406073284 -0.0214827295 0.4060789622 -0.0217975235 -0.2993975021 0.0523927392
60299640.0 -0.2897030369 0.057857779 0.4077943985 -0.026908854 0.4078963592 -0.0270300037 -0.2970388442 0.0548745599
65299610.0 -0.2874043932 0.0602917486 0.4095255686 -0.0317003035 0.409531641 -0.0317635714 -0.2949121377 0.0573349216
70299580.0 -0.2854450254 0.0622192993 0.410858092 -0.0363373291 0.4109160479 -0.0367541517 -0.2936992852 0.059760979
75299550.0 -0.2836018507 0.064273826 0.4117627224 -0.0420639952 0.4120566663 -0.042145985 -0.2917143677 0.0625483897
80299520.0 -0.2816459413 0.0666433274 0.4128365151 -0.0475885553 0.4129833818 -0.0474091358 -0.2903605233 0.0649665245
85299490.0 -0.2797475933 0.0683229463 0.4132709295 -0.0526622158 0.4135721054 -0.0524684975 -0.2891577936 0.0670419798
90299460.0 -0.2783929613 0.0709219157 0.4137744807 -0.0576400125 0.413706948 -0.0579082882 -0.2877014767 0.0695014217
95299430.0 -0.2769282676 0.0726269256 0.414216935 -0.0628930454 0.4144253848 -0.0631199803 -0.2865214846 0.0717762011
100299400.0 -0.27518626 0.0745183988 0.4139626101 -0.0680589385 0.4140831417 -0.0683537161 -0.2851582464 0.0742632821
105299370.0 -0.2740298818 0.0764987366 0.4137562637 -0.0732799896 0.4143139515 -0.0733724882 -0.2839927314 0.076267318
110299340.0 -0.2725759093 0.0785834634 0.4134599814 -0.0779226753 0.4140227205 -0.0783494882 -0.2829061213 0.0786200081
115299310.0 -0.2715225709 0.0809974288 0.4135372905 -0.0835308177 0.4134638896 -0.083761745 -0.2818632824 0.0813116919
120299280.0 -0.2705975715 0.0828480476 0.4131939432 -0.0889929996 0.4132331465 -0.0890541536 -0.2808749847 0.083335846
125299250.0 -0.2693607652 0.0850988996 0.4126330678 -0.0936218443 0.4125929717 -0.093625122 -0.2799986081 0.0859585918
130299220.0 -0.2681448138 0.0873093007 0.411895126 -0.0989395709 0.4118350313 -0.0996552057 -0.2789244602 0.0882250205
135299190.0 -0.2673663479 0.0899584712 0.4113610321 -0.1036707755 0.4116159431 -0.104358207 -0.2780270075 0.0905919761
140299160.0 -0.2661989389 0.092063637 0.4104964071 -0.1093504058 0.4105296303 -0.108850005 -0.277751034 0.0931923448
145299130.0 -0.2652630131 0.0946187592 0.4095771997 -0.114020129 0.4095124716 -0.1139992764 -0.2763027255 0.0959326938
150299100.0 -0.2642301825 0.0970165646 0.4085382836 -0.1189153018 0.4084287025 -0.1189629098 -0.275597272 0.0982991053
155299070.0 -0.2630543195 0.0995251996 0.4068533651 -0.1239408301 0.4076043754 -0.1239050303 -0.2746668735 0.1011950692
160299040.0 -0.2620922524 0.1018071546 0.4060061551 -0.1286781936 0.4062029418 -0.1290389837 -0.2738759834 0.1035291212
165299010.0 -0.2611851603 0.1042201257 0.4050576041 -0.1334461019 0.4045746372 -0.1337526743 -0.2723681247 0.1059915653
170298980.0 -0.260133558 0.1070645188 0.4031571264 -0.1384606395 0.4037103952 -0.1383974675 -0.2721003004 0.1084988853
175298950.0 -0.259269991 0.1093823538 0.4022442006 -0.1431176891 0.4025790929 -0.1433287652 -0.2711041961 0.1118046282
180298920.0 -0.258444841 0.1119306703 0.4007607191 -0.1480213473 0.4010335622 -0.1479603981 -0.2697472534 0.1141772487
185298890.0 -0.257192907 0.1144043085 0.3993022155 -0.1528042213 0.3991289275 -0.1525832023 -0.2687062408 0.1167032925
190298860.0 -0.2557058893 0.1170351974 0.3969449403 -0.1572544636 0.3978392634 -0.156962409 -0.267876269 0.1192843251
195298830.0 -0.2545394212 0.1197604084 0.3961097009 -0.1619953139 0.3963045429 -0.1616584427 -0.2671327182 0.1217533578
200298800.0 -0.2534995505 0.1222249639 0.394112373 -0.1669616638 0.3941698523 -0.1669853772 -0.2655094228 0.1246365587
205298770.0 -0.25290402 0.1244833944 0.3923839702 -0.1710151282 0.3924520237 -0.1709521039 -0.2644244096 0.1272138471
210298740.0 -0.2514307686 0.127370243 0.3907534615 -0.1754905927 0.3907696005 -0.1756734927 -0.2638462228 0.1299350764
215298710.0 -0.2504229082 0.1301909139 0.3885821976 -0.1799889178 0.3889416694 -0.1803731045 -0.2622329272 0.1327016773
220298680.0 -0.2488350217 0.1324546454 0.3863947396 -0.1846270973 0.3865435838 -0.1848271415 -0.2611525459 0.1353664823
225298650.0 -0.2477082954 0.1352669324 0.3842125901 -0.1889696726 0.3846577631 -0.1884971155 -0.2599834863 0.138093092
230298620.0 -0.2467350336 0.1382432948 0.3826910859 -0.1935622205 0.3830439181 -0.1938157858 -0.2586888 0.1407243478
235298590.0 -0.2457607821 0.1406987048 0.3805832841 -0.1980543203 0.380539528 -0.1978739399 -0.2570686443 0.143187494
240298560.0 -0.2439859753 0.1432989487 0.3782030589 -0.2023197608 0.3783127519 -0.2022426875 -0.2561233945 0.1459170591
245298530.0 -0.2424964819 0.14572008 0.3758972004 -0.206396394 0.3761503329 -0.2067075828 -0.2547536297 0.1486316137
250298500.0 -0.2415250318 0.1482955556 0.3739928148 -0.21037938 0.3738443963 -0.2107228046 -0.2533235529 0.1516592664
255298470.0 -0.2399598283 0.1511717 0.3718011194 -0.2148945321 0.372041446 -0.2153053374 -0.2522478018 0.1542449076
260298440.0 -0.2385885704 0.1535428612 0.3693592509 -0.2188250033 0.3695088639 -0.2189984951 -0.2506139039 0.1566695362
265298410.0 -0.2374995001 0.1561938844 0.3668537757 -0.2233938185 0.3667783369 -0.2236505752 -0.2482025156 0.1593215375
270298380.0 -0.2358846672 0.1587604662 0.3641472737 -0.2275662031 0.3644021964 -0.2272619569 -0.2475561962 0.1623620243
275298350.0 -0.2344258494 0.1616082514 0.3616838263 -0.2313198079 0.36180389 -0.2314568801 -0.2458354484 0.1650859672
280298320.0 -0.2332185307 0.1639120547 0.3594928311 -0.2351972682 0.3594220473 -0.2358307441 -0.2440759619 0.167804596
285298290.0 -0.2314266302 0.1666164743 0.3568958362 -0.2393538602 0.3571470021 -0.2397070251 -0.2428141278 0.1705202976
290298260.0 -0.2299150965 0.1695434524 0.3546389621 -0.2436606386 0.3544744616 -0.243766087 -0.2409149879 0.1729586746
295298230.0 -0.2286302222 0.1716733195 0.3516011229 -0.2476336598 0.3519229409 -0.2478739594 -0.2393482902 0.1754986153
300298200.0 -0.2267297073 0.174647087 0.3487507154 -0.2520117301 0.3488792019 -0.2517835457 -0.2375499121 0.1782673423
305298170.0 -0.2251496375 0.1763148848 0.3460148897 -0.2558444165 0.3462909804 -0.2557014244 -0.2356537881 0.1806118919
310298140.0 -0.2229105055 0.1788173136 0.3431839977 -0.2594339264 0.3435732714 -0.259365455 -0.233681773 0.1829093585
315298110.0 -0.2217640062 0.1810336205 0.3406049053 -0.2638656109 0.3406882489 -0.2636683269 -0.2322945421 0.1856549254
320298080.0 -0.2197851992 0.1835126788 0.3368246155 -0.2671316192 0.3380508017 -0.2674959537 -0.2304970748 0.187982339
325298050.0 -0.2185721551 0.1854757558 0.3342311778 -0.2706956707 0.3350206116 -0.2713418078 -0.2282767457 0.1902665149
330298020.0 -0.2169859079 0.1886807259 0.3313757741 -0.2751382858 0.3318322679 -0.2751258737 -0.2267763411 0.1927260083
335297990.0 -0.2150162145 0.1908179723 0.3280744397 -0.2786547064 0.3286018114 -0.2785685442 -0.225068467 0.1953470176
340297960.0 -0.2137119954 0.1932765852 0.3249324492 -0.282082863 0.3249337889 -0.2824971465 -0.2230008536 0.1983891239
345297930.0 -0.2117708585 0.1957943857 0.3220062876 -0.2861497146 0.3216855667 -0.2859078628 -0.2209030903 0.2006632471
350297900.0 -0.2099678169 0.1979827447 0.3188615968 -0.2888818792 0.3191061948 -0.2892648091 -0.2193601736 0.2027713722
355297870.0 -0.2081202643 0.2003359148 0.3154690561 -0.2927171836 0.3156293396 -0.2927000809 -0.2168237325 0.2057711729
360297840.0 -0.2062497921 0.2028432501 0.311919327 -0.296019319 0.3124768778 -0.2966855048 -0.2148627642 0.2080299197
365297810.0 -0.204362065 0.205353813 0.3089864654 -0.3001757276 0.3091262337 -0.2996442283 -0.2136670321 0.2103493957
370297780.0 -0.2023126819 0.2073398913 0.3051599629 -0.3033347101 0.3060935811 -0.3030308345 -0.2111717191 0.2128097912
375297750.0 -0.2006763192 0.2096684596 0.302425327 -0.3064956467 0.3024553296 -0.3064548622 -0.2089564758 0.2151234149
380297720.0 -0.1985583823 0.2122256155 0.2991921175 -0.3099315967 0.2989984602 -0.3099946941 -0.2066636284 0.2177300162
385297690.0 -0.1965117805 0.2141869819 0.2954323525 -0.3127340706 0.2956976637 -0.3132162595 -0.2044325531 0.2203141093
390297660.0 -0.1942079396 0.2160885594 0.2915834638 -0.3158236713 0.2919483878 -0.3163453402 -0.2018642722 0.2222382145
395297630.0 -0.1917567925 0.2185353094 0.2886183041 -0.319109424 0.2885899248 -0.3192005594 -0.1999582342 0.2241194332
400297600.0 -0.190163326 0.2205411646 0.2851777934 -0.3222431095 0.285243176 -0.3227535405 -0.1973970059 0.2267638459
405297570.0 -0.1878576186 0.2223775989 0.2813778887 -0.3252069613 0.2816056156 -0.3258181694 -0.1949478958 0.2291819116
410297540.0 -0.1856684932 0.2248518441 0.2778513219 -0.3289116006 0.2780258998 -0.3286787823 -0.1928447257 0.2315535126
415297510.0 -0.1836200272 0.2269067262 0.2740434001 -0.3316684578 0.2746605073 -0.3319333154 -0.190242683 0.2334899271
420297480.0 -0.181273472 0.2286842557 0.2707576358 -0.3346912142 0.2707992272 -0.3346504975 -0.187681347 0.2356921137
425297450.0 -0.1785984781 0.2306195608 0.2666290978 -0.3374901757 0.2670077723 -0.3374912221 -0.1853355921 0.2373101339
430297420.0 -0.1763489678 0.232737559 0.2633480773 -0.340347815 0.2633931479 -0.3402198151 -0.1826719073 0.2400666999
435297390.0 -0.1740895996 0.2345187118 0.2592986904 -0.3438646831 0.2594974165 -0.3433197977 -0.1807245112 0.2425087318
440297360.0 -0.1715601982 0.2365906817 0.2552554201 -0.3462472557 0.2556491934 -0.3460712202 -0.1782230005 0.2443215424
445297330.0 -0.1691080637 0.2383316816 0.251790029 -0.3486696035 0.2517399594 -0.3491664001 -0.1749227107 0.2465019723
450297300.0 -0.1667901912 0.24011186 0.2480920459 -0.3512819511 0.2482825664 -0.3514386294 -0.172602118 0.2479682719
455297270.0 -0.1645898035 0.242212934 0.2442939114 -0.3541508981 0.2441923708 -0.3544516497 -0.1699944956 0.2501607482
460297240.0 -0.1616498427 0.2439751017 0.2406005909 -0.3575460175 0.2401586158 -0.3574592461 -0.1675633267 0.2522987886
465297210.0 -0.1590960424 0.2458912176 0.2357403353 -0.3595620307 0.2358776307 -0.3602551117 -0.1647032777 0.2547189578
470297180.0 -0.1565363083 0.2475062293 0.2320752296 -0.3620763053 0.2324655929 -0.3622502685 -0.1622066115 0.256016439
475297150.0 -0.1542653617 0.2494399603 0.2282640768 -0.3643253223 0.2284545888 -0.3648467651 -0.1594225143 0.2577925953
480297120.0 -0.1509354884 0.2515695474 0.223870866 -0.3672975382 0.2242584565 -0.3669586385 -0.1573440626 0.2595296194
485297090.0 -0.1484123766 0.252589696 0.2199336634 -0.369704703 0.2200547612 -0.3695204374 -0.1542357533 0.2618854313
490297060.0 -0.1453517288 0.254804993 0.2157217004 -0.3723532963 0.2160977468 -0.3720664266 -0.1516232821 0.2634573486
495297030.0 -0.14295698 0.2560462993 0.2122040814 -0.3744035563 0.2120259772 -0.3744493253 -0.1486252012 0.2651230268
500297000.0 -0.1406672352 0.2578521733 0.2078318471 -0.3763826646 0.2076846051 -0.3767895992 -0.1459062703 0.2672239996
505296970.0 -0.1373445639 0.2593728902 0.2036466614 -0.3788108644 0.2038441741 -0.3787295833 -0.1429423538 0.2684022304
510296940.0 -0.134591803 0.2610512554 0.1998279192 -0.3815342447 0.1996470337 -0.3815074556 -0.1395513054 0.2703838524
515296910.0 -0.131610131 0.2628008362 0.1952972952 -0.3831746986 0.1950470403 -0.3829170358 -0.1374293023 0.2713817789
520296880.0 -0.1289031864 0.2641500485 0.1911202156 -0.3848884672 0.1907411114 -0.3850285749 -0.1340811492 0.2737899069
525296850.0 -0.126146541 0.2655380998 0.1867773883 -0.386935013 0.1865281863 -0.3868788792 -0.1311603375 0.2747537204
530296820.0 -0.1234522909 0.2671582458 0.1823606 -0.3889070085 0.1826069066 -0.3891203242 -0.1286982574 0.276341731
535296790.0 -0.1199653404 0.268487557 0.1781237149 -0.3909412416 0.1779740886 -0.3911748642 -0.1251413391 0.2782665044
540296760.0 -0.1171476494 0.2700131158 0.1737391637 -0.3928268735 0.1735315465 -0.3928613331 -0.1224077797 0.2791224682
545296730.0 -0.1146422721 0.2717109977 0.1696518208 -0.3946302929 0.1695339832 -0.3945246629 -0.1195167687 0.280936631
550296700.0 -0.1111076924 0.2729876562 0.1652237196 -0.3965113599 0.1652141745 -0.3966724751 -0.1163189314 0.282283955
555296670.0 -0.1084982209 0.2743136568 0.1610692449 -0.3983826602 0.1606178509 -0.3982253193 -0.1133962489 0.2829305285
560296640.0 -0.1052932227 0.2752352235 0.1561186564 -0.3996929989 0.1567143855 -0.4001753123 -0.1105682449 0.2850107532
565296610.0 -0.1024978495 0.2766451767 0.1521715554 -0.4014396149 0.1524176471 -0.4011836279 -0.1076773288 0.286219315
570296580.0 -0.0993020356 0.2782662158 0.1474403603 -0.4031308313 0.1476509753 -0.4031168698 -0.1045596742 0.2872333419
575296550.0 -0.0962868608 0.2793511665 0.1434351493 -0.4049563591 0.1431619524 -0.4047590728 -0.1013658623 0.2885607001
580296520.0 -0.0933597112 0.2806298834 0.1387847515 -0.4057479137 0.1387921431 -0.4063860526 -0.0988627618 0.2896326594
585296490.0 -0.0899817551 0.2822572183 0.1345441193 -0.4077149361 0.1342249092 -0.4075253397 -0.095200484 0.2909517897
590296460.0 -0.0865987854 0.2829937613 0.1300586383 -0.4092257882 0.1299978998 -0.4092266265 -0.0924118374 0.2921289256
595296430.0 -0.0837819103 0.2839842991 0.1249693225 -0.4105188746 0.1252417702 -0.4102074836 -0.0892804291 0.2931247131
600296400.0 -0.0809371757 0.2851820374 0.1205462004 -0.4117055726 0.1208556833 -0.4117076642 -0.0861599402 0.2940062239
605296370.0 -0.0777829965 0.2863960251 0.1166982531 -0.412868515 0.1161620615 -0.4130845457 -0.0829036313 0.2955155755
610296340.0 -0.0745079847 0.287684212 0.1120176044 -0.4137043538 0.1119892692 -0.4141966949 -0.0800003209 0.2962596137
615296310.0 -0.0712351112 0.2885650429 0.1074634203 -0.4157123391 0.107069728 -0.4155688946 -0.0762784923 0.2973800815
620296280.0 -0.0685339047 0.2898849257 0.1026506172 -0.4162879959 0.1024297775 -0.4163818223 -0.0734920483 0.2985921164
625296250.0 -0.0656123062 0.290171036 0.0983708586 -0.4174514644 0.0981704384 -0.417589274 -0.0706098922 0.2993546955
630296220.0 -0.0624276619 0.2913893432 0.0938403684 -0.4182134343 0.0934230916 -0.4183313521 -0.067321538 0.2999264481
635296190.0 -0.0593612524 0.2925509201 0.0892637052 -0.419144256 0.0890581333 -0.4190487938 -0.0643689106 0.3005826445
640296160.0 -0.0561634994 0.2934319271 0.0848018327 -0.4204320693 0.084292955 -0.4204217309 -0.0611641154 0.3015432679
645296130.0 -0.0528805393 0.2944317593 0.0798906998 -0.4212635669 0.0800259322 -0.4208947272 -0.0579949038 0.3021076967
650296100.0 -0.0494142583 0.2946735944 0.0755676481 -0.4218560369 0.0751353069 -0.4222550322 -0.0543807649 0.3027888849
655296070.0 -0.0465654392 0.2956216826 0.0707085032 -0.4227919647 0.0706661084 -0.4225740653 -0.0516321703 0.3039968137
660296040.0 -0.043622804 0.2965692065 0.0665468014 -0.4237321486 0.0662700308 -0.4235647871 -0.04821048 0.3043383019
665296010.0 -0.0403319774 0.2971328109 0.0615005553 -0.4237318583 0.0615009339 -0.4237416702 -0.0453488468 0.3052540243
670295980.0 -0.0371441693 0.2979779445 0.0567352396 -0.4244131444 0.0571592344 -0.4243649092 -0.0424055794 0.3058468956
675295950.0 -0.0341092844 0.2985956461 0.0523625055 -0.4250266465 0.0526418814 -0.4252215881 -0.0390467424 0.3062221122
680295920.0 -0.0312915483 0.2997288216 0.0479669068 -0.425691577 0.0476273737 -0.4255298921 -0.0354843034 0.3066718787
685295890.0 -0.0278512627 0.3002288427 0.0429949479 -0.4262203036 0.0430526975 -0.4262501867 -0.0324100987 0.307440796
690295860.0 -0.0248748863 0.3005167921 0.0386580999 -0.4265140608 0.0385106149 -0.4263995524 -0.0291834755 0.3076574512
695295830.0 -0.0217384848 0.3010528635 0.0343506065 -0.4267471276 0.0336273041 -0.4268737042 -0.025811876 0.3087021773
700295800.0 -0.0182691067 0.3016271869 0.0296389546 -0.4272480056 0.0293087391 -0.4273122143 -0.0225533064 0.3088251478
705295770.0 -0.0154087112 0.3024828924 0.0249130412 -0.4278055602 0.0244623009 -0.4275795031 -0.019392583 0.3095043004
710295740.0 -0.0128218821 0.3024281503 0.0204790101 -0.4274834155 0.0198228837 -0.4280963673 -0.0162054239 0.3094705396
715295710.0 -0.0090376125 0.3031034512 0.0155366877 -0.428076764 0.0153822769 -0.4276796526 -0.0126115548 0.3096094536
720295680.0 -0.0058165023 0.3031231464 0.010750762 -0.4278503976 0.0106018027 -0.4279168248 -0.0097497044 0.3098388276
725295650.0 -0.0028395804 0.3039497819 0.0064438159 -0.4281652892 0.0066622663 -0.4281543155 -0.0066553938 0.3102764732
730295620.0 -0.0004189159 0.3040764733 0.0018582397 -0.427601713 0.0015391275 -0.4276548272 -0.0033006179 0.3109615298
735295590.0 0.0029187475 0.3044585132 -0.0029363829 -0.4279819941 -0.0032691205 -0.4282873521 7.99772e-05 0.3108532917
740295560.0 0.0058267201 0.3041282532 -0.0075261893 -0.4278584882 -0.0072132386 -0.4281265475 0.003253489 0.3109279037
745295530.0 0.0091537583 0.3047017799 -0.0119313531 -0.4274974117 -0.0115846065 -0.4277142617 0.0062593386 0.3113044148
750295500.0 0.0119002563 0.3046372802 -0.0163851799 -0.427345532 -0.0169134126 -0.4277343209 0.0097162864 0.3112084862
755295470.0 0.0151587701 0.3049104532 -0.0213035028 -0.4272137587 -0.0212064587 -0.4276807466 0.0127070457 0.311382616
760295440.0 0.01815758 0.3050832643 -0.0261374055 -0.4269670173 -0.0258648258 -0.4268875295 0.0164368015 0.3105909889
765295410.0 0.0214662955 0.3051142134 -0.0305355988 -0.4266099147 -0.0306113352 -0.4266797746 0.0196446474 0.3111032768
770295380.0 0.0242618701 0.3055921245 -0.0347713626 -0.4262259827 -0.035157545 -0.4265465266 0.022560511 0.3109526292
775295350.0 0.0274161986 0.3049841287 -0.0395791953 -0.4259070337 -0.0397758951 -0.4256942825 0.0261133365 0.3111583671
780295320.0 0.0304600676 0.3052058704 -0.0438584145 -0.4254318483 -0.0443427758 -0.4254381874 0.0294786872 0.3109807821
785295290.0 0.033713755 0.3044432041 -0.048622561 -0.4247693932 -0.0488096576 -0.424975152 0.0324732815 0.3110593647
790295260.0 0.0365628505 0.3043824873 -0.0531499677 -0.4241296853 -0.0531188567 -0.4247190915 0.0354419264 0.3106613898
795295230.0 0.0397841566 0.3041844677 -0.0578676461 -0.4237798289 -0.0579384739 -0.4238020322 0.038800063 0.309779473
800295200.0 0.0426949987 0.3043055762 -0.0618292666 -0.422563463 -0.0624118522 -0.4230683631 0.0419112046 0.3095753173
805295170.0 0.0455708339 0.3043637873 -0.0669649645 -0.4223029776 -0.0668073522 -0.4225677018 0.0455063238 0.309637991
810295140.0 0.0488895944 0.3037564715 -0.0713125454 -0.4214652249 -0.0713037798 -0.4215958465 0.0487483849 0.3092393978
815295110.0 0.0515481703 0.3036619981 -0.0758647053 -0.4209252293 -0.0759387027 -0.4210686601 0.051789802 0.308831205
820295080.0 0.0547316385 0.3028812017 -0.080130788 -0.4195529479 -0.0804219924 -0.4201880509 0.0545229148 0.3090096255
825295050.0 0.0577375432 0.3024363189 -0.0849052134 -0.4189473556 -0.0852902189 -0.4190288619 0.0584758627 0.3083695186
830295020.0 0.0608746798 0.3023766073 -0.0894883017 -0.4178230631 -0.0895510458 -0.4180927675 0.0612890071 0.3074432314
