!Created with skrf (http://scikit-rf.org).
# Hz S RI R 50.0 
!freq ReS11 ImS11 ReS21 ImS21 ReS12 ImS12 ReS22 ImS22
300000.0 -0.2334519884 -0.1341684064 0.4659885067 0.0856182935 0.4675105846 0.0830574933 -0.2349443489 -0.1267168463
5299970.0 -0.2416641579 0.0053148576 0.4747907027 0.0061119965 0.4752762719 0.0055827588 -0.2443787226 0.0048522073
10299940.0 -0.2388708889 0.018561931 0.4772493355 0.0066544631 0.4772868002 0.0069349919 -0.2411896302 0.0173998392
15299910.0 -0.2337996329 0.0287887475 0.4805770175 0.0081366914 0.4807234211 0.0079383095 -0.2369216629 0.0265245159
20299880.0 -0.2286174691 0.0367906196 0.4852990031 0.0083691793 0.4855754498 0.0081057428 -0.2320734468 0.033675745
25299850.0 -0.2226326422 0.0432219907 0.4906095993 0.0079276528 0.4909763325 0.0072132689 -0.2272010351 0.0402368738
30299820.0 -0.2173284913 0.0486366524 0.4964255301 0.0050131791 0.496339872 0.0048765553 -0.2218266252 0.0446739852
35299790.0 -0.2112491944 0.0527598428 0.5008576528 0.0020775066 0.5017889006 0.0019428162 -0.2171290966 0.0493668652
40299760.0 -0.2061488364 0.0560300976 0.5062556996 -0.0019710826 0.5065049988 -0.0019979221 -0.2119812194 0.0521584347
45299730.0 -0.200985902 0.0588442578 0.5107414989 -0.0067316413 0.5114853426 -0.0067730521 -0.2073342481 0.0549030121
50299700.0 -0.19618865 0.0606646867 0.5149927734 -0.0125457021 0.5154916348 -0.0125612047 -0.2028416343 0.0571231816
55299670.0 -0.1918087537 0.0625326095 0.5188681935 -0.0182381402 0.5190893748 -0.0184281521 -0.1993596206 0.0586217637
60299640.0 -0.1879038642 0.0640347137 0.5227318197 -0.0243764207 0.5228231064 -0.024627307 -0.1954989621 0.0597934422
65299610.0 -0.1843026068 0.0650785693 0.5256808087 -0.0304148506 0.5256285452 -0.0311748729 -0.1921710775 0.0610960732
70299580.0 -0.1806043814 0.0656932262 0.5275442028 -0.0371533299 0.5278748471 -0.0375869449 -0.189187024 0.0617865682
75299550.0 -0.1781151203 0.0667855276 0.5297254391 -0.0446434267 0.5297280077 -0.0446859419 -0.1863810538 0.0627900225
80299520.0 -0.1751190941 0.0677336327 0.5314510821 -0.0510563927 0.531772746 -0.0514960562 -0.183823354 0.0637855586
85299490.0 -0.1725109132 0.0681597915 0.5329183806 -0.058398101 0.5329795263 -0.0581079772 -0.1816690022 0.0640852808
90299460.0 -0.1702038918 0.0690111121 0.5337982941 -0.0653159758 0.533561626 -0.064830161 -0.1795360463 0.0649988034
95299430.0 -0.1680666791 0.0696974074 0.5346081414 -0.0719900396 0.5352383125 -0.0722202554 -0.1775893865 0.065618526
100299400.0 -0.1660222669 0.0704161691 0.5348770992 -0.0787292665 0.5353614758 -0.0789153481 -0.1760152449 0.0664772812
105299370.0 -0.1640899768 0.0707366749 0.5351303765 -0.0856065001 0.5356252463 -0.0856722378 -0.1739872188 0.0668640541
110299340.0 -0.1624011294 0.0715286547 0.5357465712 -0.0920350994 0.5361284041 -0.0922275775 -0.1728576588 0.0673056241
115299310.0 -0.160877956 0.0722089284 0.5350307846 -0.0990456138 0.5355615615 -0.0991398927 -0.1714919906 0.0682686114
120299280.0 -0.1593552497 0.0732790291 0.5352031915 -0.1065089285 0.534963265 -0.106613373 -0.1702284958 0.0686242198
125299250.0 -0.1578103824 0.073817935 0.5349633257 -0.1129222508 0.5350046124 -0.1127847715 -0.169059903 0.0695542402
130299220.0 -0.1566263713 0.0747885556 0.5343266469 -0.1200625569 0.5341899942 -0.1202013856 -0.1677487184 0.0705171942
135299190.0 -0.1555831304 0.0758872949 0.5338487613 -0.1260528161 0.534116303 -0.1266202206 -0.1667700167 0.0710893497
140299160.0 -0.1543297219 0.076576839 0.5334631062 -0.133227238 0.5328407848 -0.132752732 -0.1662322397 0.0717026293
145299130.0 -0.1535296613 0.0779886084 0.5323040611 -0.1391433023 0.532007073 -0.1394989198 -0.164980199 0.0727719047
150299100.0 -0.1521961732 0.0787717018 0.5310390762 -0.1459802444 0.5307472713 -0.1460318243 -0.1643861801 0.0739656603
155299070.0 -0.1509880518 0.0799651837 0.5291870959 -0.1522227644 0.5298875226 -0.1526575724 -0.1635235493 0.0747253751
160299040.0 -0.1502037302 0.081443199 0.5284358422 -0.1590717882 0.5281512171 -0.1590132274 -0.162593462 0.0760258879
165299010.0 -0.1487136882 0.0822532786 0.527088642 -0.165305654 0.5267282383 -0.1657415636 -0.1614756083 0.0766999165
170298980.0 -0.1479838574 0.083400376 0.5249949147 -0.1715021102 0.5251485468 -0.1718623148 -0.161096268 0.0776033814
175298950.0 -0.1468716017 0.0847742639 0.5234982606 -0.1780641025 0.5239405654 -0.1782108249 -0.1603983024 0.0791578634
180298920.0 -0.1460708588 0.0859402434 0.5215025002 -0.1843529364 0.5220621841 -0.1844411708 -0.159574058 0.0801938508
185298890.0 -0.1449381434 0.0874037733 0.5201395025 -0.1903332594 0.5200922968 -0.1903562217 -0.1586305428 0.0813042897
190298860.0 -0.1435746892 0.0887027285 0.5177866889 -0.1966275769 0.5181567255 -0.1966387364 -0.1577986928 0.0822600001
195298830.0 -0.1429557445 0.0902577436 0.5164056981 -0.2027953194 0.5165422111 -0.2029530562 -0.1573827025 0.0835909441
200298800.0 -0.1417800259 0.0910342588 0.5139838921 -0.2089650132 0.5143402916 -0.2088878059 -0.156394476 0.0845126943
205298770.0 -0.1412775674 0.0924785064 0.511820514 -0.2151051184 0.5119923033 -0.2147736456 -0.1556504961 0.0860994797
210298740.0 -0.1404458879 0.0940445044 0.5096808812 -0.220889227 0.5093446631 -0.2207687632 -0.1552462923 0.0868396234
215298710.0 -0.1392601844 0.0954598927 0.5072886312 -0.2263098628 0.5074092355 -0.226999432 -0.1542385465 0.0882555258
220298680.0 -0.1382765898 0.0970010645 0.5046324254 -0.2326540297 0.5045044447 -0.2328789913 -0.1534620132 0.0896366694
225298650.0 -0.1372230578 0.0982148567 0.5023380037 -0.2382524253 0.5026524936 -0.2381836301 -0.1528874564 0.0907065267
230298620.0 -0.1359467033 0.1000804249 0.4998431106 -0.2446126519 0.5000353339 -0.2448151177 -0.1522608077 0.0918813502
235298590.0 -0.1355398759 0.1015367844 0.4973760181 -0.2506355786 0.4976683829 -0.2500609039 -0.1513389216 0.0934116869
240298560.0 -0.134239975 0.102806257 0.4947066574 -0.2554032152 0.4945194244 -0.255602716 -0.1504372396 0.0942862711
245298530.0 -0.1333806267 0.1035984713 0.4919283428 -0.2614903128 0.4920017871 -0.2615559735 -0.149716257 0.0960503375
250298500.0 -0.1321548018 0.1053613934 0.4891317138 -0.2671504362 0.4889805441 -0.2668624345 -0.1491043244 0.0974782164
255298470.0 -0.1310378479 0.1072359198 0.4864777447 -0.2723589963 0.4870962383 -0.2728031663 -0.148103875 0.0988590919
260298440.0 -0.1300263713 0.1084174675 0.4835825511 -0.2777018294 0.4836222692 -0.2777725788 -0.1474815242 0.0998242256
265298410.0 -0.1293816062 0.1101319833 0.4802580526 -0.2839844146 0.4800767961 -0.2840415202 -0.145836506 0.1011711272
270298380.0 -0.1283660842 0.1113267292 0.4772257808 -0.2889990949 0.4774786095 -0.2889333287 -0.1454763989 0.1028324946
275298350.0 -0.1269827159 0.1133362478 0.4736614862 -0.2942623531 0.4738446497 -0.2944265534 -0.1445846981 0.1042879999
280298320.0 -0.1261191493 0.1143961986 0.4707434626 -0.2992860576 0.4709567849 -0.3000602085 -0.1434922087 0.1054199297
285298290.0 -0.1249710996 0.1160046945 0.4675823068 -0.3053699064 0.4676697848 -0.3050570098 -0.1427839578 0.1068314013
290298260.0 -0.1237070629 0.1175579064 0.4648469161 -0.310381821 0.4645282965 -0.3102482646 -0.1415452391 0.1077992787
295298230.0 -0.1226142727 0.1187256913 0.4609031062 -0.3159166025 0.4613695282 -0.3159006378 -0.1406253359 0.1092927135
300298200.0 -0.1212946108 0.1203597589 0.4577096815 -0.3210648655 0.4579986627 -0.3209752265 -0.1398618741 0.1107645004
305298170.0 -0.1201432364 0.1212182825 0.4541057479 -0.326228025 0.454192895 -0.3262204435 -0.1388082839 0.1116309318
310298140.0 -0.1186572524 0.12240074 0.4506444471 -0.3312119036 0.4510405762 -0.3312443727 -0.1376298211 0.113039546
315298110.0 -0.1177854605 0.1238396196 0.44731246 -0.3371083842 0.4472579872 -0.3365897013 -0.1368755454 0.1142886502
320298080.0 -0.1164938196 0.1250766441 0.4428501435 -0.3418536043 0.4438669484 -0.3420370541 -0.1359133184 0.1154801046
325298050.0 -0.1156259742 0.126117609 0.4394486323 -0.3466434641 0.4399381888 -0.3463651263 -0.1347430052 0.1164759049
330298020.0 -0.1148516871 0.1279031519 0.435507034 -0.3517682856 0.4360087036 -0.351959637 -0.1341475854 0.1180348133
335297990.0 -0.1135886757 0.1290078945 0.4313454806 -0.3565847931 0.4319378531 -0.3564728626 -0.1329842605 0.1191817124
340297960.0 -0.1123383177 0.1304247277 0.4268847298 -0.3616107323 0.4272248895 -0.3615408215 -0.131806492 0.1208518977
345297930.0 -0.1113602902 0.1317301164 0.4235597963 -0.3660810641 0.4234309591 -0.3658089378 -0.1311392862 0.1216996372
350297900.0 -0.1102305207 0.1328383654 0.4195618639 -0.3701431069 0.4196326493 -0.3704302626 -0.1300068414 0.1230384107
355297870.0 -0.1088337842 0.1344995488 0.4153476955 -0.3747154112 0.4150013311 -0.3749416876 -0.1286223253 0.1246904654
360297840.0 -0.1075171449 0.1359031783 0.4109027462 -0.3797126517 0.4113399939 -0.3801306705 -0.1280817592 0.126560188
365297810.0 -0.1063908865 0.1369243647 0.4068548266 -0.3839781863 0.4070799529 -0.3842305388 -0.1270826421 0.1276445093
370297780.0 -0.1048115676 0.1384661127 0.4023086926 -0.3886840116 0.4029413279 -0.3886081461 -0.1255771166 0.1287649004
375297750.0 -0.1034688071 0.1399326028 0.3984012073 -0.3930842995 0.3985587704 -0.3932424092 -0.1246085734 0.1301329651
380297720.0 -0.102437932 0.1412148702 0.394696917 -0.3979949796 0.3937733165 -0.3974622807 -0.1233329071 0.1315205682
385297690.0 -0.1008276377 0.1422127698 0.3895097242 -0.4016071871 0.3900540873 -0.4020407629 -0.1221375755 0.1332796043
390297660.0 -0.09918495 0.1431815394 0.3848837497 -0.4056573653 0.3852657039 -0.4062937055 -0.1204098593 0.1343235929
395297630.0 -0.0974029511 0.1447609117 0.3809604273 -0.4095184018 0.3808784454 -0.4100112194 -0.1197438428 0.1357311215
400297600.0 -0.0960980555 0.1456905378 0.3762994366 -0.4142145567 0.3769415587 -0.4142797524 -0.1181752387 0.1370514012
405297570.0 -0.0945695162 0.1466468149 0.3719710709 -0.4183270588 0.372120954 -0.4182777766 -0.1168048724 0.1381744229
410297540.0 -0.0933170421 0.1480013343 0.3671804952 -0.4223281697 0.3678453311 -0.4226252036 -0.1156516222 0.1397404173
415297510.0 -0.0918758977 0.1492486667 0.3626061972 -0.4261331324 0.3632688372 -0.4267597705 -0.1143621928 0.140747392
420297480.0 -0.0904742378 0.1500725926 0.3578487149 -0.4299603723 0.3582050938 -0.4303275038 -0.1126742977 0.1420851348
425297450.0 -0.0883871057 0.1514327179 0.353239187 -0.4341245486 0.3532082765 -0.4341055995 -0.1115727244 0.1429113691
430297420.0 -0.0869171314 0.1523796941 0.3488141411 -0.4381004257 0.3487480561 -0.4379833484 -0.1096742169 0.1443763677
435297390.0 -0.0854154408 0.1533777138 0.3435334859 -0.4424127396 0.3435241207 -0.4417415116 -0.1086596259 0.146068331
440297360.0 -0.0832823505 0.1542105434 0.3384736146 -0.445732349 0.3388109358 -0.4458101774 -0.1075702036 0.147153254
445297330.0 -0.0816899669 0.1551354925 0.3337717064 -0.4491552808 0.3339760025 -0.449725671 -0.105729338 0.1484213171
450297300.0 -0.0800062955 0.1565173294 0.328824779 -0.452933142 0.3292147265 -0.4530406202 -0.104195238 0.1497358357
455297270.0 -0.0787345401 0.1573828379 0.3242527991 -0.4565983067 0.3243258522 -0.4564309924 -0.1029633937 0.1505581311
460297240.0 -0.0765814788 0.1581177877 0.3193040747 -0.4601863036 0.3192277865 -0.4601654103 -0.1015181416 0.1516322847
465297210.0 -0.0750516261 0.1592062582 0.3137663493 -0.4636284502 0.3139154337 -0.4639723436 -0.0997649838 0.1532498577
470297180.0 -0.0732611544 0.1602316397 0.3087455804 -0.4669091114 0.3091645058 -0.4669242181 -0.0982387218 0.1537387208
475297150.0 -0.0716087649 0.1611842686 0.3036753854 -0.4700338393 0.3040210726 -0.4703517041 -0.0967625665 0.155314988
480297120.0 -0.0692674787 0.1623679068 0.2987750166 -0.4736512729 0.2987217928 -0.4734969564 -0.095635373 0.1559641447
485297090.0 -0.0676922795 0.1626179197 0.2933007214 -0.4768573246 0.293517023 -0.4767402889 -0.0941344019 0.1575359655
490297060.0 -0.0651290202 0.1637884554 0.2876717601 -0.4798144898 0.2883504202 -0.4800887343 -0.0924974247 0.1580876624
495297030.0 -0.0639506006 0.1643543316 0.283302252 -0.4828560632 0.2830255292 -0.4831307872 -0.0905382008 0.1590069152
500297000.0 -0.0621103183 0.165309465 0.2777121558 -0.4855556266 0.2777134722 -0.4863480769 -0.0892136273 0.1604313494
505296970.0 -0.059862303 0.1660294352 0.2723070019 -0.4894056881 0.2725666219 -0.4886261279 -0.0873993255 0.1608408362
510296940.0 -0.0580234947 0.1669613262 0.2672156481 -0.4922405496 0.2674311284 -0.4921748767 -0.0857430832 0.1623202683
515296910.0 -0.0561450732 0.1677462467 0.2615360177 -0.4947190871 0.261469334 -0.49488086 -0.0842638672 0.1629001279
520296880.0 -0.0543261673 0.1682855023 0.2565678031 -0.4971187289 0.2558549834 -0.4975651508 -0.0822771352 0.1644924375
525296850.0 -0.05227665 0.1690846126 0.2504786178 -0.5001582115 0.250406802 -0.500257964 -0.0806568026 0.1653723542
530296820.0 -0.0506926297 0.1697915347 0.2450295729 -0.5027740718 0.2453050644 -0.5028331078 -0.0791634399 0.1658514505
535296790.0 -0.0479484617 0.1705579187 0.2395890055 -0.5052011537 0.2398578572 -0.5056185638 -0.0773820157 0.16700441
540296760.0 -0.0460497909 0.1714197776 0.2340004985 -0.5083356794 0.2341337211 -0.5082069059 -0.0757574881 0.167564886
545296730.0 -0.0447946434 0.1722103781 0.2289802861 -0.5103720607 0.2283468506 -0.5102723363 -0.0739917159 0.168742162
550296700.0 -0.0419567017 0.1728730031 0.2234595056 -0.5131296082 0.2227382813 -0.5130425911 -0.072224796 0.1692160871
555296670.0 -0.0405181891 0.1734718845 0.2173339627 -0.5159193766 0.2173147192 -0.5155175997 -0.0709746777 0.1697566402
560296640.0 -0.0379827825 0.1739238644 0.2116928644 -0.5176445846 0.2121898089 -0.5178482304 -0.0690541754 0.1712955943
565296610.0 -0.0365806777 0.1745500701 0.2064907342 -0.5199597191 0.2063549061 -0.5194210376 -0.0673421596 0.1720967341
570296580.0 -0.0343917722 0.1754590966 0.2007371193 -0.5216923561 0.2005975564 -0.5222215737 -0.0656038197 0.172615259
575296550.0 -0.0321017151 0.175720947 0.1949698418 -0.5243618538 0.1949935496 -0.5241782624 -0.0640041631 0.1732855604
580296520.0 -0.0301883814 0.1766047304 0.1894512259 -0.5265170058 0.1890592932 -0.5265175827 -0.0625357695 0.1740622333
585296490.0 -0.0279661418 0.177001683 0.1837630559 -0.5281501028 0.1832665066 -0.5281232102 -0.0601207892 0.1751251137
590296460.0 -0.0254433033 0.1775626299 0.1781050994 -0.5302587504 0.1778171431 -0.5304844036 -0.0590088576 0.1755960068
595296430.0 -0.0236398244 0.1779830495 0.1715191193 -0.5321709305 0.1717506015 -0.5320315013 -0.056954948 0.1758477051
600296400.0 -0.0214249603 0.1785511109 0.1660943086 -0.5334716023 0.1659250426 -0.5337853237 -0.0550877499 0.176364265
605296370.0 -0.0199932215 0.1789606555 0.1605066688 -0.5354302647 0.1604962726 -0.5357101321 -0.0535306247 0.1776300001
610296340.0 -0.0174196124 0.1798032801 0.1546238133 -0.5366130811 0.1546848768 -0.5368910886 -0.0519807851 0.1784625502
615296310.0 -0.0151144732 0.1800229833 0.1489033048 -0.5390435062 0.1485758378 -0.5390092425 -0.0499868432 0.179224072
620296280.0 -0.013552065 0.1806904217 0.1428841835 -0.5399240741 0.1428222255 -0.5402993508 -0.0486369675 0.1798317361
625296250.0 -0.0115813142 0.1807283586 0.1371358287 -0.5418702744 0.1371433323 -0.5422977146 -0.0468751611 0.1802253871
630296220.0 -0.0095106801 0.1814310116 0.1312940808 -0.5433627417 0.1308865288 -0.5433445287 -0.0446895586 0.1807535574
635296190.0 -0.0074015764 0.1818006861 0.1255275074 -0.5446592662 0.1250266463 -0.544426899 -0.0431974841 0.1810026375
640296160.0 -0.0054394435 0.1819681423 0.1192741277 -0.5457925016 0.1192633603 -0.5459750382 -0.0413935805 0.1817203559
645296130.0 -0.0030081751 0.1824225081 0.1132062135 -0.5470498428 0.1133547213 -0.5471405309 -0.0397485248 0.1819101753
650296100.0 -0.0011724283 0.182571266 0.1074334145 -0.5483097885 0.1072552895 -0.5484187114 -0.0372063387 0.1826671193
655296070.0 0.0007695817 0.1828673159 0.1012972856 -0.5496510216 0.1013751823 -0.5493514263 -0.036517989 0.1835025319
660296040.0 0.0029991979 0.183295684 0.0959621268 -0.5502647722 0.0957744337 -0.5506866761 -0.0344198289 0.183840297
665296010.0 0.0050581847 0.1835814337 0.0893637138 -0.5511759274 0.0894640418 -0.5511690178 -0.032262074 0.184232599
670295980.0 0.0072378076 0.1836082012 0.083468966 -0.5525769683 0.0832933016 -0.5518871735 -0.03108955 0.1845669483
675295950.0 0.0090930089 0.1838794209 0.0775717415 -0.5525813171 0.0778760064 -0.5531420248 -0.0291255713 0.1854116589
680295920.0 0.0106930155 0.1843134239 0.0718482916 -0.5537769864 0.0716794139 -0.5538384798 -0.0270209981 0.1851628682
685295890.0 0.0131909833 0.1845474133 0.065652334 -0.5548413807 0.0661477968 -0.5547048136 -0.0252965017 0.1860085396
690295860.0 0.0149585504 0.1843847806 0.0600023089 -0.5550406287 0.0596505017 -0.5556863784 -0.0234238995 0.1863789009
695295830.0 0.0173507814 0.1842997383 0.0540709434 -0.555616641 0.0538695082 -0.5556769145 -0.0217458937 0.1871281995
700295800.0 0.0192286812 0.1845292684 0.0483135277 -0.5565195461 0.0477871192 -0.5561455554 -0.0196082956 0.1871465719
705295770.0 0.0210260641 0.185010814 0.0417127134 -0.5569401467 0.0417595362 -0.5566748473 -0.0179577033 0.1878874256
710295740.0 0.0229840098 0.1845051011 0.0358510908 -0.5570940362 0.0358356811 -0.5575105063 -0.0158403714 0.1881362472
715295710.0 0.0252743794 0.1849091957 0.0301670443 -0.5573887346 0.02994121 -0.5577530994 -0.0143953752 0.1881371779
720295680.0 0.0274142598 0.1849418609 0.0239130148 -0.5578058575 0.0236826718 -0.5582659185 -0.0126587658 0.1885744081
725295650.0 0.0287626732 0.1847633928 0.0180541846 -0.5579526065 0.0179894195 -0.5583728364 -0.0110724853 0.1892692871
730295620.0 0.0307687398 0.1846512114 0.0117910017 -0.5576738783 0.0121535931 -0.5577202483 -0.0091414469 0.1894482988
735295590.0 0.0329923156 0.1846376746 0.0062462389 -0.5581613275 0.0060814303 -0.5582194671 -0.0071541183 0.1891082105
740295560.0 0.0348134591 0.1844569908 0.0002556905 -0.558494674 9.947e-05 -0.5588105797 -0.005722039 0.1900243142
745295530.0 0.0369606318 0.1842940988 -0.0062299181 -0.5573513061 -0.005277775 -0.5583609984 -0.0040090796 0.1900626009
750295500.0 0.0386160684 0.1845633326 -0.011652628 -0.5577748019 -0.0124545997 -0.558057139 -0.0019177711 0.1904968596
755295470.0 0.0404772902 0.184196268 -0.0178633026 -0.5582427353 -0.017963777 -0.5582804012 -0.0001131072 0.1907064754
760295440.0 0.0425266191 0.1841160917 -0.0243200822 -0.5576752642 -0.0239863151 -0.5570713027 0.0018985831 0.1900025679
765295410.0 0.0446978545 0.1834821636 -0.0297885864 -0.5570233856 -0.0297517047 -0.5575898511 0.0037096311 0.1906701829
770295380.0 0.0465231828 0.1836196797 -0.0356473299 -0.5562935621 -0.0356180075 -0.5572307756 0.0053839089 0.1907153691
775295350.0 0.0481598915 0.1829728769 -0.0416979574 -0.5566504884 -0.0419475717 -0.556071684 0.0073629319 0.1909632345
780295320.0 0.050158461 0.1829249763 -0.0471821755 -0.5557235013 -0.0473464156 -0.5561525328 0.0093658522 0.1909618172
785295290.0 0.0520564335 0.1823983416 -0.0534769182 -0.5554360753 -0.0536850755 -0.5556678729 0.0107109018 0.1914170727
790295260.0 0.0542027108 0.1818877849 -0.0596186032 -0.5548351416 -0.0592405056 -0.5550079164 0.0125722299 0.1916719361
795295230.0 0.0559727133 0.181515349 -0.0656378283 -0.5542539436 -0.0656991855 -0.5542808279 0.015031576 0.1910255115
800295200.0 0.0576261137 0.1812932418 -0.0709541062 -0.5529298679 -0.0714317363 -0.5533118283 0.0162514891 0.1912065303
805295170.0 0.0599049593 0.1809940789 -0.0774347025 -0.5525221901 -0.0774468471 -0.5528406901 0.0187993187 0.1913372087
810295140.0 0.061535263 0.1806915866 -0.0830062343 -0.5515493063 -0.083492332 -0.5514011414 0.0204423708 0.1912788742
815295110.0 0.0635132133 0.180055047 -0.0892891831 -0.5504948428 -0.0885918338 -0.5510394762 0.0219883129 0.1909410791
820295080.0 0.0652897487 0.1795028106 -0.0946477317 -0.5494235103 -0.0950561777 -0.549984173 0.0231805048 0.1917719326
825295050.0 0.0668900039 0.179008232 -0.1009662106 -0.5484345929 -0.1008054121 -0.5490340525 0.0262003373 0.1915143355
830295020.0 0.0690876175 0.1783598557 -0.1066247015 -0.5477046602 -0.1066098909 -0.5477860279 0.0273875203 0.1910817483
