!Created with skrf (http://scikit-rf.org).
# Hz S RI R 50.0 
!freq ReS11 ImS11 ReS21 ImS21 ReS12 ImS12 ReS22 ImS22
300000.0 0.8587035835 -0.0024584552 -0.0009514812 -0.0001198708 -9.0317e-06 -0.0002178449 -0.7782910806 -0.1356902823
5299970.0 0.8588128737 -0.0092550258 -0.0001670934 -5.13595e-05 -0.0001494796 6.20172e-05 -0.7843775104 -0.0069562802
10299940.0 0.8581850798 -0.0184702458 -8.29214e-05 -9.71776e-05 -8.32598e-05 -0.0002323366 -0.7878835565 -0.0034703387
15299910.0 0.8573526323 -0.02676057 6.67445e-05 -4.2188e-06 3.61808e-05 -0.0001998613 -0.7929912412 -0.0015819403
20299880.0 0.8561064455 -0.0356820213 0.0002474173 -8.19973e-05 -3.45748e-05 -5.97811e-05 -0.7997551325 0.0021800296
25299850.0 0.8555023229 -0.0442577758 -4.22335e-05 0.0001114844 0.0001924183 -9.01629e-05 -0.8062663268 0.0081817651
30299820.0 0.8553787262 -0.0524282772 8.77655e-05 -1.802e-06 4.6073e-05 -0.0001209719 -0.8123485415 0.0168285679
35299790.0 0.853790419 -0.0605135673 0.0001436217 1.70607e-05 -6.05106e-05 0.0001610767 -0.8173636654 0.0249826528
40299760.0 0.8530298867 -0.0690505121 0.0001027265 -0.0003078088 3.1445e-05 -9.55702e-05 -0.8214256365 0.0345014263
45299730.0 0.8525612714 -0.0770026503 9.11087e-05 2.50619e-05 2.53482e-05 -1.81913e-05 -0.825498266 0.0444608002
50299700.0 0.8519097872 -0.0852955486 9.13819e-05 -4.235e-07 5.75421e-05 -0.0001230952 -0.8272464025 0.054234745
55299670.0 0.8506645911 -0.0939017469 0.000164094 -0.0002182233 -7.71202e-05 4.943e-06 -0.829534693 0.0644697088
60299640.0 0.8495110849 -0.1019822135 -0.0001638104 -0.0001898575 2.9363e-06 0.0001293408 -0.8300761573 0.0741315092
65299610.0 0.8478707208 -0.1101177685 0.0001106925 -8.23013e-05 -0.0001479193 3.8298e-06 -0.8318509391 0.0839917468
70299580.0 0.8475824746 -0.1183019342 -6.24728e-05 8.98607e-05 0.0001377013 -8.81299e-05 -0.8314012361 0.0943320086
75299550.0 0.8461638774 -0.1265340116 4.88595e-05 -0.0001368208 3.95833e-05 0.0001148987 -0.8326227731 0.1040012548
80299520.0 0.8439088583 -0.1348515721 -6.01597e-05 3.7683e-05 7.07016e-05 0.0001996527 -0.8317315509 0.1140501174
85299490.0 0.8435314374 -0.1431101307 -2.21533e-05 6.11256e-05 -0.0002382726 7.00675e-05 -0.8316334864 0.1238730319
90299460.0 0.8417224289 -0.1510662804 7.85977e-05 -0.0001249432 0.0001761754 0.0001408135 -0.8306602454 0.133417386
95299430.0 0.8400880248 -0.1600944915 -9.85076e-05 -3.07856e-05 4.34781e-05 -1.5757e-05 -0.8293563132 0.1427628962
100299400.0 0.8384873261 -0.1678043261 0.0002411736 -2.86759e-05 4.99603e-05 -8.48444e-05 -0.8287961219 0.1525891646
105299370.0 0.8369075427 -0.1758790886 -0.0001501474 7.28104e-05 -3.3256e-06 4.09561e-05 -0.8270176693 0.1609514796
110299340.0 0.8351004278 -0.1841500617 3.87942e-05 -8.38056e-05 -5.66329e-05 4.02669e-05 -0.8257048076 0.1704465757
115299310.0 0.8328847558 -0.1917625617 -0.0001436897 5.04561e-05 9.17675e-05 -4.05646e-05 -0.8245927157 0.1798134052
120299280.0 0.8315090894 -0.2001946605 -3.64281e-05 1.46198e-05 5.01958e-05 -7.6275e-05 -0.8223974571 0.1890901464
125299250.0 0.8295104346 -0.2093850499 -9.16827e-05 -1.5417e-05 9.626e-07 5.88924e-05 -0.8211886436 0.1979192477
130299220.0 0.8276526721 -0.2166075319 -9.43643e-05 -2.72594e-05 -4.83485e-05 4.2382e-06 -0.818735103 0.2067004527
135299190.0 0.8248481691 -0.2247430679 1.66009e-05 3.04703e-05 5.26027e-05 0.0001743863 -0.8166793831 0.2165515115
140299160.0 0.823071385 -0.2320659685 -0.0001146938 6.91676e-05 3.51552e-05 -0.0002079234 -0.8143522504 0.2247147733
145299130.0 0.8204067503 -0.2411213956 1.46338e-05 7.72334e-05 0.0001779079 9.6158e-05 -0.8124680578 0.2342083981
150299100.0 0.8187060261 -0.2487755015 0.0001121445 0.0002097669 8.5907e-06 -5.47779e-05 -0.8105512329 0.242885089
155299070.0 0.8152352369 -0.2569026837 -0.0001383958 -7.92461e-05 0.0001537858 -2.519e-07 -0.8074689868 0.252131329
160299040.0 0.8125851122 -0.2649955897 5.4035e-06 6.31556e-05 5.40612e-05 3.263e-07 -0.8050796955 0.2607550369
165299010.0 0.8103118486 -0.2725950875 6.93176e-05 8.3988e-05 0.0001680943 -1.56169e-05 -0.8025106813 0.2693223991
170298980.0 0.8073851589 -0.2807872688 8.40068e-05 2.67489e-05 1.64102e-05 0.0001170439 -0.7992681018 0.2779382986
175298950.0 0.8045701422 -0.2878113155 -4.73864e-05 -9.89773e-05 -7.00368e-05 -5.49042e-05 -0.7968245914 0.286709908
180298920.0 0.801711477 -0.2957537023 6.34002e-05 1.86099e-05 -5.47543e-05 9.11611e-05 -0.7934734289 0.2951645247
185298890.0 0.798512983 -0.3039639829 -0.0001657341 -0.000111549 -0.0001004615 3.37626e-05 -0.7901004996 0.3039634478
190298860.0 0.7955510426 -0.3118636692 -6.9756e-06 6.22603e-05 -2.73221e-05 -6.09491e-05 -0.7880953057 0.3119192531
195298830.0 0.7931817743 -0.3189484876 -0.0001322582 8.79157e-05 4.89385e-05 -0.000102855 -0.7845474142 0.3209642503
200298800.0 0.7889437815 -0.3271679259 0.0001885919 -8.30278e-05 -3.32923e-05 -0.0001478678 -0.7816296683 0.329301399
205298770.0 0.7858757196 -0.3343149382 1.20346e-05 -0.0001547628 -2.17253e-05 6.78267e-05 -0.777714749 0.3374800543
210298740.0 0.7822219975 -0.3426738831 -0.0001639835 -7.33437e-05 -9.43801e-05 -2.65981e-05 -0.7746897805 0.346441716
215298710.0 0.7791474864 -0.3503127101 -7.84048e-05 -4.5278e-05 0.0001333275 4.468e-06 -0.7711252196 0.3538354386
220298680.0 0.775902658 -0.3576488807 3.09616e-05 -7.75113e-05 0.0001424065 -0.0001360552 -0.7674247712 0.3622052301
225298650.0 0.772121002 -0.3659067522 0.0001420004 7.06659e-05 -0.0001133279 0.0002070678 -0.7638950712 0.3705507222
230298620.0 0.7684256949 -0.3730019583 0.0001525096 -1.91944e-05 -6.98166e-05 0.0001204464 -0.759857175 0.3785914793
235298590.0 0.7646819584 -0.3799791339 -1.10048e-05 2.48094e-05 2.35789e-05 -0.0001201931 -0.755836826 0.3871172123
240298560.0 0.7612865578 -0.3883113376 0.0001222793 -8.2904e-06 -2.72083e-05 -0.0002257392 -0.7517069432 0.3954741074
245298530.0 0.7567164501 -0.395366004 1.72271e-05 2.5265e-05 6.8241e-05 2.04339e-05 -0.747914234 0.4024808819
250298500.0 0.7531769907 -0.4021925927 1.7998e-06 -2.93802e-05 -1.45053e-05 0.0002116228 -0.7439670795 0.4099253707
255298470.0 0.7490588348 -0.4102238395 7.71821e-05 -2.35736e-05 0.0001517598 3.76255e-05 -0.7386248827 0.4176074523
260298440.0 0.7446340313 -0.4171690362 -8.11365e-05 -8.1683e-05 0.0001015882 -7.98472e-05 -0.7341933937 0.4266893263
265298410.0 0.7414222702 -0.4248738155 -6.0158e-05 -0.0001398705 -2.4505e-05 0.0001223091 -0.730335861 0.4335184522
270298380.0 0.7368410751 -0.4317926473 2.39933e-05 -0.0001029897 8.44485e-05 0.0001204513 -0.7253680663 0.4409489487
275298350.0 0.7330007177 -0.4394553217 -0.0001153986 -2.71326e-05 -8.49998e-05 -0.0001976869 -0.7211246857 0.4485102497
280298320.0 0.7282915601 -0.4461475573 -0.0001828796 -0.0001788065 -9.06788e-05 -5.01415e-05 -0.7159052646 0.4561519926
285298290.0 0.7239773832 -0.4530804937 6.098e-05 4.83163e-05 -0.0001306298 0.0001186741 -0.7108716022 0.4637208995
290298260.0 0.720233991 -0.4599011935 -6.59469e-05 -0.0001593879 -0.0001926883 -0.0001143521 -0.706266279 0.4709283005
295298230.0 0.7153325204 -0.4668361541 0.0001541535 -3.63479e-05 -2.3132e-05 9.4455e-05 -0.7014287183 0.4781081783
300298200.0 0.7109264256 -0.4746550572 5.77771e-05 6.2698e-05 -0.0001101776 3.51918e-05 -0.696022553 0.4851961095
305298170.0 0.7065237465 -0.4820225456 -9.81209e-05 -9.51338e-05 -5.75553e-05 -9.86486e-05 -0.6905407694 0.4930955543
310298140.0 0.7025035061 -0.4884179148 7.52792e-05 -0.00033019 -0.0001000552 9.26444e-05 -0.6858989675 0.5002060757
315298110.0 0.6979506102 -0.495934698 0.0001143313 7.52329e-05 5.9687e-06 -0.0003571629 -0.6801455804 0.5067469686
320298080.0 0.6935827388 -0.5032796485 0.0001941177 -5.91e-07 9.61349e-05 2.8609e-06 -0.6747557081 0.5144460174
325298050.0 0.687353506 -0.5108677354 -0.0001501159 0.0002958626 -0.0001201746 0.0001139825 -0.6691696692 0.5214233783
330298020.0 0.6817103967 -0.5188178769 -9.9167e-05 -0.0001150106 4.16264e-05 7.0161e-06 -0.6639580369 0.5285239443
335297990.0 0.6756629729 -0.5254058632 0.0001854119 -2.10625e-05 -0.0001165628 0.0002507868 -0.6584751543 0.5358290278
340297960.0 0.6699500031 -0.5318274152 -0.0001515799 -2.12704e-05 7.0301e-06 -5.27078e-05 -0.653040094 0.5426517054
345297930.0 0.6640022718 -0.5385831733 0.000253436 -0.0001247345 -0.0001765536 2.0691e-06 -0.6473990393 0.5484855014
350297900.0 0.6580102696 -0.5438794412 3.52949e-05 1.33739e-05 -0.00012091 0.0001577242 -0.6413985509 0.5551841413
355297870.0 0.6524920325 -0.5502016424 2.158e-07 3.86697e-05 6.69262e-05 -1.79651e-05 -0.6357902003 0.5621645881
360297840.0 0.6471016298 -0.5563490609 5.0833e-06 8.59125e-05 -8.2317e-05 -1.92583e-05 -0.6299661156 0.5688440485
365297810.0 0.6405097492 -0.562657926 3.2805e-05 4.00553e-05 0.0002111369 -4.60051e-05 -0.6230156725 0.5752708302
370297780.0 0.6356305766 -0.5689029609 4.61912e-05 0.0001726814 -0.0001542099 -8.01712e-05 -0.6177777092 0.581340427
375297750.0 0.6293265513 -0.5743619872 6.64262e-05 -1.14575e-05 -0.0003161656 4.65382e-05 -0.6120982884 0.5876414674
380297720.0 0.6236248133 -0.5806705522 7.18991e-05 0.0002436909 -8.9484e-06 -0.0001475753 -0.6053959393 0.5944142378
385297690.0 0.6177839374 -0.5867305067 -3.63969e-05 0.0002026439 8.05239e-05 5.60644e-05 -0.5994628711 0.6010731342
390297660.0 0.6121666306 -0.5920392966 4.35696e-05 6.1298e-05 0.0001510203 -6.51605e-05 -0.5933580997 0.6070399733
395297630.0 0.6062423049 -0.5982317793 -0.0001256505 -5.46151e-05 4.23806e-05 2.19547e-05 -0.5862430883 0.6131772306
400297600.0 0.6003230889 -0.6044064337 -1.70446e-05 -0.0001029234 -3.3303e-05 -3.48938e-05 -0.5809784325 0.6188380031
405297570.0 0.5941222215 -0.6095525243 4.806e-06 -0.0001906527 -1.8994e-05 8.66415e-05 -0.5738331143 0.6246277156
410297540.0 0.5879041706 -0.6160738521 -1.89786e-05 6.1129e-05 3.02249e-05 0.0002852802 -0.5672048023 0.6305700164
415297510.0 0.582049701 -0.6213806804 0.0001039707 -5.55526e-05 -0.0001798868 0.0002206682 -0.5614123275 0.6365479894
420297480.0 0.5758222983 -0.6267703804 -7.73379e-05 0.0001177107 9.2349e-06 -0.0002841064 -0.5544728331 0.6419497366
425297450.0 0.5695352278 -0.6325373147 8.2847e-06 3.99442e-05 -1.5541e-05 0.0001134641 -0.5482608239 0.6481167658
430297420.0 0.5635543643 -0.6377974754 1.80618e-05 8.66661e-05 -3.33896e-05 -8.31904e-05 -0.541423241 0.6526885261
435297390.0 0.5567718426 -0.6434732882 0.0001203023 0.0001167937 9.84634e-05 1.44485e-05 -0.5337565567 0.6593960484
440297360.0 0.5501714829 -0.6493215349 3.97997e-05 9.874e-07 0.0001257933 7.56026e-05 -0.5275355716 0.663962598
445297330.0 0.5436883874 -0.6544087213 -5.0676e-06 0.0001419282 -4.53031e-05 9.22668e-05 -0.5198227691 0.6686699048
450297300.0 0.5375782524 -0.6593542034 3.89855e-05 -1.35587e-05 0.0001167172 -8.17226e-05 -0.5131680869 0.6742219786
455297270.0 0.531181848 -0.6645786145 -0.0001087857 4.67657e-05 -0.0001275199 0.0001072661 -0.5063088878 0.678695299
460297240.0 0.5241288513 -0.6702402657 -0.0001368105 -1.37385e-05 5.50578e-05 9.55537e-05 -0.4990296963 0.6840271753
465297210.0 0.5176588753 -0.6750936834 7.52331e-05 0.0002514618 -3.00376e-05 -1.38316e-05 -0.4917148389 0.6890805659
470297180.0 0.5105957209 -0.6790482099 0.0002620476 -0.0001517745 -7.01618e-05 -0.0001843657 -0.4848589602 0.6943962886
475297150.0 0.5044389062 -0.6852012024 -0.0001375667 -0.0001255246 -0.0001376169 1.94337e-05 -0.4779130066 0.6986266214
480297120.0 0.4967600418 -0.6891830726 8.38401e-05 -1.11375e-05 -5.59267e-05 -0.0001852589 -0.4701806656 0.704119052
485297090.0 0.4899609338 -0.6944036015 0.0001233322 -0.0001593881 7.7507e-05 -1.94434e-05 -0.463194716 0.7085854497
490297060.0 0.4830493997 -0.6985307248 -7.78184e-05 -6.34626e-05 -3.93563e-05 -7.16927e-05 -0.4555793548 0.7131414773
495297030.0 0.4766295596 -0.7034856654 0.0001130684 -4.27894e-05 0.0001295186 7.8527e-06 -0.4485991327 0.7178256012
500297000.0 0.4693689391 -0.7088769205 0.0001566608 -0.000301796 -1.45585e-05 3.85689e-05 -0.4409899862 0.7227760104
505296970.0 0.4625543849 -0.7127558379 -0.00015116 -0.0001663568 -8.3834e-06 -5.1116e-05 -0.4337922616 0.7267963653
510296940.0 0.454819366 -0.717493805 0.0002657404 -2.67282e-05 -2.17339e-05 0.0001486052 -0.4261591802 0.7309402186
515296910.0 0.4482983483 -0.7216610521 2.72743e-05 0.0002893362 -7.36731e-05 -0.0002009985 -0.4182735064 0.7353568093
520296880.0 0.4401915247 -0.7258291743 6.96496e-05 -5.96347e-05 0.0002268453 -7.03833e-05 -0.4108983382 0.7391646381
525296850.0 0.4337693884 -0.7300738294 -2.19396e-05 0.0001865481 -0.0001510456 0.0001052912 -0.4041514344 0.7439412994
530296820.0 0.4259593256 -0.7335993636 0.0001016189 0.0001014173 -3.56264e-05 0.0001073612 -0.396588486 0.7474612288
535296790.0 0.4189079888 -0.7380868114 -1.21188e-05 -0.0002609677 6.4846e-06 4.41486e-05 -0.3885989316 0.7514239975
540296760.0 0.4113420301 -0.7423545126 -4.32568e-05 0.0001686266 -8.57397e-05 5.2687e-05 -0.3813061525 0.7552973803
545296730.0 0.4036899405 -0.7461309404 -6.25923e-05 -0.0001124981 -4.01351e-05 -1.36904e-05 -0.3734067626 0.759540719
550296700.0 0.3968485088 -0.7495145507 7.56483e-05 -0.0001328952 0.000190463 7.22628e-05 -0.3651151279 0.7629960872
555296670.0 0.3890740121 -0.7538818514 0.0001026026 -4.81728e-05 -0.0002861696 -6.59062e-05 -0.3582010572 0.7675127222
560296640.0 0.3815794391 -0.7570307519 -4.39276e-05 0.0002689994 -0.000146069 0.0001957118 -0.3499435232 0.7708913391
565296610.0 0.3740774173 -0.7609126694 -1.04224e-05 -1.54664e-05 8.02554e-05 8.90145e-05 -0.3425112017 0.774061206
570296580.0 0.3668206206 -0.7645937923 -5.93209e-05 7.87644e-05 -3.1727e-06 4.57458e-05 -0.3348395556 0.777744277
575296550.0 0.3588591261 -0.7676533873 -9.12074e-05 -0.0001010103 -9.2278e-06 -8.4969e-06 -0.3268178878 0.7810638005
580296520.0 0.3514608178 -0.7714990616 -3.33834e-05 0.0001307995 7.3982e-06 5.58646e-05 -0.3182286343 0.7840273549
585296490.0 0.3429732945 -0.7753089144 -0.0001006739 -6.00835e-05 -2.73863e-05 -2.84047e-05 -0.3108341824 0.7877754728
590296460.0 0.3358465868 -0.7772801236 -1.709e-05 -3.64483e-05 0.0001157448 -9.68877e-05 -0.3028146974 0.7903021102
595296430.0 0.3275894341 -0.7810791095 -0.0001776108 -0.0001645678 0.0001250116 -0.0001147105 -0.2941873791 0.7925980425
600296400.0 0.3199976368 -0.7838967943 0.0001635347 0.0001607484 -3.0444e-05 -8.43174e-05 -0.2868382391 0.7950322592
605296370.0 0.3124886779 -0.7868224663 0.0002307021 -5.56758e-05 -8.61598e-05 3.29784e-05 -0.2779336594 0.7986074601
610296340.0 0.3039790131 -0.7906680775 -1.4151e-06 -5.2568e-05 -6.79813e-05 2.11769e-05 -0.2702842861 0.8009039638
615296310.0 0.296450635 -0.7930522747 0.0001242576 5.65031e-05 4.79844e-05 0.0001485764 -0.261801681 0.8035538029
620296280.0 0.2884962291 -0.7957591164 3.51165e-05 7.27299e-05 0.0002245433 -3.98841e-05 -0.2541241941 0.8059441001
625296250.0 0.280940026 -0.7987643881 6.70609e-05 1.95786e-05 0.0001817838 -0.0001026449 -0.2454671114 0.8081160751
630296220.0 0.2731303554 -0.8016391403 0.0002755942 -9.50081e-05 1.14239e-05 -0.0001117491 -0.2374168759 0.8108221864
635296190.0 0.2648974827 -0.804034546 1.73567e-05 0.0002054069 -5.48156e-05 -0.0001532647 -0.2295279562 0.8128315687
640296160.0 0.2567277491 -0.8065322407 7.19428e-05 -0.000265641 -1.97884e-05 -9.64328e-05 -0.2213170047 0.8154536652
645296130.0 0.248834554 -0.8082216543 1.96071e-05 0.0002134811 3.70932e-05 -0.0001673895 -0.213020167 0.8181161528
650296100.0 0.2403768186 -0.8103326679 -0.000271993 -0.0001892621 -0.0001960056 0.0001228508 -0.2046883593 0.8187623931
655296070.0 0.2318018658 -0.8133657319 0.0001819831 -0.0001584804 2.50005e-05 -0.0001932643 -0.1958665701 0.8211411925
660296040.0 0.2239996949 -0.8154883019 8.81795e-05 -8.5301e-05 -0.0001279171 -8.02927e-05 -0.1875898957 0.8236232436
665296010.0 0.2163442289 -0.8180771295 2.54841e-05 -4.24301e-05 -3.04184e-05 0.0001360989 -0.1788263189 0.8254408832
670295980.0 0.2081637132 -0.8199043763 -9.62943e-05 6.42532e-05 6.99465e-05 5.47408e-05 -0.1715088991 0.8268959629
675295950.0 0.200211624 -0.8212623764 0.0001536817 0.0002638549 -6.52654e-05 -0.0001197666 -0.1635520266 0.8289478027
680295920.0 0.1919129753 -0.8227016314 -0.0001672628 0.0002172257 -3.2841e-06 0.0001122311 -0.1549320367 0.8313674961
685295890.0 0.1838626582 -0.8242811268 0.0001793067 -1.30716e-05 -3.16989e-05 -0.0001368523 -0.1463521766 0.8319675842
690295860.0 0.175152859 -0.8264240411 0.0003424383 -3.02073e-05 -9.44872e-05 7.50367e-05 -0.1383079396 0.8334588841
695295830.0 0.1666152766 -0.8276780499 0.0001426445 -4.26127e-05 -1.119e-05 -8.02152e-05 -0.1290830099 0.8348733248
700295800.0 0.1587866078 -0.8292733227 -0.0002356918 -6.8576e-05 -0.0001154797 0.0002216729 -0.1215434397 0.835973178
705295770.0 0.1501629896 -0.8308033472 3.19187e-05 -7.78356e-05 -0.000191554 4.58617e-05 -0.1136973197 0.8375233395
710295740.0 0.1420044788 -0.8321190962 -5.39546e-05 1.3185e-05 0.000106697 0.0001461731 -0.1048155063 0.8384652913
715295710.0 0.13363808 -0.8334597341 9.14586e-05 -0.0001182603 0.0002362366 9.44666e-05 -0.0961340766 0.840126827
720295680.0 0.1256851196 -0.8343897996 -0.0001313212 7.65867e-05 7.75669e-05 -0.0001685905 -0.0873935754 0.8403676756
725295650.0 0.1168737144 -0.8351418661 5.07052e-05 7.32219e-05 8.0083e-05 1.3334e-05 -0.0797903954 0.8417185684
730295620.0 0.1080546766 -0.8366349723 -0.0002016267 0.0001158836 0.0002499648 -0.0001954602 -0.0720337825 0.8421697485
735295590.0 0.1002201326 -0.8363195095 6.81397e-05 5.663e-05 -0.0001140025 0.0001210465 -0.0630395493 0.8427001124
740295560.0 0.0916934283 -0.838160706 0.0001873499 5.40786e-05 -2.99033e-05 -0.000108222 -0.0540320982 0.8438455606
745295530.0 0.0833114679 -0.8382303386 9.15468e-05 -8.90516e-05 8.73425e-05 -6.66879e-05 -0.0455923837 0.8435120022
750295500.0 0.0752752577 -0.8394504068 -0.0001170034 -0.0001411739 2.15175e-05 3.8594e-05 -0.0377017649 0.8440978582
755295470.0 0.0664360431 -0.8401565173 0.000127265 -3.27018e-05 6.07294e-05 -0.0001397783 -0.0290865957 0.8440860084
760295440.0 0.0579771109 -0.8403675702 -0.0001198308 -2.86139e-05 0.0001291189 6.61677e-05 -0.0205366151 0.8444937582
765295410.0 0.0495869123 -0.8408965466 -0.0001016122 3.08718e-05 6.58848e-05 -1.24119e-05 -0.0125752 0.8450230755
770295380.0 0.0414421819 -0.8412619324 0.0001751893 -7.5597e-05 -4.766e-06 0.0001801906 -0.0039746647 0.8447244428
775295350.0 0.0323273401 -0.841534201 0.0001417872 2.50616e-05 -2.22655e-05 6.55528e-05 0.0039702571 0.8438612425
780295320.0 0.0247061497 -0.8413046734 3.43635e-05 8.2599e-06 -0.000105731 -6.7238e-06 0.012898388 0.84425343
785295290.0 0.0161069116 -0.841683122 0.0001338477 1.21546e-05 -9.95147e-05 -0.0001290167 0.0215641201 0.8438464896
790295260.0 0.0082737649 -0.8420053769 0.0004078407 6.67669e-05 0.0002553225 4.70213e-05 0.0300870507 0.8439015359
795295230.0 -0.0004093335 -0.8412979274 -3.45831e-05 -5.1238e-06 0.0002464088 0.0002479547 0.039004313 0.8427835808
800295200.0 -0.0094993172 -0.8411391708 -0.0001699464 -1.69882e-05 -0.0001214971 8.49819e-05 0.0472865449 0.8425093308
805295170.0 -0.0170282114 -0.8410209901 -4.87909e-05 -5.76039e-05 1.88188e-05 0.000200235 0.055049763 0.8422420591
810295140.0 -0.0257290191 -0.8403475103 -0.000183415 -4.28217e-05 -0.0002792871 -7.29994e-05 0.0635536157 0.8416597852
815295110.0 -0.0341133536 -0.8408206503 -0.0001250942 -4.27311e-05 -0.0001176877 -6.33965e-05 0.0724484716 0.8412219581
820295080.0 -0.0426511272 -0.8390397643 2.90359e-05 3.94917e-05 0.0001354824 6.95939e-05 0.0803464075 0.840426127
825295050.0 -0.0512582374 -0.8390817122 2.23289e-05 0.0001533931 7.16555e-05 -7.97905e-05 0.0888607361 0.839700079
830295020.0 -0.0593480958 -0.8380960615 5.80508e-05 2.90089e-05 4.5727e-05 0.0001036834 0.0982650987 0.8385148871
835294990.0 -0.0677954769 -0.8376448798 2.77245e-05 7.85392e-05 -0.0001923759 7.74354e-05 0.1053935733 0.8382018035
840294960.0 -0.0759594011 -0.8365508852 -0.0001498047 -2.44518e-05 3.29324e-05 -2.01278e-05 0.1141290206 0.8368558417
845294930.0 -0.0841685529 -0.8357378862 0.0001076895 0.0001250239 0.000152188 3.97125e-05 0.1215905751 0.8353023805
850294900.0 -0.0920264126 -0.8343802519 4.69914e-05 3.65553e-05 -1.79597e-05 3.31385e-05 0.1299618835 0.8341301129
