!Created with skrf (http://scikit-rf.org).
# Hz S RI R 50.0 
!freq ReS11 ImS11 ReS21 ImS21 ReS12 ImS12 ReS22 ImS22
300000.0 -0.0434999848 -0.0585644867 -0.0006967345 0.0006378209 -0.0014696297 0.0004314769 -0.7679167779 -0.1713916251
5299970.0 -0.0449309006 0.0157874629 0.0001299807 -0.0001367802 0.0002371045 2.55337e-05 -0.7846422785 -0.0089531451
10299940.0 -0.0388247911 0.0335974622 -6.81262e-05 -0.0001799926 -6.4739e-05 0.0001273173 -0.7887183906 -0.0054140215
15299910.0 -0.0309209054 0.0481596199 -4.93536e-05 3.40886e-05 3.28742e-05 -0.0001332132 -0.7934801418 -0.003265115
20299880.0 -0.0204766981 0.0598715354 0.0002404417 7.23033e-05 -2.03281e-05 6.99745e-05 -0.8007275973 0.0013900501
25299850.0 -0.0090409488 0.0695082773 -4.50239e-05 9.33664e-05 1.6716e-05 3.62414e-05 -0.8063211053 0.00738031
30299820.0 0.0028037357 0.0758962086 -9.2842e-06 -3.44289e-05 6.52946e-05 0.0002063425 -0.8128427797 0.014842813
35299790.0 0.0144049996 0.0810502396 3.84012e-05 1.68686e-05 -0.0001650031 -1.521e-07 -0.8178807381 0.0240833042
40299760.0 0.0256786548 0.0837304291 0.0001708543 -7.27226e-05 0.0001896701 6.45814e-05 -0.8211058171 0.033340527
45299730.0 0.0362815001 0.0850611097 -8.6823e-05 5.33034e-05 -9.74443e-05 -7.556e-07 -0.8252915328 0.0425458573
50299700.0 0.0469074492 0.0850081102 2.17792e-05 1.88991e-05 0.000121631 -3.91191e-05 -0.8276179059 0.0527427852
55299670.0 0.0558739828 0.0840582141 0.0002385885 0.0002586778 -9.5994e-06 -7.63016e-05 -0.8296392751 0.0626354957
60299640.0 0.0645194621 0.0824399236 -6.72548e-05 4.93715e-05 -8.63239e-05 0.0001887811 -0.8309305177 0.0728761685
65299610.0 0.0721763915 0.08000004 -3.40087e-05 -7.731e-05 -1.74009e-05 0.0001273382 -0.8314383805 0.082624831
70299580.0 0.079504917 0.0768675641 0.0002048055 2.02149e-05 -0.0001568437 0.0001055195 -0.8323009127 0.0927291874
75299550.0 0.0858776351 0.0732717938 4.60074e-05 0.0001078222 0.0001329002 -0.0001034516 -0.8323766009 0.1026414292
80299520.0 0.0911697604 0.0702825584 -0.0001004989 6.82027e-05 0.0001007867 0.0002283202 -0.8320257091 0.112427791
85299490.0 0.0963244828 0.0665892851 -3.79476e-05 -4.71617e-05 9.70081e-05 0.0001090681 -0.8318794164 0.1212864101
90299460.0 0.1008557731 0.0627431539 7.05688e-05 1.67433e-05 -0.0001065572 0.0001263102 -0.8306696669 0.1310247846
95299430.0 0.1050854189 0.0585361261 1.44309e-05 4.75379e-05 -0.0001226615 1.64107e-05 -0.8300855252 0.1417332593
100299400.0 0.1083868212 0.0551895624 3.63865e-05 -1.24915e-05 -2.58232e-05 0.0001613363 -0.8287401214 0.1494532575
105299370.0 0.1118056433 0.0509334943 -1.26689e-05 -0.0001241224 -4.40138e-05 0.0001749626 -0.8275382764 0.1595213565
110299340.0 0.1143849556 0.0474289793 -6.70225e-05 6.17854e-05 -0.0002193739 0.0001037527 -0.8271630403 0.1683392958
115299310.0 0.1171731193 0.0431986736 0.0002726967 2.71225e-05 5.39091e-05 0.0001358362 -0.8244505349 0.177244593
120299280.0 0.1192227844 0.0394934521 -0.0002236383 3.15102e-05 0.0001295404 0.0001218487 -0.8230317071 0.1859603046
125299250.0 0.1210858744 0.0356478901 7.07014e-05 0.0001269141 9.019e-07 0.0001355122 -0.8217902812 0.1956684131
130299220.0 0.1231959657 0.0322670388 -1.4175e-05 0.0002897275 2.77356e-05 0.0001078969 -0.8198822461 0.2037828295
135299190.0 0.1246461648 0.028403839 -0.0001180753 0.0001855034 -6.8046e-05 1.08319e-05 -0.8180993449 0.2121905977
140299160.0 0.1259322126 0.0250333337 -6.24953e-05 -5.88846e-05 5.58011e-05 0.0002019706 -0.8156903823 0.2217083669
145299130.0 0.1270689808 0.0217141267 7.2137e-05 3.43215e-05 0.0001543935 -0.0001383606 -0.8137360853 0.2299161429
150299100.0 0.1278727847 0.0181514121 -2.94523e-05 1.9106e-06 -2.59027e-05 0.0001058418 -0.812133095 0.2382548617
155299070.0 0.1287038447 0.014975582 0.0002090996 0.0001609222 -6.71927e-05 0.0001538543 -0.809299338 0.2476436549
160299040.0 0.1293302495 0.0116483685 -1.07775e-05 -0.0001459587 0.0001896066 0.000160617 -0.8073792231 0.2565428612
165299010.0 0.1297054954 0.0085880807 5.88964e-05 0.0004666541 -0.0001222633 -4.17338e-05 -0.803955388 0.2650921517
170298980.0 0.1300864612 0.0053698911 0.000190188 -0.0001100904 -4.21359e-05 -0.0001987231 -0.8016390893 0.2734716061
175298950.0 0.1309283407 0.0028031719 0.0001213129 5.11895e-05 7.55063e-05 8.76466e-05 -0.7994242352 0.2822041543
180298920.0 0.1307355554 -0.0003699874 -6.4643e-05 0.0002381446 8.71951e-05 -7.11447e-05 -0.795471711 0.2905502576
185298890.0 0.130831173 -0.0030843075 0.000134987 8.23632e-05 -5.8994e-06 0.0001125278 -0.7929315003 0.2987130058
190298860.0 0.1309506216 -0.0062188955 6.88371e-05 0.000153152 0.0001342928 0.0001898012 -0.7896244877 0.3072444241
195298830.0 0.1314336562 -0.0088087783 -4.33534e-05 2.62009e-05 0.0001257268 2.6301e-06 -0.787242685 0.3152985646
200298800.0 0.1306025326 -0.0112817819 4.27767e-05 -1.93862e-05 9.28561e-05 -5.40058e-05 -0.7831488755 0.3239632763
205298770.0 0.130562063 -0.0141709102 -0.0001705056 2.45318e-05 0.0001224348 0.0001512617 -0.7800512645 0.3319458164
210298740.0 0.1306537339 -0.0164958019 -2.86914e-05 3.59611e-05 -1.6985e-06 2.15332e-05 -0.7768581032 0.3405105259
215298710.0 0.1301352601 -0.0190717205 0.0002665374 0.0002187579 -0.0001870805 -4.72199e-05 -0.7732139871 0.3484021161
220298680.0 0.1298311769 -0.0213293501 -0.0001900537 9.46661e-05 7.0041e-05 7.69118e-05 -0.7694936388 0.3569803693
225298650.0 0.1295641137 -0.0240754048 0.0001815088 0.0002159756 0.0002773373 0.0002674485 -0.7660359257 0.3647392631
230298620.0 0.1293870433 -0.0261429376 0.0001792223 5.49525e-05 0.0001896003 6.26431e-05 -0.7620478499 0.3724720737
235298590.0 0.1284688427 -0.0285199738 0.0003452225 0.0002883695 0.0001602933 -9.53672e-05 -0.7577328011 0.3806432962
240298560.0 0.1277138772 -0.0308324782 0.0001683459 0.0001699756 0.0002295614 -4.07305e-05 -0.7542434908 0.3886403283
245298530.0 0.1275007333 -0.0330283808 0.0001779575 -0.0001721155 -1.76261e-05 0.0001357189 -0.7499646428 0.396361466
250298500.0 0.1269055654 -0.0351448822 5.0072e-05 8.96422e-05 0.0001893329 0.0002302542 -0.7457314611 0.4045634969
255298470.0 0.1263177405 -0.0370321797 0.0002001601 0.0002002167 0.0001981616 2.99407e-05 -0.7413000359 0.4124959865
260298440.0 0.1254937422 -0.0391389223 2.44555e-05 4.23675e-05 0.0001342946 8.46092e-05 -0.7365338254 0.4198692229
265298410.0 0.1249994646 -0.0409063655 3.55039e-05 1.23272e-05 0.0003743283 0.0001307396 -0.732760889 0.4274454881
270298380.0 0.1241825791 -0.0430039851 -2.20185e-05 -9.84903e-05 2.69128e-05 0.0001785523 -0.727769194 0.4350448636
275298350.0 0.123509043 -0.0450671952 7.11278e-05 -0.0001443719 -0.0001089213 0.0001930785 -0.7229016313 0.4429072499
280298320.0 0.1228072518 -0.0468479071 0.0001545673 5.73365e-05 0.0001719607 0.0001753956 -0.7186887462 0.450950963
285298290.0 0.1220017553 -0.048507163 5.04126e-05 0.000280125 -2.46506e-05 -0.000153559 -0.7137197423 0.4578474711
290298260.0 0.121292228 -0.0506962996 6.83435e-05 0.0002011555 9.91994e-05 0.0001567111 -0.7090489137 0.4653769672
295298230.0 0.1203284238 -0.0526228585 1.16801e-05 -4.31303e-05 6.99494e-05 -0.0001572443 -0.7039369463 0.4729091785
300298200.0 0.1195810306 -0.054728657 8.82774e-05 0.0001156762 4.90992e-05 0.0002048385 -0.6989793777 0.4799547524
305298170.0 0.1191457713 -0.0561390078 0.0001031944 0.0001386323 0.0002796511 -3.54848e-05 -0.6933553794 0.4877029982
310298140.0 0.118143903 -0.0582893172 0.0001338472 5.17395e-05 0.000128531 -8.02335e-05 -0.6888920238 0.4951648298
315298110.0 0.116725819 -0.0602192469 0.0001310366 0.0001618001 0.0001289661 9.53766e-05 -0.6832861003 0.5021401101
320298080.0 0.115703159 -0.0619799624 0.0001512768 0.0002341711 0.0001477357 0.0001572227 -0.6777750816 0.5093998381
325298050.0 0.1144934337 -0.0638776946 0.0003641758 0.0002403433 0.0002413375 0.0001640064 -0.6721970721 0.5159335098
330298020.0 0.1133773099 -0.0654011819 0.0002781638 3.21882e-05 0.0002062031 4.87608e-05 -0.6669048653 0.5233297786
335297990.0 0.1120701303 -0.0668583008 5.19041e-05 0.0002092144 2.57874e-05 7.99948e-05 -0.6611167751 0.5301223383
340297960.0 0.110581616 -0.0682282398 -1.1557e-05 0.0001572741 0.0001204785 1.32351e-05 -0.6553653808 0.5371997937
345297930.0 0.1092949317 -0.0696644728 4.72414e-05 0.0003217603 7.14084e-05 0.0001027992 -0.6501763987 0.5439713333
350297900.0 0.1085955332 -0.0710245732 0.0002296753 0.0001256828 0.0001617008 1.63838e-05 -0.6440088895 0.5508787379
355297870.0 0.1071918627 -0.0724803932 0.0004283671 0.0001200301 0.0001063603 0.0002580475 -0.6385390435 0.5579986911
360297840.0 0.1057270483 -0.0739103497 8.22844e-05 4.8943e-06 8.31241e-05 0.0001869391 -0.6319263417 0.5632988374
365297810.0 0.104845558 -0.0751048243 0.0004147383 0.0003505319 0.0001436449 7.7236e-05 -0.6260223523 0.5706623344
370297780.0 0.1037172939 -0.0765500782 3.14201e-05 0.0001503042 7.64208e-05 0.0001775765 -0.620624524 0.5767699914
375297750.0 0.1023201503 -0.0776299124 0.0002471763 -1.45255e-05 0.0001176697 -6.13615e-05 -0.6142440786 0.5830719771
380297720.0 0.1015535145 -0.0790008664 0.0002866428 0.0001783683 8.5861e-05 -1.43834e-05 -0.6080482971 0.5901088227
385297690.0 0.1001090512 -0.0797946187 0.0002023278 0.0002260856 0.0001647973 7.51772e-05 -0.6018558016 0.5956550771
390297660.0 0.0990228233 -0.0810897026 0.0001844304 0.0001076238 0.0001475033 0.0001091905 -0.5951769567 0.6017874093
395297630.0 0.0979382355 -0.0824683935 0.0001747743 0.0001530436 0.0001542808 -7.74958e-05 -0.589419588 0.6078656571
400297600.0 0.0967012592 -0.083425171 0.000249454 0.0001199626 0.0002112745 2.41371e-05 -0.583131683 0.6141398336
405297570.0 0.0952430797 -0.0847100723 0.0001521097 0.0001726769 0.0001816608 6.30668e-05 -0.5773384084 0.6204524064
410297540.0 0.0943878271 -0.0858311092 0.0002705653 0.0002658997 0.0001551944 0.0001852685 -0.5700796797 0.6256820747
415297510.0 0.0930437356 -0.0869896097 0.0002239006 0.0003457482 0.0001986501 0.0002220281 -0.5635601893 0.631882658
420297480.0 0.0916267369 -0.088240997 0.0001408521 0.0001531675 0.0003822379 4.66499e-05 -0.5569980576 0.6367039943
425297450.0 0.0904079053 -0.0892403121 0.0002520098 8.78111e-05 0.000142106 2.07458e-05 -0.5505127919 0.6430862485
430297420.0 0.0891425605 -0.0901276546 0.0002589011 0.0001475692 0.0001764062 5.3514e-05 -0.5439746212 0.6489928698
435297390.0 0.087932043 -0.0911976252 5.96618e-05 6.1663e-05 2.6265e-05 4.14243e-05 -0.5367862166 0.6536862883
440297360.0 0.0865591368 -0.0921379728 4.8168e-05 0.0001765417 0.0002832688 0.0001671379 -0.5303360647 0.6587496746
445297330.0 0.0852172256 -0.0932261151 0.0003367979 5.97486e-05 0.0002337076 8.68107e-05 -0.523796638 0.6643462459
450297300.0 0.0840761218 -0.0941930096 0.0001244098 0.0001614582 0.0002941469 4.48029e-05 -0.5166505093 0.6696363375
455297270.0 0.0826104538 -0.0950364673 0.0003399795 6.43898e-05 0.0001199157 -1.48487e-05 -0.509897836 0.6748880471
460297240.0 0.0811303152 -0.0957916515 0.000364452 0.0001669207 8.64569e-05 0.000143787 -0.5023782479 0.6803721666
465297210.0 0.0801651814 -0.0966831006 0.0003861902 3.42896e-05 9.19376e-05 7.03218e-05 -0.4965648551 0.6849442674
470297180.0 0.0784595151 -0.0974588463 0.000198391 0.0002513032 0.0001781235 0.0001631282 -0.4894765878 0.6891337157
475297150.0 0.0772132455 -0.0985141465 0.0002515072 6.35258e-05 2.4182e-05 4.85662e-05 -0.4818336101 0.6944060082
480297120.0 0.0758460635 -0.0994730374 6.03075e-05 -1.20212e-05 0.0002046484 6.2954e-05 -0.4752805291 0.6997312219
485297090.0 0.0743480422 -0.1000324393 0.0001035577 0.0002038234 8.26159e-05 -6.20163e-05 -0.4682184838 0.7041548742
490297060.0 0.0732024716 -0.1007356647 0.0001461851 -7.24196e-05 0.0004175344 -0.0001351086 -0.4612471131 0.7088082875
495297030.0 0.0718523192 -0.1015441601 0.0001936663 -0.0001026333 8.60522e-05 6.30804e-05 -0.4533165011 0.7126029953
500297000.0 0.0705373422 -0.1026144578 7.89365e-05 1.24056e-05 0.0003150974 -6.84949e-05 -0.4466922729 0.7178883539
505296970.0 0.0687251158 -0.103051209 0.0002714632 0.0001500298 0.000187492 8.05267e-05 -0.4400237548 0.7215490596
510296940.0 0.0674831823 -0.1035836164 0.000173984 0.0001439243 0.0001396721 0.0001257618 -0.4318974505 0.7264793105
515296910.0 0.066190045 -0.1040413331 0.0002116756 -0.0001757018 0.0002178772 0.0001086856 -0.424773763 0.730705957
520296880.0 0.0649125126 -0.1050354537 0.0002134313 0.0001623962 0.000201359 0.0001858033 -0.4174878018 0.734765679
525296850.0 0.0633826939 -0.1057084424 9.37616e-05 0.0001743991 0.0004370466 6.45039e-05 -0.4101449407 0.7393188406
530296820.0 0.0619344601 -0.1062231962 0.0002348794 0.0002404041 0.0002062268 3.13263e-05 -0.4034721106 0.7427280781
535296790.0 0.0607330953 -0.1067625926 0.0004947018 -2.48302e-05 0.0002320931 -4.03449e-05 -0.3957207333 0.746210485
540296760.0 0.0591190754 -0.1077032524 0.0004946462 -8.89443e-05 6.60349e-05 -5.97093e-05 -0.3881123291 0.7508984257
545296730.0 0.0578145164 -0.1079221833 0.0003408371 0.0002349453 0.0004188984 0.0001263849 -0.3804855644 0.7541087379
550296700.0 0.0561736794 -0.10839417 0.000436061 -0.0001833369 0.0002088446 -0.0001144043 -0.3735803012 0.7580972382
555296670.0 0.0549419392 -0.1090227053 0.0003677321 -0.0001016427 0.0004762379 5.1878e-06 -0.3655406844 0.7615712219
560296640.0 0.0533799312 -0.1096116612 0.0003554527 0.0001939202 0.0003104849 -1.6547e-05 -0.35784262 0.765562055
565296610.0 0.0519634181 -0.1098390436 0.0003794481 3.32783e-05 0.0004653331 0.0001045047 -0.3502571513 0.7689086059
570296580.0 0.0506293469 -0.1106047196 0.00030892 0.0001393306 9.51834e-05 -8.68071e-05 -0.3432339899 0.7721709956
575296550.0 0.0493478308 -0.1107072146 0.0003484469 -0.0001322236 0.0003251805 4.03435e-05 -0.3347350302 0.7757369558
580296520.0 0.0476774705 -0.1112928422 0.0001000946 7.83488e-05 0.0003431336 -1.1329e-06 -0.327437604 0.7794020934
585296490.0 0.0461329138 -0.1113984376 0.0001785976 8.79114e-05 0.0001704256 9.19543e-05 -0.3200145681 0.7819420676
590296460.0 0.0445310849 -0.1120114054 0.0003525199 0.0001217699 0.0003088526 0.0002003168 -0.3118309934 0.7844139236
595296430.0 0.0434933387 -0.1122751884 0.0003636817 1.67077e-05 0.0001189695 8.76043e-05 -0.3037040219 0.787598155
600296400.0 0.0418233155 -0.1127574866 0.0001692383 8.51182e-05 0.0001780015 -0.0001560648 -0.2964454612 0.7913725879
605296370.0 0.0407268712 -0.1130200626 0.0002494591 0.0001379809 0.0004692116 -5.20851e-05 -0.288555303 0.7942236576
610296340.0 0.0391311066 -0.1134624266 0.0003292604 -2.83802e-05 0.0002305064 3.79047e-05 -0.2806791114 0.7973996213
615296310.0 0.0376047622 -0.1133644384 0.0003098104 3.52258e-05 0.0003436934 -8.1781e-05 -0.2724006178 0.7997082631
620296280.0 0.0359830257 -0.1137046722 0.0004645464 1.2174e-05 0.00028803 8.77068e-05 -0.2647747234 0.8021851537
625296250.0 0.0345450556 -0.1139110304 0.000379646 0.0001034844 0.000450916 0.0001396946 -0.2571927162 0.8047387417
630296220.0 0.0332187723 -0.1142436831 0.0003440194 9.16174e-05 0.0004820026 0.0001357433 -0.2490281729 0.8070801763
635296190.0 0.0315381277 -0.1145351696 0.0003037624 -0.0001921185 0.0001125185 5.45136e-05 -0.2408567443 0.809377492
640296160.0 0.0303984834 -0.1146898708 0.0004024653 0.0002176098 0.0002498543 5.14911e-05 -0.2322446542 0.8117132829
645296130.0 0.028610447 -0.1146396297 0.000250625 0.0001424397 0.0002457381 -0.0001007831 -0.2250978075 0.8142893147
650296100.0 0.0274547125 -0.1147381059 0.0001168747 -1.6437e-05 0.0001882228 1.55737e-05 -0.2166863073 0.816520035
655296070.0 0.0258479613 -0.1148437574 0.0002939984 0.0002358267 0.0003741733 0.0001847609 -0.2086984711 0.8176158301
660296040.0 0.024129033 -0.1148811954 0.0002079717 -9.892e-07 0.0002338476 0.0001109274 -0.2006621694 0.8202805323
665296010.0 0.0229912479 -0.1151311784 0.0004650753 0.0002697004 0.0003610066 -0.0001326237 -0.1928877881 0.8219250073
670295980.0 0.0214260503 -0.1152141245 0.0002575709 -2.82536e-05 0.0002262685 -4.17972e-05 -0.1852084379 0.8236844433
675295950.0 0.0202646651 -0.1155157574 0.0002611051 -3.54668e-05 0.0003531526 -2.13609e-05 -0.1760429032 0.825948027
680295920.0 0.0185740088 -0.1153082215 0.0003200143 0.0001264209 0.000290925 0.0001230019 -0.1680637254 0.8271264772
685295890.0 0.0172069267 -0.115295112 0.0004689764 -9.53112e-05 0.0003640529 0.0001438584 -0.159897245 0.8291758254
690295860.0 0.0159138599 -0.1152177558 0.000466268 -2.80596e-05 0.0003899671 9.06463e-05 -0.1514543642 0.8305966918
695295830.0 0.0143096468 -0.1152462756 0.0005439032 -4.18122e-05 0.0002133515 3.66111e-05 -0.1437629129 0.8321549164
700295800.0 0.0127989569 -0.1151698303 0.0003405905 -0.0001815001 0.0003929761 6.09271e-05 -0.1353650644 0.8333762853
705295770.0 0.0115672618 -0.1149843322 0.0004076895 0.0001490914 0.0003813779 -2.55795e-05 -0.1276699515 0.834939885
710295740.0 0.0099601885 -0.1150267446 0.0004087982 7.29422e-05 0.0003075897 -0.0001527358 -0.1195022848 0.8367837233
715295710.0 0.0084394563 -0.1149157793 0.0005701537 8.784e-06 0.0001488395 -0.000113674 -0.1108687753 0.8375347901
720295680.0 0.0069966838 -0.1147979377 0.0004584301 -7.42109e-05 0.0001571956 -5.28539e-05 -0.1025844612 0.8383083017
725295650.0 0.0058083409 -0.1146538414 -7.86075e-05 7.21408e-05 0.000363983 -7.60569e-05 -0.0938753072 0.8396022947
730295620.0 0.0040708109 -0.114569428 0.0004235421 -7.18664e-05 0.000350633 1.75282e-05 -0.0856288701 0.8401376821
735295590.0 0.0030951759 -0.1142775083 0.0002117404 -0.0002930286 0.0002631734 -5.81447e-05 -0.0767192098 0.8409902285
740295560.0 0.0014736916 -0.114077359 0.000195477 -9.48498e-05 0.0002897886 5.37685e-05 -0.0689632424 0.8412851646
745295530.0 -0.0003051119 -0.113970849 0.0003604922 9.12748e-05 0.0003094426 -7.60028e-05 -0.06055343 0.8423912952
750295500.0 -0.0013160968 -0.1138413235 0.0005300751 -0.0001204946 0.0003396508 -4.22927e-05 -0.0522258833 0.8424101882
755295470.0 -0.0026723977 -0.1134680438 -2.99618e-05 -0.0002475696 0.0001575195 -0.0001767267 -0.044563629 0.8437690893
760295440.0 -0.0043162886 -0.1129148588 0.0003985624 0.0002256129 0.0004821663 -0.0001579819 -0.0362413368 0.8437950359
765295410.0 -0.0056208208 -0.1128912159 0.0001689867 0.000101831 0.0005162812 -7.07465e-05 -0.0274901239 0.8441518685
770295380.0 -0.0069753639 -0.1125840613 0.0002380856 7.1585e-05 0.0003013454 -0.0001035462 -0.0192341709 0.8440332521
775295350.0 -0.0086519255 -0.1119763715 0.0006136319 -0.0001337586 0.0002146156 9.53723e-05 -0.0113667904 0.8441229814
780295320.0 -0.0098722937 -0.1120561958 0.0001348515 -6.22924e-05 0.0002458022 -0.0002823185 -0.0028056408 0.8444931317
785295290.0 -0.0111495434 -0.111416082 0.000329894 -0.0001651277 0.0005073197 -9.40467e-05 0.0051490329 0.8440819133
790295260.0 -0.0127494365 -0.1110042814 0.0002481251 -7.93713e-05 0.0003851957 -6.97252e-05 0.0145721245 0.8445174505
795295230.0 -0.0139766998 -0.1104770515 0.000624034 -1.7181e-05 0.0003692428 -4.34281e-05 0.0222620426 0.8445781168
800295200.0 -0.0151616084 -0.1101059574 0.0005926468 0.0001123439 0.0004848682 -0.0002265023 0.0305375213 0.844029522
805295170.0 -0.016633627 -0.1100793761 0.0002279539 -8.01814e-05 0.0004424664 -3.80434e-05 0.0388781272 0.8431428582
810295140.0 -0.0179673002 -0.1094131763 0.0006289981 -4.3519e-06 0.0002549044 -0.0001305262 0.0469668999 0.8441032705
815295110.0 -0.0191845033 -0.1088803976 0.0005076703 -0.0001394564 0.0004233444 -9.72229e-05 0.05512009 0.8428248884
820295080.0 -0.0206983009 -0.1082049508 0.0002093919 8.8789e-06 0.0006225217 -9.45374e-05 0.0634242227 0.8421612695
825295050.0 -0.0219082576 -0.1078063433 0.0004964705 5.88458e-05 0.0002398265 9.3684e-06 0.0716719949 0.8420038448
830295020.0 -0.0233007544 -0.1073611023 0.0002767094 -0.0001125241 0.0003881771 -7.39901e-05 0.0791914515 0.8406479192
835294990.0 -0.0243424381 -0.1068922715 0.0001758116 -0.0001688334 0.0005791581 -0.0002051145 0.0880724272 0.8398716813
840294960.0 -0.0258405616 -0.106200253 0.0004900748 1.81953e-05 0.0005583434 -3.22536e-05 0.0957475407 0.8392721684
845294930.0 -0.0271638551 -0.1056108419 0.0005744587 -0.0001823594 0.0002415355 -0.000205108 0.104519897 0.8383523066
850294900.0 -0.0283242179 -0.1049808321 0.0003521157 -0.0001405968 0.0004068982 -0.0002951951 0.1123258191 0.8371583713
