!Created with skrf (http://scikit-rf.org).
# Hz S RI R 50.0 
!freq ReS11 ImS11 ReS21 ImS21 ReS12 ImS12 ReS22 ImS22
300000.0 -0.2330132679 -0.1318127964 0.4661691238 0.0862396897 0.4688308544 0.0844498242 -0.2373525043 -0.1292128792
5299970.0 -0.2420335743 0.0051282004 0.4748360571 0.006019434 0.4751774968 0.0057775702 -0.2443518283 0.0045329348
10299940.0 -0.2389295297 0.0185096802 0.4774415093 0.0069079035 0.4770613446 0.007001565 -0.2407965797 0.017246527
15299910.0 -0.2336893223 0.028718304 0.4802197516 0.0081116317 0.4806826082 0.0083465505 -0.2366534535 0.0264092141
20299880.0 -0.2284155248 0.036940243 0.4853369736 0.0078711309 0.4853029713 0.0080812585 -0.2319927698 0.0339432936
25299850.0 -0.2224716108 0.0436118718 0.4908071866 0.0078189364 0.4910781 0.007152796 -0.2270263676 0.039953446
30299820.0 -0.2170939547 0.0485710936 0.4962229891 0.0049550787 0.4962261931 0.0051864326 -0.2218118205 0.0449175383
35299790.0 -0.2110272649 0.0530302144 0.501049669 0.0018395261 0.5015146328 0.0019327244 -0.2168535931 0.0491931978
40299760.0 -0.2064237535 0.0560986634 0.506422509 -0.0019805243 0.5066099999 -0.0023873795 -0.2116920627 0.0523380078
45299730.0 -0.2010207985 0.0587133732 0.5111544677 -0.0066069916 0.5111719073 -0.0069797069 -0.2069896175 0.0547452218
50299700.0 -0.1959460612 0.0607881788 0.5151899629 -0.0123535068 0.5152335297 -0.0124699131 -0.202559988 0.0570451346
55299670.0 -0.1920316777 0.062548419 0.5189576034 -0.0179206722 0.5191041582 -0.0184813946 -0.1989512287 0.0584916676
60299640.0 -0.1876633147 0.0639535891 0.5225924689 -0.0246052981 0.5223307815 -0.0247417873 -0.195195947 0.0597394641
65299610.0 -0.1842844435 0.0651457226 0.5256754894 -0.0308869173 0.5251896733 -0.0308822024 -0.1920126478 0.0610928738
70299580.0 -0.1809420884 0.0657619497 0.5277237642 -0.037203942 0.5275034353 -0.0374899797 -0.1891976313 0.0618198317
75299550.0 -0.1778510779 0.0669919099 0.529184982 -0.0445543495 0.529965628 -0.0446433655 -0.1861343791 0.0626793493
80299520.0 -0.1751124293 0.0677764321 0.531595901 -0.0512848767 0.5314731867 -0.0519479114 -0.1837805074 0.0635316937
85299490.0 -0.1724576798 0.0684341086 0.5325538435 -0.0586573522 0.5331372272 -0.0581062731 -0.1815712086 0.0641057301
90299460.0 -0.1701864711 0.0691148087 0.5332891178 -0.0651910326 0.5335707598 -0.0651960734 -0.1792920634 0.0651289619
95299430.0 -0.168282894 0.069786244 0.5345940876 -0.0718716653 0.5350262963 -0.072191091 -0.1776090499 0.0655910596
100299400.0 -0.1659930748 0.070480697 0.53510275 -0.078748044 0.5349855675 -0.0790885058 -0.1759160933 0.0664375783
105299370.0 -0.1641943564 0.0708074884 0.5353947814 -0.0856988314 0.5355282045 -0.0856889546 -0.1736579728 0.0665178214
110299340.0 -0.1620748474 0.0715184717 0.5355132065 -0.0920424526 0.5355976011 -0.0922327957 -0.1727816535 0.0673160858
115299310.0 -0.1608544889 0.0723920457 0.5353835683 -0.0988755974 0.535632954 -0.0994155454 -0.1713210415 0.068343652
120299280.0 -0.1594964181 0.0731403098 0.5356898922 -0.1065365177 0.5350794109 -0.1064637909 -0.1698769186 0.0687814621
125299250.0 -0.1579960928 0.0738759011 0.5349287736 -0.1128895253 0.5348213184 -0.1128960644 -0.16879637 0.069731089
130299220.0 -0.1566953487 0.0743807286 0.5342411663 -0.1196168808 0.5342142674 -0.1201789425 -0.1676110852 0.0704932015
135299190.0 -0.1556928748 0.0760790648 0.5338324861 -0.1263384236 0.5338593312 -0.1264949123 -0.1666365576 0.0711038886
140299160.0 -0.1543599825 0.0767652364 0.5330310008 -0.1329292406 0.532601049 -0.1326875799 -0.1661358942 0.0716703852
145299130.0 -0.1537551898 0.0777646347 0.5320207942 -0.1395758779 0.5319595473 -0.1394727068 -0.1648037467 0.07276208
150299100.0 -0.1521780579 0.0788333078 0.5307756398 -0.1460441975 0.5306624168 -0.1461079365 -0.1642991611 0.0739839082
155299070.0 -0.1509389143 0.0800221133 0.5291293409 -0.1522627468 0.5296395637 -0.152675898 -0.1631899794 0.074812341
160299040.0 -0.1500659732 0.0813173102 0.5282541788 -0.1591548196 0.5281836653 -0.1592045672 -0.1625863496 0.0759523416
165299010.0 -0.1489565697 0.0822808277 0.5268684252 -0.1650273994 0.5265168013 -0.1653362639 -0.1616205029 0.0765441341
170298980.0 -0.1477164014 0.0833360465 0.5248290491 -0.1715398499 0.5257409252 -0.1719041279 -0.1609905622 0.0776601802
175298950.0 -0.1470130886 0.0847054564 0.5238135973 -0.1779977907 0.5239124958 -0.1782512548 -0.1600605824 0.0792187225
180298920.0 -0.1459300667 0.0860904689 0.5216996033 -0.1846954898 0.522027062 -0.1847254791 -0.1593404689 0.0801060143
185298890.0 -0.1454765849 0.0873158772 0.5202919921 -0.1905273549 0.5199520424 -0.19034721 -0.1587727507 0.0813767643
190298860.0 -0.1439044201 0.088636181 0.5175393487 -0.196785372 0.5181196907 -0.1964751603 -0.1579705637 0.0824894373
195298830.0 -0.1430381469 0.0900462006 0.5162023328 -0.2029664131 0.5165467978 -0.202838051 -0.157275382 0.0834823256
200298800.0 -0.1418009998 0.0911934346 0.5141439592 -0.2095069427 0.5141221295 -0.2091053124 -0.1562151677 0.0844707399
205298770.0 -0.1413850884 0.0923161009 0.5117363465 -0.2148804886 0.5122672823 -0.2148732986 -0.1555042777 0.0856754488
210298740.0 -0.1401737344 0.0940918193 0.5097703811 -0.2210914681 0.5091735719 -0.2208545993 -0.1551614176 0.0870509749
215298710.0 -0.1392362972 0.0953346479 0.5067454576 -0.2263832627 0.5069427299 -0.2270649514 -0.1538348134 0.0884226621
220298680.0 -0.1381366835 0.0969196755 0.5045299363 -0.2326679029 0.5046005576 -0.2328639602 -0.1534556061 0.0895313203
225298650.0 -0.1370616554 0.0982786169 0.5018660732 -0.2383316747 0.5023296777 -0.2383710237 -0.1526143798 0.0909005261
230298620.0 -0.1361024854 0.0999368686 0.4998726075 -0.2444600447 0.5000741374 -0.2446240538 -0.1520416019 0.0919791291
235298590.0 -0.1358007384 0.1013231914 0.4974219056 -0.2503944395 0.4971530189 -0.2499074734 -0.1508702779 0.093256016
240298560.0 -0.134266209 0.1026199972 0.4943984429 -0.255791813 0.4943544878 -0.2558115778 -0.1504647423 0.094144793
245298530.0 -0.1333896693 0.1038788693 0.4917439802 -0.2617258634 0.4916825457 -0.2614722798 -0.1495407257 0.0959602349
250298500.0 -0.1323954957 0.1053978556 0.4890156185 -0.2668035413 0.4887373489 -0.267098438 -0.1491112238 0.0975034418
255298470.0 -0.1312917105 0.107162681 0.4860974561 -0.2722066321 0.4864559268 -0.2726649789 -0.1479394501 0.0987600852
260298440.0 -0.1299057759 0.108405202 0.4831677398 -0.2780502637 0.4831756039 -0.2781826328 -0.1474843092 0.0997774158
265298410.0 -0.1292508361 0.1101086863 0.4797654428 -0.2839772277 0.4799179847 -0.2841065735 -0.1459359214 0.1008298504
270298380.0 -0.1281384688 0.1112031994 0.4768114769 -0.2895269911 0.476891263 -0.2889016015 -0.1454777227 0.1025019808
275298350.0 -0.1272347791 0.1129675755 0.4735428205 -0.2942103811 0.4737718186 -0.2942875153 -0.1446266003 0.1041518553
280298320.0 -0.1261928048 0.1142043509 0.4708143255 -0.2990953872 0.4709617342 -0.2997666365 -0.1435180591 0.1053816055
285298290.0 -0.1249902484 0.1158902878 0.4670993967 -0.3049783665 0.4675505735 -0.3049056523 -0.1424310328 0.1068524606
290298260.0 -0.1237843043 0.1175453098 0.4647059893 -0.3104503231 0.4640856564 -0.3106323568 -0.1414057767 0.1081235319
295298230.0 -0.1225375538 0.1184358033 0.460664322 -0.3161753772 0.4610280022 -0.3159536956 -0.1405941326 0.1091374432
300298200.0 -0.1214054314 0.1202674611 0.4576984883 -0.3209763314 0.4574997603 -0.3209672159 -0.1396774926 0.1105631034
305298170.0 -0.1203776018 0.1213224057 0.4541145537 -0.3263107729 0.4543316349 -0.3261789767 -0.1386428522 0.1115219647
310298140.0 -0.1184157632 0.1226464272 0.4505941849 -0.3310811175 0.4509043802 -0.3311738573 -0.1375236296 0.1127891334
315298110.0 -0.1176570622 0.1237590213 0.4465518746 -0.3368124696 0.4469298147 -0.3367781415 -0.136400215 0.1142600366
320298080.0 -0.1165629462 0.1251342582 0.4422749303 -0.3419779817 0.4437844499 -0.3419470851 -0.1360407878 0.1154071012
325298050.0 -0.1154937805 0.1260984409 0.4390431644 -0.3467051855 0.4394131423 -0.3470375159 -0.1343178423 0.1165852949
330298020.0 -0.1146974028 0.12759622 0.4351560369 -0.3522081471 0.435953313 -0.3521559896 -0.1340626234 0.1180588247
335297990.0 -0.1133879335 0.1289416414 0.4314009111 -0.3567354605 0.4316710218 -0.3565870409 -0.1330073058 0.1192440596
340297960.0 -0.1125896856 0.1303050469 0.4269312569 -0.3613549251 0.4273476613 -0.3615052766 -0.1320836031 0.1208594513
345297930.0 -0.1111109996 0.1318096555 0.4231160972 -0.3666822544 0.4234791433 -0.3663916264 -0.1307824793 0.1220467272
350297900.0 -0.1101933037 0.1330716691 0.4193834659 -0.3703482249 0.4194443769 -0.3704643516 -0.1298668867 0.1229791374
355297870.0 -0.1086740023 0.1344288656 0.4150452498 -0.3751072372 0.4150990277 -0.3748985467 -0.1288180684 0.1248957325
360297840.0 -0.1073281513 0.1356091829 0.4106295384 -0.3797837307 0.4108985428 -0.3799232194 -0.1279120607 0.1259710426
365297810.0 -0.1061629462 0.1370719089 0.4064692892 -0.3844594614 0.4068268481 -0.384561355 -0.1271376435 0.1273212681
370297780.0 -0.1048504224 0.1383915548 0.4020602453 -0.3886826421 0.402793182 -0.3888517332 -0.1256248388 0.1288601582
375297750.0 -0.1032711457 0.1398617859 0.3982491088 -0.3934610823 0.3979629494 -0.3932238812 -0.1244231918 0.1300625145
380297720.0 -0.1021352572 0.1411911765 0.3942913683 -0.3978746443 0.3938828043 -0.3976509758 -0.1233665676 0.1316333308
385297690.0 -0.1006802112 0.1423777917 0.3892567959 -0.4018569434 0.3894179877 -0.4024057346 -0.1218603175 0.1331955703
390297660.0 -0.0991586653 0.143214892 0.3850812587 -0.4056112004 0.3849682211 -0.4062157377 -0.1202262298 0.1339696603
395297630.0 -0.0973835115 0.1446418297 0.3808663452 -0.4099489159 0.3803825877 -0.4099039701 -0.1192206271 0.1353600395
400297600.0 -0.0963320137 0.1459849765 0.3760632344 -0.4147859864 0.3766351625 -0.4143488014 -0.1181482218 0.1367853659
405297570.0 -0.0948222214 0.1466920135 0.3717724116 -0.4180607546 0.3717821935 -0.4184826437 -0.116551117 0.1381938774
410297540.0 -0.0931348977 0.1482247017 0.3670896464 -0.4229529227 0.367175149 -0.4226723254 -0.1156004918 0.1395268698
415297510.0 -0.0916022143 0.149333613 0.36195943 -0.4265434964 0.3629039696 -0.4267268248 -0.1140288107 0.140818984
420297480.0 -0.0901182463 0.1501243936 0.3575230616 -0.4305735814 0.3577951371 -0.4306656375 -0.1124794842 0.1425848492
425297450.0 -0.0880490961 0.1511496325 0.3530051436 -0.4341343834 0.3529150511 -0.4342098647 -0.1115554719 0.1430147013
430297420.0 -0.0869109431 0.1522591942 0.3486442398 -0.4379664702 0.3487654346 -0.4377326846 -0.1097087317 0.1443362381
435297390.0 -0.0852144204 0.1533197386 0.3431377611 -0.4423934945 0.3435159625 -0.4419993802 -0.1090168839 0.1457769483
440297360.0 -0.0833453903 0.1543220734 0.3381838651 -0.4456415266 0.3383791172 -0.4459602566 -0.1073311769 0.1471366708
445297330.0 -0.0819783441 0.1550287438 0.3337337302 -0.4488483303 0.3336882794 -0.4497970954 -0.1060133896 0.1483824302
450297300.0 -0.0801322399 0.1562798742 0.3289341607 -0.4529504274 0.3292181454 -0.4531946495 -0.1044927591 0.1493963274
455297270.0 -0.0787128834 0.1572590052 0.3239083239 -0.4565258605 0.3242518996 -0.4566861369 -0.102889019 0.1504038886
460297240.0 -0.0765303501 0.1583185849 0.3188335536 -0.4602741319 0.3187528085 -0.4601762246 -0.1014935852 0.1514749063
465297210.0 -0.0751900518 0.1591933705 0.3136911692 -0.4635673291 0.313588892 -0.4638340937 -0.0996959696 0.153067268
470297180.0 -0.0731409064 0.1601221848 0.3086862048 -0.4663200475 0.3089326591 -0.4667913764 -0.0982102888 0.1537663247
475297150.0 -0.0715784624 0.1613302473 0.3033308345 -0.4701529174 0.3035561518 -0.4702634884 -0.096933937 0.1550475046
480297120.0 -0.0693431876 0.1621358813 0.2984547691 -0.4733238657 0.2985989905 -0.4731998684 -0.0954869103 0.1559587248
485297090.0 -0.0676801638 0.1626581823 0.2929884308 -0.4766061825 0.2932145812 -0.4764184211 -0.0939613235 0.1570519036
490297060.0 -0.0652430424 0.1639556026 0.2874622357 -0.4803850064 0.2883360302 -0.4800348485 -0.0926328005 0.1578360793
495297030.0 -0.0641057407 0.1643801395 0.282953308 -0.483376792 0.2826711289 -0.4833800213 -0.0905827573 0.1592882526
500297000.0 -0.0622521817 0.1655960261 0.2776589914 -0.4860468225 0.277872347 -0.4860273038 -0.0893060698 0.1604544837
505296970.0 -0.0598483434 0.1661826873 0.2723730287 -0.4891266235 0.2721425423 -0.4889493235 -0.0874549578 0.1608770416
510296940.0 -0.0583820459 0.1667297983 0.2670347062 -0.4927738198 0.2670150169 -0.492520358 -0.0853257199 0.1622995537
515296910.0 -0.0562858267 0.1678223175 0.261260933 -0.4946919528 0.2608324304 -0.4948102834 -0.0842881983 0.1628443858
520296880.0 -0.0543460408 0.1685630755 0.2561703358 -0.4975883792 0.2556235347 -0.4973286995 -0.0821153266 0.1641314262
525296850.0 -0.0524923079 0.1690847694 0.2502367001 -0.5004074746 0.2502650596 -0.5004198936 -0.0810175438 0.1649501054
530296820.0 -0.0508121602 0.1698553077 0.2450209389 -0.5032680597 0.2448728009 -0.5028512707 -0.0793577843 0.1657047231
535296790.0 -0.0479878446 0.1707429787 0.2394585099 -0.5055862706 0.2392464716 -0.5057710923 -0.0770377946 0.1672537796
540296760.0 -0.0461048561 0.1715286868 0.2335467947 -0.5081611569 0.2335866067 -0.5080504754 -0.0756569576 0.1673730601
545296730.0 -0.0448970422 0.1723610883 0.2285092412 -0.5102679192 0.2283106009 -0.5104916192 -0.0738897844 0.1687472823
550296700.0 -0.042254538 0.1726375834 0.2229198489 -0.5132267096 0.2224660787 -0.5132762824 -0.0722297016 0.1690605298
555296670.0 -0.0404635713 0.1736161119 0.21758152 -0.5154404631 0.2170221309 -0.5154746529 -0.0705969557 0.16971425
560296640.0 -0.0378726412 0.1741156549 0.2113867205 -0.5179865398 0.2117200082 -0.5178056552 -0.0693881171 0.1711399492
565296610.0 -0.0366447945 0.174831669 0.2063778024 -0.5200757686 0.2062001492 -0.5199616659 -0.0674076718 0.1718766943
570296580.0 -0.0345598841 0.1755085212 0.2003617995 -0.5222721639 0.2003273548 -0.5219835042 -0.0656856167 0.1723187833
575296550.0 -0.0320814219 0.1755004401 0.1947873518 -0.524247765 0.1945605619 -0.5242370816 -0.0639589908 0.1732317944
580296520.0 -0.0302985511 0.1764232348 0.1889610291 -0.5265248054 0.1889570778 -0.5267503075 -0.0627854784 0.1739443041
585296490.0 -0.0282594712 0.1770906445 0.183917681 -0.5284068005 0.1827100938 -0.5282071604 -0.0601155547 0.174971119
590296460.0 -0.0254276001 0.177588369 0.1773487941 -0.5299952901 0.1772873073 -0.5304335955 -0.0591428883 0.1754296168
595296430.0 -0.0237192435 0.1778181966 0.1713423894 -0.5318936198 0.1712286993 -0.5318233993 -0.0571899417 0.1760184566
600296400.0 -0.0215171074 0.1786714138 0.1656435729 -0.5336558423 0.165522522 -0.5337358387 -0.0552804992 0.1764563993
605296370.0 -0.0197454262 0.1790806864 0.1605123662 -0.5355619743 0.1601287802 -0.5356847377 -0.0536242357 0.1773379162
610296340.0 -0.0170811519 0.179668781 0.1538741404 -0.5369653214 0.1545518213 -0.5367743303 -0.0521458359 0.1781700728
615296310.0 -0.0151479711 0.1801103511 0.1485346686 -0.5393932477 0.1478634203 -0.5390828599 -0.0499221631 0.178836834
620296280.0 -0.0134428339 0.1806963701 0.1425278241 -0.5400696862 0.1424588012 -0.5403835599 -0.0487722536 0.1795638987
625296250.0 -0.0114531518 0.1806013313 0.1365251847 -0.5422268651 0.137007949 -0.5420297091 -0.0470888013 0.1798883078
630296220.0 -0.0093757281 0.181448447 0.1304221666 -0.5433616171 0.1306150984 -0.5430965141 -0.044808451 0.1804819118
635296190.0 -0.0075459893 0.1817650103 0.1253458646 -0.5444730576 0.1247000696 -0.5444090489 -0.0430606065 0.1812390478
640296160.0 -0.0054235786 0.1819364063 0.1188047764 -0.5458288273 0.1186465668 -0.545850264 -0.041689992 0.1816390342
645296130.0 -0.0030601609 0.1826969631 0.1130687294 -0.547108232 0.1130738013 -0.5470973754 -0.0399872795 0.1818009445
650296100.0 -0.0009382173 0.1824542861 0.1074893932 -0.5480989069 0.1068604912 -0.5488183273 -0.0372849762 0.1828185648
655296070.0 0.0007302563 0.182984112 0.1011033315 -0.5494090437 0.1010780933 -0.549238567 -0.0363262032 0.1832845434
660296040.0 0.0030792748 0.183404972 0.0958964514 -0.5505645995 0.0953924741 -0.5508189093 -0.034655349 0.1834272069
665296010.0 0.0052673461 0.1834808463 0.0888511926 -0.5512547764 0.0890167198 -0.5510836418 -0.0325135008 0.1840418412
670295980.0 0.0069850377 0.1836971156 0.0829147672 -0.552249218 0.0831847846 -0.5520790458 -0.0311301814 0.1843168084
675295950.0 0.0092478245 0.1838957729 0.0770785719 -0.5526122591 0.0774385132 -0.553294927 -0.0291269153 0.1850980769
680295920.0 0.0106666773 0.1842746746 0.0715827906 -0.5536634217 0.0714542882 -0.5534869043 -0.0271918144 0.1851198039
685295890.0 0.0132560587 0.1843600072 0.0654708195 -0.5547298879 0.0649005232 -0.5549823283 -0.0253725287 0.1860395414
690295860.0 0.0150981842 0.1846350638 0.0592844759 -0.5555710656 0.0590389448 -0.5552941646 -0.0235555497 0.1861050717
695295830.0 0.0172081074 0.1844665928 0.0538365271 -0.5556193293 0.0532443992 -0.555930939 -0.0218950066 0.186887678
700295800.0 0.0191393232 0.1847553177 0.0482595883 -0.5565114087 0.0473014656 -0.5560777918 -0.0197037686 0.1872139867
705295770.0 0.0211372511 0.1849888388 0.0415807774 -0.5572355912 0.0414044149 -0.5564762324 -0.0181704047 0.1876697461
710295740.0 0.0231146065 0.1844969738 0.0356891397 -0.5572577357 0.0352081134 -0.5573900611 -0.0162648342 0.1878389285
715295710.0 0.0254809081 0.1845357781 0.0297504779 -0.5574711368 0.0293544286 -0.5573952953 -0.0144269977 0.188069958
720295680.0 0.0275762076 0.1848907578 0.0232109301 -0.5576618439 0.0231117345 -0.5579989993 -0.0125656978 0.1881595016
725295650.0 0.0290862111 0.184977967 0.017938999 -0.5576039954 0.017460242 -0.5579219383 -0.0110270743 0.1890109248
730295620.0 0.0305978096 0.1846589397 0.0115354405 -0.5576881861 0.0115640633 -0.5577056157 -0.0093813935 0.1892874968
735295590.0 0.0330302558 0.1845673776 0.0056990289 -0.5581587942 0.0054114657 -0.5582439636 -0.0073677665 0.1890703497
740295560.0 0.0349768046 0.1842000943 -0.0001743479 -0.5582303504 -0.0003406626 -0.5580052867 -0.0055191228 0.1896955993
745295530.0 0.0369171302 0.1845773297 -0.0060983154 -0.557496113 -0.005800201 -0.5581535804 -0.0039314576 0.1896889859
750295500.0 0.038653142 0.1843043855 -0.0121481639 -0.5578991963 -0.0125621922 -0.5582045116 -0.002201679 0.1901337361
755295470.0 0.0404142771 0.1840517889 -0.0179257067 -0.5580949507 -0.0180671017 -0.558041146 -0.0001245468 0.1904733397
760295440.0 0.0426048584 0.1842083782 -0.0248591022 -0.5575533096 -0.0242571416 -0.5573596075 0.0019058168 0.1897753442
765295410.0 0.0447893254 0.1834200608 -0.0302745453 -0.5572086156 -0.0301767393 -0.5572789861 0.0039599502 0.1902429542
770295380.0 0.0465660306 0.1837531722 -0.0361962437 -0.5565503231 -0.0363431623 -0.5574473015 0.0048967743 0.1904553901
775295350.0 0.0483682709 0.1830167065 -0.0421497996 -0.5565149669 -0.0419739055 -0.5561318475 0.0077281771 0.1907417389
780295320.0 0.0504098776 0.1833945044 -0.0479786101 -0.5557924708 -0.0479924928 -0.5555608217 0.0092313638 0.1905905019
785295290.0 0.0521016487 0.1824212701 -0.0541643296 -0.5554259349 -0.0538759548 -0.5551240036 0.0105968709 0.1910538719
790295260.0 0.0543695671 0.1819253603 -0.0598714094 -0.5546487698 -0.0595247566 -0.555378705 0.0123617134 0.1914687004
795295230.0 0.056007731 0.1815742024 -0.0659436132 -0.5543471977 -0.066230754 -0.5541794806 0.0148776732 0.1903584106
800295200.0 0.0577361416 0.1814820787 -0.0713529145 -0.5530274067 -0.0721373435 -0.5531569532 0.0164531302 0.1911867809
805295170.0 0.0593096594 0.180791392 -0.0775451672 -0.5520040283 -0.077702345 -0.5525781129 0.0185906449 0.1909147274
810295140.0 0.0618316364 0.1807064113 -0.083235943 -0.5513979516 -0.0837636862 -0.5514322232 0.0201856728 0.1908044965
815295110.0 0.0634005547 0.1803188879 -0.0896401592 -0.5504514914 -0.0894865602 -0.5509329342 0.021911347 0.1907924121
820295080.0 0.0652393902 0.1795173407 -0.095148178 -0.549242959 -0.0952647008 -0.5496315983 0.0231419142 0.1913349744
825295050.0 0.0672035851 0.1790488792 -0.1011780448 -0.5486874156 -0.1012552919 -0.5484871661 0.0259203809 0.1912075863
830295020.0 0.069004553 0.178442634 -0.1072200747 -0.5474156199 -0.107245261 -0.5475886683 0.0272296083 0.1906321324
