!Created with skrf (http://scikit-rf.org).
# Hz S RI R 50.0 
!freq ReS11 ImS11 ReS21 ImS21 ReS12 ImS12 ReS22 ImS22
300000.0 -0.3179314609 -0.1052473777 0.3745317093 0.0521976919 0.3742471386 0.0576617279 -0.3193358247 -0.1161825331
5299970.0 -0.3237152447 0.0045580676 0.3785969424 0.0032123501 0.3784498753 0.0031122353 -0.3260261183 0.0028135628
10299940.0 -0.3210244392 0.0154822502 0.3798509989 0.0021380181 0.3796122806 0.0024906276 -0.3239952484 0.012828118
15299910.0 -0.3181111822 0.0233877586 0.3817661544 0.002325783 0.3820981978 0.002450921 -0.3210969075 0.0195393064
20299880.0 -0.3142858613 0.0300343908 0.3850536938 0.0016888892 0.384975105 0.0019495719 -0.3183354813 0.0260141816
25299850.0 -0.3104562612 0.0359381483 0.3881739297 -0.0003126384 0.3883606679 4.7238e-06 -0.3154332845 0.0312555017
30299820.0 -0.3067868684 0.0404007517 0.3920759059 -0.0019958328 0.3916729519 -0.0021623872 -0.312477606 0.0354294521
35299790.0 -0.3029100213 0.0447634028 0.3952963542 -0.0054664069 0.395161407 -0.0053706306 -0.3097567778 0.0392987848
40299760.0 -0.2994148842 0.0481215265 0.3980956024 -0.0084681749 0.3983186532 -0.0090144352 -0.3069443181 0.0433191644
45299730.0 -0.2962732959 0.0514986463 0.4010979677 -0.0127818884 0.4012349767 -0.0127847344 -0.3045347735 0.0462332441
50299700.0 -0.2932328829 0.0540871738 0.4037827006 -0.0174733429 0.4035288281 -0.0172849364 -0.3019184979 0.0494102608
55299670.0 -0.2908529804 0.0568679693 0.4055823707 -0.0221008912 0.4060805696 -0.0219911444 -0.3004059245 0.0520876594
60299640.0 -0.2880990897 0.0590449433 0.4073572824 -0.027144489 0.4074907834 -0.027059966 -0.2978450782 0.0547721714
65299610.0 -0.2861102538 0.0617069025 0.4096193186 -0.0317438729 0.4093717122 -0.0318774994 -0.2958168619 0.0573186178
70299580.0 -0.2837631391 0.0634737786 0.4104677532 -0.0365836353 0.4106571953 -0.0370279971 -0.2946639728 0.0595836042
75299550.0 -0.2818953608 0.0658700297 0.4114354445 -0.0419520462 0.4114879919 -0.042493662 -0.2931513727 0.0623912031
80299520.0 -0.2801851235 0.0679021203 0.4125388974 -0.0474144127 0.4123774163 -0.0472952179 -0.2914224324 0.0640262097
85299490.0 -0.278501784 0.0696726716 0.4130743188 -0.0527143965 0.4130938581 -0.0526202561 -0.2903797353 0.0664700256
90299460.0 -0.2771482488 0.0719695269 0.4136147053 -0.0574943067 0.4135541561 -0.0579665272 -0.2885918535 0.0688597288
95299430.0 -0.2756940444 0.0743119842 0.4139500104 -0.0632682232 0.4139730846 -0.0632984245 -0.2874430823 0.0713311423
100299400.0 -0.2742795346 0.0763474098 0.4136312481 -0.0684029702 0.4137060346 -0.0681849368 -0.2869143141 0.0734885989
105299370.0 -0.2730201485 0.0784291943 0.4132523567 -0.0732584588 0.4137738853 -0.0736293716 -0.2854587385 0.0757290407
110299340.0 -0.2719222527 0.080532763 0.4132101833 -0.0788289681 0.4134033608 -0.0790283283 -0.2843468136 0.0782475437
115299310.0 -0.2705585677 0.0823744795 0.4128772682 -0.083381282 0.4133229443 -0.0838239968 -0.2831199072 0.0802879411
120299280.0 -0.2698431144 0.0845547246 0.4129455768 -0.0890860632 0.4129887141 -0.0890926882 -0.2824910451 0.0825614179
125299250.0 -0.2688075681 0.0867586974 0.4122970799 -0.0938556193 0.4123127536 -0.0941242748 -0.2811061419 0.0846307268
130299220.0 -0.267613483 0.0890130615 0.4116700442 -0.0987124964 0.4115819004 -0.0992606681 -0.2805882398 0.0874024411
135299190.0 -0.2665408797 0.0912100872 0.410770133 -0.1035833832 0.4103876768 -0.1042258212 -0.2790671632 0.0898628552
140299160.0 -0.2658056187 0.0937869553 0.4102151582 -0.1093337511 0.4100556285 -0.1092831499 -0.2784239689 0.0920866912
145299130.0 -0.2647553587 0.0958116452 0.409404304 -0.1140339091 0.4090360573 -0.1136673342 -0.2781876374 0.0946279803
150299100.0 -0.2641048441 0.098220096 0.4083817776 -0.1188520392 0.4083473223 -0.1188898394 -0.2770824592 0.0970821701
155299070.0 -0.263062554 0.1009061208 0.406971129 -0.1239344228 0.4071262901 -0.1243579686 -0.2762848255 0.0997683259
160299040.0 -0.2619518792 0.1030571537 0.4059410473 -0.1283824177 0.4059489747 -0.128874169 -0.2753388604 0.1024658407
165299010.0 -0.2610699585 0.1053137191 0.4047812145 -0.1336142221 0.4046966871 -0.1338076384 -0.2741270446 0.1045362934
170298980.0 -0.2601594992 0.1079483951 0.4028172717 -0.1384694097 0.4030909935 -0.1385754768 -0.2730883106 0.1070526215
175298950.0 -0.2588704284 0.1105102841 0.4019845565 -0.1432302689 0.4019776157 -0.1431719981 -0.2724199561 0.1096086653
180298920.0 -0.2578303798 0.1126729134 0.3999466801 -0.1482538688 0.4003481543 -0.1478943025 -0.2710578559 0.1125851385
185298890.0 -0.2568428803 0.1154782416 0.3983927798 -0.1527615924 0.3991521595 -0.1527177724 -0.2705829709 0.1147928444
190298860.0 -0.256130237 0.1176961037 0.3971747036 -0.1573542149 0.3974681027 -0.1575392355 -0.2687406298 0.1178160087
195298830.0 -0.2547709288 0.1197728749 0.3957432501 -0.1615642063 0.3958617393 -0.1619041807 -0.2680808074 0.1197527894
200298800.0 -0.2535670477 0.1228565659 0.39398523 -0.1660463809 0.3940665184 -0.1666866051 -0.2668495218 0.1228733626
205298770.0 -0.2527885583 0.1252727225 0.392368538 -0.1710150379 0.3922101409 -0.170914039 -0.2655085944 0.1250529466
210298740.0 -0.2513550859 0.1278482664 0.390522921 -0.1757079319 0.3906634213 -0.1758520033 -0.2646436297 0.128316759
215298710.0 -0.2502233061 0.1303110587 0.3887190228 -0.180147101 0.3885415165 -0.1801882325 -0.2635426131 0.1310234605
220298680.0 -0.2491047311 0.1329168259 0.3863931424 -0.1847704177 0.3865012514 -0.1848163203 -0.2621376915 0.1336357191
225298650.0 -0.2477117745 0.1355737286 0.384487955 -0.1889891212 0.3841923173 -0.1888628789 -0.2611715023 0.1360760109
230298620.0 -0.2467451291 0.1383929096 0.3827487542 -0.1937982462 0.3826665733 -0.1934400158 -0.2595697907 0.1388886035
235298590.0 -0.2454462433 0.1405258058 0.3800343239 -0.1977073091 0.380381955 -0.1982372472 -0.2585793404 0.1415940931
240298560.0 -0.2440993001 0.1433785848 0.3781729845 -0.2021429427 0.3783028762 -0.2019609462 -0.2571008382 0.1444123108
245298530.0 -0.2424384445 0.1455727541 0.3753947552 -0.206465409 0.375886384 -0.2065111644 -0.2558281603 0.1468838748
250298500.0 -0.2413838694 0.1481858616 0.3736773124 -0.210443904 0.3739515522 -0.2101845721 -0.2538895781 0.1495787986
255298470.0 -0.2398766889 0.1508378816 0.3710121529 -0.2150096027 0.371380037 -0.2149397998 -0.2525647079 0.152235265
260298440.0 -0.2384628058 0.1532908378 0.3686183634 -0.2189937013 0.3689480163 -0.2192787318 -0.2507420636 0.1550674946
265298410.0 -0.2372644071 0.1561574196 0.3665630907 -0.2239320924 0.36615976 -0.2235303537 -0.2496365988 0.1577336417
270298380.0 -0.2354263565 0.1584837721 0.3638513757 -0.2275285817 0.3641736693 -0.2275802971 -0.2479709713 0.1601781625
275298350.0 -0.2342034824 0.1609927327 0.361540082 -0.2318645575 0.3618677761 -0.2318532681 -0.2462020987 0.1628876861
280298320.0 -0.2326495016 0.1635616397 0.3590036185 -0.2353054548 0.3589586974 -0.2362451741 -0.2444382218 0.165873133
285298290.0 -0.2309485296 0.1663591175 0.3567066137 -0.2396690612 0.3564014761 -0.2399333174 -0.2432515825 0.1683166936
290298260.0 -0.2292856278 0.1686714325 0.3538834751 -0.2437329875 0.3536950386 -0.2438969006 -0.2410537639 0.1711096971
295298230.0 -0.2278976589 0.1714572404 0.3515771866 -0.2477130526 0.3510157754 -0.2481582449 -0.2393306866 0.1736047016
300298200.0 -0.2258354949 0.1736050761 0.3483596432 -0.252080797 0.3483297865 -0.252018895 -0.237894916 0.1763086192
305298170.0 -0.2238197707 0.1761699769 0.3458461671 -0.2560285299 0.34578961 -0.2561180248 -0.235408716 0.1790575374
310298140.0 -0.2219167152 0.1783447142 0.3427612615 -0.2600801463 0.3430310775 -0.2602240621 -0.233801378 0.1819630284
315298110.0 -0.2204065772 0.1808766319 0.3396119116 -0.2638528469 0.3402483008 -0.2639269395 -0.2320111768 0.1842522656
320298080.0 -0.2187350746 0.1833385331 0.3372142757 -0.2677574572 0.3370632276 -0.267614975 -0.2301174367 0.1866500216
325298050.0 -0.2169955767 0.1855674392 0.3344124032 -0.2714577059 0.3340639508 -0.2716736405 -0.2280713344 0.1894359748
330298020.0 -0.2151366561 0.1882167661 0.3304632058 -0.2753388053 0.3307279483 -0.2753440834 -0.2262474013 0.1917594629
335297990.0 -0.2132483674 0.1902575129 0.3275333987 -0.2790952964 0.3277961885 -0.2793859408 -0.2247353927 0.1941625056
340297960.0 -0.2117600337 0.1929042682 0.3242923821 -0.2827833274 0.3245236048 -0.2826241775 -0.2226143892 0.1967629177
345297930.0 -0.2101433847 0.1951005837 0.3213696814 -0.2861775115 0.3208410611 -0.2858766413 -0.2202074786 0.1994518778
350297900.0 -0.2074981285 0.1977514375 0.3179800535 -0.289546043 0.3183784623 -0.2900099859 -0.2187441725 0.2022872385
355297870.0 -0.2059328283 0.2000226214 0.3144884901 -0.2930641072 0.3147319026 -0.2930799645 -0.2167952379 0.204435794
360297840.0 -0.2037929153 0.202528077 0.3115324727 -0.2967172245 0.3116258072 -0.2964470084 -0.2144025743 0.207288075
365297810.0 -0.2017839208 0.2044884163 0.3078161842 -0.2999998674 0.3081047749 -0.3002559747 -0.2124847673 0.2099108751
370297780.0 -0.1995976034 0.2064720102 0.3045360655 -0.3032343176 0.3048023387 -0.3037226255 -0.210292158 0.2120519706
375297750.0 -0.1974408826 0.2092213576 0.3017980533 -0.3065559236 0.3012146849 -0.3069665782 -0.2077081682 0.2152321376
380297720.0 -0.1954063545 0.2115073328 0.2981144676 -0.3096467827 0.2979520939 -0.3101411735 -0.2056838353 0.2174729658
385297690.0 -0.1932185892 0.2137894083 0.2945840054 -0.3128392825 0.2945605598 -0.3134195157 -0.2037402278 0.2202088934
390297660.0 -0.1909733604 0.2158827901 0.2909150538 -0.3166862393 0.2908203326 -0.3168902605 -0.2015947994 0.2220007675
395297630.0 -0.1887052651 0.2180842592 0.2876875285 -0.319534509 0.2874378476 -0.319614835 -0.1991940991 0.2245325912
400297600.0 -0.1864258677 0.2203172165 0.2840357573 -0.3226758732 0.284147745 -0.3227468215 -0.1970139978 0.2265943126
405297570.0 -0.1839427702 0.2226229336 0.2801553834 -0.3260801491 0.2803364842 -0.326420007 -0.1948023507 0.2294364258
410297540.0 -0.1817094392 0.2245486889 0.2763254298 -0.3288915787 0.2765784044 -0.3287063762 -0.1921267351 0.2314867602
415297510.0 -0.1795965309 0.2267136117 0.2727496306 -0.3320084192 0.2729248127 -0.3320108108 -0.1901310639 0.2342653716
420297480.0 -0.1769911495 0.2285663104 0.26910707 -0.3350474763 0.2690208436 -0.3349028716 -0.1873887994 0.2356713386
425297450.0 -0.1746263027 0.2301420938 0.26551347 -0.3377320548 0.2660312563 -0.3380783031 -0.1846955557 0.2382209849
430297420.0 -0.172683844 0.2325212455 0.2619429074 -0.3407210349 0.2619727859 -0.3407148449 -0.1828065437 0.2402580726
435297390.0 -0.1696630127 0.2345650285 0.2581426771 -0.3431437618 0.2580765568 -0.3432863159 -0.1799890137 0.2428436784
440297360.0 -0.1672962687 0.236664855 0.2537935559 -0.3463919485 0.2537337206 -0.3462768265 -0.177572083 0.244289886
445297330.0 -0.164857467 0.2386056392 0.2499914556 -0.3493685 0.2501732252 -0.3491900907 -0.1751494214 0.2464942443
450297300.0 -0.1620482205 0.2400226537 0.2461065618 -0.3516621355 0.2465357574 -0.3520882312 -0.1726127235 0.2490565851
455297270.0 -0.1599851257 0.2421524831 0.2428203895 -0.3542581625 0.2430677876 -0.3542728187 -0.1696563178 0.2507386023
460297240.0 -0.1577671088 0.2442023678 0.2387050117 -0.3567465865 0.238539678 -0.3570460767 -0.1671932635 0.2530838585
465297210.0 -0.1545960877 0.2457936678 0.2345688675 -0.3598908973 0.2349343834 -0.3596492374 -0.1649981827 0.2545705794
470297180.0 -0.1520883862 0.2476696866 0.2310637313 -0.3618103385 0.2310921335 -0.3620901925 -0.1626454492 0.2566805666
475297150.0 -0.1496765899 0.2493748268 0.2270691618 -0.3645556515 0.2270544051 -0.3641631284 -0.1594646284 0.258093624
480297120.0 -0.1469551107 0.2508196604 0.2229973125 -0.3667628525 0.2232712404 -0.3665224105 -0.1570885333 0.2606398725
485297090.0 -0.1442875055 0.2525759708 0.2189923449 -0.3688929366 0.2188938268 -0.369213267 -0.1546689022 0.2621576695
490297060.0 -0.1415294233 0.2540617462 0.214706013 -0.3712880702 0.2150449887 -0.3718721249 -0.1518171345 0.2644120602
495297030.0 -0.1389374549 0.2561246829 0.2103971178 -0.3738368172 0.2103886619 -0.3738106258 -0.148941287 0.2656485401
500297000.0 -0.136056316 0.2575632663 0.2063146359 -0.3761921191 0.2066166496 -0.3761190572 -0.146360449 0.2675392762
505296970.0 -0.1336672702 0.2593308805 0.2020559503 -0.3783211504 0.2021296418 -0.3784419939 -0.1440886698 0.269506256
510296940.0 -0.1309018261 0.26093791 0.1981328167 -0.3806768184 0.1983477118 -0.3805950268 -0.1407455919 0.2712524888
515296910.0 -0.1284061755 0.2624201372 0.1939060224 -0.3821116468 0.1940640156 -0.3822987066 -0.1379251986 0.2726368839
520296880.0 -0.1252627202 0.2639038907 0.1895331294 -0.3843407629 0.1901043215 -0.3845454924 -0.1353334356 0.2744773239
525296850.0 -0.1225044445 0.2652056335 0.185493492 -0.3865887728 0.1858676083 -0.3866614168 -0.1320193361 0.2761554945
530296820.0 -0.1196611867 0.2667820432 0.1816406355 -0.3879569242 0.181114426 -0.3882518207 -0.1299996426 0.2774081012
535296790.0 -0.1169892296 0.2680526952 0.1770425682 -0.3900670341 0.1774043009 -0.3901268631 -0.1269545764 0.2786877864
540296760.0 -0.1142895943 0.2695016874 0.1727868758 -0.3923528146 0.1726664508 -0.3924425511 -0.123975474 0.2805978391
545296730.0 -0.1115818689 0.2707259913 0.1686874809 -0.3939406129 0.1688567698 -0.3942502876 -0.121682619 0.2817221114
550296700.0 -0.1083663887 0.2720141546 0.163899559 -0.3956263356 0.1644941171 -0.3960243186 -0.1181010423 0.2836104081
555296670.0 -0.1054164683 0.2734200069 0.1601596191 -0.3977152789 0.1600848867 -0.3977103422 -0.1156427336 0.2848845673
560296640.0 -0.1029420229 0.2745389818 0.1556571329 -0.3989660059 0.1559444116 -0.3990386213 -0.1121986533 0.2862088405
565296610.0 -0.100043966 0.2758912117 0.1511773125 -0.400652465 0.1510184225 -0.4007478241 -0.1095142051 0.2871616672
570296580.0 -0.0968585004 0.2770150688 0.1468617573 -0.4019970407 0.1471081169 -0.4026507032 -0.1066123871 0.289295461
575296550.0 -0.0940679367 0.278266876 0.1426637135 -0.4036622077 0.1427548805 -0.4036592797 -0.1031478916 0.290105586
580296520.0 -0.0911852016 0.2793167331 0.13832026 -0.4051571352 0.1379525996 -0.4054688132 -0.1004710187 0.2914218227
585296490.0 -0.0881529549 0.2803344662 0.1338572294 -0.4068466847 0.1338566907 -0.4067159006 -0.0978633078 0.2922543919
590296460.0 -0.0852242432 0.2811758527 0.1290250948 -0.4080595604 0.1289618001 -0.4086507113 -0.0941029475 0.2939831386
595296430.0 -0.0821727379 0.2829943928 0.1249986099 -0.4098301978 0.1245952349 -0.4098662027 -0.0914432748 0.2945598267
600296400.0 -0.0792659682 0.2837261062 0.120570813 -0.411010703 0.1205247334 -0.4109677731 -0.0883665346 0.2959089454
605296370.0 -0.0759821172 0.2847846786 0.115590045 -0.4120571818 0.115916551 -0.4120513646 -0.0851013007 0.2970039949
610296340.0 -0.073476775 0.2854494454 0.1117548074 -0.4133214904 0.1116006461 -0.4133936893 -0.0822901755 0.2986377226
615296310.0 -0.0701694327 0.2866762281 0.1066626744 -0.414402941 0.1070290155 -0.4145753309 -0.0791792304 0.2988339421
620296280.0 -0.0671852764 0.2871604913 0.1025617576 -0.415410056 0.102610168 -0.4156668785 -0.0763406037 0.3001517375
625296250.0 -0.064015808 0.2882631016 0.0977249233 -0.4167397385 0.0977062913 -0.416827197 -0.0727774622 0.3010200699
630296220.0 -0.0609596838 0.2889886787 0.0928574446 -0.4178063566 0.0938470683 -0.4176851804 -0.0700238673 0.3024392682
635296190.0 -0.0580651685 0.2899267424 0.0885064878 -0.4183797408 0.0889091797 -0.4182439833 -0.0669117884 0.302560359
640296160.0 -0.0548740788 0.2903505234 0.0842960746 -0.4191618956 0.0839953037 -0.4196962144 -0.0633425626 0.3036337609
645296130.0 -0.0521151688 0.2913360919 0.0797345177 -0.4205911494 0.0799155594 -0.4203051077 -0.0608342778 0.3041284708
650296100.0 -0.0489182554 0.2923022158 0.0752784699 -0.4208950273 0.075152353 -0.4208918598 -0.0577567273 0.305420975
655296070.0 -0.045761296 0.2928387922 0.0705531724 -0.4220377857 0.070693333 -0.4218828629 -0.0541361049 0.3058249456
660296040.0 -0.0428615669 0.2937866745 0.0660789343 -0.4223895648 0.0663345684 -0.4223314623 -0.0509894766 0.3066719017
665296010.0 -0.0397013841 0.2937891014 0.0617188488 -0.4231774155 0.0616614077 -0.4232196617 -0.048386274 0.3076875479
670295980.0 -0.0360618443 0.2943684358 0.0565453926 -0.4237412102 0.0573131798 -0.4237883354 -0.0454376803 0.30811824
675295950.0 -0.0333771535 0.2948115602 0.0521446065 -0.4239781666 0.0525352091 -0.4247729726 -0.0417131065 0.308729416
680295920.0 -0.0302021989 0.2959423466 0.0475691685 -0.4247446722 0.0476233267 -0.4249225105 -0.0384065941 0.3092189999
685295890.0 -0.0270262067 0.2960669497 0.0431776891 -0.4253490969 0.042660255 -0.4255789095 -0.0350989714 0.3101527023
690295860.0 -0.0240062454 0.2963333222 0.0386552058 -0.4252635123 0.0381947352 -0.4256469814 -0.0318645067 0.3104996772
695295830.0 -0.0204720898 0.2965014047 0.0334696389 -0.426193932 0.0335215234 -0.4261930994 -0.0289190446 0.3110650193
700295800.0 -0.0175222044 0.297094614 0.0287658782 -0.4262128576 0.0290902512 -0.4265065022 -0.0254869242 0.3107773615
705295770.0 -0.0139712746 0.2977218271 0.0240983414 -0.4263820998 0.0245890172 -0.4264188773 -0.0227751603 0.3114150262
710295740.0 -0.0110767138 0.2979240975 0.0196577594 -0.4269205647 0.0200563514 -0.4268412279 -0.0197324254 0.3123202417
715295710.0 -0.0083208636 0.2981481268 0.0151322836 -0.4265460287 0.0155406941 -0.4269905952 -0.0161122402 0.3123107805
720295680.0 -0.0053008396 0.298290816 0.0107077724 -0.4268565842 0.0108390938 -0.4275338704 -0.0128878609 0.3128494459
725295650.0 -0.001533139 0.298361549 0.00568679 -0.4271093708 0.0059114148 -0.4273514457 -0.009488317 0.3131779214
730295620.0 0.0013548231 0.2988111772 0.0011527614 -0.4270987707 0.0013779903 -0.426898216 -0.0062435645 0.3129827762
735295590.0 0.0048363883 0.2985955536 -0.0031316843 -0.4268947656 -0.0031389926 -0.4271054777 -0.0030265099 0.3134591787
740295560.0 0.0076672727 0.2989380575 -0.0079404194 -0.4264292797 -0.0078737027 -0.4269491268 0.0001852454 0.3133765797
745295530.0 0.0108709398 0.2988400668 -0.0125660363 -0.4266456337 -0.0121575098 -0.4270909346 0.0032207111 0.313859195
750295500.0 0.0138609728 0.2987290657 -0.0170570152 -0.4260715893 -0.0168658822 -0.4265151273 0.0066612024 0.313358874
755295470.0 0.0176069113 0.2990077509 -0.021784023 -0.426137178 -0.0213188678 -0.4264567854 0.0095780523 0.3140043888
760295440.0 0.020234791 0.2991276904 -0.026312769 -0.4259555475 -0.0263318038 -0.4260863554 0.0128901155 0.3140059201
765295410.0 0.0235206419 0.298787913 -0.0304858647 -0.4254176447 -0.0307838745 -0.4260761239 0.0168622539 0.3137525314
770295380.0 0.0269248978 0.2987469534 -0.0354279649 -0.4246867569 -0.0354561457 -0.4257677474 0.019860466 0.313991159
775295350.0 0.0299256704 0.2988387953 -0.0398983771 -0.4244678556 -0.0399710444 -0.424721536 0.0228089836 0.3134987047
780295320.0 0.0332691178 0.2981200039 -0.0445001536 -0.4241951226 -0.0444031537 -0.424266754 0.0262104763 0.3135724024
785295290.0 0.0364221787 0.298591528 -0.0490999888 -0.423410296 -0.0490469616 -0.4237124608 0.0289389415 0.313455173
790295260.0 0.0393934137 0.2980371325 -0.0538159765 -0.4231986047 -0.0537675704 -0.4232618327 0.0327496664 0.3132100528
795295230.0 0.0423514989 0.298015922 -0.0576604613 -0.4223744291 -0.0579576738 -0.4225436128 0.0357480398 0.3132761771
800295200.0 0.0459377856 0.2978282365 -0.0630762161 -0.4218760212 -0.0632118241 -0.4218495017 0.039293386 0.3128473966
805295170.0 0.0487772079 0.2972096348 -0.0671448323 -0.4205278009 -0.0673377504 -0.4211038021 0.0419953196 0.3123123634
810295140.0 0.0520825334 0.2969206446 -0.0717856354 -0.4203052611 -0.0717608529 -0.4208291496 0.0455863842 0.3125692619
815295110.0 0.0552225878 0.2964808392 -0.0765253152 -0.4189826389 -0.0763476365 -0.4190634577 0.0486985762 0.3116011477
820295080.0 0.058168281 0.2956098492 -0.0808718961 -0.4183881437 -0.0807519115 -0.4190684621 0.0518087019 0.3115330349
825295050.0 0.0617271775 0.295400517 -0.0853556342 -0.4172695201 -0.0854119561 -0.4178241525 0.0553025146 0.3113359916
830295020.0 0.0647466933 0.2949708683 -0.0898170518 -0.4160768764 -0.0900568538 -0.416679859 0.0581482287 0.310539216
