!Created with skrf (http://scikit-rf.org).
# Hz S RI R 50.0 
!freq ReS11 ImS11 ReS21 ImS21 ReS12 ImS12 ReS22 ImS22
300000.0 -0.3235970157 -0.0862116821 0.3765708394 0.0437077259 0.3738679167 0.0417754256 -0.3197722626 -0.09757297
5299970.0 -0.3266881644 0.0039674757 0.3784028043 0.0026250253 0.3784162842 0.0028581229 -0.3239066387 0.0046924427
10299940.0 -0.324176122 0.0131575023 0.3793439563 0.002161466 0.3794981845 0.0022120296 -0.3215506941 0.0158308016
15299910.0 -0.3217264641 0.0203058782 0.3817595893 0.0021744458 0.3821073078 0.0020535337 -0.3182177081 0.0240467499
20299880.0 -0.3185790956 0.0264216905 0.3845761322 0.0017752494 0.384787663 0.0013774955 -0.3145248741 0.0305016455
25299850.0 -0.3157716096 0.0315775656 0.3881316606 5.67825e-05 0.388164522 0.0002650129 -0.3106767889 0.0358787969
30299820.0 -0.3127941037 0.035512549 0.3916991058 -0.0021005863 0.3914035436 -0.0023272516 -0.3070119422 0.0412605897
35299790.0 -0.310067236 0.0400240096 0.394560548 -0.0057023903 0.3951901741 -0.005601723 -0.3035476153 0.0454210276
40299760.0 -0.3073006764 0.0437267441 0.3980496544 -0.0087140232 0.3981564462 -0.0086841549 -0.2999935609 0.0489978724
45299730.0 -0.3045586006 0.0464031816 0.4007651933 -0.0128629032 0.4010428257 -0.0127689865 -0.2970346428 0.0521561095
50299700.0 -0.3024593137 0.0493150656 0.4034355246 -0.0170553879 0.4033381394 -0.0171354789 -0.2940433033 0.0544056843
55299670.0 -0.3001312054 0.052012211 0.4055452486 -0.0222059574 0.405432746 -0.0222185621 -0.291588838 0.0573992313
60299640.0 -0.2979599917 0.0550476499 0.4072132607 -0.0271349201 0.4075156944 -0.0266916041 -0.2889370342 0.0592631247
65299610.0 -0.2962330962 0.0576217217 0.4091781404 -0.0321868539 0.4092015585 -0.0319721761 -0.2873265475 0.061779825
70299580.0 -0.2944593707 0.0600051678 0.4103831592 -0.0368874713 0.4104721572 -0.0367638963 -0.2853284747 0.0638403045
75299550.0 -0.2928988608 0.0622903007 0.4112969145 -0.0418746988 0.4115113421 -0.042381984 -0.2832832636 0.0655577747
80299520.0 -0.2915106673 0.0649003147 0.4126301255 -0.047796389 0.4124695908 -0.0472800494 -0.2815496306 0.068082383
85299490.0 -0.2902527458 0.067040363 0.412779758 -0.0526209474 0.4128875184 -0.0527225275 -0.2800827069 0.0699539412
90299460.0 -0.2891766382 0.0696347968 0.4131481359 -0.0580106928 0.4132882062 -0.0579810048 -0.2783708528 0.0723181494
95299430.0 -0.2873525583 0.071711421 0.4132754829 -0.0631626116 0.4134029184 -0.0632464509 -0.2765503781 0.0744847431
100299400.0 -0.2863981241 0.0742395837 0.4130955306 -0.0684040451 0.4132910849 -0.0684465778 -0.275243273 0.0760737121
105299370.0 -0.2851810259 0.0763070901 0.4130990531 -0.073453182 0.4135444759 -0.073761985 -0.2736863797 0.0781192435
110299340.0 -0.2839910929 0.0786783433 0.4131271951 -0.0784215134 0.4132824298 -0.0783952035 -0.2728921806 0.0803048661
115299310.0 -0.2828991618 0.0810488375 0.4128793577 -0.0840489782 0.4126231724 -0.0838295669 -0.2717149628 0.0825955614
120299280.0 -0.282051436 0.082984727 0.4126155866 -0.0890409614 0.4122559772 -0.0889941806 -0.2702719343 0.0842960479
125299250.0 -0.2809891116 0.0854361575 0.4116628736 -0.0937733046 0.4120874619 -0.0936947911 -0.2695660304 0.0861627459
130299220.0 -0.2802541577 0.0882234938 0.4110559178 -0.0991631945 0.4109550269 -0.0992076908 -0.2683030175 0.0884996324
135299190.0 -0.2792258676 0.0909552219 0.4104440003 -0.1042741686 0.4101441461 -0.1040677653 -0.2672078431 0.0910224435
140299160.0 -0.2784906619 0.0932459657 0.4096207822 -0.1092534569 0.4095732558 -0.1092090482 -0.2659135444 0.0933219573
145299130.0 -0.2773393009 0.0956160005 0.4088901706 -0.1140252864 0.4084913932 -0.1137744647 -0.2650499006 0.0958103247
150299100.0 -0.2762359552 0.0983957773 0.4077377191 -0.1188737699 0.4077164461 -0.1184356453 -0.2642755834 0.0984092022
155299070.0 -0.2753698545 0.1008939688 0.4066089836 -0.1242678915 0.4063991921 -0.1238588093 -0.2629742471 0.1008774623
160299040.0 -0.274580157 0.1035613693 0.4050177362 -0.1289274741 0.4049417463 -0.1289042643 -0.2622856814 0.1033012669
165299010.0 -0.2737465409 0.1058914813 0.4040530126 -0.1334497948 0.4044187299 -0.1335269851 -0.2609526308 0.1059701759
170298980.0 -0.2729072753 0.1087988008 0.4025916755 -0.1382738602 0.4030290676 -0.1382449086 -0.2601228374 0.1080626504
175298950.0 -0.2716077539 0.1110659159 0.4015772918 -0.1428837463 0.4013633137 -0.1431137774 -0.2595514004 0.1107921383
180298920.0 -0.2711220547 0.1137469106 0.399796801 -0.1479529071 0.3999219056 -0.1477212323 -0.2581602074 0.1134526768
185298890.0 -0.2692959327 0.1164676126 0.3982844856 -0.1529387128 0.398468523 -0.1523654329 -0.2572616877 0.1159121778
190298860.0 -0.2684883851 0.1194374541 0.3966479883 -0.157458342 0.3971791835 -0.1570291577 -0.2562645939 0.1184538421
195298830.0 -0.2678237332 0.121932105 0.3952563831 -0.1620124175 0.3952700536 -0.1617805046 -0.2551123901 0.1208650974
200298800.0 -0.266424288 0.1244678612 0.3935028389 -0.1668048288 0.3933777497 -0.1665581408 -0.2541155279 0.123502316
205298770.0 -0.2650764437 0.1273011286 0.3912494655 -0.1714070678 0.3917060317 -0.1709972244 -0.2528144308 0.1256098884
210298740.0 -0.2641344653 0.1299117689 0.389335755 -0.1755366297 0.3897256173 -0.1755244272 -0.2518074208 0.1286099948
215298710.0 -0.2633922193 0.1329866349 0.3880333417 -0.1802801412 0.3876361959 -0.1803168167 -0.2509581141 0.1311672648
220298680.0 -0.2621024577 0.1350874714 0.3854410522 -0.18423518 0.3857259105 -0.1846390026 -0.2501163505 0.1335317125
225298650.0 -0.2610117431 0.1380743374 0.3838451721 -0.1889710911 0.3839624637 -0.1892037263 -0.2489792072 0.136178545
230298620.0 -0.2595718129 0.140606801 0.3817215943 -0.1933129704 0.3822713397 -0.1934199303 -0.2479751752 0.1382324634
235298590.0 -0.2583153115 0.1439560975 0.3798799458 -0.1979125694 0.3799227152 -0.1977590716 -0.2464633926 0.1414899682
240298560.0 -0.2571642297 0.1463884599 0.3776541136 -0.2023033538 0.3776798492 -0.2021382625 -0.2451300715 0.1438296624
245298530.0 -0.2557285878 0.1487701033 0.3755318715 -0.2065645715 0.3756366763 -0.2069281333 -0.243711239 0.1459027436
250298500.0 -0.2540935632 0.1516862438 0.3725361311 -0.2110530582 0.3726506615 -0.2106880289 -0.2426873709 0.1485109711
255298470.0 -0.2529001686 0.1540810872 0.3703177815 -0.2146460109 0.3705123648 -0.2149209568 -0.241237271 0.1509804279
260298440.0 -0.2517880979 0.156837529 0.3683566368 -0.2192097863 0.3685437631 -0.2192131651 -0.2397012429 0.1536855335
265298410.0 -0.2500365126 0.1599722967 0.3660489396 -0.2235763515 0.3661528656 -0.2234665882 -0.2382487233 0.1562995298
270298380.0 -0.2486347179 0.1625301019 0.3638790639 -0.2272750644 0.363960856 -0.227273036 -0.23677621 0.1587279006
275298350.0 -0.246855007 0.1649582056 0.3609109492 -0.2317943369 0.3611828108 -0.231626618 -0.2351577656 0.1609699748
280298320.0 -0.2446800038 0.1678939421 0.3582942238 -0.2358194027 0.3582449884 -0.2355698877 -0.2332442468 0.1636617721
285298290.0 -0.2438381258 0.1708198953 0.3559729056 -0.2397881057 0.3558448282 -0.2398697122 -0.2318152541 0.1659171112
290298260.0 -0.2420466398 0.173147301 0.3531428951 -0.2436536914 0.3532252091 -0.2439614917 -0.2301969229 0.1687967712
295298230.0 -0.2400531389 0.1757320984 0.350617567 -0.247862993 0.3508102862 -0.2477709975 -0.228315933 0.1706337984
300298200.0 -0.2386562893 0.1784256761 0.3481247795 -0.2516042184 0.3480493857 -0.251912373 -0.2268759843 0.1733578042
305298170.0 -0.2366601184 0.180674555 0.3448989344 -0.2558296942 0.3450212984 -0.2558420718 -0.2243003158 0.1758286699
310298140.0 -0.2349139857 0.1836131465 0.3424650292 -0.2598197267 0.3423038677 -0.2595404781 -0.2228592351 0.17787469
315298110.0 -0.232993289 0.1857159444 0.3393755931 -0.2633565419 0.3398098027 -0.26353504 -0.2213189039 0.180500246
320298080.0 -0.2312825324 0.1882483344 0.3358687945 -0.2672548701 0.3365357046 -0.2672878021 -0.219316531 0.1830051329
325298050.0 -0.2292494284 0.1908840864 0.3334680501 -0.2716722707 0.3332613799 -0.2710902179 -0.2176248948 0.1852903135
330298020.0 -0.2276428199 0.1932868039 0.3303657949 -0.2750698368 0.3305901718 -0.2749099818 -0.2159317231 0.1878702328
335297990.0 -0.2255340907 0.1953526255 0.3270767167 -0.2781425537 0.3270587936 -0.2788222005 -0.2146634022 0.1904938636
340297960.0 -0.2241506204 0.1984972701 0.3236193284 -0.2822850996 0.3240001803 -0.2825268349 -0.2120879042 0.1929066812
345297930.0 -0.2220888211 0.2008176648 0.3205624954 -0.285873202 0.3203966538 -0.2859763574 -0.2103860133 0.1951581442
350297900.0 -0.2199704219 0.2032068505 0.3167217845 -0.2897399606 0.3173031758 -0.2893962919 -0.2085871939 0.1980183991
355297870.0 -0.217920373 0.2061520152 0.3139930541 -0.2929322895 0.3140254654 -0.2926930716 -0.2067041114 0.200134849
360297840.0 -0.2160365656 0.2082103961 0.3111785285 -0.2962264893 0.3114944042 -0.2960227016 -0.2051242264 0.2026763714
365297810.0 -0.2140488476 0.2109763815 0.3077776259 -0.2999846715 0.3081163412 -0.2997093068 -0.2029724846 0.2047586863
370297780.0 -0.2118176432 0.213227096 0.3040999955 -0.3030485005 0.3045540478 -0.3029428499 -0.2008623801 0.2075664264
375297750.0 -0.2095876614 0.2154568259 0.3006463355 -0.3064771404 0.3012569438 -0.3063446722 -0.198534489 0.2095896491
380297720.0 -0.2074027583 0.2179433288 0.2975036181 -0.3096067189 0.2978170964 -0.3092256854 -0.197130019 0.2118062573
385297690.0 -0.2054325289 0.2203014307 0.2943132503 -0.3128817263 0.293938861 -0.3125124378 -0.1945559139 0.2140024388
390297660.0 -0.2030980638 0.2227952409 0.2905303672 -0.3161334294 0.2904475554 -0.315785279 -0.1925001502 0.2163171876
395297630.0 -0.2008127379 0.2250349859 0.2869772637 -0.3193908236 0.2873817011 -0.3193594019 -0.1900499377 0.2184654527
400297600.0 -0.198519488 0.2274273332 0.2832985499 -0.3228873426 0.2832868531 -0.3222923615 -0.1879262083 0.2209237516
405297570.0 -0.1964319178 0.2293242181 0.2799604027 -0.3251738035 0.279885448 -0.3252348309 -0.1858398289 0.2229803112
410297540.0 -0.1938558626 0.2316841862 0.2764244244 -0.3285440865 0.2766453749 -0.3286574364 -0.1838604211 0.2253427287
415297510.0 -0.1913891284 0.2337294487 0.2725709484 -0.3318300841 0.2727062304 -0.3316896768 -0.1815069908 0.2269749451
420297480.0 -0.1889004324 0.2364506967 0.2688867898 -0.3347752135 0.2688698583 -0.3348871469 -0.1792863619 0.2291877197
425297450.0 -0.1864564022 0.2383391439 0.2654886899 -0.3374834582 0.2656759657 -0.3376493205 -0.1772835956 0.2311677991
430297420.0 -0.184187155 0.2403903499 0.2614729995 -0.339820053 0.2616048418 -0.3402606963 -0.1748775283 0.232819387
435297390.0 -0.1818975266 0.2424731901 0.2578509939 -0.3429040375 0.2576562714 -0.3432487577 -0.1717773612 0.2351025063
440297360.0 -0.1791943385 0.2444280496 0.2540279222 -0.3457350403 0.2542137191 -0.3460204884 -0.1699279997 0.236844796
445297330.0 -0.1764132662 0.246792816 0.250303737 -0.3487263374 0.2502346624 -0.3484881752 -0.1672338961 0.2383773925
450297300.0 -0.173919367 0.2484055245 0.2462621842 -0.3512415239 0.2460944824 -0.3514962697 -0.16457137 0.2401949417
455297270.0 -0.1715819043 0.2506122038 0.2420378869 -0.3537328087 0.2424740101 -0.3541338802 -0.1624594394 0.2421169338
460297240.0 -0.1690918368 0.2523692999 0.2385703596 -0.356497131 0.2386934417 -0.3566265429 -0.1594606797 0.244456133
465297210.0 -0.1661703945 0.2545003843 0.2344602002 -0.3590300765 0.234583532 -0.3593379472 -0.1567975047 0.2457664207
470297180.0 -0.163506082 0.2563825239 0.2302275843 -0.3619184776 0.2305766348 -0.3620357524 -0.1541578034 0.2480906233
475297150.0 -0.1609921965 0.257993443 0.2263608316 -0.363431682 0.2265014339 -0.3639832854 -0.1513832644 0.2492383895
480297120.0 -0.1584144356 0.2602072752 0.2224684628 -0.3666536543 0.2223341021 -0.3668075565 -0.1487472829 0.2513483373
485297090.0 -0.1556746216 0.2618418767 0.2186640091 -0.3687843239 0.2186595245 -0.3685990065 -0.1463159245 0.2528832313
490297060.0 -0.1533680582 0.2636402602 0.2151552332 -0.3712181551 0.2146342394 -0.3713887948 -0.1435196898 0.2549256152
495297030.0 -0.1505234951 0.2649153878 0.2103779178 -0.3730629973 0.2107114243 -0.3735331958 -0.1409343392 0.256674024
500297000.0 -0.1475788354 0.2670471603 0.2062609483 -0.3755474161 0.2062425528 -0.3753413385 -0.1381678958 0.2588964866
505296970.0 -0.1442316703 0.2685907862 0.2020339573 -0.3777844528 0.2018923726 -0.3779684215 -0.1352529293 0.2599902397
510296940.0 -0.1416940932 0.2702138879 0.1978686373 -0.3800930985 0.1977505028 -0.3800828538 -0.1326495528 0.2617653996
515296910.0 -0.1386777634 0.2719557921 0.1935581865 -0.382123586 0.193763157 -0.3824028141 -0.1296347761 0.2633123192
520296880.0 -0.1361577335 0.2734183755 0.1895840144 -0.3843509888 0.1897671914 -0.3839816868 -0.1271801337 0.2648905284
525296850.0 -0.1328403008 0.275058782 0.1851713218 -0.3864019332 0.185381694 -0.3862390189 -0.1240751313 0.2664865283
530296820.0 -0.1303369013 0.2768224944 0.1813577231 -0.3884407729 0.1813049091 -0.3883170287 -0.1216164771 0.2678384449
535296790.0 -0.1277177488 0.2784954536 0.1770233772 -0.3899637719 0.1770118229 -0.3897416695 -0.1193904421 0.2689638379
540296760.0 -0.1248258511 0.2796987761 0.1728603362 -0.3920250708 0.1725772971 -0.3922306679 -0.1164579012 0.270963734
545296730.0 -0.1219064427 0.2812517283 0.1680370728 -0.3938877978 0.1682311658 -0.3939881525 -0.1133907897 0.2723060419
550296700.0 -0.118428241 0.2825320748 0.1640896607 -0.3953403396 0.1642875506 -0.3957295969 -0.1113234954 0.2735189744
555296670.0 -0.1154703395 0.2839123625 0.1596992601 -0.3973481105 0.1597177435 -0.3971959935 -0.1079126419 0.2751762844
560296640.0 -0.1124940316 0.2859454668 0.1554737768 -0.3994820694 0.1554750792 -0.39899629 -0.105172022 0.2763538399
565296610.0 -0.1100382614 0.2870157424 0.1508526161 -0.4008551702 0.151065461 -0.4007176613 -0.1021355509 0.2774886668
570296580.0 -0.1069568597 0.2877615099 0.1465209203 -0.4025821294 0.1461870739 -0.4024507696 -0.0996116532 0.2792227357
575296550.0 -0.1038879667 0.2897276625 0.1424122932 -0.4043340409 0.1419847397 -0.4038157015 -0.0965867599 0.2802647212
580296520.0 -0.1007294655 0.2905566907 0.1376281927 -0.4054518361 0.1378623285 -0.4055808833 -0.0934874558 0.2811305063
585296490.0 -0.0980829447 0.2916183512 0.13359377 -0.4063416351 0.1334570147 -0.4070543247 -0.0904533068 0.2820822208
590296460.0 -0.0943858647 0.2929770424 0.1290676285 -0.4080773423 0.1291268855 -0.408076157 -0.0881211248 0.283750508
595296430.0 -0.0916835142 0.2939939522 0.1240927696 -0.4097833261 0.1242815856 -0.4095563872 -0.0847246671 0.2840017507
600296400.0 -0.088618866 0.2953966459 0.1198053658 -0.4106764918 0.1198083154 -0.4108451568 -0.0818359802 0.2853177682
605296370.0 -0.0857539439 0.2959082095 0.1153318443 -0.4119609565 0.1157892944 -0.4120359112 -0.0788013896 0.2863494686
610296340.0 -0.0822580943 0.2970598541 0.1105438167 -0.4132038478 0.110893896 -0.4130634752 -0.0754204434 0.2871299128
615296310.0 -0.0787957916 0.2980510713 0.1062141934 -0.4142567775 0.1060793235 -0.4149474073 -0.0723936193 0.2876593994
620296280.0 -0.0760131865 0.2987806252 0.1019978354 -0.4153788236 0.1019477337 -0.4155910836 -0.0696052435 0.2884673064
625296250.0 -0.0732838018 0.2998821334 0.0976480347 -0.4164211229 0.0975108419 -0.4167239853 -0.0662693618 0.2897041076
630296220.0 -0.0694115479 0.3009719691 0.0928086838 -0.4176853854 0.0924161143 -0.4174293956 -0.0632034927 0.2904732612
635296190.0 -0.0670480236 0.3016487567 0.0883815075 -0.4182775287 0.0883256652 -0.4185539882 -0.0601909008 0.2911408199
640296160.0 -0.0635435122 0.3026370165 0.0835516765 -0.4191099963 0.0839589885 -0.4192540028 -0.0569847456 0.2920178992
645296130.0 -0.0604666885 0.303433871 0.0790193259 -0.4198965975 0.0794471782 -0.4201402927 -0.0538880022 0.2928672717
650296100.0 -0.0571216533 0.3042804659 0.0744697038 -0.4208286773 0.07486609 -0.4205973803 -0.0507189099 0.2930607787
655296070.0 -0.0539766297 0.3049563664 0.0696987596 -0.421560316 0.0703009724 -0.4216691283 -0.0477657486 0.2941350221
660296040.0 -0.0512335449 0.3053146078 0.0656373282 -0.4219928673 0.0657872707 -0.4220299708 -0.0442577346 0.294670894
665296010.0 -0.0473914151 0.3055873301 0.060567959 -0.4222919836 0.0609842323 -0.4230535544 -0.0409917863 0.2958536568
670295980.0 -0.0449096185 0.306728861 0.0567376307 -0.4234714242 0.0563361116 -0.4236380377 -0.0385511645 0.2962430151
675295950.0 -0.0414671214 0.3074849787 0.0517783078 -0.4239230731 0.0517569427 -0.4236816714 -0.0354402584 0.2966300081
680295920.0 -0.0382462275 0.3080820146 0.0473796274 -0.424329143 0.0469796019 -0.4248770328 -0.0320456645 0.2978856913
685295890.0 -0.0346687275 0.3089413164 0.042504645 -0.4251870818 0.0424525154 -0.4251491523 -0.0288573136 0.2980233999
690295860.0 -0.0316257923 0.3090308347 0.0380070339 -0.425159013 0.0377754197 -0.4255180417 -0.0260323212 0.2990154014
695295830.0 -0.0284269049 0.3094909408 0.0335667274 -0.4256686909 0.0330872797 -0.4252990308 -0.0225198287 0.2992659306
700295800.0 -0.0254901836 0.3096575 0.0283496747 -0.4255927296 0.0285598819 -0.4261570187 -0.0196683747 0.3000996482
705295770.0 -0.0220864015 0.3104349093 0.0240132328 -0.4264194051 0.0242520694 -0.4263823503 -0.0167300054 0.3003178185
710295740.0 -0.0186329604 0.3108725348 0.0194303555 -0.4267382833 0.0195862044 -0.427023989 -0.0134265025 0.3003821794
715295710.0 -0.0156429701 0.3110819814 0.0150089139 -0.426630156 0.0146606865 -0.4266196173 -0.0101184441 0.3006592627
720295680.0 -0.0124527067 0.3114965106 0.0103416702 -0.4268869826 0.0104386143 -0.4266227493 -0.0072774196 0.3013220587
725295650.0 -0.0090323197 0.3121570289 0.0054874634 -0.4268242606 0.0056691946 -0.4271431688 -0.0041631605 0.301865737
730295620.0 -0.0054350666 0.312316792 0.0008566972 -0.4269556613 0.0013397218 -0.4269038782 -0.001143661 0.3014339297
735295590.0 -0.0023360277 0.3122846795 -0.003637303 -0.4271344033 -0.0036550804 -0.4268606833 0.0018507086 0.3015801515
740295560.0 0.0006686676 0.3126948795 -0.0081451899 -0.4266196495 -0.008318951 -0.4269631382 0.0055715535 0.3020983648
745295530.0 0.0038007785 0.3126612291 -0.0130865126 -0.4264066996 -0.0131732117 -0.4264461921 0.0083837752 0.3017008319
750295500.0 0.00748219 0.3124261119 -0.0174818882 -0.4260109898 -0.0175381554 -0.4264561877 0.0117363092 0.3016527472
755295470.0 0.0107766486 0.3123218562 -0.0219830929 -0.4260959975 -0.0220510765 -0.4264481433 0.0149196619 0.3014393624
760295440.0 0.0139632286 0.3126612751 -0.0266111978 -0.4259824685 -0.0265393434 -0.4262193641 0.0178005837 0.3013455019
765295410.0 0.016980653 0.3125955198 -0.0311593439 -0.4253587806 -0.0316987476 -0.4256627892 0.0210688062 0.3014301213
770295380.0 0.019945124 0.3124876249 -0.0360231238 -0.4249950312 -0.0357313865 -0.4249936788 0.0239418982 0.3014050625
775295350.0 0.023446087 0.3118453867 -0.040872875 -0.4240046156 -0.0400531905 -0.4244830332 0.0269800927 0.3013457119
780295320.0 0.0268419412 0.312316164 -0.0452407214 -0.4236903572 -0.044612975 -0.423764581 0.0303101111 0.3004519669
785295290.0 0.0300088393 0.3115405926 -0.0501113334 -0.4228277022 -0.0497171646 -0.423373639 0.0338418926 0.3006292709
790295260.0 0.0337563416 0.3118510363 -0.0540912484 -0.4228871375 -0.0533193875 -0.4224789704 0.0372529856 0.3004396637
795295230.0 0.0365089495 0.3116030789 -0.0586161406 -0.4217983558 -0.0582771258 -0.4220870904 0.0404002663 0.3000814386
800295200.0 0.0397397265 0.3110731113 -0.0636958094 -0.4211864708 -0.0633780848 -0.4212741596 0.0434534673 0.2997315734
805295170.0 0.0432627962 0.3108808414 -0.0677679499 -0.4205025215 -0.0679523365 -0.4207986492 0.046477856 0.299432821
810295140.0 0.0462012642 0.3103443395 -0.0723027433 -0.4195927172 -0.0724163684 -0.4200311023 0.0503968339 0.2992947126
815295110.0 0.0493394526 0.3099606585 -0.0770978453 -0.4190456789 -0.0766054849 -0.4191893966 0.0530638716 0.298847589
820295080.0 0.0525061688 0.3099053526 -0.0812195031 -0.4179519759 -0.0810878014 -0.4176408053 0.0559983995 0.2983045479
825295050.0 0.0564503865 0.3092072248 -0.0859333723 -0.4168815084 -0.0857629065 -0.4171631415 0.0596666604 0.2981942635
830295020.0 0.0594454781 0.3087610304 -0.0904771791 -0.4157027496 -0.0904645388 -0.4160341059 0.0633053401 0.2977810448
