!Created with skrf (http://scikit-rf.org).
# Hz S RI R 50.0 
!freq ReS11 ImS11 ReS21 ImS21 ReS12 ImS12 ReS22 ImS22
300000.0 -0.2129888312 -0.0563068786 -0.0001096379 0.0019092805 0.0006317514 -0.0002935903 -0.7767944338 -0.1280962887
5299970.0 -0.2168170156 0.0083848727 0.0002412586 0.0001554374 0.0001012849 5.09179e-05 -0.784145136 -0.0069104008
10299940.0 -0.2131805953 0.019516679 7.17752e-05 6.15947e-05 6.88006e-05 0.0001312526 -0.7873409556 -0.0035892985
15299910.0 -0.2088752151 0.0285820281 -2.025e-05 -1.87144e-05 -0.000139523 -0.000166138 -0.792808641 -0.0011878645
20299880.0 -0.2033037549 0.0359120882 9.98392e-05 -1.4133e-05 0.0001085973 -0.0001970325 -0.7995383369 0.0020708157
25299850.0 -0.1978704283 0.0423229443 0.0001485248 0.0001647278 0.0001011159 -4.08344e-05 -0.8055279627 0.0081080783
30299820.0 -0.1919905439 0.0467984296 -3.95122e-05 -1.10216e-05 -4.8299e-06 8.73656e-05 -0.812044993 0.0167279486
35299790.0 -0.1861468916 0.0505579798 6.17009e-05 0.0001153456 0.0001740196 0.0001636739 -0.817197466 0.0250840727
40299760.0 -0.1806183048 0.0537179764 -6.27685e-05 -3.13031e-05 -0.0001355793 1.95984e-05 -0.8209576691 0.034565868
45299730.0 -0.1753179379 0.0554599045 -5.48947e-05 -5.93306e-05 -4.12013e-05 4.4099e-05 -0.8248570185 0.0443698593
50299700.0 -0.1708473525 0.0569964243 6.0099e-05 0.0001149585 7.78048e-05 -0.0003458638 -0.8270639965 0.0543383251
55299670.0 -0.1667279594 0.0578971406 -0.0002515896 3.3057e-05 5.4423e-06 8.8413e-06 -0.8297055589 0.0647340617
60299640.0 -0.1622666261 0.0589503688 0.0001079549 2.00058e-05 -7.11412e-05 0.0001718767 -0.8309497566 0.0740642886
65299610.0 -0.1590096468 0.0591721747 0.0001425007 -0.000206499 2.61951e-05 -6.44657e-05 -0.8320646371 0.0843175813
70299580.0 -0.1557474405 0.0596728732 0.0001689216 -2.01951e-05 -9.62647e-05 6.66735e-05 -0.8318909638 0.0946964503
75299550.0 -0.1524465 0.0598135258 -0.0001684555 6.70468e-05 -2.29865e-05 0.0001697475 -0.8324891946 0.1040697389
80299520.0 -0.1499833805 0.0602984647 4.84197e-05 3.02713e-05 -6.8109e-06 -6.55234e-05 -0.8326473609 0.1136522701
85299490.0 -0.1479261875 0.0598971275 7.85561e-05 -1.66694e-05 2.31951e-05 6.77817e-05 -0.8319142205 0.1245433078
90299460.0 -0.1453784477 0.0601303314 9.52623e-05 5.9536e-05 -5.46841e-05 -5.55674e-05 -0.8308577167 0.1335799015
95299430.0 -0.1432076498 0.0599727037 1.58477e-05 0.0001493877 0.0001817605 0.0001390876 -0.8293366734 0.1434245995
100299400.0 -0.1416697865 0.060077726 0.0001960677 7.55284e-05 3.83906e-05 2.37824e-05 -0.8283491987 0.1522079148
105299370.0 -0.1401550731 0.05987963 2.11825e-05 -7.54323e-05 -8.34808e-05 0.0001636841 -0.8271331781 0.1612724634
110299340.0 -0.1383329102 0.0598951039 -7.2503e-06 0.0001112165 7.86353e-05 0.0002118144 -0.8263208512 0.170910081
115299310.0 -0.1369943782 0.0599390456 9.39266e-05 0.0001856681 0.0001628488 0.0003127208 -0.8240308641 0.1798497024
120299280.0 -0.136010811 0.0599067898 0.0002812268 0.000184527 0.0001210941 -0.0001890463 -0.8224093466 0.1887735727
125299250.0 -0.1350433657 0.0597239866 2.0887e-06 -3.50934e-05 3.15859e-05 -0.0001366984 -0.8210355104 0.1977045606
130299220.0 -0.1340645783 0.0602127593 -9.15771e-05 0.0001487319 8.44631e-05 5.52844e-05 -0.8187786235 0.2065904127
135299190.0 -0.1330972958 0.0606622779 -4.59489e-05 0.0002743116 8.82513e-05 0.000120526 -0.8162310156 0.216237221
140299160.0 -0.1325456713 0.0609846292 0.0001184578 0.0003614725 8.27933e-05 -5.2698e-05 -0.8142168097 0.225320315
145299130.0 -0.1313809786 0.0611517802 -3.99526e-05 -7.68535e-05 7.94407e-05 8.861e-06 -0.8116661983 0.2344931645
150299100.0 -0.1304927059 0.0613034228 1.93991e-05 -3.9166e-05 0.0001926433 -8.05216e-05 -0.8104396063 0.2435242
155299070.0 -0.129977157 0.061833339 1.31205e-05 -5.04084e-05 3.38477e-05 -3.62571e-05 -0.8070007406 0.2515460333
160299040.0 -0.1295563753 0.0623770444 0.0002009792 -0.0001273025 4.98446e-05 6.85526e-05 -0.8047652431 0.2608011733
165299010.0 -0.1289286043 0.0627279944 0.0001157678 -8.67247e-05 4.41511e-05 0.0001417741 -0.8019002657 0.2693867214
170298980.0 -0.1284164428 0.0635549391 -2.09877e-05 0.0002691708 0.0001439175 -6.07725e-05 -0.7992853934 0.2777128413
175298950.0 -0.1276967932 0.0640743401 0.0001483023 -1.09959e-05 8.54606e-05 0.0001699788 -0.7968733312 0.2871464201
180298920.0 -0.1270971715 0.0648408586 -6.90824e-05 -3.01144e-05 8.80198e-05 4.03161e-05 -0.7937482652 0.2952239302
185298890.0 -0.126441424 0.0652329967 0.0002998561 0.000191263 0.0002677387 9.9068e-05 -0.7902257866 0.3037571568
190298860.0 -0.1259362437 0.0659516682 7.09496e-05 0.0004661258 0.0001035995 -1.05063e-05 -0.7878592081 0.3124573387
195298830.0 -0.1260627427 0.0665915325 3.59578e-05 -0.0001054158 8.84828e-05 -4.53817e-05 -0.7845960339 0.3212097421
200298800.0 -0.125024836 0.06738 6.67101e-05 -4.97883e-05 -0.0001604275 0.0002240909 -0.7814995806 0.3291494375
205298770.0 -0.1247239553 0.0680449101 -5.87952e-05 3.75741e-05 -1.76447e-05 6.84494e-05 -0.7772100543 0.3372511081
210298740.0 -0.1243963636 0.0688384334 0.000257093 0.0001086243 -5.38082e-05 2.84105e-05 -0.7741603584 0.3467391312
215298710.0 -0.1241034599 0.0699398848 0.0001660759 0.0001528241 8.44511e-05 0.0002018945 -0.7711242249 0.3545040145
220298680.0 -0.1236273719 0.0703717801 0.0002081923 0.0002563173 1.76233e-05 -4.37164e-05 -0.7673526657 0.3620058597
225298650.0 -0.1232171375 0.0713669154 0.0002077312 0.0001938534 0.0001622745 4.29235e-05 -0.7634919493 0.3704479266
230298620.0 -0.1227312231 0.0722545478 0.0002102495 0.0002970254 0.0001207885 -0.0002670293 -0.7598598184 0.3787667371
235298590.0 -0.1221185862 0.0734243484 -1.42474e-05 1.83411e-05 0.0001145743 8.51184e-05 -0.7559204612 0.3874189845
240298560.0 -0.1217174409 0.0740334157 0.0001716488 0.0001394296 1.87784e-05 9.81082e-05 -0.7514299099 0.3956473884
245298530.0 -0.1213952532 0.0747226987 0.0001357815 0.000185727 0.0002146746 5.20552e-05 -0.7478835948 0.4027035765
250298500.0 -0.1207268151 0.0759309823 8.86481e-05 0.0002498889 9.92595e-05 0.0001035217 -0.7434514256 0.4104015386
255298470.0 -0.1205998329 0.0763670258 2.46337e-05 -1.1797e-05 3.76777e-05 0.0002288411 -0.7388962158 0.4187057647
260298440.0 -0.1199979744 0.0774495307 0.0001542131 0.000323615 0.0001179472 0.0001742355 -0.7345721661 0.4265524118
265298410.0 -0.1194784742 0.0790097017 3.80918e-05 0.0001623022 0.0002550985 -2.78059e-05 -0.7305015361 0.4337068764
270298380.0 -0.11910456 0.0795867476 6.06749e-05 8.14759e-05 6.89227e-05 0.0001029744 -0.7256750053 0.4412330563
275298350.0 -0.1185089215 0.0807298269 -7.04078e-05 2.79077e-05 0.0001275473 -6.39911e-05 -0.7211843913 0.4487733722
280298320.0 -0.1174509686 0.0816988746 6.08169e-05 5.76991e-05 4.22331e-05 1.9062e-05 -0.7156031146 0.4562397197
285298290.0 -0.1172267944 0.0828686362 8.44509e-05 0.0001107471 0.0003924459 4.6031e-05 -0.711000099 0.4636540065
290298260.0 -0.1168042621 0.083632284 -8.57344e-05 0.000178218 0.000187396 8.90377e-05 -0.7059779615 0.4711798799
295298230.0 -0.1159514284 0.0846261551 0.000207933 0.0001452813 -6.95828e-05 -5.9354e-06 -0.7008269325 0.4781224228
300298200.0 -0.1153532342 0.085879549 0.0002026827 9.31264e-05 0.0002264814 0.0002825669 -0.6957852698 0.4854099366
305298170.0 -0.1145008632 0.0865197975 0.0003018701 2.43226e-05 8.23965e-05 0.0002351205 -0.6899401031 0.4930816678
310298140.0 -0.1140450319 0.0879032049 0.0002009089 0.0001719608 2.29328e-05 -8.8678e-06 -0.6856315689 0.499833072
315298110.0 -0.113252679 0.0886813914 8.56392e-05 -2.85865e-05 9.17978e-05 5.67337e-05 -0.6795589046 0.5070858956
320298080.0 -0.1125139999 0.0894023712 0.0002010503 6.41444e-05 -8.17081e-05 0.0001536758 -0.6743375182 0.5145910536
325298050.0 -0.1119591235 0.0905763834 6.59187e-05 -5.49662e-05 -0.0001462848 1.3094e-06 -0.6689696186 0.521072112
330298020.0 -0.1116167812 0.0912843694 0.0002503729 9.88362e-05 7.70261e-05 1.81655e-05 -0.6634810294 0.5282856234
335297990.0 -0.11086035 0.092377427 -2.90336e-05 0.000327305 9.62138e-05 -9.35504e-05 -0.6582659602 0.5353820753
340297960.0 -0.1107804829 0.0935969879 -8.80351e-05 2.63005e-05 -5.54795e-05 0.0001529357 -0.6518353615 0.54214095
345297930.0 -0.1100634689 0.0948761698 -2.85487e-05 -0.0001687831 -5.03793e-05 -4.35208e-05 -0.6464350113 0.5486893014
350297900.0 -0.1092315879 0.095751212 0.0001488386 0.0002240952 0.0001053725 8.42419e-05 -0.6414238587 0.5556784239
355297870.0 -0.1083614644 0.0970045273 0.0001867661 7.57628e-05 0.0001378361 0.0001124561 -0.6351530818 0.5623232164
360297840.0 -0.107939634 0.0982127432 0.0003428216 -7.49002e-05 6.26076e-05 -0.0001127434 -0.6291733802 0.5691264853
365297810.0 -0.1072696724 0.0994879591 7.66403e-05 0.0001082989 0.0003078074 0.0001101634 -0.6235364703 0.5756567446
370297780.0 -0.1064551948 0.1004500822 5.42595e-05 1.34121e-05 0.000132032 7.98848e-05 -0.6170979933 0.5819984876
375297750.0 -0.1053420385 0.1016724678 0.0001096601 -4.31826e-05 9.17421e-05 -1.26031e-05 -0.6110442803 0.5874779886
380297720.0 -0.1048480237 0.1023923731 0.0001640883 4.81131e-05 0.0004247144 -1.95353e-05 -0.6054513173 0.5949452506
385297690.0 -0.1042093532 0.1040207754 0.0001767186 0.0001695409 0.0002719427 9.68266e-05 -0.5991483425 0.6011960741
390297660.0 -0.1032740823 0.1049729274 2.01952e-05 -0.0001599152 4.95102e-05 -5.41267e-05 -0.593103234 0.6075460571
395297630.0 -0.1021321156 0.1059469694 0.0001066407 0.0001013071 2.29784e-05 5.03977e-05 -0.5865607044 0.6138739531
400297600.0 -0.1015105463 0.107126654 0.0003462686 2.6457e-06 3.54638e-05 3.07463e-05 -0.5810945905 0.6193073998
405297570.0 -0.1007543768 0.1081231718 3.2407e-06 -6.64485e-05 6.87917e-05 7.91738e-05 -0.5735648907 0.6251019569
410297540.0 -0.0998953389 0.1092313672 0.0001439965 0.000163116 3.89078e-05 0.0001788271 -0.5676513878 0.6315023811
415297510.0 -0.0989167249 0.1101354075 0.000100249 -4.65403e-05 8.13205e-05 0.0001528188 -0.5610709633 0.6366384182
420297480.0 -0.0983041644 0.1117423064 0.000155967 -8.32109e-05 0.0002258951 4.73187e-05 -0.5540805574 0.6423873819
425297450.0 -0.097310006 0.1126898703 0.0002619095 0.000111021 0.0002794629 0.0002722535 -0.5477472583 0.6484430613
430297420.0 -0.0962054124 0.1131902881 0.0002887872 9.21569e-05 -1.54887e-05 7.21454e-05 -0.5414560948 0.6534468323
435297390.0 -0.0954961877 0.1144933169 8.41768e-05 8.5073e-06 5.98368e-05 0.0001444201 -0.5337199981 0.65901272
440297360.0 -0.0945344211 0.1155783994 0.0003568068 2.45276e-05 0.0002282757 4.43289e-05 -0.5274165907 0.6639646133
445297330.0 -0.0933989173 0.1165530764 0.0002083114 -0.000151811 4.02337e-05 0.0001542153 -0.5202472834 0.6686365285
450297300.0 -0.09261098 0.1174288983 0.0002452886 0.000100144 0.0001615468 1.03681e-05 -0.512666275 0.6742735163
455297270.0 -0.0917134341 0.1185436323 4.83752e-05 -7.48219e-05 0.0001722315 4.22401e-05 -0.5062296191 0.678721468
460297240.0 -0.0906101489 0.1195307361 0.0001355437 -5.1709e-05 0.000339854 -7.93287e-05 -0.4996334141 0.6843648977
465297210.0 -0.0894062395 0.1207295175 0.0002682097 -2.328e-05 0.0001323784 0.0001363099 -0.491986498 0.6888851635
470297180.0 -0.0884599484 0.1214175583 0.0002272399 -0.0001536182 0.0002216216 -0.0001269428 -0.4842584937 0.6941709858
475297150.0 -0.0876860255 0.1224390967 -1.83519e-05 9.04908e-05 0.0001803093 0.0002225006 -0.4775650474 0.6983744291
480297120.0 -0.0864848627 0.1233390912 0.0002311921 0.000176145 0.000108946 0.0001681693 -0.4700023827 0.7037365855
485297090.0 -0.085327382 0.1243747871 0.0001443293 -3.574e-06 0.0003512436 3.51168e-05 -0.462768885 0.7081958628
490297060.0 -0.0844972658 0.1257778799 -4.5085e-06 0.0001519096 4.54523e-05 7.13569e-05 -0.455140541 0.7127444612
495297030.0 -0.0833751043 0.1264931238 0.0003464678 0.0002203888 0.0001302363 -1.39469e-05 -0.44846659 0.7177506056
500297000.0 -0.0819032211 0.1274390976 -5.40681e-05 9.7527e-05 -4.35422e-05 0.0002623603 -0.4403786674 0.7224048519
505296970.0 -0.0807028866 0.1282295473 0.0001914946 4.9957e-05 0.0002419148 0.0001140526 -0.433084582 0.7265892009
510296940.0 -0.0799635315 0.1294076728 0.0002417882 -4.00394e-05 0.0001990983 0.0001664927 -0.4255803015 0.7305976837
515296910.0 -0.0787652826 0.1299164713 0.0001038301 -0.0001169355 0.0003191777 2.39438e-05 -0.4178942882 0.7350986629
520296880.0 -0.0779206986 0.1313621831 0.0002334356 1.79961e-05 0.0001248444 0.0001360605 -0.4109654047 0.7393755829
525296850.0 -0.0762886535 0.1314904944 0.0004407263 6.86534e-05 0.0001571017 0.0001614031 -0.4030538958 0.7440326884
530296820.0 -0.0751765659 0.1329112039 7.90103e-05 6.05905e-05 0.0001838632 0.0001839512 -0.3958537256 0.7475805077
535296790.0 -0.0743238571 0.1336830254 0.000303078 2.46302e-05 0.0001450722 1.43427e-05 -0.3891496408 0.7514742536
540296760.0 -0.0729215165 0.1342804807 0.000131441 0.0001447634 0.0003093596 0.0001814073 -0.380684152 0.7553665659
545296730.0 -0.0718227906 0.135742106 0.0001043902 4.9286e-06 0.0002355863 5.9048e-06 -0.3728653263 0.7600268072
550296700.0 -0.0704546548 0.1362331912 0.0001949295 0.0002979098 0.0002158067 -3.26923e-05 -0.3652424944 0.7633758679
555296670.0 -0.069393685 0.136929452 0.0001282801 -0.0001601164 -2.02842e-05 0.0001376385 -0.3575554408 0.7673193747
560296640.0 -0.0680957434 0.1381022604 1.88021e-05 7.17252e-05 0.0001347495 -2.5082e-05 -0.34959598 0.7706494285
565296610.0 -0.0669429144 0.1391019693 0.0001612096 0.0001183492 0.0003889269 -3.24242e-05 -0.3421480225 0.7741565488
570296580.0 -0.0659320976 0.1395795204 0.0003624002 0.0001253668 9.51721e-05 0.000242806 -0.3348411143 0.7782357019
575296550.0 -0.0644981025 0.1408048214 0.0003179665 0.0001585811 0.0001118532 3.63859e-05 -0.3267423217 0.7812497303
580296520.0 -0.0631906082 0.1412592583 0.0001117387 -6.28349e-05 0.0001694433 6.41906e-05 -0.3179654807 0.7841785352
585296490.0 -0.0619059743 0.1417094109 0.0003168406 0.0002766975 0.0001960922 0.0001944947 -0.3099717023 0.7878704265
590296460.0 -0.0603604628 0.1428970076 0.0002712055 0.000170109 0.0001243062 0.0002128783 -0.3030510042 0.7905389128
595296430.0 -0.059340517 0.143600496 0.0002157581 8.75526e-05 0.0002536447 4.66934e-05 -0.2944674424 0.7926777131
600296400.0 -0.0582127361 0.1443904809 0.0003940552 2.33707e-05 0.0003585384 3.58031e-05 -0.2865652679 0.796136418
605296370.0 -0.0570168413 0.1448846165 0.0002230666 -6.25635e-05 0.0003183002 5.30089e-05 -0.2776799039 0.7987532715
610296340.0 -0.0556821515 0.1456408739 0.0001265595 -3.04758e-05 0.000380929 0.0001653339 -0.2697328269 0.8010355415
615296310.0 -0.054148754 0.146291804 0.0001500189 0.0001699344 0.0002464177 4.3606e-05 -0.261637067 0.8034219268
620296280.0 -0.0530478767 0.1471104549 0.0001796106 -1.57654e-05 0.0002931937 0.0002086855 -0.2539993931 0.8065652348
625296250.0 -0.0516002974 0.1477303507 0.0002266605 2.6139e-05 0.0002485693 -7.75531e-05 -0.2451641894 0.8082831999
630296220.0 -0.0497105098 0.1483595423 0.0002441267 9.31134e-05 0.0002107578 0.0001601044 -0.237198364 0.8103889871
635296190.0 -0.0490768185 0.1491832756 6.0822e-05 3.90674e-05 0.0002962638 -4.12339e-05 -0.2293486145 0.8125895381
640296160.0 -0.0474731984 0.1497828731 7.64624e-05 0.0001712758 0.0001730434 0.0001038511 -0.2211190667 0.8154543473
645296130.0 -0.0460310946 0.1505196795 -2.83088e-05 0.0002362811 0.0004196677 -4.4068e-06 -0.2125238934 0.8172220312
650296100.0 -0.0447463815 0.1510921298 0.0003657813 -0.0001256639 0.0004172254 0.0001637585 -0.204146229 0.8189444051
655296070.0 -0.0436323364 0.1515193494 0.0003245825 2.48185e-05 0.0003609144 6.37e-05 -0.1953266276 0.8208062344
660296040.0 -0.0420433741 0.152113761 0.000212246 0.0002268593 0.000236255 6.92979e-05 -0.1868757046 0.8232406114
665296010.0 -0.0404240744 0.1525602511 0.0002694648 -3.9484e-06 0.0002452449 0.000159953 -0.1785082045 0.8253716252
670295980.0 -0.0394424442 0.1535211109 0.0001009438 0.0001395429 0.0004091059 3.05927e-05 -0.1709519779 0.826487325
675295950.0 -0.0378813573 0.1538367882 0.0004395048 0.0001281777 0.0001758211 -3.34646e-05 -0.1629394763 0.828514951
680295920.0 -0.036409084 0.1544908851 9.65742e-05 9.34556e-05 0.000374513 6.22873e-05 -0.1546403194 0.8312312134
685295890.0 -0.0347755704 0.1553727276 0.0003121333 0.0001301205 0.0003769075 -3.07284e-05 -0.1453650413 0.8314563747
690295860.0 -0.033363893 0.155586166 6.49208e-05 -0.0002900629 0.0002652653 -5.14842e-05 -0.1376111728 0.8336388771
695295830.0 -0.0322621851 0.1560409773 0.0002923758 -4.05284e-05 0.0002147609 1.052e-07 -0.1279568902 0.8345794699
700295800.0 -0.030583799 0.1562879704 0.0003982971 -0.0001403416 0.0002783706 0.0001190251 -0.1213629449 0.8366439537
705295770.0 -0.0292831857 0.1572950897 0.0004825907 1.52463e-05 0.0002720438 0.0001037775 -0.1125414844 0.8378346528
710295740.0 -0.0276262499 0.1578517144 0.000216821 0.0001437275 0.0002402551 4.58954e-05 -0.104137429 0.8389152946
715295710.0 -0.0264448678 0.1579042468 0.0002338467 -0.0002481017 0.000247587 -7.84855e-05 -0.0962211759 0.83901806
720295680.0 -0.0249513663 0.1584510417 0.0003252038 -0.0001694409 0.000597575 -3.83204e-05 -0.0875340874 0.840941509
725295650.0 -0.0231247187 0.1587839634 9.14054e-05 -0.0001595022 0.0002793696 -2.28002e-05 -0.0791500422 0.8421596233
730295620.0 -0.0216988484 0.159378016 0.000428544 -4.07754e-05 0.0003372614 -1.47849e-05 -0.0716334535 0.8423369584
735295590.0 -0.0204088934 0.159756844 0.0001750714 -0.0003058711 0.0002714374 -0.0001327453 -0.062734753 0.8426215341
740295560.0 -0.0190867322 0.1602523484 -4.82215e-05 -5.86495e-05 0.0004003425 -9.07252e-05 -0.0535862645 0.8439129783
745295530.0 -0.0177550021 0.1606430374 0.000308758 0.0002199043 0.000109037 0.0001188635 -0.0454373295 0.8438458449
750295500.0 -0.0157362245 0.1609365018 0.000449558 5.03725e-05 0.0002947823 0.0001186809 -0.0374739451 0.8444285933
755295470.0 -0.0144543163 0.1613684035 0.0002061217 -0.0001081845 0.0004831178 -8.71229e-05 -0.0288781443 0.8442090277
760295440.0 -0.0128978337 0.1617070887 0.0002982142 4.15914e-05 0.0001854204 -8.85428e-05 -0.0205281681 0.8445050077
765295410.0 -0.0115148693 0.1621779327 0.0001541755 1.38681e-05 0.0002445825 -8.26309e-05 -0.0117456137 0.8449599677
770295380.0 -0.0102746541 0.1621642706 0.0001977422 -4.64139e-05 0.0002189938 -0.0001131233 -0.0035668655 0.8444242759
775295350.0 -0.0086064099 0.1626162861 0.0001100279 7.73801e-05 0.0003094698 0.0001560694 0.0043132788 0.844213467
780295320.0 -0.0071290826 0.1628196514 0.0004838876 3.4072e-05 7.07008e-05 7.4345e-06 0.0126520235 0.8440805424
785295290.0 -0.0057402393 0.1628526132 0.0001954274 0.0001089631 8.63215e-05 0.0001659708 0.0214376204 0.8436935793
790295260.0 -0.0038768544 0.1635056103 0.0003433068 -0.0001043329 0.0002630816 -0.0001832668 0.0308112366 0.8436888611
795295230.0 -0.0024554023 0.1634314298 0.0002249059 2.64714e-05 0.0004187398 0.0002956416 0.0387762714 0.8430048238
800295200.0 -0.0010818625 0.1634767178 0.0004059794 -6.90719e-05 0.0002164554 -0.0001723708 0.0473625572 0.8426083802
805295170.0 0.0007706618 0.1637502795 0.0003847691 -9.9784e-06 0.0002595681 -5.97405e-05 0.0551230879 0.8425140524
810295140.0 0.0023524465 0.1637864093 0.0001057808 -0.0001749911 0.0001605774 3.96331e-05 0.0636949842 0.8409794658
815295110.0 0.0034240648 0.1639908043 0.0003968609 -8.61214e-05 0.000296099 -5.849e-05 0.0722912625 0.8403719586
820295080.0 0.0049225411 0.1645647872 9.97603e-05 -6.431e-07 0.0004037409 -5.64221e-05 0.0805621421 0.8396910147
825295050.0 0.0069883268 0.164400369 0.000309199 -0.0001461725 0.0006088875 -2.75807e-05 0.0891654775 0.8391445492
830295020.0 0.0082336509 0.1648720904 9.42233e-05 0.000131318 5.71088e-05 -2.44325e-05 0.0979082589 0.8383651389
835294990.0 0.0097502473 0.1649360433 0.0005427461 -1.17246e-05 0.0007001441 -8.45521e-05 0.1055064987 0.8379465876
840294960.0 0.0113193636 0.1651083111 0.0004290792 -0.0002929992 0.0003366734 -3.55453e-05 0.1145543726 0.8361269002
845294930.0 0.0129107979 0.1651747919 6.82082e-05 -0.0001869222 0.0003270649 -0.0003149639 0.1222574235 0.8346923833
850294900.0 0.0144764959 0.1653228879 0.0002705177 -0.0001394485 0.0002671781 -7.97996e-05 0.1306539112 0.8338091092
