!Created with skrf (http://scikit-rf.org).
# Hz S RI R 50.0 
!freq ReS11 ImS11 ReS21 ImS21 ReS12 ImS12 ReS22 ImS22
300000.0 -0.7782812188 -0.096500482 1.84041e-05 -0.0002494195 0.001125407 0.0009558482 -0.2116674518 -0.0834021532
5299970.0 -0.7850191627 -0.0055217417 -0.000269786 3.96488e-05 -0.0002007899 2.98688e-05 -0.2146096742 0.0086293644
10299940.0 -0.787894771 -0.0034080045 0.0001054469 6.49423e-05 5.29527e-05 -0.0001257236 -0.2109486474 0.021527697
15299910.0 -0.7933356104 -0.0014011546 -3.14003e-05 0.0002719014 -0.0001380158 5.92243e-05 -0.2058834144 0.0313257263
20299880.0 -0.8001093207 0.0021006074 5.62146e-05 0.0001303151 -1.03169e-05 -5.78148e-05 -0.1998909486 0.039423664
25299850.0 -0.8064507686 0.0081985738 0.000103297 0.0002164082 -0.0002517606 7.1787e-06 -0.1935240421 0.0456547796
30299820.0 -0.812382958 0.015560012 7.25499e-05 -5.1372e-05 -7.63207e-05 6.89723e-05 -0.1872450288 0.0505747002
35299790.0 -0.8174124763 0.024891472 1.17707e-05 8.83003e-05 0.0001759417 0.000183162 -0.1810506459 0.0548792392
40299760.0 -0.8212739807 0.0340572676 0.0001529241 -1.28361e-05 9.77445e-05 -3.1075e-06 -0.1748101527 0.0576186116
45299730.0 -0.8249155871 0.0434889663 6.82723e-05 0.0002404467 -1.51727e-05 0.0001225753 -0.1690154276 0.0598569396
50299700.0 -0.8273130237 0.0532580707 6.45023e-05 0.000116013 -9.66468e-05 6.72569e-05 -0.1640293871 0.0609128831
55299670.0 -0.8293628339 0.062898781 8.32281e-05 7.0702e-06 -8.46907e-05 -3.3111e-06 -0.1596230457 0.062065032
60299640.0 -0.8304688326 0.0735249014 7.2209e-06 -1.14692e-05 5.15948e-05 -0.0001528724 -0.1549983331 0.0625608274
65299610.0 -0.8312239101 0.0836356057 7.1781e-05 -2.5656e-06 -0.0001493418 -0.0001684884 -0.1516038939 0.0626374203
70299580.0 -0.8320254541 0.093822946 2.6323e-05 -6.25665e-05 1.857e-05 7.14586e-05 -0.1481970414 0.062878162
75299550.0 -0.8320109913 0.103747277 2.75608e-05 -0.0001081748 7.08984e-05 -3.39051e-05 -0.1448439908 0.0627900736
80299520.0 -0.8320529967 0.1130983661 -0.0001589987 -5.51937e-05 -0.0001398123 0.0001139479 -0.1417385569 0.062718185
85299490.0 -0.8308638939 0.1227186288 9.2981e-05 0.0001991688 9.02553e-05 4.64732e-05 -0.1397389583 0.0626303488
90299460.0 -0.8300785456 0.1323430391 -1.44407e-05 -0.0001314312 -0.0001006109 -9.28609e-05 -0.1369678774 0.0619420612
95299430.0 -0.8296369656 0.1419138759 -0.0002641006 7.61126e-05 -9.8239e-06 0.0001509711 -0.1347367296 0.0623245537
100299400.0 -0.8276386178 0.1509982141 5.13177e-05 -0.0001786373 -7.66836e-05 -9.96069e-05 -0.1326211625 0.0616653106
105299370.0 -0.8270516121 0.1606531384 4.45877e-05 -4.129e-06 -1.188e-06 -7.28204e-05 -0.1308220612 0.0611844152
110299340.0 -0.8258071947 0.1698701964 3.52164e-05 -2.87527e-05 7.39957e-05 0.0001615509 -0.1294696578 0.0611304449
115299310.0 -0.8236680262 0.1784928049 0.0001176446 6.64548e-05 -9.38811e-05 0.0001820185 -0.128041042 0.0613373795
120299280.0 -0.8217748421 0.1874595078 -0.0002073165 -0.00012294 0.0002097604 -9.8682e-05 -0.1267996245 0.0610515135
125299250.0 -0.8198981827 0.1957515393 0.000159542 -0.0002142406 -9.50406e-05 0.000205386 -0.1255423133 0.0606041859
130299220.0 -0.818928258 0.2054841617 -0.0001035928 -7.9071e-06 -2.1333e-05 -5.47877e-05 -0.1244974673 0.0606373442
135299190.0 -0.8172724678 0.2149104773 0.0002336739 1.9331e-05 -0.0001599684 -0.000123824 -0.1234696235 0.061105726
140299160.0 -0.8146829693 0.2233543284 -0.0002088167 1.02856e-05 0.0001648216 0.0002614054 -0.1222124375 0.0610844719
145299130.0 -0.8126218954 0.2325362473 -3.32646e-05 8.24437e-05 7.46691e-05 -3.02693e-05 -0.1216005627 0.0614509498
150299100.0 -0.8104965008 0.2408796575 -5.94325e-05 0.0001529468 1.69539e-05 -9.28251e-05 -0.120888852 0.0621966126
155299070.0 -0.8074458364 0.2496183788 0.0002624775 5.45761e-05 5.17347e-05 0.0001221143 -0.1197464827 0.0621198372
160299040.0 -0.8050362326 0.2580003827 0.0001451863 -5.7033e-05 6.56112e-05 -7.06052e-05 -0.1195965633 0.062623777
165299010.0 -0.8025916832 0.2672879398 2.89922e-05 9.4829e-05 0.0002973972 8.94436e-05 -0.1186120597 0.0628292626
170298980.0 -0.7998627973 0.2757734518 6.30358e-05 -4.31875e-05 7.80198e-05 -0.0001989316 -0.1180041576 0.0632588102
175298950.0 -0.7971511979 0.2843962922 -4.49062e-05 -8.6295e-06 0.0001648476 0.0001138654 -0.1173134444 0.0640542173
180298920.0 -0.7950741024 0.2930594726 -0.0002822344 0.000118453 4.35913e-05 -0.0001525295 -0.1172690531 0.0646450953
185298890.0 -0.7909481111 0.3008112957 -0.0001706345 0.0002695693 0.0001829789 0.0001538 -0.1166114498 0.0651697054
190298860.0 -0.7884649982 0.3099282012 0.0002329821 0.0001262489 0.0001760478 6.7778e-06 -0.1158384905 0.0656114179
195298830.0 -0.7853837554 0.3182472472 4.4489e-05 0.0004588268 0.0001260591 0.0002449133 -0.1154091349 0.0663683312
200298800.0 -0.7809472508 0.3265322522 -1.38272e-05 -0.0001462007 2.8322e-06 0.0002293922 -0.1151638683 0.0668637906
205298770.0 -0.7784158299 0.3345777733 0.0002186918 -2.06684e-05 -7.53836e-05 -0.0001103472 -0.114960835 0.0673436206
210298740.0 -0.7744501945 0.3424050296 9.33019e-05 0.000348937 0.0001302105 0.0001284663 -0.1139422213 0.0682137534
215298710.0 -0.7718701158 0.3509063166 0.0001832778 0.0002419366 -1.33502e-05 5.29071e-05 -0.1138534636 0.0686260111
220298680.0 -0.7675974189 0.3588622739 6.14756e-05 7.75587e-05 0.0001137056 0.000114146 -0.1139012948 0.0694458476
225298650.0 -0.7640503203 0.3670309783 -3.55972e-05 -2.27285e-05 -1.68192e-05 0.0001882886 -0.1135158158 0.0701802161
230298620.0 -0.7598252131 0.3747291036 0.0001181861 3.33693e-05 0.0001353055 7.72936e-05 -0.112763064 0.0707581717
235298590.0 -0.7559834409 0.3831438109 4.87304e-05 0.0001061324 -8.92114e-05 3.2101e-06 -0.112380777 0.0717093545
240298560.0 -0.7524482217 0.3915661847 -0.0001461551 0.000154707 0.0001843358 0.0002322001 -0.1119074871 0.072663185
245298530.0 -0.7485516534 0.399709011 -5.778e-06 0.000277549 -5.3763e-05 0.0001070012 -0.1116073366 0.072846251
250298500.0 -0.743979904 0.4070736235 0.0002414763 0.000260317 0.0002408419 -3.0719e-06 -0.1113452175 0.0734754073
255298470.0 -0.739335465 0.4142454894 0.000192665 -7.01061e-05 0.0001129468 2.15857e-05 -0.110605212 0.074255092
260298440.0 -0.7356222727 0.4216429723 -4.41552e-05 3.85396e-05 -4.46121e-05 6.64653e-05 -0.1099139557 0.0753258409
265298410.0 -0.731462327 0.4297917992 9.02111e-05 -0.0001749416 0.0001147975 6.41466e-05 -0.1095286938 0.0763373729
270298380.0 -0.7270775646 0.4378531079 4.87014e-05 0.0002247008 1.7253e-06 0.0001323338 -0.1090550084 0.0769673149
275298350.0 -0.7219030422 0.4449863477 9.78017e-05 8.71771e-05 0.0001957952 2.47495e-05 -0.1085512375 0.0777359078
280298320.0 -0.7172094362 0.4531424063 7.348e-07 0.0003106241 6.6184e-05 0.0001335126 -0.1076878485 0.0788307194
285298290.0 -0.7124058572 0.4608261266 0.0001379211 1.8146e-05 0.0001511115 0.0001127557 -0.1072589239 0.0796479209
290298260.0 -0.7078467816 0.4674448507 1.169e-06 -2.58111e-05 7.37262e-05 0.0001818193 -0.1066685948 0.0807607681
295298230.0 -0.7022111023 0.4745295594 5.61115e-05 0.0001109145 3.87416e-05 -6.18408e-05 -0.1059660006 0.0812830944
300298200.0 -0.6975263699 0.4818846951 -2.82781e-05 5.35666e-05 0.0003145309 0.0002639009 -0.1052480844 0.0824975561
305298170.0 -0.6928025209 0.4889169339 0.0002076101 9.2631e-05 -5.46808e-05 8.63138e-05 -0.1041954265 0.0826983573
310298140.0 -0.6870127743 0.4964891111 -6.3088e-05 0.0002104569 -0.0001316153 0.000188139 -0.1042234687 0.0841081585
315298110.0 -0.6825086196 0.503384455 0.0001875754 0.0002178056 -0.0001192588 0.0002220717 -0.1035106903 0.0848051124
320298080.0 -0.6772115925 0.5104991277 -1.99418e-05 0.0002145951 0.0003415195 1.49042e-05 -0.1026153418 0.085567256
325298050.0 -0.6721005702 0.5174783982 6.27283e-05 1.11435e-05 0.0001554882 0.0001225728 -0.1022850128 0.0865360884
330298020.0 -0.6661174965 0.5241379003 5.5798e-06 -7.64697e-05 0.0001689903 -0.0002026217 -0.1017158585 0.0875748554
335297990.0 -0.6603531388 0.530398959 -9.82769e-05 -0.0002900592 0.0001117295 0.000135311 -0.1012719155 0.0892925669
340297960.0 -0.6556545996 0.5377556515 0.0002219465 0.0002424906 0.0003285853 -5.24491e-05 -0.1001045698 0.09002882
345297930.0 -0.649879746 0.5443398122 -4.35049e-05 0.0001154078 0.0001213324 5.02502e-05 -0.1001366648 0.0910633224
350297900.0 -0.6444042592 0.5512577981 0.0002696055 1.92373e-05 -5.89642e-05 0.0002019768 -0.0995947139 0.0923142513
355297870.0 -0.6374540626 0.5581381039 6.47453e-05 -5.79023e-05 7.23077e-05 8.5882e-05 -0.0987034193 0.0933869468
360297840.0 -0.632459177 0.564209804 8.16971e-05 -2.55233e-05 0.0001797837 0.0001175331 -0.0981389633 0.0944947704
365297810.0 -0.62667725 0.5710816477 -3.707e-07 -6.96e-05 0.0001787032 5.71787e-05 -0.0972359969 0.0953865115
370297780.0 -0.6209243254 0.5767770545 -8.74666e-05 -3.64621e-05 0.0001114424 0.0001235387 -0.0965093771 0.0965065507
375297750.0 -0.6145180734 0.5837052091 0.0001066171 -4.875e-05 5.31e-07 0.0001550055 -0.0961855373 0.097268986
380297720.0 -0.6082704679 0.5892557005 0.000252721 4.25546e-05 0.0001026185 0.0001642363 -0.095591552 0.0987057625
385297690.0 -0.6025816931 0.595023503 5.12848e-05 0.0003146282 9.65983e-05 0.0002020501 -0.0945667171 0.0997834516
390297660.0 -0.5965657082 0.6014629426 0.0002880073 5.34495e-05 0.0001808063 7.02006e-05 -0.0942577078 0.1009508454
395297630.0 -0.5898446798 0.6081010644 5.22238e-05 -0.0001247453 5.00445e-05 5.70874e-05 -0.0933692975 0.1017690216
400297600.0 -0.5842610624 0.6136676046 -0.0001685916 0.0001586695 0.0001290118 -3.34654e-05 -0.0922937846 0.1027754417
405297570.0 -0.5779068631 0.6196418575 0.0001581187 0.0002117619 4.46932e-05 0.0002538786 -0.0919871983 0.1036634154
410297540.0 -0.5708300072 0.6255431226 3.6819e-05 0.0002277484 9.20412e-05 7.52446e-05 -0.0911520554 0.1047796027
415297510.0 -0.5643889345 0.6313856618 3.67631e-05 0.0002640379 0.0002526532 8.69925e-05 -0.0902462406 0.1052648259
420297480.0 -0.5588191554 0.6376842116 0.0001205222 0.0001599388 5.64868e-05 -4.85298e-05 -0.089485155 0.106599157
425297450.0 -0.5511991251 0.6424702135 6.97912e-05 -6.04611e-05 -2.30051e-05 -1.36454e-05 -0.0887226548 0.1074954392
430297420.0 -0.5453537846 0.6482410678 0.0002391255 6.76385e-05 0.0001108486 7.45742e-05 -0.0878807461 0.1083032771
435297390.0 -0.5381698018 0.6534912958 0.0001477199 0.0001942206 0.000224296 0.0001066364 -0.0865449397 0.1089319693
440297360.0 -0.5315294825 0.6589313863 0.0001580401 0.0001239959 0.0001782781 -3.96017e-05 -0.0856441188 0.1101689305
445297330.0 -0.5242089234 0.6648308701 0.0001631773 6.61869e-05 0.000125702 0.0001585405 -0.0852468539 0.1106509053
450297300.0 -0.5176545956 0.669186426 0.0001822682 1.84441e-05 0.0003030791 0.000101425 -0.0839491725 0.1118145834
455297270.0 -0.5109850509 0.6743558948 8.41426e-05 0.0003233953 0.0001522178 -4.29995e-05 -0.0831660958 0.11240486
460297240.0 -0.5047199116 0.6798756559 0.0004056223 5.284e-05 0.0002485739 0.0002449458 -0.0820228943 0.1137320698
465297210.0 -0.4977858576 0.6852657852 4.70126e-05 4.02588e-05 0.0001705202 0.0001443254 -0.0810549332 0.1142685019
470297180.0 -0.4899525385 0.6898521987 -0.0001349739 7.27582e-05 5.819e-07 0.0001392679 -0.0797962414 0.1154908297
475297150.0 -0.4832270659 0.6943411531 2.22665e-05 -2.08298e-05 -2.17278e-05 5.09886e-05 -0.0786037837 0.1160702739
480297120.0 -0.4765200497 0.6996331319 5.63835e-05 0.0002941584 0.0002115495 5.41821e-05 -0.0777230898 0.1170546372
485297090.0 -0.4686703433 0.7038361212 3.88158e-05 -1.4651e-05 0.0003801023 0.0001016419 -0.0763273668 0.1180969508
490297060.0 -0.4622520898 0.708499969 0.0001779471 2.24726e-05 0.0003497098 0.0002950015 -0.0755686386 0.1187697533
495297030.0 -0.4548361349 0.7130693685 0.0001409211 0.0001599133 8.26917e-05 0.0001725147 -0.0745520555 0.120075087
500297000.0 -0.4471394863 0.7180609749 8.73563e-05 4.73994e-05 0.0003201321 5.51126e-05 -0.0731343961 0.1214226208
505296970.0 -0.4395629698 0.7227710947 0.000288501 7.66433e-05 0.0003489651 0.0002324049 -0.0722216934 0.1216694496
510296940.0 -0.4328257123 0.7268840284 6.57183e-05 0.000116621 0.0002618707 -0.0001491091 -0.0710957486 0.1225142023
515296910.0 -0.4243830468 0.7306873903 -8.7484e-05 -3.1271e-06 0.0001110207 9.18837e-05 -0.0700798291 0.1235527961
520296880.0 -0.4180055004 0.7354465365 -3.0409e-05 -5.7722e-05 0.0003383353 2.82261e-05 -0.0690865905 0.1244809379
525296850.0 -0.4097920514 0.738673853 0.0002950247 0.0001199168 9.67362e-05 -9.07828e-05 -0.0680184475 0.1256422506
530296820.0 -0.402007166 0.7436073617 0.0002644675 3.59555e-05 -7.96145e-05 -7.34404e-05 -0.0669439611 0.1261201408
535296790.0 -0.395264654 0.7472740851 -7.88644e-05 -0.0001153676 0.0001948624 7.13965e-05 -0.0661427388 0.1272076451
540296760.0 -0.3875516146 0.7513248858 0.0003617471 -2.8965e-06 0.0002029351 -1.00327e-05 -0.0648103481 0.1285052443
545296730.0 -0.3801189665 0.7548682256 0.0001021906 6.11107e-05 0.0002430478 0.0001886265 -0.0637474082 0.1287219153
550296700.0 -0.3729127472 0.7590080695 -0.0001082334 5.85361e-05 0.0001791532 4.9162e-05 -0.0626148231 0.1296212967
555296670.0 -0.3643539375 0.7617293493 9.1576e-06 -8.20231e-05 0.0001238688 7.8299e-05 -0.0617252086 0.1306179884
560296640.0 -0.3570231563 0.766393764 0.0001058863 9.06248e-05 0.0002185167 4.83183e-05 -0.0604652224 0.1316003593
565296610.0 -0.349663556 0.7696102474 0.0004611262 0.0001130225 7.38191e-05 -1.26831e-05 -0.0597056129 0.1321572778
570296580.0 -0.3422361429 0.7724898053 1.05902e-05 6.08444e-05 0.0001516061 -6.68841e-05 -0.0581710799 0.1331001052
575296550.0 -0.333990191 0.7767377988 0.0004102361 -7.75947e-05 0.0001998696 1.05893e-05 -0.0571413477 0.1338045624
580296520.0 -0.325930835 0.7798456647 -4.24001e-05 0.0003516848 0.000104264 9.7991e-05 -0.0559161627 0.1343918628
585296490.0 -0.3181719132 0.7824519547 0.0002612137 0.0003112537 0.0001660233 2.27387e-05 -0.054977183 0.134804085
590296460.0 -0.3104592734 0.7859389633 0.0001837282 3.71906e-05 0.0001857538 6.70789e-05 -0.0535557402 0.1357554772
595296430.0 -0.3024527384 0.7886044912 0.0002930006 8.97491e-05 9.82725e-05 5.70746e-05 -0.05261655 0.1358649812
600296400.0 -0.2941390958 0.7920918714 0.000333701 -0.0003003543 0.0002141634 8.8572e-05 -0.0514407979 0.136562457
605296370.0 -0.2871260589 0.7949364383 0.0001809925 0.0001339947 0.0001395498 -9.86413e-05 -0.0497742275 0.1373955202
610296340.0 -0.2780729307 0.7971397589 0.0003532247 -0.0001381148 0.0003112959 0.0001272729 -0.0484934254 0.1380602954
615296310.0 -0.2699689403 0.8000943708 0.0002225964 -4.93871e-05 1.81954e-05 -2.57e-07 -0.0475141673 0.1384393876
620296280.0 -0.2622450086 0.8019296581 0.000244251 0.0001329343 0.0001876667 0.0002118519 -0.0462365049 0.1391034986
625296250.0 -0.254340801 0.8052156534 0.0002796427 8.77418e-05 0.0002883696 -6.20452e-05 -0.0444308165 0.139574326
630296220.0 -0.2454200104 0.8076953468 0.0002173994 -5.10812e-05 0.0002815028 0.0001495362 -0.0434933667 0.1404930994
635296190.0 -0.2380220871 0.8103257083 0.00019719 -6.29896e-05 0.0001466857 0.0001485864 -0.0420880874 0.140994592
640296160.0 -0.2310565982 0.8120365606 0.0003871732 3.49391e-05 9.28794e-05 -6.99086e-05 -0.0405948706 0.141370732
645296130.0 -0.2223228818 0.8150602044 0.0003295634 -9.995e-07 0.0003042099 -9.71354e-05 -0.0392972468 0.1421742392
650296100.0 -0.2134079344 0.8172065467 0.0001037473 9.88505e-05 0.0002269813 4.2765e-06 -0.0375169819 0.1424171965
655296070.0 -0.2057905145 0.8191290388 0.0002079895 -2.74056e-05 -3.55591e-05 8.6161e-06 -0.036182871 0.1431285796
660296040.0 -0.1975312112 0.8209286416 0.0005224725 0.0001916028 0.0003416411 -0.0002128693 -0.0349168928 0.1436869235
665296010.0 -0.1893114726 0.8222737336 0.0002747873 -1.79805e-05 0.000113286 -0.0001748828 -0.0334924934 0.1445877975
670295980.0 -0.1817959654 0.8241246198 8.9925e-05 1.01011e-05 4.8322e-05 -1.7674e-06 -0.0324431766 0.1451205444
675295950.0 -0.1724505675 0.8261401853 0.000196884 8.24305e-05 0.0004256868 4.42509e-05 -0.0311791119 0.1455489861
680295920.0 -0.1646925243 0.8280507651 0.0001347989 -1.3159e-05 0.0003169442 5.53792e-05 -0.0295092675 0.1465731795
685295890.0 -0.1560748068 0.8304178832 0.0002269283 -1.80261e-05 0.0002876471 0.0001741915 -0.0282398392 0.1467547528
690295860.0 -0.1487286777 0.8311775143 0.0001689926 -3.25851e-05 0.0001375061 1.2966e-06 -0.0268327482 0.1478913228
695295830.0 -0.140630159 0.8318351676 0.0002786626 4.64701e-05 0.0002733534 2.34641e-05 -0.0254370659 0.1482020364
700295800.0 -0.1311015293 0.8336323792 0.0002418372 0.0001934024 0.000289782 -1.13396e-05 -0.0241698499 0.1484005394
705295770.0 -0.1230912804 0.8354173694 0.0003890037 -0.0002583895 0.0001034262 0.0001302867 -0.0228336123 0.1495513958
710295740.0 -0.114549063 0.8364757249 0.0002979653 -0.0001347038 0.0001631714 2.89274e-05 -0.0216591106 0.1494414917
715295710.0 -0.1066310656 0.8374174306 0.0002529983 1.81806e-05 0.0002405987 -2.64578e-05 -0.0201529698 0.1499341284
720295680.0 -0.0984947014 0.8389634376 0.000129951 0.0001204365 9.92591e-05 -0.0001763603 -0.0186749144 0.1504237346
725295650.0 -0.0906008917 0.8394184438 8.51101e-05 -0.0002159064 0.0004110886 0.0001962932 -0.0176560886 0.151108959
730295620.0 -0.0812765275 0.8404976514 0.0003044212 1.29758e-05 0.0004644655 9.21527e-05 -0.0160645905 0.1509530468
735295590.0 -0.0730250903 0.8410562394 0.0002386748 0.0001791925 0.0001296927 -0.0002048681 -0.0152483166 0.1512494526
740295560.0 -0.0650037761 0.8423434469 0.0001506487 4.49693e-05 6.10997e-05 -8.09693e-05 -0.0130513324 0.1517482791
745295530.0 -0.0567487521 0.8424524047 0.0004847074 0.0002184798 0.0002789946 -0.000101014 -0.0120751568 0.1521889227
750295500.0 -0.0479442996 0.8427805332 0.0002119898 0.0001926556 0.0001373282 -0.0002310319 -0.0104414152 0.1523604963
755295470.0 -0.039933216 0.8430794571 0.0003990139 1.8075e-05 4.73494e-05 -3.45757e-05 -0.0091228726 0.1524581349
760295440.0 -0.0320946796 0.8433199267 0.0002669911 0.0001367471 0.000216884 2.91954e-05 -0.007841099 0.1528175608
765295410.0 -0.023439639 0.8442139094 0.0003713292 -6.99521e-05 0.0003042621 -5.84443e-05 -0.0064406242 0.1532367668
770295380.0 -0.0151527228 0.8442501836 0.0002398488 -9.00909e-05 0.0004587568 -3.54513e-05 -0.0053134943 0.1532776694
775295350.0 -0.00690592 0.8439766378 0.0002324614 8.78109e-05 0.0003601292 -0.0001166344 -0.0040398938 0.1535466195
780295320.0 0.0018274975 0.8438085918 9.1851e-05 0.0001966125 0.0003326514 -5.18142e-05 -0.002268598 0.1534782452
785295290.0 0.0099533097 0.8432819616 0.0001540793 0.0001182481 0.0003288636 3.3368e-05 -0.0002783334 0.1537312905
790295260.0 0.0183698963 0.8435348142 0.0002932174 -0.0001553749 0.0001845445 4.18884e-05 0.0012120773 0.1540914161
795295230.0 0.0263894523 0.8432511924 0.0003571972 -1.11229e-05 0.0002317224 -0.0002579245 0.0026389757 0.1540393616
800295200.0 0.0347083143 0.8431122349 0.0001438502 -0.0002811192 0.0003016155 -0.000134355 0.0040915765 0.1544253903
805295170.0 0.0435847668 0.8429742134 0.0002823463 -0.0002363812 0.0001404321 -0.0001373509 0.0054131162 0.1546837167
810295140.0 0.0518545308 0.8422489834 0.0001655029 -0.0001303761 0.0001887471 -0.0001931056 0.0075172951 0.1544113484
815295110.0 0.0599818038 0.8417573491 5.72695e-05 -7.42498e-05 0.0003346364 -0.0001230117 0.008561265 0.154523184
820295080.0 0.0678789634 0.8408624093 0.0001417871 -0.0001101827 0.0001633253 2.68247e-05 0.0102966674 0.1549471912
825295050.0 0.0772061869 0.8404571948 0.0002442878 -0.000223155 0.0003303131 -5.123e-07 0.0117779581 0.1551416379
830295020.0 0.0846743219 0.8397214832 0.0002819897 -0.0001561708 0.0002852488 -0.0002178263 0.0135867017 0.1552210303
835294990.0 0.0930568581 0.8388034161 0.000207543 -0.0001049703 -3.02004e-05 8.00638e-05 0.0149388463 0.1553822145
840294960.0 0.1007873315 0.8382004561 0.0003562972 -6.13523e-05 0.0001363541 -0.0001256254 0.0165127214 0.1551505472
845294930.0 0.1090707889 0.8370982519 0.0003386246 -6.8568e-06 0.0003051191 -0.0001330624 0.0178004308 0.1555104168
850294900.0 0.1176295777 0.8358757473 0.0002881731 4.0938e-06 0.0003539672 9.4532e-06 0.0192042569 0.1557424046
