!Created with skrf (http://scikit-rf.org).
# Hz S RI R 50.0 
!freq ReS11 ImS11 ReS21 ImS21 ReS12 ImS12 ReS22 ImS22
300000.0 -0.238487702 -0.0934594214 0.4668313949 0.0623278732 0.4672357684 0.0676704138 -0.2375678206 -0.1071359794
5299970.0 -0.2436200251 0.0070459124 0.4738071295 0.0055133973 0.4738695613 0.005856397 -0.2440932308 0.0060512876
10299940.0 -0.2399846997 0.0197153885 0.4760787244 0.0062702116 0.4758019483 0.006457612 -0.2411456742 0.018262496
15299910.0 -0.2361538896 0.0292127485 0.4794980481 0.008012064 0.479200688 0.0080697664 -0.2368697076 0.0274875965
20299880.0 -0.2304442831 0.037218716 0.4840082031 0.008122497 0.4840386933 0.0087748917 -0.2321245276 0.0354877583
25299850.0 -0.2249289175 0.0434398144 0.4895898391 0.0069181705 0.4896279041 0.0074826072 -0.2269947602 0.0417206163
30299820.0 -0.2188550304 0.0485478583 0.4951832916 0.0055094344 0.4946763816 0.005527352 -0.2216477146 0.0468477642
35299790.0 -0.2129417636 0.0528611253 0.5002420502 0.0022811036 0.5003696619 0.0022751359 -0.2161559614 0.0509072627
40299760.0 -0.2076405407 0.0557245978 0.5052690624 -0.0011105409 0.5055717565 -0.0015827764 -0.2113454835 0.0546236672
45299730.0 -0.2026073705 0.0586365264 0.5104853907 -0.0067977365 0.5101931446 -0.006204417 -0.2066695799 0.0573475365
50299700.0 -0.1976590954 0.0602572321 0.5143565142 -0.0120726433 0.5143812664 -0.0125280859 -0.2022143176 0.0597535144
55299670.0 -0.1938627733 0.0618455211 0.5175290549 -0.0181699015 0.5184728254 -0.0179985897 -0.1983143226 0.0615490574
60299640.0 -0.1893719358 0.0627611612 0.521114878 -0.0242296565 0.5212075174 -0.0243656631 -0.1944646863 0.0632946115
65299610.0 -0.186113595 0.063901716 0.52448864 -0.0299981883 0.5245221559 -0.0305387946 -0.1911360446 0.064381492
70299580.0 -0.1825941962 0.0642731364 0.5267067922 -0.036808373 0.5267712678 -0.0370390966 -0.1880623882 0.0656988004
75299550.0 -0.17958183 0.0650772225 0.5284590925 -0.0440488948 0.5287542611 -0.0443118633 -0.185012113 0.0669076013
80299520.0 -0.1771964 0.0656070264 0.5305659735 -0.0508734991 0.5310982586 -0.05124948 -0.1826417322 0.067527623
85299490.0 -0.1745585982 0.0658962303 0.5321027325 -0.0579508664 0.5318991838 -0.057900227 -0.1801763883 0.0681877347
90299460.0 -0.1728159956 0.0665418121 0.5329645423 -0.0644093075 0.5329727795 -0.0646235765 -0.177727311 0.0691479868
95299430.0 -0.1707127006 0.0673112283 0.5344551297 -0.0718561766 0.5342574536 -0.0715734119 -0.1757608409 0.070235439
100299400.0 -0.1686952189 0.0677222981 0.534209464 -0.0788188841 0.5344966559 -0.0784857921 -0.1741389156 0.070753423
105299370.0 -0.166851238 0.0682195784 0.5345523134 -0.085442246 0.5347861369 -0.0857365594 -0.1720621147 0.0719283471
110299340.0 -0.1656504216 0.0686424134 0.5347831032 -0.0922513486 0.5350323947 -0.0924375699 -0.1708555253 0.0726821081
115299310.0 -0.1639642277 0.0686294779 0.5346612895 -0.0988471385 0.534867933 -0.0988812939 -0.168722805 0.0730974492
120299280.0 -0.1629897448 0.0694040608 0.5348913072 -0.1060631453 0.5348885422 -0.1061111137 -0.1679935301 0.0741334734
125299250.0 -0.1618344175 0.0700472834 0.5343595457 -0.1126210027 0.5343252049 -0.1129166242 -0.1663176043 0.074883119
130299220.0 -0.1603366409 0.070507056 0.5338500155 -0.1186962076 0.5338581228 -0.1193593016 -0.1653147485 0.0758501881
135299190.0 -0.1593349949 0.0710006159 0.5330496874 -0.1259780142 0.5324885405 -0.1260348402 -0.1639754636 0.0768511167
140299160.0 -0.1586934223 0.0721125716 0.5323888627 -0.1324209322 0.5325613489 -0.1326870226 -0.1629839162 0.0777690241
145299130.0 -0.1573211584 0.0727616356 0.5315839 -0.1394497249 0.5314202673 -0.1388274533 -0.1622074439 0.0786663257
150299100.0 -0.156521999 0.0736614098 0.5301157539 -0.1459588 0.5301961936 -0.1458091197 -0.1607487634 0.0798935147
155299070.0 -0.1558403221 0.074697728 0.5290545017 -0.1527205219 0.5290812495 -0.1522596536 -0.160081697 0.0808645365
160299040.0 -0.1551230974 0.0752310563 0.5274417861 -0.1583473324 0.5278390347 -0.1588751235 -0.1587989564 0.0822375526
165299010.0 -0.1544393656 0.0762290927 0.5264943726 -0.1652203966 0.5264750676 -0.1650838336 -0.1578613986 0.0832653301
170298980.0 -0.1535937345 0.0773129912 0.5239544135 -0.1716083631 0.5245729451 -0.1716383933 -0.156646296 0.0843603655
175298950.0 -0.1528754965 0.0782869826 0.5235282893 -0.1775794229 0.5235649784 -0.1779078556 -0.1559443869 0.0856219617
180298920.0 -0.1517248841 0.0790443716 0.5216127658 -0.1842563203 0.5213908584 -0.1837037166 -0.1547052247 0.0873768477
185298890.0 -0.1509767997 0.0801172525 0.5193831161 -0.1906079744 0.519603939 -0.1901645374 -0.1540706499 0.0881089788
190298860.0 -0.1504299216 0.0809860419 0.517682315 -0.1965023597 0.5177978439 -0.196862442 -0.1525931896 0.0896109812
195298830.0 -0.1495594501 0.0817832838 0.515774406 -0.2024048054 0.5155358347 -0.2027576245 -0.1519960196 0.0905983087
200298800.0 -0.1489302472 0.0832802794 0.5138320841 -0.2081751765 0.5134649549 -0.2085522178 -0.1508012794 0.0921023825
205298770.0 -0.1481698473 0.0844429669 0.5119049505 -0.2146467089 0.5115752052 -0.215012502 -0.1501257774 0.0932118352
210298740.0 -0.1474915515 0.0855151185 0.5092655707 -0.2209685448 0.5092015905 -0.2212077803 -0.1491282252 0.0946409981
215298710.0 -0.1466351642 0.0866900081 0.506742474 -0.2264667692 0.5065650954 -0.2266258673 -0.1482694578 0.0961371764
220298680.0 -0.1460559858 0.0879641528 0.5043118106 -0.2325528429 0.5044829816 -0.2327498609 -0.147065745 0.0979615876
225298650.0 -0.1448231996 0.0892583576 0.5018537056 -0.2380534893 0.5020102001 -0.2382696707 -0.146378234 0.0993460253
230298620.0 -0.144580116 0.0907279637 0.4998298382 -0.2443014766 0.4993582932 -0.2447107749 -0.1452613159 0.1005210814
235298590.0 -0.1435164556 0.0918042599 0.4966614457 -0.2499400689 0.4969302562 -0.250372233 -0.1444229306 0.1013864205
240298560.0 -0.1431465854 0.0928525978 0.4945689664 -0.2556236066 0.4940331652 -0.2554331799 -0.1429744584 0.1035003322
245298530.0 -0.1418692428 0.0941352483 0.4906997895 -0.2613273612 0.4913714398 -0.2615094421 -0.1420425017 0.1047732701
250298500.0 -0.1414139221 0.0952002917 0.4881700893 -0.266707703 0.4890947182 -0.2665283816 -0.1405010259 0.1062722176
255298470.0 -0.1406267739 0.0969417848 0.4854279074 -0.2729160776 0.485506799 -0.2725447258 -0.139581495 0.1075273085
260298440.0 -0.1399939879 0.0979658029 0.4830634037 -0.278035308 0.4828700394 -0.2784665483 -0.1380971597 0.1091124182
265298410.0 -0.1386055068 0.0996571054 0.4793994284 -0.283984721 0.4793442826 -0.2837513047 -0.1374933918 0.1102761208
270298380.0 -0.1377122035 0.1004470441 0.4759169751 -0.2893881252 0.4766754759 -0.2893904588 -0.1359207221 0.1119126562
275298350.0 -0.1371065631 0.1019975183 0.4733022629 -0.2949476108 0.4738714885 -0.2950348663 -0.1346951586 0.1136007595
280298320.0 -0.1362974619 0.1035124532 0.4699450256 -0.2999771535 0.4699656243 -0.3003456584 -0.1336963804 0.1152051523
285298290.0 -0.1351590689 0.1046180388 0.4666207452 -0.3050377093 0.4665973547 -0.3053842914 -0.1326587991 0.1163797352
290298260.0 -0.134191928 0.1059260778 0.4631787443 -0.3106100267 0.4636570209 -0.3108316952 -0.1307600957 0.1178057482
295298230.0 -0.1330573057 0.1068390007 0.4599836189 -0.3158282636 0.4599171472 -0.3162179475 -0.1293608664 0.119444135
300298200.0 -0.1318154888 0.1083476296 0.4563274914 -0.3211621635 0.4567501299 -0.3218227692 -0.128431937 0.1210118283
305298170.0 -0.1312418909 0.1095222627 0.4535392257 -0.3265193341 0.453385364 -0.3267206631 -0.1270035553 0.1222634192
310298140.0 -0.1298223101 0.1104538167 0.4499029535 -0.3320587904 0.4503395362 -0.3322014682 -0.1255674699 0.1240560926
315298110.0 -0.1290229215 0.1117449533 0.4460247969 -0.3371454366 0.4463393992 -0.337088642 -0.1237405266 0.1250689444
320298080.0 -0.1282553057 0.1132551224 0.4422402201 -0.3421276643 0.4424288475 -0.3418060335 -0.1229279511 0.1261576273
325298050.0 -0.1273358207 0.1139487809 0.43902012 -0.3473172629 0.4385763198 -0.3473053047 -0.1214496353 0.1273825986
330298020.0 -0.1263381753 0.1156391794 0.4342182436 -0.3521973881 0.4342738702 -0.3522091178 -0.1202115659 0.1287945719
335297990.0 -0.1252839301 0.1164236584 0.4302514009 -0.3567154759 0.4304598011 -0.3572582278 -0.1190947063 0.130408733
340297960.0 -0.1248958101 0.1181003174 0.4263079682 -0.3620656332 0.426319756 -0.3616621493 -0.1177947038 0.131609705
345297930.0 -0.1237400867 0.1195635844 0.4223217222 -0.3662829266 0.4216484662 -0.3663947816 -0.1162183246 0.1331035351
350297900.0 -0.1223574406 0.1208309249 0.4179073008 -0.370953271 0.4181881332 -0.3714847986 -0.1149691168 0.1348769925
355297870.0 -0.121409951 0.1221708271 0.4138312137 -0.3757085478 0.4139907901 -0.3759317242 -0.1139237437 0.1365902509
360297840.0 -0.1202520596 0.1233050117 0.4095700495 -0.3802110791 0.4095389733 -0.380266088 -0.1121492315 0.1379324787
365297810.0 -0.1191674114 0.1243726809 0.4052880968 -0.3845968081 0.405605306 -0.3846392756 -0.1108152865 0.1394554044
370297780.0 -0.1176852755 0.1257004821 0.4010517854 -0.388873992 0.401050329 -0.3894051936 -0.109304777 0.1407147244
375297750.0 -0.1168456624 0.1274044544 0.3972676077 -0.3935678992 0.3966963174 -0.3937049129 -0.1077278949 0.1422500317
380297720.0 -0.1154106555 0.1282807079 0.3926822332 -0.3980014684 0.3926567946 -0.3977161564 -0.1061504005 0.1437468825
385297690.0 -0.1144994291 0.1299490766 0.3882452217 -0.4018047624 0.3881327259 -0.4024030069 -0.1048025032 0.1451370874
390297660.0 -0.1131456383 0.1308180081 0.38362999 -0.406738736 0.3833787362 -0.4066463358 -0.1029526384 0.1457737656
395297630.0 -0.1118674173 0.1320661696 0.3793834758 -0.4103853107 0.3792426478 -0.4106460226 -0.1013632157 0.1480567092
400297600.0 -0.1108087996 0.1335937347 0.3743073775 -0.41488792 0.3747244484 -0.4151219045 -0.1002393313 0.1489654773
405297570.0 -0.1094097182 0.1346787505 0.3705143865 -0.4187574969 0.3701623779 -0.4191580963 -0.0982995791 0.1508195814
410297540.0 -0.1078766005 0.1358519107 0.3649153921 -0.4226673429 0.365497975 -0.4227065532 -0.0967916937 0.1515913711
415297510.0 -0.1067222605 0.1371763397 0.3610008561 -0.4268615268 0.3608939404 -0.4269492761 -0.0952580932 0.1533339861
420297480.0 -0.1053983076 0.1380763487 0.3559140509 -0.4309677107 0.3560091526 -0.4309159426 -0.0932467531 0.1541375931
425297450.0 -0.1036623415 0.1390815843 0.3512381863 -0.4348152947 0.3516978686 -0.4348403578 -0.0916835832 0.1558214989
430297420.0 -0.1026302673 0.1406225091 0.3467325127 -0.4387553994 0.3467050191 -0.4385499573 -0.0903555778 0.1566811223
435297390.0 -0.1011377202 0.1417072161 0.3419461423 -0.4421988455 0.3419359505 -0.4420134072 -0.0883504756 0.1582739859
440297360.0 -0.0996942572 0.1424632754 0.33651434 -0.4454651092 0.3365350876 -0.4458842968 -0.0868525975 0.1588673701
445297330.0 -0.0983287321 0.1434998019 0.3316070515 -0.4500553366 0.331950741 -0.4496950219 -0.085117326 0.1603641977
450297300.0 -0.0969439221 0.1444808652 0.3267287178 -0.45301922 0.327329381 -0.4535327157 -0.0835598969 0.1615200656
455297270.0 -0.0957995238 0.1457552177 0.3221903499 -0.4567477135 0.3225412181 -0.4567087638 -0.0814770468 0.1626756069
460297240.0 -0.0945482372 0.1469098553 0.3168579526 -0.4600241452 0.3167411699 -0.4605825867 -0.0798348317 0.1641447508
465297210.0 -0.0925475444 0.1479647459 0.3120964604 -0.4636751243 0.3126125124 -0.4634900555 -0.0783038961 0.1646882688
470297180.0 -0.0916709991 0.1488044572 0.3069434354 -0.46688399 0.3071317485 -0.4670279906 -0.0770098089 0.1660398026
475297150.0 -0.0898869574 0.1495543658 0.3014486817 -0.4701026475 0.3019475156 -0.4697518556 -0.0746299654 0.1669516305
480297120.0 -0.0884430398 0.1502498866 0.2966554736 -0.4730453087 0.2970933071 -0.4732055166 -0.0729207371 0.1681952208
485297090.0 -0.0869588727 0.1514813172 0.291448703 -0.4764859144 0.2917562769 -0.4767300016 -0.0712031039 0.1689359874
490297060.0 -0.0855387517 0.1524639614 0.2863445351 -0.4799133471 0.2862079003 -0.4797492643 -0.0691827198 0.170207706
495297030.0 -0.0842270024 0.1536029529 0.2809618545 -0.482589637 0.2808471414 -0.4831294858 -0.0674169663 0.1708984917
500297000.0 -0.0823750826 0.1541923982 0.2753311291 -0.4857641908 0.2758099394 -0.4853846896 -0.0657855525 0.1717463133
505296970.0 -0.0810673208 0.1552433626 0.2702612747 -0.4885350246 0.2702830097 -0.488552911 -0.0643339324 0.1727409769
510296940.0 -0.0797356353 0.1563551744 0.2651809363 -0.4920298901 0.2650321048 -0.4917620332 -0.06180844 0.1739892401
515296910.0 -0.0781461514 0.1575419509 0.2594595174 -0.4942387035 0.2596462424 -0.4941754586 -0.0602448601 0.1748266711
520296880.0 -0.0764627044 0.1580513844 0.2542005112 -0.4972211292 0.2541343524 -0.4970767171 -0.0582162936 0.1756762365
525296850.0 -0.0751505122 0.158767875 0.2488129676 -0.499847422 0.2490607017 -0.5001801233 -0.0562687025 0.1763616684
530296820.0 -0.0733513195 0.1595255377 0.2437183206 -0.5020274667 0.2430734884 -0.5022671339 -0.0549570721 0.1767228133
535296790.0 -0.0718401037 0.1604761021 0.2374432095 -0.5045465377 0.2380094257 -0.5048616532 -0.0528826743 0.1775398709
540296760.0 -0.0704938827 0.1612667075 0.2318954364 -0.5079812065 0.2322642642 -0.5078377281 -0.0512755779 0.1789568879
545296730.0 -0.068967686 0.1622800858 0.2267269333 -0.509832961 0.2268454022 -0.5102046888 -0.049186981 0.1792097291
550296700.0 -0.0675760855 0.163036592 0.2212660213 -0.5124990156 0.2221037505 -0.512578602 -0.0471233873 0.1802953202
555296670.0 -0.0656034894 0.1636480339 0.2157820296 -0.5147141362 0.2161471133 -0.5152168903 -0.0451395308 0.1806907307
560296640.0 -0.0642443898 0.1643348314 0.2105496674 -0.5170149598 0.2105791038 -0.5169825074 -0.0433397396 0.1814997308
565296610.0 -0.0630143213 0.1651973194 0.2046568143 -0.5190895773 0.2045751166 -0.5195026693 -0.0414440696 0.1819731309
570296580.0 -0.0607244529 0.1658591586 0.1987625437 -0.521255128 0.1990555196 -0.5217391985 -0.0392950574 0.1829010312
575296550.0 -0.0592466924 0.1669229562 0.193297706 -0.5231159239 0.1935951725 -0.5232895659 -0.0373687047 0.1833891621
580296520.0 -0.0578768291 0.1672772074 0.1879209304 -0.5256989914 0.1878052048 -0.5255802696 -0.0355295124 0.1840645754
585296490.0 -0.0562187581 0.167865026 0.182432445 -0.5273630634 0.1818668197 -0.5275523824 -0.0337077725 0.1842118874
590296460.0 -0.0547232464 0.1684883842 0.1762023139 -0.5292517197 0.1759291445 -0.5294638422 -0.0312026766 0.1850775378
595296430.0 -0.0527946696 0.1695360679 0.1707837684 -0.5314551886 0.1703487711 -0.5313358267 -0.0293483909 0.1851151236
600296400.0 -0.0513873197 0.1700553205 0.1647868678 -0.5331437268 0.1650038212 -0.5332141424 -0.0274658639 0.1858445046
605296370.0 -0.0495914184 0.1708123653 0.1589622168 -0.5350317352 0.1588408989 -0.5346495393 -0.0253146112 0.1860241207
610296340.0 -0.0480215551 0.1714530831 0.1536123541 -0.5364932958 0.1535353906 -0.5365770809 -0.0234938111 0.186983355
615296310.0 -0.0462456013 0.172106499 0.1472774761 -0.5377992156 0.1473536062 -0.5379916667 -0.0214535435 0.1873208676
620296280.0 -0.0447230877 0.1723160826 0.1417222012 -0.5394198463 0.1415164966 -0.5394910963 -0.0196422526 0.1874715564
625296250.0 -0.0428350903 0.1729379732 0.135096561 -0.5410608037 0.135638526 -0.5415158337 -0.0172298612 0.1880348884
630296220.0 -0.0410881134 0.1740646981 0.1295986935 -0.5425601533 0.1303104714 -0.542489057 -0.0158555654 0.1883827912
635296190.0 -0.0395347991 0.1742124617 0.1238659163 -0.543630905 0.1235345923 -0.5431456594 -0.0133020437 0.1883865289
640296160.0 -0.0377929293 0.1746820087 0.1181975313 -0.5452176729 0.1182847001 -0.5449778167 -0.0110965284 0.1887239316
645296130.0 -0.0362190514 0.1752455894 0.1118869032 -0.5464523557 0.11199669 -0.5460450731 -0.0095335973 0.188764462
650296100.0 -0.0343218805 0.1761107553 0.10647875 -0.5472393851 0.1064607929 -0.5471940109 -0.0072562228 0.189077686
655296070.0 -0.0326851004 0.1761561688 0.1001946746 -0.5483832121 0.1000228644 -0.5484572884 -0.0046296325 0.1898041434
660296040.0 -0.0316885717 0.1769162326 0.0943864143 -0.5492585442 0.0944668746 -0.5491627115 -0.0032965311 0.1894994187
665296010.0 -0.0293938919 0.1771208337 0.0887700335 -0.5504250198 0.0890053898 -0.5505929965 -0.0013317211 0.1901923546
670295980.0 -0.0271878798 0.1778088502 0.0825396181 -0.5512866517 0.0829488732 -0.5511948026 0.0006478876 0.1900995257
675295950.0 -0.025806272 0.1779057718 0.0766686078 -0.5519779886 0.0770852205 -0.5526022132 0.0032110228 0.1902450073
680295920.0 -0.0241051676 0.1788362777 0.0706886868 -0.5529677826 0.0704630886 -0.552978385 0.0052665653 0.1902834756
685295890.0 -0.0222804838 0.1789587061 0.0646892896 -0.5536589881 0.0642711501 -0.5540204158 0.0070700313 0.1904641815
690295860.0 -0.020386439 0.179272603 0.0588888866 -0.5538377331 0.0582271048 -0.5542716736 0.009630639 0.1905976199
695295830.0 -0.0185310776 0.1794079406 0.0521567017 -0.5547024157 0.0523984165 -0.5553285741 0.0110473676 0.1908903993
700295800.0 -0.0166103855 0.1800032017 0.0462990816 -0.5553358707 0.0464181177 -0.5556536144 0.0133877621 0.1902471873
705295770.0 -0.0149370977 0.1803005894 0.0405246065 -0.5557718393 0.0408889062 -0.5562378297 0.0153649368 0.1906868724
710295740.0 -0.0134742894 0.18072629 0.0345520357 -0.5560359248 0.0346593122 -0.5558914077 0.017147324 0.1905035506
715295710.0 -0.0116882988 0.1811491943 0.0286285473 -0.5565226425 0.0287614718 -0.5565667471 0.0193695974 0.190194235
720295680.0 -0.0100016836 0.1808515358 0.0222704581 -0.556323096 0.0225594111 -0.5568692282 0.021729854 0.1904515339
725295650.0 -0.007732804 0.1813405445 0.015882547 -0.5562111841 0.0165283313 -0.5566644428 0.0236563956 0.1903203526
730295620.0 -0.0066475066 0.1814984813 0.0104199777 -0.5570616292 0.0101600066 -0.5572035503 0.0257321169 0.1899826018
735295590.0 -0.0042290483 0.1818966282 0.0047975118 -0.5569779823 0.0046223508 -0.5571454933 0.028113389 0.1903869484
740295560.0 -0.002716012 0.1821932217 -0.0016303156 -0.5567979299 -0.0014784957 -0.5569556401 0.0300588248 0.1895224998
745295530.0 -0.0007371934 0.1819189268 -0.0074097271 -0.5563236078 -0.007424773 -0.5571101014 0.031798965 0.1898941773
750295500.0 0.0009012529 0.1820584146 -0.0135138877 -0.5562913021 -0.0135567206 -0.5564090229 0.0341758977 0.1890491607
755295470.0 0.0029810354 0.182466205 -0.019390525 -0.556353503 -0.0188464008 -0.5566365853 0.035729505 0.1891441907
760295440.0 0.004663219 0.1826365701 -0.0257974597 -0.5563461855 -0.0252683322 -0.5560647665 0.0378691199 0.1888336881
765295410.0 0.0061181907 0.182667719 -0.0306753019 -0.5556471812 -0.0310178886 -0.556147076 0.0406425553 0.1890238089
770295380.0 0.0081138947 0.1829990994 -0.037274987 -0.5550602313 -0.037595695 -0.5556361887 0.042635852 0.1885728358
775295350.0 0.0099298739 0.1829552312 -0.0432289625 -0.5550017746 -0.0431214395 -0.5550243815 0.0441380037 0.1875962324
780295320.0 0.0119639896 0.1828501996 -0.0491518149 -0.5544501731 -0.0490924752 -0.5548554934 0.0462878177 0.187719952
785295290.0 0.0134237527 0.1833246882 -0.0551865578 -0.5534343898 -0.0550236002 -0.5542042732 0.0479094555 0.1874993487
790295260.0 0.0153086608 0.1830057673 -0.0609231706 -0.5529685388 -0.0612685587 -0.5534889064 0.0505740703 0.1869398687
795295230.0 0.0170403867 0.1835612517 -0.0667979719 -0.552319111 -0.0668464249 -0.5527764804 0.0523407231 0.1870478768
800295200.0 0.0190785858 0.1833780507 -0.0730135956 -0.5517350924 -0.0735691565 -0.5521879627 0.054803728 0.1863192593
805295170.0 0.020439175 0.1832080479 -0.0787489403 -0.5505292308 -0.0787819303 -0.5508284944 0.0563329465 0.1855879472
810295140.0 0.0224320239 0.1829026888 -0.0848330109 -0.5500846782 -0.0847083476 -0.5501835545 0.0586910218 0.1856773492
815295110.0 0.0244158148 0.1828635058 -0.0910358417 -0.5484743278 -0.0908552857 -0.549040211 0.0604872481 0.1844177459
820295080.0 0.026232701 0.1824645363 -0.0965218353 -0.5478931342 -0.0968022478 -0.5479913175 0.0624753631 0.1842572853
825295050.0 0.0279618459 0.1826211119 -0.1023039994 -0.5461969638 -0.1025963828 -0.5468315215 0.064641978 0.1841799741
830295020.0 0.0297533385 0.182900694 -0.1083986951 -0.5453663644 -0.1087599554 -0.5456293856 0.0663368393 0.183056915
