!Created with skrf (http://scikit-rf.org).
# Hz S RI R 50.0 
!freq ReS11 ImS11 ReS21 ImS21 ReS12 ImS12 ReS22 ImS22
300000.0 -0.2440770258 -0.0850959095 0.4737342383 0.0538556817 0.47110838 0.052943697 -0.2409138583 -0.0882236732
5299970.0 -0.2450625771 0.0067283139 0.4748025305 0.0050011933 0.4749343069 0.0048097008 -0.2414664524 0.0076134973
10299940.0 -0.241770863 0.0179369723 0.4767754801 0.0061240945 0.4769826907 0.0061781544 -0.2380551993 0.0205663901
15299910.0 -0.237525414 0.0268993662 0.4802849318 0.0070555188 0.4805314376 0.0073121485 -0.2333381654 0.0301129542
20299880.0 -0.2329097981 0.0339612311 0.4848800549 0.0084778953 0.4850669447 0.0079586517 -0.2283055301 0.0378361438
25299850.0 -0.2279061805 0.0404332173 0.4905502017 0.0071782514 0.4902503498 0.0073678544 -0.2223207612 0.0445688732
30299820.0 -0.2223904425 0.0449359678 0.495832847 0.0049496112 0.4954873722 0.0050990881 -0.2163308814 0.0498070448
35299790.0 -0.217526419 0.0491797992 0.5008785102 0.0013038577 0.5008264373 0.001498967 -0.2107436559 0.054458794
40299760.0 -0.2125309318 0.0526421839 0.5054253244 -0.0025311906 0.5059054033 -0.0025443356 -0.2053645079 0.0573080417
45299730.0 -0.2078770119 0.0548037524 0.5103443127 -0.0070225258 0.5108870294 -0.007150904 -0.2004831508 0.0603854542
50299700.0 -0.2037554267 0.0570169917 0.5151347601 -0.0127074837 0.5149554066 -0.0124923466 -0.195651071 0.0621273819
55299670.0 -0.1997803556 0.0582027768 0.5187981734 -0.01914337 0.5185473265 -0.0185538149 -0.1917155817 0.0640299836
60299640.0 -0.195810774 0.0599329684 0.5214683097 -0.0249346211 0.5220360497 -0.0245978218 -0.1874853307 0.0653097511
65299610.0 -0.1929664663 0.0607744999 0.5245375665 -0.0311524006 0.5246997531 -0.0310849782 -0.1836561656 0.0666337925
70299580.0 -0.1896565827 0.0620256841 0.5271582176 -0.0381375032 0.5271776028 -0.0373956589 -0.1806725102 0.06742185
75299550.0 -0.1867839952 0.0626658299 0.528418047 -0.0443126828 0.52917217 -0.044439592 -0.1777554486 0.0680828041
80299520.0 -0.1848389279 0.0637617198 0.5309071273 -0.0514961159 0.5310815251 -0.0513388029 -0.1750069336 0.0689373352
85299490.0 -0.1820070258 0.0640293528 0.532098451 -0.0577797095 0.5322405993 -0.0578329179 -0.1724380316 0.0696449383
90299460.0 -0.1803554036 0.0647161013 0.5328566174 -0.0649594591 0.5330040475 -0.06535697 -0.1700878285 0.0703834307
95299430.0 -0.1781831803 0.0652854315 0.534168257 -0.0724253059 0.534249534 -0.0722989773 -0.1680082227 0.0713829432
100299400.0 -0.1766007394 0.0664011876 0.534222283 -0.079092881 0.5342940219 -0.078982204 -0.1659551701 0.0715637916
105299370.0 -0.1747023116 0.066836418 0.5345571959 -0.0858783138 0.5350032689 -0.0857398224 -0.1637133865 0.0725780555
110299340.0 -0.173293962 0.0674229247 0.5346859852 -0.092561416 0.5347396134 -0.0922029949 -0.1627901005 0.0731907945
115299310.0 -0.1718715465 0.0680829951 0.5344851498 -0.0994327735 0.5345787768 -0.0994248125 -0.1609768696 0.0739154449
120299280.0 -0.1707829701 0.0685072988 0.5348929953 -0.1063052996 0.5346742465 -0.1063395447 -0.1594571576 0.0747262551
125299250.0 -0.169578349 0.0691607823 0.534114205 -0.1126104224 0.5344739781 -0.1126455771 -0.1585078686 0.0752501257
130299220.0 -0.1687203133 0.0701579065 0.53381194 -0.1200671623 0.5337403832 -0.1197457257 -0.1572169306 0.0758585601
135299190.0 -0.1675998727 0.0710956546 0.5331139804 -0.1263392826 0.5328297932 -0.1259252195 -0.1557097229 0.0771848117
140299160.0 -0.1668636699 0.0718970017 0.5324717606 -0.1330724751 0.5324794212 -0.1328542123 -0.1546941244 0.0782988927
145299130.0 -0.1653819555 0.0728602032 0.5313912081 -0.1393799665 0.53100838 -0.1390652764 -0.1538046671 0.0791512413
150299100.0 -0.1643372929 0.0736294405 0.5297738889 -0.1456859166 0.5301281124 -0.1455417271 -0.1527747296 0.0804677228
155299070.0 -0.163963895 0.0745421581 0.52919315 -0.1529246229 0.5286100217 -0.152456531 -0.1514558352 0.0814659874
160299040.0 -0.162850046 0.0757479881 0.5276421893 -0.1589251456 0.5274106757 -0.1589837916 -0.151192523 0.0824772395
165299010.0 -0.1624381734 0.0769998825 0.5262531105 -0.165917662 0.5262088368 -0.1654832659 -0.1495317259 0.0836680081
170298980.0 -0.1615877458 0.0775948369 0.5245034136 -0.1716788791 0.5250513717 -0.1716860482 -0.1488905005 0.0848497017
175298950.0 -0.1609086981 0.079027256 0.523204827 -0.1779079131 0.5223172254 -0.1779563543 -0.1479630258 0.0859650024
180298920.0 -0.1600546133 0.0802026146 0.5208764175 -0.1845528664 0.5206687574 -0.1838471986 -0.147033301 0.0874010355
185298890.0 -0.1588045368 0.0810337664 0.5194271826 -0.1903642268 0.519335985 -0.1905249206 -0.1459003057 0.0887465827
190298860.0 -0.1584916712 0.0822136567 0.5175295229 -0.1966861518 0.5176766458 -0.1964115414 -0.1451326743 0.0898764847
195298830.0 -0.1576633108 0.0835812409 0.515105491 -0.2029554261 0.5155674325 -0.2027219859 -0.1441092883 0.0909510928
200298800.0 -0.1569293379 0.0847681288 0.5131330487 -0.2090676325 0.51336579 -0.2092367315 -0.1432362759 0.0922628965
205298770.0 -0.1561147643 0.0858745248 0.5106955533 -0.2150835161 0.5107852238 -0.214669023 -0.1422781919 0.0926718536
210298740.0 -0.1555959444 0.0869821499 0.5088633877 -0.2203506251 0.5088223447 -0.2206135169 -0.1411503709 0.0950493494
215298710.0 -0.1551143504 0.088374546 0.506724423 -0.2272801398 0.506388046 -0.2268591757 -0.1405248047 0.096114215
220298680.0 -0.1539373972 0.0890694464 0.5035893405 -0.232467403 0.504211677 -0.2325017528 -0.1396283882 0.0972224787
225298650.0 -0.1535045125 0.0905437921 0.5019055122 -0.2383868466 0.5019414385 -0.2385764372 -0.1388265554 0.0983631865
230298620.0 -0.1524477818 0.0920249269 0.4992460591 -0.2439753099 0.4995343586 -0.2442911118 -0.1378365728 0.0998199709
235298590.0 -0.1515718439 0.0934564202 0.4964457593 -0.250094692 0.4966374887 -0.2497079257 -0.1367416157 0.1011040785
240298560.0 -0.1510134594 0.0949802999 0.4936509054 -0.2560796856 0.4937843261 -0.2559156937 -0.1358560414 0.1030197204
245298530.0 -0.1501113445 0.0963767586 0.4911736865 -0.2615716846 0.4910987681 -0.261702545 -0.1347478475 0.1039069091
250298500.0 -0.1491212378 0.0975189201 0.4876510887 -0.2671043816 0.4875596373 -0.2667761929 -0.1337909826 0.1052891603
255298470.0 -0.1485582925 0.0985065754 0.4849169807 -0.2722794851 0.4851934578 -0.2723604183 -0.1326631885 0.1068370315
260298440.0 -0.1480140509 0.0999166626 0.48216541 -0.2782440123 0.4826711813 -0.2782406604 -0.131271837 0.1080415348
265298410.0 -0.1468454565 0.1016151675 0.4790350643 -0.2840290385 0.4797071661 -0.283347573 -0.130331585 0.109872746
270298380.0 -0.1460281909 0.1027905505 0.4762380362 -0.2888931034 0.476455073 -0.289015 -0.1293382915 0.1111201669
275298350.0 -0.1448739538 0.1040429232 0.4727673105 -0.2945873808 0.4734169686 -0.2943077215 -0.128078772 0.1124616434
280298320.0 -0.1439867535 0.1057981834 0.4701055341 -0.299864898 0.4699815953 -0.2997297568 -0.1268629319 0.1138793633
285298290.0 -0.142906703 0.1072154803 0.4665971736 -0.3053552891 0.4666234401 -0.3051173358 -0.1253026105 0.1151095171
290298260.0 -0.1421256092 0.1084517427 0.4635644217 -0.3100899962 0.4634737293 -0.310647866 -0.1244579903 0.1167648206
295298230.0 -0.1409081302 0.1094269063 0.4598571572 -0.3157059607 0.459951303 -0.3159573624 -0.1227761499 0.117957837
300298200.0 -0.1403694256 0.1107587714 0.4565785061 -0.3204300115 0.457074646 -0.3210033751 -0.1219824099 0.119403416
305298170.0 -0.1389980508 0.112005536 0.4527614011 -0.3266829488 0.4528499121 -0.3263617931 -0.1201591942 0.1203704781
310298140.0 -0.1382059952 0.1136663703 0.4493503953 -0.3316528553 0.4498859137 -0.3314505301 -0.119056539 0.12169263
315298110.0 -0.1371145212 0.1146424938 0.4458935958 -0.336469139 0.4460939911 -0.3364331252 -0.1179622599 0.1230082418
320298080.0 -0.1358870946 0.1161141118 0.4415647952 -0.3420806535 0.4421822763 -0.3417515157 -0.1167462722 0.1244765209
325298050.0 -0.1351973041 0.1171407599 0.4382889698 -0.3470551871 0.4381854975 -0.3466340669 -0.1159147281 0.1255045128
330298020.0 -0.1342886507 0.1182275318 0.4342068513 -0.3518458297 0.4344964273 -0.3521070739 -0.1143821755 0.1269406725
335297990.0 -0.133251811 0.1195060537 0.4304385576 -0.3565490498 0.4302491938 -0.35645271 -0.1139283014 0.128745995
340297960.0 -0.1329111296 0.1211583809 0.4262732673 -0.3613447141 0.4258839483 -0.3616956704 -0.1118012696 0.1297983938
345297930.0 -0.131398138 0.1226631656 0.4220545287 -0.3663848146 0.4216890155 -0.3662753327 -0.1108514721 0.1308842697
350297900.0 -0.1305158003 0.1236626338 0.4176522996 -0.3708940354 0.4179110688 -0.3705992079 -0.1102222532 0.1328819458
355297870.0 -0.1291929427 0.1259601142 0.4133413388 -0.3755068669 0.4142864473 -0.3752595729 -0.1085522203 0.1339733072
360297840.0 -0.1280925661 0.1268306544 0.4099321175 -0.3798430159 0.4099287018 -0.379658251 -0.1072135985 0.1352907767
365297810.0 -0.1272299621 0.1283954085 0.405738913 -0.3846869494 0.405650474 -0.3844424609 -0.1056665226 0.1366029364
370297780.0 -0.1258051702 0.1293440805 0.4008133026 -0.3885634384 0.4016369261 -0.3883092252 -0.1041968243 0.1380762781
375297750.0 -0.1243247673 0.1307346478 0.3969346313 -0.3933077505 0.3971843604 -0.3930734871 -0.102606374 0.138866795
380297720.0 -0.1231746471 0.1322045434 0.3920965373 -0.3974357761 0.3923813947 -0.3969484412 -0.1016274613 0.1401485449
385297690.0 -0.1224801097 0.133185594 0.3879436881 -0.4012604122 0.3880112842 -0.401531344 -0.099655401 0.1418740926
390297660.0 -0.1209895904 0.1350412928 0.3833747793 -0.4063245563 0.3839651027 -0.405563391 -0.0988719522 0.1428751179
395297630.0 -0.1197589943 0.1360925513 0.3790175496 -0.4099259791 0.3794708486 -0.4102677263 -0.0962901695 0.1442273265
400297600.0 -0.1185326104 0.1374444722 0.3739562278 -0.414872005 0.3747727228 -0.4146062036 -0.095061342 0.1455384048
405297570.0 -0.117452525 0.1386524442 0.3700663925 -0.4178935228 0.3704786618 -0.4180934803 -0.0938393461 0.1467087505
410297540.0 -0.1160835236 0.1399054539 0.3655180273 -0.422285811 0.3663640052 -0.4224808764 -0.0921594708 0.1481891685
415297510.0 -0.1145232606 0.1411071277 0.3608803747 -0.426569138 0.3611990741 -0.4267514061 -0.0904281848 0.1492528942
420297480.0 -0.1133481722 0.1427292553 0.3559578937 -0.4305363123 0.356146158 -0.4304710504 -0.0890072976 0.1499390465
425297450.0 -0.1120579419 0.1434583275 0.3516951724 -0.4340122113 0.352106448 -0.434066453 -0.0875589132 0.1516537028
430297420.0 -0.1107397747 0.1448069041 0.3462808587 -0.4376051736 0.3467975356 -0.4378100989 -0.0860084788 0.1524449491
435297390.0 -0.1096179272 0.1462736773 0.3415825063 -0.4411906511 0.3415208307 -0.4417088512 -0.0837062547 0.1537278843
440297360.0 -0.1080774019 0.1475448105 0.3372246527 -0.4455179379 0.3372850237 -0.4455461651 -0.0822300308 0.154424572
445297330.0 -0.1066168558 0.1482649923 0.3322557185 -0.4490356631 0.33251192 -0.4481705745 -0.0804659198 0.1550672822
450297300.0 -0.1052339817 0.1494325177 0.3271414197 -0.4525605395 0.3274265954 -0.4524794486 -0.0789251486 0.1564119436
455297270.0 -0.1037631659 0.1505823605 0.3220891157 -0.4562800268 0.3225068354 -0.4564691945 -0.0773283406 0.1575208488
460297240.0 -0.1025895732 0.1516492149 0.3175159024 -0.4593251849 0.317469557 -0.4594768109 -0.0752063167 0.1584631808
465297210.0 -0.1007632203 0.1530953878 0.3127601115 -0.4630557218 0.3122795887 -0.4635711851 -0.0734032288 0.1595932496
470297180.0 -0.0990830391 0.1539915655 0.3068860202 -0.4660583983 0.3072108952 -0.4667390929 -0.0718892244 0.1607743434
475297150.0 -0.0976883936 0.1547251754 0.3021123354 -0.4693730991 0.3024218377 -0.4695435097 -0.0697603786 0.161345797
480297120.0 -0.0964046538 0.15654138 0.2969154047 -0.4735843306 0.2966604762 -0.4733931372 -0.0682275607 0.1625303718
485297090.0 -0.0951706445 0.1572871587 0.2921761577 -0.4758612555 0.2918886831 -0.4758498299 -0.0666258384 0.1631374098
490297060.0 -0.093785395 0.158591156 0.2867884342 -0.4796549406 0.2867573176 -0.4789621351 -0.0643610293 0.1643719251
495297030.0 -0.0919739368 0.1594728136 0.2808234791 -0.4823648928 0.2819335489 -0.482212219 -0.0631994432 0.1650286739
500297000.0 -0.0904628497 0.1604142518 0.2757720279 -0.4851243988 0.2759585222 -0.4851967512 -0.0609473821 0.1664224831
505296970.0 -0.0889179559 0.1614971754 0.2706807464 -0.4881036936 0.2704934061 -0.488375011 -0.0595055368 0.1668775701
510296940.0 -0.0871197553 0.1624387649 0.2649278489 -0.491185134 0.265072361 -0.4912397021 -0.0572301443 0.1679879065
515296910.0 -0.0856841786 0.1634222549 0.2595492273 -0.4942316611 0.260005204 -0.494242317 -0.0554295884 0.1683730094
520296880.0 -0.0841565771 0.1644294909 0.2548935883 -0.4974332769 0.2544630059 -0.4966665145 -0.0536972927 0.1688930564
525296850.0 -0.0825074371 0.165008796 0.2489977033 -0.4994017466 0.2495526574 -0.4994211682 -0.0519522995 0.1701827252
530296820.0 -0.080718118 0.1664009281 0.2433954205 -0.5026312813 0.2437940041 -0.5021201045 -0.0502001439 0.1709680902
535296790.0 -0.0797040047 0.1670736755 0.2388032641 -0.5048265501 0.2382971546 -0.5042699722 -0.048242727 0.1711186702
540296760.0 -0.0778169529 0.1680514284 0.2323540093 -0.5076566672 0.2331434681 -0.5075717416 -0.0464867382 0.172375266
545296730.0 -0.0764099794 0.1690542338 0.226941982 -0.5098683754 0.2276130208 -0.5098433442 -0.0447935034 0.1727225864
550296700.0 -0.0741924628 0.1699701325 0.2212442081 -0.5122485397 0.2219106962 -0.5121818736 -0.0426461086 0.1733948467
555296670.0 -0.0730646097 0.1708219342 0.2162601541 -0.5146555327 0.2164094223 -0.5142099557 -0.0407110633 0.1741816465
560296640.0 -0.0710084577 0.1716343009 0.2101067828 -0.5170550601 0.2105749995 -0.5167105449 -0.0386864218 0.1742068596
565296610.0 -0.0698797928 0.1722136469 0.2045926898 -0.5189960212 0.2051307354 -0.519140495 -0.0368953805 0.1747580223
570296580.0 -0.0682956003 0.1731957436 0.1993828241 -0.5217246792 0.1986470373 -0.5212016444 -0.0350761217 0.1760863619
575296550.0 -0.0668175472 0.1741607558 0.1936161063 -0.5238557896 0.193517495 -0.5234760595 -0.0326844472 0.1761873009
580296520.0 -0.0646833145 0.1750262373 0.1876453198 -0.5255293803 0.1879733739 -0.5255606564 -0.0308621516 0.1766482032
585296490.0 -0.062951706 0.175225032 0.1821201595 -0.5270646995 0.1824093522 -0.5277426636 -0.0289128244 0.1773738278
590296460.0 -0.0612663251 0.1763310038 0.1766107794 -0.5287905526 0.1763595839 -0.5290473098 -0.027576978 0.1778137945
595296430.0 -0.0593819125 0.1771706415 0.1704574789 -0.5310480945 0.1705374921 -0.5310837828 -0.025142081 0.1780321239
600296400.0 -0.0580817914 0.1778404521 0.164818507 -0.5328607785 0.1652934123 -0.5328366258 -0.0234095229 0.1783492619
605296370.0 -0.0563061127 0.1784371867 0.1590242603 -0.5346239647 0.1595818087 -0.5347505269 -0.0211012526 0.1790300585
610296340.0 -0.0544985117 0.1789781446 0.1529980833 -0.536156573 0.1534548579 -0.5362839829 -0.0187733292 0.1795546667
615296310.0 -0.0524041212 0.1794666454 0.1473178137 -0.5375566731 0.1473500308 -0.5383784906 -0.0169190289 0.1798000578
620296280.0 -0.0511124681 0.1800049497 0.1419377958 -0.5391839702 0.1418897168 -0.5391483284 -0.0153073292 0.1802452513
625296250.0 -0.0493697172 0.1807720173 0.13644761 -0.5410775042 0.1356892558 -0.5411185986 -0.0125609924 0.1803277399
630296220.0 -0.0467935541 0.1813960834 0.1293847975 -0.5422944043 0.1296294661 -0.5423479596 -0.0108876937 0.1810583606
635296190.0 -0.045833937 0.1820472473 0.124154419 -0.5434419763 0.1243110752 -0.5439192406 -0.0085287908 0.1811201682
640296160.0 -0.0441257265 0.1828445351 0.1185877456 -0.5446009981 0.118483408 -0.5450221706 -0.0066924897 0.1813777406
645296130.0 -0.0422280383 0.1834312654 0.1120636461 -0.5456542245 0.1127257844 -0.5464022217 -0.0049529361 0.1816091931
650296100.0 -0.0402919717 0.1841273243 0.1062590761 -0.5470831253 0.1064636208 -0.5475470695 -0.0023468156 0.1815157428
655296070.0 -0.0386363694 0.1844968338 0.1002819269 -0.5482698085 0.1008207184 -0.5481006513 -0.0007270946 0.1817383713
660296040.0 -0.037045803 0.1843349815 0.0947921601 -0.5495656727 0.0947475865 -0.549365012 0.0014684117 0.1821122546
665296010.0 -0.0348156609 0.1851085218 0.0882883703 -0.5501161761 0.0889359075 -0.5502958068 0.0037063984 0.1826977365
670295980.0 -0.0339757614 0.1857842711 0.0829888505 -0.5509734488 0.0827488271 -0.5509680805 0.0048813984 0.182263689
675295950.0 -0.0316812537 0.1865179512 0.0769923845 -0.5516730049 0.0769785551 -0.5514250445 0.0068071448 0.1825686104
680295920.0 -0.0300383896 0.1868160077 0.0705409631 -0.5527004689 0.0703801223 -0.5530237936 0.0092040406 0.1830635713
685295890.0 -0.0279205227 0.1874428456 0.0645154248 -0.5536271211 0.064790717 -0.5535929182 0.0113145988 0.1828357504
690295860.0 -0.025729822 0.1878074307 0.0590031835 -0.553831555 0.0590450036 -0.5545685567 0.0133072748 0.1834724535
695295830.0 -0.0244647786 0.1877919536 0.0534431991 -0.5544758423 0.0524560843 -0.5546740641 0.015243296 0.1831967554
700295800.0 -0.02258416 0.1880414648 0.0467082562 -0.5548475552 0.0466586539 -0.5548103377 0.0172828088 0.183458602
705295770.0 -0.0209264751 0.1889926076 0.0407451771 -0.5553764023 0.0412704986 -0.5555032714 0.0193212775 0.1832900158
710295740.0 -0.0187182951 0.1892439838 0.0351510142 -0.5566183991 0.0354900257 -0.5562317627 0.0207874478 0.1824152015
715295710.0 -0.0174934027 0.1894722958 0.0294199347 -0.5561909342 0.0288814244 -0.5562257881 0.0232940708 0.1827427942
720295680.0 -0.0154517433 0.1897689434 0.0230084539 -0.5566715654 0.0232468532 -0.556273637 0.0253103574 0.1828773063
725295650.0 -0.0131219067 0.1898020001 0.0167995044 -0.556580687 0.0170747406 -0.5570128085 0.0269692787 0.1829152439
730295620.0 -0.0112244468 0.1904916989 0.01054198 -0.5566265608 0.0111587134 -0.5567299434 0.0290860435 0.1822256875
735295590.0 -0.0098243591 0.190654652 0.0052504663 -0.5570885342 0.0049035885 -0.5568511811 0.0312564175 0.1817923219
740295560.0 -0.0081309647 0.1911448658 -0.0013044603 -0.5570983044 -0.0010968454 -0.5567161497 0.0336965489 0.181955281
745295530.0 -0.0062660512 0.1911378657 -0.0073954126 -0.5561771717 -0.0072917829 -0.5570709353 0.0354106871 0.1816384351
750295500.0 -0.0042837511 0.1913936266 -0.01283096 -0.5560732953 -0.0128279771 -0.5571126313 0.0373426756 0.1817562293
755295470.0 -0.0022471354 0.1911639354 -0.0186690898 -0.5563103717 -0.0189062729 -0.5563612343 0.0398549764 0.1809389504
760295440.0 -0.0006000474 0.1917865164 -0.0248491811 -0.5566264921 -0.0251224992 -0.5564445167 0.0415537238 0.1807128097
765295410.0 0.0011145182 0.1916153003 -0.0309881177 -0.5561136012 -0.0311405725 -0.5558721167 0.0437754627 0.180532815
770295380.0 0.0032016569 0.1918660712 -0.0373136007 -0.5555046841 -0.0371862494 -0.5552847147 0.0454063341 0.1801468764
775295350.0 0.0047997462 0.1915701815 -0.0432641361 -0.5547319612 -0.0427143331 -0.5550285569 0.0469382338 0.1801346988
780295320.0 0.0069017678 0.1921084565 -0.0493105536 -0.554337227 -0.0482265716 -0.5544513629 0.0493141187 0.1790742143
785295290.0 0.0083829362 0.1917371503 -0.0553708724 -0.5533278325 -0.0548721387 -0.5535157789 0.0516910642 0.1788556028
790295260.0 0.0110163749 0.192383631 -0.0606971204 -0.5530846353 -0.0600168751 -0.5529221812 0.0534103881 0.1789419196
795295230.0 0.0127593713 0.1919922963 -0.0670253929 -0.5520982667 -0.0660757665 -0.5525039307 0.0557214838 0.1785150419
800295200.0 0.0142492575 0.1923149168 -0.0732095568 -0.5513136793 -0.0725457266 -0.5513744176 0.0575376912 0.177979456
805295170.0 0.016163134 0.1919286573 -0.0786826978 -0.550638959 -0.078561254 -0.5511853714 0.0594149208 0.1776340919
810295140.0 0.0179650671 0.1917868178 -0.0842377262 -0.5494825138 -0.0845274733 -0.5499837013 0.0618975254 0.1771239596
815295110.0 0.0197821072 0.1916257129 -0.0901520772 -0.5486708701 -0.090163393 -0.5488850613 0.0633679119 0.1767333298
820295080.0 0.0215196684 0.1922516792 -0.0962466618 -0.5476403619 -0.0957202145 -0.5480883828 0.0657334296 0.1760466364
825295050.0 0.0239648958 0.1918060527 -0.1018200638 -0.546362032 -0.1020554409 -0.5467917782 0.0676083259 0.1757209499
830295020.0 0.0255028958 0.1918290183 -0.1084057995 -0.5453158245 -0.1077790887 -0.5455634589 0.0699678898 0.1750070237
