!Created with skrf (http://scikit-rf.org).
# Hz S RI R 50.0 
!freq ReS11 ImS11 ReS21 ImS21 ReS12 ImS12 ReS22 ImS22
300000.0 0.8590492761 -0.0026329206 -0.0010777832 0.000168601 9.45388e-05 0.0006364628 -0.7785586606 -0.1387816917
5299970.0 0.8590839466 -0.0100627302 9.17597e-05 -4.42365e-05 7.15841e-05 -6.2246e-05 -0.7846983293 -0.0076339295
10299940.0 0.8579474173 -0.0192569799 3.73931e-05 -0.0001753972 0.0001970587 0.0001287042 -0.78808045 -0.0037360638
15299910.0 0.8569214021 -0.026467693 9.12897e-05 -0.0001333642 -5.43735e-05 9.8948e-05 -0.7933537911 -0.0012404292
20299880.0 0.8561188136 -0.0352749128 -1.81965e-05 1.1597e-05 9.45952e-05 -2.45649e-05 -0.7999530519 0.0023929837
25299850.0 0.8562092391 -0.0436563466 6.97772e-05 -8.39764e-05 -0.0002038396 4.25583e-05 -0.8059549519 0.0084901997
30299820.0 0.8549952183 -0.0518898048 -0.0001040881 -0.0001294978 -0.0001333969 -1.57329e-05 -0.8120802295 0.0164531158
35299790.0 0.8540636253 -0.0598753609 5.1047e-06 1.37243e-05 9.09272e-05 0.0001153415 -0.8170448709 0.025407621
40299760.0 0.8525994636 -0.0686033303 -1.05909e-05 0.0001208959 -0.0002061414 5.4345e-05 -0.8212929926 0.0343737016
45299730.0 0.8531869106 -0.0767436504 -1.99293e-05 1.01635e-05 6.5342e-06 -5.4802e-06 -0.8254699637 0.044018124
50299700.0 0.8524644638 -0.0848710552 -1.95334e-05 0.0002054805 -8.25469e-05 4.305e-05 -0.8275153574 0.0539025378
55299670.0 0.8510194667 -0.0933663408 -8.25233e-05 0.0001385739 0.000150528 -7.4859e-05 -0.8289808132 0.0642508133
60299640.0 0.8497550682 -0.1009661219 5.7225e-05 -6.13028e-05 5.64843e-05 5.37952e-05 -0.8300449571 0.0741642932
65299610.0 0.8484913542 -0.1098302469 3.03562e-05 -0.0002028239 9.50348e-05 -0.0001337689 -0.8317644558 0.0843198837
70299580.0 0.8476142492 -0.1185719116 -5.06145e-05 -3.57416e-05 -1.7309e-06 -0.0001226561 -0.8319600005 0.0946291755
75299550.0 0.8463640019 -0.1262317477 0.0001533222 3.07123e-05 7.3502e-05 -1.4137e-05 -0.8319717633 0.1042415866
80299520.0 0.8444584041 -0.1348611767 -0.0001448498 0.0001919688 -0.0001837016 0.0002068389 -0.8321290743 0.1139018753
85299490.0 0.8437644647 -0.1424184491 0.0001546211 -6.8626e-06 -1.6515e-06 0.0001292356 -0.8314268094 0.1235451055
90299460.0 0.8416147119 -0.1508341711 1.6675e-05 2.4705e-05 8.40696e-05 -2.7044e-05 -0.8307875275 0.1332712532
95299430.0 0.840032105 -0.1595227523 0.0001264665 3.12035e-05 0.0001868763 1.08305e-05 -0.8289659029 0.1429905259
100299400.0 0.8385448284 -0.1672688088 5.5795e-06 -0.0001385207 7.34529e-05 -1.58181e-05 -0.8284633115 0.1523374484
105299370.0 0.8374104244 -0.1754928074 3.6072e-05 -5.83543e-05 -4.50582e-05 -0.0001393019 -0.8270568422 0.1609113626
110299340.0 0.8351139309 -0.1839672602 0.0001870935 -3.69676e-05 -0.0001111884 9.0914e-06 -0.8257521372 0.1706192323
115299310.0 0.8333587502 -0.19205824 7.0328e-05 1.80594e-05 0.0001024075 -7.123e-06 -0.8240565966 0.1799122662
120299280.0 0.8316157148 -0.1998601631 -0.0001327081 -2.36859e-05 -9.98655e-05 -0.0001157288 -0.822102347 0.1891300569
125299250.0 0.8293877899 -0.2081043538 -0.0001261024 0.0001640963 0.0001072177 0.0001059354 -0.8207787946 0.1976540285
130299220.0 0.8278377721 -0.2159150613 6.88184e-05 7.4559e-06 7.9009e-06 5.33868e-05 -0.8187384659 0.2063001399
135299190.0 0.8256222419 -0.2236278211 4.35e-06 0.0002612946 -0.000108055 -7.76261e-05 -0.8164727894 0.2156755065
140299160.0 0.8233939449 -0.2320785248 -9.2315e-06 4.82939e-05 -0.0001268575 0.0001521959 -0.8142771668 0.2246006486
145299130.0 0.8205777871 -0.2405584896 0.0002085206 0.0002777115 -0.0002209126 -1.03248e-05 -0.8123792297 0.2342521548
150299100.0 0.8184075406 -0.2485048493 -0.0001950322 -0.0001078657 0.0001241949 -1.7239e-06 -0.810683471 0.2431807814
155299070.0 0.8156118291 -0.2557017029 9.24071e-05 8.90576e-05 6.33749e-05 -5.4771e-06 -0.8074160685 0.2517136605
160299040.0 0.812963297 -0.2643683473 8.3576e-05 2.5445e-06 -1.77777e-05 4.27357e-05 -0.8052010051 0.260551924
165299010.0 0.8112025577 -0.2720229948 -3.32879e-05 4.26233e-05 -0.0002098914 8.21426e-05 -0.8023996137 0.269470172
170298980.0 0.8069461932 -0.2800494575 4.4061e-06 -8.35836e-05 -1.3615e-06 -6.20696e-05 -0.7993868129 0.2777250837
175298950.0 0.804631673 -0.2877316793 9.53209e-05 -0.0001149621 -0.0001223524 -0.0001619621 -0.7966766758 0.2860912327
180298920.0 0.802131268 -0.2956214347 8.93265e-05 -5.27999e-05 0.000118239 -5.98351e-05 -0.7940761546 0.2953243048
185298890.0 0.7988353028 -0.3033671354 -2.3975e-05 8.54596e-05 4.18167e-05 1.32363e-05 -0.7905854177 0.3035279677
190298860.0 0.7963465819 -0.3111542065 0.00010225 0.0001928106 -8.77487e-05 1.36168e-05 -0.7878285281 0.3123667841
195298830.0 0.7933057908 -0.318700403 -2.10716e-05 -5.77899e-05 -5.73254e-05 0.0001385721 -0.7843694561 0.3204194093
200298800.0 0.789390065 -0.3262276943 -5.87439e-05 0.0001345124 6.61605e-05 -1.30484e-05 -0.7818649026 0.3290655647
205298770.0 0.7865747328 -0.3342091178 -1.59791e-05 8.97638e-05 -7.26797e-05 3.6317e-05 -0.7776153888 0.3374099057
210298740.0 0.7829590872 -0.3410633173 0.0001799297 -0.0001559723 0.0001547798 2.35095e-05 -0.7746868362 0.3457590362
215298710.0 0.779547693 -0.349925564 0.0001563549 -4.58656e-05 -8.49553e-05 -4.45457e-05 -0.7710562559 0.3538277352
220298680.0 0.7762200578 -0.357073408 -2.00445e-05 -3.98707e-05 -3.69721e-05 0.0001825473 -0.7675761077 0.3618644149
225298650.0 0.7725384558 -0.365375285 2.2376e-05 -7.15865e-05 -7.8819e-05 -0.0001523222 -0.7634364548 0.3698924323
230298620.0 0.7689332426 -0.3723895924 -0.0001192694 0.0001508387 -5.59192e-05 0.0001102503 -0.7602778804 0.3780452854
235298590.0 0.7651528905 -0.3793023576 4.07847e-05 3.28473e-05 -3.93447e-05 5.556e-07 -0.7560443707 0.3869028893
240298560.0 0.7615990116 -0.3874796686 -9.31554e-05 -0.0002503848 2.5145e-05 -6.73265e-05 -0.7516899716 0.3948784349
245298530.0 0.757786134 -0.3942001017 -0.0001640749 4.33728e-05 0.0001026666 6.68282e-05 -0.7474458328 0.4021149026
250298500.0 0.7533365293 -0.4017933729 -9.892e-07 9.65959e-05 -8.53224e-05 -1.08825e-05 -0.743607142 0.4099643192
255298470.0 0.749092687 -0.4095412006 -7.49083e-05 0.0002207286 -1.0553e-05 -4.86401e-05 -0.7385783883 0.4177235639
260298440.0 0.7454392772 -0.4167646764 -7.98203e-05 -6.58455e-05 -0.0001036332 1.34372e-05 -0.734860093 0.4262147388
265298410.0 0.7412707693 -0.4235904048 0.0001346687 -6.70143e-05 1.68612e-05 -9.28895e-05 -0.7301690452 0.4331229414
270298380.0 0.7374942155 -0.4312234345 -8.66032e-05 -4.08799e-05 -3.98614e-05 2.22079e-05 -0.7256136649 0.4411227369
275298350.0 0.7327898825 -0.4380599005 -0.0001632856 2.29697e-05 0.0001227843 0.0002160123 -0.721174369 0.4482102784
280298320.0 0.7282532421 -0.4456617908 -0.0001464062 -0.0001877432 4.92863e-05 0.0001200784 -0.7158848799 0.4557644712
285298290.0 0.7249040713 -0.4528101819 -2.09343e-05 -0.0001601443 0.000119326 0.000119517 -0.7106861521 0.4633285997
290298260.0 0.7201522156 -0.4597653823 3.31593e-05 0.0001299913 -2.88142e-05 9.61279e-05 -0.7059466319 0.4706800829
295298230.0 0.7156115691 -0.4667464278 1.04862e-05 -0.0001020406 -0.000238814 -0.0001314423 -0.7013501633 0.4779431756
300298200.0 0.7118624758 -0.4739310624 0.0002079082 0.0002368489 3.12399e-05 -0.0001138204 -0.6963950162 0.4853049373
305298170.0 0.707544596 -0.4806980529 0.0001227427 -2.90193e-05 -0.0001126535 -6.70919e-05 -0.6907307271 0.4927277735
310298140.0 0.7024931196 -0.4881889783 0.0001955736 -0.0001967151 2.35712e-05 -0.0001640027 -0.6856161258 0.4999455492
315298110.0 0.6981825919 -0.4956893831 -0.000222358 9.10421e-05 -8.00701e-05 -0.0001231442 -0.6801592573 0.5068847068
320298080.0 0.6934258432 -0.5032753246 0.0001935939 0.000158755 -4.81118e-05 -4.27809e-05 -0.6749655968 0.5143947772
325298050.0 0.6883155706 -0.5099025518 -7.63146e-05 0.0002156413 -7.57542e-05 -6.15014e-05 -0.6693269505 0.5209754363
330298020.0 0.6821247406 -0.5181319815 4.05711e-05 -4.7906e-06 6.50559e-05 6.41341e-05 -0.6637567063 0.5280969695
335297990.0 0.6760591943 -0.5246224822 4.87855e-05 9.84709e-05 5.41708e-05 -4.75697e-05 -0.6588410819 0.5354447795
340297960.0 0.6701612057 -0.5317732176 0.000131145 -1.0686e-06 -4.07744e-05 -7.9998e-06 -0.6529194412 0.5421846176
345297930.0 0.6642136306 -0.5372093173 -9.5316e-05 7.44839e-05 5.28394e-05 6.87744e-05 -0.6471863817 0.5482137722
350297900.0 0.6591722459 -0.5435351073 7.16096e-05 -3.89052e-05 -7.35545e-05 -2.8538e-05 -0.6417373617 0.5549532605
355297870.0 0.6528674384 -0.5499865526 -4.33279e-05 -0.0001617837 0.0003555036 6.54154e-05 -0.6361811482 0.5614661147
360297840.0 0.647127461 -0.5558615107 0.000181942 -0.0001838424 0.0001697864 0.0001626808 -0.6299434351 0.5682884728
365297810.0 0.6412166702 -0.5619453058 -0.0001501238 -6.387e-06 7.9923e-05 2.91901e-05 -0.6233176233 0.5751309908
370297780.0 0.6365437123 -0.5680254155 -3.02375e-05 2.73498e-05 3.25991e-05 0.000121534 -0.6174599914 0.5815676995
375297750.0 0.6297324005 -0.5739869426 5.54531e-05 -0.0001080894 -9.66991e-05 -0.0001322489 -0.6121033479 0.5878788378
380297720.0 0.6244370944 -0.5803118422 -1.42921e-05 -9.51787e-05 0.0001454466 1.15946e-05 -0.6058058531 0.5938511623
385297690.0 0.6187329863 -0.5861495953 1.32528e-05 -0.0001177822 -4.86144e-05 -2.74277e-05 -0.5991158636 0.6004556815
390297660.0 0.6128315227 -0.5918497721 -0.000104129 -5.13616e-05 6.8581e-06 -0.0001888624 -0.5936240393 0.606257128
395297630.0 0.6069844031 -0.597797325 0.0001180904 1.71098e-05 1.66484e-05 1.3753e-06 -0.5867755433 0.6130173635
400297600.0 0.6016713273 -0.6034138333 -3.64614e-05 -1.34429e-05 3.04513e-05 -0.0002518925 -0.5807915733 0.6186494568
405297570.0 0.5953787316 -0.6090486495 0.0001113011 -4.75493e-05 -5.39051e-05 4.27462e-05 -0.5738848633 0.6245856769
410297540.0 0.5886144362 -0.6149518644 0.0001135585 -0.0001004496 0.0001318679 0.0001115199 -0.5676422174 0.630769672
415297510.0 0.5828511503 -0.6211577924 4.83246e-05 2.3139e-06 -0.0001590103 2.10508e-05 -0.5610461403 0.6362205321
420297480.0 0.5767939636 -0.626003941 -1.65485e-05 -0.0001387749 -0.0002575414 0.000127861 -0.5543822587 0.6421831059
425297450.0 0.5702780957 -0.6319318091 -1.89035e-05 -5.88068e-05 2.12422e-05 1.54647e-05 -0.5480639642 0.6474214646
430297420.0 0.5637196158 -0.6371457599 0.0001533166 0.0001283254 -0.0001667663 0.0001006669 -0.5417140615 0.6527599497
435297390.0 0.5576082866 -0.6427395707 -4.5434e-06 -4.77549e-05 -0.0001024265 -0.0001661109 -0.534054125 0.658292123
440297360.0 0.5511434914 -0.6485507304 -2.92865e-05 -4.16488e-05 -8.66989e-05 7.53962e-05 -0.5280150875 0.6637881215
445297330.0 0.544748796 -0.654139891 0.0001836711 0.0002289051 6.74728e-05 -0.000153465 -0.5205553641 0.6685609669
450297300.0 0.538941234 -0.6587703511 2.58491e-05 9.99323e-05 -6.08153e-05 -3.39921e-05 -0.5134274343 0.6738038057
455297270.0 0.5324918478 -0.6639518092 -3.68372e-05 5.90819e-05 3.18426e-05 0.0001301638 -0.5064118198 0.6788534218
460297240.0 0.5248294415 -0.6692129452 -0.0002996392 0.0001742173 9.75754e-05 -2.31126e-05 -0.4997707072 0.6841726908
465297210.0 0.5187441891 -0.674554633 -5.45428e-05 -9.70773e-05 -2.44462e-05 -0.0001628943 -0.4921733761 0.6890291533
470297180.0 0.5119173936 -0.6791281508 0.0002107029 -7.3503e-05 -0.0001480067 -0.0001210701 -0.484786126 0.6944996155
475297150.0 0.5051761899 -0.684211147 -5.10605e-05 7.3718e-06 1.95322e-05 -9.04991e-05 -0.4781215704 0.6987161869
480297120.0 0.4984925911 -0.6893526746 3.70459e-05 -0.0001669192 0.000103476 0.0002312539 -0.4703701723 0.7038545507
485297090.0 0.490937314 -0.6930525215 -0.0001704761 -0.0003561706 4.62077e-05 9.98516e-05 -0.4635401424 0.7082300931
490297060.0 0.4841240701 -0.6988147108 -0.0002003131 -5.23322e-05 -3.01445e-05 4.60267e-05 -0.4563430761 0.7126855226
495297030.0 0.477051573 -0.7031774265 -4.05792e-05 -8.33051e-05 -0.0002582608 5.86279e-05 -0.449095613 0.7176149415
500297000.0 0.4697966702 -0.7078968206 -0.0001470843 0.0001363205 0.0001561884 0.0001239795 -0.4411012759 0.7224582979
505296970.0 0.4638077961 -0.7120085056 0.000151434 -6.22988e-05 -0.0001911475 -0.0001609647 -0.4336314732 0.7262845487
510296940.0 0.4559706553 -0.7173038416 -6.20774e-05 -0.0001424437 -8.25659e-05 -8.21929e-05 -0.4266878254 0.7306520452
515296910.0 0.4494511353 -0.7212511243 5.72282e-05 4.27895e-05 3.0111e-05 5.40194e-05 -0.4190681928 0.7351907112
520296880.0 0.4419099145 -0.7257322693 3.57338e-05 0.0001935824 9.80224e-05 -0.0001057072 -0.411639118 0.7388867006
525296850.0 0.4348801605 -0.7297185747 -2.8627e-05 8.23419e-05 0.0001446686 -1.8422e-05 -0.4045188274 0.7439084754
530296820.0 0.427618763 -0.7337001255 3.65934e-05 -3.98263e-05 0.0002213487 -3.8456e-06 -0.3964914822 0.7475512559
535296790.0 0.4202185063 -0.7376673416 -5.15994e-05 0.0002163056 0.0001504675 2.19956e-05 -0.3893068416 0.7515497706
540296760.0 0.4125724838 -0.7417545223 -3.06876e-05 8.63721e-05 -2.95367e-05 5.65389e-05 -0.3811226261 0.7555902972
545296730.0 0.4048561961 -0.746060783 1.40585e-05 -0.0001730463 -6.1761e-06 -0.0001209698 -0.3739965613 0.7591257355
550296700.0 0.3981131567 -0.7491040308 8.11877e-05 -5.54888e-05 -0.0001181133 -2.56415e-05 -0.3660364871 0.7629435915
555296670.0 0.3903654026 -0.753685913 -1.86552e-05 7.78988e-05 1.70714e-05 -0.0003093065 -0.3582651533 0.7671355273
560296640.0 0.3828861118 -0.7566250201 -0.0001344411 -9.7071e-06 -6.50303e-05 -0.0002592871 -0.3503400445 0.7707519205
565296610.0 0.3752044027 -0.7605271243 -3.96691e-05 4.99259e-05 0.0001472603 -9.47427e-05 -0.3423632332 0.7736557495
570296580.0 0.367543266 -0.7644117848 -1.48413e-05 -4.71462e-05 -5.66163e-05 -9.87401e-05 -0.3352863165 0.777330363
575296550.0 0.3597605777 -0.7673538596 -6.74089e-05 -6.8208e-06 -7.23761e-05 -5.61137e-05 -0.327197821 0.7806391853
580296520.0 0.3523003611 -0.771440202 -2.28135e-05 4.43005e-05 -0.0001535378 0.0001090415 -0.318316434 0.7839817222
585296490.0 0.3440838637 -0.7752216416 -4.38742e-05 -8.07289e-05 0.0001057857 0.0001793709 -0.3111677003 0.7870952143
590296460.0 0.3372152345 -0.7772967443 -6.71412e-05 7.00507e-05 0.0001378476 -0.0001156948 -0.3033734764 0.7901179382
595296430.0 0.3289318859 -0.7811524214 0.0001400538 -4.32556e-05 0.0001209097 4.72231e-05 -0.2952916569 0.7925442768
600296400.0 0.3210345159 -0.7840575603 0.0001632627 0.0001296593 -0.0001274619 -8.91615e-05 -0.2865750893 0.7957592501
605296370.0 0.3135972829 -0.7870410145 2.24908e-05 0.0001146207 0.000123469 0.0001025162 -0.2782105137 0.79857016
610296340.0 0.3050926494 -0.7901183378 -6.62754e-05 -1.7065e-05 -0.0001096783 0.0001904666 -0.2704360178 0.8011461836
615296310.0 0.2976781593 -0.7928580256 -2.73979e-05 -6.70594e-05 -0.0001490936 -0.0001518973 -0.2618344605 0.8034279341
620296280.0 0.2899053813 -0.7955869095 -2.51272e-05 -7.29414e-05 -4.82914e-05 0.0003374234 -0.2546569988 0.8062502215
625296250.0 0.2822830535 -0.7985902444 0.0003422762 1.57418e-05 0.0001518511 -0.0001308031 -0.245538529 0.8081967637
630296220.0 0.2746223785 -0.8008534745 -0.0002796732 -7.01889e-05 8.8843e-06 0.0002798164 -0.2381515365 0.8108680588
635296190.0 0.2656756628 -0.8034734615 -0.0002165393 -0.0001060522 -0.000110749 -8.13894e-05 -0.2296491839 0.8131553523
640296160.0 0.2580904101 -0.8062401714 -0.0001213612 4.78108e-05 4.76775e-05 1.30795e-05 -0.221477623 0.8154872878
645296130.0 0.2496083911 -0.808702731 2.95172e-05 9.33333e-05 0.0001390925 -6.0693e-05 -0.2135407279 0.8177142287
650296100.0 0.2414905002 -0.8106993598 0.0003743646 -0.0001352714 -0.0001775393 5.36951e-05 -0.2056187247 0.8193388686
655296070.0 0.2338924698 -0.8135002877 0.0001095376 1.90481e-05 0.0001327332 -7.27569e-05 -0.1964933762 0.820965387
660296040.0 0.2259448743 -0.8152628067 1.8446e-05 -0.0001339453 -4.5502e-06 -4.0186e-05 -0.1879872184 0.8229873261
665296010.0 0.217983329 -0.81760924 -8.74734e-05 4.72192e-05 -4.19912e-05 -0.0001172158 -0.1797161667 0.8254693966
670295980.0 0.2091328684 -0.819487518 -7.05917e-05 -0.0001882472 -0.0001298009 3.66313e-05 -0.1722663888 0.8268597538
675295950.0 0.2015884493 -0.8212499165 1.22723e-05 -0.000120968 5.41239e-05 4.91841e-05 -0.164201456 0.8289704831
680295920.0 0.1927825498 -0.8228427917 -7.044e-06 -5.82422e-05 2.95945e-05 7.01074e-05 -0.1551856402 0.8310273126
685295890.0 0.1847353727 -0.8247567827 2.08084e-05 -8.61075e-05 -0.000160252 -2.02981e-05 -0.1462020659 0.8314041662
690295860.0 0.1763268024 -0.8261048313 4.64602e-05 -7.8569e-05 -6.7936e-06 6.9038e-05 -0.1386992653 0.8339445272
695295830.0 0.1687461576 -0.8275776479 4.60728e-05 0.0001940248 -8.03416e-05 -2.14766e-05 -0.1299002534 0.8350125578
700295800.0 0.1605233536 -0.8292717968 8.04554e-05 0.0001936546 -0.000127289 -0.0001508833 -0.1221377709 0.8361171712
705295770.0 0.1512032007 -0.8303361321 0.0001599984 0.0001120778 -0.0001051101 -8.53872e-05 -0.1136084461 0.8379000356
710295740.0 0.1434409928 -0.8319170295 4.65688e-05 5.365e-07 6.5908e-05 -0.0001412724 -0.1051860549 0.8389250607
715295710.0 0.1346518687 -0.8337397423 -2.0564e-05 -0.0001076937 -3.7329e-06 2.84e-08 -0.096982972 0.8392220183
720295680.0 0.1269769188 -0.8344852884 6.12125e-05 -0.0002391638 -0.0001842131 -9.45109e-05 -0.0880007523 0.840762614
725295650.0 0.1180368621 -0.8355124971 0.000211429 1.99603e-05 0.0001031839 -1.78825e-05 -0.0799313662 0.841976841
730295620.0 0.1099601751 -0.8364208309 -0.0002020374 -5.8807e-06 -5.26939e-05 -1.89188e-05 -0.0723058093 0.8425865444
735295590.0 0.1010002483 -0.8367335084 -0.0001231913 -2.19184e-05 0.000119641 -2.4301e-05 -0.0633654461 0.8422346258
740295560.0 0.0929052403 -0.8379299259 9.97974e-05 0.000162645 0.0001044981 -5.88007e-05 -0.0545649341 0.8437066886
745295530.0 0.0846162394 -0.8387528021 -0.0001572773 -0.0001754323 3.33872e-05 5.09489e-05 -0.0462881725 0.8437828716
750295500.0 0.0758687365 -0.8389280181 -0.0002008668 -6.3833e-05 -2.00336e-05 6.81736e-05 -0.0379345495 0.8441684523
755295470.0 0.0673738245 -0.8403178704 0.0001193695 3.2534e-05 -0.0001405594 -2.09068e-05 -0.0294071293 0.8441896875
760295440.0 0.0591125066 -0.8408675164 -0.0001485154 -1.33112e-05 -0.0002747214 -5.14755e-05 -0.0215157477 0.844101583
765295410.0 0.0513438607 -0.841112608 1.05995e-05 -0.0002864514 -3.58043e-05 0.0001147826 -0.0128698889 0.8450496527
770295380.0 0.0424542681 -0.8409712352 1.48975e-05 -0.0001159212 0.0001366365 0.0001700758 -0.0047592381 0.8448170157
775295350.0 0.0343338709 -0.8421500621 7.98349e-05 0.0001898529 -8.272e-05 -8.09724e-05 0.0031917566 0.8444681676
780295320.0 0.0260156863 -0.8414885769 3.57587e-05 -0.0001015449 -1.81663e-05 0.0001272345 0.0122494761 0.8442774332
785295290.0 0.0171341351 -0.842250435 -9.33218e-05 7.2345e-06 -2.58201e-05 -7.09202e-05 0.0210746463 0.8440656481
790295260.0 0.0087517045 -0.8418248859 -8.20285e-05 3.51106e-05 -9.28662e-05 0.0001465175 0.0298502182 0.8439586479
795295230.0 0.0008783936 -0.8416440084 0.0002681315 1.5205e-06 7.48325e-05 9.81336e-05 0.0386085575 0.8429936643
800295200.0 -0.0084497498 -0.8414531816 -0.0002248341 7.32911e-05 3.74777e-05 -0.0001164733 0.0465194306 0.8431399163
805295170.0 -0.0165127012 -0.8413790196 -0.0001665705 0.000170541 4.80991e-05 5.66122e-05 0.0542448907 0.8424219046
810295140.0 -0.0244407918 -0.8405930395 0.0001618151 -0.000281695 -0.0001263876 -9.4742e-06 0.0633883824 0.8416512382
815295110.0 -0.0328782699 -0.8405322117 1.52044e-05 9.75331e-05 4.52788e-05 2.87585e-05 0.0716636502 0.8409453315
820295080.0 -0.0414102611 -0.8398519638 -0.0001336861 5.24218e-05 -1.33917e-05 -2.82293e-05 0.0799737504 0.8409431823
825295050.0 -0.0492167393 -0.8394270565 -8.36015e-05 2.97644e-05 -6.75855e-05 -5.6434e-05 0.0880041231 0.8395837525
830295020.0 -0.0579296574 -0.8385884376 0.0001676862 0.0002051291 -6.90999e-05 6.17471e-05 0.0975539539 0.8388085814
835294990.0 -0.0657179363 -0.837378634 -0.0001270973 0.0001542198 -0.0001549798 -0.0001837223 0.1045115578 0.8382853172
840294960.0 -0.074394886 -0.8372925397 5.7101e-05 7.40259e-05 0.000121364 0.0001255557 0.113550638 0.8370651437
845294930.0 -0.0831598614 -0.8360513334 -0.0001303274 -7.92292e-05 -0.0003027375 3.91503e-05 0.1211194435 0.8353217072
