!Created with skrf (http://scikit-rf.org).
# Hz S RI R 50.0 
!freq ReS11 ImS11 ReS21 ImS21 ReS12 ImS12 ReS22 ImS22
300000.0 -0.2340673833 -0.1215607446 0.4641635554 0.0796511622 0.4639386951 0.0808706183 -0.2331800631 -0.1275821193
5299970.0 -0.2447808477 0.0052339464 0.4736130099 0.0056948327 0.4740487737 0.0058587154 -0.2437635579 0.0049928455
10299940.0 -0.241916725 0.0184356833 0.476064223 0.0072759865 0.4761646499 0.0071307794 -0.240094258 0.0180155295
15299910.0 -0.2368137792 0.0280898768 0.4794166902 0.0083669404 0.4795954435 0.008508796 -0.2362198045 0.0275616404
20299880.0 -0.2315633696 0.0362705483 0.4839928011 0.0080925416 0.4843772597 0.0085069396 -0.231052258 0.0352746208
25299850.0 -0.225637896 0.0428926913 0.4895960425 0.0079448284 0.4898856173 0.0076364069 -0.2260811392 0.0417547328
30299820.0 -0.2203962959 0.047609875 0.4949601165 0.0055981692 0.4953391934 0.0052966241 -0.2205910432 0.0470659517
35299790.0 -0.2142473522 0.0518010428 0.4997565512 0.0024470516 0.500537791 0.0025187261 -0.2158284495 0.0513453984
40299760.0 -0.2092605066 0.0546461474 0.5055113121 -0.0014516647 0.5055732745 -0.0017583797 -0.2104910046 0.0546819311
45299730.0 -0.2042191926 0.0572338757 0.510130191 -0.0061720469 0.5108213205 -0.0065611012 -0.2057521232 0.0577608482
50299700.0 -0.1991545339 0.0590579202 0.5145751854 -0.0117211594 0.5149776885 -0.0121777184 -0.2011076203 0.0603456136
55299670.0 -0.1951110261 0.0606629536 0.5185317122 -0.0173333472 0.5183193468 -0.0177825865 -0.197279984 0.0619838791
60299640.0 -0.1907928224 0.0618114374 0.521853581 -0.0240368961 0.5218400255 -0.0242135644 -0.1934283822 0.0634458891
65299610.0 -0.187467933 0.0626512726 0.525027641 -0.0302080031 0.5249941125 -0.030609421 -0.189798426 0.0646330865
70299580.0 -0.1839321158 0.0630599842 0.526872642 -0.0369755133 0.5274926688 -0.0369299564 -0.1872899337 0.0658331636
75299550.0 -0.1809855372 0.0638931564 0.5287606902 -0.0440421455 0.5290896138 -0.0441838295 -0.1838689778 0.0673725391
80299520.0 -0.1784135274 0.0644705786 0.5309208257 -0.0507073174 0.5314652098 -0.0510512611 -0.1817268242 0.0680803268
85299490.0 -0.1758048877 0.0648209439 0.5323956765 -0.0576909081 0.5326227894 -0.0575096029 -0.179086726 0.0688261375
90299460.0 -0.1735035656 0.0655233783 0.533235162 -0.0648608714 0.5332551821 -0.06459322 -0.1767945897 0.0699847536
95299430.0 -0.1714364667 0.065651729 0.5344476935 -0.07139869 0.5346516861 -0.0715349133 -0.1749661974 0.0705199923
100299400.0 -0.169425765 0.0660016279 0.5343471909 -0.0783147106 0.5350675192 -0.0787364861 -0.1730715724 0.0718526993
105299370.0 -0.1678296071 0.0665676685 0.5350117699 -0.085227934 0.5353062061 -0.0851818864 -0.1708935257 0.0722601728
110299340.0 -0.1658794927 0.0668569757 0.5353880563 -0.0911377112 0.5355508519 -0.0919097959 -0.1695210497 0.073085199
115299310.0 -0.1647593662 0.0675728763 0.5351702558 -0.0987388932 0.5354890008 -0.0986691724 -0.1683080983 0.0744508171
120299280.0 -0.1632480798 0.0683980347 0.5353013569 -0.1060651061 0.5348671224 -0.1059519887 -0.1667904339 0.0747123081
125299250.0 -0.1618058321 0.0686014555 0.5345419992 -0.1126664765 0.5348407588 -0.1120876331 -0.1650754604 0.0761177517
130299220.0 -0.1606173819 0.0690003082 0.5342378272 -0.1193872654 0.5338306085 -0.11961461 -0.1640099401 0.0770362072
135299190.0 -0.1595666222 0.0701182582 0.5336941937 -0.1255601613 0.5337355952 -0.1263284914 -0.1629117974 0.077664323
140299160.0 -0.1584508649 0.0708288262 0.5327852979 -0.1330411286 0.5326691658 -0.1323797828 -0.1622643173 0.0786608828
145299130.0 -0.1577921816 0.0714880927 0.5317643527 -0.1391185985 0.5319595332 -0.1394112158 -0.1607489213 0.0802399068
150299100.0 -0.1564935426 0.0725740935 0.5301905826 -0.1456507537 0.5304825965 -0.1457662143 -0.1600914073 0.0812441226
155299070.0 -0.1557815036 0.0734324177 0.5290848754 -0.1520750538 0.5294992231 -0.1523626277 -0.1586385514 0.0823857931
160299040.0 -0.1548401082 0.0746581539 0.5281235599 -0.1586012682 0.5279160996 -0.1591147283 -0.1581960592 0.0835969993
165299010.0 -0.1538743309 0.075215144 0.5265193453 -0.1649404975 0.5265288603 -0.1650318298 -0.1567318763 0.0841940305
170298980.0 -0.1531930823 0.0761823074 0.5246415001 -0.1712069684 0.5249580121 -0.1716691442 -0.1560477204 0.0859417372
175298950.0 -0.1523879179 0.0775408486 0.5236453851 -0.177696171 0.5240535754 -0.1779688809 -0.1550035176 0.0872193441
180298920.0 -0.1517483206 0.0782607978 0.5219396581 -0.1840614106 0.5220721032 -0.184282774 -0.1542665304 0.0887199287
185298890.0 -0.1506216728 0.0797548759 0.5197144296 -0.1904376853 0.5198737513 -0.1903019794 -0.1527461322 0.0896476252
190298860.0 -0.1498417094 0.0809474287 0.5175472659 -0.1966013284 0.5182974407 -0.1966255758 -0.1519382589 0.0912963735
195298830.0 -0.1493043145 0.0819275381 0.5166429326 -0.2025075281 0.5162691355 -0.2026399554 -0.1512731204 0.0926040004
200298800.0 -0.1482079599 0.0825935903 0.5140525823 -0.2092088084 0.5141331965 -0.2088987185 -0.1502007501 0.093544932
205298770.0 -0.1480516739 0.0839218819 0.5115441033 -0.2147724659 0.5119416846 -0.2144033938 -0.149057678 0.0952902084
210298740.0 -0.1468558253 0.0854050701 0.5093596473 -0.2207884266 0.5091908443 -0.2207921425 -0.1485548147 0.0964202164
215298710.0 -0.1461829764 0.0867555109 0.507128478 -0.226516648 0.5070265285 -0.2267052254 -0.1472780945 0.0976549453
220298680.0 -0.1452105255 0.0878285364 0.5043670472 -0.2326241015 0.5044818318 -0.2329109764 -0.1463274102 0.0989791913
225298650.0 -0.1445196282 0.0891180582 0.5017370761 -0.2382000015 0.5024882594 -0.2380521256 -0.1456754134 0.1002338855
230298620.0 -0.143767985 0.0908073084 0.4996469141 -0.2446419511 0.4995608726 -0.2446097548 -0.1443254985 0.1014895841
235298590.0 -0.1432457686 0.0917474971 0.4975131695 -0.2503416464 0.4973209545 -0.25008894 -0.1435228681 0.1036360462
240298560.0 -0.142346378 0.0933088404 0.4943563891 -0.2555571524 0.4945449941 -0.2557765365 -0.1426358282 0.1047249737
245298530.0 -0.1414992666 0.0940984028 0.4915457607 -0.261551047 0.4916392449 -0.2615702335 -0.1415572687 0.1060432745
250298500.0 -0.14106256 0.0954619315 0.4890753788 -0.266906683 0.4891142447 -0.2669306078 -0.1405485843 0.1079842511
255298470.0 -0.1398785282 0.0971148665 0.4858705901 -0.2721855486 0.4864638788 -0.2727920652 -0.1395878059 0.1093958977
260298440.0 -0.1390770689 0.0979018981 0.4828810899 -0.2774564034 0.4830017906 -0.2778022069 -0.1385497546 0.1102944069
265298410.0 -0.1384654312 0.0996876159 0.4800177744 -0.283998095 0.4798663916 -0.2839651565 -0.1369993078 0.1118864801
270298380.0 -0.1376052128 0.1008757957 0.4764595816 -0.2891136645 0.4771321494 -0.2891953167 -0.1358264898 0.1136774756
275298350.0 -0.1367450601 0.102556853 0.4734545843 -0.2942416526 0.4736689956 -0.2944361448 -0.1349176418 0.1152030688
280298320.0 -0.1361257807 0.1037872004 0.4704508795 -0.2995106808 0.4706508504 -0.2999494872 -0.1334795575 0.1164761098
285298290.0 -0.1352401078 0.1051147192 0.4670655151 -0.3050125689 0.4673672765 -0.3048107306 -0.1325321323 0.1178028132
290298260.0 -0.1342742993 0.1066035083 0.4644476815 -0.3106223678 0.464211061 -0.3104495542 -0.1313198761 0.1192062966
295298230.0 -0.1336497288 0.1074828234 0.4606510051 -0.3157053072 0.4608428635 -0.3162146766 -0.1299322739 0.1203354355
300298200.0 -0.1324129103 0.1094688654 0.4575706869 -0.3213779041 0.4574921026 -0.3210496713 -0.128594039 0.1221697119
305298170.0 -0.1315004046 0.1100249504 0.454007268 -0.3265081859 0.4540221935 -0.3262689306 -0.1274010739 0.1228923675
310298140.0 -0.129971236 0.1112267944 0.4505546287 -0.3313556814 0.4506855758 -0.3311023195 -0.1260319975 0.1243895835
315298110.0 -0.1297973608 0.1121063632 0.4470419528 -0.3370803398 0.4464334532 -0.3369148543 -0.1248303627 0.1258675589
320298080.0 -0.1284584292 0.1138770703 0.4421209261 -0.3419057656 0.4433130877 -0.3419921337 -0.1235348062 0.1273234791
325298050.0 -0.1283012637 0.1144250874 0.4389063894 -0.3467539555 0.4396593207 -0.3467798521 -0.121987044 0.1282938581
330298020.0 -0.1278011237 0.1160708809 0.4352180641 -0.3518159992 0.4355588937 -0.352109581 -0.1213027059 0.1294700792
335297990.0 -0.1265755314 0.1172760773 0.4315793353 -0.3566916432 0.4314679061 -0.3566320428 -0.1201592303 0.1308849564
340297960.0 -0.1258090484 0.1187091449 0.4267332811 -0.3615505509 0.4270903432 -0.3613934161 -0.1189313493 0.1326879016
345297930.0 -0.1248142254 0.1197831896 0.4227089315 -0.3664017087 0.4230748534 -0.3661461898 -0.1175684426 0.1338118897
350297900.0 -0.1242054871 0.1209954272 0.419303729 -0.370371737 0.419315067 -0.3707621878 -0.1163211586 0.1352692704
355297870.0 -0.123079044 0.1226263352 0.4149082964 -0.3751028685 0.414790154 -0.3751762387 -0.1148562029 0.1367252674
360297840.0 -0.1220367612 0.1240692237 0.4104273648 -0.3802096335 0.4108974925 -0.3802382385 -0.1135310356 0.1382324089
365297810.0 -0.1212443706 0.1251961012 0.40632266 -0.3845920014 0.4064999057 -0.3846152719 -0.1121270315 0.1396063039
370297780.0 -0.1198699171 0.1263463377 0.4017976212 -0.3891015792 0.4021489247 -0.3887943603 -0.1105530083 0.1408238175
375297750.0 -0.1190070019 0.1276402922 0.3978844805 -0.3931694801 0.3981681854 -0.3932289671 -0.1092298945 0.1423228891
380297720.0 -0.1182124125 0.1291211127 0.3939038478 -0.397959285 0.3934641594 -0.3974741601 -0.1075829524 0.1435712969
385297690.0 -0.1168702913 0.1302695868 0.3890183256 -0.4019136365 0.3893166676 -0.4025688443 -0.105766608 0.1452584269
390297660.0 -0.1155113434 0.1311730939 0.3847363005 -0.4058996016 0.3848531017 -0.4062338812 -0.1041246833 0.1461004198
395297630.0 -0.114288079 0.1328038294 0.3806202965 -0.4101876369 0.380486511 -0.4102200081 -0.1028532275 0.1475611586
400297600.0 -0.1134995938 0.1337922806 0.3756757722 -0.4146855302 0.376250302 -0.4146817718 -0.1011882072 0.1491043817
405297570.0 -0.1121145244 0.1345587836 0.3710142054 -0.4184249245 0.371438015 -0.4186848251 -0.0994716457 0.1503365147
410297540.0 -0.1110115418 0.1363103862 0.3666367266 -0.4229433602 0.3671042539 -0.4224049715 -0.0979682944 0.1515142941
415297510.0 -0.1102011037 0.1374177226 0.362060636 -0.4265323527 0.3624486953 -0.4268658919 -0.0960009297 0.1527430143
420297480.0 -0.1087679928 0.1381568981 0.3571670893 -0.4308087979 0.3573629804 -0.4307598128 -0.0942009923 0.1542473918
425297450.0 -0.1070188084 0.1395291858 0.3524388579 -0.4341751713 0.3524637913 -0.4346677162 -0.0928747272 0.1548977296
430297420.0 -0.1061398241 0.1408319163 0.3487415333 -0.4383272831 0.3482216204 -0.4380518727 -0.0910015048 0.1560312363
435297390.0 -0.1047960763 0.1418572704 0.3428454764 -0.4427630162 0.3430524815 -0.4421212074 -0.0897395619 0.1575681941
440297360.0 -0.1033246291 0.1425862142 0.3380443579 -0.4458233154 0.3379255584 -0.4458533236 -0.0876222829 0.1589696066
445297330.0 -0.1019014429 0.1436452806 0.3333877196 -0.4494969189 0.3332632125 -0.4500583229 -0.0858153513 0.1600587918
450297300.0 -0.1005265074 0.1446597813 0.3283156943 -0.452865967 0.3285366888 -0.4530601437 -0.0838311249 0.1611354829
455297270.0 -0.0996388874 0.1458280531 0.3235334955 -0.4566712089 0.3236199297 -0.4566894888 -0.0823755391 0.1619788133
460297240.0 -0.0978533556 0.1468773879 0.3185103826 -0.4607205132 0.3183923884 -0.4605457215 -0.0803584162 0.1631157111
465297210.0 -0.0964645474 0.1477781396 0.3131011209 -0.4636050302 0.3126820716 -0.4637927083 -0.0781914236 0.1644633711
470297180.0 -0.0950559862 0.1489550801 0.3082096269 -0.4669821496 0.3083401886 -0.4669966875 -0.0764536963 0.1647086306
475297150.0 -0.0939608204 0.1501280816 0.3029710962 -0.4705256631 0.3030652911 -0.4703481944 -0.0748045923 0.1661126744
480297120.0 -0.0918885584 0.1512135388 0.2976790338 -0.473804556 0.2981970322 -0.4735092109 -0.0735296339 0.1669096106
485297090.0 -0.09069522 0.1517083605 0.2928101126 -0.4767140961 0.2925573431 -0.4769444174 -0.0712685706 0.1681913265
490297060.0 -0.0886177424 0.1531626923 0.2872713016 -0.4802572713 0.2876665541 -0.4802122956 -0.0694986883 0.168916776
495297030.0 -0.087730013 0.1536080627 0.282790251 -0.4831829824 0.2823064311 -0.4833830065 -0.0670731417 0.169609438
500297000.0 -0.0859687939 0.1548738915 0.2771583223 -0.4858382146 0.2770255248 -0.486364625 -0.0653165103 0.1707417144
505296970.0 -0.0841695938 0.1560543769 0.271554289 -0.4895194368 0.2713911424 -0.4888477211 -0.0634251072 0.1712433512
510296940.0 -0.0825830978 0.1566455622 0.2662975504 -0.4927128898 0.2665588776 -0.4927982202 -0.0613369841 0.172662406
515296910.0 -0.0812775965 0.1580088739 0.2606611787 -0.4951933055 0.2606301053 -0.4949528015 -0.0596969102 0.1730171484
520296880.0 -0.0795876751 0.158713896 0.255044178 -0.4977005454 0.2554325751 -0.4978304426 -0.057595574 0.1743231089
525296850.0 -0.0779448546 0.1594851028 0.2500091688 -0.5002686302 0.2499016074 -0.500128472 -0.0553888803 0.1746325095
530296820.0 -0.0764533354 0.1603567908 0.2445014201 -0.5032930449 0.2442714652 -0.5031474561 -0.0537398569 0.1753205347
535296790.0 -0.0744083307 0.1612501531 0.2387931123 -0.5056948924 0.2391078307 -0.5058221042 -0.0512338238 0.1761327287
540296760.0 -0.072776972 0.1624083348 0.2330258413 -0.50831519 0.2327794347 -0.5082133626 -0.0495997101 0.1765566852
545296730.0 -0.0718042464 0.1635775248 0.228106812 -0.5108396368 0.2278968787 -0.510207662 -0.0474322101 0.1772941657
550296700.0 -0.0692332408 0.1637971729 0.2223535013 -0.5133522139 0.2222568804 -0.5135827359 -0.0456094936 0.1779929484
555296670.0 -0.0682692281 0.1649737255 0.2167733922 -0.5156375053 0.2168160107 -0.5155728223 -0.0437801094 0.1784025671
560296640.0 -0.0658891351 0.1652811227 0.2108703005 -0.5176833651 0.211316166 -0.5176352933 -0.0418232251 0.1796730945
565296610.0 -0.0648668269 0.1662160542 0.2056209963 -0.5201293133 0.2055419153 -0.5193286077 -0.0393951516 0.1799807899
570296580.0 -0.062992751 0.1674274028 0.1997947377 -0.5223147785 0.1998404726 -0.5221258975 -0.0377699028 0.1802095803
575296550.0 -0.0610968293 0.1676734646 0.1942614401 -0.5244101306 0.1941540868 -0.5241631368 -0.0356801046 0.1809946763
580296520.0 -0.0592387308 0.1690900113 0.188297663 -0.526784412 0.1879022601 -0.5265782992 -0.0335172821 0.1814011094
585296490.0 -0.0577877323 0.1698039846 0.182930813 -0.5285285991 0.1823618715 -0.5285222439 -0.0311637681 0.1822978577
590296460.0 -0.0554051984 0.1705901836 0.1772999917 -0.5302032171 0.1772177718 -0.5303696119 -0.0296967895 0.182941186
595296430.0 -0.0539702507 0.171040739 0.1709129173 -0.532068652 0.1705219397 -0.5321728596 -0.027176682 0.1828697723
600296400.0 -0.0521829809 0.1720120248 0.164905797 -0.5339979271 0.1650059472 -0.5340723048 -0.0251863007 0.1833954974
605296370.0 -0.0507374528 0.1726852825 0.1596796937 -0.5353378436 0.159065523 -0.5358617938 -0.0231416857 0.1839609621
610296340.0 -0.0484666751 0.1738253742 0.1537792724 -0.5370315848 0.1540436436 -0.5371063504 -0.0215141237 0.184213682
615296310.0 -0.0467771306 0.1741777929 0.1477168863 -0.539130975 0.1474593533 -0.5391216462 -0.0188398562 0.1847288877
620296280.0 -0.0452298656 0.1751608395 0.1419201209 -0.5406453373 0.1418780983 -0.5402093963 -0.0172772082 0.1852210142
625296250.0 -0.0437404903 0.175682531 0.1364151817 -0.542191017 0.1360492491 -0.542036055 -0.0153521992 0.1852135362
630296220.0 -0.0417769286 0.1764608643 0.1296502049 -0.5434441567 0.1296968268 -0.5433511609 -0.0129604434 0.1856383205
635296190.0 -0.0401492415 0.1773697252 0.1244097578 -0.5450227775 0.1243804843 -0.5442460017 -0.0109676423 0.1859791672
640296160.0 -0.0381848285 0.1776412603 0.1182091915 -0.5461678355 0.1182374255 -0.5460540381 -0.0091312258 0.1861349595
645296130.0 -0.0362662309 0.1788437174 0.1120499218 -0.5472402101 0.1126463574 -0.5471130985 -0.0073486909 0.1861626015
650296100.0 -0.0346772278 0.1788996637 0.1065161727 -0.5483603057 0.1062178047 -0.5486466261 -0.0043443533 0.1863944423
655296070.0 -0.0329789086 0.1794576793 0.099979193 -0.5493083128 0.1002425995 -0.5491550157 -0.002896759 0.1869473408
660296040.0 -0.0309754815 0.1801075478 0.094558884 -0.5504535873 0.0943525505 -0.5503978535 -0.0006289086 0.1866114665
665296010.0 -0.0292581488 0.1811099632 0.0879984244 -0.5507847328 0.0884406578 -0.5513217992 0.0013208149 0.1870466067
670295980.0 -0.0278508918 0.1812602563 0.0825830201 -0.552084278 0.0826977496 -0.5517262906 0.0030339145 0.1871019645
675295950.0 -0.0257640907 0.1817270046 0.0766862798 -0.5528149351 0.0766551156 -0.5530796123 0.005301032 0.1875056529
680295920.0 -0.024345891 0.1822635344 0.0708566172 -0.5534969105 0.0707629217 -0.5538653943 0.0076178556 0.187074123
685295890.0 -0.0221799783 0.1829805465 0.0643681286 -0.5544352656 0.0641960398 -0.5546801034 0.0097264883 0.1878964092
690295860.0 -0.0208968734 0.1834465255 0.0586526556 -0.5552127242 0.0583321186 -0.5554184214 0.0116185964 0.1875652584
695295830.0 -0.0189235997 0.183533101 0.0531352243 -0.555644684 0.052438784 -0.5558424892 0.0137743562 0.1876307179
700295800.0 -0.0170581271 0.1844956061 0.0473253538 -0.5560708209 0.0469153532 -0.5560582906 0.0159492651 0.1875624054
705295770.0 -0.0153792687 0.1847985599 0.0408215527 -0.5567701317 0.0407225626 -0.5566026166 0.0177385241 0.1877166538
710295740.0 -0.0136613887 0.1850312548 0.0350258929 -0.5572449225 0.0345935291 -0.5575865897 0.0199395235 0.1877094508
715295710.0 -0.0118911178 0.1856379894 0.0292149316 -0.5574098098 0.0287435608 -0.557331509 0.0221560254 0.1872940611
720295680.0 -0.0097779982 0.18598904 0.0226110888 -0.5574162655 0.0225600192 -0.5581573872 0.0241032309 0.1872201481
725295650.0 -0.0086721036 0.1869001865 0.0173428294 -0.5581891024 0.017063215 -0.5579714264 0.0260728959 0.1875003043
730295620.0 -0.0071824874 0.1866857039 0.010952694 -0.5576165842 0.010544909 -0.557392036 0.0279448929 0.1879289443
735295590.0 -0.0049683858 0.1871526116 0.0048537854 -0.5578132352 0.0045269164 -0.5579984899 0.0301196002 0.1869351423
740295560.0 -0.0032778355 0.1872907186 -0.0010243866 -0.5580666289 -0.001133666 -0.5580317976 0.0320220975 0.18708427
745295530.0 -0.0015481239 0.1877891944 -0.0068719132 -0.5575343036 -0.0064483653 -0.5576803864 0.0338801715 0.1866743896
750295500.0 -6.25677e-05 0.1879070629 -0.0126682171 -0.5573954948 -0.0131960982 -0.5578469322 0.0359995078 0.1866742618
755295470.0 0.001396857 0.1883571126 -0.0189196642 -0.5579643029 -0.019376043 -0.5582086432 0.0384624137 0.186892231
760295440.0 0.0034786579 0.188841398 -0.0258831048 -0.5573249452 -0.0254709533 -0.5568603586 0.0402951753 0.1855054869
765295410.0 0.0054221277 0.188573823 -0.0309681854 -0.5567423279 -0.0311716949 -0.5570019355 0.0422216461 0.1858408649
770295380.0 0.0068953085 0.1891400586 -0.0364592835 -0.5561815659 -0.0370548407 -0.5569362588 0.0437330844 0.1855311989
775295350.0 0.0087983355 0.1890495099 -0.0431336081 -0.5562027582 -0.0431043832 -0.556094474 0.0464837585 0.1851902483
780295320.0 0.0103253794 0.1891946196 -0.0486759317 -0.5551565551 -0.0489161147 -0.5556060477 0.0486711409 0.1846654746
785295290.0 0.0121567874 0.1890824291 -0.0545387154 -0.5550775263 -0.0547829485 -0.5554081165 0.0500522997 0.1847815326
790295260.0 0.0141561561 0.1892684945 -0.0608176849 -0.5540812279 -0.0605467409 -0.5546242741 0.0520215622 0.1843012536
795295230.0 0.015709831 0.1890373119 -0.0666898719 -0.5539760003 -0.0667884875 -0.5537533016 0.0541542031 0.1830293453
800295200.0 0.0171826051 0.1895753829 -0.0723871996 -0.5524856928 -0.0725824255 -0.5530472657 0.056240373 0.182980537
805295170.0 0.018600095 0.189690936 -0.0786096123 -0.5524610727 -0.0786046973 -0.5522166477 0.0590275876 0.1826789702
810295140.0 0.0208836966 0.1895628525 -0.0843902258 -0.551061137 -0.0844561643 -0.5510535762 0.0606760638 0.182057153
815295110.0 0.0224283217 0.1896843139 -0.0902203168 -0.5502421907 -0.0899087268 -0.550417891 0.0623238837 0.1817494691
820295080.0 0.0240698094 0.1893841359 -0.095712788 -0.5487441005 -0.095718972 -0.549485088 0.0637789961 0.1815750908
825295050.0 0.0258060081 0.1894177257 -0.1020891908 -0.5482199368 -0.1021613578 -0.5480408324 0.0665117466 0.1810798696
830295020.0 0.0276130493 0.1894102701 -0.1079074905 -0.5466438453 -0.1079232202 -0.5470496707 0.0680923634 0.1797773932
