!Created with skrf (http://scikit-rf.org).
# Hz S RI R 50.0 
!freq ReS11 ImS11 ReS21 ImS21 ReS12 ImS12 ReS22 ImS22
300000.0 -0.0425926865 -0.075851663 -0.0001527296 0.0011072038 -0.0002060101 -0.0004200259 -0.7621138941 -0.2062034049
5299970.0 -0.046022366 0.0142696021 -0.0002706022 -0.0001927772 5.31144e-05 -0.0001924897 -0.7844032066 -0.010092742
10299940.0 -0.0402499614 0.032730086 -0.0002807498 6.01012e-05 7.1554e-05 3.8834e-06 -0.7874951842 -0.0059583606
15299910.0 -0.0316116241 0.0474278447 -9.03486e-05 4.77644e-05 -3.6318e-05 -0.0001068849 -0.7926265883 -0.0025270536
20299880.0 -0.0215726889 0.0593264036 -0.0001486455 -9.40755e-05 -2.16483e-05 -0.0001155365 -0.7989020388 0.0015793775
25299850.0 -0.0100854668 0.0687431372 -0.0001262622 -7.52186e-05 -4.29272e-05 9.78556e-05 -0.8058155048 0.0074928236
30299820.0 0.0016039763 0.0756677844 0.0002747595 -8.67561e-05 0.0001333852 -0.0001318974 -0.811476923 0.0153205605
35299790.0 0.0132016937 0.080170698 -6.54341e-05 0.0001868529 2.93495e-05 9.4625e-06 -0.8165752173 0.0247472481
40299760.0 0.0245363222 0.0831412475 -3.35873e-05 0.0001269382 -8.01156e-05 -7.83354e-05 -0.8211795558 0.0342293395
45299730.0 0.0350856961 0.0842251661 3.6955e-06 0.0002306875 6.58804e-05 1.70718e-05 -0.8236071184 0.0439024234
50299700.0 0.0454877702 0.0844026285 -0.0001136781 -0.0002045957 -7.71597e-05 -5.99272e-05 -0.8258535416 0.0538351765
55299670.0 0.0548675382 0.0836638779 0.0001301144 -8.10355e-05 -0.000172535 0.0001314155 -0.8278176477 0.0640958822
60299640.0 0.0634102352 0.0814881979 0.0001087314 -0.0002103394 -0.0001170804 -0.0001732432 -0.8297143418 0.0738089643
65299610.0 0.0716689148 0.0790967219 0.0001336335 5.26803e-05 3.2992e-06 -4.6809e-06 -0.8297215946 0.083825775
70299580.0 0.078023966 0.0763492014 5.70432e-05 0.0001522729 -2.99687e-05 1.95897e-05 -0.8306095764 0.0935710549
75299550.0 0.0846948611 0.0730725394 -9.14781e-05 -7.10763e-05 2.44054e-05 -1.22374e-05 -0.8301479441 0.1042747731
80299520.0 0.0901554558 0.0694221531 -7.50701e-05 -8.66509e-05 -1.56332e-05 8.49573e-05 -0.830291661 0.1142259902
85299490.0 0.0956551466 0.0655911517 -0.0002602 0.0002122504 -8.90403e-05 0.0001330274 -0.8291630054 0.1233095728
90299460.0 0.1003748891 0.0620606308 4.05783e-05 0.0004439599 0.0001963632 0.0001578628 -0.8281731826 0.1325520826
95299430.0 0.1044915779 0.0581372849 0.000160477 -2.32402e-05 6.56418e-05 0.0001604717 -0.8277805696 0.1428059971
100299400.0 0.1081227997 0.054293526 -8.96819e-05 5.85232e-05 0.0001722139 4.34896e-05 -0.8266094325 0.1520270462
105299370.0 0.1116861464 0.0503426331 -3.68941e-05 9.33868e-05 6.9875e-05 -5.9744e-05 -0.8253478521 0.1608308985
110299340.0 0.1147227578 0.0463622005 -0.0002956543 3.32839e-05 -2.31537e-05 8.9281e-06 -0.8240963709 0.1698736045
115299310.0 0.1169568414 0.042584874 6.47789e-05 -1.68399e-05 8.02979e-05 -5.30088e-05 -0.8225863411 0.1792753433
120299280.0 0.1193551498 0.0387743391 0.0002342616 5.8888e-05 -5.25639e-05 0.0001668889 -0.8208664741 0.1878745163
125299250.0 0.1214814892 0.0351537183 9.70072e-05 -6.02819e-05 3.73376e-05 0.0001295246 -0.8189895951 0.1974499881
130299220.0 0.1230256274 0.0314013378 -5.55618e-05 1.37263e-05 -5.39266e-05 0.0002603785 -0.8174720587 0.2057593596
135299190.0 0.1248894159 0.0276225212 -3.44172e-05 5.63605e-05 0.0001957277 7.55604e-05 -0.8156153059 0.2148554972
140299160.0 0.1261604771 0.0245433646 0.0002894395 0.0003043702 -0.000131227 3.74224e-05 -0.8136635261 0.2234727515
145299130.0 0.1273231753 0.0212024693 0.0002012868 -8.9522e-06 -4.28529e-05 6.59971e-05 -0.8112264989 0.2323648549
150299100.0 0.1284392727 0.0177893321 7.6187e-06 0.0001557357 -1.35311e-05 8.43739e-05 -0.8091841652 0.2416327999
155299070.0 0.1289559025 0.0145874124 2.6208e-06 0.0002097058 2.9602e-06 2.28639e-05 -0.8069645553 0.2503589972
160299040.0 0.129942397 0.0114999387 0.0001103516 0.0001613985 0.0002298832 4.46984e-05 -0.8043769139 0.2592118256
165299010.0 0.1305048083 0.0086651662 5.23603e-05 -0.0001752234 1.33174e-05 8.36534e-05 -0.8014686802 0.2672020885
170298980.0 0.1309075557 0.0053144497 -0.0001287175 7.31436e-05 0.0001245602 0.0001193631 -0.7986322628 0.2756498402
175298950.0 0.1313324159 0.0023827024 0.0001510872 0.0001080046 2.41976e-05 -4.99153e-05 -0.7959992313 0.2852675822
180298920.0 0.1314057131 -0.0003097035 -7.3591e-05 5.38841e-05 4.86093e-05 2.36109e-05 -0.7927942739 0.2939341769
185298890.0 0.1315715568 -0.0033966514 0.0001784293 -1.0787e-06 4.10195e-05 0.0001659086 -0.7903895526 0.3017295026
190298860.0 0.1316429484 -0.0057806053 9.7908e-05 -8.88691e-05 -1.9e-09 6.12462e-05 -0.7863722014 0.3098793019
195298830.0 0.1318172849 -0.0083408012 0.0001430098 4.6586e-06 4.9449e-05 -1.65892e-05 -0.7837015841 0.3179454393
200298800.0 0.1320709041 -0.011340535 -0.0001610647 -2.08713e-05 -9.7959e-06 0.0002170027 -0.7804788973 0.3269017828
205298770.0 0.1312453156 -0.0137552307 8.7646e-05 -0.0001601633 0.0001851434 -0.0001838753 -0.7769812089 0.3352458776
210298740.0 0.1317095728 -0.0159427012 7.7092e-06 0.0001922115 0.0001187582 0.0002378896 -0.7738050743 0.3436278089
215298710.0 0.1310038283 -0.0185283764 -2.40349e-05 0.0002606621 3.52717e-05 -0.0001384504 -0.770411192 0.3515433468
220298680.0 0.1308520438 -0.021094677 0.0001397276 4.60413e-05 -5.84091e-05 -0.0001073262 -0.7661810618 0.3596721621
225298650.0 0.1307184903 -0.0233676058 0.0001917582 0.0001645948 -5.72773e-05 6.96756e-05 -0.7624585671 0.3676843048
230298620.0 0.130073803 -0.0255133251 -0.0001431393 6.0722e-05 2.3842e-06 0.000239034 -0.7586337976 0.3754247716
235298590.0 0.1294977004 -0.0278201566 0.0001525871 0.0001326547 0.0001762619 4.57979e-05 -0.7546038725 0.3835980141
240298560.0 0.1289970902 -0.0297908171 -3.93041e-05 -0.00012627 0.0001458812 -7.85394e-05 -0.7507363 0.3910321245
245298530.0 0.1283142082 -0.0318330656 0.0002194011 0.0005374389 -7.92037e-05 2.27634e-05 -0.7473802304 0.398672496
250298500.0 0.1277963699 -0.0339124167 2.4868e-06 0.0002176665 0.000140011 0.0001835939 -0.7426082575 0.4069731926
255298470.0 0.1272708407 -0.0357230361 7.60967e-05 0.0003590962 0.000144419 9.469e-07 -0.7388467979 0.4149135391
260298440.0 0.1265393342 -0.0382147507 9.0442e-06 5.20192e-05 -0.0001077377 6.9384e-06 -0.7337929788 0.4217685637
265298410.0 0.1257853403 -0.039708191 0.0002065935 -3.13654e-05 1.18488e-05 -6.90544e-05 -0.7293659387 0.4298580118
270298380.0 0.1254050393 -0.0419399756 -5.61881e-05 0.0002270507 -2.13644e-05 3.27066e-05 -0.7249388573 0.4382094357
275298350.0 0.1242147925 -0.0435039399 0.0002035225 8.84737e-05 0.0001428308 0.0002452856 -0.7196138725 0.4456859548
280298320.0 0.1236209627 -0.0452912222 0.000174527 0.0002332329 0.0002008654 9.54191e-05 -0.7154470041 0.4530918269
285298290.0 0.1226961716 -0.0471460179 6.83729e-05 0.0001119212 0.0001635728 0.0001683251 -0.7114785743 0.4607881347
290298260.0 0.1218731417 -0.0490157876 0.0001209918 -9.27098e-05 1.14042e-05 6.11815e-05 -0.7059648336 0.467652689
295298230.0 0.1207971999 -0.0510169083 0.0001755083 -4.36316e-05 2.63149e-05 2.5664e-05 -0.7009536688 0.4753718261
300298200.0 0.1203778193 -0.0525350686 6.66995e-05 0.0002271747 -0.0001667585 0.0001386558 -0.6962027332 0.4822385514
305298170.0 0.1195268278 -0.0545801207 6.428e-05 0.0001695039 0.0001340546 0.0001431732 -0.6908065553 0.4896664702
310298140.0 0.1185023793 -0.0565568567 0.0001800115 8.94642e-05 0.0003125424 0.0002106699 -0.686092381 0.497462297
315298110.0 0.1176432915 -0.0584316239 0.0001379035 -8.91732e-05 4.88225e-05 0.0001406857 -0.6807927572 0.5036291234
320298080.0 0.1163935298 -0.0600763328 0.0001916766 0.0001362432 6.73295e-05 0.0002698998 -0.676115741 0.5107020516
325298050.0 0.1145780606 -0.0623365095 0.0002506078 0.0002061367 0.000267185 9.96996e-05 -0.6697288426 0.5176778835
330298020.0 0.1135153592 -0.063578836 1.399e-07 0.0001548659 7.65234e-05 -0.0001765192 -0.6647695506 0.5244853515
335297990.0 0.112221347 -0.064814918 0.0002462685 6.05892e-05 0.0001486411 -5.78374e-05 -0.6593074493 0.5312693798
340297960.0 0.1108863261 -0.0662408377 0.0001540169 -7.77006e-05 -9.7255e-06 0.0001224447 -0.6542588846 0.5384927941
345297930.0 0.1097522727 -0.0676189005 6.38051e-05 0.0001919133 3.27318e-05 0.0001438663 -0.6482249684 0.545036437
350297900.0 0.1087126013 -0.0692453814 3.81186e-05 3.19782e-05 0.0001662935 0.0001145188 -0.6428752225 0.551479622
355297870.0 0.1074332909 -0.0706145105 0.0001897839 0.0002471031 1.2686e-05 -0.0001227982 -0.6369484341 0.5590730767
360297840.0 0.1060268128 -0.0717279101 -6.8549e-06 8.67672e-05 0.000289644 0.0001228054 -0.6306271759 0.5649142034
365297810.0 0.1051596556 -0.0731215114 6.884e-05 8.1941e-05 0.0003357205 9.78603e-05 -0.6258706927 0.5710569883
370297780.0 0.1040087893 -0.0747623174 0.0002837914 0.0001694957 0.0002025209 4.96565e-05 -0.6191717471 0.5777599144
375297750.0 0.102569931 -0.0756457042 0.0002307159 0.0001854605 0.0001406785 0.0001674232 -0.6129958102 0.5845041801
380297720.0 0.1014114003 -0.0767859038 0.0001507646 4.71294e-05 0.0002517037 0.0002266581 -0.6067212004 0.5905459906
385297690.0 0.100084217 -0.077990224 1.82951e-05 -3.85134e-05 0.0001635144 -3.63092e-05 -0.601320197 0.5967372663
390297660.0 0.0989125068 -0.0796968422 -6.65964e-05 0.0002769091 0.0001550321 0.0002046743 -0.5945517894 0.6022419708
395297630.0 0.0979109182 -0.0805702376 0.0002532929 0.0002874433 0.0002587656 7.3471e-05 -0.5879596121 0.6078485811
400297600.0 0.0960679687 -0.0819804043 0.0001468966 0.0002557999 0.0002344971 0.0001143005 -0.5828691248 0.6139875554
405297570.0 0.0950324474 -0.0833968401 0.0004451866 0.0001137418 1.82872e-05 -9.87563e-05 -0.575269651 0.6201988908
410297540.0 0.0942681911 -0.0842596055 8.987e-05 5.74163e-05 0.0004106883 0.0001564883 -0.5696676637 0.6263593651
415297510.0 0.0926767763 -0.0852491309 -0.000167529 0.0001809188 9.09843e-05 0.0002403764 -0.5626817438 0.6316806727
420297480.0 0.0914574784 -0.0868804163 8.9013e-06 -3.52017e-05 0.0001591844 0.0002092925 -0.556133609 0.6381433444
425297450.0 0.0904022554 -0.0876954709 0.0002474379 0.0003091188 6.15211e-05 0.000159541 -0.5496785833 0.6430206999
430297420.0 0.0890644569 -0.0886592886 0.0002433015 -6.90645e-05 1.66589e-05 9.20676e-05 -0.5429660312 0.6482973076
435297390.0 0.0876980134 -0.0899671113 9.36668e-05 5.93721e-05 0.0002181616 9.016e-06 -0.5367108282 0.6545741346
440297360.0 0.0861796978 -0.0909512329 0.0001691397 -2.91078e-05 0.0001007799 2.24614e-05 -0.5303332651 0.659751387
445297330.0 0.085219658 -0.0919233508 0.0002195398 0.0001122199 0.0002117378 -5.2474e-05 -0.5226975712 0.6652544249
450297300.0 0.0841256806 -0.0931532058 0.0003736613 0.0002857952 0.0001281915 0.0001181068 -0.5158361106 0.6697485363
455297270.0 0.0825645356 -0.0939513565 0.000387121 2.08396e-05 8.45978e-05 0.0001464784 -0.5088634091 0.6752269751
460297240.0 0.0815159472 -0.0949672543 0.0001908738 0.000171703 -2.97831e-05 0.0001599703 -0.5020005294 0.6802638605
465297210.0 0.0801207265 -0.0960233736 0.0001831055 4.71809e-05 0.0002814957 -2.24904e-05 -0.4951940096 0.6860951862
470297180.0 0.0787466712 -0.0969713327 0.0001859634 4.18352e-05 0.0002632575 9.88057e-05 -0.4878069884 0.6907883837
475297150.0 0.0771541399 -0.0976751126 0.0001527868 2.33561e-05 0.0001791234 2.28823e-05 -0.4813347466 0.6954283151
480297120.0 0.0762102002 -0.0986732768 0.000267958 0.0002302637 0.0002708292 0.0001917028 -0.4743578413 0.700587636
485297090.0 0.0747133276 -0.0995723573 0.0003118993 0.0001169706 0.0003910473 -5.24598e-05 -0.4667339428 0.7053241917
490297060.0 0.0740467693 -0.1004915652 0.0003818467 -5.2828e-06 0.0002472538 0.0002126759 -0.4589812269 0.7094992458
495297030.0 0.0721015858 -0.1010976469 0.0001101361 0.000158759 0.0003938117 0.0001640891 -0.4521263816 0.7139631638
500297000.0 0.0709960471 -0.1018969956 0.0002176554 0.000252545 0.0001910468 6.81637e-05 -0.4448671634 0.7190713406
505296970.0 0.0698193593 -0.1026700636 0.0002431606 0.0002455571 0.0002745372 0.00016459 -0.4373987789 0.7231351383
510296940.0 0.0684731096 -0.1035183106 0.0003183674 5.4044e-05 0.0002384025 1.14662e-05 -0.4299632307 0.7282411601
515296910.0 0.0670031672 -0.1041037622 0.0001344758 0.0002918916 0.0003896539 -5.3736e-05 -0.4229030883 0.7313747828
520296880.0 0.0658982234 -0.105056487 0.0002198854 0.0001939007 0.0002446836 0.000208839 -0.4151840087 0.7362037818
525296850.0 0.0642709293 -0.1056818399 0.0004714474 0.0001100446 0.0002242943 9.61133e-05 -0.4079231308 0.739408635
530296820.0 0.0630481373 -0.1059903165 0.0001726887 0.0002801669 0.0001233143 7.42393e-05 -0.4001369591 0.7434983019
535296790.0 0.0620183107 -0.1068409138 0.0003178822 9.28341e-05 0.0004935471 0.0001198892 -0.3935962591 0.7478992163
540296760.0 0.0608886699 -0.1073388811 0.0002249821 0.0001395407 0.0004003318 7.18921e-05 -0.3851075128 0.7518411454
545296730.0 0.0590405393 -0.1078113361 0.0004508384 0.0002345598 0.0001450992 0.0002026691 -0.3774408847 0.7557419009
550296700.0 0.0577678084 -0.1082551735 0.0001872229 0.000243497 0.0002936625 0.0001100569 -0.3694598105 0.7595181238
555296670.0 0.0566816021 -0.1088902406 0.0003088982 -5.40621e-05 0.0004046707 5.01561e-05 -0.3624683574 0.7621507878
560296640.0 0.0552208647 -0.1094289213 8.65994e-05 -0.0001800837 0.0002437592 4.3493e-06 -0.3544086802 0.766586429
565296610.0 0.0537354807 -0.1099293973 0.0003420829 -0.0001852997 0.000215869 -5.62589e-05 -0.3463720354 0.7702354779
570296580.0 0.0523017659 -0.110136395 0.0003709677 -1.41596e-05 0.0003099178 2.52286e-05 -0.3388902766 0.773667576
575296550.0 0.0510861803 -0.110833378 0.0001990181 2.64279e-05 0.0003774325 0.0001255636 -0.330775989 0.7765134172
580296520.0 0.0497532206 -0.1107404177 0.0001213493 0.0001985098 0.0004578071 -0.00021493 -0.3233157657 0.7800711245
585296490.0 0.0484491676 -0.1112555467 0.0002814596 -6.03424e-05 0.0002023862 0.000115905 -0.3150621505 0.7835949608
590296460.0 0.0472718895 -0.1113917316 0.0003133192 1.87348e-05 8.12761e-05 -1.80119e-05 -0.3075089358 0.7858321081
595296430.0 0.0456454036 -0.1119539917 0.0003248221 -0.000169741 0.0003194897 4.36752e-05 -0.2993384706 0.7887402063
600296400.0 0.0443058695 -0.1121924844 0.0004216607 0.000144764 0.0003123888 0.0002122967 -0.2918183748 0.7919010231
605296370.0 0.0427490645 -0.1121395705 0.0001961163 3.83068e-05 9.66478e-05 7.3527e-05 -0.2837473698 0.7953202363
610296340.0 0.0415759324 -0.1125897406 0.0002321272 -1.53894e-05 0.000199379 9.28527e-05 -0.27584819 0.7977758497
615296310.0 0.0402756111 -0.1127452295 0.0002469392 0.0001315994 0.0004837306 0.0001989386 -0.2673469321 0.8010816182
620296280.0 0.0390199483 -0.1126881848 0.0003131156 0.0002824655 0.0003554393 6.2382e-06 -0.259882686 0.8036196987
625296250.0 0.0372116648 -0.1130754309 0.0001852767 -4.54822e-05 0.0002492803 0.0002340711 -0.2514207517 0.8050193529
630296220.0 0.0358760029 -0.1128917646 5.56906e-05 2.58868e-05 0.0003549237 -5.90897e-05 -0.2431935849 0.8080965143
635296190.0 0.0345120725 -0.1130793372 0.0001643604 -7.5064e-05 0.0004123844 7.72788e-05 -0.2353625322 0.8103275938
640296160.0 0.0328345119 -0.1133896033 0.0002595664 -4.90206e-05 0.0003567539 5.76882e-05 -0.2270054933 0.8127049671
645296130.0 0.0320160156 -0.1132187672 0.0004983161 3.61607e-05 0.0002475613 -9.7913e-06 -0.2192439751 0.8143725657
650296100.0 0.0302855162 -0.1132357165 0.0004471774 9.6924e-06 0.0004182252 -0.0001293966 -0.2108403453 0.8168727061
655296070.0 0.0288727007 -0.1135345846 0.0004411071 -0.0002777732 0.0002548376 2.09198e-05 -0.2027753683 0.8188168279
660296040.0 0.0271808949 -0.1132539352 0.0004073379 0.0001416671 0.0003969003 1.98832e-05 -0.1939669513 0.8209473928
665296010.0 0.0259031346 -0.1132524973 0.0002777592 4.56503e-05 0.0001501322 0.0001120106 -0.1859558051 0.8226561567
670295980.0 0.0244671509 -0.1132602258 0.0003803952 0.0002242163 0.0001997911 0.0001586377 -0.1782427092 0.8246112162
675295950.0 0.0227629505 -0.1133831072 0.0002129302 3.5684e-05 0.000337558 0.000171644 -0.1696962047 0.826267418
680295920.0 0.0212804416 -0.1130856436 0.0001015074 -2.0927e-05 0.0002871082 -3.45671e-05 -0.1610971198 0.8277578463
685295890.0 0.0200170175 -0.113035244 0.0002672097 0.0001684071 0.0002317807 -3.0252e-06 -0.153098963 0.8296028338
690295860.0 0.01851113 -0.1129150316 0.0004476269 -0.0001426553 0.000249649 1.0963e-06 -0.1448663342 0.8311050601
695295830.0 0.0167667625 -0.112855564 0.0003772135 8.668e-06 0.0002679243 -7.89026e-05 -0.1369904074 0.8328267674
700295800.0 0.0154585223 -0.112408012 0.0003997188 -7.63771e-05 0.000467194 0.0001186465 -0.1284454304 0.8334768196
705295770.0 0.0139642824 -0.1123290385 0.0003631893 -0.0001552761 0.0004302383 8.3707e-06 -0.1205508753 0.8353798652
710295740.0 0.0128357106 -0.1122212884 0.0003646738 -0.0001038689 0.000297533 -3.27243e-05 -0.1113220753 0.8356108859
715295710.0 0.0114493346 -0.1120672078 0.0002678351 -2.56293e-05 0.0002469502 -6.05713e-05 -0.1032033293 0.8365970608
720295680.0 0.0096404257 -0.1120226017 0.0004310181 4.58168e-05 0.000406377 -3.59498e-05 -0.094748778 0.8375645384
725295650.0 0.0080779128 -0.111385478 0.0001857144 -0.0002029309 0.0003933058 -0.000188304 -0.0873271747 0.8393044325
730295620.0 0.00637586 -0.1112458914 0.0004734393 -7.65347e-05 0.000451758 2.58158e-05 -0.078584218 0.8399581647
735295590.0 0.0051036129 -0.1108207051 0.0001483925 -7.36547e-05 0.0004140721 -6.01729e-05 -0.0696056459 0.8402876762
740295560.0 0.0033148868 -0.1107196957 0.0004190198 -1.69905e-05 0.0003678223 -2.47061e-05 -0.0612771199 0.8410425269
745295530.0 0.0023409304 -0.11045016 0.0003230453 -2.79263e-05 0.0003061069 2.3465e-06 -0.0535513014 0.8418165475
750295500.0 0.000416803 -0.1100695754 0.0003013003 -0.000115541 0.0004737823 -0.0002236805 -0.0445617858 0.8425024562
755295470.0 -0.0007516512 -0.1099001097 0.0002545788 0.0001882185 0.0003420531 -4.54361e-05 -0.0369655625 0.8428228557
760295440.0 -0.00243803 -0.1093045219 0.0002159776 -0.0001158219 0.0004660158 -1.54134e-05 -0.0279540935 0.8426156699
765295410.0 -0.0037100677 -0.1091714206 0.0004719661 0.0001751759 0.0004781914 -5.39297e-05 -0.0196806841 0.8430406925
770295380.0 -0.0053851669 -0.1085158833 0.000262179 -0.0001613778 0.000359802 3.48203e-05 -0.0115809209 0.8432948474
775295350.0 -0.0066816685 -0.1083825532 0.0002391132 -9.15133e-05 0.0004765142 -2.6171e-05 -0.0032223609 0.8433268505
780295320.0 -0.0083033492 -0.1077029329 0.0003224907 -0.000148466 0.0004701211 4.40984e-05 0.0055355408 0.843654913
785295290.0 -0.0095988819 -0.1076392764 0.0004554298 -3.25198e-05 0.0003702746 -0.0001573973 0.0135922186 0.8434197407
790295260.0 -0.0112517269 -0.1074535457 0.0005241438 -9.97558e-05 0.000242186 -6.80352e-05 0.0216976825 0.8431625597
795295230.0 -0.0127853318 -0.1071034071 8.67605e-05 -0.0001984494 0.0002885036 0.0001562824 0.0300996742 0.8423306455
800295200.0 -0.0139133417 -0.1065681498 0.0004353595 -0.0001131143 0.0004161072 -0.0001285446 0.0383351913 0.8420943032
805295170.0 -0.0157021111 -0.106227352 0.0001159867 -0.0003900497 0.0002982651 -0.0001242192 0.0479212684 0.8417248071
810295140.0 -0.016739757 -0.1053040662 0.0004198336 -0.0002277624 0.0003429702 -8.31553e-05 0.0555532098 0.8411662473
815295110.0 -0.0184590472 -0.1051118254 0.0003524531 -3.70814e-05 0.0001820917 -1.81772e-05 0.0634576459 0.8404861156
820295080.0 -0.0199106195 -0.1048059179 0.0004038014 -0.0001434927 0.0002985799 0.0001060554 0.0714773841 0.8402332557
825295050.0 -0.0213458274 -0.104207672 0.0002704398 1.24817e-05 0.0003670556 0.0001118712 0.0803130978 0.839269151
830295020.0 -0.0226676467 -0.1036503052 0.0004378957 3.08319e-05 0.0003883694 -0.0001258081 0.0880334576 0.8382017601
835294990.0 -0.023988075 -0.1033472201 0.0003891663 -0.0002393631 0.0004378347 5.9276e-06 0.0969431748 0.8376628533
840294960.0 -0.0253188435 -0.1028538793 0.0003293185 -0.0001867792 0.000574521 4.89964e-05 0.1058950582 0.8367811148
845294930.0 -0.0269420663 -0.102057732 0.000217695 0.0001080324 0.0004752966 -3.33409e-05 0.1135846616 0.8351548856
850294900.0 -0.0280483222 -0.1019532019 0.0004309459 -0.0001981197 0.0003054918 -7.47727e-05 0.1209973957 0.8345512212
