!Created with skrf (http://scikit-rf.org).
# Hz S RI R 50.0 
!freq ReS11 ImS11 ReS21 ImS21 ReS12 ImS12 ReS22 ImS22
300000.0 -0.3215019363 -0.0782427283 0.3770481499 0.0425766368 0.3730103911 0.0397773146 -0.3201856425 -0.0973203191
5299970.0 -0.3264171919 0.004188421 0.3784078784 0.0022807555 0.3782043017 0.0024585539 -0.3242775653 0.0049383981
10299940.0 -0.3239914501 0.0130920869 0.3794880006 0.0020292073 0.3792497515 0.0022531566 -0.3217941145 0.0159813225
15299910.0 -0.3215265812 0.0205655597 0.3817726052 0.002237115 0.3820079919 0.0023082839 -0.3184034578 0.0238301821
20299880.0 -0.318635465 0.0260526764 0.3844414224 0.0018175274 0.3849255998 0.0016872967 -0.3148532756 0.0303867604
25299850.0 -0.3155475498 0.0316397198 0.3880470236 0.0001669669 0.3878495166 0.0002430454 -0.3109180746 0.0359085688
30299820.0 -0.3127557435 0.0358175784 0.3914089743 -0.0022972044 0.3914873424 -0.0024281184 -0.3071547767 0.0409718052
35299790.0 -0.309890305 0.0399854573 0.3946377089 -0.0055034571 0.3947912856 -0.0053813326 -0.3036881846 0.0450708069
40299760.0 -0.3071683679 0.0434655555 0.3976500193 -0.0085846135 0.3980462935 -0.0088123742 -0.3002143991 0.0484314712
45299730.0 -0.3046974168 0.0466985135 0.4006071033 -0.0128085184 0.4008009732 -0.0127679781 -0.2974166948 0.0518367197
50299700.0 -0.3024801372 0.0491850889 0.4034887234 -0.0172414986 0.4034033096 -0.0172361876 -0.2942291592 0.0544126121
55299670.0 -0.3003045854 0.0523871642 0.4058054326 -0.0224220629 0.4054812157 -0.022231464 -0.2917098575 0.0571732086
60299640.0 -0.2978950097 0.0549702321 0.4073357121 -0.0269059875 0.407690914 -0.0269257274 -0.2891369851 0.0591487411
65299610.0 -0.2959910179 0.0572684971 0.4089106523 -0.0319915407 0.4089008119 -0.0319027835 -0.2870867447 0.0614177404
70299580.0 -0.2947414522 0.06026137 0.4107031498 -0.0371456092 0.4103378433 -0.0367523079 -0.2852324761 0.0638066651
75299550.0 -0.2929856495 0.0623089936 0.4112387743 -0.0419781656 0.4114813664 -0.0423157999 -0.2830702014 0.0658142149
80299520.0 -0.291662536 0.0651820389 0.4124351695 -0.0475272233 0.4124292577 -0.0474432295 -0.2814941644 0.0682246184
85299490.0 -0.2901682804 0.0667431526 0.4126881778 -0.0527249129 0.4125725054 -0.0523470684 -0.2803042909 0.0699047431
90299460.0 -0.2885516082 0.0693196812 0.4128588069 -0.0581148152 0.4133358553 -0.0581007467 -0.2784430928 0.0721003766
95299430.0 -0.287380279 0.0717432146 0.4135714024 -0.063225676 0.4135209164 -0.0632746481 -0.2767461886 0.0743948076
100299400.0 -0.2864068633 0.0740643145 0.4129361966 -0.0681928216 0.4133327422 -0.0685191907 -0.2757251083 0.0759446943
105299370.0 -0.2851484037 0.0765400892 0.4131413518 -0.0739401359 0.413464439 -0.0739087949 -0.2737474066 0.0784333683
110299340.0 -0.2839102203 0.0788194834 0.4133859071 -0.078617698 0.4131717878 -0.0785645938 -0.2727271962 0.0800692019
115299310.0 -0.2828961902 0.0809754804 0.4129287247 -0.0840321848 0.4128339789 -0.083810241 -0.2714697682 0.0821528916
120299280.0 -0.2819202388 0.0831950859 0.412429722 -0.0891557779 0.4125169105 -0.0891661215 -0.2703054028 0.0843876907
125299250.0 -0.2810128852 0.085419202 0.4117983726 -0.0937214031 0.4119698077 -0.093789453 -0.2694551013 0.0865043826
130299220.0 -0.2802335401 0.0881758552 0.4111066736 -0.099121958 0.4111710011 -0.0988379196 -0.2683179268 0.0882893095
135299190.0 -0.2794890996 0.0906393849 0.4107224699 -0.1041570421 0.4104846852 -0.1041835808 -0.2673053622 0.0909008541
140299160.0 -0.2785378761 0.0932713319 0.409612454 -0.1093375748 0.4097602069 -0.1091914253 -0.2661369028 0.0937661056
145299130.0 -0.277375667 0.0960147061 0.4089758079 -0.1142318807 0.408539487 -0.1140919532 -0.265273143 0.0956076194
150299100.0 -0.2762086833 0.0983823715 0.4076830916 -0.1189411475 0.407906841 -0.1186424917 -0.2644291014 0.0981856728
155299070.0 -0.2758185324 0.1008166015 0.4068851187 -0.1243068187 0.4065764109 -0.1237571139 -0.2630165408 0.1008252197
160299040.0 -0.2745433219 0.103328957 0.4051078482 -0.128779054 0.4051594992 -0.1285603736 -0.2628297432 0.103394095
165299010.0 -0.273577352 0.1059382285 0.4040880596 -0.1339346573 0.4042634911 -0.1336262438 -0.2614928315 0.1058050255
170298980.0 -0.2726258023 0.1086922524 0.4026293983 -0.1386282376 0.402750925 -0.1382549517 -0.2602269841 0.1077242254
175298950.0 -0.2719738845 0.1113132846 0.4017620648 -0.1432607551 0.401411528 -0.1431678058 -0.2598719305 0.1109204819
180298920.0 -0.270925012 0.1139166809 0.3997566098 -0.148006628 0.4000586855 -0.1478090361 -0.2584987773 0.1132627454
185298890.0 -0.2693968713 0.1160802631 0.398441965 -0.1524694671 0.3982354755 -0.1526085671 -0.2572912909 0.1158410321
190298860.0 -0.2686424172 0.119464672 0.3968568538 -0.1571691121 0.3971273377 -0.1573539394 -0.2563130334 0.1184087389
195298830.0 -0.2676510168 0.1218592505 0.3951937073 -0.1620254395 0.3951867413 -0.1616707012 -0.2550979853 0.1208880414
200298800.0 -0.2662340889 0.1248100628 0.3932615725 -0.166920097 0.3938065693 -0.1669563844 -0.2543675947 0.1234364613
205298770.0 -0.2655986871 0.1273700994 0.3913039663 -0.1715816716 0.3916187997 -0.1710545938 -0.2532360911 0.1254018703
210298740.0 -0.2642991565 0.1298266302 0.3897728127 -0.1755649214 0.3897441873 -0.1757076994 -0.2518807568 0.1284967332
215298710.0 -0.2633112347 0.1324180859 0.3879611526 -0.1799969164 0.3876510696 -0.1807978689 -0.2509100758 0.1308400509
220298680.0 -0.2620177495 0.1350358573 0.3855433058 -0.1844760905 0.3860399118 -0.1849648566 -0.25000589 0.1334062209
225298650.0 -0.2610856596 0.1381538415 0.3840492312 -0.1895559598 0.3840627458 -0.1890332439 -0.2488585022 0.1357934613
230298620.0 -0.2594320788 0.1408936251 0.3817036801 -0.1931916846 0.3824891639 -0.1936087864 -0.2478606756 0.138403885
235298590.0 -0.2582871341 0.1435730062 0.3795341054 -0.1976439571 0.3799590057 -0.1977098755 -0.2468808747 0.141338158
240298560.0 -0.2570980884 0.1461578734 0.3777709678 -0.2025108581 0.3778286182 -0.2023776623 -0.2452563932 0.1441624275
245298530.0 -0.2559250026 0.1488955805 0.3757355756 -0.2067988561 0.3753540516 -0.2066338073 -0.2437637542 0.1456612213
250298500.0 -0.2542977276 0.1515247794 0.3723241665 -0.2107070457 0.3726154679 -0.2107110077 -0.2426969654 0.1485343039
255298470.0 -0.2529296454 0.1540715006 0.3702068946 -0.2149048193 0.3705675923 -0.2150234222 -0.241153071 0.1510362173
260298440.0 -0.2516544387 0.1566996845 0.3681721804 -0.2192218454 0.3682351997 -0.2191752528 -0.2395718107 0.1538357426
265298410.0 -0.249926813 0.1596515845 0.3657516365 -0.2234497011 0.3658251011 -0.2233935199 -0.2382398662 0.1562204504
270298380.0 -0.2484800763 0.1622957207 0.3636064639 -0.2271923035 0.3635586376 -0.2274042514 -0.2366712131 0.1587272468
275298350.0 -0.2467989167 0.1650514071 0.3606754647 -0.2316555434 0.3611198032 -0.2317193931 -0.2351838711 0.1608628331
280298320.0 -0.2450365733 0.1677815942 0.358752127 -0.2359282402 0.3582970023 -0.2357927664 -0.2335686798 0.1638229803
285298290.0 -0.2434482218 0.1705418178 0.3560963874 -0.2398006477 0.3558918533 -0.2401130538 -0.2319897145 0.1659628672
290298260.0 -0.2416383549 0.1733035447 0.3532609546 -0.243555553 0.3532137494 -0.2438088311 -0.2302302194 0.1689653296
295298230.0 -0.2400161984 0.1755351176 0.3502595696 -0.24768698 0.3510097416 -0.2477032302 -0.228392897 0.170652364
300298200.0 -0.2387084632 0.1784364884 0.3482732028 -0.2516984548 0.3479388482 -0.2522718894 -0.2268558573 0.173731248
305298170.0 -0.2365400948 0.180579024 0.3449585455 -0.2561941208 0.3450628451 -0.2558804213 -0.2244129432 0.1758117027
310298140.0 -0.2349522606 0.1833422751 0.3421724766 -0.2594979548 0.3424852393 -0.25934545 -0.2231996328 0.178287744
315298110.0 -0.2330610006 0.1858321334 0.3391452954 -0.2635902688 0.3394870202 -0.2638581135 -0.221243842 0.1807440517
320298080.0 -0.2311212858 0.1884562607 0.3362730223 -0.2677797414 0.3365846061 -0.267558077 -0.2192372398 0.1830425999
325298050.0 -0.2293632772 0.1906343293 0.3334132949 -0.2714625307 0.3334788423 -0.2713924184 -0.2181562776 0.1856239228
330298020.0 -0.2275442838 0.1929180836 0.3300604401 -0.2749498348 0.3303290524 -0.2750586682 -0.2161467323 0.1878377656
335297990.0 -0.2256015613 0.1956584656 0.3269267441 -0.2785742916 0.3269008697 -0.2786990219 -0.2144386682 0.1905236895
340297960.0 -0.2242020024 0.1982221561 0.3235714642 -0.2826079098 0.3233496369 -0.2823341038 -0.212108693 0.192944389
345297930.0 -0.2220815972 0.2008875338 0.3204215284 -0.2861591484 0.3202970964 -0.2859634759 -0.2104417207 0.1950699926
350297900.0 -0.2203188658 0.203269833 0.3170299862 -0.2895876792 0.3172828411 -0.2890902744 -0.209296021 0.1979476052
355297870.0 -0.2177942666 0.2058104057 0.3138978919 -0.2930771361 0.3141980743 -0.2930205392 -0.2067350096 0.2001412824
360297840.0 -0.2160464154 0.2085862762 0.3109904295 -0.2963271648 0.3111191045 -0.2962075949 -0.2047550062 0.2026479094
365297810.0 -0.21414984 0.2107725911 0.3076511208 -0.2996173366 0.3078221085 -0.2998607685 -0.2027419869 0.2047278319
370297780.0 -0.2115262986 0.213236284 0.3039563715 -0.3032922607 0.3046665179 -0.3026852346 -0.2007244831 0.2073330388
375297750.0 -0.2094374213 0.2155229863 0.3009110338 -0.3063089511 0.3011969977 -0.3064859172 -0.1988063838 0.2093404354
380297720.0 -0.2074425446 0.2176968528 0.2973613875 -0.3096813364 0.2976544424 -0.309008932 -0.1970970553 0.2115743155
385297690.0 -0.2053585315 0.2206315371 0.2939196073 -0.3133007281 0.2940485584 -0.3132087203 -0.1948444786 0.2141135039
390297660.0 -0.2029989568 0.2227803195 0.2907122817 -0.3159836844 0.2906217302 -0.3160961193 -0.1925337011 0.2164690421
395297630.0 -0.2006211166 0.2251591603 0.2867935214 -0.3195575291 0.2869299512 -0.3195326459 -0.189990073 0.2189221595
400297600.0 -0.198438689 0.2276783132 0.2829064007 -0.3226937802 0.2837835935 -0.3225197895 -0.1881857303 0.2208738845
405297570.0 -0.1963996827 0.2295827724 0.2798687656 -0.3252768883 0.2800834053 -0.3252488974 -0.1860942889 0.2228126134
410297540.0 -0.193782654 0.2315205356 0.2765869657 -0.3285407119 0.2765275829 -0.3289000321 -0.1840235381 0.2253711281
415297510.0 -0.1911369896 0.2338507241 0.2723465048 -0.3316553842 0.2728348064 -0.3319358998 -0.1813883776 0.2272930556
420297480.0 -0.1891420389 0.2364712441 0.2687436892 -0.3346770439 0.2689027094 -0.3349135082 -0.1790178878 0.229200884
425297450.0 -0.186719422 0.2380178847 0.2655027948 -0.3372684979 0.2657015922 -0.3376602079 -0.1770595273 0.2314310879
430297420.0 -0.1844744475 0.2402160476 0.2615827005 -0.3401536418 0.2617278336 -0.3400477895 -0.1748177119 0.232978522
435297390.0 -0.1817871519 0.2424907611 0.257500535 -0.3433027175 0.2574564136 -0.3433345236 -0.1717169066 0.2352917669
440297360.0 -0.1791117874 0.2446699237 0.2536509135 -0.345900008 0.2539972701 -0.3459979195 -0.1697888677 0.2370980357
445297330.0 -0.1766905903 0.2465787333 0.2501202566 -0.3487471587 0.2501006554 -0.3485880645 -0.1670745554 0.2385748439
450297300.0 -0.1738671096 0.2483554751 0.2462983703 -0.3513592394 0.2461715185 -0.3516317421 -0.1645314704 0.2406350589
455297270.0 -0.1713987604 0.2505353962 0.242153011 -0.3539588077 0.2424812822 -0.3541358215 -0.1622042271 0.2422028534
460297240.0 -0.1688520909 0.2525582518 0.2384274057 -0.356590888 0.2387083833 -0.3570131231 -0.1600512838 0.244775342
465297210.0 -0.1661698114 0.2543035354 0.2346318165 -0.358956895 0.2345682395 -0.3594183672 -0.1569353911 0.245970746
470297180.0 -0.1634898204 0.2559490903 0.2302386679 -0.3613891471 0.230435373 -0.3617380858 -0.1544946048 0.2481030738
475297150.0 -0.1609092057 0.2577414528 0.226163774 -0.3637580096 0.2265597271 -0.3636693692 -0.1514221874 0.2496329764
480297120.0 -0.1582006826 0.2602018764 0.2224930363 -0.3666692708 0.2224409908 -0.3667584035 -0.1486496795 0.2515069203
485297090.0 -0.1553369088 0.2616084399 0.2186631716 -0.3687446381 0.2185357319 -0.3687862381 -0.1466072787 0.2532908528
490297060.0 -0.1531177752 0.2635566559 0.2146589256 -0.3714232169 0.2146088208 -0.3712233148 -0.1433313003 0.2550671117
495297030.0 -0.150314806 0.2651489063 0.2101785243 -0.3734861779 0.2107206838 -0.3734536802 -0.1411897549 0.2567906567
500297000.0 -0.1473131585 0.2668228013 0.2061051483 -0.3754814028 0.2060955236 -0.3753959054 -0.1382024942 0.2587381723
505296970.0 -0.1444672485 0.2687765965 0.2021173511 -0.3778125002 0.2020891126 -0.3783328176 -0.1356592541 0.2600795602
510296940.0 -0.1415345151 0.2705587154 0.1980441473 -0.380167603 0.1978219741 -0.380265518 -0.1325632568 0.2617441317
515296910.0 -0.1386161809 0.2720172218 0.1936901419 -0.3824219419 0.1935901039 -0.3822358931 -0.1298364144 0.2632516727
520296880.0 -0.1360084158 0.2737055191 0.1898372314 -0.3845498939 0.1896852653 -0.3842076086 -0.127323516 0.2648873767
525296850.0 -0.1328164406 0.2746414852 0.1847966694 -0.3862703696 0.1856343674 -0.3864283712 -0.1245167949 0.2666191122
530296820.0 -0.1302512667 0.2768254609 0.1810194537 -0.3882852574 0.1808479409 -0.3881662099 -0.1214934144 0.2677690055
535296790.0 -0.1277343149 0.2782625568 0.1770465191 -0.3899509268 0.1770231221 -0.3898109451 -0.1192437227 0.2693050662
540296760.0 -0.1245074054 0.2795800431 0.1726100324 -0.3925117628 0.1726496851 -0.392163852 -0.116548976 0.2706717052
545296730.0 -0.1216444557 0.2811242194 0.1677703853 -0.3938760786 0.1682230504 -0.3939252157 -0.1137512878 0.27224553
550296700.0 -0.1183253427 0.2828120829 0.1638290739 -0.3956429119 0.1640451089 -0.3958422523 -0.1109373872 0.2740293029
555296670.0 -0.1157626319 0.2838515084 0.1595287509 -0.3974702511 0.1597626853 -0.3975986932 -0.1078227713 0.2752540654
560296640.0 -0.112203638 0.2857029365 0.154811778 -0.3993284072 0.1554999775 -0.3992608032 -0.1051621015 0.2763423951
565296610.0 -0.1098578583 0.2868927057 0.1507424475 -0.4007354627 0.1509773462 -0.4008031958 -0.102182624 0.2774428165
570296580.0 -0.1070533806 0.2877078773 0.1464983555 -0.4025604257 0.1461329396 -0.4024334717 -0.0995282313 0.27919094
575296550.0 -0.1038918267 0.289623501 0.1422440249 -0.4041742095 0.142135975 -0.4039440065 -0.0962819067 0.2801208167
580296520.0 -0.1007403543 0.2905410341 0.1374894883 -0.4056571883 0.1376900401 -0.4054841435 -0.0936660724 0.2810611652
585296490.0 -0.0977303909 0.2915372543 0.1333380378 -0.406615888 0.133367658 -0.406900289 -0.0906575744 0.2823179124
590296460.0 -0.0945892228 0.2927695922 0.1288723877 -0.4078583739 0.1290698585 -0.4083681285 -0.0880932866 0.2833762657
595296430.0 -0.09140134 0.2938201643 0.1240046393 -0.4094989399 0.1240238199 -0.4097467266 -0.0848979459 0.2843304461
600296400.0 -0.0890074094 0.2949040643 0.1201371637 -0.4109066616 0.1198535263 -0.4106962387 -0.0819799912 0.2851033867
605296370.0 -0.0856446396 0.2959536556 0.1152407896 -0.4120514049 0.1151615453 -0.4120163198 -0.0785553756 0.2860676708
610296340.0 -0.0824066917 0.2972096684 0.1105778861 -0.4131572069 0.1111808613 -0.4130224909 -0.0756503416 0.2872281476
615296310.0 -0.0789664192 0.2981794704 0.1062963732 -0.4144466366 0.1059214913 -0.414792373 -0.0723273545 0.2880279906
620296280.0 -0.076019748 0.2986297237 0.1016835608 -0.4152554755 0.1021852547 -0.4151188375 -0.0699013201 0.289034929
625296250.0 -0.0730636907 0.2997588623 0.0975098739 -0.4166216202 0.0973483125 -0.4168550264 -0.0660515437 0.2898342914
630296220.0 -0.069244034 0.3006411366 0.0923747225 -0.417804097 0.0925604607 -0.4175325966 -0.0633004152 0.2905656711
635296190.0 -0.0670458113 0.3016797582 0.0880487356 -0.4181482317 0.0885144144 -0.4185298983 -0.0604029326 0.2914106713
640296160.0 -0.0635526142 0.3026740228 0.0837373575 -0.4190475272 0.0836784553 -0.4195302185 -0.0571760244 0.292155053
645296130.0 -0.0605503492 0.3032942961 0.0791023948 -0.420048344 0.0793152 -0.4202542934 -0.0543220532 0.2933786234
650296100.0 -0.0572567058 0.3039851402 0.0742031426 -0.4205571698 0.0744728185 -0.4208637404 -0.0507519596 0.293429402
655296070.0 -0.0540263098 0.3048830386 0.0699565189 -0.421745166 0.0701658956 -0.4216670817 -0.0476680894 0.2942547224
660296040.0 -0.0514295875 0.3050022009 0.0654419533 -0.4220351831 0.0656955951 -0.422292132 -0.0444736924 0.2948183195
665296010.0 -0.0475479048 0.3055405402 0.0603525066 -0.4228991149 0.0610020573 -0.4232284373 -0.0411539907 0.2959861872
670295980.0 -0.0446975496 0.30669714 0.056462481 -0.4235449929 0.0561567162 -0.4237423632 -0.0383400553 0.2962330869
675295950.0 -0.0413624664 0.3073729489 0.0518015481 -0.4239534701 0.051743149 -0.4238108711 -0.0356869184 0.2969148271
680295920.0 -0.0380976471 0.3080613095 0.0469228247 -0.4244165614 0.0470664906 -0.4249926716 -0.0322044712 0.2980053742
685295890.0 -0.034581287 0.3086473327 0.042577281 -0.425010283 0.0423492528 -0.4250717601 -0.0289449864 0.2981203271
690295860.0 -0.0311995809 0.3090445934 0.0377668538 -0.4250921904 0.037737707 -0.4256480208 -0.026020265 0.2993161284
695295830.0 -0.0283478265 0.3091849744 0.0333307206 -0.4253330699 0.0330730664 -0.4259963604 -0.0224840047 0.299411409
700295800.0 -0.0252025789 0.3096797821 0.0281784986 -0.4258090337 0.0284430782 -0.4258329679 -0.0197571309 0.3000574931
705295770.0 -0.0219535989 0.3104876036 0.0240042784 -0.4264187801 0.0239317116 -0.4263170407 -0.0167850045 0.3004172774
710295740.0 -0.018477045 0.3104363964 0.0194633275 -0.42647788 0.0193284981 -0.4269179998 -0.0135302989 0.3002971831
715295710.0 -0.0157011129 0.3108286269 0.0152325372 -0.4268553684 0.0144357275 -0.4267971146 -0.0100819933 0.3005294557
720295680.0 -0.0121330676 0.3112014403 0.0103529113 -0.4270529343 0.0103422017 -0.4269798451 -0.0073082111 0.3013705942
725295650.0 -0.0088408325 0.3116003539 0.005441109 -0.4267265865 0.005467886 -0.4270726692 -0.0043452234 0.3018036745
730295620.0 -0.005323085 0.3120660183 0.0006614105 -0.4265866596 0.0009287172 -0.4270609123 -0.0012186259 0.301355278
735295590.0 -0.0025246316 0.3120237842 -0.0036038555 -0.4269947237 -0.0038343333 -0.4267484002 0.0020294731 0.301348532
740295560.0 0.0004187928 0.3124563841 -0.0082960603 -0.4269328701 -0.0086224289 -0.4266967319 0.0058145565 0.3017322936
745295530.0 0.0036072529 0.3122234647 -0.0129667395 -0.4263022405 -0.0134562338 -0.4265436707 0.0088001056 0.301796685
750295500.0 0.0075445876 0.3123059756 -0.0176970908 -0.4262254163 -0.0173432597 -0.426266699 0.0113434559 0.3018356985
755295470.0 0.0106348651 0.3120741963 -0.0218992367 -0.425944072 -0.022471547 -0.4260933077 0.0147652851 0.3013452769
760295440.0 0.0136398166 0.3123917926 -0.0267694579 -0.4257966415 -0.0269745445 -0.4261830951 0.0179230249 0.3015727642
765295410.0 0.0172106003 0.3125664752 -0.0313661892 -0.4254418864 -0.0320121042 -0.4254556155 0.0213072837 0.3016524438
770295380.0 0.0201523694 0.3122135837 -0.0360552611 -0.4250149442 -0.0363483215 -0.4250648023 0.0243239003 0.3012519111
775295350.0 0.0233639594 0.311860335 -0.0407478815 -0.4242716812 -0.0404767193 -0.4246030344 0.0269611706 0.3013706824
780295320.0 0.0268063982 0.3122793703 -0.0453631368 -0.4240017614 -0.0450172293 -0.4239385275 0.030330865 0.3009678428
785295290.0 0.0299356187 0.3114172252 -0.0501431675 -0.4227276882 -0.0497728041 -0.4230218599 0.0340674638 0.3006794988
790295260.0 0.0337142518 0.3119496668 -0.0544105392 -0.4228812605 -0.0536828233 -0.4227971911 0.0372866416 0.3007214871
795295230.0 0.0364692152 0.3113032519 -0.0586522425 -0.4218327046 -0.0588265496 -0.4221630802 0.0406284511 0.3002911853
800295200.0 0.0396725858 0.3111233718 -0.0638874011 -0.4212099446 -0.0634588868 -0.421316577 0.0435839104 0.3000669697
805295170.0 0.0431114577 0.3104175532 -0.0679318748 -0.4203363363 -0.0680514618 -0.4206088961 0.0465146827 0.2998708765
810295140.0 0.0463236279 0.3100242388 -0.0725983542 -0.4193252398 -0.0723645114 -0.4201009197 0.0500536757 0.299452492
815295110.0 0.0494774313 0.3097925749 -0.0769952565 -0.4185516058 -0.0767840804 -0.4192458615 0.0530586081 0.2990156001
820295080.0 0.0524907182 0.3097129864 -0.081505069 -0.4179650043 -0.0813562232 -0.4181813341 0.0562242304 0.298770341
825295050.0 0.0564271692 0.3089746792 -0.085544449 -0.4167893362 -0.086135069 -0.4171872578 0.0595128416 0.2981169121
830295020.0 0.0595039445 0.3088477777 -0.0908559364 -0.4160477266 -0.0905188297 -0.4162287351 0.0632748517 0.2974746348
