!Created with skrf (http://scikit-rf.org).
# Hz S RI R 50.0 
!freq ReS11 ImS11 ReS21 ImS21 ReS12 ImS12 ReS22 ImS22
300000.0 -0.2360844041 -0.11219348 0.4679971306 0.0738060918 0.4719309268 0.0741386477 -0.2397038506 -0.1136155681
5299970.0 -0.240636864 0.0067771354 0.4753016546 0.0053091091 0.4750417751 0.0055494439 -0.2448708951 0.0054069698
10299940.0 -0.2372561965 0.0201164914 0.4774140792 0.0064288451 0.4771282419 0.0065728912 -0.2417197731 0.0177045684
15299910.0 -0.2327936276 0.0298051331 0.4804143523 0.0075605302 0.4804210719 0.007733761 -0.2374976248 0.0262521038
20299880.0 -0.2273575737 0.0380060664 0.4851460174 0.0078507296 0.4853689083 0.0076172849 -0.2325901716 0.0339499913
25299850.0 -0.2215132629 0.0444267372 0.4905465418 0.0066162673 0.4904812267 0.0071629827 -0.227817343 0.0399127292
30299820.0 -0.2156148781 0.0494209046 0.4959459763 0.0050662325 0.4958627403 0.0046723362 -0.2223928625 0.0450508314
35299790.0 -0.2099827579 0.0540809307 0.5012989698 0.0018071949 0.5013364681 0.0016452638 -0.2173138472 0.0486314254
40299760.0 -0.2046337704 0.0568209504 0.5059458281 -0.00180368 0.5064411077 -0.0021392275 -0.2129091789 0.0521562022
45299730.0 -0.1993767569 0.0601294773 0.511054158 -0.0071724694 0.5108357275 -0.0071965189 -0.2079199486 0.0542202909
50299700.0 -0.1945011401 0.0619893135 0.5148352693 -0.012647578 0.5155070469 -0.0129335165 -0.203410515 0.0567574293
55299670.0 -0.1906496225 0.0637769482 0.5181172152 -0.0186057412 0.5191747509 -0.0183964312 -0.1999399614 0.0581951349
60299640.0 -0.1865419301 0.0650207015 0.5220877562 -0.0249452389 0.5220225765 -0.0247075033 -0.1962069554 0.0594675121
65299610.0 -0.1831310567 0.0664188198 0.5251882296 -0.030980814 0.5250909185 -0.0309621092 -0.1929424413 0.0606658409
70299580.0 -0.1796753462 0.0670214871 0.5272310756 -0.0374846329 0.5273726897 -0.037723164 -0.1901165333 0.0613079347
75299550.0 -0.176497953 0.0682079078 0.5290940708 -0.044590638 0.5294048985 -0.0443106753 -0.1873274529 0.062463551
80299520.0 -0.1742916259 0.0693187132 0.5314647471 -0.0516220145 0.5314109478 -0.051396648 -0.1847888806 0.062904616
85299490.0 -0.1714681433 0.0693874145 0.5325598833 -0.0583271177 0.5320143802 -0.0585120278 -0.1825441725 0.0634046864
90299460.0 -0.1693315836 0.0701037599 0.5330485296 -0.0651170651 0.533593692 -0.0652644666 -0.1801840189 0.0641750465
95299430.0 -0.1671709189 0.0710467973 0.5342956566 -0.0724212536 0.5345813166 -0.0722787424 -0.1784960606 0.0651290277
100299400.0 -0.165171483 0.0717036454 0.5345838777 -0.0788759937 0.5344936923 -0.0793124665 -0.1768982859 0.0656203296
105299370.0 -0.1633270768 0.0723468367 0.5348271642 -0.0855425923 0.534958802 -0.0861163323 -0.1750018377 0.0661777539
110299340.0 -0.1618235543 0.0730863125 0.5349954046 -0.0924592888 0.5350801673 -0.0928821923 -0.1738855961 0.0667826025
115299310.0 -0.1603200573 0.0735986834 0.5349083578 -0.0993373996 0.5352738767 -0.0993318537 -0.1719899191 0.0671738812
120299280.0 -0.1590149793 0.0745545973 0.5353223005 -0.1064101842 0.5349651013 -0.1060902251 -0.1711456097 0.0677189686
125299250.0 -0.1580645843 0.0752439158 0.534623442 -0.1129573526 0.5344970099 -0.1134614621 -0.1698621304 0.0684458587
130299220.0 -0.156748029 0.0760079863 0.5340704412 -0.1193084282 0.5336652875 -0.1196319254 -0.1689149637 0.0692846519
135299190.0 -0.1551908408 0.0769258847 0.5328707087 -0.1262989618 0.533032421 -0.1262215571 -0.1681313558 0.0702591938
140299160.0 -0.1542272488 0.0779485407 0.5324528988 -0.1328144731 0.5327745931 -0.1330714573 -0.1669111817 0.0711289485
145299130.0 -0.1531480709 0.0789317077 0.5320040356 -0.1398235644 0.5313616535 -0.1395894136 -0.1659922707 0.071851691
150299100.0 -0.1520086245 0.0798333311 0.5304759704 -0.1461385021 0.5306694133 -0.1460585389 -0.1653430145 0.0727104357
155299070.0 -0.1513731929 0.0813882806 0.5290881528 -0.1529752277 0.5292601651 -0.1531033513 -0.1645097112 0.0736584084
160299040.0 -0.1499604992 0.0820627638 0.5276429081 -0.1586802681 0.5276724548 -0.1591354152 -0.1635739694 0.0749748204
165299010.0 -0.1492376457 0.0832951558 0.5265513626 -0.1658329426 0.5265510141 -0.1656662764 -0.1628158885 0.075383599
170298980.0 -0.1484608633 0.0844872138 0.524103329 -0.1719108372 0.5249364788 -0.1719854105 -0.1619376881 0.0765170601
175298950.0 -0.1474015871 0.0854675116 0.5236551666 -0.1776462463 0.5237411928 -0.1782644945 -0.1613035443 0.0774891187
180298920.0 -0.146589931 0.0867553712 0.5212020722 -0.1844523188 0.5217774316 -0.1843523871 -0.1601693347 0.0786784843
185298890.0 -0.1453833138 0.0878731104 0.5197145255 -0.1908966358 0.519959824 -0.1904988028 -0.1597218131 0.0796294123
190298860.0 -0.1443671029 0.0891741067 0.517427013 -0.1971396268 0.5178885783 -0.1969251976 -0.1584477498 0.0809121486
195298830.0 -0.1434698821 0.0901868977 0.5156238187 -0.2025581901 0.5159297411 -0.2031146511 -0.1578001933 0.0817839743
200298800.0 -0.1425533147 0.0915687861 0.5139525206 -0.208501121 0.5137977976 -0.2087374487 -0.156894114 0.0832108193
205298770.0 -0.1416927143 0.0931996213 0.5115446813 -0.2150277691 0.5119883419 -0.2147470162 -0.1562937053 0.0843006325
210298740.0 -0.140893523 0.0941796553 0.5095870787 -0.2208962977 0.5091691977 -0.2211102398 -0.1553983453 0.0854976893
215298710.0 -0.1398275553 0.0956473281 0.5068299374 -0.2266338176 0.5069614595 -0.2266813038 -0.1551594001 0.0864730235
220298680.0 -0.1389058873 0.0968996019 0.5048032845 -0.232820192 0.5044759332 -0.2329760799 -0.1539345813 0.0882144211
225298650.0 -0.1374570158 0.0984347257 0.5018661687 -0.238293964 0.5020939103 -0.2385188733 -0.1535146275 0.0893440402
230298620.0 -0.1367492438 0.0999760743 0.4998807097 -0.244288559 0.4999904381 -0.2445089659 -0.152334629 0.0905397364
235298590.0 -0.1357063003 0.1010062338 0.4967037638 -0.2500974449 0.4972427411 -0.2507301929 -0.1517926463 0.09157692
240298560.0 -0.1351010207 0.102529808 0.4946271605 -0.255688657 0.4945682854 -0.2554666099 -0.15070508 0.0933254063
245298530.0 -0.1335107819 0.1039978116 0.490978736 -0.2615409921 0.4912542606 -0.2614792136 -0.1500457958 0.0944419762
250298500.0 -0.132934237 0.1050288291 0.4886871071 -0.2665770621 0.4888963612 -0.2665543184 -0.1488530596 0.0957035183
255298470.0 -0.1317711939 0.1066661786 0.4854944606 -0.2727802646 0.4856859187 -0.272531997 -0.1482226036 0.0967013611
260298440.0 -0.1307008459 0.10799275 0.482717719 -0.2777875484 0.4829419353 -0.2783924481 -0.1469017323 0.0982761664
265298410.0 -0.1295867454 0.1098923317 0.4796950032 -0.2843068224 0.4796216714 -0.2838371054 -0.1463537301 0.0993170559
270298380.0 -0.1280855988 0.110922786 0.4760716934 -0.2890518597 0.4768431008 -0.2893427363 -0.1454177616 0.1015199063
275298350.0 -0.1274297244 0.1124639577 0.4734549159 -0.2948776759 0.4737126901 -0.294585657 -0.1443670615 0.102694889
280298320.0 -0.126217549 0.113928419 0.4700859097 -0.2997285406 0.4699476915 -0.2999524813 -0.1432282786 0.1038070451
285298290.0 -0.1248400662 0.1156585687 0.4670950661 -0.30497096 0.4668519814 -0.3053756976 -0.1424725063 0.1050564368
290298260.0 -0.1235741651 0.1168162951 0.4637238555 -0.3109426561 0.4637425148 -0.3106636773 -0.1411218131 0.1069063068
295298230.0 -0.1224694808 0.118064225 0.4608007246 -0.3158492379 0.4603895842 -0.3164489007 -0.1400970247 0.1081156263
300298200.0 -0.1210457402 0.1191758415 0.4572447972 -0.3211599632 0.4572324425 -0.321232795 -0.1391893366 0.1093392788
305298170.0 -0.1197256994 0.1205372332 0.4536805119 -0.3261258597 0.4537673126 -0.3265882209 -0.1377305372 0.1109393512
310298140.0 -0.1178651686 0.1219516506 0.4500413445 -0.3318584267 0.4502125831 -0.3322118882 -0.1371099585 0.1127246719
315298110.0 -0.1172623793 0.1231796903 0.4463896449 -0.3366589312 0.4464160053 -0.3369836085 -0.135736356 0.1134445572
320298080.0 -0.1157776779 0.1243990039 0.4424767302 -0.3419803151 0.4425615468 -0.341963939 -0.1347544339 0.1145894386
325298050.0 -0.1149567407 0.1252709504 0.4392448907 -0.346936291 0.439149611 -0.3468341838 -0.1339971305 0.1157774098
330298020.0 -0.1133549102 0.1271523174 0.4343359018 -0.3522168534 0.4346609502 -0.3519398387 -0.1329597325 0.1169915996
335297990.0 -0.1122608635 0.1283592948 0.4307483337 -0.3571932442 0.430699579 -0.357024349 -0.1320773585 0.1184448217
340297960.0 -0.1111791211 0.129682133 0.4266521775 -0.3619887991 0.4266638089 -0.361553397 -0.1311035443 0.1201908409
345297930.0 -0.1100682161 0.1311349697 0.4226435532 -0.3661895012 0.4224234106 -0.3660252942 -0.1297807455 0.1209926843
350297900.0 -0.1080894942 0.1324963208 0.4182679016 -0.3709279701 0.4187495745 -0.3709790538 -0.1289743122 0.1229346961
355297870.0 -0.1070446844 0.1338133186 0.4142291972 -0.375699892 0.4140549334 -0.3755826131 -0.1279964757 0.1244140486
360297840.0 -0.1053984187 0.1353566198 0.4098122264 -0.3802763645 0.4097701185 -0.3799321223 -0.1266911265 0.1258470936
365297810.0 -0.104079633 0.136431861 0.406134622 -0.384625638 0.4060828621 -0.3844510852 -0.1258180677 0.1275453602
370297780.0 -0.1024666042 0.1375614454 0.4014030897 -0.3887964099 0.4015554085 -0.3893474176 -0.1242194748 0.1288053532
375297750.0 -0.1011475563 0.1394845529 0.3979367957 -0.3935465405 0.3974350822 -0.393803069 -0.1233193131 0.1303387788
380297720.0 -0.0993920194 0.1400355979 0.3930046002 -0.3973508688 0.3930866908 -0.397626219 -0.1215758583 0.1316894926
385297690.0 -0.0980436006 0.1418274237 0.3886018387 -0.4015410521 0.3886815567 -0.401911236 -0.1207964911 0.1332647465
390297660.0 -0.0964371679 0.1429159572 0.3839865355 -0.4064112293 0.3840046108 -0.4068339639 -0.1191217264 0.1343175812
395297630.0 -0.0947893513 0.1441129693 0.3797297678 -0.4104068476 0.3799914648 -0.410371283 -0.1179918274 0.1357827197
400297600.0 -0.0933155437 0.1452950299 0.374912786 -0.4144279564 0.3753419913 -0.4150946891 -0.117264019 0.1367333884
405297570.0 -0.0918439854 0.1465497451 0.3703498527 -0.418625777 0.370583021 -0.4192723089 -0.1158194795 0.1388871459
410297540.0 -0.0900875843 0.1475758567 0.3656247028 -0.42277958 0.3654606329 -0.4226235428 -0.1142694765 0.1397108954
415297510.0 -0.0882267836 0.1491821758 0.360970687 -0.4266514541 0.3610956197 -0.4267528864 -0.1131794077 0.1415706588
420297480.0 -0.0870727493 0.1497345995 0.356375259 -0.430685037 0.3564060602 -0.4307146037 -0.1112839962 0.1424281432
425297450.0 -0.0847110996 0.1506648062 0.3518041806 -0.4346521775 0.3523976917 -0.43454062 -0.1104717474 0.1439402444
430297420.0 -0.0836663769 0.1521364797 0.3472209058 -0.4384943407 0.3471703429 -0.4386912692 -0.1091506485 0.1449340638
435297390.0 -0.0818066834 0.1530622378 0.3421869317 -0.4420192164 0.3422464954 -0.4416906026 -0.1078484981 0.1461878711
440297360.0 -0.0801095288 0.1543506645 0.3368517037 -0.4459240874 0.3370345351 -0.4456982561 -0.1064800051 0.1471826859
445297330.0 -0.07798968 0.1551934755 0.3321562451 -0.4499186953 0.332343502 -0.4493275309 -0.1050298334 0.1486455635
450297300.0 -0.0761879818 0.1560975128 0.3271140409 -0.4530311408 0.3278344688 -0.4532282015 -0.1040483464 0.1500186012
455297270.0 -0.0748196868 0.1569822559 0.3226485989 -0.4565987293 0.3229387247 -0.4566816357 -0.1020500902 0.1512502421
460297240.0 -0.0733863758 0.1582032289 0.317461536 -0.4598746212 0.3169194152 -0.4600758811 -0.1004047763 0.152965435
465297210.0 -0.071247215 0.1588526089 0.31261863 -0.4635151873 0.3125074478 -0.4633478278 -0.0997044264 0.1535962689
470297180.0 -0.0694278314 0.1596464346 0.3074699262 -0.4669355268 0.3078334445 -0.4667896641 -0.0984474996 0.1548855561
475297150.0 -0.0679733382 0.1603615278 0.302007573 -0.4697626166 0.3024917728 -0.4696886393 -0.0966257734 0.1557869179
480297120.0 -0.065670138 0.1613243237 0.297296059 -0.4732948199 0.2975283213 -0.4733043975 -0.0951292699 0.1575507775
485297090.0 -0.0638098424 0.1621764036 0.2924613176 -0.476525594 0.2919788623 -0.4765917179 -0.0937950503 0.1580771735
490297060.0 -0.0620344889 0.1627842597 0.2866964736 -0.4796437462 0.2867856708 -0.4797003072 -0.0922546397 0.1595066867
495297030.0 -0.0605982267 0.1643021089 0.2815611947 -0.4828181758 0.2812654945 -0.4826348675 -0.0907674965 0.1603801906
500297000.0 -0.0582569472 0.1646533744 0.275656769 -0.4857266535 0.2762312079 -0.4855581262 -0.0891819391 0.1611840348
505296970.0 -0.0568249468 0.1652318749 0.2706644353 -0.4882990197 0.2707234863 -0.4883695696 -0.0882035922 0.162588183
510296940.0 -0.0549330647 0.1665599585 0.2655286015 -0.4918148638 0.2655006478 -0.4915030829 -0.0859392644 0.1639314352
515296910.0 -0.0535627875 0.1674058786 0.2602497895 -0.4944798162 0.2600676321 -0.4946904344 -0.0848544352 0.1648300673
520296880.0 -0.0513300421 0.1679294961 0.2549344696 -0.4971357665 0.2550977869 -0.4970848023 -0.083020905 0.165513024
525296850.0 -0.0494575006 0.1682694345 0.249283577 -0.4998440393 0.2496379252 -0.5001933039 -0.0811800002 0.1663742635
530296820.0 -0.0476306328 0.1691605117 0.2442220885 -0.5017306509 0.2440658966 -0.502416267 -0.0802974618 0.1669442778
535296790.0 -0.0457121227 0.1694130316 0.2380377686 -0.5044695999 0.23872076 -0.504440451 -0.0786479954 0.1679285659
540296760.0 -0.0438244378 0.1698781069 0.2328612144 -0.5078025529 0.2328364641 -0.5076321877 -0.0773123253 0.1693983878
545296730.0 -0.0417945487 0.1708989289 0.2274905558 -0.5097310126 0.22752326 -0.5102815002 -0.0756165266 0.1699403145
550296700.0 -0.0401462905 0.1717097542 0.2220798483 -0.5124836526 0.2226054675 -0.5125955337 -0.0742449598 0.1711342025
555296670.0 -0.0376944161 0.1721074925 0.2162320859 -0.514990905 0.2164187473 -0.5149193471 -0.0727620148 0.1720299997
560296640.0 -0.036026727 0.172570766 0.210968152 -0.5168692671 0.2109105923 -0.5168239679 -0.0704116218 0.1725628835
565296610.0 -0.0344752656 0.1729800746 0.2052317837 -0.5192337271 0.2051087606 -0.5191238006 -0.0691611034 0.1734405296
570296580.0 -0.0320021952 0.1736824812 0.1995888034 -0.5216512052 0.1997802556 -0.5212384217 -0.0675396766 0.174742892
575296550.0 -0.0304111381 0.1743096845 0.1940287088 -0.523251226 0.1940373121 -0.5234291615 -0.0656310471 0.1752334906
580296520.0 -0.028458704 0.1746300734 0.1885800984 -0.5252591378 0.188145331 -0.5260237577 -0.0641587149 0.1758628739
585296490.0 -0.0264871541 0.1749242601 0.183046257 -0.527742412 0.1828975989 -0.5271471741 -0.0626066699 0.1765776222
590296460.0 -0.024816755 0.1750443053 0.1767220996 -0.5292632895 0.1768694743 -0.5295684616 -0.0606193287 0.1778025684
595296430.0 -0.0228292432 0.1757321068 0.1713138857 -0.5312811732 0.1709240502 -0.5314113062 -0.0589117616 0.1782682792
600296400.0 -0.0209178712 0.1763423263 0.1655015601 -0.5330479528 0.1655059255 -0.5331561237 -0.0574083447 0.1792275679
605296370.0 -0.0186205468 0.1765913201 0.1593772769 -0.534862576 0.1598317643 -0.5348658093 -0.0555376685 0.1797827578
610296340.0 -0.0169558602 0.1769786481 0.1541428773 -0.536362966 0.1541583871 -0.536622535 -0.05380184 0.1809413342
615296310.0 -0.0149786885 0.1777041352 0.1476088302 -0.537915852 0.1478233765 -0.538244407 -0.0521767653 0.1811861495
620296280.0 -0.012841804 0.1776172839 0.1423188857 -0.5397253812 0.1423211288 -0.5396396215 -0.0506347332 0.1815060726
625296250.0 -0.0107455993 0.1778650649 0.1358598299 -0.5413756098 0.1361572492 -0.5413527792 -0.0486706006 0.1824616585
630296220.0 -0.0087890044 0.1785802102 0.1302444221 -0.5425633321 0.1309601882 -0.542755292 -0.0473299977 0.1834233728
635296190.0 -0.0066951711 0.1785163047 0.1246103627 -0.543548618 0.1242504683 -0.5435598877 -0.0455702711 0.1833312581
640296160.0 -0.0047075215 0.178556741 0.1186786051 -0.5447401312 0.1188061856 -0.5451014103 -0.0433220736 0.1840477923
645296130.0 -0.0031332896 0.1790625802 0.1128145191 -0.546305921 0.112896854 -0.5463366556 -0.0422325829 0.1844411232
650296100.0 -0.0011518253 0.1792752276 0.1072117959 -0.5470063486 0.1069683738 -0.5475022131 -0.0402789998 0.185102781
655296070.0 0.0009730985 0.1792197686 0.1013350719 -0.548355992 0.1008681049 -0.5485260743 -0.03793652 0.1859052684
660296040.0 0.0027336119 0.1798603236 0.0950773374 -0.5494861515 0.0956359704 -0.5494053767 -0.0366803102 0.1863378964
665296010.0 0.0051524344 0.1793686468 0.0892644745 -0.5505452051 0.0896117148 -0.5505695611 -0.0351483751 0.1870667719
670295980.0 0.0073238904 0.1800814652 0.0831740793 -0.5513156275 0.0837764226 -0.5512238133 -0.0337783341 0.1870294783
675295950.0 0.0092314111 0.1799779086 0.0772770891 -0.552105886 0.0776476128 -0.5528359382 -0.0313278702 0.1880368559
680295920.0 0.0111003335 0.1801005624 0.0710072535 -0.5529437805 0.0709539535 -0.5533116168 -0.0294319498 0.1885150397
685295890.0 0.0130698703 0.1799867877 0.0654956114 -0.5535382607 0.0653760353 -0.5540808047 -0.0279876675 0.1888343646
690295860.0 0.0153357046 0.1802671786 0.0592957939 -0.5539028729 0.0592414366 -0.5541072641 -0.0253521902 0.1893829439
695295830.0 0.017450061 0.1798691127 0.0527449258 -0.5551033589 0.0529257203 -0.555142045 -0.0242562733 0.1896812524
700295800.0 0.0194959071 0.1798219433 0.0470502818 -0.5553138595 0.0474208776 -0.5556002768 -0.0223622371 0.1896300566
705295770.0 0.0213266747 0.1800860122 0.0413885568 -0.5559704395 0.0414407975 -0.5561813661 -0.0208416733 0.1903724235
710295740.0 0.0233741649 0.1796376459 0.0350265165 -0.5560813212 0.035467085 -0.5561075869 -0.0191954898 0.1908795998
715295710.0 0.0253019892 0.1796340277 0.0294445325 -0.5567914029 0.0295298445 -0.5569026118 -0.017024979 0.1904683733
720295680.0 0.0271688037 0.1792444952 0.0232500249 -0.5567714508 0.0236990762 -0.5571359744 -0.0149789298 0.1915907114
725295650.0 0.0297744752 0.1793778954 0.0170217492 -0.5570455388 0.0175651406 -0.5567666902 -0.0131315826 0.1915412362
730295620.0 0.0311742137 0.1791601061 0.0112325162 -0.5570293019 0.011627598 -0.5571108601 -0.0112520851 0.1913925323
735295590.0 0.0337854509 0.1788115088 0.0059697274 -0.5571884806 0.0055285324 -0.5571829312 -0.0092771401 0.1924391942
740295560.0 0.0353972332 0.1790719288 -0.0005526565 -0.5567235049 -0.000650519 -0.5569724213 -0.0074463503 0.1920568432
745295530.0 0.0372190545 0.1783315844 -0.0064287177 -0.5572775554 -0.006431223 -0.5576717837 -0.0057813041 0.1927426444
750295500.0 0.0393045095 0.178329897 -0.012604387 -0.5566727022 -0.0125783488 -0.5568710331 -0.0041452465 0.1923757029
755295470.0 0.0419010198 0.1780239384 -0.0187483895 -0.5564558551 -0.0185455874 -0.5569972884 -0.0024202572 0.1932487868
760295440.0 0.0433921677 0.1776573061 -0.0249048557 -0.5564468797 -0.0245960404 -0.5564526931 -0.0005597695 0.1928195692
765295410.0 0.0453708992 0.1771168877 -0.0300103797 -0.5557413717 -0.0302102821 -0.5560095599 0.0020939552 0.1935971847
770295380.0 0.0476558575 0.1770703232 -0.036682835 -0.5555268676 -0.0364550146 -0.5559490971 0.0038022348 0.1933966386
775295350.0 0.0493556994 0.1765127709 -0.0424732697 -0.5550191707 -0.0420389878 -0.5552674524 0.0049568515 0.1933815205
780295320.0 0.0514959842 0.1761803534 -0.0482666835 -0.5548473614 -0.047890475 -0.5552400453 0.0073137807 0.1936612602
785295290.0 0.0536063323 0.1760153315 -0.0544817911 -0.5536365085 -0.0543306085 -0.5543345074 0.0085804121 0.1937600531
790295260.0 0.0554041326 0.1754583518 -0.0602387468 -0.5536275439 -0.0603812655 -0.5539650103 0.0108041802 0.1938154972
795295230.0 0.0571212115 0.1750479212 -0.0658657815 -0.5523987409 -0.0660724406 -0.5529290289 0.0126011106 0.1943611398
800295200.0 0.0592815674 0.1745782098 -0.0724077036 -0.5522533271 -0.0722106753 -0.552227174 0.0149284217 0.19384946
805295170.0 0.0610794638 0.1739156984 -0.0780548499 -0.5511154185 -0.0780228693 -0.5510808913 0.0162942914 0.1937979647
810295140.0 0.0632329628 0.1734979353 -0.0842833656 -0.5500687321 -0.0840009896 -0.5510072354 0.0183237818 0.1942626522
815295110.0 0.0652076079 0.1730821041 -0.0901216319 -0.5490208694 -0.0898958887 -0.5492715314 0.0198419947 0.193781565
820295080.0 0.0672582176 0.1719573493 -0.095763315 -0.548302762 -0.0961001815 -0.5484637552 0.021686136 0.1940824801
825295050.0 0.0690270218 0.1713731964 -0.1020824255 -0.5465870404 -0.1017203757 -0.547189823 0.0241826451 0.1938373932
830295020.0 0.0709502875 0.1710598594 -0.1077301483 -0.545693163 -0.108057495 -0.5461971853 0.025513653 0.1933814305
