!Created with skrf (http://scikit-rf.org).
# Hz S RI R 50.0 
!freq ReS11 ImS11 ReS21 ImS21 ReS12 ImS12 ReS22 ImS22
300000.0 -0.3152749349 -0.1014869639 0.3703351044 0.0511824502 0.373489884 0.0547932802 -0.3185377752 -0.1142233943
5299970.0 -0.3235401116 0.0048177494 0.3786728606 0.0029672232 0.3782449195 0.0031509344 -0.3258772429 0.0027262543
10299940.0 -0.3209894689 0.0157000148 0.3798453368 0.0018969185 0.3796733632 0.0025988735 -0.3237880951 0.01252492
15299910.0 -0.3180414196 0.0237209728 0.3817278249 0.0021487577 0.3819031357 0.0025681106 -0.3212169042 0.0198685405
20299880.0 -0.3142198441 0.0301414515 0.3850012167 0.0017768135 0.385195911 0.0017349734 -0.3185939962 0.0262389792
25299850.0 -0.3106181808 0.0357540103 0.3886738072 -3.47971e-05 0.3883224466 -3.25843e-05 -0.3157708688 0.031074047
30299820.0 -0.3066291813 0.0403733415 0.392105917 -0.0020682413 0.3914228362 -0.0023280054 -0.312704276 0.0353008337
35299790.0 -0.3028421057 0.0448371875 0.395014895 -0.0054443157 0.3951777188 -0.0053480404 -0.3095321131 0.039516831
40299760.0 -0.2995023376 0.0479717107 0.3984231908 -0.0086888306 0.3981390956 -0.008908769 -0.3068872424 0.043104994
45299730.0 -0.2967181558 0.0515210588 0.4014449782 -0.0128256531 0.4012683928 -0.0126482817 -0.3046523367 0.0460472537
50299700.0 -0.2931744888 0.054123402 0.4033326702 -0.0174852648 0.4035657428 -0.0175826103 -0.3018642911 0.0492496077
55299670.0 -0.2907109109 0.056723057 0.4055985656 -0.0220880246 0.4056290721 -0.0219918389 -0.3003457333 0.0517717927
60299640.0 -0.2881386528 0.0589006123 0.4075601259 -0.0269608151 0.4074856905 -0.0270989384 -0.2979396191 0.0547171514
65299610.0 -0.2862306121 0.0615421466 0.4092068845 -0.0315004762 0.4095069835 -0.0318098013 -0.2962949517 0.0574610714
70299580.0 -0.2840396772 0.063600523 0.410413732 -0.0367802675 0.4105535928 -0.0368944388 -0.2946777899 0.0592781687
75299550.0 -0.281828793 0.0658810842 0.4115900482 -0.0420446778 0.4116121651 -0.0419516156 -0.2928211959 0.0620437678
80299520.0 -0.2804237201 0.0681417364 0.4127283908 -0.047319892 0.4128917683 -0.047312375 -0.2914222119 0.0639912565
85299490.0 -0.2785665367 0.0696142584 0.4131463473 -0.0528795183 0.413207271 -0.0529138328 -0.2902672647 0.0667942971
90299460.0 -0.2771851647 0.0720438402 0.413466335 -0.0577281609 0.4136453283 -0.0577835592 -0.288611633 0.0689714144
95299430.0 -0.2754480187 0.0741041433 0.414087719 -0.0632740499 0.4138316072 -0.0632578354 -0.2873364906 0.0714001061
100299400.0 -0.2742703294 0.0764801098 0.4137279433 -0.0686382647 0.4137643688 -0.0682504672 -0.2867468458 0.0732899505
105299370.0 -0.2731141579 0.0783314131 0.4138546676 -0.0733303148 0.413873848 -0.0737093856 -0.2852786464 0.0757626018
110299340.0 -0.2718689453 0.0804397166 0.4134402592 -0.0786362171 0.4135073166 -0.0787065626 -0.2844466895 0.0781338031
115299310.0 -0.2705399064 0.0825292873 0.4132758997 -0.0833788496 0.4133653591 -0.0834707416 -0.2829981592 0.0796877585
120299280.0 -0.2695970254 0.0847265863 0.4125236901 -0.0891210654 0.4129757025 -0.0890084315 -0.2827073858 0.0826516499
125299250.0 -0.2689264609 0.0866984019 0.4124847673 -0.0938509411 0.412700556 -0.0943072102 -0.2814141939 0.0849090296
130299220.0 -0.2677534061 0.0891179058 0.4116627598 -0.0987553494 0.4113993656 -0.0989448353 -0.2806024652 0.0875610882
135299190.0 -0.2665811211 0.0911676225 0.4108855616 -0.1035092836 0.4104229923 -0.1040197386 -0.279695865 0.0896651905
140299160.0 -0.2657474034 0.0939167126 0.4101045556 -0.1090067451 0.4103103625 -0.1091919426 -0.2786192679 0.0922136497
145299130.0 -0.2647902046 0.0957733321 0.4095758213 -0.1142339158 0.4091499906 -0.1141854971 -0.2780497921 0.094661028
150299100.0 -0.2638076965 0.0983364937 0.4081580894 -0.1193467337 0.4079860572 -0.1189008422 -0.2766092858 0.097036043
155299070.0 -0.2627204317 0.1009305051 0.406890013 -0.1242703719 0.4072230746 -0.1242160748 -0.2762172403 0.0995799624
160299040.0 -0.2619076138 0.1031817451 0.4056780137 -0.1282691538 0.4061363596 -0.1291371972 -0.2751825391 0.1024674674
165299010.0 -0.2610853433 0.1053288403 0.4044331634 -0.1336517305 0.4048800848 -0.1339406419 -0.274511278 0.1046709846
170298980.0 -0.2601642151 0.1078642982 0.4027045807 -0.1385581411 0.4033407792 -0.1382442898 -0.2731258181 0.1069247754
175298950.0 -0.2588743169 0.1105215391 0.4020791545 -0.1432086911 0.4021883381 -0.1432170784 -0.2722506925 0.1097000087
180298920.0 -0.2579159248 0.1127089215 0.4004801658 -0.1479791373 0.4006450798 -0.1477422081 -0.2710281807 0.1124313919
185298890.0 -0.2568987781 0.1153754574 0.3985912246 -0.1529304466 0.3990119418 -0.1524517995 -0.2703762013 0.1149504698
190298860.0 -0.255920074 0.1179396867 0.3968816275 -0.1577253258 0.3975137164 -0.1574886022 -0.269023873 0.1175055721
195298830.0 -0.254765677 0.1200753735 0.3959370369 -0.1619337061 0.3956818879 -0.1623377548 -0.2677945332 0.1202285435
200298800.0 -0.2537293756 0.122851075 0.3940558673 -0.1663329 0.393861804 -0.1666007863 -0.2666706513 0.1229483788
205298770.0 -0.2528861901 0.125254477 0.3922947597 -0.1714352223 0.3919441616 -0.1712365038 -0.2654504096 0.1253195872
210298740.0 -0.2513496126 0.1276298326 0.3904508435 -0.1761859526 0.3902847022 -0.1761925602 -0.2644697202 0.1283004109
215298710.0 -0.2505346689 0.1304257445 0.3886181145 -0.1801651548 0.3884639379 -0.1798330617 -0.2635463624 0.1305066283
220298680.0 -0.2491849313 0.1328715936 0.3864676274 -0.184848797 0.3866975909 -0.184951876 -0.2623345298 0.133780139
225298650.0 -0.2477287272 0.1358109133 0.3845976047 -0.18933824 0.3845582769 -0.188939443 -0.2612938715 0.1362812736
230298620.0 -0.2466042534 0.1382154828 0.3829390812 -0.1937363916 0.3828368067 -0.1935843329 -0.2596804701 0.1386453244
235298590.0 -0.2454867035 0.1406864353 0.3803583965 -0.1980435509 0.3802455267 -0.1981518232 -0.2581487492 0.1413473839
240298560.0 -0.2443711448 0.1431877021 0.3784956378 -0.2022792132 0.3782910289 -0.2019918435 -0.2572761919 0.1442110927
245298530.0 -0.2424951724 0.1457181403 0.3753980555 -0.2065252644 0.3760412798 -0.2065691771 -0.2556278936 0.1471797076
250298500.0 -0.2415054391 0.1482645688 0.3737485538 -0.2106468465 0.3739806039 -0.2103291758 -0.2538521754 0.1497323991
255298470.0 -0.2400602788 0.1509006789 0.3710198746 -0.2153494377 0.3714099398 -0.2148656818 -0.2527362225 0.1522719713
260298440.0 -0.2386462824 0.15352042 0.3691296581 -0.2191348893 0.369108848 -0.2192974739 -0.2508931939 0.1550271674
265298410.0 -0.2370062696 0.156249478 0.3664076689 -0.2239851492 0.366428693 -0.2235675936 -0.2496386291 0.1576461858
270298380.0 -0.2354434576 0.1585641608 0.3635741244 -0.227599289 0.3642854627 -0.2277503894 -0.2477656722 0.1603089607
275298350.0 -0.2341565029 0.1612825552 0.361636573 -0.232105552 0.3618427163 -0.2320930335 -0.2461000177 0.163010097
280298320.0 -0.2325690666 0.1638110938 0.3590169225 -0.2354828307 0.3588486374 -0.2360360206 -0.2447783057 0.1657191005
285298290.0 -0.2308788305 0.1665243241 0.3562300881 -0.2397652782 0.3562642959 -0.2397926738 -0.2429346519 0.1681975919
290298260.0 -0.2292754339 0.1689927497 0.3539330128 -0.2439387254 0.3539400977 -0.2438683683 -0.241340684 0.1713155508
295298230.0 -0.2276792624 0.1713723174 0.3513525584 -0.248179488 0.3508194049 -0.2480556493 -0.2394044589 0.1737188797
300298200.0 -0.2259808008 0.1737664421 0.348503398 -0.2519867347 0.3487692226 -0.2517345126 -0.2379603864 0.1766567343
305298170.0 -0.2238164866 0.1761711186 0.3456318532 -0.2562068385 0.3455822967 -0.25615799 -0.2357753554 0.1791596096
310298140.0 -0.2221525736 0.1782976083 0.3430395126 -0.2600033629 0.343112113 -0.2602092824 -0.2340447609 0.1820151939
315298110.0 -0.2206611523 0.1808423822 0.3399983109 -0.2640654013 0.340207192 -0.2637768602 -0.2320652123 0.1842560322
320298080.0 -0.2188489595 0.1833373862 0.3372899329 -0.2679027748 0.3371111322 -0.2680201507 -0.2300319776 0.1869257289
325298050.0 -0.216810283 0.185518951 0.3342892633 -0.2717767814 0.3341482572 -0.2715258903 -0.2281530769 0.1890257411
330298020.0 -0.2150218775 0.1880808668 0.3303640543 -0.2757969299 0.3308321237 -0.2754819363 -0.2265734189 0.1920752248
335297990.0 -0.2133261337 0.1902735665 0.3277237127 -0.2791540685 0.3277409846 -0.2790799003 -0.2247075065 0.1944720966
340297960.0 -0.2117618097 0.1926762073 0.3243267086 -0.2827596817 0.3245604213 -0.2826754961 -0.2224950926 0.196841503
345297930.0 -0.210232926 0.1951134247 0.321191738 -0.2860500673 0.3208177153 -0.2857657036 -0.2210020867 0.199266697
350297900.0 -0.207930685 0.1976245823 0.3178706057 -0.2894075198 0.3181687753 -0.2898204402 -0.2186721295 0.2022151843
355297870.0 -0.2061494553 0.1997232246 0.3147663949 -0.2931366681 0.3144449846 -0.2931324799 -0.2165908777 0.2046342462
360297840.0 -0.2038705908 0.2023467105 0.311378526 -0.2971277239 0.3112478981 -0.2966224911 -0.2144500513 0.2072668613
365297810.0 -0.2017629179 0.2046317146 0.3080204098 -0.2999381265 0.3081236457 -0.2999773818 -0.2128100446 0.2098750817
370297780.0 -0.1996090451 0.2067359427 0.3046419198 -0.3033014151 0.304920084 -0.3037882307 -0.2103464802 0.2122828977
375297750.0 -0.1976126103 0.2091920546 0.3015458361 -0.3068138274 0.3014116801 -0.307008164 -0.208017738 0.2146303141
380297720.0 -0.1953391869 0.2113984232 0.2978568163 -0.3099717038 0.2981213341 -0.3098866081 -0.2057431462 0.217508073
385297690.0 -0.1933442904 0.213541834 0.2941918811 -0.3131051763 0.2942373079 -0.3132834641 -0.203541309 0.219667136
390297660.0 -0.1908656781 0.2161155901 0.2908225116 -0.3170471832 0.2907487209 -0.3168416212 -0.201482248 0.2218736836
395297630.0 -0.1885596936 0.2180623711 0.2875431402 -0.3193982963 0.2874575653 -0.3196024903 -0.1990427164 0.2246687686
400297600.0 -0.1866402301 0.220355979 0.2837952679 -0.3229242384 0.2842372915 -0.3231286784 -0.1972025228 0.2267935139
405297570.0 -0.1843157075 0.2225061011 0.2802554704 -0.3261367477 0.2803502144 -0.326246608 -0.194806258 0.229351766
410297540.0 -0.1816207104 0.2243230244 0.2764203334 -0.3287506655 0.2766092974 -0.3288587748 -0.1922746048 0.2312434978
415297510.0 -0.1797018497 0.2266273945 0.2731110173 -0.3321082148 0.2730132278 -0.3319996611 -0.190033149 0.2337838883
420297480.0 -0.1768912268 0.2283073935 0.2691308335 -0.3349900169 0.2694412908 -0.3348647577 -0.1873944452 0.2357409891
425297450.0 -0.1744035591 0.2305192297 0.2654630192 -0.3378846739 0.2656527775 -0.3380541772 -0.184817361 0.2382445334
430297420.0 -0.1724158512 0.2327098311 0.2617697054 -0.3411579455 0.2618092408 -0.3406772423 -0.1828374328 0.2401785992
435297390.0 -0.1698630256 0.2345870931 0.2583034259 -0.3432330412 0.2583340872 -0.3432265124 -0.1800478834 0.2426394397
440297360.0 -0.167188431 0.2366401721 0.254016023 -0.3464174232 0.2540464025 -0.3460818356 -0.177663025 0.2441403767
445297330.0 -0.1648626999 0.2384608644 0.2502220842 -0.3494065358 0.2502842846 -0.3489893214 -0.1752078962 0.2463031374
450297300.0 -0.162036543 0.2400946808 0.2462829866 -0.3519119581 0.2465038395 -0.3518348388 -0.1726230223 0.2488887547
455297270.0 -0.1597753442 0.2420080444 0.2428598192 -0.3547058621 0.2428524244 -0.3544254209 -0.1698254197 0.2508282767
460297240.0 -0.1574291598 0.244175292 0.2387394702 -0.3570666632 0.2384625469 -0.3569047124 -0.1669238546 0.2530664646
465297210.0 -0.1545655496 0.2457651292 0.2347083065 -0.3597147778 0.2351689791 -0.3596971423 -0.1653889169 0.2546867307
470297180.0 -0.1522086233 0.2475687698 0.2308992168 -0.3621230469 0.2311316741 -0.3621170342 -0.162694492 0.2566379289
475297150.0 -0.1496093036 0.2494772744 0.2263962069 -0.3645167252 0.2270590884 -0.3641052565 -0.1595467513 0.2584409516
480297120.0 -0.1469936328 0.251007167 0.2225846684 -0.3666049755 0.2230478949 -0.367102104 -0.1571025653 0.2608129538
485297090.0 -0.1441258913 0.2527900654 0.2188614121 -0.3694057334 0.2188533046 -0.3693921937 -0.154563548 0.2623098885
490297060.0 -0.1415657107 0.2541209035 0.2147825116 -0.3716263285 0.2147452043 -0.3716342284 -0.1515410048 0.2642029345
495297030.0 -0.1391344531 0.2563648615 0.2104524407 -0.3738496563 0.2101917535 -0.3739721801 -0.1488978495 0.2655983156
500297000.0 -0.1360127991 0.2572897569 0.2061199313 -0.3757559206 0.2064960032 -0.3760412408 -0.146258124 0.2675823418
505296970.0 -0.1336709349 0.2589305707 0.2019372029 -0.3779887886 0.2025215186 -0.3780682692 -0.1442229359 0.2695894518
510296940.0 -0.130907743 0.2609666341 0.1982866333 -0.3806416038 0.1982182816 -0.3806551322 -0.1407363312 0.2715033559
515296910.0 -0.1281185988 0.2625038345 0.1936973016 -0.3825522018 0.1938875294 -0.3825832344 -0.1380403809 0.2730227693
520296880.0 -0.1252494396 0.2638913887 0.1895831327 -0.3844978393 0.1898583145 -0.3845079581 -0.1350385192 0.2742787406
525296850.0 -0.1228863314 0.2650862644 0.1856846101 -0.3867216459 0.185824921 -0.3866853337 -0.1320276902 0.2760692112
530296820.0 -0.1197863469 0.2665568086 0.1811870278 -0.3881414511 0.1812812381 -0.3883556658 -0.1297923887 0.2773649173
535296790.0 -0.1169507161 0.2681197755 0.1769046246 -0.3901419385 0.1772749586 -0.3902219996 -0.1266672943 0.278669476
540296760.0 -0.1144197799 0.2690068656 0.1729665536 -0.3925757987 0.1725177465 -0.3927377641 -0.1240883907 0.2806007973
545296730.0 -0.111410123 0.2712921802 0.1682562742 -0.3941135946 0.1687201934 -0.3942389927 -0.1212753446 0.282029695
550296700.0 -0.1087876502 0.2720332146 0.1639652898 -0.3955249587 0.1649286735 -0.3958885423 -0.1182834131 0.2835148993
555296670.0 -0.1054250994 0.2735072844 0.1599556505 -0.3977869041 0.1599573963 -0.3976735335 -0.1151544336 0.284960133
560296640.0 -0.1027891063 0.2744165274 0.1554873465 -0.3991880394 0.1557284766 -0.3990957716 -0.1123376469 0.2860743321
565296610.0 -0.099977616 0.2757069175 0.1510797082 -0.4008147103 0.1510067389 -0.4008648283 -0.1094362687 0.287511128
570296580.0 -0.0968066955 0.2769019831 0.1463519734 -0.4024466879 0.1472171746 -0.4027604172 -0.106450688 0.2891685886
575296550.0 -0.0937610536 0.2781826122 0.1423432795 -0.4040033245 0.1426415372 -0.4040387547 -0.1032752208 0.2904499815
580296520.0 -0.0910863861 0.2795210645 0.1382392186 -0.4055361688 0.1377754347 -0.4054669887 -0.100540307 0.2913639082
585296490.0 -0.0879186358 0.280174463 0.1335676149 -0.4067253452 0.1336660032 -0.4071281463 -0.0976501462 0.2924214008
590296460.0 -0.0855039649 0.281314126 0.1292220941 -0.4082336374 0.1291336225 -0.4084106811 -0.0944871553 0.2937238431
595296430.0 -0.0822578724 0.2827460215 0.1250836061 -0.4099756452 0.1244715438 -0.4097539444 -0.0912307723 0.2945256071
600296400.0 -0.0793793039 0.2836665342 0.1203665784 -0.4110803509 0.1204928691 -0.4112447216 -0.0881547765 0.2959816264
605296370.0 -0.0762361481 0.2847289445 0.1155942345 -0.4125182239 0.1159030659 -0.4122235046 -0.0849809897 0.2976547701
610296340.0 -0.0733299133 0.2854202865 0.1117360586 -0.413252416 0.1112540797 -0.4135614513 -0.0820000737 0.2982084516
615296310.0 -0.0700959139 0.28648637 0.1067111269 -0.4142284985 0.1068675549 -0.4147263097 -0.0791351907 0.2991945066
620296280.0 -0.0671786639 0.2870949898 0.1021893111 -0.4153691541 0.1022876198 -0.4158793232 -0.0761432614 0.3001033707
625296250.0 -0.0640259958 0.2882249232 0.0974430653 -0.4166256067 0.0976154409 -0.4166111383 -0.0728563652 0.3010216959
630296220.0 -0.0609709078 0.2892385106 0.0930980741 -0.4177845019 0.0933947238 -0.4178740891 -0.069849502 0.3019474671
635296190.0 -0.0579027187 0.2899023334 0.0882591295 -0.418487871 0.0886280224 -0.4182579946 -0.0670241192 0.3025662562
640296160.0 -0.0550140955 0.2901976786 0.0844835877 -0.4193213579 0.0840969086 -0.4196407199 -0.0636395279 0.3036759734
645296130.0 -0.0520049465 0.2913322511 0.07929542 -0.4205025059 0.0796934021 -0.4201994536 -0.0610793992 0.304168582
650296100.0 -0.0491216068 0.2922004502 0.0753769649 -0.4212298866 0.0752549046 -0.4210167325 -0.0575407154 0.3053132969
655296070.0 -0.0459637747 0.2924700795 0.070363836 -0.4218330768 0.0705012429 -0.4217857354 -0.0542038499 0.3061500617
660296040.0 -0.0429881529 0.2935678936 0.066123436 -0.4222058853 0.0659834621 -0.4221946486 -0.0515053715 0.306464028
665296010.0 -0.0397624109 0.2941616428 0.0616242654 -0.4234729207 0.0618395869 -0.4233466645 -0.0482250167 0.3077310075
670295980.0 -0.0362076077 0.2945989334 0.0566893789 -0.4239115413 0.0570472191 -0.4237699467 -0.0453501683 0.3080564244
675295950.0 -0.0332136129 0.2948889258 0.051958852 -0.4244786257 0.0523416621 -0.4244870299 -0.0415755659 0.3085407181
680295920.0 -0.0302953192 0.2958188053 0.0475414987 -0.4248377627 0.0474483569 -0.4248786138 -0.0383310007 0.3092084899
685295890.0 -0.0270423684 0.2960005124 0.0433349475 -0.4252715647 0.0429377508 -0.425631321 -0.0353605136 0.3097707023
690295860.0 -0.0236674445 0.2964560876 0.0382240589 -0.4254252144 0.0379246731 -0.4257778212 -0.0318451665 0.3103899253
695295830.0 -0.0204246363 0.2967736021 0.0331920201 -0.425980862 0.0335854415 -0.4263635732 -0.0289587082 0.3110556935
700295800.0 -0.0174219346 0.2971879919 0.0289181802 -0.4263087241 0.0288665073 -0.4266762279 -0.0254957873 0.3108199846
705295770.0 -0.014204016 0.2975653458 0.0243119172 -0.4263196624 0.0247881277 -0.4267183167 -0.0228541754 0.3114503037
710295740.0 -0.0111283823 0.2980696764 0.0198983622 -0.4266932123 0.0196142467 -0.4265871428 -0.0198317188 0.312158415
715295710.0 -0.0081889686 0.298147276 0.0148499854 -0.4269180028 0.0154000097 -0.4272439716 -0.0163363338 0.3123145761
720295680.0 -0.0051809953 0.2981375658 0.0104784857 -0.4265038471 0.0106796244 -0.4272957073 -0.0126868218 0.3127689524
725295650.0 -0.0013448144 0.2987768188 0.0054338339 -0.4270383928 0.0058748154 -0.4272828604 -0.0095695144 0.3130673238
730295620.0 0.0010407566 0.2986261367 0.0010654605 -0.4272303125 0.0013834185 -0.4269300649 -0.0061935369 0.312653481
735295590.0 0.0047489931 0.2987917701 -0.003002772 -0.4270391255 -0.0030814296 -0.4270706361 -0.0026522833 0.31309721
740295560.0 0.0079639001 0.2993436592 -0.0080514342 -0.4268257996 -0.0080045176 -0.4268535635 0.0003225247 0.3131028774
745295530.0 0.0109246867 0.2989495694 -0.0127595135 -0.4266702786 -0.0126084425 -0.4270347699 0.0032642199 0.3134932592
750295500.0 0.0140066235 0.298864018 -0.0169657463 -0.4262575879 -0.0169744723 -0.4262521752 0.0065875962 0.3132506184
755295470.0 0.017513181 0.2990864183 -0.021648475 -0.4263709312 -0.0216762679 -0.4263251419 0.0099067788 0.3136410351
760295440.0 0.0204269474 0.2990743284 -0.0266659996 -0.4258555927 -0.0265077531 -0.4259975584 0.0127171478 0.3136362956
765295410.0 0.023449121 0.2987374606 -0.0307297443 -0.4255080133 -0.030996952 -0.4259708718 0.0170457136 0.3140347112
770295380.0 0.0268229907 0.2988067737 -0.0355943362 -0.4250061826 -0.0355845774 -0.4255441945 0.0202986076 0.3133858262
775295350.0 0.0298118723 0.2987975276 -0.040075265 -0.4246659647 -0.0400531602 -0.4248604746 0.0227590316 0.313234354
780295320.0 0.0330956323 0.2981824903 -0.0445579894 -0.4240924352 -0.0443527846 -0.4243894425 0.026056425 0.313376991
785295290.0 0.0362346224 0.298533578 -0.0492666063 -0.4232525113 -0.0490585035 -0.42387505 0.0290893196 0.3131890916
790295260.0 0.0393853605 0.2982179727 -0.0540990716 -0.4232818016 -0.0538318433 -0.4234180427 0.0328927061 0.3129351157
795295230.0 0.0423315415 0.2982246385 -0.0581341336 -0.4221621007 -0.058096566 -0.4226639122 0.036006168 0.3131904524
800295200.0 0.0457642064 0.2974991217 -0.063289692 -0.4218232632 -0.0635240199 -0.4217470863 0.0391404527 0.3125191605
805295170.0 0.0486954296 0.2973352631 -0.0673947148 -0.4207861144 -0.0675143572 -0.4210994845 0.042233289 0.312121816
810295140.0 0.0520772456 0.2967773721 -0.0717990277 -0.4203671707 -0.0718892866 -0.420839278 0.045692337 0.3126823411
815295110.0 0.0551901722 0.296547201 -0.0764639621 -0.41948253 -0.0767766246 -0.4192867578 0.048758992 0.3117148497
820295080.0 0.0584206211 0.2954747122 -0.0809414865 -0.4184853976 -0.0809647759 -0.4187483804 0.0519059646 0.311431903
825295050.0 0.0618644025 0.2952761371 -0.0855790333 -0.4173651697 -0.0855349119 -0.4177552624 0.055336368 0.3111613783
830295020.0 0.0647458774 0.2951662815 -0.0902287209 -0.4162091783 -0.0902098305 -0.4165205832 0.0583971268 0.3105031499
