!Created with skrf (http://scikit-rf.org).
# Hz S RI R 50.0 
!freq ReS11 ImS11 ReS21 ImS21 ReS12 ImS12 ReS22 ImS22
300000.0 -0.3155045979 -0.1327194632 0.3716593528 0.0675219594 0.3714878313 0.0657756689 -0.3149721463 -0.1309512258
5299970.0 -0.3248041904 0.0025913357 0.3783506273 0.0034060754 0.3788529174 0.0032730613 -0.3259691906 0.0019178535
10299940.0 -0.3224561117 0.0142378863 0.379626417 0.0026620451 0.3798217627 0.002936918 -0.3233796182 0.0127411748
15299910.0 -0.3189139342 0.0220584886 0.3819017751 0.0029297946 0.3822617043 0.0026241092 -0.3205017044 0.019881864
20299880.0 -0.3156331012 0.0291572904 0.3853368317 0.0016188202 0.385330634 0.0018937863 -0.3177136112 0.0259733176
25299850.0 -0.3116085538 0.0347695135 0.388402481 0.0006196322 0.3886497129 0.0001189505 -0.314779413 0.0311648559
30299820.0 -0.3084453229 0.0394956845 0.3921221327 -0.0022329388 0.392115423 -0.0022315669 -0.3117768402 0.035680869
35299790.0 -0.304363161 0.0434033966 0.3947349766 -0.0050222885 0.3954413352 -0.005320046 -0.3091442638 0.0399987799
40299760.0 -0.3013279085 0.0467429082 0.3981626075 -0.008530523 0.398433236 -0.0088282589 -0.3063808279 0.0435041525
45299730.0 -0.2979293856 0.0503163407 0.401189906 -0.0126374639 0.4015858392 -0.0126534283 -0.3035664613 0.0465080165
50299700.0 -0.2949615281 0.0529865199 0.4036886122 -0.0172118924 0.4038996931 -0.017282082 -0.3009241958 0.0498238658
55299670.0 -0.2924081591 0.0554195689 0.405832524 -0.0212491597 0.4059155196 -0.0220221742 -0.2993337144 0.0520678633
60299640.0 -0.2897708642 0.0580161756 0.4077138334 -0.0268018947 0.4080519831 -0.0268055655 -0.2973169631 0.0548974488
65299610.0 -0.2874122736 0.0600042257 0.4098414903 -0.0316524643 0.4097874257 -0.0317755094 -0.2951362435 0.0574740636
70299580.0 -0.2853165202 0.0620882529 0.4107224418 -0.0368551339 0.4107094693 -0.0367026647 -0.2935801645 0.0599799599
75299550.0 -0.2834196416 0.0641258935 0.4115850196 -0.0420934916 0.4118711805 -0.0419971309 -0.2915926572 0.0623837045
80299520.0 -0.2817593607 0.0665699105 0.412812918 -0.0473074691 0.4130680772 -0.0474920266 -0.2905760888 0.0648011191
85299490.0 -0.2798704879 0.0684052908 0.4134627701 -0.0526558862 0.4134614724 -0.0522958343 -0.2891199097 0.0670527668
90299460.0 -0.2784559866 0.0709102806 0.4135402058 -0.0580118735 0.4137958089 -0.0576146111 -0.287420188 0.0692670329
95299430.0 -0.2766733368 0.0728195417 0.4138991565 -0.0633972017 0.4143221408 -0.0631093271 -0.2865224277 0.0719243012
100299400.0 -0.2750888087 0.0747385061 0.413839407 -0.068186359 0.414184994 -0.0684543334 -0.285435189 0.0743803922
105299370.0 -0.2739339858 0.0765500127 0.4140675233 -0.0731633184 0.4143260698 -0.0733577578 -0.2842032943 0.0761495366
110299340.0 -0.2726551382 0.078522654 0.4136102998 -0.078136301 0.414292926 -0.0783163482 -0.2830099008 0.0785845141
115299310.0 -0.2715375636 0.0810463522 0.4132659348 -0.0836057832 0.4137746988 -0.0837732187 -0.2822431025 0.0813932141
120299280.0 -0.2704061847 0.0832764661 0.4131852136 -0.0890242463 0.412856828 -0.088975098 -0.2810596993 0.0833009722
125299250.0 -0.2691987345 0.0851356561 0.4125298864 -0.0939529413 0.4125834834 -0.0938727515 -0.2799348371 0.086152446
130299220.0 -0.2680609771 0.087398557 0.4118380282 -0.0990690442 0.4116574277 -0.0994357177 -0.2789033547 0.0883710167
135299190.0 -0.2671685853 0.0899538635 0.4111805396 -0.1036427206 0.4113282336 -0.1041293965 -0.2782017274 0.0906514071
140299160.0 -0.2661821449 0.0922413119 0.4106409758 -0.1090645552 0.4103828929 -0.1087353694 -0.2776289213 0.0929830907
145299130.0 -0.2655544584 0.0946026542 0.409746846 -0.1138203546 0.4094887827 -0.113850692 -0.2766900444 0.0958227549
150299100.0 -0.2642544885 0.096929102 0.4083166566 -0.1190220586 0.4085196236 -0.1190659804 -0.2754985477 0.0985777749
155299070.0 -0.2629404724 0.0992583741 0.4067854464 -0.1236104548 0.4072313012 -0.1238989554 -0.274290532 0.1010606406
160299040.0 -0.2621709102 0.1021354246 0.4063041158 -0.1289946671 0.406038101 -0.1287375396 -0.2739531805 0.1036002247
165299010.0 -0.2612058031 0.1043573715 0.4052045612 -0.1331251646 0.4049718308 -0.1337007591 -0.2725513448 0.1060177252
170298980.0 -0.2601589835 0.1068196374 0.4032090349 -0.1383424029 0.4035666062 -0.1382406049 -0.2716573315 0.1085019965
175298950.0 -0.2590635871 0.1093598967 0.4022484702 -0.1429969389 0.402468774 -0.143527288 -0.2708583866 0.1117350671
180298920.0 -0.2582614276 0.1117925711 0.4004603989 -0.1479539813 0.4009342723 -0.1482262388 -0.269984728 0.1141470591
185298890.0 -0.2569464134 0.1143683956 0.3994072366 -0.1525136165 0.3992956903 -0.1526584121 -0.2687686419 0.1162834645
190298860.0 -0.2556409684 0.1172107031 0.3969616566 -0.1572760091 0.3978265338 -0.1571604414 -0.2678995947 0.1193588531
195298830.0 -0.254803683 0.1195885794 0.3962593698 -0.1616683638 0.3960345856 -0.1621537866 -0.2670112046 0.1220981041
200298800.0 -0.2535591757 0.1220593079 0.3942580687 -0.1668742084 0.3944071134 -0.1665379824 -0.2656377441 0.124714021
205298770.0 -0.2527983023 0.1246179421 0.3922886517 -0.1707945804 0.3924831108 -0.171093689 -0.2644961978 0.1274542019
210298740.0 -0.2513774167 0.1275659864 0.3902006643 -0.175616255 0.3905489292 -0.1756939393 -0.2637867835 0.1300468861
215298710.0 -0.2505378238 0.1304133657 0.388462675 -0.1801917619 0.3887384623 -0.1800860427 -0.2621501023 0.1325098277
220298680.0 -0.2490878344 0.1325065159 0.3866669042 -0.1847591997 0.386590127 -0.184896153 -0.2609650498 0.135692393
225298650.0 -0.2477146905 0.1354125324 0.3842283557 -0.1889680884 0.3845671605 -0.1885498388 -0.259698564 0.1380587783
230298620.0 -0.2464267922 0.1377593711 0.3825442849 -0.1937641893 0.3829384418 -0.1935614514 -0.2587792145 0.1406851229
235298590.0 -0.2455961072 0.1407765781 0.3805912203 -0.1980794063 0.3807776437 -0.1976795165 -0.2575665753 0.1432285826
240298560.0 -0.2440107038 0.1429735142 0.3781848934 -0.2019434585 0.37828796 -0.2019421957 -0.2559407935 0.1458264247
245298530.0 -0.2427311374 0.145507364 0.3761479749 -0.2064289411 0.3762043342 -0.2065790175 -0.254796939 0.1487832
250298500.0 -0.2414086024 0.1480163878 0.3739277431 -0.2107647128 0.3740413349 -0.2107568226 -0.2532088902 0.1518822765
255298470.0 -0.239923946 0.1510040207 0.3718338166 -0.2147223351 0.3719470644 -0.214938772 -0.2519558303 0.1541830876
260298440.0 -0.2386032473 0.153542825 0.3694618068 -0.2187020584 0.3693158226 -0.219115702 -0.2504979169 0.1566715813
265298410.0 -0.2374904668 0.1562414405 0.3666978639 -0.2233699881 0.3666129707 -0.2236990157 -0.2484314326 0.1593920488
270298380.0 -0.2359198221 0.1584234131 0.3642507191 -0.2272935239 0.3644672511 -0.2275348493 -0.247395564 0.1623681622
275298350.0 -0.2346607335 0.1616754807 0.3616884857 -0.2313390134 0.3618024 -0.2315942279 -0.2456187843 0.1652186105
280298320.0 -0.2332040214 0.1639682473 0.3592508835 -0.2351412024 0.3597296556 -0.2358292958 -0.2441342553 0.1674365926
285298290.0 -0.2317289071 0.1666878736 0.3567871826 -0.2395886337 0.3569012869 -0.2395203223 -0.2427346777 0.1702872546
290298260.0 -0.2300444971 0.1692058756 0.3545045581 -0.243546072 0.3543793573 -0.2437750878 -0.2410896544 0.1729099566
295298230.0 -0.2283677943 0.1714683542 0.3515511776 -0.2478144763 0.3516924735 -0.2477545737 -0.2391171115 0.1754722172
300298200.0 -0.2269414434 0.1742892345 0.3490170433 -0.2518976141 0.3489201935 -0.2515749428 -0.2374847427 0.1780678274
305298170.0 -0.2254108218 0.1764391252 0.3461714022 -0.2555588459 0.3463973554 -0.2557961106 -0.2357643583 0.1804025147
310298140.0 -0.2230823039 0.1788740853 0.34321122 -0.2591836769 0.3433879653 -0.2591710134 -0.2338179545 0.1829841694
315298110.0 -0.2215665502 0.1812234916 0.3404638425 -0.2637116441 0.3408430668 -0.2638356165 -0.2320308347 0.1857982399
320298080.0 -0.2201108607 0.1837765417 0.3369422909 -0.2675999781 0.337739792 -0.267899117 -0.2305282693 0.1878532763
325298050.0 -0.2189054977 0.1856191323 0.3346116069 -0.2710926121 0.334825996 -0.2711765401 -0.2282060324 0.1903535953
330298020.0 -0.2170429207 0.1883703207 0.331241369 -0.2747796028 0.3318486596 -0.2750419314 -0.2268651631 0.1931520516
335297990.0 -0.2154376801 0.1906686344 0.3282227383 -0.2785839068 0.3284572061 -0.278595793 -0.224637546 0.1954855011
340297960.0 -0.2137876863 0.1930364911 0.3247484039 -0.2821302473 0.3251199652 -0.2821420196 -0.2230306545 0.1980321875
345297930.0 -0.2119182693 0.195580093 0.3220028467 -0.2860522033 0.3219592757 -0.2859359782 -0.2210756978 0.2004194469
350297900.0 -0.2102560576 0.1977956511 0.3191173076 -0.2892212917 0.3190546139 -0.2892222358 -0.2190989048 0.2025966031
355297870.0 -0.2083516963 0.2001864714 0.3154438329 -0.2923625691 0.315727889 -0.2927186757 -0.2171066889 0.2057545604
360297840.0 -0.2060635113 0.2027279279 0.3119601382 -0.2962496652 0.3124447071 -0.2967960755 -0.2151584983 0.2079614057
365297810.0 -0.2046026952 0.2051787156 0.3089313472 -0.2995556566 0.309059345 -0.2997775204 -0.2133234115 0.2103033666
370297780.0 -0.2022828814 0.2072517282 0.3051659449 -0.3031127834 0.3057026712 -0.3031007728 -0.2108990038 0.2127067673
375297750.0 -0.2005769197 0.2098214579 0.3021467099 -0.3064429219 0.3022093614 -0.3063043547 -0.2087243558 0.2149422584
380297720.0 -0.1986313884 0.2120303745 0.2990083558 -0.3097413899 0.2989999541 -0.309663126 -0.2065429386 0.2176296273
385297690.0 -0.1966116771 0.2141280542 0.2954057161 -0.312915494 0.295800856 -0.3130945256 -0.2044877107 0.2199410435
390297660.0 -0.1939657015 0.2162725802 0.2917012691 -0.3162885836 0.2923182019 -0.3160516078 -0.2022487378 0.2219313567
395297630.0 -0.1919737744 0.218504677 0.2883463828 -0.3189574197 0.2888239439 -0.3192242056 -0.199920516 0.2244952686
400297600.0 -0.1899705766 0.2206126246 0.2851438145 -0.3225018407 0.2853311862 -0.3223219624 -0.1976436404 0.2267353102
405297570.0 -0.1883255018 0.2225556432 0.2816261009 -0.3253430514 0.2815398167 -0.3253185479 -0.1948696006 0.2289362324
410297540.0 -0.185403181 0.2245586537 0.2777777699 -0.3285849765 0.2783693459 -0.3286640451 -0.1929467998 0.2315622993
415297510.0 -0.1835412442 0.2269614432 0.2743299287 -0.3317105743 0.2742826528 -0.3316687599 -0.1900585662 0.2332041606
420297480.0 -0.1813419468 0.2285073934 0.270499163 -0.3349289757 0.2707986252 -0.3348786318 -0.1874767658 0.2360507292
425297450.0 -0.1786361753 0.2306839212 0.2670408159 -0.3372587563 0.2666879835 -0.3377789687 -0.1854997862 0.2376475586
430297420.0 -0.17674352 0.2328166344 0.2632167404 -0.3407311105 0.2633228071 -0.3401357837 -0.1827416636 0.239898429
435297390.0 -0.1738666454 0.2346497565 0.259037012 -0.3437935374 0.2594408459 -0.3432593282 -0.1808276665 0.2422928511
440297360.0 -0.1714232751 0.2364247432 0.2552977439 -0.3462285341 0.2554704671 -0.3462586854 -0.1781678738 0.2441593997
445297330.0 -0.1690608626 0.2382594432 0.2516132647 -0.3486605216 0.252061496 -0.3495310367 -0.1752844052 0.2465973619
450297300.0 -0.1665821342 0.2402664201 0.2476771501 -0.3516428848 0.2481582473 -0.3512845275 -0.1724561713 0.2481243179
455297270.0 -0.1644130782 0.2420576728 0.2441655228 -0.3541952451 0.2440867984 -0.3543765515 -0.1701477043 0.2499799904
460297240.0 -0.1613601883 0.2440805237 0.2402215386 -0.3572482025 0.2399917519 -0.3573155673 -0.1674630842 0.2524036412
465297210.0 -0.159129474 0.2458549267 0.2357264608 -0.359684497 0.2359096676 -0.35972759 -0.1646996891 0.2542534275
470297180.0 -0.1564897121 0.247790433 0.2319955675 -0.36166607 0.2324152736 -0.3621359397 -0.1621644912 0.2559767506
475297150.0 -0.1541725318 0.2495808094 0.2283222145 -0.3643306239 0.2283785792 -0.364555124 -0.1593413715 0.2578087535
480297120.0 -0.1510544916 0.2513808553 0.2241058581 -0.3673245049 0.2242359949 -0.3669987954 -0.1569500136 0.2596074044
485297090.0 -0.1483657282 0.2527319156 0.2198014749 -0.3695841284 0.2199845269 -0.3694544078 -0.1541974498 0.2618228035
490297060.0 -0.1451990036 0.2545226583 0.2154360141 -0.3721155808 0.2160955866 -0.3722068669 -0.1513163599 0.2632083722
495297030.0 -0.1432317708 0.2559621824 0.2121628508 -0.3741109637 0.2119275434 -0.3744898576 -0.1484303669 0.2649160977
500297000.0 -0.1403696344 0.2578010707 0.2077794508 -0.3766048629 0.2076093315 -0.3769484526 -0.1456511387 0.2670332108
505296970.0 -0.1372336261 0.2596275573 0.2039456483 -0.3788104407 0.2035155842 -0.3786636673 -0.1426414831 0.2684410894
510296940.0 -0.1346857421 0.2607309933 0.19968955 -0.381401232 0.1994803263 -0.3813635104 -0.1396391263 0.2704860908
515296910.0 -0.1317928389 0.2628634445 0.1950404422 -0.3830376396 0.1950077375 -0.3830247412 -0.137021239 0.2715426269
520296880.0 -0.128837398 0.2641255921 0.1912747572 -0.3850309602 0.1907401149 -0.3850951613 -0.1339563323 0.2738465345
525296850.0 -0.1258715711 0.2655755818 0.1867987642 -0.3870554632 0.1865313371 -0.3873114644 -0.1312904163 0.2752443405
530296820.0 -0.1234494225 0.2669857322 0.1822535963 -0.3892149589 0.1821411591 -0.389002394 -0.1281186032 0.2759082565
535296790.0 -0.1198756179 0.2686709897 0.1781070167 -0.3909145904 0.1782639186 -0.3911012982 -0.1252860061 0.2779477953
540296760.0 -0.1171486957 0.2700767293 0.173900629 -0.3927426778 0.1735587264 -0.3927719114 -0.12217727 0.2789688388
545296730.0 -0.1146127037 0.271939435 0.1699791841 -0.3945775784 0.1692067703 -0.3944444709 -0.1191530761 0.2807129757
550296700.0 -0.1111179475 0.2729063241 0.165223747 -0.3964928056 0.1647617971 -0.3965382053 -0.1165217197 0.2820277617
555296670.0 -0.1084665838 0.2741918548 0.1610266208 -0.3984540239 0.1607815832 -0.3982938843 -0.1137450599 0.2829339544
560296640.0 -0.1049696274 0.2754396689 0.1563034035 -0.4000839186 0.1564675793 -0.3998877686 -0.1106096138 0.2846617611
565296610.0 -0.1027640562 0.2767972208 0.1525100824 -0.4017260752 0.1522054419 -0.4013921963 -0.1076455611 0.2862444576
570296580.0 -0.0992394137 0.2782626608 0.1473171749 -0.4033228413 0.1476201884 -0.4030981036 -0.1045492942 0.2871250461
575296550.0 -0.0962555026 0.279017531 0.1432876208 -0.4048621277 0.1430799141 -0.4047231354 -0.1015598967 0.2885722216
580296520.0 -0.0933407667 0.2806210093 0.1389842164 -0.4063730907 0.1387238072 -0.4065667839 -0.0988613081 0.2900343658
585296490.0 -0.090158024 0.281896738 0.1347740947 -0.4078635261 0.1342031479 -0.4076237718 -0.0953477294 0.2911392809
590296460.0 -0.0866957849 0.2827808791 0.1297596023 -0.4091433249 0.130135461 -0.4092449723 -0.0925333045 0.2919959166
595296430.0 -0.0839336945 0.2841285592 0.1252729109 -0.4105126931 0.1249868481 -0.410509795 -0.0894636265 0.2930285248
600296400.0 -0.0806394466 0.284955445 0.1207252619 -0.4114081461 0.1204677019 -0.4115284182 -0.0857948102 0.2940142628
605296370.0 -0.0778978577 0.2864755794 0.1166809859 -0.4130747257 0.1162127284 -0.4129181419 -0.0829995106 0.2953290433
610296340.0 -0.0745025945 0.2875039725 0.1118265226 -0.4135602088 0.1120259702 -0.4140967252 -0.0800492095 0.2964439931
615296310.0 -0.071339046 0.2885459523 0.1073505598 -0.4157044336 0.1071452719 -0.4157223634 -0.0767539003 0.2974805518
620296280.0 -0.0687162361 0.2897597165 0.1027227509 -0.4163535633 0.1025296047 -0.4163422055 -0.0738538405 0.2984795823
625296250.0 -0.0656208539 0.2903244845 0.0981973889 -0.4175136565 0.0981858519 -0.4173613608 -0.070610413 0.2987586491
630296220.0 -0.0624827225 0.2913463306 0.0934732892 -0.4185096024 0.0935123483 -0.4186049153 -0.067299024 0.300097124
635296190.0 -0.0592318951 0.2922378611 0.0890235392 -0.4188804932 0.0890686646 -0.419276481 -0.064279444 0.3008097671
640296160.0 -0.0562528797 0.2931179515 0.084482048 -0.4207219326 0.0845074958 -0.420347051 -0.0610669622 0.30153259
645296130.0 -0.0527925707 0.2942412221 0.0799409594 -0.4210059384 0.079880851 -0.4208977856 -0.0581818556 0.3022940945
650296100.0 -0.049763372 0.2948799328 0.0755835251 -0.4220657186 0.0753342582 -0.4222084678 -0.0545450147 0.3030236478
655296070.0 -0.0467982232 0.2957960178 0.0707106414 -0.4230092469 0.0706537991 -0.4225106417 -0.0518478714 0.3039432174
660296040.0 -0.0433508448 0.2964064826 0.066514164 -0.4234684312 0.0661669477 -0.4235175461 -0.0483357919 0.3043153262
665296010.0 -0.0403281957 0.2972843777 0.0613685172 -0.4235422215 0.061263302 -0.4240266768 -0.045248918 0.3051320918
670295980.0 -0.0372350913 0.2979260979 0.0567509881 -0.4247149536 0.0569918896 -0.4241131267 -0.041989392 0.3056065265
675295950.0 -0.0341412959 0.2984692806 0.0524946869 -0.4248870383 0.0523855861 -0.4252464849 -0.0387510472 0.3063625241
680295920.0 -0.0311344459 0.2991926867 0.0477723887 -0.4254957702 0.0477007242 -0.4254776867 -0.035460908 0.3066923868
685295890.0 -0.0278042778 0.3000924558 0.0429786818 -0.4262350749 0.043069875 -0.4262396859 -0.0321809394 0.3074557139
690295860.0 -0.024790462 0.3005207766 0.0386804049 -0.4264664366 0.038054674 -0.4264601055 -0.0290700282 0.3080415793
695295830.0 -0.0216661324 0.3008838964 0.0344420809 -0.4268110943 0.0337125204 -0.4270149469 -0.0260137745 0.3088150463
700295800.0 -0.0184858271 0.3018002065 0.0297146714 -0.4273352616 0.0291789803 -0.4272413101 -0.0225032327 0.3087015992
705295770.0 -0.0155483529 0.302285954 0.024736815 -0.4272046803 0.024658474 -0.4274092117 -0.0196624062 0.3092281897
710295740.0 -0.0125593944 0.3020868923 0.0201841036 -0.427573445 0.0197972566 -0.4279274021 -0.0158897009 0.309655237
715295710.0 -0.0088685675 0.3028543462 0.0155931932 -0.4279102912 0.0157146564 -0.4278862161 -0.0127586455 0.3094117336
720295680.0 -0.0057160565 0.30309379 0.0107707964 -0.4273825626 0.0106262528 -0.4279937729 -0.0097747089 0.3101177324
725295650.0 -0.0031336682 0.3037409104 0.0064525346 -0.4282923583 0.0062475071 -0.4280661804 -0.0065267082 0.310278875
730295620.0 -0.0002354846 0.3038108913 0.0017762774 -0.4278109036 0.001349267 -0.4279120093 -0.003329689 0.3110041571
735295590.0 0.003121544 0.3041272546 -0.0031252015 -0.4280249356 -0.0031311251 -0.4279683178 0.0002516147 0.3104408586
740295560.0 0.0058350883 0.3042669613 -0.0073829284 -0.4276155437 -0.0075355075 -0.4278536953 0.0033114476 0.3111654949
745295530.0 0.0089257764 0.304516938 -0.0116506834 -0.4272200146 -0.0114820256 -0.4276956043 0.0064297038 0.3109487519
750295500.0 0.0120858417 0.3049921826 -0.0164167781 -0.4273566921 -0.0168505966 -0.4277676111 0.0096284103 0.311195794
755295470.0 0.0149652809 0.3049376177 -0.0208349777 -0.4274815768 -0.0210288395 -0.4277770885 0.0130203694 0.3112943157
760295440.0 0.0184717523 0.3053124678 -0.026142421 -0.4270800059 -0.0261746548 -0.4265725155 0.0165215778 0.310793539
765295410.0 0.0216047079 0.3049853776 -0.0303902674 -0.4265079755 -0.0301714388 -0.4267393629 0.0195426558 0.3110410222
770295380.0 0.024551996 0.3051632666 -0.0347103104 -0.4261723141 -0.0352068878 -0.4265500193 0.0224574588 0.3110644565
775295350.0 0.0273672795 0.3049041343 -0.0395241949 -0.4258226371 -0.0399782677 -0.4257047802 0.0260260968 0.3108224021
780295320.0 0.0306738584 0.3047888144 -0.044100262 -0.4249728745 -0.0443631104 -0.4252609924 0.029461528 0.3106594082
785295290.0 0.0334423159 0.3044230637 -0.0487523277 -0.4244499674 -0.0489549832 -0.4249632091 0.0321422839 0.3109831393
790295260.0 0.0367695846 0.3044125153 -0.0532776404 -0.4241433582 -0.0533944429 -0.4247763689 0.0356439292 0.3111113877
795295230.0 0.0395001345 0.3043978646 -0.0579416647 -0.4238692336 -0.0578790054 -0.4239489134 0.0389150592 0.3098654409
800295200.0 0.042532438 0.3043667825 -0.0617575228 -0.4226999644 -0.0626207616 -0.4230565099 0.0421813792 0.3098318334
805295170.0 0.045485105 0.3039575504 -0.0667468705 -0.4222375564 -0.0670217394 -0.4225490054 0.0457799831 0.3096194083
810295140.0 0.0490497946 0.3040121626 -0.0713715301 -0.421558805 -0.071544536 -0.4215538522 0.0487803836 0.3092587576
815295110.0 0.0516871186 0.3032310636 -0.0758223522 -0.4203765207 -0.0759529833 -0.4208442046 0.0518267576 0.3089653086
820295080.0 0.054878191 0.3029095161 -0.0802775485 -0.4199894647 -0.0803624332 -0.4201452708 0.0543998001 0.3088542187
825295050.0 0.0576298037 0.3025139392 -0.0847461182 -0.4190899658 -0.0850562719 -0.4190889145 0.0585321382 0.3084175173
830295020.0 0.0609004019 0.301950135 -0.0893983054 -0.4177544312 -0.089130872 -0.4184079172 0.061303671 0.3073663057
