!Created with skrf (http://scikit-rf.org).
# Hz S RI R 50.0 
!freq ReS11 ImS11 ReS21 ImS21 ReS12 ImS12 ReS22 ImS22
300000.0 -0.1008966882 -0.0679165402 0.6318349715 0.0636756149 0.6242315219 0.0656713332 -0.0992316246 -0.0761449221
5299970.0 -0.1020814861 0.0132451536 0.6306528087 0.0097280979 0.6305468703 0.0102346135 -0.1007470138 0.0136702093
10299940.0 -0.0972951543 0.0295455264 0.6339032415 0.0151814348 0.633906079 0.0152821554 -0.0957229667 0.0306992831
15299910.0 -0.089934344 0.0425201746 0.6404001236 0.0204780505 0.6406169612 0.0202863942 -0.0886266544 0.0434758783
20299880.0 -0.0814537163 0.0530851389 0.6486628298 0.0241726499 0.6485383361 0.0237610096 -0.0796717846 0.0545191545
25299850.0 -0.0722615064 0.0623173243 0.6573712573 0.0249446259 0.6576082165 0.0253373299 -0.0696500653 0.0632892359
30299820.0 -0.0619240404 0.0688007239 0.6673840433 0.0242177018 0.6671233374 0.0241255591 -0.0596098702 0.0699747369
35299790.0 -0.0524610848 0.073589857 0.6773938505 0.021241269 0.67694908 0.0211924839 -0.0499247619 0.0750314729
40299760.0 -0.0433459858 0.0770375753 0.6859829149 0.0174017094 0.6862753399 0.0174431621 -0.0404060247 0.0773420254
45299730.0 -0.0340144715 0.0792491873 0.6949364756 0.0119503744 0.6951910051 0.0118504594 -0.0313650243 0.0797456089
50299700.0 -0.0256282816 0.0800804806 0.7034235149 0.0051309736 0.7035243254 0.0051301883 -0.0226930985 0.0807716001
55299670.0 -0.0177379504 0.0802410875 0.7105442341 -0.0036820959 0.7108391289 -0.0031254661 -0.014779848 0.0807262999
60299640.0 -0.0099617369 0.0800032586 0.7170662739 -0.0114127804 0.717506811 -0.0110527225 -0.007797171 0.0795066079
65299610.0 -0.0037939725 0.0789039801 0.7231790522 -0.0204154016 0.7234378094 -0.0201908041 -0.0013371348 0.0786910403
70299580.0 0.0026682654 0.0775600457 0.7283498695 -0.0293788559 0.7289345272 -0.0293172247 0.0047113645 0.0767931132
75299550.0 0.0082456694 0.0758433341 0.7326472191 -0.0392005807 0.7326826765 -0.0392318682 0.0099148855 0.0748226679
80299520.0 0.0129489786 0.0736046683 0.7371605589 -0.0493209564 0.7371823791 -0.0492700376 0.0149410327 0.0727776161
85299490.0 0.0175175173 0.0713859093 0.7402731996 -0.0584764732 0.7408081265 -0.0585878699 0.019340202 0.0699509172
90299460.0 0.0216969479 0.0689229999 0.7429477713 -0.0692194799 0.7436154714 -0.0690736056 0.0232724198 0.0680194402
95299430.0 0.0258978036 0.0662474093 0.7457160408 -0.0788727125 0.7455101496 -0.079300626 0.0271803945 0.0655521092
100299400.0 0.0290282815 0.0647415207 0.7463978255 -0.0890709274 0.7469113859 -0.0890009145 0.0311007442 0.0624787965
105299370.0 0.0322730858 0.0620093993 0.7485212794 -0.0994723788 0.7491028994 -0.0994864969 0.0340677281 0.0605268651
110299340.0 0.0348960272 0.0596482058 0.750076169 -0.1091934333 0.7496553202 -0.1093526413 0.0359879275 0.0578293526
115299310.0 0.0373905616 0.0572453459 0.7501827185 -0.1192622877 0.7506462563 -0.1194905405 0.0389036124 0.0554342765
120299280.0 0.0397979283 0.0544233597 0.7506785593 -0.1296797661 0.7514372622 -0.1298877854 0.0411719564 0.0529374129
125299250.0 0.042026394 0.0520224899 0.7517303036 -0.1387314391 0.7513625805 -0.1391781054 0.0430176653 0.0502868395
130299220.0 0.0435562644 0.0502080045 0.7510760985 -0.1493773998 0.7516066806 -0.1498528773 0.0450262294 0.0481901204
135299190.0 0.0454564055 0.0484099229 0.7516408967 -0.1595213141 0.7508304059 -0.1589858307 0.0465723016 0.0460142951
140299160.0 0.0464462997 0.0461910226 0.7505018821 -0.168937543 0.750947112 -0.1691822207 0.047918798 0.0442764276
145299130.0 0.0482393083 0.0435721515 0.7501002026 -0.1783325373 0.7497585776 -0.1788020156 0.0494058868 0.0419242065
150299100.0 0.0500082801 0.0420504021 0.7487551668 -0.1877438607 0.7484445095 -0.1878702941 0.0509314249 0.040129886
155299070.0 0.0503612331 0.0395553671 0.7476107297 -0.1983707913 0.7472909699 -0.1981648003 0.0518635463 0.0383270157
160299040.0 0.0518938199 0.0378575826 0.7462398071 -0.2073033122 0.7455793324 -0.207565205 0.052104935 0.0360301102
165299010.0 0.0523562669 0.0361425148 0.7441462087 -0.2173717562 0.7448914765 -0.2173586114 0.0536953421 0.0350815944
170298980.0 0.0534119402 0.0337881452 0.7427873718 -0.2265518674 0.7429370222 -0.2267305576 0.0542032069 0.0328938013
175298950.0 0.0538072107 0.0321191429 0.7417658084 -0.235846001 0.7406830051 -0.235542359 0.054716325 0.0311666984
180298920.0 0.0542797558 0.0304193502 0.7389967832 -0.2449949454 0.7384916206 -0.2449503375 0.0555116708 0.0296796614
185298890.0 0.0556694403 0.0286423438 0.7369936313 -0.2536761172 0.7360939339 -0.254265075 0.0559017796 0.0284159417
190298860.0 0.0554708476 0.0272347344 0.7342983052 -0.2629481306 0.7344960739 -0.2632101343 0.0564237299 0.0263307855
195298830.0 0.0561583238 0.0252631505 0.7316654041 -0.27218347 0.7321572728 -0.272072675 0.0574371712 0.0250265444
200298800.0 0.0563197868 0.0238775799 0.7289784278 -0.2810717678 0.7289818552 -0.2816514587 0.0567731595 0.0236059223
205298770.0 0.0567799673 0.0227394264 0.7256792429 -0.2900403751 0.725913363 -0.2901810922 0.0572553304 0.0214347056
210298740.0 0.057018244 0.0207370893 0.7228708869 -0.2985496586 0.7230159179 -0.2979914975 0.0578723985 0.0211633431
215298710.0 0.056946255 0.0195141253 0.7202231553 -0.3077585167 0.7199757124 -0.3077262735 0.0577557776 0.0196455199
220298680.0 0.0574256041 0.0177240482 0.7162284264 -0.3158863309 0.7168073421 -0.3159487203 0.05749998 0.0177200694
225298650.0 0.0576383818 0.0165155792 0.7133182473 -0.3249491019 0.7137556286 -0.325000238 0.0576020876 0.0164149766
230298620.0 0.0579167714 0.0156509893 0.7102932492 -0.3329405726 0.7107161197 -0.3331089795 0.0572226663 0.0149674617
235298590.0 0.0579397128 0.0144676751 0.7069949886 -0.3417927609 0.7066088889 -0.341279553 0.0575885761 0.0138940463
240298560.0 0.057873689 0.0133591477 0.703332122 -0.3502344704 0.702900949 -0.3501944369 0.0573455504 0.0128861136
245298530.0 0.0575484502 0.0118269229 0.6994891568 -0.3583900308 0.6997429147 -0.3590796205 0.0580025201 0.010942646
250298500.0 0.0583253222 0.0105740149 0.6949801481 -0.3669289146 0.6948612871 -0.3664788498 0.057629079 0.0103356195
255298470.0 0.0582517478 0.0092238667 0.6913779931 -0.3742394846 0.691282131 -0.3745499717 0.0581346952 0.0091365323
260298440.0 0.0578935207 0.0080351593 0.6878592885 -0.3833573908 0.6876291082 -0.3825510271 0.0583296534 0.0080019826
265298410.0 0.0588301285 0.0075934114 0.6835301353 -0.3910988058 0.6835471551 -0.3905777189 0.0580253464 0.0067807784
270298380.0 0.0585927048 0.0060892903 0.6799067656 -0.3987715151 0.6794362086 -0.3984379173 0.0579053504 0.0057350334
275298350.0 0.0590232363 0.0052592337 0.6752180993 -0.4066156635 0.6750006976 -0.4068019886 0.0582863753 0.0040923537
280298320.0 0.0585601198 0.0043499975 0.6711924519 -0.4151501479 0.6708524074 -0.4144759297 0.0585546456 0.0034823215
285298290.0 0.0587748924 0.0029114727 0.666595017 -0.42258494 0.6664361205 -0.4230260015 0.0581593136 0.0021480575
290298260.0 0.0588684256 0.0019031454 0.6619197307 -0.429733716 0.661610187 -0.4304365803 0.0584849111 0.0015184818
295298230.0 0.0588730664 0.0007585609 0.6575357419 -0.4383486151 0.6572038779 -0.437945564 0.0591867175 0.0002030801
300298200.0 0.0583158304 -0.0004669678 0.6527888308 -0.445047878 0.652557734 -0.4462827268 0.0585817628 -0.0010378583
305298170.0 0.0587952695 -0.0013013455 0.6474148238 -0.4537318854 0.6474610697 -0.4535641648 0.0594171367 -0.002331444
310298140.0 0.0585523222 -0.0025574928 0.6430687553 -0.4609937011 0.6428809895 -0.4608301046 0.0589718372 -0.0032486381
315298110.0 0.0583356411 -0.0042641822 0.6378182751 -0.4685690913 0.6383264462 -0.4687412536 0.0587483504 -0.0046588852
320298080.0 0.0584771072 -0.0051123433 0.632061308 -0.4765422148 0.6324521087 -0.4763480891 0.0584069224 -0.0054753004
325298050.0 0.0576642442 -0.0061161747 0.6269791712 -0.4834401166 0.6268028055 -0.4834337277 0.0579106348 -0.0064884913
330298020.0 0.0575316439 -0.0075119737 0.6210692033 -0.4912078681 0.6215217367 -0.4916350867 0.0572452051 -0.0077471918
335297990.0 0.0569660087 -0.0086668397 0.6155513739 -0.4979885518 0.6155948002 -0.4983142375 0.0566667688 -0.0080300604
340297960.0 0.0560100671 -0.0091842483 0.6094075497 -0.5051225857 0.6091347628 -0.505066136 0.0568173932 -0.0086303234
345297930.0 0.0556802862 -0.0095783815 0.6039745259 -0.5119848376 0.6034427207 -0.5125201714 0.0562368048 -0.0099957033
350297900.0 0.0553045947 -0.0109210473 0.5977387049 -0.5192404215 0.597638258 -0.5187728566 0.0554782921 -0.0099484209
355297870.0 0.0548583359 -0.0106768261 0.5919599812 -0.5254464999 0.5923741718 -0.5254164305 0.0551428343 -0.0108334202
360297840.0 0.0545809606 -0.0116638553 0.5872293485 -0.5320178795 0.586938617 -0.5320235849 0.0549061824 -0.01115625
365297810.0 0.0539202289 -0.0120611864 0.5805283291 -0.5387922437 0.5811805134 -0.538533602 0.0545552952 -0.0115777515
370297780.0 0.0542190325 -0.0133996104 0.5748405605 -0.5449038386 0.5749207988 -0.5442741742 0.0541232463 -0.0122603687
375297750.0 0.0537524557 -0.0137712636 0.5687282042 -0.5511864839 0.5694224821 -0.5515101705 0.0543827668 -0.01286597
380297720.0 0.0535579452 -0.0144412435 0.5624634331 -0.5579357465 0.5626873775 -0.5570981208 0.0534336944 -0.0140552595
385297690.0 0.0527089329 -0.015341709 0.5559833164 -0.5639214512 0.5558622405 -0.5640021474 0.0533113595 -0.0141040383
390297660.0 0.0527934473 -0.0155199053 0.5502192079 -0.5704735666 0.5498192447 -0.5698101456 0.0524790084 -0.0150310346
395297630.0 0.0521404792 -0.0160470771 0.5435027308 -0.5762808886 0.5438299499 -0.5762292213 0.0530014628 -0.0157975487
400297600.0 0.0516924102 -0.0167191402 0.536821439 -0.5828146197 0.5371294677 -0.5826001706 0.051943748 -0.0159749132
405297570.0 0.0510088278 -0.0175891611 0.5308075344 -0.5877940739 0.5305919741 -0.5880536762 0.0515233274 -0.0168879274
410297540.0 0.0514352421 -0.0183151895 0.5248690089 -0.5942816948 0.5248682643 -0.5943057476 0.050839988 -0.0172453165
415297510.0 0.0510762022 -0.0188520334 0.5176625939 -0.6004631417 0.518099138 -0.6003023254 0.0509694973 -0.0177814419
420297480.0 0.0506954144 -0.019264827 0.5108764981 -0.6061547161 0.5111729245 -0.606254804 0.0502354411 -0.0191458788
425297450.0 0.0501085292 -0.0205235366 0.5050444945 -0.6115098231 0.5046569221 -0.611701228 0.0492396874 -0.0188310824
430297420.0 0.0499876458 -0.0209509647 0.4981022988 -0.6163652 0.4972958008 -0.6168770928 0.0489759878 -0.0202215128
435297390.0 0.0492708218 -0.0212792162 0.4904780827 -0.6227282044 0.4903693787 -0.6225848133 0.0499259915 -0.020614068
440297360.0 0.0493970329 -0.021762341 0.4842086414 -0.628184773 0.4842920766 -0.6277731221 0.0488737235 -0.0216783561
445297330.0 0.0484994785 -0.0229790448 0.4772860411 -0.6334389805 0.4776156919 -0.633039466 0.0490671846 -0.0223682183
450297300.0 0.0487608074 -0.0232241294 0.4699022901 -0.6381847334 0.4699943733 -0.6389714067 0.0482374944 -0.022898548
455297270.0 0.0479985727 -0.0238131639 0.462958252 -0.6434577707 0.4636996577 -0.6439152987 0.0478114456 -0.0235140191
460297240.0 0.0475072866 -0.0245360654 0.455948272 -0.6483794135 0.4561197143 -0.648967395 0.047731021 -0.0238669422
465297210.0 0.0475399948 -0.0252908387 0.4492099253 -0.6544132461 0.4491718552 -0.6542619142 0.0475124655 -0.0247610552
470297180.0 0.0468587085 -0.0257304937 0.4412573792 -0.6587715842 0.4412152351 -0.6586086756 0.0470226651 -0.0248946797
475297150.0 0.0466419082 -0.0264795872 0.4343411692 -0.6630713244 0.4342647993 -0.6634878539 0.0469487621 -0.0259743689
480297120.0 0.0459485495 -0.026252262 0.426629699 -0.6691787026 0.4268972412 -0.6689244694 0.0468665691 -0.026072979
485297090.0 0.0453934456 -0.0270423099 0.4197580224 -0.6728679246 0.4193111088 -0.6729111124 0.0461673968 -0.0269997824
490297060.0 0.0445119603 -0.027914838 0.4121917009 -0.6781695742 0.4125870402 -0.6775232916 0.0460321722 -0.0268009642
495297030.0 0.0444267593 -0.0282876532 0.4045548032 -0.6828537647 0.4054327793 -0.6823296409 0.0449479268 -0.0276104441
500297000.0 0.0439444038 -0.0290471907 0.3971836756 -0.6861010294 0.3968510874 -0.6857689747 0.0447623362 -0.0273322253
505296970.0 0.0435896857 -0.0295991177 0.3896441276 -0.6907080362 0.3893606345 -0.6910628615 0.0444465828 -0.0282248684
510296940.0 0.0433430155 -0.0295781681 0.3822344664 -0.695456835 0.381612963 -0.6955505081 0.0441668567 -0.0284318418
515296910.0 0.042409459 -0.0297690423 0.3740318262 -0.6994509733 0.374193392 -0.6993499859 0.0437715494 -0.0289335526
520296880.0 0.0420091257 -0.0305833896 0.3667862697 -0.7038315633 0.3669673578 -0.7035258612 0.0430551318 -0.0296572411
525296850.0 0.041930309 -0.0316857509 0.358673356 -0.7076826781 0.359504336 -0.7073228146 0.0423255925 -0.0300032212
530296820.0 0.0410149363 -0.0316703477 0.3512447825 -0.7114819548 0.3511081397 -0.7115184554 0.0422011054 -0.0300363963
535296790.0 0.0405168405 -0.0318487601 0.3436829073 -0.7152588119 0.3436041461 -0.7147393096 0.0418547218 -0.0310658851
540296760.0 0.0398126158 -0.0320080036 0.3355971067 -0.7193628362 0.3352907147 -0.7191779727 0.0408000832 -0.0304481255
545296730.0 0.0395326379 -0.0326697146 0.327440613 -0.7223264455 0.3271686373 -0.7227154031 0.0402875659 -0.0314318869
550296700.0 0.0396316833 -0.0327699876 0.3196356196 -0.7263185854 0.3196011289 -0.7265506969 0.0397301908 -0.0315993753
555296670.0 0.0385137619 -0.0333063411 0.3117770372 -0.7297071779 0.3119809553 -0.7293691904 0.0392591858 -0.0319505351
560296640.0 0.038266002 -0.0331149132 0.3037442776 -0.7335657762 0.3032645728 -0.7330154982 0.0388525928 -0.0324609136
565296610.0 0.0373111746 -0.0339837944 0.2954925653 -0.7365197123 0.2957615182 -0.7364434137 0.0382007013 -0.0330253412
570296580.0 0.0370862162 -0.0340656467 0.2879356765 -0.7400175979 0.2868864891 -0.7394366302 0.0376003804 -0.0325958345
575296550.0 0.0360910264 -0.0343913242 0.2789596763 -0.7432578832 0.2797507946 -0.7429862767 0.0375151434 -0.0334732033
580296520.0 0.0359257126 -0.0347600627 0.2713143216 -0.745668484 0.2714397679 -0.7459472631 0.0365882102 -0.0339491399
585296490.0 0.0352105427 -0.0356385292 0.263436099 -0.7485096234 0.263589729 -0.7486587031 0.0361262613 -0.0339367975
590296460.0 0.0353532938 -0.0355842894 0.2548176586 -0.7512543154 0.2546702869 -0.7514115207 0.0344785584 -0.0343412306
595296430.0 0.0347387442 -0.0357769009 0.2463440795 -0.7541620562 0.2461241124 -0.7547122077 0.0345958736 -0.035299894
600296400.0 0.0338609307 -0.0365152331 0.2380328552 -0.7570340529 0.2387003927 -0.7565850886 0.0340091682 -0.0353562879
605296370.0 0.033107865 -0.0368638167 0.230543283 -0.7591980137 0.2304727642 -0.7597043974 0.0336629776 -0.0355838724
610296340.0 0.0330427531 -0.0367645213 0.2213984263 -0.7613164716 0.2220949407 -0.7618081958 0.0334277121 -0.036143142
615296310.0 0.0325830661 -0.0379273214 0.2136053247 -0.7642184733 0.2129771238 -0.7648932669 0.0327609502 -0.0363212993
620296280.0 0.0320401046 -0.0382177329 0.2054592627 -0.7660967377 0.2048306196 -0.7660834523 0.031971022 -0.0367025672
625296250.0 0.0307810441 -0.0387166341 0.1971717449 -0.7689732291 0.196929281 -0.7690220776 0.032370209 -0.0369385008
630296220.0 0.0317850198 -0.038304086 0.1878393221 -0.7711573824 0.187547171 -0.7710062913 0.0312746313 -0.0370701184
635296190.0 0.0295518289 -0.039174165 0.1799347186 -0.7727979113 0.1796151869 -0.7729285681 0.0313323243 -0.0374194709
640296160.0 0.0291409007 -0.0391771818 0.1711422565 -0.7741516709 0.1717994914 -0.774736703 0.0302772781 -0.0378711645
645296130.0 0.028935122 -0.0393022066 0.1630115437 -0.7764712705 0.1630775512 -0.7770753879 0.0300572161 -0.0381292961
650296100.0 0.0285358502 -0.0396079712 0.1538895297 -0.7785055788 0.1547683374 -0.7782630259 0.0300140136 -0.0390107523
655296070.0 0.0272736047 -0.0402463167 0.1457194039 -0.7798768604 0.1462383747 -0.7801988774 0.0291494142 -0.0386519396
660296040.0 0.026515738 -0.0406456475 0.1380452303 -0.7814180514 0.1378934311 -0.7815434529 0.028659078 -0.0388961869
665296010.0 0.026698974 -0.0406511035 0.1287784848 -0.7823397739 0.1288264655 -0.7827645141 0.0281951661 -0.0386131503
670295980.0 0.0246945611 -0.0406890956 0.1204678581 -0.784170892 0.1204527705 -0.7836712673 0.0268673247 -0.0389741054
675295950.0 0.0248403708 -0.0405903368 0.1119667775 -0.785125239 0.1117494349 -0.7849978304 0.026432609 -0.0392400325
680295920.0 0.0236511541 -0.0413075258 0.103083165 -0.7863164826 0.1026801031 -0.7867927457 0.0262744737 -0.0387633257
685295890.0 0.0238186609 -0.0406370759 0.0945029519 -0.7874306887 0.0945779381 -0.7880084156 0.0256923551 -0.0388268504
690295860.0 0.0233379921 -0.0409571648 0.0859848734 -0.7881215815 0.0861843302 -0.7884743027 0.0247112217 -0.0384087837
695295830.0 0.0226459466 -0.0413980593 0.078216059 -0.7892879462 0.0772091477 -0.789010848 0.0240476515 -0.0387358764
700295800.0 0.0221290483 -0.0418274596 0.0687063886 -0.7900133407 0.0683668194 -0.7896483648 0.023779307 -0.0382641324
705295770.0 0.021238477 -0.0410241772 0.0601604655 -0.7912443559 0.0603629356 -0.790861137 0.0227894064 -0.0389162662
710295740.0 0.0211830165 -0.0415970314 0.052234575 -0.7922903765 0.0519916651 -0.79208887 0.0225365897 -0.0398635266
715295710.0 0.0197249502 -0.0417896784 0.0436109575 -0.7919736163 0.0428742979 -0.7922722378 0.0222824064 -0.0395411979
720295680.0 0.0193116652 -0.0419835812 0.0342648765 -0.7928112743 0.0348030274 -0.7922776814 0.0213420807 -0.0389651582
725295650.0 0.0190823274 -0.041506286 0.0260502056 -0.7927244057 0.0255651912 -0.7932175728 0.0202064381 -0.0392445502
730295620.0 0.0187409301 -0.0416012839 0.0170348591 -0.7931518993 0.0169009955 -0.7928534211 0.0195235423 -0.0400651764
735295590.0 0.0178655603 -0.0415041669 0.0086575721 -0.7930496723 0.0086165063 -0.7931580217 0.0188133373 -0.040019717
740295560.0 0.0168579797 -0.0417894882 -2.49555e-05 -0.7930694884 -0.0002200209 -0.7929292959 0.0190396619 -0.0395349693
745295530.0 0.0164410807 -0.0417395149 -0.0086532032 -0.7923889773 -0.0091179276 -0.7928595958 0.0181761241 -0.0403214392
750295500.0 0.0159809286 -0.0418009949 -0.0168310377 -0.7926271554 -0.0179904969 -0.7929574394 0.0170015437 -0.0400595573
755295470.0 0.0155815093 -0.0422287624 -0.0257426951 -0.7922857322 -0.02570935 -0.7930139242 0.017494587 -0.0404249533
760295440.0 0.0147265186 -0.0419736175 -0.034482576 -0.7929678524 -0.0346858245 -0.7925161461 0.0163891404 -0.0403846394
765295410.0 0.0141479455 -0.0420391838 -0.0433843564 -0.7918330493 -0.043697802 -0.7922620017 0.0158549019 -0.040285379
770295380.0 0.0131088805 -0.0425177051 -0.0521475699 -0.7911009764 -0.0521467502 -0.7913297737 0.0151249884 -0.0410167921
775295350.0 0.0125271543 -0.0430313699 -0.0609633814 -0.7903456969 -0.0600378977 -0.7902970096 0.013546057 -0.0401357348
780295320.0 0.0124411361 -0.0424879363 -0.0690211753 -0.7897277899 -0.0684094599 -0.7897595753 0.0133950339 -0.0410291503
785295290.0 0.0111579875 -0.0432378465 -0.0779296266 -0.7887119479 -0.0777849628 -0.7887069909 0.0137450813 -0.040629218
790295260.0 0.0113953342 -0.0419124925 -0.0857315766 -0.7881898121 -0.0849394223 -0.7881258979 0.012669469 -0.0408759872
795295230.0 0.0103467288 -0.0427445122 -0.094987294 -0.786888955 -0.0938912876 -0.78690526 0.012270065 -0.0401797999
800295200.0 0.0091924373 -0.0420957356 -0.1042225891 -0.7856266956 -0.1030971135 -0.7856536902 0.0117132467 -0.0408933992
805295170.0 0.0087392077 -0.0424452346 -0.1118552393 -0.7848711231 -0.1120319006 -0.7847737415 0.010943673 -0.04059605
810295140.0 0.007802668 -0.0429024428 -0.1204227922 -0.7832797244 -0.120728953 -0.7837822209 0.0110804325 -0.0403952761
815295110.0 0.0078960565 -0.0429331848 -0.1286594218 -0.7818757791 -0.1288070159 -0.782137863 0.0098916722 -0.0404027376
820295080.0 0.0065928306 -0.0417501999 -0.1369694657 -0.7802467673 -0.1369907585 -0.7804994677 0.009254759 -0.0402679908
825295050.0 0.0067269673 -0.0421854638 -0.1449656895 -0.778473307 -0.1457655368 -0.7791093336 0.009150941 -0.040379326
830295020.0 0.0055768933 -0.0418314477 -0.1544488006 -0.776965554 -0.1538965625 -0.7772314038 0.0096253186 -0.0401184889
