!Created with skrf (http://scikit-rf.org).
# Hz S RI R 50.0 
!freq ReS11 ImS11 ReS21 ImS21 ReS12 ImS12 ReS22 ImS22
300000.0 -0.2408039328 -0.0870479251 0.4731203496 0.0580446434 0.469264136 0.0570282764 -0.2380951237 -0.0974448501
5299970.0 -0.2452452179 0.0065921813 0.4747790536 0.0045398001 0.4747932096 0.0051427023 -0.2410571558 0.0076802795
10299940.0 -0.2417251812 0.0181599808 0.4767698469 0.0059074692 0.476797489 0.0060177751 -0.2375904273 0.0207611255
15299910.0 -0.2373554211 0.0270791284 0.4800429919 0.0072583388 0.4804723125 0.0073790878 -0.2330921389 0.0302634882
20299880.0 -0.232985631 0.0341229052 0.4851728495 0.0081739291 0.4851842902 0.0080986245 -0.2277910525 0.0380249137
25299850.0 -0.2277393249 0.0404816315 0.4902668051 0.0070376967 0.4901815176 0.007079748 -0.2217567741 0.044824977
30299820.0 -0.2224663832 0.0451018013 0.4952616661 0.0050338216 0.4955294241 0.0046175302 -0.2161469873 0.050192946
35299790.0 -0.2173743822 0.0491484879 0.5008688977 0.0013797203 0.5010627831 0.0015424946 -0.2105871344 0.0545657114
40299760.0 -0.2127892635 0.0525942587 0.505935301 -0.0023443339 0.5062094843 -0.0023378512 -0.2054692094 0.0574581876
45299730.0 -0.2080646643 0.0549200233 0.5102171238 -0.0073977275 0.510740979 -0.0071403164 -0.2000758315 0.0603416216
50299700.0 -0.2039909763 0.056611293 0.5150933606 -0.0126367632 0.5149674227 -0.0123160278 -0.1957021354 0.0624025715
55299670.0 -0.1997216992 0.0583843349 0.5184170507 -0.019046509 0.5187486635 -0.0188574701 -0.1914039643 0.0643756855
60299640.0 -0.1958750964 0.059853453 0.5218479225 -0.024619467 0.5220842746 -0.0246069181 -0.1874940345 0.0652867412
65299610.0 -0.1930224942 0.0609358848 0.5245704478 -0.031113388 0.5246964693 -0.0312974591 -0.1839494664 0.0666880099
70299580.0 -0.1901702884 0.062059252 0.5272257829 -0.0377432972 0.5272085784 -0.037682978 -0.1807629808 0.0676861199
75299550.0 -0.1872742636 0.0630343464 0.5288428865 -0.0446172972 0.528953693 -0.0446728858 -0.1779291235 0.0681616705
80299520.0 -0.184809716 0.0637456491 0.5310334283 -0.0519352395 0.5309774045 -0.0516314189 -0.1751296499 0.0690085308
85299490.0 -0.1826073644 0.0643069336 0.5320946606 -0.0581279833 0.532499017 -0.0580997121 -0.1730085091 0.0696185769
90299460.0 -0.180210307 0.064827475 0.5330793587 -0.0653848141 0.533118549 -0.0653020098 -0.1703796635 0.0705964779
95299430.0 -0.1783043111 0.0651553193 0.5342589376 -0.0723391044 0.5341325237 -0.0721922639 -0.1681715113 0.0713925407
100299400.0 -0.176829012 0.0663698821 0.5341133939 -0.0790851823 0.5340573742 -0.0791248037 -0.1661175055 0.0715138634
105299370.0 -0.1749702959 0.0667843926 0.5347696732 -0.0860650083 0.5349867202 -0.0861698521 -0.1642128633 0.0724634783
110299340.0 -0.1735722013 0.0675897169 0.5352458882 -0.0927254813 0.5344542832 -0.0923791754 -0.162805881 0.0726227161
115299310.0 -0.1720961663 0.067999308 0.534749085 -0.0997857182 0.5349356424 -0.0997043953 -0.1613281563 0.0737262499
120299280.0 -0.170718748 0.0687224628 0.5344665543 -0.1064942256 0.5343656768 -0.1062300562 -0.1593737827 0.0745566695
125299250.0 -0.1694204762 0.0691952072 0.5337625459 -0.112790041 0.5344097594 -0.1128760783 -0.1584751461 0.0749148097
130299220.0 -0.1684945113 0.0704628892 0.5326879688 -0.1202256227 0.5335250352 -0.1200306009 -0.1570366416 0.0757307981
135299190.0 -0.1675858441 0.0711482598 0.5328781353 -0.1264260535 0.5328172318 -0.1264962482 -0.1557275267 0.0768089015
140299160.0 -0.1667392083 0.0719251909 0.53217955 -0.1332396244 0.5320778649 -0.1334062196 -0.1546030922 0.0780903818
145299130.0 -0.1657296323 0.0728909414 0.5316032083 -0.1396080672 0.5307881751 -0.1395927545 -0.1536816848 0.0789255711
150299100.0 -0.1644467993 0.0740525638 0.5298496739 -0.1456278393 0.5299793888 -0.1456300068 -0.1521931671 0.0800810968
155299070.0 -0.1641438913 0.074769456 0.5290403376 -0.1530279768 0.5285291752 -0.1527338826 -0.1512024832 0.0811082537
160299040.0 -0.1627455928 0.0759160342 0.5272295312 -0.1589399847 0.5267022768 -0.1594540186 -0.1506504998 0.0824646886
165299010.0 -0.1620656895 0.0768182998 0.5257522573 -0.1657617589 0.5261925027 -0.1658280374 -0.1492619795 0.0838204329
170298980.0 -0.1616542089 0.0778898156 0.5241679436 -0.1717125074 0.5246425468 -0.1718896346 -0.148341055 0.0848300572
175298950.0 -0.160884102 0.0787245185 0.5230209271 -0.1779008694 0.5227365809 -0.1782302947 -0.147583958 0.0859715271
180298920.0 -0.1599352908 0.0802878141 0.5210739788 -0.1845923502 0.5209957513 -0.1844240034 -0.1464506439 0.0874011409
185298890.0 -0.1590501733 0.0810509781 0.5192493192 -0.1907976232 0.5192416085 -0.1904925648 -0.1456701571 0.0887759469
190298860.0 -0.158611018 0.0825057425 0.5175743057 -0.1969507736 0.5175334161 -0.1967004383 -0.1445632796 0.0899272126
195298830.0 -0.1579030286 0.0832271068 0.5153709286 -0.203160524 0.515140174 -0.2028786065 -0.1435577253 0.0912246149
200298800.0 -0.1568614461 0.0846696762 0.5131291534 -0.2090157497 0.5133259725 -0.20936944 -0.1431526142 0.0922459836
205298770.0 -0.156168694 0.0858285749 0.5109346686 -0.2157522568 0.5108130301 -0.2150962659 -0.1419742703 0.0929710403
210298740.0 -0.1554036525 0.0869985903 0.508679828 -0.2209518176 0.5086742858 -0.2207199592 -0.1409206082 0.0954595012
215298710.0 -0.1550553857 0.0883299173 0.5064583673 -0.2272591149 0.5063487673 -0.2273872852 -0.1402745 0.0966511852
220298680.0 -0.1538566218 0.0893909695 0.5035605363 -0.2327749354 0.5040707342 -0.2330044903 -0.1397329586 0.0977194121
225298650.0 -0.1533004898 0.0908072491 0.5014414451 -0.2391083571 0.5019273949 -0.2387255421 -0.1391057483 0.0988995024
230298620.0 -0.1525132791 0.092209726 0.4990810494 -0.2443943442 0.4991709488 -0.2445125443 -0.1382126641 0.0999797342
235298590.0 -0.1518320075 0.0935924532 0.4962215726 -0.2505162814 0.4962619757 -0.2497973826 -0.1367632565 0.1013777274
240298560.0 -0.1511728974 0.0949932273 0.4937322686 -0.2561013796 0.4935481775 -0.2560698443 -0.1358803836 0.1029922816
245298530.0 -0.1505582103 0.0962498945 0.491341821 -0.2616387991 0.4906143878 -0.2616992364 -0.1347225388 0.1039072293
250298500.0 -0.1492603682 0.0974821809 0.4873132879 -0.2675082444 0.4876222834 -0.2671245996 -0.1337221121 0.105484488
255298470.0 -0.1485842964 0.0986617851 0.4844421391 -0.2724559234 0.485138891 -0.2728746107 -0.132830457 0.1068004431
260298440.0 -0.148154505 0.0997591725 0.4821407447 -0.2788276761 0.4821029525 -0.2782706911 -0.1313847811 0.1084730476
265298410.0 -0.1466413846 0.1018017179 0.4788475209 -0.2841417685 0.4792064981 -0.2839647816 -0.1306517303 0.1100061701
270298380.0 -0.1458068686 0.102890483 0.4760134555 -0.2890500259 0.4761491555 -0.2893985358 -0.1297423603 0.1111833069
275298350.0 -0.1449462819 0.1043336624 0.4726716281 -0.2946931581 0.4728139502 -0.2947266952 -0.1281518313 0.1125549919
280298320.0 -0.1437070613 0.1059389878 0.4698819813 -0.3003023365 0.4698104479 -0.2997652189 -0.1267674385 0.1137716672
285298290.0 -0.1430776643 0.1071963334 0.4663213414 -0.3055411837 0.4663294441 -0.3056838166 -0.1257195343 0.1152051489
290298260.0 -0.1419824919 0.1083685707 0.4630203224 -0.310246268 0.4631392907 -0.3108609922 -0.1245051744 0.1169078631
295298230.0 -0.1408892086 0.1095916864 0.4600405895 -0.3158554368 0.4597800182 -0.3160396862 -0.1228516955 0.1175931959
300298200.0 -0.1402745407 0.1109610454 0.4568304759 -0.3209673221 0.4565363041 -0.321809044 -0.1219947476 0.1192414261
305298170.0 -0.139082143 0.1118711326 0.4525789494 -0.3263903926 0.4528484915 -0.3260718747 -0.1200092274 0.1202555428
310298140.0 -0.1381763215 0.1134984608 0.4494577919 -0.3313612112 0.4496025475 -0.3314709154 -0.1189041996 0.1214252209
315298110.0 -0.1371002312 0.1145691689 0.4456525378 -0.3366061727 0.4456625298 -0.3366873306 -0.1177287814 0.12279473
320298080.0 -0.1359386529 0.116035538 0.4413764416 -0.3419718449 0.4419480788 -0.3418725947 -0.1164343936 0.124065938
325298050.0 -0.1350806794 0.1173127246 0.4380287286 -0.3470166006 0.4377729313 -0.3471247584 -0.1155142928 0.125426377
330298020.0 -0.1341807563 0.1181992622 0.4338348181 -0.3520798435 0.4339842546 -0.3517905033 -0.1142183706 0.1265888389
335297990.0 -0.132951026 0.1193026831 0.4300939557 -0.3565018177 0.4299837821 -0.3570011687 -0.1136102106 0.1284327231
340297960.0 -0.1324945106 0.1211843065 0.425490598 -0.3617584237 0.4253004025 -0.3616976188 -0.1115258965 0.1296490671
345297930.0 -0.1313669182 0.12267042 0.4215090562 -0.3663320602 0.4213215712 -0.3665220923 -0.1104703235 0.1304829319
350297900.0 -0.1304460658 0.1236860134 0.4167009189 -0.3707044905 0.417127395 -0.3707671668 -0.1095193829 0.1325346757
355297870.0 -0.1291859224 0.1254910218 0.4132071274 -0.3754604839 0.4134064592 -0.3752527696 -0.1080351524 0.1336600711
360297840.0 -0.1283908104 0.1269447682 0.4098762519 -0.3796408011 0.4095111284 -0.379795813 -0.1069508988 0.1353391997
365297810.0 -0.1272528629 0.1282800384 0.4047495226 -0.3847613292 0.4052436796 -0.3849612203 -0.1052218019 0.1367641132
370297780.0 -0.1255026231 0.129160382 0.4004675508 -0.3885592051 0.401290869 -0.3884225242 -0.1036142982 0.1382463025
375297750.0 -0.1244338375 0.1304932496 0.3965276851 -0.3932052937 0.3969621715 -0.3932391318 -0.1026395464 0.1395767625
380297720.0 -0.1235048446 0.1320179234 0.3924087388 -0.3978148425 0.3922667596 -0.3969615067 -0.101555078 0.1404401702
385297690.0 -0.1225010243 0.1335974085 0.3877603031 -0.4016627825 0.3877177761 -0.4016914017 -0.0996953204 0.1417482309
390297660.0 -0.1210221447 0.1345953018 0.3833611417 -0.4062436517 0.3831612368 -0.4058948581 -0.098311692 0.1430525083
395297630.0 -0.1198250847 0.1363762407 0.3789256104 -0.410319815 0.3789799955 -0.4104946443 -0.0961083202 0.1445327403
400297600.0 -0.1186463555 0.1377499149 0.373975624 -0.4150721874 0.3745855389 -0.4143620044 -0.0953565669 0.1454961747
405297570.0 -0.1175847799 0.1389227919 0.3698006779 -0.4185873651 0.3700445734 -0.418341614 -0.0938128369 0.1470004043
410297540.0 -0.1160889916 0.1399867366 0.3651694573 -0.422870524 0.365436415 -0.4226354302 -0.0922500027 0.1479508317
415297510.0 -0.114502398 0.1411306923 0.3602106229 -0.4269961727 0.3608736943 -0.4266053341 -0.0905263734 0.1493087505
420297480.0 -0.1134753268 0.1428756128 0.3557746616 -0.4305710884 0.3555949082 -0.4309022578 -0.089111413 0.1504396229
425297450.0 -0.1120778945 0.1433969036 0.3516532155 -0.4343326692 0.3517942164 -0.434376725 -0.0878048943 0.1516660477
430297420.0 -0.1106854315 0.1449206711 0.3461713035 -0.4378275624 0.3464238429 -0.437863872 -0.0862150878 0.1524274423
435297390.0 -0.1092154371 0.1459375751 0.3410709869 -0.4418244352 0.3414149904 -0.4419576217 -0.0838441278 0.1533577493
440297360.0 -0.1081464581 0.1473953879 0.3367429149 -0.4454979637 0.3369112627 -0.4457060502 -0.0825892545 0.1542506979
445297330.0 -0.1066077485 0.148182396 0.3320689712 -0.4488773655 0.3320708001 -0.4489799235 -0.0808254075 0.1551524444
450297300.0 -0.1050105679 0.1493138927 0.3271069852 -0.4528982937 0.3268922354 -0.453004478 -0.0790671573 0.1564304661
455297270.0 -0.1037133014 0.1506026781 0.3218518278 -0.4563379075 0.3220109113 -0.4565049966 -0.0775622789 0.1570665906
460297240.0 -0.1023285488 0.1515576299 0.316528396 -0.4598715532 0.3170712634 -0.4598679609 -0.075774846 0.1584822549
465297210.0 -0.1007260239 0.1531475917 0.3120122735 -0.4631613939 0.3116411557 -0.4633418311 -0.0736358521 0.1590215437
470297180.0 -0.0988995376 0.1538088234 0.306474871 -0.4663915666 0.3068992573 -0.4664272673 -0.0718596519 0.1603760585
475297150.0 -0.0978266052 0.1547641668 0.3012941303 -0.46925007 0.3016692309 -0.4695181021 -0.0697831209 0.1608456132
480297120.0 -0.0962781794 0.1562411191 0.2963231165 -0.473059159 0.296391556 -0.4733635765 -0.0679740341 0.162176912
485297090.0 -0.0951760586 0.1573641183 0.2916143001 -0.4761493152 0.2913231923 -0.4758597446 -0.0659773226 0.1630188203
490297060.0 -0.0938305615 0.1582537199 0.2863430771 -0.4794189321 0.2862776422 -0.479007556 -0.0645320862 0.1639698932
495297030.0 -0.0920233038 0.1591265185 0.2805099985 -0.4821684023 0.2813753094 -0.4821779861 -0.0626837524 0.1648052444
500297000.0 -0.0902573789 0.1602768924 0.2754811279 -0.4852932375 0.2753711674 -0.4852927921 -0.0607973341 0.1662810509
505296970.0 -0.0886665943 0.1613413078 0.2699357318 -0.4881614539 0.2702604269 -0.4886008369 -0.058933984 0.1667506453
510296940.0 -0.0873467515 0.1623165319 0.2646311685 -0.4916166069 0.2650197148 -0.4914213125 -0.0568995033 0.1677183656
515296910.0 -0.0858768697 0.1633074319 0.2591979779 -0.4942161494 0.2598466394 -0.4943186411 -0.055055379 0.1681839359
520296880.0 -0.084158851 0.1646361232 0.2541210352 -0.4972883383 0.2540000726 -0.4969449048 -0.053588794 0.168925401
525296850.0 -0.0824906261 0.1649671455 0.2485506383 -0.4997911187 0.249084289 -0.4995280519 -0.0514250104 0.1700429723
530296820.0 -0.0809120022 0.1661131606 0.2432049127 -0.5023383584 0.2433753777 -0.5022438706 -0.0496157525 0.1708288569
535296790.0 -0.0795458533 0.1670784003 0.237925035 -0.50513469 0.23804666 -0.5045242936 -0.0479190448 0.1709428552
540296760.0 -0.0779961331 0.1680898479 0.2324747567 -0.5074052775 0.2321779225 -0.507673672 -0.046237931 0.1727044691
545296730.0 -0.0763083053 0.168907227 0.2268821853 -0.5099984714 0.2267474012 -0.5101760916 -0.0443561152 0.1729040556
550296700.0 -0.0743132249 0.1697503294 0.2212219647 -0.5120699929 0.2214466684 -0.5125202029 -0.0425814542 0.173723134
555296670.0 -0.0730902807 0.1705889924 0.2157839068 -0.5143867684 0.215677857 -0.51457902 -0.0406734445 0.174514535
560296640.0 -0.0711991691 0.1717929491 0.2097601253 -0.5169839583 0.2096473432 -0.5169383833 -0.0386256062 0.174977264
565296610.0 -0.0699164317 0.1723647197 0.2044274992 -0.5192620634 0.2044468174 -0.5193359636 -0.0367804714 0.1751509778
570296580.0 -0.0682696989 0.1732266182 0.1986477013 -0.5215623889 0.1983939431 -0.5213562071 -0.035061574 0.1761228491
575296550.0 -0.0666144962 0.1743891603 0.192885208 -0.523583151 0.1933514414 -0.5235922066 -0.0328771234 0.1765546775
580296520.0 -0.0649194337 0.1749283093 0.1873337712 -0.5257072239 0.1873998634 -0.525455577 -0.0309844735 0.1768617048
585296490.0 -0.0629865065 0.1751750526 0.181488854 -0.5271812959 0.1819518613 -0.5275514365 -0.0290390367 0.1774022768
590296460.0 -0.0611641238 0.1764649028 0.1761488956 -0.5286918497 0.1761818715 -0.5293078088 -0.0279464042 0.1780267087
595296430.0 -0.0593801175 0.1770045185 0.1698719114 -0.5315968199 0.1701507259 -0.5313029479 -0.0254519092 0.1778801676
600296400.0 -0.057967594 0.177576053 0.1647998987 -0.5328560722 0.1645725434 -0.5331482051 -0.0232931837 0.1782535168
605296370.0 -0.0561437784 0.1783156166 0.1585325979 -0.5347564612 0.1585925166 -0.5349754284 -0.0212652804 0.179149237
610296340.0 -0.054574697 0.1787958549 0.152824947 -0.5361208637 0.1529235127 -0.5362388649 -0.0191167383 0.1790961217
615296310.0 -0.0524358527 0.1796516933 0.1466091781 -0.5378020301 0.1467600878 -0.538363996 -0.0170701612 0.1795736384
620296280.0 -0.0508978947 0.1801357538 0.1409719267 -0.5394463101 0.1409950232 -0.539134844 -0.0154546575 0.1799458725
625296250.0 -0.0493916222 0.180568911 0.1358269953 -0.5407815247 0.1352012091 -0.5409993661 -0.0127493285 0.180091061
630296220.0 -0.046635159 0.181439003 0.1286100741 -0.5425079753 0.1289793165 -0.5423381824 -0.0110919523 0.180623229
635296190.0 -0.0460209779 0.1818988733 0.1237694218 -0.5437388709 0.1236911982 -0.5437042711 -0.0087204252 0.1810950385
640296160.0 -0.044073952 0.1824394961 0.1175970724 -0.5447156079 0.1179362236 -0.5450750529 -0.0070855774 0.1808082436
645296130.0 -0.0422872046 0.1831728824 0.1119563152 -0.5459924665 0.1120306049 -0.5463364981 -0.0047168334 0.1813925684
650296100.0 -0.0403900868 0.1836092474 0.1059768002 -0.5468532342 0.1059716304 -0.5472269738 -0.0024860277 0.1810009888
655296070.0 -0.0386993809 0.1840885033 0.1001973003 -0.5481282561 0.1000791229 -0.5484427402 -0.000221246 0.1813094477
660296040.0 -0.0372817338 0.1842031143 0.0942614778 -0.5493073234 0.0940734227 -0.5497228631 0.0018971421 0.1815763047
665296010.0 -0.0349686981 0.1847626079 0.0877330567 -0.5499601072 0.0880235368 -0.5505650976 0.0036605786 0.1822253777
670295980.0 -0.0338723329 0.1857461125 0.082113437 -0.5509270158 0.0821837617 -0.55121347 0.0051539488 0.1821818611
675295950.0 -0.0315713095 0.1862781175 0.0762665167 -0.5516964233 0.0765456407 -0.5518118903 0.0072358881 0.1822773653
680295920.0 -0.0302200031 0.1866008172 0.0701827882 -0.552488762 0.0696660345 -0.5530982079 0.0094773765 0.1831547085
685295890.0 -0.028099225 0.18721143 0.0643887485 -0.553116651 0.0641801974 -0.5532559851 0.0114631859 0.1824923986
690295860.0 -0.0261508038 0.1874458924 0.058192543 -0.5534382205 0.0583120641 -0.554726566 0.0135227405 0.1835362026
695295830.0 -0.0244535407 0.1877228177 0.0527723894 -0.5543288139 0.0523107731 -0.5546507778 0.015326142 0.1831126012
700295800.0 -0.0219977809 0.1879721514 0.0462745701 -0.5551309566 0.0460805402 -0.554929 0.0173495556 0.1834927591
705295770.0 -0.0206789222 0.1889886099 0.0402319053 -0.5551093513 0.0405409557 -0.5553958714 0.0194557057 0.1833622016
710295740.0 -0.0184837228 0.18899069 0.034584117 -0.5563043157 0.0347286529 -0.5562383824 0.0215367544 0.1827084959
715295710.0 -0.0171464916 0.188942693 0.0287658137 -0.5563714611 0.0283423589 -0.5562959459 0.0237681472 0.1829387156
720295680.0 -0.0150910689 0.189755218 0.0224227887 -0.5566335987 0.0230958937 -0.5566347412 0.0254276319 0.1830350188
725295650.0 -0.013238616 0.1899768763 0.0160978875 -0.5566908111 0.0165872451 -0.5568590368 0.0269360504 0.1830384728
730295620.0 -0.0114351751 0.1904269759 0.0102806096 -0.5562594367 0.0105067347 -0.5567809397 0.0290449947 0.1824625639
735295590.0 -0.0096021912 0.1906023946 0.0045791256 -0.5570277206 0.00462086 -0.5569042679 0.0306634076 0.1822484268
740295560.0 -0.0080427398 0.1910014814 -0.0015035618 -0.5566482156 -0.0017378155 -0.5564954358 0.0336997519 0.1820417256
745295530.0 -0.0060088673 0.1911894401 -0.007428779 -0.5562671338 -0.0079260623 -0.5564331562 0.03535137 0.1815429371
750295500.0 -0.003942924 0.1911751129 -0.0136520883 -0.5561727861 -0.0135456484 -0.5565560604 0.0373392885 0.1817161235
755295470.0 -0.0024517795 0.1913188495 -0.0193521183 -0.5566616776 -0.0194283949 -0.5565358286 0.0397309715 0.1807431511
760295440.0 -0.0005756498 0.1916478592 -0.0255454776 -0.5565426244 -0.0255822291 -0.5566612091 0.0413552349 0.1810372417
765295410.0 0.0013430573 0.1916102782 -0.0313349361 -0.5555796624 -0.0318554915 -0.5560313993 0.0437362696 0.1806495009
770295380.0 0.0030523802 0.1916714325 -0.0376806796 -0.5551500462 -0.0377447244 -0.5553921033 0.0449885371 0.1800695556
775295350.0 0.0049462465 0.1915956973 -0.0438264957 -0.5547370217 -0.0434944897 -0.5548236729 0.0466783174 0.179995535
780295320.0 0.0071804133 0.1917170752 -0.0493315316 -0.554129481 -0.0493807342 -0.5543208904 0.0488790733 0.1789762503
785295290.0 0.0084584292 0.1915254281 -0.0556375771 -0.5533187959 -0.0555880104 -0.5538712916 0.0514614428 0.178889356
790295260.0 0.0110276847 0.1921085433 -0.0611417708 -0.5528898132 -0.0605399306 -0.5527955712 0.0534881646 0.1784038299
795295230.0 0.0125497375 0.1917425225 -0.067283136 -0.5519882373 -0.0669984343 -0.5521480597 0.0553108544 0.1780935102
800295200.0 0.0143018787 0.1920634843 -0.0735465474 -0.5512282171 -0.0731890192 -0.5513687464 0.0576404804 0.1774377467
805295170.0 0.0165422123 0.191794081 -0.0789490825 -0.5504080329 -0.0795317081 -0.5506594151 0.0593178388 0.1770440753
810295140.0 0.0178944449 0.1915123173 -0.0844415134 -0.5491438559 -0.0850756078 -0.5497262303 0.0616387373 0.1767903517
815295110.0 0.0199100664 0.1916037815 -0.0909872224 -0.5481117453 -0.0908224091 -0.5490296341 0.0633275943 0.1760585408
820295080.0 0.0213890215 0.1919976334 -0.0968037102 -0.5470009621 -0.096317846 -0.5474131807 0.0654499281 0.1755678428
825295050.0 0.0239450335 0.1917181389 -0.1021244702 -0.5464896265 -0.102797431 -0.5467385198 0.0680167026 0.1751088532
830295020.0 0.0256194065 0.1917813893 -0.1086873068 -0.5447795415 -0.1086545453 -0.5454006078 0.0704241285 0.1744513574
