!Created with skrf (http://scikit-rf.org).
# Hz S RI R 50.0 
!freq ReS11 ImS11 ReS21 ImS21 ReS12 ImS12 ReS22 ImS22
300000.0 0.8607281225 -0.0028146926 0.0001643996 0.0001393587 -0.0010523336 0.0010469597 -0.7701215666 -0.173817373
5299970.0 0.8595650513 -0.0104294858 -2.47753e-05 0.0001518616 3.699e-06 -2.98492e-05 -0.7855130213 -0.0092328113
10299940.0 0.858979807 -0.0196779594 0.0001432277 -0.0002738757 -0.0001069699 5.6969e-06 -0.7881710862 -0.0052790168
15299910.0 0.8580402528 -0.027568327 4.1552e-05 -9.67656e-05 -9.79582e-05 -0.0001480667 -0.7936790456 -0.0031039576
20299880.0 0.8575287485 -0.0353517661 0.0001715003 5.61101e-05 -0.0001663686 -0.0001208558 -0.800816003 0.0016582061
25299850.0 0.8564925432 -0.0438361975 3.98503e-05 -0.0001145929 -0.00023581 -0.0001072118 -0.806775336 0.0072499607
30299820.0 0.8556980655 -0.0516966031 -0.0002051826 -0.0001528129 -0.0001078248 -2.74445e-05 -0.8131837275 0.0147619327
35299790.0 0.8554101142 -0.0600797837 -7.81275e-05 -0.0003384308 4.4436e-05 -6.61688e-05 -0.8177414354 0.0234173354
40299760.0 0.8542065516 -0.0683920029 0.0001559146 0.0002143288 -0.0001811679 -6.73649e-05 -0.8219318129 0.0328757915
45299730.0 0.8535003556 -0.0763351949 -1.55634e-05 -4.19221e-05 3.7061e-05 -9.34085e-05 -0.8256210895 0.0422273244
50299700.0 0.8522821802 -0.0850617193 9.05832e-05 3.49889e-05 -3.15619e-05 9.08684e-05 -0.8279658428 0.052698048
55299670.0 0.8514270508 -0.0928245417 -0.0002604465 3.73857e-05 -0.0002582212 3.97177e-05 -0.8300764297 0.0625775088
60299640.0 0.8506869907 -0.101336951 -5.74671e-05 0.0001363572 -1.20133e-05 -5.58128e-05 -0.8309140719 0.0729532247
65299610.0 0.8499817029 -0.1088705479 5.29156e-05 0.0001310252 -0.0001125744 4.32026e-05 -0.8319869455 0.0822145966
70299580.0 0.8489835137 -0.1178450018 -0.0001536439 -5.38963e-05 6.36335e-05 0.0001053905 -0.8325848968 0.0928405689
75299550.0 0.8479210057 -0.1259163596 -7.02623e-05 0.0001263409 3.02459e-05 -7.81964e-05 -0.832854275 0.1020866877
80299520.0 0.8455516179 -0.1341347449 4.64338e-05 -2.55321e-05 0.0001269612 -7.23149e-05 -0.8322982882 0.1123030669
85299490.0 0.8448704079 -0.1419034209 -9.3867e-06 0.0002068184 -0.0002291434 -6.9248e-05 -0.8322245052 0.1214966695
90299460.0 0.8427905967 -0.1501097301 -6.8218e-05 -9.52312e-05 -5.98549e-05 3.4333e-06 -0.830689671 0.1309935343
95299430.0 0.8417070232 -0.1589512093 0.0002505917 -5.9482e-05 -0.0001416628 -0.0001445817 -0.8301330787 0.1415120596
100299400.0 0.8394026476 -0.1666459334 -0.0002272933 8.44433e-05 -0.000173105 3.67695e-05 -0.8289851938 0.1493770655
105299370.0 0.8379530448 -0.1750943803 0.0002736863 -9.7485e-06 -8.1013e-05 3.19734e-05 -0.8276667623 0.1588314768
110299340.0 0.8364657867 -0.1829859402 2.41762e-05 -1.99918e-05 6.44673e-05 0.0001116812 -0.827244579 0.1678460675
115299310.0 0.8347569631 -0.1918625857 2.0696e-06 -7.77788e-05 -2.83952e-05 -0.0002053514 -0.8246374193 0.1771478317
120299280.0 0.8324390613 -0.1993763498 3.58849e-05 -5.83944e-05 -3.18199e-05 -9.98359e-05 -0.823283717 0.1863358869
125299250.0 0.8309477188 -0.207499859 1.17616e-05 7.1573e-05 8.86502e-05 4.47548e-05 -0.8220915027 0.1954277347
130299220.0 0.8284440661 -0.2151662902 1.48709e-05 6.19427e-05 5.3507e-06 0.0001176971 -0.8201340742 0.2037030652
135299190.0 0.8265666854 -0.2233891213 -0.0002236975 -4.04842e-05 -7.5994e-06 -0.0001088602 -0.818129484 0.2125426661
140299160.0 0.8242817245 -0.2315314473 -0.0001148108 -0.0001147967 -4.15168e-05 -0.000198187 -0.8163024192 0.2216526926
145299130.0 0.8215814696 -0.2395993505 -4.45056e-05 0.0002510524 -0.0001931954 1.99692e-05 -0.8142180042 0.2300208292
150299100.0 0.820442159 -0.2474716426 1.78342e-05 0.0002648415 -9.01389e-05 -0.0001410318 -0.8113220455 0.2382875745
155299070.0 0.8171132512 -0.2555151258 6.9549e-06 1.68476e-05 -1.99412e-05 3.50974e-05 -0.8098434615 0.2471376635
160299040.0 0.8144770934 -0.2634504986 4.1631e-06 0.0001114688 0.0001746318 -2.5504e-06 -0.807557852 0.2563832613
165299010.0 0.8118577036 -0.2706432635 9.93164e-05 -8.39154e-05 -7.78143e-05 -0.0001211194 -0.8039527148 0.2649686829
170298980.0 0.8091238031 -0.2790489451 -0.0001008794 -1.50168e-05 -0.0001644821 3.72147e-05 -0.8021788242 0.2732932939
175298950.0 0.8064623078 -0.2869378481 8.45624e-05 -3.09935e-05 -1.66802e-05 -5.67825e-05 -0.7985756788 0.2817522645
180298920.0 0.8037367843 -0.2944098876 2.61815e-05 1.21817e-05 0.0001271676 -0.0001250515 -0.7954696573 0.290671641
185298890.0 0.8002177988 -0.3024646227 4.10196e-05 -6.8742e-06 -1.84647e-05 3.51857e-05 -0.7934318508 0.2981995614
190298860.0 0.797790817 -0.3102555975 -8.09493e-05 -2.24552e-05 0.0001869188 -8.10026e-05 -0.7900426949 0.3069866171
195298830.0 0.794409565 -0.3178809502 0.0003204095 -8.30502e-05 0.0001042078 -7.63379e-05 -0.7870708344 0.3151558076
200298800.0 0.7909091131 -0.3262955082 5.17334e-05 -0.0001216893 8.17337e-05 -0.0001406511 -0.78336453 0.3242313408
205298770.0 0.7883937972 -0.3335107054 -5.83391e-05 -1.78421e-05 0.0001865235 3.31738e-05 -0.7801930891 0.3318937627
210298740.0 0.7848805234 -0.3409279206 8.6748e-05 -0.0001523594 4.95834e-05 3.64503e-05 -0.7768315346 0.3407781417
215298710.0 0.781840792 -0.3485690677 -0.000303243 0.0001174209 0.0002457201 -0.0001003974 -0.7733669779 0.3483100898
220298680.0 0.7785000525 -0.3560960536 8.56292e-05 -3.36535e-05 -0.0001051653 9.09759e-05 -0.7701442578 0.3569094701
225298650.0 0.7739010768 -0.3634033993 1.53626e-05 -7.44491e-05 5.94363e-05 6.0463e-05 -0.766210708 0.3646984659
230298620.0 0.7709753499 -0.3712634556 -0.0002150438 0.0001178604 -0.000111455 -0.0001172592 -0.7620493837 0.3726926787
235298590.0 0.7670025418 -0.3782624185 5.43003e-05 0.0001732768 0.0002156521 -2.63115e-05 -0.758202696 0.3807003319
240298560.0 0.7638234843 -0.3870017073 -0.0001317689 -0.0001068157 -1.72065e-05 -0.0001100487 -0.754172546 0.3888032249
245298530.0 0.7600119306 -0.393236038 7.29535e-05 3.52236e-05 1.94959e-05 1.82495e-05 -0.7499305636 0.3966387664
250298500.0 0.7555527494 -0.4009902975 -0.0001691992 0.0001225203 -6.18653e-05 -4.31098e-05 -0.7460715615 0.4045406001
255298470.0 0.7518443449 -0.4079040192 -2.65581e-05 6.34302e-05 4.37691e-05 -3.85233e-05 -0.7418193298 0.4127032932
260298440.0 0.7476872162 -0.4149591447 -6.39695e-05 -7.94438e-05 -8.42188e-05 6.54361e-05 -0.7367799504 0.4200759472
265298410.0 0.7439934777 -0.4227116426 -4.75855e-05 -9.72353e-05 -3.562e-05 0.0001473978 -0.7328156141 0.4275911624
270298380.0 0.7402277549 -0.4294810248 -1.69001e-05 1.78154e-05 0.0001348241 -0.0001413588 -0.7277318293 0.4355813517
275298350.0 0.7360983769 -0.4366949745 -0.0001460833 7.66327e-05 -0.0002080153 8.9398e-06 -0.7232160948 0.4431724347
280298320.0 0.7318577934 -0.4437198201 0.0001924132 0.0002300273 -8.37899e-05 2.01149e-05 -0.7189112138 0.4503995206
285298290.0 0.727271469 -0.4512034376 0.0003340876 1.74843e-05 -1.97658e-05 0.0001817132 -0.7136402017 0.4576079801
290298260.0 0.7234780531 -0.458301744 6.81549e-05 7.79116e-05 6.7522e-05 0.0002438061 -0.7086150825 0.4658475456
295298230.0 0.7191095929 -0.4661772487 -2.2553e-06 0.0001008954 2.006e-07 0.0001739985 -0.7041608647 0.4733163717
300298200.0 0.7149681542 -0.4736802706 -6.50989e-05 -0.0001359641 -7.25927e-05 6.87401e-05 -0.6986533639 0.4804439432
305298170.0 0.7102617808 -0.4799191756 -8.73467e-05 4.48126e-05 6.56377e-05 -0.000188666 -0.6933626769 0.4875768667
310298140.0 0.7058795869 -0.4877754084 8.45092e-05 -0.0001164166 0.0001363115 -7.3636e-05 -0.6891398892 0.4953143249
315298110.0 0.7004830072 -0.4955312654 1.70662e-05 0.0001166977 -8.37069e-05 -0.0002604603 -0.6829477422 0.5021384521
320298080.0 0.6946795871 -0.5024604775 -4.98958e-05 6.65748e-05 0.0001763472 0.0001035545 -0.6780755051 0.5093178527
325298050.0 0.6894152784 -0.5098805991 0.0002314337 -0.0001362274 0.0001506069 -2.17822e-05 -0.6721609681 0.5165626646
330298020.0 0.6836592583 -0.5163619764 0.0001196752 0.0002447665 -1.59929e-05 5.19e-06 -0.6669422654 0.5230070915
335297990.0 0.6778413824 -0.5227770621 6.84543e-05 -7.62546e-05 -1.87686e-05 4.33538e-05 -0.6618366227 0.5301291851
340297960.0 0.6733282412 -0.5290471953 -0.0001218038 5.63672e-05 0.0001021377 0.0001605216 -0.6561269318 0.5375804857
345297930.0 0.666740371 -0.5355074903 1.45434e-05 -9.08586e-05 -0.0002782761 9.74658e-05 -0.650449408 0.5439726671
350297900.0 0.6619580034 -0.5418958174 5.4318e-05 -9.31861e-05 -3.53181e-05 6.51804e-05 -0.6442722422 0.5511429803
355297870.0 0.65612184 -0.5480515697 -0.0001819911 0.000175622 5.48532e-05 -8.82844e-05 -0.6382331503 0.557704959
360297840.0 0.650776403 -0.5545892618 -9.84866e-05 -0.000174837 -0.000122592 8.96501e-05 -0.632838122 0.5632553998
365297810.0 0.6452843239 -0.560469158 -5.39476e-05 -8.16585e-05 1.7918e-06 0.0002425271 -0.6266488828 0.5708503706
370297780.0 0.639861343 -0.566454635 9.5393e-05 -0.0001584954 0.0001602793 -4.6989e-05 -0.6208614646 0.5765535512
375297750.0 0.6338846831 -0.5723096608 1.09025e-05 -6.99233e-05 3.25963e-05 6.3559e-06 -0.6144431105 0.5837102297
380297720.0 0.6295932297 -0.578372768 0.0002011012 -3.79556e-05 -0.0001410226 9.11904e-05 -0.6083712644 0.5899508584
385297690.0 0.622233529 -0.5841939251 2.80532e-05 -4.92455e-05 -9.3993e-05 0.0001342386 -0.6020925866 0.5959026718
390297660.0 0.6174547086 -0.5897675214 -0.0001018948 -4.94153e-05 5.64535e-05 0.0001055164 -0.595537476 0.6017604354
395297630.0 0.6114665596 -0.596395031 -2.15003e-05 7.98568e-05 3.63751e-05 -7.31679e-05 -0.5894689275 0.6081514644
400297600.0 0.6047157059 -0.6015942535 4.91294e-05 3.27344e-05 -2.91632e-05 -0.0001830142 -0.5832319785 0.614085311
405297570.0 0.5993909347 -0.607493724 -0.0001223178 2.39444e-05 -3.51171e-05 5.89532e-05 -0.5773966532 0.6201108974
410297540.0 0.5930730236 -0.6137219657 1.85105e-05 7.07264e-05 -0.000225116 0.0001092117 -0.5706593481 0.6253639418
415297510.0 0.5877326869 -0.618887688 -4.03357e-05 4.06193e-05 0.0001661112 -8.88764e-05 -0.5641705243 0.6316413981
420297480.0 0.5809425295 -0.6252519211 -6.05478e-05 7.94449e-05 -6.05773e-05 -4.71066e-05 -0.5575727068 0.6367100229
425297450.0 0.5747699561 -0.630213348 -7.36e-07 3.3338e-05 4.69054e-05 -0.0002368196 -0.5510013883 0.6432976972
430297420.0 0.5681706529 -0.6356845351 0.0001637135 -7.76046e-05 -0.0001167686 -4.68918e-05 -0.5441705821 0.6486513839
435297390.0 0.5625011711 -0.6411429671 -2.04243e-05 3.67361e-05 -1.50117e-05 -0.0001021299 -0.536958257 0.6534958856
440297360.0 0.5563224641 -0.6471555456 7.05761e-05 0.0001066231 2.32367e-05 -2.09806e-05 -0.5306374516 0.6588006646
445297330.0 0.5497207871 -0.6518639396 0.0001694691 -5.72275e-05 3.4787e-06 9.7665e-05 -0.5241791066 0.6641966122
450297300.0 0.54358488 -0.6571012203 -0.0001392503 -5.4384e-06 -9.23562e-05 -0.0001999098 -0.517298365 0.6700324952
455297270.0 0.5360958173 -0.6621917581 0.0001372213 0.0001133007 -8.78608e-05 -9.24086e-05 -0.5101341266 0.6750308802
460297240.0 0.5307950506 -0.6672427129 3.32252e-05 0.0001804087 -6.662e-05 0.0001223902 -0.5029656666 0.6803263365
465297210.0 0.5237195802 -0.6725014077 -0.0002053197 5.9581e-05 5.51862e-05 -1.82128e-05 -0.4965511242 0.6844986116
470297180.0 0.5168052822 -0.677848108 5.607e-05 0.0001513689 -9.63083e-05 -1.11862e-05 -0.4896079964 0.6895343435
475297150.0 0.5100596616 -0.6826138284 4.1722e-06 0.0002281675 5.92198e-05 1.91203e-05 -0.4824571105 0.6942833961
480297120.0 0.5036516224 -0.687588682 8.60075e-05 -9.0483e-05 0.0001522777 -0.0002184632 -0.4757136432 0.7002224416
485297090.0 0.4968881065 -0.6921213613 3.22838e-05 -7.12568e-05 6.79957e-05 -3.68437e-05 -0.4682122731 0.7042741651
490297060.0 0.4899792269 -0.6971022728 -8.33467e-05 0.0002059223 0.0001106244 -0.0001215418 -0.4615927478 0.7084228545
495297030.0 0.4830065731 -0.7023615541 3.01039e-05 -0.0002804557 8.1162e-05 -0.0001044414 -0.4537851135 0.7126217825
500297000.0 0.4761803281 -0.7061279085 -5.54462e-05 -6.18542e-05 0.0001769632 0.0001374104 -0.4476994031 0.7178604103
505296970.0 0.4684701609 -0.7108661135 -0.0001222592 -0.0001550769 0.0001174918 -0.0001314077 -0.4406317721 0.7217067832
510296940.0 0.4615053393 -0.7151247669 2.89557e-05 -7.20085e-05 -0.0001541919 2.53601e-05 -0.4323607072 0.7265892475
515296910.0 0.4546931774 -0.7201753255 -0.0001135357 0.0001848034 -0.0001465019 -0.0001456973 -0.425192556 0.7311684738
520296880.0 0.4481309912 -0.7242722174 6.56373e-05 -0.0001647216 0.0001980872 -0.0001237022 -0.4183059005 0.7347807574
525296850.0 0.4409384895 -0.728635555 6.40093e-05 -0.0002421573 -0.0002333999 -0.0003377145 -0.4103381364 0.7394468169
530296820.0 0.4330170133 -0.7325181806 -0.0001920095 3.5738e-06 0.0001235403 8.14851e-05 -0.4035149002 0.7428114567
535296790.0 0.4260410172 -0.7363159948 8.66273e-05 4.22529e-05 -8.61362e-05 -9.51421e-05 -0.3956548466 0.7463455004
540296760.0 0.4191208694 -0.7409987899 2.42464e-05 2.40053e-05 0.0001694901 0.000150042 -0.3886632814 0.750985491
545296730.0 0.4115847998 -0.7450044655 0.0001318479 -0.0001827876 0.0001937033 8.66135e-05 -0.3812424543 0.7543556853
550296700.0 0.4044692393 -0.7485588974 3.54288e-05 -1.16418e-05 -9.3533e-06 7.87296e-05 -0.3737353703 0.7582276073
555296670.0 0.3968270999 -0.7526353153 -0.0001602835 2.1377e-05 8.54025e-05 -6.46716e-05 -0.3660577397 0.7621582655
560296640.0 0.3898044793 -0.7561988095 7.63912e-05 -0.0001019418 -5.10326e-05 4.44132e-05 -0.3582531061 0.7655641303
565296610.0 0.3814812518 -0.7603858782 0.0004047924 -5.54186e-05 -0.0003405342 -0.0001255651 -0.350753208 0.7692762184
570296580.0 0.3747317052 -0.7642470567 -0.0001407532 -5.86692e-05 -6.79669e-05 -0.00016683 -0.3432632638 0.7727565024
575296550.0 0.3673495574 -0.7667718628 -0.0001172835 8.07647e-05 -4.263e-05 -4.10535e-05 -0.3349831027 0.7760412535
580296520.0 0.3600839132 -0.770372527 3.81396e-05 5.94372e-05 0.0001723005 -0.0001193107 -0.3277904482 0.7789431206
585296490.0 0.3512240639 -0.7739080518 -3.06605e-05 -2.71782e-05 -0.0001239469 9.25852e-05 -0.3195734204 0.7819434488
590296460.0 0.3437812709 -0.7775058558 -4.14005e-05 9.17152e-05 -0.0003254605 -9.08387e-05 -0.3121111828 0.7853050969
595296430.0 0.3364068023 -0.7806167045 0.000187094 -0.0001435294 0.0002408854 -3.00212e-05 -0.3044396273 0.7876987981
600296400.0 0.328261102 -0.7831459471 8.75823e-05 -0.0001503466 -4.51308e-05 8.42172e-05 -0.296554258 0.7916106989
605296370.0 0.3211090387 -0.7860436933 -0.0001367416 8.62868e-05 3.2741e-06 -8.82027e-05 -0.2889345586 0.7940924656
610296340.0 0.3133297143 -0.7902573661 0.0001435713 -2.93933e-05 -6.46569e-05 -5.3707e-06 -0.2805939238 0.7972324745
615296310.0 0.3051346645 -0.7925249142 3.89128e-05 -2.7142e-06 -9.41413e-05 -0.0001008697 -0.2731602832 0.7996712552
620296280.0 0.2974231131 -0.795657059 0.0001170695 -4.57313e-05 0.0001392376 7.13239e-05 -0.2649857804 0.8020691812
625296250.0 0.2903593257 -0.798260033 -0.0002368355 0.0002547316 -0.0001118744 -5.3264e-06 -0.2567808697 0.8049806249
630296220.0 0.2815638894 -0.8012562797 0.000160082 0.0001046946 9.25974e-05 -3.64261e-05 -0.2487571738 0.8073734179
635296190.0 0.2737624468 -0.8044033081 8.30196e-05 -7.84e-06 5.40224e-05 -0.0001081476 -0.2411023229 0.8097121674
640296160.0 0.2661209471 -0.8061673165 0.0002132844 8.03805e-05 -4.96007e-05 8.3793e-05 -0.2326709369 0.8116689035
645296130.0 0.2575393261 -0.808789745 0.0002113408 0.0002411904 -0.0001943455 2.75319e-05 -0.2256399233 0.8142984786
650296100.0 0.2496268246 -0.8106457874 -4.35603e-05 -0.000189435 9.0903e-05 -0.0001242845 -0.2170615075 0.8165042928
655296070.0 0.2421222641 -0.8133607471 -9.59269e-05 -0.0001148282 0.0002235126 -0.0001828367 -0.2090450353 0.8181192621
660296040.0 0.2336540733 -0.8154104213 -6.9641e-06 -0.0001192067 -4.41096e-05 -4.79185e-05 -0.2012933417 0.8205455758
665296010.0 0.2255120881 -0.8177128339 -0.0001156395 4.72718e-05 3.1546e-06 -7.57142e-05 -0.1931685875 0.8225688705
670295980.0 0.2177087649 -0.8206180793 -4.66429e-05 3.85818e-05 0.0001186203 0.0001150933 -0.1853885495 0.8239731102
675295950.0 0.2096831851 -0.8216810084 -6.26068e-05 6.61146e-05 -3.2955e-06 2.40014e-05 -0.1763050949 0.826562878
680295920.0 0.2009204712 -0.8235022387 -6.58671e-05 -7.88453e-05 -0.0002609095 -2.0364e-06 -0.1686122899 0.8277476469
685295890.0 0.19313398 -0.8253839275 -4.57102e-05 -9.31388e-05 -3.40378e-05 5.3502e-05 -0.1603937625 0.8295046956
690295860.0 0.185312443 -0.8268790361 -0.0001618535 -0.0001719573 0.0001620507 -8.24713e-05 -0.1522511966 0.8308283816
695295830.0 0.1770120508 -0.8290175104 6.33269e-05 0.0001689639 0.0001315025 -2.59859e-05 -0.1439629116 0.8328239926
700295800.0 0.1687624527 -0.8299201912 9.19016e-05 0.0002599 2.48279e-05 -1.91817e-05 -0.1347534344 0.8334810565
705295770.0 0.1607892792 -0.8317817418 3.55718e-05 9.7448e-06 7.488e-06 0.0002224117 -0.1276851142 0.8351237428
710295740.0 0.1526356948 -0.8328590485 -0.0001917142 -0.0001795609 4.4945e-06 0.0001267449 -0.1195249909 0.836480201
715295710.0 0.1442937887 -0.8341212262 -0.000260604 0.0001462541 8.49191e-05 8.14632e-05 -0.1111289974 0.838181539
720295680.0 0.135904479 -0.8358288193 -0.0002379403 -1.0894e-06 9.43181e-05 -9.41898e-05 -0.1028456195 0.8384866042
725295650.0 0.1278710559 -0.8366888747 -0.0001528783 -2.32442e-05 -0.0002164658 -1.34434e-05 -0.0941431301 0.8400179949
730295620.0 0.1193920552 -0.838391035 3.38117e-05 -4.4399e-06 -2.4395e-05 0.0002223717 -0.0861514295 0.8403933495
735295590.0 0.1117326547 -0.8389361697 0.000146469 -0.0001296213 4.25213e-05 7.67513e-05 -0.0771912551 0.8409845048
740295560.0 0.1026689116 -0.8403070642 0.0001064984 4.4841e-05 -0.0001511753 6.68776e-05 -0.0696010735 0.8417594059
745295530.0 0.0946648219 -0.8415048941 -3.20581e-05 -1.11952e-05 5.46538e-05 1.88016e-05 -0.0610010274 0.8425123798
750295500.0 0.0857386684 -0.841660359 9.50999e-05 4.0935e-06 -0.0002022423 0.0001236464 -0.0527101376 0.8428192664
755295470.0 0.0779638378 -0.8424317116 0.0001922914 -7.25312e-05 -2.69153e-05 4.78269e-05 -0.0445960031 0.8439239246
760295440.0 0.0697564957 -0.8429309968 -0.0001819359 5.14834e-05 7.81967e-05 -8.0542e-06 -0.0369674321 0.8444800944
765295410.0 0.0608419987 -0.8436636213 -0.0002161081 1.64402e-05 8.75625e-05 9.1752e-06 -0.0275974591 0.8444260192
770295380.0 0.0528427076 -0.8435967389 0.0001254354 1.454e-07 -0.0001470449 -0.0001564675 -0.0194707972 0.8445836142
775295350.0 0.0445850516 -0.8439710479 0.0002893087 8.82833e-05 -5.5812e-06 -3.3969e-05 -0.0117962874 0.8443666875
780295320.0 0.035268949 -0.8447346135 0.0001417248 1.32277e-05 -0.0001187322 0.0002118498 -0.0034476745 0.8449587932
785295290.0 0.0275073174 -0.8441478746 0.0001740168 -5.2081e-05 -5.79442e-05 1.89073e-05 0.004981802 0.8448351656
790295260.0 0.0196276077 -0.8447779907 9.0184e-05 -8.81432e-05 -0.0002723509 5.39229e-05 0.0138993887 0.8446941101
795295230.0 0.0112095217 -0.8437383936 5.0538e-06 -3.42482e-05 -2.23872e-05 0.0001171968 0.0217683348 0.8448248989
800295200.0 0.002670793 -0.8441188791 4.49096e-05 -3.4815e-06 -0.0001720713 0.0001083098 0.0299812302 0.8440529413
805295170.0 -0.0052980701 -0.8445339332 -8.04254e-05 7.97378e-05 -0.0001348587 -3.33955e-05 0.0383477704 0.8439651583
810295140.0 -0.0140607286 -0.8438833174 -1.54739e-05 9.94533e-05 8.5337e-05 1.45353e-05 0.0464953804 0.844243101
815295110.0 -0.0219787645 -0.8438193683 2.28877e-05 0.0002360584 -0.0003289394 -4.9075e-06 0.0548828519 0.843498651
820295080.0 -0.0306120133 -0.8432972886 1.0385e-06 0.0001417869 2.72829e-05 4.50451e-05 0.0627938562 0.8424267126
825295050.0 -0.0391820698 -0.8435498908 6.0566e-05 -8.71553e-05 7.40833e-05 -1.80444e-05 0.0712692651 0.8421855522
830295020.0 -0.0468432771 -0.8424965674 -2.00882e-05 0.0001005841 -1.23126e-05 0.000171756 0.0789743356 0.841159984
835294990.0 -0.0553273282 -0.8421374768 6.80254e-05 0.0002701555 1.05727e-05 -0.0001015476 0.0876631556 0.8407293484
840294960.0 -0.0637081612 -0.840797711 1.74138e-05 -7.85381e-05 9.07825e-05 -0.0001673661 0.0956364799 0.8398475723
845294930.0 -0.0721295691 -0.8404670561 -6.53412e-05 0.0001006464 0.0002121147 -0.0001263297 0.1037479489 0.8382616049
850294900.0 -0.0806153923 -0.8388508329 0.0001048057 0.0002935786 -5.95465e-05 -0.000148116 0.1119959013 0.8373921568
