!Created with skrf (http://scikit-rf.org).
# Hz S RI R 50.0 
!freq ReS11 ImS11 ReS21 ImS21 ReS12 ImS12 ReS22 ImS22
300000.0 -0.2422299387 -0.0903199106 0.4740771656 0.0601515222 0.4711909796 0.0581830597 -0.241254675 -0.0970962614
5299970.0 -0.2451014024 0.0063382379 0.4749751002 0.0053869036 0.4749139429 0.0050991805 -0.2410891982 0.0073109948
10299940.0 -0.2417747524 0.0177288315 0.4766791702 0.0059413528 0.4768137671 0.006378719 -0.2376981674 0.020668909
15299910.0 -0.2375027126 0.0268766108 0.480219673 0.007578857 0.4806905075 0.0073691532 -0.233320844 0.0303800146
20299880.0 -0.2328377942 0.0339300113 0.4849617012 0.0082616942 0.4852113713 0.0079273291 -0.2276688978 0.0381899309
25299850.0 -0.2278397212 0.040385791 0.4903826989 0.0069602219 0.4899632119 0.007162273 -0.2220533451 0.0448828293
30299820.0 -0.2224840059 0.0448757354 0.4957684872 0.0048150441 0.4955756131 0.0046260836 -0.2160578396 0.0499806006
35299790.0 -0.2174243163 0.0491009242 0.5013704894 0.0015377684 0.5006997906 0.0014853788 -0.2107692048 0.0544774963
40299760.0 -0.2127531585 0.0523231286 0.5059631287 -0.0025172526 0.5058433975 -0.0020285888 -0.2054055616 0.0573570559
45299730.0 -0.2077959161 0.0547561865 0.5103478289 -0.0069331842 0.5106207049 -0.0070974222 -0.2002683684 0.0605704104
50299700.0 -0.2039334516 0.0566927096 0.5150544786 -0.0121370352 0.5151386131 -0.0121900237 -0.1955987259 0.0623445592
55299670.0 -0.199897573 0.0583722735 0.5188518731 -0.0189982693 0.5184570391 -0.0185222704 -0.1913080071 0.0641676378
60299640.0 -0.1959631892 0.0600449762 0.5218138868 -0.0250195247 0.5221391669 -0.0246986014 -0.1872959096 0.0655132451
65299610.0 -0.1929284838 0.0610050164 0.5244697844 -0.0314213112 0.5247008655 -0.0309862286 -0.1839039903 0.0665356026
70299580.0 -0.1898317043 0.0621164368 0.5270760319 -0.0380979213 0.526622087 -0.0375482303 -0.1806536298 0.0674995929
75299550.0 -0.1870348026 0.0630980092 0.5288607784 -0.0445580171 0.5286230025 -0.0449460076 -0.1776168023 0.0683904177
80299520.0 -0.1847397332 0.0636335418 0.5307985729 -0.0515412341 0.5309377335 -0.0513950367 -0.1752857119 0.0693861096
85299490.0 -0.1823417908 0.0640608393 0.5322109057 -0.058148419 0.5322472547 -0.0581037132 -0.1728194853 0.069513328
90299460.0 -0.1801312503 0.0648280932 0.5327996106 -0.06540932 0.5331748846 -0.0651504366 -0.1704362791 0.0704211006
95299430.0 -0.1781145759 0.065166039 0.5342419544 -0.0722261884 0.5340730319 -0.0721966673 -0.1682548994 0.0712646785
100299400.0 -0.1764630641 0.0662444228 0.5338121775 -0.0789204494 0.5337560343 -0.0792069374 -0.1659780351 0.0716609587
105299370.0 -0.1749456481 0.0668152212 0.5348089958 -0.0861591211 0.5348905025 -0.0858448221 -0.1640210877 0.0724761036
110299340.0 -0.1732802297 0.067466228 0.5351156582 -0.0926595672 0.5344403582 -0.0924357025 -0.1625043115 0.0730560988
115299310.0 -0.1718777357 0.0681730158 0.5350528253 -0.0994443223 0.5344418291 -0.0992183586 -0.160712492 0.0736076597
120299280.0 -0.1707556508 0.0686287902 0.5344861992 -0.1058393656 0.5344898471 -0.1062975655 -0.1597945726 0.0745301541
125299250.0 -0.169557545 0.0690580619 0.5341824012 -0.1126627353 0.534348195 -0.1126690535 -0.1587116669 0.0749653821
130299220.0 -0.1685554319 0.0704147737 0.5333244879 -0.120048807 0.5331229408 -0.1198419265 -0.1569884663 0.0756140459
135299190.0 -0.1674893081 0.0712014271 0.533348345 -0.1261852254 0.532866311 -0.1260599636 -0.1558597621 0.0767432569
140299160.0 -0.1666349656 0.072167612 0.5320791663 -0.1332270344 0.5321855756 -0.1331061323 -0.1544686194 0.0779896244
145299130.0 -0.1655198492 0.072603832 0.5311721149 -0.1393309896 0.5311241298 -0.1392999106 -0.1535182383 0.0790148249
150299100.0 -0.1644160822 0.0739789585 0.5296458583 -0.1454635303 0.5302179774 -0.1458358047 -0.1524516195 0.0803528731
155299070.0 -0.1637943085 0.0745050771 0.5287572378 -0.1532294133 0.5286092048 -0.1525053844 -0.1512955266 0.0809208373
160299040.0 -0.1627237109 0.0757947443 0.5271362006 -0.1591924839 0.5270034899 -0.1592631759 -0.1505459341 0.0823884681
165299010.0 -0.1620058901 0.0768961386 0.5256063389 -0.1660238454 0.5260342038 -0.1656856885 -0.1495581648 0.0837587166
170298980.0 -0.1614033962 0.0777351817 0.5241240492 -0.172250513 0.5245134022 -0.1715274418 -0.1484754382 0.0845640344
175298950.0 -0.1607060838 0.0788762659 0.5230464765 -0.1778835396 0.5227683825 -0.1776920324 -0.1481203493 0.0858754577
180298920.0 -0.1598790693 0.0800056821 0.5210094749 -0.1843127917 0.5205760424 -0.1840162201 -0.14638718 0.0873493605
185298890.0 -0.1587397657 0.0808991826 0.5191347889 -0.1907188026 0.5189769781 -0.1902916031 -0.1458258739 0.0885839146
190298860.0 -0.1584377622 0.082406171 0.5174669198 -0.1968713472 0.5175055612 -0.1964980782 -0.1446053344 0.089569152
195298830.0 -0.1578764097 0.0832425441 0.5153000938 -0.2025558376 0.5154179071 -0.2029744624 -0.1436200719 0.0910813495
200298800.0 -0.1568763277 0.0847584906 0.5129790489 -0.2093335118 0.5131503637 -0.209226433 -0.1428951674 0.092435501
205298770.0 -0.156012394 0.0860276967 0.510485788 -0.2152426493 0.510934418 -0.2151626359 -0.1420156896 0.0930631618
210298740.0 -0.155324766 0.0870404961 0.5089024911 -0.2209521214 0.5088693452 -0.2205371593 -0.1409731667 0.0953487333
215298710.0 -0.1549026882 0.0882371455 0.506489568 -0.2270811388 0.5063997867 -0.2271979291 -0.1404295692 0.096658727
220298680.0 -0.1540014379 0.0891895045 0.5038027542 -0.232657946 0.5037652713 -0.2326166579 -0.1395657648 0.0974181212
225298650.0 -0.1534323198 0.0905719542 0.5013225189 -0.2387179597 0.5017127462 -0.2386663017 -0.1390503688 0.0988411844
230298620.0 -0.1526450251 0.0923433753 0.4989270314 -0.2440725188 0.4994458143 -0.2442772902 -0.138087078 0.1001239333
235298590.0 -0.1516981113 0.0938541831 0.4964552051 -0.2502388512 0.4963009249 -0.2496341139 -0.1367964909 0.101547108
240298560.0 -0.15105826 0.0947944224 0.4936557978 -0.2560437636 0.4934026406 -0.2562984566 -0.1357715374 0.1032553365
245298530.0 -0.1502945022 0.0962832527 0.4911418029 -0.2619531728 0.4907226435 -0.261551181 -0.1347387883 0.1041186717
250298500.0 -0.1492023028 0.0976365847 0.4877550806 -0.2670595731 0.4875893761 -0.2671720964 -0.1337214398 0.1056463824
255298470.0 -0.1485696723 0.0987927689 0.4844175576 -0.2723231286 0.4849215939 -0.2724170895 -0.1328048019 0.106968437
260298440.0 -0.1481870747 0.1000437974 0.4820077025 -0.2788567096 0.4821260127 -0.2782716376 -0.1314898743 0.1083236161
265298410.0 -0.1467655728 0.101829496 0.4788008686 -0.2839744866 0.4790477998 -0.2837489028 -0.1304594148 0.1100393461
270298380.0 -0.1459562447 0.1028787784 0.4759221426 -0.2891042209 0.4762854333 -0.2890137588 -0.129390887 0.1108163695
275298350.0 -0.1447954539 0.1042304191 0.4723356026 -0.2949682079 0.4732714594 -0.29464273 -0.1279469429 0.1121274304
280298320.0 -0.1438321622 0.1056532072 0.4698069715 -0.3002357426 0.4698651857 -0.3001229078 -0.1269391202 0.113837618
285298290.0 -0.1428410477 0.1072829316 0.4667164381 -0.305263874 0.4663563072 -0.3051075589 -0.1256789891 0.1152987861
290298260.0 -0.1419611515 0.1085778225 0.4631693361 -0.3106465476 0.463372351 -0.3105928958 -0.1245506756 0.1164962824
295298230.0 -0.1407478808 0.1095065711 0.4599544451 -0.3159170378 0.4597300527 -0.3155523605 -0.1226107184 0.1175103183
300298200.0 -0.1401857954 0.1111238858 0.4563221436 -0.3207909549 0.4565859704 -0.3213322254 -0.1216756821 0.1189669041
305298170.0 -0.1388025903 0.1122399921 0.4526733155 -0.3267155856 0.4533344529 -0.3260069219 -0.119876298 0.1201613112
310298140.0 -0.1377979603 0.113391517 0.4495493064 -0.3315257353 0.4495414677 -0.3313248515 -0.1188626005 0.121627661
315298110.0 -0.1369934682 0.1147935947 0.4459509342 -0.3367168768 0.4460028121 -0.3365180634 -0.1174700845 0.1229339431
320298080.0 -0.1358980632 0.1159976194 0.4413005805 -0.3420341659 0.4420300708 -0.3415515182 -0.1163812546 0.1239844287
325298050.0 -0.135050752 0.1170166321 0.4379835703 -0.3470234584 0.4378495123 -0.3466879612 -0.1154580656 0.1253086742
330298020.0 -0.1340596765 0.1181279456 0.4340813652 -0.351976349 0.4340508603 -0.3519550114 -0.114307425 0.1265549203
335297990.0 -0.1329626799 0.1192680264 0.4298939484 -0.3563029231 0.4299454299 -0.3568439077 -0.1135110509 0.1286817898
340297960.0 -0.1329037311 0.1212198236 0.4260333961 -0.3614923306 0.4254892758 -0.3616872925 -0.111447949 0.1298263509
345297930.0 -0.131643203 0.1224678443 0.4218798728 -0.366023496 0.4216526114 -0.3664229837 -0.1101844346 0.1306881064
350297900.0 -0.1305810461 0.1235263876 0.4173837283 -0.3710386834 0.4175028475 -0.3704250001 -0.109684736 0.1326104861
355297870.0 -0.1290844066 0.1255473275 0.4130084572 -0.3751491793 0.413815605 -0.3749341322 -0.1081994129 0.1336591488
360297840.0 -0.1280818192 0.1270727443 0.4097155806 -0.3796721928 0.4096917488 -0.3796455772 -0.1066356769 0.1353633878
365297810.0 -0.1272040755 0.1281952753 0.4051114169 -0.384145521 0.4055146682 -0.3846690657 -0.105178417 0.1366868216
370297780.0 -0.1257280154 0.1291865661 0.4004832987 -0.3885986735 0.4011320431 -0.3880830307 -0.1041005284 0.138137931
375297750.0 -0.124640559 0.1308891101 0.3967686794 -0.3935010656 0.3969061382 -0.3930779604 -0.1021801578 0.1390965097
380297720.0 -0.1233773871 0.1324868507 0.3920649185 -0.3977159762 0.3924940227 -0.3970069464 -0.101135461 0.1404051065
385297690.0 -0.1223560114 0.1336611592 0.3877046046 -0.4016643415 0.3878373587 -0.4015400142 -0.0994183406 0.141820139
390297660.0 -0.1210754014 0.1350213174 0.3835191763 -0.4060702664 0.383303877 -0.4056326871 -0.0983382889 0.1429350775
395297630.0 -0.1198983818 0.1361799331 0.3792950682 -0.4103586793 0.379010116 -0.4100586089 -0.0961405176 0.1441889686
400297600.0 -0.1186344282 0.1374703021 0.3738076566 -0.4146849406 0.3746241241 -0.4142376482 -0.0948863285 0.1454498019
405297570.0 -0.117444692 0.138783887 0.3694898754 -0.418413297 0.3699336838 -0.4181529794 -0.0938741198 0.1469248773
410297540.0 -0.1159418251 0.140009604 0.3655557201 -0.4228577449 0.3658469792 -0.4225420112 -0.0920443102 0.1480512889
415297510.0 -0.1145413782 0.1412409402 0.3602844444 -0.4268020304 0.36080496 -0.4268524435 -0.0904882298 0.1492685661
420297480.0 -0.1135261447 0.142865061 0.3560222576 -0.4303915 0.3561342237 -0.4301136325 -0.0890333025 0.150173035
425297450.0 -0.1120708204 0.1434494519 0.3515679669 -0.43428779 0.3517691488 -0.4343864602 -0.0876668555 0.1515760904
430297420.0 -0.1107374407 0.14461617 0.3464813206 -0.4376266457 0.3467526878 -0.4378904057 -0.0862667568 0.15216272
435297390.0 -0.1095305296 0.146050296 0.3414469427 -0.4419104114 0.3415387693 -0.441743954 -0.0836365362 0.1533986627
440297360.0 -0.1078339675 0.1475204024 0.3367810681 -0.4454021261 0.3371043432 -0.4453602056 -0.0824148583 0.1544038212
445297330.0 -0.1064834184 0.1482570539 0.3321906436 -0.4490983567 0.3321429376 -0.4486979775 -0.0805575403 0.1551207282
450297300.0 -0.1048628848 0.1493071925 0.3269770542 -0.4525127693 0.327033077 -0.4528600325 -0.078956054 0.1561316412
455297270.0 -0.1037138192 0.1506204425 0.3217366036 -0.45602827 0.322163001 -0.4562570467 -0.07729433 0.1573371614
460297240.0 -0.1024429512 0.1518147244 0.3167562283 -0.4595046803 0.3170082166 -0.4598132402 -0.0756505407 0.1584951528
465297210.0 -0.1007200615 0.1527330846 0.3120841088 -0.4631788416 0.312161945 -0.4631626034 -0.0734804602 0.1593211526
470297180.0 -0.0992653319 0.1540789334 0.3065004094 -0.46676401 0.3069203217 -0.4663669015 -0.0719034606 0.1602494709
475297150.0 -0.0981776291 0.1549854319 0.3015014059 -0.4694548704 0.3016162098 -0.4695259974 -0.0698211567 0.1608780658
480297120.0 -0.0964630564 0.1565043249 0.2965399569 -0.4730520985 0.2964531894 -0.4734767777 -0.0678417756 0.1621390553
485297090.0 -0.0949886882 0.1573396619 0.2913037438 -0.4760723993 0.2918597739 -0.4757988933 -0.0661649967 0.1628605146
490297060.0 -0.0938831665 0.1581632756 0.28637742 -0.4793408102 0.2867775815 -0.478939777 -0.0642318099 0.1637539791
495297030.0 -0.091988763 0.1592998021 0.2808306267 -0.4821740325 0.281641148 -0.4825397935 -0.0628350378 0.1649387726
500297000.0 -0.0905191572 0.1602545753 0.2755105843 -0.485212731 0.2753530872 -0.4847282597 -0.0607936168 0.166132641
505296970.0 -0.0884447931 0.1610457723 0.2705964701 -0.4877355181 0.2701216525 -0.4881271824 -0.059244781 0.1665106746
510296940.0 -0.0875267999 0.16221256 0.2652886353 -0.4915157624 0.2649477236 -0.4912062414 -0.0569229727 0.1675410879
515296910.0 -0.0856431447 0.1634096678 0.2596024866 -0.4939890419 0.2597668573 -0.4939322004 -0.0550629136 0.1682716527
520296880.0 -0.0842596363 0.1643594178 0.254642281 -0.4971915973 0.254190595 -0.4963880562 -0.0534511369 0.1687906365
525296850.0 -0.0824153048 0.1648966821 0.2486456443 -0.4995532238 0.2492581377 -0.4993616923 -0.051878862 0.1699399136
530296820.0 -0.0808856255 0.1663443308 0.2433961999 -0.5023415395 0.2435253342 -0.5023384646 -0.0496552849 0.1708311499
535296790.0 -0.0797831757 0.1671466353 0.2382062686 -0.5048436441 0.2380219967 -0.5043308842 -0.0480783835 0.1710487519
540296760.0 -0.0778357314 0.1680924253 0.2328373404 -0.5074929172 0.2324348604 -0.5073796318 -0.0460270505 0.1725179237
545296730.0 -0.076256713 0.1689948526 0.2265907952 -0.5094258157 0.227046611 -0.5097995111 -0.0443877926 0.1727057647
550296700.0 -0.0744177245 0.1698456751 0.2216007508 -0.512024099 0.2214353678 -0.5122007196 -0.0426011848 0.1734215296
555296670.0 -0.0730615929 0.1704035581 0.2158780964 -0.5144937202 0.2160795268 -0.5143205899 -0.0405171047 0.1742869833
560296640.0 -0.0711997852 0.1718907929 0.2102631766 -0.5171707609 0.2105206098 -0.5167089954 -0.0388283992 0.1744516
565296610.0 -0.0697576448 0.1723057336 0.2041033725 -0.5189324132 0.2049570673 -0.5190264519 -0.036984037 0.175239809
570296580.0 -0.0680980034 0.1731670737 0.1989179878 -0.521793847 0.1988504045 -0.5213422186 -0.0353256236 0.1761189371
575296550.0 -0.0666490929 0.1742005092 0.193431191 -0.5235223324 0.1932689033 -0.5235349179 -0.0327406581 0.1764650667
580296520.0 -0.0644599538 0.175036454 0.1873412615 -0.5258640427 0.1878512578 -0.525687534 -0.0311713919 0.1770069913
585296490.0 -0.063149383 0.1753345538 0.1820963381 -0.5268920235 0.1823690469 -0.5275210955 -0.0291759926 0.1775068034
590296460.0 -0.0609529145 0.1762884663 0.1763183053 -0.5286198783 0.17625502 -0.5291344459 -0.0275759517 0.1778288903
595296430.0 -0.0594606103 0.1772378296 0.1702295631 -0.5310979384 0.1702398822 -0.5310135715 -0.0253691203 0.1778811801
600296400.0 -0.0581189563 0.1778442054 0.1649796061 -0.5329958405 0.1647962579 -0.5324750046 -0.023564159 0.1781744531
605296370.0 -0.0561457927 0.1783920584 0.1587869753 -0.5347498836 0.1588594031 -0.5348509895 -0.0210666289 0.1792291625
610296340.0 -0.0543312142 0.1790486918 0.152777594 -0.5361015975 0.1529781074 -0.5363142388 -0.0191123779 0.1792121094
615296310.0 -0.0524313158 0.1795576824 0.1471740033 -0.5378644673 0.1468723107 -0.5381850885 -0.0169985242 0.1794320188
620296280.0 -0.0508566392 0.1801259493 0.1411343631 -0.5392262934 0.1415193681 -0.5389193225 -0.0154173533 0.179796413
625296250.0 -0.0494711754 0.1804329867 0.1361713137 -0.5409435584 0.1355462218 -0.5411735366 -0.0126006087 0.1799275151
630296220.0 -0.0468417735 0.181460303 0.1293131606 -0.5422912766 0.1294780507 -0.5422329599 -0.0108823509 0.1803524896
635296190.0 -0.0460112936 0.1818613831 0.1237803793 -0.5433133956 0.1235605051 -0.543613678 -0.008752323 0.1805600832
640296160.0 -0.0440674864 0.1827185018 0.1176739726 -0.5445168447 0.1183048828 -0.5448625424 -0.006887398 0.1810389705
645296130.0 -0.0422261616 0.183335083 0.1120847243 -0.5454768956 0.1125304037 -0.5459320252 -0.0049158364 0.1812191683
650296100.0 -0.0402002917 0.1839278443 0.1059064781 -0.5471171192 0.1062098171 -0.5472747446 -0.0022536292 0.1812739919
655296070.0 -0.0387098739 0.1841501679 0.1002460983 -0.5481602798 0.1008547989 -0.5482659123 -0.0006463972 0.1813670966
660296040.0 -0.0373075668 0.1844424524 0.0947300302 -0.5490305107 0.0945180905 -0.5491791186 0.0015045548 0.1816823195
665296010.0 -0.0348489965 0.1850137078 0.0881510283 -0.5501683283 0.0883887549 -0.5500390727 0.0036151162 0.182180538
670295980.0 -0.0339632172 0.1856277881 0.0825875456 -0.5511016921 0.0823746396 -0.5509097467 0.0049695483 0.1823923485
675295950.0 -0.0316881595 0.1861687664 0.0768406815 -0.5517212266 0.076768347 -0.5514018927 0.0069476369 0.1821753427
680295920.0 -0.0301683425 0.1864928572 0.0706047063 -0.5524121192 0.0700510724 -0.5529788348 0.0094426094 0.182670971
685295890.0 -0.0279535546 0.1876493315 0.0646452079 -0.5533250833 0.0643914678 -0.5530440881 0.0114263358 0.1824902876
690295860.0 -0.0260164479 0.1876375131 0.0584961699 -0.5533770937 0.058731867 -0.5543560359 0.0132909029 0.1835009229
695295830.0 -0.024495196 0.1878668612 0.0528627612 -0.5541257725 0.0525617444 -0.5542233092 0.0153891882 0.1828751489
700295800.0 -0.0222861336 0.1880693926 0.0460780918 -0.5548524784 0.0463843971 -0.5544847401 0.0170793716 0.1834896889
705295770.0 -0.0208910215 0.1887700615 0.0406059738 -0.5552018771 0.0408854733 -0.5557299641 0.0193671317 0.1836830575
710295740.0 -0.0187608262 0.1892731369 0.0348655838 -0.556311496 0.0350046226 -0.5564566823 0.0212850773 0.182694968
715295710.0 -0.0172356122 0.18933986 0.0290219864 -0.5560151634 0.0284760643 -0.5560283968 0.0233878934 0.182788831
720295680.0 -0.0153906142 0.1896456629 0.0228107736 -0.5568210778 0.022994632 -0.5566174438 0.025599055 0.1832040343
725295650.0 -0.0132039131 0.1899106694 0.0166434665 -0.5565619305 0.0167156704 -0.5567668307 0.0268225426 0.1830074671
730295620.0 -0.0113952433 0.1904539377 0.0106509745 -0.5564239858 0.0110193907 -0.5569254731 0.0290377168 0.1822834263
735295590.0 -0.0095596657 0.1907885553 0.0048365192 -0.5571024151 0.0046205098 -0.5565560594 0.0309626587 0.1821517402
740295560.0 -0.0082358713 0.1907209827 -0.0013186543 -0.5568012747 -0.0012534792 -0.5570478979 0.0336151831 0.1823309375
745295530.0 -0.0063231935 0.1911265834 -0.0075142823 -0.5563852151 -0.0075845448 -0.5567864934 0.0351487676 0.1816530778
750295500.0 -0.0039917305 0.1913256191 -0.0133152774 -0.556162983 -0.0129791009 -0.5566543889 0.0371773488 0.1813377046
755295470.0 -0.0020761218 0.1913249787 -0.0191128565 -0.5561518602 -0.0190280112 -0.556241553 0.0395356771 0.1807520473
760295440.0 -0.0004559877 0.1915918309 -0.0253107013 -0.5563931188 -0.02551712 -0.5563343045 0.0415697394 0.1807209205
765295410.0 0.0011778988 0.1918410376 -0.0310659492 -0.5557005589 -0.0317291345 -0.5556642291 0.0435403204 0.1804679603
770295380.0 0.0031041714 0.1916868824 -0.0375295751 -0.555418119 -0.0372153304 -0.5549690027 0.0450333073 0.1798765651
775295350.0 0.0048318429 0.1914763347 -0.0434527157 -0.5545369774 -0.0428424427 -0.5545282204 0.0468717824 0.1799701699
780295320.0 0.006986501 0.1918343034 -0.049212956 -0.5539763083 -0.0486719043 -0.554253132 0.0488913179 0.1791286784
785295290.0 0.0085903471 0.1916125553 -0.055311069 -0.553057131 -0.0550209353 -0.5536947799 0.0516374983 0.1786855576
790295260.0 0.0111207301 0.1922469938 -0.0603921056 -0.553084632 -0.0602680153 -0.5530810051 0.0533663591 0.178519188
795295230.0 0.0126247986 0.1921664272 -0.067198882 -0.5522529197 -0.0665387262 -0.5524807847 0.055378633 0.1780362338
800295200.0 0.014248585 0.1923113736 -0.073647774 -0.5512411135 -0.0726206811 -0.5513886895 0.0576246379 0.1774614126
805295170.0 0.0162205731 0.1920318679 -0.0787533181 -0.5504572968 -0.0787977688 -0.5508497226 0.0593069083 0.1768796951
810295140.0 0.017788533 0.1918466431 -0.084269347 -0.5495077593 -0.084656191 -0.5497487193 0.0616978011 0.1768262104
815295110.0 0.0198073268 0.191717059 -0.0904266808 -0.548399954 -0.0903412844 -0.5488365755 0.0635628583 0.1763330545
820295080.0 0.021373202 0.1921744531 -0.0965921094 -0.5473844004 -0.0962176047 -0.5477166724 0.0655338988 0.1758286588
825295050.0 0.0240644805 0.1916453365 -0.1021942889 -0.5459398064 -0.1021479904 -0.5464415848 0.0679504209 0.1751701105
830295020.0 0.0256694555 0.1916862832 -0.1084533712 -0.5447049532 -0.1084826311 -0.5452198368 0.0703712866 0.1745048537
