!Created with skrf (http://scikit-rf.org).
# Hz S RI R 50.0 
!freq ReS11 ImS11 ReS21 ImS21 ReS12 ImS12 ReS22 ImS22
300000.0 -0.2148635746 -0.0604418162 -0.0008597622 0.0010399848 -0.0008485369 0.0001696131 -0.774985547 -0.1390833913
5299970.0 -0.2167235934 0.0082846549 0.0002200918 6.53985e-05 2.81277e-05 2.47853e-05 -0.7844048982 -0.0072202269
10299940.0 -0.21336862 0.0194595154 -0.0002014941 -0.0001479462 9.6442e-05 -3.76736e-05 -0.7878107118 -0.0037205235
15299910.0 -0.2087770526 0.0284853401 -6.91853e-05 0.0002726748 0.0002422373 9.61208e-05 -0.7931884485 -0.0015183316
20299880.0 -0.2032507941 0.0360538602 1.19065e-05 8.26058e-05 -1.60476e-05 -0.0002191929 -0.8000040438 0.0022606946
25299850.0 -0.1976055092 0.0420665301 -0.0001069821 -0.0001525152 -0.0001678223 -8.64211e-05 -0.8059705908 0.0078205392
30299820.0 -0.1923119483 0.0467812872 -3.84773e-05 -1.98221e-05 -0.0002020906 0.0001054924 -0.8123622202 0.0162935146
35299790.0 -0.186346473 0.0504586707 -0.0001077527 -0.0001314625 0.0001057742 9.5625e-05 -0.8171981236 0.024833863
40299760.0 -0.1809057783 0.0533831301 -0.0001739342 0.0002259204 -5.50771e-05 -7.25834e-05 -0.8213484087 0.0348536092
45299730.0 -0.1754298327 0.0554241992 8.86043e-05 -7.57196e-05 -3.89687e-05 3.3409e-05 -0.8251156722 0.0437595832
50299700.0 -0.1709581398 0.0570034165 0.0001763415 -3.74199e-05 -0.0001680237 0.0001173211 -0.8269470278 0.05401618
55299670.0 -0.1665983664 0.0579298822 -5.73366e-05 -5.19583e-05 -0.0001642475 -0.0001046598 -0.8296469827 0.0642939995
60299640.0 -0.1624619597 0.0588549737 -8.54147e-05 5.34796e-05 -0.000100421 -5.0969e-06 -0.8305162493 0.0742437618
65299610.0 -0.1586577653 0.0593929716 -2.68716e-05 -0.0001471038 -0.0001088995 0.0001064261 -0.8313965506 0.0840292849
70299580.0 -0.1557611623 0.059747009 0.0001378119 -6.23332e-05 -3.82034e-05 0.0001795325 -0.8317894717 0.0945138342
75299550.0 -0.1526096547 0.0601791906 -9.47301e-05 0.0002051955 7.7666e-06 6.41406e-05 -0.8321361885 0.1042110027
80299520.0 -0.1500767809 0.0601245925 8.65168e-05 -1.83851e-05 -3.30663e-05 0.0001730009 -0.8323551787 0.1140290512
85299490.0 -0.1478733033 0.059896552 -0.0001481454 9.27903e-05 -3.43602e-05 0.0001472349 -0.8318593722 0.123700794
90299460.0 -0.1455385483 0.0600410264 1.20623e-05 -6.03199e-05 7.75041e-05 -9.29838e-05 -0.8309552209 0.1331843331
95299430.0 -0.143340984 0.0597884136 0.0002962838 8.4981e-06 5.00961e-05 6.23632e-05 -0.8292584096 0.14288853
100299400.0 -0.1418111216 0.0599754429 6.60426e-05 9.1649e-06 -0.0001153753 8.3166e-05 -0.8286190705 0.1524431918
105299370.0 -0.1401972043 0.0599312063 4.37093e-05 0.0001867353 0.0001139879 -9.79329e-05 -0.8269111064 0.160722359
110299340.0 -0.1385347849 0.0600393671 0.0002367934 0.0002907096 4.94876e-05 0.0001112464 -0.8256688699 0.1708465739
115299310.0 -0.1370161951 0.0596955491 -8.90721e-05 2.82599e-05 -0.000139457 2.62905e-05 -0.8237027718 0.1799636188
120299280.0 -0.1361610201 0.0599058679 -0.0001531875 0.0001087031 1.79366e-05 0.0001383456 -0.8224766579 0.1888609599
125299250.0 -0.1351355141 0.0599415156 0.0001594911 4.69351e-05 6.0758e-06 0.0001521013 -0.8211966322 0.1981665923
130299220.0 -0.1339968309 0.0602429518 -1.46642e-05 7.8605e-06 -0.0001092161 0.0003448857 -0.8189102323 0.2065818445
135299190.0 -0.133088406 0.0606517576 0.0003237396 6.64863e-05 0.0001036985 7.56451e-05 -0.8165722494 0.2162646552
140299160.0 -0.1324562075 0.0610019516 -4.01279e-05 0.0001968684 0.0002853296 0.0001778142 -0.8148355198 0.2247661548
145299130.0 -0.1315533898 0.0612259324 5.8685e-05 0.0002361067 -5.18294e-05 -5.108e-06 -0.8122895141 0.2339360048
150299100.0 -0.1306932037 0.0613669601 2.82175e-05 0.0001427888 7.99e-06 0.0001294736 -0.8105755695 0.2427965425
155299070.0 -0.1301271634 0.0619332416 9.85406e-05 9.02853e-05 -8.3655e-06 -5.46055e-05 -0.8075270205 0.2517990339
160299040.0 -0.1297432647 0.0623940302 9.98172e-05 0.0001618209 7.71087e-05 4.06586e-05 -0.8050205092 0.2608857116
165299010.0 -0.1289773079 0.0629317536 0.0002080229 0.0001408943 -0.0002510399 2.01786e-05 -0.8028052728 0.2690660901
170298980.0 -0.1284578863 0.0635102985 1.75936e-05 6.05083e-05 7.28933e-05 7.42677e-05 -0.7992384942 0.2782295507
175298950.0 -0.1277527762 0.0640061858 1.58746e-05 0.0001048213 0.0001317531 0.0001882348 -0.7968504334 0.2866903533
180298920.0 -0.1274446134 0.0649133165 0.0001620071 -9.01958e-05 0.0001077671 0.0001046896 -0.7936574604 0.2952450149
185298890.0 -0.1266951641 0.0648362294 -0.0001075237 0.0001577005 -9.31491e-05 0.0002465182 -0.7904651455 0.3039217821
190298860.0 -0.1260947662 0.0660389803 -0.0001505606 -0.0001346861 6.43368e-05 -4.23548e-05 -0.7878907017 0.3125491397
195298830.0 -0.1260612852 0.0666653878 0.0001698801 0.0002786204 0.0001122227 -7.4147e-05 -0.7845533008 0.3206747018
200298800.0 -0.1251528118 0.0674074362 0.0002582335 0.0002190951 1.81487e-05 0.0002061422 -0.7815177971 0.3290488622
205298770.0 -0.1249181859 0.0680837723 -7.71052e-05 0.0002141325 -2.8962e-05 -0.0002610178 -0.7775530084 0.3376340352
210298740.0 -0.124480902 0.0687757247 8.01936e-05 -0.0001123359 5.24834e-05 6.66868e-05 -0.7745253965 0.346095971
215298710.0 -0.1239578152 0.0697390972 0.0001490695 0.0001424842 -3.81602e-05 -5.69535e-05 -0.7713299199 0.3539051648
220298680.0 -0.1236589992 0.0702518349 -1.8521e-06 0.0002303397 2.94503e-05 0.0001138217 -0.76751747 0.361959861
225298650.0 -0.1231652882 0.0710990379 0.0002235285 0.00019338 0.0002148015 9.54647e-05 -0.7633472236 0.3703417665
230298620.0 -0.1227618775 0.0722339797 4.86562e-05 8.7218e-06 0.00019666 0.0001501114 -0.7598839324 0.3784507853
235298590.0 -0.1220748185 0.0730055542 -1.46294e-05 0.0001194949 -6.92403e-05 0.0001251804 -0.755440381 0.3870145087
240298560.0 -0.1219459626 0.0739622197 0.0001054178 -5.01387e-05 4.15321e-05 7.52574e-05 -0.7514671245 0.3950778041
245298530.0 -0.1213850453 0.0747087078 0.0001776402 0.0001684552 0.0001660642 -4.28973e-05 -0.7477707159 0.4024748506
250298500.0 -0.120834574 0.0758928055 0.0001933616 4.90189e-05 0.0001098908 0.0001070264 -0.7436039373 0.4099708973
255298470.0 -0.1206366726 0.076375446 0.0003573613 -5.0692e-05 6.18295e-05 0.0001503332 -0.7388935351 0.4178642947
260298440.0 -0.1200912583 0.0775567154 9.5994e-05 -0.0001571849 -3.25606e-05 7.82794e-05 -0.7350335531 0.4264167122
265298410.0 -0.1193342445 0.0788374633 0.0001755539 6.36232e-05 1.07357e-05 0.0002512916 -0.730063589 0.4334219193
270298380.0 -0.1190255403 0.0795750032 -0.0001156074 0.0001666911 7.38169e-05 3.21683e-05 -0.7256735188 0.4413258475
275298350.0 -0.1184169779 0.0808511939 -2.2769e-05 0.0002434056 -4.248e-07 0.000169124 -0.7205343602 0.4483892073
280298320.0 -0.1172697777 0.0816876569 -4.678e-05 0.0001067196 9.1356e-06 7.40689e-05 -0.7160606422 0.4562611116
285298290.0 -0.1171296136 0.0828688691 -8.5261e-06 3.26955e-05 9.19338e-05 6.15894e-05 -0.7111379254 0.4635076992
290298260.0 -0.1163473433 0.0837487633 8.1117e-06 -5.9616e-06 2.68168e-05 7.61289e-05 -0.7058610403 0.4709080048
295298230.0 -0.1156637528 0.0845868539 0.0001311118 -0.0001423229 0.000148266 0.0001330111 -0.700981554 0.4781028834
300298200.0 -0.1153561877 0.0859919801 6.23657e-05 0.0001394894 0.0001385426 0.0001573304 -0.6957878536 0.4854550375
305298170.0 -0.1146306647 0.086656364 0.000156623 4.60289e-05 9.85364e-05 0.0001490178 -0.6900689129 0.4931241787
310298140.0 -0.1140780181 0.0879315114 0.0002204213 -2.40064e-05 0.0002508624 4.00534e-05 -0.6860836374 0.5000314025
315298110.0 -0.1133219948 0.0889062378 0.0001569554 0.0001081313 3.63485e-05 -6.60839e-05 -0.6804278451 0.5069298724
320298080.0 -0.1126980218 0.0894624159 6.35784e-05 0.000222423 4.9162e-05 0.0002250313 -0.6745753672 0.5143753711
325298050.0 -0.1119137427 0.0903057673 8.07575e-05 -1.75308e-05 0.0002035336 7.06621e-05 -0.6694779204 0.5212800658
330298020.0 -0.1114361557 0.0915742048 7.22922e-05 0.0001574523 0.0001155171 0.0002265815 -0.6640214793 0.5284978422
335297990.0 -0.1108839043 0.092538917 8.35742e-05 0.0001657439 -0.0001213478 -7.67804e-05 -0.659008147 0.5357095843
340297960.0 -0.1105195921 0.0936929061 0.0002002006 0.0002247164 0.0001247598 -9.94208e-05 -0.6526091927 0.5425825929
345297930.0 -0.110024647 0.0949706925 0.0001768863 -2.48262e-05 0.0001685281 0.0001984465 -0.6472810498 0.5492135808
350297900.0 -0.1089788059 0.0959595662 -5.85667e-05 6.62166e-05 0.0001838823 7.02847e-05 -0.6419994668 0.5557704374
355297870.0 -0.1083857985 0.0970988924 1.4945e-06 3.04219e-05 5.19678e-05 0.0001074525 -0.6351448628 0.5621244503
360297840.0 -0.1078892163 0.0981531103 6.83551e-05 3.131e-07 0.0001801674 1.82128e-05 -0.6296603633 0.5687939902
365297810.0 -0.1072050074 0.0996294534 8.3923e-06 0.0002315917 0.000244084 1.50275e-05 -0.6232193351 0.5755657898
370297780.0 -0.1062481772 0.1006896727 0.0002166783 0.0001242857 0.0002489361 6.04815e-05 -0.6172014775 0.5818315979
375297750.0 -0.1051901503 0.1016647543 0.000117544 0.0002414691 0.000140562 0.0001846015 -0.6118152715 0.5876593117
380297720.0 -0.1048598938 0.1024880233 7.09065e-05 -8.56409e-05 0.0001599867 1.84296e-05 -0.6058186752 0.5941893163
385297690.0 -0.1040662317 0.1039911156 0.0003428454 0.0002686158 -1.90202e-05 -0.0001192391 -0.5995454885 0.6007554251
390297660.0 -0.1034326268 0.1049710817 0.0001334068 0.0001510013 0.00015065 0.0002361883 -0.5932714557 0.606626355
395297630.0 -0.1020791055 0.1061485761 0.0002280864 1.8412e-05 0.0003763867 -1.68854e-05 -0.5864110027 0.6128367521
400297600.0 -0.1015259892 0.1071996421 0.0001622597 -4.13904e-05 4.84044e-05 3.51081e-05 -0.5806286964 0.6188329808
405297570.0 -0.1009259609 0.1083156789 -8.5938e-06 0.0001843224 0.0002803932 0.0001110115 -0.574486982 0.6248740863
410297540.0 -0.0998598399 0.1094666299 4.96349e-05 9.51527e-05 0.0002210879 -7.67533e-05 -0.5674473487 0.6308737022
415297510.0 -0.09881492 0.1099668803 0.0001764479 4.09229e-05 0.0001081202 -6.53503e-05 -0.5613989718 0.6364329906
420297480.0 -0.0981854738 0.1115811289 0.0001814091 0.0001891596 0.0001011976 0.0001337537 -0.5542104433 0.6422128334
425297450.0 -0.0971698466 0.1125143308 0.0001054072 3.06167e-05 0.0002175129 0.000164775 -0.5480032727 0.6476844183
430297420.0 -0.0962034766 0.1131652717 0.0002834865 -0.0001367086 0.0003474807 0.0001437541 -0.5414686744 0.6530768991
435297390.0 -0.0955081417 0.1144264553 0.0002837017 -8.73808e-05 0.0002653299 0.0001008086 -0.5341412754 0.658717966
440297360.0 -0.094451595 0.1154643702 9.9225e-06 -1.43538e-05 0.000158036 0.0001401327 -0.5273105293 0.6635119451
445297330.0 -0.0936532999 0.1164855034 -0.0001091835 0.0001323897 0.000257387 4.63709e-05 -0.520129516 0.6687745518
450297300.0 -0.0923922411 0.117334409 0.0002863971 0.0001293013 0.0002864775 6.17334e-05 -0.5133332952 0.6739672547
455297270.0 -0.0916819753 0.1184314699 0.0003078337 -0.0001386195 0.0001136494 -8.75138e-05 -0.5064042402 0.6785454124
460297240.0 -0.0907746793 0.1196313969 0.0001003893 7.11135e-05 6.42332e-05 0.0001286679 -0.49995607 0.6841813873
465297210.0 -0.0896014314 0.1205434692 1.46236e-05 -4.956e-07 0.0001692849 7.13132e-05 -0.4919717676 0.6891268332
470297180.0 -0.0884954807 0.1216415846 0.000231658 5.05774e-05 0.000202289 0.0001686807 -0.4848449101 0.6946077552
475297150.0 -0.0875184214 0.1224874623 0.0003677678 -0.0001094481 0.0002609693 8.85909e-05 -0.4774712782 0.69838572
480297120.0 -0.086288333 0.1235394957 0.0002975986 0.0001296293 0.0001128741 0.0002691921 -0.4704716841 0.7034650639
485297090.0 -0.0852369803 0.1244688915 0.0003421904 0.000353167 0.0002599307 6.94703e-05 -0.4629145121 0.7082876394
490297060.0 -0.0846476245 0.1259593207 0.0001224499 0.0001294434 0.0003641151 -1.75064e-05 -0.4556438701 0.7128692172
495297030.0 -0.08331525 0.126629929 0.000361031 2.68449e-05 0.000238203 0.0001677092 -0.448793201 0.7176455327
500297000.0 -0.082114883 0.1273805797 9.34664e-05 1.81201e-05 0.0001674385 0.000188203 -0.440321106 0.7228149463
505296970.0 -0.0807798115 0.1282412544 0.0001336826 -4.4954e-06 0.0002858284 8.82764e-05 -0.4336264877 0.7264827692
510296940.0 -0.0796539725 0.1290799586 0.0004138849 -0.0001936644 0.000175453 0.0002085858 -0.4257151538 0.7312649568
515296910.0 -0.0784344458 0.1301870496 0.0001835423 0.0002314708 -7.6455e-06 8.83864e-05 -0.4190483266 0.7348768
520296880.0 -0.0775930136 0.1310751177 0.0002348529 0.0004185567 0.0001512963 0.0002217728 -0.4115010246 0.7394354523
525296850.0 -0.0764185561 0.1316767567 0.0002811554 0.0001704924 0.0003688136 0.000141775 -0.4038888635 0.7437224936
530296820.0 -0.0751581197 0.1328886144 0.0001521911 0.0002579532 0.0003165332 1.6915e-05 -0.3965020181 0.7474197843
535296790.0 -0.074106707 0.1339318936 0.0001911271 4.20382e-05 1.59176e-05 0.0001613429 -0.3891843836 0.7516935474
540296760.0 -0.0731529681 0.1346024192 0.0003051165 2.09977e-05 0.0002485139 -3.8274e-06 -0.3809312214 0.7557548149
545296730.0 -0.0720261636 0.135682895 8.3578e-05 0.0001516475 0.0001678673 7.43123e-05 -0.3733577568 0.7595429598
550296700.0 -0.0705276947 0.1364035453 0.0001580792 9.63441e-05 0.0001679091 0.0001677034 -0.3661498491 0.7637680996
555296670.0 -0.0696703871 0.1369558676 0.0003628527 6.34003e-05 0.0001368024 0.0002468961 -0.3583999863 0.7669814875
560296640.0 -0.0678193279 0.138241149 0.0001565937 0.0002411198 9.34066e-05 -3.06577e-05 -0.3496516147 0.7704784603
565296610.0 -0.0668106215 0.1389709648 7.93373e-05 8.55663e-05 0.000209267 0.0002186577 -0.3424310061 0.7741467232
570296580.0 -0.0657636708 0.1394903406 0.0004570465 -4.43781e-05 0.0001089693 2.17951e-05 -0.3351939128 0.7779446503
575296550.0 -0.0646723781 0.1406464901 7.2846e-05 -6.14915e-05 0.0003897515 8.60085e-05 -0.326062842 0.78133046
580296520.0 -0.0629761659 0.1412232366 3.25551e-05 0.0002093394 0.0004073355 9.49737e-05 -0.3182855176 0.7832911647
585296490.0 -0.0621078946 0.1420613611 0.0003248778 -1.4827e-05 0.0002520817 -0.0001198615 -0.3105338661 0.7871741812
590296460.0 -0.0603525558 0.1426964013 0.0002241265 2.27457e-05 0.0004034467 6.51499e-05 -0.3028514688 0.7903762583
595296430.0 -0.0593381537 0.1434911865 0.0004254239 -0.0001151672 0.0002558134 0.0001738077 -0.2947961351 0.7926448321
600296400.0 -0.0581508715 0.1443923287 0.0001929821 -4.28785e-05 0.0003251405 -4.80522e-05 -0.2867585838 0.7952712748
605296370.0 -0.0570696349 0.1449391558 0.0002330509 6.94724e-05 6.11859e-05 -9.255e-06 -0.2780922641 0.7983536045
610296340.0 -0.055448275 0.1456004195 0.0002263316 7.7101e-05 0.0001444724 4.58273e-05 -0.2702433191 0.8012726017
615296310.0 -0.0542082733 0.1465402331 0.0002526827 0.0001206935 9.18089e-05 1.63066e-05 -0.2616220562 0.8034451226
620296280.0 -0.0528948684 0.1470355137 9.08454e-05 0.000177954 1.95197e-05 -5.02247e-05 -0.2543710121 0.8062503828
625296250.0 -0.0517430862 0.1476384757 0.0002442049 0.0002186466 0.0001261922 0.0001702372 -0.2453751049 0.8080323359
630296220.0 -0.0498727491 0.1482889552 0.0002408266 7.35471e-05 0.0002308919 0.0001735217 -0.2375723976 0.8111494391
635296190.0 -0.0487931088 0.1493399462 0.0003626312 0.0002397464 0.0001667919 1.98034e-05 -0.2298834844 0.8130363548
640296160.0 -0.0476338178 0.1496253067 8.5796e-05 -0.0001998632 0.0002885854 9.7447e-06 -0.2211107198 0.8157080993
645296130.0 -0.0461422813 0.1508356149 0.0002881239 0.0001983387 0.0002638829 0.0002982835 -0.2133747307 0.8179689821
650296100.0 -0.0447924174 0.1512380252 0.0002764743 -2.66591e-05 0.0002323877 0.0001193814 -0.2047261327 0.8190505897
655296070.0 -0.0434105389 0.1517640536 0.0003159505 -0.0002938157 9.31161e-05 0.0001260179 -0.1963546417 0.8212622111
660296040.0 -0.0421183625 0.1523841122 0.0004001878 0.0001315495 0.0002992153 -5.87619e-05 -0.1873575752 0.8235106864
665296010.0 -0.0402769395 0.1523563514 0.0001219353 5.9972e-05 0.0002396199 9.83118e-05 -0.1793544721 0.8252951145
670295980.0 -0.0394224922 0.1535178542 0.000433205 -0.0001055409 0.0002860225 -6.89455e-05 -0.1716534744 0.8267312836
675295950.0 -0.0379628625 0.1542785671 0.0002201089 -0.0001265437 0.0003666649 0.0001679955 -0.1637173206 0.8290604317
680295920.0 -0.0363245096 0.1546136103 0.0002792507 4.42761e-05 0.0003044733 8.63827e-05 -0.1550321417 0.8309539961
685295890.0 -0.0349002805 0.1553994571 0.0003399814 -0.000209359 0.0002071317 -5.587e-06 -0.1458490606 0.8313194393
690295860.0 -0.0333605819 0.155463346 7.64561e-05 -0.0001543371 0.0001845957 -8.38391e-05 -0.1382238547 0.833382767
695295830.0 -0.0323179182 0.1564585752 -1.54401e-05 4.44757e-05 6.96788e-05 8.87241e-05 -0.1289692683 0.8353586614
700295800.0 -0.0304916545 0.1565777918 0.0003268723 4.78936e-05 0.0001898859 0.0001143004 -0.1220082364 0.83622564
705295770.0 -0.0292415769 0.1573907455 0.0004383034 0.0002278812 7.87993e-05 -1.44621e-05 -0.1135933872 0.8379582912
710295740.0 -0.0277805095 0.1579223073 0.0003623703 -5.59288e-05 0.0002877477 -3.3626e-05 -0.1046255344 0.8385182528
715295710.0 -0.0264363616 0.157760012 0.0001828084 -0.0001238361 0.0002422295 -0.0001365012 -0.0962359089 0.839126571
720295680.0 -0.0247746678 0.1586812905 0.0002988131 -3.30609e-05 0.0002262474 3.6723e-06 -0.0876078193 0.8407779252
725295650.0 -0.0230938976 0.1590003927 0.0003713151 -0.000236003 0.0002186464 -5.68387e-05 -0.0800807055 0.8418388876
730295620.0 -0.0215695833 0.1597701945 0.0002419623 2.26696e-05 0.0002204048 -6.16084e-05 -0.071946542 0.8422088148
735295590.0 -0.0204472062 0.1598337681 0.0005533386 -0.0001545945 0.0002968596 9.69921e-05 -0.0632656481 0.8421798295
740295560.0 -0.0191712067 0.1606843992 0.000324041 0.0001732015 0.0002202124 -0.0001639205 -0.0542788027 0.8440039607
745295530.0 -0.017770004 0.1607836765 0.0002940175 3.35827e-05 0.00036355 0.0001650973 -0.0455404981 0.8439895294
750295500.0 -0.0158217012 0.1611197512 0.0003550953 0.0001320235 0.0003463919 -1.63821e-05 -0.0375792509 0.8441590789
755295470.0 -0.0146425384 0.1613929882 0.0001785302 -0.000147017 0.0001406069 -2.49069e-05 -0.0288297085 0.8443389551
760295440.0 -0.0130509453 0.1617740649 0.0004130224 0.0002101486 0.0002617031 -2.01112e-05 -0.0206210281 0.8442352648
765295410.0 -0.0115805993 0.1622231466 0.0003211757 -0.0002002337 0.0002349461 4.98417e-05 -0.0121079386 0.8446850193
770295380.0 -0.0102540394 0.1624701088 0.000421839 -8.04945e-05 0.0004004707 5.88977e-05 -0.0043422285 0.8449450035
775295350.0 -0.0086701192 0.1626614176 0.0002229746 -0.0001300849 0.0001879124 -4.08933e-05 0.003892448 0.8443369314
780295320.0 -0.0071422956 0.1630138294 0.0002545496 2.04446e-05 0.0003067196 -0.0001453728 0.0126903868 0.8441979989
785295290.0 -0.0058958192 0.1630079564 0.0003574792 -0.000186012 0.0004913496 -0.0002240292 0.0212735887 0.8439737557
790295260.0 -0.0038035521 0.1636154563 0.0001191196 -0.0002931533 0.000431163 -3.55162e-05 0.0298163006 0.8441081223
795295230.0 -0.0024528775 0.1636209082 0.0001735345 -8.80556e-05 0.000272378 -5.97434e-05 0.0387733076 0.8427747689
800295200.0 -0.0010998605 0.1638422051 0.0002706553 3.95281e-05 0.0002708736 -0.000309694 0.0475648873 0.8428194991
805295170.0 0.0006608222 0.1642685076 0.0004309551 -0.0001003253 0.0002904507 1.79112e-05 0.0550246985 0.8424187285
810295140.0 0.0022819566 0.1642067578 0.0002236244 2.45215e-05 0.0002831283 -3.71801e-05 0.0635725416 0.8415446034
815295110.0 0.0035286385 0.164229158 0.0002008584 0.0001496301 0.0002166292 -0.0001777805 0.0721093842 0.8408769412
820295080.0 0.0050500025 0.1648365976 0.0001364235 -0.0002246325 0.0001348983 -0.0001860825 0.0803707918 0.8402193667
825295050.0 0.0068284744 0.1644836498 0.00030445 -6.70044e-05 7.86195e-05 3.2067e-05 0.0889052776 0.8399464482
830295020.0 0.008494976 0.1648598565 0.0002835769 -0.000178357 0.0003214933 6.71638e-05 0.0984720971 0.8385926951
835294990.0 0.0098352887 0.1650781772 0.0001290544 -9.78291e-05 0.0003216988 -0.0002032068 0.1057178377 0.8376574849
840294960.0 0.0112967188 0.1653065582 0.0002887186 -3.99739e-05 0.0002674955 -0.0002434562 0.11417249 0.8362501091
845294930.0 0.0129425068 0.1654631229 0.0003609001 -0.000246809 0.0003100359 -0.0001343566 0.1224110292 0.8352204664
850294900.0 0.0146161259 0.165591073 0.0002847009 -6.08269e-05 0.0004229829 -0.0001678997 0.1299168544 0.8339839933
