!Created with skrf (http://scikit-rf.org).
# Hz S RI R 50.0 
!freq ReS11 ImS11 ReS21 ImS21 ReS12 ImS12 ReS22 ImS22
300000.0 -0.3232578758 -0.0755059566 0.3778203225 0.0390951182 0.3746755342 0.0369737385 -0.3233851654 -0.0888990861
5299970.0 -0.3266880358 0.0046213682 0.3784549304 0.0021762466 0.3783073004 0.0021299192 -0.3246126402 0.0051653703
10299940.0 -0.3242093714 0.0132389561 0.3794503361 0.0019997916 0.3798367299 0.002415198 -0.322147769 0.0159850597
15299910.0 -0.3215351802 0.0204481044 0.3821523946 0.0020028191 0.3820340284 0.0022551188 -0.3187806595 0.0236052628
20299880.0 -0.3188030783 0.0262876581 0.3848014898 0.0021022581 0.3850174534 0.0016566224 -0.3150531515 0.0301369098
25299850.0 -0.3160719611 0.0313688576 0.3882512949 -6.90441e-05 0.3882830559 0.0003893735 -0.3111596487 0.0360096123
30299820.0 -0.3130629264 0.0357239475 0.3918090304 -0.0022328183 0.3915419944 -0.0021112987 -0.307352405 0.040621137
35299790.0 -0.3098691285 0.039714419 0.39480599 -0.0052904852 0.3947421092 -0.0052830681 -0.30378789 0.045149548
40299760.0 -0.3071625473 0.0435130196 0.3979125453 -0.0086424403 0.3981528569 -0.0087370535 -0.3003145885 0.0479378139
45299730.0 -0.3047102246 0.0466075858 0.4009315309 -0.0128380901 0.4009568567 -0.0125725912 -0.2972749561 0.0515932333
50299700.0 -0.3022064396 0.0493522882 0.4033880172 -0.0171916406 0.4034670004 -0.0166798379 -0.2945914634 0.0541431902
55299670.0 -0.3004187762 0.0520882189 0.4058494353 -0.022082735 0.4054803224 -0.0220732437 -0.2917319494 0.0567255867
60299640.0 -0.2978123875 0.0550111898 0.407465342 -0.0270285115 0.4078891452 -0.0267036145 -0.2893249633 0.0593636841
65299610.0 -0.2961505063 0.0570631951 0.4091063394 -0.0319414819 0.4091983825 -0.032028265 -0.2871253678 0.0613848118
70299580.0 -0.2946198644 0.0599000394 0.4102587459 -0.0368605518 0.410570985 -0.036729702 -0.2849267164 0.0637417275
75299550.0 -0.2931523743 0.0623589062 0.4112836281 -0.0419648764 0.4115033349 -0.0422694883 -0.2832221361 0.0656448712
80299520.0 -0.2916184271 0.064694957 0.4124437064 -0.0474293671 0.4126876744 -0.0473972136 -0.281485171 0.0682605782
85299490.0 -0.2903780809 0.0669954822 0.4129850325 -0.0522751284 0.4130461308 -0.052392163 -0.2800509039 0.0699115496
90299460.0 -0.288820785 0.0693291623 0.4133757584 -0.0575774003 0.4135925967 -0.057854076 -0.2782039136 0.0719722662
95299430.0 -0.2871357115 0.0713751209 0.4135023475 -0.0631468993 0.4135864966 -0.0631010577 -0.2766729102 0.0743276621
100299400.0 -0.2863532894 0.0741585724 0.4131192643 -0.0685340422 0.4129962583 -0.0682934136 -0.2747381618 0.076232707
105299370.0 -0.2851468815 0.0763720614 0.413306441 -0.0733545923 0.4138032146 -0.0733736994 -0.273768518 0.0780256591
110299340.0 -0.2840015709 0.0785401494 0.4133729007 -0.0783330694 0.4133809877 -0.0785425296 -0.2727928968 0.0804844898
115299310.0 -0.282593821 0.0811723403 0.4129894401 -0.0839811289 0.4131188709 -0.0837160332 -0.2716084222 0.0827910901
120299280.0 -0.2821913291 0.0832862562 0.4124827761 -0.0888182932 0.4125673915 -0.0890529323 -0.2701070398 0.084700829
125299250.0 -0.2811004619 0.0854385491 0.4117017808 -0.0937656217 0.4122608014 -0.0934686897 -0.2695845262 0.0864224675
130299220.0 -0.2801964216 0.0881848632 0.4110044557 -0.099169878 0.4111508761 -0.098984679 -0.2685316322 0.0888045081
135299190.0 -0.2793561203 0.0908294419 0.4109515 -0.1041310684 0.4105073298 -0.1038738628 -0.2674259629 0.0911673203
140299160.0 -0.2786253872 0.0931302547 0.4097554398 -0.1091975094 0.4096855976 -0.1090808911 -0.2663530071 0.0937121349
145299130.0 -0.2775815619 0.0958104372 0.4088497044 -0.114271544 0.4089887932 -0.1137793531 -0.2657859534 0.0958971549
150299100.0 -0.2763211083 0.0981993976 0.4078299674 -0.1186625872 0.4079332342 -0.1182662625 -0.2645523656 0.0986906274
155299070.0 -0.2757224862 0.1006411302 0.4068008761 -0.1240598882 0.4065912388 -0.1240218652 -0.2635254702 0.1008606861
160299040.0 -0.2747659051 0.1034288386 0.4055935221 -0.1285507843 0.4055025148 -0.1285320836 -0.2630859657 0.1032417874
165299010.0 -0.273783881 0.1060329055 0.4041397391 -0.1339336389 0.4040904606 -0.1335777801 -0.2617324574 0.105884062
170298980.0 -0.2729646091 0.1083789039 0.4027537977 -0.1383538703 0.4027834176 -0.1381773052 -0.2608665683 0.1079459545
175298950.0 -0.2719789056 0.1113435361 0.401987667 -0.1430546439 0.4014215188 -0.1430159453 -0.2601094636 0.1106968989
180298920.0 -0.2711382097 0.1141223431 0.3998259775 -0.1483313608 0.400087512 -0.147635129 -0.2590445799 0.1132736705
185298890.0 -0.269499754 0.116414043 0.3985351792 -0.1528087157 0.3984807472 -0.1524420429 -0.2578493581 0.1157178532
190298860.0 -0.2687298985 0.1192841146 0.3969398579 -0.1574617289 0.3972553134 -0.1572202144 -0.2569690533 0.1181257717
195298830.0 -0.2677969653 0.1217473757 0.3951046045 -0.1615850312 0.3953819121 -0.161825301 -0.2553601389 0.1209015222
200298800.0 -0.2664844856 0.1247245623 0.3935961781 -0.1664865086 0.3934822558 -0.166639313 -0.2546304347 0.1232250334
205298770.0 -0.2656446469 0.1273700806 0.3918115208 -0.1714864403 0.3917267332 -0.1709170701 -0.2537649035 0.1252709862
210298740.0 -0.2642717735 0.129845177 0.3896348524 -0.1753246198 0.3899383861 -0.1753184294 -0.2520344075 0.1280940111
215298710.0 -0.263591816 0.1328799613 0.3880222308 -0.1802476441 0.3881006199 -0.1804647264 -0.2513371309 0.1309220283
220298680.0 -0.2620760141 0.134748787 0.3859918341 -0.184265843 0.3858458577 -0.1846595814 -0.2502993447 0.1330708905
225298650.0 -0.260936934 0.1377267896 0.3839122616 -0.1890604396 0.3841943725 -0.1889774342 -0.2492925652 0.1356838179
230298620.0 -0.2595509453 0.1406245347 0.3820877528 -0.1932153407 0.3824526126 -0.1934377445 -0.2478966454 0.1381394081
235298590.0 -0.2582047381 0.1434180654 0.3797892269 -0.1979167391 0.3803902709 -0.1974773623 -0.2466191252 0.1408911857
240298560.0 -0.2568555919 0.1462197735 0.3779866979 -0.2020464749 0.3777810615 -0.2020412231 -0.2453139935 0.1434713888
245298530.0 -0.2559362616 0.1488979284 0.3757241679 -0.2066024592 0.375731207 -0.2065276241 -0.2439282252 0.1456600712
250298500.0 -0.2542064406 0.1514710871 0.3727879958 -0.2107926028 0.3731400297 -0.2105090491 -0.2428036288 0.1484807845
255298470.0 -0.2531098744 0.154007484 0.3707910201 -0.2147440846 0.3707970108 -0.2148882625 -0.2411608125 0.1507967309
260298440.0 -0.2517427617 0.1568059194 0.3684282822 -0.2195822049 0.3686916398 -0.2190907612 -0.2394958854 0.1536043501
265298410.0 -0.2499128154 0.1597914344 0.3657903654 -0.2236148666 0.3663725533 -0.2234103747 -0.2383235964 0.1563757787
270298380.0 -0.2486921737 0.1627477182 0.3638228824 -0.2274439177 0.3638185042 -0.2275555985 -0.2367933391 0.1587783774
275298350.0 -0.2468387155 0.1651174539 0.3613036316 -0.2318009704 0.3614912543 -0.2316181457 -0.2351912059 0.161351973
280298320.0 -0.2449637737 0.1678910749 0.3588225037 -0.2357811209 0.3587708726 -0.2354116732 -0.2332097879 0.1635433637
285298290.0 -0.2437759579 0.1707735688 0.3561163796 -0.2397253282 0.356087368 -0.239948762 -0.2318147935 0.1663586176
290298260.0 -0.2416412805 0.1731295464 0.3531927209 -0.2432488449 0.3537045048 -0.2436225964 -0.2300686116 0.1686412089
295298230.0 -0.2401238887 0.1755610845 0.3507766349 -0.2478320646 0.3509426109 -0.2478483864 -0.2284839768 0.1713272212
300298200.0 -0.238727953 0.1784455027 0.3481595099 -0.2514963186 0.348216943 -0.2517561345 -0.226538069 0.1738376892
305298170.0 -0.2366629393 0.1807270912 0.3453942911 -0.2559675243 0.3453845524 -0.2557207742 -0.2245321218 0.1760702877
310298140.0 -0.235089242 0.1833067857 0.3425157583 -0.2597487604 0.34254437 -0.2596318283 -0.2234943372 0.1785989192
315298110.0 -0.2332430689 0.1857141895 0.3396287217 -0.2635275328 0.3397420346 -0.2636638815 -0.2216874551 0.1806175512
320298080.0 -0.2314808924 0.1881914775 0.3362920913 -0.2677107073 0.3367906029 -0.2673519611 -0.2198227606 0.1833415487
325298050.0 -0.2295598821 0.1910446118 0.3332949709 -0.2713511813 0.3335367088 -0.2713879211 -0.2184417917 0.1856188679
330298020.0 -0.2277172487 0.1930778975 0.3300239725 -0.2750563813 0.3306270136 -0.2750865983 -0.2166862706 0.1883313929
335297990.0 -0.2257483966 0.1957034362 0.3271665342 -0.2783879568 0.3272361816 -0.2787514979 -0.2150570126 0.1911647704
340297960.0 -0.2242247952 0.1984250363 0.3238665428 -0.2820799241 0.3237100342 -0.2825718788 -0.2125836799 0.1933614721
345297930.0 -0.2224356358 0.2010071981 0.3206881951 -0.2861593243 0.3207367822 -0.2858904057 -0.2109343331 0.1954269054
350297900.0 -0.2204313293 0.2033771943 0.3173093093 -0.2893391592 0.3173777901 -0.2891932898 -0.2093808065 0.19789456
355297870.0 -0.2180727972 0.2065375561 0.3140030463 -0.2932684676 0.3142100247 -0.2928520343 -0.2073233358 0.1998333566
360297840.0 -0.215969364 0.2084115672 0.3114408243 -0.2961188567 0.3111376371 -0.2961166416 -0.205251038 0.2026666305
365297810.0 -0.2142720674 0.2110157991 0.3079164807 -0.2997135969 0.3082110391 -0.2999094156 -0.2031134877 0.2049014102
370297780.0 -0.2120427498 0.2131669397 0.3040679265 -0.3030250259 0.3046680031 -0.3028664592 -0.2011300828 0.2074635674
375297750.0 -0.2093834193 0.2155804423 0.3010313418 -0.3062127129 0.3013625023 -0.3063523383 -0.1991914733 0.2091306967
380297720.0 -0.2076004865 0.2178976107 0.2974364133 -0.3097870056 0.2977722901 -0.3091232838 -0.1975294367 0.2115198314
385297690.0 -0.2054209118 0.2202861472 0.2941094826 -0.3128603943 0.294265049 -0.3130917698 -0.1947796103 0.2138263274
390297660.0 -0.2032897881 0.222750131 0.290763112 -0.3162292057 0.2909471583 -0.3156788419 -0.1930242886 0.2161821772
395297630.0 -0.2007664093 0.225086833 0.2874496479 -0.3193062283 0.2870224017 -0.3191636119 -0.1900059707 0.2182174632
400297600.0 -0.1983813512 0.2273421444 0.2836093227 -0.3226649383 0.2835533414 -0.3226717405 -0.1880029127 0.220715309
405297570.0 -0.1966036679 0.2295569567 0.2803258878 -0.3252896003 0.2803837368 -0.3252813397 -0.1861556178 0.2226445192
410297540.0 -0.1939279249 0.231949671 0.2766980562 -0.3288253115 0.2769164686 -0.3286378864 -0.18390514 0.2248300078
415297510.0 -0.1913181628 0.2336884358 0.2726621217 -0.3316041991 0.2731052548 -0.3316460839 -0.1815989293 0.2269835165
420297480.0 -0.1892944272 0.2362978919 0.2692354267 -0.3346525128 0.2694037209 -0.3345823355 -0.1793965574 0.2290517751
425297450.0 -0.186622782 0.2381032746 0.2657715424 -0.3374624323 0.2659802565 -0.337456417 -0.1768435123 0.2311921016
430297420.0 -0.1842684475 0.2403068235 0.261871085 -0.3401243864 0.2619485395 -0.3400944957 -0.1747166813 0.2332535858
435297390.0 -0.1819093598 0.2421815751 0.2581398478 -0.3426576139 0.2578765043 -0.342979695 -0.1715787911 0.2349269799
440297360.0 -0.1792279603 0.2444889596 0.2541084329 -0.3457324494 0.2545672043 -0.3456613529 -0.1695640783 0.2371786347
445297330.0 -0.176723625 0.2464067454 0.2503967807 -0.3482025201 0.2506181685 -0.348169184 -0.1671213513 0.2387447851
450297300.0 -0.1739328348 0.2483010864 0.2465361538 -0.3512387063 0.2463714855 -0.3515304928 -0.1644549706 0.2408135777
455297270.0 -0.1718365473 0.2503920479 0.2422175163 -0.35415706 0.2428589147 -0.3540184532 -0.1621359007 0.2423795593
460297240.0 -0.1691340221 0.2525339641 0.2386765816 -0.3564616964 0.2391920951 -0.3565459646 -0.1598363898 0.2446842356
465297210.0 -0.166175664 0.2544419982 0.2345803456 -0.3592713095 0.2347842184 -0.3596237574 -0.1569731313 0.2462858138
470297180.0 -0.1634661089 0.2562499717 0.2307354942 -0.3616540024 0.2307625513 -0.3619047714 -0.1542609201 0.2485008697
475297150.0 -0.1610961026 0.2578630183 0.2266855244 -0.3636589393 0.2267860259 -0.3638498586 -0.1516001512 0.2501021843
480297120.0 -0.1581146211 0.2603423626 0.2224559315 -0.3667820107 0.2226410069 -0.3668390162 -0.1489033045 0.2519487275
485297090.0 -0.1555751546 0.2620504094 0.2188051614 -0.3689964333 0.2188559654 -0.3687468097 -0.1464460583 0.2535925366
490297060.0 -0.1531431563 0.2637352386 0.214973597 -0.3712747703 0.2148133482 -0.371301034 -0.1438969149 0.2554264008
495297030.0 -0.1504988997 0.2653898868 0.2103898215 -0.3733830539 0.2111087945 -0.3732802188 -0.1414164251 0.2570146753
500297000.0 -0.1475763842 0.2672258254 0.2067208709 -0.3754238059 0.2059755974 -0.3755060001 -0.1384763147 0.2591730004
505296970.0 -0.1445969325 0.2689843719 0.2023113365 -0.3779297916 0.2022581975 -0.3783837335 -0.1358811568 0.2606168345
510296940.0 -0.1415948506 0.2704058465 0.198059909 -0.380168432 0.1980725247 -0.3804207731 -0.1328050212 0.2621022122
515296910.0 -0.1388334041 0.2719080924 0.1938017596 -0.382411558 0.1939146839 -0.3823740526 -0.1302539753 0.2637231086
520296880.0 -0.1362895696 0.2740548572 0.1898945073 -0.3846450966 0.190027009 -0.384107555 -0.1276183827 0.2649252223
525296850.0 -0.1328182851 0.2749368466 0.1852565876 -0.3859987434 0.1860287625 -0.3861586998 -0.1250983446 0.2666791593
530296820.0 -0.1302151065 0.2769877904 0.1813524819 -0.3886360349 0.1814811888 -0.3883929623 -0.1221880854 0.2680220206
535296790.0 -0.1277522624 0.2783572612 0.1776297297 -0.3898744943 0.1771804126 -0.3895756687 -0.1195749965 0.2693950948
540296760.0 -0.1248527747 0.2795910512 0.1725889883 -0.3921922772 0.1725916141 -0.3922042142 -0.1168737882 0.270794127
545296730.0 -0.1218385391 0.2812359669 0.168390756 -0.3939218678 0.1687487341 -0.3936884433 -0.1142062798 0.2719786886
550296700.0 -0.1186779848 0.2829210255 0.1644372316 -0.3954993845 0.1643472281 -0.3959523003 -0.110984779 0.2734379228
555296670.0 -0.1158445596 0.2840234966 0.1600274582 -0.3975211322 0.1600620894 -0.3971314497 -0.1082103899 0.2749730572
560296640.0 -0.1127235934 0.2855731461 0.1559858789 -0.3990985483 0.1556549554 -0.3989483332 -0.1050863985 0.2761156274
565296610.0 -0.1099724021 0.2866241815 0.1514361173 -0.4009704877 0.1515345368 -0.4008383515 -0.1024277583 0.2772323236
570296580.0 -0.1071547909 0.2878238726 0.1468099332 -0.4028996179 0.1463968504 -0.4024494202 -0.0995697101 0.2788519493
575296550.0 -0.1042036041 0.2896684623 0.1423050853 -0.4040477837 0.1426482097 -0.4038918272 -0.0965876745 0.279835365
580296520.0 -0.100806697 0.2908684069 0.137807582 -0.4055664034 0.1380475243 -0.4053868716 -0.0933299718 0.2807252916
585296490.0 -0.0980018857 0.2914678014 0.1337430455 -0.4066089762 0.1336946033 -0.4067804695 -0.0907836505 0.2821104621
590296460.0 -0.0945386643 0.2928461067 0.1291882986 -0.407907233 0.12939391 -0.4082915228 -0.0879213592 0.2833764922
595296430.0 -0.091738166 0.2938873168 0.1243341771 -0.4097541588 0.124802835 -0.4097559938 -0.0849466268 0.284068274
600296400.0 -0.0887522652 0.2950977819 0.120275908 -0.4107606613 0.1202420537 -0.4107335683 -0.0820095064 0.2852095806
605296370.0 -0.0859061906 0.2959530746 0.1156792306 -0.4122428864 0.1158792873 -0.4120670234 -0.0784838268 0.2863367249
610296340.0 -0.0826061598 0.2971540823 0.1108458162 -0.4132897732 0.1112936591 -0.4131456257 -0.0753913377 0.2870587623
615296310.0 -0.07917819 0.2979521891 0.1064026165 -0.4142017626 0.1065743256 -0.4148337049 -0.0720619731 0.2878682402
620296280.0 -0.0762331865 0.298898374 0.1018972477 -0.4154986099 0.1021965218 -0.4153927592 -0.0696362342 0.2891472151
625296250.0 -0.0734704449 0.2999019485 0.0982525583 -0.416703305 0.0974885083 -0.4170600051 -0.0657947875 0.2901981716
630296220.0 -0.0690892628 0.3008556074 0.0924382985 -0.4177375079 0.0928580203 -0.4174439116 -0.0634445803 0.2911475698
635296190.0 -0.0670553421 0.301800904 0.0886611052 -0.4182312408 0.0885315789 -0.4184576831 -0.0603540092 0.2917247913
640296160.0 -0.0637475046 0.3025970605 0.0839139859 -0.4192751323 0.0842072489 -0.4194625813 -0.0570300523 0.2926347922
645296130.0 -0.0605582065 0.3036868162 0.0792908274 -0.4198309228 0.079568119 -0.4201501886 -0.0542160091 0.2937864156
650296100.0 -0.0570452166 0.3040690005 0.074807224 -0.4207046528 0.0749161533 -0.420722486 -0.0510242897 0.2937401467
655296070.0 -0.0542616096 0.3049104447 0.0704625118 -0.4216095515 0.0705774058 -0.421817901 -0.0477483903 0.2948604081
660296040.0 -0.0511555376 0.3055451052 0.0658968968 -0.4222535387 0.0657708561 -0.4222514357 -0.0444105561 0.2950349072
665296010.0 -0.0474209179 0.3059708652 0.0608700983 -0.4231167919 0.0612097904 -0.4231333057 -0.0413383511 0.2962380584
670295980.0 -0.0450239065 0.3068921613 0.0566252227 -0.4233169163 0.0566275809 -0.4235803181 -0.0388001941 0.2968571174
675295950.0 -0.0414108249 0.3077103951 0.0519421398 -0.4240387594 0.0520213257 -0.4239205009 -0.0360763009 0.2973329436
680295920.0 -0.0381550037 0.3075924723 0.0474892847 -0.424348032 0.0466136646 -0.4250103713 -0.0321476038 0.2982625162
685295890.0 -0.0346932799 0.3088010642 0.0427340801 -0.4251614676 0.0426412258 -0.4250030735 -0.0291905346 0.2982807803
690295860.0 -0.0314513626 0.3089872042 0.0378240456 -0.4249426103 0.0382491558 -0.4258236142 -0.0262471256 0.2993851539
695295830.0 -0.0282886712 0.3095285766 0.0336986952 -0.4259009084 0.0334636657 -0.4258266709 -0.022929915 0.299343333
700295800.0 -0.0250414972 0.3097326633 0.0286425886 -0.4257543248 0.0285230263 -0.4261751488 -0.0204370842 0.2999705076
705295770.0 -0.0223185701 0.3108083047 0.024238592 -0.426245349 0.024365749 -0.426402207 -0.0168963724 0.3005032293
710295740.0 -0.0185152291 0.3110858166 0.0197155666 -0.4267865197 0.0199182924 -0.4269990512 -0.0134220814 0.300278518
715295710.0 -0.0156129864 0.3111273282 0.0151010132 -0.4267097279 0.0150470246 -0.4269213443 -0.0105246804 0.3008139375
720295680.0 -0.0122651665 0.311538381 0.0103770166 -0.426830997 0.0106347014 -0.4271120638 -0.0074669332 0.3012313475
725295650.0 -0.0090702465 0.3117888766 0.0058544739 -0.4269118319 0.0061785582 -0.4271330742 -0.0046367645 0.3014250694
730295620.0 -0.0057409348 0.3121718295 0.0010869319 -0.4267123864 0.0012974256 -0.4270773962 -0.0012549123 0.3013332297
735295590.0 -0.0025835445 0.3119832854 -0.0033714004 -0.4267654005 -0.0034328299 -0.4269240315 0.0012633666 0.3016401824
740295560.0 0.0002474941 0.3123676634 -0.0080526278 -0.4264384862 -0.0082552595 -0.4268149061 0.0054371368 0.3018176912
745295530.0 0.0036193373 0.3125773935 -0.0126321642 -0.4263747491 -0.0128405771 -0.426616599 0.0082942849 0.3014676731
750295500.0 0.007238941 0.3125219444 -0.017042129 -0.4262788121 -0.0170851574 -0.4267946238 0.0114154514 0.3018267751
755295470.0 0.0104247445 0.3124787821 -0.0221518695 -0.4262085053 -0.0218013495 -0.4264622993 0.0150258586 0.3012049309
760295440.0 0.0135216457 0.3126118801 -0.0263279883 -0.4261205045 -0.0260779085 -0.4259403724 0.0180953908 0.3012602802
765295410.0 0.0168834031 0.3125241814 -0.0310140045 -0.4254335048 -0.0312625406 -0.4256635627 0.021350166 0.301611355
770295380.0 0.0200887011 0.3125944094 -0.03609094 -0.4253175781 -0.0356773979 -0.4250258232 0.0241691578 0.3013755875
775295350.0 0.0232741065 0.3123244389 -0.0406350612 -0.4243202153 -0.0399000034 -0.4247447314 0.0267155209 0.3011593026
780295320.0 0.0265447487 0.3119343265 -0.0448164436 -0.4239868223 -0.0446128579 -0.4240021071 0.0303623599 0.3011851114
785295290.0 0.0294951512 0.3115386072 -0.04983213 -0.423165921 -0.0492747401 -0.42386428 0.0338115324 0.3009914454
790295260.0 0.0336191322 0.3121440105 -0.0538088295 -0.4227532728 -0.0533553124 -0.422904352 0.0370414137 0.3009237229
795295230.0 0.0366918594 0.3114436325 -0.0586446671 -0.4221929662 -0.058350849 -0.4226382134 0.0405013799 0.300735532
800295200.0 0.0397254292 0.3114667971 -0.063535747 -0.4214504533 -0.0633125751 -0.4214082353 0.0437857932 0.3005699086
805295170.0 0.0430575159 0.3109061446 -0.0673995228 -0.4203822373 -0.0678238447 -0.4209437513 0.0467339525 0.3001514042
810295140.0 0.0462502372 0.3105144834 -0.0718216679 -0.4197468568 -0.07215139 -0.4201138929 0.049835866 0.2998913883
815295110.0 0.0496312196 0.3100870736 -0.076985464 -0.4188054302 -0.0765271584 -0.4194599399 0.0531664493 0.299256245
820295080.0 0.0526271977 0.3100076748 -0.0812148053 -0.4180114646 -0.0807706386 -0.4182508288 0.0563420695 0.2991493538
825295050.0 0.0564554164 0.3094203558 -0.0857359666 -0.417172596 -0.0858156957 -0.4174007974 0.0593635107 0.2987095636
830295020.0 0.0593463445 0.3087796607 -0.0904336519 -0.4161210703 -0.090425957 -0.4163638306 0.0631268897 0.298000358
