!Created with skrf (http://scikit-rf.org).
# Hz S RI R 50.0 
!freq ReS11 ImS11 ReS21 ImS21 ReS12 ImS12 ReS22 ImS22
300000.0 -0.0492336289 -0.0730763084 -0.0014246534 0.0008134726 0.0005283651 0.0010008248 -0.7667528688 -0.1923507079
5299970.0 -0.0503977617 0.0143157145 8.28004e-05 0.0001516813 0.0001666722 -0.0001986014 -0.7850140068 -0.0096380135
10299940.0 -0.0446445149 0.0326459789 0.0002665708 4.98621e-05 -1.50849e-05 -0.0001428851 -0.7877904952 -0.005371582
15299910.0 -0.0359068377 0.0472471633 0.0002408108 0.0001823787 -9.59674e-05 5.90936e-05 -0.7929278027 -0.0026067224
20299880.0 -0.025913494 0.0592325452 4.98035e-05 5.17591e-05 5.17187e-05 2.21579e-05 -0.7992461716 0.0016599821
25299850.0 -0.0142527803 0.0685436934 -0.000129192 9.52845e-05 -2.95605e-05 0.0001734093 -0.8064317607 0.0077911653
30299820.0 -0.0028114597 0.0751766255 7.60215e-05 0.00010794 6.52325e-05 -1.08608e-05 -0.8118862421 0.0159273119
35299790.0 0.0089884162 0.0798616141 -0.0001575211 7.10832e-05 3.54813e-05 -0.0001035585 -0.8171116621 0.0246590532
40299760.0 0.020579832 0.0825673445 0.0002338093 6.0469e-05 -9.56251e-05 0.0001430393 -0.8210688102 0.0342162152
45299730.0 0.0311869426 0.0836528482 -0.000108574 -0.0002605279 8.39142e-05 -2.57102e-05 -0.8242393901 0.0436414419
50299700.0 0.0417048571 0.0836395 0.0001878609 2.1891e-05 1.42893e-05 -0.0001932 -0.8268950849 0.0538125632
55299670.0 0.0510128425 0.0827253495 8.26639e-05 -4.41757e-05 -0.0001641205 0.0001282684 -0.8294791985 0.0633056241
60299640.0 0.0596681223 0.0807872637 0.0001441755 -0.0001768499 2.1987e-05 -8.33921e-05 -0.8300719431 0.0742413261
65299610.0 0.0678803956 0.0781928112 -0.0001548239 -4.101e-05 -4.87549e-05 -0.0001490769 -0.8304771717 0.0840786512
70299580.0 0.0743506539 0.0749114521 0.000129923 -2.75337e-05 -0.0001673096 -0.0001460197 -0.8310322977 0.0934279616
75299550.0 0.0809404058 0.0717815114 3.57228e-05 0.0001262027 0.0001878624 -6.80884e-05 -0.8310537903 0.1040152382
80299520.0 0.0864442279 0.0677925559 -9.62025e-05 -0.0001940764 4.63849e-05 2.12795e-05 -0.831229702 0.1142124395
85299490.0 0.0919349967 0.0640112355 0.0001450458 -8.76004e-05 0.0002369491 -0.0001358365 -0.830391593 0.1230834629
90299460.0 0.0969111428 0.0599757623 -0.0001162976 9.26848e-05 -0.0001479469 -0.0001236492 -0.8287043449 0.1326557226
95299430.0 0.1007893094 0.0558208423 -3.57e-07 -0.0001633518 -0.0001252478 -7.15976e-05 -0.8282355522 0.1424280494
100299400.0 0.104694368 0.0520369003 -5.67637e-05 0.0001171274 2.69973e-05 7.2638e-06 -0.8272777431 0.1520873869
105299370.0 0.1078324689 0.0479250868 -0.000137684 8.05774e-05 1.30927e-05 1.56483e-05 -0.8260030166 0.1606089466
110299340.0 0.110887861 0.0438283112 2.44876e-05 -0.0001169113 0.0001200793 -3.61515e-05 -0.8243746251 0.1696307491
115299310.0 0.1132768208 0.0398428659 -0.0002903917 -0.0001895582 -6.28381e-05 8.79618e-05 -0.8232429536 0.1789113771
120299280.0 0.1159325804 0.0360027051 -0.0001746291 -0.0002138638 1.68428e-05 -8.77531e-05 -0.8210108533 0.1880701004
125299250.0 0.117726266 0.0319214452 3.43832e-05 -0.0001432336 8.0301e-06 1.45335e-05 -0.8193536308 0.1972127176
130299220.0 0.1195168729 0.0281197558 -0.0001862532 8.79205e-05 0.0001261073 0.0002267555 -0.8178842575 0.2055585261
135299190.0 0.1209589123 0.0244025627 6.55102e-05 -0.0001755746 0.0001283482 0.0001784651 -0.8163270888 0.2151305192
140299160.0 0.1221418541 0.0207507239 -0.0001356638 1.71583e-05 9.9638e-06 0.0001138143 -0.8141859132 0.2233549806
145299130.0 0.1233383742 0.0175334603 2.04168e-05 0.0002284039 1.00095e-05 -5.57836e-05 -0.8119276187 0.2326113249
150299100.0 0.1243130751 0.0138736812 0.0002336273 -0.0001050719 -5.3684e-05 1.60492e-05 -0.8096395419 0.2413307417
155299070.0 0.1250031078 0.0107319778 -7.51166e-05 -0.0001717927 1.83279e-05 3.1268e-05 -0.8068381732 0.2502641861
160299040.0 0.1256393545 0.0073448087 -7.2883e-06 0.0001785816 8.91919e-05 0.0001109706 -0.8048553119 0.2591770369
165299010.0 0.1260826232 0.00420747 -0.0001515345 0.0001309434 1.86925e-05 7.54212e-05 -0.8019222459 0.2672007026
170298980.0 0.1264570633 0.0006274827 0.0001835876 -0.0001067731 5.69806e-05 3.6738e-05 -0.7995570496 0.2757654267
175298950.0 0.1267045199 -0.0021345385 -5.54218e-05 1.96408e-05 -3.28574e-05 9.78855e-05 -0.79653079 0.2850157169
180298920.0 0.1269196208 -0.0053622307 5.9506e-06 -6.81211e-05 3.36389e-05 -0.0001055546 -0.7932670082 0.2934434845
185298890.0 0.1269443301 -0.0083263154 -7.16488e-05 8.26776e-05 1.43353e-05 -3.37696e-05 -0.7905114277 0.3020884589
190298860.0 0.1271709042 -0.0110564401 0.0001194655 0.000225466 -0.0001471555 -5.6528e-06 -0.7872865873 0.3096537908
195298830.0 0.1270511286 -0.0135388462 0.000179427 0.0001450907 9.80196e-05 5.08936e-05 -0.7836518856 0.3181379973
200298800.0 0.1269192173 -0.0168453992 -0.0002359109 0.0001521589 -4.24765e-05 0.0002340682 -0.7808160121 0.3265885532
205298770.0 0.1262715278 -0.0191375135 -9.3077e-06 2.9011e-05 -3.05708e-05 -5.84022e-05 -0.7773511554 0.3357409
210298740.0 0.1262597202 -0.0219124082 4.09862e-05 0.0001756945 1.93627e-05 9.40192e-05 -0.773984696 0.343210771
215298710.0 0.1255359825 -0.024397739 0.0001113388 0.0001419007 2.61186e-05 6.82566e-05 -0.7702246284 0.3515884906
220298680.0 0.125611393 -0.0267778298 -6.16156e-05 -4.08271e-05 0.0001545824 -0.0001136213 -0.7666965838 0.3595577145
225298650.0 0.1249112148 -0.0295498891 1.55903e-05 0.0001687031 5.89402e-05 8.77156e-05 -0.7630661572 0.3676687829
230298620.0 0.1240098932 -0.0316625269 8.37158e-05 0.0001533802 0.0001291749 -8.39197e-05 -0.7591873985 0.3756380807
235298590.0 0.1234270212 -0.0340217315 -7.5258e-06 -6.9895e-06 -6.42564e-05 -0.0001644386 -0.7546708416 0.3836174161
240298560.0 0.1224840472 -0.0360800078 5.93629e-05 -6.60964e-05 0.0002587179 1.75942e-05 -0.7515497087 0.39080806
245298530.0 0.1221624405 -0.0383373451 9.4678e-05 -7.80165e-05 -0.0001225454 -1.3451e-06 -0.7475137904 0.3993810968
250298500.0 0.1212230567 -0.0406051228 7.70794e-05 6.4723e-06 7.54167e-05 -0.000161061 -0.7423297885 0.4070019618
255298470.0 0.1204495213 -0.042376156 8.1181e-06 0.0002030701 -7.47571e-05 0.0001352032 -0.7395097948 0.4151102049
260298440.0 0.1196278168 -0.0449290767 7.61663e-05 4.37003e-05 5.66739e-05 -1.63762e-05 -0.7342900528 0.4219866036
265298410.0 0.1188814514 -0.0468967181 -0.0001586308 3.46252e-05 0.0001647076 3.37837e-05 -0.7300973423 0.4302121181
270298380.0 0.1179477842 -0.0491203326 -7.4572e-06 0.0001653549 7.03121e-05 -5.06544e-05 -0.7248967816 0.4376449085
275298350.0 0.1170976396 -0.050663201 0.0001999446 0.0001837444 -9.47963e-05 -0.0001470907 -0.720368855 0.4449013399
280298320.0 0.1157684224 -0.0525337543 0.0002570157 8.1737e-05 0.0002203025 0.0001920412 -0.7162037993 0.4529596984
285298290.0 0.1150610593 -0.0543650011 0.0002319769 1.77837e-05 -9.76854e-05 0.0001896496 -0.7122115033 0.460356065
290298260.0 0.1137604545 -0.0565344179 -0.0001153522 0.00025965 0.0001457571 2.60512e-05 -0.706912991 0.4675262593
295298230.0 0.112918846 -0.0587559187 -9.17337e-05 4.40229e-05 8.80942e-05 -0.0001094974 -0.7020969274 0.4749133738
300298200.0 0.1120695275 -0.0600779718 6.82654e-05 0.0002064969 8.54127e-05 0.0001064497 -0.6962802566 0.4821797018
305298170.0 0.110751653 -0.0623862729 0.000130465 -8.00289e-05 6.40154e-05 -5.3846e-06 -0.6915256442 0.4893652378
310298140.0 0.1100136641 -0.0645564696 -0.0001544248 0.0001916659 -9.68497e-05 8.05623e-05 -0.6864738897 0.497051932
315298110.0 0.1083051711 -0.0664344342 2.84328e-05 4.22226e-05 2.0917e-05 0.0002664014 -0.6810170641 0.5035729028
320298080.0 0.1070553703 -0.0681222542 0.0001298377 0.0001414526 6.29286e-05 0.0001117523 -0.6760873767 0.5101043746
325298050.0 0.1052743702 -0.0704890713 7.21759e-05 8.03165e-05 0.0001569473 0.0001708843 -0.670203474 0.5175918694
330298020.0 0.1038388385 -0.0714269502 8.88807e-05 0.000120784 0.0001792672 -7.23013e-05 -0.6652877098 0.5243987259
335297990.0 0.1021445794 -0.0728496106 -2.66316e-05 5.37766e-05 -0.0001474349 0.0001503793 -0.6593289278 0.5316186226
340297960.0 0.1006952284 -0.0745745192 0.0001455221 -4.65577e-05 0.0001106147 -0.0001524633 -0.6539405813 0.5383236402
345297930.0 0.099512772 -0.0758597113 0.0002157523 -7.10686e-05 -3.71786e-05 0.0001620137 -0.6490502529 0.5452003222
350297900.0 0.0982748 -0.0773914043 -2.05977e-05 7.23959e-05 8.30908e-05 0.0001607037 -0.6435013037 0.5515426513
355297870.0 0.0967830866 -0.0788797872 0.0003416643 0.0002496888 3.68493e-05 -5.9512e-06 -0.6369457318 0.5581980359
360297840.0 0.0952230258 -0.0801444341 -7.54953e-05 -8.76308e-05 4.67425e-05 0.0002759099 -0.6307121746 0.5648986767
365297810.0 0.0941458434 -0.0815119239 0.0002483921 0.0001629648 0.0001315644 1.0872e-06 -0.6256067953 0.5708363119
370297780.0 0.0926018876 -0.0828254101 0.0002295398 -7.6014e-05 -4.7111e-06 -9.11091e-05 -0.6198303378 0.578420212
375297750.0 0.0909845655 -0.0841897479 -1.42931e-05 0.0001726501 -0.0001163935 4.74452e-05 -0.6134178853 0.583836103
380297720.0 0.0895827993 -0.0850439091 7.16164e-05 5.85379e-05 0.0001382305 -9.19848e-05 -0.6070016246 0.5904427782
385297690.0 0.0883679603 -0.0868159307 0.0001294117 -8.33747e-05 -1.89246e-05 -8.77212e-05 -0.6012614343 0.5968450645
390297660.0 0.0869450104 -0.0882086996 0.0001201015 -1.6394e-05 0.000211448 0.0001206454 -0.5944206143 0.6020770257
395297630.0 0.0854344979 -0.0893807878 -0.0001188175 9.49519e-05 6.81579e-05 -6.33678e-05 -0.5881665477 0.6075697348
400297600.0 0.0836640792 -0.0904363462 5.71464e-05 -0.0001851997 2.14972e-05 -0.0001088563 -0.582689971 0.6139106017
405297570.0 0.0820658918 -0.0918136731 -1.10946e-05 0.0002134205 0.0001581609 4.56345e-05 -0.5753144974 0.6200308417
410297540.0 0.0810732156 -0.0928148567 0.0001753201 -5.08429e-05 0.0002205436 -6.81095e-05 -0.5694701673 0.625677868
415297510.0 0.0792886843 -0.0941145457 0.0001617596 0.0001926502 0.0001793406 5.04122e-05 -0.5625326342 0.6315919406
420297480.0 0.0778559953 -0.0957256868 5.60117e-05 -9.21375e-05 0.0002046793 7.53012e-05 -0.5564100244 0.6382214519
425297450.0 0.0766333208 -0.0962675413 0.0001959099 6.65086e-05 0.0001898734 6.2432e-05 -0.5494269749 0.6425772652
430297420.0 0.0749157753 -0.0975449724 -6.47263e-05 9.48007e-05 -6.14915e-05 0.0001233511 -0.5433469453 0.6482305866
435297390.0 0.0733105891 -0.0984475617 9.53955e-05 0.0003599706 9.48071e-05 -0.000120813 -0.536920465 0.6540597941
440297360.0 0.0718485182 -0.0996178784 6.1041e-05 -4.58693e-05 0.0001829125 6.47593e-05 -0.5304600626 0.6596328283
445297330.0 0.0707000367 -0.1005789785 7.41089e-05 0.0002568993 8.50601e-05 3.29602e-05 -0.5229982683 0.6646759865
450297300.0 0.0689982789 -0.1017727761 5.96795e-05 0.0001298736 3.02935e-05 -1.49532e-05 -0.5156517544 0.6698467314
455297270.0 0.0671996717 -0.102629599 1.49045e-05 0.0001053531 0.0001928419 1.59176e-05 -0.5097141336 0.6755395789
460297240.0 0.0657675304 -0.1033125243 -6.4925e-05 -9.0196e-06 2.96403e-05 -0.0002413697 -0.5026396058 0.6798903823
465297210.0 0.0643588714 -0.1041874468 0.0001420344 0.0001232962 0.0002189837 0.0001018153 -0.4950328315 0.6859062739
470297180.0 0.0628955477 -0.10524845 9.3013e-06 -8.88566e-05 0.0001098642 -2.16981e-05 -0.488287561 0.6905277873
475297150.0 0.0610503716 -0.1060420022 -0.0001045695 7.27183e-05 0.0001828018 0.0001942296 -0.4811133702 0.6953090191
480297120.0 0.0595939035 -0.1070209215 0.0001711236 -9.98994e-05 0.000137339 -3.53817e-05 -0.474167465 0.6997838476
485297090.0 0.0579707394 -0.1075693281 -2.30947e-05 3.0726e-06 0.000197943 4.07095e-05 -0.4672737608 0.7050078404
490297060.0 0.0570269282 -0.1084141471 0.0001683581 -1.0821e-05 0.000123248 0.0002268255 -0.4598000882 0.7085474114
495297030.0 0.0550755033 -0.1092755602 8.80463e-05 0.0002332005 0.0001698974 -7.80006e-05 -0.4523253271 0.7135569385
500297000.0 0.0533595039 -0.1096715108 -4.97958e-05 3.064e-06 -1.6128e-06 5.2013e-06 -0.445298088 0.7179037867
505296970.0 0.0519147106 -0.110583685 -4.91649e-05 9.78469e-05 2.09333e-05 5.03289e-05 -0.4377747023 0.7228422911
510296940.0 0.0506671482 -0.1110221664 9.01816e-05 2.66423e-05 0.0002041755 2.3685e-05 -0.4304495496 0.7273855986
515296910.0 0.0485688676 -0.1117849761 0.0001523178 -7.53538e-05 7.19436e-05 4.0152e-05 -0.4230591665 0.7312373771
520296880.0 0.0474590811 -0.1126479019 7.52835e-05 5.8181e-05 0.0001546733 1.46647e-05 -0.4148916195 0.7358642693
525296850.0 0.0456409414 -0.1130990265 0.0001529545 1.22822e-05 0.000194662 -8.055e-06 -0.4080160498 0.7395412906
530296820.0 0.0437324858 -0.1136252893 0.000268397 0.0001882574 6.43986e-05 -0.0001473389 -0.4009141221 0.7433026734
535296790.0 0.0427011323 -0.1141849606 0.0001335127 0.0001853012 4.49327e-05 5.57363e-05 -0.3933360812 0.7484385709
540296760.0 0.0413311669 -0.1145166957 0.0001035405 -7.70603e-05 6.83789e-05 6.40162e-05 -0.3855511621 0.7517034746
545296730.0 0.03940661 -0.1145497567 0.0001317716 -0.0001571653 0.0001910854 0.0001102069 -0.3775450782 0.7553966953
550296700.0 0.0378988254 -0.1152645818 0.000238268 1.63202e-05 0.0001394025 0.000148779 -0.3700294507 0.758956196
555296670.0 0.0363873156 -0.1154408211 0.0002295807 -7.78897e-05 0.0002303793 6.97627e-05 -0.3628109901 0.7620200498
560296640.0 0.0348656078 -0.1160547656 9.94594e-05 0.0001710502 3.13194e-05 7.50058e-05 -0.3545567539 0.7667755922
565296610.0 0.0327907396 -0.1162964382 0.000258198 -0.000176231 0.000290296 0.0001236514 -0.3469080592 0.7701951661
570296580.0 0.0313562655 -0.1164724086 0.0001189766 6.66329e-05 0.000219071 0.0001081423 -0.3392146169 0.7728183392
575296550.0 0.0297584794 -0.1170045034 0.0001255007 -6.58625e-05 9.8225e-06 0.0001409222 -0.3309795952 0.776369745
580296520.0 0.0283293945 -0.1168349093 5.54131e-05 0.0001180867 0.0002808588 4.09977e-05 -0.3238466237 0.779631497
585296490.0 0.0267375747 -0.1170463041 2.15608e-05 -3.44854e-05 2.78489e-05 -2.08094e-05 -0.3155062646 0.7830805582
590296460.0 0.0254272832 -0.1172916976 0.0002303076 1.74547e-05 7.98075e-05 4.04148e-05 -0.3082548415 0.7858040715
595296430.0 0.0233814685 -0.1173836207 8.58829e-05 9.817e-07 0.000181161 3.38954e-05 -0.300008168 0.789270423
600296400.0 0.0218090825 -0.1178089653 0.0001001439 0.0002432943 0.0002378442 -2.25041e-05 -0.2921506791 0.7918054897
605296370.0 0.0201050453 -0.1175294885 0.0001697452 -0.0001874009 0.0001522784 0.0001327458 -0.2838889434 0.795014263
610296340.0 0.0187057202 -0.1176890788 3.6467e-05 5.21627e-05 0.000324057 -0.0001341424 -0.2766996957 0.7978279729
615296310.0 0.0171785728 -0.1176648973 -9.71538e-05 -5.4727e-05 4.49093e-05 0.0002669165 -0.2675966435 0.8003755135
620296280.0 0.0153198356 -0.1174636197 8.92235e-05 -1.9136e-06 8.13472e-05 8.98645e-05 -0.2601721218 0.803291786
625296250.0 0.0136018463 -0.1175688024 0.0001409739 6.63064e-05 0.0002609869 -5.28376e-05 -0.2520462187 0.8051212928
630296220.0 0.0121578488 -0.1174894733 5.7425e-05 0.0001333988 6.16054e-05 0.000161117 -0.2438283071 0.8079651702
635296190.0 0.0102296885 -0.1171292875 0.0001003156 -8.89108e-05 0.000122869 -0.0001921367 -0.2355898705 0.8099477367
640296160.0 0.0085446144 -0.1172356286 3.87894e-05 3.87243e-05 0.0003155729 2.63418e-05 -0.2270339453 0.8121563818
645296130.0 0.0075024634 -0.1169638016 0.0002213088 -1.29648e-05 0.0001524799 2.44382e-05 -0.2197272996 0.8143157111
650296100.0 0.0055709749 -0.1169606181 0.0001234044 0.0001755763 0.0001313583 0.0002176172 -0.2110789693 0.8170580754
655296070.0 0.0037116175 -0.1168152127 0.0002576014 -0.0001797669 7.59403e-05 -7.69124e-05 -0.2031713439 0.8191854815
660296040.0 0.0019893882 -0.1165527936 0.00018463 3.72436e-05 0.0001080469 0.0001810818 -0.1942734929 0.8209188116
665296010.0 0.0004512224 -0.116068363 8.67996e-05 -8.4256e-06 0.000265587 0.0001716604 -0.1867532351 0.8226253862
670295980.0 -0.0014386716 -0.1161019902 0.0001886848 -6.29749e-05 0.0002108018 7.21198e-05 -0.1785819866 0.824457858
675295950.0 -0.003203094 -0.1157536001 0.000326694 7.86559e-05 0.0001460107 8.09295e-05 -0.1699862814 0.8263413995
680295920.0 -0.0048627811 -0.1153629437 0.0002448613 -0.0001533673 -2.4717e-05 3.32435e-05 -0.1614699336 0.828025583
685295890.0 -0.0064536348 -0.1150149791 0.0002788866 9.332e-07 0.0001799521 0.0001346907 -0.1534667105 0.8297366332
690295860.0 -0.0080463108 -0.1146001032 5.28934e-05 -5.45504e-05 0.0001436532 6.99074e-05 -0.1450765695 0.831629371
695295830.0 -0.0098733998 -0.1142797826 0.0003444714 -8.53868e-05 0.0001175623 0.0001801428 -0.1366187854 0.8329905691
700295800.0 -0.0112094401 -0.113781074 1.423e-07 -4.12564e-05 0.0001501705 0.0001289401 -0.1285027218 0.8332936047
705295770.0 -0.0130559878 -0.1133233346 0.0001511675 -1.66496e-05 0.0001143045 -6.6457e-05 -0.120427554 0.8353890061
710295740.0 -0.0150083063 -0.1130604166 0.0002163589 -3.69002e-05 7.21941e-05 -5.63356e-05 -0.1118578498 0.8363248096
715295710.0 -0.0163938101 -0.1125510112 0.0002329439 -0.0002178043 0.0002649232 8.69682e-05 -0.1034861456 0.8369596984
720295680.0 -0.018199612 -0.1120681658 0.0002373793 5.84462e-05 -8.81235e-05 7.03676e-05 -0.0948562746 0.8378165414
725295650.0 -0.0197566774 -0.1114591386 0.0004089038 9.84275e-05 0.0003185877 -9.35968e-05 -0.0869872369 0.8394893295
730295620.0 -0.021645817 -0.111270647 2.08109e-05 1.47709e-05 8.12682e-05 -6.73576e-05 -0.0789620618 0.8403775377
735295590.0 -0.0231920881 -0.1105367328 2.70207e-05 0.00012627 5.93708e-05 0.0001488927 -0.0702798612 0.8404538908
740295560.0 -0.0251977866 -0.1099348464 0.0002931647 -8.30617e-05 0.0002976331 3.89097e-05 -0.0614546844 0.8414096868
745295530.0 -0.0264901111 -0.1092634097 0.0001790407 -1.47788e-05 7.739e-05 5.06199e-05 -0.0537915538 0.8419062341
750295500.0 -0.0282432803 -0.1088587359 0.000242539 -0.000301661 0.0001512173 -1.09517e-05 -0.0449730043 0.8423829073
755295470.0 -0.0300436712 -0.1082055732 0.0001689317 -6.09915e-05 0.0002549961 -0.0003562393 -0.0366327868 0.8429575924
760295440.0 -0.0316420969 -0.1072765077 0.0003788173 -2.33752e-05 0.0001778473 -0.0001200145 -0.0278515067 0.8429395956
765295410.0 -0.0331152889 -0.1069646908 9.78952e-05 0.0001550628 0.0002656254 9.63153e-05 -0.0200152066 0.8433768873
770295380.0 -0.0347377325 -0.1059616429 0.0003026959 2.52446e-05 0.000176724 -0.0001920833 -0.0115797391 0.8431236603
775295350.0 -0.0365073702 -0.1052391659 8.24109e-05 -3.71323e-05 -7.09898e-05 0.0001033661 -0.0037701487 0.8432695102
780295320.0 -0.0379984126 -0.1048993916 0.0002329399 -1.95561e-05 0.0003418893 -2.18678e-05 0.0050468421 0.8438447071
785295290.0 -0.0397023746 -0.1043164498 0.0001746019 -0.0001577537 5.34626e-05 -0.0001294069 0.0131117308 0.8435219466
790295260.0 -0.0414502133 -0.1034804746 0.0002060237 -8.14066e-05 4.21223e-05 1.46476e-05 0.0213020588 0.8431298051
795295230.0 -0.0429473488 -0.1027264697 -5.03738e-05 8.1759e-05 0.0002096565 3.95597e-05 0.0298636005 0.842405678
800295200.0 -0.0445858797 -0.1021092985 3.43612e-05 5.77628e-05 -8.4279e-06 -8.87823e-05 0.0382391625 0.8426543402
805295170.0 -0.0462514005 -0.1011960668 0.00013754 -0.0001251882 0.000170344 -5.41994e-05 0.0470163806 0.8419763271
810295140.0 -0.0477085444 -0.1002404861 0.0001805079 2.3036e-05 0.0002211223 -9.2851e-06 0.0554113207 0.8412564207
815295110.0 -0.0493945589 -0.0996898783 0.0003310789 6.42377e-05 0.000237366 -0.0001770031 0.0629894133 0.8412204593
820295080.0 -0.0511191012 -0.0990694102 -8.25185e-05 -1.0143e-05 -3.88865e-05 -7.7417e-05 0.0711730144 0.8406335425
825295050.0 -0.0526098534 -0.0983197592 0.0002669046 -0.000129308 0.0003319178 0.000198961 0.0798803296 0.8396042716
830295020.0 -0.0540006303 -0.0974797895 2.01869e-05 -4.97888e-05 0.0002500428 -0.0001300907 0.087959528 0.838165908
835294990.0 -0.0550348903 -0.0966139457 0.0001383568 -1.72155e-05 0.00020806 -9.17478e-05 0.0965578902 0.8380930024
840294960.0 -0.056973552 -0.0956683672 0.0001357676 9.4731e-06 0.0001390488 -0.0001266672 0.1052663193 0.8372040947
845294930.0 -0.0585858893 -0.0946863797 0.0001471539 8.56729e-05 1.13922e-05 1.80234e-05 0.1133300671 0.8355480083
850294900.0 -0.0596613981 -0.0938420836 0.000190302 -0.0001299282 0.0003981197 -0.0002717384 0.1209784156 0.8348348161
