!Created with skrf (http://scikit-rf.org).
# Hz S RI R 50.0 
!freq ReS11 ImS11 ReS21 ImS21 ReS12 ImS12 ReS22 ImS22
300000.0 -0.0960935134 -0.0842053919 0.6216600169 0.07862713 0.6250073848 0.0826790214 -0.0961964472 -0.0927181983
5299970.0 -0.1006170104 0.0128703346 0.6307474254 0.0104488492 0.6307202557 0.0110232976 -0.1022524879 0.0122237117
10299940.0 -0.0954267885 0.0296825675 0.6340269681 0.0155514387 0.6343269136 0.0160391084 -0.0974233505 0.029160471
15299910.0 -0.088628052 0.0430508956 0.6403136366 0.0208618257 0.6406308958 0.0212364013 -0.0903313833 0.0421307002
20299880.0 -0.0795966772 0.0541958325 0.6487301826 0.0241244439 0.6488902372 0.0243219098 -0.0821184099 0.0531785974
25299850.0 -0.0698792841 0.062877851 0.6581404011 0.0247527252 0.6579697598 0.0253774061 -0.072775323 0.0620712721
30299820.0 -0.0595550711 0.0690135151 0.6679657611 0.0250633785 0.6672300125 0.0246097148 -0.0625571847 0.0687342448
35299790.0 -0.0495721743 0.0741208943 0.677198835 0.0218672556 0.6773198382 0.0220495096 -0.0528258127 0.0734057646
40299760.0 -0.0394287513 0.07691848 0.6866839813 0.0176924009 0.6865718211 0.0176841828 -0.0440306629 0.0768981565
45299730.0 -0.0304270694 0.0793218723 0.6953526238 0.0118451537 0.6958102994 0.0122706318 -0.0342935586 0.0790899613
50299700.0 -0.0217232696 0.079856017 0.7032355873 0.0045120746 0.7036333338 0.0046236105 -0.025442205 0.0799100667
55299670.0 -0.0140820754 0.0801969325 0.7104094218 -0.0032830147 0.7111634075 -0.0027087703 -0.0180666793 0.079769126
60299640.0 -0.0065159058 0.0790807864 0.7173289987 -0.0113840185 0.7176775759 -0.0114489165 -0.0103914918 0.0796957593
65299610.0 -0.0003589659 0.0780722259 0.7235398901 -0.0195569126 0.7241145053 -0.0200477232 -0.0037267835 0.0783206857
70299580.0 0.0060376929 0.0757987903 0.7284893159 -0.029235981 0.7283562967 -0.0291808593 0.0021756201 0.0770013006
75299550.0 0.0117079551 0.0740487778 0.7327566175 -0.0390560471 0.7331525962 -0.0390551007 0.0080269075 0.0756072511
80299520.0 0.016281266 0.0721041169 0.737539744 -0.0487245606 0.7377633007 -0.0486824639 0.0132260376 0.0729692593
85299490.0 0.0209361933 0.0697224233 0.7405589716 -0.0587753569 0.7404941713 -0.0588654472 0.0176152083 0.07071948
90299460.0 0.0246218931 0.0672730826 0.7435506572 -0.0686903576 0.7439833625 -0.0688734265 0.0219419544 0.0685672627
95299430.0 0.0283330438 0.065252466 0.7460566181 -0.0798899598 0.7460614755 -0.0785998988 0.025328092 0.0662931503
100299400.0 0.0314935841 0.0629669263 0.7473710918 -0.0888402135 0.7477807487 -0.0890969015 0.0285271746 0.064186447
105299370.0 0.0346337941 0.0601847853 0.7489983743 -0.0991120721 0.7488138321 -0.0990279495 0.0319326909 0.0616304428
110299340.0 0.0371397677 0.0580378197 0.7498827586 -0.1090750731 0.7502981804 -0.1094800439 0.0346469763 0.0591223279
115299310.0 0.0396025927 0.0551968099 0.7508548562 -0.1186703742 0.7512256718 -0.1186593474 0.0371592499 0.0563226981
120299280.0 0.0413328423 0.0527097135 0.7516707065 -0.129285453 0.7516581082 -0.1295451263 0.038972661 0.0542371169
125299250.0 0.0431217053 0.050287037 0.751455615 -0.1388927265 0.7521586153 -0.1394897952 0.0414452663 0.0511722382
130299220.0 0.0452056172 0.0478000316 0.7513702788 -0.1488627525 0.7519234095 -0.1493228457 0.0433759532 0.0493236228
135299190.0 0.0467634365 0.0455087005 0.7510564093 -0.1581142649 0.7510145087 -0.1589028614 0.0444614362 0.0473993896
140299160.0 0.0477404553 0.0440208393 0.7507564698 -0.1686286284 0.7514254562 -0.1685544098 0.0461904637 0.0456899774
145299130.0 0.0493502067 0.0419671184 0.7508565413 -0.1786535529 0.7504125443 -0.1779180393 0.0472723642 0.0429211532
150299100.0 0.0506583332 0.0399312947 0.7491095281 -0.1878307249 0.7493662284 -0.1882818116 0.0486912953 0.0410805913
155299070.0 0.0512463884 0.0384206344 0.7477484085 -0.1980725758 0.7480209335 -0.198070419 0.049275746 0.0386826235
160299040.0 0.0525230655 0.0360864141 0.7461561312 -0.206814939 0.7466689079 -0.2071200898 0.0510023823 0.0374323619
165299010.0 0.0528070022 0.0341801575 0.745304225 -0.2166174528 0.7451611863 -0.2166333266 0.0516569413 0.0350573148
170298980.0 0.0534596831 0.0327814897 0.7419835067 -0.225880339 0.743328606 -0.2264815042 0.0527180238 0.0327118022
175298950.0 0.0544365263 0.0304461636 0.7420211834 -0.2352924659 0.7415669246 -0.2353056068 0.0533843953 0.031438245
180298920.0 0.0554270346 0.0293542053 0.7389372624 -0.2448294611 0.7388937623 -0.2439667273 0.0541525798 0.0300172245
185298890.0 0.0560426883 0.0271769204 0.737006467 -0.2541392357 0.7374218035 -0.2534552596 0.0541906128 0.0279231534
190298860.0 0.0562674627 0.0259612719 0.7341510025 -0.2627918756 0.7345810177 -0.2629732552 0.0557015275 0.026253125
195298830.0 0.0565549663 0.0238321694 0.7317946197 -0.2713495084 0.7323847926 -0.2721643661 0.0558988827 0.0243947938
200298800.0 0.0569639659 0.0227445269 0.7297811637 -0.2797580831 0.7290125737 -0.2800709313 0.0560918297 0.0233609449
205298770.0 0.0573270564 0.0215290048 0.7271224287 -0.2892496446 0.7266953745 -0.2898414315 0.0565720704 0.0210503764
210298740.0 0.0567811068 0.0198657719 0.7237415053 -0.298770812 0.7239389865 -0.2985569003 0.0569449343 0.0201293755
215298710.0 0.0578171752 0.0187178672 0.7212305832 -0.3064801079 0.7207435844 -0.3065948359 0.057154585 0.0186986278
220298680.0 0.0581163595 0.0170542511 0.7174219235 -0.3159815016 0.7176057755 -0.3157912673 0.057585396 0.0174522116
225298650.0 0.0587838459 0.0162077912 0.7138737282 -0.3239500558 0.7140235345 -0.3239372956 0.0577272124 0.0159024821
230298620.0 0.0581083399 0.0148308019 0.7110291803 -0.3327448584 0.7114939688 -0.3328836464 0.0578790883 0.0146081386
235298590.0 0.0583002244 0.0132829837 0.7077943411 -0.3409193248 0.7077351029 -0.3418341494 0.0579930725 0.0129711704
240298560.0 0.0582704461 0.0122560914 0.7037346309 -0.3493431597 0.7044362889 -0.3489289842 0.0583191796 0.011961989
245298530.0 0.0588816453 0.0111838499 0.6995357921 -0.357465498 0.6997772198 -0.3577497336 0.058325044 0.0109978311
250298500.0 0.0583096628 0.0097767371 0.6963812104 -0.365257939 0.6964951864 -0.3653907262 0.0587515038 0.009093339
255298470.0 0.0581654534 0.0089570745 0.691952291 -0.3743408172 0.6922691377 -0.3741454252 0.0588436045 0.007668959
260298440.0 0.0580725193 0.0078055537 0.6881460003 -0.3818076643 0.6887109634 -0.3826260477 0.0594979278 0.0070629469
265298410.0 0.0590530835 0.0072643148 0.6844355197 -0.3910003604 0.6838737303 -0.3905213882 0.0590146727 0.0056036168
270298380.0 0.059049993 0.0057943141 0.6794394577 -0.398054725 0.6804356568 -0.3982422108 0.0589898896 0.0053613694
275298350.0 0.0584567748 0.0046409841 0.6754710453 -0.4068096162 0.6761013586 -0.4064751397 0.0589384173 0.0040381366
280298320.0 0.0583931905 0.0042902923 0.6713903051 -0.4131992808 0.6712655634 -0.4143748873 0.0592999752 0.0028236516
285298290.0 0.0586714436 0.0031207652 0.6667578794 -0.4214500768 0.6668426872 -0.4217222179 0.0587641821 0.0019683725
290298260.0 0.0588011023 0.001914144 0.6624073721 -0.4297572619 0.6626127241 -0.4294063985 0.0595322557 0.0009923267
295298230.0 0.0586829446 0.0008527087 0.6582148241 -0.4375772564 0.6580417179 -0.4373859168 0.05991088 -9.53361e-05
300298200.0 0.0592308785 -0.0001563956 0.6529154109 -0.4451156103 0.6533361218 -0.4453236858 0.0592252946 -0.001314545
305298170.0 0.0590219279 -0.001336495 0.648409672 -0.45288418 0.6486659934 -0.4527121017 0.0593316593 -0.0022691908
310298140.0 0.0594055339 -0.0021633551 0.6439042048 -0.4603807017 0.6441565964 -0.4607270187 0.0595528085 -0.0026940767
315298110.0 0.0588577301 -0.0034950201 0.6386688538 -0.4681048172 0.6387217981 -0.4685003446 0.0596318397 -0.0044387751
320298080.0 0.0587347965 -0.0043192903 0.633389235 -0.4753081876 0.6337728774 -0.4757125036 0.0594109555 -0.0059964663
325298050.0 0.0582044218 -0.0055366191 0.6283372487 -0.4831545825 0.6281894085 -0.4836016023 0.0591483753 -0.0067944372
330298020.0 0.058117792 -0.0062250615 0.6215912676 -0.4907211653 0.6225851328 -0.4908952935 0.0586332112 -0.0081567195
335297990.0 0.057701823 -0.0073760767 0.6168992552 -0.4979831537 0.6164879901 -0.497854296 0.0582284093 -0.0088471918
340297960.0 0.0566451928 -0.0079229143 0.6101649035 -0.5045176098 0.611106077 -0.5045822564 0.0573697937 -0.0095598094
345297930.0 0.0562625054 -0.0082642309 0.6054019853 -0.510883869 0.6049630705 -0.5113387278 0.057568939 -0.0105465952
350297900.0 0.0566396768 -0.009100129 0.5990321638 -0.5171846036 0.5996615466 -0.5178617573 0.0566639434 -0.0105716985
355297870.0 0.0561120756 -0.0100952085 0.5931212046 -0.5243024114 0.5934255747 -0.5248077628 0.0563927652 -0.011261299
360297840.0 0.0563971529 -0.0106077489 0.5875898808 -0.5315478751 0.5874632586 -0.5317535584 0.0565606216 -0.0118736254
365297810.0 0.0558430195 -0.0115326967 0.5811878656 -0.5374632619 0.5817057955 -0.5380918669 0.0561322588 -0.0122939545
370297780.0 0.0558074194 -0.0121111041 0.5761592566 -0.5439663155 0.5759269271 -0.5446389494 0.0561427477 -0.0126913932
375297750.0 0.0553006102 -0.0123590721 0.5705987497 -0.5505085784 0.5702808248 -0.5509825108 0.0556118647 -0.0135586641
380297720.0 0.055296105 -0.0137529588 0.5638210051 -0.5568195193 0.5644196992 -0.5568227491 0.0553558112 -0.0140687548
385297690.0 0.0551350756 -0.0140508519 0.5576511721 -0.562739115 0.5575701249 -0.5630715505 0.0552185715 -0.0148916379
390297660.0 0.0543927896 -0.0149154403 0.5504898643 -0.570028109 0.5518220491 -0.5700116652 0.0549988858 -0.0158295504
395297630.0 0.0548068809 -0.0156090404 0.5458489721 -0.5754330926 0.5453076646 -0.5753648546 0.0544805422 -0.0160442171
400297600.0 0.0537115807 -0.0158047738 0.538620385 -0.5818852399 0.538958381 -0.5820150083 0.0534983937 -0.0170380729
405297570.0 0.054163962 -0.0165958086 0.5322982644 -0.5875191622 0.5326331849 -0.5881691877 0.0539320609 -0.0167658432
410297540.0 0.0538180079 -0.0173409784 0.5253100262 -0.5934412571 0.5258485161 -0.5937388422 0.0534414991 -0.0180801643
415297510.0 0.0534326465 -0.017286012 0.5192032159 -0.5992311012 0.5198402423 -0.5996731961 0.0528266255 -0.017958634
420297480.0 0.0530879357 -0.0189157725 0.5122748576 -0.6057724091 0.5133530206 -0.6054865353 0.0528080717 -0.0190790166
425297450.0 0.053329366 -0.0195328415 0.505109741 -0.6108390639 0.5066366299 -0.6107554461 0.05227331 -0.0189322674
430297420.0 0.0526283376 -0.0196979722 0.4993494995 -0.6170757922 0.4992795792 -0.6170821423 0.0519777028 -0.0198564758
435297390.0 0.0526941669 -0.0208447351 0.4925440826 -0.622195274 0.4927402621 -0.6219122902 0.0513704258 -0.0198792471
440297360.0 0.0523058433 -0.0214666776 0.4852426083 -0.627616726 0.485350297 -0.6277805917 0.0510238041 -0.0212668579
445297330.0 0.0524009037 -0.0221574081 0.4780831094 -0.6333892303 0.4786344659 -0.6330492511 0.0507564676 -0.0215206228
450297300.0 0.0518186375 -0.022587617 0.471440609 -0.6377940648 0.4721235304 -0.6384724935 0.0505048504 -0.0217845076
455297270.0 0.0510720055 -0.0232318982 0.46534232 -0.6433233608 0.4656152571 -0.6436282633 0.0502671824 -0.0221657407
460297240.0 0.0507467102 -0.0239960639 0.4574981833 -0.6484228067 0.457109312 -0.6490155043 0.0498548334 -0.0225500652
465297210.0 0.050871389 -0.0247316057 0.4499554545 -0.6535569338 0.4508355168 -0.6536857191 0.0489947009 -0.0237768368
470297180.0 0.0498885509 -0.0250438781 0.4432915966 -0.6585394982 0.4436817712 -0.658933386 0.0482400127 -0.0239526643
475297150.0 0.0493277482 -0.0263768383 0.4356597132 -0.6630606604 0.4361164513 -0.6629564006 0.0484399547 -0.0245527443
480297120.0 0.0500342505 -0.0268243332 0.4286313576 -0.6682567316 0.4294004208 -0.6682765222 0.047608084 -0.0242571547
485297090.0 0.0494975873 -0.0274211335 0.4220502496 -0.6730594771 0.4216894266 -0.673221805 0.0469837556 -0.0256083511
490297060.0 0.0490552555 -0.0282787127 0.414235252 -0.6776146454 0.4145295681 -0.6779196078 0.0474243681 -0.0254751687
495297030.0 0.0479189391 -0.0280520272 0.4063876513 -0.6822024948 0.4063881523 -0.6823590826 0.0470373425 -0.0262383174
500297000.0 0.0481472343 -0.0290651306 0.3991429873 -0.6862002535 0.3985912766 -0.6869528478 0.0456477126 -0.026650582
505296970.0 0.0473575653 -0.0296636212 0.3909312071 -0.6903946388 0.3909696473 -0.6910046589 0.044950435 -0.0271649437
510296940.0 0.0469053246 -0.0301267608 0.3836899545 -0.6952531766 0.3840956888 -0.6955911073 0.045380049 -0.0271501952
515296910.0 0.0461929084 -0.0303743429 0.3760301748 -0.6992734177 0.3762605931 -0.6998054067 0.0441349487 -0.0279293077
520296880.0 0.0459668201 -0.0312818525 0.3682543818 -0.7034753341 0.368624044 -0.7036567476 0.0443557955 -0.0281237766
525296850.0 0.0453128525 -0.0319401701 0.3606916189 -0.7082517911 0.3609115118 -0.7076271619 0.0438002942 -0.0287552243
530296820.0 0.0451390378 -0.0325550825 0.3534106644 -0.7106309533 0.352480499 -0.7114861001 0.0428956324 -0.0298000163
535296790.0 0.0441213514 -0.0328543401 0.3448236119 -0.7145576455 0.3457070054 -0.7151693112 0.0426299811 -0.0300204544
540296760.0 0.0440589538 -0.0336383182 0.3378368453 -0.7190014913 0.3370299505 -0.7193858566 0.0416226797 -0.029828069
545296730.0 0.0435041496 -0.0334016906 0.3290636144 -0.7225105055 0.3297143337 -0.7234074448 0.0412357023 -0.030926471
550296700.0 0.0423975252 -0.0343541511 0.3218753608 -0.7261023617 0.3219978235 -0.7267479361 0.0408431466 -0.0304326923
555296670.0 0.0426925188 -0.0350355727 0.3136272308 -0.7298489466 0.3135431268 -0.7296882434 0.0401713481 -0.0310949254
560296640.0 0.0420157451 -0.0353710351 0.3057040306 -0.7326375652 0.3057330056 -0.7324506139 0.0397311687 -0.0313057074
565296610.0 0.0409827189 -0.0360385673 0.2970384217 -0.7366893721 0.2973089182 -0.7365475617 0.0390422789 -0.0320865802
570296580.0 0.04121521 -0.0365552047 0.2892356544 -0.7395044156 0.2899205488 -0.7399206666 0.0390199018 -0.0316248647
575296550.0 0.0404240713 -0.0361689837 0.2815237181 -0.7426198191 0.2819261647 -0.7426193984 0.0386025967 -0.0327788496
580296520.0 0.039656088 -0.036826397 0.2732605817 -0.7461763167 0.2732471568 -0.7461668894 0.0374900034 -0.0332597733
585296490.0 0.0394709254 -0.0379789095 0.2658057394 -0.7491514731 0.2651602213 -0.7487169502 0.0369504395 -0.0333881681
590296460.0 0.0381539766 -0.0385861069 0.2565837536 -0.7518056086 0.2566538492 -0.7517578145 0.036769165 -0.0332215038
595296430.0 0.0376662716 -0.0384065068 0.2490795987 -0.7546572651 0.2487365524 -0.7547154813 0.0363168828 -0.0339176416
600296400.0 0.0374622927 -0.0385917505 0.2404435434 -0.7569806574 0.2409687429 -0.7573075229 0.0355576297 -0.0339834263
605296370.0 0.0371295955 -0.0385709523 0.2321755891 -0.7597762321 0.2326173448 -0.7598212985 0.0350662242 -0.034888262
610296340.0 0.0359590439 -0.0391902029 0.2247614091 -0.7621345671 0.2242852142 -0.7625997115 0.0345739623 -0.034335984
615296310.0 0.0355001315 -0.0395890397 0.2155045488 -0.7642883521 0.2155425284 -0.7646284885 0.0338488895 -0.0349898908
620296280.0 0.0346071984 -0.0401991214 0.2078866171 -0.766876545 0.2069965925 -0.7671675291 0.0334788325 -0.036087877
625296250.0 0.0344350517 -0.0403299811 0.1983663953 -0.7693050248 0.1990483775 -0.769522068 0.0329672134 -0.03550177
630296220.0 0.0339527809 -0.0405793831 0.1904119158 -0.771569498 0.190991556 -0.7708693262 0.0319428644 -0.0357500348
635296190.0 0.0335084295 -0.0407990107 0.1822191011 -0.7726624947 0.181790981 -0.7728887863 0.0315510334 -0.0364996426
640296160.0 0.0325583131 -0.0411806813 0.1742846152 -0.7749552211 0.1736426445 -0.7753052178 0.031395213 -0.03677034
645296130.0 0.0321247623 -0.0412928401 0.1653270024 -0.7770991362 0.1652275373 -0.7771826655 0.0296476931 -0.03737937
650296100.0 0.0311489651 -0.0410020442 0.1573705891 -0.7778250426 0.157375253 -0.7785558922 0.029725069 -0.0372693853
655296070.0 0.0304746623 -0.0421219632 0.1484879324 -0.7801784226 0.1482455517 -0.7801285491 0.0299299555 -0.0367758376
660296040.0 0.029282903 -0.041771456 0.1400335986 -0.7811891106 0.1401017135 -0.7815241265 0.0285210062 -0.0382553931
665296010.0 0.0294386282 -0.0421694564 0.1316748933 -0.7834423477 0.1317611788 -0.7831612779 0.0278109291 -0.0373740393
670295980.0 0.0292850574 -0.042272063 0.1230360662 -0.7844502052 0.1230330847 -0.7846825137 0.0273323898 -0.0381334578
675295950.0 0.0286699668 -0.0426635845 0.1141434995 -0.7859721658 0.1150374381 -0.7867897581 0.0271281779 -0.037515746
680295920.0 0.0275961171 -0.0425775571 0.105519947 -0.7873890546 0.1056120838 -0.7875775807 0.0267801086 -0.0385672536
685295890.0 0.0268590806 -0.0428247285 0.0975994272 -0.7882326416 0.0973657621 -0.7886680076 0.0257002043 -0.0380069842
690295860.0 0.0267373211 -0.0433686354 0.0881981419 -0.7886601183 0.0880833207 -0.7888140055 0.0258405199 -0.0381462746
695295830.0 0.0265862359 -0.0435956128 0.0785248443 -0.7905146726 0.0794252661 -0.7902058629 0.0244077467 -0.0384581106
700295800.0 0.0258152489 -0.0435577852 0.0707417536 -0.7914376972 0.0711552069 -0.7911587246 0.0240561696 -0.0393631557
705295770.0 0.0249474266 -0.0435068226 0.0628202805 -0.7914768159 0.0627330207 -0.791967167 0.0230320764 -0.0390639468
710295740.0 0.0241022511 -0.043425301 0.0538595229 -0.7917463054 0.0538434398 -0.7918102398 0.0218290659 -0.0389157692
715295710.0 0.0236094867 -0.0438483806 0.045153142 -0.7924489333 0.0455939808 -0.7932863393 0.0222078912 -0.0398237031
720295680.0 0.0228956935 -0.0443590275 0.0367500457 -0.7928693691 0.0367606694 -0.7934867582 0.0217823391 -0.03927984
725295650.0 0.0226191608 -0.0442187419 0.0280470953 -0.7932611565 0.0278677439 -0.793284561 0.0208685648 -0.0394259597
730295620.0 0.0213337249 -0.0446102212 0.0195204004 -0.7939215286 0.0196693714 -0.7938500846 0.0207614375 -0.0404007385
735295590.0 0.0212320283 -0.0443506544 0.01085218 -0.7938661874 0.0110720577 -0.7941962038 0.0198297943 -0.039604747
740295560.0 0.0203555631 -0.0442584354 0.0019700212 -0.793306957 0.00195927 -0.7937041112 0.0195761528 -0.0398795194
745295530.0 0.0199248972 -0.0447512185 -0.0061887698 -0.7942448521 -0.0061843596 -0.7946126569 0.0184323903 -0.0399176499
750295500.0 0.0193940656 -0.0447315374 -0.0150580074 -0.7937110633 -0.0149139934 -0.7940371682 0.0184220937 -0.0406216012
755295470.0 0.0190694665 -0.0446052471 -0.0233435452 -0.7940769699 -0.0232913996 -0.794358241 0.0170681905 -0.0401475924
760295440.0 0.0180212377 -0.0444578359 -0.0323321258 -0.7928659227 -0.0325739037 -0.7936223867 0.0160515259 -0.0401299541
765295410.0 0.0171293748 -0.0450317226 -0.040646437 -0.7922965235 -0.0405403462 -0.7931006104 0.0169842393 -0.039526204
770295380.0 0.016769157 -0.044933744 -0.049450638 -0.7923374864 -0.0491383722 -0.7925818664 0.0161738831 -0.0398316163
775295350.0 0.0161537724 -0.0449121584 -0.0579509307 -0.7916293817 -0.0577462137 -0.7923101754 0.0148338639 -0.040865985
780295320.0 0.015786064 -0.0448459657 -0.0661004772 -0.7909484556 -0.0658155402 -0.791512277 0.0146028638 -0.039906547
785295290.0 0.0146631471 -0.0443035205 -0.0749203762 -0.7893519468 -0.0753788878 -0.7904163945 0.0132628496 -0.0404783477
790295260.0 0.0141268654 -0.0446791098 -0.0833799609 -0.7898179458 -0.0839082153 -0.7894726179 0.0137572762 -0.0399427218
795295230.0 0.0134155721 -0.0446030454 -0.0918669171 -0.7877199532 -0.0922826247 -0.7885388087 0.0125478276 -0.039322777
800295200.0 0.0130100056 -0.0445520256 -0.1016863768 -0.7873971399 -0.1013675252 -0.7878182359 0.0123724171 -0.0400484027
805295170.0 0.0118418175 -0.0446357497 -0.1093524749 -0.7857624253 -0.1098249759 -0.7863537802 0.0111422899 -0.039997023
810295140.0 0.0116351097 -0.044635845 -0.1176150409 -0.7846951381 -0.1178283056 -0.7856100113 0.0107634451 -0.0393097551
815295110.0 0.0108421454 -0.0444087234 -0.1270005995 -0.7833116936 -0.1266674388 -0.783902892 0.0097423188 -0.0402287348
820295080.0 0.010139098 -0.0447059319 -0.1344997215 -0.7822354144 -0.1351195347 -0.7827188444 0.0091637965 -0.0395866164
825295050.0 0.0096229591 -0.0446821073 -0.144006923 -0.7804163449 -0.1435347222 -0.7807396348 0.0089842682 -0.0395330543
830295020.0 0.0086596198 -0.0439514845 -0.1521565931 -0.778498682 -0.1524464214 -0.7793901382 0.0083314649 -0.039983525
