!Created with skrf (http://scikit-rf.org).
# Hz S RI R 50.0 
!freq ReS11 ImS11 ReS21 ImS21 ReS12 ImS12 ReS22 ImS22
300000.0 -0.7744486846 -0.1505029841 -0.0001063973 0.0009781967 0.0010058829 0.0007361429 -0.2097783956 -0.0961418864
5299970.0 -0.785202337 -0.0076110804 6.02301e-05 0.0002101448 0.0001155335 3.20832e-05 -0.2161715348 0.0064395829
10299940.0 -0.7876744768 -0.0044658895 0.0001188639 -0.0001426469 -0.0002150753 -0.0001562187 -0.2130827452 0.0185512566
15299910.0 -0.7934490756 -0.0017456227 -0.0002175468 -8.62677e-05 -0.000173059 -5.02141e-05 -0.2082423758 0.0279445595
20299880.0 -0.7999250533 0.0024293455 -0.0001357934 4.68569e-05 2.40898e-05 8.61235e-05 -0.2028908841 0.0358662108
25299850.0 -0.8067001897 0.0084520591 4.20099e-05 3.8642e-05 -4.9809e-06 -6.49213e-05 -0.1976030401 0.0417839638
30299820.0 -0.8114805913 0.0161966013 0.000381559 -0.0001209515 -0.0001737587 -6.46552e-05 -0.1918668828 0.0463567072
35299790.0 -0.8166424152 0.0254697894 -9.73246e-05 0.0001240102 -5.21149e-05 7.60652e-05 -0.186051098 0.0500382203
40299760.0 -0.8216831551 0.0343212491 -7.86703e-05 1.63331e-05 0.0001806951 9.79242e-05 -0.1802648842 0.0530946943
45299730.0 -0.8249478953 0.0442207003 0.0001352482 -9.47526e-05 9.77973e-05 -0.0001012233 -0.1752910595 0.0549456128
50299700.0 -0.8267642666 0.0541098177 -9.294e-05 0.0001621935 -0.0001442868 7.77184e-05 -0.1703307794 0.0568483053
55299670.0 -0.8286506921 0.0644919326 9.92839e-05 3.31429e-05 1.45653e-05 -6.14851e-05 -0.1662698095 0.0577134962
60299640.0 -0.8295110835 0.0747564473 9.61975e-05 8.25748e-05 0.000240477 -0.0001216797 -0.1622561392 0.0587044299
65299610.0 -0.8308229091 0.0848232687 -2.73279e-05 0.0001548842 -3.13399e-05 0.0001405115 -0.1586052879 0.0592843375
70299580.0 -0.8309597303 0.0943859062 -2.8119e-06 -1.78373e-05 -1.21328e-05 3.88518e-05 -0.1553482145 0.0592440595
75299550.0 -0.8312448059 0.1047339138 0.0001783736 6.63765e-05 -0.0001273194 0.0001233722 -0.1523975538 0.0596423158
80299520.0 -0.8310464069 0.1142869026 -0.0001146928 0.0001136871 -4.75809e-05 0.000159452 -0.1502551032 0.0595763012
85299490.0 -0.8305751683 0.1241130736 3.27898e-05 4.61134e-05 0.0001170759 4.60304e-05 -0.1477288043 0.0598998837
90299460.0 -0.8296578306 0.1340959245 -3.3087e-05 3.76693e-05 7.62873e-05 -4.14022e-05 -0.1456346592 0.0595225396
95299430.0 -0.8282481168 0.1434221255 3.52494e-05 2.76348e-05 -6.57493e-05 5.542e-06 -0.1434594792 0.0596356733
100299400.0 -0.8278262608 0.1533063606 5.4726e-06 0.0001692061 2.90223e-05 0.0002168937 -0.1420517743 0.0594784005
105299370.0 -0.8264737041 0.1622966587 -0.0001242491 -1.61297e-05 -2.09305e-05 -2.73008e-05 -0.1397053646 0.0596205509
110299340.0 -0.8256826889 0.171155943 1.5662e-06 0.000191365 0.0002617753 0.0001376948 -0.1386513626 0.0596774644
115299310.0 -0.8235457285 0.180543698 7.16289e-05 2.38772e-05 4.69342e-05 4.8811e-05 -0.1371205574 0.0592356279
120299280.0 -0.8217750901 0.1896301706 0.0001920841 -7.41839e-05 -1.43623e-05 -6.9193e-06 -0.1362646085 0.0594415684
125299250.0 -0.8204034811 0.1981814823 2.11556e-05 0.0001160523 0.0001403864 -1.57219e-05 -0.1349214048 0.0593042307
130299220.0 -0.8179646298 0.2077987887 -0.0002575076 -7.92843e-05 3.41454e-05 3.6539e-06 -0.1342397702 0.0599076287
135299190.0 -0.8166913921 0.2166526584 -0.0001644107 6.84457e-05 -7.75156e-05 2.16477e-05 -0.1335238129 0.059547176
140299160.0 -0.8147370006 0.2257823212 -3.79616e-05 -3.0573e-06 -3.86065e-05 8.91813e-05 -0.1319673421 0.0598534747
145299130.0 -0.8123613644 0.2344646652 0.0001767799 -4.24714e-05 -7.88235e-05 7.75968e-05 -0.1318009288 0.0604638117
150299100.0 -0.8101310531 0.2432972076 5.8734e-05 1.38684e-05 0.0001784368 0.0001706617 -0.1308248276 0.0604464072
155299070.0 -0.8075713459 0.2524256578 -6.6229e-06 4.16966e-05 -1.35949e-05 0.0001199863 -0.1302178437 0.0608886999
160299040.0 -0.8044667567 0.2605374497 3.48986e-05 -0.0001627656 1.54466e-05 0.0002208249 -0.129603029 0.0614403979
165299010.0 -0.8021105294 0.2689051132 -7.94629e-05 0.0001715536 0.0001416507 -3.84435e-05 -0.1292584577 0.0616118542
170298980.0 -0.7994441633 0.2781985101 -2.91252e-05 2.58104e-05 6.28219e-05 0.000127758 -0.1287833601 0.0624235911
175298950.0 -0.7964259904 0.2868315427 0.0001063217 0.0001139273 -5.36652e-05 -1.36109e-05 -0.1279431555 0.0625442212
180298920.0 -0.7934778414 0.294726512 7.62783e-05 -1.26849e-05 0.0001254956 -1.12474e-05 -0.1268334465 0.0633179713
185298890.0 -0.7907834568 0.3046032815 0.0003096164 -6.444e-07 5.9494e-06 0.0001282295 -0.1271389449 0.0635492447
190298860.0 -0.7877630386 0.3122608927 -0.0001469412 9.1037e-05 0.0001573697 0.0001174263 -0.1258774642 0.0645203947
195298830.0 -0.7839168793 0.3209692794 -0.0001255542 0.0002074521 1.81548e-05 -5.2e-05 -0.1256771276 0.0647417114
200298800.0 -0.7802928578 0.3292961423 3.10718e-05 -0.0001237239 -5.27198e-05 3.18888e-05 -0.1248294384 0.0655332386
205298770.0 -0.7774388912 0.3375014602 -6.5021e-06 7.8245e-06 0.0003351006 9.62061e-05 -0.1242493059 0.0661395309
210298740.0 -0.7734705267 0.3460193573 0.000192272 9.9547e-05 -0.0001220855 0.0001025616 -0.1241701596 0.0668326818
215298710.0 -0.7702893982 0.3541932432 6.96368e-05 -0.000170192 -1.20997e-05 0.0001811103 -0.1240086027 0.0679268694
220298680.0 -0.7668057571 0.362136552 -1.74395e-05 -0.0001257031 0.0001175479 5.8125e-05 -0.1231293006 0.0686428084
225298650.0 -0.7625851212 0.3705374035 3.32226e-05 -9.18163e-05 9.01525e-05 -7.44732e-05 -0.1229135189 0.0698489504
230298620.0 -0.7584955972 0.3790824567 0.0001222752 7.41844e-05 3.53935e-05 0.0001369641 -0.1219171649 0.0701942114
235298590.0 -0.7546191979 0.3871661362 2.22578e-05 -4.0485e-06 9.85769e-05 1.48438e-05 -0.1215607949 0.0710664726
240298560.0 -0.7504702639 0.3949903615 9.0389e-05 -0.0001367125 0.0002164321 7.74302e-05 -0.121247142 0.0721151995
245298530.0 -0.7461425644 0.4027349651 -5.67916e-05 0.0002138057 -5.52012e-05 -0.0001571725 -0.1204094924 0.0729409971
250298500.0 -0.7425684382 0.4103925704 0.0001269351 0.0003104379 4.5136e-05 -8.16157e-05 -0.1196284832 0.074295027
255298470.0 -0.7375321531 0.4184036422 0.0002009347 0.0002353468 0.0002348228 0.000115407 -0.1196070808 0.0750257506
260298440.0 -0.7337874538 0.4262675666 0.0001301475 -1.08599e-05 0.0001613336 0.0001371594 -0.1189724312 0.0758222007
265298410.0 -0.7290584095 0.4342745667 0.0001974988 0.0002638384 9.66114e-05 0.0001582068 -0.1184174535 0.0766995932
270298380.0 -0.7246296326 0.441841597 4.79301e-05 -8.0524e-05 0.0001042934 7.03414e-05 -0.1174141454 0.0774142873
275298350.0 -0.7189028271 0.4489229822 0.0001036116 -3.4738e-06 0.0001242022 -2.19815e-05 -0.1167634106 0.0788264329
280298320.0 -0.7150270421 0.456777694 7.76877e-05 0.000174816 9.2926e-05 -3.62803e-05 -0.1165848921 0.0794567458
285298290.0 -0.7103810144 0.4650827404 3.07036e-05 0.0001429889 8.07574e-05 0.0002372453 -0.1160451826 0.0809404438
290298260.0 -0.7053121756 0.4711858333 0.0002359481 2.60455e-05 0.0001170105 5.4361e-06 -0.1150673951 0.0820630244
295298230.0 -0.7004139163 0.4788132858 3.07671e-05 0.0001025905 9.1209e-05 8.04102e-05 -0.1146906884 0.0831405256
300298200.0 -0.6948644715 0.4869611734 -3.53839e-05 -1.27206e-05 8.25239e-05 0.0001243944 -0.1140559507 0.0842098951
305298170.0 -0.6902147534 0.4941582354 0.0001880367 -7.40028e-05 8.33981e-05 -3.12537e-05 -0.1129023126 0.0853520994
310298140.0 -0.6848039529 0.5008272042 5.84176e-05 0.0001749779 0.0001200055 0.0001199308 -0.1122737129 0.08642775
315298110.0 -0.6796534405 0.5084294438 -2.13042e-05 0.0001948798 9.20335e-05 4.98291e-05 -0.1116544696 0.0874348671
320298080.0 -0.6740985492 0.5158919558 0.0002216911 2.3534e-05 3.3218e-05 0.0001122869 -0.1108038804 0.0882545299
325298050.0 -0.6685043241 0.5219518538 0.0003313289 -9.70218e-05 0.0001476329 -0.00010002 -0.1103661937 0.0891706603
330298020.0 -0.6625968625 0.529647333 0.0001438263 0.0002227483 0.0001663877 0.0001316003 -0.1095713063 0.0905456819
335297990.0 -0.6569904983 0.5363240795 0.0001712604 5.95339e-05 0.0002321585 0.0001002435 -0.1090972378 0.0913222317
340297960.0 -0.6520548059 0.5427709456 0.0001236027 0.0003823681 3.1745e-06 0.000161576 -0.1081432364 0.0923611271
345297930.0 -0.6462243191 0.5488815835 0.0001630524 0.0002284319 0.0001567752 -4.59615e-05 -0.1079403094 0.0936187517
350297900.0 -0.6399883718 0.5563464814 0.0001159747 0.0001570078 0.0002745852 -3.5055e-05 -0.1070356468 0.0946063309
355297870.0 -0.6343252689 0.5629747638 0.0003169309 -5.51731e-05 4.46833e-05 0.0001417492 -0.1065201648 0.0962149986
360297840.0 -0.6285309764 0.5692510262 2.35294e-05 0.0001053023 -3.9074e-06 8.494e-06 -0.1057256829 0.0973248517
365297810.0 -0.6223963318 0.5755759347 6.1549e-05 0.0001148096 0.0001815924 0.000189183 -0.1048596878 0.0983855054
370297780.0 -0.6159164923 0.5816476771 -9.03734e-05 0.0001654508 5.26159e-05 -0.0001351093 -0.1043255883 0.0993626671
375297750.0 -0.6103515037 0.588151466 -7.04316e-05 1.7932e-05 9.36017e-05 0.0001433345 -0.103317041 0.1009866051
380297720.0 -0.6037837053 0.5948436405 3.61577e-05 7.6854e-05 0.0003711648 0.0001518223 -0.1023467463 0.1022245448
385297690.0 -0.5982910777 0.601153824 4.99754e-05 1.4164e-05 0.0002003777 3.23583e-05 -0.1019163369 0.1032347935
390297660.0 -0.5910672233 0.6070595337 0.0003176165 0.0002001016 0.0001671589 0.0003478911 -0.1010479654 0.1042676833
395297630.0 -0.5856227786 0.6135756201 0.0002793695 0.0003755618 8.41174e-05 0.0001940327 -0.1002393837 0.105413538
400297600.0 -0.5787194032 0.6190175569 0.000101893 -6.89973e-05 0.0001501052 -4.88972e-05 -0.0993160489 0.106789235
405297570.0 -0.5724768525 0.6251274552 9.37724e-05 3.84506e-05 -2.8506e-06 6.54127e-05 -0.0986295338 0.1080452586
410297540.0 -0.5657494589 0.6308524607 0.0003946024 7.51276e-05 0.0001385633 0.0002127323 -0.0978804085 0.1091870107
415297510.0 -0.5593196592 0.6368147847 0.0001732025 -1.06251e-05 0.0002237849 -2.97472e-05 -0.0968714867 0.1107147469
420297480.0 -0.5520776093 0.6420698214 0.0001154934 0.0001782065 0.0001036968 0.0002930227 -0.0961652828 0.111123294
425297450.0 -0.5454250924 0.6482555501 6.0876e-06 0.000113923 0.0001451936 -4.8845e-06 -0.0951373719 0.1123769059
430297420.0 -0.5391384301 0.6532224511 0.000223275 -0.0002112971 0.0002919066 4.06753e-05 -0.0943634517 0.1138116076
435297390.0 -0.5320860832 0.6593412757 0.0002801277 0.000186483 0.0001356463 0.0001401908 -0.093096239 0.1146312052
440297360.0 -0.5249949059 0.6641985684 0.0002882202 0.0001603199 0.0002020804 0.0001716297 -0.092433525 0.1156638568
445297330.0 -0.5179541946 0.6695616098 4.88733e-05 -6.43096e-05 0.0001916238 8.41996e-05 -0.0913848995 0.1166586765
450297300.0 -0.5105966356 0.6743654243 0.0001809386 2.52932e-05 0.0001745708 0.000207661 -0.0908041913 0.1178005197
455297270.0 -0.5038836381 0.6802090138 0.0003483423 -0.0001355367 0.0003872396 5.33421e-05 -0.089686578 0.1188456499
460297240.0 -0.4978344325 0.6853105985 4.3595e-06 0.0001758813 3.61669e-05 -1.94425e-05 -0.0882122997 0.1199927672
465297210.0 -0.4899004026 0.6907209545 0.0002686325 9.02592e-05 0.0001603381 2.22781e-05 -0.0876082887 0.1207736392
470297180.0 -0.4828084001 0.6948790649 0.0002266327 0.0001443747 0.0001955636 8.87184e-05 -0.0868422708 0.1222712236
475297150.0 -0.4757427674 0.7006094074 0.0001077775 6.91437e-05 4.30196e-05 0.0001220744 -0.0852980969 0.1231023055
480297120.0 -0.4686821893 0.7049272207 0.0004261776 9.49077e-05 0.000241796 -4.8e-06 -0.0846245307 0.1244100039
485297090.0 -0.460852042 0.7092898957 0.0001000801 0.0001134992 0.0002650657 2.36666e-05 -0.0837802219 0.1251287783
490297060.0 -0.4542594243 0.7137928025 -5.215e-05 0.0001976994 0.0003240546 0.0001548224 -0.08277214 0.125801032
495297030.0 -0.447084755 0.7188816572 0.0002376141 4.63233e-05 8.8866e-06 -4.5255e-05 -0.0814755699 0.12680978
500297000.0 -0.4384843053 0.7237961969 0.0002306046 6.42715e-05 0.0002777021 1.5412e-06 -0.080587938 0.1280861454
505296970.0 -0.4313984362 0.7268801095 7.88166e-05 6.23618e-05 0.0002716486 -8.84464e-05 -0.0798434281 0.1293127042
510296940.0 -0.4240461065 0.7317706194 0.0001657608 0.0001286504 0.000208609 -2.45959e-05 -0.0782417236 0.1300812248
515296910.0 -0.416539256 0.7366138111 0.0001396849 -5.6894e-06 0.0001552163 0.000112754 -0.0770865193 0.1308670707
520296880.0 -0.4091270377 0.7403975967 0.0003440096 -4.53204e-05 0.0004552609 8.1338e-06 -0.0761778556 0.1318339805
525296850.0 -0.4017926453 0.7445832156 0.0002216352 0.0002121602 0.0003118355 -2.48406e-05 -0.0748132667 0.1326770284
530296820.0 -0.3937741381 0.7480667103 0.0001136416 -0.0001173719 5.54351e-05 2.982e-05 -0.0743409631 0.13358847
535296790.0 -0.3858800124 0.75269982 7.2269e-06 -1.72828e-05 0.0003432755 -1.18505e-05 -0.0730885728 0.1342600027
540296760.0 -0.378009423 0.756308432 0.0005310266 0.0001769905 0.0003141628 0.0001921132 -0.0718663992 0.1355484337
545296730.0 -0.3714567803 0.7593539656 6.14109e-05 0.0001018417 0.0001559043 0.0001363461 -0.0706002346 0.1359139362
550296700.0 -0.3633585599 0.7636827576 0.0004197023 -0.0001857307 0.0003041824 3.82022e-05 -0.0694227302 0.1371454476
555296670.0 -0.3548501655 0.7668075067 0.0001488911 0.0001455926 0.0002176785 9.10841e-05 -0.0683329165 0.1381124139
560296640.0 -0.3474840339 0.7709005196 -0.000127191 -0.0001364616 0.0004393782 -0.0001949829 -0.0669478413 0.1388222112
565296610.0 -0.3393383558 0.773991013 0.0003155569 -2.73983e-05 0.0002491778 -9.80879e-05 -0.0660442585 0.1398315597
570296580.0 -0.3312495035 0.7775790941 -3.61085e-05 2.26557e-05 8.93763e-05 8.78586e-05 -0.0647768381 0.1407093824
575296550.0 -0.3239371149 0.7809590992 0.0001389154 7.89581e-05 0.0001676064 3.27983e-05 -0.0634088787 0.1411554222
580296520.0 -0.3159166691 0.7842241068 0.0002103397 -1.9136e-05 0.000228775 -0.0001066761 -0.0617325878 0.1424334233
585296490.0 -0.308076676 0.7863703332 0.0003143002 0.0001047817 0.000244532 1.93068e-05 -0.0611974172 0.1423515741
590296460.0 -0.2997185908 0.7893984652 0.0003541135 7.21553e-05 0.0001220084 9.31309e-05 -0.0596037774 0.1438373752
595296430.0 -0.2920555496 0.7934369123 0.0004240339 -9.3321e-05 0.0003545193 9.20615e-05 -0.0587434451 0.1442157744
600296400.0 -0.2835093322 0.7956059741 0.0003266126 4.09239e-05 0.0003820157 9.76252e-05 -0.0570738768 0.1453794167
605296370.0 -0.2753445907 0.7990957082 0.0001939495 0.0001111182 0.000270633 5.77329e-05 -0.0557033239 0.1460463924
610296340.0 -0.2675888355 0.8013773189 0.0003488969 0.0001217489 3.45609e-05 0.0001713375 -0.0546046144 0.1469047168
615296310.0 -0.259280734 0.8047394876 0.000283852 -2.82634e-05 0.0002448139 -4.96057e-05 -0.0533024863 0.1474609579
620296280.0 -0.2505253195 0.8062123395 0.0002769649 -0.0001378311 0.0001039664 -0.0001572829 -0.0519808423 0.148024909
625296250.0 -0.2428537778 0.8093363858 0.0001127545 -7.2939e-06 0.0001930111 0.0001112945 -0.0504809033 0.1489999136
630296220.0 -0.2339371166 0.8119326478 9.40938e-05 -1.94535e-05 0.0001707464 0.0002996361 -0.0493199616 0.1497618925
635296190.0 -0.2265409639 0.8140346385 0.0002075028 2.74642e-05 0.000301879 0.0001656928 -0.0479868971 0.1502741984
640296160.0 -0.2179875393 0.8155900339 0.0002631723 -0.0001452282 0.0001012762 -0.0001422335 -0.0466034438 0.1507070662
645296130.0 -0.2101667158 0.8180090655 4.8218e-05 0.0002895323 0.0001730358 6.48907e-05 -0.0453570849 0.1513386902
650296100.0 -0.2014263285 0.8202093284 0.0003489122 -9.96029e-05 0.0001673686 8.5231e-06 -0.0443192041 0.1525064076
655296070.0 -0.1930314455 0.8219745366 0.0002030547 5.11109e-05 0.000258944 6.99344e-05 -0.0429234138 0.1531751904
660296040.0 -0.1851628173 0.8242302622 0.0002007685 -9.61666e-05 0.0002748645 -6.2935e-06 -0.0413650579 0.1531956973
665296010.0 -0.1765152137 0.8260120078 0.0001912278 1.98273e-05 0.0004047302 8.53454e-05 -0.0398585993 0.154123689
670295980.0 -0.1680199795 0.8274925654 0.0002234372 -6.9728e-05 0.000292374 -0.000154939 -0.0390173339 0.1544528649
675295950.0 -0.1598747829 0.8289325018 3.87942e-05 -3.82844e-05 0.0003571164 -0.0001266351 -0.0374058324 0.1552038234
680295920.0 -0.1515465222 0.8306616432 0.0002014511 -0.0001011644 0.0004221897 0.0001576157 -0.0359554611 0.1558883082
685295890.0 -0.1428121281 0.8322286356 0.0002441804 -0.0001047519 0.0001508451 -0.0001079546 -0.034369442 0.1561210518
690295860.0 -0.1343022797 0.8339483542 0.0004036408 0.000220424 0.0003117698 -2.31126e-05 -0.0330579108 0.1566215481
695295830.0 -0.1259679356 0.8339853137 0.0002427019 -0.0001507505 0.0003695667 -9.2688e-06 -0.0318796015 0.1575423074
700295800.0 -0.1180350214 0.8354985189 0.0002599328 3.49213e-05 0.0004911114 -2.24301e-05 -0.0301531279 0.1576004794
705295770.0 -0.1088763606 0.8371479304 0.0003003874 1.95802e-05 0.0002684367 -0.0001968871 -0.0289464762 0.1585190787
710295740.0 -0.1011993021 0.8385730302 0.0002615228 -0.0001991809 0.0003765705 -6.12647e-05 -0.0277880955 0.1591484569
715295710.0 -0.093358468 0.839159316 0.0003654197 -9.51869e-05 0.0001657727 0.0003618649 -0.0259501637 0.1592982151
720295680.0 -0.084455037 0.8391534007 0.0003772799 8.71627e-05 0.0001741041 3.57087e-05 -0.0246521414 0.1599448106
725295650.0 -0.07500786 0.8411643023 0.000187629 -1.85704e-05 0.0003343234 3.2838e-06 -0.0232784298 0.1601123251
730295620.0 -0.0672686154 0.8416172635 0.0003283042 1.26185e-05 0.0003232194 0.0001287174 -0.0218190396 0.1606807221
735295590.0 -0.0585094808 0.8422835395 0.0001293435 0.0001746103 0.000261829 -0.0001713148 -0.0204146771 0.161222206
740295560.0 -0.0500839487 0.8426406312 0.0001572418 -8.18214e-05 0.000262528 -6.89387e-05 -0.0187686632 0.1612731811
745295530.0 -0.0417950621 0.8426274529 0.000538651 4.05406e-05 0.0001659025 -1.75807e-05 -0.0173175895 0.1617379275
750295500.0 -0.0339489003 0.8434827676 0.0002758397 8.8496e-05 0.0003491751 -0.0001120493 -0.0160449678 0.1615589221
755295470.0 -0.023927514 0.843750395 0.0003295552 -0.0001578352 0.0003530427 -7.88603e-05 -0.0148505285 0.1626619023
760295440.0 -0.0166319737 0.8435272397 0.0004465221 7.37383e-05 0.0003883403 7.39198e-05 -0.013224598 0.162726586
765295410.0 -0.0081610876 0.8438790089 0.0003340889 -0.000241968 0.0005791846 1.31746e-05 -0.0114014648 0.1634974683
770295380.0 0.0004910155 0.8440767956 0.0001791777 -7.31817e-05 0.0003284476 -3.0217e-05 -0.0097180494 0.1635245245
775295350.0 0.0091683705 0.8440233543 0.000380523 -0.0001143869 0.0004031908 -0.0002361653 -0.0088520129 0.1637110297
780295320.0 0.0180301122 0.8429209008 0.0001914445 -0.0001180432 0.0002425686 1.23782e-05 -0.0071202228 0.1644585979
785295290.0 0.026395255 0.8443129779 0.0001829081 -2.66365e-05 0.0002511045 -0.0002299476 -0.0057966388 0.1647261603
790295260.0 0.0344377725 0.8431421298 0.000291516 -8.63118e-05 0.0003685919 -0.0001266715 -0.004020928 0.1645911279
795295230.0 0.0425594872 0.8433576858 0.0003569211 0.0001668703 0.000193217 7.66896e-05 -0.0025052232 0.1650988766
800295200.0 0.0514332697 0.8425947618 0.0002098709 -0.0001477996 0.0002093626 -0.0001385967 -0.0009394342 0.1653224943
805295170.0 0.0594925843 0.8421732172 0.0003762472 -0.0001064365 0.0003329572 3.04221e-05 0.000329297 0.1653491116
810295140.0 0.0679835133 0.841224094 0.0001280174 -0.0001089536 0.0002058043 -7.89984e-05 0.0023596885 0.1658161206
815295110.0 0.0770440568 0.8403968619 7.0678e-05 -4.37799e-05 0.0004697661 2.25764e-05 0.003485539 0.1660297762
820295080.0 0.0852701195 0.8391459595 0.0003320865 0.0001512003 0.000300741 5.81012e-05 0.0048900989 0.1656788946
825295050.0 0.0939297553 0.8384256793 0.0002245646 -0.0001873255 0.0002387568 2.52894e-05 0.0069343969 0.1658611501
830295020.0 0.1024415746 0.8378623911 0.0001391729 -0.0002096218 0.0002179558 5.88142e-05 0.00801702 0.1662447166
835294990.0 0.109744785 0.8369825891 0.0003847292 -1.82645e-05 0.0002101699 -0.0001090668 0.0099496355 0.1664504846
840294960.0 0.1184380204 0.8350633674 0.0002683846 -0.0002116418 0.0001403232 -0.0002794351 0.0113475604 0.1664834793
845294930.0 0.1268264426 0.8343257164 0.0002560517 -0.0002916041 0.0001912436 -3.55652e-05 0.012827548 0.1666071487
850294900.0 0.1349165735 0.8326054799 0.0004579542 -0.0002145743 0.000306717 0.0001574561 0.0144213792 0.166803966
