!Created with skrf (http://scikit-rf.org).
# Hz S RI R 50.0 
!freq ReS11 ImS11 ReS21 ImS21 ReS12 ImS12 ReS22 ImS22
300000.0 -0.209214764 -0.090166074 0.0001298372 0.0014593211 0.0004051414 0.0010059055 -0.7698498927 -0.1824159927
5299970.0 -0.2154203846 0.0072650178 -0.0001888372 2.55048e-05 3.6103e-05 2.26277e-05 -0.7849920452 -0.0096344567
10299940.0 -0.211827981 0.0201818664 9.20996e-05 -0.0001042881 -6.58659e-05 1.58253e-05 -0.7875307871 -0.0054307078
15299910.0 -0.2064097198 0.0301812519 -0.0001422322 8.42008e-05 -0.0001478156 5.59696e-05 -0.7930509544 -0.0023027438
20299880.0 -0.2008009147 0.0383203902 0.0001447029 -4.85768e-05 -0.0001581986 0.0002598193 -0.7998058602 0.0018111592
25299850.0 -0.1940684825 0.0447187388 5.25588e-05 0.0002689433 -0.0001189707 -0.0001772012 -0.8062177429 0.0080938145
30299820.0 -0.1877293489 0.0497298454 -1.6982e-05 2.53085e-05 0.000100372 0.0001819327 -0.8121711107 0.015709452
35299790.0 -0.18132793 0.0533889574 7.54548e-05 0.0001913494 -0.0002264768 -2.62486e-05 -0.8170935342 0.0246136067
40299760.0 -0.1752911962 0.0562549735 -0.000265787 -5.18074e-05 -0.0002105153 8.31261e-05 -0.8209950192 0.033837462
45299730.0 -0.1695916821 0.0581192423 4.65523e-05 -7.73581e-05 -0.0002957218 -4.04105e-05 -0.8248182363 0.0434285888
50299700.0 -0.1642141797 0.0594436452 -8.2119e-06 0.0001415881 -6.60338e-05 0.0001809309 -0.8262560056 0.0540360437
55299670.0 -0.1596302984 0.0605987837 3.15066e-05 -0.0001058785 3.91018e-05 -0.00010346 -0.8287875547 0.0638289835
60299640.0 -0.1552339507 0.0610692556 5.136e-07 1.82302e-05 -2.82268e-05 0.0001038851 -0.8296669474 0.0740170369
65299610.0 -0.1510689484 0.0616386474 0.0001336039 9.33037e-05 -6.70932e-05 -7.98303e-05 -0.8308716305 0.0838398338
70299580.0 -0.1479197315 0.0616494993 -0.0001269004 -6.42104e-05 -4.83642e-05 -5.68833e-05 -0.8314103898 0.0938714607
75299550.0 -0.1445464217 0.0615720161 0.0001263391 -0.0001620912 0.0001039732 1.88662e-05 -0.83089773 0.1042183737
80299520.0 -0.1416859746 0.0613065607 -4.66091e-05 0.0001872204 -0.0001404551 1.83587e-05 -0.83110555 0.113859481
85299490.0 -0.1388865557 0.0612169948 -9.0905e-05 0.000129772 8.5305e-06 -7.44462e-05 -0.8300089015 0.1231626579
90299460.0 -0.1364500778 0.0610858566 0.0001185617 0.0002480686 0.0002617645 5.10051e-05 -0.8287536112 0.1326307164
95299430.0 -0.134355375 0.0609100804 7.97348e-05 8.99986e-05 -0.0001994774 8.14915e-05 -0.8281559373 0.1424162485
100299400.0 -0.1322944944 0.0607508932 0.0001024203 -0.0002025764 -5.7113e-06 9.49639e-05 -0.8271049957 0.1516223855
105299370.0 -0.1301944323 0.060099375 -0.0001967882 3.99394e-05 -0.0001345776 0.0001288376 -0.8258882178 0.160863305
110299340.0 -0.1287743369 0.060167489 1.4314e-06 -0.0001637385 -4.06052e-05 -0.000143784 -0.8246336705 0.1698475819
115299310.0 -0.127359283 0.0603260232 8.59507e-05 -0.0001096218 6.19238e-05 0.0001157727 -0.8233119768 0.1790464993
120299280.0 -0.126209588 0.0601690621 -0.0001868954 -4.1875e-06 0.000209466 5.1554e-05 -0.8212811491 0.1881633704
125299250.0 -0.1249852489 0.0598243137 8.43564e-05 6.3481e-05 0.0001046365 -9.2275e-05 -0.8200820819 0.1970553707
130299220.0 -0.1240268855 0.0598786418 -7.49843e-05 -6.5558e-06 6.42691e-05 -0.000121784 -0.8178109749 0.2057219946
135299190.0 -0.1226378965 0.0601393152 2.44631e-05 5.48344e-05 -3.9383e-06 0.0001720182 -0.8162567792 0.2151808671
140299160.0 -0.1220657269 0.06012272 5.10398e-05 -6.28339e-05 0.0001481285 7.62799e-05 -0.8141170609 0.223819966
145299130.0 -0.1210831129 0.0605157418 6.92864e-05 7.84293e-05 0.0001251081 5.28435e-05 -0.8115901033 0.2325227239
150299100.0 -0.1199241264 0.0605782565 7.2762e-05 0.0001096157 -2.27315e-05 7.86626e-05 -0.8097852184 0.2414282312
155299070.0 -0.1192526255 0.0611974287 -2.39001e-05 -3.66731e-05 0.000170879 5.21704e-05 -0.8072414866 0.2508617914
160299040.0 -0.1185718962 0.0617125372 0.0002127484 0.0001236937 0.0001133657 0.0002594784 -0.8046577097 0.2589144863
165299010.0 -0.1181174788 0.0617709373 6.2339e-05 9.55764e-05 0.0001810585 0.0001036068 -0.8018040912 0.2671072172
170298980.0 -0.1176074887 0.0623043374 8.96848e-05 0.000142638 9.21883e-05 0.0001429207 -0.7994406648 0.2756414272
175298950.0 -0.1167501057 0.0626777539 0.0001055119 2.00041e-05 1.33713e-05 2.02748e-05 -0.7966483655 0.2842851697
180298920.0 -0.1163590486 0.0632728342 0.0001487989 -5.81949e-05 0.0001989477 7.48713e-05 -0.7938411679 0.2932889457
185298890.0 -0.11584737 0.0637229796 -0.0001842841 0.0001826195 8.97865e-05 -0.0001832745 -0.7906362549 0.3013695917
190298860.0 -0.1151865196 0.0644362252 0.0002190816 -6.28632e-05 5.91868e-05 -1.87323e-05 -0.7873715324 0.3099478761
195298830.0 -0.1143217199 0.0653769847 0.0001133078 0.0003666873 0.0001602212 0.0001130283 -0.7839940009 0.3179468087
200298800.0 -0.1136883661 0.0654578118 -5.9678e-06 0.0001156348 8.41743e-05 2.45569e-05 -0.7809715664 0.3266494469
205298770.0 -0.1139182147 0.0665883547 0.0001375504 0.0001644649 0.0002061686 0.0001808413 -0.7777481019 0.3351991277
210298740.0 -0.1130545624 0.0671242343 0.0001725621 -1.0908e-05 0.000168056 4.55119e-05 -0.7743626877 0.3435285062
215298710.0 -0.113077689 0.0678514649 0.0001751421 0.0001948284 3.25771e-05 0.000208401 -0.7709547811 0.3514580602
220298680.0 -0.112019623 0.0684041461 -2.71762e-05 0.0001879303 3.3925e-06 -0.0001894747 -0.7670624392 0.3594054854
225298650.0 -0.111526225 0.0692678467 0.000284834 -3.81352e-05 0.0001793984 4.3483e-05 -0.7630903043 0.3673332473
230298620.0 -0.1111762126 0.0704926622 -2.81406e-05 5.54855e-05 8.90903e-05 0.0001214079 -0.7589128853 0.3756653454
235298590.0 -0.1109867542 0.0712538202 0.0001384929 0.000264584 -6.35154e-05 3.35215e-05 -0.7551254391 0.3833775181
240298560.0 -0.1103668001 0.0719256757 0.000149709 0.0001007403 0.0001174559 -2.23895e-05 -0.7514601932 0.3911235781
245298530.0 -0.1098517227 0.0725892624 -6.23056e-05 -0.0001870577 6.23299e-05 -0.0001414654 -0.7469886897 0.3993812531
250298500.0 -0.1094636362 0.0737455526 8.16044e-05 1.6228e-06 -2.33954e-05 -0.0001813632 -0.7428338974 0.4070484577
255298470.0 -0.1089444146 0.0746464242 5.88844e-05 0.0002088223 -7.84361e-05 7.37908e-05 -0.7387361612 0.41438257
260298440.0 -0.1085974856 0.0755229162 0.0003242947 4.75526e-05 -0.0001504673 2.0938e-05 -0.734328864 0.4219842356
265298410.0 -0.1081993473 0.0764761738 8.87368e-05 -4.71377e-05 0.0001332347 7.92108e-05 -0.7298971915 0.4301760811
270298380.0 -0.1075198724 0.0773912438 -4.03355e-05 7.07433e-05 2.41432e-05 2.5299e-06 -0.7250294533 0.4376903374
275298350.0 -0.1073029134 0.0782766016 -1.5539e-05 2.9942e-06 0.0001988441 0.0002283428 -0.7205503048 0.4456987571
280298320.0 -0.1068791443 0.0795376331 -7.6613e-05 3.38225e-05 0.0001413219 3.64795e-05 -0.7160476523 0.4526155761
285298290.0 -0.1061518168 0.0803135484 -1.23785e-05 -7.0225e-05 3.76982e-05 2.95645e-05 -0.7122096513 0.4607237111
290298260.0 -0.1055019831 0.0814129728 -2.21798e-05 0.000246223 0.0001597699 -5.18276e-05 -0.7064817575 0.4677131728
295298230.0 -0.1052054296 0.0821056546 6.70955e-05 6.8245e-06 1.421e-07 -0.0001117435 -0.7012076928 0.4749242476
300298200.0 -0.1048251242 0.0831435244 4.4995e-06 -2.695e-07 0.0003429926 0.0001894159 -0.6967732718 0.4822625996
305298170.0 -0.1041161531 0.0839745496 0.0001262888 -3.31828e-05 0.0001112276 -0.0001137585 -0.6915731665 0.4894976586
310298140.0 -0.103334071 0.0845204112 2.051e-07 0.0001066622 0.0001357047 4.11338e-05 -0.6862477043 0.4970122583
315298110.0 -0.1031091128 0.0854730956 0.0001708305 -0.0001411295 0.0001779667 0.000155523 -0.6811359913 0.5039070066
320298080.0 -0.1025368097 0.0866682759 0.0001095258 0.000234389 0.0001981703 1.09164e-05 -0.6760598463 0.5101986789
325298050.0 -0.1024276598 0.0872423992 0.0001250137 0.0003179279 0.0001645679 0.0001424509 -0.6698943882 0.5176516106
330298020.0 -0.1019170633 0.088330221 -6.025e-06 3.61909e-05 0.0002374359 0.0001498346 -0.6652466802 0.5243267744
335297990.0 -0.1013447467 0.0892733538 0.0001359553 0.0001505432 0.0001463583 0.0002487649 -0.6594195626 0.531623476
340297960.0 -0.1010920514 0.0905823138 -0.0001539304 -0.0001260558 0.0001892567 0.0001767786 -0.6542160248 0.5382984273
345297930.0 -0.1004450096 0.0914760866 0.0001124303 0.0001923049 0.0001472778 7.62124e-05 -0.6486170345 0.5448048363
350297900.0 -0.0999574231 0.0924139726 8.0403e-06 0.0002104649 7.8776e-05 -5.39516e-05 -0.6435401967 0.5510927153
355297870.0 -0.0993133322 0.0934484233 0.0004323352 5.19672e-05 0.0002006266 0.0002217612 -0.6369813077 0.5586565942
360297840.0 -0.0985604826 0.0943435705 -0.0001775871 -5.2853e-06 3.03248e-05 6.37777e-05 -0.6308726586 0.5648346483
365297810.0 -0.0978494156 0.0954772737 2.04046e-05 -6.40163e-05 -6.48894e-05 0.0003341752 -0.6256844665 0.571442272
370297780.0 -0.0973544228 0.0961609207 0.0001093192 6.06628e-05 0.0001674043 5.99206e-05 -0.6192697481 0.5772304459
375297750.0 -0.0966564157 0.0974579523 2.40893e-05 -8.78739e-05 0.0002612551 -0.0001116747 -0.6132143416 0.5837658327
380297720.0 -0.0961127887 0.0987144145 0.0001148073 0.0001721841 2.51855e-05 0.0001179557 -0.6069523983 0.5906118596
385297690.0 -0.095273763 0.099560671 1.02736e-05 0.0001954101 -1.36705e-05 0.0001486414 -0.600944257 0.5964132534
390297660.0 -0.0944651074 0.1002144504 0.0001865178 0.0001805066 0.0001654857 2.7829e-05 -0.5949317756 0.6017524233
395297630.0 -0.0937095536 0.101307627 0.0002045536 0.0001741671 0.0002763944 0.0002284993 -0.5880013325 0.6074856642
400297600.0 -0.0933494616 0.1024065827 -7.40266e-05 -1.92456e-05 0.0001094023 0.0001037619 -0.582445554 0.614433378
405297570.0 -0.0923831362 0.1030635281 0.000119462 9.68584e-05 0.0001823297 0.0001832084 -0.5755264866 0.6200056999
410297540.0 -0.0913968007 0.1043353612 7.50024e-05 0.0002858665 0.0001000684 0.0001731017 -0.569183266 0.6256203738
415297510.0 -0.0909548836 0.1051165359 0.0001376999 -1.00208e-05 2.65505e-05 0.0001301484 -0.5625770522 0.6313287373
420297480.0 -0.0900508314 0.1056811936 0.0001244503 3.97e-05 7.11421e-05 9.12594e-05 -0.5561088369 0.6376415236
425297450.0 -0.0889539739 0.1069187092 5.57278e-05 -0.0001561932 0.0001941582 5.11256e-05 -0.5494492996 0.6422278126
430297420.0 -0.0882815095 0.1076809069 0.0002216789 -5.856e-07 0.0001209526 -0.0001057882 -0.5434330851 0.6481247076
435297390.0 -0.0872967402 0.108823801 0.0001809376 4.65755e-05 1.4156e-05 6.2478e-05 -0.5368219753 0.6541245428
440297360.0 -0.0863534188 0.1094421705 -0.0001278923 0.000144268 9.53253e-05 3.22739e-05 -0.5303438653 0.6594426179
445297330.0 -0.0853392161 0.1103817388 2.10058e-05 -0.0001167231 0.0001630641 0.000122481 -0.5230687752 0.6648943629
450297300.0 -0.0844622607 0.1112138129 0.0002579604 8.01238e-05 0.0002921686 5.66533e-05 -0.5157782095 0.6697073594
455297270.0 -0.083801381 0.1121651322 4.42823e-05 0.0001483711 0.0002020878 1.73698e-05 -0.5091321779 0.6752653551
460297240.0 -0.0826208713 0.1131566202 0.0002418236 0.000167388 0.0001130621 0.0001215105 -0.5024198571 0.68034909
465297210.0 -0.0813050265 0.1139196929 0.0001884572 4.74678e-05 0.0001564803 -1.83782e-05 -0.4948448215 0.6858335454
470297180.0 -0.0805356375 0.1149872355 0.0003750253 4.42155e-05 2.35444e-05 -2.4258e-05 -0.4879245024 0.6901851686
475297150.0 -0.0797434193 0.1157402674 -3.02662e-05 7.74564e-05 -0.0001844293 -1.65195e-05 -0.4814865245 0.6950922114
480297120.0 -0.0782331146 0.1167214248 -2.05899e-05 -5.25213e-05 8.06842e-05 0.0001750569 -0.4743102836 0.7005293302
485297090.0 -0.0775143358 0.117751986 0.000235574 9.5173e-06 0.0002201823 -0.0001318891 -0.4673435991 0.7050030517
490297060.0 -0.0760852355 0.1181661236 7.21222e-05 4.79226e-05 0.0003531255 1.12287e-05 -0.4598534645 0.7087424967
495297030.0 -0.075066898 0.1190919184 0.0001271504 -5.33153e-05 0.0001741561 1.211e-06 -0.4522383404 0.7139052537
500297000.0 -0.0742506833 0.1200518547 0.0004118321 2.51246e-05 0.0002389445 9.23879e-05 -0.4452914304 0.7187346844
505296970.0 -0.0728915599 0.1206542691 7.88114e-05 7.39637e-05 4.7513e-06 -1.68783e-05 -0.4373022753 0.7226472073
510296940.0 -0.0716615724 0.1216136257 0.0002503469 4.43493e-05 1.94464e-05 0.0001158271 -0.4298932747 0.7275059037
515296910.0 -0.0707335995 0.1224746522 0.0002509267 9.26014e-05 0.0003352264 -3.51008e-05 -0.4229931062 0.7309048495
520296880.0 -0.0691977837 0.1231079786 -1.50993e-05 -6.9823e-06 0.0003580168 0.0002293918 -0.4149518287 0.7358922822
525296850.0 -0.0685087112 0.124032686 -2.15557e-05 1.32302e-05 0.0002036927 1.73348e-05 -0.4083046884 0.7394506258
530296820.0 -0.0674148959 0.1250339441 0.0001443916 -0.0002469339 0.0003108883 -7.14e-05 -0.4002347191 0.7434637916
535296790.0 -0.0658004492 0.1259111541 0.0003633443 0.0001226734 1.49527e-05 0.0001305358 -0.3931718996 0.7480648845
540296760.0 -0.064569973 0.1266049944 0.000124096 8.41576e-05 0.0001359952 2.27532e-05 -0.3849442249 0.7515442009
545296730.0 -0.0635596049 0.1276923106 0.0003672048 7.93962e-05 0.0001101494 8.61355e-05 -0.3776126923 0.7556419173
550296700.0 -0.0619866239 0.1280801895 0.000221801 3.53833e-05 0.0001841747 0.0001715176 -0.3700650477 0.7588281517
555296670.0 -0.0609446764 0.1291503908 0.0003253892 -0.0001038306 0.0002711909 -2.00184e-05 -0.3623424127 0.7624806458
560296640.0 -0.0595462262 0.1298235411 0.0002701248 5.12182e-05 0.00014704 -3.7095e-06 -0.3543052838 0.766422222
565296610.0 -0.058600364 0.1306726812 0.0001922904 -0.0001210002 0.0002168211 4.9676e-06 -0.3466555707 0.7701918199
570296580.0 -0.0571712319 0.1315612689 0.0002210424 -0.0001716723 0.0001543856 0.0003660649 -0.3389267628 0.7728284366
575296550.0 -0.0557705178 0.1320575256 0.000202978 -1.07449e-05 0.0002126901 0.0001822407 -0.3306342362 0.7762487563
580296520.0 -0.0547210384 0.1332604078 0.0002405016 0.0001813849 -3.28961e-05 0.000196306 -0.3230557995 0.7797482733
585296490.0 -0.0531902286 0.1340500983 0.0001319147 2.64378e-05 0.0001913431 3.07547e-05 -0.3155724292 0.7836367237
590296460.0 -0.0516053987 0.1345160135 6.8458e-05 6.80406e-05 9.66132e-05 6.5646e-05 -0.3073403685 0.7860050375
595296430.0 -0.0504911985 0.1352095441 0.0003416217 5.29466e-05 0.0003066476 5.56369e-05 -0.2996503496 0.7892229909
600296400.0 -0.049369505 0.1362239193 0.0003840015 3.75292e-05 0.0004194127 0.0001796344 -0.2921981767 0.7918839057
605296370.0 -0.0480450083 0.1371253634 0.000272397 -5.04198e-05 0.000122824 0.0001330332 -0.2840830596 0.795278109
610296340.0 -0.0466928138 0.1376156261 0.000274325 -0.0001164281 0.0003869008 0.0001427028 -0.2760368267 0.7979486209
615296310.0 -0.0450336545 0.1385108416 0.0004856526 6.74761e-05 9.34601e-05 7.38671e-05 -0.2676475271 0.7999972586
620296280.0 -0.0438577325 0.1396624957 0.0001028351 -0.0001817876 0.0001805569 -2.87493e-05 -0.2597747613 0.8031482402
625296250.0 -0.0428697391 0.1398387786 0.0001348474 8.18891e-05 0.0002814582 -0.0002875893 -0.2512604936 0.8051589091
630296220.0 -0.0413310113 0.1407501903 0.0002407067 7.499e-06 0.0004257771 -6.60595e-05 -0.2432822227 0.8081989446
635296190.0 -0.039990091 0.1416908915 0.0002344821 -0.000127613 1.3207e-05 1.1699e-05 -0.2352601788 0.8099231402
640296160.0 -0.0383046979 0.1420859611 0.0002331491 1.09659e-05 0.0003242855 -2.95105e-05 -0.2269718187 0.8127291446
645296130.0 -0.0369052313 0.142849739 0.0003079849 -1.7209e-06 0.0002762699 -7.146e-05 -0.2192229975 0.8141715583
650296100.0 -0.0358721164 0.1434693192 6.79208e-05 5.12563e-05 0.0002456068 -0.0001132485 -0.2107487433 0.8165982529
655296070.0 -0.0345875482 0.1439589277 0.0003319068 0.0001333754 6.66382e-05 0.0001875933 -0.2031410554 0.8191167861
660296040.0 -0.0334852624 0.1446405777 0.0002916263 -2.93578e-05 0.000345846 7.37636e-05 -0.1940076599 0.8208080409
665296010.0 -0.0316339998 0.1456245677 0.0001669261 -0.0001547011 0.0002813112 8.62405e-05 -0.1861533012 0.8223394507
670295980.0 -0.0304280543 0.1463740566 0.0003103031 -1.92285e-05 0.0002492004 -1.0631e-06 -0.1782892334 0.8244223446
675295950.0 -0.0292281352 0.1466041309 0.0001465309 2.3891e-06 0.0002570656 -2.3918e-06 -0.1695416827 0.8261001107
680295920.0 -0.0281459183 0.1478079025 0.0001427203 0.0001920335 0.0002396242 3.05031e-05 -0.1613365309 0.8281179973
685295890.0 -0.0262215265 0.1479097364 0.0002151827 -6.08547e-05 5.93831e-05 0.0002699931 -0.1532851179 0.8296565776
690295860.0 -0.0250249645 0.1486826246 0.0001638353 0.0002281924 0.0002745461 -0.0001532338 -0.1452830094 0.831313622
695295830.0 -0.023850703 0.149059762 0.0003896332 -9.04403e-05 0.0003138354 -4.90987e-05 -0.1366616956 0.8331366245
700295800.0 -0.0222471654 0.1496255305 0.0001036719 -0.0001193092 9.54416e-05 8.12562e-05 -0.1280270347 0.833070119
705295770.0 -0.0211921457 0.1502200424 0.0003241435 -0.0002524101 0.0003842637 -5.00803e-05 -0.1199799796 0.8351596801
710295740.0 -0.0198645388 0.1506012493 0.0002204609 -5.19346e-05 7.45374e-05 -6.2556e-05 -0.1117597862 0.8361043751
715295710.0 -0.0181526916 0.1513336154 0.0003676972 5.25375e-05 0.0001114278 -0.0001446658 -0.1030410424 0.8365715504
720295680.0 -0.016742023 0.1517006832 0.0001863534 -1.31501e-05 0.0002460711 -4.35546e-05 -0.0941868753 0.837976998
725295650.0 -0.0157653806 0.1523535017 0.0002794479 2.8598e-06 0.0002025599 0.0001172274 -0.0866083514 0.8392135698
730295620.0 -0.0143757641 0.1529113882 0.0005250335 4.44854e-05 0.0001569204 -8.37538e-05 -0.0785628874 0.8401659435
735295590.0 -0.0129855984 0.1537025578 0.0002713107 8.89572e-05 0.0002230479 3.35725e-05 -0.0694200668 0.8405091923
740295560.0 -0.0120303619 0.1535806676 0.0002980506 6.32373e-05 0.0002883756 -9.38273e-05 -0.0611662265 0.8414422237
745295530.0 -0.0107589924 0.1540206379 0.0001872135 -2.53753e-05 9.36171e-05 -1.58388e-05 -0.0534099822 0.841659984
750295500.0 -0.0092711039 0.1545205903 0.0002231404 -4.13582e-05 0.0003393357 2.61106e-05 -0.0444062903 0.8422561633
755295470.0 -0.0077210533 0.1550129386 0.0005948846 -3.40328e-05 0.0002390429 -0.0001170798 -0.0364848818 0.8427432079
760295440.0 -0.0064273691 0.1553601366 8.31205e-05 0.0001420572 0.0001391708 -2.74297e-05 -0.0276898111 0.8423604694
765295410.0 -0.0052475913 0.1553739166 0.0001783278 4.44802e-05 0.0003802368 -1.45429e-05 -0.0192499713 0.8433218395
770295380.0 -0.0038919668 0.1558413609 0.0002224608 2.98136e-05 0.0004955459 1.37397e-05 -0.0110383811 0.8432479328
775295350.0 -0.0027478162 0.1566371097 0.0002257787 2.08599e-05 0.0002083293 5.94468e-05 -0.0030325565 0.843048649
780295320.0 -0.0011756477 0.1566421424 0.0004375944 -6.96159e-05 0.000161132 -0.0001714245 0.0054752721 0.8434976724
785295290.0 0.000344721 0.1569847625 0.0002890027 -0.0002652715 0.0001110466 -0.0002351766 0.0140727673 0.8431919163
790295260.0 0.0016813028 0.1570108718 0.0002412499 -0.0002314249 0.0001626166 7.16472e-05 0.0223497589 0.8434581749
795295230.0 0.0029632648 0.1573718831 0.0002984831 -0.0001823473 0.0003042343 -0.0001481832 0.0302031065 0.842231052
800295200.0 0.0043563458 0.1574593352 0.0001299393 -4.06742e-05 0.0001684001 -0.0001588181 0.0385725761 0.8422504504
805295170.0 0.0056878871 0.1579917313 0.0002319364 -4.64579e-05 0.0003416719 -0.0001720051 0.0479855871 0.8416911343
810295140.0 0.0071773717 0.1579710174 0.0002433633 -0.0001303056 0.0002105493 7.86982e-05 0.0559475945 0.8410430782
815295110.0 0.0083732756 0.1580533852 0.0001616828 -3.25737e-05 0.000342038 -0.00011535 0.063278681 0.8411315599
820295080.0 0.0096570766 0.1583710962 0.0001174188 -3.02756e-05 0.0001106192 -0.0001506393 0.0715256922 0.8403282475
825295050.0 0.0108154708 0.1583007399 0.0002264686 -7.43374e-05 0.000209133 1.61064e-05 0.0804105162 0.8392377579
830295020.0 0.0125056475 0.1585525011 0.0002977866 1.53172e-05 0.0002828158 -5.78722e-05 0.0884859872 0.8381629349
835294990.0 0.0138454077 0.1583485497 0.0001342238 0.0004068975 4.42052e-05 -6.39191e-05 0.0972740697 0.8377143413
840294960.0 0.0152327182 0.1584817901 -3.33008e-05 9.0263e-06 0.0002042268 -0.0001085594 0.1057889864 0.8366391906
845294930.0 0.0163866032 0.1586598911 0.0002596087 -0.0002576583 0.0002597042 -0.0001641844 0.1139234176 0.8351667166
850294900.0 0.0183734252 0.1583656428 0.0004771163 -5.24772e-05 0.0001327143 -0.0001813042 0.1216961831 0.8343425251
