!Created with skrf (http://scikit-rf.org).
# Hz S RI R 50.0 
!freq ReS11 ImS11 ReS21 ImS21 ReS12 ImS12 ReS22 ImS22
300000.0 -0.316922866 -0.1239022039 0.375526123 0.0630621238 0.3720509013 0.0636556626 -0.3176015034 -0.1288895739
5299970.0 -0.3250210678 0.0026246177 0.3784910644 0.0032884428 0.3789085111 0.0034253938 -0.3255715357 0.0023135323
10299940.0 -0.3227259731 0.0141302863 0.3797778922 0.0026961111 0.3798762926 0.0031523484 -0.3232590717 0.0125028796
15299910.0 -0.3189314566 0.0221710464 0.3818821349 0.0028032733 0.3823055644 0.0026147284 -0.3207692147 0.0199695135
20299880.0 -0.3155488687 0.0289642658 0.384794611 0.001745512 0.3852546522 0.0021677252 -0.3176401928 0.0258641299
25299850.0 -0.3116464565 0.0349102903 0.3885266164 0.0003572233 0.3886520938 0.0003446633 -0.315239028 0.0313177685
30299820.0 -0.3082743596 0.039321674 0.391964522 -0.0021407189 0.3921074034 -0.0020899499 -0.3121541028 0.0357606217
35299790.0 -0.3044293661 0.0434272794 0.3948519095 -0.0050825922 0.3953240768 -0.0049712719 -0.3093338493 0.0401451035
40299760.0 -0.3010756523 0.0468056081 0.3985522591 -0.0083409085 0.3983988524 -0.0086768436 -0.3066746877 0.043298586
45299730.0 -0.2981000529 0.0500550376 0.4013598905 -0.0123372812 0.4014253994 -0.0126457163 -0.303742382 0.0466470333
50299700.0 -0.2946630323 0.0526916379 0.4036141382 -0.0169754809 0.4038164565 -0.0172083857 -0.3010515339 0.049875972
55299670.0 -0.2926445654 0.0554917959 0.4059497129 -0.0215031007 0.4058692492 -0.0219768568 -0.2993964527 0.0523991437
60299640.0 -0.2896888156 0.0577975635 0.4080364462 -0.0266133838 0.4079372569 -0.0268379148 -0.2972153945 0.0547063472
65299610.0 -0.2874516571 0.0599977894 0.409784906 -0.031433253 0.4095989616 -0.0317721498 -0.295434369 0.0573192919
70299580.0 -0.2852901213 0.0620851327 0.4105985294 -0.036383975 0.4111854511 -0.0367222006 -0.293723739 0.0600206587
75299550.0 -0.2834174053 0.0641695103 0.4119065655 -0.0422074961 0.4119647153 -0.0419968079 -0.2919216816 0.0627204251
80299520.0 -0.281842919 0.0665531387 0.4129870221 -0.0471812615 0.4132454188 -0.0474077403 -0.2904986669 0.0648430466
85299490.0 -0.2795743362 0.0683779331 0.4132179073 -0.0524572204 0.4138419882 -0.0525647165 -0.28940209 0.0668866855
90299460.0 -0.2782103261 0.07068021 0.4136896867 -0.0576746084 0.4136943848 -0.0576590946 -0.2877016623 0.0693719803
95299430.0 -0.2767279413 0.072147241 0.4138401356 -0.0626916332 0.4144145991 -0.0631557959 -0.2869286748 0.0716427025
100299400.0 -0.2753014274 0.0745532326 0.413948161 -0.0679958495 0.4139324981 -0.0681428427 -0.2853433024 0.0744527467
105299370.0 -0.2737570162 0.0765093079 0.4139238245 -0.0732982289 0.4143963819 -0.0733653456 -0.2838826835 0.076243136
110299340.0 -0.2727052081 0.0785477459 0.4139707638 -0.0779783491 0.4139480314 -0.0785208299 -0.2831654351 0.0785437582
115299310.0 -0.2718340811 0.0807199585 0.4135540332 -0.0832983483 0.413557407 -0.0835593556 -0.2820631841 0.0814184975
120299280.0 -0.2703913652 0.0832856371 0.4133481805 -0.0889088684 0.4129869345 -0.0891364178 -0.2810148491 0.0833219259
125299250.0 -0.2692929389 0.0850375479 0.4125819207 -0.093859713 0.4125003445 -0.093765817 -0.2801765124 0.0863028861
130299220.0 -0.2681404364 0.0871893253 0.4117957232 -0.0989025839 0.4117962456 -0.0994929254 -0.2790818921 0.0883974378
135299190.0 -0.2673631902 0.0897781284 0.4113398089 -0.1037690145 0.4115321946 -0.104211298 -0.2782684357 0.0906756704
140299160.0 -0.2664016204 0.0922044182 0.410782716 -0.1089537884 0.4105553435 -0.1087988774 -0.2777249449 0.0931158894
145299130.0 -0.2655511041 0.0949415975 0.4095756901 -0.1139221701 0.4096018093 -0.1140325418 -0.2765961122 0.0957486554
150299100.0 -0.2640152971 0.0966912727 0.4083567415 -0.1188022165 0.408375612 -0.1190444027 -0.2758296281 0.0984688853
155299070.0 -0.2631673444 0.0994782255 0.4069059038 -0.1237196962 0.4072433331 -0.1239637419 -0.2747606407 0.1011620553
160299040.0 -0.2623214994 0.1022720339 0.405925325 -0.1289075627 0.4065241433 -0.1289041331 -0.2739771655 0.1036288723
165299010.0 -0.2610157269 0.104283794 0.4047195807 -0.1334477831 0.4046728846 -0.1336217412 -0.2726612821 0.1061740711
170298980.0 -0.2601024606 0.1067864183 0.4030684849 -0.1381688144 0.4038571878 -0.1383408332 -0.2721042205 0.1088060576
175298950.0 -0.2591349099 0.1091743936 0.4022092809 -0.1429336056 0.4028396435 -0.1434543165 -0.2711035833 0.1120002064
180298920.0 -0.2581734541 0.1118828218 0.4008262477 -0.1477019719 0.4007322627 -0.1480942772 -0.2698665848 0.1140185092
185298890.0 -0.257009354 0.1143100427 0.3996635151 -0.1526812365 0.399339036 -0.1527243386 -0.2688411779 0.1166818534
190298860.0 -0.2557050213 0.1171502567 0.3974340147 -0.1574561974 0.3978426765 -0.157339685 -0.2677285588 0.1193433196
195298830.0 -0.2546934616 0.1195734062 0.3962043901 -0.1619451528 0.3962121347 -0.1620655968 -0.2671305303 0.1222555131
200298800.0 -0.2536481231 0.1221045775 0.3942316071 -0.1665614188 0.3943089943 -0.166510706 -0.2657067303 0.1244799562
205298770.0 -0.2526591423 0.1246290467 0.3923864775 -0.1708336336 0.392592048 -0.1707662978 -0.2647467412 0.1273572943
210298740.0 -0.2513731501 0.1274864892 0.390594019 -0.1755215497 0.3903930019 -0.1758340293 -0.2636148055 0.1299734855
215298710.0 -0.2502004369 0.1297494514 0.3887779672 -0.1799338441 0.3889059291 -0.1801825231 -0.2626683553 0.1329203914
220298680.0 -0.2488836259 0.1325485391 0.3863753957 -0.1847378188 0.3867778143 -0.1848498943 -0.2610881753 0.1356962033
225298650.0 -0.2475660427 0.1353898894 0.3845179312 -0.1888641609 0.3845377107 -0.1885066968 -0.2599178201 0.1378228915
230298620.0 -0.2465907597 0.1381040283 0.3828535516 -0.1938066579 0.382899616 -0.1937786746 -0.2587144116 0.1405867636
235298590.0 -0.2455720101 0.140780395 0.3807502067 -0.1984209828 0.3805918685 -0.197703076 -0.257376305 0.143573325
240298560.0 -0.2440715671 0.1435564598 0.3784978298 -0.2020850743 0.3782426362 -0.2020593908 -0.2561246845 0.1457304323
245298530.0 -0.2426469323 0.1457674302 0.376094097 -0.2064268091 0.3762085919 -0.2068607305 -0.2547933114 0.1485487683
250298500.0 -0.2415355941 0.1483548309 0.3740410995 -0.2106872504 0.3740667738 -0.2105250874 -0.2533629999 0.1516323797
255298470.0 -0.2400155645 0.1511980888 0.3716298229 -0.2146008693 0.3721327314 -0.2151139873 -0.252114541 0.1541928171
260298440.0 -0.2384654256 0.1535887003 0.3693081112 -0.2187453133 0.3696051673 -0.2189227841 -0.2508206406 0.1566980362
265298410.0 -0.2372559324 0.1561325049 0.3669059234 -0.2234904897 0.3668377524 -0.223354433 -0.2490105811 0.1591938262
270298380.0 -0.2360317188 0.1587167677 0.364228904 -0.2273662605 0.3643933669 -0.2276711078 -0.247219785 0.1625366271
275298350.0 -0.2345676725 0.1613940832 0.3615456965 -0.2313023437 0.3617632622 -0.2312088314 -0.2459252883 0.1651208263
280298320.0 -0.2332096917 0.1640636785 0.3595952136 -0.2352269564 0.3597626027 -0.235559085 -0.2443293453 0.167658624
285298290.0 -0.2316890344 0.1665859765 0.3564538482 -0.2394410692 0.3569678906 -0.239671003 -0.2428127547 0.1703404798
290298260.0 -0.2296404796 0.1692172636 0.3544358942 -0.2435841236 0.3545088777 -0.2436542075 -0.2411319615 0.1732439215
295298230.0 -0.2283892656 0.17161057 0.3515235671 -0.2477035894 0.3516864779 -0.2477551937 -0.2396981634 0.1755958337
300298200.0 -0.2266894107 0.1744364099 0.3488759924 -0.2516364209 0.3490174379 -0.2516690687 -0.2375420125 0.1781275635
305298170.0 -0.2252537164 0.1764135691 0.3463481048 -0.2556310814 0.3461179284 -0.2558384338 -0.2355071803 0.180428622
310298140.0 -0.2230435146 0.1788822072 0.3432829994 -0.2594756047 0.3435807664 -0.2592569053 -0.2341123576 0.1830296612
315298110.0 -0.2221249102 0.1814532705 0.3407047972 -0.2636201411 0.3407170138 -0.2636803915 -0.2320673458 0.1854502894
320298080.0 -0.2198104189 0.18387763 0.3371287458 -0.2676305817 0.3378890821 -0.2677344152 -0.2304587135 0.1880445103
325298050.0 -0.2188744277 0.1856084352 0.3344511592 -0.2710370562 0.3348354012 -0.2709418435 -0.2282657724 0.1904106215
330298020.0 -0.2172871181 0.1885752654 0.3314763508 -0.2750523254 0.3319411704 -0.274930729 -0.2269410192 0.1929563653
335297990.0 -0.2154136812 0.1909804147 0.3284247056 -0.2786521758 0.3286496345 -0.278719824 -0.2248748911 0.1957540858
340297960.0 -0.2136996003 0.1931995413 0.3248193715 -0.2823827398 0.3249905696 -0.2824297428 -0.2229377213 0.1979559687
345297930.0 -0.2119618556 0.1955641935 0.3218166864 -0.2860056983 0.3221403268 -0.2860398093 -0.2213952192 0.2002480622
350297900.0 -0.2103149083 0.1979040747 0.3189199966 -0.289160304 0.3190617688 -0.2891176284 -0.219564407 0.2027555979
355297870.0 -0.2082346741 0.2002213825 0.3158003794 -0.2926025238 0.3157658447 -0.2924196702 -0.2171869729 0.2053531327
360297840.0 -0.2064237432 0.202697622 0.3122199938 -0.2961494334 0.3124145045 -0.2965102119 -0.2151668428 0.2082122278
365297810.0 -0.2046333362 0.2051666497 0.3090548742 -0.2996967172 0.3092104736 -0.2993715719 -0.2133525965 0.2100198986
370297780.0 -0.2026492246 0.2072089137 0.3052602291 -0.3030545182 0.3059503813 -0.3029155775 -0.2111125299 0.2125327673
375297750.0 -0.2007052031 0.2096944291 0.3025061687 -0.3062777791 0.3024914203 -0.3063830553 -0.2089426946 0.2150448495
380297720.0 -0.1986875195 0.2120748624 0.299163676 -0.3098971508 0.2991798262 -0.3100021375 -0.2069165967 0.2176099417
385297690.0 -0.1968745323 0.2140738551 0.2953138032 -0.3130221408 0.2954080993 -0.3134991383 -0.2042173736 0.2201270568
390297660.0 -0.1940412093 0.21606724 0.2917786721 -0.3158354951 0.2922416339 -0.315966967 -0.2020962983 0.2216643908
395297630.0 -0.1919500249 0.2186568056 0.2886546642 -0.3187140273 0.288397163 -0.3193389399 -0.1998702675 0.2243652831
400297600.0 -0.1904694963 0.2205872509 0.2848025961 -0.3224973505 0.2853859079 -0.322607655 -0.1976371255 0.2267180912
405297570.0 -0.1879884854 0.2225022974 0.2816168404 -0.3254681595 0.2818245159 -0.3255003844 -0.1951345044 0.2291908805
410297540.0 -0.1856732203 0.2247110748 0.2780973939 -0.3288816348 0.2781349119 -0.3285252171 -0.1928668793 0.231175883
415297510.0 -0.1834512427 0.2269292727 0.2741190699 -0.331819748 0.274699447 -0.3318314092 -0.1902830693 0.2335110737
420297480.0 -0.1814164095 0.2286254994 0.2707675585 -0.334530461 0.2710255135 -0.334938973 -0.1879595891 0.235936747
425297450.0 -0.178758061 0.2306467744 0.2669995782 -0.3373345299 0.2665591202 -0.3378784993 -0.1854157795 0.2379773681
430297420.0 -0.1766679078 0.2326778186 0.2633595569 -0.3407875254 0.2635890564 -0.3402493275 -0.1828394126 0.2401243182
435297390.0 -0.174163889 0.2344152479 0.2593630511 -0.3437750192 0.259500888 -0.343331006 -0.1810065492 0.2422805431
440297360.0 -0.1715288621 0.2364511854 0.2555929313 -0.3465383907 0.2553539824 -0.3464472969 -0.1780908555 0.2441598775
445297330.0 -0.1693162086 0.2382061177 0.2517364643 -0.348695945 0.2519967538 -0.3489520052 -0.1754944983 0.2461983567
450297300.0 -0.1666817708 0.2402762656 0.2478523571 -0.3514932362 0.2482947936 -0.3515871448 -0.1728950171 0.2478391985
455297270.0 -0.1643506724 0.2420986784 0.2440467166 -0.3541472638 0.2442055508 -0.3545565842 -0.1701297396 0.2503031618
460297240.0 -0.1613812946 0.2442081201 0.2402509733 -0.3574817087 0.2401539342 -0.3571025334 -0.1679213174 0.2521295746
465297210.0 -0.1592159635 0.2457434786 0.2360118075 -0.3594799528 0.2358456403 -0.3600124383 -0.1647177224 0.254317397
470297180.0 -0.1564296073 0.2477381649 0.2319425823 -0.3620475796 0.2324925275 -0.3621452292 -0.1622964068 0.255995666
475297150.0 -0.1542961499 0.249467843 0.2282758841 -0.3645739669 0.2282251175 -0.3648138553 -0.1594064899 0.2579811803
480297120.0 -0.1510595119 0.251270364 0.2241617272 -0.3669098749 0.2243428883 -0.366995706 -0.1573007121 0.2598938151
485297090.0 -0.1483913817 0.2528500578 0.219923518 -0.3694398468 0.2200671008 -0.3691918394 -0.1543450199 0.2618711516
490297060.0 -0.1450150879 0.2548086465 0.2154184458 -0.3720581246 0.2159264151 -0.3721730378 -0.1515795318 0.2632366846
495297030.0 -0.1431326324 0.2559372618 0.2124487648 -0.3741680622 0.2119477732 -0.3748132289 -0.1481890482 0.2650891022
500297000.0 -0.140367674 0.2577615984 0.2079088231 -0.3762217354 0.2078659682 -0.3768839179 -0.1457603594 0.2669593033
505296970.0 -0.1371949366 0.2594505015 0.2036136235 -0.3785564217 0.2037412039 -0.3786174965 -0.1428277036 0.268087199
510296940.0 -0.1344774958 0.2611517139 0.1995557946 -0.3811321502 0.199759281 -0.3810906791 -0.1398227969 0.2701375795
515296910.0 -0.1318181515 0.2626251516 0.194981173 -0.383251688 0.1950292663 -0.3830071842 -0.137346061 0.2714406942
520296880.0 -0.1289227296 0.2643471433 0.1910539069 -0.3851066688 0.1910248626 -0.3852692038 -0.1343618219 0.2736330566
525296850.0 -0.1258672356 0.2655840517 0.1866420269 -0.3869941915 0.1867750762 -0.3869340387 -0.131243269 0.2745845592
530296820.0 -0.1236551575 0.2669351704 0.1824623912 -0.3888837577 0.1824027282 -0.389082771 -0.1283802079 0.2759410824
535296790.0 -0.1197944858 0.2685552905 0.1782193324 -0.3910065304 0.1781866703 -0.3911701675 -0.1253824154 0.2779668181
540296760.0 -0.1171574863 0.2700625019 0.1737802235 -0.393155856 0.1736643969 -0.392867185 -0.1225487692 0.2792705799
545296730.0 -0.1145252632 0.271638062 0.1696090809 -0.394499011 0.1696750435 -0.3945682129 -0.1194869083 0.2806888031
550296700.0 -0.1112940669 0.2731121953 0.1652139051 -0.3964858191 0.1648494785 -0.3968323816 -0.1164420956 0.2823068291
555296670.0 -0.1083806659 0.2744318287 0.1610095444 -0.3984455969 0.1610435848 -0.3983265791 -0.1139651422 0.2830385966
560296640.0 -0.1049977275 0.2753000568 0.1562437745 -0.3997757917 0.1565733477 -0.4000503117 -0.1108116129 0.2850059845
565296610.0 -0.1026386629 0.2767484946 0.1524947521 -0.4016071232 0.1521864435 -0.4012815349 -0.1074372479 0.2862584317
570296580.0 -0.0993554098 0.2781839717 0.1474916441 -0.4032126588 0.1477124082 -0.4032628412 -0.1048431263 0.2871838047
575296550.0 -0.0961689754 0.2791962313 0.1432737336 -0.40469234 0.1430955777 -0.4047387058 -0.1014644607 0.288411412
580296520.0 -0.0934101665 0.2809338614 0.1389665883 -0.406404076 0.1389053036 -0.4065009998 -0.0986623992 0.2897270022
585296490.0 -0.0901181446 0.2815979122 0.1347605848 -0.4074133693 0.1340248534 -0.4076930119 -0.0948706408 0.2912702395
590296460.0 -0.0865513534 0.2828368249 0.1300442331 -0.4089661274 0.1299332434 -0.4092728647 -0.0923724545 0.2920755161
595296430.0 -0.0838668576 0.2840726549 0.1253970812 -0.4106304417 0.1249291905 -0.4106441549 -0.0892430725 0.2932099147
600296400.0 -0.0808225314 0.2850482529 0.1209802013 -0.4115858748 0.1205559352 -0.411752262 -0.0861178516 0.2940554953
605296370.0 -0.0781058204 0.2861838791 0.1166668925 -0.4126987453 0.1160556927 -0.4131660769 -0.0829261326 0.2951497303
610296340.0 -0.0744647325 0.2878912813 0.1118714859 -0.414294078 0.1119863572 -0.4143636594 -0.0799884554 0.2963872894
615296310.0 -0.0712190584 0.288458352 0.1073772875 -0.4155224051 0.1069897472 -0.4152448012 -0.0764367592 0.2971415969
620296280.0 -0.0682805632 0.2897338752 0.1030041491 -0.416361836 0.1024762293 -0.4162935481 -0.0736493898 0.2983713924
625296250.0 -0.0656299036 0.2902136182 0.0984970168 -0.4173542115 0.0981578677 -0.4178582551 -0.0707317288 0.2991383145
630296220.0 -0.0619993784 0.2915830785 0.0933945103 -0.4185525612 0.0937274899 -0.4186109756 -0.0673697321 0.2998134118
635296190.0 -0.0591309414 0.2927891319 0.0894358724 -0.4191313439 0.0892348219 -0.4190152907 -0.0643413349 0.3006349348
640296160.0 -0.0558828906 0.2934278629 0.08471604 -0.4204815876 0.0846448382 -0.4204365353 -0.0612658856 0.301484894
645296130.0 -0.0523041034 0.2945649484 0.0797803629 -0.4212838285 0.0797611085 -0.4210921996 -0.0580874334 0.3022018022
650296100.0 -0.0496244136 0.2949865955 0.0756196268 -0.4220258702 0.0750228322 -0.422510189 -0.0542899595 0.3032882816
655296070.0 -0.0465376333 0.2959879709 0.070524594 -0.4228039499 0.070811892 -0.4225015047 -0.0519177015 0.3039829881
660296040.0 -0.0433813071 0.2969197738 0.0663642703 -0.4235606084 0.0661956046 -0.4235670168 -0.0483061905 0.3044033904
665296010.0 -0.0402405924 0.2974708462 0.0611875063 -0.4239402997 0.0614554953 -0.4240639753 -0.0452891094 0.3050839091
670295980.0 -0.0373137707 0.2983383038 0.0571221602 -0.4246929284 0.0569827396 -0.4242856113 -0.0423067293 0.3056332875
675295950.0 -0.0338915005 0.2987764987 0.0524564986 -0.4250239672 0.0523708694 -0.4254156042 -0.0387214971 0.3064125488
680295920.0 -0.0315002087 0.2993768285 0.0481865762 -0.425798063 0.0479309053 -0.425420358 -0.0354398274 0.3064462905
685295890.0 -0.027540257 0.3001082235 0.0429111761 -0.4264342258 0.0430825354 -0.4266495316 -0.0323984264 0.3076131805
690295860.0 -0.0249730906 0.3005462798 0.0385949444 -0.4263783072 0.0379622569 -0.4264287417 -0.0288426186 0.3078028886
695295830.0 -0.0215394873 0.3010741519 0.0345726816 -0.426725958 0.0338457333 -0.4269101301 -0.0257859486 0.3086035722
700295800.0 -0.0184327216 0.3017481379 0.0297585325 -0.4273681406 0.0294309473 -0.4274902748 -0.0225101918 0.3087257504
705295770.0 -0.0155571015 0.3023749707 0.0250394902 -0.4274900032 0.0248021489 -0.4276174578 -0.0192472998 0.3092881042
710295740.0 -0.0122780361 0.3024358466 0.0203451591 -0.4276035542 0.0197652913 -0.4280155061 -0.0158962656 0.3097135505
715295710.0 -0.0091368939 0.303070397 0.015770878 -0.4282942115 0.0154873141 -0.4281150884 -0.0129725016 0.3093971384
720295680.0 -0.0058605677 0.3031419276 0.0108076392 -0.4279401911 0.0107384963 -0.4279645179 -0.0092308114 0.3094567806
725295650.0 -0.0031021155 0.3038226382 0.0066601352 -0.4278096965 0.0064003878 -0.4283220253 -0.007023182 0.3106534038
730295620.0 -0.0005708341 0.3041328586 0.0018822643 -0.4275786456 0.0014327297 -0.4276262393 -0.0031683264 0.310985438
735295590.0 0.0030292174 0.3044886617 -0.0025762718 -0.4279755695 -0.0030185939 -0.4277769477 0.0002476321 0.3103454744
740295560.0 0.0058564539 0.3042358644 -0.0072827058 -0.4277849631 -0.0073825931 -0.4279286675 0.0033744584 0.3106205584
745295530.0 0.0092582476 0.3048509124 -0.011749416 -0.4275201251 -0.0115594984 -0.4276066051 0.0060929646 0.3108946731
750295500.0 0.0123611421 0.3046543078 -0.016483012 -0.4271849812 -0.0168515701 -0.4275757831 0.0096573989 0.3109965885
755295470.0 0.0152389562 0.3049494914 -0.020855633 -0.4275581364 -0.0212637065 -0.4276874835 0.0131125083 0.311517847
760295440.0 0.0183832011 0.305351547 -0.026336552 -0.4271553291 -0.0260040154 -0.4265979759 0.0164325069 0.3108554729
765295410.0 0.0215766147 0.3049609535 -0.0306994747 -0.4267580842 -0.0303793809 -0.4268423338 0.0196875777 0.3108442506
770295380.0 0.0242538868 0.3051774117 -0.0347612206 -0.4262360088 -0.0351994228 -0.4266815449 0.0225311874 0.3109207829
775295350.0 0.0273289084 0.304947559 -0.0393583728 -0.4259533819 -0.0397131676 -0.425695435 0.0260714418 0.3110103923
780295320.0 0.030712132 0.305053535 -0.0442327102 -0.4251559848 -0.0441979818 -0.4254397925 0.0292172365 0.3106762877
785295290.0 0.0337093148 0.3048858399 -0.0488445483 -0.4247896844 -0.0486930246 -0.4248273991 0.0325013828 0.3108021896
790295260.0 0.0368121112 0.3045231673 -0.0529776737 -0.424246817 -0.053077692 -0.4248615854 0.0355463587 0.310798656
795295230.0 0.0397516632 0.3044475858 -0.0575733335 -0.4237446985 -0.0579525469 -0.4240660976 0.0388023246 0.309710651
800295200.0 0.042829446 0.3043230503 -0.0622007642 -0.4227091967 -0.0625466001 -0.4232099123 0.0418906534 0.3097453552
805295170.0 0.045531453 0.3045320273 -0.066913483 -0.4222168166 -0.0668735554 -0.4224542699 0.0455442103 0.3093471441
810295140.0 0.0486164252 0.303940874 -0.071326746 -0.4213297615 -0.0713364949 -0.4217014118 0.0489246479 0.3090833973
815295110.0 0.0515713914 0.3039022907 -0.0758535044 -0.4207983351 -0.075846902 -0.4209858813 0.0518438882 0.309106073
820295080.0 0.0544949083 0.3031733934 -0.0802076691 -0.4196364197 -0.0800904664 -0.4200994337 0.0548521632 0.3087985143
825295050.0 0.0575095594 0.3025226647 -0.0848894633 -0.4187819976 -0.0851748753 -0.4191590143 0.0584790785 0.3083496535
830295020.0 0.0608488653 0.3024425378 -0.0893243765 -0.4179443404 -0.0894674382 -0.4179247051 0.0614265831 0.3074172751
