!Created with skrf (http://scikit-rf.org).
# Hz S RI R 50.0 
!freq ReS11 ImS11 ReS21 ImS21 ReS12 ImS12 ReS22 ImS22
300000.0 0.8606328763 -0.0009699986 -0.0006192609 -0.0012966116 -0.0001258152 0.0008021397 -0.7613057321 -0.1966353491
5299970.0 0.8598871895 -0.0098966572 -2.2317e-06 -6.4202e-05 0.0002006944 0.0001155276 -0.7853446123 -0.0096181264
10299940.0 0.8590254884 -0.0188040882 -9.02043e-05 0.0001551538 5.27676e-05 -1.83378e-05 -0.7878718096 -0.005178173
15299910.0 0.8577793225 -0.0271511533 0.0001190407 -5.9265e-05 -7.52585e-05 0.0002133319 -0.7929758436 -0.0027678482
20299880.0 0.8572675146 -0.0352230729 -0.0001744353 0.000106027 -0.0001471224 -0.0001478181 -0.7999830701 0.0015054805
25299850.0 0.8558888743 -0.0431765415 0.0001819442 -0.0002428346 2.49613e-05 4.26821e-05 -0.8060734126 0.0080285337
30299820.0 0.8558662748 -0.0519924249 0.0001415191 -5.7019e-06 -8.96e-06 -5.85061e-05 -0.8126190229 0.0155600638
35299790.0 0.8545740905 -0.0604044393 0.0001840278 -0.0001302949 2.67736e-05 0.0001313719 -0.8167662871 0.0247305814
40299760.0 0.8546369431 -0.0683070476 8.82521e-05 2.65718e-05 8.9132e-06 -2.46708e-05 -0.8214039067 0.0339589588
45299730.0 0.8532236579 -0.0770235041 -6.57759e-05 -0.0001823037 6.401e-05 -0.0001186247 -0.8241325512 0.043483679
50299700.0 0.8529469 -0.0844237216 -0.0001455286 0.0001404395 8.75246e-05 0.0001753902 -0.8265094215 0.0537594509
55299670.0 0.8521537291 -0.0929856362 2.4473e-06 -6.25157e-05 -2.06034e-05 3.11661e-05 -0.828706072 0.0638514183
60299640.0 0.8509285154 -0.1008955792 8.09835e-05 -7.96614e-05 -0.0003097443 0.0001943556 -0.829532422 0.0740557476
65299610.0 0.8502693093 -0.1089465807 -6.22351e-05 -3.24759e-05 0.0001672734 -4.7369e-06 -0.8308165171 0.0840692681
70299580.0 0.8488568411 -0.1181665717 -0.0001171782 3.1402e-06 0.0002357757 -0.000101106 -0.8311005038 0.0936375766
75299550.0 0.8477353973 -0.1257955108 1.43012e-05 0.0001605299 -0.0001362826 -6.74603e-05 -0.8308936875 0.1041470346
80299520.0 0.846150063 -0.1335127491 0.0001241418 -3.4807e-06 -6.8495e-06 -5.8829e-05 -0.8307486376 0.1138133722
85299490.0 0.845060286 -0.1420283948 0.0001362573 -0.0001923349 -3.74027e-05 -0.000185293 -0.8297238495 0.1230571962
90299460.0 0.8441280458 -0.1499426945 0.0001185595 -0.0001480665 -0.0002198283 4.56638e-05 -0.828943945 0.1331034309
95299430.0 0.8421951004 -0.1577376276 -0.0001630766 -0.0002171222 -3.46398e-05 -1.67469e-05 -0.8284539399 0.1423043846
100299400.0 0.8406642543 -0.1660414909 0.0003550155 3.23938e-05 2.76786e-05 0.000133525 -0.8272892778 0.1520466225
105299370.0 0.83908054 -0.1745379586 -1.27452e-05 2.68206e-05 2.7204e-06 -0.0001886552 -0.8258751245 0.1610983527
110299340.0 0.8372060434 -0.1825714426 9.758e-06 -2.62308e-05 6.15537e-05 -0.0001145923 -0.8242915481 0.1695266599
115299310.0 0.8355401337 -0.1907386865 -0.0001736459 -0.0001720322 -5.61909e-05 1.39974e-05 -0.8233733069 0.1792461284
120299280.0 0.8339726976 -0.1982723858 8.89835e-05 5.13322e-05 -5.30675e-05 -0.0001845732 -0.8208897271 0.1879680254
125299250.0 0.8315489031 -0.2064918933 -1.90159e-05 4.11071e-05 5.64739e-05 -9.30697e-05 -0.8199810219 0.1970022207
130299220.0 0.8301267479 -0.2146199901 6.35907e-05 -0.0001204206 6.1226e-06 -0.0002164205 -0.8176382487 0.2061209268
135299190.0 0.8281317194 -0.2229921909 -6.8293e-05 -0.0001672145 -5.48326e-05 -0.0001237489 -0.8161788088 0.2150690927
140299160.0 0.8257320094 -0.2301651039 0.0001312883 2.42579e-05 -4.17914e-05 -5.88828e-05 -0.8141625072 0.2235745415
145299130.0 0.8229320285 -0.2380199227 3.60258e-05 -1.00829e-05 0.000193552 3.556e-05 -0.8123338404 0.2321478987
150299100.0 0.8209132953 -0.2458788582 8.88944e-05 -0.0001633998 -7.2694e-06 -0.0001303537 -0.8096307996 0.241652873
155299070.0 0.8184376237 -0.2539811428 -9.25286e-05 -6.86849e-05 8.52286e-05 0.000100963 -0.8072461744 0.2502308754
160299040.0 0.8165287839 -0.261929764 -4.5354e-06 -2.8838e-05 2.83897e-05 4.70864e-05 -0.8043434451 0.2589031595
165299010.0 0.8135641478 -0.2698173821 -8.43594e-05 -0.0001735347 -0.0001604562 3.4072e-06 -0.8018202737 0.2671280148
170298980.0 0.8112016552 -0.2776782371 -3.80213e-05 6.70327e-05 -0.0002067611 0.0001419604 -0.7992703489 0.2759131421
175298950.0 0.8085092689 -0.2853960132 6.93022e-05 -3.26398e-05 -4.62435e-05 6.55092e-05 -0.7966949296 0.2847331895
180298920.0 0.805905824 -0.2931406758 0.0002456207 7.14295e-05 4.17937e-05 9.00352e-05 -0.7934224075 0.2933310222
185298890.0 0.8027669917 -0.3006982578 -0.0001041949 -0.000103994 -7.7022e-05 -0.0001711835 -0.7900790923 0.3016457454
190298860.0 0.8002350368 -0.3092216012 -0.0001654396 -0.0002338619 -4.69128e-05 -7.10819e-05 -0.7870853434 0.3098265648
195298830.0 0.7969231791 -0.3159722394 -8.9645e-05 0.0001168836 2.99153e-05 -0.0001402046 -0.7844438491 0.3177591068
200298800.0 0.7937055045 -0.3231977914 -0.0001132836 -0.0001962384 -1.95217e-05 -8.9882e-06 -0.7809907063 0.3262489417
205298770.0 0.7911033057 -0.3319932025 8.3666e-06 0.0001555581 -5.13005e-05 6.19801e-05 -0.7776633569 0.3347884393
210298740.0 0.7877521517 -0.3391223008 -0.0001422044 4.0615e-06 -0.0001240143 0.0001713796 -0.7743299268 0.3435806612
215298710.0 0.7846065513 -0.3468882778 0.0001017129 -9.3378e-05 -7.92674e-05 6.21595e-05 -0.7703059561 0.351419051
220298680.0 0.7811832493 -0.3535838034 0.0001450733 -5.87936e-05 1.28825e-05 -2.53619e-05 -0.7671211515 0.3593921203
225298650.0 0.7775558894 -0.3619006068 0.0001821762 0.0001238714 9.1666e-06 1.29727e-05 -0.7629618214 0.3671436052
230298620.0 0.7735930149 -0.3683560942 -0.000216164 -3.46805e-05 3.41095e-05 -6.3305e-06 -0.7586397087 0.3758543468
235298590.0 0.7701994293 -0.376015621 -0.000276763 -0.0002837876 9.97328e-05 2.48815e-05 -0.7551703982 0.3834652335
240298560.0 0.7664396527 -0.3834692904 1.02038e-05 1.17273e-05 1.79345e-05 7.91135e-05 -0.7513198641 0.3907299015
245298530.0 0.7626105322 -0.3905189657 -0.0003007084 2.17537e-05 0.0001172349 -0.00011157 -0.7474107108 0.3991504302
250298500.0 0.7587763205 -0.39791268 -8.2295e-06 -9.68933e-05 -0.0001498023 -7.90566e-05 -0.7427391724 0.4071660917
255298470.0 0.7551398195 -0.4053027553 8.97107e-05 0.0001046926 -0.0002186009 1.00768e-05 -0.7383342326 0.4144571856
260298440.0 0.7513667493 -0.4131222932 4.10496e-05 -0.0001095729 -4.61751e-05 -1.9067e-05 -0.7347347144 0.4222655837
265298410.0 0.7461426922 -0.4195374652 9.6628e-06 -7.86625e-05 -4.02157e-05 5.163e-07 -0.7299884483 0.4299668896
270298380.0 0.7439297135 -0.4267616857 -2.67285e-05 -0.0001491752 -0.0001416028 9.00809e-05 -0.725438577 0.4384294923
275298350.0 0.7387337914 -0.4339586692 0.0001610573 6.44868e-05 4.81195e-05 9.01305e-05 -0.7203462892 0.4453452206
280298320.0 0.7347666648 -0.4410376943 0.0001143843 -2.17144e-05 6.8154e-06 -5.6139e-05 -0.7164219453 0.4528391753
285298290.0 0.730773158 -0.4491354609 3.52576e-05 5.4575e-06 4.35554e-05 8.6693e-06 -0.71178121 0.4603557816
290298260.0 0.7258189659 -0.4554954244 -0.0001036589 -4.77609e-05 0.0001588949 8.22671e-05 -0.7064073013 0.4674305022
295298230.0 0.7223770379 -0.4620397642 -0.0001975252 -3.02653e-05 -0.0001556786 -9.68067e-05 -0.7015267241 0.4748503584
300298200.0 0.7182964489 -0.4691567154 9.9e-05 2.66291e-05 0.0001110253 -0.0002141145 -0.6967344365 0.4823711566
305298170.0 0.7138127249 -0.476885132 -7.34906e-05 -8.85989e-05 9.7126e-05 0.0001655777 -0.6914044783 0.4895357591
310298140.0 0.7087596055 -0.4854302103 1.32528e-05 -4.43801e-05 0.0001711468 -3.86291e-05 -0.685718874 0.4967776632
315298110.0 0.7035006001 -0.4920494686 6.99305e-05 -4.2733e-06 5.55413e-05 4.89472e-05 -0.6816725277 0.5038843214
320298080.0 0.6981676353 -0.4993123752 5.68364e-05 -6.26145e-05 -0.0001503288 -8.8814e-06 -0.6763869206 0.5109951024
325298050.0 0.6925589038 -0.5069357321 1.60594e-05 4.90966e-05 -8.46455e-05 -0.0001967453 -0.6702313819 0.5173099102
330298020.0 0.6861910881 -0.5131611274 2.99558e-05 -0.000119703 0.0002126833 -0.0001752188 -0.665404327 0.5245955098
335297990.0 0.6809126314 -0.5192647477 0.000112288 0.0001124561 -0.0001219715 -5.154e-06 -0.65955658 0.5315304782
340297960.0 0.6754484154 -0.525280064 1.43046e-05 -2.9432e-05 6.44002e-05 0.0002349725 -0.6539748769 0.5379802661
345297930.0 0.6703925785 -0.5322807009 9.00103e-05 0.0001031077 3.0711e-05 0.0001312731 -0.6489175709 0.5451899067
350297900.0 0.6649857748 -0.5380878047 8.4724e-05 -0.0001481766 -0.0001012237 6.70835e-05 -0.6430023919 0.5511911629
355297870.0 0.6599526333 -0.5444209391 -6.87275e-05 -4.35839e-05 -2.83846e-05 -0.0001133387 -0.6374216096 0.5583631057
360297840.0 0.6538414497 -0.5507701654 -8.8838e-05 0.0001776307 0.0001591243 -3.93492e-05 -0.6303815405 0.5653687455
365297810.0 0.6482962645 -0.556782564 7.75823e-05 -5.47224e-05 8.27188e-05 -9.76968e-05 -0.6256962899 0.5706496572
370297780.0 0.6432828738 -0.5630757369 0.0001735865 -0.0001009227 -6.90254e-05 -0.0001073815 -0.619573312 0.5780751558
375297750.0 0.6379523688 -0.5686163422 -6.99e-07 -2.6912e-06 0.0003134963 0.0001278317 -0.6136812317 0.5839816073
380297720.0 0.6316925043 -0.574422051 1.3215e-05 3.10678e-05 8.18243e-05 -6.33518e-05 -0.606969143 0.5901805483
385297690.0 0.626427334 -0.5808349095 1.7968e-06 2.59605e-05 -6.12012e-05 2.7827e-05 -0.6014631719 0.5966268533
390297660.0 0.6214128246 -0.5869286105 -0.000157961 2.68523e-05 4.05389e-05 3.3041e-06 -0.594891154 0.6022044658
395297630.0 0.6148183939 -0.5922878687 4.599e-06 -0.000136317 0.0001414474 -6.97654e-05 -0.5884198517 0.6074626902
400297600.0 0.608665653 -0.5982159514 0.0002215276 4.9699e-05 4.01396e-05 8.6452e-05 -0.5829872425 0.6141413659
405297570.0 0.603572914 -0.6045088043 -4.08052e-05 -0.0001825353 -1.64997e-05 -3.45236e-05 -0.5751435638 0.6200843903
410297540.0 0.5980741628 -0.6097397362 -0.000182638 -0.0001238034 0.000105257 -0.0001224106 -0.5691013555 0.6263799956
415297510.0 0.5908571313 -0.6155286569 1.4463e-05 -9.88968e-05 9.79266e-05 0.0001675392 -0.5629339113 0.6313852356
420297480.0 0.5856312828 -0.621590188 -0.0001008065 -6.53942e-05 -1.30792e-05 6.53166e-05 -0.556166286 0.6377889447
425297450.0 0.5793168215 -0.6274502374 -0.0001368551 0.000121896 -4.32656e-05 -0.0001219559 -0.5495757996 0.6427736904
430297420.0 0.57327428 -0.6327921942 1.78903e-05 -4.8019e-05 3.62493e-05 0.0001480579 -0.5428526419 0.648391719
435297390.0 0.5669870455 -0.6387030139 5.6588e-06 1.45156e-05 -9.16075e-05 -7.21935e-05 -0.536686809 0.6543284322
440297360.0 0.5614381799 -0.6438050198 2.6932e-05 4.83801e-05 1.29042e-05 1.1659e-06 -0.5304564709 0.6593119988
445297330.0 0.5556297007 -0.6491570078 -0.000281147 9.30528e-05 -0.0001403406 -5.28458e-05 -0.5233287525 0.6650945642
450297300.0 0.5490499705 -0.6546990683 -0.0001406847 -4.11449e-05 -0.0001626351 0.0001165066 -0.5156833145 0.6693136209
455297270.0 0.5425474131 -0.6597099066 0.0001313219 -0.0001825512 0.0001006649 0.0001127986 -0.509165019 0.6754175377
460297240.0 0.5355175906 -0.6648794642 -6.49962e-05 -0.0001500073 0.0001389099 9.94952e-05 -0.5026067703 0.6800929909
465297210.0 0.5294546294 -0.6694747219 2.12403e-05 -0.0001507636 -0.0001011592 5.83052e-05 -0.4949518385 0.6861070275
470297180.0 0.5231077787 -0.6749732499 3.77758e-05 -0.0001057255 4.6416e-06 -6.469e-05 -0.4879143835 0.6906878296
475297150.0 0.5157518197 -0.6800657616 -6.89089e-05 0.0001591387 2.62337e-05 -8.81386e-05 -0.481550939 0.694898012
480297120.0 0.509558859 -0.6858611705 0.0001045997 0.0001360071 -3.05709e-05 0.0002101899 -0.4750783746 0.7000348442
485297090.0 0.5030267737 -0.6903239411 -1.5675e-05 -7.65158e-05 6.62136e-05 -5.89774e-05 -0.4673167257 0.7048651239
490297060.0 0.4967879975 -0.6941530969 4.735e-07 -0.00012166 0.0001641346 1.50882e-05 -0.4594722045 0.7087319457
495297030.0 0.4898922595 -0.699707201 -0.0001147945 0.0001408549 -0.0001853877 -5.6751e-06 -0.4520739276 0.7136708607
500297000.0 0.4833782994 -0.7044393777 -5.0678e-06 -4.89262e-05 -0.0001347846 -0.0001856554 -0.4449818778 0.7187358905
505296970.0 0.476482654 -0.7090943357 -0.0002115768 7.0661e-06 4.29708e-05 0.0001338853 -0.4379146879 0.7227675477
510296940.0 0.4696906917 -0.7130970044 9.8186e-06 -7.934e-05 -7.72788e-05 -0.0001761884 -0.4300039308 0.7274067399
515296910.0 0.4617598876 -0.7176328489 -2.86963e-05 -0.0001321681 -6.47447e-05 7.45609e-05 -0.4231035234 0.7306619675
520296880.0 0.4566754981 -0.7223711839 -0.0002044207 -1.12676e-05 -4.55802e-05 5.69327e-05 -0.4150825222 0.7358960861
525296850.0 0.4493864417 -0.7270387999 4.16302e-05 0.0001588746 -0.0001231722 1.09064e-05 -0.4081203116 0.7396567708
530296820.0 0.4425968915 -0.731402432 3.10018e-05 -0.0001294745 7.88556e-05 -0.0002198398 -0.4006693876 0.7439531076
535296790.0 0.4353742711 -0.7350507241 0.0001402202 -0.0001970479 -2.62623e-05 -0.0001024309 -0.3931701717 0.747928036
540296760.0 0.4285492861 -0.7393977395 0.0002559079 -9.12371e-05 8.14066e-05 -3.76117e-05 -0.3853299852 0.7511620196
545296730.0 0.4198785747 -0.744101641 -0.0001181669 3.08102e-05 -0.0001367994 0.0001634241 -0.3774760248 0.7554069724
550296700.0 0.4131106126 -0.7475520922 0.0001106529 -1.07802e-05 -7.23949e-05 -0.0002043463 -0.3701536566 0.7585588281
555296670.0 0.4061195224 -0.751818274 -7.1078e-06 9.87581e-05 1.32669e-05 -5.82924e-05 -0.3623694074 0.7623081146
560296640.0 0.3992465009 -0.7544304745 6.35642e-05 6.06396e-05 1.47244e-05 1.28327e-05 -0.3544800464 0.7662851805
565296610.0 0.3911840918 -0.7593635538 1.30488e-05 -0.0001219562 -6.70853e-05 -5.75883e-05 -0.346386177 0.7699482472
570296580.0 0.3840936776 -0.762884972 -9.63637e-05 -0.000151071 -3.02828e-05 0.000114748 -0.3390574059 0.7730821075
575296550.0 0.3764507211 -0.766364128 3.60017e-05 0.0001267353 5.9655e-06 -0.0002631682 -0.3308793617 0.7765713773
580296520.0 0.369223265 -0.7697714922 6.16101e-05 -0.0001832906 9.4156e-05 -0.0001029219 -0.3232309341 0.7794262784
585296490.0 0.3618031353 -0.7728795388 -3.80019e-05 9.9498e-06 2.50915e-05 9.48012e-05 -0.3155415819 0.7832855933
590296460.0 0.3541802239 -0.7758430318 0.0001489881 -8.24249e-05 -0.0001498002 -4.37935e-05 -0.3076184734 0.7858241856
595296430.0 0.3468117259 -0.7798962597 0.0001194311 -0.0001439565 -4.68856e-05 -8.53966e-05 -0.2999348889 0.7891271645
600296400.0 0.3392510963 -0.7835296372 6.43061e-05 -0.0001047742 -6.5459e-06 -7.61686e-05 -0.2920307445 0.7922951661
605296370.0 0.3303954784 -0.7863545644 -5.56215e-05 1.32219e-05 0.0001080777 9.95847e-05 -0.2837492691 0.7952023881
610296340.0 0.3235779786 -0.789603338 3.58446e-05 -7.14271e-05 1.36709e-05 -0.0001798815 -0.2765213372 0.7977586682
615296310.0 0.3160244928 -0.7919321773 -7.68443e-05 9.90751e-05 2.96012e-05 -5.50633e-05 -0.267272944 0.8005533976
620296280.0 0.3082402873 -0.7946787169 -9.22997e-05 -4.70526e-05 0.0001576007 -8.01054e-05 -0.2600657053 0.8030700724
625296250.0 0.2998447625 -0.7985425298 -0.0002150769 0.0001625498 0.0001359752 0.0002373248 -0.251648776 0.8050101711
630296220.0 0.2916946014 -0.8006340846 -9.23737e-05 1.87685e-05 -3.2361e-05 0.0001103292 -0.2434937396 0.8078700764
635296190.0 0.2838846539 -0.8032736448 -2.79207e-05 -0.0001526476 -9.39016e-05 -7.7357e-06 -0.2356049088 0.8096081095
640296160.0 0.2755324031 -0.8057724045 9.48049e-05 -4.47912e-05 7.90121e-05 0.0001673373 -0.2270248574 0.8127534525
645296130.0 0.2690093069 -0.8080135638 7.1041e-06 -5.04234e-05 -4.08721e-05 0.0001245918 -0.2192754558 0.814408741
650296100.0 0.2603916913 -0.8105654271 4.53508e-05 -3.51645e-05 -8.4906e-06 -3.51176e-05 -0.2108691129 0.816639468
655296070.0 0.2527541142 -0.813187455 -5.10224e-05 0.0001234721 3.59339e-05 0.0001886819 -0.2033088447 0.8192668283
660296040.0 0.2437417404 -0.8151990201 0.0001556782 4.06337e-05 0.0001671811 6.3258e-06 -0.1942608761 0.8208893681
665296010.0 0.2361196613 -0.8175746231 -2.37419e-05 8.10991e-05 -0.0001635165 -3.91417e-05 -0.186404167 0.8227476838
670295980.0 0.2282077396 -0.8194745625 3.8463e-05 -1.51626e-05 -5.44057e-05 -8.25264e-05 -0.1783333976 0.8243204653
675295950.0 0.2193992365 -0.821899946 -0.000207717 8.05465e-05 1.62759e-05 8.44528e-05 -0.1699985918 0.8266344364
680295920.0 0.2113761085 -0.8235803936 0.0001087623 3.2362e-05 -6.3435e-06 -0.0001357203 -0.1610975071 0.8276344752
685295890.0 0.2029434791 -0.8249460545 -3.4265e-06 -5.8498e-06 -4.54773e-05 0.0002254957 -0.1532230971 0.8294463777
690295860.0 0.1948498437 -0.8263335834 -4.79003e-05 -3.2659e-05 -5.11563e-05 -0.0001052143 -0.1450958213 0.8310806596
695295830.0 0.1864878417 -0.8287912302 9.41829e-05 -1.47901e-05 -7.83188e-05 2.46967e-05 -0.1371901788 0.8329692798
700295800.0 0.1784471249 -0.8297658748 -4.23032e-05 -3.76862e-05 -9.21214e-05 -5.78519e-05 -0.1283886356 0.8333133653
705295770.0 0.1702086981 -0.8314296916 -0.0001215338 -6.25385e-05 -1.20143e-05 -5.41066e-05 -0.1198740887 0.8356248582
710295740.0 0.1618002157 -0.8320922012 -3.8459e-05 -4.2741e-06 2.52126e-05 -0.0001291268 -0.1116526954 0.8359954708
715295710.0 0.1536864049 -0.8335213291 1.45683e-05 0.000161004 -0.0001283188 -0.0001255973 -0.1033007248 0.8365376583
720295680.0 0.1454900072 -0.8351678379 0.0001510673 -9.66694e-05 0.0001258993 -3.14004e-05 -0.0950432921 0.8378257134
725295650.0 0.1368041346 -0.8364208282 -7.13097e-05 -1.10928e-05 -8.6469e-06 0.0001061637 -0.0870865147 0.8391412874
730295620.0 0.1285903454 -0.8377147953 -0.0001706951 -2.88759e-05 0.0001089963 -9.76009e-05 -0.078941613 0.8404787431
735295590.0 0.1200157016 -0.8385178904 -4.07954e-05 1.38554e-05 -0.0001451268 4.46872e-05 -0.0693987014 0.8405459327
740295560.0 0.1112447376 -0.8393242145 2.14573e-05 0.0001920137 0.0001246567 0.0001446937 -0.0617743326 0.8417928719
745295530.0 0.1035564121 -0.8397327089 9.5512e-05 -0.0001342453 -0.0002181214 -5.56533e-05 -0.0535612646 0.8414198201
750295500.0 0.09484135 -0.8406157145 0.0001426076 0.0002176253 -1.88311e-05 -3.19047e-05 -0.0448066449 0.8423701924
755295470.0 0.0866257538 -0.8409939648 6.12817e-05 -5.8758e-06 6.4514e-06 0.0001906644 -0.0372477539 0.8430524349
760295440.0 0.0784811099 -0.8410332133 -0.0001515713 0.0002585635 5.89945e-05 -5.86378e-05 -0.0283076523 0.8423771511
765295410.0 0.0697629288 -0.8423583511 -0.0002490869 0.0001712706 0.00015534 0.0001993676 -0.0201045688 0.8434081861
770295380.0 0.0614342506 -0.842190954 0.0001611607 -0.0001192994 -5.98014e-05 1.36163e-05 -0.0114650196 0.8430572793
775295350.0 0.053651405 -0.8422244964 8.01058e-05 -8.56747e-05 4.55351e-05 6.55847e-05 -0.003658852 0.8431766444
780295320.0 0.0444942872 -0.8429455473 9.87272e-05 3.78437e-05 9.91691e-05 -0.0001143413 0.0050624586 0.8436563484
785295290.0 0.0362147985 -0.8431577367 -7.237e-06 -3.42954e-05 -3.78227e-05 -5.52279e-05 0.0134330491 0.8438041468
790295260.0 0.0288745176 -0.8436027248 0.0001800678 -0.0003960475 2.2444e-05 7.64369e-05 0.0216892945 0.8432756703
795295230.0 0.0192105792 -0.8441163161 7.73005e-05 -8.69673e-05 6.15941e-05 0.0001296213 0.0300946974 0.8423224975
800295200.0 0.0110842894 -0.8433518323 7.12815e-05 -6.35484e-05 5.93312e-05 2.74104e-05 0.0385143525 0.8424139946
805295170.0 0.0028472099 -0.8434056305 4.20462e-05 -0.000189583 -7.2805e-06 1.13663e-05 0.0471823157 0.8423114495
810295140.0 -0.0054745054 -0.842289197 -0.0001552192 -1.26564e-05 -0.0001298006 8.23888e-05 0.0558845735 0.8414462101
815295110.0 -0.0142677555 -0.8429093463 -6.56658e-05 -3.7634e-05 0.0001023324 5.56868e-05 0.0635444215 0.8408967752
820295080.0 -0.0225513221 -0.8426025275 8.92981e-05 0.0001198804 7.11045e-05 0.0002098743 0.0715138396 0.8402460668
825295050.0 -0.0316710163 -0.841722579 -5.99574e-05 -0.0001903024 1.84518e-05 4.5287e-05 0.0802014372 0.8396929473
830295020.0 -0.0387588246 -0.8415854631 -0.0001940623 -0.0001406094 -2.19545e-05 7.67371e-05 0.0877993267 0.837833383
835294990.0 -0.0469625905 -0.8409625347 6.85116e-05 -0.0001996452 -7.27291e-05 -0.0002645708 0.0967279376 0.8378123057
840294960.0 -0.0552148674 -0.8403903248 1.85349e-05 0.00021044 -6.28889e-05 -2.30446e-05 0.1054763558 0.8367977364
845294930.0 -0.0644381178 -0.8390453028 -6.53509e-05 8.5408e-06 0.0001692014 5.07951e-05 0.1137048518 0.8355211598
850294900.0 -0.0718430308 -0.838550732 0.0001199375 0.0001010998 1.71052e-05 -7.87838e-05 0.1214580533 0.834351112
