!Created with skrf (http://scikit-rf.org).
# Hz S RI R 50.0 
!freq ReS11 ImS11 ReS21 ImS21 ReS12 ImS12 ReS22 ImS22
300000.0 -0.1021740579 -0.0611798115 0.6322625224 0.0562911865 0.6258505007 0.0580601133 -0.1035319942 -0.0677909444
5299970.0 -0.1024778435 0.0134082203 0.6307209515 0.0097536429 0.6307196884 0.0103043308 -0.1011768813 0.0133571882
10299940.0 -0.0974897245 0.0293911528 0.634358267 0.0149950601 0.6344236188 0.0155302639 -0.0961149658 0.0303240936
15299910.0 -0.0902692093 0.0427958201 0.6405766463 0.0200876071 0.6408547347 0.020670631 -0.0890916327 0.0434923228
20299880.0 -0.081946853 0.0530546766 0.6486621001 0.0244948284 0.6484115328 0.0243441752 -0.0802927744 0.0544334735
25299850.0 -0.0723658339 0.0621554631 0.6577194969 0.0250922803 0.657947168 0.0254017635 -0.0701111652 0.062925558
30299820.0 -0.062174305 0.0688577303 0.667169824 0.0243125811 0.6672454981 0.0240823358 -0.0600589656 0.070007159
35299790.0 -0.0526577107 0.0736306997 0.6775083742 0.021373595 0.6770469656 0.0217316074 -0.0502628995 0.0748436878
40299760.0 -0.0435955624 0.0772659551 0.6862854641 0.0171358158 0.6867432669 0.0179978001 -0.0407206017 0.0770006512
45299730.0 -0.0342591073 0.0792267324 0.695501856 0.0121377525 0.6958412494 0.0119011708 -0.031336199 0.0795916122
50299700.0 -0.0257455704 0.0801467019 0.7036704955 0.004771585 0.7037226368 0.005553602 -0.0228380462 0.08024577
55299670.0 -0.0174774516 0.0802650363 0.7109736346 -0.0033183381 0.7108520485 -0.0023377596 -0.0148646657 0.0804154857
60299640.0 -0.0100856025 0.0800882743 0.7171742207 -0.0112470059 0.7173542881 -0.0109460134 -0.0075455651 0.0793127529
65299610.0 -0.003536992 0.0786132847 0.7233462417 -0.0199167095 0.7236284903 -0.0195267417 -0.0011302011 0.0783263164
70299580.0 0.002702288 0.0776818969 0.7290046561 -0.0290185681 0.7286066925 -0.0291819951 0.0051499071 0.076521491
75299550.0 0.0081790019 0.0759200728 0.7329797989 -0.0385738896 0.7329148654 -0.0390358711 0.0103837914 0.0747608701
80299520.0 0.0131083113 0.0736519929 0.7375027891 -0.0491592869 0.7374776929 -0.0488335809 0.0151969091 0.07261032
85299490.0 0.0177395734 0.0714501325 0.7403376732 -0.0580899799 0.7409000335 -0.0578854113 0.0193433409 0.0697853071
90299460.0 0.021787593 0.0692068299 0.7429357358 -0.068569753 0.7435682333 -0.0687146333 0.0237664728 0.0680971514
95299430.0 0.0260140455 0.0663269187 0.7459444064 -0.0783863319 0.7460059128 -0.0789332229 0.0277834709 0.0656237248
100299400.0 0.0291637475 0.0646696521 0.7471217403 -0.0885471856 0.747424723 -0.0889558963 0.0311858738 0.0626359708
105299370.0 0.0323149557 0.061916121 0.7487010252 -0.0992465996 0.749535838 -0.0988113386 0.0344404625 0.0608182584
110299340.0 0.0351712413 0.0597861705 0.7504742546 -0.1086797755 0.7499435888 -0.1088024673 0.0363882322 0.0582240978
115299310.0 0.0374791824 0.0573080022 0.7514821265 -0.1191834253 0.7511913984 -0.1191899347 0.0391027775 0.0557455959
120299280.0 0.0399519333 0.0545760295 0.7517434254 -0.1293504976 0.7518059062 -0.1292039142 0.0412564153 0.0533767705
125299250.0 0.0418971788 0.0521621317 0.7515582285 -0.1385815183 0.7516353754 -0.1389567998 0.0426601771 0.0508664105
130299220.0 0.0435897002 0.0502614896 0.7513497841 -0.1487132733 0.7512930529 -0.1486790236 0.0448829379 0.0486218311
135299190.0 0.0451446475 0.0484465996 0.7521379982 -0.1590704928 0.7512842788 -0.1588191988 0.0463839161 0.0463761634
140299160.0 0.0463729836 0.0461780315 0.7506791026 -0.1687820008 0.7509670427 -0.1688744747 0.0479013828 0.0447272258
145299130.0 0.0480868115 0.0439142247 0.7504818169 -0.1780697303 0.7499821333 -0.1781601864 0.0490337331 0.042397782
150299100.0 0.049527939 0.042186818 0.7487065519 -0.1871670419 0.7490607048 -0.1873152019 0.050649935 0.0403168733
155299070.0 0.0499623713 0.039925325 0.7481132422 -0.1980170179 0.7478181077 -0.1976899013 0.0515062315 0.0385424974
160299040.0 0.0514818939 0.0382720902 0.7467234015 -0.2067600968 0.7463723981 -0.2073368173 0.0518142751 0.036417882
165299010.0 0.0522969753 0.0365409438 0.7446215127 -0.21703582 0.7451113121 -0.2168534753 0.0532140521 0.0351724572
170298980.0 0.0530629304 0.0342072543 0.7430246064 -0.2262061242 0.7435745845 -0.2257208682 0.0536616229 0.0332803131
175298950.0 0.0535099313 0.032588571 0.7415277113 -0.235259938 0.7411169474 -0.2349978914 0.0543912455 0.0313558619
180298920.0 0.0540346747 0.0308600581 0.7391840528 -0.2448342738 0.7393104314 -0.2439873187 0.0551891613 0.0301024661
185298890.0 0.0551239755 0.0288876458 0.7367402465 -0.2535487472 0.7367737188 -0.253369163 0.0553275404 0.0284508044
190298860.0 0.0552202561 0.0276962889 0.7343590708 -0.263023122 0.7349767073 -0.2629528307 0.0559792452 0.0262940749
195298830.0 0.0560407594 0.0255422637 0.7323369421 -0.2715380238 0.7324443028 -0.2719216544 0.0571053982 0.0250262396
200298800.0 0.0560729639 0.0242494965 0.7291599008 -0.2807321693 0.7291155108 -0.2812857402 0.0567205797 0.0234235733
205298770.0 0.0568829318 0.0229901851 0.7264455642 -0.2899914897 0.7264563548 -0.2896339048 0.0570728219 0.0211687052
210298740.0 0.0570906452 0.0210650787 0.723218702 -0.2979874645 0.7237850334 -0.2982538378 0.0577988604 0.021295956
215298710.0 0.0569053551 0.0198196996 0.720794944 -0.3070754377 0.720544544 -0.3071286504 0.0576584501 0.0197399849
220298680.0 0.0577166551 0.0179691141 0.7169662297 -0.3157997742 0.7172780087 -0.3155957667 0.0576745499 0.0177300807
225298650.0 0.0579789769 0.0166472077 0.7140979588 -0.3244422042 0.7144056896 -0.3241422727 0.057611152 0.0163433717
230298620.0 0.0580186001 0.0157538898 0.7109289766 -0.3323003283 0.7113657377 -0.3327900774 0.0576124784 0.0149295721
235298590.0 0.0577417573 0.014563469 0.7070910389 -0.3410343061 0.707172474 -0.340597438 0.0579406932 0.0136048991
240298560.0 0.058196924 0.0133923315 0.7037698186 -0.350267666 0.7036851372 -0.3493096211 0.0579171181 0.0129892467
245298530.0 0.0578424754 0.0120911107 0.7007219201 -0.3576630022 0.6997648313 -0.357914851 0.0585833207 0.0107792106
250298500.0 0.0585861073 0.0111022581 0.6952883361 -0.3663683498 0.6953353433 -0.365362809 0.0583571341 0.0101636404
255298470.0 0.0585043056 0.0093043894 0.6918789321 -0.3742521087 0.691854034 -0.3738203594 0.0583572885 0.0091206457
260298440.0 0.058006506 0.0080265043 0.6879549322 -0.3828309593 0.688204027 -0.3817803998 0.0589617823 0.0079530031
265298410.0 0.0587079362 0.0077654951 0.684046914 -0.3906962057 0.6839629291 -0.3900577278 0.0586529767 0.0068984153
270298380.0 0.0583876013 0.0061368522 0.6799614652 -0.3983739781 0.6805914772 -0.3980780355 0.0584706794 0.0058128758
275298350.0 0.0590504009 0.0052071676 0.6754725429 -0.406448774 0.6759324739 -0.4064866766 0.0585733967 0.0048040164
280298320.0 0.0587546201 0.0042221235 0.6717421198 -0.414520428 0.6715503278 -0.41426364 0.0590413183 0.0037450831
285298290.0 0.058651331 0.0033195976 0.6666238543 -0.4224763734 0.6666722522 -0.4222369972 0.0590415646 0.0026606936
290298260.0 0.0589874842 0.00212081 0.6624758568 -0.4296070754 0.6621099173 -0.4297787128 0.0589096091 0.0023352472
295298230.0 0.0589905771 0.0010728349 0.6579002373 -0.4371807561 0.6576888624 -0.4372938209 0.0593358335 0.0006468483
300298200.0 0.0584200651 1.77727e-05 0.6532717064 -0.444851429 0.6535815475 -0.445672221 0.0588873391 -0.0004255368
305298170.0 0.058654628 -0.0014616404 0.6476313919 -0.453315793 0.6477318525 -0.4527600654 0.0595169305 -0.0016634142
310298140.0 0.0585418486 -0.0024320551 0.643284268 -0.4607645024 0.6439483994 -0.4609996548 0.0590758228 -0.0026868161
315298110.0 0.0582108732 -0.0039387616 0.6385207246 -0.4683620489 0.6385415726 -0.4681037322 0.05860045 -0.0038152153
320298080.0 0.0586907884 -0.004643943 0.6324395038 -0.4762943507 0.6335150837 -0.4755658644 0.0583361133 -0.0050146895
325298050.0 0.0574954786 -0.0059934713 0.6273933043 -0.4837184631 0.6278679475 -0.4830727714 0.0577459578 -0.0057255771
330298020.0 0.0574721262 -0.0070329724 0.6216573171 -0.4906253637 0.6220516769 -0.4905399261 0.056958894 -0.0072643541
335297990.0 0.057195064 -0.0082278244 0.6163736191 -0.4975543533 0.6160223022 -0.4976638207 0.0562830699 -0.0075154362
340297960.0 0.0560618843 -0.0086220718 0.6101218964 -0.5048145817 0.6098901422 -0.5045292735 0.0567691732 -0.0083088073
345297930.0 0.0557884882 -0.0090266296 0.6047500156 -0.5120849303 0.6042942614 -0.5114930995 0.0560496104 -0.0095802106
350297900.0 0.0552674748 -0.0104878582 0.5983112156 -0.5186768578 0.5980840466 -0.5184474755 0.0554048126 -0.0095731247
355297870.0 0.0552622138 -0.0102913047 0.5928223084 -0.5249178432 0.5927877925 -0.5247889181 0.0550371389 -0.0106929681
360297840.0 0.054737206 -0.0111988383 0.5879163884 -0.5311278488 0.5880248784 -0.5317439787 0.0547040939 -0.0111012035
365297810.0 0.054119384 -0.0117146325 0.5813863023 -0.5384860398 0.5819769898 -0.538420867 0.054562766 -0.0115654592
370297780.0 0.0546954798 -0.0131245994 0.5748083933 -0.5446213313 0.5760083891 -0.5441410551 0.0541682919 -0.0122503273
375297750.0 0.0539328258 -0.0135856469 0.5692643354 -0.551118458 0.5702063732 -0.5506943742 0.054204369 -0.0129440624
380297720.0 0.0536790619 -0.0142596609 0.5631429869 -0.5576971533 0.5636175236 -0.5567654052 0.0534284359 -0.0140040657
385297690.0 0.0531124955 -0.0150748771 0.5568051515 -0.563768677 0.5569899639 -0.5637488082 0.053467766 -0.0143321483
390297660.0 0.052888733 -0.0152935483 0.5508078222 -0.570019632 0.5507051379 -0.5695056482 0.0526517477 -0.0154580414
395297630.0 0.0523833473 -0.0159845223 0.5448565579 -0.5762342351 0.5444122362 -0.5761164447 0.0535160448 -0.0159041912
400297600.0 0.0519779053 -0.016692393 0.5376265436 -0.5830600206 0.5380703344 -0.5821831487 0.0525575811 -0.0164213268
405297570.0 0.0514299979 -0.0174941275 0.5312430536 -0.5882126237 0.5317674194 -0.5876776051 0.0516980719 -0.0168335596
410297540.0 0.0514993006 -0.0182226538 0.5252765225 -0.5944281 0.5257539511 -0.5943206683 0.0515025069 -0.0171469736
415297510.0 0.0514535035 -0.0185904 0.5187112089 -0.6001363119 0.5192997921 -0.5998318014 0.0513617297 -0.0179973046
420297480.0 0.0510207694 -0.0191734243 0.5122240513 -0.605948148 0.5117711215 -0.6055775307 0.0509660161 -0.0193517823
425297450.0 0.0503068832 -0.0204676762 0.5055356675 -0.6112644349 0.505210421 -0.6114097665 0.049781111 -0.0187536691
430297420.0 0.049882303 -0.0210085913 0.4984659766 -0.6162298488 0.4986581002 -0.6160172944 0.0498201199 -0.0202069086
435297390.0 0.0494447855 -0.0210322297 0.4912741643 -0.6225065558 0.4915306683 -0.62214104 0.0503573731 -0.0203271929
440297360.0 0.0492595479 -0.0214547545 0.4847237194 -0.6277946289 0.4848443731 -0.6276511133 0.0492562113 -0.0214818507
445297330.0 0.0487466657 -0.0227028846 0.4781979561 -0.6327593181 0.4784270507 -0.6326393111 0.0491728897 -0.021913667
450297300.0 0.0487013172 -0.0232106221 0.4708172589 -0.6385757359 0.470772447 -0.6389999628 0.0485953077 -0.0228286502
455297270.0 0.048188131 -0.0233578313 0.4637458195 -0.643834 0.4642774047 -0.6439521845 0.0480268566 -0.022951837
460297240.0 0.0478258438 -0.0241615004 0.4565916125 -0.6481005843 0.45663925 -0.6488674956 0.0478895653 -0.0233392698
465297210.0 0.0475073823 -0.0244965125 0.4501422426 -0.6535361174 0.4496678507 -0.6543994627 0.0474990211 -0.024341504
470297180.0 0.0471300439 -0.0253768689 0.4423260865 -0.6589051222 0.4425206298 -0.6587845199 0.0473230346 -0.0244650238
475297150.0 0.0467418104 -0.0263092092 0.434783968 -0.662890809 0.4351103461 -0.6630736887 0.0472769893 -0.0256732249
480297120.0 0.0459443878 -0.026092606 0.4273787221 -0.6686308256 0.4279322003 -0.668165322 0.0468335446 -0.0255067652
485297090.0 0.0455617102 -0.0268262299 0.4208140398 -0.6730244969 0.4208904127 -0.6729288018 0.0462979391 -0.0263036404
490297060.0 0.0447688965 -0.027446126 0.4133957967 -0.6781571397 0.4133590866 -0.6771710762 0.0459489359 -0.0261876037
495297030.0 0.0445839109 -0.0276279801 0.4053082604 -0.6817574152 0.4062156762 -0.6820609714 0.0451026331 -0.0273334633
500297000.0 0.0443473106 -0.0284750961 0.3978347823 -0.6860571495 0.3978645988 -0.6860288457 0.0449099718 -0.027038532
505296970.0 0.0440572816 -0.0293669597 0.3903793477 -0.6908848483 0.3900987992 -0.6905896347 0.0443408573 -0.0279648762
510296940.0 0.0432624344 -0.029317691 0.3828848297 -0.6949340053 0.3831061537 -0.695306523 0.0440517152 -0.028124106
515296910.0 0.0427355899 -0.0294128335 0.3752988283 -0.6992518076 0.3754978205 -0.6993046574 0.043800333 -0.0285011363
520296880.0 0.0424312294 -0.0300052949 0.3678967183 -0.7040534163 0.3674489454 -0.7034741791 0.0432151621 -0.029588905
525296850.0 0.0421305717 -0.0311618001 0.3597538798 -0.7071250411 0.3601433328 -0.7078323247 0.0427938601 -0.0299824589
530296820.0 0.0416126721 -0.0311712249 0.3524726414 -0.7114767971 0.3518778262 -0.7113217723 0.0423286009 -0.0304157832
535296790.0 0.0407406361 -0.0315457162 0.3448046582 -0.7152312545 0.3450153995 -0.7147511526 0.0416337294 -0.0311394206
540296760.0 0.0402915384 -0.0317392155 0.336376171 -0.7193889734 0.3364955722 -0.7187977936 0.0406423941 -0.0306648908
545296730.0 0.0401567924 -0.0325387222 0.3285815527 -0.7224994408 0.3286167816 -0.7229187707 0.0404610489 -0.0316710149
550296700.0 0.0399277388 -0.0323931666 0.3204027304 -0.7260678625 0.3210483854 -0.7267822958 0.0397979868 -0.0315786804
555296670.0 0.0389245924 -0.0331665824 0.3129286046 -0.7299199665 0.3129530624 -0.729832024 0.0395327966 -0.032218505
560296640.0 0.0387487644 -0.0330776963 0.3045853715 -0.7333078671 0.3045328996 -0.732952121 0.0391733031 -0.0325930247
565296610.0 0.0374880603 -0.0340491408 0.2964926709 -0.7359110549 0.2968359501 -0.7362400923 0.0382451818 -0.0332220876
570296580.0 0.0371921985 -0.0338780865 0.2882883024 -0.7402009009 0.2879186438 -0.7392913932 0.0379344574 -0.0328486529
575296550.0 0.0364711352 -0.0342583556 0.280347626 -0.7426031243 0.2803543011 -0.7435106311 0.0377744955 -0.0336890008
580296520.0 0.0362885508 -0.0346691507 0.2723442387 -0.7460505806 0.2727808265 -0.746140578 0.037102543 -0.0340596596
585296490.0 0.0355689019 -0.035778701 0.2647315043 -0.7485184692 0.2647544487 -0.748926524 0.0364772319 -0.0343967985
590296460.0 0.0355308394 -0.0354456945 0.2565717323 -0.7507472084 0.2556264599 -0.7510947685 0.0350102447 -0.0347025494
595296430.0 0.0351363303 -0.0357359654 0.2475609981 -0.7548107542 0.2477960646 -0.7541028793 0.0352052756 -0.0354032346
600296400.0 0.0339704311 -0.0360707707 0.239544977 -0.7572103106 0.2392754589 -0.7567470889 0.0344406536 -0.035332702
605296370.0 0.0334087271 -0.0364316929 0.2309818317 -0.7598011202 0.2315249324 -0.7592548559 0.0344119452 -0.0356441189
610296340.0 0.0331119073 -0.0369399186 0.2223655218 -0.7620411023 0.2232305668 -0.7622249816 0.0342033382 -0.0363704611
615296310.0 0.032922821 -0.0376599695 0.2141860041 -0.7639986519 0.2143487106 -0.7647244612 0.0333579973 -0.0363410558
620296280.0 0.032310969 -0.0377431 0.2061412547 -0.7664996526 0.2061994301 -0.7662567612 0.0326706126 -0.036718281
625296250.0 0.0312448382 -0.0384308687 0.1988706887 -0.7696517145 0.198371548 -0.7691702531 0.0327117154 -0.0368459816
630296220.0 0.0321097211 -0.0378668767 0.1891494858 -0.7708691495 0.18908611 -0.7705408396 0.0317113849 -0.0366801091
635296190.0 0.0300094805 -0.0390933908 0.1810297666 -0.7727540051 0.1808349789 -0.7728092204 0.0314553326 -0.0370270102
640296160.0 0.0299224285 -0.0385986122 0.1728274848 -0.774545726 0.1727736158 -0.7746488843 0.0303497661 -0.0375530439
645296130.0 0.0293969741 -0.0389896479 0.163880663 -0.7763833778 0.1643762273 -0.7770217025 0.0300753189 -0.0377005193
650296100.0 0.0287404058 -0.0389359395 0.1552803889 -0.7782259337 0.1563141659 -0.7789834582 0.030163879 -0.0386954425
655296070.0 0.0277387716 -0.0397905821 0.1470209605 -0.780263882 0.1471805445 -0.7800591764 0.0293744874 -0.0382925057
660296040.0 0.0269521016 -0.040267688 0.1387050026 -0.7817342773 0.1385074467 -0.7822194016 0.0290066802 -0.0386517303
665296010.0 0.0271461155 -0.0400591328 0.1295074138 -0.782920878 0.1303029549 -0.7828237484 0.0283658336 -0.0382073548
670295980.0 0.025156423 -0.0400604846 0.1214486008 -0.7849528857 0.121905658 -0.78453438 0.0271525353 -0.0387665328
675295950.0 0.025305555 -0.0401117632 0.1134072455 -0.7857157952 0.1132435193 -0.7849723609 0.0265485593 -0.0390770337
680295920.0 0.024190594 -0.0409733775 0.1042175598 -0.7864793115 0.1037553318 -0.7871306582 0.0262019671 -0.038405465
685295890.0 0.0241664493 -0.0401839777 0.0959743502 -0.787580504 0.0953541394 -0.7882456215 0.0251756198 -0.038988172
690295860.0 0.0238536924 -0.0407352944 0.0870278958 -0.7880073703 0.0872147113 -0.7887350978 0.0245228741 -0.0384961306
695295830.0 0.0229469827 -0.0410672944 0.0789435628 -0.7895489017 0.0781681894 -0.7894826752 0.0241041624 -0.0388386996
700295800.0 0.0226953845 -0.0415350399 0.0696155148 -0.7901898764 0.0701924997 -0.7898099336 0.0236868249 -0.0384768259
705295770.0 0.0216434176 -0.0405914819 0.0607735202 -0.7913185577 0.062348266 -0.7912658786 0.0228496978 -0.0391780979
710295740.0 0.0213966432 -0.0414398394 0.0528262484 -0.7928962308 0.0535238861 -0.7924679729 0.0226848891 -0.0400942462
715295710.0 0.0199137368 -0.0416579857 0.0439896063 -0.792215419 0.0437449287 -0.7925542195 0.0223886061 -0.0398322816
720295680.0 0.0196154574 -0.0417419919 0.035810256 -0.7931179528 0.0356023119 -0.7928729227 0.0214445558 -0.0391298755
725295650.0 0.0196127873 -0.0416622468 0.0268817983 -0.7932620382 0.0270105528 -0.7933013629 0.0201509604 -0.0396828537
730295620.0 0.0187766227 -0.0410873563 0.0183969568 -0.7926275043 0.0183980051 -0.7934808041 0.0195761671 -0.0403168925
735295590.0 0.0182834525 -0.0415488924 0.0100019121 -0.7937013622 0.0094454075 -0.7937164742 0.0190039826 -0.0402662406
740295560.0 0.0171598443 -0.0416590554 0.0004363447 -0.7931097413 0.0012247603 -0.7933158758 0.0188158966 -0.0399275751
745295530.0 0.0167905079 -0.0414984465 -0.008035092 -0.7927247643 -0.0073796798 -0.793488997 0.0184137464 -0.040687867
750295500.0 0.0162606085 -0.0418094526 -0.016074386 -0.7928995014 -0.0162850522 -0.7935275259 0.0177293341 -0.0404183965
755295470.0 0.0156791618 -0.0420012875 -0.0246401582 -0.7929861874 -0.0246788872 -0.7933752815 0.0177967363 -0.0410643076
760295440.0 0.0148431218 -0.0415238097 -0.0338136231 -0.7931782293 -0.0337267425 -0.7935000026 0.0167415546 -0.040624706
765295410.0 0.0140197585 -0.0418244141 -0.0421802847 -0.7928269337 -0.0425155739 -0.792475908 0.0161910584 -0.0402660441
770295380.0 0.0132646172 -0.0423677842 -0.0508426916 -0.7919012987 -0.0508718571 -0.7916269574 0.0154765304 -0.0410307861
775295350.0 0.0129007392 -0.0429081491 -0.0594520549 -0.7912719682 -0.0593418823 -0.7906088202 0.0139471531 -0.0401973462
780295320.0 0.0125172198 -0.0420639399 -0.0679090013 -0.7900183304 -0.0671779193 -0.7901008319 0.0138383835 -0.0411766827
785295290.0 0.0115685653 -0.0428181805 -0.0766384217 -0.7890889828 -0.0762128012 -0.7896658408 0.0141533528 -0.0404856089
790295260.0 0.0116692263 -0.0417252423 -0.0846957472 -0.788343057 -0.0840617726 -0.7885257995 0.0133179142 -0.040657563
795295230.0 0.010845692 -0.0423467245 -0.0934083855 -0.7876565536 -0.0931435082 -0.7880735592 0.0127679009 -0.0403730297
800295200.0 0.00974987 -0.0416891591 -0.1030820539 -0.7858025395 -0.101917806 -0.7865809046 0.0121625574 -0.0406112867
805295170.0 0.0092793693 -0.0418965956 -0.1111331002 -0.7849903788 -0.1104842733 -0.7853655769 0.0115651507 -0.0404578035
810295140.0 0.0084490717 -0.0423710504 -0.118947498 -0.783399466 -0.1190789421 -0.784477055 0.0112850999 -0.0399462672
815295110.0 0.0082714463 -0.0425884494 -0.1274835438 -0.7825301705 -0.1274794421 -0.7824642418 0.0100712127 -0.0402213516
820295080.0 0.0070027621 -0.0415192342 -0.136564242 -0.7809709682 -0.1356414956 -0.7811197581 0.0097190624 -0.0402320115
825295050.0 0.0075420208 -0.0417555779 -0.1440876027 -0.7792421032 -0.1444895668 -0.7797152974 0.0092735477 -0.040157433
830295020.0 0.0064225754 -0.0415961953 -0.1527327741 -0.7775399271 -0.1530495101 -0.7776303993 0.0094260747 -0.039905678
