!Created with skrf (http://scikit-rf.org).
# Hz S RI R 50.0 
!freq ReS11 ImS11 ReS21 ImS21 ReS12 ImS12 ReS22 ImS22
300000.0 -0.2393860583 -0.1021356849 0.4677785199 0.0662544657 0.4686710773 0.0707137785 -0.2367019911 -0.1102367368
5299970.0 -0.2437176597 0.0070993234 0.4739110593 0.0050787149 0.4737334931 0.005669151 -0.2441089142 0.0060279141
10299940.0 -0.2403845964 0.0198048131 0.4762615993 0.006466904 0.475694837 0.0066039202 -0.2411128979 0.0184232016
15299910.0 -0.2360591352 0.0294774456 0.479665584 0.0078458384 0.4794817223 0.0080084789 -0.2370168811 0.0274888751
20299880.0 -0.2303057755 0.037194337 0.4838793788 0.008486301 0.4842727292 0.0085972619 -0.2320835991 0.0352449078
25299850.0 -0.2248354667 0.0434116232 0.4894565757 0.0075676922 0.4894007207 0.0073710663 -0.2270771494 0.0415085077
30299820.0 -0.2188875909 0.048477006 0.4951653714 0.0055618657 0.4945477634 0.0052988724 -0.2215487625 0.0468295775
35299790.0 -0.2132296336 0.0528246925 0.5002307825 0.0021202283 0.5006048171 0.0021984724 -0.2164417455 0.0509146355
40299760.0 -0.2073497747 0.0556642362 0.5055396538 -0.0017458069 0.5055963157 -0.0019237588 -0.2114308381 0.0547435883
45299730.0 -0.2026305362 0.0584918004 0.5102886419 -0.0067142042 0.5102157609 -0.0064970454 -0.2068272139 0.0573741169
50299700.0 -0.1975728434 0.0602080518 0.5139769464 -0.0118582518 0.5146782154 -0.0123934708 -0.2023236396 0.0597858533
55299670.0 -0.1935614439 0.0615463932 0.5178131139 -0.0181952168 0.5182893801 -0.0179418434 -0.1984182803 0.0612187093
60299640.0 -0.1895447433 0.0628342027 0.5213186796 -0.0245722806 0.5212966613 -0.024331562 -0.1946014842 0.0630575458
65299610.0 -0.1860918924 0.0639670435 0.5243681702 -0.0304246729 0.5245879429 -0.0306193006 -0.1908599812 0.0648111898
70299580.0 -0.1827232551 0.0643034473 0.526314111 -0.0364880506 0.5269477454 -0.0372303286 -0.1881996053 0.065518234
75299550.0 -0.1795527013 0.0650825388 0.5284936632 -0.0437380392 0.52874815 -0.0440746295 -0.1850723928 0.0669276115
80299520.0 -0.1772741377 0.0657255988 0.5308864348 -0.0509900551 0.5309239413 -0.0508223089 -0.1824542701 0.0670672009
85299490.0 -0.1745276968 0.0659616608 0.5318141845 -0.0577254506 0.5318568809 -0.0577866733 -0.180304331 0.0683576427
90299460.0 -0.1725909634 0.0665663179 0.533194968 -0.0647129174 0.5332720863 -0.0648803352 -0.1777668799 0.0692293383
95299430.0 -0.1705628406 0.0672338163 0.5344162463 -0.0718796022 0.5343023411 -0.0715363425 -0.1759340353 0.0701572171
100299400.0 -0.1689450359 0.0679771581 0.5344901429 -0.0784615546 0.5342715103 -0.078435102 -0.1742473216 0.0707930608
105299370.0 -0.167016133 0.0679863852 0.5344032788 -0.0850888799 0.534772563 -0.0852018481 -0.1722118852 0.0717321819
110299340.0 -0.1654225893 0.0685626175 0.5345154339 -0.0922144347 0.5349156411 -0.092569368 -0.170623632 0.0725112877
115299310.0 -0.1637088936 0.0687483391 0.5349061943 -0.0986670167 0.5351267452 -0.0987559821 -0.169104968 0.0729883784
120299280.0 -0.1630076096 0.0695401284 0.5349728914 -0.1057759959 0.5347201453 -0.1060394954 -0.167836499 0.0739718306
125299250.0 -0.1619777435 0.0701194164 0.5344228762 -0.1124681475 0.5346714817 -0.1125712624 -0.1663410843 0.0747198529
130299220.0 -0.1607014443 0.07070783 0.5338229972 -0.1192211482 0.5338946804 -0.1193894333 -0.165313544 0.0758769909
135299190.0 -0.1593606651 0.0711530789 0.5330905215 -0.1256540539 0.5328020961 -0.1258275336 -0.1644186495 0.0768113449
140299160.0 -0.1587738698 0.0722963949 0.5324985114 -0.132580207 0.5325498381 -0.1324202269 -0.1629063055 0.0777624315
145299130.0 -0.1573790367 0.0727636651 0.5313618412 -0.1395499094 0.5314874241 -0.1390222692 -0.1620870688 0.0790199365
150299100.0 -0.156489763 0.0734065762 0.5302363303 -0.1459484792 0.530404565 -0.1454500459 -0.1609490069 0.0796004195
155299070.0 -0.1557000883 0.0746785035 0.5287998341 -0.1526326891 0.5290889677 -0.1528301051 -0.1598825483 0.0811976513
160299040.0 -0.15483289 0.0754289075 0.5274914732 -0.158342726 0.5276299834 -0.1586073473 -0.1588588924 0.0824985069
165299010.0 -0.1542559255 0.0763251959 0.5266008649 -0.1654560893 0.5264672454 -0.1653604255 -0.157886012 0.0831935209
170298980.0 -0.1535544755 0.0774177508 0.5241022183 -0.1714938741 0.5247604137 -0.171709563 -0.1569382688 0.0845165026
175298950.0 -0.1525052068 0.0782956605 0.52326961 -0.1779615746 0.5233399026 -0.1780133465 -0.1558643887 0.0858753346
180298920.0 -0.151637793 0.0790414506 0.5214667433 -0.1842343123 0.5213984417 -0.1837328679 -0.1544709107 0.0869113581
185298890.0 -0.1510115518 0.0801849987 0.5191056083 -0.1903452076 0.5195677769 -0.1904569917 -0.1542789284 0.088295862
190298860.0 -0.1504849452 0.0812576743 0.5177690938 -0.1964622465 0.5178694254 -0.1964550624 -0.1527939089 0.0896450195
195298830.0 -0.1496972831 0.0820989975 0.5157664151 -0.2022950545 0.5155621577 -0.2028817371 -0.1519522119 0.0904054997
200298800.0 -0.1488268885 0.0833908821 0.5138405985 -0.2080494621 0.5136161959 -0.2085153618 -0.1506920425 0.0924289317
205298770.0 -0.1482084059 0.0846943783 0.5117443149 -0.2147698595 0.5116412596 -0.2148597644 -0.1501883307 0.0932063794
210298740.0 -0.1476751501 0.0855458433 0.5091810496 -0.2210694177 0.5094999366 -0.2210140984 -0.1491295516 0.0947890285
215298710.0 -0.1468150826 0.0870067214 0.5068470579 -0.2270572203 0.5070156284 -0.2266799244 -0.1486429712 0.0961331492
220298680.0 -0.1458683529 0.0880490705 0.5044196786 -0.2327602636 0.5047987898 -0.2325272404 -0.1472756562 0.0979803368
225298650.0 -0.1448052323 0.0892396974 0.5016633965 -0.2383831657 0.5020523153 -0.2384287662 -0.1462109613 0.099182417
230298620.0 -0.1444510815 0.0906074266 0.4995475286 -0.2445741779 0.4998149494 -0.2444956279 -0.1450674764 0.1003741797
235298590.0 -0.1438179258 0.0914555072 0.497066086 -0.2494295075 0.4969999735 -0.250235713 -0.1440366127 0.1016784826
240298560.0 -0.1430728469 0.0928408851 0.4944841294 -0.2556527205 0.4943234223 -0.2553495578 -0.1432207448 0.1033467311
245298530.0 -0.1418652489 0.0942654907 0.4905905426 -0.261425805 0.4911858159 -0.2614964021 -0.1419159867 0.1049999776
250298500.0 -0.141589998 0.0953058834 0.4885194601 -0.2666005643 0.4889347589 -0.2665812596 -0.1407766099 0.1061815353
255298470.0 -0.1407820199 0.0967032835 0.4852953365 -0.2728247802 0.485919116 -0.2726419525 -0.1397742001 0.1073503986
260298440.0 -0.1398494161 0.0980366913 0.4827645186 -0.2778649744 0.4829038767 -0.2781493767 -0.1382079748 0.1088630232
265298410.0 -0.1388468763 0.0994715552 0.4797357847 -0.2843931154 0.4795438942 -0.283814133 -0.1374321074 0.1102723559
270298380.0 -0.1378240725 0.1006697609 0.4761214239 -0.2892236264 0.476782654 -0.2892471731 -0.1361343637 0.1120901665
275298350.0 -0.1372724166 0.1020299122 0.4732068337 -0.2949147282 0.4734429976 -0.294759311 -0.1347204073 0.1134786298
280298320.0 -0.1363740279 0.1033003878 0.4701033746 -0.2997364891 0.4699166149 -0.3001379997 -0.1335274115 0.1148542777
285298290.0 -0.1351447187 0.1048960541 0.4667539053 -0.3052535084 0.4672909877 -0.3054381134 -0.1325187315 0.116564944
290298260.0 -0.1343109741 0.1062088159 0.4638708524 -0.3108399884 0.4636988177 -0.310837912 -0.1306980778 0.1179675446
295298230.0 -0.1331783712 0.1072882113 0.4604401551 -0.3157070815 0.4598639613 -0.3156785007 -0.1296871601 0.1194413011
300298200.0 -0.1319361564 0.1082284255 0.4566291598 -0.3209042161 0.4567346069 -0.3213835258 -0.1285587472 0.1207715207
305298170.0 -0.1309371919 0.109719525 0.453517555 -0.3268540813 0.4536083192 -0.3265005891 -0.1268884856 0.1225698255
310298140.0 -0.1298767856 0.1106429358 0.4500322027 -0.3321669333 0.4499753697 -0.3323592846 -0.1254568367 0.1242495395
315298110.0 -0.1292140272 0.1119413623 0.4459004934 -0.3369383772 0.4462472028 -0.3370994924 -0.1241724705 0.1249168527
320298080.0 -0.1280150103 0.1132756924 0.4426004776 -0.3422265462 0.4425205611 -0.341999816 -0.1229150324 0.1261393597
325298050.0 -0.1274696445 0.1141126393 0.4389567134 -0.3471806399 0.4390535669 -0.3472663653 -0.1216898571 0.1274975838
330298020.0 -0.1264277122 0.1155980135 0.4340235374 -0.3526331357 0.4344470739 -0.3523259194 -0.1203413306 0.1287953135
335297990.0 -0.125280629 0.1167632295 0.4307381016 -0.3573247423 0.4306666703 -0.3569667854 -0.1190745113 0.1302279275
340297960.0 -0.1246461128 0.1182083639 0.426120608 -0.3617315958 0.4268629364 -0.3616244632 -0.1179086433 0.1319937273
345297930.0 -0.1239776716 0.1196303473 0.422427483 -0.3660949181 0.4221219789 -0.3663281473 -0.1163824347 0.133298635
350297900.0 -0.1222455387 0.1205575184 0.4179431057 -0.3704115237 0.4185832885 -0.3710017501 -0.1151294159 0.1350461352
355297870.0 -0.121349296 0.1220385327 0.4133274711 -0.3756745887 0.4139415361 -0.3757184687 -0.1139077471 0.1364218955
360297840.0 -0.1200508893 0.1234612492 0.4096536345 -0.3801154413 0.409847775 -0.380372248 -0.1120518264 0.1379750723
365297810.0 -0.1191247422 0.1245407188 0.405440756 -0.3846599224 0.40551642 -0.3847384964 -0.1109053554 0.1394794934
370297780.0 -0.1177763766 0.1256953076 0.401047815 -0.3888795316 0.4012290334 -0.3894945826 -0.1089684078 0.140770366
375297750.0 -0.1167651538 0.1274913828 0.3976704168 -0.3936592332 0.3969181529 -0.3939362969 -0.1077398265 0.1423285891
380297720.0 -0.1154575107 0.1285374341 0.3923376323 -0.3978924286 0.3926347783 -0.3981511893 -0.1061137438 0.1437008372
385297690.0 -0.1143694892 0.1297979042 0.3881338484 -0.4017871496 0.3881719413 -0.4021300598 -0.1045529611 0.1451148909
390297660.0 -0.1130719418 0.131045896 0.3836816206 -0.4066205835 0.383908438 -0.406486009 -0.1031052833 0.1459599202
395297630.0 -0.1118368999 0.1321293566 0.3793063898 -0.4105459638 0.3795167187 -0.4105847369 -0.1016844478 0.1479382527
400297600.0 -0.1107136421 0.1335209196 0.3751136939 -0.4146399249 0.3751894159 -0.4146189205 -0.1002886685 0.1488700958
405297570.0 -0.109060719 0.1348424726 0.370177398 -0.4191462532 0.370273701 -0.4193995893 -0.0984978783 0.1507502748
410297540.0 -0.1078810382 0.1356916261 0.365143996 -0.4224602071 0.3650948529 -0.4228545945 -0.0966722464 0.1519136156
415297510.0 -0.1066614762 0.1372030752 0.3609479929 -0.4266311381 0.361061683 -0.4268934983 -0.0953276593 0.1535705981
420297480.0 -0.105320876 0.1380408353 0.3561184849 -0.4312430351 0.3563946948 -0.4310753095 -0.0934069696 0.1541866457
425297450.0 -0.1035189287 0.1391802083 0.3513860352 -0.4349039874 0.3520849147 -0.434686078 -0.0920126588 0.1559428183
430297420.0 -0.1026174247 0.1408817615 0.3465277238 -0.4388041879 0.346799647 -0.4385147158 -0.0900406632 0.15648256
435297390.0 -0.1011585359 0.1414719721 0.341920569 -0.4417947503 0.3420233459 -0.442187154 -0.0886073918 0.15824191
440297360.0 -0.0997580668 0.1424018241 0.336924965 -0.4457413399 0.336636592 -0.4457451576 -0.0868918348 0.159010464
445297330.0 -0.0984073856 0.1434132346 0.3317359713 -0.4497766393 0.3318715155 -0.4497471772 -0.0849009084 0.1603113017
450297300.0 -0.0967016647 0.1447873163 0.3267407953 -0.4532232096 0.3273302366 -0.4532176917 -0.0835989866 0.1618068957
455297270.0 -0.0956321728 0.1458433231 0.3222045451 -0.4565193791 0.3225708459 -0.4567689843 -0.0813560286 0.1632021235
460297240.0 -0.0943959844 0.1468508918 0.3173982367 -0.4599263513 0.3169350392 -0.4602255306 -0.0797367199 0.1640944686
465297210.0 -0.0926040846 0.1476699507 0.3120750247 -0.4637830334 0.3124914356 -0.4637404771 -0.0783934042 0.1649871051
470297180.0 -0.0913266553 0.1488369093 0.3070976556 -0.4667658119 0.3072533385 -0.466944835 -0.0768121403 0.1657545242
475297150.0 -0.0900110339 0.1495106181 0.3018018723 -0.4696516576 0.3022753778 -0.4696275665 -0.0746206115 0.1670687195
480297120.0 -0.0883996051 0.1505510906 0.296747483 -0.4730459368 0.2970963411 -0.4731480918 -0.0728696204 0.1684075444
485297090.0 -0.0867483264 0.1516286632 0.2915937423 -0.4764056432 0.2917855146 -0.4765015254 -0.0710765593 0.1689189588
490297060.0 -0.0854776216 0.1525454882 0.2860470478 -0.479769495 0.2865058008 -0.4798823932 -0.0692635098 0.170286064
495297030.0 -0.0841951534 0.1537198232 0.2813083857 -0.4825195093 0.2809234581 -0.4828943233 -0.0675869653 0.1707419707
500297000.0 -0.0823392732 0.1542324049 0.2756415898 -0.4855176632 0.2759388024 -0.4857980413 -0.0659550597 0.1718278104
505296970.0 -0.081246355 0.1555035539 0.2704446289 -0.4882917043 0.2705200788 -0.4883588579 -0.0644278129 0.1730078528
510296940.0 -0.0793451703 0.1561764668 0.2649931399 -0.4912658537 0.2652110337 -0.4916818271 -0.0615652738 0.1740122178
515296910.0 -0.0782060486 0.1572176548 0.2593513 -0.4943470443 0.2597296484 -0.4946988687 -0.0604279283 0.174699348
520296880.0 -0.0765322865 0.1580187733 0.2544742591 -0.4970007644 0.2546561231 -0.4971237778 -0.0582453436 0.1754977859
525296850.0 -0.0752841449 0.1587076424 0.2488394919 -0.4995462711 0.2488712359 -0.5001743698 -0.0560342369 0.1765397711
530296820.0 -0.0732773558 0.1598603323 0.2436036583 -0.5019801392 0.2432017869 -0.5025495489 -0.0546287956 0.1770826238
535296790.0 -0.0721218601 0.1604166372 0.2380248813 -0.5045944811 0.2381118113 -0.5049134107 -0.0528951719 0.177656875
540296760.0 -0.0706849921 0.1613160577 0.2326255101 -0.5078010676 0.2322658278 -0.5077149025 -0.0510613081 0.1789984011
545296730.0 -0.0688236043 0.1624134039 0.2266382828 -0.5099612705 0.2269732336 -0.5105051042 -0.0491960214 0.1791447515
550296700.0 -0.0674839968 0.1630352783 0.2215788287 -0.5123262462 0.2221941198 -0.5130598054 -0.0470733937 0.1803404218
555296670.0 -0.0652086641 0.1637050305 0.2159079714 -0.5150562167 0.2161035679 -0.5148533409 -0.0455462509 0.1811606488
560296640.0 -0.0641845657 0.1644738638 0.2106867156 -0.5168829253 0.2104876011 -0.5170885611 -0.043004909 0.1814133275
565296610.0 -0.0628863168 0.1651585269 0.204659981 -0.5193147233 0.2045678157 -0.5193163849 -0.0415069521 0.1819831719
570296580.0 -0.0607760311 0.1657959474 0.1987443033 -0.5211569605 0.1996940544 -0.5212518619 -0.0393543443 0.1832951118
575296550.0 -0.0592207974 0.1668569256 0.1929221432 -0.5232135251 0.1938712259 -0.5234429219 -0.0371166871 0.1833003649
580296520.0 -0.0578745745 0.1674288208 0.1879848485 -0.5257193737 0.1878330745 -0.5256951004 -0.0353068489 0.1838621522
585296490.0 -0.05566386 0.1677807061 0.1822097961 -0.5275509984 0.1820866634 -0.5276941131 -0.033474126 0.1841925059
590296460.0 -0.0545071711 0.1685206039 0.1761433561 -0.5294129371 0.1761173986 -0.5295013676 -0.0317535158 0.1851171647
595296430.0 -0.0527366355 0.169246807 0.1707837909 -0.5311817121 0.1705375764 -0.5315417458 -0.0294965012 0.185405426
600296400.0 -0.0513345013 0.1700422717 0.1647489653 -0.5330352472 0.1652954483 -0.5333060994 -0.0274694212 0.186219765
605296370.0 -0.0493418847 0.1709013508 0.1586412099 -0.5350097717 0.1591912186 -0.5346923019 -0.0253557703 0.1864713978
610296340.0 -0.0479546521 0.171349118 0.1535664862 -0.5363269917 0.1537892829 -0.5367384208 -0.0234794595 0.1873062528
615296310.0 -0.0462096143 0.1720971208 0.1472283853 -0.5375901331 0.1474919411 -0.5381247013 -0.021347727 0.187308418
620296280.0 -0.0443797102 0.1722991303 0.1419586305 -0.539399231 0.1416474021 -0.5392449971 -0.0192924598 0.1872563969
625296250.0 -0.0427623222 0.1729669218 0.1352817669 -0.5412461258 0.135490293 -0.5413891823 -0.0172480257 0.1881306419
630296220.0 -0.0412364618 0.173639618 0.1296437243 -0.5427548375 0.1300548213 -0.5424446859 -0.0152304138 0.1883235607
635296190.0 -0.039615411 0.174232325 0.123905645 -0.5434851878 0.1239476475 -0.5432453953 -0.0134299519 0.1884611363
640296160.0 -0.0379869951 0.1746512469 0.1179296257 -0.5448249539 0.1182332061 -0.5449397283 -0.0108721971 0.1887877417
645296130.0 -0.0361465072 0.1753946593 0.1122994603 -0.5465398621 0.1124040779 -0.5463633855 -0.0098949899 0.1887649437
650296100.0 -0.0345808698 0.1761899691 0.1069225 -0.5470585994 0.1065893648 -0.5470956684 -0.0074812008 0.1892131889
655296070.0 -0.0328034521 0.1759666214 0.1003323524 -0.5482673379 0.1003357571 -0.5484087546 -0.0047187806 0.1896111914
660296040.0 -0.0313576765 0.1770129261 0.0949500466 -0.5492438005 0.0944735836 -0.5494589114 -0.0030051329 0.1895754145
665296010.0 -0.0292440799 0.1769893198 0.0887476291 -0.5500233211 0.0890678232 -0.550638227 -0.0012444804 0.1901462299
670295980.0 -0.0271267342 0.1775581439 0.0829211447 -0.5510201315 0.0829906528 -0.5513853725 0.0005356441 0.1900112724
675295950.0 -0.0256171305 0.1780563312 0.0765586462 -0.5520841355 0.076974615 -0.5525560296 0.0031554656 0.1903166915
680295920.0 -0.0239295886 0.1789015438 0.0704915176 -0.5530291358 0.0705222049 -0.5531450739 0.0049626628 0.1903571282
685295890.0 -0.0222841014 0.179110459 0.0647430045 -0.5539007978 0.0644749631 -0.5537280609 0.0074083899 0.190567686
690295860.0 -0.0204182709 0.1793381407 0.0591585588 -0.5539693087 0.0587003253 -0.5541683445 0.0092688961 0.1911283819
695295830.0 -0.0184983517 0.1793837453 0.0520640207 -0.55443662 0.0524437722 -0.554624061 0.0110880964 0.1907484685
700295800.0 -0.0167689252 0.1796946742 0.0465931295 -0.5550627492 0.0466767476 -0.5556206867 0.0133601945 0.1901574494
705295770.0 -0.014822073 0.1801539018 0.0404028119 -0.5557266679 0.0413282999 -0.5555871154 0.0151945828 0.1904437258
710295740.0 -0.0133350955 0.1807067896 0.0348473611 -0.5560270758 0.0348724546 -0.5561369655 0.0167389669 0.1909425542
715295710.0 -0.0117224643 0.1810918064 0.0289178021 -0.5563520383 0.029166134 -0.5562651834 0.0196067762 0.1903657893
720295680.0 -0.0100705125 0.1810129907 0.0227553054 -0.556755889 0.023033282 -0.5569479544 0.0217820167 0.1907260252
725295650.0 -0.0079087906 0.1815982686 0.0166735767 -0.5567727059 0.0168399158 -0.5570739773 0.023836094 0.19042907
730295620.0 -0.0068189375 0.181466186 0.0108688728 -0.5570916601 0.010597101 -0.5568726943 0.0259205486 0.1901500261
735295590.0 -0.0041362404 0.1817500846 0.0046551066 -0.5567545671 0.0050549195 -0.5573539332 0.0277708691 0.1903306504
740295560.0 -0.0025643241 0.1823377961 -0.0011916054 -0.5565594392 -0.0013849406 -0.556825144 0.0302097773 0.1897377454
745295530.0 -0.0007909413 0.1821466994 -0.0072869293 -0.5567686054 -0.0071098981 -0.5570262352 0.0318629378 0.1897277542
750295500.0 0.0009732837 0.1822817783 -0.013421932 -0.5562360957 -0.0130929041 -0.5568715856 0.0343219514 0.1892171396
755295470.0 0.0030226246 0.1826621244 -0.0190095321 -0.5563179916 -0.0189658004 -0.5568837965 0.0359423762 0.1892882865
760295440.0 0.0044026568 0.1829479713 -0.025674182 -0.5566025248 -0.0250782665 -0.5564050619 0.0377298635 0.1891742336
765295410.0 0.0060993698 0.1825544179 -0.0310528941 -0.5557339365 -0.0305933349 -0.5564434896 0.0406210125 0.189044867
770295380.0 0.0083483316 0.182980178 -0.0371657189 -0.5552549645 -0.0374064205 -0.5555694877 0.0427029256 0.1890113234
775295350.0 0.0099284979 0.1830389566 -0.0431176016 -0.5544565879 -0.0433802063 -0.5555851009 0.0440649722 0.1879101888
780295320.0 0.011917791 0.1828937419 -0.0488976744 -0.5545664653 -0.0489725032 -0.5547735603 0.0464022817 0.1881713217
785295290.0 0.0134876969 0.183365182 -0.054920121 -0.5534719446 -0.0552245813 -0.5539715761 0.0483950649 0.187669329
790295260.0 0.0152480602 0.183143045 -0.0610117308 -0.5532313678 -0.0609883995 -0.5537054085 0.0505596085 0.187062004
795295230.0 0.0171022091 0.1834033651 -0.0664108445 -0.5520375151 -0.066639278 -0.552860561 0.0526290385 0.1874351184
800295200.0 0.0190042965 0.1829476624 -0.0730655157 -0.5517236986 -0.073134676 -0.552302857 0.0546557847 0.1862958541
805295170.0 0.0203555919 0.1830473532 -0.0785458627 -0.5502839098 -0.0788640583 -0.5508251828 0.0563430649 0.185767594
810295140.0 0.0224007029 0.1831577612 -0.0847679336 -0.55000906 -0.0843306567 -0.5507894678 0.0585932545 0.1860047871
815295110.0 0.0242421643 0.1831038304 -0.0907264587 -0.5489174746 -0.0906421477 -0.5489605734 0.060370102 0.1849030241
820295080.0 0.0262809182 0.1830803095 -0.0966342257 -0.5481159638 -0.0967546236 -0.5486273063 0.0623298693 0.1845167379
825295050.0 0.027966949 0.1827891291 -0.1021172065 -0.5463301761 -0.1021912393 -0.5471805496 0.0647994142 0.1839664097
830295020.0 0.029751471 0.1828664119 -0.1084607193 -0.5456222994 -0.1085948872 -0.5460722917 0.0664996295 0.183389695
