!Created with skrf (http://scikit-rf.org).
# Hz S RI R 50.0 
!freq ReS11 ImS11 ReS21 ImS21 ReS12 ImS12 ReS22 ImS22
300000.0 -0.0936651895 -0.0953306736 0.6213871924 0.088382358 0.6195917148 0.0896995837 -0.0943079951 -0.1002935786
5299970.0 -0.101608246 0.0116091622 0.6303057248 0.0108291976 0.6312303609 0.0110425435 -0.101601044 0.0115015414
10299940.0 -0.0970358862 0.028879548 0.6345896537 0.0158206487 0.6342257462 0.0164759932 -0.0963207788 0.0283821332
15299910.0 -0.089201856 0.0424015983 0.640360207 0.0210620821 0.6409638951 0.021046484 -0.0898553959 0.0421413009
20299880.0 -0.0805026056 0.0534711651 0.6488374915 0.024115389 0.6488656501 0.0245327907 -0.0809711772 0.0529965474
25299850.0 -0.070456277 0.0624681937 0.6580465719 0.0255901908 0.6585666217 0.0254514031 -0.0717984479 0.0621563816
30299820.0 -0.0608922127 0.0684858226 0.6680980369 0.0248331152 0.6677623152 0.0244630336 -0.0618025156 0.0684134272
35299790.0 -0.050645428 0.0735010675 0.6772976336 0.0218269556 0.6773886857 0.0217081704 -0.0523403708 0.0738194272
40299760.0 -0.0412768793 0.0762495752 0.6867081429 0.0176589297 0.6869967992 0.0179784935 -0.0429357899 0.0767880791
45299730.0 -0.032008029 0.0783878718 0.6960686695 0.0122446993 0.6963218185 0.0121679627 -0.0331549969 0.0791153912
50299700.0 -0.0228730039 0.0792523506 0.7038408115 0.0053211198 0.7038804639 0.0046356197 -0.0243046454 0.0801480982
55299670.0 -0.0152614485 0.0788856705 0.7110399613 -0.0027145776 0.7109480024 -0.0026609987 -0.0171212952 0.08050295
60299640.0 -0.0077954433 0.078714973 0.7178993215 -0.0111071553 0.7177879419 -0.0114414762 -0.0098295814 0.0795003137
65299610.0 -0.001081578 0.0772892564 0.724212091 -0.0194556459 0.7242620517 -0.0199276475 -0.002846069 0.078691588
70299580.0 0.0050517273 0.0753085216 0.7293706677 -0.0289535845 0.7294016948 -0.0290790862 0.003052578 0.0770890538
75299550.0 0.0104026372 0.0732166342 0.733694074 -0.0388334118 0.7334706808 -0.0386623486 0.00861481 0.0754040353
80299520.0 0.0154464445 0.0713195178 0.7374578622 -0.0486705811 0.7378309076 -0.0485847866 0.0138948482 0.0733956232
85299490.0 0.020050892 0.0691899361 0.7406018853 -0.0592642156 0.7410800869 -0.0585957142 0.0179260554 0.0709590076
90299460.0 0.0241084263 0.0667450596 0.7435752575 -0.0686446207 0.7434258681 -0.0680188989 0.0222542391 0.0691346151
95299430.0 0.0279034889 0.0641415522 0.746190454 -0.0787506517 0.7465634043 -0.0791075694 0.0260275504 0.0664335145
100299400.0 0.0312367557 0.0614319779 0.7476282641 -0.0886619771 0.7480388578 -0.0889180167 0.0291760616 0.0646853404
105299370.0 0.0342654638 0.0593000389 0.7493788784 -0.0989396953 0.7499923312 -0.0990332584 0.0326900098 0.0616982291
110299340.0 0.0372763438 0.0564689537 0.7503480142 -0.1086003796 0.7513777759 -0.1084896341 0.0349706911 0.0595373317
115299310.0 0.0395139803 0.0543596523 0.7517459336 -0.1191723839 0.7513006723 -0.1184726556 0.0377337575 0.057514343
120299280.0 0.0415826671 0.0519920331 0.7519817647 -0.1294787108 0.7513055322 -0.1292440391 0.0396578896 0.0544666272
125299250.0 0.0438628135 0.0496304089 0.7517108184 -0.1389655254 0.7517848091 -0.1388779886 0.0420823321 0.0526190846
130299220.0 0.0456491777 0.0470857401 0.7524017299 -0.1491014222 0.751823801 -0.1490215644 0.043727544 0.0505728408
135299190.0 0.0468415426 0.0453216961 0.7519907245 -0.1589449777 0.7519794747 -0.158935714 0.0454759857 0.0478521397
140299160.0 0.0486321615 0.0434997823 0.7521734656 -0.1689163445 0.7510956493 -0.1684950945 0.0463602781 0.0453800917
145299130.0 0.0493162018 0.0409230589 0.7503682761 -0.1781899062 0.750550597 -0.1785163075 0.0479763436 0.0437131439
150299100.0 0.050897467 0.0393525972 0.7494935623 -0.18794763 0.7490779737 -0.1878466823 0.0491963009 0.0418517705
155299070.0 0.0522933332 0.0369201374 0.7476857948 -0.1972685456 0.7484762481 -0.197636377 0.050435192 0.0394371488
160299040.0 0.0531550551 0.0357408336 0.7470127038 -0.2072465738 0.7466067824 -0.2072781283 0.0509305157 0.038136545
165299010.0 0.0544137446 0.0334786847 0.7455428303 -0.2161505398 0.7449147271 -0.2165602178 0.0521054687 0.0357788226
170298980.0 0.0551103814 0.0322219378 0.7435034089 -0.2258246666 0.7433837637 -0.2259897495 0.0526595146 0.0337220839
175298950.0 0.055611246 0.0304187786 0.7417681277 -0.2351639082 0.7421034661 -0.2356421472 0.0532892596 0.032395456
180298920.0 0.0561414614 0.0289539373 0.7397509106 -0.244641323 0.7394063638 -0.2447586486 0.0537662236 0.030595911
185298890.0 0.0567590993 0.0271573159 0.7379600669 -0.2535350888 0.7370137824 -0.2535873096 0.0550176736 0.0289208401
190298860.0 0.0577131491 0.0256607191 0.7343932047 -0.2625549615 0.7349555363 -0.262584785 0.0549445082 0.027091497
195298830.0 0.0577329719 0.024206778 0.7327482237 -0.2716981285 0.7328098482 -0.2717227626 0.055581676 0.0258306304
200298800.0 0.0583599578 0.0223437837 0.729919709 -0.2812220614 0.7297194475 -0.2808064392 0.0562433795 0.0239800481
205298770.0 0.0580120343 0.0206681279 0.7269657432 -0.2898472684 0.7268804225 -0.2891149764 0.0568464463 0.0225819992
210298740.0 0.0588594734 0.0201541289 0.7238479262 -0.2985857873 0.723675411 -0.2986423262 0.0564011005 0.0207630015
215298710.0 0.0593413637 0.0187035449 0.72077659 -0.3063483406 0.7211400771 -0.3073895058 0.0573411584 0.0196920475
220298680.0 0.0596071201 0.0175855221 0.7173715864 -0.3151165107 0.7172435554 -0.3159020958 0.0573906271 0.0180219691
225298650.0 0.059453356 0.0161841185 0.7140883008 -0.3237938678 0.7143046692 -0.3237536457 0.0572839156 0.0162702571
230298620.0 0.0602024438 0.0151560062 0.7116475124 -0.332863163 0.7112699399 -0.3327643553 0.0573684185 0.0151173711
235298590.0 0.0597806254 0.0139030027 0.7078832165 -0.3415988381 0.7076743009 -0.3418078835 0.0580010058 0.0139742105
240298560.0 0.0601563285 0.012936345 0.7041420797 -0.3496251946 0.7040656273 -0.3492966854 0.0577059738 0.0128339873
245298530.0 0.0602159219 0.0113118134 0.7003775431 -0.3583423059 0.7000820333 -0.3581528644 0.0576974617 0.0116812041
250298500.0 0.0598650619 0.0100725594 0.6970021488 -0.3662151208 0.6966753355 -0.3654512819 0.0576166055 0.0106151721
255298470.0 0.0604548715 0.0096282737 0.6931351018 -0.3741994511 0.6930636451 -0.3747808861 0.057882705 0.009361803
260298440.0 0.0604923446 0.0082732654 0.6893012262 -0.3819301606 0.6888104205 -0.3820411438 0.0576296968 0.007446962
265298410.0 0.0599281725 0.0075216112 0.6842085203 -0.3905840736 0.6841014124 -0.3910519404 0.0587156658 0.0065736732
270298380.0 0.0599062586 0.0061294975 0.6803716407 -0.3989446808 0.6801951451 -0.3977533816 0.058059261 0.0058374677
275298350.0 0.0603468358 0.0055226275 0.6756608594 -0.4060516659 0.6756100497 -0.406238323 0.0578271951 0.0048812402
280298320.0 0.0595700154 0.0045828783 0.6720612828 -0.413466016 0.6721242783 -0.4141933452 0.0582945273 0.003804314
285298290.0 0.0600054283 0.0035402462 0.6669424707 -0.4220171471 0.6672247071 -0.4217317196 0.0579864253 0.0024728935
290298260.0 0.059970486 0.0028690424 0.6635917749 -0.4294332878 0.6632907307 -0.42967419 0.0579782466 0.0012897836
295298230.0 0.0597005578 0.0014188123 0.6584536127 -0.4378072017 0.6583931898 -0.4378028836 0.0579045973 0.0002310032
300298200.0 0.0600556684 0.000883038 0.6538563369 -0.4451889877 0.6533943939 -0.4449128423 0.0576075601 -0.0008139001
305298170.0 0.0601273294 -0.0009049447 0.6494039654 -0.453220046 0.649134123 -0.4534104596 0.057825035 -0.0023002806
310298140.0 0.0603572127 -0.0018604461 0.644341009 -0.460611105 0.6444864753 -0.4603404361 0.0579773893 -0.0040278298
315298110.0 0.0599399245 -0.0033115562 0.639534178 -0.4689838146 0.6385427603 -0.4688147695 0.0577329715 -0.004724496
320298080.0 0.0595419296 -0.0038695899 0.6335631241 -0.475761806 0.634034429 -0.4762503968 0.0570996541 -0.0055930358
325298050.0 0.0584960535 -0.0052700855 0.6283147019 -0.4830309 0.62879772 -0.4834330181 0.0569204543 -0.0068913423
330298020.0 0.0572973919 -0.005880493 0.6228462616 -0.4907966281 0.6231087085 -0.4905180891 0.0560176993 -0.0080482098
335297990.0 0.0576122233 -0.006454442 0.6173353273 -0.497553706 0.6173856833 -0.4978214763 0.0555192315 -0.0088704966
340297960.0 0.0569148809 -0.0078108079 0.6109088512 -0.505228651 0.6106882615 -0.5048105487 0.0550182782 -0.0092146468
345297930.0 0.056090575 -0.0084961242 0.6058524607 -0.5118528931 0.6053810205 -0.5116808539 0.0547063887 -0.0105372997
350297900.0 0.0557141933 -0.0091602804 0.5999891163 -0.5176676536 0.6004719175 -0.5182453924 0.0546724082 -0.0114455929
355297870.0 0.0554924742 -0.0098352818 0.5946862412 -0.5240462651 0.5941017595 -0.5244717868 0.0547022367 -0.0123840406
360297840.0 0.0553685828 -0.0102606728 0.5879062769 -0.5314639904 0.5881765082 -0.5321354996 0.0533460347 -0.0125962185
365297810.0 0.0546563298 -0.0109326069 0.582732249 -0.5383670703 0.5825006998 -0.5386794515 0.0528502539 -0.0134036372
370297780.0 0.0548900299 -0.0115218449 0.5759941302 -0.5449008286 0.5764938183 -0.5445918846 0.0528074353 -0.0141758526
375297750.0 0.0542381431 -0.0121837157 0.5705911293 -0.5505956396 0.5705811423 -0.5509711215 0.0528199812 -0.0149774237
380297720.0 0.0534760442 -0.0128931528 0.5651868679 -0.5578003061 0.5641359687 -0.5578027054 0.0521741847 -0.0152120767
385297690.0 0.0529240759 -0.0137126656 0.5579886191 -0.5633552336 0.5578064507 -0.5644017226 0.0520366315 -0.0160138707
390297660.0 0.0528409716 -0.014318491 0.5515980618 -0.5692749522 0.5520380981 -0.5701634209 0.0519057618 -0.016857561
395297630.0 0.0528424637 -0.0148150201 0.54555278 -0.5749367272 0.5455371443 -0.5757988163 0.0512856658 -0.0172663719
400297600.0 0.0518514742 -0.0158977055 0.5396444286 -0.5821330675 0.5393084918 -0.5820925541 0.0515423151 -0.0175062296
405297570.0 0.0519232477 -0.0168767181 0.5330197289 -0.5878520834 0.5328822761 -0.5880692292 0.0508932313 -0.0181037775
410297540.0 0.0515640035 -0.0165242686 0.5265123353 -0.5940146528 0.5266420688 -0.5938145326 0.0505972698 -0.0190449482
415297510.0 0.0510916435 -0.0173548571 0.5197981232 -0.5995748097 0.5205493329 -0.5997118244 0.0503271331 -0.0194259115
420297480.0 0.050656224 -0.0184315119 0.5133037618 -0.6059006678 0.5134317836 -0.6056221795 0.0502572076 -0.0196335856
425297450.0 0.0509580702 -0.0189179706 0.5071715051 -0.6107232174 0.5066629217 -0.6111724621 0.0498241461 -0.0209347008
430297420.0 0.050024674 -0.0192300892 0.5003901649 -0.6167877508 0.5005980894 -0.6165496773 0.0499485276 -0.0210804159
435297390.0 0.0498979311 -0.0204182162 0.4927712752 -0.6230768998 0.493027139 -0.6222189778 0.048645267 -0.021394199
440297360.0 0.0496171878 -0.0210220575 0.4860367085 -0.6276592111 0.4855455695 -0.6279095822 0.048619654 -0.0218550116
445297330.0 0.0493614994 -0.0219821124 0.4793593833 -0.6328733181 0.4795744613 -0.6331394808 0.0481812705 -0.0224205202
450297300.0 0.0487658863 -0.0222409838 0.4724183636 -0.6381409082 0.4727788774 -0.6379819103 0.0480079899 -0.0230318928
455297270.0 0.0478720135 -0.0229937671 0.4659159147 -0.6437023664 0.46574432 -0.6438224846 0.0474805016 -0.0236656136
460297240.0 0.0480351521 -0.0231410512 0.4589237811 -0.6494151534 0.458400133 -0.6490535457 0.0471351751 -0.0243247064
465297210.0 0.0477764302 -0.0240911017 0.4509933272 -0.6536627562 0.4508219009 -0.6539277983 0.0474349213 -0.0242778178
470297180.0 0.04744798 -0.025000869 0.4440752017 -0.6584722663 0.4445200207 -0.6585705592 0.0470825348 -0.0255253655
475297150.0 0.0465027228 -0.0249007734 0.43628089 -0.6635454354 0.437106981 -0.6637044417 0.0465475665 -0.0258726487
480297120.0 0.046641504 -0.0248449498 0.4288888786 -0.6681166208 0.429530541 -0.668363459 0.0457038397 -0.0266545836
485297090.0 0.0461913385 -0.0267267123 0.421780156 -0.6731633955 0.4219498179 -0.6730977322 0.0458239712 -0.0267577209
490297060.0 0.0462949593 -0.0265755413 0.4141970315 -0.6780752459 0.4142781973 -0.6779935194 0.045013441 -0.0272878196
495297030.0 0.0452329437 -0.0278431402 0.4070083058 -0.6829659712 0.4071914898 -0.6826380982 0.0455450286 -0.02809187
500297000.0 0.0446522982 -0.027623968 0.3999146109 -0.6867515067 0.3998579567 -0.6870327662 0.0446485527 -0.027803703
505296970.0 0.0448832568 -0.0283245258 0.3924258729 -0.6917860086 0.3921800738 -0.6912979784 0.0445476452 -0.0293988922
510296940.0 0.0441549383 -0.0288155785 0.3844510171 -0.6961787629 0.384971654 -0.69619135 0.0443219265 -0.0291160629
515296910.0 0.0436211933 -0.0290045386 0.3765100023 -0.6999583552 0.3766354497 -0.6998818244 0.043665301 -0.0303613508
520296880.0 0.043338729 -0.0293946997 0.369641892 -0.7035499587 0.3689666273 -0.7033891471 0.0437650984 -0.0299026867
525296850.0 0.0431477934 -0.0304308987 0.3615154424 -0.7078155266 0.3611617654 -0.7077428394 0.0435287595 -0.0307468851
530296820.0 0.042743199 -0.0311519287 0.3535628152 -0.7122040099 0.3537061499 -0.7119660367 0.042885513 -0.0315595958
535296790.0 0.0427064228 -0.030935754 0.3454336371 -0.715190456 0.3462669535 -0.7156284039 0.0429050043 -0.031444353
540296760.0 0.0418711718 -0.0311991415 0.3380022388 -0.7191666679 0.3379088531 -0.7196082639 0.0422511489 -0.0326175343
545296730.0 0.0406459424 -0.0317011133 0.3296938338 -0.7227268708 0.3298577041 -0.7229844774 0.0418497526 -0.0327719995
550296700.0 0.0414710091 -0.0321393401 0.3219097552 -0.7267068456 0.3220099712 -0.7271165396 0.0415937958 -0.0334764488
555296670.0 0.040811315 -0.032587418 0.3139232545 -0.7307805304 0.3144592001 -0.7304041452 0.040892199 -0.0345085293
560296640.0 0.0408690639 -0.0329206188 0.3056191932 -0.7338849449 0.3068863787 -0.7337180519 0.0403517598 -0.0339657277
565296610.0 0.0395716962 -0.0332951062 0.2984875652 -0.7374061451 0.2985716329 -0.7363446353 0.0402721045 -0.0344199853
570296580.0 0.039040084 -0.033479508 0.2894094607 -0.7395009005 0.2906224089 -0.7403388606 0.0396144526 -0.0351492669
575296550.0 0.0388500499 -0.0344006028 0.2823862448 -0.7434973119 0.2823438294 -0.7433302999 0.0390186642 -0.0353502156
580296520.0 0.0386700418 -0.0340693073 0.2742224144 -0.7466078076 0.2737901938 -0.7465573553 0.0383269446 -0.0360682321
585296490.0 0.0380642102 -0.0345704139 0.2660457524 -0.7491659158 0.2657770654 -0.749132317 0.0384448158 -0.0359490233
590296460.0 0.0382295695 -0.0347315047 0.2576398273 -0.7521906665 0.2575041949 -0.7523271581 0.0373833192 -0.0362671175
595296430.0 0.0374949419 -0.0352839739 0.2488905526 -0.7549616808 0.2491557521 -0.7555766266 0.0372705972 -0.0373745315
600296400.0 0.0374674407 -0.035457234 0.2401909483 -0.7575454821 0.2406788023 -0.7576636126 0.0372520458 -0.0374316213
605296370.0 0.0359778215 -0.0358679393 0.2332761693 -0.7602633428 0.2325086764 -0.7606474564 0.0361638962 -0.0375753706
610296340.0 0.0362705765 -0.0355628096 0.2242009826 -0.7621660749 0.2246517951 -0.7626548794 0.0355596845 -0.0377668208
615296310.0 0.0359364488 -0.036281981 0.2161236809 -0.7656527106 0.2152381627 -0.7647175089 0.0353579957 -0.0379901162
620296280.0 0.0347076425 -0.0360794238 0.2068191115 -0.7678947396 0.2075669278 -0.7671502107 0.0343436098 -0.0381847844
625296250.0 0.0346313121 -0.0364296015 0.1988638256 -0.769999876 0.1992312965 -0.7702096251 0.0334685522 -0.0388956884
630296220.0 0.0338156359 -0.0365536133 0.1904362125 -0.7720458878 0.1907847888 -0.7718260638 0.0335324419 -0.0393504861
635296190.0 0.0333009989 -0.0365770994 0.1824212255 -0.7739431691 0.182250584 -0.7734086902 0.0330458214 -0.039573996
640296160.0 0.032733978 -0.0370088921 0.1735100571 -0.776251257 0.1739993433 -0.7760777573 0.0318689822 -0.0398541992
645296130.0 0.0328714693 -0.0367215242 0.1649838018 -0.7775834101 0.1651964458 -0.7771874342 0.0313947515 -0.0406048489
650296100.0 0.0319801547 -0.0373362156 0.1568219589 -0.7799981002 0.1568679942 -0.779290191 0.0320135181 -0.0405717269
655296070.0 0.0314070886 -0.0373291653 0.1479784573 -0.7814637674 0.1483022801 -0.7808538004 0.0302610882 -0.0406616549
660296040.0 0.0309702075 -0.0372126274 0.1394041184 -0.783104927 0.1398914061 -0.7827994321 0.0298745437 -0.0416288593
665296010.0 0.0304857755 -0.0374296537 0.1302152941 -0.7840333403 0.1309220144 -0.7842899236 0.0294588259 -0.0410920249
670295980.0 0.02990522 -0.0374955874 0.1223110002 -0.7855879999 0.1223415574 -0.7845968863 0.0283412373 -0.0418536559
675295950.0 0.0293186833 -0.038030627 0.1137892154 -0.7868492797 0.1141942223 -0.7865417634 0.0275807578 -0.0417037398
680295920.0 0.028702572 -0.0377401044 0.1052700939 -0.7878790899 0.1059265814 -0.7878279386 0.0277729574 -0.0423908078
685295890.0 0.0285189243 -0.0378072335 0.096110382 -0.7895836082 0.0972348897 -0.7893395615 0.0269482541 -0.0418677055
690295860.0 0.0272624021 -0.0380005776 0.0879032487 -0.7901109185 0.0876795849 -0.7898425432 0.0262784234 -0.0425724824
695295830.0 0.0270819929 -0.0384254558 0.0798280371 -0.7909123201 0.0798876938 -0.7904901966 0.0257531352 -0.0423209618
700295800.0 0.0267274022 -0.0381282345 0.0712781775 -0.7917663973 0.0708819543 -0.7916844189 0.0250652735 -0.0422487844
705295770.0 0.0256310553 -0.038090086 0.0625175213 -0.7931020371 0.0624418679 -0.7922499721 0.0242622682 -0.0425320676
710295740.0 0.0254358321 -0.0384557548 0.0535934984 -0.7931093677 0.0540948067 -0.7934719712 0.0240102809 -0.042528879
715295710.0 0.0247976137 -0.0380283485 0.0451052437 -0.7943818961 0.0455443441 -0.7933792437 0.0231997409 -0.0429265745
720295680.0 0.0246199517 -0.0384012653 0.0363462011 -0.7937342737 0.0368304724 -0.7944455724 0.022600706 -0.0431935801
725295650.0 0.0231955006 -0.0379448064 0.0282139295 -0.7944364578 0.0279958502 -0.794294198 0.0215483617 -0.0425122379
730295620.0 0.0221915696 -0.0384392288 0.0191247688 -0.7942688182 0.0194131566 -0.793489702 0.0209327154 -0.0424621089
735295590.0 0.0223994212 -0.0384063707 0.0108398594 -0.7954278035 0.0107501607 -0.7946506053 0.0199772679 -0.0431636739
740295560.0 0.0218297189 -0.0387963137 0.0019612329 -0.7949620049 0.0025513422 -0.7951200862 0.0190438596 -0.0426118385
745295530.0 0.0210059883 -0.0381563496 -0.006324316 -0.7938310423 -0.0057814123 -0.7943220487 0.0178677906 -0.0431233282
750295500.0 0.0200587576 -0.0382803479 -0.0148895273 -0.7946394649 -0.0156443509 -0.7945053439 0.0177973664 -0.0430894749
755295470.0 0.0194581001 -0.0382323509 -0.0233554781 -0.7946184786 -0.0231751626 -0.7949548832 0.0176617301 -0.0424882748
760295440.0 0.0191031183 -0.0374975985 -0.0333045554 -0.7940361095 -0.0325304496 -0.7931185173 0.0171561399 -0.0439230011
765295410.0 0.0187034798 -0.0383985918 -0.0412966288 -0.7934646648 -0.0402951277 -0.7934769163 0.0162463635 -0.0433794774
770295380.0 0.0179802214 -0.0377194173 -0.0489571246 -0.7924799161 -0.049277412 -0.7935915202 0.0152147968 -0.0429675264
775295350.0 0.0170458827 -0.0382761319 -0.0581699783 -0.792355708 -0.058092421 -0.7917090788 0.0151462008 -0.0428156359
780295320.0 0.0163192178 -0.0378513597 -0.0665681407 -0.7912870879 -0.0665357363 -0.7914144941 0.0144655806 -0.0431128423
785295290.0 0.0157032465 -0.0381506393 -0.0753578703 -0.7908002256 -0.0755082445 -0.7907875956 0.0130246503 -0.0424049791
790295260.0 0.0154710902 -0.0383583008 -0.0834965934 -0.7902696948 -0.0835359723 -0.7905006072 0.0126286 -0.0422987027
795295230.0 0.0144756637 -0.0384799379 -0.0922518054 -0.7893833426 -0.0925245067 -0.7894615891 0.0122778342 -0.043238768
800295200.0 0.0135288142 -0.0376006376 -0.1004051202 -0.7874106339 -0.1009377131 -0.7883952972 0.0112526271 -0.0426373186
805295170.0 0.0128814025 -0.0377670469 -0.1096266905 -0.7874100931 -0.1087540939 -0.7873312296 0.0115222418 -0.0426103529
810295140.0 0.0129591519 -0.0377888708 -0.1175906742 -0.7853652575 -0.1177170498 -0.7858692289 0.0104893452 -0.0426286663
815295110.0 0.0117629656 -0.0376516351 -0.1265924297 -0.7847624837 -0.1254446496 -0.7844021701 0.009802616 -0.0425812645
820295080.0 0.01135147 -0.0375594577 -0.1342298712 -0.7822050636 -0.1345592898 -0.7829499507 0.0080259071 -0.0413813208
825295050.0 0.0105007834 -0.0375469037 -0.1430240112 -0.7813224633 -0.1435669286 -0.7809193681 0.0086798753 -0.0412479838
830295020.0 0.009709881 -0.0376010227 -0.1514936087 -0.7798855398 -0.1514705632 -0.7798416782 0.0073990327 -0.0420755185
