!Created with skrf (http://scikit-rf.org).
# Hz S RI R 50.0 
!freq ReS11 ImS11 ReS21 ImS21 ReS12 ImS12 ReS22 ImS22
300000.0 -0.2396375045 -0.0771135292 0.4727918432 0.0526417449 0.4682043786 0.0504305502 -0.2423089471 -0.0907161056
5299970.0 -0.2443719119 0.0074116671 0.4738085962 0.0048088786 0.4736517642 0.0051736811 -0.2441922545 0.0076232782
10299940.0 -0.2409529316 0.0189083915 0.4753114753 0.0060157179 0.4754021508 0.0061883324 -0.2407260747 0.0203893105
15299910.0 -0.2368295434 0.028052084 0.4792144581 0.0078593948 0.4794718745 0.0073608318 -0.2361703514 0.029968452
20299880.0 -0.2319873254 0.0357442884 0.4842433447 0.0086568025 0.4840105425 0.0080883408 -0.2305855288 0.0374797449
25299850.0 -0.2268273604 0.0420074567 0.4888511558 0.0074738288 0.4891008419 0.0074700371 -0.2249528968 0.0437289858
30299820.0 -0.2214249307 0.0471852407 0.4943650245 0.0052822055 0.4942414113 0.0053303555 -0.219374491 0.049202639
35299790.0 -0.2162774919 0.0515060886 0.4999298454 0.0016678018 0.5000717577 0.0019350544 -0.2133597873 0.053249546
40299760.0 -0.2114911015 0.0549509032 0.5050560372 -0.0017167874 0.5049336228 -0.001697196 -0.2082207898 0.0560135217
45299730.0 -0.2066873958 0.0578400243 0.5096453531 -0.0067062135 0.5098495207 -0.0065352707 -0.2030990882 0.0589977963
50299700.0 -0.2024836157 0.0597914977 0.5146539728 -0.0120985243 0.5141817265 -0.0117750251 -0.1985854894 0.0606139386
55299670.0 -0.1982954444 0.0617783667 0.5184400266 -0.0185089212 0.5177631785 -0.0181829918 -0.1943062441 0.0621401982
60299640.0 -0.1942974111 0.0634328394 0.5212670099 -0.0244036063 0.521465011 -0.0241271945 -0.1904465025 0.0629890078
65299610.0 -0.1913121976 0.0646344549 0.5237536522 -0.0306200865 0.5241908478 -0.0307369181 -0.1871840634 0.0642458814
70299580.0 -0.1879921415 0.0663228932 0.5265818251 -0.0371820231 0.5266002313 -0.0372244445 -0.1838212105 0.0649539886
75299550.0 -0.185120748 0.0673060091 0.5282990335 -0.0440070209 0.5284000372 -0.044183312 -0.1810930992 0.0654067233
80299520.0 -0.1825036297 0.0681274639 0.5303670149 -0.0510919918 0.5304213717 -0.0511485071 -0.178081491 0.0661100691
85299490.0 -0.1801126362 0.0689959712 0.5315602258 -0.0575170127 0.5318018538 -0.0572090263 -0.1761510692 0.0661999722
90299460.0 -0.1779513031 0.069795253 0.5323965791 -0.0647272865 0.5329270407 -0.0648383139 -0.1736561631 0.0665739185
95299430.0 -0.1757553238 0.0705179456 0.5339647455 -0.0718325066 0.5340046466 -0.071757662 -0.1717635641 0.0673139618
100299400.0 -0.1737776062 0.0714551299 0.5337799142 -0.0784815998 0.5341047613 -0.0785023148 -0.1692112911 0.0674326016
105299370.0 -0.1719898751 0.0723304552 0.534302207 -0.0856971557 0.5345136888 -0.0855779372 -0.1674184114 0.0679350502
110299340.0 -0.1704576703 0.0731414188 0.534866915 -0.0921952458 0.534423719 -0.0921570797 -0.1666283143 0.0683502744
115299310.0 -0.1688954856 0.0739680429 0.5344603641 -0.0992781677 0.534582754 -0.0993314412 -0.1648607225 0.0689648264
120299280.0 -0.1672458663 0.0745338736 0.5341329621 -0.1061065761 0.5341344304 -0.1061908058 -0.1631626445 0.0695869771
125299250.0 -0.1661567816 0.075595483 0.5340305653 -0.1127183645 0.5341572647 -0.1126791583 -0.1623238656 0.0697108447
130299220.0 -0.1649295281 0.0768373661 0.5333796599 -0.1199396093 0.5331106554 -0.119551015 -0.1611736192 0.0701301071
135299190.0 -0.1635529363 0.0778716929 0.5327041822 -0.126415802 0.5329414312 -0.1257886967 -0.1599416707 0.0710458279
140299160.0 -0.162829366 0.078908709 0.5318931855 -0.1332232591 0.5319344728 -0.1329869947 -0.1588820045 0.0722003459
145299130.0 -0.1613191467 0.0801228227 0.5310328275 -0.1398289723 0.5307019945 -0.1394902849 -0.1580585364 0.0729300418
150299100.0 -0.1601880895 0.0811282299 0.529816866 -0.1450232443 0.5296964568 -0.1456316343 -0.1569167838 0.0737753287
155299070.0 -0.1593339133 0.0820591165 0.5286388206 -0.1527909815 0.5284398692 -0.1525545414 -0.1559144427 0.0745751266
160299040.0 -0.1581584873 0.0835741343 0.527419025 -0.1589306864 0.5267537465 -0.1591167374 -0.1555102817 0.0758087415
165299010.0 -0.1573454301 0.0846474812 0.5256027662 -0.1656585302 0.5259271322 -0.1654260442 -0.1542199839 0.0769963379
170298980.0 -0.1564671171 0.0856310821 0.5241940535 -0.1718189081 0.5247259171 -0.1716967919 -0.1536096117 0.0775207314
175298950.0 -0.1554092598 0.087033168 0.5229248914 -0.1779660793 0.5222052966 -0.178310632 -0.1528477471 0.0785905148
180298920.0 -0.1547625057 0.0885446539 0.5211062684 -0.1843626711 0.5211170554 -0.1840047479 -0.1521679355 0.0798860306
185298890.0 -0.153403533 0.0893769929 0.5192042437 -0.1904872287 0.5188540793 -0.1903424834 -0.1514725527 0.0808966139
190298860.0 -0.1526784943 0.0909786457 0.5176353858 -0.1968629001 0.5175384386 -0.1966506347 -0.1506158897 0.0816283299
195298830.0 -0.1517268208 0.0921290764 0.5151248752 -0.2028202919 0.5150727707 -0.2023912897 -0.1497930459 0.0830059949
200298800.0 -0.1504662754 0.0937712451 0.5129964545 -0.2092740677 0.5129930998 -0.2092100083 -0.1492648686 0.0840591212
205298770.0 -0.1496929331 0.0949017063 0.5105974212 -0.2152702596 0.5106597462 -0.2151508801 -0.1485069379 0.0846676805
210298740.0 -0.1489438785 0.09611426 0.5084044751 -0.220746554 0.5087490234 -0.2206648826 -0.1476737239 0.0866401845
215298710.0 -0.1482338687 0.0977547808 0.5061102846 -0.22714856 0.5064417999 -0.2270529382 -0.1473332911 0.0877243365
220298680.0 -0.1469673548 0.0988354187 0.5034135062 -0.232915567 0.5039933077 -0.2328295236 -0.1467712998 0.0885050412
225298650.0 -0.1461828439 0.1002311702 0.5013800788 -0.2385873136 0.5013433197 -0.2386184657 -0.1461439815 0.0896624488
230298620.0 -0.145168764 0.1019514633 0.4989857856 -0.2441526713 0.4992865171 -0.2445258428 -0.1455878268 0.0906673633
235298590.0 -0.1439378185 0.1034563571 0.4960533453 -0.250353695 0.4961028824 -0.2500923842 -0.1444892519 0.0921083138
240298560.0 -0.1431979811 0.1050233775 0.4936573298 -0.2561464499 0.4932441856 -0.2564533086 -0.1437779422 0.0938369256
245298530.0 -0.1421838037 0.106356731 0.491079854 -0.2618565473 0.4907663657 -0.2617969379 -0.1429463379 0.0945589621
250298500.0 -0.1408769126 0.1078841413 0.4871109054 -0.2673435777 0.4873424215 -0.2670186384 -0.1424994172 0.0955850402
255298470.0 -0.1398417681 0.1091009441 0.4843541788 -0.2726130999 0.4849371574 -0.2726936095 -0.1415640922 0.0966452399
260298440.0 -0.1391548328 0.1105912563 0.4819399381 -0.2789308925 0.4821089183 -0.2783311645 -0.1405671042 0.0980997886
265298410.0 -0.1375376074 0.1126490996 0.4786013521 -0.2839673137 0.4790449419 -0.2838204089 -0.1400137415 0.0995037346
270298380.0 -0.1367225945 0.1138168396 0.4757706199 -0.2891747035 0.4762836504 -0.2888882474 -0.1390698445 0.1005020267
275298350.0 -0.1351019071 0.1152395202 0.4726117499 -0.2951531391 0.4727862757 -0.2949268251 -0.1379817348 0.1019128714
280298320.0 -0.1340663586 0.1169627499 0.4698462803 -0.3003676974 0.4693801324 -0.2997801685 -0.1367762888 0.102951701
285298290.0 -0.1330367564 0.1181132134 0.4665527262 -0.3053146115 0.4659507283 -0.3057076747 -0.1360755949 0.1040799703
290298260.0 -0.1313748709 0.1196752545 0.4628667505 -0.310316256 0.4629181981 -0.31027019 -0.1345626179 0.1055797491
295298230.0 -0.1301665718 0.1209693358 0.4596827847 -0.3158192308 0.4594169184 -0.3160836808 -0.1337380507 0.1065199231
300298200.0 -0.1293117669 0.1226150917 0.4562229273 -0.320773233 0.4562402644 -0.3216250367 -0.132923966 0.1080176023
305298170.0 -0.127621919 0.1234534768 0.4522551025 -0.3265004698 0.4525889908 -0.3265994666 -0.1312770745 0.1092266162
310298140.0 -0.1266810284 0.1251460613 0.4490905616 -0.3318938749 0.4491664198 -0.331545699 -0.1303929702 0.1102027106
315298110.0 -0.125084653 0.1262604858 0.4455799006 -0.3366898625 0.4452901861 -0.3367277142 -0.1296124112 0.1113009126
320298080.0 -0.1237581923 0.1274188561 0.4412201139 -0.3423082951 0.4415775658 -0.341941091 -0.1287400125 0.1127511179
325298050.0 -0.1226984739 0.1289112807 0.4378116742 -0.3471877112 0.4376053864 -0.347080566 -0.1280408946 0.113988418
330298020.0 -0.1216288347 0.1300293985 0.433789201 -0.3522855557 0.4338152106 -0.3521539303 -0.1271584186 0.115114895
335297990.0 -0.1200463462 0.1313920204 0.4294313953 -0.3568785834 0.4295557794 -0.357008796 -0.126592381 0.1170438139
340297960.0 -0.1192981309 0.1329017429 0.4253830277 -0.3615655991 0.4253678095 -0.3618764628 -0.1249811622 0.118099122
345297930.0 -0.1178849179 0.1345609717 0.4212066327 -0.3666188532 0.4211799161 -0.3665309041 -0.1243164133 0.1191192746
350297900.0 -0.116499404 0.1355834642 0.4165687014 -0.3711333385 0.4168361183 -0.3707071407 -0.1235696025 0.1210818089
355297870.0 -0.1150041419 0.1373506075 0.4128578609 -0.3755979053 0.4132450689 -0.3753868962 -0.1223349151 0.1219076893
360297840.0 -0.1135758863 0.1387381894 0.4090991744 -0.3798040883 0.4094332916 -0.3799436367 -0.1211391788 0.1236828684
365297810.0 -0.1124332082 0.1402605054 0.4046139519 -0.3846239944 0.4050583376 -0.3848117951 -0.1200955217 0.1247087968
370297780.0 -0.1108818735 0.1412827681 0.4002254596 -0.3889454403 0.4009756834 -0.3885526593 -0.1190388266 0.1261330635
375297750.0 -0.1089758576 0.1427687991 0.3962845362 -0.3935310796 0.3966280596 -0.3935859213 -0.1179113056 0.1274073863
380297720.0 -0.107583617 0.1443373071 0.3919420074 -0.3976821479 0.3918366897 -0.3974526934 -0.117113819 0.1286871693
385297690.0 -0.1066026952 0.1454615812 0.3876021959 -0.4021153359 0.3874144521 -0.4018827934 -0.1159307161 0.1301045645
390297660.0 -0.1046575807 0.1469348618 0.3830654868 -0.4063515053 0.3831491305 -0.4059776407 -0.1148983641 0.1311408015
395297630.0 -0.1031343039 0.1482230823 0.378640672 -0.410347625 0.3783324838 -0.4105513237 -0.1131929917 0.1327063796
400297600.0 -0.101842743 0.1495762531 0.3738784833 -0.4150147931 0.3741498172 -0.4147639636 -0.1123807924 0.134045003
405297570.0 -0.1003842711 0.1504453156 0.369321912 -0.4187991182 0.3696137786 -0.4185758488 -0.11147044 0.1352017071
410297540.0 -0.0982552188 0.1519656631 0.3646350614 -0.4229588497 0.3653860506 -0.4227511036 -0.1097619727 0.1363132551
415297510.0 -0.0967188717 0.1530055182 0.3599156417 -0.427268098 0.3604365024 -0.426959709 -0.1087145804 0.1374117579
420297480.0 -0.09502171 0.15471701 0.3550745842 -0.4308605826 0.3555970284 -0.4309358493 -0.1076336235 0.1385437716
425297450.0 -0.0936016717 0.1552194546 0.3511488791 -0.4345223527 0.3511185594 -0.434719949 -0.1064677729 0.1400897105
430297420.0 -0.0919017431 0.156651281 0.3458595871 -0.437946321 0.345929598 -0.4379617829 -0.1053961755 0.1408021769
435297390.0 -0.090225358 0.1575830115 0.3411168845 -0.4416158873 0.3406851348 -0.4418807939 -0.1032904031 0.1419510344
440297360.0 -0.0883753217 0.1590758828 0.3358985198 -0.4459476712 0.3365188245 -0.4457572313 -0.1026883132 0.1429743004
445297330.0 -0.08686559 0.1598147801 0.3316269806 -0.4492250816 0.3314640384 -0.4491373054 -0.1009568808 0.1437236773
450297300.0 -0.0849444466 0.1609556971 0.3264331527 -0.4529785248 0.3266283683 -0.4532489997 -0.0994791494 0.1448589473
455297270.0 -0.083249212 0.1621237979 0.3207840523 -0.4562864341 0.3217657113 -0.4565346171 -0.0981226906 0.1459205651
460297240.0 -0.081498834 0.1631487648 0.3160957408 -0.459930315 0.3165420966 -0.4600807155 -0.0969039861 0.1473055042
465297210.0 -0.0793654628 0.164279052 0.3116485015 -0.463385084 0.3113616553 -0.4636854882 -0.0951011427 0.1477720454
470297180.0 -0.0778854089 0.1651631116 0.3061607474 -0.4668397741 0.3064842094 -0.4668618129 -0.0935695064 0.14942826
475297150.0 -0.0759183551 0.1657411197 0.3009785088 -0.4694853907 0.30119158 -0.4695355835 -0.0919898079 0.1498408612
480297120.0 -0.0740703996 0.1672984957 0.2957869895 -0.4735272037 0.2958298656 -0.473573 -0.0904626738 0.1513137792
485297090.0 -0.0725746377 0.1682040094 0.2909552379 -0.4763975335 0.2909004125 -0.4762630953 -0.0891456706 0.1521735624
490297060.0 -0.0709565769 0.1690027264 0.2860060789 -0.4800339599 0.285794489 -0.4796115977 -0.0876721175 0.1534590741
495297030.0 -0.0686851369 0.169953535 0.2799375562 -0.4825912355 0.2806671287 -0.4825154165 -0.0863752329 0.15417624
500297000.0 -0.066927173 0.1706682092 0.2748194138 -0.4852647113 0.2748505438 -0.485406825 -0.0846020568 0.155735294
505296970.0 -0.0649230223 0.1713248231 0.2700107262 -0.4884245296 0.2696759652 -0.4882500781 -0.0833558228 0.1566041138
510296940.0 -0.0630960852 0.1726126966 0.2643168834 -0.491683173 0.2643572284 -0.491296895 -0.0816334542 0.1576903131
515296910.0 -0.0611904707 0.1734025133 0.2584789581 -0.4941672773 0.2591496221 -0.4941488919 -0.0798297797 0.1584518901
520296880.0 -0.0593924758 0.1742546319 0.2538029441 -0.4971000436 0.2535544837 -0.49701513 -0.078370744 0.1593530308
525296850.0 -0.0571643437 0.1745195959 0.247762388 -0.4998775814 0.2484936418 -0.499488948 -0.07732751 0.1604370133
530296820.0 -0.0554072615 0.1755997352 0.2424793015 -0.5025542811 0.2425692717 -0.5026755364 -0.0754280814 0.1612665324
535296790.0 -0.0537144866 0.1763802773 0.2374445656 -0.504850796 0.2373188999 -0.5042754402 -0.0743130812 0.1620843603
540296760.0 -0.0518715386 0.1772841184 0.2318285543 -0.5077407727 0.2314372672 -0.5078248068 -0.0727726435 0.163398458
545296730.0 -0.0498151823 0.178013538 0.2258367038 -0.5096969127 0.2259509169 -0.5102519642 -0.0712122203 0.1638903083
550296700.0 -0.0476449117 0.1785912794 0.2203906852 -0.5124777428 0.220592407 -0.5126719964 -0.0699232875 0.1646069417
555296670.0 -0.0457265968 0.1790577056 0.2153302777 -0.5144887608 0.2150574518 -0.5147761694 -0.0682699573 0.165907238
560296640.0 -0.0434166772 0.1802017681 0.2090802337 -0.5173852411 0.2094905519 -0.5169291303 -0.0664740559 0.1662184836
565296610.0 -0.0421621227 0.1806908738 0.2036780676 -0.5191289944 0.2040402155 -0.5193352496 -0.0652047803 0.1670357104
570296580.0 -0.04008798 0.1812694764 0.1979356226 -0.5216265298 0.1974695422 -0.5213456494 -0.06352096 0.1684112326
575296550.0 -0.0382446342 0.1819919246 0.1925007188 -0.5241556237 0.1925826175 -0.523643412 -0.0618021616 0.1689105322
580296520.0 -0.0361158443 0.1826055781 0.1863764669 -0.5258026685 0.1865496681 -0.5256923041 -0.0602838231 0.1696205823
585296490.0 -0.0338931594 0.1825960604 0.1810889392 -0.5273565058 0.1811226061 -0.5273641286 -0.0589250026 0.1702438082
590296460.0 -0.0317619981 0.1834838011 0.1755346408 -0.5290696873 0.175398796 -0.5295572891 -0.0574680682 0.1712246451
595296430.0 -0.0297229477 0.1839194782 0.1692008754 -0.5318579098 0.1693845632 -0.5311768994 -0.055366751 0.1714253835
600296400.0 -0.0279954824 0.1843391317 0.1636727663 -0.5329418019 0.1637335458 -0.5327710325 -0.0541174685 0.1720371672
605296370.0 -0.0261845968 0.1848441913 0.1583485155 -0.5347935595 0.1580512897 -0.5348935609 -0.0523088374 0.1728210227
610296340.0 -0.0237945416 0.1852165506 0.1517718671 -0.53649111 0.1521989591 -0.5363497202 -0.0502342966 0.1734907915
615296310.0 -0.0214107518 0.185128294 0.1459734739 -0.5376003036 0.1462278724 -0.5382231749 -0.0484110555 0.173943146
620296280.0 -0.0197660579 0.1855651069 0.1403791769 -0.5394534703 0.1402338041 -0.5393055698 -0.0471399776 0.1744285406
625296250.0 -0.0177086314 0.1857666099 0.1350837427 -0.5410202782 0.1344132842 -0.5413574232 -0.0448440914 0.1750946253
630296220.0 -0.0146538878 0.1863004724 0.1279991812 -0.5422645188 0.1280805436 -0.5422464047 -0.0432861124 0.1759184766
635296190.0 -0.0137387134 0.1864436846 0.1227411842 -0.5429102006 0.1228158721 -0.5437683508 -0.0416259269 0.1761577461
640296160.0 -0.0116626259 0.1869237482 0.1170319369 -0.5446251053 0.1168766559 -0.5448927256 -0.0400298149 0.1767511041
645296130.0 -0.0093966597 0.1872971111 0.1108692802 -0.5459613662 0.1110356717 -0.5459495122 -0.0382695936 0.1775398148
650296100.0 -0.007198486 0.1874239392 0.1049185653 -0.5469612886 0.1050252981 -0.5468636589 -0.0363623481 0.1773985885
655296070.0 -0.0054002619 0.1875008388 0.098784405 -0.5480131045 0.099643187 -0.5481921297 -0.0344167849 0.1784727662
660296040.0 -0.0035966295 0.1875140921 0.0931817197 -0.5487365457 0.0930503551 -0.5494017233 -0.0325383571 0.1787907734
665296010.0 -0.0009689032 0.1879918458 0.086705251 -0.550373377 0.0874009447 -0.5500920637 -0.0307601953 0.179709839
670295980.0 0.0002582807 0.188169211 0.0812595274 -0.5511200448 0.0810150149 -0.5513881308 -0.0293258182 0.179685866
675295950.0 0.0025951762 0.1883217723 0.075416951 -0.5514782429 0.0755179102 -0.5512729658 -0.0276854659 0.1804218572
680295920.0 0.0047971737 0.1882507017 0.0694237546 -0.5523909914 0.068993795 -0.5530923741 -0.0258384343 0.1816028783
685295890.0 0.0070439147 0.1889668544 0.0634394624 -0.5532134711 0.0631590484 -0.5534833877 -0.0239316329 0.1817221829
690295860.0 0.0091719293 0.1883883714 0.0572404222 -0.5535905609 0.0575269297 -0.553926823 -0.0223912337 0.1824740824
695295830.0 0.0110023576 0.1883834133 0.0515286665 -0.5541914595 0.0508515397 -0.5544213682 -0.0204239567 0.1825545149
700295800.0 0.0130545533 0.1882884469 0.0454819056 -0.5545204972 0.0452851036 -0.5547907641 -0.0189764076 0.1831370377
705295770.0 0.015116298 0.1889352229 0.0391683383 -0.5552422056 0.0396589808 -0.5551332064 -0.0172556269 0.1834713902
710295740.0 0.0177025804 0.1886674904 0.0333037588 -0.55604014 0.0337921401 -0.5561402686 -0.0150891688 0.1833532208
715295710.0 0.0191263911 0.1883353394 0.027992105 -0.5558750045 0.0272027028 -0.5560961096 -0.0134176937 0.1838678906
720295680.0 0.0215147651 0.1884757807 0.0213061474 -0.556737392 0.0216512504 -0.5564515756 -0.0115349763 0.1848317613
725295650.0 0.0235053646 0.1882771294 0.0154392271 -0.5560629658 0.0156102896 -0.5567511062 -0.0101502621 0.1852313712
730295620.0 0.0258618308 0.1884923689 0.009508783 -0.5564422891 0.0096074649 -0.5567512229 -0.0086206378 0.1851266989
735295590.0 0.0278454136 0.1883695554 0.0036651638 -0.5567106472 0.0032056508 -0.556609572 -0.0069895381 0.1851400298
740295560.0 0.0297511861 0.1881423878 -0.0024236696 -0.5566007157 -0.002408634 -0.5569199261 -0.0045786961 0.1856592759
745295530.0 0.0318834226 0.1880995394 -0.0085787382 -0.5560397294 -0.0086189884 -0.5563452038 -0.0028839694 0.1850232231
750295500.0 0.0339884036 0.187778592 -0.0143318307 -0.5560998151 -0.0142013351 -0.5565419467 -0.0013255383 0.185498085
755295470.0 0.0362574451 0.1873960565 -0.0200494249 -0.5559320703 -0.0206056818 -0.5563037292 0.0010707105 0.1855328134
760295440.0 0.0381506102 0.1869772389 -0.026263964 -0.5559781498 -0.026326686 -0.5563995706 0.0023603946 0.1855687275
765295410.0 0.0402180002 0.1869275828 -0.0326397304 -0.5554190703 -0.0329429473 -0.5556976887 0.004268832 0.1861084696
770295380.0 0.041776034 0.1863210048 -0.0383592279 -0.5551364586 -0.0383007298 -0.5548234866 0.0058671359 0.1858215447
775295350.0 0.0436502378 0.1855980721 -0.0447772672 -0.5536595587 -0.0443825869 -0.5546910551 0.0074870563 0.1862385575
780295320.0 0.0462124723 0.1857349232 -0.0508259426 -0.5537680947 -0.0498717459 -0.5537276659 0.0093579845 0.1855986238
785295290.0 0.0481803098 0.1846218138 -0.0565987721 -0.5527406091 -0.0562757526 -0.5532848222 0.0116984449 0.1859074819
790295260.0 0.0502994776 0.185203621 -0.0616065625 -0.5528320422 -0.0616446018 -0.5526444562 0.0134871653 0.186265449
795295230.0 0.0522028317 0.184387262 -0.0682846063 -0.5516129856 -0.0681441966 -0.5519043549 0.0156256619 0.1862320169
800295200.0 0.0543315344 0.1843287837 -0.0745671917 -0.5511805123 -0.074324686 -0.5512265168 0.0173154687 0.1858115402
805295170.0 0.0563722871 0.1834331149 -0.0801964133 -0.5499411931 -0.0802482154 -0.5505981778 0.0190091431 0.1859211697
810295140.0 0.0581944333 0.1826671823 -0.086002134 -0.5491188589 -0.0859891319 -0.5498239171 0.0211637864 0.186007016
815295110.0 0.060277234 0.1819273498 -0.0915187307 -0.5480147242 -0.0918582586 -0.5483633761 0.0229112783 0.1861598455
820295080.0 0.0620029915 0.1819946324 -0.0976111657 -0.5470943444 -0.0975858379 -0.5470473466 0.0246769701 0.1860539361
825295050.0 0.0647335295 0.1813915344 -0.1033467148 -0.5462680845 -0.1035700639 -0.5462370815 0.0265403897 0.1856376224
830295020.0 0.0663830925 0.1809341738 -0.1098322227 -0.5445361257 -0.1093994566 -0.5447884096 0.0289622171 0.1859543921
