!Created with skrf (http://scikit-rf.org).
# Hz S RI R 50.0 
!freq ReS11 ImS11 ReS21 ImS21 ReS12 ImS12 ReS22 ImS22
300000.0 -0.043978882 -0.067814804 -0.0026365254 0.0010350826 0.000162343 -7.6135e-05 -0.7621324322 -0.1791710576
5299970.0 -0.0457603234 0.014549517 -0.000185363 5.73474e-05 0.0002741437 0.00035556 -0.7851849859 -0.0091806047
10299940.0 -0.0403358725 0.0330796989 2.5419e-06 -5.40541e-05 7.04951e-05 -0.0001057793 -0.7878989959 -0.0050528712
15299910.0 -0.0316547076 0.0474461933 4.57151e-05 0.0001170884 2.5639e-06 -0.0002214669 -0.7928581804 -0.0028232132
20299880.0 -0.0215720965 0.0594344336 -0.0001878907 -6.29374e-05 -0.0001184621 0.0001039519 -0.7996452525 0.001573847
25299850.0 -0.0100268732 0.0687985635 0.0001394427 -3.89883e-05 -0.0001198251 -0.0001041998 -0.8063070426 0.0076201922
30299820.0 0.0012422686 0.075826129 -0.0001303066 0.0001112358 3.18181e-05 6.46778e-05 -0.8121750637 0.0155542282
35299790.0 0.0130580051 0.0802440147 -0.0001604845 6.06762e-05 -5.0413e-05 3.52034e-05 -0.8170953338 0.0251597669
40299760.0 0.0246114243 0.082957814 3.07401e-05 4.42065e-05 8.46742e-05 0.0001399655 -0.8213678911 0.0340551536
45299730.0 0.0350269163 0.0844710272 0.0002766927 0.0002105748 2.60023e-05 8.3557e-06 -0.8246335115 0.0431391009
50299700.0 0.0453388894 0.0842420228 -0.0001256825 -7.30139e-05 1.47613e-05 8.341e-06 -0.8267449077 0.0539694119
55299670.0 0.0546296233 0.083531655 -1.42706e-05 4.55805e-05 0.0001208123 7.88652e-05 -0.8289046017 0.063895834
60299640.0 0.0634248782 0.0814367889 -2.9929e-05 -0.0002108188 5.71504e-05 -0.0001193862 -0.8296906047 0.0738601995
65299610.0 0.071461705 0.0790990052 -0.0001082294 -8.50555e-05 -0.0001605644 4.19594e-05 -0.8307184594 0.0834229863
70299580.0 0.0781150491 0.0761453013 -0.0003095581 -0.0001526832 -9.47322e-05 2.64995e-05 -0.8311551383 0.0930813638
75299550.0 0.0845838849 0.0728251554 9.31415e-05 2.27971e-05 -0.0001386556 0.0001046044 -0.830907624 0.104212246
80299520.0 0.0903379128 0.0693562838 2.92517e-05 4.37833e-05 -0.0001281977 -8.24047e-05 -0.8312040284 0.1139322428
85299490.0 0.0953657813 0.0656631032 0.0001530717 0.0002909344 2.9855e-05 1.96324e-05 -0.8302791607 0.1231191218
90299460.0 0.1003974823 0.0619404127 2.81886e-05 0.0001002327 0.0001452142 0.0001596409 -0.8289909223 0.1326021488
95299430.0 0.1043345504 0.0581500141 -4.25385e-05 -0.0001013366 -0.0001296098 1.76664e-05 -0.8283361243 0.1424083537
100299400.0 0.1081820391 0.0542647421 -7.28037e-05 1.7264e-05 9.15789e-05 7.11837e-05 -0.8273285146 0.1517396972
105299370.0 0.11161633 0.0503878034 8.58095e-05 7.22031e-05 -0.00010442 5.21027e-05 -0.8260130586 0.1609223762
110299340.0 0.1147083219 0.046442246 0.0001517686 0.0003038609 0.0002632806 9.40582e-05 -0.8245802662 0.1694920165
115299310.0 0.1169886087 0.0425906494 -0.0001670388 4.06671e-05 8.3584e-05 -7.12957e-05 -0.8232881284 0.1787939422
120299280.0 0.1193521802 0.0390272511 -0.0001122178 -0.0001052437 6.25573e-05 7.476e-07 -0.8213697077 0.1880546558
125299250.0 0.1212260155 0.0351331818 0.0001616084 0.0001662609 0.0001889653 9.6851e-06 -0.820168134 0.1968714699
130299220.0 0.1232355957 0.0312665942 4.0626e-05 0.0001581852 1.6753e-06 -1.82588e-05 -0.8176053602 0.2055657079
135299190.0 0.1250661369 0.0278354046 5.7529e-05 -8.75942e-05 -6.36613e-05 -0.0004057209 -0.8163464133 0.2149017189
140299160.0 0.1260313854 0.0244233897 0.000242546 3.60561e-05 -5.76306e-05 0.000167658 -0.814147072 0.2234467239
145299130.0 0.1273668994 0.0210285225 0.0001065159 -2.78746e-05 6.0805e-06 0.0001078404 -0.8120470483 0.2326226429
150299100.0 0.1282776651 0.0176315345 -3.08737e-05 1.88905e-05 -0.0001232129 7.78507e-05 -0.8097631764 0.2415128225
155299070.0 0.1291196519 0.014482511 4.8621e-05 6.3581e-06 0.0002001422 0.0001563465 -0.8073206032 0.2505985532
160299040.0 0.129826925 0.0117467427 -6.93608e-05 7.10107e-05 -3.149e-05 -5.27545e-05 -0.8044949478 0.2591483363
165299010.0 0.1304461502 0.0085833281 -3.3186e-06 0.0002919912 5.95986e-05 2.4383e-06 -0.8017210913 0.2673509304
170298980.0 0.1308384616 0.0055304084 0.0001622425 -3.24729e-05 7.54116e-05 3.69701e-05 -0.7994437917 0.2756484284
175298950.0 0.131510483 0.0024327659 2.65812e-05 -3.72871e-05 2.00595e-05 7.1533e-05 -0.7965754402 0.2847633743
180298920.0 0.1313906699 -0.0003635635 0.0001795042 0.000110869 0.0001088219 -0.0001521769 -0.7938635082 0.2930608141
185298890.0 0.1317702952 -0.0033856084 -0.0002037285 3.16001e-05 0.000155398 0.0002484323 -0.7904746961 0.3017424422
190298860.0 0.1317296296 -0.0058862137 0.000224849 9.07125e-05 7.0491e-06 0.000111572 -0.7873726189 0.3100278806
195298830.0 0.131967372 -0.0082391129 6.70615e-05 -3.86837e-05 -1.35841e-05 7.48653e-05 -0.7844966813 0.3183190203
200298800.0 0.1319295606 -0.0112206174 8.89244e-05 -8.51596e-05 6.48887e-05 6.09894e-05 -0.7810102094 0.326807704
205298770.0 0.131123921 -0.0136589735 -0.00020125 0.0002069122 -4.12498e-05 0.0001190861 -0.777650125 0.3351550598
210298740.0 0.1314639654 -0.0159668862 8.19854e-05 0.0001233597 0.0002360426 0.0001638737 -0.7743342433 0.3430732751
215298710.0 0.1308342218 -0.0185408696 0.000197239 0.0001255804 1.25645e-05 0.0002169558 -0.7708017115 0.351292561
220298680.0 0.1310193693 -0.0209931593 -2.94737e-05 6.25882e-05 0.0001586734 2.95448e-05 -0.7671618063 0.3590778452
225298650.0 0.130691609 -0.0233086559 0.0001385285 -8.13371e-05 0.0001891709 0.0001596702 -0.7630765574 0.367850713
230298620.0 0.1298726715 -0.0252001526 0.000305026 0.0001274366 0.0001063116 0.000237572 -0.7592541685 0.3752339687
235298590.0 0.1296354135 -0.0275478459 0.0001840753 0.0001173827 -2.39212e-05 1.0901e-05 -0.7551947219 0.3834693022
240298560.0 0.1291592363 -0.0296882141 -8.28061e-05 0.0001434777 -0.000145545 7.41719e-05 -0.7518128458 0.3910079604
245298530.0 0.1285734399 -0.0321287721 0.0002465638 -4.40277e-05 0.000148067 6.09326e-05 -0.7473996971 0.3991866127
250298500.0 0.127622492 -0.0339065699 6.71069e-05 2.34999e-05 2.98423e-05 0.0001580304 -0.742939007 0.4071088015
255298470.0 0.1271718988 -0.0356999727 0.0002432878 6.74142e-05 -0.0001491024 8.01892e-05 -0.7389259853 0.4147168168
260298440.0 0.1266084641 -0.0380731228 8.35055e-05 0.0001058085 0.0002083996 0.000121981 -0.7342138836 0.4219291727
265298410.0 0.1256639329 -0.0399601928 -5.33345e-05 1.81874e-05 -5.08934e-05 0.0002377572 -0.7297728221 0.4304657964
270298380.0 0.1250418259 -0.0417798792 0.0001606863 3.55342e-05 0.0001052191 -4.24975e-05 -0.7254127999 0.4381973826
275298350.0 0.1244173428 -0.0434197578 0.0004368721 5.87948e-05 0.0001206016 0.0001634496 -0.7202982973 0.4454612414
280298320.0 0.1233201762 -0.0454010298 3.07113e-05 -4.3625e-05 0.0002467951 0.0001454943 -0.7162241006 0.4527940898
285298290.0 0.1228125737 -0.0472815709 0.000101737 0.0002004281 0.0001350869 9.21342e-05 -0.7120406767 0.4603714947
290298260.0 0.1218315686 -0.0489333648 0.000298558 -9.94807e-05 3.60163e-05 0.0001407762 -0.7069041595 0.4679604042
295298230.0 0.1209262894 -0.0508623702 -2.91036e-05 0.0002346858 8.09411e-05 1.7106e-05 -0.7012488645 0.4749708351
300298200.0 0.1203404263 -0.0527362594 0.0001348038 0.0002695916 0.0001045515 0.0001613667 -0.6963608037 0.4824196055
305298170.0 0.1195334422 -0.0546528795 7.46031e-05 0.0001188905 0.000103757 -1.4075e-05 -0.6914773548 0.4891321362
310298140.0 0.1185091915 -0.0566383039 5.52808e-05 -3.8375e-05 0.0001831617 7.79089e-05 -0.686348886 0.4969905112
315298110.0 0.1174110857 -0.0583350773 -5.63707e-05 -0.000111027 0.0001053982 4.51776e-05 -0.6811667313 0.5034823598
320298080.0 0.1162225111 -0.0602114362 9.00471e-05 0.0002689955 0.0001910341 0.000191548 -0.6762984973 0.5110014929
325298050.0 0.1145525979 -0.0620763426 0.0002407152 -7.79044e-05 7.06553e-05 0.0001514388 -0.6704556362 0.5176782538
330298020.0 0.1134090446 -0.0634624552 -2.48313e-05 9.02468e-05 0.0001526606 1.2583e-05 -0.6649120941 0.5246087115
335297990.0 0.1119843456 -0.0647235158 -3.28119e-05 6.47555e-05 0.0003456747 0.0002365154 -0.6595973085 0.5316611754
340297960.0 0.111017895 -0.0660721432 0.0002231561 -5.00517e-05 0.000162227 0.0001197474 -0.6538521343 0.5387495505
345297930.0 0.1097991214 -0.0677074121 0.0002569742 8.06274e-05 0.0001701983 5.09867e-05 -0.6488909655 0.545006127
350297900.0 0.1084930633 -0.0690751366 0.0002297064 0.0001109821 1.31816e-05 0.0001098839 -0.6435043355 0.5516217843
355297870.0 0.1074267954 -0.0703034822 -1.53052e-05 0.0001324644 6.54448e-05 0.0001885539 -0.6369994901 0.5583633039
360297840.0 0.1062311713 -0.0717416107 0.0001385258 0.000120904 0.0001643887 0.0001566584 -0.6302797572 0.5646054617
365297810.0 0.1052882685 -0.0729522026 2.8922e-05 3.78034e-05 0.0002237093 -1.0998e-06 -0.6258969344 0.5705205429
370297780.0 0.1037325792 -0.0744486785 0.0002181641 9.73495e-05 0.0002610831 6.75915e-05 -0.6196856392 0.5769864496
375297750.0 0.1026216955 -0.0755400086 0.0002350492 0.0001045465 0.0001174492 1.77713e-05 -0.6129686605 0.5834799494
380297720.0 0.1011873455 -0.0766116688 0.0001624959 0.0002195904 0.0002382154 0.0001112818 -0.6067843262 0.5902014028
385297690.0 0.1004259676 -0.0781407301 0.0001664106 5.67545e-05 0.0001011042 -3.31323e-05 -0.6010948288 0.5962391522
390297660.0 0.0988816385 -0.0792385452 0.000132395 0.0002599884 0.0001564255 0.0001086205 -0.5942337432 0.6024144848
395297630.0 0.0977769889 -0.0805278853 0.0001228891 0.0001202615 0.0003153777 0.0001727366 -0.5879889485 0.608391426
400297600.0 0.0961225137 -0.0818830365 0.0002370721 5.8328e-05 0.0001366698 0.0002348982 -0.5828080906 0.6138696384
405297570.0 0.0948950032 -0.0832681942 0.0003659764 4.0898e-06 0.0001698573 0.0004001078 -0.5755061916 0.6199331956
410297540.0 0.0942768856 -0.0841479763 0.0002281777 3.13499e-05 0.0003622032 0.0001076985 -0.5694511514 0.6261292822
415297510.0 0.0926818201 -0.0853303611 -6.11197e-05 7.23959e-05 0.0003972356 1.02786e-05 -0.5626225513 0.6313508172
420297480.0 0.0914009857 -0.0866749731 0.0001674006 0.0001995217 0.000115453 7.57489e-05 -0.5565726824 0.6379512599
425297450.0 0.0904274393 -0.087638788 -1.81622e-05 -9.5292e-06 0.0001391196 0.0001680427 -0.5496604452 0.6426626934
430297420.0 0.0890645849 -0.0890765642 0.0001468507 0.000158217 0.0002435354 0.0001571078 -0.54325845 0.6483200507
435297390.0 0.0876219351 -0.0898593268 0.0004461064 6.97515e-05 0.0001019915 7.72547e-05 -0.5370883042 0.654193133
440297360.0 0.0865474461 -0.0909225059 0.0002323226 0.0002538128 4.4376e-05 7.80493e-05 -0.5301838319 0.6595706838
445297330.0 0.085427135 -0.0920993472 0.0002840598 -2.15311e-05 -4.87487e-05 0.0002354631 -0.5233216484 0.665235913
450297300.0 0.0840132667 -0.093270845 0.0001605148 0.000275333 0.0002456062 -5.02217e-05 -0.5161237165 0.6694939004
455297270.0 0.082352885 -0.0941676926 0.0001083 -0.0001225216 0.0001648473 4.74654e-05 -0.5087084181 0.6744144959
460297240.0 0.0815368388 -0.0948694202 1.7211e-06 6.01796e-05 0.0002300531 0.0001690907 -0.5025969949 0.6799567297
465297210.0 0.0801809114 -0.0957593908 0.0002875077 0.0001549442 0.0003206269 0.0002994615 -0.4955428294 0.6854524589
470297180.0 0.0786688367 -0.096803027 0.0004581346 3.11317e-05 9.30312e-05 0.0001004913 -0.4878348388 0.6903411508
475297150.0 0.0772163584 -0.0974884469 0.0003430474 0.0001014639 0.0002592734 0.0001038179 -0.4813794505 0.6954687565
480297120.0 0.0763053741 -0.0986254968 0.0003057234 0.0002447972 0.0003416368 8.82959e-05 -0.474510462 0.700252847
485297090.0 0.0748764675 -0.0993796803 0.0003148312 0.0001557424 7.74706e-05 6.25098e-05 -0.466760781 0.7046703417
490297060.0 0.0738300768 -0.1004930664 0.0002915648 1.55094e-05 0.000236548 -7.55804e-05 -0.4599368991 0.7090950894
495297030.0 0.0722591868 -0.1011902887 0.0003665036 0.0001681204 0.0003269025 3.16195e-05 -0.4522538797 0.7134767938
500297000.0 0.0706386493 -0.1018264985 0.0002360731 0.0002019867 0.0001671254 0.0001864772 -0.4449271864 0.7184750349
505296970.0 0.0696942145 -0.1028839365 0.0001332902 0.0002162206 0.0003736963 0.0001326335 -0.4378058588 0.7227859253
510296940.0 0.0684487141 -0.1033122452 0.0003372841 0.0002404105 0.000344523 4.83239e-05 -0.4300682194 0.7276103586
515296910.0 0.0669576478 -0.1038932628 0.0001896895 0.0001017559 5.21202e-05 0.0001494794 -0.4230354422 0.730574155
520296880.0 0.0659180868 -0.1048520706 0.0003934488 0.0001856478 0.0002339801 0.0002952927 -0.4151647352 0.7353530512
525296850.0 0.0642045441 -0.1054532236 0.0001438391 0.0001769645 0.0003517367 0.0001459685 -0.4079824131 0.7394158074
530296820.0 0.0629899862 -0.1061803803 0.0003255151 0.0002421279 0.0002517765 2.30947e-05 -0.4007035594 0.7433453034
535296790.0 0.0619253765 -0.1067194264 0.0001875645 0.0001785787 0.0001720099 4.18939e-05 -0.3930407553 0.7478380325
540296760.0 0.0607815467 -0.1070904869 0.0003555787 0.0001132939 0.0003856726 -1.03086e-05 -0.385061692 0.7507874876
545296730.0 0.0591600422 -0.1075122261 0.0003803217 0.0002846319 0.0001724372 0.0002028184 -0.3774917994 0.7549898776
550296700.0 0.0580606519 -0.1079763552 0.0002859692 0.0001897741 0.0001999696 -0.0002156586 -0.3697070107 0.7593793905
555296670.0 0.0564423354 -0.1086375841 0.000376166 8.56633e-05 0.0004525738 6.48705e-05 -0.362630625 0.7623492217
560296640.0 0.0553121686 -0.1091647052 5.60054e-05 9.20412e-05 0.0002954595 3.6954e-06 -0.3542156641 0.7666501773
565296610.0 0.0533435554 -0.1096544579 0.0002085076 -6.96844e-05 0.0003839297 0.0001146997 -0.3465441609 0.7698182535
570296580.0 0.0522276421 -0.1099159584 0.0002047321 0.0001010575 1.39604e-05 0.0001645713 -0.3389877542 0.7726578936
575296550.0 0.0511100381 -0.1106227552 0.000134031 6.05372e-05 0.0004246555 -7.29813e-05 -0.3311630404 0.7764994077
580296520.0 0.0497364103 -0.1105785886 0.0002873331 4.50864e-05 0.0001382732 -7.42667e-05 -0.3237806182 0.7796587707
585296490.0 0.0483554782 -0.110774017 0.0005307352 0.0003440957 0.0003495547 4.55008e-05 -0.3151348969 0.7833038242
590296460.0 0.0470698816 -0.111066134 0.0001660274 0.0001067561 0.0002645021 -6.37231e-05 -0.307971916 0.7858648736
595296430.0 0.0458072254 -0.1115611148 0.0003829716 2.06215e-05 0.0002770514 0.0001593171 -0.3001459781 0.78881312
600296400.0 0.0442310734 -0.1120556596 0.0003169161 -0.0001878989 0.0003862471 -0.000148383 -0.2920881968 0.7918368054
605296370.0 0.0427332779 -0.112006437 0.0001952256 -6.14307e-05 0.0002647251 -9.2236e-05 -0.2836258503 0.7951733728
610296340.0 0.0416468717 -0.1123967934 0.000181192 3.42782e-05 0.0002969971 -0.0001691265 -0.2759328661 0.7974672292
615296310.0 0.0401870161 -0.1125932877 0.0004422501 9.168e-07 0.0003062591 -9.848e-07 -0.2672361624 0.8005154303
620296280.0 0.0387414835 -0.1123529944 0.0002139547 -0.000116107 -4.4206e-05 0.0002020241 -0.2598746689 0.8030350918
625296250.0 0.0373082888 -0.1131125917 0.0003348745 0.0001974088 0.000361251 0.0001137778 -0.2517129692 0.8050450301
630296220.0 0.0358359024 -0.1129523313 0.0003242108 4.04684e-05 0.0002536748 -0.0001330458 -0.2433079871 0.8078194194
635296190.0 0.0342617313 -0.1128694033 0.0002821895 9.52416e-05 0.00023806 -2.82014e-05 -0.2354205793 0.8097827723
640296160.0 0.0328375894 -0.1131329873 0.0004513215 -0.0001929971 0.0004090987 0.000120542 -0.2272407533 0.8126386806
645296130.0 0.0318230836 -0.1130552886 0.000359403 4.9023e-06 0.0001593594 0.000118788 -0.2195350625 0.8142973564
650296100.0 0.0301838506 -0.1131423647 0.0004012268 6.84749e-05 0.0004402382 -9.7662e-06 -0.2106762168 0.816851975
655296070.0 0.0290131138 -0.1132126815 0.0002945186 -8.47352e-05 0.0001057908 2.8576e-05 -0.2034328885 0.8187223143
660296040.0 0.0271765001 -0.1132488047 0.0002790829 9.37764e-05 0.0003060744 5.93019e-05 -0.1941363259 0.8205373315
665296010.0 0.0256948597 -0.1132066993 0.0003319743 8.1963e-06 0.0003391527 2.87189e-05 -0.1860110627 0.8224603709
670295980.0 0.0245285897 -0.1128117698 0.000441228 -1.85686e-05 0.0003255532 7.16051e-05 -0.1784934312 0.8242219012
675295950.0 0.0227900166 -0.1132196661 0.000413644 -2.87185e-05 0.0003696483 0.0001393447 -0.1694407312 0.8264141209
680295920.0 0.0212126155 -0.1128762188 0.0004168084 5.51877e-05 0.0003729083 -7.49391e-05 -0.1613463226 0.8278184752
685295890.0 0.0198698772 -0.1128260144 0.0003629088 -7.26715e-05 0.0003655324 3.67651e-05 -0.1533818449 0.8297404433
690295860.0 0.0185106524 -0.1127960079 0.0004405209 1.1702e-06 0.0002095325 0.0001741223 -0.1451774149 0.8308589035
695295830.0 0.0169681702 -0.112913207 0.0001676899 4.03053e-05 0.0001757752 -0.0001088773 -0.136614536 0.8331116732
700295800.0 0.015718444 -0.1124285124 0.0004622953 0.000176822 0.0002736665 9.857e-07 -0.1287101615 0.8335055138
705295770.0 0.0143148922 -0.1123389042 0.0005338506 4.17479e-05 0.0003618773 -1.74271e-05 -0.1199128147 0.8354422905
710295740.0 0.0123413976 -0.1123288818 0.0002241002 -2.51659e-05 0.0003284923 3.4944e-06 -0.1112471001 0.8364101556
715295710.0 0.0114354035 -0.1118670283 0.0004881776 -0.0001094243 0.0004055783 -0.000143436 -0.1031208341 0.8370349026
720295680.0 0.009670766 -0.1119432727 0.0002489739 -2.54762e-05 0.0003437806 -6.37665e-05 -0.094619411 0.8376851283
725295650.0 0.0081717095 -0.1114394395 0.0002930384 1.71889e-05 0.0002617831 0.0001078062 -0.0869697569 0.8393480864
730295620.0 0.0063258324 -0.111035424 0.0003524163 4.74719e-05 0.0001900336 -0.0001144741 -0.0787317951 0.8398520334
735295590.0 0.0050986905 -0.111036856 0.0003434398 -0.0002040593 0.0001970748 1.33651e-05 -0.0694342488 0.8403335526
740295560.0 0.0033021799 -0.1109082919 0.000432502 2.07838e-05 0.0002192765 -0.0002150771 -0.0611773022 0.8411703853
745295530.0 0.0022063647 -0.110480739 0.00033891 1.04763e-05 0.000323531 6.7439e-05 -0.0534685049 0.8417559414
750295500.0 0.0004915745 -0.1101587533 0.0002125749 -0.0001639292 0.0003036466 9.6052e-05 -0.0445361252 0.8425453207
755295470.0 -0.0009726231 -0.1098578469 0.0002880042 0.0002049487 0.0004835319 -6.9671e-06 -0.0367195845 0.8426091597
760295440.0 -0.0023137877 -0.1090312018 0.000186044 7.7585e-06 0.0001973439 -2.89853e-05 -0.0275493375 0.8429756349
765295410.0 -0.0034881576 -0.109248563 0.0005423299 -0.0001429007 0.0001116026 -2.5841e-06 -0.0196029002 0.8428305341
770295380.0 -0.0052178738 -0.10842871 0.0002076082 1.29813e-05 0.0005561656 -6.60409e-05 -0.0113746216 0.8434768262
775295350.0 -0.0068159239 -0.1083286828 0.0003288559 5.0373e-05 0.0002201906 -0.0001290502 -0.0029142599 0.8429361962
780295320.0 -0.0082015938 -0.1077056826 0.0002658391 0.0002350529 0.000341992 -3.39866e-05 0.0056034554 0.8435608622
785295290.0 -0.0095574334 -0.1076852393 0.0003251429 -0.0001725076 0.0003385865 3.02786e-05 0.0137934639 0.8433985809
790295260.0 -0.0110220621 -0.1073716193 0.0002589934 -0.0001193828 0.0005012093 2.04893e-05 0.0220766471 0.8434001674
795295230.0 -0.0124180363 -0.1069925024 0.0002941242 0.0001119425 0.0004434824 0.0001416791 0.0302402427 0.8423564023
800295200.0 -0.014079127 -0.1062837905 0.0003880554 6.0403e-06 0.0004891188 -1.96345e-05 0.0388073437 0.8420970265
805295170.0 -0.0156172632 -0.1059796942 0.0006337798 0.0001326282 0.0003761938 -0.0002686884 0.0478727381 0.8419563554
810295140.0 -0.0168570308 -0.1051437733 0.0005001079 -0.0002615524 0.0003214665 -6.1937e-06 0.0558023437 0.8412474939
815295110.0 -0.0181956099 -0.1052548122 0.000476092 -0.0003135785 0.0003967352 -0.0001087924 0.0638288945 0.8411308547
820295080.0 -0.019453863 -0.1045700923 0.0003194176 -0.0001222653 0.0001982047 -8.55046e-05 0.0717553281 0.8405112179
825295050.0 -0.0215137169 -0.1043174263 0.000299516 7.60704e-05 0.0001912595 -0.0001236691 0.0805216634 0.8394439679
830295020.0 -0.0224918035 -0.1035582328 0.000572609 -0.0002489714 0.0003182606 -0.000174818 0.0886465627 0.8382702111
835294990.0 -0.0240242908 -0.1032558521 0.0006168805 -0.0002000889 0.0004153899 -0.0001808767 0.0973138998 0.8376768465
840294960.0 -0.0253451769 -0.1027473123 0.0002756332 -4.9375e-05 0.000452662 -0.0001126799 0.1054673929 0.8364242311
845294930.0 -0.0266399947 -0.101888739 0.000313599 -6.54511e-05 0.0005069809 -0.0001980652 0.1138486565 0.8353446842
850294900.0 -0.0278131195 -0.1018460801 0.0003451052 -0.0001577315 0.0003910295 -4.53092e-05 0.121945909 0.8347487687
