!Created with skrf (http://scikit-rf.org).
# Hz S RI R 50.0 
!freq ReS11 ImS11 ReS21 ImS21 ReS12 ImS12 ReS22 ImS22
300000.0 -0.7709829842 -0.1818094546 -0.0007298263 -3.70504e-05 -8.53028e-05 0.0007947149 0.8596102756 -0.0026128274
5299970.0 -0.7862315999 -0.0092314943 -0.0001382648 -1.96732e-05 8.25563e-05 -9.09786e-05 0.8595230401 -0.0103272194
10299940.0 -0.7894112782 -0.0060524313 -2.76274e-05 0.0001479099 -5.20742e-05 -8.0782e-05 0.858108739 -0.0192575925
15299910.0 -0.7944971202 -0.0030947468 4.85331e-05 -0.0001163224 -0.0001032435 -0.0002552475 0.8570712513 -0.0277533265
20299880.0 -0.8011865878 0.0009058889 0.0001330043 1.40859e-05 0.000140838 -0.0001105761 0.8564619512 -0.0357630671
25299850.0 -0.8075140605 0.0067541671 1.84657e-05 -5.35726e-05 5.17529e-05 0.0001610484 0.8555111957 -0.0438977111
30299820.0 -0.8143962524 0.0139116477 -0.0001140958 0.0001212368 7.95313e-05 0.0001139427 0.8554379378 -0.0523978177
35299790.0 -0.8184766088 0.0229871018 5.47892e-05 0.0001304053 -0.0001188063 4.00434e-05 0.8545474299 -0.0612383336
40299760.0 -0.8234037256 0.0322173423 -5.82119e-05 -6.74033e-05 2.0814e-06 -9.4735e-06 0.8540276957 -0.0688179049
45299730.0 -0.8264775033 0.0416610456 -3.46012e-05 -0.0001753141 -6.82127e-05 2.71901e-05 0.8527598394 -0.0775631214
50299700.0 -0.8293492054 0.0516484412 -0.0001070537 8.6689e-05 0.0001660128 -8.87131e-05 0.8526952515 -0.0855030096
55299670.0 -0.831401839 0.0613985821 4.95554e-05 2.04826e-05 -0.000166411 5.08728e-05 0.8511384956 -0.0939142996
60299640.0 -0.8324679654 0.0717365791 -0.0001020646 -2.99203e-05 0.0001796943 6.83359e-05 0.8501460057 -0.1023725128
65299610.0 -0.8335479704 0.0817387529 2.09395e-05 -8.53214e-05 2.42205e-05 -0.0001504651 0.8487235396 -0.1105312479
70299580.0 -0.8334020373 0.0918551582 4.84044e-05 -0.0001434471 -0.0001688337 1.2714e-06 0.8475645979 -0.118440634
75299550.0 -0.8337878069 0.1015415565 -2.25409e-05 -1.57377e-05 -3.89847e-05 -0.0001978242 0.8461649599 -0.1271706343
80299520.0 -0.8339540264 0.1115419477 -2.2011e-06 -5.37303e-05 -7.07192e-05 -0.0001202593 0.8451505436 -0.1353863095
85299490.0 -0.832755928 0.1215185242 -0.0001217784 7.14602e-05 -0.000201623 -5.3198e-06 0.8439175708 -0.1433617692
90299460.0 -0.8325221682 0.1317874275 -7.0875e-06 -2.20598e-05 4.6988e-06 -0.0001283909 0.8425154681 -0.1515452878
95299430.0 -0.8317507479 0.1404811962 0.0002397108 3.55322e-05 9.517e-05 0.0001840526 0.8410511552 -0.1598684996
100299400.0 -0.8306000279 0.149916267 7.9851e-05 0.0002140454 -5.25494e-05 -0.000146613 0.8390405945 -0.1680601747
105299370.0 -0.8287161348 0.1590758414 -1.64378e-05 0.0001461306 6.92071e-05 -4.91032e-05 0.8374952736 -0.1766360616
110299340.0 -0.8277318167 0.1683396694 9.48116e-05 -0.0001344864 0.0001931492 7.89004e-05 0.8350828742 -0.1846972751
115299310.0 -0.8261768847 0.1782716825 -7.1453e-06 -6.5804e-05 -2.62816e-05 2.03472e-05 0.8332541826 -0.1927903582
120299280.0 -0.8249801147 0.186771888 -0.0002399167 -1.07331e-05 6.5593e-06 3.98387e-05 0.8320703726 -0.2008988949
125299250.0 -0.8227398727 0.1950768633 0.0001013975 7.79325e-05 -6.09182e-05 0.0001294539 0.8293437959 -0.2088273253
130299220.0 -0.8210107028 0.2053947568 7.2154e-06 0.0001325065 -7.36437e-05 0.0001209463 0.8280258518 -0.2168042761
135299190.0 -0.8189503196 0.2141438376 -4.7004e-06 0.0001000492 4.71404e-05 -2.76487e-05 0.8257461311 -0.2255068933
140299160.0 -0.8171650711 0.223513442 -0.0001405714 1.38711e-05 -1.67606e-05 9.05555e-05 0.8228616851 -0.2337018485
145299130.0 -0.8153468851 0.2321584213 0.0001705629 0.0001119184 -8.24074e-05 0.0001914517 0.8207641895 -0.2415471769
150299100.0 -0.8123337964 0.2408488433 0.0002731837 2.92295e-05 -4.0962e-05 8.40529e-05 0.8180881465 -0.2494031716
155299070.0 -0.8102672048 0.2504298608 5.67349e-05 -5.77467e-05 -4.5838e-05 -2.15138e-05 0.8157311024 -0.2578704435
160299040.0 -0.8073090461 0.2590270509 -2.75389e-05 4.17486e-05 -0.0001711999 5.47744e-05 0.8129160546 -0.2655704288
165299010.0 -0.804530264 0.2678741726 -0.0001501683 -2.39772e-05 4.1278e-06 5.48384e-05 0.8105064029 -0.2732324947
170298980.0 -0.8017466024 0.2762860915 0.000242588 -0.0001741013 0.0001587254 0.0001802319 0.8073006682 -0.2815740149
175298950.0 -0.799009204 0.2850092159 3.15397e-05 4.56957e-05 -0.0002475295 -1.7622e-05 0.8046472243 -0.2889852465
180298920.0 -0.7959783818 0.2932520893 8.08848e-05 3.03093e-05 9.0942e-06 5.84024e-05 0.80193931 -0.2968246901
185298890.0 -0.7926437842 0.302697368 0.0001111006 0.0001715153 9.9036e-06 4.346e-06 0.7992379774 -0.3046302592
190298860.0 -0.7897348073 0.3111411282 0.0001665666 0.0002796594 0.0001326895 -3.59738e-05 0.7958283435 -0.313064446
195298830.0 -0.7866766937 0.31911353 -0.0001005519 -2.39321e-05 -4.28767e-05 0.0001150754 0.7930147085 -0.3203944872
200298800.0 -0.7830644642 0.3278053853 -0.0001711914 -8.80268e-05 3.17349e-05 -1.44831e-05 0.7895903334 -0.3282680789
205298770.0 -0.7792891729 0.3362085568 0.0001055355 -0.0001134989 -0.0001222711 0.0001506822 0.7862967086 -0.3364984024
210298740.0 -0.7760632419 0.3450443076 -9.6247e-05 0.0001947718 0.0001198824 5.11587e-05 0.7829446077 -0.3438415363
215298710.0 -0.7721672095 0.3531790247 -0.0002363329 -0.0001240334 1.65227e-05 9.88097e-05 0.7796985567 -0.3514217812
220298680.0 -0.7690329271 0.3612808638 0.0001069721 -0.0001123172 -0.0001659212 -7.34095e-05 0.7755715883 -0.3585827526
225298650.0 -0.7652121893 0.3697523216 -3.2568e-06 4.44922e-05 2.79761e-05 -0.0001185108 0.772134087 -0.3667070702
230298620.0 -0.7613374192 0.3778276275 3.79124e-05 -9.49708e-05 -0.000130698 -0.0002580264 0.7684334076 -0.3736815617
235298590.0 -0.7573268798 0.3859793476 0.0002296325 5.9869e-06 -4.41306e-05 -7.1105e-06 0.7645886941 -0.3813672221
240298560.0 -0.7529811622 0.3938943831 9.33397e-05 4.4613e-05 0.0001354163 0.0001571252 0.7610881629 -0.3888081731
245298530.0 -0.7487717802 0.401748519 0.0001781315 9.68599e-05 0.000226685 -3.09808e-05 0.7569050019 -0.3956521089
250298500.0 -0.7449118533 0.4093454126 0.0001012854 2.61182e-05 2.15813e-05 -3.53389e-05 0.753430334 -0.4036108678
255298470.0 -0.740689152 0.4174416175 -5.92155e-05 9.7606e-05 -7.98941e-05 5.31928e-05 0.7491297026 -0.4109180159
260298440.0 -0.7360836192 0.4253127039 0.0001342149 3.79846e-05 -0.000181112 0.0002252343 0.7452306115 -0.4183658597
265298410.0 -0.7321061151 0.4329322959 0.000110846 -7.00413e-05 -5.53876e-05 3.65075e-05 0.7416614666 -0.4250744757
270298380.0 -0.727317511 0.4405242386 0.0001514929 -8.74392e-05 2.51429e-05 1.46179e-05 0.7371922552 -0.4326596991
275298350.0 -0.7227915943 0.4481283921 -4.39183e-05 1.45363e-05 0.0001022778 0.0002520992 0.7323122088 -0.4401975666
280298320.0 -0.7182234429 0.4551845439 5.60439e-05 0.0002142906 7.28445e-05 6.20483e-05 0.7283238457 -0.4466656699
285298290.0 -0.7134527458 0.463136832 1.73794e-05 -0.0001441247 -0.0001934827 -1.97994e-05 0.724554632 -0.4538092909
290298260.0 -0.7087426483 0.4713465811 -4.45795e-05 0.000112429 -2.90478e-05 -5.39064e-05 0.7201905808 -0.4605514904
295298230.0 -0.7040574581 0.4782622131 -1.70589e-05 0.0001653006 7.81246e-05 0.0001003015 0.7154250377 -0.4679262557
300298200.0 -0.699703027 0.4854612258 -0.000201281 0.0001389041 4.2335e-06 0.000127657 0.7111700029 -0.4750566261
305298170.0 -0.6947171551 0.4927487313 0.0002201039 -0.0001722095 3.03687e-05 2.23614e-05 0.70589274 -0.4820306514
310298140.0 -0.6890868733 0.4995154649 0.0001489319 0.0001803822 2.65625e-05 0.0001108587 0.7020099536 -0.4895642244
315298110.0 -0.6844963194 0.5069132671 4.59399e-05 5.95383e-05 -0.0002264658 9.529e-06 0.697616923 -0.4970312434
320298080.0 -0.6787796685 0.5140653471 -7.0175e-05 6.0496e-06 6.16213e-05 -4.18364e-05 0.6920326305 -0.5045280401
325298050.0 -0.6737759213 0.5209195462 -0.000236735 7.61297e-05 6.68521e-05 0.0001177154 0.6873718888 -0.5121256865
330298020.0 -0.6682166787 0.5276509614 0.0001329931 0.0001059685 -3.361e-06 8.06512e-05 0.6816577519 -0.5195857638
335297990.0 -0.6625303572 0.5346891247 -1.61998e-05 1.50142e-05 8.73135e-05 0.0001481384 0.6756417489 -0.5262608697
340297960.0 -0.6577946608 0.5410465567 1.62688e-05 8.64844e-05 3.1553e-05 -1.47791e-05 0.669835524 -0.5326649024
345297930.0 -0.651973842 0.5484663061 0.0001028308 8.49668e-05 0.0001380698 -8.52077e-05 0.6638672338 -0.5387494709
350297900.0 -0.6464413767 0.5550495386 -7.89468e-05 4.34768e-05 -6.99821e-05 6.12604e-05 0.6579643978 -0.5454865303
355297870.0 -0.6406460635 0.5613464418 -8.89807e-05 -0.0001180554 0.0001725065 -7.37789e-05 0.6525806743 -0.5510651678
360297840.0 -0.634723208 0.5682176082 4.94362e-05 -0.0002193761 3.62399e-05 -1.77814e-05 0.6470666186 -0.557064944
365297810.0 -0.6293114847 0.5751585178 0.0001633966 0.0001974462 -8.35672e-05 2.79087e-05 0.6412497452 -0.5635106656
370297780.0 -0.6235585246 0.5806122652 -3.93363e-05 -5.29665e-05 -0.0001776964 0.0002265241 0.6354649082 -0.5692437347
375297750.0 -0.6177401951 0.586966802 2.78279e-05 -0.0001589851 -1.0158e-05 -8.03152e-05 0.6297580637 -0.5763341534
380297720.0 -0.611940385 0.5937367154 -9.32583e-05 0.0001003897 0.000103284 -0.0001184151 0.6241695712 -0.5815642114
385297690.0 -0.6058338598 0.5995590025 8.86865e-05 -0.000105713 -0.0001513129 -5.83641e-05 0.6183129593 -0.5878090394
390297660.0 -0.5987199078 0.6055559706 -0.0001006169 -0.000147393 -0.0001526919 3.21238e-05 0.6120739683 -0.593669108
395297630.0 -0.5928563268 0.611719082 0.0002029471 -8.35248e-05 -3.29789e-05 4.21679e-05 0.6064370647 -0.5994711545
400297600.0 -0.5866648822 0.618573683 0.0002034278 0.0002534702 -0.0001099507 0.0001660141 0.6002181701 -0.6050069213
405297570.0 -0.5806800189 0.6232068465 2.55248e-05 2.57975e-05 -0.0001772369 8.78623e-05 0.5941806489 -0.6109776976
410297540.0 -0.5739083364 0.6301518531 0.0001116913 1.71876e-05 7.34754e-05 0.0001071838 0.5879094838 -0.6166434212
415297510.0 -0.5675693957 0.6352702515 8.83095e-05 -0.0002368862 0.0001409085 -4.84553e-05 0.5817962213 -0.6223795592
420297480.0 -0.5604333516 0.64116365 8.62694e-05 0.0002028986 0.0001297399 -0.0001156961 0.5761646889 -0.627480104
425297450.0 -0.5545802083 0.6470240179 8.95556e-05 6.02132e-05 -0.000151139 -0.0001047365 0.5696625768 -0.6340067103
430297420.0 -0.5476816311 0.652473819 -7.46696e-05 -0.0001612994 7.15805e-05 -2.78992e-05 0.5634161344 -0.6393379943
435297390.0 -0.5410612487 0.6573895389 1.88641e-05 0.0001089057 0.0001713919 0.0002029095 0.5567913256 -0.6449771153
440297360.0 -0.5336632121 0.6627465356 -0.0001576063 0.0001701535 0.0001535775 -9.48508e-05 0.5505378389 -0.6496646866
445297330.0 -0.5273840505 0.6678395986 0.0001367997 0.000258747 -0.0001566096 4.24849e-05 0.5435817176 -0.6542292197
450297300.0 -0.5200287646 0.6734815108 3.23527e-05 8.88623e-05 -6.94731e-05 0.0001966908 0.5374666086 -0.6597278127
455297270.0 -0.5133670166 0.6787182225 3.94024e-05 -5.0779e-05 -0.000106439 -7.07303e-05 0.5308221828 -0.6652110599
460297240.0 -0.5053391531 0.6839720123 -0.0001116367 5.251e-05 0.0001587296 -7.56302e-05 0.5233165306 -0.6707880516
465297210.0 -0.4993741239 0.6888754444 4.04296e-05 -4.22343e-05 -0.0001397295 -9.62282e-05 0.5175792519 -0.6749166448
470297180.0 -0.4919828088 0.6942287038 -3.98702e-05 5.59982e-05 0.000152993 -2.85436e-05 0.5108019158 -0.680095335
475297150.0 -0.4850159118 0.6986273894 -2.29446e-05 -4.42182e-05 -7.86913e-05 -1.14078e-05 0.5041127777 -0.6853264857
480297120.0 -0.4768853917 0.7041802756 -2.37725e-05 -0.0001311835 -2.74971e-05 0.0001933617 0.4971430101 -0.690069612
485297090.0 -0.4699154246 0.708625745 -2.00654e-05 2.46548e-05 -0.0001939865 -5.8547e-06 0.4905264042 -0.695328134
490297060.0 -0.4618952427 0.7133971668 4.7343e-06 1.73333e-05 -2.77469e-05 3.65156e-05 0.4834304645 -0.699387815
495297030.0 -0.4546212787 0.7182973007 -0.0002565316 8.97525e-05 0.0001128211 0.0001297313 0.4763258228 -0.7044024927
500297000.0 -0.4469721111 0.7219029861 8.5897e-05 7.1965e-05 0.0001508102 -0.0002017908 0.4696718875 -0.7089807788
505296970.0 -0.4393853075 0.7273093444 -7.78338e-05 5.35891e-05 8.34667e-05 1.60317e-05 0.46233474 -0.7134160294
510296940.0 -0.4322878923 0.7317227081 4.12551e-05 3.77252e-05 -5.82165e-05 -2.556e-06 0.4544931356 -0.7174593096
515296910.0 -0.4241331475 0.7357233881 -1.39902e-05 -0.0002623374 -5.33322e-05 -4.87332e-05 0.447741243 -0.7222926959
520296880.0 -0.4162464409 0.7399633744 -4.07383e-05 -1.51917e-05 -2.30255e-05 -1.23795e-05 0.4407731409 -0.7265776983
525296850.0 -0.4083999462 0.7440770684 -1.25492e-05 0.0001277677 -7.40445e-05 -0.0001771718 0.4334636 -0.7307560856
530296820.0 -0.4011837778 0.747884104 -5.4911e-06 -9.9195e-05 0.000110421 1.87496e-05 0.4266456579 -0.7351112153
535296790.0 -0.3926400598 0.7518250007 -9.32463e-05 -0.0001634885 2.04478e-05 -1.56372e-05 0.4196034782 -0.7386271073
540296760.0 -0.3851823933 0.7557630462 -9.2745e-05 -0.00019636 1.00351e-05 -9.95118e-05 0.4116763414 -0.7430712937
545296730.0 -0.3777006526 0.759843573 -3.7662e-05 7.99368e-05 -0.0002390994 -0.000131676 0.4040139594 -0.747100002
550296700.0 -0.3692618496 0.7634042442 -4.4444e-05 -0.0001057105 -0.0001577021 -7.18743e-05 0.3965117318 -0.7510327339
555296670.0 -0.3613564383 0.7674099433 0.0001244621 -0.0001367549 -4.7458e-06 -8.75496e-05 0.3893702619 -0.7548016177
560296640.0 -0.3532287636 0.7708725521 -8.95058e-05 3.7776e-05 2.83549e-05 -1.81641e-05 0.3814737574 -0.7582700954
565296610.0 -0.3460077088 0.7742228107 -5.32623e-05 -5.39434e-05 -9.79624e-05 -7.72495e-05 0.3746796712 -0.7621596093
570296580.0 -0.3371162609 0.7781323985 -0.0001330148 7.67148e-05 0.0001321317 -2.91875e-05 0.3660487275 -0.7663909733
575296550.0 -0.3279149537 0.7810195878 9.75106e-05 -4.55805e-05 -1.86421e-05 -0.000101278 0.3595768622 -0.7695805489
580296520.0 -0.3213198162 0.7846912483 -9.83624e-05 6.60634e-05 -0.0001199337 0.0001879814 0.35108813 -0.7726852671
585296490.0 -0.3120533231 0.7875461311 -8.53862e-05 7.3362e-05 0.0001835821 7.62985e-05 0.3434369805 -0.7752969047
590296460.0 -0.30394596 0.7906890813 7.69331e-05 -8.04797e-05 -0.000179154 0.0001011028 0.3352149232 -0.7791731073
595296430.0 -0.2958359153 0.7938371702 -0.0001515245 0.0001002294 -0.0002816544 -0.0001912024 0.3280677469 -0.7821955774
600296400.0 -0.28830352 0.7966260165 -4.7683e-06 -2.66832e-05 -9.12338e-05 -6.12105e-05 0.3203619033 -0.7847837944
605296370.0 -0.279469846 0.7994836247 -4.06291e-05 -7.32574e-05 -0.000200448 -3.21266e-05 0.3124095115 -0.7883878712
610296340.0 -0.2713307745 0.8032605269 -7.1799e-06 -7.26453e-05 -0.0001764146 -6.44791e-05 0.3039356438 -0.7909460692
615296310.0 -0.262745202 0.8051886157 -8.37052e-05 -3.10438e-05 0.0001761417 -0.0001372858 0.2968608903 -0.7941652724
620296280.0 -0.2546364402 0.8084139129 -0.0002717516 -0.0002261059 -0.0001132906 -0.0001554213 0.2889591292 -0.7967747389
625296250.0 -0.2473585904 0.8104095664 0.0002055328 -0.0001134832 -5.71421e-05 8.11685e-05 0.2807145413 -0.799947565
630296220.0 -0.2386899728 0.812956849 7.27453e-05 7.6638e-05 0.0001846255 -2.20212e-05 0.2721701049 -0.8020310572
635296190.0 -0.2302769343 0.8156964066 6.40231e-05 -3.28313e-05 5.07065e-05 -7.22022e-05 0.2643185946 -0.8046084741
640296160.0 -0.2217851902 0.8178064207 8.28639e-05 3.4836e-06 -2.6145e-06 -0.0001269354 0.2561341692 -0.8073860296
645296130.0 -0.213618292 0.8203882435 -0.0002877995 1.51801e-05 0.0002306082 4.56743e-05 0.2481432486 -0.8094109638
650296100.0 -0.204755846 0.8217143418 -0.0001993613 -0.0001604252 -0.0001123287 9.5892e-06 0.2407193757 -0.8117474647
655296070.0 -0.1976540065 0.8244052842 -5.12609e-05 0.0002266728 4.61767e-05 0.0001047147 0.2319959243 -0.814354842
660296040.0 -0.1889284016 0.8262595775 -0.0001034521 -0.0001802872 0.0001544743 0.000113896 0.2239701487 -0.8165216091
665296010.0 -0.1806483362 0.8286639184 -0.0003120707 9.25436e-05 8.46853e-05 -1.10872e-05 0.2163166019 -0.8182129752
670295980.0 -0.1730799801 0.8305537718 9.0954e-05 0.0001730933 1.69943e-05 -0.0001327158 0.2079355269 -0.820001979
675295950.0 -0.1638101139 0.8319359944 2.00306e-05 -6.848e-07 6.0965e-05 9.56654e-05 0.1992632762 -0.8221442332
680295920.0 -0.1565488136 0.8335985018 -0.0002144254 9.26239e-05 5.82745e-05 -0.0002456638 0.191070058 -0.8239777685
685295890.0 -0.1473371044 0.8361094388 1.37383e-05 -0.0001646141 -0.0002394334 -2.9255e-05 0.1830351805 -0.8254345306
690295860.0 -0.1393439738 0.837017197 8.50698e-05 -1.787e-07 3.77276e-05 -0.0002230452 0.1747170563 -0.8274402775
695295830.0 -0.1302306898 0.8379811705 -0.0002163746 0.0001861375 -7.10056e-05 7.24719e-05 0.1664852117 -0.8285921168
700295800.0 -0.1227968552 0.8399365468 0.0001598647 -4.5477e-06 -7.87278e-05 5.6458e-05 0.1589353931 -0.8303132248
705295770.0 -0.1145757176 0.8414413053 -0.0003131014 -4.51088e-05 0.0002083219 0.0001110256 0.1500194299 -0.8313807464
710295740.0 -0.1069669702 0.8422570894 2.01668e-05 8.51845e-05 3.57319e-05 2.24626e-05 0.1418647857 -0.832822321
715295710.0 -0.0971832504 0.8437556437 -3.40941e-05 8.01289e-05 -1.58899e-05 -5.52159e-05 0.1339318288 -0.834782071
720295680.0 -0.0888794092 0.8445465645 -8.99389e-05 -0.0001291595 -0.0001014757 -9.0239e-05 0.1250834598 -0.8349933858
725295650.0 -0.0816083873 0.8458181818 0.0002844 -9.13769e-05 3.1473e-05 7.05728e-05 0.116835452 -0.836528471
730295620.0 -0.073953466 0.8464022228 2.98449e-05 -3.62825e-05 -5.04864e-05 -2.734e-07 0.1082310097 -0.8370485847
735295590.0 -0.0654252608 0.8475410768 -2.49846e-05 0.0002255668 -0.000131143 -1.80235e-05 0.100900085 -0.838103316
740295560.0 -0.0574405889 0.847187566 9.99301e-05 4.0518e-05 0.0001591865 0.0001082673 0.0918573118 -0.8390136246
745295530.0 -0.0486585355 0.8488449359 -0.000152271 0.0001249371 -0.0002383673 -2.33615e-05 0.0828022253 -0.8400499183
750295500.0 -0.0411279424 0.8490337094 -2.72583e-05 -5.16829e-05 -0.0001046876 0.0001149239 0.0751074937 -0.8405992082
755295470.0 -0.0322219539 0.8501726926 3.8032e-06 0.0001336868 -0.0001578811 9.67279e-05 0.0664411559 -0.8406045932
760295440.0 -0.0240682521 0.8508822314 -9.62886e-05 -3.91098e-05 5.89743e-05 2.69826e-05 0.0589778519 -0.8412818946
765295410.0 -0.0156413361 0.850502048 -6.06013e-05 -0.0002361282 0.0001849633 0.0001021415 0.0496704162 -0.8416491815
770295380.0 -0.0083340968 0.8511607428 -0.0001257699 0.0001584108 8.05469e-05 9.37286e-05 0.0417920615 -0.8423877743
775295350.0 0.0003408725 0.8508733351 0.0001600298 -0.000235013 0.0001795962 0.0002250578 0.0333902316 -0.8424838438
780295320.0 0.0092790852 0.8515364383 -1.3655e-06 7.6152e-05 0.0001199396 0.0001993928 0.0247865471 -0.8425275021
785295290.0 0.0170752499 0.8510747219 5.94941e-05 -3.3549e-06 0.0001110291 3.91811e-05 0.0165575381 -0.8421330616
790295260.0 0.0249570543 0.8511990163 6.7082e-05 0.0001719144 0.0001050655 -7.3091e-06 0.0079455642 -0.8421287944
795295230.0 0.0334281639 0.8502916679 -0.0002027953 7.19576e-05 0.0002179342 -0.0001937488 -0.000978827 -0.8432406907
800295200.0 0.0413617303 0.8507099205 -1.57658e-05 -0.0002228789 -3.32354e-05 0.0002513839 -0.0089553591 -0.8417477104
805295170.0 0.049421833 0.8504751537 -4.71524e-05 0.0001851199 -7.57153e-05 6.91394e-05 -0.0165943332 -0.8422682143
810295140.0 0.0576617141 0.8504403584 4.13408e-05 -8.72996e-05 9.16186e-05 0.0001540515 -0.0257746613 -0.8413210997
815295110.0 0.0653139472 0.8490970721 0.0001067994 -1.87386e-05 -2.80283e-05 -2.48623e-05 -0.0343909952 -0.841245745
820295080.0 0.0738903028 0.8491623604 -0.0001177362 -5.1282e-06 -0.0001121223 7.98542e-05 -0.0429605362 -0.8395328238
825295050.0 0.0823540164 0.8483987722 -0.0002466148 -0.0001239107 -7.12887e-05 -5.26038e-05 -0.0505680484 -0.8396093371
830295020.0 0.0909427977 0.8477508476 -0.0002637848 -1.48402e-05 -0.0003620115 -6.8406e-06 -0.0596268871 -0.8392487514
835294990.0 0.0983810985 0.8470444166 -0.0001666203 -4.01552e-05 4.18803e-05 -1.63101e-05 -0.0672638358 -0.8382556895
840294960.0 0.1067923951 0.8453371766 5.20855e-05 -0.0001205693 3.74911e-05 8.3911e-05 -0.0759222512 -0.8373365978
845294930.0 0.1147045991 0.844536659 -0.0001081144 -6.78015e-05 2.39055e-05 0.0001610521 -0.0839872396 -0.8363490132
