!Created with skrf (http://scikit-rf.org).
# Hz S RI R 50.0 
!freq ReS11 ImS11 ReS21 ImS21 ReS12 ImS12 ReS22 ImS22
300000.0 -0.3233641715 -0.0886865753 0.3755157744 0.0450278135 0.3727594503 0.0432894588 -0.3174083965 -0.100339469
5299970.0 -0.326757571 0.0039542895 0.3783382217 0.0025210319 0.3783467812 0.0025616931 -0.3234757968 0.0047148654
10299940.0 -0.324038726 0.0133508982 0.379279361 0.0019926425 0.3793479332 0.0023672422 -0.3211480776 0.0159223117
15299910.0 -0.3213339353 0.0202665542 0.381842921 0.0020645644 0.3816293017 0.0019522616 -0.3178738488 0.0239027442
20299880.0 -0.318595265 0.0261934646 0.3847292088 0.0017253517 0.3847290144 0.0016584835 -0.3143942106 0.0304069863
25299850.0 -0.3156354915 0.031771452 0.3880788542 -6.22296e-05 0.3879376082 3.82223e-05 -0.310491901 0.0361971202
30299820.0 -0.3127314522 0.0359963385 0.3913720352 -0.002323146 0.3913804475 -0.0024950645 -0.3067661683 0.0414812953
35299790.0 -0.3099183453 0.0398773 0.3947125704 -0.0057135679 0.3947504657 -0.0054231805 -0.303302403 0.0453318983
40299760.0 -0.306924822 0.0436843994 0.3975655137 -0.0087323496 0.3978959686 -0.0086933592 -0.3001696818 0.0488483362
45299730.0 -0.3046619228 0.0465183775 0.4006360612 -0.012726274 0.4007779731 -0.0127248794 -0.2970213967 0.0523976473
50299700.0 -0.3023842876 0.0495453898 0.4031248456 -0.0172311277 0.4034090923 -0.01727684 -0.2939897495 0.0547285193
55299670.0 -0.3001153172 0.0520941427 0.405510396 -0.0223151136 0.4055945566 -0.0222540418 -0.2914154358 0.0577890329
60299640.0 -0.2976861573 0.0551886713 0.4073838599 -0.0270510433 0.4074466386 -0.0268124199 -0.2888718641 0.0596171657
65299610.0 -0.2961659113 0.0574913491 0.4088243149 -0.032038546 0.4090382556 -0.0319963483 -0.2871140237 0.0618980717
70299580.0 -0.2945597116 0.0602012274 0.4104105063 -0.0368495247 0.4102619859 -0.0368816525 -0.285006363 0.0641336341
75299550.0 -0.2930367864 0.0626809454 0.4110977463 -0.0424226944 0.4109074045 -0.042312161 -0.2831758154 0.0662035508
80299520.0 -0.2916102859 0.0648325052 0.4124725194 -0.0475329217 0.412276717 -0.0474600552 -0.2816431002 0.0680156638
85299490.0 -0.2902525661 0.0672900644 0.4126474853 -0.0525744429 0.412905755 -0.0526289325 -0.2800809541 0.0699289482
90299460.0 -0.2887246573 0.0695402974 0.4129691243 -0.058077898 0.4134480599 -0.0581336281 -0.2783434571 0.0720953577
95299430.0 -0.2874559014 0.0715448372 0.4136720178 -0.0632711757 0.4133366126 -0.0632794765 -0.2767654535 0.0741267471
100299400.0 -0.2865516074 0.0743294818 0.4132309603 -0.0683300776 0.4131510463 -0.068449675 -0.2752770034 0.0760220177
105299370.0 -0.2850119846 0.0765921588 0.4129941688 -0.0741417621 0.413271811 -0.0737222688 -0.2739349923 0.0781108877
110299340.0 -0.2843529959 0.0787634749 0.4134283565 -0.0786754463 0.4130186307 -0.0784955531 -0.2729311266 0.080032011
115299310.0 -0.2827288491 0.08101285 0.4128326456 -0.0840372899 0.4126188086 -0.0837073213 -0.2713509164 0.082261444
120299280.0 -0.2819178234 0.0830423301 0.4122226352 -0.0889949968 0.4123236585 -0.0891804014 -0.2705817656 0.0843542474
125299250.0 -0.2811255447 0.0855532844 0.4117445424 -0.0942040991 0.4122571562 -0.0937469565 -0.2694994919 0.0860402797
130299220.0 -0.2802329391 0.0881866009 0.4107741174 -0.0992195806 0.4108457513 -0.0991971701 -0.2682414974 0.0883652389
135299190.0 -0.2790957017 0.0907972985 0.4103225068 -0.1041516051 0.4100737213 -0.1039756442 -0.2670363837 0.0904748255
140299160.0 -0.27838748 0.0935189653 0.4097576515 -0.109331067 0.4094746738 -0.1093583549 -0.2655958415 0.0933660854
145299130.0 -0.2770723629 0.0958606059 0.4087364516 -0.1143528646 0.4084401632 -0.1139135742 -0.2649267089 0.0955965711
150299100.0 -0.2759316307 0.0981960907 0.4074229273 -0.118835353 0.4078326707 -0.1183702864 -0.264165122 0.0981849226
155299070.0 -0.2753342972 0.1005367037 0.4067043159 -0.1245111925 0.4063781895 -0.1241680699 -0.2626426331 0.1005268826
160299040.0 -0.2743937072 0.1035166625 0.4049915207 -0.1289115249 0.4045465103 -0.1288944561 -0.2620741336 0.1030046188
165299010.0 -0.2737531 0.1061992646 0.4041191747 -0.1338918003 0.4040474743 -0.1339245985 -0.2604913509 0.1056630796
170298980.0 -0.2726725722 0.1083666561 0.4023130893 -0.1382544388 0.4025704065 -0.1384207405 -0.2596093285 0.1080008086
175298950.0 -0.2719132584 0.1113070612 0.4016147845 -0.1434552828 0.40108361 -0.1429984218 -0.2591486949 0.1107147063
180298920.0 -0.2706900758 0.1140216272 0.3995393393 -0.1479076215 0.3999379566 -0.1476623912 -0.2580975242 0.1133643667
185298890.0 -0.2693629668 0.116309484 0.3980296886 -0.15239929 0.3979836368 -0.1525060548 -0.2565707803 0.1160423064
190298860.0 -0.2688210283 0.119540792 0.397041847 -0.1574946744 0.3968834569 -0.1573196478 -0.2559033268 0.1183221402
195298830.0 -0.2676922108 0.1216731898 0.3952716783 -0.1620185076 0.3952417032 -0.1619773101 -0.2547464235 0.1213064555
200298800.0 -0.2659409354 0.1246862371 0.3932790091 -0.1667226086 0.3933975691 -0.1669827816 -0.2539199709 0.1236401469
205298770.0 -0.2652693727 0.1272118733 0.3912621928 -0.171302836 0.3912360749 -0.1710706146 -0.252869624 0.1258311504
210298740.0 -0.2640841988 0.1298824137 0.3895474245 -0.175467407 0.3895889357 -0.175498704 -0.2517384651 0.1287978356
215298710.0 -0.2633695504 0.133065142 0.3883485273 -0.1802533027 0.3877199784 -0.1804712044 -0.2508646509 0.1312996224
220298680.0 -0.2620144124 0.135438725 0.3855712967 -0.1848027697 0.3856364637 -0.1846089069 -0.2499086341 0.1336918854
225298650.0 -0.26102771 0.1379457532 0.3838162333 -0.1891244741 0.3838995111 -0.189334055 -0.2489908993 0.1359795183
230298620.0 -0.2597199566 0.1408532637 0.3820978696 -0.1933633069 0.382405675 -0.1936757607 -0.2481028619 0.1389047042
235298590.0 -0.2582472514 0.1439394787 0.3798365874 -0.1979134857 0.3796940324 -0.1976762086 -0.2462121424 0.1413917604
240298560.0 -0.2573286167 0.1464965283 0.3775490985 -0.2022190054 0.3775619538 -0.2024043642 -0.2453072903 0.1442090777
245298530.0 -0.2559807027 0.1490154054 0.3755696908 -0.2067711607 0.3752646487 -0.2065271445 -0.2439924502 0.1459876955
250298500.0 -0.2540604438 0.1519846913 0.3727126214 -0.2109650885 0.3727860502 -0.2105843172 -0.2428287756 0.1486397166
255298470.0 -0.2528910084 0.1544215054 0.3698928452 -0.2151847956 0.3705511018 -0.2151574564 -0.2413115129 0.1512142796
260298440.0 -0.2515615381 0.1570739862 0.3678944169 -0.219558018 0.3681037957 -0.2191749067 -0.2397193506 0.1535460329
265298410.0 -0.2500681537 0.1602213328 0.3658626116 -0.223755658 0.3659234009 -0.2229912953 -0.2385428689 0.1561592308
270298380.0 -0.2485457981 0.1624810453 0.3636200665 -0.2274868139 0.3635808362 -0.227533102 -0.2370719951 0.15858392
275298350.0 -0.2467505313 0.1653297492 0.3608185101 -0.231993278 0.3608695122 -0.2318404916 -0.2353216909 0.1610863965
280298320.0 -0.2449762842 0.167911519 0.3582819561 -0.2361438012 0.3584460047 -0.2356911615 -0.2334948318 0.1630545872
285298290.0 -0.2437789921 0.1708196227 0.3557627732 -0.2401769605 0.3558963231 -0.2400609391 -0.2317334301 0.1658774246
290298260.0 -0.2417412494 0.1733131709 0.3529473865 -0.2435800803 0.3530427011 -0.2440646383 -0.2303763966 0.1684018222
295298230.0 -0.2399165647 0.1752921537 0.3504733538 -0.2476381591 0.350477108 -0.2476135027 -0.2280517837 0.1703521078
300298200.0 -0.2386451391 0.1783011033 0.3480285881 -0.2514135612 0.3480609493 -0.2519989375 -0.2264875971 0.1732946328
305298170.0 -0.236604005 0.1805058714 0.3449054686 -0.2559831727 0.344756217 -0.2556069837 -0.2240515853 0.1753474058
310298140.0 -0.2347075341 0.1835094142 0.3421532681 -0.2598245401 0.342096014 -0.2596538852 -0.2229200737 0.1775417389
315298110.0 -0.2330470442 0.185691589 0.3393178883 -0.2635997231 0.3391566893 -0.2635618829 -0.2208503742 0.1801684982
320298080.0 -0.2311321754 0.1879249932 0.3357414449 -0.2675023513 0.336451477 -0.2674749246 -0.2190307203 0.1828139663
325298050.0 -0.2292415734 0.1906894031 0.3331885131 -0.2714233798 0.3331475583 -0.2716185742 -0.2174563528 0.1849209562
330298020.0 -0.2274897674 0.1928721532 0.3300279024 -0.2751426517 0.3301184152 -0.2748801371 -0.2155820517 0.18757162
335297990.0 -0.2255788342 0.1953288738 0.3271103412 -0.2784351324 0.3269457785 -0.278835528 -0.2144285344 0.190259934
340297960.0 -0.2241305307 0.1983268484 0.3236084936 -0.2821118113 0.3233077527 -0.2824417466 -0.2117155007 0.1928132133
345297930.0 -0.2220576256 0.2006746886 0.3206810439 -0.2858870823 0.320128702 -0.2859617943 -0.2099820321 0.194988722
350297900.0 -0.2202096716 0.2033157303 0.317080682 -0.2896768649 0.3172598171 -0.2893060973 -0.2084461949 0.1979473205
355297870.0 -0.2179579572 0.2060136579 0.3139385538 -0.2930685576 0.3140897121 -0.2927505469 -0.2064615342 0.2000269171
360297840.0 -0.215847188 0.2082036076 0.3111629984 -0.2961452727 0.3111153853 -0.296340141 -0.2046791929 0.2027800971
365297810.0 -0.2141614432 0.2110970601 0.307704907 -0.3000942707 0.3078316645 -0.3000419964 -0.2023736709 0.2051610502
370297780.0 -0.2116178061 0.2133115416 0.3040278096 -0.3030006992 0.30431006 -0.3027305719 -0.2004397727 0.2076169814
375297750.0 -0.2093220093 0.2154152688 0.3005408304 -0.3064895633 0.3009041537 -0.3065157273 -0.1985145112 0.2097221016
380297720.0 -0.2072341407 0.2177921202 0.2971918701 -0.3096202174 0.2975195454 -0.3093224711 -0.1968918033 0.2120669233
385297690.0 -0.2053504116 0.2203550677 0.2939507618 -0.3131797998 0.2936314523 -0.3129101224 -0.1943598469 0.214518495
390297660.0 -0.2029584983 0.222568251 0.2903670302 -0.3165296176 0.2902227453 -0.3159701638 -0.1925398636 0.2164101372
395297630.0 -0.2005079189 0.225212512 0.2870863105 -0.3192352706 0.2869233381 -0.3193413854 -0.1899681584 0.2189048994
400297600.0 -0.1983267875 0.2277182204 0.283041272 -0.3228757251 0.2832952028 -0.3224650188 -0.1879914161 0.2206260742
405297570.0 -0.1963887579 0.2297307446 0.2797109311 -0.3254951056 0.2795584935 -0.3255876051 -0.186067196 0.2230066105
410297540.0 -0.1937091915 0.2316400564 0.2761792606 -0.3285160429 0.2763378224 -0.3284267177 -0.1838775454 0.2252069747
415297510.0 -0.1911680055 0.2339111678 0.2721875905 -0.3319049598 0.2727754287 -0.3317994841 -0.1814438763 0.2272319031
420297480.0 -0.1888382572 0.2361111244 0.268523395 -0.3345227018 0.2687381383 -0.3346932353 -0.1790947334 0.229217615
425297450.0 -0.1863124789 0.2383577726 0.265120053 -0.3376785577 0.2653919263 -0.3376196404 -0.1771373273 0.23133204
430297420.0 -0.1840382661 0.2400130622 0.2614710848 -0.3397839463 0.2609964296 -0.3401417628 -0.1748399487 0.2329528868
435297390.0 -0.1816306771 0.2425687284 0.2572638613 -0.343041811 0.2571887522 -0.3431247696 -0.1719387743 0.2349227204
440297360.0 -0.1792340214 0.2446357859 0.2538747466 -0.3458994829 0.2537501337 -0.3458901149 -0.1694888007 0.2366980619
445297330.0 -0.1765597177 0.2464800892 0.2501117188 -0.3485984705 0.249949115 -0.3482990149 -0.1671523213 0.2383221859
450297300.0 -0.1737471108 0.2484774977 0.2456777052 -0.3514329737 0.2460405217 -0.3512658423 -0.1647765525 0.2401058674
455297270.0 -0.1715526532 0.2504860708 0.2420148965 -0.3538216769 0.2422297363 -0.3541841316 -0.1623439537 0.242172769
460297240.0 -0.1691341787 0.2523082037 0.2382579456 -0.3565585034 0.2382040224 -0.3565127784 -0.1596936203 0.2438969367
465297210.0 -0.1662910505 0.2545651338 0.2344407792 -0.3592097909 0.2343588097 -0.3593100046 -0.1567202591 0.2455872607
470297180.0 -0.1632035687 0.2564024486 0.2297659164 -0.3619591545 0.2303384715 -0.3619947092 -0.1540558798 0.2476309141
475297150.0 -0.1606361229 0.2578106064 0.2260005348 -0.3635951377 0.2262554462 -0.3637455476 -0.1514767236 0.249062558
480297120.0 -0.1581653195 0.2600211329 0.2223404152 -0.3666646529 0.2220635013 -0.3667779532 -0.1484497458 0.2511789537
485297090.0 -0.1552484298 0.261635571 0.2184153559 -0.3687416157 0.2185036496 -0.3687736201 -0.1458192375 0.2527895784
490297060.0 -0.1529652078 0.2634607641 0.2144806259 -0.371449716 0.2146840708 -0.3709584722 -0.1433047959 0.2545504335
495297030.0 -0.1501945321 0.2650199141 0.2100060203 -0.3734119512 0.2106054728 -0.3734540264 -0.1406100911 0.2563216832
500297000.0 -0.1473238392 0.2670014088 0.2060620316 -0.3755788823 0.2058077799 -0.3756645731 -0.1377883722 0.2585742744
505296970.0 -0.1442194905 0.2683895028 0.2016600131 -0.3778223848 0.2017483488 -0.3779338802 -0.1348049093 0.2595793654
510296940.0 -0.1417960731 0.2702583226 0.1977561951 -0.380096245 0.1976264502 -0.3800066125 -0.1321467584 0.261210849
515296910.0 -0.138673941 0.2718696259 0.1933969176 -0.3820218661 0.1938033553 -0.3824984159 -0.1294792472 0.2633676652
520296880.0 -0.1359816644 0.2735848548 0.1895359483 -0.3847432613 0.1896362716 -0.3841964703 -0.1270768029 0.2648398383
525296850.0 -0.1329551607 0.2748645266 0.1850025571 -0.3861016454 0.1854361847 -0.3861780297 -0.1241109588 0.2663986682
530296820.0 -0.1301469865 0.2766609613 0.1808455406 -0.3885943593 0.1809016519 -0.388305307 -0.121191686 0.2684058281
535296790.0 -0.1277414074 0.2781950074 0.1771473283 -0.3902275699 0.1769382155 -0.3898868902 -0.1188800207 0.2693035922
540296760.0 -0.1245718169 0.2795899202 0.1724354218 -0.3924735056 0.1723310537 -0.3922374149 -0.1160342312 0.2713478381
545296730.0 -0.1219781577 0.2812767291 0.1680077254 -0.3941246478 0.1680862365 -0.3940688891 -0.1134028244 0.2725344642
550296700.0 -0.1186238355 0.2828885525 0.1638646999 -0.3957689859 0.1638490692 -0.3957778539 -0.1107745982 0.2735934589
555296670.0 -0.1156446134 0.2839991074 0.1596252815 -0.3975987974 0.1597399008 -0.3971766356 -0.1077504451 0.2752716315
560296640.0 -0.1124641878 0.2855140388 0.1548491163 -0.3994388064 0.1550507125 -0.3991306114 -0.1047814595 0.2762929506
565296610.0 -0.1099341218 0.2869878544 0.1506476494 -0.400829684 0.1505621204 -0.4006651906 -0.101933151 0.2775342665
570296580.0 -0.1070146633 0.2879047238 0.146333219 -0.4025669342 0.1460679512 -0.402377205 -0.0994897004 0.2790811794
575296550.0 -0.103756361 0.2895399486 0.1417486791 -0.404200369 0.1418729355 -0.4040253756 -0.0961911097 0.2799729666
580296520.0 -0.1004406756 0.2907897473 0.1372162094 -0.4058488231 0.1374371087 -0.4055613666 -0.0932560067 0.2811482603
585296490.0 -0.0976456534 0.2916236962 0.1330332497 -0.4065238813 0.1333927007 -0.4069903405 -0.09080474 0.2822617365
590296460.0 -0.094230476 0.2928437618 0.128524915 -0.4077549466 0.1287433704 -0.408024307 -0.0881254945 0.2834987435
595296430.0 -0.0911945432 0.2939331866 0.1235756097 -0.4099892997 0.1237702902 -0.4093691515 -0.084779826 0.2838373127
600296400.0 -0.0882546777 0.295120415 0.1195589422 -0.4107529359 0.1194693587 -0.4105972623 -0.0820157029 0.284994187
605296370.0 -0.0856009099 0.2960626844 0.1152081036 -0.4116685444 0.1150766347 -0.4121180067 -0.0787885569 0.2861898706
610296340.0 -0.0822059895 0.2969191211 0.1101055768 -0.4127930971 0.1107638141 -0.4132855466 -0.0756682765 0.2870345132
615296310.0 -0.0791389084 0.2980551179 0.1061363333 -0.4141954155 0.1058845769 -0.4147295352 -0.0722701217 0.2877794736
620296280.0 -0.0759614639 0.2987433754 0.1013595724 -0.4150666721 0.1016641593 -0.4154407882 -0.0700690467 0.2883836158
625296250.0 -0.0728936539 0.2998853836 0.0972468959 -0.4165806479 0.0970107851 -0.4169343613 -0.0663134073 0.2892629038
630296220.0 -0.0691840364 0.3007287672 0.0921759467 -0.4176367152 0.0921960506 -0.4172325191 -0.063165371 0.2900911079
635296190.0 -0.0669718832 0.3016271791 0.0880901866 -0.4182319521 0.0880397775 -0.4185738592 -0.0604453742 0.2908023499
640296160.0 -0.0637310245 0.3023801126 0.0838811828 -0.4190430366 0.0835090362 -0.4193360542 -0.0570074425 0.2916069081
645296130.0 -0.0601219143 0.3034130618 0.0788001606 -0.4196838124 0.078936594 -0.4201121744 -0.0537997444 0.2925468709
650296100.0 -0.0570399455 0.3038054024 0.0743821822 -0.4206720841 0.0744233929 -0.4207247029 -0.0505528034 0.2924844083
655296070.0 -0.0542463411 0.3046868432 0.0701424854 -0.421370368 0.0698155169 -0.4213246551 -0.0474145726 0.2936737239
660296040.0 -0.0509530593 0.3050331087 0.0653357311 -0.4221893609 0.0649987774 -0.4226308861 -0.0440899367 0.2945062812
665296010.0 -0.0474824288 0.3052905138 0.0604052621 -0.4225440696 0.0607405035 -0.4228898278 -0.0410410627 0.2953216537
670295980.0 -0.0448700207 0.3065851916 0.0561543322 -0.4234350042 0.0560200945 -0.4234645631 -0.0380765449 0.2957179428
675295950.0 -0.0413647705 0.3071946587 0.0516267903 -0.4238251759 0.0516727455 -0.4236241707 -0.0351761437 0.29660807
680295920.0 -0.0378954999 0.3079413486 0.0466537382 -0.4245332827 0.0464476157 -0.4248742434 -0.03149332 0.2978264103
685295890.0 -0.0348337967 0.3085817585 0.0423503725 -0.4248808755 0.0418991384 -0.4251146667 -0.0285119361 0.29775185
690295860.0 -0.0315355379 0.3090493583 0.0377396692 -0.4252321709 0.0373692761 -0.4255611266 -0.0253423781 0.2988103056
695295830.0 -0.0279376628 0.3090557454 0.0329878948 -0.4252492458 0.0328041614 -0.4255052702 -0.0220874483 0.2990826051
700295800.0 -0.0248620717 0.3096255724 0.0281147571 -0.425838541 0.0279006955 -0.4259013183 -0.0193250873 0.2997030837
705295770.0 -0.0219578246 0.3106476278 0.0236170584 -0.4262070582 0.0237846318 -0.4264558278 -0.0160783249 0.3004883458
710295740.0 -0.0184906957 0.310770036 0.0193510147 -0.4270709922 0.0192225445 -0.4265902635 -0.0132063485 0.3000731838
715295710.0 -0.0154702522 0.310708846 0.0148676594 -0.4265826614 0.0145017968 -0.426548494 -0.0094697836 0.3007274497
720295680.0 -0.0122029362 0.3114447939 0.0099074501 -0.4270767774 0.0099491274 -0.4267163549 -0.0066656205 0.3014295338
725295650.0 -0.0086680634 0.3113736435 0.004969676 -0.4265748321 0.0054468514 -0.4268948144 -0.0041595639 0.3015546479
730295620.0 -0.0052624758 0.3117227781 0.0004692034 -0.4264576886 0.0008880683 -0.4268834816 -0.0010520222 0.3017268031
735295590.0 -0.0023371861 0.3120546182 -0.0038740354 -0.4269143698 -0.0039993677 -0.4267332143 0.0019883739 0.3019419393
740295560.0 0.0008273462 0.312226909 -0.0087805588 -0.4263211021 -0.0087459607 -0.4268206258 0.0056649267 0.3022790274
745295530.0 0.0043021826 0.312507197 -0.0135580226 -0.4261666965 -0.0134168705 -0.4264915882 0.0085144309 0.3014005182
750295500.0 0.00770678 0.3121256852 -0.0179220734 -0.425984232 -0.0180000144 -0.4263211486 0.0115910799 0.3018918907
755295470.0 0.010967242 0.312256579 -0.0221865429 -0.426177424 -0.0227363047 -0.4258307819 0.0151665602 0.301302863
760295440.0 0.0139739782 0.3123147121 -0.027334775 -0.4258169577 -0.0270911402 -0.4256573601 0.0178106203 0.3013004739
765295410.0 0.0174083244 0.3124370097 -0.0317096047 -0.4253020128 -0.0321970331 -0.4257217428 0.021230656 0.3017315041
770295380.0 0.0200244511 0.3121383371 -0.0365930836 -0.4251239258 -0.0363242661 -0.4247789616 0.0238985171 0.3008434337
775295350.0 0.0234159415 0.3118086959 -0.0410224672 -0.424338838 -0.0406374504 -0.4242874039 0.0264497827 0.3009883034
780295320.0 0.0267580831 0.3121071125 -0.0456250832 -0.4237397028 -0.0451838517 -0.4233047896 0.030053738 0.3006015329
785295290.0 0.0299837142 0.3112092195 -0.0501127279 -0.4229175387 -0.0498809877 -0.4231753685 0.033761281 0.3002524916
790295260.0 0.0336824027 0.31174712 -0.0543860389 -0.422497957 -0.0540049082 -0.422461904 0.0370370725 0.3001029915
795295230.0 0.0366798326 0.3110118868 -0.0589393837 -0.4220011734 -0.0590651163 -0.4219651543 0.0405806248 0.2998676997
800295200.0 0.0397656113 0.3109651816 -0.0641466241 -0.4212188179 -0.0635757932 -0.4210870614 0.0436037832 0.2992966168
805295170.0 0.0432130782 0.31054516 -0.0679234161 -0.4205381021 -0.0681223219 -0.4206265326 0.0464187353 0.2992814816
810295140.0 0.0464497942 0.3101606347 -0.0724206962 -0.4193396197 -0.0727468261 -0.4199078268 0.0502939714 0.2988710066
815295110.0 0.0495565483 0.3097475662 -0.077277362 -0.4185977153 -0.0772908503 -0.4188653249 0.0532234575 0.2981144231
820295080.0 0.0527272259 0.3096055403 -0.0816028955 -0.417998624 -0.0814763285 -0.418070799 0.056432596 0.2981013393
825295050.0 0.0565266983 0.3089800388 -0.0862270762 -0.4168735319 -0.0860908547 -0.4169245456 0.0597715382 0.2978917881
830295020.0 0.0593332361 0.3086486103 -0.090832235 -0.4157758845 -0.0904917712 -0.4158992021 0.0634613315 0.2969909445
