!Created with skrf (http://scikit-rf.org).
# Hz S RI R 50.0 
!freq ReS11 ImS11 ReS21 ImS21 ReS12 ImS12 ReS22 ImS22
300000.0 -0.7743116302 -0.1729683776 -0.002239817 0.0014326226 0.0001013806 0.0020773259 -0.7683109888 -0.1985754227
5299970.0 -0.7857097974 -0.0095461305 -6.91196e-05 -4.09687e-05 -0.0001369813 0.0002413385 -0.7848191573 -0.0097223979
10299940.0 -0.789639071 -0.0057676517 6.27701e-05 0.0001196709 3.78683e-05 -0.0001183344 -0.7872749942 -0.0056408438
15299910.0 -0.7941533224 -0.0029543281 -0.0001564781 -4.91398e-05 -0.0001271291 1.37554e-05 -0.7927697451 -0.0026046792
20299880.0 -0.8010017826 0.0008898612 3.39062e-05 7.2e-08 1.90522e-05 -0.0001792826 -0.7990086832 0.001759929
25299850.0 -0.8079291433 0.0068427161 0.0001149191 -0.0001118242 7.37981e-05 -3.67707e-05 -0.8060245301 0.0081076344
30299820.0 -0.8141057383 0.0138105932 -6.29755e-05 6.92579e-05 4.45057e-05 0.0001691635 -0.8118316688 0.0156616238
35299790.0 -0.8185489301 0.0233862876 5.51055e-05 0.0001335604 2.85252e-05 -4.1094e-05 -0.8166790426 0.0246757368
40299760.0 -0.8237358251 0.0319809495 -0.0002023442 -0.0001240473 0.0002756738 -0.0001162443 -0.8208340231 0.0338770195
45299730.0 -0.8268926121 0.0420338436 -0.000120759 -0.0001240507 0.0001086094 -6.32067e-05 -0.8240837717 0.0435610928
50299700.0 -0.8289655029 0.0516934274 2.52834e-05 -8.66791e-05 1.93727e-05 0.0001090541 -0.8266881909 0.0541127951
55299670.0 -0.8312431873 0.061328519 -3.82462e-05 0.0002678649 3.7772e-06 7.10825e-05 -0.8284662323 0.0636767772
60299640.0 -0.8321288826 0.071726965 0.0001274755 0.0001758956 0.0001068751 4.01967e-05 -0.8297569531 0.0743541888
65299610.0 -0.8335729998 0.0818362144 4.66838e-05 -6.12188e-05 -2.428e-06 0.000287366 -0.8302848295 0.0839359836
70299580.0 -0.8340370349 0.0917846915 8.2268e-05 -1.41742e-05 -0.0001446557 -0.00018671 -0.8308165683 0.0938931802
75299550.0 -0.8337159807 0.1013835881 -9.99781e-05 -0.0001012022 -0.0002551288 -0.0001654586 -0.8307015789 0.1042650674
80299520.0 -0.834226494 0.1118343559 -8.24739e-05 1.00324e-05 -0.0001431318 -0.0001774918 -0.8305952102 0.1136384382
85299490.0 -0.8325250717 0.1213557055 -1.81174e-05 -0.0001371163 -0.0002254956 -0.0001450137 -0.8297733383 0.1230566897
90299460.0 -0.8319066122 0.1315940539 0.0001230486 5.12399e-05 0.0001355314 0.0001248069 -0.8288494276 0.1327784785
95299430.0 -0.831879199 0.1408555843 -0.0002547536 4.44547e-05 0.000110088 6.8999e-06 -0.8279724906 0.1425046818
100299400.0 -0.8307445792 0.1501599267 -3.32038e-05 2.45872e-05 0.0001273393 -8.28593e-05 -0.8267373381 0.1518208201
105299370.0 -0.8291327702 0.1594008034 6.4384e-06 0.0001403763 -0.0001817643 -2.89717e-05 -0.8254665585 0.1607684913
110299340.0 -0.8275298269 0.1684147535 -5.09346e-05 0.0002179765 -6.3954e-05 -0.0001555245 -0.8244868962 0.1696958159
115299310.0 -0.8262354204 0.1778424535 -9.46582e-05 -0.0001949195 7.07935e-05 5.9526e-06 -0.8230990539 0.1790879603
120299280.0 -0.8244493307 0.1866334895 -4.33652e-05 -0.0001913252 -8.67687e-05 -1.0246e-06 -0.8212910757 0.187847331
125299250.0 -0.8227078873 0.1955847627 -0.0002229433 -5.26602e-05 -0.0001648112 -0.0001552231 -0.8193779709 0.1971543516
130299220.0 -0.8206940058 0.2049277459 -5.78699e-05 -0.0002508908 -4.52858e-05 -3.09588e-05 -0.8177421719 0.2057315223
135299190.0 -0.8187937089 0.2146778486 0.0001583129 -2.36118e-05 2.21583e-05 0.0001655417 -0.8161156923 0.2150276417
140299160.0 -0.8172504331 0.2233827065 -8.09766e-05 -4.18572e-05 -1.13222e-05 -0.0002836681 -0.8140154403 0.2236300809
145299130.0 -0.8148903178 0.2322358686 -5.13312e-05 -0.0001288576 -1.19736e-05 0.0002040601 -0.8116479905 0.2324836917
150299100.0 -0.8119868213 0.2400819081 4.71215e-05 -5.18234e-05 2.01156e-05 0.0001238276 -0.8095739449 0.241731776
155299070.0 -0.8096698468 0.2504314395 5.05957e-05 8.0753e-06 3.32881e-05 0.0001402916 -0.8072566917 0.2504105862
160299040.0 -0.8076824911 0.2587906153 -3.20216e-05 -7.80894e-05 -0.0001506904 6.242e-05 -0.8043300995 0.2588883493
165299010.0 -0.8049824559 0.2676019519 -0.0002258034 -0.0001655633 0.0002556763 0.0001564593 -0.8014387028 0.2669353476
170298980.0 -0.8018203147 0.276329997 0.0001558295 2.89882e-05 -8.73938e-05 -0.0001971227 -0.7994460404 0.2753388719
175298950.0 -0.7990480506 0.2847804782 0.0002803257 0.0001314243 -6.7329e-05 -0.0002296607 -0.796105348 0.2848795623
180298920.0 -0.7962263407 0.2935751169 -8.22686e-05 -4.23443e-05 -2.15196e-05 -2.62693e-05 -0.7929858851 0.2933553471
185298890.0 -0.7932882693 0.3016631154 0.0001627226 0.0001738298 -0.0001544861 -0.0001043228 -0.7901496801 0.3018054276
190298860.0 -0.7900005213 0.311112923 -7.78517e-05 -1.53636e-05 -3.00019e-05 -1.32767e-05 -0.7869554509 0.3100971722
195298830.0 -0.7869926428 0.3190182126 -9.40513e-05 0.0002900044 6.47845e-05 -0.0001025522 -0.784166456 0.3179127365
200298800.0 -0.782808507 0.3281567495 0.0001461527 -3.73718e-05 -0.0002016388 0.0001290648 -0.7805663419 0.3267063484
205298770.0 -0.7793969681 0.3363643773 -3.07616e-05 7.56518e-05 -5.84868e-05 5.01402e-05 -0.7778188813 0.334990145
210298740.0 -0.7758798563 0.3446999071 2.45425e-05 0.0001309354 4.25393e-05 -0.0002363826 -0.7740387873 0.3425991996
215298710.0 -0.7724984679 0.3531710061 -0.0001539629 5.83885e-05 2.36116e-05 0.0001512514 -0.7701078762 0.3515229326
220298680.0 -0.7689860031 0.3609248847 -2.2733e-06 0.0001247755 -9.22107e-05 0.0001777538 -0.7667771083 0.3594979064
225298650.0 -0.7647925298 0.3693878558 3.53094e-05 0.0001315561 4.43774e-05 4.3385e-06 -0.7629154671 0.3677731719
230298620.0 -0.7610169493 0.3778258585 1.48515e-05 0.0001334425 -6.77241e-05 7.00109e-05 -0.758656879 0.3754831505
235298590.0 -0.7569430834 0.385735602 0.0001911068 -3.69672e-05 7.5808e-06 -0.0001100123 -0.754985268 0.3832141839
240298560.0 -0.7531154208 0.3933635763 8.65144e-05 -0.0002078773 -0.0001292385 -0.0001696102 -0.750858256 0.3909404656
245298530.0 -0.7489127313 0.4013087461 0.0001168639 1.90738e-05 5.9954e-06 -0.0001557039 -0.747306353 0.3992872453
250298500.0 -0.7453463671 0.4093844093 -3.52711e-05 8.31393e-05 -0.000105398 -0.0001238344 -0.7428612955 0.4070648439
255298470.0 -0.7407957544 0.4174106175 6.25385e-05 -6.53295e-05 -9.1795e-06 0.0001506417 -0.738687535 0.4148010232
260298440.0 -0.7362407057 0.4252061874 3.84015e-05 0.000101652 -6.377e-07 3.75078e-05 -0.7338775154 0.4217751254
265298410.0 -0.7321601335 0.4326228899 -8.5823e-06 0.0001860264 -0.0001813815 -0.000222078 -0.7297702228 0.4302013387
270298380.0 -0.7270982727 0.4405870202 -0.0001363712 -0.0001190928 -2.17248e-05 2.27722e-05 -0.7255753442 0.4379402613
275298350.0 -0.7232903098 0.448070502 4.23909e-05 -4.7917e-06 -8.78225e-05 0.000108342 -0.7205196978 0.4453103686
280298320.0 -0.718487585 0.4552842207 2.23438e-05 -0.0001126321 7.86732e-05 7.24458e-05 -0.7158610348 0.4528889193
285298290.0 -0.713505722 0.4636087373 -0.0001060256 -0.0001260848 -1.37582e-05 -0.0002382489 -0.7121584014 0.4603365143
290298260.0 -0.7084675514 0.4714847587 5.26464e-05 -3.3662e-05 -3.92581e-05 9.4824e-05 -0.7062650917 0.4670800038
295298230.0 -0.7038217671 0.4778863922 -3.96923e-05 0.0001189196 -3.31913e-05 -3.49346e-05 -0.7015243215 0.4746494965
300298200.0 -0.6995045931 0.485237498 0.0001606794 -9.3873e-06 -0.0001019679 0.0001003508 -0.6964413636 0.4822140818
305298170.0 -0.6942773087 0.4922000746 0.0001580451 7.55551e-05 -0.0001875218 0.0001290245 -0.6911871581 0.4893348929
310298140.0 -0.689063119 0.4996693624 8.5988e-06 7.48149e-05 -4.29127e-05 0.0001878055 -0.6861698867 0.4967867645
315298110.0 -0.6845844854 0.5071346046 -3.89113e-05 -7.24541e-05 3.92768e-05 -7.31967e-05 -0.6812923201 0.5038864207
320298080.0 -0.6788726686 0.5140147327 -0.0001015198 0.0001695817 -4.43507e-05 3.58125e-05 -0.6761015267 0.5101302225
325298050.0 -0.6740845938 0.5210057756 0.0001089071 -8.58702e-05 5.65433e-05 -0.0002236181 -0.6699822494 0.5176525961
330298020.0 -0.6680221082 0.5277499297 3.91592e-05 -0.0001360782 8.12364e-05 -0.0002247296 -0.6647022168 0.5246295132
335297990.0 -0.6631476959 0.5344283283 0.000144275 -9.55564e-05 0.0001392916 -4.40792e-05 -0.6593725012 0.5316369464
340297960.0 -0.6581075196 0.5411809595 9.08656e-05 -0.0001349527 0.0001951278 -4.40875e-05 -0.6543486272 0.5386388748
345297930.0 -0.6521718959 0.5480811546 3.86198e-05 -0.0001602617 -6.9605e-05 6.01843e-05 -0.6491583069 0.5452220113
350297900.0 -0.6465819417 0.5550343947 1.246e-05 8.04217e-05 0.0001913569 -2.42731e-05 -0.6431424354 0.5515375875
355297870.0 -0.6410870873 0.5613399098 -0.0001620201 -0.000123836 3.4749e-06 0.0001127047 -0.6370478468 0.5592692177
360297840.0 -0.6347923754 0.5682135373 1.47549e-05 0.0001285572 3.86275e-05 0.0001745172 -0.6305120824 0.5651500921
365297810.0 -0.6295235277 0.5747756391 0.0002104407 6.36581e-05 4.50596e-05 1.81022e-05 -0.6255875361 0.5710941124
370297780.0 -0.6234631751 0.5802523723 -3.12628e-05 4.0645e-05 7.5495e-06 2.53278e-05 -0.6193404811 0.5782988596
375297750.0 -0.6182469414 0.5870041391 -7.44431e-05 -8.0421e-06 0.0001095679 5.48303e-05 -0.6130455977 0.5839230314
380297720.0 -0.6119499275 0.5934301309 -0.0001671052 0.0001914356 7.84395e-05 -9.95531e-05 -0.6067308646 0.5902011287
385297690.0 -0.606405593 0.5995600755 -5.06601e-05 -5.68451e-05 0.0001445575 -0.0001407709 -0.6012680632 0.5969693365
390297660.0 -0.5988261668 0.6053545935 -0.0001294704 -6.83458e-05 -0.0002192553 -0.0001040661 -0.5943241354 0.6023964505
395297630.0 -0.5930213837 0.6118997568 -0.0002444739 6.78044e-05 -0.0001271656 -1.54581e-05 -0.5876734052 0.6077099088
400297600.0 -0.586595069 0.6186393672 6.30782e-05 -1.69005e-05 -4.39122e-05 -4.02441e-05 -0.5829842428 0.6139899378
405297570.0 -0.5808144946 0.6234314177 2.44406e-05 -9.32974e-05 2.08994e-05 -0.000145663 -0.5752500261 0.6205581724
410297540.0 -0.5736957907 0.6291125143 -2.33743e-05 -1.21737e-05 0.0001437058 0.0001411515 -0.5690136089 0.6259241294
415297510.0 -0.56799037 0.6356172877 -4.83226e-05 -0.0001022541 0.0001209843 0.0001362047 -0.5628396032 0.6314584721
420297480.0 -0.5606378446 0.6408051878 -4.21192e-05 -4.16644e-05 8.26688e-05 1.67525e-05 -0.5556619773 0.6381333101
425297450.0 -0.5546261956 0.6461091213 5.8603e-05 0.0001674007 8.72403e-05 0.0001087235 -0.5494950882 0.6428793217
430297420.0 -0.5474978424 0.6517961799 -3.53688e-05 -5.46188e-05 5.85698e-05 0.0001539454 -0.543241741 0.6489468556
435297390.0 -0.5408407144 0.6573574424 0.0001403433 -0.0001221837 -7.92303e-05 -4.31245e-05 -0.536409279 0.6540487296
440297360.0 -0.534363255 0.6634008295 -0.0001001932 -0.0001135715 -4.79311e-05 -0.000141446 -0.5300638558 0.6595433114
445297330.0 -0.5272299298 0.6679133769 0.0002285117 0.000157717 -0.0001735615 3.58452e-05 -0.522500056 0.6650162755
450297300.0 -0.5200724499 0.6733623777 5.06565e-05 -1.5339e-05 -7.18944e-05 0.0001064894 -0.5158418605 0.6697872841
455297270.0 -0.5137843994 0.678261786 7.88677e-05 -5.36303e-05 0.0001326019 5.20292e-05 -0.5094646631 0.674988409
460297240.0 -0.5061828948 0.684370607 -5.62544e-05 7.55109e-05 5.03739e-05 4.19173e-05 -0.50234141 0.6805042932
465297210.0 -0.4995529362 0.6888432218 -3.5803e-06 5.24753e-05 3.00168e-05 -5.07447e-05 -0.4949005392 0.6857356157
470297180.0 -0.4918866244 0.6943921791 -5.40976e-05 6.08081e-05 8.2959e-06 -0.0001109446 -0.4877061131 0.6902510911
475297150.0 -0.4850368768 0.6992250792 0.0001964953 0.0001218359 0.0001988161 7.7834e-06 -0.4811619962 0.695234351
480297120.0 -0.4770923854 0.704294164 0.0002626118 7.08488e-05 -0.0001509811 8.08757e-05 -0.4741277319 0.700328098
485297090.0 -0.4700099418 0.7085046473 1.49283e-05 0.0001304951 0.0002015985 -0.0001521989 -0.466834866 0.7050329025
490297060.0 -0.4623062169 0.7135266073 0.0002252617 6.5444e-06 6.23928e-05 -1.25411e-05 -0.4595814617 0.7090887065
495297030.0 -0.4549632873 0.7178528706 -8.77486e-05 -3.4814e-06 -6.52541e-05 -5.75532e-05 -0.4526441448 0.7138012685
500297000.0 -0.4474103886 0.7220630999 -1.76547e-05 1.63299e-05 0.0001125838 -1.58636e-05 -0.4452291077 0.7186407192
505296970.0 -0.4393400156 0.7271909482 -9.01027e-05 5.4051e-05 -5.95526e-05 0.0001559833 -0.4369474948 0.7228207978
510296940.0 -0.4321659303 0.7312234477 0.0002330442 7.66128e-05 0.0001748557 -0.0001186421 -0.430088646 0.72797974
515296910.0 -0.4242285581 0.7356062208 -7.40059e-05 9.06151e-05 -0.0002237334 -0.0001463376 -0.4233021278 0.731080469
520296880.0 -0.4161299325 0.7402122255 -0.0001993189 -2.526e-06 -9.6364e-06 -0.0001296951 -0.4153432903 0.7362897014
525296850.0 -0.4085652384 0.743892104 1.80789e-05 -2.45746e-05 -6.70085e-05 2.14636e-05 -0.4080119837 0.7400843812
530296820.0 -0.4016561802 0.7476861872 0.0002060947 -8.38927e-05 -0.0001237918 0.0001320373 -0.4000384821 0.7435673244
535296790.0 -0.3926035198 0.7521795439 -9.8395e-06 0.0001269676 -4.3562e-06 -0.0001534089 -0.3932047973 0.7483517086
540296760.0 -0.3851561653 0.7560980454 -3.20703e-05 -5.71441e-05 0.000114213 0.0002823727 -0.3852890161 0.7513032917
545296730.0 -0.3770493731 0.7605004387 -5.22572e-05 2.97375e-05 -0.0002006021 9.77427e-05 -0.3775744336 0.7554755576
550296700.0 -0.3691079457 0.7638837202 -7.44515e-05 0.0001203946 -6.19151e-05 -0.0002354818 -0.3699894408 0.7590242687
555296670.0 -0.3616695998 0.766997755 0.0001605255 0.0003093819 0.0001219943 -0.0001497857 -0.3625263726 0.7622941642
560296640.0 -0.353153447 0.7705236495 -9.31448e-05 4.38285e-05 0.0001732971 5.12126e-05 -0.3545654574 0.7666629131
565296610.0 -0.3460784389 0.7742147501 0.0001708201 -5.55696e-05 3.05487e-05 -5.15649e-05 -0.3466882711 0.7698926945
570296580.0 -0.3370628905 0.7781352652 -4.46186e-05 -0.000109649 -7.41249e-05 1.54673e-05 -0.3391765637 0.7730911174
575296550.0 -0.3280766568 0.780912671 -5.97875e-05 0.0001920988 0.0001035343 -0.000105909 -0.3309208953 0.7766894001
580296520.0 -0.3210561984 0.7849416587 7.41184e-05 0.0001237936 -4.94383e-05 -4.70887e-05 -0.3233870226 0.7795423126
585296490.0 -0.3128545519 0.7873658823 -2.2093e-05 0.0002354552 -0.0001071208 -9.64709e-05 -0.3151596359 0.7835278103
590296460.0 -0.3038982759 0.7906320285 1.65725e-05 -6.12688e-05 0.0002041793 -1.94851e-05 -0.3080863398 0.7855667269
595296430.0 -0.2961339772 0.7938243987 -2.62446e-05 -9.51996e-05 -0.0001177805 7.1498e-06 -0.2998270127 0.7892131629
600296400.0 -0.288543974 0.7970336041 5.36967e-05 -0.0001552723 -8.96809e-05 0.0001830227 -0.2918105225 0.7915851186
605296370.0 -0.2797812778 0.7997069769 -9.807e-06 -0.0002011736 -1.20101e-05 0.0001233256 -0.283767897 0.795450939
610296340.0 -0.2715470652 0.8022248223 -4.80281e-05 0.0002851594 0.00010133 1.51463e-05 -0.2758917573 0.7977926805
615296310.0 -0.2626876123 0.8053400545 -5.24696e-05 8.14806e-05 -3.47022e-05 1.53974e-05 -0.2673954225 0.8006375213
620296280.0 -0.2550060463 0.8085448944 0.000132126 -4.62646e-05 4.89126e-05 -0.0001427909 -0.259996725 0.8034160236
625296250.0 -0.2473741287 0.8097217085 -0.0001686523 -0.0001436346 1.34277e-05 -2.99513e-05 -0.2516753096 0.805005935
630296220.0 -0.2388177807 0.8131206251 -0.0002079994 -0.0001475374 1.94031e-05 2.28739e-05 -0.2435920722 0.8084262376
635296190.0 -0.2304487454 0.8158006314 1.98786e-05 7.16689e-05 -0.0001109249 2.08724e-05 -0.2359441267 0.8103075813
640296160.0 -0.2217280021 0.8178002966 4.9574e-05 0.0003401658 2.35772e-05 2.12454e-05 -0.2270866254 0.812675117
645296130.0 -0.2140631773 0.820755639 -1.92666e-05 -4.11784e-05 0.0001015586 -1.1785e-05 -0.2196263955 0.8146617448
650296100.0 -0.20584076 0.8220531459 0.0001305425 -0.0002975676 -1.14664e-05 1.41457e-05 -0.210472289 0.8169684167
655296070.0 -0.1977539542 0.8244211676 -0.0001268399 0.0003388486 -0.000127462 0.0001508114 -0.2031054213 0.819180051
660296040.0 -0.1892689573 0.8258675042 7.07394e-05 0.0001672146 -3.88366e-05 -0.0001024926 -0.1940906526 0.8211540754
665296010.0 -0.1805955591 0.8284251858 2.54818e-05 -5.57861e-05 -9.86789e-05 0.0001544581 -0.1863493684 0.8227754495
670295980.0 -0.1726228317 0.8306823932 -6.10258e-05 -0.000124485 0.0001237884 1.02498e-05 -0.1786343002 0.8245818861
675295950.0 -0.1643953405 0.8320667237 0.0002256011 -0.000117568 6.15628e-05 -8.04177e-05 -0.1693349289 0.8267092214
680295920.0 -0.1563204508 0.8339321022 9.45654e-05 4.02354e-05 0.0001330673 3.87022e-05 -0.1613614926 0.8282025545
685295890.0 -0.1476661368 0.8357766728 0.0001273029 -3.47374e-05 -1.0961e-06 7.03869e-05 -0.1536559627 0.8295983152
690295860.0 -0.1397315814 0.8370439674 -0.0001650195 0.0001021069 0.0001127189 1.48636e-05 -0.1448300202 0.8308087903
695295830.0 -0.1309187888 0.8388564848 -6.74304e-05 0.0001308265 0.0001573834 0.0001050399 -0.1369026555 0.83286208
700295800.0 -0.1226965027 0.8402235442 -0.0001928253 6.42788e-05 0.0001232017 -0.0001041874 -0.1283088112 0.8331301889
705295770.0 -0.1151621515 0.8412276987 6.1014e-05 3.04625e-05 4.0117e-06 2.15659e-05 -0.1202818849 0.8355751409
710295740.0 -0.1071002811 0.8419197195 -6.4798e-05 6.81351e-05 -8.24774e-05 -1.09129e-05 -0.1119533642 0.8367227079
715295710.0 -0.0979647612 0.8434844143 0.0001655395 -0.000104195 -0.000163339 0.0001113169 -0.1028256488 0.8366217123
720295680.0 -0.0887708802 0.8441067019 -0.0001151839 -3.46578e-05 7.383e-05 0.0001290882 -0.0944883695 0.8375007372
725295650.0 -0.0812762965 0.8455618849 -2.35941e-05 -0.000126118 -0.000180718 -0.0001006549 -0.0870609257 0.8397059472
730295620.0 -0.0736428252 0.8468326156 0.0001448508 7.78293e-05 -6.67835e-05 0.0001432167 -0.0787479996 0.8403631374
735295590.0 -0.0655577406 0.8477204742 -2.15931e-05 -0.0001293561 9.19272e-05 -3.31274e-05 -0.069914821 0.8407892695
740295560.0 -0.0578575662 0.8477413706 -4.98087e-05 0.0001758281 4.45074e-05 0.000108817 -0.0617969237 0.8414954333
745295530.0 -0.049273884 0.8488740653 1.37934e-05 8.54001e-05 -1.0275e-05 6.59486e-05 -0.0534330831 0.8416205153
750295500.0 -0.0407974974 0.8484840946 0.0001132596 -3.11325e-05 -8.67597e-05 2.17752e-05 -0.0449430521 0.842474636
755295470.0 -0.031816477 0.8496551801 5.32684e-05 5.72818e-05 6.29637e-05 6.90446e-05 -0.0372698782 0.8426820692
760295440.0 -0.0239671585 0.8509677621 -9.13327e-05 6.44822e-05 -5.55805e-05 0.0001970964 -0.0279016894 0.8428563694
765295410.0 -0.0166507697 0.8508560395 -0.000226436 -0.0001166425 -0.0002214218 1.8389e-06 -0.0198744066 0.8434846888
770295380.0 -0.0086603325 0.8511682858 0.0001086988 -8.19489e-05 -6.7462e-05 0.0002124047 -0.0115068597 0.8433566261
775295350.0 0.0001437608 0.8508443182 8.50672e-05 -0.0001004114 -3.20533e-05 0.0001571799 -0.0033487547 0.8433091677
780295320.0 0.0089394115 0.8509490288 -0.0002208291 -0.0003195432 9.95817e-05 -1.58346e-05 0.0054699066 0.8436703616
785295290.0 0.0173463652 0.8508115455 5.9793e-05 -2.91917e-05 0.0001650754 -9.25983e-05 0.0134327954 0.8437811785
790295260.0 0.0252674688 0.8509112386 -0.0001639095 -0.0001305991 -6.20427e-05 -5.146e-05 0.0219130509 0.8435164152
795295230.0 0.0330186607 0.8505411348 0.0001080197 -0.0001972622 -0.0002147658 -0.0001236351 0.0299069512 0.8424578012
800295200.0 0.0413110289 0.8507713211 -1.71805e-05 -0.0002237674 -0.0001292634 -0.0001248936 0.0380706908 0.8420532459
805295170.0 0.0492831831 0.8508240955 4.66051e-05 0.0001161866 6.91284e-05 -0.0001141884 0.0474157189 0.8421262863
810295140.0 0.057940188 0.8501559637 -0.0001577072 0.0001405719 7.97475e-05 -6.44113e-05 0.055780919 0.8414448945
815295110.0 0.0652463702 0.8497355631 -5.69087e-05 -0.000126792 -5.68823e-05 5.74325e-05 0.0629611541 0.8409348178
820295080.0 0.0732439328 0.8489372672 -6.9394e-05 4.58035e-05 0.0002153125 -1.12673e-05 0.0711508421 0.8406965201
825295050.0 0.0818429095 0.8481340111 -4.73644e-05 -3.43021e-05 0.0001911458 -0.0001111763 0.07989455 0.8394221
830295020.0 0.0908231523 0.8477918569 0.0001288878 0.0002891696 -5.54658e-05 -2.63091e-05 0.0881051041 0.8379347005
835294990.0 0.0979757146 0.8470462614 0.0001701619 9.43889e-05 -2.09422e-05 -4.60852e-05 0.0965817453 0.8375190807
840294960.0 0.1063328945 0.8456714625 -5.99125e-05 6.1063e-06 0.0001869725 -3.05296e-05 0.1054290306 0.8367158433
845294930.0 0.1146068443 0.8444711264 3.68665e-05 -4.9243e-06 -0.0001691758 -2.22136e-05 0.1132181962 0.8355745602
