!Created with skrf (http://scikit-rf.org).
# Hz S RI R 50.0 
!freq ReS11 ImS11 ReS21 ImS21 ReS12 ImS12 ReS22 ImS22
300000.0 -0.2395636025 -0.0985882211 0.466740781 0.0650121926 0.4681001558 0.0698942348 -0.2353127084 -0.1096407602
5299970.0 -0.2436028878 0.0071013424 0.4739248543 0.0051907579 0.4734487984 0.0059763968 -0.243979907 0.0058188605
10299940.0 -0.2403935877 0.0199385451 0.4759876545 0.0065192986 0.4756160368 0.0063929089 -0.2409792093 0.0184443128
15299910.0 -0.2359909092 0.0294683684 0.4793410445 0.0077126159 0.4793950282 0.0078759372 -0.2365188553 0.0273929766
20299880.0 -0.2304547577 0.0373118155 0.4841103984 0.0082935154 0.4842028035 0.0083842188 -0.2323089148 0.0354466601
25299850.0 -0.224753168 0.0436432084 0.4892607425 0.0068782588 0.4894131482 0.0073739709 -0.2269951603 0.0417808925
30299820.0 -0.2187856343 0.0485821147 0.495122229 0.0056737461 0.495016614 0.005155476 -0.2215350112 0.047190536
35299790.0 -0.2130522498 0.052764679 0.4999816864 0.0019819188 0.5003128202 0.0023740558 -0.2161857779 0.0510335696
40299760.0 -0.2073026435 0.0557765461 0.5054184463 -0.0017754248 0.5054787604 -0.0018556458 -0.2113228366 0.0548781965
45299730.0 -0.2022500521 0.0586092872 0.5099339303 -0.0067347855 0.5099472576 -0.0063831318 -0.2063781416 0.0572451323
50299700.0 -0.1975341165 0.0600788422 0.5142487919 -0.0120282422 0.5145549849 -0.0119992315 -0.2023123828 0.0597551946
55299670.0 -0.1935519661 0.0618172986 0.5177844787 -0.0176628808 0.5179571308 -0.0181770292 -0.1984342774 0.0613469873
60299640.0 -0.1895340296 0.0627726242 0.5213071835 -0.0243717912 0.5214183187 -0.0243058227 -0.1945575651 0.0632021676
65299610.0 -0.1860886399 0.0639293307 0.5245951887 -0.0299847267 0.5247645816 -0.0302682897 -0.1909416296 0.0644396315
70299580.0 -0.1826306064 0.0641661036 0.5268290378 -0.0370547978 0.5265989044 -0.037558758 -0.1878337841 0.0657528031
75299550.0 -0.1793987383 0.0650923095 0.5289162941 -0.0439761927 0.5287126879 -0.0441095066 -0.1850806144 0.0670651547
80299520.0 -0.1771914516 0.0657214233 0.5309161885 -0.0510412912 0.5308361554 -0.0505199524 -0.1829385766 0.0677335598
85299490.0 -0.1745202163 0.0659223722 0.5318789932 -0.0580321076 0.5318742688 -0.0579631394 -0.1802816723 0.0682798104
90299460.0 -0.1725303439 0.0664850017 0.5328787727 -0.0646625673 0.5333240358 -0.0647122801 -0.1775305028 0.069286664
95299430.0 -0.1705795484 0.0671111449 0.5340083113 -0.0721267982 0.534143027 -0.0715946421 -0.1758669753 0.0703175041
100299400.0 -0.1687039066 0.0676039728 0.5342345809 -0.0789105505 0.5341660877 -0.0786791689 -0.1742754953 0.0707746053
105299370.0 -0.1669582807 0.0677593838 0.534514527 -0.0850908075 0.5348021055 -0.0856308089 -0.1720180136 0.0717452531
110299340.0 -0.1653913051 0.0682928797 0.5342709503 -0.0921493312 0.5347927884 -0.0927812217 -0.1707361083 0.0727367194
115299310.0 -0.1641477008 0.0683805569 0.5347241468 -0.0989375869 0.5347538402 -0.0988516161 -0.1690964115 0.0729141722
120299280.0 -0.16301507 0.0692459617 0.5345289842 -0.1060493944 0.5346202272 -0.1060324932 -0.1680760757 0.073911127
125299250.0 -0.1619332903 0.0698632854 0.5346512569 -0.1126457218 0.5343969254 -0.1128934319 -0.1664393629 0.0747450906
130299220.0 -0.1605322172 0.070497268 0.5337767037 -0.1187589274 0.5335430996 -0.1195821032 -0.1651923257 0.0758667428
135299190.0 -0.1597339054 0.0707732598 0.5331193415 -0.1254347781 0.5326721176 -0.1255958801 -0.1642984809 0.0769079602
140299160.0 -0.1587118732 0.0724075016 0.5324854099 -0.1327339007 0.5323306611 -0.1328135267 -0.1626612411 0.0780423323
145299130.0 -0.1574872402 0.0728932017 0.5316120123 -0.1395047792 0.5312078612 -0.1390875413 -0.1620743234 0.0789838683
150299100.0 -0.1566800602 0.0734564141 0.5302060268 -0.1457692452 0.53036278 -0.1459427853 -0.1610422986 0.0798184863
155299070.0 -0.1559167868 0.074846683 0.5291248318 -0.1527910636 0.5291060813 -0.1526285961 -0.1601045237 0.0811555356
160299040.0 -0.1550112781 0.0752960967 0.5272766782 -0.1584050316 0.527720347 -0.1590362575 -0.1588922316 0.082275343
165299010.0 -0.1541050664 0.0763612919 0.526528604 -0.1652648882 0.5262770785 -0.1653050324 -0.1580117142 0.0830848637
170298980.0 -0.153716737 0.0771189757 0.5242497615 -0.1717566085 0.5247312411 -0.1717302967 -0.1567482774 0.084573149
175298950.0 -0.152606276 0.0780987914 0.5235406273 -0.1778481647 0.5235138866 -0.1777605062 -0.1558458765 0.0854983925
180298920.0 -0.1518072999 0.0792195163 0.5214538232 -0.1843675017 0.5212500603 -0.184276752 -0.1548603013 0.0873655516
185298890.0 -0.1509923863 0.079961335 0.5191422567 -0.1907330443 0.5195482525 -0.190115832 -0.1542029708 0.0881277417
190298860.0 -0.1503262102 0.0813126898 0.5176414505 -0.1966575342 0.5177136029 -0.1967491847 -0.1527493767 0.0895079454
195298830.0 -0.1493768558 0.0820613508 0.5155853447 -0.2027214821 0.5156850751 -0.2028784914 -0.1518718389 0.0905274428
200298800.0 -0.1487413009 0.0834719979 0.5134368821 -0.2082702455 0.5132232898 -0.2087810935 -0.1508626857 0.092126588
205298770.0 -0.1482074333 0.0845549337 0.5116668184 -0.2148527801 0.5115696191 -0.2150147805 -0.1500993928 0.0929684722
210298740.0 -0.1475955225 0.0855216521 0.5093092452 -0.2211111575 0.5093617147 -0.2211690804 -0.1491743735 0.0948794234
215298710.0 -0.1468190951 0.0868105043 0.5067386186 -0.2262711367 0.5068014594 -0.2265791522 -0.1484619563 0.0961036208
220298680.0 -0.1456808681 0.0879861178 0.5041938124 -0.2329359683 0.5044121295 -0.2327321001 -0.1470365676 0.0975868378
225298650.0 -0.1448525487 0.0892820279 0.5016374687 -0.238000114 0.5015561258 -0.2387359917 -0.1462704802 0.0989088793
230298620.0 -0.14437498 0.0905708332 0.4994243299 -0.244745458 0.4995126895 -0.2444847101 -0.1449267373 0.1001970227
235298590.0 -0.1435837367 0.0915712343 0.4966465311 -0.2497504062 0.4970099982 -0.2504013915 -0.1441564147 0.1012918878
240298560.0 -0.1431367483 0.092947921 0.4942185166 -0.2554819374 0.4941392003 -0.2557215289 -0.1431064926 0.1032139241
245298530.0 -0.1418376213 0.0941093147 0.490856777 -0.2614340405 0.4912984313 -0.261569359 -0.1418069434 0.104577753
250298500.0 -0.1417065492 0.0953064393 0.48872155 -0.2671206281 0.4886948861 -0.2666521637 -0.1404914417 0.1058770962
255298470.0 -0.1405993252 0.0966564049 0.4852737896 -0.272864423 0.485650707 -0.2724146506 -0.1394367488 0.1071941746
260298440.0 -0.1398678969 0.0980410036 0.4827729031 -0.2780042806 0.4825709006 -0.2783698907 -0.1378620238 0.1088051529
265298410.0 -0.1385327041 0.0994241821 0.479543527 -0.2838219917 0.4792135407 -0.2840464545 -0.1372374311 0.1101317778
270298380.0 -0.137688966 0.1005569577 0.4758202461 -0.2891301784 0.4764135213 -0.2893717824 -0.1358231604 0.1119657208
275298350.0 -0.1372129469 0.1020123176 0.4731679544 -0.2951708139 0.4733388094 -0.2952063793 -0.1347924275 0.1132491704
280298320.0 -0.1361974739 0.1034073418 0.4697605656 -0.2998707113 0.4699488076 -0.3003279037 -0.1332136112 0.1147491202
285298290.0 -0.1353173584 0.1048108516 0.4669415628 -0.3051275399 0.4667173037 -0.3053728931 -0.1324256894 0.1162549914
290298260.0 -0.13440003 0.105578572 0.4635372423 -0.3104902348 0.4636821781 -0.3107176621 -0.1308917943 0.1178693874
295298230.0 -0.133274942 0.1073533212 0.4602379728 -0.3158609346 0.4599793175 -0.316164068 -0.1293907336 0.1193042046
300298200.0 -0.132047755 0.108223739 0.4565480609 -0.3211523054 0.4567598195 -0.3215669872 -0.1284770341 0.1205719926
305298170.0 -0.1311529015 0.109445312 0.4537555672 -0.3265475248 0.453507539 -0.3268586696 -0.1266432585 0.1223874466
310298140.0 -0.1299427956 0.1107906978 0.4498257757 -0.3319285184 0.4499092201 -0.3319700645 -0.1254192132 0.1237743445
315298110.0 -0.1290811252 0.1118207149 0.4458300849 -0.337108462 0.4460581327 -0.3373925603 -0.1235523038 0.124946722
320298080.0 -0.1280503702 0.1130600768 0.4422130933 -0.3422065138 0.4426356243 -0.3421268716 -0.1225743448 0.1260993336
325298050.0 -0.1273201578 0.1140469194 0.4387389168 -0.3475548997 0.4386298591 -0.3477457582 -0.1216676682 0.1275507513
330298020.0 -0.1263227742 0.1155520535 0.4340999414 -0.3522113363 0.4344385183 -0.3521435752 -0.1204359802 0.128781699
335297990.0 -0.1254297965 0.1165599099 0.4305097216 -0.357032849 0.4304646363 -0.357444086 -0.1187414623 0.1302058712
340297960.0 -0.1250032896 0.1181763584 0.4260877773 -0.36196027 0.426237762 -0.3616963784 -0.1176557161 0.1316871658
345297930.0 -0.1238435507 0.119329351 0.4221137607 -0.3658877426 0.4216798466 -0.3663892417 -0.1161738081 0.1329010898
350297900.0 -0.1224911206 0.1209966366 0.4180613573 -0.3710938029 0.4183621311 -0.3712898191 -0.114851826 0.1351625237
355297870.0 -0.1216203226 0.121973032 0.4136521151 -0.375485959 0.4138116605 -0.3755640636 -0.1135494244 0.1363149917
360297840.0 -0.1203094488 0.123447258 0.4099769382 -0.3806105809 0.4095092024 -0.3804192513 -0.1124126948 0.1380727063
365297810.0 -0.1190786224 0.1247814995 0.4053216789 -0.3851322802 0.4055467751 -0.3847302818 -0.1107993296 0.139385414
370297780.0 -0.1178036832 0.1258844638 0.4010460916 -0.389030069 0.4012670769 -0.3894884642 -0.1092174723 0.1407775612
375297750.0 -0.1167099622 0.1272762007 0.3974448621 -0.3936443933 0.3967584555 -0.3941938022 -0.1075051671 0.1426223225
380297720.0 -0.1153102234 0.1282230298 0.3925007166 -0.3978111967 0.3925457389 -0.3978641354 -0.1058598401 0.143717327
385297690.0 -0.1143647864 0.1298814516 0.387929548 -0.4021133598 0.3877193258 -0.4024137362 -0.1045182989 0.1451496164
390297660.0 -0.1133108878 0.1309474537 0.3836071968 -0.4066248367 0.3835766066 -0.4069877891 -0.1029700991 0.1461645543
395297630.0 -0.1117908144 0.1318666849 0.3794289924 -0.4104933759 0.3793053511 -0.4109140219 -0.1016638889 0.1477925468
400297600.0 -0.1109638605 0.133674955 0.3747168322 -0.4152595515 0.3749875226 -0.4149916497 -0.1002038374 0.1489071639
405297570.0 -0.1091829746 0.1347693727 0.3701235951 -0.4189791493 0.3705494617 -0.4195067606 -0.0985595446 0.1509392245
410297540.0 -0.1077605264 0.1358652207 0.3649709352 -0.4228550585 0.3650008025 -0.4227960198 -0.0968240134 0.1515616323
415297510.0 -0.1066317778 0.1371404779 0.3606587759 -0.4269689183 0.3608925398 -0.427200692 -0.0952045343 0.1538252562
420297480.0 -0.1053983337 0.1380342721 0.3555940501 -0.4314005288 0.3561136882 -0.4306797407 -0.0934205472 0.1541257127
425297450.0 -0.1037372695 0.1391995599 0.3508594874 -0.4349890945 0.3516300952 -0.4349277381 -0.091636504 0.1559028127
430297420.0 -0.103203564 0.1407167141 0.3469687271 -0.439246803 0.3463938278 -0.4385690506 -0.0899617771 0.156697064
435297390.0 -0.1013756611 0.1416910725 0.3420561371 -0.442247339 0.3420369515 -0.4419335326 -0.0885847713 0.1582502088
440297360.0 -0.0997607585 0.1426806991 0.3365769717 -0.4459363758 0.3363446444 -0.4461609253 -0.0869611667 0.158914454
445297330.0 -0.0982001273 0.1436814185 0.3316599354 -0.4497356765 0.3316615554 -0.4498211667 -0.0852157137 0.1604389835
450297300.0 -0.0969847251 0.1447147038 0.3265493151 -0.4532716162 0.3269463336 -0.4533876336 -0.0837428428 0.1615939268
455297270.0 -0.0956191939 0.1458320625 0.3222935844 -0.4566165681 0.3224368921 -0.4569307903 -0.0815529731 0.1625627453
460297240.0 -0.0947117636 0.1467856425 0.3168124925 -0.460038296 0.3163749472 -0.4602963708 -0.0796738099 0.1640829156
465297210.0 -0.0924846737 0.1477709284 0.3117170185 -0.4634755162 0.3122258163 -0.4635485465 -0.078413878 0.1645014602
470297180.0 -0.0914740989 0.1490620513 0.3066977255 -0.4672379153 0.3072070187 -0.4670884325 -0.0770269609 0.1659738337
475297150.0 -0.0901949571 0.1496317987 0.3013224922 -0.4699991523 0.3018976963 -0.469852933 -0.0745644596 0.1667896958
480297120.0 -0.0883096282 0.1505006088 0.2966779071 -0.4735847697 0.2966268904 -0.4735258107 -0.0729289253 0.1685426669
485297090.0 -0.0867327481 0.1516356427 0.2913560144 -0.4768859684 0.2913851523 -0.4766356829 -0.071115616 0.1686933381
490297060.0 -0.0852002968 0.1524257835 0.2861269845 -0.4797941414 0.2860694585 -0.4797485524 -0.0694688453 0.1699214346
495297030.0 -0.0840293229 0.153700804 0.2806454652 -0.4828316117 0.2808568882 -0.4831325731 -0.0673606033 0.1705225698
500297000.0 -0.0824251737 0.1544409652 0.2752945338 -0.4861256696 0.2756211087 -0.4858494817 -0.0658554412 0.1717182262
505296970.0 -0.081018317 0.1553529339 0.2699585689 -0.4886509589 0.2698813188 -0.4883745743 -0.064311891 0.1725594526
510296940.0 -0.0797947101 0.1563609579 0.2648815275 -0.4916261098 0.2649472532 -0.4917759382 -0.0617745977 0.1738553173
515296910.0 -0.0783223598 0.1574702291 0.2593806292 -0.4943686417 0.2593892254 -0.494613165 -0.0601001288 0.1745386977
520296880.0 -0.0765840968 0.1582476712 0.2537954253 -0.4974111243 0.2544437926 -0.4973291499 -0.0583096029 0.1752672506
525296850.0 -0.0750606961 0.1587360678 0.2487197135 -0.4997576719 0.2490281003 -0.5001522244 -0.0559192684 0.1762832909
530296820.0 -0.073705846 0.1596029676 0.2433749764 -0.5019603689 0.2435026601 -0.5024453063 -0.0549846396 0.1765178222
535296790.0 -0.0718897194 0.1605104413 0.2376734104 -0.5047657582 0.2379481245 -0.5048172809 -0.0526744476 0.1773581981
540296760.0 -0.0704426791 0.1611664034 0.2323437295 -0.5081074536 0.2320892948 -0.5075199579 -0.0510772746 0.1785479923
545296730.0 -0.0689690885 0.1623833351 0.2265505202 -0.5097002183 0.2268404719 -0.5102752497 -0.0492962522 0.1789890089
550296700.0 -0.0679338925 0.1629298085 0.2215428405 -0.5122003865 0.2217770694 -0.5125728533 -0.0472078881 0.1801737545
555296670.0 -0.0653499177 0.1637378251 0.2155750338 -0.5148589335 0.2156061155 -0.5148569571 -0.0451300359 0.1805731706
560296640.0 -0.0642685983 0.1643506045 0.2104512662 -0.5169277986 0.2099346583 -0.5170654343 -0.0432091853 0.1813974875
565296610.0 -0.0627741299 0.1650773741 0.204166836 -0.5190139156 0.2044522747 -0.5193233972 -0.0414005798 0.1818520905
570296580.0 -0.0607556614 0.1658253648 0.198621621 -0.5215178215 0.1989170974 -0.5214281397 -0.0392322689 0.1829300436
575296550.0 -0.0592491517 0.1667282343 0.1928551364 -0.5230078396 0.1932026565 -0.5233301977 -0.0373152033 0.1832962264
580296520.0 -0.0578178159 0.1674058683 0.1873910233 -0.5255901519 0.1871951911 -0.5257548169 -0.0352412794 0.1836478736
585296490.0 -0.0561891602 0.1677976366 0.1818208068 -0.5274444922 0.1814556862 -0.5275650896 -0.0334979917 0.1838296491
590296460.0 -0.0546894012 0.1683049243 0.1758727941 -0.5296441847 0.175894101 -0.5295286324 -0.0311672146 0.1846734355
595296430.0 -0.052862191 0.1693955663 0.1704072784 -0.5314351787 0.1700533175 -0.531403045 -0.0293256291 0.1850555022
600296400.0 -0.0513772638 0.1699488177 0.1643722122 -0.5329264984 0.1646972079 -0.533392272 -0.0271385579 0.1856571692
605296370.0 -0.0494789617 0.1706726503 0.1586145368 -0.5350837495 0.1589402272 -0.5349399758 -0.025144535 0.1863645679
610296340.0 -0.0479447713 0.1712745931 0.153212279 -0.5366058074 0.1533721055 -0.5367696655 -0.0234620913 0.186863504
615296310.0 -0.0462865723 0.1720999561 0.1470808626 -0.5377660502 0.1468904647 -0.538023969 -0.0213589697 0.1870970812
620296280.0 -0.0446422162 0.1724537662 0.1417133778 -0.5393795348 0.1414022273 -0.5394866891 -0.0191920502 0.1869963305
625296250.0 -0.0427297834 0.173006594 0.1348772714 -0.5411437841 0.1354635627 -0.5414056301 -0.0171697581 0.1880430087
630296220.0 -0.0411898889 0.1736891283 0.1295171018 -0.5427856221 0.1299267169 -0.5426442438 -0.0154316223 0.1884119664
635296190.0 -0.0394178601 0.174128262 0.1235922662 -0.543592959 0.1235730554 -0.5433533059 -0.0135302477 0.1884263533
640296160.0 -0.0377835103 0.1745734989 0.1181252655 -0.5449549755 0.117883972 -0.5452619476 -0.0109402509 0.188722803
645296130.0 -0.0362227341 0.1752778131 0.1117434542 -0.5461641574 0.1121261692 -0.5461696322 -0.0097387115 0.1886744569
650296100.0 -0.0346809101 0.1762464154 0.1063954441 -0.5471801125 0.1062836576 -0.5471732981 -0.0072457446 0.1889883496
655296070.0 -0.0327238279 0.1762423072 0.1001157729 -0.5485302966 0.1000085409 -0.5486422101 -0.0049081556 0.1897312416
660296040.0 -0.0314026741 0.1769893993 0.094262838 -0.5487980862 0.0942696723 -0.5494816806 -0.0029413233 0.1894779691
665296010.0 -0.0291633315 0.1770648209 0.0881049995 -0.550253714 0.0887336445 -0.5506121789 -0.0010443003 0.1904312527
670295980.0 -0.0273206126 0.1779183338 0.0821596533 -0.5515258641 0.08261254 -0.5512298954 0.0007401344 0.1897042931
675295950.0 -0.0256636794 0.1779583965 0.0759375337 -0.5522566628 0.0765065044 -0.5526178222 0.0030311096 0.1905225415
680295920.0 -0.0242027051 0.1787143845 0.0706734929 -0.5531385173 0.0703311098 -0.5527487893 0.0053707853 0.1901624704
685295890.0 -0.0223766011 0.1788023297 0.0649611423 -0.5534442094 0.0642778031 -0.5538192802 0.0071857524 0.1905156814
690295860.0 -0.0205133116 0.1791542514 0.0586203314 -0.5539117548 0.0580190278 -0.5541434756 0.0093390573 0.1906781532
695295830.0 -0.0183816934 0.1794572957 0.0518547237 -0.5545387033 0.0521064833 -0.5550350307 0.0112329615 0.1905199144
700295800.0 -0.0167888305 0.1798730931 0.0460768023 -0.5551941836 0.0463967739 -0.5555226908 0.0133849725 0.1902395456
705295770.0 -0.0148439686 0.180113038 0.0403886877 -0.5557097124 0.0405253068 -0.5554498516 0.0152238411 0.1904659102
710295740.0 -0.0133038872 0.1809214773 0.0343923904 -0.5562681364 0.0344106963 -0.5557912358 0.0168285367 0.1905997128
715295710.0 -0.0116034866 0.1810785535 0.0283681373 -0.5565580405 0.0285234455 -0.5565922019 0.0192959253 0.1902691486
720295680.0 -0.0100553692 0.1810822042 0.0222093629 -0.5565394063 0.0225604388 -0.5567561214 0.0216413565 0.190260554
725295650.0 -0.0076404469 0.1813828632 0.0158120791 -0.5563029992 0.0161136215 -0.556973719 0.0237809285 0.1905701831
730295620.0 -0.0066355187 0.1814686621 0.0100653588 -0.5568346981 0.0104848582 -0.5570434278 0.0260883261 0.1899093137
735295590.0 -0.004103207 0.1816078106 0.0045519439 -0.5566383701 0.004713031 -0.5571354446 0.0277073169 0.1901545877
740295560.0 -0.0025937619 0.1822383275 -0.0015357351 -0.5566842205 -0.0018628295 -0.5566932733 0.0301344504 0.18953999
745295530.0 -0.0007263656 0.1820228953 -0.0077686426 -0.557202239 -0.0074619572 -0.5573000621 0.0319043421 0.1896963586
750295500.0 0.0008995041 0.1823590399 -0.0131038726 -0.5567562801 -0.0135155669 -0.5567081091 0.0340025993 0.1889738841
755295470.0 0.0031093471 0.1826846877 -0.0194274759 -0.5567616763 -0.0194472751 -0.5564667568 0.0358131473 0.1893175503
760295440.0 0.004576629 0.1826997999 -0.025767589 -0.5563427893 -0.0253987442 -0.5560037699 0.0378271676 0.188684089
765295410.0 0.0062845602 0.1823662715 -0.0312327 -0.555441971 -0.0310520902 -0.5562211072 0.0406407658 0.1887378566
770295380.0 0.0083320632 0.1830254204 -0.0375357572 -0.5551278459 -0.0373784177 -0.5558384624 0.0425850378 0.18852449
775295350.0 0.0099316339 0.1828219893 -0.0433453708 -0.554792477 -0.043652073 -0.5547655111 0.0441148235 0.1874375388
780295320.0 0.0120637271 0.1828079764 -0.0495251387 -0.5544988311 -0.0491990207 -0.5546688089 0.0463785181 0.1875742047
785295290.0 0.01357451 0.1834200897 -0.0556280764 -0.5534161738 -0.055802708 -0.5542061572 0.0482831493 0.1873668196
790295260.0 0.015451343 0.1831796192 -0.0615847742 -0.5533141991 -0.061499645 -0.5536148643 0.050593781 0.1868195985
795295230.0 0.0169592192 0.1831969027 -0.0670473082 -0.5521980025 -0.0670328468 -0.5526076383 0.0528248853 0.1868696451
800295200.0 0.0188684772 0.1832720758 -0.0737621587 -0.5521008709 -0.073408477 -0.5520406027 0.0545239918 0.1859797367
805295170.0 0.0206183872 0.1830642203 -0.0794039534 -0.5501150984 -0.0792007975 -0.5507190716 0.0563387797 0.1855689402
810295140.0 0.0225604004 0.1829552046 -0.0848831433 -0.5496802842 -0.085063506 -0.5504268309 0.0586474617 0.1856064017
815295110.0 0.0244290815 0.1829500827 -0.0909890112 -0.548849706 -0.0913929256 -0.5489955349 0.0604124903 0.1845560984
820295080.0 0.0262583979 0.1826736208 -0.0966764805 -0.5478151097 -0.0966841989 -0.5478867179 0.0625514071 0.1840205372
825295050.0 0.0281555249 0.182686139 -0.1029365696 -0.5465308579 -0.1030215003 -0.5465740051 0.0646370668 0.1837934497
830295020.0 0.0297388484 0.1826899927 -0.1088507692 -0.5457452553 -0.1091626541 -0.5455523895 0.0664306827 0.1828030085
