!Created with skrf (http://scikit-rf.org).
# Hz S RI R 50.0 
!freq ReS11 ImS11 ReS21 ImS21 ReS12 ImS12 ReS22 ImS22
300000.0 -0.1026933461 -0.0709650512 0.631816259 0.0657214833 0.6244630043 0.0671777095 -0.0990461877 -0.079203523
5299970.0 -0.1021339786 0.0131322746 0.6302813251 0.009997976 0.6306119171 0.0104952311 -0.1008901827 0.0129791683
10299940.0 -0.0971603433 0.0291564658 0.6341023448 0.0152552803 0.6341175851 0.0157817967 -0.0958461274 0.0303236607
15299910.0 -0.0900542529 0.0424989324 0.6404515855 0.020352707 0.6406734005 0.0205578893 -0.0886338282 0.0437786631
20299880.0 -0.0815858641 0.0529870138 0.6484591082 0.0243132343 0.6486463112 0.0243769843 -0.0798369974 0.0546144066
25299850.0 -0.0723176076 0.0620156684 0.6575085683 0.0253090366 0.6576305292 0.0257401906 -0.0699254755 0.0630858731
30299820.0 -0.0622060248 0.0687101825 0.6673319407 0.0242567646 0.6674905287 0.0243703108 -0.059753036 0.0702390605
35299790.0 -0.0524273585 0.0735900802 0.6772590109 0.0210211855 0.6768621518 0.0217499218 -0.0498404385 0.0747712952
40299760.0 -0.0434044877 0.077459014 0.6861299698 0.0174805724 0.6866666054 0.0178061724 -0.0405358133 0.0776560858
45299730.0 -0.033936992 0.0794105076 0.6953522128 0.0121351299 0.6953815564 0.011912099 -0.0312319333 0.0800278763
50299700.0 -0.0258299143 0.0802055121 0.7038079082 0.0048430022 0.7037791573 0.0056696571 -0.023059193 0.0805527649
55299670.0 -0.0176715594 0.0807183947 0.7109852211 -0.0033583975 0.7107406352 -0.0024846266 -0.014738289 0.0805628347
60299640.0 -0.0101101787 0.0800882906 0.7168905333 -0.0113683688 0.7178177939 -0.0107140216 -0.0078061475 0.0795014818
65299610.0 -0.0038160474 0.0790686332 0.7232400037 -0.0201560753 0.7236230008 -0.0195181476 -0.001205289 0.0787094166
70299580.0 0.0025086565 0.0776338998 0.7289802596 -0.0295493344 0.7287181968 -0.0292026474 0.004762969 0.0768234704
75299550.0 0.0079936304 0.0759020816 0.7321750264 -0.0389471906 0.7328268963 -0.038696719 0.0102690919 0.0747807468
80299520.0 0.0129029785 0.0736038827 0.7370663966 -0.0490674726 0.737170294 -0.0489391022 0.0149454363 0.0726233733
85299490.0 0.0176639792 0.0712063536 0.7402109614 -0.0586516037 0.740692481 -0.058137818 0.0192939445 0.069959517
90299460.0 0.0217352858 0.0691620693 0.7425636106 -0.0690240377 0.7433268889 -0.0689135185 0.023491946 0.0680686409
95299430.0 0.0258934969 0.0666349118 0.7459005358 -0.0787487248 0.7457416808 -0.0787919786 0.0274607648 0.0655636992
100299400.0 0.0288399308 0.064705559 0.7466952642 -0.0889985645 0.7475367235 -0.0890728108 0.0313126722 0.062501891
105299370.0 0.03225301 0.0621386947 0.7488425996 -0.0991314871 0.7489542609 -0.0992305235 0.0339992884 0.0608208012
110299340.0 0.0348438815 0.0596487896 0.7498142927 -0.1090195022 0.7498603325 -0.1090114663 0.0360730337 0.0578291345
115299310.0 0.0374330708 0.0575479935 0.7508504933 -0.1193763599 0.7511479771 -0.1191981428 0.0388423751 0.0554862923
120299280.0 0.0399352062 0.0548070586 0.7513056961 -0.1295622772 0.7515431316 -0.1291794058 0.0414090987 0.0532745955
125299250.0 0.0420527046 0.0523972948 0.7515867282 -0.1394501771 0.7517936785 -0.1385653256 0.0427757017 0.0503184141
130299220.0 0.0436651158 0.0504833294 0.7516066482 -0.1493331903 0.7510729803 -0.1486901638 0.0448114007 0.0481770977
135299190.0 0.0453147535 0.0484747548 0.7515669245 -0.1588546438 0.7510249236 -0.1585799377 0.0465661621 0.0461143206
140299160.0 0.0466427364 0.046223255 0.7508136381 -0.1686741771 0.7509508504 -0.168818403 0.0481288468 0.0443655462
145299130.0 0.0483132899 0.0437777765 0.7503760677 -0.1786231395 0.7496715373 -0.1778919885 0.0492857821 0.0422421565
150299100.0 0.0496954672 0.0420875986 0.7489090606 -0.187430438 0.7488739294 -0.1879061116 0.0510345528 0.0403113157
155299070.0 0.0504175837 0.0396917761 0.7476212563 -0.1980496406 0.7477396759 -0.1977780564 0.0518988687 0.03812316
160299040.0 0.0521591533 0.0382364052 0.7460143241 -0.2069393894 0.7458101525 -0.207659022 0.0522888951 0.0362561271
165299010.0 0.0527400644 0.036263512 0.7445478938 -0.216734943 0.7443872336 -0.2170094255 0.0538091716 0.034963518
170298980.0 0.0531799687 0.033916606 0.7426955856 -0.2263575449 0.7429864537 -0.2256961179 0.0542390393 0.0330479921
175298950.0 0.0537296892 0.0321909137 0.7415632186 -0.2349872467 0.7408909444 -0.2353256936 0.0549336975 0.0316970744
180298920.0 0.0544611228 0.0306844709 0.739346946 -0.2446173116 0.7386319422 -0.2442343356 0.0554220809 0.0300205471
185298890.0 0.0557864739 0.0287766791 0.7369142856 -0.2536948308 0.7361150923 -0.2536792877 0.055800427 0.0284344931
190298860.0 0.0555702931 0.0273856239 0.7342441545 -0.2633532003 0.7346102231 -0.2629083152 0.0564277511 0.0264324448
195298830.0 0.0560026037 0.0253104161 0.7319752803 -0.272123069 0.7317898281 -0.2719115444 0.0573929606 0.0253084737
200298800.0 0.0563505145 0.0239749384 0.7287475713 -0.2812560759 0.7289294799 -0.2811446951 0.0568866281 0.0238915287
205298770.0 0.0568658062 0.0227917077 0.7257642576 -0.289934716 0.7259194617 -0.2898492639 0.0576025176 0.0214550441
210298740.0 0.0570428184 0.0207815762 0.72332196 -0.2981251404 0.7230696293 -0.2980139358 0.0580421677 0.0211611797
215298710.0 0.0568567461 0.0198137565 0.7206732035 -0.3073208233 0.720231212 -0.3076165102 0.0577287206 0.0197293829
220298680.0 0.0575455189 0.0178370268 0.7164613078 -0.3159954575 0.7167490329 -0.3160938715 0.0577108377 0.018023469
225298650.0 0.0577991657 0.0166341066 0.7141459834 -0.3242149354 0.7137451496 -0.324534357 0.0573525436 0.0165477515
230298620.0 0.058050906 0.0158896891 0.7104024567 -0.3326494703 0.7106387695 -0.3326202844 0.0574417408 0.0150840718
235298590.0 0.057991808 0.0147151478 0.7068565922 -0.3416684925 0.7070817946 -0.3411814539 0.0578779103 0.0139857902
240298560.0 0.0580995509 0.0132944384 0.7038472071 -0.3500978352 0.7032239637 -0.3498508681 0.057602775 0.0128841721
245298530.0 0.058006735 0.0119827107 0.7000713562 -0.3581474319 0.699679759 -0.3582496988 0.0582233683 0.0111702903
250298500.0 0.0585957187 0.0114261368 0.6950829859 -0.36649659 0.6953064246 -0.3658675014 0.0578240166 0.0105046802
255298470.0 0.0582202691 0.0096323073 0.6915067899 -0.3739848179 0.6917641422 -0.3738953593 0.0582097849 0.0090592443
260298440.0 0.0579318727 0.0081616473 0.687761006 -0.3832239849 0.6877542184 -0.3821558581 0.0586501729 0.0078692553
265298410.0 0.058830356 0.0077201647 0.6836457643 -0.3910261072 0.6839275218 -0.3904141928 0.0581373614 0.0069732053
270298380.0 0.058560836 0.0064010194 0.6793781953 -0.3985435595 0.6798462737 -0.3982763589 0.0580121676 0.0056967603
275298350.0 0.0592348904 0.0053467949 0.6753658492 -0.4067703131 0.675636557 -0.4065178372 0.0582791391 0.004324032
280298320.0 0.0588428657 0.0043519773 0.670941672 -0.4144298077 0.671390036 -0.4141942613 0.0584788558 0.0034173176
285298290.0 0.0587131682 0.0031515006 0.6669199979 -0.4220028114 0.6663841772 -0.4222963759 0.0586829759 0.0023263813
290298260.0 0.0589971407 0.0022700417 0.6616915789 -0.4294981762 0.6618967014 -0.4300896039 0.0586119974 0.0018001774
295298230.0 0.0589511903 0.0009529041 0.6576545129 -0.4381486539 0.6576580557 -0.4377041391 0.0594727656 0.000100322
300298200.0 0.0583759676 -0.0002384741 0.6532285204 -0.4451684644 0.6528083296 -0.4456113053 0.0587441046 -0.0007241229
305298170.0 0.0588978493 -0.0011553867 0.6476533711 -0.4537089743 0.6472675777 -0.4527202142 0.0595409151 -0.0018000039
310298140.0 0.0585536904 -0.002370568 0.6430149463 -0.4607909889 0.6434603883 -0.4605935104 0.0595089098 -0.003061939
315298110.0 0.0585774199 -0.0040663521 0.6381965489 -0.4681259969 0.6382159397 -0.4682872946 0.0590504468 -0.0042121771
320298080.0 0.0586377043 -0.0049351277 0.6321105817 -0.4765519451 0.6330605794 -0.4758700003 0.0588848729 -0.0054170121
325298050.0 0.0581078572 -0.006112812 0.6268720085 -0.4837664564 0.6270649044 -0.4835530338 0.0581030368 -0.0065145163
330298020.0 0.0576032213 -0.0072892489 0.6215785353 -0.4907388171 0.6213190537 -0.4907606461 0.0574788066 -0.0075809959
335297990.0 0.057417952 -0.0083529136 0.616133185 -0.4973413769 0.6155972045 -0.4981813514 0.0567975561 -0.0079194161
340297960.0 0.0560767062 -0.0089993574 0.609621501 -0.5044561017 0.6098050805 -0.5050480099 0.0573325671 -0.0087809567
345297930.0 0.0563028052 -0.0092773393 0.6040943306 -0.5118022679 0.6043079559 -0.5118080057 0.0565005314 -0.0097928834
350297900.0 0.0552821633 -0.0107164221 0.5974681964 -0.5185324279 0.5978621577 -0.5182138474 0.0552140697 -0.0095814998
355297870.0 0.0552136656 -0.010583277 0.5924539936 -0.5249357078 0.5927729439 -0.5251227936 0.0552158639 -0.010819029
360297840.0 0.0548832758 -0.0115247603 0.5868595021 -0.5313228005 0.5871378121 -0.5314783654 0.0550123737 -0.011168233
365297810.0 0.0538434003 -0.0120980654 0.580616523 -0.5387958254 0.5812018472 -0.5382413221 0.0545676883 -0.011841859
370297780.0 0.0544429545 -0.0131233421 0.5745805532 -0.5445667639 0.5753427378 -0.5441405246 0.0544336701 -0.0122281185
375297750.0 0.0538155729 -0.0136856711 0.5683373191 -0.5512400091 0.5699451618 -0.5510221793 0.0544063298 -0.013101167
380297720.0 0.0538186657 -0.0140612498 0.5627495616 -0.5576855547 0.5631863664 -0.5567736646 0.0532942417 -0.0140566148
385297690.0 0.0529430969 -0.0150471971 0.5565703175 -0.5636998866 0.5563036183 -0.5638976383 0.0533644022 -0.0142694468
390297660.0 0.0527964801 -0.0152401995 0.5501738414 -0.5699101132 0.5500674736 -0.5695595524 0.0526025532 -0.0149887206
395297630.0 0.0522480045 -0.0158673319 0.5437958102 -0.5761163943 0.5443653543 -0.5762103534 0.0531228938 -0.0156558939
400297600.0 0.0519461637 -0.0166854649 0.5369445054 -0.5824978621 0.5376275653 -0.5821277136 0.0524123267 -0.0159935108
405297570.0 0.0511876951 -0.0174015965 0.5317115337 -0.5882322823 0.5311351622 -0.587411005 0.0514992869 -0.0169732267
410297540.0 0.0513105448 -0.0181442949 0.525015879 -0.5939010794 0.5251015005 -0.5940058855 0.0514458335 -0.0171459818
415297510.0 0.0510794496 -0.0184765531 0.5181330159 -0.6002327453 0.5184076468 -0.5997707097 0.0511461714 -0.0176661156
420297480.0 0.051054481 -0.0189600867 0.5116652335 -0.6056037352 0.5116389603 -0.6056243434 0.0503031675 -0.0188853126
425297450.0 0.0502301272 -0.0205298703 0.5048341667 -0.61140694 0.5053414332 -0.6112557925 0.0493233479 -0.0188037044
430297420.0 0.0501450128 -0.0207716273 0.4978753726 -0.6162890471 0.4977950688 -0.6165322935 0.0494078191 -0.02009951
435297390.0 0.049475047 -0.0211771768 0.4910667536 -0.6225322075 0.4913022991 -0.6224734802 0.0501902051 -0.0204726849
440297360.0 0.0493769355 -0.0215209282 0.4843301551 -0.627622742 0.4844731787 -0.6276945988 0.0486507653 -0.0213014937
445297330.0 0.0485514769 -0.0229152932 0.4775773398 -0.6331078142 0.4781962926 -0.6326099849 0.0491511898 -0.0223664637
450297300.0 0.0488399404 -0.0228649812 0.4706029652 -0.6382226107 0.4703211823 -0.6386688774 0.0485006603 -0.0229996007
455297270.0 0.0483048089 -0.0236409376 0.4633657562 -0.6434717105 0.4639378262 -0.6438939129 0.0481434397 -0.0231846423
460297240.0 0.0480472927 -0.0241274841 0.4563210841 -0.6487006855 0.4563805853 -0.6486962405 0.0480384953 -0.0236163728
465297210.0 0.047877267 -0.0245902162 0.4495964582 -0.6540624632 0.4492646674 -0.6545240906 0.0475914589 -0.0245808814
470297180.0 0.0470620528 -0.0259188601 0.4413309518 -0.6588478252 0.4424379622 -0.658883478 0.0472420982 -0.0248022883
475297150.0 0.0469370217 -0.0261713911 0.4342139242 -0.6632311858 0.4350914931 -0.6628236338 0.0473783318 -0.0257486148
480297120.0 0.0461099662 -0.0261621944 0.4272170841 -0.6687470279 0.4275339956 -0.6686176197 0.0470972319 -0.0260849464
485297090.0 0.0456156935 -0.0268696292 0.420374497 -0.6724706915 0.4204563164 -0.6728161392 0.0465285029 -0.0268509493
490297060.0 0.0449540046 -0.027714497 0.413193206 -0.6782206034 0.4127699102 -0.6766257738 0.0461988079 -0.0264959371
495297030.0 0.0447663928 -0.027949097 0.4048108755 -0.6819482543 0.4059427773 -0.6818852702 0.045197794 -0.0277043769
500297000.0 0.0440942826 -0.028777937 0.3973631936 -0.6860405103 0.3975243866 -0.685844578 0.0452299527 -0.0274583496
505296970.0 0.044101089 -0.0293249442 0.3903872622 -0.6907907947 0.3899126201 -0.6909331779 0.0445585169 -0.0282785853
510296940.0 0.0432971493 -0.0294813188 0.3825955209 -0.6949850662 0.3826575383 -0.6953832693 0.0446078396 -0.0285399299
515296910.0 0.0427576316 -0.0297340744 0.3745439125 -0.6992313429 0.3750598053 -0.6991491094 0.0440624326 -0.0288120392
520296880.0 0.0422348705 -0.0303634109 0.3673086074 -0.7041452386 0.3675375812 -0.7030811838 0.0431904468 -0.0294929957
525296850.0 0.0419603631 -0.0313777789 0.3596749992 -0.7073701196 0.3598886795 -0.7070308269 0.0427944512 -0.0298101577
530296820.0 0.0414718235 -0.0313040857 0.3518441023 -0.7113411661 0.352388241 -0.7109660919 0.0424654272 -0.0301984886
535296790.0 0.0405282179 -0.0316040941 0.3445739816 -0.7147982552 0.3441947379 -0.7141456973 0.0419485155 -0.0312773921
540296760.0 0.0401703491 -0.03172859 0.3356983667 -0.7190517657 0.3356357319 -0.7189821279 0.0406918446 -0.030476112
545296730.0 0.0399262102 -0.0325676848 0.3278491575 -0.7222012325 0.3278850618 -0.7221327993 0.0405533139 -0.0315456395
550296700.0 0.0399477038 -0.032562184 0.3198797664 -0.7256503252 0.3205379777 -0.7262797601 0.0400028321 -0.0315314479
555296670.0 0.0389667485 -0.0331261096 0.3124873563 -0.7292775089 0.3126757458 -0.7294448433 0.0396289414 -0.0315985281
560296640.0 0.038756354 -0.0330055663 0.3036633867 -0.7331464279 0.3045843382 -0.7327555761 0.039024391 -0.0326307309
565296610.0 0.0375642511 -0.0337489201 0.2961268564 -0.7359386114 0.2964711815 -0.7362004528 0.0381357028 -0.0332265812
570296580.0 0.0370914007 -0.0341008174 0.2885290825 -0.7399911755 0.2875881697 -0.7395062544 0.0375870428 -0.0327757505
575296550.0 0.0363496927 -0.0341693157 0.2802444317 -0.7429245249 0.2797484541 -0.7427806838 0.0373982249 -0.0334960896
580296520.0 0.0363079771 -0.034567217 0.2721527789 -0.7457074414 0.2720483419 -0.7453680852 0.0369027443 -0.0339667981
585296490.0 0.0355615537 -0.035583195 0.2640616964 -0.7481173921 0.2642724706 -0.7486245665 0.0361447184 -0.0342621897
590296460.0 0.0355467812 -0.0354555034 0.2554267332 -0.7508057747 0.255654479 -0.7512893862 0.0351051542 -0.0343584607
595296430.0 0.0349150617 -0.0356346697 0.2467985957 -0.7544732414 0.2471688492 -0.7541739623 0.0350912443 -0.0353988493
600296400.0 0.0340922488 -0.0361303821 0.2392503482 -0.7564542622 0.2393649803 -0.7566988873 0.0342925822 -0.0354543676
605296370.0 0.0338559478 -0.0364923835 0.231028138 -0.7589415774 0.2312621437 -0.7593444891 0.0336813734 -0.0358483331
610296340.0 0.0332493313 -0.0369083993 0.2218796163 -0.761388517 0.2226825316 -0.7617643347 0.033988294 -0.036682468
615296310.0 0.032919802 -0.0377617097 0.2140639301 -0.7638228449 0.2138955257 -0.7648875324 0.0329864388 -0.0367522747
620296280.0 0.0324340774 -0.0378325916 0.206144772 -0.7661360207 0.2056027026 -0.7659808295 0.032136523 -0.0369896636
625296250.0 0.0312860292 -0.038618899 0.1979781667 -0.7686795897 0.1975709994 -0.7692442443 0.0324125051 -0.036930324
630296220.0 0.03196257 -0.0382124357 0.1883084257 -0.770895347 0.188378405 -0.7705650368 0.0314551576 -0.0370874276
635296190.0 0.0298675146 -0.0391402809 0.1802986716 -0.7727142188 0.1806889462 -0.7726276934 0.031366632 -0.0371059287
640296160.0 0.0295651902 -0.0388229996 0.1720487064 -0.7745762724 0.1727176674 -0.7748362679 0.0306591458 -0.0382274645
645296130.0 0.0291954495 -0.0390908735 0.1628859278 -0.776580683 0.1642168755 -0.7764037114 0.0300102068 -0.038251098
650296100.0 0.0288163979 -0.0393819474 0.1551451641 -0.7781374224 0.1552530677 -0.778398329 0.0299454794 -0.0391891776
655296070.0 0.0275919975 -0.0400400577 0.1465706896 -0.7801322981 0.1472294557 -0.7794459812 0.0294691672 -0.0384787594
660296040.0 0.0267504396 -0.0405393311 0.1380365043 -0.7815878018 0.1387913144 -0.7815272771 0.0291291941 -0.0389965129
665296010.0 0.0271530987 -0.040093415 0.1294142371 -0.7826355637 0.1296534596 -0.7829371857 0.0283282306 -0.0384014582
670295980.0 0.0250224937 -0.0402295147 0.1209560319 -0.7840231338 0.1208605338 -0.784077946 0.0271239745 -0.0393086537
675295950.0 0.025165877 -0.0402156847 0.1128157365 -0.7852178225 0.1127615926 -0.7846188246 0.0267867003 -0.0393176279
680295920.0 0.0242156731 -0.0408348118 0.1040407423 -0.786435919 0.1038359115 -0.7871289497 0.026266251 -0.038629096
685295890.0 0.0239936292 -0.0402469529 0.0954226112 -0.7876839154 0.0946440631 -0.7871432738 0.0254968334 -0.0393307762
690295860.0 0.0237718141 -0.0406571127 0.0871652732 -0.7882780061 0.0867235904 -0.7885077705 0.0249653413 -0.0386333702
695295830.0 0.0227969775 -0.0412537375 0.0786007081 -0.7893740139 0.0779352179 -0.7896109316 0.0243352418 -0.0387762856
700295800.0 0.0223306735 -0.0416123372 0.0690181552 -0.7901469763 0.0690512848 -0.7893248496 0.0235344563 -0.0385743711
705295770.0 0.0214496606 -0.0405146274 0.0606319524 -0.790915503 0.0612416935 -0.7911021162 0.0228918549 -0.0389922644
710295740.0 0.0215502878 -0.0413657508 0.0523682094 -0.7921176957 0.0529567485 -0.7922166419 0.0227581991 -0.0398784841
715295710.0 0.0200481152 -0.0415596296 0.0439689526 -0.7923310335 0.0436708559 -0.7919739466 0.0222280839 -0.03956044
720295680.0 0.0199489328 -0.0414341786 0.0350006358 -0.7927139944 0.0358802961 -0.7923990873 0.0213472123 -0.0386986392
725295650.0 0.0194159804 -0.0415038603 0.0265176646 -0.7930848462 0.0267245916 -0.7932442509 0.0202752345 -0.0391367086
730295620.0 0.0190222756 -0.0413099684 0.0179646757 -0.7928948567 0.0179272194 -0.7932595831 0.019572432 -0.040027936
735295590.0 0.0180300118 -0.0413517028 0.0091594958 -0.7930250942 0.0094799177 -0.7933301426 0.0190227452 -0.0402759501
740295560.0 0.017020717 -0.0414067162 0.0005840918 -0.7928862401 0.0003886751 -0.7930220045 0.0189789827 -0.0395800104
745295530.0 0.0167176719 -0.0412793415 -0.0079301982 -0.7922825108 -0.0080231689 -0.7932559747 0.0183684526 -0.0403990508
750295500.0 0.0163177216 -0.0415841873 -0.0160868478 -0.7925681304 -0.0162868977 -0.7932283583 0.0176325096 -0.0403130407
755295470.0 0.0158785179 -0.0419018733 -0.0249668987 -0.7926183313 -0.0248866122 -0.7929474738 0.0174846425 -0.0407820081
760295440.0 0.014900513 -0.0414334544 -0.0339789918 -0.7930840581 -0.0340462118 -0.7928678907 0.0164118868 -0.0406005823
765295410.0 0.0141599812 -0.0416262188 -0.0428188725 -0.7918864398 -0.0426249727 -0.7924751726 0.0159423364 -0.0403996357
770295380.0 0.0133532853 -0.0420570466 -0.0514248667 -0.7915118384 -0.0508720273 -0.7913076768 0.0149549723 -0.0408832055
775295350.0 0.012899231 -0.0427451094 -0.0598596654 -0.790646951 -0.0597459088 -0.7911193157 0.0138396044 -0.040377246
780295320.0 0.0126748657 -0.0424184424 -0.0687622179 -0.7899511739 -0.0673898611 -0.7899926331 0.0134940321 -0.0415949516
785295290.0 0.0116021748 -0.0429313989 -0.0771305046 -0.7886244452 -0.0763997298 -0.7891154095 0.0138820805 -0.0407759725
790295260.0 0.0116009397 -0.0417999604 -0.0847433001 -0.7881155173 -0.083896599 -0.788338626 0.0125405316 -0.0408371706
795295230.0 0.0108166605 -0.0425385082 -0.0939741446 -0.787433836 -0.0931148232 -0.7876003831 0.0127001376 -0.0405361267
800295200.0 0.0095992413 -0.0418380271 -0.1033139867 -0.7861692084 -0.1024328419 -0.786304098 0.0119044476 -0.0410251809
805295170.0 0.0091656104 -0.0422594301 -0.1115569195 -0.7847665201 -0.111120504 -0.7854448566 0.0111673064 -0.0406313236
810295140.0 0.0081561367 -0.0426589208 -0.1196617804 -0.7835759032 -0.1198690525 -0.7838683944 0.0109025767 -0.0406825625
815295110.0 0.0080851411 -0.0427178149 -0.1277033098 -0.7824616237 -0.1278539588 -0.7824980478 0.0100709676 -0.040329764
820295080.0 0.006993486 -0.0417977718 -0.1365623824 -0.7804466908 -0.1364181627 -0.7804987346 0.0096495056 -0.0405898679
825295050.0 0.0071555839 -0.0420459885 -0.1447595006 -0.7789275427 -0.1447125489 -0.77934743 0.0095306461 -0.0402093605
830295020.0 0.0062433788 -0.0416363165 -0.153465846 -0.7772532877 -0.1532249215 -0.7775081917 0.0095586005 -0.0401503098
