!Created with skrf (http://scikit-rf.org).
# Hz S RI R 50.0 
!freq ReS11 ImS11 ReS21 ImS21 ReS12 ImS12 ReS22 ImS22
300000.0 -0.3198993203 -0.1027160757 0.3729957922 0.0521027477 0.3737904604 0.0552350003 -0.3173809266 -0.1138079377
5299970.0 -0.3236367953 0.0052677486 0.3785549714 0.0025263273 0.3786752908 0.0031759466 -0.3262585993 0.0027177566
10299940.0 -0.3212330249 0.0155978893 0.3798986172 0.0022162122 0.3800386195 0.002454976 -0.3244737411 0.0129082738
15299910.0 -0.3183025118 0.0238073661 0.3820949675 0.0019268391 0.38192493 0.0023946527 -0.321384368 0.0198141867
20299880.0 -0.3141897883 0.0301763791 0.3849808605 0.0016444886 0.3850672825 0.001535678 -0.3188034521 0.0259682932
25299850.0 -0.3108570498 0.0358348765 0.3884542554 7.60853e-05 0.388446641 -1.49339e-05 -0.3157377073 0.0309937549
30299820.0 -0.3068527708 0.0404764551 0.3920942132 -0.0019518483 0.3917750947 -0.0024194425 -0.3129192182 0.0356396144
35299790.0 -0.3030559894 0.0447182913 0.395008531 -0.0052381971 0.3950934169 -0.0052885749 -0.3099107622 0.039399096
40299760.0 -0.2994987213 0.0481806664 0.3983966189 -0.0087630415 0.3984265638 -0.0086668656 -0.3073073919 0.0431487818
45299730.0 -0.296315107 0.0513933634 0.4010808121 -0.012654987 0.4011872407 -0.012728243 -0.3049922207 0.045893392
50299700.0 -0.2932373409 0.054222125 0.4034814425 -0.017491226 0.4037902611 -0.0171748718 -0.3023484404 0.0489871015
55299670.0 -0.2909201571 0.0570844132 0.4052119623 -0.0220984461 0.405897326 -0.0217458247 -0.3001300096 0.0519917708
60299640.0 -0.2883221082 0.0591565199 0.4074128168 -0.0269738223 0.4076484734 -0.026903726 -0.2984310195 0.0546426138
65299610.0 -0.2862174818 0.0615090946 0.4094621846 -0.0315271537 0.4095145519 -0.0318854103 -0.296181856 0.0570822918
70299580.0 -0.28375811 0.0636167277 0.4105522505 -0.0366893165 0.4108079545 -0.0369064328 -0.2948462584 0.0595854635
75299550.0 -0.2818825448 0.065775545 0.4113747046 -0.0421236503 0.4115408215 -0.0420681924 -0.29310501 0.0617258679
80299520.0 -0.2806035194 0.0681654837 0.4126910661 -0.0472752207 0.4127921837 -0.0472418983 -0.2918480376 0.0639850983
85299490.0 -0.2784482172 0.0697724452 0.4132182746 -0.0528602897 0.4131500162 -0.0524371837 -0.2902880429 0.0662781468
90299460.0 -0.2772328142 0.0720600438 0.4132331118 -0.0577733534 0.4137984381 -0.0580177257 -0.288742026 0.0684925245
95299430.0 -0.2755956974 0.0745248717 0.4139660123 -0.0635165813 0.4142939421 -0.0631609232 -0.2876011497 0.07155431
100299400.0 -0.2744487663 0.076265774 0.4136901709 -0.0683853752 0.4137056924 -0.0685001477 -0.2866889571 0.0733494076
105299370.0 -0.2731476863 0.0783927016 0.413424458 -0.0733497098 0.4138862393 -0.0735078835 -0.285246694 0.0755590797
110299340.0 -0.271986415 0.0804863037 0.4134511155 -0.0784610162 0.4136349818 -0.0790100524 -0.2847146825 0.0779183242
115299310.0 -0.2704779195 0.0823002837 0.4130134462 -0.0836156026 0.4132306078 -0.083609772 -0.2833381136 0.0800070915
120299280.0 -0.2697105009 0.0846138704 0.4131028501 -0.0888883193 0.412737655 -0.0888465417 -0.2823446578 0.0824954012
125299250.0 -0.2689260373 0.0868899914 0.412424184 -0.0938406625 0.4123952102 -0.0941714027 -0.2813581925 0.0847287584
130299220.0 -0.2681608915 0.088865637 0.4115601683 -0.0983872757 0.4116954454 -0.099125698 -0.280499321 0.0872628004
135299190.0 -0.266626708 0.091053915 0.4107783759 -0.1037357458 0.4105408049 -0.1041993596 -0.2794925424 0.0897165801
140299160.0 -0.2658927852 0.0934059601 0.4098679887 -0.1087605989 0.4102668964 -0.1092193612 -0.2786645351 0.0919002993
145299130.0 -0.2648791823 0.0957026658 0.4094777311 -0.1138158419 0.4091590807 -0.114009692 -0.2777620895 0.0948730217
150299100.0 -0.263885334 0.0979779426 0.4080718979 -0.1190828179 0.408315513 -0.1188074942 -0.2768259951 0.0966953044
155299070.0 -0.2629860489 0.1010909093 0.407076321 -0.1241053007 0.4070778143 -0.124144298 -0.2758935581 0.0994552647
160299040.0 -0.2618807132 0.1032056656 0.4056658808 -0.1285582574 0.4061207043 -0.1286919295 -0.2750210083 0.1022616238
165299010.0 -0.2610329279 0.1053528014 0.4047971921 -0.1336944511 0.4048261449 -0.1339007932 -0.2742755994 0.1045760674
170298980.0 -0.2603116219 0.1079786014 0.4029392511 -0.1384497682 0.4034762149 -0.1384109077 -0.2729880914 0.1072115595
175298950.0 -0.2590861448 0.1103068889 0.4019858307 -0.1428762212 0.4019922024 -0.1432033784 -0.2719454575 0.1099154074
180298920.0 -0.2579283863 0.1126413457 0.4003591209 -0.1481625594 0.4003653285 -0.1478920233 -0.2707637125 0.1126864013
185298890.0 -0.2568426258 0.1152469738 0.3986036079 -0.1527143543 0.398965391 -0.1524337057 -0.270395457 0.1147263209
190298860.0 -0.2558716067 0.1176732349 0.3969784446 -0.1575448482 0.3973991219 -0.1574007182 -0.2687761854 0.1176838328
195298830.0 -0.2545373913 0.1200261175 0.3956429106 -0.1616140732 0.3957976171 -0.1621274296 -0.2679994461 0.1201723479
200298800.0 -0.2535640366 0.1227966033 0.3938286715 -0.1659004871 0.3939431314 -0.166459214 -0.2665782854 0.1230883586
205298770.0 -0.2528765996 0.1251276737 0.3925141779 -0.1707776239 0.3924063523 -0.1711294692 -0.2657635575 0.1254591065
210298740.0 -0.2516066023 0.1278290022 0.3905864724 -0.1760989625 0.3904662308 -0.1762322 -0.264509742 0.12849783
215298710.0 -0.2501649234 0.1305263625 0.3886251286 -0.1802420727 0.3884260544 -0.180071722 -0.2634328279 0.1307886048
220298680.0 -0.2493447318 0.1330363688 0.3864294657 -0.1846520357 0.3868885941 -0.1846975925 -0.2623773213 0.1339293211
225298650.0 -0.2476139476 0.1356903659 0.3841067763 -0.1889522665 0.3846768424 -0.1886931222 -0.2611617265 0.1364339607
230298620.0 -0.2468232195 0.137947226 0.3824669463 -0.1934319351 0.3830312408 -0.193463823 -0.2595763759 0.1390088182
235298590.0 -0.2454884633 0.1406241306 0.3802191484 -0.1978458905 0.380464872 -0.1983004686 -0.2585604871 0.1413283677
240298560.0 -0.2442153159 0.143129405 0.3784328187 -0.2019850687 0.3785629323 -0.2016831402 -0.2571922804 0.1443003951
245298530.0 -0.2426781699 0.1459478911 0.3756828781 -0.2065737015 0.3760078215 -0.2067329583 -0.255650009 0.1474345162
250298500.0 -0.2416926993 0.1484119649 0.3738453799 -0.2105813034 0.374009616 -0.2103563139 -0.2541137045 0.1498577532
255298470.0 -0.2401638092 0.151199022 0.3710556318 -0.2152588428 0.3715077048 -0.2147792375 -0.2528407011 0.1522037869
260298440.0 -0.2387892371 0.1534827757 0.3690924944 -0.2190633986 0.3693175435 -0.2195029264 -0.2509074332 0.1553690747
265298410.0 -0.2370692589 0.1561108716 0.3665063981 -0.2236297383 0.3664843605 -0.2233914024 -0.2497834952 0.1575795618
270298380.0 -0.235755715 0.1585886063 0.3640710717 -0.2273716902 0.3644551533 -0.2278123458 -0.2483409977 0.1603318912
275298350.0 -0.2340257489 0.1611927604 0.3617503259 -0.2318686878 0.361983708 -0.2319537238 -0.2462193354 0.1633071456
280298320.0 -0.2327186273 0.1637497369 0.3590381269 -0.2355650544 0.3588908875 -0.2359349919 -0.244837329 0.165891121
285298290.0 -0.2307795114 0.1663749143 0.3561899177 -0.2399941247 0.3563685927 -0.2399423892 -0.2431115119 0.1685659976
290298260.0 -0.2293199783 0.1689398305 0.3536041116 -0.2438395536 0.3539656976 -0.2438564681 -0.2412810409 0.1713951302
295298230.0 -0.2278620988 0.1713773962 0.3513058585 -0.2478457651 0.3510068349 -0.2477613018 -0.2395446528 0.1739631993
300298200.0 -0.2256227614 0.173708568 0.34811711 -0.2519701832 0.348451125 -0.251804712 -0.2379937741 0.1765208624
305298170.0 -0.2239715816 0.176444394 0.3459995349 -0.2564006258 0.3458392517 -0.2562075858 -0.2359614458 0.1794230394
310298140.0 -0.2220956327 0.1784201365 0.3428891246 -0.2598501558 0.3428916108 -0.2604876665 -0.2341580783 0.1820801728
315298110.0 -0.2208035046 0.1809195654 0.3398157291 -0.2637068843 0.3402334417 -0.2638438472 -0.2321447821 0.1843629066
320298080.0 -0.2188486594 0.1837113577 0.3369418199 -0.2680619151 0.3370268112 -0.2676067114 -0.230145132 0.1869657012
325298050.0 -0.2169236435 0.1853775106 0.334034859 -0.2717248509 0.3342053063 -0.2721368148 -0.228269768 0.1896106335
330298020.0 -0.215230321 0.1883796659 0.3305606638 -0.2755300766 0.3308262723 -0.2754358417 -0.2265419477 0.1918076938
335297990.0 -0.2132063305 0.1903881401 0.3275026724 -0.2788603824 0.3278450917 -0.2790854381 -0.2249557448 0.1942558776
340297960.0 -0.2117855708 0.1928281883 0.3243545864 -0.2825122367 0.3246098507 -0.2824997381 -0.2227501346 0.1971713847
345297930.0 -0.2100564996 0.1951541801 0.3212959047 -0.2858916147 0.3210185311 -0.2858637359 -0.2209808094 0.1994598285
350297900.0 -0.207781219 0.1975955251 0.3178965249 -0.2893680538 0.3181964932 -0.2901937714 -0.2186918 0.2025032429
355297870.0 -0.2061319694 0.1997585741 0.3146194796 -0.292926781 0.3147843943 -0.2933985095 -0.2169374037 0.2045100142
360297840.0 -0.2040144466 0.2022815495 0.311789411 -0.2967506433 0.3115911608 -0.2968863081 -0.2148239785 0.2075700706
365297810.0 -0.2018025964 0.2045783057 0.3080805675 -0.2996598778 0.3081032704 -0.3002314227 -0.2125635346 0.2100913381
370297780.0 -0.1997237037 0.2067545645 0.3045561939 -0.3033573756 0.3046047185 -0.3036714638 -0.2105973038 0.2120850839
375297750.0 -0.1977262653 0.2090898898 0.3019305792 -0.3067613255 0.3012487727 -0.3069782987 -0.2082245796 0.2146685889
380297720.0 -0.195252837 0.2114279773 0.2981104397 -0.3099831287 0.2979617127 -0.3098519666 -0.2057514474 0.2173920073
385297690.0 -0.1931488842 0.213764214 0.2942933058 -0.3127637649 0.2945756777 -0.3131791507 -0.2041446572 0.2199667281
390297660.0 -0.1910357284 0.2159460009 0.290962595 -0.3168440437 0.2910218235 -0.3168610397 -0.2015885439 0.2216894366
395297630.0 -0.1886383192 0.2179793625 0.2876583076 -0.3192610416 0.2874834635 -0.319832138 -0.199275385 0.2246844613
400297600.0 -0.1864431438 0.2205658086 0.2840762333 -0.3226698646 0.2846126105 -0.3231218401 -0.1972574165 0.2267141982
405297570.0 -0.1843194563 0.2225506087 0.2804413718 -0.3260032436 0.280529916 -0.3263699704 -0.1948176771 0.2291964858
410297540.0 -0.1820009739 0.2244922037 0.2762473271 -0.3288775168 0.2765921147 -0.3290715741 -0.1924937873 0.2315772388
415297510.0 -0.1793999903 0.2266458718 0.2731072451 -0.3320220955 0.2731822422 -0.3318703407 -0.190073531 0.2340091534
420297480.0 -0.177107236 0.2285370928 0.2691549527 -0.3355344311 0.2694440574 -0.334783452 -0.1877786287 0.2357186396
425297450.0 -0.1745195515 0.2306480663 0.2654407146 -0.3380471299 0.2661796136 -0.337754552 -0.1849701249 0.2383265079
430297420.0 -0.172389508 0.2326856129 0.2621128981 -0.3410780577 0.2620782304 -0.34072018 -0.1828336611 0.240042605
435297390.0 -0.1700044653 0.2346197631 0.2582737779 -0.3433797832 0.2583109656 -0.3431897529 -0.1799183551 0.2427295881
440297360.0 -0.1670101132 0.2365055836 0.2541552092 -0.3460570264 0.254071889 -0.3460309433 -0.1776859935 0.244098903
445297330.0 -0.1647648748 0.2384293517 0.2502503821 -0.3494409816 0.2505490126 -0.3489982796 -0.1754481252 0.2463362514
450297300.0 -0.1623000862 0.2399942199 0.2464294191 -0.3515765137 0.2468034187 -0.351815383 -0.1728291212 0.2487232961
455297270.0 -0.159776808 0.2419844924 0.2429553433 -0.3546262867 0.243110804 -0.3544145835 -0.1699890921 0.2507884386
460297240.0 -0.1576476858 0.2441127293 0.2389066893 -0.3565732221 0.2385094452 -0.356849379 -0.1669957439 0.2532649503
465297210.0 -0.1544508132 0.2457514635 0.2347466661 -0.3597310753 0.2350079073 -0.3593996134 -0.1650904596 0.2547088697
470297180.0 -0.1522823404 0.2475339508 0.2309875208 -0.36172923 0.2311440511 -0.3621436068 -0.1627626258 0.2565908751
475297150.0 -0.1499062841 0.2494096983 0.2270998941 -0.364414671 0.2272023186 -0.3640683127 -0.1596184298 0.2584535409
480297120.0 -0.1470644535 0.2507043873 0.2226932977 -0.3668771352 0.2232544496 -0.3668551345 -0.157175436 0.2609209006
485297090.0 -0.1440620083 0.2524272441 0.2187545079 -0.3690565623 0.2189079917 -0.3691302745 -0.1544018314 0.2625160637
490297060.0 -0.1416162507 0.2543547761 0.2152441574 -0.371598156 0.2147119161 -0.3716433472 -0.1518926801 0.2641799559
495297030.0 -0.1391347426 0.2564427693 0.2106940796 -0.3741032222 0.2106373638 -0.3737779311 -0.149012611 0.265728134
500297000.0 -0.1359992777 0.2574781159 0.206307832 -0.3762068821 0.2067113791 -0.3760291935 -0.1465255322 0.2676687016
505296970.0 -0.1336641286 0.2590469797 0.2023381233 -0.3778640511 0.2023440406 -0.3780584908 -0.1439454482 0.2694730405
510296940.0 -0.1307299697 0.2609429511 0.1982904986 -0.3805999758 0.198419519 -0.3802515343 -0.1407235257 0.27132036
515296910.0 -0.1284072093 0.2625570742 0.1939917251 -0.3822566624 0.1942779245 -0.3821042694 -0.1380889905 0.2729162531
520296880.0 -0.1255105151 0.2639135889 0.1895323411 -0.3844424101 0.1900594765 -0.3845754079 -0.1352805291 0.2744831698
525296850.0 -0.1227871119 0.26518217 0.1859634764 -0.3863647445 0.1858298309 -0.3867442706 -0.1318732927 0.276163351
530296820.0 -0.1199003551 0.2666296655 0.1816491124 -0.3878188334 0.1815784206 -0.3884858465 -0.1299648781 0.2775105339
535296790.0 -0.1171875454 0.2681917905 0.1769663046 -0.3900240323 0.1773775906 -0.3900863618 -0.1270013569 0.2790080745
540296760.0 -0.1142420634 0.2693436583 0.1728244654 -0.3923749924 0.1729178981 -0.3924665087 -0.12450204 0.2808166194
545296730.0 -0.1114277379 0.2709600919 0.1682906766 -0.3938802389 0.1686334257 -0.3943774423 -0.121344938 0.2819827938
550296700.0 -0.1087311903 0.2721958978 0.1643781653 -0.3958686058 0.1649206945 -0.3963090443 -0.1185513242 0.2836669926
555296670.0 -0.1053242789 0.2734822134 0.1598967399 -0.3976442522 0.1601499585 -0.3975657986 -0.1152074691 0.2852895615
560296640.0 -0.1027634073 0.2746530874 0.1560257099 -0.399241842 0.15575785 -0.3991190681 -0.1124610005 0.286473785
565296610.0 -0.1001453246 0.2758828051 0.1513833597 -0.4007881236 0.1511214431 -0.401053285 -0.1097578915 0.2874218883
570296580.0 -0.0968831838 0.277078451 0.1466798716 -0.4023587774 0.1472607224 -0.4025816152 -0.1066979346 0.2892950979
575296550.0 -0.0937906027 0.2780997725 0.1428556108 -0.4038653907 0.1429327026 -0.4035874658 -0.1033890903 0.2904192355
580296520.0 -0.0911283255 0.279443805 0.1386216329 -0.4056577993 0.137970503 -0.4056701567 -0.1005464022 0.2916053409
585296490.0 -0.0884509046 0.2800077404 0.1341003762 -0.4068650049 0.1336606967 -0.4066948178 -0.0977251835 0.2922164261
590296460.0 -0.0857671933 0.2812739955 0.1295984722 -0.4081299811 0.1293203005 -0.4082274739 -0.094775294 0.2940223968
595296430.0 -0.0821152081 0.2823687461 0.1250209972 -0.4095216248 0.1246637391 -0.4100818599 -0.0914200648 0.2947090725
600296400.0 -0.0790098311 0.2838658075 0.1205268323 -0.4109777286 0.1207979508 -0.4111639617 -0.0885548922 0.29639289
605296370.0 -0.07620834 0.2848918758 0.1161311396 -0.4123421947 0.1160302946 -0.4118639402 -0.08546868 0.2972543885
610296340.0 -0.0733916005 0.285638094 0.1116902096 -0.4131926749 0.1115793402 -0.4137062974 -0.0825635262 0.298536845
615296310.0 -0.0702797923 0.2864840644 0.1066692742 -0.4141734997 0.1069966079 -0.4146919015 -0.0795035779 0.2994351086
620296280.0 -0.0671119577 0.2871952635 0.1025808267 -0.4154355254 0.1025094626 -0.4157093443 -0.0763219461 0.2999172465
625296250.0 -0.0642750665 0.2880935296 0.0976361224 -0.4168258309 0.0975659596 -0.4168017551 -0.0733556911 0.3010455756
630296220.0 -0.061127562 0.2890282031 0.0934356918 -0.4178696959 0.0940646682 -0.4177938089 -0.0704702205 0.3022584768
635296190.0 -0.057965204 0.2898220981 0.0886742146 -0.4182866397 0.0886126665 -0.418299778 -0.0669372335 0.3030926109
640296160.0 -0.0548195662 0.2902789914 0.0839891972 -0.4194143892 0.0841525845 -0.4197203178 -0.0638406064 0.303647586
645296130.0 -0.0521101718 0.2913606322 0.0796266789 -0.4204037914 0.0799151352 -0.4203073272 -0.0610422923 0.3043536451
650296100.0 -0.0492599675 0.292551592 0.075502575 -0.4210733179 0.0753710212 -0.4210606696 -0.0579175689 0.3054302757
655296070.0 -0.0456320942 0.2927640517 0.0707391389 -0.4219280273 0.0703388739 -0.4218601238 -0.0540232356 0.3059121985
660296040.0 -0.0431639933 0.2933073936 0.0662006675 -0.422272264 0.0661529355 -0.4222864776 -0.0511979362 0.306405575
665296010.0 -0.0396457382 0.2939693112 0.0614432652 -0.4233240507 0.0620168806 -0.4235086372 -0.048336683 0.307770952
670295980.0 -0.0363077178 0.2945401494 0.0572977389 -0.4238375377 0.0574809538 -0.4236256762 -0.0455158321 0.3078146452
675295950.0 -0.0334137055 0.2949161412 0.0523857336 -0.4243828159 0.0523658503 -0.42465659 -0.0414126189 0.3086568007
680295920.0 -0.030261478 0.2959220537 0.0474195569 -0.4248451016 0.0478843051 -0.4247116683 -0.0385501803 0.3091671698
685295890.0 -0.0272915018 0.2962121387 0.0434805786 -0.4255553603 0.0427451806 -0.4257215281 -0.0353648683 0.3099603931
690295860.0 -0.0239134816 0.2965507946 0.0387633464 -0.4254253679 0.0384211482 -0.4259825695 -0.0319095589 0.3104092991
695295830.0 -0.0204345481 0.2966580635 0.0332118941 -0.4257724614 0.033783271 -0.4262289011 -0.02909783 0.3110665487
700295800.0 -0.0175327069 0.2970929479 0.0291913477 -0.4264468655 0.0289930535 -0.426654575 -0.0257756202 0.3108440708
705295770.0 -0.0143837669 0.2978180127 0.0245841731 -0.4267638629 0.0249345886 -0.426923657 -0.0225672216 0.3119094911
710295740.0 -0.0115511684 0.2978480576 0.0201941434 -0.4264286621 0.0199211076 -0.4266326091 -0.0195701732 0.3124143285
715295710.0 -0.0083860215 0.2981146437 0.0153339292 -0.4265200618 0.0158747416 -0.427050032 -0.0165865932 0.3122254405
720295680.0 -0.0053014143 0.2982194695 0.0107486831 -0.4265815753 0.0110627408 -0.4275268371 -0.0127698164 0.3127155901
725295650.0 -0.0016998563 0.2986187478 0.0059040858 -0.4270862563 0.0062041322 -0.4274401803 -0.0096691192 0.3131079589
730295620.0 0.0011970166 0.298611485 0.0014900266 -0.4267588489 0.0014483249 -0.4270066106 -0.0061277273 0.3128818061
735295590.0 0.0049276834 0.2987938789 -0.0033489386 -0.4272512321 -0.0029117833 -0.4274145703 -0.0028885153 0.3135893984
740295560.0 0.0078877003 0.2991769853 -0.0079627287 -0.4267927675 -0.0077773034 -0.4271199307 9.28318e-05 0.3135280401
745295530.0 0.0105227198 0.2990588494 -0.0125396433 -0.4266831803 -0.012185316 -0.4271667913 0.0034586982 0.3135023558
750295500.0 0.0137034885 0.2990325882 -0.0167388668 -0.4262878283 -0.0168184905 -0.4266015553 0.0065557327 0.3132296799
755295470.0 0.0174697123 0.2990563212 -0.0217953844 -0.4261895234 -0.0212491323 -0.4265503484 0.0096318389 0.3139540624
760295440.0 0.0202944199 0.2990391215 -0.0264185871 -0.4261230576 -0.0259750725 -0.4259394286 0.0130038912 0.3138064423
765295410.0 0.0234684324 0.2987967184 -0.0304612426 -0.4253618368 -0.0307486338 -0.4261368152 0.016852963 0.3141056457
770295380.0 0.0268140495 0.298827856 -0.0354089653 -0.4249960585 -0.0352621259 -0.4252597943 0.0199681797 0.3138060485
775295350.0 0.0296667625 0.298914934 -0.0400677263 -0.4248427742 -0.0399226099 -0.4249960564 0.0228010158 0.3133116991
780295320.0 0.0334655503 0.2982834194 -0.0444989562 -0.4243798322 -0.0442699434 -0.4246397412 0.0262023745 0.3139823802
785295290.0 0.03614894 0.2984879689 -0.0490257124 -0.4231960142 -0.0488029972 -0.4236980936 0.0289727028 0.3137120663
790295260.0 0.0394228106 0.2979218394 -0.0536009126 -0.4231252512 -0.0535592128 -0.4234753259 0.0328076483 0.3133166652
795295230.0 0.0425040641 0.2981971113 -0.0577305197 -0.4224246161 -0.0580137921 -0.4226768946 0.0361627069 0.3138871169
800295200.0 0.0456754579 0.2978778754 -0.0628848697 -0.4219430448 -0.0628814874 -0.4221347671 0.0391121179 0.3130059661
805295170.0 0.048368683 0.2974821876 -0.0672488009 -0.420932583 -0.0672171577 -0.4208422461 0.0422221912 0.3124582098
810295140.0 0.0518900262 0.2966836154 -0.0714648031 -0.4201125983 -0.0715906026 -0.4207300881 0.0457518374 0.3126218673
815295110.0 0.0550162875 0.2965237677 -0.0762463507 -0.4193543022 -0.0765149784 -0.4195665145 0.0484435445 0.312233332
820295080.0 0.0585019776 0.2956816763 -0.0808014741 -0.4184778644 -0.0806211012 -0.4190972437 0.0516348224 0.3117294989
825295050.0 0.0614773224 0.2954296474 -0.0854002751 -0.4172103144 -0.0856221207 -0.4178814221 0.0550617951 0.3116286094
830295020.0 0.0645704514 0.2951123748 -0.0899811038 -0.4166454631 -0.0900427716 -0.4171704806 0.0583861622 0.3109775118
