!Created with skrf (http://scikit-rf.org).
# Hz S RI R 50.0 
!freq ReS11 ImS11 ReS21 ImS21 ReS12 ImS12 ReS22 ImS22
300000.0 -0.7743603638 -0.096337769 -0.001585091 -0.0008753931 0.0009245067 0.0017279692 -0.0524709181 -0.0590209497
5299970.0 -0.7851476967 -0.0061618465 -5.64336e-05 0.0001323027 0.0001552432 -0.0001221528 -0.0500717492 0.0155759731
10299940.0 -0.7880856618 -0.0038865623 5.90501e-05 3.46527e-05 -3.92708e-05 1.906e-06 -0.0445030587 0.0337688607
15299910.0 -0.7935805332 -0.0022289998 -3.71371e-05 0.0002409838 2.41068e-05 9.1279e-06 -0.0357859053 0.0482451255
20299880.0 -0.8004046675 0.0016612865 0.0001496212 3.14807e-05 7.42736e-05 2.58334e-05 -0.0255305897 0.0597883601
25299850.0 -0.8062843092 0.0077062684 -0.000166205 0.0002474159 0.0002030681 4.09248e-05 -0.0141303337 0.0693661488
30299820.0 -0.8124616303 0.0152225933 -2.5584e-05 7.82922e-05 7.69492e-05 6.31979e-05 -0.0024033037 0.0758564479
35299790.0 -0.8177273215 0.0243612406 -0.0001067769 4.57522e-05 0.0001689946 -3.39323e-05 0.0091469384 0.0810816968
40299760.0 -0.8211406977 0.0335970671 -8.14635e-05 9.25625e-05 -1.95337e-05 8.24775e-05 0.0205543139 0.0833734506
45299730.0 -0.8247861168 0.0429441746 -5.3812e-06 -3.59733e-05 -5.87677e-05 4.41636e-05 0.0316283766 0.0849332212
50299700.0 -0.8271957857 0.0526889169 0.00014996 4.81834e-05 0.000147767 0.000211911 0.0414781184 0.0843597153
55299670.0 -0.8295418674 0.0631189407 -6.75721e-05 0.0001565018 0.0001088563 3.49974e-05 0.0508660291 0.0830832297
60299640.0 -0.8304989165 0.0729453278 4.2576e-05 -7.44123e-05 -6.52392e-05 0.0001429034 0.059394916 0.0814998111
65299610.0 -0.8308258838 0.0834701043 0.0001119383 5.56848e-05 9.88909e-05 -0.0001001099 0.0671400718 0.0789944552
70299580.0 -0.8313785961 0.0933827973 0.0002553983 6.86315e-05 -0.0001221731 -0.0001255324 0.0743897557 0.0759488552
75299550.0 -0.8321303821 0.1035754455 -0.0002145946 0.0001802686 -0.0002131328 -1.76149e-05 0.0807388951 0.0724217409
80299520.0 -0.8323908 0.1129581004 0.0001102665 6.78123e-05 7.81694e-05 0.000181204 0.086054899 0.0692480762
85299490.0 -0.830643892 0.1223332255 -6.85655e-05 -0.0001564728 -8.45753e-05 -0.0001450868 0.091161497 0.0650301885
90299460.0 -0.8302061137 0.1319885353 -0.0001488825 0.0001401611 0.0001138819 -8.71585e-05 0.0959929163 0.0608829202
95299430.0 -0.8293310946 0.1416397451 -9.73548e-05 0.0001228366 6.69228e-05 -6.89811e-05 0.1000959792 0.0572213299
100299400.0 -0.8279887663 0.1507838291 -5.13129e-05 -0.000118011 -8.27773e-05 5.85708e-05 0.1039078897 0.0529297304
105299370.0 -0.8270948226 0.1605857978 8.74623e-05 0.0001897737 9.6195e-05 -5.55471e-05 0.1070931097 0.0489238039
110299340.0 -0.8251919718 0.1696322362 0.0002241126 -0.0002017183 0.0002124363 4.68235e-05 0.109772156 0.0449168842
115299310.0 -0.823744549 0.1785454456 5.55855e-05 0.0001154209 -6.42726e-05 -7.37322e-05 0.1122783834 0.0410028363
120299280.0 -0.8221139825 0.1867737698 -2.96252e-05 0.0001422994 -0.000113399 -0.0001027419 0.1145374497 0.0371529348
125299250.0 -0.8203683017 0.1956568013 7.91835e-05 -0.0001454622 -4.1326e-05 0.0001054409 0.1162659524 0.0328772456
130299220.0 -0.8187831414 0.2054885154 5.6453e-06 0.0001023105 5.69353e-05 2.08735e-05 0.1182336746 0.0287835637
135299190.0 -0.8168384597 0.2140333846 0.0001028264 0.0001205457 9.1215e-06 7.70718e-05 0.1196221297 0.025603757
140299160.0 -0.8148177367 0.2234229405 -1.4361e-06 -7.75408e-05 2.84733e-05 7.72692e-05 0.1210232479 0.0218847824
145299130.0 -0.8129942307 0.2322785578 2.00743e-05 -1.208e-07 -1.36864e-05 3.28185e-05 0.1219026699 0.0184335899
150299100.0 -0.8103008271 0.2407230979 7.0146e-05 0.0001374904 1.29949e-05 0.0002281429 0.1227695016 0.0152143499
155299070.0 -0.8077491837 0.2492896501 0.0002415256 -2.01275e-05 3.54739e-05 -3.676e-06 0.1236465164 0.0115640218
160299040.0 -0.8052673484 0.2578622928 5.5742e-06 -0.0001347956 -4.24946e-05 0.0001056626 0.1238050647 0.0082822798
165299010.0 -0.8025968786 0.2664401163 8.61766e-05 -4.09384e-05 5.55097e-05 0.0001155661 0.1244536621 0.0051364781
170298980.0 -0.7996098259 0.2755656861 -0.0001282867 0.0001571481 -0.0001722984 0.0002766877 0.1250464342 0.0020238033
175298950.0 -0.7971236012 0.2838471239 0.0001280585 0.0001081752 7.82108e-05 -0.0001056123 0.1250361963 -0.0012075732
180298920.0 -0.7947874598 0.2928634125 8.6159e-05 -3.64189e-05 0.0001164611 6.8315e-06 0.1249910686 -0.0044725921
185298890.0 -0.7913453735 0.3007636945 -1.42213e-05 -0.0001142862 6.51295e-05 -0.0001327526 0.1250437837 -0.007288705
190298860.0 -0.7887554842 0.3095470713 5.56171e-05 -5.03008e-05 -0.0001204709 7.41902e-05 0.1252885339 -0.0100594346
195298830.0 -0.7858484936 0.3176898347 9.25535e-05 3.08213e-05 4.6186e-06 4.46069e-05 0.1248540617 -0.0130585035
200298800.0 -0.7813993917 0.3264444779 0.0001213494 -6.78852e-05 -7.1677e-05 5.30239e-05 0.1246374239 -0.0161337353
205298770.0 -0.7782092724 0.3344339352 3.31043e-05 0.000116576 -1.2862e-06 0.000192642 0.1244636064 -0.0186848185
210298740.0 -0.7746514903 0.3421798163 3.87646e-05 -3.6275e-06 9.14406e-05 -5.04144e-05 0.1240900757 -0.0211999922
215298710.0 -0.7721062008 0.3508929618 2.76532e-05 0.0001167992 -0.0001327404 0.0001574165 0.1234172401 -0.0240252682
220298680.0 -0.7673020186 0.3585408597 0.0001080572 0.0001149552 0.0001037635 0.000197091 0.1228015761 -0.0265306928
225298650.0 -0.7643157958 0.3664528479 -0.000158108 -0.0001100578 3.00612e-05 2.82585e-05 0.1220716734 -0.0288987768
230298620.0 -0.7604624802 0.3740150259 0.0002132809 -4.38187e-05 0.0001446595 5.09316e-05 0.1219792676 -0.0313407172
235298590.0 -0.7563580278 0.3830705574 -0.0001016069 -2.22814e-05 1.17065e-05 0.0002881393 0.1212959396 -0.0338962355
240298560.0 -0.7524804369 0.3908278376 -2.74297e-05 -6.81713e-05 -9.01e-06 0.00013651 0.1203948244 -0.0362144629
245298530.0 -0.7483583257 0.3984719863 9.75728e-05 0.0002000032 -7.90473e-05 0.0001271936 0.1198919431 -0.0389429289
250298500.0 -0.7442416997 0.4062937401 0.0001215145 -2.3599e-05 -1.6152e-05 0.0001774895 0.1189209099 -0.0410374852
255298470.0 -0.739473519 0.4137848282 -0.0001727031 2.12549e-05 0.0002192672 1.34982e-05 0.1179644431 -0.0432623881
260298440.0 -0.7355780106 0.4213174676 0.0001474496 0.0001415985 6.641e-07 -8.62177e-05 0.1173947192 -0.0450381912
265298410.0 -0.7315900871 0.4297631669 -3.31498e-05 0.0001014715 0.0001835886 -0.0001454049 0.1167565519 -0.0472364432
270298380.0 -0.7274197646 0.4367071305 -0.0001063413 -0.0001289782 -0.0001031859 0.0001213895 0.1159385551 -0.0491454169
275298350.0 -0.7225200204 0.444537781 2.42786e-05 4.9856e-06 5.64964e-05 2.10407e-05 0.1152179499 -0.0510280422
280298320.0 -0.7172293093 0.4523011031 -0.0001002112 -0.0001700253 0.0001205227 0.0002346287 0.1141210703 -0.0535373358
285298290.0 -0.7128622355 0.4598791771 -0.000155022 -0.0003195837 -0.0001219422 1.14113e-05 0.1129683716 -0.0555652968
290298260.0 -0.7079493632 0.4673914779 0.0001721845 2.80891e-05 -6.55031e-05 0.0001366441 0.1122558757 -0.0570629361
295298230.0 -0.7028024336 0.4741529361 -4.8436e-05 -0.0001548705 1.88005e-05 5.093e-06 0.1114638422 -0.0591763856
300298200.0 -0.6984463456 0.4817621002 -1.40641e-05 6.54877e-05 -1.1329e-05 6.78475e-05 0.1104528539 -0.0613220056
305298170.0 -0.6926972354 0.4879513472 0.0001555596 0.0001380054 0.0001625406 -6.94824e-05 0.1093979383 -0.063151358
310298140.0 -0.6874138324 0.4962113685 0.0002257554 0.0001785318 0.0001969013 9.87529e-05 0.1079313017 -0.0649288952
315298110.0 -0.6827198512 0.5028542438 5.14946e-05 0.0001342156 0.0001542623 4.49719e-05 0.1069737751 -0.0669674504
320298080.0 -0.6775377089 0.5099062061 -9.44743e-05 0.000142162 -0.000103301 -6.83735e-05 0.1055524923 -0.0688034559
325298050.0 -0.6718908892 0.5167688365 0.0002558137 -8.9363e-06 2.05551e-05 -0.0002355167 0.1040175869 -0.0707936612
330298020.0 -0.6661078109 0.5237568197 0.000202178 0.0001779002 0.0001624749 2.6461e-05 0.1025839751 -0.072520523
335297990.0 -0.6609440241 0.5304589738 5.07545e-05 0.0002060431 4.72354e-05 0.0002692576 0.1013691526 -0.0736646663
340297960.0 -0.6559625924 0.5375169242 -1.27551e-05 0.0001167914 4.40054e-05 1.01744e-05 0.1001285896 -0.0749682005
345297930.0 -0.6503381096 0.5442136348 0.0003054097 8.6832e-05 4.34513e-05 4.30423e-05 0.0983942762 -0.0766265611
350297900.0 -0.6447189677 0.5507446712 0.0002651609 9.15668e-05 0.0001176573 -7.6271e-06 0.0971039106 -0.0775859895
355297870.0 -0.6384118534 0.5578892357 -1.23621e-05 -2.4861e-06 0.0002170609 0.000100423 0.0957469702 -0.0792549649
360297840.0 -0.6330275602 0.5638666574 0.0001449809 0.0001425612 -0.0001388263 7.08946e-05 0.0941870855 -0.0806126336
365297810.0 -0.6273758151 0.5705940432 -0.000173704 0.0001469581 0.0001423566 6.64993e-05 0.0926800105 -0.0819661946
370297780.0 -0.6219121891 0.576661223 -9.99325e-05 -0.0001379126 2.59719e-05 5.2458e-06 0.0918346929 -0.0832058298
375297750.0 -0.6148635664 0.583343838 0.000227068 -7.49737e-05 0.0002233445 0.0001101108 0.0899778029 -0.0849670843
380297720.0 -0.6089581444 0.5885616948 -0.0001615187 9.36215e-05 5.8615e-06 7.8499e-06 0.0885695543 -0.08592609
385297690.0 -0.6035793041 0.5948088276 0.0002748334 9.49582e-05 0.0001485267 2.36813e-05 0.0871761315 -0.0873172543
390297660.0 -0.5972878942 0.6015947628 -7.5034e-05 -4.42538e-05 0.0002425683 8.54111e-05 0.0857364035 -0.0883585131
395297630.0 -0.58996515 0.6076225349 0.0001162289 0.0002133243 -1.72533e-05 -0.0002033664 0.0843882104 -0.0895410618
400297600.0 -0.5841376941 0.6138102156 0.0001377392 -9.9629e-05 0.0001402393 0.0001070193 0.0831051358 -0.0906725731
405297570.0 -0.5779681632 0.6192639747 -5.88706e-05 -5.2393e-05 9.49154e-05 -0.0001467262 0.0813688606 -0.0919364618
410297540.0 -0.5713225903 0.6253523595 -4.00967e-05 0.0002886323 0.0001704771 -2.669e-05 0.0801568076 -0.0928917191
415297510.0 -0.5646786453 0.6308818324 7.33993e-05 -0.0001459821 7.84136e-05 9.00073e-05 0.0785190621 -0.0941100531
420297480.0 -0.5592425935 0.6367733432 -2.54104e-05 -6.20976e-05 4.2019e-05 -7.22859e-05 0.0769693352 -0.0948020783
425297450.0 -0.5520579635 0.6427272033 0.0002475904 -0.0001051809 0.0001706898 3.42209e-05 0.0756853846 -0.0960205751
430297420.0 -0.545412432 0.6483945885 -8.94318e-05 -0.0001302098 -0.0001071796 3.79647e-05 0.0737737441 -0.0972487228
435297390.0 -0.5388145573 0.6534843534 -0.0001609543 7.69856e-05 0.0001899836 -7.78e-08 0.072527349 -0.0980869935
440297360.0 -0.5321935747 0.6586257052 1.46486e-05 -6.85038e-05 -0.0001187418 5.07326e-05 0.0710269029 -0.0991402096
445297330.0 -0.5250587885 0.6641278283 0.0001141838 -4.10349e-05 -5.45979e-05 -5.3292e-06 0.0692907076 -0.1005319516
450297300.0 -0.518317797 0.6689077414 2.53351e-05 0.0001234578 9.13011e-05 7.63614e-05 0.0677848886 -0.100630384
455297270.0 -0.5114276356 0.6743644008 0.0002969284 4.0161e-06 0.0001542828 8.73219e-05 0.0663230519 -0.1018536857
460297240.0 -0.5050685962 0.6793788572 0.0001334363 -5.51265e-05 7.3679e-06 0.0001014903 0.0649270565 -0.1024061391
465297210.0 -0.4980565273 0.6849124789 0.0002238616 9.77789e-05 5.8833e-05 0.0001009152 0.063306711 -0.103430301
470297180.0 -0.4905988699 0.6898399368 0.0001364699 -1.6382e-05 0.0001936226 -0.0001199264 0.0616679936 -0.1040830098
475297150.0 -0.4838473892 0.6942175013 0.0001396406 0.0002548953 1.3102e-06 9.26782e-05 0.0604478826 -0.1054242498
480297120.0 -0.4767530343 0.6992360069 0.0001531841 -0.0001025108 0.0001845853 -6.09868e-05 0.0587379098 -0.1057440198
485297090.0 -0.4694407784 0.7041904441 4.11503e-05 -0.0001018315 0.0001117953 -5.00306e-05 0.0573083388 -0.1063134798
490297060.0 -0.4624091712 0.7081296818 -4.59211e-05 -2.35453e-05 8.67683e-05 -0.0001191056 0.0553437798 -0.1072048363
495297030.0 -0.4553451871 0.7130197491 -0.0001017876 -5.69409e-05 2.97313e-05 0.0002666831 0.0537101252 -0.1078072286
500297000.0 -0.4476893591 0.717906261 0.0002509569 -6.81546e-05 -8.74117e-05 0.0001047245 0.0520226136 -0.1085436946
505296970.0 -0.4401466454 0.7223347335 4.5275e-06 9.74135e-05 0.0003464496 -0.0001698146 0.0504025419 -0.1089844344
510296940.0 -0.4334200838 0.7265046246 2.15182e-05 -4.03237e-05 -8.3872e-06 -0.0001217525 0.0487204842 -0.1096754006
515296910.0 -0.4251136793 0.7306908583 6.0477e-05 -9.76562e-05 1.16898e-05 4.43411e-05 0.0471280249 -0.1099063484
520296880.0 -0.418887152 0.7350287518 -0.0001154611 0.0001523491 -6.1005e-05 9.48594e-05 0.0454795264 -0.1106768607
525296850.0 -0.4107203185 0.7391933741 0.0001503109 0.0001052298 0.0001438765 8.67544e-05 0.0440709792 -0.1112852156
530296820.0 -0.4029360986 0.743090853 6.27752e-05 7.71408e-05 0.0001661886 -4.08641e-05 0.0424290496 -0.1115811711
535296790.0 -0.395953169 0.7472313517 0.0002631543 9.79958e-05 0.000124467 1.15081e-05 0.0398609007 -0.1120997957
540296760.0 -0.3883502199 0.7505376628 9.15907e-05 -0.000162736 2.46681e-05 0.0001074647 0.0386184104 -0.112790479
545296730.0 -0.3811652779 0.7547248905 -4.0974e-05 4.02284e-05 0.0001542922 -8.09117e-05 0.0369533539 -0.1131288327
550296700.0 -0.3735251103 0.758952741 0.0002970573 0.0001208175 -6.20036e-05 -3.28182e-05 0.035291734 -0.1135370008
555296670.0 -0.3653099671 0.7616358679 4.76649e-05 -7.35445e-05 9.22653e-05 -0.0001414619 0.0337462624 -0.1138223026
560296640.0 -0.3577428883 0.7661357506 9.16273e-05 -0.0003056898 9.96805e-05 6.31594e-05 0.0320275956 -0.1139752079
565296610.0 -0.3501546871 0.7697396682 1.79598e-05 -0.0002480032 0.000317427 -0.0001312271 0.0304617062 -0.1146021892
570296580.0 -0.3424987439 0.7720973151 4.81747e-05 -5.29415e-05 0.0002088572 -0.0001434043 0.0284800061 -0.1147117452
575296550.0 -0.3344208249 0.7766212602 0.0002389667 0.0001353433 2.97603e-05 5.61482e-05 0.0270218408 -0.1150123104
580296520.0 -0.3262675791 0.7790790401 0.000257293 -0.0001075622 -5.03364e-05 -0.0001029508 0.0255168967 -0.1155572212
585296490.0 -0.3192148642 0.7823630039 0.0001252051 2.07048e-05 -3.45595e-05 -0.0001774719 0.0238368614 -0.1157418183
590296460.0 -0.3107557436 0.7858164416 6.79473e-05 -0.0001743991 0.000153972 0.0001653674 0.0215407329 -0.1158892843
595296430.0 -0.3033765001 0.7882624726 -0.0001020862 0.0001249308 0.0002387723 3.87769e-05 0.0201546927 -0.1163513524
600296400.0 -0.2953841506 0.7917696271 -1.78545e-05 -6.12329e-05 0.0002853084 -7.0245e-05 0.0183796688 -0.1164034598
605296370.0 -0.2879009795 0.7944367614 1.69332e-05 2.09562e-05 0.0001063352 9.04813e-05 0.01706034 -0.1166540217
610296340.0 -0.2794186707 0.7974731931 0.0001634272 -0.0001138789 -2.68228e-05 2.90267e-05 0.0156281008 -0.1164487855
615296310.0 -0.2707254685 0.8001922758 0.0001943636 -8.58826e-05 9.68222e-05 4.89881e-05 0.0134859505 -0.1163672333
620296280.0 -0.2631848763 0.8019094279 0.0002928985 -9.675e-06 0.0001813431 7.54813e-05 0.0119431508 -0.1165416241
625296250.0 -0.2548822872 0.8054238792 1.32509e-05 4.8636e-06 -3.67516e-05 6.89598e-05 0.0105514157 -0.1164444637
630296220.0 -0.2465573088 0.8076019825 0.0001112833 -4.7301e-06 -8.66908e-05 -0.00014999 0.0084981776 -0.1167412219
635296190.0 -0.2387220576 0.8101293265 0.0003658286 8.51119e-05 0.000251448 0.0001332325 0.0071657888 -0.1165670888
640296160.0 -0.2313190371 0.8121076107 0.0001274901 7.53486e-05 0.0001545916 -0.0001286977 0.0052679967 -0.1166477023
645296130.0 -0.2227693855 0.8152921935 -6.60258e-05 -2.67892e-05 -0.0001235716 -3.6181e-06 0.0037125421 -0.1164856264
650296100.0 -0.2147755799 0.816357032 9.64431e-05 -4.23899e-05 0.000127259 2.95139e-05 0.0019278374 -0.1165983509
655296070.0 -0.206300424 0.8189085565 3.81583e-05 0.0002908723 0.0001329408 -0.0001786267 0.0004281133 -0.1165142346
660296040.0 -0.1982968458 0.8204501153 0.0003406392 2.437e-06 -6.3385e-06 -3.5971e-05 -0.0012256333 -0.1164318459
665296010.0 -0.1896067335 0.8221120719 0.0003811866 -7.57642e-05 0.000210665 -0.0003054542 -0.0029729818 -0.1159974947
670295980.0 -0.1820198446 0.824113647 0.0001186215 7.16475e-05 0.0002653181 -0.0002473826 -0.004800669 -0.1159579124
675295950.0 -0.1737405142 0.8263839241 -2.3256e-05 3.98729e-05 0.0001982488 0.0001614133 -0.0064809185 -0.1155314545
680295920.0 -0.1651213668 0.8282999268 2.47024e-05 -0.0002470254 0.0002550065 -0.000120558 -0.0078377711 -0.1151976535
685295890.0 -0.1573178612 0.8303619606 0.0002251206 -0.0001451731 0.0001433522 0.0002082943 -0.0097569701 -0.1149597963
690295860.0 -0.1487292992 0.8306946805 0.0005851037 -0.0002246241 0.0001145001 -2.44565e-05 -0.0115016579 -0.1142983964
695295830.0 -0.1408459605 0.8327414783 0.0004336291 4.31867e-05 2.4253e-06 -0.0001359697 -0.0131678034 -0.1144950855
700295800.0 -0.1319599261 0.8338175333 0.0003979015 -6.43526e-05 2.22403e-05 1.54313e-05 -0.0149051784 -0.1141735323
705295770.0 -0.1240469894 0.8354979165 0.0002238817 -8.58412e-05 -7.1567e-06 1.4663e-06 -0.0161769385 -0.1135255566
710295740.0 -0.1157656294 0.8358619575 -1.96392e-05 0.0001582269 -7.04241e-05 -0.0001114462 -0.0183321666 -0.1133699305
715295710.0 -0.1078502192 0.8370037535 0.0002782952 -0.0003580624 0.0001412287 3.90239e-05 -0.0193569779 -0.1131278165
720295680.0 -0.099051026 0.8387638475 -0.000139373 -0.0003221108 0.0001336086 -7.68556e-05 -0.0213895806 -0.1127381173
725295650.0 -0.0907479171 0.839448969 0.0001106503 0.0002291849 3.54549e-05 -7.39959e-05 -0.0233302575 -0.1118264752
730295620.0 -0.0825236901 0.8404512114 0.0001933002 -0.0002945352 0.0001789793 2.11123e-05 -0.0250940112 -0.1115855889
735295590.0 -0.0742632731 0.8411921714 0.0002292551 0.000106674 1.59867e-05 -0.0001436808 -0.0268241622 -0.1116011917
740295560.0 -0.066033821 0.8420504198 0.0002559584 1.14548e-05 9.98981e-05 -8.62719e-05 -0.0274867935 -0.1107264417
745295530.0 -0.0578832177 0.8425642811 0.0003164586 4.615e-07 0.0003522091 -6.73478e-05 -0.0294425785 -0.1101997076
750295500.0 -0.0490128722 0.8431256541 4.52394e-05 -8.70429e-05 9.66701e-05 -2.62244e-05 -0.0310815419 -0.1097564471
755295470.0 -0.0410474974 0.8434141574 8.48865e-05 -0.0001009838 0.000191628 6.77878e-05 -0.0327222348 -0.109324733
760295440.0 -0.0328206916 0.8432464647 1.48317e-05 7.42104e-05 6.92003e-05 2.45091e-05 -0.0341055651 -0.1090013025
765295410.0 -0.02457521 0.8436494721 0.0001605622 -1.33299e-05 0.0001334577 9.75901e-05 -0.0355986864 -0.108220265
770295380.0 -0.0163713704 0.8439563753 0.0001489641 0.0001065149 -1.0556e-06 -3.23645e-05 -0.0377921268 -0.1077187236
775295350.0 -0.0080394301 0.8439166038 1.97299e-05 -0.0002212195 8.82547e-05 -0.0002709999 -0.0391483329 -0.106911189
780295320.0 0.0006190725 0.8442418081 0.000111585 3.18608e-05 0.0003978718 -7.48836e-05 -0.0404085127 -0.1062002297
785295290.0 0.0086057914 0.8437742756 0.00019733 -0.0002333436 6.89449e-05 7.92646e-05 -0.0415657712 -0.1057126071
790295260.0 0.017563022 0.8437470524 0.0002051988 -0.0001765437 0.0002083322 2.4254e-06 -0.0432183484 -0.1048736136
795295230.0 0.0253988065 0.8435962252 3.04107e-05 0.0001183065 0.0003776639 -0.0001555449 -0.0447883438 -0.1043317092
800295200.0 0.0341787198 0.8431715956 0.0001934722 -6.032e-05 -1.83276e-05 -7.50512e-05 -0.0464189034 -0.1036160514
805295170.0 0.0426098766 0.8427606525 -2.5804e-05 -2.41072e-05 -0.0001143691 -1.87041e-05 -0.0479867338 -0.102523433
810295140.0 0.0505547882 0.8426163001 9.19789e-05 -8.37815e-05 0.0001469357 -0.0001054457 -0.0489234761 -0.1019768327
815295110.0 0.0592130898 0.8419302777 0.0002056135 2.69744e-05 7.80635e-05 -0.0001757981 -0.0505176976 -0.1012531007
820295080.0 0.0671629014 0.8414712955 0.0002356363 -0.0001734833 0.0001576988 -7.10072e-05 -0.0520321393 -0.100349591
825295050.0 0.076692889 0.8401283577 3.81348e-05 -0.0002202024 0.0001664226 2.4075e-05 -0.0536118085 -0.099527318
830295020.0 0.083465614 0.8396609956 0.0001192634 -0.0002173819 0.0001672492 -0.0001469577 -0.0544305215 -0.0986568588
835294990.0 0.091868743 0.8387909988 8.61868e-05 -2.57698e-05 -2.61022e-05 -0.0001340273 -0.0562642921 -0.0973843548
840294960.0 0.0994927118 0.8388163997 -5.9313e-05 0.0001488757 0.0002213676 -0.000265737 -0.0576282032 -0.0966275449
845294930.0 0.1086291923 0.8371775494 9.13537e-05 -0.0001825019 0.0002718781 -0.0002549731 -0.0593258438 -0.0956063839
850294900.0 0.1169967287 0.8361818753 0.0003782291 -0.000113714 0.0002390989 -9.25299e-05 -0.0606862976 -0.0946820185
