!Created with skrf (http://scikit-rf.org).
# Hz S RI R 50.0 
!freq ReS11 ImS11 ReS21 ImS21 ReS12 ImS12 ReS22 ImS22
300000.0 -0.2402620586 -0.0739563339 0.4729924747 0.0519774835 0.4689124471 0.0494375514 -0.2423703823 -0.0893209215
5299970.0 -0.244293876 0.007620288 0.4733268692 0.0044936957 0.4734038577 0.0044851953 -0.2440294005 0.0074863517
10299940.0 -0.2410179872 0.0188562145 0.4756311782 0.0060058243 0.4754566392 0.0059994883 -0.2403808584 0.0203947204
15299910.0 -0.236616693 0.0280579652 0.4792167975 0.0078110735 0.4792936929 0.0076894792 -0.2359575685 0.0297516626
20299880.0 -0.2319825419 0.0355883087 0.4837831711 0.0084245436 0.4837211945 0.0079538164 -0.2309453377 0.0376357951
25299850.0 -0.2270179167 0.0420793143 0.4889646483 0.0074962758 0.4891901644 0.0075722692 -0.2248084494 0.0441011344
30299820.0 -0.2214445704 0.0469901698 0.4945844086 0.0052388035 0.4945804729 0.0054147943 -0.2189901501 0.0492805365
35299790.0 -0.2161740519 0.051460183 0.4998620881 0.001773184 0.4999922449 0.0017187467 -0.2132190766 0.0533934256
40299760.0 -0.2114453323 0.0549287938 0.5048823857 -0.0015262883 0.5051252063 -0.0019191023 -0.2080812582 0.0562006353
45299730.0 -0.2068174559 0.0576793997 0.5098605966 -0.006696894 0.5099388252 -0.0064795724 -0.2033501267 0.0589612934
50299700.0 -0.20242002 0.0599360436 0.5145050628 -0.0119483533 0.5142512213 -0.0118072335 -0.1984153343 0.0610326288
55299670.0 -0.198360254 0.0615781176 0.5179907548 -0.0184206674 0.5176520369 -0.0182129908 -0.1944150358 0.0625984565
60299640.0 -0.194119732 0.0634142833 0.5210013088 -0.0243775307 0.5214304451 -0.0241429673 -0.1904135295 0.0629366064
65299610.0 -0.1912465871 0.0645956698 0.5237782471 -0.0307469909 0.5242563827 -0.0309280723 -0.1870729811 0.0643836698
70299580.0 -0.1881145822 0.0659335846 0.5264782348 -0.037384519 0.5267001196 -0.0369846281 -0.1842289599 0.064458864
75299550.0 -0.1850507674 0.0672013688 0.5284147491 -0.0444298345 0.5285527871 -0.0443331562 -0.1810324733 0.0653231807
80299520.0 -0.1823851549 0.0682622209 0.5304256078 -0.0512756576 0.5305883634 -0.051085012 -0.1785725683 0.0659190821
85299490.0 -0.1801851061 0.0686674743 0.5314524642 -0.0575972349 0.5319624581 -0.0575523064 -0.1762841007 0.0660149796
90299460.0 -0.1779890362 0.0699066922 0.5327136641 -0.0650779141 0.5327923588 -0.0647600955 -0.1737922576 0.0666954964
95299430.0 -0.1753687777 0.0701839946 0.5336996921 -0.0715778749 0.5337043854 -0.0720904221 -0.1716157199 0.0672051635
100299400.0 -0.1739145558 0.0716828098 0.5334407119 -0.0785417267 0.5339512025 -0.0788753162 -0.1695808568 0.0671658631
105299370.0 -0.1720134867 0.0724118843 0.5342629461 -0.0858846657 0.5347448501 -0.0857768052 -0.1677451352 0.0678809393
110299340.0 -0.170386211 0.0734254853 0.5347025489 -0.0924641563 0.5343975384 -0.0924122441 -0.1663438014 0.0683650056
115299310.0 -0.1687220412 0.074123411 0.5344115771 -0.0993164358 0.5344830607 -0.0991471899 -0.1650972182 0.0687491202
120299280.0 -0.1673125349 0.0747822248 0.5340623165 -0.1062193856 0.5342698842 -0.1064151389 -0.163583309 0.0693594432
125299250.0 -0.1659405282 0.0754593051 0.5341324343 -0.1126831821 0.533868057 -0.1129354835 -0.1624412944 0.0696392051
130299220.0 -0.1650471126 0.0768307637 0.5331415602 -0.1198468031 0.5332213714 -0.1195148597 -0.1612244714 0.0701385766
135299190.0 -0.1635893023 0.0779549193 0.5326766572 -0.1264090843 0.5323683874 -0.1262651508 -0.159935595 0.0710760765
140299160.0 -0.1626334051 0.078975902 0.5319843522 -0.133368632 0.5320119408 -0.1330102809 -0.15868497 0.0719722249
145299130.0 -0.1614235006 0.0799329072 0.5312003552 -0.1394928335 0.5304987605 -0.1395559734 -0.157715871 0.0725200339
150299100.0 -0.1598975216 0.0812105584 0.5294784295 -0.1453869038 0.5299997418 -0.1456911425 -0.1568977209 0.0739239131
155299070.0 -0.1593242928 0.0819535133 0.5288126098 -0.152602606 0.5281329131 -0.1527501253 -0.1557614389 0.0745422632
160299040.0 -0.158028103 0.0834588112 0.5271351138 -0.1590952919 0.5266249279 -0.1592005883 -0.1554947809 0.0755462729
165299010.0 -0.1573138781 0.0847132253 0.5256337757 -0.1657670671 0.5257653789 -0.1654846609 -0.1541172602 0.0766416104
170298980.0 -0.156445507 0.0858568849 0.5239092931 -0.1720444473 0.5247042045 -0.1719203086 -0.1533065777 0.0774858768
175298950.0 -0.1557284522 0.0868779516 0.5228000108 -0.1780313239 0.5224732774 -0.178137911 -0.1527436877 0.078550355
180298920.0 -0.1545933386 0.088459383 0.5211547928 -0.1842575503 0.5206031512 -0.1845210742 -0.1517554766 0.0797394371
185298890.0 -0.153265302 0.0895707771 0.5186163897 -0.1907869173 0.5189007388 -0.1907189921 -0.1510143637 0.0813142444
190298860.0 -0.1527564987 0.090905003 0.5174792167 -0.1968442189 0.5172466222 -0.1963714508 -0.1503267377 0.0817301624
195298830.0 -0.1517130441 0.0918697539 0.5148226645 -0.2026820782 0.5153780424 -0.202758251 -0.1495141387 0.0830734393
200298800.0 -0.1508150559 0.0936599418 0.5131885249 -0.2092927914 0.5131617746 -0.2092813817 -0.1495408569 0.0841327517
205298770.0 -0.1496280505 0.0950689957 0.5106152911 -0.2152266413 0.5105648323 -0.2152671463 -0.1482438118 0.084873635
210298740.0 -0.1487709812 0.0965140624 0.5082362718 -0.2210988426 0.5083889145 -0.2210492417 -0.1480228499 0.0869751768
215298710.0 -0.1483555506 0.0979395778 0.5064265647 -0.227107091 0.5060721621 -0.2271642345 -0.1473179328 0.0878268334
220298680.0 -0.1469616855 0.0987437366 0.5036404776 -0.2327068985 0.5035582583 -0.2328525824 -0.1466954767 0.0886941793
225298650.0 -0.14621468 0.1003483699 0.5012023949 -0.2386674295 0.5016447301 -0.2388050616 -0.1465598738 0.0898617215
230298620.0 -0.1450465803 0.1022131639 0.4986799981 -0.2441249663 0.4992427034 -0.2446433596 -0.1456350081 0.0907743925
235298590.0 -0.1443657588 0.1038282725 0.4961083578 -0.2504534655 0.4961156573 -0.2500213875 -0.1446636659 0.0920786647
240298560.0 -0.1430560787 0.1049486394 0.4937840686 -0.2562887318 0.4933238858 -0.2562929506 -0.1436648446 0.0940526402
245298530.0 -0.1421793544 0.10643046 0.4911533778 -0.2617080496 0.4909234948 -0.2617870941 -0.1428327679 0.0943156361
250298500.0 -0.1408904197 0.1080793384 0.4871924927 -0.2673935555 0.4872016919 -0.2673229215 -0.1425291562 0.0960303873
255298470.0 -0.140201804 0.1090221603 0.484298093 -0.2726200613 0.4849161983 -0.2731503634 -0.1417468157 0.0970016457
260298440.0 -0.1390991852 0.1104557311 0.4816863274 -0.278800695 0.4820877235 -0.2782649482 -0.1406037012 0.0981892048
265298410.0 -0.1376032915 0.1124138119 0.4788162816 -0.284535542 0.4789169417 -0.2838278127 -0.1399288248 0.0996072907
270298380.0 -0.1367081043 0.1138281026 0.4761273986 -0.2891909056 0.4757532514 -0.2897249188 -0.1392828209 0.100837217
275298350.0 -0.1353240176 0.1151459663 0.4729379478 -0.2950661468 0.4728559737 -0.2949240395 -0.137950309 0.1016649761
280298320.0 -0.1338976139 0.1168585449 0.4694283204 -0.3006159299 0.4693444585 -0.3005891581 -0.1372436454 0.1030115214
285298290.0 -0.1328303819 0.1181074626 0.4662922692 -0.3055984995 0.4659524905 -0.3055298525 -0.136094765 0.1042570281
290298260.0 -0.1316021308 0.1196362351 0.4628347307 -0.3105356833 0.4629583156 -0.3109473446 -0.1349037328 0.1057442013
295298230.0 -0.1302777561 0.1207779549 0.4593630949 -0.3160368226 0.4594785931 -0.3162945744 -0.1338711978 0.106572648
300298200.0 -0.1292303463 0.1223853918 0.456352909 -0.3212809678 0.4561943396 -0.3216516379 -0.133009502 0.1079022868
305298170.0 -0.1275859991 0.1233717884 0.4523405042 -0.326648522 0.4525564867 -0.3265555625 -0.1313170637 0.1088054591
310298140.0 -0.1262807767 0.1253370606 0.449052234 -0.3320623978 0.4491097213 -0.3319612458 -0.1305730115 0.1101400959
315298110.0 -0.1251238576 0.1260048928 0.4452248255 -0.3372442237 0.4455972052 -0.3369705627 -0.129542965 0.1110939617
320298080.0 -0.1237109584 0.1276871555 0.4409467415 -0.3424841662 0.4413993795 -0.3419061131 -0.1287259385 0.1125784391
325298050.0 -0.122486606 0.1288936199 0.4374898588 -0.347518835 0.4377636686 -0.3469848616 -0.1277720443 0.1137989163
330298020.0 -0.1214400088 0.129803382 0.4333846847 -0.35216842 0.434107736 -0.3521352863 -0.1270350031 0.1154236697
335297990.0 -0.1200483502 0.1312392465 0.4297653972 -0.3570519006 0.4295474086 -0.3569196455 -0.1262891156 0.1167909274
340297960.0 -0.1191954586 0.1330273109 0.4254201756 -0.3616856386 0.4254478965 -0.3620209313 -0.1250383257 0.1181807867
345297930.0 -0.1176343398 0.1344758794 0.4211061315 -0.3666474732 0.4214156299 -0.3667071242 -0.1241281048 0.1193837626
350297900.0 -0.1166533569 0.1353865041 0.4166170954 -0.3710099005 0.4170230321 -0.3711669606 -0.1231917679 0.1210100428
355297870.0 -0.1150130332 0.1375237558 0.4133055113 -0.3758001638 0.4131295405 -0.3753011967 -0.1223214782 0.1217822032
360297840.0 -0.1137370337 0.138542162 0.4091667797 -0.3798592224 0.4092771923 -0.3799811028 -0.1214875773 0.1234781957
365297810.0 -0.1125833758 0.1403042272 0.4046433475 -0.3850830083 0.4048554937 -0.3848423056 -0.1201941857 0.1248251885
370297780.0 -0.1107198651 0.1413427978 0.4003966019 -0.3889839522 0.4005890401 -0.3887860489 -0.1190034568 0.1266068334
375297750.0 -0.1091777912 0.1427397883 0.3964256976 -0.3935567563 0.3963517037 -0.3937150347 -0.1177842067 0.1273682679
380297720.0 -0.1077595814 0.1438535036 0.3914807558 -0.3977882353 0.391742813 -0.3973184333 -0.1171740737 0.1287636139
385297690.0 -0.1064513769 0.1455328052 0.387226825 -0.4017297227 0.3870048973 -0.4021253515 -0.1155819804 0.1301428875
390297660.0 -0.1052094355 0.1470632016 0.3834513617 -0.4064319408 0.3826049018 -0.4060414872 -0.1146258279 0.1314429395
395297630.0 -0.1032348257 0.148205856 0.3786216397 -0.4107342397 0.3784827773 -0.4107258722 -0.1132299074 0.1328883832
400297600.0 -0.101726796 0.1493811294 0.3735645961 -0.4152584165 0.3740349708 -0.414944886 -0.1123679811 0.1341306224
405297570.0 -0.1004088334 0.1509077022 0.3695086504 -0.418655667 0.369206576 -0.4185295635 -0.1113416897 0.1350170363
410297540.0 -0.0987197694 0.1520480115 0.3647296038 -0.4228420719 0.3650612107 -0.4232439726 -0.1102697408 0.1367318063
415297510.0 -0.0965340754 0.1528525656 0.3599889033 -0.4267274848 0.3604137495 -0.4268630092 -0.1089978072 0.1377250377
420297480.0 -0.0950506475 0.1545160186 0.355407368 -0.4308074145 0.3548943302 -0.4309315092 -0.1076267452 0.1384817295
425297450.0 -0.0933762892 0.1554977813 0.3505770251 -0.4351112425 0.3508967006 -0.434701465 -0.1066866753 0.1398896714
430297420.0 -0.0919693576 0.1566545878 0.3458891468 -0.4380514529 0.3454264529 -0.438153741 -0.1054934639 0.1410156595
435297390.0 -0.0901640592 0.1578178705 0.3407839826 -0.4423453478 0.3408579963 -0.4420304401 -0.1034803033 0.1420026762
440297360.0 -0.0882002952 0.1590263152 0.3360656579 -0.4458755703 0.3359136755 -0.4459806226 -0.102500883 0.1429670142
445297330.0 -0.0868954024 0.1597216535 0.3316764517 -0.4494796202 0.3314524526 -0.4493863908 -0.1009778786 0.1435367177
450297300.0 -0.0848808126 0.1610724417 0.3262499328 -0.4533335013 0.3260521106 -0.4534821097 -0.0996557594 0.1447993602
455297270.0 -0.0831142977 0.1619368736 0.3211305385 -0.4565669891 0.3213973077 -0.4565226769 -0.0983340025 0.1456788956
460297240.0 -0.0815222902 0.1631781249 0.3160882827 -0.4598255642 0.3162224209 -0.4601740683 -0.0968360193 0.1472549256
465297210.0 -0.0795719751 0.1642105452 0.3116263927 -0.4632831754 0.3110556197 -0.4637821023 -0.0952441976 0.1479335589
470297180.0 -0.0777138913 0.1649336777 0.3057396355 -0.4667947722 0.3061427003 -0.4668416974 -0.0937387287 0.1492151063
475297150.0 -0.07612676 0.1658781995 0.3010292828 -0.4697438901 0.3011658684 -0.4698638329 -0.0921170196 0.1498021214
480297120.0 -0.0742350448 0.167234581 0.2958019636 -0.4736235791 0.2956380618 -0.4735638372 -0.0903602089 0.1511116892
485297090.0 -0.0723824144 0.168032044 0.291039175 -0.4761510981 0.2907047395 -0.4761197074 -0.0891022665 0.1520104254
490297060.0 -0.071123756 0.1689474971 0.2857134883 -0.4798550324 0.2857307879 -0.4792856139 -0.0873699386 0.1532344845
495297030.0 -0.0688008363 0.1696890657 0.2802267548 -0.4828525969 0.280529098 -0.4824119337 -0.0863148403 0.154217398
500297000.0 -0.0669452628 0.1705801228 0.2744495801 -0.4853359277 0.2746740261 -0.4853489499 -0.0846069547 0.1556717249
505296970.0 -0.065082711 0.1713686756 0.2698343971 -0.4883684244 0.2692967363 -0.4887792896 -0.0827645562 0.1563831779
510296940.0 -0.0632649777 0.1725590549 0.2640240364 -0.4914431208 0.2636963325 -0.4917868237 -0.0813185877 0.1573959049
515296910.0 -0.0611992948 0.1731489727 0.258317634 -0.4946142952 0.2587448613 -0.4939195493 -0.0801532949 0.1583965868
520296880.0 -0.0593649471 0.1743775024 0.2535864733 -0.4977100499 0.2532747472 -0.497114624 -0.078567784 0.1593466403
525296850.0 -0.0572747655 0.174390866 0.2477154861 -0.4999377344 0.24798826 -0.5000427198 -0.077002756 0.1605243888
530296820.0 -0.0553645193 0.1758223197 0.242227957 -0.502618805 0.2425509726 -0.5023572763 -0.0753428543 0.1613091353
535296790.0 -0.0537909288 0.1764361134 0.2371096175 -0.5048425947 0.2371089512 -0.5046977443 -0.0739160469 0.1619864932
540296760.0 -0.0516743656 0.1772188892 0.2314387577 -0.5075398906 0.2313711238 -0.5079467823 -0.0727444919 0.1632072637
545296730.0 -0.0499117159 0.1779738297 0.2255978567 -0.5099704217 0.2259226545 -0.5099207092 -0.0711956795 0.1641240584
550296700.0 -0.0475755294 0.1787419552 0.2204931785 -0.5127720554 0.2204326012 -0.5125262694 -0.0697437171 0.1651322297
555296670.0 -0.0459739057 0.1791103866 0.2151431581 -0.5146296425 0.2152940387 -0.5147651863 -0.068084243 0.1661007398
560296640.0 -0.0435130075 0.1800373222 0.2088983062 -0.5173490267 0.2093044081 -0.5172730835 -0.066460378 0.1668378489
565296610.0 -0.0417190467 0.1803917463 0.2034746535 -0.5192926454 0.2037130898 -0.5193768349 -0.0652177111 0.1672671954
570296580.0 -0.0401203063 0.1813795535 0.197737299 -0.5219908056 0.1972347984 -0.521676243 -0.0634145035 0.168662081
575296550.0 -0.0379964974 0.1823467676 0.1922745679 -0.5242542706 0.1920363208 -0.5236143313 -0.0617795888 0.1689812161
580296520.0 -0.0357027317 0.1823976168 0.1863634886 -0.5260410985 0.1864852929 -0.5255651413 -0.0603699753 0.1694544807
585296490.0 -0.033924513 0.1824097259 0.1807926845 -0.5272676885 0.1810425023 -0.5279328534 -0.0588418876 0.1705370732
590296460.0 -0.0316141834 0.1834981831 0.1751225297 -0.5287651716 0.1752484588 -0.5293231871 -0.0574804318 0.1713893505
595296430.0 -0.029546283 0.1838282327 0.1688696143 -0.5314737522 0.1691519998 -0.5312783153 -0.0554035663 0.1715002717
600296400.0 -0.0278843045 0.1843674997 0.1635211046 -0.5331536454 0.1636981799 -0.5328748079 -0.0541870197 0.1723307274
605296370.0 -0.0257067134 0.1846580552 0.1574870106 -0.5347641601 0.1581032514 -0.5345044578 -0.0521192456 0.1726417817
610296340.0 -0.0239852241 0.1851994654 0.1514981785 -0.5364032692 0.1518278954 -0.5364444168 -0.0502528436 0.1731071772
615296310.0 -0.0212538675 0.1849833905 0.1456910058 -0.5376301204 0.1455027364 -0.5386617825 -0.0486881752 0.1740450513
620296280.0 -0.0198132414 0.1855392837 0.1404812736 -0.5392968133 0.1400069689 -0.539448417 -0.0471975464 0.1745443335
625296250.0 -0.0176830258 0.1856935457 0.1343395881 -0.541171533 0.1343996432 -0.5415233183 -0.0447127259 0.1750311074
630296220.0 -0.0149510348 0.1861563944 0.1278008467 -0.542330199 0.1279672601 -0.5425186454 -0.0433809865 0.1757247189
635296190.0 -0.0137294713 0.1866544228 0.1228241142 -0.5433327309 0.1222982797 -0.5437948206 -0.0416844836 0.1760127598
640296160.0 -0.0115383156 0.1870225053 0.1169310345 -0.5450495414 0.1169875805 -0.5448312885 -0.0400342904 0.1767249734
645296130.0 -0.0094103817 0.1872974948 0.1105440891 -0.5458056347 0.1110722692 -0.5460955476 -0.0381363053 0.1774361223
650296100.0 -0.0072451853 0.1875430748 0.1048905384 -0.5468155707 0.1048191781 -0.5472427934 -0.0360034443 0.1773382893
655296070.0 -0.0053823704 0.1876102425 0.0989929348 -0.5482313362 0.0990263514 -0.5483465549 -0.0340290489 0.1781395704
660296040.0 -0.0036690244 0.1873823655 0.0933159578 -0.549020763 0.0932596195 -0.5494011299 -0.0324824925 0.1785850231
665296010.0 -0.0010078867 0.1873975392 0.0868297223 -0.5500376324 0.0868870659 -0.5504529247 -0.0305069887 0.179231973
670295980.0 9.47408e-05 0.1880036038 0.081316092 -0.5507022062 0.0810499617 -0.5509376739 -0.0293627615 0.1795350615
675295950.0 0.0028007052 0.1882862078 0.0754579343 -0.5517029509 0.0753081824 -0.5513937829 -0.0276447842 0.1803936059
680295920.0 0.0045827534 0.1881579885 0.0692398781 -0.5524915007 0.0686875542 -0.5528714772 -0.0254713249 0.1810432004
685295890.0 0.0068057718 0.1885110264 0.0629065117 -0.552760853 0.0629686506 -0.5532482081 -0.0237966729 0.1815756256
690295860.0 0.009265899 0.1884714845 0.0571720443 -0.5536500942 0.0573845357 -0.5543913893 -0.0220769229 0.182378101
695295830.0 0.0109750597 0.1886010387 0.0517171749 -0.553956123 0.0508484831 -0.55442258 -0.0200841881 0.1824839546
700295800.0 0.0131606991 0.1882650384 0.0453078634 -0.5547357869 0.0448037372 -0.5546728675 -0.0186091698 0.1832087146
705295770.0 0.0152816155 0.1891077432 0.039145109 -0.5551874095 0.0393636255 -0.5553597399 -0.0170022778 0.1837796072
710295740.0 0.0173067679 0.1887167778 0.033474023 -0.5562287209 0.0334699542 -0.556063286 -0.0152496964 0.1832775759
715295710.0 0.0190494219 0.1884250288 0.0277908818 -0.5561819171 0.0268034489 -0.555955705 -0.0128300503 0.1838952891
720295680.0 0.02150093 0.1885018842 0.0212251312 -0.5563385457 0.0216821186 -0.5562634965 -0.011580663 0.1846471369
725295650.0 0.0237023379 0.1884611228 0.0155068598 -0.5565652135 0.0152450587 -0.5566069181 -0.0096973216 0.1852582297
730295620.0 0.0258191092 0.1884985472 0.0092760467 -0.5563175301 0.0088518344 -0.5563513674 -0.0083999565 0.1848911034
735295590.0 0.0279915463 0.1882092965 0.0034926507 -0.5570956763 0.003247947 -0.556723803 -0.0064412908 0.1851142254
740295560.0 0.0294804688 0.1885056828 -0.0024563284 -0.5568422879 -0.002671983 -0.556234272 -0.0043964327 0.1854610837
745295530.0 0.0318487776 0.1880544333 -0.008905261 -0.556103754 -0.0087943461 -0.556617879 -0.0028918886 0.1852439675
750295500.0 0.0340773616 0.1877471855 -0.0148023353 -0.5562564493 -0.014467248 -0.5564821732 -0.0012638552 0.185747652
755295470.0 0.0361864276 0.1870309502 -0.0205487954 -0.5559865 -0.0211276435 -0.556103973 0.0007237593 0.1854472596
760295440.0 0.0380684634 0.1870274916 -0.0266785111 -0.5557576817 -0.0270287463 -0.5560662945 0.00249509 0.1858737967
765295410.0 0.0400749843 0.1868937418 -0.0331262671 -0.5555625766 -0.0334924798 -0.5556244983 0.0043507167 0.1860722186
770295380.0 0.0421555279 0.1864528375 -0.0387322092 -0.555044788 -0.0390267459 -0.5549127867 0.0054082176 0.185795087
775295350.0 0.0438314547 0.1856978296 -0.0449050706 -0.5542170562 -0.0443010956 -0.5542931063 0.0069785293 0.1861216627
780295320.0 0.0463397603 0.1854633367 -0.0511141359 -0.5540149002 -0.0499942378 -0.5536649179 0.0092481828 0.185680144
785295290.0 0.0477949517 0.1846759204 -0.0567028807 -0.5528868229 -0.0565821653 -0.5532169682 0.0116938708 0.1858177145
790295260.0 0.050395405 0.1849523813 -0.0623223085 -0.5525874772 -0.0618354602 -0.5523670824 0.0132476787 0.1861315318
795295230.0 0.0522842342 0.1844376368 -0.0684309331 -0.5517480025 -0.0681840916 -0.5517392523 0.0154139467 0.1859173246
800295200.0 0.0540634622 0.1839593794 -0.075209745 -0.5505535723 -0.0745506116 -0.5511497678 0.0170527721 0.1858080337
805295170.0 0.0562935257 0.1833599764 -0.0805287199 -0.5500802625 -0.0803949686 -0.5502671954 0.0187292822 0.1859301891
810295140.0 0.0581690419 0.1824645404 -0.0859642765 -0.5491570773 -0.0862517846 -0.5493106027 0.0211195831 0.1858291736
815295110.0 0.0601141444 0.1819420059 -0.0918742719 -0.5478956417 -0.091893187 -0.548214269 0.0227052977 0.1859262693
820295080.0 0.0620822021 0.1822791806 -0.0979187684 -0.5468081897 -0.097554373 -0.5472341701 0.0245215266 0.1859204893
825295050.0 0.0643919959 0.18115947 -0.1036863903 -0.5456414833 -0.1038643119 -0.5459905276 0.0267421817 0.185715759
830295020.0 0.066290037 0.1808665499 -0.1098811392 -0.5447429647 -0.1098886362 -0.5444486795 0.0287600223 0.185608455
