!Created with skrf (http://scikit-rf.org).
# Hz S RI R 50.0 
!freq ReS11 ImS11 ReS21 ImS21 ReS12 ImS12 ReS22 ImS22
300000.0 -0.2089115157 -0.0978543745 -0.0008688076 0.001477849 0.0010925414 0.0009399532 -0.7665155851 -0.1916361537
5299970.0 -0.2153645669 0.0069327564 -5.39842e-05 -4.9279e-05 -6.8093e-06 -2.42056e-05 -0.7849253933 -0.0093778343
10299940.0 -0.2115734536 0.0201345221 -3.73164e-05 -6.52722e-05 -7.4278e-06 8.92842e-05 -0.787709836 -0.0053749075
15299910.0 -0.2065302441 0.0300205252 -1.4164e-06 8.2285e-06 -3.61315e-05 -9.57516e-05 -0.7930775507 -0.0022382741
20299880.0 -0.2006006128 0.0382537966 6.80816e-05 0.0001272225 -9.09995e-05 6.59216e-05 -0.8000280725 0.0017797033
25299850.0 -0.1940744037 0.0447890457 0.0002664528 -0.0001225875 7.66985e-05 5.35146e-05 -0.8060941617 0.0079201673
30299820.0 -0.1877713685 0.0496810997 5.30295e-05 -0.0001084148 -0.0001079118 0.0002404375 -0.8123185397 0.0157997872
35299790.0 -0.1815084515 0.0533174639 -6.89239e-05 -3.45186e-05 0.0001330046 0.0001880875 -0.8171178703 0.0245199282
40299760.0 -0.1754402766 0.0561739488 3.78057e-05 8.35209e-05 0.0001400969 0.0001058818 -0.8213594234 0.0336459745
45299730.0 -0.1697938457 0.0581452592 4.53955e-05 0.000115667 0.000134482 1.94348e-05 -0.8239955178 0.0437990796
50299700.0 -0.1644779653 0.0596419172 -0.0002385308 9.9754e-05 -1.85205e-05 -6.51782e-05 -0.8268490547 0.0539240661
55299670.0 -0.1596800137 0.0604899877 5.4591e-06 -8.463e-05 -0.0001137416 7.03518e-05 -0.8286218147 0.0638291811
60299640.0 -0.1551819594 0.0609538962 -0.0001584244 2.08203e-05 9.0764e-05 -1.04442e-05 -0.8297574024 0.0736609591
65299610.0 -0.1510776206 0.0613824709 -6.77296e-05 -0.0002940089 -2.54342e-05 1.47652e-05 -0.8308061731 0.0839175584
70299580.0 -0.1477936816 0.0616020482 -0.000130053 -0.0001213753 -2.88569e-05 0.0001905272 -0.8311558926 0.0932718407
75299550.0 -0.1446448265 0.0616975957 0.0003344625 8.79572e-05 -4.02239e-05 4.15711e-05 -0.8307663444 0.1039320377
80299520.0 -0.1417652574 0.0614099551 9.6535e-05 -6.04462e-05 -6.38092e-05 1.917e-05 -0.8307793173 0.1139657682
85299490.0 -0.1389870152 0.0611136329 0.000116131 -8.13559e-05 7.7158e-05 0.0001771168 -0.8296533847 0.1233614977
90299460.0 -0.1361333094 0.0607490438 -5.21008e-05 2.2099e-06 -0.000196597 0.0001093212 -0.82916348 0.1328315285
95299430.0 -0.1343748145 0.0608083982 -9.42165e-05 -0.0001290304 8.88166e-05 -4.53758e-05 -0.8282721349 0.1429280172
100299400.0 -0.132208045 0.0604055421 8.52167e-05 7.36777e-05 9.66322e-05 3.90272e-05 -0.8272783305 0.1517307676
105299370.0 -0.1305238361 0.0601434458 6.02074e-05 0.0001844846 3.0828e-06 -0.0001589656 -0.8260402543 0.1602866558
110299340.0 -0.1288393104 0.0600712418 3.0793e-06 -0.0001480798 5.46295e-05 -0.0001395422 -0.8242982732 0.1695073033
115299310.0 -0.1276028277 0.0600423798 7.40378e-05 0.0001111205 -1.6648e-06 -8.96286e-05 -0.8232516892 0.1790547081
120299280.0 -0.1259497482 0.0599536071 -0.000193236 0.0003211081 0.0001289741 -9.70591e-05 -0.8212381906 0.1880084056
125299250.0 -0.1248670553 0.0598110736 6.69732e-05 7.13887e-05 -0.0001120792 8.21366e-05 -0.8198118419 0.1971508998
130299220.0 -0.1239504353 0.0599167759 6.2419e-06 3.857e-05 3.59329e-05 1.5753e-05 -0.8181134396 0.2057645386
135299190.0 -0.1226991732 0.0599241562 1.975e-06 0.0001878556 -0.0001000783 8.27908e-05 -0.8158085036 0.215218864
140299160.0 -0.1218345918 0.0601172022 5.45952e-05 8.91045e-05 -6.6101e-05 0.0001402768 -0.8139156715 0.2230684175
145299130.0 -0.1207684211 0.0605605518 8.64854e-05 -5.17831e-05 0.0001231998 0.0002253928 -0.8124521399 0.2325988902
150299100.0 -0.1201310701 0.0605497814 -0.0001374596 2.07126e-05 1.24158e-05 0.0001237181 -0.8094527614 0.2417507296
155299070.0 -0.1193801565 0.0613190528 2.89975e-05 -0.0001268103 0.0001136794 -4.78005e-05 -0.8071137506 0.2504703539
160299040.0 -0.1187949691 0.0615798572 -0.0001838217 0.000143826 0.0001122815 0.0001380884 -0.804773099 0.2590796388
165299010.0 -0.1178501826 0.0617847768 -1.15998e-05 2.16838e-05 0.0002309047 0.0002045147 -0.801687174 0.2671780711
170298980.0 -0.1174575364 0.0622038201 0.000130529 0.0001945907 1.08893e-05 -4.75858e-05 -0.7996311707 0.2756233182
175298950.0 -0.1167991095 0.0629468106 0.0001731747 5.08222e-05 -0.0002547616 -0.0001124964 -0.7968065659 0.284926563
180298920.0 -0.1162591581 0.063035719 7.94978e-05 -7.41843e-05 -0.0002273894 5.26991e-05 -0.7933238378 0.2930942846
185298890.0 -0.1156484833 0.0634244894 6.6533e-05 -5.46498e-05 -7.83996e-05 0.0001633528 -0.7904266216 0.3020803414
190298860.0 -0.114930479 0.0648254721 0.0001092716 0.0002253697 5.93634e-05 0.0002166223 -0.7873339873 0.3100616073
195298830.0 -0.1144032227 0.0652416423 -0.0001038743 5.2199e-05 -0.0001705273 9.17706e-05 -0.7844520738 0.3185379019
200298800.0 -0.1136034647 0.065578285 -0.0001200019 0.000127716 4.12299e-05 0.0002148441 -0.7809157755 0.3267730957
205298770.0 -0.1137641999 0.0666089823 9.47048e-05 0.0004104375 0.0001059827 0.0002489426 -0.777732053 0.334930153
210298740.0 -0.1131102047 0.0670508548 3.75154e-05 6.21037e-05 -6.05378e-05 -0.0001635761 -0.7742018131 0.343030701
215298710.0 -0.112815295 0.0679109647 -7.74385e-05 -7.3761e-06 7.09435e-05 2.97566e-05 -0.7704366918 0.3509354867
220298680.0 -0.1120782087 0.0684039779 -2.65012e-05 0.0003049682 1.35959e-05 6.52228e-05 -0.7666038262 0.3595304362
225298650.0 -0.1117107694 0.0694725956 0.0001153179 0.0002467819 0.0002185626 0.0002637245 -0.7631126924 0.3674835101
230298620.0 -0.1111161037 0.0705351212 -3.90695e-05 0.0001475168 0.000358966 -1.7299e-06 -0.7588569916 0.3756855001
235298590.0 -0.110948265 0.0713263483 2.27333e-05 0.0002374445 -0.000129162 7.04101e-05 -0.7552280202 0.3835392338
240298560.0 -0.1102303137 0.0722819124 5.07216e-05 -7.66815e-05 -5.02881e-05 0.0001397157 -0.7516204594 0.3909784429
245298530.0 -0.1098489673 0.0727131475 5.75687e-05 -2.99614e-05 -9.79671e-05 0.0001587613 -0.7475400706 0.3993201997
250298500.0 -0.109378517 0.0736592625 1.36236e-05 6.3141e-06 0.0001063214 8.5335e-06 -0.7429047102 0.4070672819
255298470.0 -0.1089059136 0.0748286814 2.17882e-05 4.44763e-05 2.47874e-05 0.0001701468 -0.7389584057 0.4146879115
260298440.0 -0.1084968713 0.0756246778 0.0002494054 0.0001191982 2.27508e-05 0.000211327 -0.7344185148 0.4220893869
265298410.0 -0.1079644881 0.0763336493 4.05705e-05 0.0003447952 0.0001881552 -0.0001123035 -0.7301092785 0.4305016152
270298380.0 -0.1077225701 0.077516487 5.2617e-05 0.0001541583 0.0001214268 -4.82359e-05 -0.7250907618 0.4380619384
275298350.0 -0.1070669368 0.0783892335 0.0003422024 7.75372e-05 0.0001595714 -4.04672e-05 -0.7203241804 0.445792347
280298320.0 -0.1065367834 0.079323589 -8.36414e-05 3.79345e-05 0.0002742469 -2.29756e-05 -0.7161813095 0.452895773
285298290.0 -0.1062808901 0.0804690505 0.0001052911 -0.0001092822 -6.50124e-05 0.0002847609 -0.7115289419 0.4605191701
290298260.0 -0.1056438524 0.0812483762 0.0001542272 0.0002491693 -9.5582e-06 0.0002882673 -0.7067322042 0.4674573313
295298230.0 -0.1053437152 0.0822146639 5.73541e-05 0.000117385 7.26874e-05 0.0001705108 -0.7016206781 0.4744526664
300298200.0 -0.104686398 0.0829380892 9.6923e-05 -0.0001506779 0.000120494 0.0001152536 -0.6972476513 0.4825038846
305298170.0 -0.1040166055 0.0840217697 -0.0001574547 0.000282058 9.22614e-05 -0.0001033142 -0.6916776957 0.4897117378
310298140.0 -0.103522374 0.0846348717 0.0003385566 7.98131e-05 3.30037e-05 -4.46995e-05 -0.6858281923 0.4968352781
315298110.0 -0.1031884313 0.0855725585 0.0002017677 -2.9865e-05 7.3232e-05 -4.35388e-05 -0.681472407 0.5036376665
320298080.0 -0.1026755614 0.0863109146 0.0001044691 -2.47631e-05 0.0004642571 0.0001292716 -0.6763919793 0.5103923005
325298050.0 -0.1024534114 0.0868413494 3.253e-06 -9.2311e-06 7.27246e-05 -5.57021e-05 -0.6704725068 0.518242817
330298020.0 -0.1019986735 0.0884480199 0.0003886549 -6.29381e-05 0.0001821004 0.0003384791 -0.6654201462 0.5242766603
335297990.0 -0.101562169 0.0896022303 7.71734e-05 -4.73046e-05 0.0001683326 0.0001742169 -0.6597317835 0.5317153489
340297960.0 -0.1009280634 0.0908410284 0.0002190366 0.0002198328 0.0001144193 0.000152475 -0.6543920777 0.5382057204
345297930.0 -0.1004652837 0.0913634332 0.000125512 9.42683e-05 0.0001784713 -6.3266e-06 -0.6489971397 0.5446846181
350297900.0 -0.0998392851 0.0926703537 8.26433e-05 6.1021e-06 3.99221e-05 0.0002661493 -0.6432998321 0.5512540766
355297870.0 -0.0991818987 0.0934994554 2.54476e-05 -0.0001541259 7.64132e-05 0.0001870228 -0.6363892708 0.5585038686
360297840.0 -0.0986293326 0.0945929105 0.0001656118 0.0001485293 0.0001542363 -9.3398e-06 -0.6305428538 0.5654964497
365297810.0 -0.0980895797 0.0956093094 0.0001557268 7.82901e-05 5.86479e-05 8.21438e-05 -0.6256566433 0.5710593527
370297780.0 -0.0974664502 0.0963804735 -6.6337e-06 2.07411e-05 0.0002863453 -5.30778e-05 -0.6195292757 0.5779150766
375297750.0 -0.0967453262 0.0975296212 8.59214e-05 4.89794e-05 0.0003089006 3.57974e-05 -0.612878672 0.5835872196
380297720.0 -0.0961767119 0.0987058825 0.0001353887 0.0001682607 -9.48072e-05 -5.95733e-05 -0.6069992125 0.590401598
385297690.0 -0.095402057 0.0994707772 5.73641e-05 0.0002475859 -1.608e-07 0.0002817981 -0.6015020019 0.5968481511
390297660.0 -0.0945652219 0.1004260326 0.0002391274 0.0001703171 0.0001237028 7.8731e-05 -0.5946222354 0.6019155387
395297630.0 -0.0938198898 0.101152507 0.000278143 -6.42341e-05 2.35398e-05 0.0001703538 -0.5879602365 0.607747385
400297600.0 -0.0931886315 0.1023743118 0.0001116221 0.0001501247 7.4297e-05 -3.21093e-05 -0.5821760027 0.614252235
405297570.0 -0.0926869056 0.1029064453 0.0002029108 0.0001345637 -1.96268e-05 0.0001139536 -0.5756398684 0.620008395
410297540.0 -0.0914852063 0.1041095549 -0.0001382426 0.0001641314 6.583e-06 0.0001961246 -0.5692336764 0.626416384
415297510.0 -0.0909055852 0.1050445241 0.0001526534 0.0002622413 6.9734e-05 8.09396e-05 -0.5627356313 0.6313794166
420297480.0 -0.0900813612 0.1056231415 0.0005022634 -5.66864e-05 3.74073e-05 2.59902e-05 -0.5563421486 0.6383673199
425297450.0 -0.0889974094 0.1067543508 0.0002616411 1.54101e-05 0.0001842417 1.82351e-05 -0.5494721737 0.6422989245
430297420.0 -0.0884211004 0.1077035896 0.0001626776 -3.5931e-05 0.0001634487 7.78922e-05 -0.543042847 0.6484811137
435297390.0 -0.0876951115 0.1087407751 0.0001011264 -6.62532e-05 8.64756e-05 0.0002073225 -0.5366615162 0.6544078695
440297360.0 -0.0865716265 0.1096376317 0.0001814694 -4.38176e-05 -4.9771e-06 0.0001240152 -0.5302602243 0.659521534
445297330.0 -0.0855036332 0.1104241206 0.0001457071 9.10996e-05 7.51111e-05 0.0001257264 -0.5228279566 0.6650526031
450297300.0 -0.0847159879 0.11111691 0.0003390626 -0.0001656169 7.27953e-05 4.11613e-05 -0.515579031 0.6698450234
455297270.0 -0.0838347905 0.1122683703 0.0001764814 0.000113563 6.13393e-05 0.000166515 -0.5090599461 0.6746657201
460297240.0 -0.0826021511 0.1129292628 0.0001498905 0.0002035446 0.0001667304 8.3029e-06 -0.5022050935 0.6803871773
465297210.0 -0.0815454624 0.1139474671 0.0001634365 0.0001465107 0.0001638983 -2.27508e-05 -0.4950423978 0.6861175738
470297180.0 -0.0807911238 0.114953717 0.0001679826 2.53437e-05 0.0002866771 -4.4076e-05 -0.4884235743 0.6905533127
475297150.0 -0.0799750122 0.1158863194 0.0002437635 -6.7654e-06 3.5597e-06 0.0001795227 -0.4813294314 0.6951394921
480297120.0 -0.0784546703 0.116597058 0.0001659728 -2.67805e-05 4.2921e-05 0.0001254912 -0.4746686077 0.6998501206
485297090.0 -0.0775308684 0.1171063089 8.96725e-05 2.72478e-05 0.0001118182 2.90054e-05 -0.4671831018 0.7049072623
490297060.0 -0.0760118387 0.1183383153 4.01861e-05 0.0002042092 0.0002286377 -1.76463e-05 -0.4599749584 0.7089462462
495297030.0 -0.0754249609 0.1191868714 0.000116766 5.27586e-05 0.0001183298 5.07554e-05 -0.4521757615 0.7138302327
500297000.0 -0.0745034059 0.1197137019 0.0001082434 7.13534e-05 -1.1e-09 -0.0002662981 -0.4450834002 0.7185434285
505296970.0 -0.0730327232 0.1205432409 0.0001595006 0.0002231296 0.0002077146 1.49133e-05 -0.4376844051 0.7229838595
510296940.0 -0.0720411297 0.1215537487 4.40457e-05 -1.98501e-05 8.65736e-05 7.4967e-05 -0.4301761589 0.7275184123
515296910.0 -0.0709493658 0.1225024281 6.18861e-05 8.5816e-05 0.0002568299 -7.40343e-05 -0.4230865717 0.7310644519
520296880.0 -0.0695639566 0.1232687114 0.0001338043 3.5623e-05 0.0001584644 0.0001274818 -0.4151911785 0.736165695
525296850.0 -0.0686178974 0.1240117721 0.0001922088 0.0001489289 0.0001048718 -1.15122e-05 -0.4084832369 0.7398611118
530296820.0 -0.0674769133 0.1251327959 2.04079e-05 6.37201e-05 0.0001314403 0.0001302131 -0.4011128602 0.7436366854
535296790.0 -0.0657222419 0.1257379653 0.0001978167 6.77184e-05 0.0001345671 7.18004e-05 -0.3927114893 0.7479122504
540296760.0 -0.06448003 0.1264350494 -2.1478e-06 0.0002347161 6.20827e-05 -3.30777e-05 -0.385052103 0.7514476683
545296730.0 -0.0638510178 0.1278449033 0.0001242004 1.10022e-05 0.0001020952 0.0001406098 -0.3779713336 0.7554342303
550296700.0 -0.0621319811 0.128302208 0.0001014102 0.000233438 0.0001648416 -2.08314e-05 -0.3700144546 0.7595966716
555296670.0 -0.0609635204 0.129245699 -6.02363e-05 7.81579e-05 0.0002611287 5.88499e-05 -0.362600338 0.7624918902
560296640.0 -0.059713582 0.1297867819 0.0002775096 1.94876e-05 0.0003163531 0.000225368 -0.3544773133 0.7665715761
565296610.0 -0.0587346471 0.1307784006 0.00033222 -4.07389e-05 0.0003877396 2.162e-05 -0.3468808464 0.7700751516
570296580.0 -0.0574841084 0.1316633205 9.97e-07 4.49078e-05 9.55018e-05 -3.8297e-05 -0.3391403037 0.7731854026
575296550.0 -0.0560359248 0.1322162953 0.0001365771 0.0002023913 0.0002151689 0.0001390462 -0.3308077222 0.7762882425
580296520.0 -0.0546562151 0.1332840298 0.0001543919 0.0001133953 0.0002078548 0.0001341911 -0.3233521052 0.7796164005
585296490.0 -0.0533067232 0.1338816891 0.0001629601 0.0001413977 0.0002923138 -2.73511e-05 -0.315481431 0.7835124652
590296460.0 -0.0517561549 0.1348357449 1.30746e-05 5.5293e-05 0.0001206646 0.0001287386 -0.3077107797 0.7860250511
595296430.0 -0.0506936931 0.1352079202 0.0001775103 7.47698e-05 0.000321869 0.0001844515 -0.2995097524 0.7895798344
600296400.0 -0.0492852305 0.1360238879 7.57833e-05 0.0001895964 0.0002243935 5.51629e-05 -0.2920716988 0.7915077642
605296370.0 -0.0480982834 0.1369255915 0.0001588149 0.0001176383 0.0002769473 0.0001470275 -0.2838962823 0.7950861517
610296340.0 -0.0466098391 0.1377301841 0.0001174413 9.5311e-06 0.0001661161 8.61674e-05 -0.2762486622 0.7977686866
615296310.0 -0.0449728322 0.1383880806 -2.72468e-05 6.72779e-05 0.0004777677 0.000120741 -0.2670728513 0.8006414359
620296280.0 -0.0438121505 0.1394579093 6.46535e-05 -1.06508e-05 0.0002936795 0.0001903457 -0.259902912 0.8033342349
625296250.0 -0.0427536294 0.13984419 -3.66116e-05 -0.0002122311 0.0001677506 -4.94155e-05 -0.2518090244 0.8053508669
630296220.0 -0.041393939 0.1408214137 0.0002067311 -0.0001502459 0.0001631443 -0.0001801318 -0.2433369105 0.8082287219
635296190.0 -0.040001028 0.1414845975 0.0002495191 -4.15183e-05 0.000289609 0.000135586 -0.2353360652 0.809881801
640296160.0 -0.0385078563 0.1416988732 0.0001265862 8.96022e-05 0.0001609163 8.66926e-05 -0.227322312 0.8123250587
645296130.0 -0.0370057721 0.1428625854 -4.58141e-05 -4.68752e-05 0.0002725423 -2.82598e-05 -0.2194038703 0.8141985038
650296100.0 -0.0361680023 0.1435193993 0.0002341584 -0.0001180353 0.0003772311 5.76185e-05 -0.2104177555 0.8170132212
655296070.0 -0.0345010191 0.1441879066 4.63206e-05 -8.39071e-05 5.26722e-05 5.90794e-05 -0.2031574116 0.8192432738
660296040.0 -0.0334379387 0.1445351987 0.0001608131 0.0001723044 0.000160953 -5.68937e-05 -0.1949797204 0.8210328545
665296010.0 -0.0318643403 0.1455425816 0.0001731624 0.0001021911 9.40244e-05 -0.0001345762 -0.1865922662 0.8223024534
670295980.0 -0.0306569289 0.1460401464 0.0003453485 -7.34629e-05 0.000252009 1.3178e-06 -0.1784331794 0.8245390528
675295950.0 -0.0291242812 0.1468633499 0.0003417719 0.0001163969 0.0003040883 2.53599e-05 -0.1699577618 0.8265181164
680295920.0 -0.0281671376 0.1474885504 0.0003136955 -0.0001919515 0.000281562 -0.0001308706 -0.1613094371 0.8278645918
685295890.0 -0.0266204423 0.1479749824 6.57059e-05 2.361e-07 0.0003047399 0.0001675408 -0.1532974646 0.8296556097
690295860.0 -0.02515721 0.1484385583 0.0003950358 0.0001054814 4.53562e-05 -9.26145e-05 -0.1455590682 0.8308670656
695295830.0 -0.023656984 0.1491192953 0.0004292385 0.0001978294 0.0001840253 2.19308e-05 -0.1369150901 0.8322352834
700295800.0 -0.0222698605 0.1497728285 0.0002253901 0.000212118 0.0002101 -0.0002044378 -0.128222787 0.8335437892
705295770.0 -0.0212655592 0.1502224335 0.0001968828 3.12266e-05 0.0002538818 3.4533e-05 -0.1202068276 0.8357068602
710295740.0 -0.0197340193 0.1505796066 0.0001162974 -0.0001640836 0.0003968544 -8.5708e-06 -0.1117774344 0.8358641064
715295710.0 -0.0183210982 0.1514309231 0.0001815013 -0.0003875855 0.00025087 0.0001400954 -0.1031126834 0.8368896814
720295680.0 -0.0168252174 0.1517173025 0.0002082853 4.16542e-05 0.0003385923 2.7095e-06 -0.0944979739 0.8378327714
725295650.0 -0.0160881039 0.1524182042 0.00017475 -0.0002021841 0.0002130887 -0.0002075586 -0.0875373748 0.8395402827
730295620.0 -0.0146005043 0.1528246161 0.0003059772 -0.0002504416 0.0001122478 -8.31078e-05 -0.0788051185 0.8400714165
735295590.0 -0.0129697745 0.1532254132 0.0001955486 -3.19574e-05 0.0001923683 3.4846e-05 -0.0697425612 0.840477151
740295560.0 -0.0122849504 0.1536163889 0.0002791385 -0.0002166203 0.000225794 -7.12782e-05 -0.0617350484 0.841647191
745295530.0 -0.0104296509 0.1541563646 0.0002593534 -9.02431e-05 0.0002336837 0.0002111072 -0.0535764768 0.8416608345
750295500.0 -0.0094534967 0.1547272412 0.0002669411 -0.0002038463 0.0001990076 -3.47242e-05 -0.0447802291 0.8421205654
755295470.0 -0.0079873665 0.1544569518 0.0004128451 -0.0001578375 0.0003774554 3.05871e-05 -0.0367081999 0.8429238244
760295440.0 -0.0066614378 0.155394995 0.0002783808 4.43742e-05 0.000287401 2.98295e-05 -0.0281161547 0.8428689559
765295410.0 -0.0049783789 0.1555510442 0.0002670302 7.23316e-05 0.0003515235 -2.7526e-06 -0.01927802 0.8432874379
770295380.0 -0.0040096143 0.1561325168 0.0001546424 -7.4001e-05 0.0002342191 0.0001059823 -0.0114362375 0.8432588895
775295350.0 -0.0027698159 0.1562253047 0.0003847745 -9.3666e-06 0.0003234073 -1.20518e-05 -0.0032417044 0.8428155228
780295320.0 -0.0012033479 0.156905591 0.0003345829 -0.0001078766 0.0004705825 -1.32542e-05 0.0052741711 0.84363711
785295290.0 0.0001148877 0.1566610785 0.0003101673 -2.50043e-05 -1.65687e-05 9.00563e-05 0.0132122286 0.8435311567
790295260.0 0.0015353777 0.1568923038 7.51e-05 -8.69751e-05 0.0002109211 -0.000208101 0.0220765796 0.8435798022
795295230.0 0.0029348738 0.1573351773 0.0004240585 0.0001458558 0.0003166865 -8.80552e-05 0.0300192724 0.8421815252
800295200.0 0.0041325943 0.1574930688 0.0003892844 -0.0001949513 0.0003948932 -5.44007e-05 0.0385590701 0.8422680671
805295170.0 0.00572984 0.1578453413 0.0002800194 0.0001010402 0.0003036352 -0.0002209507 0.0477087355 0.8422242632
810295140.0 0.0071772519 0.1580633872 8.63521e-05 3.51014e-05 0.0003258959 -3.26542e-05 0.0556300136 0.8412429602
815295110.0 0.0083497662 0.1581687282 0.0003345126 -7.40498e-05 0.0001693197 9.83223e-05 0.0634215894 0.840998972
820295080.0 0.0095222616 0.1584232174 0.000250686 -3.962e-07 0.0003059065 -0.0001827592 0.0714517202 0.8406516597
825295050.0 0.0106362985 0.1584301593 0.0003025483 -0.0001880832 7.88702e-05 -8.59006e-05 0.0801948852 0.8396049572
830295020.0 0.0124948711 0.1586441644 0.0003928099 -4.70737e-05 0.0002979391 -9.97372e-05 0.0876757714 0.8381296121
835294990.0 0.0137398622 0.1582310947 0.0003624933 -0.0002279532 0.0002322144 -4.76736e-05 0.0967346671 0.8379337875
840294960.0 0.0151795636 0.1583550392 0.0003834482 -6.33214e-05 0.0003631908 -0.0002042907 0.1054299171 0.836687387
845294930.0 0.0165406857 0.1588250203 0.0002996154 -8.20021e-05 0.0003372236 -0.0001675397 0.1134673008 0.835586666
850294900.0 0.0183711167 0.1585402782 0.000327479 -9.2217e-06 0.0002436889 -0.0001845733 0.1213725284 0.834764269
