!Created with skrf (http://scikit-rf.org).
# Hz S RI R 50.0 
!freq ReS11 ImS11 ReS21 ImS21 ReS12 ImS12 ReS22 ImS22
300000.0 -0.2370364531 -0.1181565045 0.4679153897 0.0795522706 0.4659103456 0.0786317218 -0.2363208709 -0.1246904108
5299970.0 -0.2448390424 0.0052512214 0.4735431349 0.0057812999 0.4737866151 0.0063495496 -0.243333481 0.0051838461
10299940.0 -0.2418570342 0.0187400342 0.4764011155 0.0067436409 0.4757713778 0.007320757 -0.240056823 0.0181548448
15299910.0 -0.2368909667 0.0283040029 0.479281365 0.0082868061 0.4797711613 0.0085701189 -0.2362039354 0.0274594214
20299880.0 -0.2315834263 0.036409222 0.4840120018 0.0083252086 0.484222405 0.0086621955 -0.2313422 0.0352442342
25299850.0 -0.2253745589 0.0427107971 0.4895235446 0.0079429375 0.4900207401 0.0078955087 -0.2260543849 0.0418903783
30299820.0 -0.2202655973 0.0478205644 0.4952801356 0.005849803 0.4951523622 0.0054161542 -0.2206332736 0.0471381438
35299790.0 -0.214391548 0.0516593041 0.5001495394 0.0026764642 0.5002730994 0.0022943706 -0.2157332635 0.0513861417
40299760.0 -0.2091613839 0.0546091379 0.5053765936 -0.0012781873 0.505333741 -0.001598843 -0.2106532173 0.0546182816
45299730.0 -0.2042181825 0.0573942015 0.5102225284 -0.0059767 0.5105934775 -0.0066843982 -0.2056901353 0.0577614551
50299700.0 -0.1990140849 0.058848345 0.5142201853 -0.0118658671 0.5145736838 -0.0119631733 -0.2009946653 0.0602881009
55299670.0 -0.1949618711 0.0603756283 0.5183776019 -0.0175409274 0.5180808457 -0.0178204684 -0.1975313376 0.0621170128
60299640.0 -0.1910302711 0.0618251828 0.521883319 -0.0242984592 0.5216598141 -0.0242817525 -0.1935936402 0.0633769855
65299610.0 -0.187248211 0.0625653434 0.5248888758 -0.0302413146 0.5247977007 -0.0306195234 -0.1898518739 0.0646331154
70299580.0 -0.1840103403 0.063055772 0.5271813785 -0.036498081 0.5272930324 -0.0371525709 -0.187131792 0.0661399363
75299550.0 -0.1809904916 0.0637671139 0.5287379871 -0.0444560944 0.5293251234 -0.044074754 -0.1842409593 0.0671642728
80299520.0 -0.1783014574 0.0645361515 0.5309024482 -0.0507510392 0.5311424422 -0.0508862609 -0.1815750158 0.0682910372
85299490.0 -0.1758062806 0.0647652205 0.5324672927 -0.0581844544 0.53274074 -0.0575026701 -0.1794145919 0.0688015018
90299460.0 -0.1734035612 0.065201685 0.5332056644 -0.0643442242 0.5333604326 -0.0643602014 -0.176953386 0.069887686
95299430.0 -0.1714384116 0.0656295689 0.5342015019 -0.0714707904 0.5346262758 -0.0716951602 -0.1749583315 0.0705549676
100299400.0 -0.1694803909 0.0661458582 0.5346585351 -0.0782416253 0.5350227197 -0.0785488856 -0.1731518321 0.0718336044
105299370.0 -0.1675033304 0.0664593859 0.5348997485 -0.0852515755 0.5352546955 -0.0854015781 -0.171204677 0.0721831496
110299340.0 -0.1659588317 0.0669311462 0.5348791655 -0.0916744252 0.5355378283 -0.0916655014 -0.1696784373 0.0730444801
115299310.0 -0.1646700036 0.0677146184 0.5350140103 -0.0984553913 0.5349029878 -0.0987831998 -0.16839101 0.0742926619
120299280.0 -0.1630076544 0.0683041104 0.5350201901 -0.1062028391 0.5348415674 -0.1060532754 -0.1666847697 0.0747963439
125299250.0 -0.1617276988 0.0687003153 0.5347778749 -0.1124493829 0.5346323115 -0.1124609531 -0.1651780619 0.0762322015
130299220.0 -0.1605846817 0.0690045768 0.5341347476 -0.1196184591 0.5341901113 -0.1200875104 -0.1638632512 0.077029442
135299190.0 -0.1597900525 0.0700575773 0.533699782 -0.1256626155 0.5334433221 -0.1262724265 -0.1626136577 0.0778300134
140299160.0 -0.158593794 0.070987718 0.5328291591 -0.1328693905 0.5327566163 -0.1325911479 -0.1622631022 0.0788123552
145299130.0 -0.1577606952 0.0720574704 0.5319877964 -0.1393468567 0.5316732304 -0.1389207724 -0.1610386202 0.0798635111
150299100.0 -0.1566698668 0.0724214942 0.5304289661 -0.1455332529 0.5304256622 -0.1457142094 -0.1598175293 0.0812962015
155299070.0 -0.1555622803 0.0734995848 0.5290028428 -0.1522630701 0.5292210755 -0.1521906835 -0.1586768379 0.0820456478
160299040.0 -0.1550308749 0.0744335522 0.5281500204 -0.158540745 0.527624788 -0.1591554101 -0.157849119 0.0835240246
165299010.0 -0.1543142211 0.0753701645 0.5270879685 -0.1651598574 0.5263553191 -0.1653462557 -0.1567072497 0.0844410257
170298980.0 -0.1530228618 0.0765708185 0.5248280634 -0.1717572098 0.5249824709 -0.1717693395 -0.1559112291 0.0859733067
175298950.0 -0.1521416045 0.0774270295 0.5233990441 -0.1779061022 0.5238170391 -0.1782464236 -0.1550061149 0.0871968989
180298920.0 -0.1516688917 0.0784180965 0.5217101753 -0.1842697483 0.5216330443 -0.1845658256 -0.1541221974 0.0885310497
185298890.0 -0.1506101971 0.0795136611 0.5202021418 -0.1902778139 0.5196598375 -0.1901737801 -0.152793346 0.0894881435
190298860.0 -0.1496611293 0.0809020958 0.5176099173 -0.1967111162 0.518059468 -0.1964353506 -0.1521701055 0.0909812825
195298830.0 -0.1490741142 0.0819509626 0.5160466556 -0.2024176895 0.5161399154 -0.2028018229 -0.1514419729 0.0923318134
200298800.0 -0.14810911 0.0827998765 0.5141048575 -0.2091172653 0.5138307706 -0.2088137723 -0.1500707176 0.0933889118
205298770.0 -0.1479760399 0.0837420782 0.5113377655 -0.2144990689 0.5117884839 -0.2146402053 -0.1491501669 0.0949785604
210298740.0 -0.1469764566 0.0854739512 0.5095386854 -0.2208677739 0.5091540498 -0.220806949 -0.1484402626 0.0960322602
215298710.0 -0.1461674745 0.0866537207 0.5066624578 -0.2268529725 0.5067214188 -0.2270581108 -0.1472158186 0.0977233574
220298680.0 -0.1452651088 0.0878162723 0.5045130294 -0.2328108275 0.5043999645 -0.2326282029 -0.146117507 0.0992517963
225298650.0 -0.1445764332 0.0892165815 0.5018118333 -0.238400194 0.5024620524 -0.2381925989 -0.1452454304 0.1003948186
230298620.0 -0.1437437806 0.0904605391 0.4997645407 -0.2443594448 0.4996660375 -0.2442568934 -0.1446400121 0.1016527664
235298590.0 -0.1432780505 0.0917583522 0.4972451842 -0.2504036618 0.4969712101 -0.2502135734 -0.1434340257 0.1032256056
240298560.0 -0.1420438458 0.0931411867 0.4942719936 -0.2556276726 0.4939639955 -0.2557426934 -0.1427538477 0.1044867155
245298530.0 -0.1414111898 0.0941117066 0.4913009364 -0.2611353716 0.4912033155 -0.2617130396 -0.1414238855 0.1060963704
250298500.0 -0.140733319 0.095556484 0.4889707843 -0.2668623873 0.4888482137 -0.2670750598 -0.1405751071 0.1076699449
255298470.0 -0.1397609974 0.0972943563 0.4859236362 -0.2726888518 0.486370235 -0.2727593927 -0.1395254396 0.1092247804
260298440.0 -0.1392076456 0.0982151184 0.4834544681 -0.2774399258 0.48311312 -0.2780224186 -0.1386078053 0.1102573462
265298410.0 -0.1383985211 0.099484611 0.4798119904 -0.2839084669 0.479693714 -0.2839259092 -0.1367041497 0.1117726455
270298380.0 -0.1376333622 0.1009802244 0.4765818511 -0.2890360132 0.476873696 -0.2891451962 -0.1358923592 0.1133029821
275298350.0 -0.1367540139 0.1025869766 0.4735431307 -0.294690017 0.4736887251 -0.2942073643 -0.1350151507 0.115140264
280298320.0 -0.1362947606 0.1038007125 0.4708060275 -0.2993696539 0.4705491045 -0.3000901106 -0.1334840671 0.1164270446
285298290.0 -0.1352016541 0.1051303921 0.4670465483 -0.3051413202 0.4673849614 -0.3048161861 -0.1323785451 0.1178712243
290298260.0 -0.1342748815 0.1066521325 0.4644703852 -0.3104970683 0.4641946272 -0.3105876443 -0.1313148599 0.1194327603
295298230.0 -0.1335610417 0.1073373159 0.460790252 -0.3161021451 0.4607370333 -0.3163519496 -0.1300169734 0.1202239908
300298200.0 -0.1324079069 0.1090304586 0.4574981897 -0.3211138097 0.4575288231 -0.3207724717 -0.1288879605 0.1218591955
305298170.0 -0.1314170868 0.109880703 0.4539819035 -0.3264672339 0.4537033327 -0.326615479 -0.1271007111 0.1229597873
310298140.0 -0.1300296151 0.1112633296 0.4501508007 -0.3312940905 0.4504990019 -0.3312588209 -0.1259276084 0.1243949829
315298110.0 -0.1295193191 0.1124595975 0.4468507281 -0.3370051886 0.4467529818 -0.3369483218 -0.1248154876 0.1257609308
320298080.0 -0.1285556687 0.1137133933 0.4423828863 -0.3420263471 0.443299969 -0.3421784723 -0.1235383181 0.1270329318
325298050.0 -0.1282517577 0.1143964882 0.4388307053 -0.3466052245 0.4396448728 -0.3469423357 -0.1220587194 0.1284874249
330298020.0 -0.1277525872 0.11604091 0.4347356683 -0.3517712448 0.4354215115 -0.3519292779 -0.1213562324 0.1295334202
335297990.0 -0.1265604796 0.1174063187 0.4312479029 -0.3564983953 0.4312059101 -0.3567197145 -0.1202141268 0.1312716076
340297960.0 -0.1259115467 0.1185534021 0.4266182454 -0.3614567275 0.4272573269 -0.3619681367 -0.118628295 0.132865454
345297930.0 -0.1250779652 0.1198483954 0.4230474494 -0.3665958029 0.42299476 -0.3663394742 -0.1174772238 0.1334790368
350297900.0 -0.1241800999 0.1210787359 0.4192081745 -0.3705688515 0.4193701878 -0.3707878314 -0.1164009436 0.1353760389
355297870.0 -0.1232978554 0.1225106943 0.4147944612 -0.3749748057 0.4151504242 -0.3751149163 -0.1144539878 0.1369000275
360297840.0 -0.1219745413 0.1237378252 0.4104516631 -0.3797128002 0.4108049374 -0.3803218302 -0.1135654188 0.138322693
365297810.0 -0.1210966705 0.1251798484 0.4062701295 -0.3844621795 0.4063536439 -0.3844462867 -0.1122154322 0.1391868048
370297780.0 -0.1201056172 0.1267043692 0.402051436 -0.389010388 0.4021104462 -0.3887084628 -0.1107585181 0.1408493912
375297750.0 -0.1189357167 0.1278062328 0.3977865073 -0.393451306 0.3980047938 -0.3932721564 -0.1088690283 0.1421854257
380297720.0 -0.1180745108 0.1294175163 0.3936461269 -0.3981770508 0.3935658787 -0.3975838581 -0.1072426228 0.1436529448
385297690.0 -0.1171048131 0.1304047002 0.3890147724 -0.4019704157 0.3893366477 -0.4024329492 -0.1058948237 0.1451734087
390297660.0 -0.1157439247 0.1313471156 0.3846127411 -0.4056572971 0.3847870472 -0.4061385585 -0.1039349324 0.1460989379
395297630.0 -0.1142641586 0.1326803596 0.3802042603 -0.4096853543 0.3801541269 -0.410152227 -0.1027712041 0.147177654
400297600.0 -0.1136809331 0.1337162498 0.3760207616 -0.4144588694 0.376200621 -0.4148370407 -0.101055124 0.1489188563
405297570.0 -0.1122804862 0.134888405 0.3714892493 -0.4185519773 0.3714948016 -0.4186666791 -0.0993781796 0.1502301753
410297540.0 -0.1110271507 0.1361993093 0.3667616006 -0.4227040522 0.3668572751 -0.4226979561 -0.0981136716 0.1515289914
415297510.0 -0.110109987 0.1375039726 0.3621266946 -0.4267502084 0.3624819448 -0.4268538203 -0.0962448221 0.1523868303
420297480.0 -0.1088215191 0.1381413915 0.3571268865 -0.430479283 0.3574190558 -0.4309091841 -0.0941098469 0.1542856912
425297450.0 -0.1071571424 0.1394313866 0.3529818867 -0.4342599695 0.3525147731 -0.4345396645 -0.092918668 0.1546545709
430297420.0 -0.1060140753 0.1405663322 0.3479712964 -0.4381138783 0.348154273 -0.4380922037 -0.0908599455 0.155927082
435297390.0 -0.1048397433 0.1416801637 0.3430435031 -0.4424719159 0.3429175515 -0.4421542119 -0.0898245949 0.1577313182
440297360.0 -0.1030327461 0.1428954722 0.3379358367 -0.4460535968 0.3378951242 -0.4460853083 -0.0879112242 0.1586030837
445297330.0 -0.1020299297 0.1432898775 0.3331528521 -0.4492471206 0.333385874 -0.4497755113 -0.0858639442 0.1599590868
450297300.0 -0.1006755553 0.1447452972 0.3282932488 -0.4529803525 0.3287171523 -0.4527765153 -0.0843131444 0.1606500646
455297270.0 -0.0995523791 0.1460001582 0.3235358884 -0.4567506023 0.3237460508 -0.4567964528 -0.0823395898 0.1618664174
460297240.0 -0.0979081715 0.1471741977 0.3187338144 -0.4606180475 0.3184774915 -0.4604928163 -0.0806737236 0.1628470008
465297210.0 -0.0965574794 0.147923433 0.3129109293 -0.4638912106 0.3129661405 -0.4639548414 -0.078365428 0.1643164689
470297180.0 -0.0953460844 0.1489692817 0.3081306616 -0.4671250412 0.3084176349 -0.4671886358 -0.0768745781 0.1651410102
475297150.0 -0.0940982625 0.1503087944 0.3030659968 -0.4708020831 0.3031475733 -0.4707689009 -0.0747729304 0.1660524993
480297120.0 -0.0918402289 0.1513079026 0.2980724439 -0.4739434905 0.2977075951 -0.4737682236 -0.0732999531 0.1671251229
485297090.0 -0.0904684789 0.1515545272 0.2926238739 -0.4768386237 0.292884185 -0.4764858187 -0.071423726 0.1681093429
490297060.0 -0.0886091977 0.1528928753 0.2873137389 -0.4799206599 0.2872403853 -0.4802713972 -0.0693678771 0.1687905297
495297030.0 -0.0877157818 0.1538074015 0.2825070899 -0.4834400881 0.282121068 -0.4833882973 -0.0674215358 0.1697316886
500297000.0 -0.0861294982 0.1547694331 0.2772177417 -0.4858621296 0.2769746921 -0.4866179616 -0.0657992663 0.1708819405
505296970.0 -0.0841902074 0.1559647616 0.2712271532 -0.4893662938 0.2718151054 -0.4887762203 -0.0640014751 0.1711178373
510296940.0 -0.0827849224 0.1565069539 0.2661582567 -0.4928292775 0.2664786091 -0.4926464816 -0.0614938396 0.1726187246
515296910.0 -0.0811377829 0.1579620266 0.2605753031 -0.4947144862 0.2603098342 -0.4949239315 -0.059803213 0.1726232869
520296880.0 -0.0795884971 0.1587015255 0.2553536504 -0.4976442857 0.255116224 -0.4977669516 -0.0573357166 0.1741915588
525296850.0 -0.0779743669 0.1594628923 0.2498958636 -0.5005805909 0.249677562 -0.5001839161 -0.0553156269 0.1748183956
530296820.0 -0.0766471303 0.1602875666 0.2443529502 -0.5037184105 0.2442641026 -0.5028827181 -0.0536943329 0.1750748586
535296790.0 -0.0741003787 0.1612112204 0.238905877 -0.50566518 0.2390076232 -0.5058077979 -0.0515341728 0.1764394912
540296760.0 -0.0727844586 0.162275448 0.2331133381 -0.5082526109 0.2330945203 -0.5082600507 -0.0497220404 0.1765134698
545296730.0 -0.0719500459 0.1632037784 0.2283337896 -0.5104502403 0.2277221761 -0.5105168206 -0.0474965746 0.177585787
550296700.0 -0.0692631241 0.1640090712 0.2219608128 -0.5134613193 0.222200306 -0.5130824539 -0.0457675341 0.1779720099
555296670.0 -0.0679752728 0.1648618211 0.2166408095 -0.516006758 0.2163951627 -0.51550432 -0.0436495483 0.1783835609
560296640.0 -0.0659620468 0.1653839459 0.2107609771 -0.5178889557 0.2111189411 -0.5177328509 -0.0414746937 0.1795213392
565296610.0 -0.0648251553 0.1663328837 0.2058556924 -0.520326426 0.2053949198 -0.5197344634 -0.0393346854 0.1800992012
570296580.0 -0.063045789 0.1673169757 0.1994651273 -0.5221863108 0.1997958377 -0.5221901563 -0.0377597952 0.1803801034
575296550.0 -0.0611819864 0.1680523175 0.1945330478 -0.5244856125 0.1939117106 -0.52408621 -0.0355662616 0.1809629173
580296520.0 -0.0594302339 0.1691167273 0.1884789273 -0.526535538 0.1881753611 -0.5264561338 -0.0337705392 0.1815323348
585296490.0 -0.0579139255 0.1698105821 0.1832329311 -0.5282955308 0.1821212075 -0.5284039769 -0.031039207 0.1822215477
590296460.0 -0.0553119653 0.1704338379 0.1768357261 -0.5304044451 0.1770408561 -0.5304567495 -0.029805127 0.1825486215
595296430.0 -0.053923618 0.1711962477 0.1707924542 -0.5321287207 0.1707187657 -0.5322430139 -0.0273364083 0.1827915184
600296400.0 -0.0520472197 0.1717734661 0.1646464406 -0.533852117 0.1648384014 -0.5341421175 -0.0251907764 0.1832495012
605296370.0 -0.0506711384 0.1730679647 0.1597973135 -0.535616328 0.1592053475 -0.5359671034 -0.0234961212 0.1839573718
610296340.0 -0.0484948227 0.1737222829 0.153552274 -0.5367037812 0.1538513522 -0.537247641 -0.0213844915 0.1842039777
615296310.0 -0.0466792089 0.1743539907 0.1476367726 -0.5390857689 0.1472757642 -0.5390537944 -0.0189848357 0.1845496646
620296280.0 -0.0455781881 0.1750687558 0.1416860371 -0.5404595252 0.1417335039 -0.54034659 -0.0174266751 0.1850255016
625296250.0 -0.0437215719 0.1758152482 0.1361635274 -0.5422044101 0.1360113585 -0.5420769951 -0.0153002548 0.1852623624
630296220.0 -0.0418111872 0.1764275198 0.1296416847 -0.5435971683 0.1299588089 -0.543241784 -0.0131410595 0.1854058136
635296190.0 -0.0399969557 0.1770007536 0.1242613203 -0.5444101031 0.1241003884 -0.5445366118 -0.0112086978 0.185738639
640296160.0 -0.0383047369 0.1775548291 0.118567141 -0.5464802155 0.1179821859 -0.5460408776 -0.0091651339 0.1861072095
645296130.0 -0.0363855101 0.1785271604 0.1123664386 -0.5471505786 0.1124351488 -0.5471398579 -0.0073796057 0.1858797569
650296100.0 -0.034918033 0.1788986009 0.1063570831 -0.5487981199 0.1060198571 -0.5483876677 -0.0043642937 0.1863390018
655296070.0 -0.0331181123 0.1797622317 0.1003419087 -0.5493183024 0.1004293201 -0.5494810871 -0.0033570196 0.1866851204
660296040.0 -0.0314103333 0.1803871868 0.0945831848 -0.5505823272 0.0943380145 -0.5508578079 -0.0008058204 0.1866937959
665296010.0 -0.0294477233 0.1809014001 0.0883876806 -0.5511413514 0.0880766119 -0.5511137436 0.001437523 0.1867373128
670295980.0 -0.0276220411 0.1815870287 0.0822793964 -0.5524070989 0.0823825422 -0.5519115769 0.003289429 0.1870738634
675295950.0 -0.0257690012 0.1820068625 0.0764674612 -0.552854786 0.0765586064 -0.5528741202 0.0052027177 0.1872876677
680295920.0 -0.0242674822 0.1826692286 0.0706844921 -0.5531778593 0.0703017485 -0.553645101 0.0078938481 0.1868017152
685295890.0 -0.0221777093 0.1831313938 0.0647614867 -0.5548787088 0.0646331987 -0.5549576539 0.0093899332 0.1876135229
690295860.0 -0.0207684221 0.1836961774 0.0586278533 -0.5554538367 0.0581400193 -0.5554671183 0.011564753 0.1874629064
695295830.0 -0.018770504 0.1839225434 0.0530346507 -0.5558799107 0.0523275737 -0.5555778871 0.0136411469 0.1874953996
700295800.0 -0.0170044413 0.1845884748 0.0474490747 -0.5563724612 0.046784276 -0.5563123358 0.0157790859 0.1874815606
705295770.0 -0.0155134416 0.1850194253 0.0405816789 -0.5567644361 0.0405622842 -0.5563412536 0.0177131812 0.1878854865
710295740.0 -0.0137444663 0.1854725434 0.0348739087 -0.5569726507 0.0347216668 -0.5575354953 0.0199253251 0.1875882013
715295710.0 -0.0116020002 0.1860125259 0.0287105395 -0.5573125264 0.028746818 -0.5574080995 0.0219125314 0.1871178161
720295680.0 -0.0097110346 0.1860608159 0.0229935884 -0.5578050332 0.0223868066 -0.5578185276 0.0240479628 0.1869591123
725295650.0 -0.0087717199 0.1866537766 0.0170023141 -0.5580889836 0.0167635162 -0.5577345428 0.0258605189 0.1872599271
730295620.0 -0.0073008187 0.1868150408 0.0108642787 -0.5574123106 0.0105857 -0.5576157741 0.0276333774 0.1874870876
735295590.0 -0.0046170646 0.1874175539 0.004922306 -0.5579096962 0.0046897358 -0.5582250038 0.0299938142 0.1869609464
740295560.0 -0.0034081809 0.1872644729 -0.0010790461 -0.5580456996 -0.0011498851 -0.5582967002 0.0318800741 0.18695217
745295530.0 -0.0018414499 0.1878836318 -0.0071253412 -0.5573217837 -0.0062248202 -0.5579239528 0.033981312 0.1864524701
750295500.0 -0.00023776 0.1884122735 -0.012949274 -0.5576402826 -0.0134197305 -0.5577295978 0.0361356984 0.1863069164
755295470.0 0.0017213614 0.1882336903 -0.0186441215 -0.557808717 -0.0193101754 -0.5581846664 0.0381745758 0.1866658852
760295440.0 0.0035503849 0.1888915541 -0.0258186458 -0.5575261989 -0.0251427597 -0.5571497547 0.040197398 0.185299532
765295410.0 0.0054672407 0.1884966978 -0.0307401265 -0.556668627 -0.0309723173 -0.5570826248 0.0421632649 0.1855084451
770295380.0 0.0068913589 0.1891729387 -0.037099337 -0.5560955444 -0.036976624 -0.5567343602 0.0439034405 0.1852422261
775295350.0 0.0088328064 0.1889703198 -0.0427026178 -0.5561055921 -0.0427981083 -0.5555734199 0.0464316496 0.1851177502
780295320.0 0.0105305821 0.1895449639 -0.048766467 -0.5555292605 -0.04875566 -0.5555114162 0.0486189181 0.1843282535
785295290.0 0.0121028188 0.1889945125 -0.0546197895 -0.5549122793 -0.0549117214 -0.5550977116 0.0499985844 0.1846707466
790295260.0 0.0140333245 0.1890406722 -0.0609997912 -0.5541267977 -0.0608137145 -0.554416223 0.0523245504 0.1842636402
795295230.0 0.0156604854 0.1892066023 -0.0666444076 -0.5537571914 -0.0666848319 -0.5539658499 0.0544915279 0.1830433336
800295200.0 0.0168758604 0.1894127258 -0.072170843 -0.5524569813 -0.0727296681 -0.5529831985 0.0561013242 0.1830451043
805295170.0 0.0186992356 0.1896402571 -0.0784042776 -0.5521084515 -0.0788714029 -0.5523260107 0.0586460376 0.1827031187
810295140.0 0.0208323456 0.1899795552 -0.0844024218 -0.5510216514 -0.0847905781 -0.5512379598 0.0604290531 0.1821893162
815295110.0 0.0224422635 0.190037974 -0.0902970644 -0.5505368473 -0.0903934284 -0.5503207854 0.062180337 0.1816846879
820295080.0 0.0240045276 0.1896739524 -0.0955686521 -0.5490290296 -0.0960314255 -0.5494592684 0.0635119797 0.1816322868
825295050.0 0.0256595374 0.1894863994 -0.1022340551 -0.5483144203 -0.1021367713 -0.5480006122 0.0664871818 0.1807524309
830295020.0 0.0276069898 0.1894554627 -0.1082497483 -0.5468274307 -0.1081440401 -0.5472501255 0.0682651566 0.1799648755
