!Created with skrf (http://scikit-rf.org).
# Hz S RI R 50.0 
!freq ReS11 ImS11 ReS21 ImS21 ReS12 ImS12 ReS22 ImS22
300000.0 -0.77312943 -0.1508701802 -0.000504403 -0.0002300984 -0.0002736853 0.0003956703 0.8604804085 -0.0015329603
5299970.0 -0.7852416542 -0.007475336 -0.000153307 -0.0002732978 -9.3567e-05 -3.45832e-05 0.8593811078 -0.0104645178
10299940.0 -0.7877300787 -0.0045132505 -0.0002001996 -0.0001192403 0.0001219663 -7.10126e-05 0.8580785329 -0.0191938727
15299910.0 -0.7930300662 -0.0016568558 -4.15115e-05 -4.06229e-05 9.6116e-05 0.0001727034 0.857300129 -0.0273748264
20299880.0 -0.7995861954 0.0022178339 1.35685e-05 -0.0001518517 0.0001902892 -1.67931e-05 0.8567344759 -0.0364720346
25299850.0 -0.8061733771 0.0085409326 0.000143917 -6.24875e-05 -1.74606e-05 0.0001098604 0.8559597839 -0.043823937
30299820.0 -0.8120669355 0.0165594828 -3.82124e-05 -0.0001954371 1.50073e-05 -9.23334e-05 0.8552149778 -0.0524885581
35299790.0 -0.8167917519 0.0253908337 -3.87573e-05 7.75048e-05 -0.0001011669 0.0001465251 0.8539123549 -0.0611599563
40299760.0 -0.8215504742 0.0341538218 2.62402e-05 -5.9999e-06 -0.000203747 -5.27788e-05 0.8535964818 -0.0685348416
45299730.0 -0.8248547328 0.0443057784 6.6246e-06 6.08096e-05 0.000144495 -0.0001295828 0.8526952326 -0.076651036
50299700.0 -0.8267549224 0.0545371623 7.62054e-05 0.0001667132 8.62732e-05 -5.1879e-06 0.8513049563 -0.0854654457
55299670.0 -0.8288107242 0.0643698152 -3.98111e-05 1.17252e-05 -0.0001025036 -8.66983e-05 0.850865327 -0.0931502781
60299640.0 -0.8300084457 0.0739554158 0.0002728103 9.81681e-05 -3.48592e-05 -0.0001311708 0.8496266526 -0.1020444464
65299610.0 -0.8311138423 0.0843673462 0.0001101601 0.0001846879 0.0001040401 7.369e-05 0.8482395424 -0.1098232337
70299580.0 -0.8314924243 0.0948358606 0.0001136317 0.0001080915 -0.000156729 -6.74896e-05 0.8474737921 -0.1186553868
75299550.0 -0.8313133101 0.1050315204 -0.0001152263 -7.5041e-05 1.26941e-05 0.0001010598 0.8469652551 -0.1265116263
80299520.0 -0.8319119291 0.114430909 1.98017e-05 1.35728e-05 3.43247e-05 -0.0001046773 0.8451217779 -0.1343377837
85299490.0 -0.8304737939 0.1244476435 0.0001341722 -3.1188e-06 -0.0001130661 0.0001308275 0.8432002476 -0.1428856531
90299460.0 -0.8297992087 0.1338860113 0.0002015994 -0.0001502507 7.96129e-05 3.84393e-05 0.8417881832 -0.1512854045
95299430.0 -0.8285024636 0.1439720001 -0.0001855178 -0.0001255442 -2.03379e-05 7.8138e-06 0.8400096901 -0.159274288
100299400.0 -0.8277526493 0.1533995921 -0.0001229519 1.77053e-05 -0.000136195 -0.0001343774 0.8388554342 -0.1676602803
105299370.0 -0.8267324628 0.1622398059 0.000180136 -6.51679e-05 0.0001675432 -8.69194e-05 0.8372022857 -0.1754706929
110299340.0 -0.825068692 0.1711926485 0.0001245416 -4.2994e-06 7.17854e-05 -0.0001210327 0.8348860166 -0.1833817893
115299310.0 -0.8234226318 0.1806231119 -3.95834e-05 9.61221e-05 0.0001244772 -4.78441e-05 0.832955827 -0.1921634814
120299280.0 -0.8217928803 0.1897835588 -5.34718e-05 8.49981e-05 6.74319e-05 2.98477e-05 0.8310331337 -0.1999814092
125299250.0 -0.8208396213 0.1984792108 -1.0971e-05 3.00944e-05 -4.07541e-05 -0.0001301981 0.8286117655 -0.2083824069
130299220.0 -0.8182004257 0.207527578 -0.0002240256 9.21631e-05 0.0001213803 -0.0001139227 0.8269562391 -0.216410455
135299190.0 -0.816661087 0.2170825755 -6.87981e-05 -0.0001066091 0.0001338491 -3.06338e-05 0.8252353321 -0.2243698287
140299160.0 -0.8144165363 0.2256605699 0.0001543281 3.13149e-05 0.0001750851 0.0001344447 0.8224339148 -0.2325409669
145299130.0 -0.8122371398 0.2341351094 2.0788e-06 -0.0001570174 -6.79288e-05 -5.99679e-05 0.8199543944 -0.2406872957
150299100.0 -0.8102758015 0.2432485587 -0.0001064912 -0.0002098878 7.27523e-05 6.65708e-05 0.8175820106 -0.2486580812
155299070.0 -0.80755815 0.2523523852 -0.0002037579 -3.729e-07 -5.78214e-05 0.0001228514 0.8153301419 -0.2559176461
160299040.0 -0.804965201 0.2614137252 -2.33071e-05 0.0001712287 2.0568e-06 0.0001235101 0.8127873105 -0.2644984774
165299010.0 -0.8018585429 0.2694715579 -0.0001536169 0.0002759281 1.83909e-05 0.0002426608 0.8107209988 -0.2726918885
170298980.0 -0.7994779207 0.2780864472 4.24207e-05 -0.0002361791 0.0001548358 0.0001726779 0.8070402294 -0.2803844308
175298950.0 -0.7973901646 0.2870677398 7.0312e-05 -8.18837e-05 2.81334e-05 1.04637e-05 0.8043976795 -0.288114382
180298920.0 -0.7939937606 0.2954733225 -4.3432e-05 9.06403e-05 1.34694e-05 -3.77177e-05 0.8016284947 -0.2961594749
185298890.0 -0.7901189536 0.3040760654 -0.0001533147 0.0001806888 -5.82851e-05 -0.0002816299 0.7988657269 -0.3043481074
190298860.0 -0.7870785132 0.3124670079 3.01693e-05 4.3174e-06 8.72354e-05 -1.75577e-05 0.7959480595 -0.3113450368
195298830.0 -0.7837349473 0.320554639 -5.06172e-05 -3.64395e-05 -0.0001611506 -3.31039e-05 0.7927094145 -0.3187812942
200298800.0 -0.7810497728 0.3292250203 -4.95223e-05 0.000195271 2.18416e-05 0.0001634068 0.7895602744 -0.3274810234
205298770.0 -0.7775115664 0.337320157 -0.0001152396 -0.0001089729 6.40477e-05 5.3009e-05 0.7864838633 -0.3347017395
210298740.0 -0.7734097351 0.3455452793 9.10458e-05 -6.50562e-05 0.0001632324 1.7826e-05 0.7835999213 -0.3424448683
215298710.0 -0.7703179298 0.3542791993 -7.79814e-05 -1.04559e-05 -1.28709e-05 -0.0001564559 0.7797252877 -0.3503611327
220298680.0 -0.7672959231 0.3623352254 1.79257e-05 1.84635e-05 -0.0001312532 0.000124379 0.7765061795 -0.3571772164
225298650.0 -0.7629261428 0.3709308525 5.10045e-05 -0.0001300338 0.0001692016 -4.8216e-06 0.7729131173 -0.3653766571
230298620.0 -0.7586993971 0.3785768484 6.50677e-05 0.0001117877 4.0966e-06 1.7049e-05 0.7694704682 -0.3729133712
235298590.0 -0.7547252875 0.3877369382 -8.6727e-05 -0.0001203226 3.82141e-05 -0.0001060619 0.7656883099 -0.3798512868
240298560.0 -0.7507666016 0.3947609786 -9.6627e-05 -0.0002571141 9.73028e-05 5.22443e-05 0.7624393878 -0.3874172193
245298530.0 -0.7463231031 0.4031327375 -0.0001514981 -5.84565e-05 -5.71117e-05 -7.37357e-05 0.7580545676 -0.3948042652
250298500.0 -0.7424926087 0.4111996614 1.37273e-05 0.000181743 -8.7457e-06 -0.0001455791 0.7542111436 -0.402694007
255298470.0 -0.7377112972 0.4189318841 -3.52241e-05 -4.70355e-05 -0.0001175322 -8.55835e-05 0.7507648595 -0.409646317
260298440.0 -0.7341413068 0.4261606565 -0.0002070546 0.0002487377 1.42136e-05 -3.24348e-05 0.7465539024 -0.4165957485
265298410.0 -0.7290328124 0.4342278716 -0.0002669254 -0.0001425639 3.2229e-05 -1.74913e-05 0.7426972998 -0.4244111946
270298380.0 -0.7243649724 0.4415587516 0.0001144461 4.56318e-05 1.32993e-05 0.0002683635 0.7393291074 -0.4307674939
275298350.0 -0.719394494 0.4489644513 -8.09292e-05 4.1181e-05 -8.1684e-06 -8.79155e-05 0.734827057 -0.4376512654
280298320.0 -0.7152749157 0.4565627382 -0.0002319146 0.0001163711 -5.21227e-05 4.87001e-05 0.7312437096 -0.4452614467
285298290.0 -0.7104437334 0.4645233329 -0.0001713428 4.71159e-05 -9.49173e-05 0.0001214917 0.726000556 -0.4523892787
290298260.0 -0.7059480783 0.4717249847 -4.50944e-05 5.40197e-05 9.12413e-05 0.0001138196 0.7225027023 -0.4590819439
295298230.0 -0.7005036972 0.4794648726 -6.42735e-05 -0.0001198756 8.82797e-05 -0.0001627998 0.7177342661 -0.4658232555
300298200.0 -0.6947589494 0.4867376091 -9.11403e-05 5.19509e-05 4.00053e-05 -4.38401e-05 0.7138228853 -0.4732455797
305298170.0 -0.690085618 0.4941900318 0.0001044852 0.0001459914 7.09455e-05 -0.0001586362 0.709991041 -0.4798291671
310298140.0 -0.6846614419 0.5004896487 1.72596e-05 1.89684e-05 0.0001018484 6.30178e-05 0.7051134694 -0.4869857911
315298110.0 -0.6790864409 0.5079711341 -0.0001672664 -9.2919e-06 7.28073e-05 -4.4444e-06 0.7008066901 -0.4940863987
320298080.0 -0.6742478483 0.5159453739 -2.58305e-05 3.34168e-05 0.0001776129 -6.54152e-05 0.6962500733 -0.5019726312
325298050.0 -0.6682533946 0.5222231232 -0.00020801 1.984e-07 0.0002087621 0.0001813625 0.6912216351 -0.5095447592
330298020.0 -0.6630050009 0.5294695201 -1.8018e-05 -0.0001088744 -0.0002150865 8.6088e-05 0.685607948 -0.5165739503
335297990.0 -0.656516894 0.5364406299 -7.84917e-05 5.13533e-05 -9.5118e-05 -4.30458e-05 0.6802002302 -0.523732728
340297960.0 -0.6523352053 0.5429136997 -3.94984e-05 8.47601e-05 3.55539e-05 0.0001429916 0.6738583092 -0.5295836929
345297930.0 -0.6466980191 0.5492984411 -5.4063e-05 -9.02766e-05 -4.56694e-05 -2.72767e-05 0.6686506542 -0.5358328258
350297900.0 -0.6401907714 0.5565114642 0.0001628493 2.11345e-05 -0.000107055 -3.30954e-05 0.663379922 -0.5418148489
355297870.0 -0.6344533796 0.5625617337 8.94642e-05 -5.57756e-05 -3.55438e-05 0.0001101492 0.6574658514 -0.5475976621
360297840.0 -0.6283872881 0.5690286927 0.0001768851 -0.0002273222 5.91171e-05 0.0001730914 0.6524530476 -0.5533025567
365297810.0 -0.6224398627 0.575766667 -0.000207333 -2.46402e-05 -0.0001143047 -4.0461e-05 0.6464792419 -0.5602884239
370297780.0 -0.6162385632 0.5818070223 6.83975e-05 7.03306e-05 5.23014e-05 8.19743e-05 0.6409778043 -0.5658708574
375297750.0 -0.6101478001 0.588624036 3.05496e-05 -0.0001902171 4.90898e-05 -3.67914e-05 0.6349711381 -0.571955457
380297720.0 -0.6038583092 0.5945846778 -0.0002302219 0.0001110862 -4.60972e-05 7.5931e-05 0.6300811043 -0.5773725434
385297690.0 -0.597606145 0.6005130424 -0.0004879538 1.43263e-05 0.0001429559 0.0001034944 0.6236321187 -0.5830921624
390297660.0 -0.5917046465 0.6072805949 0.0001202785 0.0001298347 -6.92274e-05 -0.0001228168 0.6184869405 -0.5899424164
395297630.0 -0.5849982497 0.6131750003 3.61714e-05 -0.000378163 -0.0002144591 5.50208e-05 0.6128643258 -0.5951395602
400297600.0 -0.5788799342 0.6195543575 -0.0001669184 -0.0001118905 -3.52847e-05 0.0001759342 0.606173171 -0.6012785788
405297570.0 -0.5726594833 0.6253328785 5.00221e-05 0.0001165626 1.47611e-05 -3.919e-07 0.6013030306 -0.6066268755
410297540.0 -0.5655511037 0.6305850595 -7.31765e-05 0.0002908704 -7.07061e-05 -0.0001051782 0.5953504256 -0.6125078074
415297510.0 -0.5592141026 0.6360532294 0.0002295577 -0.0001575226 -1.17705e-05 0.0001482029 0.5886366239 -0.6185252245
420297480.0 -0.5517164102 0.6422312386 -4.84267e-05 7.25461e-05 5.69004e-05 0.0001976325 0.5828485101 -0.6242093187
425297450.0 -0.5452574297 0.6483590663 2.33395e-05 0.0001176801 -0.0002104497 -0.000203039 0.5767497056 -0.6289242151
430297420.0 -0.5396434479 0.6536161833 -0.0001471424 -5.79916e-05 -3.90028e-05 0.000151243 0.570291741 -0.6348992271
435297390.0 -0.5316522044 0.6598099581 -7.58759e-05 6.67112e-05 2.0831e-05 0.0001725414 0.5642999394 -0.6399052857
440297360.0 -0.525114484 0.664815284 1.2781e-05 -0.0003299505 -0.0001264606 -6.20877e-05 0.5577524525 -0.6457783653
445297330.0 -0.5189796913 0.6700254488 -0.0001397229 -0.0001750665 -2.85799e-05 -0.0002590557 0.5513751564 -0.6513228345
450297300.0 -0.5113479392 0.6748786804 -2.54233e-05 -0.0004143211 -7.97562e-05 3.6713e-05 0.5445687542 -0.6561446729
455297270.0 -0.5042253236 0.6801176122 -0.0001257808 -8.9198e-05 -0.0002677523 -3.32946e-05 0.5382440062 -0.6615253409
460297240.0 -0.497441598 0.6858107258 0.0001915638 -3.30297e-05 -5.06535e-05 8.38e-06 0.5328896218 -0.6666136941
465297210.0 -0.4903153408 0.6906459902 8.81874e-05 0.000227028 -0.0001205508 -0.0001199471 0.5261105939 -0.6718025623
470297180.0 -0.4831335437 0.694576274 7.85798e-05 -2.8549e-06 4.80705e-05 0.0001470167 0.5182375466 -0.6772506818
475297150.0 -0.4753462086 0.7001631668 1.98003e-05 -0.0003315078 0.0001531027 0.0001310728 0.512208325 -0.6818411247
480297120.0 -0.4684914549 0.7049836963 -0.0001781124 6.77954e-05 -0.0001310455 -6.39356e-05 0.5051133967 -0.6870054412
485297090.0 -0.461170288 0.7095152402 -8.89713e-05 -0.000129704 3.82876e-05 -2.541e-06 0.4984226407 -0.691732112
490297060.0 -0.4541730844 0.7141867556 8.83509e-05 -0.0002464101 4.4334e-05 1.70158e-05 0.491408367 -0.6962567965
495297030.0 -0.4472149071 0.7190128048 -0.0001728166 8.17534e-05 0.0001240517 -3.891e-06 0.4854348603 -0.7009143516
500297000.0 -0.4390038899 0.7232915002 1.21816e-05 4.40858e-05 -7.7529e-05 -0.0001003416 0.4771769452 -0.7062576567
505296970.0 -0.4310203546 0.7273874255 -5.20767e-05 2.99946e-05 0.0001002615 -4.3395e-06 0.4703198714 -0.7111177429
510296940.0 -0.4242492409 0.7323343671 -0.0003208357 -1.29423e-05 -9.2601e-06 4.25663e-05 0.4634126795 -0.7147153758
515296910.0 -0.41708868 0.7363943808 0.0002130914 0.0001447017 -4.63257e-05 -8.60919e-05 0.4558089526 -0.7191929309
520296880.0 -0.4089190373 0.7403668504 6.01193e-05 0.0001611156 0.0001374924 8.02342e-05 0.4496315383 -0.7240409475
525296850.0 -0.4014747662 0.7448060388 1.46588e-05 4.21652e-05 -9.6516e-06 -3.09463e-05 0.4418275199 -0.7279068238
530296820.0 -0.3943004878 0.7480788184 -1.02971e-05 0.000104594 1.06654e-05 -8.83717e-05 0.4345394583 -0.7327771754
535296790.0 -0.3857300473 0.7521126868 -7.08025e-05 0.0001290388 7.13231e-05 4.9258e-06 0.4273201058 -0.7374726586
540296760.0 -0.3781171931 0.7564530055 7.87178e-05 0.000160902 5.15062e-05 3.53424e-05 0.4193251566 -0.740809727
545296730.0 -0.3713119182 0.7595611827 1.30973e-05 -0.000154559 -0.0001879272 0.0001976386 0.4126760677 -0.7454411231
550296700.0 -0.3631116672 0.7635694653 2.62062e-05 6.8957e-06 0.000164758 0.0001350703 0.4051468101 -0.7496669423
555296670.0 -0.3542377088 0.76723462 -2.33597e-05 5.7257e-06 -0.0002315968 -0.0001381674 0.3972091403 -0.7529624748
560296640.0 -0.3464896597 0.7703286391 -0.0001380212 0.0001357137 4.54214e-05 1.8426e-06 0.3898160113 -0.7563268169
565296610.0 -0.3394367786 0.7735742407 -8.58878e-05 -1.82557e-05 1.24468e-05 0.0001078936 0.3823708124 -0.7602676075
570296580.0 -0.3314208784 0.777233508 -0.0002023976 0.000182006 0.0001542099 -1.26262e-05 0.3744515382 -0.7639171849
575296550.0 -0.3236131831 0.7803080661 -5.97052e-05 9.3895e-06 3.85831e-05 9.69513e-05 0.3669557554 -0.767436776
580296520.0 -0.31541429 0.7835566855 9.63944e-05 -2.04141e-05 -7.98044e-05 -2.6579e-05 0.3588943357 -0.7711673511
585296490.0 -0.3074521499 0.7864125337 6.56295e-05 -0.0001057156 -4.69696e-05 -0.0001192198 0.3519068356 -0.7749698882
590296460.0 -0.2997539827 0.7901826756 3.33656e-05 5.1356e-05 0.0001900411 2.94201e-05 0.3437366497 -0.7776392114
595296430.0 -0.2917390004 0.7937616302 9.09554e-05 -0.0003695704 -3.42015e-05 -2.48822e-05 0.3356040901 -0.7810102391
600296400.0 -0.2835070285 0.7953396385 -6.80159e-05 -0.0001187115 -1.1087e-06 0.0001392115 0.3283522664 -0.7838106311
605296370.0 -0.2749755388 0.7991094719 0.000135674 -1.14642e-05 7.81487e-05 4.07712e-05 0.3199014935 -0.7875535642
610296340.0 -0.2672327176 0.8017111843 0.0001042452 5.52151e-05 -5.85296e-05 4.5086e-05 0.3119216735 -0.7900487029
615296310.0 -0.2590825607 0.8044620084 -0.0001531275 0.0001132371 -0.000139938 4.34574e-05 0.3048835834 -0.7936711078
620296280.0 -0.2507585067 0.8062508972 -1.53914e-05 -0.0001386139 -9.7627e-06 4.04028e-05 0.2964821756 -0.7967589026
625296250.0 -0.2428261481 0.8094202829 -0.0001537038 -2.69413e-05 4.92535e-05 0.0002028915 0.2885855425 -0.7985656139
630296220.0 -0.2339354856 0.8118889533 5.84873e-05 -2.55197e-05 -6.60901e-05 6.66861e-05 0.2802843648 -0.801111841
635296190.0 -0.2264878904 0.8143417574 0.0001047402 0.0001764392 -3.50047e-05 5.43187e-05 0.273037908 -0.8034259754
640296160.0 -0.2174945485 0.8155695625 -4.38421e-05 1.33926e-05 -4.4336e-05 0.0001149973 0.2645558685 -0.8065649879
645296130.0 -0.2096542031 0.8179369728 -0.0001503931 -0.0001083167 -8.6878e-05 -7.45489e-05 0.2560762875 -0.8092779681
650296100.0 -0.201818324 0.8204620753 -0.0002594466 1.9735e-06 -0.0001654465 -3.41308e-05 0.2478105622 -0.8109541263
655296070.0 -0.1928892392 0.8220831758 2.1711e-05 -0.0001839354 9.60813e-05 5.25275e-05 0.2394756549 -0.813481406
660296040.0 -0.1849583422 0.8245693746 0.0001015331 5.79873e-05 -2.43375e-05 -5.84662e-05 0.2316810213 -0.8160044895
665296010.0 -0.1769784485 0.8258443034 -0.0001544601 0.0001193661 6.51227e-05 -2.5344e-06 0.2239946908 -0.818055389
670295980.0 -0.1678294157 0.8275870355 -2.76334e-05 -0.0002804751 -3.49205e-05 -6.17504e-05 0.2157386262 -0.8194046971
675295950.0 -0.1600514807 0.8288231099 -4.28295e-05 8.9987e-06 3.7818e-05 -8.66462e-05 0.2073417236 -0.8218789677
680295920.0 -0.1518713294 0.8312814226 0.0001482053 6.86989e-05 4.82506e-05 4.01546e-05 0.1992442286 -0.8236922151
685295890.0 -0.1430963722 0.8321441525 3.0557e-05 0.0001142925 -8.98724e-05 8.07358e-05 0.1909786155 -0.8252377447
690295860.0 -0.134406247 0.8338173747 9.09712e-05 -0.0001928334 -9.08227e-05 0.0001075841 0.1824275104 -0.8268914522
695295830.0 -0.1259043307 0.834088542 -8.5764e-06 -0.000187936 -2.43941e-05 -0.00012305 0.173882862 -0.8288962012
700295800.0 -0.1176939472 0.8355657608 4.39644e-05 0.0001019843 0.000112923 -6.25322e-05 0.166073539 -0.8304679944
705295770.0 -0.108415562 0.8379180151 -0.0001790473 -4.28116e-05 -0.0002152284 3.0037e-05 0.1573487175 -0.8313641586
710295740.0 -0.1008507716 0.8383100921 0.0001877257 -5.59497e-05 5.66288e-05 -0.0001635645 0.1488945513 -0.8318688406
715295710.0 -0.0928696027 0.8393117091 -0.0001054524 5.69308e-05 8.75371e-05 1.35516e-05 0.1409611219 -0.8339422531
720295680.0 -0.0844179067 0.8395381179 -9.07e-07 -0.0001794991 0.0001337037 2.92143e-05 0.132586231 -0.8349430235
725295650.0 -0.0751696697 0.8409459259 -1.60981e-05 -0.0001997882 0.0001801494 -5.56929e-05 0.124376763 -0.8362371189
730295620.0 -0.0674942606 0.84123668 -0.0001389573 -0.0001557236 -4.78703e-05 4.1146e-06 0.1158925024 -0.8378925615
735295590.0 -0.0584689318 0.8416178112 4.20277e-05 -4.90415e-05 0.0002149633 -2.44985e-05 0.1073643826 -0.8386641741
740295560.0 -0.0495341842 0.8427120465 -9.80824e-05 6.71879e-05 -0.0002038677 9.79554e-05 0.0991533238 -0.8398199392
745295530.0 -0.0416166986 0.842973353 -7.24389e-05 -3.037e-06 6.02196e-05 0.0001468678 0.0905022606 -0.8398800755
750295500.0 -0.0337459002 0.8428341724 8.20121e-05 -9.43492e-05 -3.18238e-05 6.3093e-05 0.0824855459 -0.8414720518
755295470.0 -0.0247598601 0.8434990659 0.0001821974 -1.3605e-06 -8.46737e-05 5.96735e-05 0.0743429387 -0.8414679431
760295440.0 -0.0161491366 0.8433848353 8.46797e-05 2.84126e-05 2.98578e-05 0.0001080002 0.0652204156 -0.84229885
765295410.0 -0.0078519688 0.8435060655 0.0001799452 8.06117e-05 -0.0001247768 -6.91904e-05 0.0578102087 -0.8425364054
770295380.0 0.0007619502 0.8445336611 -2.8729e-06 0.0001651861 -0.0002451984 6.06428e-05 0.0492100622 -0.8429468793
775295350.0 0.0093442731 0.8437805479 -7.31542e-05 -7.11328e-05 -8.57271e-05 0.0001292434 0.0400731879 -0.8447649983
780295320.0 0.0177312248 0.8431091589 7.91424e-05 -7.43827e-05 -0.0001019767 6.40629e-05 0.0318064749 -0.8433662102
785295290.0 0.0258918681 0.8440820274 0.0001264808 7.64247e-05 3.71448e-05 6.09553e-05 0.0234349 -0.8437596577
790295260.0 0.0347195088 0.8432100992 4.9406e-05 9.17913e-05 -1.90854e-05 -0.000147805 0.0152299825 -0.8442929884
795295230.0 0.0431837056 0.8436145241 -1.02779e-05 1.3627e-06 -0.0001596051 -6.601e-07 0.0067854247 -0.8439455553
800295200.0 0.0517097557 0.8426432025 1.74216e-05 0.0001496963 5.13061e-05 -1.81766e-05 -0.0020013252 -0.8443913383
805295170.0 0.0599042601 0.8421540754 5.28744e-05 -0.0002248445 -7.35665e-05 -0.0002142154 -0.0111188563 -0.8438372575
810295140.0 0.0679645745 0.841279186 8.05837e-05 -5.64633e-05 -0.0002331731 0.0001842508 -0.0185493457 -0.8425967575
815295110.0 0.0770448385 0.8401217101 -0.0001045088 -8.03357e-05 2.01899e-05 9.74426e-05 -0.0272752605 -0.8426984202
820295080.0 0.085358415 0.8392895875 1.18044e-05 -6.67914e-05 4.11765e-05 -8.28358e-05 -0.0359324437 -0.8431546272
825295050.0 0.0940376681 0.8387159926 2.50556e-05 -4.6035e-05 -0.0001328312 -3.79127e-05 -0.0435745672 -0.8419045302
830295020.0 0.1024407204 0.8372588908 0.0001436347 -0.0002137172 -3.55112e-05 0.0001278972 -0.053243595 -0.8416045968
835294990.0 0.1102934865 0.8366916265 -6.61969e-05 4.10922e-05 -5.83417e-05 -2.9266e-06 -0.0616826173 -0.8409776979
840294960.0 0.1188821413 0.8352885486 0.0001178079 6.70757e-05 -6.89207e-05 1.71669e-05 -0.0699378733 -0.8393242189
845294930.0 0.127272751 0.8342695465 -4.1997e-06 9.70157e-05 -0.0002238427 -0.0001069094 -0.077326504 -0.8388021044
850294900.0 0.1352051469 0.8328281424 -0.0001078061 -9.13057e-05 -3.63038e-05 0.0001017062 -0.0858821939 -0.8375964119
