!Created with skrf (http://scikit-rf.org).
# Hz S RI R 50.0 
!freq ReS11 ImS11 ReS21 ImS21 ReS12 ImS12 ReS22 ImS22
300000.0 -0.0997057042 -0.0695857226 0.628870105 0.0655254155 0.6234805346 0.0663097549 -0.0999654799 -0.0788074148
5299970.0 -0.1019892613 0.0126724017 0.630596753 0.0102985456 0.6303579178 0.0103800725 -0.1005669273 0.0132971325
10299940.0 -0.0970355724 0.0292411951 0.6339109691 0.0152294835 0.6341189183 0.0155490637 -0.0956604046 0.0301762333
15299910.0 -0.0896232357 0.0426122045 0.6405049915 0.0206986002 0.6401770127 0.0205583746 -0.0885713327 0.0435317165
20299880.0 -0.0817435172 0.05292834 0.6482799023 0.0245465768 0.6485598919 0.0241684402 -0.0796126395 0.0544964513
25299850.0 -0.0723141946 0.0622565969 0.6577572649 0.0253315102 0.6576230198 0.0253507758 -0.0695375877 0.0635381645
30299820.0 -0.0621968694 0.069022263 0.6673791137 0.0245515598 0.6672884251 0.0242952566 -0.0597313855 0.0703102685
35299790.0 -0.0523461377 0.0738153849 0.6770174819 0.0210502381 0.6768372698 0.0213786727 -0.0498487165 0.0749727433
40299760.0 -0.0435137937 0.0771627943 0.6859267408 0.0173548991 0.6864803267 0.0175989274 -0.0401906722 0.0777944733
45299730.0 -0.03393274 0.0795336809 0.6951841111 0.0120112754 0.6954971006 0.011745267 -0.030935401 0.0797993991
50299700.0 -0.0254647621 0.0801925558 0.7036265259 0.0049579203 0.703501609 0.0056352577 -0.0223881091 0.0804528329
55299670.0 -0.0177441567 0.0804297428 0.7111678079 -0.0032346698 0.7105125567 -0.0025485289 -0.0147409626 0.0805745987
60299640.0 -0.0101721155 0.0802029637 0.7175134211 -0.0110285861 0.717811633 -0.0112199005 -0.0076285118 0.079628838
65299610.0 -0.0037143379 0.0790574958 0.7230280136 -0.0200575763 0.7236779153 -0.0197961837 -0.0013199839 0.0788895409
70299580.0 0.002491328 0.0776377401 0.7285100574 -0.0296133635 0.7283773172 -0.0288594346 0.0047965115 0.0767069138
75299550.0 0.0081733403 0.0760424292 0.7326953387 -0.0392337289 0.7329698192 -0.0391136447 0.0097637819 0.0750457225
80299520.0 0.0130552615 0.0736196521 0.7367670805 -0.0488747683 0.7373090009 -0.0489903022 0.0151075134 0.0728167278
85299490.0 0.017796083 0.0713216239 0.7400693031 -0.0585605532 0.7403355325 -0.0581824866 0.0192889314 0.0698555229
90299460.0 0.0219051718 0.0689950238 0.742563017 -0.0692983858 0.7432243441 -0.0687273903 0.0233062279 0.0679347635
95299430.0 0.0256308823 0.0666232985 0.7459136235 -0.0789984201 0.7458855627 -0.0787934157 0.0272528865 0.0652027403
100299400.0 0.0291917878 0.0647219386 0.7464637019 -0.0892989031 0.7468622357 -0.0893422515 0.0309390211 0.0627353068
105299370.0 0.0322832076 0.0621186666 0.7487246149 -0.0996035771 0.749110268 -0.0994583221 0.0340170525 0.060802892
110299340.0 0.0348662067 0.0597322212 0.7503598075 -0.1091278235 0.7495939812 -0.108947027 0.0360584393 0.0578779802
115299310.0 0.0377075796 0.0574318463 0.7502706446 -0.1195366111 0.7504941165 -0.1188967542 0.0389893361 0.0553857958
120299280.0 0.0398958 0.0547279555 0.7513504574 -0.1294324056 0.7512340584 -0.1294746144 0.0413291014 0.0532222708
125299250.0 0.0419999764 0.0523679879 0.7515520961 -0.139120979 0.7516120012 -0.1388106835 0.0431379194 0.0502493221
130299220.0 0.0435234309 0.0506173143 0.7510667198 -0.1493596516 0.7510666711 -0.1490345674 0.0446893512 0.0482195919
135299190.0 0.045450026 0.0484596937 0.7513676661 -0.1588347717 0.7510813233 -0.1588926948 0.0469143971 0.0457731675
140299160.0 0.0465372785 0.0464213953 0.7505286038 -0.1685116623 0.7510559988 -0.1691577885 0.0481183427 0.0442526143
145299130.0 0.0482076945 0.0439100966 0.7501173993 -0.1784757149 0.7494624175 -0.1784152318 0.0494637057 0.041873994
150299100.0 0.0499437975 0.0420573295 0.748352306 -0.1875167958 0.7487386202 -0.1875685115 0.0507707021 0.0401863708
155299070.0 0.0504330908 0.03957178 0.7480519061 -0.1982805621 0.7476527742 -0.1981738485 0.0519144782 0.0381765531
160299040.0 0.0521138508 0.0379996877 0.7459282898 -0.2071937339 0.7457133793 -0.2077081676 0.052212535 0.03597722
165299010.0 0.0525368684 0.0364404857 0.7443635764 -0.2173785126 0.7447385624 -0.2166653242 0.0539130879 0.0348842092
170298980.0 0.0533192398 0.0338767674 0.7427283895 -0.2260156014 0.7429633274 -0.2260571053 0.0543147374 0.0329885493
175298950.0 0.0540343992 0.0321953325 0.7415180926 -0.2351829099 0.7406254299 -0.2353648436 0.0550867697 0.0315123819
180298920.0 0.0544000287 0.0305058225 0.7391831302 -0.2448221948 0.7387891239 -0.2438672444 0.0553951443 0.0299234906
185298890.0 0.0557955645 0.0288643717 0.7365599597 -0.2539280404 0.7365549277 -0.2540072963 0.0559954069 0.028354075
190298860.0 0.055699494 0.0273724581 0.7345834804 -0.2630898269 0.7346027714 -0.2629593922 0.0564840953 0.0265105031
195298830.0 0.0563693774 0.0253982076 0.7317941493 -0.2725952651 0.7318546332 -0.271901365 0.0573030615 0.0250163045
200298800.0 0.0563754135 0.0242611782 0.7289114035 -0.2811360512 0.7293583222 -0.2810335729 0.0570080026 0.0239058994
205298770.0 0.0571127401 0.0226225336 0.7256446536 -0.2902895277 0.7259648693 -0.2899335074 0.0573954542 0.0215124426
210298740.0 0.0569860634 0.0208900618 0.72282569 -0.2981855642 0.7231926792 -0.2980406768 0.0580888178 0.0214181026
215298710.0 0.0569906778 0.0195071287 0.7204441403 -0.3073399411 0.7199610203 -0.3073204973 0.0576620254 0.0198413138
220298680.0 0.0575754202 0.0177266036 0.7165474277 -0.3158198849 0.7165770458 -0.3157692434 0.0576809905 0.0179349696
225298650.0 0.0580704279 0.0167181917 0.7136427295 -0.3247770914 0.7139145695 -0.3246828525 0.0576180063 0.0166447243
230298620.0 0.05787908 0.0159389035 0.7105143211 -0.3327871892 0.7109063406 -0.333208723 0.0575082881 0.015187079
235298590.0 0.0579054649 0.014858697 0.7068417193 -0.3413468012 0.7072443838 -0.3409320727 0.0577168805 0.0138767537
240298560.0 0.0581868031 0.0133913615 0.7034030986 -0.3497261476 0.7034588685 -0.3498739469 0.0577769514 0.0131417786
245298530.0 0.0581052909 0.0120418183 0.6999183084 -0.3584548913 0.7000125985 -0.3581038045 0.0581912427 0.0108838009
250298500.0 0.0584556365 0.0112335719 0.6951670346 -0.3664141371 0.6950053025 -0.3659151026 0.0577253271 0.0104257195
255298470.0 0.0583019624 0.0093679191 0.6911499376 -0.3744102741 0.6917704211 -0.3739173191 0.058033834 0.008920601
260298440.0 0.057940315 0.0080018933 0.6873101778 -0.3833442786 0.6876609077 -0.3823898971 0.0585667416 0.0078726409
265298410.0 0.0589919143 0.0076120698 0.6836840285 -0.3914725976 0.6837116718 -0.390544526 0.0582420177 0.0071602793
270298380.0 0.0585062953 0.0063167166 0.6801227317 -0.3985603655 0.6793901837 -0.3983243306 0.0578643564 0.0059002537
275298350.0 0.0589918752 0.0052666049 0.6751985698 -0.4066204028 0.6752025544 -0.4066061355 0.0583258394 0.0043507142
280298320.0 0.0586716558 0.0043596909 0.6711610245 -0.4144544884 0.6710279566 -0.41432385 0.0586154774 0.0033727641
285298290.0 0.0587418799 0.0031565299 0.6663990791 -0.4223034932 0.6660905896 -0.4225867376 0.0583162282 0.0021992822
290298260.0 0.0589673003 0.0020365165 0.6617699291 -0.4297132165 0.6622490649 -0.4298356701 0.0588582432 0.0014539515
295298230.0 0.0589832341 0.0010874431 0.6572844155 -0.4376972315 0.6575628377 -0.4372668952 0.0592546159 0.000240031
300298200.0 0.0585247635 -0.000427916 0.6530367649 -0.4454354634 0.6529776184 -0.4456521546 0.0586620228 -0.00073096
305298170.0 0.0588830091 -0.001535326 0.6472295088 -0.4536727241 0.6476602478 -0.4529420714 0.0593737359 -0.0018895571
310298140.0 0.0586169197 -0.0023479914 0.6432546181 -0.4608013763 0.6434603274 -0.4603109305 0.0593721786 -0.0029195004
315298110.0 0.0587077454 -0.004140609 0.638262819 -0.4684280366 0.638352042 -0.468434509 0.0588967086 -0.0043873823
320298080.0 0.0587778285 -0.0047984661 0.6320882468 -0.4765802255 0.6327453962 -0.475753233 0.0587427673 -0.0054202171
325298050.0 0.0577445636 -0.0062095133 0.6273533047 -0.4839677282 0.62717634 -0.4829531829 0.057965667 -0.0060523312
330298020.0 0.0575095818 -0.0073965979 0.6213109805 -0.4911919396 0.6216200118 -0.4912147861 0.0576432119 -0.0074725026
335297990.0 0.0573010294 -0.0086581358 0.6155403505 -0.4978900521 0.6154220117 -0.4978558668 0.056835206 -0.0077764663
340297960.0 0.0562160302 -0.0091159007 0.6096787033 -0.5045979656 0.6093949292 -0.5050229773 0.0572404366 -0.0089611391
345297930.0 0.055835475 -0.0091082158 0.6042668993 -0.5122595949 0.6040136451 -0.512227258 0.0565113765 -0.0098687811
350297900.0 0.0553842688 -0.0110037988 0.5974813604 -0.5189219129 0.5978915602 -0.5186382925 0.0555514024 -0.0096656647
355297870.0 0.0549126889 -0.0105724369 0.5921305806 -0.5253099032 0.5924726215 -0.5249193108 0.0554088059 -0.0107152291
360297840.0 0.0545927231 -0.0115147946 0.5872322817 -0.5315509356 0.5876041942 -0.5315148353 0.0549591191 -0.0111289123
365297810.0 0.05414753 -0.0118043645 0.5809416017 -0.538848694 0.5810445348 -0.53819096 0.0547915619 -0.0119342628
370297780.0 0.0542937169 -0.0132092366 0.5745812544 -0.5450993215 0.5753865793 -0.5441997012 0.054240183 -0.0121399486
375297750.0 0.0538677932 -0.0138479972 0.5684585179 -0.5508210693 0.569863174 -0.55063499 0.0543552727 -0.0128932617
380297720.0 0.0533599495 -0.0143073413 0.5627540216 -0.5579355049 0.5629391834 -0.5568430348 0.0534680116 -0.0140642703
385297690.0 0.0529698477 -0.0152524025 0.5561055264 -0.5641618015 0.5565456299 -0.5633852037 0.053442806 -0.0142038723
390297660.0 0.0526522157 -0.0154171431 0.5501847471 -0.5698639004 0.5501338009 -0.5694509418 0.0525011364 -0.0150647034
395297630.0 0.0520137689 -0.0157981035 0.5440771137 -0.5758686338 0.5443199913 -0.5760127022 0.053033131 -0.0155478085
400297600.0 0.0519422414 -0.0167356949 0.5370645992 -0.5824594722 0.5374472789 -0.5823101049 0.0521954933 -0.0160492957
405297570.0 0.0513140915 -0.017449033 0.5310825818 -0.5877238969 0.5312135384 -0.5874858964 0.0516272056 -0.0168907289
410297540.0 0.0515137666 -0.0179106415 0.5249495192 -0.5940726125 0.5253251085 -0.5936459501 0.0512376949 -0.0171498522
415297510.0 0.0513017099 -0.0187961008 0.517779358 -0.6002908134 0.5183988198 -0.5999644468 0.0507347754 -0.0175880346
420297480.0 0.0509867636 -0.0188389114 0.511344263 -0.6056159919 0.5112746402 -0.6054568834 0.0505503545 -0.0188762729
425297450.0 0.0502865395 -0.0202741637 0.5049381181 -0.6111791928 0.505192923 -0.6112082453 0.0496876552 -0.0187372936
430297420.0 0.0498649151 -0.020749395 0.4976028214 -0.6163478022 0.4978016649 -0.6164163505 0.0494313724 -0.0201957341
435297390.0 0.0495489331 -0.0211883963 0.4911468384 -0.6222860548 0.4909409178 -0.6220659362 0.0500545451 -0.020417103
440297360.0 0.0495399043 -0.0215502197 0.4841366247 -0.6275163775 0.484459699 -0.6275523006 0.0488330777 -0.0214778568
445297330.0 0.0487467835 -0.0229445071 0.4778884056 -0.633110677 0.477497327 -0.6325618595 0.0489986143 -0.0222270522
450297300.0 0.0488930003 -0.023337564 0.4703952878 -0.6383332721 0.4705017198 -0.6386698206 0.0486290075 -0.0230267938
455297270.0 0.0483644024 -0.023745659 0.4631442159 -0.6431960607 0.463355509 -0.6436515022 0.0480601324 -0.0234345048
460297240.0 0.0476037607 -0.0243037857 0.4559358296 -0.6486056803 0.4563425621 -0.6486383543 0.0479034407 -0.0237273457
465297210.0 0.0477279122 -0.0248084377 0.4493769391 -0.6538951737 0.4491867789 -0.654141647 0.0472986364 -0.0250168377
470297180.0 0.0471065106 -0.0259487502 0.4412975636 -0.6582995684 0.4417683851 -0.6585362263 0.0470671209 -0.0249567828
475297150.0 0.0469117433 -0.0264938925 0.4343991582 -0.6628883411 0.4348188373 -0.6632655625 0.0471820435 -0.0260244252
480297120.0 0.0460560295 -0.0262438163 0.427208895 -0.6684460155 0.4269485712 -0.668751756 0.0468430663 -0.0261053085
485297090.0 0.0455294893 -0.0268742628 0.4206426964 -0.6726906605 0.4200246664 -0.6726123602 0.0465545146 -0.0269580052
490297060.0 0.044599902 -0.0276404807 0.413034931 -0.6776328771 0.413009578 -0.6770019052 0.0458148902 -0.0267834877
495297030.0 0.0447994811 -0.0281976121 0.4047748239 -0.682006409 0.4057153799 -0.6820596156 0.0452153916 -0.02756427
500297000.0 0.0442631298 -0.0289349162 0.3973735427 -0.685944846 0.3971909584 -0.685955608 0.0452128424 -0.0274969936
505296970.0 0.0440344556 -0.0293843529 0.3903037884 -0.6906743942 0.3896327538 -0.6907101077 0.0444484288 -0.0281993547
510296940.0 0.0434177095 -0.029486826 0.3825620704 -0.6947747114 0.3821104383 -0.6955645882 0.0445651277 -0.0284985969
515296910.0 0.0427400753 -0.029765603 0.374505343 -0.6995707408 0.3751505973 -0.6988959244 0.0440483035 -0.0289343651
520296880.0 0.0425292842 -0.0302674176 0.3669229901 -0.7040537961 0.3673504973 -0.7028218049 0.0433424863 -0.0294606915
525296850.0 0.0421612564 -0.0313527642 0.3591529558 -0.7073841584 0.360021761 -0.7071059473 0.042587276 -0.029936871
530296820.0 0.041287278 -0.0312227325 0.3509381046 -0.7115244107 0.3517655064 -0.711329872 0.0424565626 -0.0299317958
535296790.0 0.0407044467 -0.0316692056 0.3440620954 -0.7149014791 0.3443480754 -0.71478213 0.0420156534 -0.0309044438
540296760.0 0.0400723789 -0.0316937577 0.3359828657 -0.7194587318 0.3356343809 -0.7190403675 0.0406786207 -0.0303322485
545296730.0 0.0397372382 -0.0324948977 0.3276800526 -0.7220466039 0.3277883816 -0.7225153487 0.0403756835 -0.0312152101
550296700.0 0.0397907228 -0.0324649381 0.3198139346 -0.7261643622 0.3202378167 -0.7263567739 0.0398930115 -0.031372765
555296670.0 0.0388863891 -0.0330123357 0.3122071883 -0.7297422392 0.3125752996 -0.7294453595 0.0397334216 -0.0317592699
560296640.0 0.0387139302 -0.0331309065 0.3040991828 -0.732961826 0.3044370106 -0.7328845868 0.0386854532 -0.0325286092
565296610.0 0.0375866953 -0.0339813167 0.2957606125 -0.7367180735 0.295811609 -0.7359419105 0.0380638893 -0.0328432274
570296580.0 0.0372345264 -0.0339529154 0.2881784341 -0.7401472414 0.2875242806 -0.7391285198 0.0374288833 -0.0324523095
575296550.0 0.0363349759 -0.0343849108 0.2797608789 -0.742756042 0.2800430542 -0.7429941625 0.0374724551 -0.0334056279
580296520.0 0.0362047727 -0.0346528067 0.2717523806 -0.7463973186 0.2717225535 -0.7451681362 0.036636246 -0.0340207726
585296490.0 0.0355695633 -0.0356897873 0.2639112572 -0.7481731175 0.2638868878 -0.7485224224 0.0361082986 -0.0341395266
590296460.0 0.0356623422 -0.0353792069 0.2556449306 -0.7506818044 0.2552587444 -0.7510746233 0.0346858133 -0.0344623621
595296430.0 0.0350137849 -0.0357194504 0.2469307159 -0.7546019552 0.2472418288 -0.753872387 0.0350550913 -0.0352196903
600296400.0 0.0340073264 -0.0364255305 0.2392426774 -0.7568461141 0.2391198644 -0.7566372269 0.0343343385 -0.0357654987
605296370.0 0.0336478221 -0.0363410364 0.2304361828 -0.7588468196 0.2310796984 -0.7591541965 0.0335778735 -0.0358401901
610296340.0 0.0332587908 -0.0368300348 0.2218410796 -0.7617707158 0.2225952306 -0.7618457408 0.0334206412 -0.0363757612
615296310.0 0.0328233726 -0.0378026031 0.2135176282 -0.7637338628 0.2134944963 -0.7645163665 0.0330722301 -0.0364277173
620296280.0 0.0321282009 -0.0379428383 0.2059639046 -0.7661745609 0.2056126682 -0.7658509902 0.0321490337 -0.0369760216
625296250.0 0.0311935484 -0.0386138032 0.1976321606 -0.7689615777 0.1974798481 -0.7688148197 0.0324782207 -0.0372395432
630296220.0 0.0320191487 -0.0381667844 0.188033623 -0.7704492138 0.1883407149 -0.770452127 0.0314313499 -0.0373510497
635296190.0 0.0296608406 -0.0392254674 0.1801204057 -0.7724026536 0.1803671429 -0.7727291686 0.0311401763 -0.0375469242
640296160.0 0.0294802296 -0.0389911038 0.172228978 -0.7744757445 0.1721790849 -0.7745210282 0.0304749235 -0.0380968641
645296130.0 0.0292413054 -0.0391595535 0.16318254 -0.7760709309 0.1635528019 -0.7767536594 0.0299381569 -0.0382479951
650296100.0 0.0285870451 -0.0394460039 0.1546065074 -0.7775180603 0.1552026897 -0.7780925337 0.0299127828 -0.0390960223
655296070.0 0.0274542332 -0.0402497861 0.1462523715 -0.7800448607 0.1469877783 -0.7800783419 0.0294258331 -0.0388446106
660296040.0 0.0266007737 -0.0403553008 0.1379866614 -0.7810729447 0.1385089545 -0.7815172587 0.0292276511 -0.0392421055
665296010.0 0.0271311461 -0.0402991662 0.1289374149 -0.7826295675 0.1296596837 -0.782741309 0.0283202102 -0.03869075
670295980.0 0.0251343575 -0.0404497616 0.1210325594 -0.7836252242 0.1213321977 -0.7841749599 0.0275413351 -0.0389954832
675295950.0 0.0251809931 -0.0402361495 0.1126473543 -0.7850779737 0.1124610673 -0.7848339393 0.0268802131 -0.0392276402
680295920.0 0.0240701829 -0.0410505493 0.1033408598 -0.7864794473 0.1028989859 -0.7867594138 0.026415295 -0.0387748546
685295890.0 0.0238363424 -0.0403540258 0.0950620453 -0.7877627437 0.0949316005 -0.7883170422 0.0257046645 -0.0390432306
690295860.0 0.0234483332 -0.0406197884 0.0869895925 -0.7879862471 0.0863922488 -0.7889741937 0.0250519055 -0.0385012943
695295830.0 0.0228714407 -0.0413634766 0.0791980703 -0.7888011101 0.0776701348 -0.7892267391 0.0242909055 -0.0392194637
700295800.0 0.0224006289 -0.0416270112 0.069202656 -0.7896236489 0.0690434293 -0.7894877692 0.0235443893 -0.0385711878
705295770.0 0.0214189682 -0.0407387788 0.0605732423 -0.7905594456 0.0610883314 -0.7907322533 0.0231815215 -0.0390073298
710295740.0 0.0210606231 -0.0412980749 0.0530191245 -0.7918584509 0.05256463 -0.7918722443 0.0225691094 -0.0399302777
715295710.0 0.0197582428 -0.0415702843 0.0442031911 -0.7924429074 0.0432351881 -0.7920664316 0.0224361343 -0.0396112916
720295680.0 0.0197357282 -0.0417272096 0.0349837858 -0.7930962386 0.035349558 -0.7920486258 0.0213898571 -0.0392239427
725295650.0 0.0194263132 -0.0418125351 0.0263478858 -0.7929524081 0.0265447788 -0.7931253662 0.0201900886 -0.0390368811
730295620.0 0.0189013579 -0.0413135107 0.0176460552 -0.7927365731 0.0183342959 -0.7929401428 0.019584724 -0.0397997259
735295590.0 0.0179436552 -0.0416744276 0.009275319 -0.7935818998 0.0089246465 -0.7932516405 0.0188862546 -0.0402595172
740295560.0 0.0169934517 -0.0417118419 0.000209278 -0.7930614423 0.0004205917 -0.7931618556 0.0188897094 -0.0395720673
745295530.0 0.0166702661 -0.0415397251 -0.0079902052 -0.7925901496 -0.0083949317 -0.7931434442 0.0181462761 -0.0402374159
750295500.0 0.0162959236 -0.0417460974 -0.0168264368 -0.7924957841 -0.0167343582 -0.7934142887 0.0175468689 -0.0400438557
755295470.0 0.0158249604 -0.0421817995 -0.024990497 -0.7926582879 -0.025123701 -0.7928515421 0.0173774472 -0.0406987733
760295440.0 0.0150413842 -0.0418236552 -0.0339911036 -0.7928135543 -0.0336303767 -0.7929487705 0.0164277207 -0.0407961014
765295410.0 0.0143478622 -0.0419989633 -0.0427113154 -0.7917559265 -0.042949538 -0.7922074595 0.0160279282 -0.0408238012
770295380.0 0.0132987586 -0.042296534 -0.052067579 -0.7915003498 -0.0515465875 -0.7911246956 0.0151347927 -0.0410227603
775295350.0 0.0128921693 -0.0429492495 -0.0597163679 -0.7905963612 -0.0596534198 -0.7903973019 0.0137986275 -0.0401181307
780295320.0 0.0124586649 -0.0421914893 -0.0686315376 -0.7899859412 -0.0677147713 -0.7900530433 0.0135412776 -0.041435009
785295290.0 0.0111982706 -0.04283887 -0.0775259836 -0.7885783972 -0.0767956071 -0.7893437911 0.0139969222 -0.0408366338
790295260.0 0.0116987356 -0.0416662674 -0.0854142067 -0.7880020017 -0.0843756979 -0.7882532455 0.0128416864 -0.0410395843
795295230.0 0.0106962019 -0.0427189352 -0.0943914596 -0.7871278022 -0.0936600226 -0.7872007959 0.0124623087 -0.0405259564
800295200.0 0.0093993787 -0.0421112957 -0.103383984 -0.785629655 -0.1027826226 -0.7860238631 0.0115957616 -0.0409815023
805295170.0 0.009144948 -0.0425780861 -0.1109186343 -0.7846413495 -0.1116806526 -0.7852001712 0.0113234147 -0.0408011715
810295140.0 0.0081270166 -0.0428301309 -0.1198875504 -0.7827661239 -0.119515633 -0.7837224137 0.01133752 -0.040590631
815295110.0 0.0080066992 -0.0429144388 -0.1282316734 -0.7822752012 -0.1279319831 -0.7819176471 0.00979371 -0.0405024465
820295080.0 0.0066397819 -0.0418600458 -0.1368381953 -0.7806629999 -0.1360482148 -0.7805800587 0.0093651348 -0.0405823144
825295050.0 0.0069988207 -0.0419059676 -0.1443552486 -0.7785999761 -0.145067524 -0.7792647978 0.0094990229 -0.0405603701
830295020.0 0.0060909835 -0.0416573909 -0.1536321936 -0.7771052827 -0.1535882639 -0.7771003171 0.0093282468 -0.040234909
