!Created with skrf (http://scikit-rf.org).
# Hz S RI R 50.0 
!freq ReS11 ImS11 ReS21 ImS21 ReS12 ImS12 ReS22 ImS22
300000.0 -0.235312452 -0.1089929709 0.4675847798 0.0723687843 0.4717198829 0.0746296276 -0.2378802643 -0.1146199262
5299970.0 -0.2407317246 0.0071053034 0.4750621628 0.0054705377 0.4750835682 0.0059816938 -0.2445647155 0.0054044492
10299940.0 -0.2373507937 0.0199942791 0.4774828371 0.0063494528 0.4770636052 0.0064129878 -0.2417534837 0.0176363524
15299910.0 -0.2330801833 0.0297572537 0.4804930805 0.0074579714 0.4803987887 0.0076480544 -0.2373804223 0.0263138503
20299880.0 -0.2274289185 0.0378831531 0.4850886385 0.0079909359 0.4852376441 0.0080729589 -0.2328226352 0.0340949572
25299850.0 -0.2217340431 0.0443404802 0.4903064754 0.0069350256 0.4906583866 0.0069823645 -0.227817874 0.0398862995
30299820.0 -0.2157588119 0.0493633296 0.496315024 0.005037551 0.4959157349 0.0047277175 -0.2224342051 0.0451223913
35299790.0 -0.2098929881 0.0538879633 0.5010309711 0.0016573847 0.5012802652 0.0016470127 -0.2173363601 0.048793721
40299760.0 -0.2045870092 0.0571519276 0.506242368 -0.0017678157 0.5063288755 -0.0023532813 -0.2126310679 0.052025385
45299730.0 -0.1994268904 0.0599504454 0.5110269454 -0.0070417124 0.5108706956 -0.0069017033 -0.2081955239 0.054434929
50299700.0 -0.1944418641 0.0618231395 0.5146667248 -0.0122775589 0.51514047 -0.0126957971 -0.2036575826 0.0565198084
55299670.0 -0.1907516644 0.063632654 0.518159771 -0.018601225 0.5186234783 -0.0185623583 -0.1998602828 0.0583803091
60299640.0 -0.1864385059 0.0650061514 0.5218371645 -0.0249700408 0.5217912823 -0.0247775935 -0.1961792435 0.059275686
65299610.0 -0.1832848832 0.066426242 0.5251743889 -0.0308994846 0.5250178786 -0.0309427408 -0.1929982907 0.0607108906
70299580.0 -0.179587242 0.0671120878 0.5272644928 -0.0374367548 0.5273772553 -0.037842532 -0.1899223566 0.06158817
75299550.0 -0.1764732952 0.0681824419 0.5289529129 -0.0448122959 0.5291803025 -0.0447829002 -0.1872845271 0.0626616684
80299520.0 -0.1741392608 0.0687947942 0.5316855181 -0.051363764 0.5314270131 -0.0515397355 -0.1849218542 0.0629378719
85299490.0 -0.1714661743 0.0692882575 0.5325737967 -0.0582677297 0.5323456988 -0.0583049647 -0.182768223 0.0636317208
90299460.0 -0.169348556 0.0703244461 0.5333582931 -0.0650175117 0.5337434081 -0.0654319497 -0.1802616125 0.0642948351
95299430.0 -0.1672103508 0.0709849688 0.5340725883 -0.0724720858 0.5345383452 -0.0721089233 -0.1784626649 0.0650386966
100299400.0 -0.1652100291 0.0719633668 0.5344286377 -0.0792140215 0.5347053848 -0.0791836037 -0.1769370808 0.0654073665
105299370.0 -0.1630480185 0.0725456581 0.5348880796 -0.0861688755 0.5349320005 -0.0858483557 -0.1752033661 0.0659487192
110299340.0 -0.1620432614 0.0728693497 0.5350849549 -0.0926161559 0.535265324 -0.0931400677 -0.1736622189 0.0668444269
115299310.0 -0.1603250767 0.0735994441 0.5353080945 -0.0992442472 0.5353098444 -0.0992361331 -0.1723716142 0.067137928
120299280.0 -0.1591193481 0.0743923042 0.5351315483 -0.1062966374 0.535091736 -0.1069390435 -0.1710316347 0.0680252067
125299250.0 -0.1579189906 0.0752561132 0.5345427787 -0.1129079078 0.5347894669 -0.113180925 -0.1699449026 0.0682103867
130299220.0 -0.1567016078 0.0760530177 0.5339359871 -0.1193210041 0.5338681703 -0.1197924921 -0.1689735225 0.0694459326
135299190.0 -0.1552037443 0.0769180724 0.5335538009 -0.1262468331 0.532954918 -0.1265076439 -0.1681135504 0.0702180303
140299160.0 -0.154369008 0.0780663178 0.5327077319 -0.1328372508 0.5329085458 -0.1332596055 -0.1669434457 0.071128363
145299130.0 -0.1532033395 0.0790267619 0.5317082193 -0.1396237307 0.5314458972 -0.1393571099 -0.1662443647 0.0717708642
150299100.0 -0.151967017 0.0797993282 0.5304152642 -0.1463315814 0.5303674983 -0.1460960011 -0.1651967002 0.0725513337
155299070.0 -0.1513845921 0.081219214 0.5291381902 -0.1529769722 0.5294609423 -0.1534771203 -0.1644230069 0.0737424455
160299040.0 -0.1500852927 0.082060964 0.5274285193 -0.1588618001 0.5278720652 -0.1590753364 -0.1632535231 0.0747934297
165299010.0 -0.1494716926 0.0832533022 0.52660791 -0.165640724 0.5266198991 -0.165733788 -0.1628299544 0.0753093668
170298980.0 -0.1483546672 0.0844728732 0.5244742268 -0.1718361123 0.5248717216 -0.1720173242 -0.1616660961 0.076604386
175298950.0 -0.1474469138 0.0856592922 0.5237152139 -0.1780875308 0.5233543054 -0.1783528898 -0.160841904 0.0774152542
180298920.0 -0.1462497065 0.0869162374 0.5214392314 -0.1843620897 0.5214110186 -0.1845955287 -0.1600191109 0.0789368987
185298890.0 -0.1454806107 0.088067343 0.5196016836 -0.1906958132 0.5197204005 -0.1908469866 -0.1599686493 0.079899811
190298860.0 -0.1444632784 0.0889918894 0.517650511 -0.1968487898 0.5176937972 -0.1969596335 -0.1582641904 0.0805370167
195298830.0 -0.1434864682 0.0901104982 0.5157225683 -0.2025642978 0.5156586622 -0.2034050189 -0.1579641991 0.0816251038
200298800.0 -0.142512162 0.0917622246 0.5140695991 -0.2084247325 0.5135281445 -0.2086993443 -0.1567986371 0.0833827499
205298770.0 -0.1418501775 0.093085069 0.5117758306 -0.214933468 0.5116660745 -0.2149296694 -0.1563604112 0.0839362582
210298740.0 -0.140953962 0.0942334021 0.509463699 -0.2210458017 0.5094653766 -0.2211151479 -0.1558802585 0.0854237059
215298710.0 -0.1399055547 0.0957063949 0.5069099508 -0.2270162256 0.5071137146 -0.2269499349 -0.1553042781 0.0869036147
220298680.0 -0.1389050944 0.0968733516 0.5045257584 -0.2330946526 0.5047006978 -0.232760161 -0.1540245773 0.0881544455
225298650.0 -0.1375729977 0.0985889503 0.5015459899 -0.2383489407 0.5020217344 -0.2384748797 -0.1533531237 0.0892932892
230298620.0 -0.1369186981 0.0998765872 0.4996716844 -0.2443809951 0.5001023364 -0.2441807058 -0.1524927196 0.0904170734
235298590.0 -0.1358930205 0.1011287852 0.4968278976 -0.25009819 0.4971479782 -0.2504531174 -0.151864609 0.0915018613
240298560.0 -0.1348708175 0.102544692 0.4941712364 -0.2557598513 0.4943203654 -0.255549583 -0.1509351834 0.0929052571
245298530.0 -0.1336873157 0.1040002561 0.4909524409 -0.2615770202 0.4912925845 -0.261630058 -0.149981377 0.0942863887
250298500.0 -0.133005436 0.1049684122 0.4885609227 -0.2670336282 0.4887359208 -0.2665024329 -0.148864815 0.0957679983
255298470.0 -0.131914193 0.1067152098 0.4855277199 -0.2726875802 0.485660094 -0.2725191142 -0.1484785269 0.0967811619
260298440.0 -0.1308518054 0.1081501148 0.4830392025 -0.2781993506 0.4828249532 -0.2784227962 -0.1470048761 0.0983635149
265298410.0 -0.1294388568 0.1096650221 0.4799030852 -0.2839581667 0.4796525945 -0.2837256839 -0.1466736416 0.0996046955
270298380.0 -0.1283087457 0.1110726152 0.4764276688 -0.2888346761 0.4766297724 -0.2894390462 -0.1454150723 0.1012726034
275298350.0 -0.1273681543 0.1125091189 0.4735930608 -0.2949038747 0.4738001988 -0.2947893193 -0.1442753137 0.1021920403
280298320.0 -0.1262510828 0.1138802973 0.4702877309 -0.2995064735 0.4701864502 -0.3001231574 -0.1434377718 0.1040674755
285298290.0 -0.1248688877 0.1154518421 0.4668920656 -0.305302878 0.4668911855 -0.3052135543 -0.142665758 0.1051212633
290298260.0 -0.1236869718 0.1165030353 0.4638107429 -0.3107047849 0.46401296 -0.3105335012 -0.1410517242 0.1067229777
295298230.0 -0.122581813 0.1181307071 0.4602607782 -0.3159382915 0.4600873547 -0.3160360915 -0.1400914625 0.1079780853
300298200.0 -0.1209906221 0.1194459812 0.4570165513 -0.3209140873 0.4570620295 -0.3213391076 -0.1394524393 0.1097540713
305298170.0 -0.1196800857 0.1208037335 0.4535294326 -0.3268447367 0.4539451466 -0.3266813596 -0.1378958406 0.1108843897
310298140.0 -0.1179955765 0.121835951 0.4500416368 -0.3319309574 0.4501761785 -0.3319332302 -0.1370774071 0.1126118898
315298110.0 -0.1173011709 0.1231283921 0.446574987 -0.336962334 0.4467845815 -0.3370241471 -0.1356566117 0.1132822964
320298080.0 -0.1159083454 0.1245563863 0.4426724608 -0.3419707073 0.442678305 -0.3421352635 -0.134965737 0.114499296
325298050.0 -0.1146923838 0.1254082473 0.4391131014 -0.3473148782 0.4389128899 -0.3472016182 -0.1336454394 0.1156898677
330298020.0 -0.1133665443 0.1271312927 0.4341061036 -0.3522132696 0.4343394431 -0.3522548329 -0.1329276508 0.1169055933
335297990.0 -0.1122787602 0.1283588708 0.4306259195 -0.3572903293 0.4310147295 -0.3570978597 -0.1322932997 0.1184834078
340297960.0 -0.1113261564 0.1298185263 0.4261266766 -0.3621614204 0.4266756555 -0.3618505201 -0.1311790651 0.1196466528
345297930.0 -0.1102446597 0.131105366 0.4224265797 -0.3658520345 0.4221357167 -0.3661509612 -0.1298930652 0.1211829206
350297900.0 -0.1083921505 0.1323864508 0.4182399033 -0.3705839166 0.4183045255 -0.3710277167 -0.1290911677 0.1226533381
355297870.0 -0.1073081109 0.1336381606 0.4141984895 -0.375206916 0.4144951491 -0.3756266165 -0.1279522306 0.1243547695
360297840.0 -0.1056736012 0.1352646794 0.4096572249 -0.3803610779 0.4099467679 -0.3800728344 -0.1266649893 0.1258728604
365297810.0 -0.1042112572 0.1363604661 0.4059665921 -0.3845954923 0.405719053 -0.3848836125 -0.1255017752 0.1273462102
370297780.0 -0.1027408709 0.1376604423 0.4018166686 -0.3888575686 0.401516099 -0.389470216 -0.1243642672 0.1287381012
375297750.0 -0.1011541214 0.1393275309 0.3976274578 -0.3935444226 0.3972969757 -0.3941777106 -0.122767928 0.1305701054
380297720.0 -0.0995845573 0.1401417549 0.3926539586 -0.3976769372 0.3928423025 -0.3977324517 -0.122003741 0.1318393247
385297690.0 -0.0979932387 0.141641687 0.3882720538 -0.4018077103 0.3883075368 -0.4020259922 -0.1207645565 0.1332075098
390297660.0 -0.0967756458 0.142871193 0.3838469384 -0.4065142222 0.3838323199 -0.4067027594 -0.1194709089 0.1339943545
395297630.0 -0.0947941787 0.1436010884 0.3796525135 -0.4102026685 0.3794910598 -0.410350736 -0.1181036761 0.1359129644
400297600.0 -0.0936831734 0.1453579968 0.3748271598 -0.4146490359 0.3753718313 -0.4149003572 -0.1172186262 0.1371084343
405297570.0 -0.0918471093 0.146608311 0.3706197854 -0.4187844001 0.3706021695 -0.4188759283 -0.1157192257 0.138786833
410297540.0 -0.0901272151 0.1476698502 0.3654499959 -0.4225997037 0.3656781801 -0.4229063361 -0.1143736458 0.1397720474
415297510.0 -0.0887200244 0.1491099883 0.3612376817 -0.4266588942 0.3612649606 -0.4269260685 -0.1128828711 0.1418106857
420297480.0 -0.0868285933 0.1496932524 0.3561605248 -0.4310796339 0.3565669341 -0.4309491016 -0.1119037481 0.1421663412
425297450.0 -0.0848496965 0.1506223343 0.3516558307 -0.4344804641 0.3521100046 -0.4347456464 -0.1101630459 0.1440469696
430297420.0 -0.0834502788 0.152064566 0.346907505 -0.438440411 0.3471947228 -0.4383863802 -0.1092603444 0.1451317723
435297390.0 -0.0816766711 0.1530869868 0.3423571896 -0.4419559261 0.3421842229 -0.4421233613 -0.107937122 0.1467054197
440297360.0 -0.0798864219 0.1541216174 0.3371558986 -0.4456566038 0.3366828412 -0.445946022 -0.1062829093 0.1472654356
445297330.0 -0.0781468835 0.1551759675 0.3317902931 -0.4498221103 0.3322763938 -0.4495678598 -0.1049699737 0.1484264378
450297300.0 -0.0765188898 0.1560195503 0.3274263138 -0.453168893 0.3274039727 -0.453392037 -0.1037616674 0.1501427263
455297270.0 -0.0748046056 0.1570935836 0.3227180161 -0.4566982743 0.3228874195 -0.4568359785 -0.1020041639 0.1516292268
460297240.0 -0.0732577709 0.1580113179 0.3174802233 -0.4597186145 0.3171756332 -0.4600460759 -0.1004059873 0.1525583122
465297210.0 -0.071232245 0.1590645183 0.3124359764 -0.4637802512 0.3127461088 -0.4636475616 -0.0996891695 0.1533671563
470297180.0 -0.0697035119 0.1597266862 0.3074050109 -0.4667038617 0.307535724 -0.4667917003 -0.0982418953 0.1545346856
475297150.0 -0.0679168413 0.1604394035 0.3021364773 -0.4701614608 0.301924572 -0.469455065 -0.0963928046 0.1556585736
480297120.0 -0.0658385984 0.1615733669 0.2971282496 -0.4731282426 0.2973752844 -0.4732832936 -0.0950232172 0.157470906
485297090.0 -0.0641263497 0.1622102662 0.2920226023 -0.4763792111 0.2922585366 -0.4765799044 -0.0936914128 0.1581483538
490297060.0 -0.0620262222 0.1629706353 0.2865216407 -0.4794835491 0.2870214302 -0.4797268448 -0.0923879742 0.1597101732
495297030.0 -0.060683642 0.1640597075 0.2815649024 -0.4828137641 0.2815749932 -0.4829078589 -0.0905689732 0.1600101039
500297000.0 -0.0584957402 0.164529719 0.2759181583 -0.4857692117 0.2764589765 -0.4859193479 -0.0894118826 0.1611977083
505296970.0 -0.0569993936 0.1655068087 0.2705866492 -0.488409342 0.2709106872 -0.4884925181 -0.0882578665 0.1626854748
510296940.0 -0.055124266 0.1664139767 0.265930464 -0.4916287139 0.2655344876 -0.4916321414 -0.0860552696 0.1637882259
515296910.0 -0.0532994832 0.1673423463 0.2599073155 -0.4940875148 0.2602873854 -0.4942571903 -0.0849626882 0.1646385234
520296880.0 -0.0511655167 0.1678492478 0.2546488328 -0.497199746 0.2546915729 -0.4970454597 -0.0829778267 0.1652928874
525296850.0 -0.0497911322 0.1685290909 0.2494939725 -0.500065368 0.2494815237 -0.4999374508 -0.0813943177 0.1664812362
530296820.0 -0.047474899 0.169045654 0.2440851494 -0.5017290557 0.2439378596 -0.5025639549 -0.0801409886 0.1671797133
535296790.0 -0.0458334326 0.1697197942 0.2382186564 -0.5046357698 0.2385789782 -0.5045809693 -0.0784860491 0.1680044022
540296760.0 -0.0437377635 0.1701890425 0.2327828855 -0.5078545298 0.2329668063 -0.5074957543 -0.0772747026 0.1692821264
545296730.0 -0.0419614252 0.171045202 0.2273926184 -0.5098518488 0.227531485 -0.510126676 -0.0752909003 0.1698119387
550296700.0 -0.0402192218 0.1716770213 0.2218562247 -0.5127564584 0.222409433 -0.5125818651 -0.0740163736 0.1712133469
555296670.0 -0.0378822747 0.1717356934 0.216251869 -0.514468963 0.2162704777 -0.5147982612 -0.0725964785 0.1719074424
560296640.0 -0.0361973801 0.1727456213 0.2108306531 -0.516792166 0.2112015999 -0.5169132671 -0.0705127972 0.1728892316
565296610.0 -0.0345404363 0.1730488673 0.2048215393 -0.5194601299 0.2050520061 -0.5193572086 -0.069168255 0.1737018001
570296580.0 -0.0323615388 0.1735519367 0.1995783462 -0.5211488964 0.1999708178 -0.5215808589 -0.0674998433 0.1751340045
575296550.0 -0.0303920198 0.1745640773 0.1936956727 -0.5232382606 0.1941717155 -0.5233797264 -0.0657165692 0.1756540115
580296520.0 -0.0285444133 0.1746995479 0.1883015494 -0.5253205043 0.1880390464 -0.5260051961 -0.0642744825 0.1759244573
585296490.0 -0.0262481693 0.1749793398 0.1827062308 -0.5279080486 0.1825704011 -0.5275405509 -0.0627817752 0.1763323002
590296460.0 -0.0248940592 0.1751451914 0.1765565928 -0.5292463847 0.1765137847 -0.5295944803 -0.0608283546 0.1777580745
595296430.0 -0.0229062384 0.1759082791 0.1712919481 -0.5312198534 0.1709908157 -0.5313741737 -0.05901894 0.1783532407
600296400.0 -0.02086 0.1763217795 0.1653256296 -0.5330155838 0.1657073294 -0.5332605329 -0.0572340637 0.1793139
605296370.0 -0.0187401834 0.1769653612 0.1593782823 -0.5350970446 0.1593803853 -0.5348942144 -0.0559544576 0.179750391
610296340.0 -0.0167807792 0.1768265485 0.1541849833 -0.5362261277 0.1535028957 -0.5364639009 -0.0539324023 0.1806054801
615296310.0 -0.0146348038 0.177362203 0.1476950925 -0.5374991128 0.1478082135 -0.5382215675 -0.0521696393 0.1809874346
620296280.0 -0.0128791794 0.1776580093 0.1421213446 -0.5397459077 0.1422369804 -0.5397503354 -0.0508402981 0.1816228455
625296250.0 -0.0108117141 0.1780168595 0.1360422458 -0.5412949061 0.1362298647 -0.5412363117 -0.0488805907 0.1823889277
630296220.0 -0.0087681656 0.1784549302 0.1302610024 -0.5427584314 0.130686399 -0.5426444566 -0.0472343673 0.1833459093
635296190.0 -0.0069181363 0.1784855524 0.12430192 -0.5431764731 0.1243021948 -0.5433807216 -0.0454532981 0.1833753357
640296160.0 -0.0049601112 0.1786558647 0.1191244509 -0.545075013 0.118595004 -0.5449631647 -0.0432229298 0.1838593752
645296130.0 -0.0029616521 0.1791289708 0.1125208828 -0.5463091804 0.1128060754 -0.5462079537 -0.0422715292 0.1843625175
650296100.0 -0.0010587252 0.1794971997 0.1075122719 -0.5473805585 0.1068447643 -0.5473860011 -0.0401186135 0.185255515
655296070.0 0.0009550016 0.1792508553 0.1010009612 -0.5484513315 0.1009548303 -0.5485553505 -0.0381060446 0.1858440019
660296040.0 0.0024976993 0.1798271456 0.0952577924 -0.549310628 0.0952811865 -0.5491821672 -0.0370010524 0.1862335038
665296010.0 0.0048591477 0.179556161 0.0895686694 -0.5506286105 0.0896081891 -0.550572626 -0.0351107036 0.1869880534
670295980.0 0.0074433336 0.1795883613 0.0831361728 -0.5514857496 0.0835528221 -0.551260267 -0.0334212311 0.187362046
675295950.0 0.0092531583 0.179768867 0.0767769557 -0.5521497017 0.077429144 -0.5527453611 -0.0313349836 0.1879233908
680295920.0 0.011087309 0.1800635956 0.0712367002 -0.5530729904 0.0710922498 -0.5530905075 -0.02938054 0.1880900186
685295890.0 0.012979054 0.1799883768 0.0656847589 -0.5535365361 0.0648810115 -0.5541488978 -0.0274727509 0.1886586331
690295860.0 0.0153338651 0.1798759628 0.0593011766 -0.5540528875 0.0590622486 -0.5540419521 -0.0257324048 0.1893085477
695295830.0 0.0175073818 0.17978922 0.0527019693 -0.5546371144 0.052908792 -0.5552957215 -0.0242718314 0.1897147519
700295800.0 0.0194412964 0.1798521498 0.0470378709 -0.5556910093 0.0475185878 -0.5553948723 -0.0223602848 0.1894942465
705295770.0 0.0215344065 0.1797899114 0.0413295454 -0.5559149382 0.0414167563 -0.5559132001 -0.020606935 0.1901534435
710295740.0 0.023544815 0.1800518407 0.0349414799 -0.5563258451 0.0355148306 -0.5564186211 -0.0197657461 0.1908327769
715295710.0 0.0252582009 0.1796903056 0.0294199252 -0.5563739718 0.0296644737 -0.5567448063 -0.0170901033 0.1907104989
720295680.0 0.0272727223 0.1793046818 0.0235491043 -0.5564726852 0.0230153497 -0.5572439052 -0.0146677637 0.1914658309
725295650.0 0.0295413576 0.1794734045 0.0168016348 -0.5569829157 0.0172375039 -0.5571206288 -0.013302437 0.1918808959
730295620.0 0.0312296312 0.1790406253 0.0109612708 -0.5568666856 0.0112378248 -0.5569834746 -0.0111229748 0.1913923848
735295590.0 0.0336112214 0.1789578543 0.0055461707 -0.5569101355 0.0055778554 -0.557539567 -0.0096815407 0.1920713691
740295560.0 0.0354282886 0.1787286294 -0.0009234082 -0.5564855662 -0.0009121212 -0.5568803162 -0.007552995 0.1921282712
745295530.0 0.0374797688 0.1782717536 -0.0065031524 -0.5571102588 -0.0066350422 -0.5571830751 -0.0059927665 0.1927730919
750295500.0 0.039440962 0.1781529819 -0.0124352968 -0.5564522422 -0.0123544171 -0.5565770842 -0.0039701083 0.1921910564
755295470.0 0.0419103131 0.1781991848 -0.0186978832 -0.5570308325 -0.018185001 -0.5568553851 -0.0026639632 0.1928784774
760295440.0 0.0434078067 0.1779633427 -0.0248895412 -0.5562858982 -0.0245387978 -0.5567206869 -0.0008776392 0.1928563183
765295410.0 0.0454681063 0.1770230512 -0.030083923 -0.5560609849 -0.0303232938 -0.5564859893 0.0020929828 0.1933483111
770295380.0 0.0475660255 0.1770727081 -0.0362615003 -0.5558008282 -0.0365350973 -0.5561065469 0.0038251206 0.1934163752
775295350.0 0.0498051013 0.1765339362 -0.0426530654 -0.5550776852 -0.042242002 -0.5553307764 0.0052496685 0.192892369
780295320.0 0.0514307851 0.1760358387 -0.0482381575 -0.5549205064 -0.0484041295 -0.5552020876 0.0071571753 0.1939566761
785295290.0 0.0532927612 0.1758906134 -0.0542976401 -0.5537018472 -0.0546467242 -0.5544855879 0.0085077406 0.1938451782
790295260.0 0.05535075 0.1753005155 -0.0604930195 -0.5535581136 -0.0605057313 -0.5540533592 0.0109099174 0.1937366811
795295230.0 0.0573435027 0.1750884727 -0.0661794743 -0.5523445716 -0.06620721 -0.5529862038 0.0127711004 0.1946615597
800295200.0 0.0592286029 0.1746528222 -0.0726752472 -0.552163569 -0.0726781547 -0.5523692938 0.0146950223 0.1936786478
805295170.0 0.0611673529 0.1741584874 -0.0780339815 -0.5509735566 -0.0780313941 -0.5509546773 0.016238379 0.1935778881
810295140.0 0.0633030882 0.1734029489 -0.0839553921 -0.5503600884 -0.0838211776 -0.5505659932 0.0180690549 0.1940311098
815295110.0 0.0651914957 0.1731837693 -0.0902687417 -0.5490125838 -0.0900601269 -0.5493485771 0.0200073511 0.1936791911
820295080.0 0.0671350005 0.1721316231 -0.0959448477 -0.5485046182 -0.0960494461 -0.548336113 0.0217546222 0.1937293848
825295050.0 0.0692043368 0.1715411858 -0.1019488244 -0.5468952056 -0.1019215884 -0.5471414954 0.0237630915 0.1940545134
830295020.0 0.0712799566 0.1714540436 -0.1081262002 -0.5461039137 -0.1081575919 -0.5462020953 0.0255628488 0.1935983964
