!Created with skrf (http://scikit-rf.org).
# Hz S RI R 50.0 
!freq ReS11 ImS11 ReS21 ImS21 ReS12 ImS12 ReS22 ImS22
300000.0 -0.7798538069 -0.1037070161 -0.0016912291 0.0028239034 0.0021762396 0.0003722247 -0.7719702329 -0.1366976428
5299970.0 -0.7849100774 -0.0059194631 -0.0001295534 0.0001023298 -0.000206929 -9.49809e-05 -0.7844903165 -0.0072056898
10299940.0 -0.7878505133 -0.0042838258 9.8804e-05 5.56602e-05 1.50744e-05 8.71557e-05 -0.7873038807 -0.0036606807
15299910.0 -0.7935240921 -0.0019676029 1.47246e-05 -3.42169e-05 -0.0001997578 4.21758e-05 -0.7930252251 -0.0013383338
20299880.0 -0.80013508 0.0015859091 0.0001063348 -0.000139279 8.09022e-05 -1.50672e-05 -0.7995168706 0.0019680561
25299850.0 -0.8064372939 0.007748641 9.445e-05 -5.30515e-05 0.0001353092 -0.0001205579 -0.8059588058 0.0078846163
30299820.0 -0.812532838 0.0151857673 0.0001551289 0.0001885672 6.79714e-05 -8.54855e-05 -0.8121673356 0.0162998346
35299790.0 -0.8178204479 0.02440698 -6.37629e-05 6.53055e-05 2.89575e-05 -3.86041e-05 -0.8172260782 0.0252019665
40299760.0 -0.821299699 0.0338736815 -6.33755e-05 7.04036e-05 4.30531e-05 -7.03329e-05 -0.8212163394 0.0348607152
45299730.0 -0.8249904428 0.0425898009 -0.0001496625 -0.0001387211 -7.64728e-05 -0.0001837264 -0.8250702137 0.0440255144
50299700.0 -0.8269459702 0.0530766099 -9.19e-06 -1.87766e-05 -0.0002197049 -0.0004408679 -0.82735535 0.0537571625
55299670.0 -0.8292243271 0.0626007214 -2.30075e-05 8.64719e-05 -1.74946e-05 -4.86249e-05 -0.8296565107 0.0639861441
60299640.0 -0.8304742674 0.0736254921 -3.12209e-05 -0.0001692993 -0.0001258161 -5.39648e-05 -0.8301097772 0.0743021804
65299610.0 -0.8312363416 0.0833006034 -0.0001400496 1.47855e-05 0.0001587706 4.32891e-05 -0.8319508144 0.0841910605
70299580.0 -0.8311939333 0.0935035507 -0.0001618041 -1.2877e-05 -0.0001706331 1.92195e-05 -0.8318054243 0.0947495327
75299550.0 -0.8323442459 0.1038627696 -3.16692e-05 3.71031e-05 -0.0001198121 -2.20354e-05 -0.8326363437 0.1040023205
80299520.0 -0.8321702693 0.1128923412 0.0001189721 -3.95632e-05 0.0001700977 4.67367e-05 -0.832155703 0.1143582365
85299490.0 -0.8312006749 0.1224148315 7.63633e-05 0.0001521188 1.27086e-05 0.0001652533 -0.831094691 0.123788321
90299460.0 -0.8299287819 0.1322421593 0.0001035034 -0.0001066752 0.0001972441 0.0001047526 -0.8308930896 0.1330603644
95299430.0 -0.8295217214 0.1420151297 -0.0001215354 -0.0001659313 9.0824e-06 8.20274e-05 -0.8293629128 0.1428627669
100299400.0 -0.8286844934 0.150784358 -0.0001258697 -0.0001144161 -0.0001980937 0.0001089581 -0.8284113899 0.152270224
105299370.0 -0.8268243605 0.1602205522 -0.000175714 -0.0001109533 -3.07872e-05 1.95393e-05 -0.8268420707 0.1611998284
110299340.0 -0.8253798063 0.1692918224 6.50555e-05 9.16e-06 -3.568e-06 -7.3715e-06 -0.8254767262 0.1707991004
115299310.0 -0.8239393735 0.1783663216 0.000181431 1.15649e-05 -1.09383e-05 0.0001145917 -0.8237733738 0.179730885
120299280.0 -0.8220655073 0.1870423946 -9.65435e-05 4.70487e-05 0.0001505362 7.6738e-06 -0.8223893637 0.1885260325
125299250.0 -0.8207400074 0.1958055798 -0.000157335 -3.24305e-05 5.8306e-05 0.0001095514 -0.8203166697 0.1979846157
130299220.0 -0.8186048708 0.2051554748 6.67513e-05 -2.49899e-05 -6.211e-06 0.000250993 -0.8187327144 0.2066402714
135299190.0 -0.8168395639 0.2138495007 -9.56423e-05 0.0002542074 6.45043e-05 -5.72133e-05 -0.8167016023 0.2159241457
140299160.0 -0.8148821115 0.2234162442 -0.0001265669 -4.26189e-05 -8.48369e-05 3.79085e-05 -0.8139136413 0.2249100762
145299130.0 -0.8124835597 0.2322234998 0.0001331548 7.20809e-05 2.22362e-05 0.0002139468 -0.8123196021 0.2343191929
150299100.0 -0.8103072825 0.2406532359 -1.83302e-05 -5.1048e-05 3.39636e-05 -0.0001526551 -0.8104316203 0.2429638144
155299070.0 -0.807799787 0.2494008801 -3.08219e-05 1.91398e-05 -0.0001636267 -8.92438e-05 -0.807052761 0.2516194942
160299040.0 -0.8053464325 0.2583132111 0.000196197 0.0001327609 4.39555e-05 -7.15721e-05 -0.8050063449 0.2605806725
165299010.0 -0.8027918853 0.2668748526 0.0002985084 0.0002107114 -3.2849e-05 -9.46639e-05 -0.8017583204 0.2692743674
170298980.0 -0.8004637992 0.275171585 -2.67971e-05 0.0001633141 0.000169487 9.67334e-05 -0.7992451153 0.2780809576
175298950.0 -0.7968452499 0.2842987163 0.000294092 -8.9926e-06 3.39302e-05 -2.92893e-05 -0.7967207833 0.2865987499
180298920.0 -0.7946170564 0.2924927105 -7.92817e-05 6.14043e-05 2.1864e-05 3.02109e-05 -0.7931972476 0.2950157213
185298890.0 -0.7911721851 0.3007227979 -0.0001765883 0.0001566506 0.0001005816 -0.0002348929 -0.7898129696 0.3035802061
190298860.0 -0.7883605868 0.3098130451 -0.0001636624 0.0002900131 1.87394e-05 -7.00056e-05 -0.7875293998 0.3123146085
195298830.0 -0.7851728296 0.3180200101 -4.26514e-05 -6.81798e-05 -8.6975e-06 7.70238e-05 -0.7846051204 0.3209714169
200298800.0 -0.7812869148 0.3263736701 1.08729e-05 0.0002991695 7.8163e-05 2.44849e-05 -0.7817839874 0.3290479573
205298770.0 -0.7785149432 0.3346253605 0.0001220107 6.46574e-05 6.46688e-05 -0.0001731554 -0.7771450843 0.3375627107
210298740.0 -0.7751315078 0.3421764939 -4.65919e-05 -0.000264922 0.0001752502 2.5049e-06 -0.7742693885 0.3458587889
215298710.0 -0.771757377 0.3506461639 0.0002120563 2.87753e-05 6.6515e-05 -7.67329e-05 -0.7714031341 0.3538855975
220298680.0 -0.7679055006 0.3580678888 -0.0001551109 -3.28228e-05 -2.56615e-05 9.63237e-05 -0.767174627 0.3615258926
225298650.0 -0.7642305251 0.3663803144 -0.000267308 5.91532e-05 8.49248e-05 -9.01261e-05 -0.7637433447 0.3700801514
230298620.0 -0.7605174306 0.3743942043 -0.0001233556 -8.60291e-05 9.80145e-05 -8.04939e-05 -0.7598596758 0.378125925
235298590.0 -0.7562361116 0.3831806435 -2.07441e-05 6.5881e-05 -7.70535e-05 9.60891e-05 -0.7558948326 0.3868417845
240298560.0 -0.7522033341 0.3912114765 3.76137e-05 0.0001013 -1.85613e-05 6.76971e-05 -0.7518729409 0.394816126
245298530.0 -0.7484688012 0.3989519461 0.000130607 -2.8036e-06 -2.34792e-05 3.41026e-05 -0.7477513489 0.4022308134
250298500.0 -0.7444616897 0.4070941521 -3.20056e-05 -3.78009e-05 -0.0001584644 -9.09802e-05 -0.7434557552 0.4096663309
255298470.0 -0.7394663271 0.413967517 -6.0849e-05 0.0001503418 -0.0001506432 0.0001090897 -0.7387549116 0.4181430995
260298440.0 -0.7358687847 0.4216052103 -2.28374e-05 0.0002860607 -0.0001087909 -0.0001023472 -0.7347148674 0.4262645731
265298410.0 -0.7316716897 0.4297460185 2.65186e-05 2.97037e-05 0.0001866319 9.70795e-05 -0.7303169006 0.4333884175
270298380.0 -0.7271529068 0.4371427065 2.58804e-05 -3.93883e-05 -0.0001176195 -7.93418e-05 -0.7252240734 0.4407080175
275298350.0 -0.7221088208 0.4448701503 5.91967e-05 2.66623e-05 0.000108698 -0.0001374771 -0.7205477716 0.4485097369
280298320.0 -0.7171477479 0.4522838167 -0.0001267031 -2.086e-07 -0.0002012962 8.68539e-05 -0.7155000518 0.4561619765
285298290.0 -0.7131746912 0.4597768222 -3.67941e-05 6.46322e-05 -1.29322e-05 1.3767e-05 -0.7111286397 0.4636688263
290298260.0 -0.7074992671 0.4672400563 0.0001088842 -9.13133e-05 0.0001161595 6.49803e-05 -0.7060357604 0.4708045161
295298230.0 -0.7025927058 0.4740113555 8.8494e-06 -8.412e-06 8.60526e-05 -3.64666e-05 -0.7010490525 0.4776100447
300298200.0 -0.6978844956 0.4817634771 -0.00020261 0.0001015341 -3.21627e-05 0.0001125323 -0.6957871515 0.4849280993
305298170.0 -0.6926570144 0.488187559 -7.80701e-05 -5.3227e-05 0.0001050361 -0.0001202777 -0.6902716259 0.4928142756
310298140.0 -0.6873000248 0.4961428598 0.000154212 -7.1119e-05 7.77006e-05 0.0001301083 -0.6857756238 0.4997502731
315298110.0 -0.6827153151 0.5032493933 0.0001113168 0.0001434666 -8.39468e-05 5.49106e-05 -0.6797687732 0.5068642294
320298080.0 -0.6775118637 0.5104022158 6.5498e-05 -3.91653e-05 9.19783e-05 -4.66728e-05 -0.6746547375 0.5146026767
325298050.0 -0.6721651506 0.5171981321 7.97432e-05 0.0001508076 9.452e-05 -0.0003622693 -0.6691846712 0.5211541058
330298020.0 -0.6661323289 0.5238607098 2.5114e-05 -1.277e-05 6.7353e-06 -2.52795e-05 -0.6636329886 0.5281063401
335297990.0 -0.6610160345 0.5307098919 -0.0001027559 -3.09443e-05 8.78657e-05 8.34204e-05 -0.6586758817 0.5352640505
340297960.0 -0.6555915348 0.5376895292 -9.3647e-05 -6.02558e-05 -0.0001482102 -0.0001237114 -0.6526066052 0.5423094975
345297930.0 -0.6500742507 0.5440861688 -5.00365e-05 0.0001028503 -4.425e-07 5.02833e-05 -0.6469045259 0.5486869353
350297900.0 -0.6449295498 0.5508183692 -0.0002408279 4.62429e-05 -0.0001474246 3.94877e-05 -0.640873655 0.5552115589
355297870.0 -0.638326988 0.5575764757 -2.5612e-06 0.0001598549 9.2995e-05 -0.0001455563 -0.6356982508 0.5614225578
360297840.0 -0.6322551641 0.5641907108 9.43767e-05 -0.0001987192 -3.59786e-05 9.50877e-05 -0.629760159 0.5686340529
365297810.0 -0.6275924499 0.5702234596 0.0001055137 2.55152e-05 0.0001989892 -6.88237e-05 -0.6229064956 0.5755597792
370297780.0 -0.6212838555 0.5764517732 0.0001820319 1.82381e-05 -6.414e-05 0.0003330546 -0.6174400644 0.5820322002
375297750.0 -0.6144070761 0.5831367714 -6.74007e-05 -4.95212e-05 -7.66284e-05 -1.86501e-05 -0.6117619009 0.5878076441
380297720.0 -0.6090244447 0.5892259471 -9.01498e-05 0.0003010664 -0.0001297785 -0.0001104182 -0.6061179096 0.5937995432
385297690.0 -0.6033683554 0.5953758463 7.65767e-05 1.59789e-05 -6.77341e-05 6.92056e-05 -0.5991108942 0.6005210987
390297660.0 -0.5967934308 0.6013527633 -0.0001676548 -0.0001953676 4.58811e-05 -3.5074e-06 -0.5933064417 0.6068202985
395297630.0 -0.5902108567 0.6080956451 -3.15161e-05 6.45125e-05 6.11265e-05 -0.0001329757 -0.5868499269 0.6129678423
400297600.0 -0.5837764296 0.6138311947 -1.41112e-05 -9.9311e-06 -7.36135e-05 3.14966e-05 -0.5807935851 0.6188281799
405297570.0 -0.5780554331 0.6197095382 1.14763e-05 0.0001399358 5.09616e-05 -9.08829e-05 -0.5741440042 0.6246619795
410297540.0 -0.5709502644 0.6252900089 -5.09445e-05 -3.93494e-05 2.57238e-05 -0.0001361799 -0.5676200196 0.6305977645
415297510.0 -0.5643059326 0.6311867764 0.0002592889 -0.0002152764 -2.7347e-05 9.82952e-05 -0.5614295116 0.6362859164
420297480.0 -0.5590702375 0.6369712463 2.08179e-05 -5.9149e-06 0.0001408534 0.0002361167 -0.5545819906 0.6425920249
425297450.0 -0.5517183757 0.6425691888 -0.0001883551 -0.0002266937 9.0308e-05 4.90048e-05 -0.5479467308 0.6474964828
430297420.0 -0.5455313024 0.6484031639 -9.37812e-05 2.63981e-05 -0.0001035949 8.84762e-05 -0.5409314037 0.6526620298
435297390.0 -0.5383140774 0.6530073029 4.88179e-05 5.18382e-05 9.33333e-05 -3.668e-06 -0.5340295074 0.6585300444
440297360.0 -0.5318345355 0.6588570726 -0.0002542478 -8.45837e-05 4.52351e-05 9.8252e-06 -0.5274227928 0.6635834086
445297330.0 -0.5245613825 0.66491763 4.75375e-05 3.73093e-05 -2.55987e-05 1.8116e-06 -0.520288939 0.6684556994
450297300.0 -0.5182301323 0.6691110933 0.0001463523 3.2702e-06 -0.0001028741 0.0001569114 -0.5129364988 0.6739952793
455297270.0 -0.5115257217 0.6744445788 0.00015454 0.0002095975 3.68684e-05 3.45124e-05 -0.5064330654 0.6785326503
460297240.0 -0.5048279704 0.6794529719 5.81806e-05 8.5877e-06 6.81347e-05 -4.53137e-05 -0.4996696164 0.6841752272
465297210.0 -0.4974726991 0.6854370657 -0.0001156545 -2.66414e-05 0.0001406953 -3.14196e-05 -0.4919984827 0.6889836359
470297180.0 -0.4901123193 0.6899419195 7.53139e-05 6.16624e-05 0.0002524899 0.0001526172 -0.484653481 0.6942760342
475297150.0 -0.4834562811 0.6943645625 -6.18253e-05 -0.000195227 -0.0001710773 -4.41498e-05 -0.4776358069 0.6983497638
480297120.0 -0.4768607046 0.6994490653 -1.44258e-05 -4.00531e-05 0.0001955649 0.0001129425 -0.4701777741 0.7036200256
485297090.0 -0.4693980612 0.7036359095 -1.89123e-05 -0.0001070163 -3.05723e-05 -3.92282e-05 -0.4632935509 0.7084209929
490297060.0 -0.4621714406 0.7082613894 -0.0001026437 -5.61192e-05 0.0001196875 0.0001098453 -0.4561143875 0.7127227956
495297030.0 -0.4549331197 0.7132677739 -4.02136e-05 -0.0002959831 -0.0001088112 -3.16191e-05 -0.4484389773 0.717486119
500297000.0 -0.4475800453 0.7181163378 -9.98766e-05 -0.0003497474 -4.31884e-05 -8.95555e-05 -0.4412185043 0.7222249943
505296970.0 -0.4402555086 0.7224478503 3.36058e-05 -0.0002881837 -8.35905e-05 -7.12322e-05 -0.4337034283 0.7262366736
510296940.0 -0.4331314323 0.7267742886 -9.79082e-05 -6.07445e-05 0.000158358 -3.06052e-05 -0.4260833243 0.7308838766
515296910.0 -0.4250082037 0.7304665985 3.32341e-05 -7.51476e-05 4.1575e-06 -0.0001335456 -0.4182646203 0.734857932
520296880.0 -0.4185378253 0.7352981326 -0.0001208925 -0.0002242068 5.66277e-05 -4.40526e-05 -0.4111720747 0.7389346052
525296850.0 -0.4107718514 0.7388397895 -1.85128e-05 6.528e-06 8.4296e-06 0.0001230035 -0.4040827118 0.7433504481
530296820.0 -0.4027461063 0.743564755 -0.0002322295 -0.0001017972 2.17588e-05 -8.06417e-05 -0.3964104027 0.7473286885
535296790.0 -0.3956864615 0.747182036 1.10499e-05 0.0001917898 -0.0002038358 -0.0002029471 -0.3890411388 0.7515764414
540296760.0 -0.3879175253 0.7509926843 -0.0001587464 -2.11065e-05 -5.994e-07 0.0001185881 -0.3812059448 0.7555923447
545296730.0 -0.3805288501 0.7546781031 0.00023292 -2.35093e-05 4.0863e-06 -2.27427e-05 -0.3735247625 0.7592899096
550296700.0 -0.3731867809 0.7590772992 -0.0001492119 -0.0001517094 0.000119296 -0.0002436651 -0.3652462739 0.762842081
555296670.0 -0.3647907545 0.7614583872 -0.0001426499 -9.00865e-05 -6.88779e-05 -5.24542e-05 -0.3578801126 0.7671200782
560296640.0 -0.3575368233 0.7662674821 -4.60566e-05 -0.0001256755 -5.68087e-05 0.000145763 -0.3504014119 0.7706165134
565296610.0 -0.3499413933 0.76962086 0.0001190317 0.0001209832 -9.80564e-05 -2.40667e-05 -0.3423323489 0.7739515422
570296580.0 -0.3425172192 0.7722492577 -0.0001397554 1.48277e-05 9.92472e-05 -8.7595e-06 -0.3349537504 0.7771597273
575296550.0 -0.3347065816 0.7769528498 -6.90934e-05 7.57434e-05 -8.47023e-05 0.0002028281 -0.3266915599 0.7807815626
580296520.0 -0.326593167 0.7796132951 -3.64093e-05 9.39868e-05 -2.64612e-05 4.8793e-06 -0.3183125958 0.7837610688
585296490.0 -0.3187493632 0.7823700872 5.5228e-05 -0.0002349993 0.0001806144 1.23675e-05 -0.3108283479 0.7869890656
590296460.0 -0.3102765131 0.785988609 -1.89554e-05 0.000125757 -7.11355e-05 -1.44235e-05 -0.302937218 0.7900025618
595296430.0 -0.3028034047 0.7880166104 -6.07633e-05 0.0001163894 6.74201e-05 -7.40525e-05 -0.2947107793 0.7925291938
600296400.0 -0.2950475318 0.7925493415 2.67283e-05 9.45577e-05 6.15144e-05 -0.0001205737 -0.2870619279 0.7955793712
605296370.0 -0.2875607633 0.7944111857 0.0002427778 6.74154e-05 -7.40522e-05 -3.36924e-05 -0.2780082958 0.7984708012
610296340.0 -0.2791975207 0.7971277312 -0.0001318781 0.0001728986 -0.0002427424 -1.59304e-05 -0.2704594623 0.8010503139
615296310.0 -0.2706136778 0.8000340017 4.41134e-05 -7.91673e-05 9.25175e-05 6.93641e-05 -0.2623482806 0.8029669565
620296280.0 -0.2627914414 0.8021601932 0.0002631062 -8.65731e-05 -9.56826e-05 -0.0001460593 -0.2543112027 0.8062442866
625296250.0 -0.2548468474 0.8055986306 -1.49575e-05 9.7872e-05 -8.59025e-05 5.38893e-05 -0.2456133924 0.8078832817
630296220.0 -0.2461591822 0.8078568507 0.0001400652 -0.0002639045 -3.31244e-05 9.36451e-05 -0.237713725 0.8111174529
635296190.0 -0.2389002865 0.8105441204 -8.79627e-05 -0.000167618 -0.0001493736 -1.73038e-05 -0.2299646665 0.8126136679
640296160.0 -0.2311199271 0.8123942417 -5.8051e-05 0.0002860213 -2.41992e-05 4.42775e-05 -0.2211538743 0.8154761904
645296130.0 -0.2225648078 0.8150531749 0.0001318092 0.0001243089 7.32043e-05 -8.38625e-05 -0.2128912043 0.8175544751
650296100.0 -0.2143294787 0.816684821 0.0001285962 -0.000111466 2.42188e-05 3.5839e-05 -0.2051672603 0.8185860181
655296070.0 -0.2065812483 0.8192383899 -6.34922e-05 0.000163166 0.0001007267 -1.79089e-05 -0.1965874974 0.8206674109
660296040.0 -0.1982702466 0.8203170456 -5.37746e-05 -1.41788e-05 -0.0001230985 -0.0001371602 -0.1877433739 0.8231380504
665296010.0 -0.18975285 0.8222172201 4.95708e-05 -0.0001265567 0.0001007249 4.51927e-05 -0.1792969842 0.8249293784
670295980.0 -0.181936455 0.8243151972 -0.0001261896 -0.0001104773 0.0001149515 4.71191e-05 -0.171756498 0.8268783416
675295950.0 -0.1736487923 0.825686044 -9.858e-06 1.87923e-05 -0.0001871413 -7.82096e-05 -0.1639429073 0.8289011356
680295920.0 -0.1653363822 0.8278476118 2.23084e-05 -7.44464e-05 -0.0002071047 -0.000125847 -0.1548260429 0.8310289717
685295890.0 -0.1566580429 0.8301101809 -9.76898e-05 0.0001827442 -1.97459e-05 0.0001085077 -0.1464023293 0.8315785033
690295860.0 -0.1486440657 0.8312536896 9.5559e-05 0.0001834987 -2.22414e-05 3.71915e-05 -0.1382638971 0.8329106751
695295830.0 -0.1407859066 0.8327329294 6.79257e-05 -4.84956e-05 0.000128086 -6.14552e-05 -0.1294218991 0.834585268
700295800.0 -0.131802176 0.8340906324 -0.0001621422 -7.07691e-05 8.52445e-05 5.33989e-05 -0.1222294291 0.8363803571
705295770.0 -0.1240406108 0.8352662139 0.0001263317 -0.0001541704 1.55082e-05 8.2904e-06 -0.1134964872 0.8379783361
710295740.0 -0.1155658881 0.836232814 8.52978e-05 0.0001655074 2.62022e-05 -4.094e-05 -0.1049738269 0.8386556072
715295710.0 -0.107250641 0.8377327057 5.62377e-05 -0.0001359085 3.55805e-05 5.82379e-05 -0.0963526423 0.8396912421
720295680.0 -0.098770216 0.8385928984 9.23637e-05 0.0001172667 -5.59132e-05 -2.3418e-06 -0.0879039486 0.8404088593
725295650.0 -0.0906107967 0.839641998 9.9042e-05 7.61701e-05 0.0001315549 -3.21488e-05 -0.0800884896 0.8414420943
730295620.0 -0.0822008722 0.8409082356 7.17019e-05 -5.59478e-05 9.86099e-05 0.0003019808 -0.0723397644 0.8420758895
735295590.0 -0.0740209068 0.8413943233 9.54691e-05 -0.0001497073 -0.0001055084 9.13571e-05 -0.0633681783 0.842827608
740295560.0 -0.0656623444 0.8417659545 3.30211e-05 -0.0001277064 0.0002696977 0.0001234543 -0.0538042802 0.8437020033
745295530.0 -0.057413932 0.8425469037 0.0001985334 0.0001122253 2.66727e-05 -9.98983e-05 -0.045971508 0.843708668
750295500.0 -0.0492190725 0.843065086 -7.8944e-06 0.0001318513 1.31509e-05 -5.55709e-05 -0.0383954411 0.8438801035
755295470.0 -0.0403362757 0.8427535545 -5.88232e-05 9.40832e-05 -0.0001245466 9.21334e-05 -0.029278709 0.8440074333
760295440.0 -0.0324263612 0.8435157112 1.0697e-06 2.4028e-05 1.22488e-05 0.0001491902 -0.0208721952 0.8445352637
765295410.0 -0.024262406 0.8441794374 -0.0001590187 -0.0001130912 -2.09974e-05 -0.0002713627 -0.0126051668 0.8445492022
770295380.0 -0.0165330892 0.8447783071 -0.0001691727 -6.17321e-05 -2.88121e-05 2.93866e-05 -0.0045934953 0.8448100077
775295350.0 -0.0074532392 0.8440032649 0.0001880883 7.30514e-05 0.0001468078 0.0001307747 0.0033666105 0.8442267379
780295320.0 0.0011546565 0.8441576072 8.64785e-05 2.85576e-05 5.56664e-05 8.7632e-05 0.0120237481 0.8442011573
785295290.0 0.0092889405 0.8435517827 8.7258e-05 8.14827e-05 0.0001297175 -0.0001097913 0.0212223456 0.8439313633
790295260.0 0.0181679177 0.8437962647 -1.02741e-05 -1.90939e-05 -6.598e-07 0.0001993334 0.0300924245 0.8438780321
795295230.0 0.0258972487 0.8433573159 0.0001761443 4.06244e-05 -9.19057e-05 -2.3651e-06 0.0387454146 0.8427672427
800295200.0 0.034076159 0.8429081128 0.0001042668 -4.99162e-05 0.0001089285 -4.7737e-06 0.047049336 0.8426088137
805295170.0 0.0430741298 0.8427089977 -0.0001359281 -2.72825e-05 -0.0001188526 -5.52785e-05 0.0550295406 0.8422523036
810295140.0 0.0510842476 0.842818455 -0.0001777917 -0.0001012547 -6.62326e-05 0.000240571 0.0636546888 0.8413679578
815295110.0 0.0590820387 0.8417820131 -9.841e-06 -1.4511e-05 0.0001206135 -1.22276e-05 0.0720633171 0.8408664157
820295080.0 0.067279084 0.8417367074 0.0001552632 1.50106e-05 -0.0003551705 -5.7012e-06 0.0801909553 0.8402446974
825295050.0 0.0764797613 0.8403760781 5.78357e-05 -4.03742e-05 -0.0001795291 0.0001668033 0.0880347223 0.8393345215
830295020.0 0.0843678241 0.8397189089 -6.94358e-05 0.0001889937 -4.59399e-05 -7.24399e-05 0.0977844993 0.8384675636
835294990.0 0.0921194209 0.8392456421 1.47593e-05 -2.6078e-05 -4.04485e-05 2.57771e-05 0.1048728659 0.8380829538
840294960.0 0.1003416155 0.8381711752 -0.0001445458 -0.0002945864 3.21935e-05 0.0004505461 0.1139725514 0.8361684023
845294930.0 0.1083870783 0.8366981545 1.15702e-05 -0.0002016857 6.51737e-05 -0.0001183223 0.121253704 0.8350764173
850294900.0 0.1167959826 0.8361505109 0.0001997026 0.0001374752 -0.0001141651 5.17854e-05 0.1298670551 0.8341261207
