!Created with skrf (http://scikit-rf.org).
# Hz S RI R 50.0 
!freq ReS11 ImS11 ReS21 ImS21 ReS12 ImS12 ReS22 ImS22
300000.0 -0.0980726897 -0.0848723806 0.6233918119 0.0781235547 0.6236453888 0.083789009 -0.0937647008 -0.0922234182
5299970.0 -0.1004083545 0.0129536051 0.630394489 0.0106963237 0.6308171176 0.0110524197 -0.1021284314 0.0121051655
10299940.0 -0.0953448297 0.0297739163 0.6345344691 0.0156567895 0.6341281699 0.0159108593 -0.0974415324 0.0286399359
15299910.0 -0.0885285995 0.0431241073 0.6406116946 0.0204090909 0.6401952262 0.0212705216 -0.0899737824 0.0422727321
20299880.0 -0.0797468977 0.0542180188 0.6489411122 0.024364783 0.6488742327 0.0247227744 -0.0822069649 0.0532384088
25299850.0 -0.0696922154 0.0628641509 0.6579990134 0.0246117407 0.6580880408 0.0255330002 -0.072480926 0.0621142458
30299820.0 -0.0594957531 0.0693499606 0.6678431729 0.0247358782 0.6675744199 0.0245248403 -0.0628059308 0.0689780772
35299790.0 -0.0494700597 0.0741836033 0.6775352981 0.0217323984 0.6775143183 0.0218266925 -0.0525866345 0.0734015862
40299760.0 -0.0394572302 0.0769131119 0.686485374 0.0181293302 0.6866234027 0.0176542633 -0.0433671722 0.0771711204
45299730.0 -0.030363398 0.0797114167 0.6959144794 0.0113849858 0.6957227453 0.0120303241 -0.034001903 0.0791981122
50299700.0 -0.021806713 0.0797569568 0.7035460256 0.0051087994 0.7036337317 0.004695504 -0.0255300989 0.0799033178
55299670.0 -0.0140572468 0.0798954264 0.7103647649 -0.0031920258 0.7109512012 -0.0028210722 -0.0178416043 0.0800523263
60299640.0 -0.0066392411 0.0787405279 0.7168854786 -0.0116195299 0.7176242827 -0.0110520431 -0.0102720196 0.0798137713
65299610.0 -0.0002312293 0.078149116 0.7233770116 -0.019741361 0.7239781417 -0.0199716082 -0.0037191866 0.078630161
70299580.0 0.006044186 0.0759726995 0.7283754294 -0.029030652 0.7289445719 -0.0294227339 0.0024162171 0.0773306503
75299550.0 0.0116536649 0.0745488418 0.7330411125 -0.0384260269 0.7327876332 -0.0390146128 0.0082412944 0.0758396264
80299520.0 0.016151531 0.0722515797 0.7373131929 -0.0490530334 0.7374906043 -0.0487014286 0.012984419 0.0727989334
85299490.0 0.0208299957 0.0696944256 0.7408307684 -0.058470164 0.7406202633 -0.0585642671 0.0176613317 0.0709537778
90299460.0 0.0244844606 0.0672935097 0.7432145637 -0.0686805519 0.7437804461 -0.0686156077 0.022331737 0.0688191711
95299430.0 0.0283048719 0.0653471192 0.7461283813 -0.0792152429 0.7458856227 -0.079187985 0.025063193 0.0663739127
100299400.0 0.0315066117 0.0627683387 0.7472771903 -0.0893620105 0.7477171539 -0.0892409225 0.0284498587 0.0642407486
105299370.0 0.0346486238 0.0600797379 0.7486520487 -0.098879122 0.7488456013 -0.0991930978 0.0321512341 0.0618461887
110299340.0 0.03719695 0.0578233335 0.7497690154 -0.1089255344 0.7502022933 -0.109400146 0.0343920863 0.0592582943
115299310.0 0.0398014565 0.0549867229 0.7506821937 -0.1189751896 0.751546638 -0.1188205207 0.0370525574 0.0564697741
120299280.0 0.0413969958 0.0526019677 0.7515684333 -0.1295378515 0.7512565382 -0.1297955402 0.0390388021 0.0541206425
125299250.0 0.0435312467 0.0504351137 0.7518057457 -0.1392424544 0.7517976379 -0.139578471 0.041455339 0.0512134631
130299220.0 0.045077411 0.0479688803 0.7513295283 -0.1486449366 0.7519505121 -0.1495802033 0.0432956722 0.0494774362
135299190.0 0.047039069 0.0453006286 0.7509544315 -0.1590503702 0.7511972145 -0.1589899076 0.0443783108 0.0474527007
140299160.0 0.0478342226 0.0441178549 0.7512419533 -0.1690447601 0.7508792178 -0.1684348356 0.0462209488 0.045567449
145299130.0 0.0493482047 0.0420880158 0.7507035191 -0.1785502244 0.7503791685 -0.178391881 0.0473092298 0.0429156033
150299100.0 0.0505162243 0.0397561267 0.7490255573 -0.1882424373 0.7490651581 -0.1879453276 0.0485026494 0.0407478183
155299070.0 0.0512731365 0.0383446282 0.7475386202 -0.1980746011 0.7474909085 -0.1981294528 0.049429525 0.0387265068
160299040.0 0.0523998269 0.0359195979 0.7464124703 -0.2068969675 0.746594675 -0.2069771763 0.0504503706 0.037232219
165299010.0 0.0530065369 0.0343542977 0.7450407209 -0.2168772137 0.7450315607 -0.2166944537 0.0512940642 0.0349075427
170298980.0 0.0535566753 0.0324610889 0.7422131805 -0.2264317132 0.7428710709 -0.2261122581 0.0527589713 0.032788865
175298950.0 0.0543635247 0.0307382217 0.741781473 -0.2348367372 0.7414577965 -0.2356536492 0.0531961388 0.0312188424
180298920.0 0.0555327455 0.0292513829 0.7394533523 -0.2446553858 0.73920739 -0.2441358812 0.0535836768 0.0299001063
185298890.0 0.0560344823 0.0272769988 0.736680113 -0.2541675373 0.7371788604 -0.2533154004 0.0543308023 0.0278468452
190298860.0 0.0562830883 0.0261673563 0.7341896244 -0.2630678989 0.7348751231 -0.2629158628 0.0553146008 0.0262934715
195298830.0 0.056339703 0.0240373976 0.7316568205 -0.2711839336 0.7320588266 -0.2720499083 0.0556630818 0.0242698441
200298800.0 0.0569920803 0.0227952051 0.7298358527 -0.2802243937 0.7291119265 -0.2804193832 0.0559014659 0.0233304666
205298770.0 0.0571538623 0.0213218324 0.7268477739 -0.2887163299 0.7267841829 -0.2899368879 0.0563460357 0.0207643963
210298740.0 0.0571121424 0.0196114078 0.7239132201 -0.2985886871 0.7237007151 -0.298644782 0.0567419947 0.0198421987
215298710.0 0.0577474287 0.0187810557 0.7207364179 -0.3066484222 0.7206041723 -0.3069516945 0.0570259354 0.0184843535
220298680.0 0.0582828546 0.0171358593 0.7173681017 -0.3160203854 0.7177093533 -0.3154598844 0.05754089 0.0172860424
225298650.0 0.0583585394 0.0161755831 0.7135821858 -0.3237640144 0.7136695725 -0.3241221259 0.0574646174 0.0158887056
230298620.0 0.058209222 0.0147858902 0.7112347894 -0.3329377449 0.7110617601 -0.3326907108 0.0577713971 0.0145126566
235298590.0 0.0585294866 0.0133387149 0.7073326636 -0.3408704814 0.707438292 -0.34173255 0.0579988837 0.0127239725
240298560.0 0.0582580146 0.011969681 0.7037057984 -0.3493673502 0.7040539529 -0.34928745 0.058147955 0.0119395554
245298530.0 0.0588133856 0.0111860211 0.6993394237 -0.357695123 0.699873438 -0.3578832002 0.058499909 0.0107256863
250298500.0 0.0584169202 0.0098216534 0.6962364323 -0.3653440453 0.6962194107 -0.365446426 0.0588789594 0.009144839
255298470.0 0.0582602756 0.0089495612 0.6918246655 -0.3746106612 0.6921983523 -0.374096068 0.0587745151 0.0076859852
260298440.0 0.0582570573 0.0080583823 0.6881314714 -0.3817966755 0.6885757282 -0.3828218235 0.0594565652 0.0070251139
265298410.0 0.0590372934 0.0070189897 0.6842447786 -0.3910188008 0.6837935008 -0.3907083782 0.058511235 0.005517952
270298380.0 0.0591811153 0.0055134516 0.6795102473 -0.3984380412 0.6798716894 -0.3981328288 0.0589776113 0.0053365548
275298350.0 0.0582115878 0.004795189 0.6756154436 -0.4066315689 0.676297584 -0.4065895827 0.0590811245 0.0036366031
280298320.0 0.0585587527 0.0041450912 0.6711771924 -0.4136681709 0.671426015 -0.4141539516 0.0594583668 0.0030488486
285298290.0 0.0588017978 0.0031071138 0.6670732944 -0.4218495481 0.6665853295 -0.4219445874 0.0590215084 0.0017820704
290298260.0 0.0585793627 0.0018651862 0.6624818922 -0.4294233463 0.6626901654 -0.4295838225 0.0597078019 0.0009469337
295298230.0 0.0588728253 0.0007535405 0.6576814258 -0.4374704233 0.657602242 -0.4374292212 0.059683913 -0.0003416841
300298200.0 0.0595234378 2.39054e-05 0.6528120563 -0.4451567103 0.6531511187 -0.4447631768 0.0590969343 -0.0014159501
305298170.0 0.059126558 -0.0014321445 0.6484188132 -0.4525675608 0.6488419074 -0.4530287384 0.060027275 -0.0022712945
310298140.0 0.0594379104 -0.0022817801 0.6438009196 -0.4602634523 0.6437901496 -0.4607634978 0.0597073157 -0.0027994433
315298110.0 0.0587946023 -0.0033456182 0.6383152578 -0.4680231415 0.6388733085 -0.468181496 0.0597702101 -0.0045096796
320298080.0 0.0586034073 -0.0043809854 0.6335315702 -0.4758837602 0.6335004335 -0.4758133996 0.0595407823 -0.0059101792
325298050.0 0.058215919 -0.0057239777 0.6285406346 -0.4833156672 0.6284093338 -0.4837868498 0.059416339 -0.0068801445
330298020.0 0.058006169 -0.0063595741 0.6217726043 -0.4907359702 0.6219056717 -0.4907266725 0.0585249028 -0.0082286049
335297990.0 0.0575845381 -0.0077924631 0.6164699954 -0.4979233048 0.616513166 -0.4974154032 0.0581248726 -0.0089957609
340297960.0 0.0567921299 -0.0081064411 0.6101437477 -0.5047715143 0.610914076 -0.5044603859 0.0571329739 -0.0095412986
345297930.0 0.0562977251 -0.0083018932 0.6048275544 -0.5109364519 0.6047598614 -0.5113003936 0.0579136808 -0.010970059
350297900.0 0.0566449796 -0.0093765798 0.5989285295 -0.5179010567 0.599222288 -0.5181543008 0.0566357297 -0.0107633732
355297870.0 0.0560634425 -0.0100707702 0.5934889377 -0.5246404672 0.5934517218 -0.5252407546 0.0563861598 -0.0113129044
360297840.0 0.0559894304 -0.0107727003 0.587320959 -0.53135399 0.587431785 -0.5316487222 0.0564033658 -0.01179708
365297810.0 0.0558819591 -0.0114902185 0.5817033186 -0.5379719816 0.581582164 -0.5377574092 0.0557972371 -0.0124763971
370297780.0 0.0558516344 -0.0122311559 0.5756474822 -0.5444568868 0.575985653 -0.5448172098 0.0560336597 -0.0126648004
375297750.0 0.0551068725 -0.0123358671 0.5706642922 -0.5506924131 0.5693574853 -0.5510860149 0.0557428385 -0.0134093032
380297720.0 0.0553142097 -0.013835683 0.5639371479 -0.5569214944 0.5637869149 -0.5567677173 0.0552092133 -0.0141556808
385297690.0 0.0548699028 -0.0141041058 0.5570631696 -0.5630614583 0.5577539766 -0.5634554968 0.0550602094 -0.0148264068
390297660.0 0.0541782278 -0.014869406 0.5507537468 -0.5695139493 0.5509865732 -0.5699745283 0.0549447643 -0.0156074031
395297630.0 0.0549390971 -0.0156300146 0.5452026124 -0.5751715747 0.5450930105 -0.5757864175 0.0544264496 -0.0157331608
400297600.0 0.0537701218 -0.0160088499 0.5383098925 -0.5820696783 0.5388542629 -0.5825445685 0.0533776241 -0.016743475
405297570.0 0.0540030733 -0.0165400889 0.532053344 -0.5877899197 0.5321624399 -0.5883866799 0.0535920462 -0.0165775764
410297540.0 0.0536461153 -0.0173723397 0.5252288773 -0.5936510846 0.525406742 -0.5939557691 0.0532985841 -0.017824851
415297510.0 0.053243757 -0.0173283276 0.5192399303 -0.5988953222 0.5191902192 -0.5991106599 0.0525837877 -0.0180042038
420297480.0 0.0529998872 -0.0189886299 0.5119956613 -0.6055726577 0.512724121 -0.6056407907 0.0530306583 -0.0189670351
425297450.0 0.0531931428 -0.0195196603 0.5058435167 -0.6108262715 0.5063644398 -0.6108200255 0.0520747685 -0.0191535128
430297420.0 0.052615261 -0.0194740341 0.4995608921 -0.6167659206 0.4993726223 -0.6167688097 0.0518431026 -0.0201673529
435297390.0 0.052512165 -0.0207364458 0.4923546339 -0.6217548376 0.4930060976 -0.6219107123 0.0513178288 -0.019984284
440297360.0 0.0521067333 -0.0214864395 0.4852909879 -0.6274262898 0.4849536417 -0.6275765385 0.0512549647 -0.0213211391
445297330.0 0.0520805469 -0.0220309366 0.4781496258 -0.6339829982 0.4782925035 -0.6330681913 0.050712065 -0.0214205612
450297300.0 0.0518769559 -0.0226696108 0.4712331114 -0.6382613782 0.4717502966 -0.6390336535 0.050400548 -0.0221811826
455297270.0 0.0509720019 -0.0235521909 0.464934513 -0.6433287452 0.4651341984 -0.6435869749 0.0504800007 -0.0226358625
460297240.0 0.0506479042 -0.0239309346 0.4572315227 -0.6481731979 0.4570148839 -0.6486141809 0.0495264987 -0.0224070086
465297210.0 0.0507731448 -0.0247217277 0.450181074 -0.6533220012 0.4507485976 -0.6536783727 0.0489349744 -0.0236759588
470297180.0 0.0499375086 -0.0253531958 0.4431725933 -0.6581779863 0.4438130375 -0.6590081683 0.0482712327 -0.0241997896
475297150.0 0.0494782671 -0.0263897968 0.4357124698 -0.663334874 0.436085656 -0.6628699189 0.0482264876 -0.024589668
480297120.0 0.0498724907 -0.0267551459 0.4285247284 -0.6676285265 0.4286473984 -0.6681718924 0.0478304105 -0.0246489335
485297090.0 0.049440642 -0.027179519 0.4219657098 -0.672408497 0.4217557127 -0.6731842992 0.0469963885 -0.025730494
490297060.0 0.0488177086 -0.0278769825 0.4139750105 -0.6778361248 0.414068697 -0.6780351262 0.0468968496 -0.0254393573
495297030.0 0.0479367777 -0.0283842113 0.405959332 -0.6820949757 0.4065482438 -0.6821505226 0.0467030113 -0.0265622689
500297000.0 0.0480938744 -0.0290226544 0.3990963108 -0.6865355108 0.3987201589 -0.6867530491 0.0452997365 -0.0264675664
505296970.0 0.04711122 -0.0298177213 0.3905583112 -0.6905102452 0.3915225013 -0.69085105 0.0449153843 -0.0274615665
510296940.0 0.0468752731 -0.0300789025 0.3835913816 -0.6957490756 0.3841232448 -0.6951998852 0.0450699289 -0.0272256068
515296910.0 0.0463119065 -0.0304454036 0.375787533 -0.6989559847 0.3759667996 -0.6996629028 0.0441502483 -0.0278233427
520296880.0 0.0460063376 -0.0313352131 0.3683054123 -0.7035208074 0.3687076472 -0.7031411406 0.0441093637 -0.0284084751
525296850.0 0.0453576491 -0.0323493293 0.3602494925 -0.7075590671 0.3607495284 -0.7080496871 0.0441361461 -0.0286290053
530296820.0 0.0450979352 -0.0325378344 0.3531577699 -0.7107572246 0.352469253 -0.7110346577 0.0428885062 -0.0297430403
535296790.0 0.0441982286 -0.0330098526 0.344809984 -0.7147243437 0.3455527374 -0.7152263891 0.0426599188 -0.0300133614
540296760.0 0.0440638104 -0.0337652718 0.3374232302 -0.719118302 0.3369105014 -0.7192259108 0.0413995174 -0.0299499948
545296730.0 0.0435042478 -0.0334731104 0.3294472681 -0.7220278292 0.3293368696 -0.7232322866 0.0412553556 -0.0308294847
550296700.0 0.0425534155 -0.0345642143 0.321702701 -0.7264109795 0.3221336832 -0.7263972652 0.0408786433 -0.0304037614
555296670.0 0.0424835153 -0.0352702576 0.3136549244 -0.7304259215 0.3137257544 -0.7298499034 0.0400522458 -0.0312569313
560296640.0 0.0419058211 -0.0355569189 0.3060425342 -0.7328439319 0.3055765461 -0.7329806757 0.0395994829 -0.0315609285
565296610.0 0.0407621275 -0.0360241106 0.297129624 -0.7363691485 0.297276217 -0.7366845846 0.0392869671 -0.0322634927
570296580.0 0.0410890943 -0.0364497427 0.2896367141 -0.7395603563 0.2901137124 -0.7397838382 0.0386109439 -0.031637438
575296550.0 0.0401864831 -0.0362295602 0.2814129375 -0.7422204411 0.2820021945 -0.7426613368 0.0382644633 -0.0323706709
580296520.0 0.0395997596 -0.0370148403 0.2736314452 -0.7456269064 0.2730906908 -0.7463308898 0.0377097714 -0.0333328763
585296490.0 0.0392013502 -0.0381114608 0.2656810173 -0.7491344203 0.2650817358 -0.748742076 0.0369942323 -0.0338377309
590296460.0 0.0381880684 -0.0384870774 0.2567331297 -0.7516581962 0.256737343 -0.752037059 0.0368108862 -0.0332421268
595296430.0 0.0377033161 -0.0384590693 0.2487330243 -0.7547685525 0.2489041358 -0.7551315211 0.0362818578 -0.0339754667
600296400.0 0.0372755493 -0.0386249438 0.2404541552 -0.7569021992 0.2412853302 -0.7572026108 0.0355592727 -0.0338300857
605296370.0 0.0369440967 -0.0384362925 0.2324601107 -0.7597869344 0.2323428327 -0.7596376313 0.0351174464 -0.0345495787
610296340.0 0.036176481 -0.039348237 0.2246643733 -0.7618092096 0.2244631233 -0.7623726254 0.0343788665 -0.0343283685
615296310.0 0.0355466967 -0.0394517851 0.2154036802 -0.7643694488 0.2156861959 -0.7645556732 0.0343580321 -0.0350503545
620296280.0 0.034831762 -0.0398935754 0.2071369161 -0.7669567397 0.2071246227 -0.7669652712 0.0334907269 -0.0356088764
625296250.0 0.0345226969 -0.04011881 0.1981865223 -0.7693205357 0.1983464397 -0.7694938244 0.0331871795 -0.0355344079
630296220.0 0.0337564384 -0.0404978271 0.1902140149 -0.7713307026 0.1908563464 -0.7713478589 0.0319014885 -0.0358902273
635296190.0 0.0331437498 -0.0409989864 0.1821516303 -0.7728667966 0.181438176 -0.7727568164 0.0315179468 -0.0363386215
640296160.0 0.032437667 -0.0411718365 0.173732521 -0.7750976475 0.1733588401 -0.7751680712 0.0316874059 -0.0367931092
645296130.0 0.0318863052 -0.0413749047 0.1653314482 -0.7766936002 0.1649239324 -0.7769766126 0.0298497149 -0.0372759609
650296100.0 0.0312119989 -0.0409667955 0.1573791078 -0.7781094884 0.1570337422 -0.778487657 0.0298988348 -0.0371458192
655296070.0 0.0303354281 -0.0421645219 0.1482230384 -0.779955671 0.148019203 -0.7805620216 0.0302229888 -0.0367715414
660296040.0 0.0294695615 -0.0416899626 0.1395593219 -0.7812454815 0.1398662948 -0.7819166077 0.0285598621 -0.0376744382
665296010.0 0.0293725434 -0.0425536347 0.131416627 -0.7831726475 0.1316064168 -0.7828726591 0.0278183004 -0.0375242647
670295980.0 0.0293224563 -0.0423515463 0.1221387608 -0.7847189292 0.1231296508 -0.7848828302 0.0269602256 -0.0379007523
675295950.0 0.0284910291 -0.0424987119 0.11420728 -0.7860401351 0.1146453178 -0.7861081189 0.0269880815 -0.0380663594
680295920.0 0.0275109173 -0.0426268812 0.1049152646 -0.7872600757 0.1054092361 -0.787580818 0.0264167743 -0.038552901
685295890.0 0.0268428418 -0.0428779296 0.0972819234 -0.7883396463 0.0967916971 -0.7887011235 0.0258250447 -0.0380738326
690295860.0 0.026594665 -0.04323462 0.08856409 -0.7884013054 0.0878987394 -0.789002983 0.0256835871 -0.0381938188
695295830.0 0.0262477331 -0.0437006318 0.0784544721 -0.7900359685 0.0793674019 -0.7905424725 0.0241361679 -0.0384208577
700295800.0 0.0257922595 -0.0435766815 0.0708748253 -0.7910341552 0.0710057592 -0.7914825314 0.0238934396 -0.0392610119
705295770.0 0.0248908314 -0.0435750159 0.0621312393 -0.7914164767 0.062502331 -0.7915451755 0.0231094403 -0.0391390494
710295740.0 0.0241099058 -0.0434302031 0.0535580572 -0.7917697316 0.0538460499 -0.7921608604 0.0216486516 -0.0390065722
715295710.0 0.0236609038 -0.0438576019 0.0453612993 -0.792931062 0.045636419 -0.7933343099 0.0220917592 -0.0400847387
720295680.0 0.0227548054 -0.0441259338 0.0366712288 -0.79343343 0.0365782319 -0.7936263501 0.0216969249 -0.0391556305
725295650.0 0.0224236652 -0.0443114423 0.0279017596 -0.7936367487 0.0274873054 -0.7935565506 0.0211199641 -0.0390876298
730295620.0 0.0210353079 -0.0446677924 0.019270282 -0.7939899527 0.0190859938 -0.794122207 0.0206616528 -0.0404547325
735295590.0 0.02131043 -0.0442941902 0.0110287109 -0.7938847366 0.0111582357 -0.7941736624 0.0197647351 -0.0393706942
740295560.0 0.0201129578 -0.0441379229 0.0019055878 -0.793810479 0.0019310303 -0.7940037826 0.0195912027 -0.0400736252
745295530.0 0.0201060157 -0.0446065341 -0.0066986931 -0.7939604995 -0.0065140678 -0.7939140681 0.0183520046 -0.0396699392
750295500.0 0.0193711507 -0.0447219844 -0.0151533114 -0.7932902009 -0.0150786006 -0.7936305238 0.0182811084 -0.0405178651
755295470.0 0.0190417461 -0.044389561 -0.0235188592 -0.7936604605 -0.0236284544 -0.7939708114 0.0170782142 -0.0398105244
760295440.0 0.0179635651 -0.0445885876 -0.0330416365 -0.7929048612 -0.0324730876 -0.793237826 0.0159393974 -0.0402403317
765295410.0 0.0171398716 -0.0451032477 -0.040030303 -0.7926948715 -0.0404135583 -0.7931301607 0.0167122696 -0.0397823337
770295380.0 0.0168434019 -0.0447533377 -0.0498077193 -0.7922181261 -0.0498394109 -0.7924269181 0.01624181 -0.0397460476
775295350.0 0.0159008106 -0.0447649168 -0.0583296555 -0.791166363 -0.0579777383 -0.792078379 0.0149157465 -0.0408729853
780295320.0 0.0156130078 -0.0449646851 -0.0666245514 -0.7909773735 -0.0667343109 -0.7913572562 0.0140982948 -0.039979717
785295290.0 0.0146967083 -0.0445262384 -0.0754904736 -0.7892847787 -0.0755196587 -0.7906706407 0.013260651 -0.0405770751
790295260.0 0.0140681473 -0.0447900125 -0.0836656721 -0.7894041796 -0.0838011135 -0.7899364331 0.0132523314 -0.0401505506
795295230.0 0.0132679198 -0.0446835015 -0.0926025623 -0.7877206942 -0.0922219432 -0.7882838637 0.0125229926 -0.0393832219
800295200.0 0.0129408098 -0.0445173288 -0.1018244775 -0.7874265001 -0.1014931466 -0.7872058086 0.0121244947 -0.0399687558
805295170.0 0.0118905005 -0.0447382524 -0.109344867 -0.7857581311 -0.109503294 -0.7862291838 0.0110381672 -0.0404401228
810295140.0 0.0116362635 -0.0444982805 -0.1176551297 -0.7849657651 -0.1180192519 -0.7855718222 0.0107616563 -0.0398468291
815295110.0 0.0109933653 -0.0445013996 -0.1272692634 -0.7829183986 -0.1270947323 -0.7837855248 0.0099537673 -0.0403097509
820295080.0 0.0102161318 -0.044944388 -0.1351509709 -0.7815618052 -0.1349120872 -0.7824797568 0.0093707523 -0.0399316283
825295050.0 0.0096513982 -0.0448405429 -0.1436998097 -0.7802736157 -0.1435187031 -0.7801367476 0.009255663 -0.0395837385
830295020.0 0.0089116542 -0.0441932955 -0.15259949 -0.7784667613 -0.152701723 -0.7792875276 0.0080801351 -0.0401657163
