!Created with skrf (http://scikit-rf.org).
# Hz S RI R 50.0 
!freq ReS11 ImS11 ReS21 ImS21 ReS12 ImS12 ReS22 ImS22
300000.0 -0.2312837905 -0.1352823869 0.4657548042 0.0880269662 0.4668516576 0.0869576943 -0.2350332112 -0.1341072383
5299970.0 -0.2418657268 0.0052904166 0.4751469218 0.0054579366 0.4754983715 0.0061506832 -0.2442870209 0.0045610805
10299940.0 -0.238526397 0.0186510627 0.4774759264 0.0070236251 0.4768062821 0.0068992132 -0.2404846275 0.0170805649
15299910.0 -0.2336390429 0.0288145052 0.4804504573 0.0081044417 0.4807557678 0.0082484112 -0.2368882429 0.0263229767
20299880.0 -0.2285538873 0.0367448634 0.4851721721 0.0082118427 0.4854406962 0.0083785638 -0.2317691558 0.0338958109
25299850.0 -0.2225276184 0.0436994034 0.4903998861 0.007682531 0.4909059188 0.0073452471 -0.227105817 0.0400787806
30299820.0 -0.217018385 0.0485548334 0.4962167105 0.0051933259 0.4962509388 0.0050092047 -0.2216663809 0.045011712
35299790.0 -0.2113567642 0.0527813827 0.5010685363 0.002323198 0.501411015 0.0019430381 -0.2166101621 0.0492114753
40299760.0 -0.2062897204 0.0561394496 0.5060792531 -0.0022910019 0.5065780243 -0.0020893062 -0.2117122166 0.0522860988
45299730.0 -0.2008501968 0.0586627602 0.5111638199 -0.0065077085 0.5115106268 -0.0065655185 -0.2069118878 0.0545682104
50299700.0 -0.1960683226 0.0608335951 0.5153370324 -0.0123892807 0.5152217809 -0.0125924408 -0.2026951549 0.0570469787
55299670.0 -0.1918533187 0.0625723765 0.518985296 -0.0178279973 0.5189636777 -0.0184865776 -0.1991382117 0.0585022831
60299640.0 -0.1877204357 0.0643800424 0.5224594394 -0.0245486777 0.5227102095 -0.0248556436 -0.1951490196 0.0598190368
65299610.0 -0.184095527 0.0649866649 0.5253004077 -0.0308160836 0.5256875039 -0.0311634043 -0.1916819121 0.0610617706
70299580.0 -0.180870442 0.0656656565 0.5276621562 -0.0373441663 0.5279177306 -0.0378842034 -0.1892713774 0.0619392639
75299550.0 -0.1781507138 0.0666282536 0.529251421 -0.0446653344 0.5298474556 -0.0445901734 -0.1862810549 0.0628062024
80299520.0 -0.1752428273 0.0676252243 0.531162545 -0.0511622074 0.5314881184 -0.0512670602 -0.1836371935 0.063457743
85299490.0 -0.1726088763 0.0681277357 0.5325614746 -0.0578688637 0.5331077733 -0.0583977305 -0.1815738597 0.0642304618
90299460.0 -0.17048358 0.0689601391 0.5335310875 -0.0653065375 0.5338671879 -0.0649159044 -0.1791813737 0.0652396975
95299430.0 -0.1680401022 0.0694761078 0.5343915383 -0.0717908965 0.5350283348 -0.0724137581 -0.1773357801 0.0657057588
100299400.0 -0.1660945747 0.0701091617 0.5349238736 -0.0785369721 0.5352360676 -0.0789437061 -0.1757666117 0.0665990391
105299370.0 -0.1640667582 0.0709154209 0.5352146332 -0.0858889354 0.535794679 -0.0856508289 -0.1739714818 0.0664395499
110299340.0 -0.1620349478 0.0713601558 0.5349857433 -0.0919756771 0.5355292584 -0.0923365694 -0.1725840617 0.0673048106
115299310.0 -0.1608193195 0.0726743406 0.5353146316 -0.0991299435 0.5354849183 -0.0989766435 -0.1713429385 0.0683014932
120299280.0 -0.1594902383 0.0733587268 0.5355075273 -0.1066538774 0.5351069169 -0.1065040016 -0.1700841129 0.0685839236
125299250.0 -0.1579490057 0.073976818 0.5346835612 -0.1129365922 0.5349770438 -0.1125103141 -0.168978434 0.0696689465
130299220.0 -0.1568417489 0.0745996759 0.5345263175 -0.1196335978 0.5342304582 -0.1202176809 -0.1675401769 0.0705675927
135299190.0 -0.1556882988 0.0759906632 0.5337445352 -0.1258032332 0.5339955173 -0.126610839 -0.1665752569 0.0713337089
140299160.0 -0.1542020251 0.0767816313 0.5333245465 -0.1329535314 0.5328258947 -0.1328589199 -0.1660040268 0.0718356585
145299130.0 -0.1535835023 0.0777280429 0.5319950671 -0.1396343644 0.5318160976 -0.1394321141 -0.1645885394 0.0730467851
150299100.0 -0.1521321132 0.0787762726 0.5309486254 -0.1458188744 0.5309581526 -0.1461692929 -0.1642516875 0.073917535
155299070.0 -0.1508194712 0.0799080337 0.529177596 -0.1528364177 0.5298215343 -0.1529070442 -0.1629391647 0.0748784808
160299040.0 -0.1498807126 0.0813977325 0.5281535263 -0.1592175436 0.5281018529 -0.1589170194 -0.1626288635 0.0759540531
165299010.0 -0.1488811486 0.0822300858 0.5268449591 -0.1649456276 0.5263542399 -0.1654566965 -0.161552559 0.0767130873
170298980.0 -0.1480107586 0.083508079 0.5247439833 -0.1717287153 0.5251196935 -0.1718723465 -0.161031071 0.0779072113
175298950.0 -0.1469330034 0.0848062746 0.5234235911 -0.1777696933 0.5241378964 -0.1781641331 -0.1601243002 0.0794133287
180298920.0 -0.1461811485 0.0858808555 0.5219795771 -0.1843845231 0.521675515 -0.1844979815 -0.1593613912 0.0801007716
185298890.0 -0.1448687379 0.087192577 0.5202031668 -0.1907027737 0.5200476448 -0.1904708207 -0.1584421059 0.0810176396
190298860.0 -0.1436664997 0.0889438777 0.5175042965 -0.1965309044 0.5182773643 -0.1969664585 -0.1575981632 0.0824907795
195298830.0 -0.143092696 0.0901498528 0.5164678459 -0.202618917 0.5161619807 -0.2030961811 -0.157035509 0.0834951564
200298800.0 -0.1420101242 0.0910435263 0.5138383394 -0.2091917148 0.5141646257 -0.2091314502 -0.1561534136 0.0847547364
205298770.0 -0.1415061215 0.0921256675 0.5116146434 -0.2144336285 0.5119709112 -0.2148175842 -0.1554329401 0.0860726973
210298740.0 -0.1402194628 0.0941165804 0.5097479364 -0.2209008816 0.5095161128 -0.2211295406 -0.1552804518 0.0869350694
215298710.0 -0.1394477359 0.0954907999 0.5068830078 -0.226543844 0.5074828057 -0.226855548 -0.1538384775 0.0884708745
220298680.0 -0.1381254638 0.0968585374 0.50468431 -0.2329537691 0.5046697484 -0.2331493868 -0.1533487693 0.0896376729
225298650.0 -0.137273937 0.098326238 0.5020951595 -0.2383651806 0.5022197541 -0.2381540757 -0.1526304626 0.0906878346
230298620.0 -0.1360946526 0.1000817238 0.4996589364 -0.2443714162 0.4999817944 -0.2446266504 -0.1519490133 0.0919043347
235298590.0 -0.1354321375 0.1013331546 0.4970495861 -0.2504706331 0.4971932735 -0.2500926471 -0.1509435571 0.0933652558
240298560.0 -0.1341758297 0.102858355 0.4941187328 -0.2555275899 0.4948413921 -0.2559049121 -0.1503429033 0.0944138546
245298530.0 -0.1333388805 0.1038304083 0.4911198513 -0.2614933037 0.4916627465 -0.2612291485 -0.1494360294 0.095923746
250298500.0 -0.1324212376 0.1053264745 0.4891205355 -0.2669196559 0.4890775227 -0.2671631626 -0.1490111403 0.0974268261
255298470.0 -0.1309648807 0.1072786198 0.4861941155 -0.2721117402 0.4861344861 -0.2730135717 -0.1477522187 0.0987812851
260298440.0 -0.1301782946 0.108382552 0.483103295 -0.2779408452 0.4830186032 -0.2778658199 -0.1473723119 0.0998625091
265298410.0 -0.1292543985 0.1098656279 0.4795950521 -0.2837907915 0.479879911 -0.2838753507 -0.1456718214 0.100960316
270298380.0 -0.1283186154 0.111337746 0.4770224639 -0.2891755572 0.4772454494 -0.2886971878 -0.1454827873 0.1027694259
275298350.0 -0.1271666365 0.1131288433 0.4735220222 -0.2941035136 0.4737529807 -0.2944366265 -0.1443984536 0.1041154135
280298320.0 -0.1263814791 0.11432793 0.4711372627 -0.2991639486 0.4709851366 -0.2999013118 -0.1434109213 0.1055232028
285298290.0 -0.1249517445 0.1158891832 0.4673511048 -0.3048073898 0.4677593932 -0.3050713451 -0.1426067714 0.1071489423
290298260.0 -0.1235825581 0.1174339183 0.4644847957 -0.3103305206 0.4642405855 -0.3104629892 -0.1413382321 0.1081338848
295298230.0 -0.122586995 0.1185498785 0.4607421825 -0.3159624829 0.4610689125 -0.3159895914 -0.1406801622 0.1095357769
300298200.0 -0.1214853488 0.1204044591 0.4572880018 -0.3211411051 0.4577541006 -0.320885376 -0.1397695903 0.1108741458
305298170.0 -0.1203173436 0.1212761071 0.4539446809 -0.3262745153 0.4543189206 -0.326390679 -0.1387885349 0.1118102174
310298140.0 -0.1187462711 0.1223993305 0.4506364259 -0.3310785296 0.4506754626 -0.3312007416 -0.1373783482 0.1127744274
315298110.0 -0.1175958897 0.1237584015 0.4468137653 -0.3368768888 0.4468285988 -0.3371080237 -0.1363459619 0.1145356631
320298080.0 -0.1163127023 0.1250662851 0.4426933075 -0.3418543987 0.4435558612 -0.3420038959 -0.1356970116 0.1156209535
325298050.0 -0.115525782 0.1260055183 0.4390362419 -0.3465385988 0.4398855128 -0.3468107348 -0.134339204 0.1166307681
330298020.0 -0.1148350757 0.1276483648 0.4355445722 -0.3520224896 0.4355534345 -0.3521236336 -0.1340684521 0.1180614088
335297990.0 -0.1134399663 0.1291370734 0.431259098 -0.3564889584 0.4317928817 -0.3566714122 -0.1329990217 0.1194952941
340297960.0 -0.1125885384 0.1304054297 0.4269617852 -0.3618264137 0.4273150553 -0.3615660132 -0.1320078934 0.1211467701
345297930.0 -0.1111663497 0.1313508344 0.4235294287 -0.3660627862 0.4231903975 -0.3663041863 -0.1307534187 0.1221168825
350297900.0 -0.1102099407 0.1330210282 0.4194224862 -0.3702310328 0.4194851925 -0.3707228896 -0.1301176758 0.1232117191
355297870.0 -0.1088218498 0.1342465969 0.4151325529 -0.3748143557 0.4155914868 -0.3750109499 -0.1286754042 0.1248913207
360297840.0 -0.1074558101 0.1358984742 0.4106826252 -0.3800332716 0.4111207356 -0.3800553672 -0.1277343354 0.1263721785
365297810.0 -0.106534943 0.1371233563 0.4068380141 -0.3842298905 0.4066957747 -0.3844175032 -0.1270999051 0.1274443718
370297780.0 -0.1046623422 0.1383469079 0.402331122 -0.3887606877 0.4028424451 -0.3886440407 -0.1257236427 0.1289230659
375297750.0 -0.1035507785 0.1399037987 0.398547846 -0.3928707539 0.3984151312 -0.3932990056 -0.1242403074 0.1302712993
380297720.0 -0.1022806634 0.1411044407 0.3941788699 -0.3975975346 0.394117047 -0.397890821 -0.1232238833 0.1318801603
385297690.0 -0.1011303021 0.1422343225 0.3897126708 -0.4018038317 0.3898651217 -0.4023565502 -0.1219864178 0.1331957056
390297660.0 -0.0991280671 0.1432186645 0.3849048657 -0.4055264598 0.385620911 -0.4060444698 -0.1206863414 0.1340625937
395297630.0 -0.0975512554 0.1448249173 0.3809070436 -0.4095318987 0.3804280597 -0.4098758475 -0.1195710352 0.1355653662
400297600.0 -0.0965881608 0.1458584812 0.3763785474 -0.4141371218 0.3764614869 -0.4145196735 -0.1182392134 0.13720278
405297570.0 -0.0948788848 0.1467378944 0.3717340691 -0.4182820845 0.3719978744 -0.4186241999 -0.1168188283 0.138328489
410297540.0 -0.0932605339 0.1483834186 0.3673004184 -0.4226493566 0.367283567 -0.4225772997 -0.1155187712 0.1396905446
415297510.0 -0.0919581286 0.1493313504 0.3625160755 -0.4265159016 0.3626897947 -0.4266462791 -0.1139660451 0.1410410082
420297480.0 -0.0901889905 0.1503130518 0.3577000024 -0.4305466397 0.3580617447 -0.4307458705 -0.1126605912 0.1424502597
425297450.0 -0.0883925489 0.1514217422 0.3532849925 -0.4341659431 0.3530071413 -0.4343715576 -0.1113879792 0.1432749252
430297420.0 -0.0871201383 0.1522876887 0.3486515017 -0.4383223263 0.3485587601 -0.4378254275 -0.1098543904 0.1446650402
435297390.0 -0.0852480047 0.1534427994 0.3431037502 -0.4421737797 0.3435349969 -0.4420215129 -0.1088009335 0.1463083993
440297360.0 -0.0834814214 0.1541504405 0.3382776616 -0.4456777922 0.3384330255 -0.4459977326 -0.1073344195 0.1474535818
445297330.0 -0.0818734356 0.1551178078 0.3338968629 -0.4490848231 0.3339202827 -0.4495232943 -0.1058636817 0.1486146132
450297300.0 -0.0799178611 0.1564120283 0.3289101005 -0.4529206345 0.3292733334 -0.4529357065 -0.1044051819 0.1494169838
455297270.0 -0.0788521769 0.1572944453 0.3240233837 -0.4563987739 0.3240575743 -0.4566052388 -0.1027273374 0.1506038658
460297240.0 -0.0765396262 0.158223941 0.3186883946 -0.4604175433 0.3191488597 -0.460340535 -0.1015198192 0.1517559474
465297210.0 -0.074931059 0.1592674801 0.3134228195 -0.463465091 0.3133979826 -0.4637236807 -0.0997357899 0.1534896412
470297180.0 -0.0732351368 0.1601055824 0.3082776844 -0.4665165854 0.3091691131 -0.4666914064 -0.0984207884 0.1540073912
475297150.0 -0.0715708056 0.1613993584 0.3034317643 -0.4704258622 0.3040707824 -0.4704445257 -0.0969925505 0.1550980276
480297120.0 -0.0693014447 0.1623592927 0.2982568682 -0.4734335203 0.2990213797 -0.473468562 -0.095678621 0.1562347685
485297090.0 -0.067817571 0.1626278034 0.2931465914 -0.4768771436 0.2931166144 -0.4767708707 -0.0940475615 0.1574848979
490297060.0 -0.0653307945 0.1637857253 0.2874114402 -0.4802215065 0.2880255105 -0.4798870632 -0.0923288376 0.1582566786
495297030.0 -0.0641491324 0.1642792189 0.2831080835 -0.4827518457 0.2826960676 -0.4833952895 -0.0905811915 0.1592859719
500297000.0 -0.0622119067 0.1653654032 0.2774580691 -0.4857849544 0.2775340847 -0.4861829775 -0.0891769605 0.1604991535
505296970.0 -0.0597256193 0.1662395963 0.2724053776 -0.4892737223 0.2721206635 -0.4891580574 -0.0874923182 0.1610655021
510296940.0 -0.0580960624 0.166857116 0.2672008191 -0.4921420933 0.2667435816 -0.4924843391 -0.0853914627 0.1625097817
515296910.0 -0.056108445 0.1682057001 0.2612259156 -0.4950141093 0.2611728473 -0.494960959 -0.084473648 0.1629206137
520296880.0 -0.0543979215 0.1686292194 0.2561572146 -0.4976419506 0.2561107409 -0.497959697 -0.0823276639 0.1648369822
525296850.0 -0.0524557404 0.1692429532 0.250802191 -0.5001939614 0.2502441679 -0.5001612279 -0.0808472829 0.1651791199
530296820.0 -0.0506204394 0.1698623501 0.2451329268 -0.5029788329 0.2450679322 -0.5030832352 -0.0790969322 0.1657313549
535296790.0 -0.0480158568 0.1708648321 0.2396720603 -0.5052586029 0.2396291081 -0.5058481687 -0.0773292563 0.1669837547
540296760.0 -0.0462351839 0.1714073159 0.2337677776 -0.5080227824 0.2336730182 -0.5082700397 -0.075819958 0.1676358995
545296730.0 -0.0448258276 0.1722435926 0.22883044 -0.510438811 0.2284270989 -0.510422412 -0.0739405415 0.1688914503
550296700.0 -0.0422375041 0.1728907768 0.2228828708 -0.5128618923 0.2227507236 -0.5134286295 -0.0724261187 0.1695086964
555296670.0 -0.0402133374 0.1734155264 0.2173214995 -0.5154350428 0.217689159 -0.5154290239 -0.0709718662 0.1699871756
560296640.0 -0.0378688561 0.174065922 0.2115093439 -0.5176877786 0.2118355135 -0.5178546494 -0.0690782182 0.1712300251
565296610.0 -0.0366226429 0.1746854718 0.2066944607 -0.5199722903 0.2062232055 -0.5198156979 -0.0673966532 0.1721385427
570296580.0 -0.034320423 0.1751226444 0.1999554784 -0.5220347276 0.2004364674 -0.521880039 -0.065716838 0.1724210921
575296550.0 -0.0322142778 0.1757086937 0.1953564748 -0.52441427 0.1949095202 -0.5240185013 -0.0641868455 0.1733029073
580296520.0 -0.0301797479 0.1765829074 0.1892984642 -0.5259657126 0.1890102029 -0.5265711735 -0.0626823296 0.17401427
585296490.0 -0.0279631441 0.1771464811 0.1835478069 -0.5282081294 0.1830156697 -0.5282550155 -0.0601804481 0.1749545128
590296460.0 -0.0254935814 0.1777451305 0.1774376643 -0.5304572504 0.1778609644 -0.5307288454 -0.0591197464 0.1759581055
595296430.0 -0.0235747527 0.1779873347 0.1714546493 -0.5317976438 0.1714392529 -0.5319871216 -0.0569728728 0.1763217198
600296400.0 -0.0213877714 0.1785114429 0.1656422428 -0.5336538639 0.1659427878 -0.5335591063 -0.0552821392 0.176639326
605296370.0 -0.0200047765 0.1790360818 0.1605735026 -0.5355935092 0.1597634607 -0.5358482091 -0.0534769278 0.1776410968
610296340.0 -0.0174939029 0.1797728374 0.154663321 -0.5367267162 0.1547142746 -0.5371540367 -0.0519992395 0.1783201872
615296310.0 -0.0151503107 0.1799157965 0.1486786215 -0.5390084214 0.1482107708 -0.5387446835 -0.0498218757 0.1788685171
620296280.0 -0.0138741362 0.1808742413 0.1426716865 -0.540414032 0.1421517588 -0.5405617204 -0.0483573043 0.1799485961
625296250.0 -0.0115737407 0.1808283493 0.1368367764 -0.5417395806 0.1368967019 -0.5420515235 -0.0470181559 0.1801556597
630296220.0 -0.0093752482 0.1812766668 0.1307729621 -0.5434670391 0.1308932778 -0.5435473764 -0.0449555894 0.1807516727
635296190.0 -0.007509174 0.1818821348 0.1250522663 -0.5445732916 0.1251425802 -0.5441934689 -0.043255562 0.1811495985
640296160.0 -0.0052738018 0.1820336285 0.1193767818 -0.5460319297 0.1191529869 -0.5461186855 -0.0414059356 0.1816561539
645296130.0 -0.0029069827 0.182760612 0.1134232111 -0.5471331318 0.1133472603 -0.5470686629 -0.0399843114 0.1822356066
650296100.0 -0.0011478675 0.1823635367 0.1076042121 -0.5485052213 0.1069374117 -0.548513406 -0.0372856746 0.1829881189
655296070.0 0.0009344619 0.1828349996 0.101255495 -0.5493561152 0.1013508456 -0.5493882441 -0.036443873 0.1835216651
660296040.0 0.0033053738 0.1833988231 0.0954212286 -0.5504382139 0.0954757944 -0.5504258764 -0.0342267708 0.1836348364
665296010.0 0.0052648159 0.1835288607 0.089011535 -0.5511156113 0.0892898543 -0.5514562753 -0.0324301822 0.1844600943
670295980.0 0.0071632223 0.1836044075 0.0835499986 -0.5523701109 0.0834226864 -0.5520247575 -0.0313099837 0.18438203
675295950.0 0.0091227659 0.1838732112 0.0773712342 -0.5527141102 0.0778058473 -0.5533387096 -0.0292761748 0.1852941672
680295920.0 0.0108911109 0.1842002324 0.0715880498 -0.5535387889 0.071695118 -0.5537701038 -0.0271362164 0.1852986439
685295890.0 0.0133787895 0.1844002858 0.0650868437 -0.5545563914 0.0650715796 -0.5549929759 -0.0251753142 0.1863232335
690295860.0 0.0152855283 0.1844180108 0.0596635665 -0.5550588745 0.0593571609 -0.5555512409 -0.0235718041 0.186465452
695295830.0 0.0171356924 0.1843638247 0.0543197245 -0.5555651183 0.0536473665 -0.5558635606 -0.0217448548 0.1870739541
700295800.0 0.0195515032 0.184739562 0.0479080721 -0.5565294538 0.047712741 -0.55639691 -0.0198722658 0.1872155051
705295770.0 0.0211720897 0.1848326274 0.0418985838 -0.5570487154 0.0416935969 -0.5569174469 -0.0180808957 0.1877039716
710295740.0 0.0229450087 0.1844832397 0.0361968792 -0.5573383357 0.0356037219 -0.5575787313 -0.0162652669 0.1878907401
715295710.0 0.0253928757 0.1848292415 0.0298246775 -0.5575793238 0.0296575539 -0.5577860244 -0.0144041747 0.1879180905
720295680.0 0.027744216 0.1846871111 0.0232960022 -0.5574609476 0.0233312006 -0.5579427073 -0.0127116163 0.1883296377
725295650.0 0.0290541993 0.1849079719 0.0178049588 -0.5576090005 0.0178283634 -0.5584814093 -0.0109855139 0.1894373333
730295620.0 0.030531897 0.1847142462 0.0121876637 -0.5576022044 0.0113617919 -0.5578166544 -0.0092501905 0.1896604937
735295590.0 0.0330163629 0.1846424471 0.0057607843 -0.5583976105 0.0055264819 -0.5581775246 -0.0074365481 0.1893196645
740295560.0 0.034925437 0.1842777263 -5.80033e-05 -0.5581052197 -0.0002178133 -0.5585149676 -0.005589046 0.18977679
745295530.0 0.0369187917 0.1842678742 -0.006268785 -0.5574242212 -0.005490724 -0.5580618756 -0.0039682243 0.1896807424
750295500.0 0.0388490187 0.1843996134 -0.0116590927 -0.5577109843 -0.0123285235 -0.5578865802 -0.0020182185 0.1901649648
755295470.0 0.0405369093 0.1840721026 -0.0176795036 -0.5579487394 -0.0181459311 -0.5581402995 -0.0002249334 0.1907477991
760295440.0 0.0426173975 0.1842223381 -0.0243012817 -0.5576451279 -0.0241323389 -0.5573537618 0.0021438281 0.1896657432
765295410.0 0.0447844344 0.1836285054 -0.0301031745 -0.556988504 -0.029756559 -0.5574499451 0.0036587249 0.1905051794
770295380.0 0.0463966353 0.1835485741 -0.0356961688 -0.5563967874 -0.0359664654 -0.5572511917 0.0050022642 0.1905029581
775295350.0 0.0485739339 0.1831434703 -0.0423106177 -0.5561672743 -0.0420259667 -0.5562169308 0.0073244941 0.1910010851
780295320.0 0.0504849315 0.1829762484 -0.0480374376 -0.5553601159 -0.0478422375 -0.5557029376 0.0094362741 0.1908335278
785295290.0 0.0522897908 0.1823605585 -0.054061427 -0.5550537637 -0.0537360361 -0.5554479217 0.010846595 0.1912768228
790295260.0 0.0543582486 0.1819058532 -0.0598352835 -0.5547770398 -0.0594662176 -0.554918512 0.0126525187 0.1915578942
795295230.0 0.0559589635 0.1815969621 -0.0657685226 -0.5539016015 -0.0660193365 -0.5541906975 0.0146460583 0.1908125099
800295200.0 0.0575857507 0.1813639638 -0.0713529744 -0.5529464636 -0.0716082286 -0.5534589127 0.0161347997 0.1911192272
805295170.0 0.0595744661 0.1808540224 -0.0774566274 -0.552434504 -0.0777381607 -0.5526007128 0.0188369746 0.1911867388
810295140.0 0.06173501 0.1805148105 -0.0832504494 -0.5512231719 -0.0836120277 -0.5514611374 0.0202237948 0.1912435697
815295110.0 0.0634050645 0.1799304149 -0.0891206652 -0.5508068442 -0.0890047945 -0.5507993566 0.0217810146 0.1909725145
820295080.0 0.0654237839 0.1795372119 -0.0948927797 -0.5491698126 -0.0951934736 -0.5500338392 0.0232705954 0.1915634583
825295050.0 0.0670949782 0.1791222138 -0.1005924491 -0.5487632977 -0.10104773 -0.5483783833 0.0261462321 0.1914064048
830295020.0 0.0692290957 0.1783528692 -0.1070394128 -0.5473206777 -0.1070650517 -0.5475338825 0.0275437054 0.1909782026
