!Created with skrf (http://scikit-rf.org).
# Hz S RI R 50.0 
!freq ReS11 ImS11 ReS21 ImS21 ReS12 ImS12 ReS22 ImS22
300000.0 -0.7713489825 -0.1514688468 0.001118342 0.001664377 -0.0003402628 0.0004608209 -0.2095226361 -0.0939521107
5299970.0 -0.7851897196 -0.0071140974 0.0001588257 -0.0001538979 -2.63195e-05 -2.38635e-05 -0.2164224465 0.0067607734
10299940.0 -0.7879446434 -0.0042567783 -5.61475e-05 7.32813e-05 2.25923e-05 0.0001151994 -0.2130467479 0.0185704198
15299910.0 -0.7936094715 -0.0016431137 -6.51125e-05 -5.01899e-05 -0.0001120598 0.0003155087 -0.2080897419 0.0280074339
20299880.0 -0.7993635899 0.0023060324 0.0001117897 5.97673e-05 -2.82995e-05 0.0001940312 -0.203095798 0.0357340918
25299850.0 -0.8064700065 0.0081180088 -0.0001048339 0.0001634631 -0.0002578929 5.28126e-05 -0.1972904228 0.0415185108
30299820.0 -0.8116135682 0.0164285476 -0.0001832768 2.47171e-05 -5.89438e-05 -1.54093e-05 -0.1914867329 0.046422958
35299790.0 -0.8172092242 0.0254341441 7.91566e-05 2.75674e-05 3.20546e-05 -5.2483e-06 -0.1858637587 0.050072338
40299760.0 -0.8213821137 0.0344472251 -1.96781e-05 8.39511e-05 3.00341e-05 2.97636e-05 -0.1800819542 0.052909855
45299730.0 -0.825013312 0.0443512832 1.11552e-05 0.0001584615 -3.05455e-05 0.0001144451 -0.1755433586 0.0552236381
50299700.0 -0.8264155796 0.0541333825 0.0001956274 -7.0811e-05 1.93693e-05 -5.87168e-05 -0.1702251139 0.0568963034
55299670.0 -0.8287106255 0.0640818205 0.000200831 0.0001673579 -8.35111e-05 0.0001898539 -0.1663612366 0.0579975886
60299640.0 -0.8297058396 0.0747701991 3.45878e-05 0.0001418502 -0.0002268165 0.0001336375 -0.1624944535 0.0586033535
65299610.0 -0.8312233873 0.0846800452 1.95479e-05 0.0001729188 0.0002542936 0.0001100688 -0.1587180654 0.0593839709
70299580.0 -0.8315247272 0.0947408307 9.83803e-05 -2.72852e-05 -3.00384e-05 0.0001010934 -0.155564316 0.0591772914
75299550.0 -0.8311762117 0.104846492 -3.71343e-05 -8.15407e-05 5.2102e-05 6.76366e-05 -0.1526533226 0.059578052
80299520.0 -0.8314192365 0.1149195969 0.0002631612 0.0002071651 -5.75215e-05 -6.41991e-05 -0.1503050654 0.059418636
85299490.0 -0.8307603546 0.1242374292 -0.0001546741 -8.21999e-05 6.57889e-05 5.24631e-05 -0.1477147053 0.0596580326
90299460.0 -0.8297872231 0.1340501945 -5.70716e-05 -6.15398e-05 8.73714e-05 -7.15086e-05 -0.1454427638 0.059326473
95299430.0 -0.8286040071 0.1433302847 0.0001407352 9.08421e-05 -3.1917e-06 -0.0001195378 -0.1435579757 0.0596579043
100299400.0 -0.8281401238 0.1528289714 -2.81692e-05 -1.08323e-05 0.0001021733 -5.2149e-06 -0.1417307115 0.0595087969
105299370.0 -0.8268908436 0.1618521449 -2.41059e-05 0.0002169232 2.32631e-05 0.0001592986 -0.1398167325 0.0594720082
110299340.0 -0.8250611595 0.1713702793 -5.83387e-05 7.79487e-05 6.53588e-05 5.7893e-05 -0.1388908278 0.0595198048
115299310.0 -0.8234482451 0.1805038114 0.000164533 -7.95089e-05 -0.0001694587 -3.76879e-05 -0.1373570769 0.0594655274
120299280.0 -0.8221577729 0.1895242668 4.62993e-05 -4.22764e-05 -0.0001362074 2.3101e-06 -0.1360455585 0.0596900448
125299250.0 -0.8204934581 0.1983897983 0.0001768655 0.0003648848 -0.0002187576 5.89421e-05 -0.1349110351 0.0592546504
130299220.0 -0.8184028917 0.2075775422 4.1424e-05 0.0001760373 0.0001990791 0.000123902 -0.1344776705 0.0598687971
135299190.0 -0.8170276817 0.2162880833 2.1821e-06 9.30887e-05 -4.99409e-05 0.0001398878 -0.1334592101 0.0596630907
140299160.0 -0.8144393787 0.2258623279 0.0001627312 0.0001235966 0.0001894366 0.0001374581 -0.132202788 0.0596523785
145299130.0 -0.8121632706 0.2343842387 0.0001139856 8.15259e-05 0.0001148337 0.0001137769 -0.1317716289 0.0602899392
150299100.0 -0.8100991961 0.242761134 -8.97877e-05 -0.0001592288 0.0001552755 6.4121e-05 -0.1309107447 0.0603634874
155299070.0 -0.807288724 0.2521501 0.0001854929 7.44065e-05 0.0001862168 1.12689e-05 -0.1302288179 0.060971415
160299040.0 -0.8045589665 0.2614169007 -3.71192e-05 0.0001064955 0.0001218322 5.102e-06 -0.1295962154 0.0613787805
165299010.0 -0.8022558608 0.2692822536 -4.42635e-05 0.0001827026 -8.45444e-05 1.74173e-05 -0.1291051452 0.0616560148
170298980.0 -0.7993027878 0.2780331998 8.90111e-05 8.77793e-05 -5.6791e-06 -7.0657e-06 -0.1283572468 0.0622635012
175298950.0 -0.7967097201 0.287247169 1.8156e-06 -0.0001073809 3.96862e-05 -7.02485e-05 -0.1281948205 0.0627912599
180298920.0 -0.793875814 0.2951187832 5.2048e-05 -7.78674e-05 0.0002084114 0.0004192338 -0.1270304769 0.0632435031
185298890.0 -0.7908524437 0.3047556591 0.0001777897 5.67673e-05 5.13209e-05 -4.40883e-05 -0.1269835818 0.063596772
190298860.0 -0.7870581924 0.3126223776 0.0001322485 0.0002085594 0.0002004462 -5.90326e-05 -0.1261184803 0.0646470936
195298830.0 -0.7837186107 0.3213556197 -0.000102584 -0.0001757654 -0.0001001702 1.3203e-05 -0.1257649526 0.0650900189
200298800.0 -0.780706779 0.3292551049 0.0002455022 0.0001758798 0.0001570992 -0.000111668 -0.1251905295 0.0654811881
205298770.0 -0.7768203022 0.3375766747 4.60471e-05 9.67379e-05 8.4124e-05 0.0001322947 -0.1243565132 0.0662250055
210298740.0 -0.7733485826 0.3456303962 0.0001863081 8.42842e-05 7.83532e-05 0.0001501238 -0.124217154 0.0670451688
215298710.0 -0.7705047333 0.3541638106 -0.0001156062 0.0001154236 0.000180639 0.0001314468 -0.1241318971 0.0678093848
220298680.0 -0.7669166537 0.3625368144 0.0001998577 -7.53618e-05 -0.0001689602 -0.0001206188 -0.1229884234 0.0688384847
225298650.0 -0.7630981942 0.371022806 0.0001054743 2.78799e-05 0.0002234586 0.0002011072 -0.1228843758 0.0697210777
230298620.0 -0.7586172214 0.3787614745 0.0001986331 0.0002295213 0.0001335054 4.74646e-05 -0.1220080578 0.0703533392
235298590.0 -0.754660354 0.3874045983 0.00042803 0.0001847583 0.0001822636 7.91907e-05 -0.1219484222 0.0710892506
240298560.0 -0.7510049427 0.3949805106 0.0001655577 0.0001758421 7.39192e-05 -2.87976e-05 -0.1213463079 0.071893463
245298530.0 -0.746571768 0.4030618944 0.0001628962 5.3376e-05 1.35574e-05 -5.92064e-05 -0.1206739159 0.073063614
250298500.0 -0.7421943472 0.4104697802 5.88661e-05 0.0001307953 9.27615e-05 0.0001546439 -0.1198004076 0.0740657036
255298470.0 -0.7376617899 0.4191473989 -0.0001140944 0.0001562906 -8.59307e-05 0.0002449804 -0.1193358889 0.0746916409
260298440.0 -0.7337433416 0.4259300701 0.0001492573 7.43169e-05 5.37965e-05 0.0001619479 -0.1189602458 0.0757277874
265298410.0 -0.7289485601 0.4343787195 6.1469e-05 0.0001763167 1.01261e-05 0.0002115994 -0.1185850177 0.0766047575
270298380.0 -0.7247018836 0.4419865233 0.0001706071 8.74278e-05 0.0002076543 1.73176e-05 -0.1175453487 0.0776341782
275298350.0 -0.7193312755 0.4489140168 9.22471e-05 0.0002996431 0.0002390578 1.09522e-05 -0.1171855224 0.0790869466
280298320.0 -0.7149486586 0.4565570435 -0.000117679 5.9397e-05 -0.0001031157 0.0002772631 -0.1163084196 0.079636118
285298290.0 -0.709863533 0.4646047756 9.04154e-05 0.0001547317 0.0002146899 2.5768e-06 -0.115845611 0.0807325574
290298260.0 -0.7053003608 0.472071693 0.0003484955 6.20596e-05 0.0001858187 -6.9744e-06 -0.1151671443 0.081771378
295298230.0 -0.7003911406 0.4795330953 0.0002183249 -0.0001173903 0.0003507419 0.0001832637 -0.1147950366 0.0831976968
300298200.0 -0.6947331333 0.4863934431 1.89113e-05 8.05349e-05 -8.41573e-05 6.1111e-05 -0.1139891311 0.0838984068
305298170.0 -0.690263633 0.4940317519 0.0002802326 8.08557e-05 0.0001620656 0.0002256429 -0.1128240356 0.0853312471
310298140.0 -0.6848933935 0.5007920565 -0.0002043512 -4.94793e-05 0.0001189071 0.000171022 -0.1124275011 0.0862716135
315298110.0 -0.6802984226 0.5082265353 9.36823e-05 9.54125e-05 0.0001108218 6.6522e-05 -0.1116142031 0.0871037806
320298080.0 -0.6738052041 0.5156256094 7.39421e-05 0.0002069489 0.0001962204 -1.5297e-06 -0.1108423528 0.0882558477
325298050.0 -0.6681319421 0.5222630435 3.49601e-05 0.0001027229 7.28732e-05 0.0001840266 -0.1102829031 0.0893234857
330298020.0 -0.6633461699 0.5293068045 0.0003401624 5.49432e-05 0.0001243933 0.0002069614 -0.1098113565 0.0902357556
335297990.0 -0.6567613558 0.5358397392 5.47821e-05 0.0003229215 0.0001506317 0.0001341751 -0.1094338962 0.091376529
340297960.0 -0.6519068648 0.5429010693 0.0001473783 0.0001487469 6.39089e-05 0.0001281303 -0.1085119624 0.0924197066
345297930.0 -0.6466254777 0.5488159802 0.0004947823 0.00010799 0.0002655564 -5.39292e-05 -0.1082020996 0.0935382094
350297900.0 -0.6401257845 0.5560771442 0.0001884732 2.31935e-05 -2.78163e-05 0.0001675357 -0.1070349478 0.0946758615
355297870.0 -0.634335004 0.5631247865 9.88553e-05 9.78637e-05 0.0002781994 2.50113e-05 -0.106425698 0.096050331
360297840.0 -0.6286249224 0.569024567 0.0001842528 0.0001549567 0.0001175145 0.0002294003 -0.1056406001 0.0972673904
365297810.0 -0.6218882126 0.5752168015 0.0002155688 0.0001311046 3.99194e-05 2.82575e-05 -0.104694375 0.0981112821
370297780.0 -0.6160650812 0.5817103382 0.0002201522 0.0001339447 0.0003253744 0.0001540834 -0.1043452538 0.0991818088
375297750.0 -0.6098116827 0.5883890876 -9.6593e-06 9.90163e-05 -2.2126e-06 7.41767e-05 -0.1031410102 0.1004295423
380297720.0 -0.603484791 0.5951209538 0.0003464422 -0.0001317578 0.0002062307 0.0002335785 -0.1027106359 0.1020768416
385297690.0 -0.5973532985 0.600731734 0.0001479499 2.4411e-06 0.0002813436 3.7191e-06 -0.1017392283 0.1034249248
390297660.0 -0.5918400865 0.6074920188 -5.32143e-05 4.01753e-05 0.0002095549 0.0002123149 -0.1010302751 0.1039501111
395297630.0 -0.5856608227 0.6130828157 1.19525e-05 0.0002071947 0.0001209113 0.0002878189 -0.1003287772 0.105581932
400297600.0 -0.5788180725 0.6188700042 3.28215e-05 7.8942e-05 8.70164e-05 -2.7187e-06 -0.099517232 0.1063239696
405297570.0 -0.5718789499 0.6250395969 0.0002857649 -9.7103e-06 -1.14995e-05 0.0001009286 -0.098697694 0.107778205
410297540.0 -0.565753314 0.630856827 0.0002640719 0.0001228684 0.000106711 0.0001206226 -0.0979072974 0.1089299357
415297510.0 -0.5593632866 0.6362798524 5.83511e-05 0.0001443474 0.0002000126 -7.99692e-05 -0.0971997107 0.1103399567
420297480.0 -0.551936982 0.642338377 0.000176096 2.0505e-06 0.0002546482 -3.68648e-05 -0.0959835866 0.1109578842
425297450.0 -0.5459105036 0.6478046413 0.0001032186 0.0001752592 0.0001582521 7.95122e-05 -0.094688781 0.1124257631
430297420.0 -0.5392978887 0.6531938415 0.0003625586 5.1014e-06 0.0002955156 -0.00013455 -0.0940573078 0.1131876551
435297390.0 -0.5319804953 0.6591325848 0.0002048153 0.0001191233 5.70902e-05 5.34922e-05 -0.0931223856 0.1147364163
440297360.0 -0.5253155927 0.6646820727 0.0001572181 -2.79145e-05 0.000250848 8.25228e-05 -0.0924279196 0.1153183061
445297330.0 -0.5182369369 0.6699136633 0.000178023 4.52115e-05 0.0001602384 -0.0001214519 -0.0911447411 0.1166969891
450297300.0 -0.5111727588 0.6749879755 0.0002488229 6.67047e-05 4.7291e-05 -6.44127e-05 -0.090645223 0.1176427713
455297270.0 -0.5040004868 0.6800597809 0.0002550747 0.0001964464 0.000212312 -6.13201e-05 -0.0896770817 0.1184493179
460297240.0 -0.4976778682 0.68543805 0.0001873315 0.0001642966 0.0001463574 9.16156e-05 -0.0882577841 0.1198760828
465297210.0 -0.4901623737 0.690642283 0.000210553 -4.0081e-05 7.27223e-05 0.0001966348 -0.0876659488 0.1208969698
470297180.0 -0.4831575296 0.6948494924 0.0001888862 -2.95853e-05 0.000216272 5.26722e-05 -0.0866899774 0.1222210117
475297150.0 -0.4757966896 0.7002728225 8.8982e-05 0.0003939294 8.32332e-05 0.0002550047 -0.0854726343 0.1229652454
480297120.0 -0.4689649433 0.7044997679 0.0003320696 7.33791e-05 0.0003232539 -0.000136177 -0.0846515688 0.1240601177
485297090.0 -0.46107037 0.7092839459 0.0001199062 0.000377937 0.0001617567 1.18014e-05 -0.0836931241 0.1249616355
490297060.0 -0.4542320885 0.7142130386 0.0002438742 -0.0001158581 0.0002330582 -8.74265e-05 -0.0827352231 0.1262326968
495297030.0 -0.4475154111 0.7189418059 7.12902e-05 0.0001014136 9.39713e-05 9.56328e-05 -0.0814106194 0.1267453083
500297000.0 -0.4378653927 0.723663843 0.0001812145 0.0001253695 0.000176273 -5.16639e-05 -0.0805587945 0.1279621226
505296970.0 -0.4315501091 0.7270140923 -1.15135e-05 -6.5017e-05 0.0004607358 -0.0001443591 -0.0797851283 0.1290068883
510296940.0 -0.4244823886 0.7317034216 -9.81771e-05 0.0001685021 0.0002838053 3.74498e-05 -0.0783465738 0.1300125253
515296910.0 -0.4170706475 0.7363865765 0.0001011332 -6.11034e-05 0.0002183988 -4.9782e-06 -0.0770789692 0.1308100818
520296880.0 -0.4088611668 0.7408710035 0.0002868762 6.62391e-05 0.000377763 0.0001759567 -0.0759613637 0.1316361067
525296850.0 -0.4017199653 0.7448303287 0.0002681462 1.46459e-05 0.000194752 0.000235383 -0.0749496341 0.1326680336
530296820.0 -0.3939839285 0.7484825174 9.54905e-05 -4.5621e-06 7.121e-05 8.9433e-06 -0.0742181226 0.1337506426
535296790.0 -0.3856713367 0.752341977 0.0001027979 8.58706e-05 0.0001688403 -5.94005e-05 -0.0726410161 0.1344900932
540296760.0 -0.3776907904 0.7560794057 0.0002712552 -5.861e-07 0.0003032061 4.04495e-05 -0.0715686029 0.1356553779
545296730.0 -0.3710347978 0.7596615914 6.5676e-05 1.15512e-05 0.0003959977 4.94839e-05 -0.0706206232 0.1361358392
550296700.0 -0.3629752002 0.7635111215 0.0001407907 9.51835e-05 0.0003378747 -7.05676e-05 -0.069324377 0.1370166496
555296670.0 -0.354232449 0.7672649795 0.0001002259 3.4275e-06 0.000178667 9.70376e-05 -0.0682744378 0.1381997115
560296640.0 -0.3473624104 0.7710320585 8.83741e-05 -3.12944e-05 0.000212674 -2.77354e-05 -0.066925618 0.1386680788
565296610.0 -0.3395233625 0.7733500838 0.0001413137 0.0001471567 0.0003416651 0.0001446411 -0.0657574573 0.1396303959
570296580.0 -0.3315763651 0.7775994076 0.0002348851 -0.0001632104 0.000267193 0.0001017222 -0.0645539712 0.1407455114
575296550.0 -0.3235090419 0.7807386937 0.0001024398 5.88651e-05 0.0001353512 0.0001318349 -0.0633906187 0.1412001045
580296520.0 -0.3155301483 0.784625966 0.0002582283 0.0001160858 2.08754e-05 -4.08759e-05 -0.0624335932 0.1423009246
585296490.0 -0.3075523839 0.7865901612 -3.96743e-05 -1.39539e-05 0.000298596 -0.0001183207 -0.0609531086 0.1425034181
590296460.0 -0.2995008142 0.790037749 0.0002515778 -2.91112e-05 0.0002225727 4.60427e-05 -0.0593061846 0.1435404409
595296430.0 -0.2912962727 0.7931572448 0.0001745922 0.0001034911 0.0002470363 3.4752e-05 -0.0585577279 0.1442494322
600296400.0 -0.2836143135 0.7963827549 0.0001522818 0.0002063038 0.0001174338 0.0001615689 -0.0571417215 0.1452113607
605296370.0 -0.2752075903 0.7987817659 0.0002900282 1.48693e-05 2.605e-05 -0.0002138291 -0.0557798838 0.146283289
610296340.0 -0.2670872203 0.801325161 0.0001261165 -0.0002252483 0.0003405598 -0.0001271012 -0.054501121 0.1468033346
615296310.0 -0.2590318923 0.8041547795 0.0001285935 -0.0001735965 0.000191164 0.0001186037 -0.0534624726 0.1471596151
620296280.0 -0.2508008477 0.8062106939 0.000190785 0.0001217193 0.0002367572 -0.0001253527 -0.0522428117 0.1476098547
625296250.0 -0.2425379998 0.809042963 0.0002602352 -8.52103e-05 0.0001989605 6.59348e-05 -0.0505607769 0.1488434283
630296220.0 -0.234201905 0.8120555726 0.0002250812 0.0001162737 6.7033e-05 -0.0002129455 -0.0495007959 0.1496410168
635296190.0 -0.2265988296 0.8145127683 0.0003590724 3.17531e-05 1.18722e-05 2.44425e-05 -0.0481590464 0.1502071082
640296160.0 -0.217805384 0.8155352185 3.07449e-05 0.000176567 0.0004947403 3.96999e-05 -0.0467554353 0.1507359705
645296130.0 -0.2097064173 0.818113738 0.0003025383 -3.16048e-05 3.85586e-05 -1.3721e-05 -0.0456061658 0.1515550169
650296100.0 -0.2016257035 0.8200654162 0.000166967 5.30998e-05 0.0002814627 0.00012847 -0.0441860324 0.1522757183
655296070.0 -0.1927716792 0.8215183427 0.0001970633 7.88417e-05 0.0002153487 1.60622e-05 -0.0428179845 0.1531446027
660296040.0 -0.1852103148 0.8241169865 4.58897e-05 -9.8929e-06 0.0004082774 -6.8449e-05 -0.0414471766 0.1533548838
665296010.0 -0.1764967963 0.8258240973 0.0001879967 -5.36862e-05 0.0001100825 -1.38039e-05 -0.0402259322 0.1540602303
670295980.0 -0.1676569457 0.8278094531 0.0003962087 -4.96123e-05 0.000321379 -4.56338e-05 -0.038864143 0.1546878765
675295950.0 -0.1601177348 0.8286761389 0.000215021 4.25135e-05 0.0001165184 -6.52885e-05 -0.0374959519 0.1550821392
680295920.0 -0.1513649107 0.830806871 0.0004268729 0.0002693634 0.0004060941 1.72388e-05 -0.0360635444 0.1556452325
685295890.0 -0.1429393955 0.8320611816 0.0001620494 7.22369e-05 0.0002999984 1.39251e-05 -0.0344285137 0.1561498019
690295860.0 -0.1346859259 0.8340371711 0.0003654342 -9.8534e-05 0.0001352252 0.0001687471 -0.0335271661 0.1565405848
695295830.0 -0.1259709454 0.8341582055 0.0003076125 -0.0001139537 0.0002102657 -0.0001293296 -0.0318673651 0.1573703221
700295800.0 -0.1176016295 0.8357457915 0.0002670155 -8.18054e-05 0.0001696092 4.22456e-05 -0.0303525817 0.1575035602
705295770.0 -0.1085384295 0.8374184499 0.0003463353 -0.0001096792 0.0002018346 -5.69486e-05 -0.0289620423 0.1581832706
710295740.0 -0.1010459037 0.8381247772 0.0004510113 -8.1712e-06 0.000119246 -0.0001665393 -0.0278617807 0.1590871929
715295710.0 -0.0930929961 0.8394540935 0.0001353143 -7.67842e-05 0.0001901037 -0.0001186477 -0.0261292722 0.159383997
720295680.0 -0.0844573442 0.8400739997 0.0002226075 -8.11133e-05 0.0005188767 0.000192127 -0.0245665039 0.1596427262
725295650.0 -0.0747820231 0.8406400709 0.0002847001 -0.0001427456 0.000329299 -5.14097e-05 -0.0232608167 0.1602291356
730295620.0 -0.0671428533 0.8410514938 0.0003468535 -6.68858e-05 0.000249765 -7.59457e-05 -0.021728021 0.1603213097
735295590.0 -0.0578480047 0.8416505378 0.0002364509 -0.0002245775 0.0003119073 -7.92519e-05 -0.0201039581 0.160703331
740295560.0 -0.0496631036 0.8421670223 0.0002857022 -0.0001905498 0.0004448464 -7.63865e-05 -0.018875329 0.1613498949
745295530.0 -0.0419223525 0.8425664049 0.0003916764 -8.14185e-05 0.0003510099 -6.752e-07 -0.0173263238 0.161830363
750295500.0 -0.0336836299 0.8431435592 0.0003860372 -4.97169e-05 0.000254772 -9.89668e-05 -0.0160871568 0.1619514364
755295470.0 -0.0245129382 0.8435285046 0.0005415097 -9.37951e-05 0.0003160358 3.9982e-05 -0.0147436446 0.162413965
760295440.0 -0.0160714258 0.8436627156 0.0003553155 -0.0002164183 0.0002360938 -2.20568e-05 -0.0132069917 0.1627385444
765295410.0 -0.0079981586 0.8441861081 0.0004194224 -0.000171008 0.0002378373 -0.0001045261 -0.0112307083 0.1629676166
770295380.0 0.0008212025 0.8440471474 0.0004420406 1.53093e-05 5.29679e-05 0.0001566536 -0.0097445013 0.1632439282
775295350.0 0.0093606873 0.843963186 0.0003618967 -4.65697e-05 0.0003099379 -1.38678e-05 -0.0088807661 0.1634785811
780295320.0 0.0175179786 0.8434555294 0.0003193962 -4.03246e-05 4.33451e-05 2.84473e-05 -0.0073340529 0.1641385974
785295290.0 0.0260862748 0.8439730029 0.000306614 0.000169138 0.0003527709 -2.59789e-05 -0.0059798893 0.1644679476
790295260.0 0.0345074443 0.8432429515 0.000210635 -0.0001118577 0.0001750504 -5.75159e-05 -0.0039462488 0.1646540543
795295230.0 0.0424602768 0.8433720735 0.0005131354 -7.27947e-05 -2.68279e-05 0.0001102371 -0.0023592578 0.1649662823
800295200.0 0.0517861081 0.8428079582 0.0002797046 -0.0002357702 0.0003023996 -0.0001797661 -0.0008406471 0.1648032445
805295170.0 0.0598864718 0.8420153589 0.0001934016 -0.0002443415 0.0002300733 -6.53402e-05 0.000483995 0.1651597506
810295140.0 0.0682328306 0.8408645288 0.0002384493 8.53215e-05 0.0002366384 -3.56781e-05 0.0021655102 0.1653738589
815295110.0 0.0770009031 0.8402278358 0.0002133038 0.0001448728 0.00015608 -0.0001950805 0.0036941375 0.1657016949
820295080.0 0.0853678546 0.8387962968 0.0002101239 -0.0001129684 0.0002510241 -0.0001070364 0.0049852305 0.1657484066
825295050.0 0.0943365504 0.8384969932 0.0002666146 -8.9175e-06 0.000303032 -9.47381e-05 0.0068662082 0.1658922501
830295020.0 0.1024583901 0.8378838348 0.0004873212 -0.0002298042 0.000286119 -1.47172e-05 0.0080162484 0.1662734259
835294990.0 0.110274608 0.8363567042 0.0002176202 -4.74893e-05 0.0003403772 -3.02107e-05 0.0100207474 0.1660174854
840294960.0 0.1186622 0.8350187841 0.0003430377 -0.0001723786 3.30876e-05 9.09651e-05 0.0112009979 0.1664812093
845294930.0 0.126914451 0.8344997505 0.000282857 -4.29797e-05 0.0002911219 5.10176e-05 0.0130089587 0.1663085381
850294900.0 0.1357169143 0.8325701993 0.0003648852 -0.0001311602 0.0001402447 9.69558e-05 0.0145601745 0.1662764495
