!Created with skrf (http://scikit-rf.org).
# Hz S RI R 50.0 
!freq ReS11 ImS11 ReS21 ImS21 ReS12 ImS12 ReS22 ImS22
300000.0 -0.3187862928 -0.1079193855 0.3735512255 0.0545896864 0.3753864783 0.0583166987 -0.3183004373 -0.1176035114
5299970.0 -0.3233997272 0.004661605 0.3781280302 0.0029741841 0.37831783 0.0031427912 -0.3256788717 0.0026355228
10299940.0 -0.3210727483 0.0156578108 0.3799343146 0.0020442749 0.3797265617 0.0024354608 -0.3241117105 0.0127455929
15299910.0 -0.3181408872 0.0235350791 0.3820521183 0.0022474758 0.3819367035 0.0022712438 -0.3210701518 0.0199093347
20299880.0 -0.3143546449 0.0303834598 0.3852380559 0.0013858404 0.3850796707 0.0015530477 -0.3184416118 0.0260996816
25299850.0 -0.3106808373 0.0355439444 0.3881581956 -0.000129971 0.388200925 0.00015616 -0.3156979255 0.0309664668
30299820.0 -0.3067258979 0.0405611598 0.3922200771 -0.002196626 0.3917552294 -0.0020864565 -0.31271297 0.0356997944
35299790.0 -0.3030992335 0.044937921 0.3952422101 -0.0057115518 0.3953184822 -0.0054931594 -0.309648371 0.0394885187
40299760.0 -0.2995579545 0.0480825036 0.398397048 -0.0086275336 0.3982026957 -0.0089893155 -0.3069676235 0.0431674165
45299730.0 -0.2965106437 0.0514355063 0.4011953746 -0.0127921339 0.4014298608 -0.0127743442 -0.3046596012 0.0461529759
50299700.0 -0.293312764 0.0541448618 0.403586915 -0.0172787726 0.4037200342 -0.0175386344 -0.3020755618 0.04922259
55299670.0 -0.2907230281 0.0569714301 0.4057659007 -0.0221385768 0.4059169888 -0.0220556209 -0.3002306081 0.0518733828
60299640.0 -0.2880637546 0.0589316866 0.4073186146 -0.0269029652 0.4074170869 -0.0269700015 -0.2979630263 0.0545152813
65299610.0 -0.2861595299 0.0616863828 0.4094990153 -0.0317200995 0.4094827082 -0.0316212731 -0.2963266495 0.0573158093
70299580.0 -0.2837801526 0.0636397504 0.4105814798 -0.0369206399 0.4106260094 -0.0368072754 -0.2947256054 0.0596652727
75299550.0 -0.2817982309 0.0660659553 0.4116580546 -0.0423721156 0.4113196901 -0.0424780396 -0.2926625932 0.0620857944
80299520.0 -0.2802812127 0.0679530785 0.4128160675 -0.0472210382 0.4126143606 -0.0475013222 -0.2915218245 0.0640280234
85299490.0 -0.2786457382 0.0698179953 0.4133559643 -0.0528296221 0.4130218741 -0.0525344096 -0.2904082838 0.0664168908
90299460.0 -0.2772051931 0.072060878 0.4132797414 -0.0577877455 0.413389863 -0.0578416074 -0.2886397635 0.0687954503
95299430.0 -0.275630889 0.074330979 0.4139595634 -0.0637067278 0.413988288 -0.0629138769 -0.2875794683 0.071060871
100299400.0 -0.2746066161 0.0764356101 0.4140377095 -0.0682511871 0.4135525729 -0.0684549294 -0.2865234408 0.0730620919
105299370.0 -0.2728973198 0.0784797205 0.4133506748 -0.0734531362 0.4139422259 -0.0735428245 -0.284976342 0.0757439241
110299340.0 -0.2718802655 0.0803189605 0.4134022711 -0.0782512275 0.4131914232 -0.0790203576 -0.2843029281 0.0781341461
115299310.0 -0.2706885164 0.0823999584 0.4131677603 -0.0835654193 0.4132122829 -0.0835894769 -0.2831651498 0.0801579306
120299280.0 -0.2700139086 0.0844511499 0.4127850008 -0.088901377 0.4130209244 -0.0889396765 -0.2826359823 0.0827032046
125299250.0 -0.2690012707 0.0867478293 0.4122536291 -0.0937439337 0.4124761049 -0.0940237786 -0.2813391895 0.0848813602
130299220.0 -0.2676556077 0.0890434473 0.4115629917 -0.0985647299 0.4115134912 -0.0994016889 -0.2807868633 0.0875390273
135299190.0 -0.2664815356 0.0910775998 0.4106770152 -0.1040877522 0.4106376929 -0.1042004359 -0.279636911 0.0895488064
140299160.0 -0.2657815398 0.0938057073 0.4099830366 -0.1091752366 0.4101514918 -0.1091750609 -0.2787882845 0.0920178715
145299130.0 -0.2648727925 0.0959027743 0.4096030327 -0.1142004474 0.4093010077 -0.1138281894 -0.2781998481 0.0945801243
150299100.0 -0.2639106255 0.0979335327 0.4081690464 -0.1188213891 0.4082203238 -0.1190656441 -0.2769947179 0.0970443918
155299070.0 -0.2629422829 0.1007500989 0.4072815567 -0.1243373866 0.4071317372 -0.1241785802 -0.276143472 0.0996625416
160299040.0 -0.2616984327 0.1030162589 0.4056225806 -0.1285557115 0.4058171865 -0.1287408294 -0.2749633598 0.1021997947
165299010.0 -0.2612100765 0.1055212449 0.4046877794 -0.1335772962 0.4048377822 -0.1338700929 -0.2743399357 0.1046681271
170298980.0 -0.2600298847 0.10792402 0.4026971587 -0.1387527119 0.4029414178 -0.1383990837 -0.2730363513 0.107100159
175298950.0 -0.2592082066 0.1104237725 0.402039255 -0.1428925362 0.4020889967 -0.1432768328 -0.2723383014 0.1098060386
180298920.0 -0.2579522852 0.1126367245 0.4005271182 -0.1481875 0.4006131635 -0.1478445573 -0.2711523219 0.1124614
185298890.0 -0.2566815281 0.1152094575 0.3984086912 -0.152825751 0.3990028274 -0.1525036022 -0.2704091704 0.1151297991
190298860.0 -0.2559491638 0.1177556901 0.397206837 -0.1574833503 0.3974683721 -0.1575622198 -0.2688789721 0.1177317872
195298830.0 -0.2546787975 0.1200536738 0.3957410779 -0.1617830452 0.3954307435 -0.1621953018 -0.2680260923 0.1201159359
200298800.0 -0.2538743935 0.1230280561 0.3940794157 -0.1664313 0.393772035 -0.1666335127 -0.2666483454 0.1230196474
205298770.0 -0.2528167601 0.1253170838 0.3925609737 -0.1710077043 0.3920442623 -0.1711465453 -0.2657473765 0.1253660522
210298740.0 -0.2516231475 0.1279134324 0.3905320739 -0.1760577035 0.3902121862 -0.1759603629 -0.2644894988 0.1282409761
215298710.0 -0.2501994452 0.1305143456 0.3884826941 -0.1801992664 0.3884901545 -0.1800538176 -0.2635560853 0.1307210734
220298680.0 -0.2491962721 0.1329133029 0.3864439927 -0.1846419946 0.3866288864 -0.1848557429 -0.2622416784 0.1336407097
225298650.0 -0.2477229076 0.1354598796 0.3844423034 -0.1890223438 0.384159951 -0.1891281734 -0.2610141147 0.1364501039
230298620.0 -0.2467197155 0.1380373821 0.3827709711 -0.1935463901 0.3828238853 -0.1934382816 -0.259600931 0.1389255651
235298590.0 -0.2452320557 0.1407123595 0.3802586125 -0.1980128795 0.3804863811 -0.1979540167 -0.2580613991 0.1412254205
240298560.0 -0.2443333302 0.1433194516 0.3786012835 -0.2020483834 0.3782839542 -0.2021061246 -0.2573028143 0.1441673934
245298530.0 -0.2427131693 0.1457652803 0.3754998682 -0.2066800487 0.3760663161 -0.206566497 -0.2555228294 0.1469585581
250298500.0 -0.2413076183 0.1482027491 0.3734774033 -0.2105828269 0.3737830096 -0.2104116071 -0.2539225301 0.1496244623
255298470.0 -0.2400621428 0.1508828627 0.3711447992 -0.2153067882 0.3712924796 -0.2149785362 -0.2524114495 0.1521426455
260298440.0 -0.2386440663 0.1533492368 0.3692186459 -0.2190532923 0.369047222 -0.2193332822 -0.2508036008 0.1549015126
265298410.0 -0.2371817273 0.1561219537 0.3668510656 -0.2235752795 0.3664804813 -0.2234932328 -0.2496123852 0.1574341107
270298380.0 -0.2354166615 0.1587267167 0.3638050114 -0.2278516569 0.3641945555 -0.2278953057 -0.2481126709 0.1604583642
275298350.0 -0.2341902159 0.1612616882 0.3616842546 -0.2319300487 0.36176025 -0.2319511092 -0.2460995404 0.1628140122
280298320.0 -0.2324204701 0.1637954327 0.3591997517 -0.2354466816 0.3587113072 -0.2357871251 -0.2447995269 0.1654575163
285298290.0 -0.2309459877 0.1664677888 0.3563673454 -0.2400595395 0.3562289083 -0.2397031958 -0.2430265085 0.1685723443
290298260.0 -0.2293822631 0.1686314249 0.3539445072 -0.2439738816 0.3539690824 -0.2439381976 -0.2409266151 0.1713551836
295298230.0 -0.2275459164 0.1715307496 0.3512573947 -0.2480506261 0.3507536697 -0.2479984718 -0.2394081579 0.1737106031
300298200.0 -0.2256501763 0.1737826655 0.3480007148 -0.2519715607 0.3485052022 -0.2517320829 -0.2376478239 0.1763178163
305298170.0 -0.2235799206 0.1761697174 0.3455614443 -0.2562837326 0.3458334219 -0.2561189132 -0.2355900835 0.1792859019
310298140.0 -0.2219935108 0.1785556928 0.3428070587 -0.2601986706 0.3429881933 -0.2602002058 -0.2340505377 0.1820484338
315298110.0 -0.220624312 0.1809691274 0.339758454 -0.2639863969 0.3402458371 -0.263566054 -0.2320579216 0.1844551539
320298080.0 -0.2187347874 0.1832994486 0.3372203828 -0.2677280611 0.3372108549 -0.2677232741 -0.2301205652 0.1864618713
325298050.0 -0.2169346727 0.1853376798 0.3340085369 -0.2715437983 0.3341594513 -0.2717757915 -0.2281871932 0.1896247693
330298020.0 -0.2150431365 0.188139795 0.3306834308 -0.2751629833 0.3309730952 -0.2754822281 -0.2263254773 0.1916647733
335297990.0 -0.2133922322 0.1903064265 0.327740959 -0.2789801299 0.3277498905 -0.2790217207 -0.2246443525 0.1944717646
340297960.0 -0.211752773 0.1926139624 0.3241443405 -0.282595187 0.3244958878 -0.2824286734 -0.2226186942 0.1968736922
345297930.0 -0.2100002936 0.1954255733 0.3212128106 -0.2862480716 0.3208139985 -0.2861028037 -0.2206174256 0.1994942966
350297900.0 -0.2075721128 0.1976126752 0.3178320218 -0.2893244039 0.3178501622 -0.2894528753 -0.2185887519 0.2021463417
355297870.0 -0.2062423824 0.1999623899 0.314788497 -0.293138393 0.3147726844 -0.2932071229 -0.216810693 0.2047576646
360297840.0 -0.2038750029 0.2023145226 0.3115744064 -0.2968981505 0.311489734 -0.2967029998 -0.2143624385 0.2072095281
365297810.0 -0.2017831873 0.2044355948 0.3077189157 -0.3000141717 0.3080193835 -0.3000743853 -0.2123320861 0.2100226983
370297780.0 -0.1998284512 0.2067470591 0.3049237868 -0.3034029502 0.3048136746 -0.3036734452 -0.2103958388 0.2123413633
375297750.0 -0.1973395445 0.2092136225 0.3018085322 -0.3067397057 0.3012174424 -0.3070435039 -0.2081085407 0.214970076
380297720.0 -0.1955227298 0.2114058506 0.2979950475 -0.3099668965 0.2982257614 -0.3100866689 -0.2059797664 0.2175078393
385297690.0 -0.1931669613 0.2137654943 0.2941140304 -0.3129606638 0.2943835933 -0.3134409011 -0.2035534859 0.2199134843
390297660.0 -0.1911821084 0.215855137 0.290770833 -0.3165448213 0.2907454905 -0.3166757115 -0.2016664569 0.2218946281
395297630.0 -0.1885974989 0.2181104439 0.2876288764 -0.3195741751 0.287385681 -0.319977246 -0.1988850128 0.224774932
400297600.0 -0.1864910029 0.2203864296 0.2840902919 -0.3228570261 0.2843480757 -0.3228763148 -0.1973385593 0.2265395385
405297570.0 -0.1842062631 0.2224245849 0.2803229021 -0.3258913505 0.280376648 -0.3263031645 -0.1947365054 0.2292299501
410297540.0 -0.1818304273 0.2244698588 0.2762692252 -0.3288865002 0.2767159178 -0.3290997014 -0.192580073 0.2316256584
415297510.0 -0.1796329576 0.2264905543 0.2729680225 -0.3318857544 0.2729886751 -0.331961249 -0.1901617137 0.2341928116
420297480.0 -0.1770902914 0.2287155635 0.269262647 -0.3352173349 0.2692331065 -0.3347901336 -0.1875545707 0.2355771548
425297450.0 -0.1745359079 0.2303922845 0.2655686788 -0.3378649601 0.2659907327 -0.3380385211 -0.1847361548 0.2383496749
430297420.0 -0.1723356394 0.232473241 0.2621242778 -0.3410681258 0.2619587957 -0.3409445123 -0.1828054261 0.240203912
435297390.0 -0.1698448395 0.2347481069 0.25819333 -0.3436266766 0.2583266961 -0.34329744 -0.1799322285 0.2428985119
440297360.0 -0.1673725095 0.2364014666 0.2541469339 -0.3462144824 0.2537688223 -0.3463431154 -0.1780538415 0.2443466664
445297330.0 -0.1645493563 0.238538255 0.2500046451 -0.3495330637 0.250378106 -0.3490828797 -0.1752885937 0.2465056017
450297300.0 -0.1620512785 0.240343121 0.2464247418 -0.3519027138 0.2462831344 -0.3518834604 -0.1726702548 0.248914636
455297270.0 -0.1598216739 0.2421806115 0.2427032481 -0.3544475871 0.2430322151 -0.3543142964 -0.1698773025 0.2506974346
460297240.0 -0.1574368426 0.2440900515 0.2387453998 -0.3569612943 0.2384695119 -0.3570163034 -0.1673617998 0.2532696636
465297210.0 -0.1547678194 0.2457760107 0.2348323241 -0.3597175636 0.2349324358 -0.3596382073 -0.165155051 0.2548105544
470297180.0 -0.1521927651 0.2475270158 0.230808941 -0.3620443289 0.2308301947 -0.3620406521 -0.1627467885 0.2565592613
475297150.0 -0.1496298019 0.2493059445 0.2268234195 -0.364281317 0.2266619709 -0.3643330704 -0.1596237024 0.2587750238
480297120.0 -0.1469463 0.2509877867 0.2227420575 -0.3670772727 0.2230165712 -0.3667362979 -0.1570495266 0.2607597452
485297090.0 -0.1441212756 0.2528575671 0.2189933324 -0.3692991439 0.2191186985 -0.369534862 -0.1548302649 0.2623255602
490297060.0 -0.1414203382 0.2542603111 0.2147237234 -0.3717515578 0.2150053454 -0.3716868113 -0.1518521959 0.2639538789
495297030.0 -0.1391571159 0.2564624937 0.2105294112 -0.3741277632 0.2104316027 -0.3740265268 -0.1490507567 0.2657631938
500297000.0 -0.1363011104 0.2576690323 0.2064209526 -0.3762006916 0.2066680494 -0.3761967629 -0.1464129238 0.2676596447
505296970.0 -0.1335752931 0.2591804165 0.202107034 -0.3784252768 0.2020253675 -0.3780938542 -0.1438449635 0.2694258837
510296940.0 -0.1310078472 0.2606703881 0.1983039112 -0.3804975814 0.1982813784 -0.3805527595 -0.1406230468 0.2712420568
515296910.0 -0.1285257278 0.2628150417 0.193935204 -0.3825197192 0.1942293246 -0.3826245917 -0.1381478443 0.2728713663
520296880.0 -0.125285275 0.2635456063 0.189687299 -0.3843838923 0.1898895777 -0.3845099042 -0.1352052662 0.2742489092
525296850.0 -0.1227102804 0.2652153694 0.1856726137 -0.3864326721 0.1857376671 -0.3869546806 -0.132143437 0.2759481924
530296820.0 -0.1197934513 0.2667010849 0.1816717799 -0.3883519272 0.1814127765 -0.388359884 -0.1302099317 0.2775776753
535296790.0 -0.1171432719 0.2677596182 0.1772478039 -0.3898498954 0.1773343781 -0.3899412591 -0.1266346953 0.2787974042
540296760.0 -0.1140198239 0.2691450722 0.1725594869 -0.3923321341 0.1727645655 -0.3922217433 -0.1240583919 0.2806535744
545296730.0 -0.1113967251 0.2706755731 0.1683142453 -0.3940673406 0.168724026 -0.3945562591 -0.1212093419 0.2815805599
550296700.0 -0.1085620602 0.272270086 0.1642828006 -0.3958315037 0.1647685012 -0.3961447378 -0.1182766336 0.2835332794
555296670.0 -0.105539514 0.2731844188 0.1599546209 -0.3974237679 0.1599526151 -0.3975599614 -0.1152875795 0.2849243618
560296640.0 -0.1026628656 0.2744913176 0.1553686226 -0.3992595748 0.155773397 -0.398983182 -0.1122261723 0.2863290397
565296610.0 -0.1001827301 0.2758988866 0.1511188511 -0.4007253467 0.151022313 -0.40090647 -0.1095236763 0.2874424026
570296580.0 -0.0969797778 0.2771763262 0.1469476693 -0.402651085 0.1470478132 -0.4025226048 -0.1066188495 0.2890121153
575296550.0 -0.094185061 0.2782740342 0.1425088864 -0.4038671861 0.1427319178 -0.404048193 -0.1033791625 0.2900993118
580296520.0 -0.091215565 0.2793171528 0.1385607814 -0.4054771793 0.1378743275 -0.4053224916 -0.1004674149 0.2915598446
585296490.0 -0.0878996276 0.2802087838 0.1337438521 -0.4069530116 0.1336893156 -0.4067353578 -0.0974580535 0.2920981942
590296460.0 -0.0853044544 0.2811805075 0.1290563182 -0.4081080014 0.1291117994 -0.4084446516 -0.0942924454 0.2938367036
595296430.0 -0.0821698466 0.2828414075 0.1250314693 -0.4095932383 0.1244374635 -0.4096990715 -0.0910442236 0.2945047786
600296400.0 -0.0793951318 0.2834197072 0.1207727442 -0.4110140517 0.1205240584 -0.411062542 -0.0884558335 0.2958183868
605296370.0 -0.0763275778 0.2845428629 0.1160604843 -0.412046573 0.1159289632 -0.4121235888 -0.0851943476 0.2973064079
610296340.0 -0.0733871154 0.2855300298 0.1116518294 -0.4131624553 0.1117612887 -0.413450794 -0.0823030587 0.2983515452
615296310.0 -0.0701526665 0.2867771939 0.1066413626 -0.4145008875 0.1069593497 -0.4146137678 -0.0791009986 0.2990384705
620296280.0 -0.0672698267 0.2870504562 0.102407578 -0.4155585077 0.1024929307 -0.4157327729 -0.0762677463 0.2998829323
625296250.0 -0.0642619629 0.2882702789 0.0975084379 -0.4166406279 0.0976848503 -0.4168656352 -0.0730074995 0.3009475474
630296220.0 -0.0609532603 0.2891007844 0.0929276357 -0.417679306 0.093636093 -0.4179252601 -0.0696077627 0.3020161064
635296190.0 -0.0580329457 0.2898677066 0.0884568551 -0.4182003541 0.0886252739 -0.4181851669 -0.0670968098 0.3029778294
640296160.0 -0.0550547359 0.2901139812 0.0843173411 -0.419414028 0.0843042348 -0.4199204166 -0.0636893433 0.3038329271
645296130.0 -0.0519270526 0.2913461219 0.0791819418 -0.4205490932 0.0796488986 -0.4204006449 -0.0605547738 0.3041142288
650296100.0 -0.0487717576 0.2924067985 0.0755584287 -0.421261764 0.0752473222 -0.4208958226 -0.0572920927 0.3054971095
655296070.0 -0.0459128749 0.2927200056 0.0708584616 -0.4218027222 0.0702766958 -0.4220557027 -0.0539965255 0.3062195396
660296040.0 -0.0430381313 0.2935544585 0.0662947112 -0.4222764733 0.0662654826 -0.4222359952 -0.0512029518 0.3064589052
665296010.0 -0.0395870338 0.293957238 0.0615013226 -0.422996847 0.0618750485 -0.4232286507 -0.0482087886 0.3075355428
670295980.0 -0.0363058557 0.2944140835 0.0566724372 -0.4239203065 0.0571069295 -0.4239832795 -0.0453528335 0.3080674909
675295950.0 -0.0331964782 0.2949078647 0.0520452048 -0.4243016687 0.0524416796 -0.4246858008 -0.0417308401 0.3089263271
680295920.0 -0.0303289839 0.2958714694 0.0477608077 -0.4251167235 0.0472993836 -0.4250421379 -0.0384400563 0.3091168717
685295890.0 -0.0271488516 0.2959356125 0.0432866923 -0.425508635 0.0429932027 -0.4257389601 -0.0352787731 0.3101545768
690295860.0 -0.023654617 0.2964408253 0.0383445166 -0.4252923489 0.0381580097 -0.4257131628 -0.0318692779 0.3104683461
695295830.0 -0.0205230566 0.2967518403 0.0331661766 -0.4258012472 0.0336861973 -0.4259295572 -0.0291344345 0.3109368932
700295800.0 -0.0174626227 0.2970703342 0.028678975 -0.4263949938 0.0292176213 -0.4265260422 -0.025733662 0.3110629124
705295770.0 -0.0141457821 0.2976631589 0.0244208015 -0.4264778715 0.024628796 -0.4265262838 -0.0228855848 0.3117852862
710295740.0 -0.0111528249 0.2980490677 0.0197364915 -0.4265105794 0.0197776877 -0.4267390038 -0.0197509108 0.3124029439
715295710.0 -0.0084307275 0.2983160189 0.0151873426 -0.427004341 0.0154772393 -0.4270314771 -0.0163562776 0.3123126802
720295680.0 -0.0053126308 0.2982417435 0.0102438674 -0.4269850301 0.0107880477 -0.4273093405 -0.0126751764 0.3126819557
725295650.0 -0.0016928145 0.2985279367 0.0054944137 -0.4269437909 0.0057507626 -0.4271035646 -0.0095114151 0.3128743599
730295620.0 0.0011302504 0.2985043813 0.0011689769 -0.4270169954 0.0013248666 -0.4270132564 -0.0064365142 0.3129383301
735295590.0 0.0049605183 0.2988242053 -0.0036610549 -0.4271433212 -0.0028386683 -0.427248554 -0.0030127402 0.3133267714
740295560.0 0.0077319424 0.2991426653 -0.0080960253 -0.4264800863 -0.0077302022 -0.4267858563 0.0001998109 0.3134954562
745295530.0 0.0107090145 0.2990132348 -0.0126045245 -0.4264737802 -0.0123319139 -0.4269879691 0.0033647082 0.3136449299
750295500.0 0.0138820285 0.2987443561 -0.0166119014 -0.4264350954 -0.0170432525 -0.4265529655 0.0068628585 0.3133423206
755295470.0 0.0175805511 0.2994108561 -0.0215671102 -0.4262095383 -0.0214648683 -0.4265027542 0.0096727562 0.3140649774
760295440.0 0.0205886745 0.2991468894 -0.0267605112 -0.4261388882 -0.0264226128 -0.4260805589 0.0126316221 0.3138806437
765295410.0 0.0236691009 0.2986374759 -0.0305719622 -0.4254169454 -0.0307680817 -0.4257175994 0.0167192871 0.3139039667
770295380.0 0.0267308261 0.2986820351 -0.0356486524 -0.4250054841 -0.0355893309 -0.4253216366 0.0198190096 0.3135369576
775295350.0 0.0299723516 0.2986144273 -0.0401861571 -0.4243193659 -0.0399246186 -0.4246720563 0.022514759 0.3132747435
780295320.0 0.033505169 0.298226442 -0.0448034625 -0.4244197756 -0.0443089158 -0.4245468509 0.0258970799 0.3136613769
785295290.0 0.0363514665 0.2985918091 -0.049297439 -0.4232920871 -0.0494222978 -0.4236238141 0.028864977 0.3133059588
790295260.0 0.0395893339 0.2979660828 -0.0537456099 -0.423208074 -0.0537437104 -0.4231226975 0.0326979281 0.3130576694
795295230.0 0.0425066781 0.2979249687 -0.0578312169 -0.4224933072 -0.0584457937 -0.4229394631 0.0357660086 0.3134484893
800295200.0 0.0458060612 0.2974977664 -0.0630778454 -0.4218400185 -0.0632656106 -0.4221018798 0.0394302988 0.312819722
805295170.0 0.0489597445 0.2971819673 -0.0671400557 -0.4209136983 -0.0674820334 -0.4207916603 0.042094802 0.3122789405
810295140.0 0.0519061652 0.2967668837 -0.071967752 -0.4202513974 -0.0719187593 -0.420913507 0.0454245679 0.312426547
815295110.0 0.0551310186 0.2963826249 -0.076672356 -0.418997252 -0.0766831869 -0.419455804 0.048734877 0.3119135582
820295080.0 0.0584580492 0.2957226107 -0.0808462648 -0.4183370525 -0.0810457125 -0.4188857232 0.0519759255 0.3114151704
825295050.0 0.0614821266 0.2953162319 -0.0854778518 -0.4170832807 -0.0853237257 -0.4174700233 0.0555602299 0.3110219888
830295020.0 0.064610702 0.295022524 -0.0899101281 -0.416579269 -0.0903425889 -0.4167187985 0.0583047547 0.3107552391
