!Created with skrf (http://scikit-rf.org).
# Hz S RI R 50.0 
!freq ReS11 ImS11 ReS21 ImS21 ReS12 ImS12 ReS22 ImS22
300000.0 -0.2403873571 -0.0984121208 0.4718566483 0.0663493186 0.4686737499 0.0613958599 -0.2353202686 -0.1026878488
5299970.0 -0.2449453892 0.0063865898 0.4747457193 0.0051949988 0.4747998987 0.0051012278 -0.2405848387 0.0072761243
10299940.0 -0.241508421 0.0178579356 0.476620052 0.0058571429 0.4767006717 0.0063107493 -0.2371549706 0.0204417833
15299910.0 -0.2373798469 0.026827158 0.480411806 0.0071428896 0.480648393 0.007530736 -0.2327320675 0.0302477024
20299880.0 -0.2328149938 0.0339590499 0.4848515141 0.0080642638 0.4848470095 0.0080377775 -0.2274529377 0.0380874016
25299850.0 -0.2278115384 0.0401326268 0.4905663731 0.0069493978 0.4899644248 0.0070615978 -0.221511509 0.0450615115
30299820.0 -0.2224404541 0.0449983027 0.4953941872 0.0049945666 0.4955059684 0.0046516331 -0.215734461 0.0503223321
35299790.0 -0.2175145332 0.0492773602 0.5010692323 0.0014046443 0.500793903 0.0015526244 -0.2107156292 0.0550518735
40299760.0 -0.2125527807 0.0522533303 0.5058768422 -0.0024022158 0.5062199388 -0.0024049525 -0.2049185825 0.0578361491
45299730.0 -0.2077932416 0.0550885788 0.51057875 -0.0073107971 0.5109612962 -0.0071174501 -0.2001596244 0.0608915063
50299700.0 -0.2038822202 0.0569283321 0.5151769936 -0.012574176 0.5150848114 -0.012520977 -0.1954076261 0.0628442807
55299670.0 -0.1996993853 0.0585383923 0.5185179966 -0.0194220282 0.5185140934 -0.0185447954 -0.1915448803 0.0645650082
60299640.0 -0.1962931022 0.0599075648 0.5221243928 -0.0251562432 0.522057086 -0.0246963802 -0.1875597096 0.0655628918
65299610.0 -0.1929904429 0.0608776199 0.524979532 -0.0310528024 0.5248937869 -0.0312389292 -0.184349074 0.0667195244
70299580.0 -0.1902240666 0.0620625964 0.527192741 -0.0376952003 0.5272813793 -0.0376292289 -0.1813575775 0.0679744691
75299550.0 -0.1871061141 0.0626959657 0.5286464518 -0.0446636449 0.5289053921 -0.0451344321 -0.1779487326 0.0685869523
80299520.0 -0.184851852 0.0636000481 0.5309497171 -0.0515181579 0.5307886877 -0.0519060229 -0.1753663638 0.0691594721
85299490.0 -0.1827386936 0.0640240489 0.5320410561 -0.0581099016 0.5322817729 -0.0581989442 -0.173219582 0.0697403011
90299460.0 -0.1805738661 0.0648569885 0.5331463224 -0.0654625621 0.5332757781 -0.0654774522 -0.1706527239 0.0704330998
95299430.0 -0.1782786848 0.0652411966 0.5340500219 -0.0722487154 0.5340334755 -0.0724592214 -0.168257225 0.0711882431
100299400.0 -0.1766440486 0.0663226591 0.5338159287 -0.0790964907 0.5345076212 -0.0792978274 -0.1663063249 0.0716130909
105299370.0 -0.1749454828 0.0667630844 0.5349047297 -0.086125842 0.5350260756 -0.0861791114 -0.1640615439 0.0724076081
110299340.0 -0.1734488098 0.0673855747 0.5349662399 -0.0926892966 0.534721255 -0.0925789779 -0.1629120896 0.07273506
115299310.0 -0.1719995023 0.068470307 0.5347937569 -0.0999153789 0.534616488 -0.0999413273 -0.1611537415 0.0736821747
120299280.0 -0.1707523706 0.0686083224 0.5343148704 -0.106470596 0.5346650634 -0.1064567463 -0.1597053743 0.0743950202
125299250.0 -0.1694904505 0.0692737833 0.5339337146 -0.1130848002 0.5342070352 -0.1126799123 -0.1586255927 0.0745136598
130299220.0 -0.1684278605 0.0703100638 0.5331098688 -0.1195366049 0.5332663365 -0.1198295522 -0.1569981652 0.0753890872
135299190.0 -0.1674211296 0.0711684683 0.5329578919 -0.126202257 0.5326623056 -0.1262054507 -0.1556566662 0.0766983684
140299160.0 -0.1664330489 0.0719554104 0.5320309513 -0.1332859826 0.532070659 -0.1332449384 -0.1542757363 0.0779066334
145299130.0 -0.1655403889 0.0729770374 0.5314005027 -0.1397834496 0.5309212999 -0.1394314485 -0.1533453264 0.0783939333
150299100.0 -0.1642018017 0.0737858219 0.5293501413 -0.1456506221 0.5301359821 -0.1458629291 -0.1521813922 0.0800523499
155299070.0 -0.1638689122 0.0747170408 0.5290361509 -0.1532509911 0.5284424794 -0.1526727705 -0.1508094247 0.081211797
160299040.0 -0.1627905868 0.0758856694 0.5273773417 -0.1592429955 0.5269265101 -0.1593676226 -0.1503491638 0.0822609443
165299010.0 -0.1621439756 0.0767176083 0.5258478191 -0.165806011 0.5261130594 -0.1656396711 -0.1488243658 0.0834706948
170298980.0 -0.1614197431 0.0776437109 0.5239558559 -0.1717521537 0.5243007395 -0.1717163426 -0.1479063242 0.0848377074
175298950.0 -0.1607425004 0.0786544598 0.5231937549 -0.1782998131 0.5226213079 -0.1780574238 -0.1471335613 0.0860672958
180298920.0 -0.1599980983 0.0800835064 0.5212187457 -0.1845338848 0.5209100905 -0.1841461095 -0.1462967415 0.0873819117
185298890.0 -0.1587596275 0.0809861697 0.5190479 -0.1906555229 0.5189925206 -0.190666791 -0.1451275781 0.088813372
190298860.0 -0.1585367135 0.0824004291 0.5176094509 -0.1968257409 0.5175078494 -0.196632881 -0.1444686923 0.0897929833
195298830.0 -0.1577926915 0.0832425766 0.5152272428 -0.2032313425 0.5153347257 -0.202691611 -0.1433569998 0.091356339
200298800.0 -0.1568731977 0.0847408784 0.5131134892 -0.2090523494 0.5131266846 -0.2092672485 -0.1429022928 0.092591796
205298770.0 -0.1561221929 0.0858776817 0.5106866494 -0.2151912555 0.5108395014 -0.2148310614 -0.1418916155 0.0931971525
210298740.0 -0.1554923798 0.0867802213 0.5086048694 -0.2207287928 0.5083502139 -0.220824961 -0.1407588461 0.0955840981
215298710.0 -0.1551543122 0.0883496691 0.5063266342 -0.2267860428 0.5064318053 -0.22728572 -0.1403341589 0.0967408553
220298680.0 -0.1540973741 0.0891827061 0.5035855692 -0.2327098263 0.5036411125 -0.2328953731 -0.1397808961 0.0976166127
225298650.0 -0.1533316403 0.0907208626 0.5012029801 -0.2388356814 0.5014839385 -0.2387669458 -0.138923152 0.0990648933
230298620.0 -0.1526593332 0.0924535769 0.4991002188 -0.2444842497 0.499268346 -0.2443820824 -0.1381040881 0.1001812504
235298590.0 -0.1519573216 0.0938433156 0.496236667 -0.2502645136 0.496458237 -0.2498555953 -0.1369945442 0.1020495592
240298560.0 -0.1508473348 0.0950332613 0.4935914801 -0.2560350314 0.4935112842 -0.2560712253 -0.1362852219 0.1033516095
245298530.0 -0.1506427366 0.0962908639 0.4913170717 -0.2618342786 0.4910112644 -0.2618836614 -0.1352354474 0.104073109
250298500.0 -0.149380921 0.0978483366 0.4875246938 -0.2675881697 0.4872790487 -0.2671985722 -0.1343917915 0.1056261096
255298470.0 -0.1484328804 0.0985925632 0.4846749285 -0.2723555058 0.4848396991 -0.2728142234 -0.132921892 0.1067324716
260298440.0 -0.1481052745 0.100166876 0.4817129724 -0.2787876287 0.4818145398 -0.2783627595 -0.1315949063 0.1083773595
265298410.0 -0.1468555953 0.101735218 0.4788571137 -0.2837389821 0.4793682143 -0.2836165366 -0.1308188458 0.109757687
270298380.0 -0.1460629646 0.1031070796 0.4759754922 -0.2891628417 0.476014243 -0.2892945124 -0.1298054887 0.1107640607
275298350.0 -0.1446874536 0.1042973088 0.4728724181 -0.2948414175 0.4730780362 -0.2949715904 -0.1283632235 0.11206959
280298320.0 -0.1439038211 0.105818805 0.4698059532 -0.3000680084 0.4695991881 -0.3003105238 -0.1267223849 0.1135699487
285298290.0 -0.1431817183 0.1075352382 0.466463718 -0.3055410494 0.4663247729 -0.305435647 -0.1257999345 0.1147523392
290298260.0 -0.1418253162 0.1087161082 0.4625716606 -0.3108142135 0.4629698387 -0.3106962601 -0.1243862515 0.1163334651
295298230.0 -0.1407424074 0.1098678452 0.4596902475 -0.3159952583 0.4595696157 -0.3159482423 -0.1227170455 0.1175457311
300298200.0 -0.1402895585 0.1111499061 0.4564977482 -0.3206899567 0.4562501027 -0.3214550925 -0.1217476373 0.1189638884
305298170.0 -0.1388805596 0.11224675 0.4524651963 -0.3264828467 0.4528837191 -0.3263094959 -0.1198960345 0.1201424326
310298140.0 -0.1379004186 0.1135995408 0.4493360674 -0.3317407828 0.4495256392 -0.3314183595 -0.1187555484 0.1212838083
315298110.0 -0.1370517807 0.1146739938 0.4457725006 -0.3369161656 0.4456324304 -0.3367594982 -0.1173636154 0.1225104707
320298080.0 -0.1359385258 0.1156920475 0.4414124007 -0.3420719116 0.4418720551 -0.3417741702 -0.116027205 0.1237133932
325298050.0 -0.1347260899 0.1172251513 0.4377771579 -0.3468452843 0.4377291597 -0.3469167227 -0.1151788987 0.1249336382
330298020.0 -0.1338404586 0.1181401259 0.4334600613 -0.3521626705 0.4344055536 -0.3522344513 -0.1140276895 0.1265832372
335297990.0 -0.1330448115 0.119472246 0.4296348939 -0.3568162762 0.4296733079 -0.3566042119 -0.1130662926 0.1286393196
340297960.0 -0.1324955151 0.121235687 0.4255311645 -0.3615318146 0.4254267994 -0.3615009197 -0.1113497676 0.1294119207
345297930.0 -0.1314805735 0.1227985847 0.4213527201 -0.3663891903 0.4213742659 -0.3665119177 -0.110144659 0.1308346139
350297900.0 -0.1306602125 0.1237011925 0.4170512032 -0.3710741872 0.4170565404 -0.3707322557 -0.1089282242 0.1326411762
355297870.0 -0.1293105851 0.1257337311 0.4131738534 -0.3754220468 0.4132464569 -0.3755077314 -0.10762817 0.1338376129
360297840.0 -0.1280502404 0.1268459867 0.4095003297 -0.3796612538 0.4097632817 -0.3796546541 -0.1064239538 0.1356316759
365297810.0 -0.1274784911 0.1283423211 0.4052369391 -0.3848935746 0.4052222074 -0.3842547042 -0.1051527573 0.1368066963
370297780.0 -0.1256264007 0.1293703104 0.4005429488 -0.3890179223 0.4011086989 -0.388632164 -0.1037615846 0.1384052604
375297750.0 -0.1246788006 0.1307537844 0.3968352965 -0.3934509095 0.3971142116 -0.3934642875 -0.1021658949 0.1396303369
380297720.0 -0.1234112233 0.1320731595 0.3918739505 -0.3978477669 0.3925122433 -0.3970016748 -0.1013139998 0.1406853718
385297690.0 -0.1225860924 0.1336840621 0.3875827416 -0.4018689394 0.3876951705 -0.4013908221 -0.0994129147 0.1422508006
390297660.0 -0.1212625023 0.1351670441 0.3833496289 -0.4059760493 0.3832446443 -0.4060010686 -0.0983904551 0.1435032916
395297630.0 -0.1199479338 0.1365718519 0.3792140107 -0.4103035538 0.3790494625 -0.4104353102 -0.0963538245 0.1449037572
400297600.0 -0.1186673216 0.1377146247 0.3739592926 -0.4147753028 0.374411541 -0.4147145579 -0.0951410444 0.14595777
405297570.0 -0.1179070874 0.1388777669 0.3698011723 -0.4183292926 0.3701139325 -0.4183953083 -0.0941470278 0.1468167273
410297540.0 -0.1162712686 0.1403161114 0.3651061905 -0.4226334066 0.3657187345 -0.4223974565 -0.0924223642 0.1481270303
415297510.0 -0.1147632543 0.1412415421 0.3604239224 -0.4265935356 0.3604886249 -0.4266487426 -0.0908205875 0.1491528869
420297480.0 -0.1135885718 0.1429414981 0.3557409605 -0.430781671 0.3558396083 -0.4306691139 -0.0894051386 0.1503972011
425297450.0 -0.1122686115 0.1436075666 0.3514595564 -0.4345014063 0.3513775583 -0.4345615145 -0.0880588355 0.1516350145
430297420.0 -0.1107755004 0.1449359555 0.3462925005 -0.4377066554 0.3464050169 -0.4378633307 -0.0862586635 0.1523572798
435297390.0 -0.1094719064 0.1462120057 0.3412962836 -0.4420099941 0.3412817071 -0.4419815766 -0.0837476736 0.153672702
440297360.0 -0.1078124573 0.1476365751 0.3362509465 -0.4454358442 0.336835663 -0.445739749 -0.0826625131 0.1541197362
445297330.0 -0.1065118029 0.1483840579 0.3318977899 -0.4492980764 0.3318623834 -0.4490223914 -0.0809546698 0.1547531043
450297300.0 -0.1050793769 0.1495751089 0.3268256177 -0.4523331031 0.3268517782 -0.4528683906 -0.079011817 0.1559105866
455297270.0 -0.1038286826 0.1508104537 0.3217284917 -0.4560229027 0.3218661524 -0.4566036355 -0.0773027274 0.1568169112
460297240.0 -0.1025367777 0.1520168715 0.316552222 -0.4596923487 0.3168854173 -0.4597889262 -0.075658832 0.1579778577
465297210.0 -0.1007000665 0.1529180477 0.312261123 -0.4631056508 0.3118467227 -0.4635476596 -0.0734069464 0.1585611535
470297180.0 -0.0991846937 0.1540111831 0.3063040649 -0.4667197662 0.3069176858 -0.4665056157 -0.0716601694 0.1600453767
475297150.0 -0.0977649787 0.1547375998 0.3014125716 -0.4692467159 0.3019313783 -0.4693788462 -0.0695809727 0.1604546317
480297120.0 -0.0965272244 0.1563648428 0.2963506262 -0.4731287282 0.29610886 -0.4732230715 -0.0678173191 0.161589526
485297090.0 -0.0950337368 0.1571701334 0.2913332618 -0.4760117719 0.2913755687 -0.4759699968 -0.0657018536 0.162605637
490297060.0 -0.0937048642 0.1579582299 0.2862844653 -0.4796571728 0.286174567 -0.4791813806 -0.0642314974 0.1635254141
495297030.0 -0.0919366115 0.1593338361 0.2805543348 -0.482659929 0.2811303524 -0.4824893316 -0.0625092405 0.1643048996
500297000.0 -0.0901023623 0.1604600556 0.2755656671 -0.4852735396 0.2754389223 -0.4852009438 -0.0602527985 0.1659303775
505296970.0 -0.0887862772 0.1610913682 0.270541674 -0.487901323 0.2698952826 -0.4886057006 -0.0586189089 0.1663906853
510296940.0 -0.0872364628 0.1626103848 0.2649097421 -0.4915821739 0.2651025131 -0.4916505037 -0.0565451392 0.1675377068
515296910.0 -0.0857924746 0.1633108539 0.2592790769 -0.4939390873 0.2596937799 -0.4942954896 -0.0548368977 0.1683229735
520296880.0 -0.084167343 0.1643690502 0.2539493363 -0.4972045592 0.254564374 -0.4969004242 -0.0533364071 0.1692440959
525296850.0 -0.0823681189 0.1649000351 0.2481182042 -0.4996101036 0.2491068389 -0.4992849512 -0.0514062454 0.1703007529
530296820.0 -0.0809575804 0.1662386131 0.2431882882 -0.5023337354 0.2431267345 -0.5023609611 -0.0490570339 0.1708803037
535296790.0 -0.0795016076 0.1673048626 0.2383291801 -0.504576981 0.2382777985 -0.5040909133 -0.047778699 0.171197772
540296760.0 -0.0780936204 0.1682782758 0.2324301452 -0.5075559488 0.2321246606 -0.5076152889 -0.0458810605 0.1724475497
545296730.0 -0.0764739595 0.1689931538 0.2264576233 -0.5096362237 0.2265375823 -0.5101196146 -0.0438326259 0.1731310383
550296700.0 -0.0742460671 0.1698605939 0.2211454434 -0.5122183141 0.221209991 -0.5124311978 -0.042330858 0.1738420206
555296670.0 -0.0729340334 0.1708061351 0.2153735561 -0.5146095235 0.2159747973 -0.5145260375 -0.0405433829 0.1746281112
560296640.0 -0.0708919917 0.1722097503 0.209905833 -0.5172001012 0.2099532778 -0.5167052277 -0.0382163757 0.1750961491
565296610.0 -0.0698950275 0.1725220531 0.204478955 -0.5192286721 0.2043335721 -0.5193560669 -0.0364641306 0.1755780465
570296580.0 -0.0682100997 0.1735022212 0.199127817 -0.521592876 0.19841617 -0.5213520133 -0.034959507 0.1765385965
575296550.0 -0.0666787739 0.1742740121 0.1930244326 -0.523709716 0.1925279208 -0.523682593 -0.0329526502 0.1767800691
580296520.0 -0.0645038655 0.1751225607 0.1874759598 -0.525724374 0.1872661231 -0.5256240688 -0.0309277878 0.1772164747
585296490.0 -0.0631362837 0.1755882938 0.1816001924 -0.5270230706 0.1818570031 -0.5277347251 -0.0292546536 0.1773625962
590296460.0 -0.0611399721 0.176554664 0.17577892 -0.5287668789 0.1763491536 -0.5292436212 -0.0277972953 0.1780541416
595296430.0 -0.0594718567 0.1773191881 0.1696866543 -0.5317385792 0.170107246 -0.5310647943 -0.025531224 0.1779730254
600296400.0 -0.0578472938 0.1781397081 0.1645437618 -0.5330448295 0.1647935072 -0.5328476883 -0.0238951608 0.1784926053
605296370.0 -0.0564190903 0.178670581 0.1585046163 -0.5345799378 0.1586432559 -0.5346476082 -0.0214522887 0.1790146913
610296340.0 -0.0543473627 0.1791401715 0.1524698586 -0.536304068 0.1527963016 -0.5361641437 -0.0192241974 0.1788682998
615296310.0 -0.0523062401 0.1795266125 0.1465572913 -0.5373826891 0.1469431107 -0.5381231015 -0.0173387521 0.1793653596
620296280.0 -0.0509895253 0.1801815591 0.1414993373 -0.5394148521 0.1410430634 -0.5392972762 -0.0155555872 0.1796478514
625296250.0 -0.0494742418 0.1807015155 0.1359402026 -0.540936957 0.1353692824 -0.5411198549 -0.0127242137 0.1796622617
630296220.0 -0.0467702354 0.1814862064 0.1288912927 -0.5423177488 0.128988324 -0.5420783108 -0.0110550936 0.18015484
635296190.0 -0.0458613192 0.1820110784 0.1234619916 -0.5434715539 0.1235154712 -0.5435807015 -0.0088634327 0.1801610613
640296160.0 -0.0442408256 0.1825318464 0.1174053892 -0.5446832775 0.1176651899 -0.5450371678 -0.0068439602 0.180574091
645296130.0 -0.0421731964 0.1832712058 0.1115192128 -0.5455822575 0.1120919594 -0.5460525451 -0.0048127392 0.180900206
650296100.0 -0.0404148435 0.1835740433 0.1056849856 -0.5468187045 0.1061717305 -0.5473318804 -0.0025497327 0.1804125849
655296070.0 -0.0386702978 0.1841941187 0.0997439729 -0.5479420334 0.1002513237 -0.5482425526 -0.0003802845 0.1811288496
660296040.0 -0.0372873019 0.1842768645 0.0940335773 -0.549111899 0.0942447673 -0.5494180379 0.0018170427 0.1812497112
665296010.0 -0.0348714255 0.1851388453 0.0880617668 -0.5503987668 0.0881971546 -0.550205792 0.004077205 0.1818707448
670295980.0 -0.0338840204 0.1856570587 0.0823280972 -0.5513707687 0.0823670876 -0.5513143167 0.0055334234 0.1818173738
675295950.0 -0.0318424451 0.186297006 0.0764592988 -0.5517494521 0.0767710885 -0.5513759569 0.0073914498 0.1823435993
680295920.0 -0.030095366 0.1864265791 0.0703306547 -0.5522225107 0.0697801005 -0.5531502872 0.0098025312 0.1828822705
685295890.0 -0.0277373991 0.187699975 0.0639531372 -0.5533388132 0.0642537144 -0.5534232802 0.0117716395 0.18262811
690295860.0 -0.025981131 0.1876818949 0.0587796884 -0.5533560497 0.0582388542 -0.5543493602 0.0137536368 0.1833332826
695295830.0 -0.0243774777 0.1876136014 0.0529421836 -0.5544423749 0.0522578187 -0.5542732575 0.0156422178 0.1830510339
700295800.0 -0.0222984751 0.1880072782 0.046320695 -0.5548917787 0.0460483198 -0.5549560904 0.0176254069 0.1832940126
705295770.0 -0.0204885059 0.1891608275 0.039907664 -0.5554858079 0.0406984767 -0.5554976483 0.0196316033 0.1830550598
710295740.0 -0.0187216896 0.1892095661 0.0348355975 -0.5563514915 0.0348588402 -0.5562987578 0.0216530979 0.1828780488
715295710.0 -0.0172698884 0.1893226337 0.0286671466 -0.5565116371 0.0279830524 -0.5561739864 0.0237284034 0.1830186772
720295680.0 -0.0150612355 0.1895878292 0.0224479076 -0.5568270835 0.0224790443 -0.5563808871 0.0259997439 0.1834209823
725295650.0 -0.0131104071 0.1902742144 0.0161762382 -0.5567212116 0.0167271597 -0.5567710462 0.0271922683 0.1832093587
730295620.0 -0.0110872298 0.1906335348 0.0098147412 -0.5565596361 0.0105107119 -0.5564870115 0.0291429376 0.1828010157
735295590.0 -0.0094127518 0.1909732081 0.0046917316 -0.5573965088 0.0045242628 -0.5566631 0.030870021 0.1824215008
740295560.0 -0.0079245396 0.1911690006 -0.0017521924 -0.5568797893 -0.0017581002 -0.5568761324 0.0337499586 0.1825476833
745295530.0 -0.0059146609 0.1913549085 -0.0079163898 -0.5565931616 -0.0080474418 -0.5566676766 0.0356350774 0.1819504785
750295500.0 -0.0036568533 0.1914179851 -0.0134247106 -0.5562018716 -0.0137466546 -0.5566753136 0.0370346088 0.1817522133
755295470.0 -0.0019416241 0.1912941236 -0.0192004291 -0.5562607234 -0.0196918374 -0.5565615898 0.0394700307 0.1809853053
760295440.0 -0.0003862008 0.191892377 -0.0254324756 -0.5564202431 -0.0258870883 -0.5563472942 0.041394819 0.1812350916
765295410.0 0.0017954905 0.1916952054 -0.0317250054 -0.5554477898 -0.0320499955 -0.5559111555 0.0434226084 0.1809051851
770295380.0 0.0033540084 0.1919933383 -0.0378405527 -0.5553525955 -0.0376329542 -0.555248302 0.0450744807 0.1800169226
775295350.0 0.0047095532 0.191757121 -0.0437594903 -0.5546636489 -0.0432903062 -0.5547029788 0.0463927857 0.1799233694
780295320.0 0.0069904819 0.1918476229 -0.0496784845 -0.5539248493 -0.048946428 -0.5540359439 0.0488516196 0.1787779091
785295290.0 0.008454762 0.1915670695 -0.0557118771 -0.5532852945 -0.0553353264 -0.5532437304 0.0511713817 0.1786921558
790295260.0 0.0110210196 0.1923247842 -0.0609111996 -0.5528123036 -0.06088988 -0.5526219898 0.0530416119 0.1782720523
795295230.0 0.0126266341 0.1920347776 -0.0671942322 -0.552175462 -0.0668978063 -0.5524525039 0.0554857961 0.1778222216
800295200.0 0.0143733825 0.1922048279 -0.0736991694 -0.5512637845 -0.0731941842 -0.5510595119 0.0573933322 0.1772658152
805295170.0 0.0165420063 0.1919483722 -0.0792913972 -0.5503632526 -0.0796017411 -0.5508535165 0.0592346487 0.1764183917
810295140.0 0.0178333505 0.1913553005 -0.0843723689 -0.5491830186 -0.0852250385 -0.5496319956 0.0618637625 0.1761463864
815295110.0 0.0199458663 0.1915509475 -0.0913087479 -0.5484660716 -0.0906781831 -0.5483298687 0.0633679093 0.1758061422
820295080.0 0.021590466 0.1920569046 -0.0964598451 -0.5474037529 -0.0966884999 -0.5474018592 0.0656003121 0.1750354731
825295050.0 0.0240914206 0.1916799062 -0.1022524159 -0.5460497777 -0.1026323003 -0.5468036749 0.0679027344 0.1746630096
830295020.0 0.0255265958 0.1916576451 -0.1087252952 -0.5450783827 -0.1085006898 -0.5455018561 0.0705221031 0.1741946738
