!Created with skrf (http://scikit-rf.org).
# Hz S RI R 50.0 
!freq ReS11 ImS11 ReS21 ImS21 ReS12 ImS12 ReS22 ImS22
300000.0 -0.23934157 -0.0706910881 0.4727731979 0.0473224846 0.4680138855 0.0465446154 -0.244154538 -0.0841461788
5299970.0 -0.2441848001 0.0075886251 0.4737152138 0.0047017975 0.4736243449 0.0053095876 -0.2446450412 0.0078269097
10299940.0 -0.2412594022 0.0189471338 0.4753164738 0.0062654387 0.4756835853 0.0065953627 -0.2414454331 0.0202537342
15299910.0 -0.2369296204 0.0281744007 0.4795934004 0.0076413878 0.4794034025 0.0078139404 -0.2367653878 0.0295371278
20299880.0 -0.2322665943 0.0356047501 0.4841617804 0.0083919691 0.4838792542 0.0083741214 -0.231405604 0.0372891352
25299850.0 -0.22697788 0.0419875196 0.4890153286 0.0074692381 0.4891058729 0.0076982929 -0.2254803048 0.0435928242
30299820.0 -0.2214632822 0.0473538262 0.4946215474 0.0053214917 0.4947720382 0.0053141208 -0.2197453311 0.0489206574
35299790.0 -0.2164880689 0.05131225 0.499885279 0.0020840043 0.4999906706 0.0018366404 -0.2138772635 0.0531247066
40299760.0 -0.2114753406 0.0551078556 0.505142689 -0.0017868771 0.5052863878 -0.00154366 -0.2084444322 0.055738048
45299730.0 -0.2067170787 0.057896357 0.5100754809 -0.0063038129 0.5099353151 -0.0062971342 -0.2034386627 0.0586022462
50299700.0 -0.2024000492 0.059925252 0.5142452121 -0.0120479288 0.5145004522 -0.0114481442 -0.1986937761 0.0602338116
55299670.0 -0.1983858498 0.0616166119 0.5180577055 -0.0182013181 0.5178484666 -0.0181493363 -0.1941678293 0.0620466068
60299640.0 -0.1941057415 0.0634569322 0.5214402156 -0.0242303618 0.5219810218 -0.0239298721 -0.1905090327 0.0628018834
65299610.0 -0.1911767967 0.0648870921 0.524131966 -0.0303639397 0.5241985019 -0.0303228611 -0.1869807857 0.0639556248
70299580.0 -0.1880111472 0.0659647837 0.5267154713 -0.0373290329 0.5269221747 -0.0371824134 -0.1835526699 0.064543115
75299550.0 -0.1851094644 0.0672496328 0.528650884 -0.0438160694 0.5284414659 -0.0434609839 -0.1809416009 0.0649092815
80299520.0 -0.1824004865 0.0682043382 0.5303999372 -0.050903778 0.5308136335 -0.0508007352 -0.1782806955 0.0658610645
85299490.0 -0.1799580411 0.0685429467 0.5314158466 -0.0573396598 0.5322090975 -0.0573907168 -0.1758647755 0.0659964965
90299460.0 -0.1777233343 0.0694998189 0.5325062759 -0.064827899 0.5331969697 -0.0645714883 -0.1735590522 0.06689537
95299430.0 -0.1755164037 0.0702639626 0.5339027047 -0.0715104479 0.533747827 -0.0717200115 -0.1712227425 0.067426336
100299400.0 -0.1737780544 0.0713926971 0.5342222655 -0.0785037285 0.534250727 -0.0783812713 -0.1693725216 0.0674736197
105299370.0 -0.1719443806 0.0724133735 0.5343789314 -0.0855349035 0.5347667698 -0.0854391346 -0.1675058988 0.0680516371
110299340.0 -0.1702882133 0.0733232372 0.5347314472 -0.0920677583 0.5345410399 -0.0921482884 -0.1664348257 0.0688023109
115299310.0 -0.1688130752 0.0737762216 0.5345325634 -0.0989300102 0.534916679 -0.0989559012 -0.1646334416 0.0692280378
120299280.0 -0.167252822 0.0744293629 0.5344048369 -0.1056287696 0.5346499932 -0.1055534055 -0.1631536347 0.0697356074
125299250.0 -0.1661277793 0.0752722488 0.5341602999 -0.1123624527 0.5339737876 -0.1123782024 -0.1623002306 0.0701730358
130299220.0 -0.1649769785 0.0766460087 0.5332418974 -0.1194055307 0.5333758488 -0.1190158827 -0.1612450768 0.070664292
135299190.0 -0.1638244241 0.0780911743 0.5330664382 -0.1258275637 0.5327558628 -0.125531798 -0.1601281162 0.0715610349
140299160.0 -0.1627416086 0.0789871037 0.5321708348 -0.1326345536 0.5320352628 -0.1324434453 -0.1590686426 0.0724422632
145299130.0 -0.1616307063 0.0799110969 0.5313380259 -0.1388471136 0.5310618973 -0.1388624961 -0.1582754021 0.0733384308
150299100.0 -0.1602885527 0.0811519463 0.5300294135 -0.1451218925 0.530069138 -0.1451215009 -0.1575719062 0.0743908711
155299070.0 -0.1597428893 0.0822862956 0.529271569 -0.1523115327 0.529219549 -0.1521402598 -0.156336912 0.0749867399
160299040.0 -0.1584455982 0.0833895581 0.5274943997 -0.1588026042 0.5270804779 -0.1586599627 -0.1559944517 0.0757319369
165299010.0 -0.1576411892 0.0847564046 0.5260366778 -0.1652892704 0.5260645456 -0.1651346962 -0.1548942106 0.0769792001
170298980.0 -0.1564112252 0.0858973532 0.5241631442 -0.1717070946 0.5248541253 -0.1717662265 -0.1539720579 0.0778300055
175298950.0 -0.1557827663 0.0872060266 0.5232294558 -0.1777268777 0.5226197652 -0.1776890774 -0.153533136 0.078589224
180298920.0 -0.1547557944 0.0885723628 0.5208910626 -0.1841530128 0.520872062 -0.1838610231 -0.1526442374 0.0800129816
185298890.0 -0.1534884593 0.0896633864 0.519137702 -0.1906382468 0.5190747422 -0.1900800644 -0.1518429339 0.0807994743
190298860.0 -0.1528974189 0.0912729961 0.5177058655 -0.196868641 0.517777146 -0.1965568621 -0.1515204138 0.0819225097
195298830.0 -0.1519014741 0.09235361 0.5153819994 -0.2024602427 0.5155027449 -0.2024500436 -0.1501092829 0.0829981712
200298800.0 -0.1507969355 0.0937773928 0.5128734819 -0.2089309602 0.5134785985 -0.2086463053 -0.149698734 0.083726975
205298770.0 -0.1498391812 0.095230238 0.5107917017 -0.2147688213 0.5113895397 -0.214824402 -0.1488894154 0.0845510549
210298740.0 -0.1489027447 0.0961131344 0.5087904734 -0.2206275607 0.5087887329 -0.2203884041 -0.1477338306 0.0864207448
215298710.0 -0.1481954086 0.0980772816 0.5065401037 -0.2269154915 0.5062493476 -0.2268794873 -0.147280722 0.0873874133
220298680.0 -0.1468713852 0.0987965723 0.503744898 -0.2323243023 0.5041002474 -0.2329148531 -0.1469793867 0.088496311
225298650.0 -0.1462030889 0.1003430084 0.5014712007 -0.2387157631 0.5018050283 -0.2384677002 -0.1462815884 0.0893833519
230298620.0 -0.1450867121 0.1021580528 0.4990081757 -0.2442148621 0.5000528992 -0.2440831406 -0.1456996322 0.0903679642
235298590.0 -0.1441160708 0.1035225467 0.4960998398 -0.249832309 0.496505486 -0.2496460611 -0.1445475217 0.0919276026
240298560.0 -0.1431883642 0.1050398682 0.4940876227 -0.2558887132 0.4935496451 -0.2558764743 -0.1437591099 0.0932839738
245298530.0 -0.1420380816 0.1065551192 0.4910848965 -0.2612556177 0.4911680415 -0.2615876871 -0.1430600223 0.0938695809
250298500.0 -0.140672811 0.1078401792 0.4873646538 -0.2673563241 0.4876530936 -0.2666618373 -0.1423256701 0.0955871021
255298470.0 -0.1400484609 0.1089561768 0.4842856275 -0.272041887 0.4852665977 -0.2725941174 -0.1412286216 0.0966970966
260298440.0 -0.1390588293 0.1103020439 0.4819821243 -0.2784833518 0.4823420438 -0.2777536155 -0.1401233706 0.0983141834
265298410.0 -0.1376064744 0.1125279306 0.4789914394 -0.2838120348 0.4794531925 -0.2831568696 -0.1394116043 0.0994009591
270298380.0 -0.1366792958 0.113753272 0.4760190445 -0.2889343725 0.4765305416 -0.2890061689 -0.1388980767 0.1007671906
275298350.0 -0.1352724238 0.1151887242 0.4728065629 -0.2942639127 0.4732800657 -0.2946537522 -0.1376661918 0.1019537837
280298320.0 -0.1341221588 0.1165661987 0.4700253375 -0.2999598517 0.4702165439 -0.2998028841 -0.1365447642 0.1031551964
285298290.0 -0.1328821573 0.1183736421 0.466673809 -0.3052891525 0.4667275201 -0.3052475164 -0.1359022775 0.1044991722
290298260.0 -0.1315071145 0.1195444384 0.4632460718 -0.3099955871 0.4634447 -0.3103712949 -0.1348748973 0.106132165
295298230.0 -0.1301090008 0.12097498 0.4598742853 -0.3162183066 0.4600246438 -0.3156701978 -0.1338521745 0.1071156155
300298200.0 -0.1294177039 0.1225581888 0.4564355345 -0.3207736158 0.4565661914 -0.3212551875 -0.1329094231 0.1086241907
305298170.0 -0.1277933273 0.1237389582 0.4528735501 -0.3265448839 0.4529136986 -0.326073365 -0.1316453761 0.1096773163
310298140.0 -0.1267653269 0.1253037116 0.4497044971 -0.331554749 0.4499179888 -0.3314714678 -0.1308792026 0.1106662742
315298110.0 -0.1253217524 0.1263985119 0.4461212527 -0.3363614167 0.445943132 -0.3369149274 -0.1300676232 0.1118833304
320298080.0 -0.1241163638 0.127664176 0.44155303 -0.3422047967 0.4420252899 -0.3419871778 -0.1290504208 0.1131804733
325298050.0 -0.1228656546 0.1288561622 0.4383349598 -0.346920786 0.4382268826 -0.3466369192 -0.1285171453 0.1142083681
330298020.0 -0.1214023045 0.1300596554 0.4337076896 -0.3518047465 0.4345079173 -0.3518841142 -0.1275623565 0.1155236197
335297990.0 -0.1202717333 0.1313135545 0.4301967552 -0.3563071695 0.4302779571 -0.3568450792 -0.1273075322 0.1173761379
340297960.0 -0.1193687792 0.133017165 0.4257544971 -0.3612885201 0.425303289 -0.3615862296 -0.1252026682 0.1182798206
345297930.0 -0.1179500952 0.1348076847 0.4219236597 -0.3664410894 0.4217266701 -0.3665259908 -0.12470899 0.1192142965
350297900.0 -0.1164982989 0.1357087623 0.4173051547 -0.3709250289 0.4175067999 -0.3708412358 -0.1241862393 0.1210296338
355297870.0 -0.115134104 0.1375757565 0.4137723709 -0.3753149249 0.4138290979 -0.3752843221 -0.122967484 0.1220886567
360297840.0 -0.1135748891 0.1386859382 0.4095236822 -0.3799192684 0.4098473153 -0.3795599406 -0.1219997177 0.1235244095
365297810.0 -0.1125300298 0.1403627027 0.4054827869 -0.3845248207 0.4055407098 -0.3846133287 -0.1202934884 0.1248639536
370297780.0 -0.1107597366 0.1415861336 0.4006777887 -0.3887979458 0.4015678783 -0.388598033 -0.119638048 0.1264282921
375297750.0 -0.1090317629 0.1427901211 0.3965041589 -0.3931463371 0.3973003868 -0.3933459134 -0.1184000758 0.1273060332
380297720.0 -0.1076601242 0.1440664372 0.3923688291 -0.3977051787 0.3925563711 -0.3969931714 -0.1176121463 0.1284271183
385297690.0 -0.1067543058 0.1455288781 0.388083295 -0.4018802138 0.3880256926 -0.4016309198 -0.1157952542 0.1299183199
390297660.0 -0.1048803869 0.1470142023 0.3836397328 -0.4061460249 0.3834471587 -0.4058782781 -0.114971625 0.1311624262
395297630.0 -0.1029963198 0.148130458 0.37886265 -0.4103976722 0.3791776621 -0.410351763 -0.1133306468 0.1321169657
400297600.0 -0.1016402728 0.1497493368 0.3741184745 -0.4149335362 0.3744753758 -0.4144686451 -0.1119428968 0.1335948914
405297570.0 -0.1002535912 0.1505886643 0.3700630479 -0.4182751832 0.3701366523 -0.4181358881 -0.1111528213 0.1345811642
410297540.0 -0.0983095722 0.1519817887 0.3652228962 -0.4225528859 0.3657885244 -0.42251753 -0.1100243073 0.1363142258
415297510.0 -0.0965662919 0.1529238654 0.3606067936 -0.42640781 0.3610117963 -0.4265024955 -0.1084055152 0.1373146436
420297480.0 -0.095132801 0.1548370443 0.3557975844 -0.4303553672 0.3558427253 -0.4304985125 -0.1072348052 0.1383429469
425297450.0 -0.0935594434 0.1552885577 0.3513223645 -0.4344776648 0.3518128516 -0.4345536201 -0.1064956029 0.1399237473
430297420.0 -0.0919281871 0.1563887272 0.3463930838 -0.4374299837 0.3466181757 -0.4377421182 -0.1050314501 0.1404979427
435297390.0 -0.090594972 0.1576553864 0.3416291551 -0.4417589477 0.341481893 -0.4421514176 -0.102987096 0.1421779057
440297360.0 -0.088565833 0.1591622836 0.3364289325 -0.4456580675 0.3366590354 -0.4457076186 -0.1021183589 0.1431818799
445297330.0 -0.0868922427 0.1597799194 0.3322363481 -0.4492804738 0.3325306307 -0.448768687 -0.1007758582 0.1438675798
450297300.0 -0.0847091228 0.1608418621 0.3268992965 -0.4527735349 0.3269995428 -0.452707576 -0.0993934743 0.144912866
455297270.0 -0.0835506954 0.162129056 0.3218579662 -0.4560769097 0.3224167182 -0.4563201193 -0.0982771674 0.1462259707
460297240.0 -0.0815497576 0.1632513375 0.3168814799 -0.4598556746 0.3171325793 -0.4596471222 -0.0965641739 0.147526321
465297210.0 -0.0795009472 0.1642909551 0.3119061646 -0.4633659108 0.3120475137 -0.4637056759 -0.0951845481 0.1485145744
470297180.0 -0.0778258091 0.16522028 0.3066434659 -0.4670026277 0.3067708693 -0.4670085337 -0.093855741 0.1495875198
475297150.0 -0.0760734734 0.1660959598 0.301505838 -0.4695317032 0.3020983831 -0.4695240693 -0.0921044306 0.1505187492
480297120.0 -0.0741690416 0.1674880615 0.2962899144 -0.4733111647 0.2966283798 -0.4733631476 -0.0904981977 0.1519250525
485297090.0 -0.0725485434 0.1683341281 0.291755287 -0.4757819611 0.2915396972 -0.4761719068 -0.0893186438 0.1525229982
490297060.0 -0.0711449712 0.1691192846 0.2865468689 -0.4794473764 0.2864836055 -0.4793992314 -0.0879452566 0.1536929707
495297030.0 -0.0688893023 0.1701239347 0.2806817342 -0.4822721226 0.2811179622 -0.4824213371 -0.0865117577 0.1548320633
500297000.0 -0.0669919693 0.1710858258 0.275754975 -0.4855013239 0.2756981726 -0.4849797758 -0.0848701527 0.1561998105
505296970.0 -0.0647050775 0.1718759183 0.2704809094 -0.4884887361 0.2701292123 -0.4885225503 -0.0838451966 0.1567823035
510296940.0 -0.0631532387 0.1729516651 0.2648605769 -0.4915575028 0.2649769372 -0.4916615958 -0.0818916815 0.1578475321
515296910.0 -0.0610584744 0.1736803827 0.2592174312 -0.4939186002 0.2598241617 -0.4941579804 -0.080536225 0.1587530129
520296880.0 -0.0595418795 0.1743483871 0.2543896184 -0.4971693732 0.2543736424 -0.4968198714 -0.0793246963 0.1593568349
525296850.0 -0.0575845829 0.17484026 0.248381036 -0.4993589088 0.2491424088 -0.4997296702 -0.0774472163 0.1604198883
530296820.0 -0.0552625562 0.1758820051 0.243191228 -0.5024991955 0.2434838417 -0.5024729394 -0.0761632278 0.1615252031
535296790.0 -0.053890539 0.1766168787 0.2378777263 -0.5047463337 0.2379669866 -0.5043666754 -0.0745840125 0.1619932778
540296760.0 -0.0519793351 0.1775616564 0.2323668763 -0.5075105234 0.2322291786 -0.507711758 -0.0733544157 0.1634331532
545296730.0 -0.0497929818 0.177955393 0.226475053 -0.5095628502 0.2266301915 -0.5101201123 -0.0716047519 0.1636480517
550296700.0 -0.0475631195 0.1787404098 0.2205569724 -0.5123889205 0.2212355406 -0.5128788527 -0.0701500639 0.1648425133
555296670.0 -0.0462313866 0.1792968285 0.2159016007 -0.5149765575 0.215965116 -0.5144807328 -0.0682855557 0.1656918687
560296640.0 -0.0435223255 0.1802840021 0.2098826132 -0.5172154334 0.2102340706 -0.5169052755 -0.0668578987 0.1662127265
565296610.0 -0.0423492981 0.1803599009 0.2041848884 -0.5188648337 0.2043001531 -0.5192089335 -0.0651854893 0.1670939854
570296580.0 -0.0401457211 0.1811418229 0.1986043405 -0.5215683529 0.1983132603 -0.521337707 -0.0635819638 0.1681590379
575296550.0 -0.0382111273 0.1820053294 0.192979981 -0.523871142 0.1930965124 -0.5234914389 -0.0618215248 0.1685271203
580296520.0 -0.0362944545 0.1827111376 0.1873722417 -0.5259133198 0.1873185769 -0.5250921764 -0.0598295625 0.1691802714
585296490.0 -0.0342717608 0.1827145072 0.1821609621 -0.5272711891 0.1823051179 -0.5275321363 -0.0584407395 0.1699960914
590296460.0 -0.031710691 0.183525295 0.176042716 -0.5288800678 0.176197584 -0.5295227558 -0.0574572195 0.1712474809
595296430.0 -0.0295572493 0.1841970338 0.1696609223 -0.5316742847 0.1701509286 -0.5314125211 -0.0553242857 0.1712366861
600296400.0 -0.0279138019 0.1847249645 0.1640808439 -0.5333571142 0.1640588238 -0.5327041194 -0.053734446 0.1721305254
605296370.0 -0.0260607285 0.1848656383 0.1583086663 -0.5348128672 0.1586931867 -0.5349270356 -0.0517687024 0.1729257751
610296340.0 -0.0239223659 0.1851895355 0.1524520728 -0.5361262621 0.1528520185 -0.5363331935 -0.0501021381 0.1736803027
615296310.0 -0.0215146501 0.185478293 0.1468192351 -0.5375711343 0.1469215017 -0.5388402006 -0.0480661453 0.1741981967
620296280.0 -0.0194878543 0.1859273395 0.1412279694 -0.5393123811 0.1409025957 -0.5391596672 -0.0471663489 0.1751675988
625296250.0 -0.0177399246 0.1861474177 0.1357121473 -0.5413959371 0.135307633 -0.5413314474 -0.0445661482 0.1754760216
630296220.0 -0.014967705 0.1866063821 0.1285918263 -0.542426496 0.1291753698 -0.5422621601 -0.043233132 0.1764069192
635296190.0 -0.0135706905 0.1868256083 0.1235554017 -0.5436504603 0.1233585827 -0.5437492085 -0.0417392701 0.1767496296
640296160.0 -0.0115992238 0.1874627739 0.1175469886 -0.5446775185 0.1175295235 -0.5451243859 -0.0398095673 0.1774040793
645296130.0 -0.0093018353 0.187741597 0.1112029849 -0.5458778059 0.1118286201 -0.5462179054 -0.0381786068 0.1783290624
650296100.0 -0.0074202119 0.1878619821 0.1054738949 -0.546774658 0.1058174735 -0.5470588146 -0.0361597175 0.1781666787
655296070.0 -0.0055476274 0.1880151211 0.099834616 -0.5484015492 0.1002420002 -0.5483298829 -0.0345727354 0.1785255406
660296040.0 -0.0036574267 0.1879417965 0.0943314591 -0.5494679198 0.094433179 -0.5497888988 -0.0326584901 0.1792919921
665296010.0 -0.0009264098 0.1879839211 0.0876894604 -0.5502414388 0.088007501 -0.5504916301 -0.0308750257 0.1800165597
670295980.0 0.0001779624 0.1885992263 0.0820215166 -0.5509071317 0.0821829895 -0.5509667129 -0.0297896016 0.1804884319
675295950.0 0.0028913639 0.1887340183 0.0758291582 -0.5516474627 0.076416746 -0.5514071242 -0.0280938022 0.1810647632
680295920.0 0.0046071175 0.1885559871 0.0700420046 -0.5519017425 0.0693921839 -0.5535728524 -0.0259116787 0.1818576993
685295890.0 0.0070208581 0.1891839178 0.0639653644 -0.5536033462 0.06400934 -0.553376187 -0.0242702609 0.1815872411
690295860.0 0.0092404196 0.1891582211 0.0580949684 -0.5535201755 0.0582327959 -0.5542287084 -0.0227981947 0.1826787506
695295830.0 0.0111481464 0.1890509326 0.0522568754 -0.5547780146 0.0520946158 -0.5541928148 -0.0208012374 0.1828474818
700295800.0 0.013023118 0.1888686733 0.0462572474 -0.5546946349 0.0457887169 -0.5546107448 -0.0193370041 0.183627291
705295770.0 0.0151415067 0.1890646257 0.0400409385 -0.5552497115 0.0404733919 -0.5554536312 -0.0174695896 0.1835504976
710295740.0 0.0176277523 0.1889807159 0.0340965339 -0.5563983081 0.0344311357 -0.5563677979 -0.0155687248 0.1836679705
715295710.0 0.0192024455 0.188876842 0.0281508926 -0.556241373 0.0283959162 -0.5561570445 -0.0135873506 0.1840486131
720295680.0 0.0213181367 0.1889297811 0.0223687049 -0.5568114718 0.0224343991 -0.5566204692 -0.0118561695 0.1846287491
725295650.0 0.0233280133 0.1885140662 0.0159930512 -0.5565118997 0.0163151516 -0.5572699728 -0.0104127338 0.1851172768
730295620.0 0.0257841098 0.1890322229 0.010146373 -0.5565003546 0.0104612096 -0.5569444302 -0.0089760613 0.1845950881
735295590.0 0.0275939493 0.1885222493 0.0042496141 -0.5566592155 0.004477857 -0.5566799616 -0.0070385639 0.1846492487
740295560.0 0.0293664932 0.1886081024 -0.0017257603 -0.5569398367 -0.0016550626 -0.5566449877 -0.0045538649 0.1852112131
745295530.0 0.0316440951 0.1884899379 -0.007907401 -0.5561266154 -0.0079461979 -0.5567066257 -0.0029562539 0.1851647806
750295500.0 0.0340252436 0.1880217249 -0.0135686417 -0.5565092883 -0.0140290878 -0.5565439007 -0.0012669625 0.1855508957
755295470.0 0.0360089513 0.1875829237 -0.0193282904 -0.5561526707 -0.0193517882 -0.5562788396 0.0009239612 0.1851302557
760295440.0 0.0379319126 0.1874947235 -0.0259300348 -0.5560617424 -0.0255857027 -0.5562877307 0.0023549626 0.1854242803
765295410.0 0.0398556026 0.1872534135 -0.0320595309 -0.5561070812 -0.032064609 -0.5559777534 0.0042388788 0.1860596673
770295380.0 0.0416154739 0.1868451229 -0.0379337787 -0.5553234811 -0.0378511507 -0.5554053213 0.0060908126 0.1861511706
775295350.0 0.0438390958 0.1860359562 -0.0437184329 -0.5540985743 -0.0435215582 -0.5549391611 0.0075368312 0.1862384466
780295320.0 0.0461015494 0.1862259894 -0.0498827313 -0.5540376534 -0.0493952833 -0.5539302116 0.0094991223 0.1858502781
785295290.0 0.0478068948 0.1851734724 -0.0559058712 -0.5529033401 -0.0554168839 -0.5534178087 0.0119381608 0.1861570178
790295260.0 0.0504850579 0.1854626624 -0.0612563478 -0.553245779 -0.0607607179 -0.5527777181 0.0136137024 0.1864989316
795295230.0 0.0521305111 0.1846350665 -0.067657244 -0.5520723538 -0.0672068282 -0.5525699321 0.0155249935 0.186389492
800295200.0 0.0541776155 0.1848150481 -0.0741474783 -0.5512200242 -0.0734257606 -0.5517456671 0.0172273538 0.1865024992
805295170.0 0.0563715173 0.1840211571 -0.079631079 -0.550602074 -0.079476429 -0.5508686799 0.0191614094 0.1863967901
810295140.0 0.058247433 0.1833222761 -0.0849471817 -0.5495068799 -0.085420109 -0.5499065098 0.0213578651 0.1864284062
815295110.0 0.0602526028 0.1826302091 -0.0912848429 -0.5482948334 -0.090893102 -0.5486716835 0.0226944712 0.1867304729
820295080.0 0.062143527 0.1824390709 -0.097359896 -0.5472777783 -0.0965408054 -0.5476643911 0.0248438178 0.186650497
825295050.0 0.0650108614 0.1818881638 -0.1030131456 -0.5461859338 -0.1026853941 -0.5470101649 0.0266260766 0.1865476963
830295020.0 0.066425063 0.18127221 -0.1091486964 -0.5450902158 -0.1090464243 -0.5452185549 0.0288494633 0.1864969916
