!Created with skrf (http://scikit-rf.org).
# Hz S RI R 50.0 
!freq ReS11 ImS11 ReS21 ImS21 ReS12 ImS12 ReS22 ImS22
300000.0 -0.31454963 -0.1202597202 0.3712586145 0.0606705573 0.3714173053 0.063617491 -0.3189795079 -0.1279332155
5299970.0 -0.3250270505 0.002980758 0.3781632273 0.0031531974 0.3787270482 0.0031848594 -0.3257913516 0.0019729836
10299940.0 -0.3226355977 0.0141236508 0.3802453037 0.0031179172 0.3796394083 0.0028160861 -0.3231521367 0.0124612989
15299910.0 -0.3188235093 0.0226074601 0.3818296261 0.0025431052 0.382323275 0.0025756762 -0.3205291975 0.019683269
20299880.0 -0.3155008023 0.029135449 0.3849377887 0.0017059222 0.3852088417 0.0019920791 -0.3178321549 0.0263222812
25299850.0 -0.3116173923 0.0349015159 0.3886538806 0.0003989208 0.3887100214 0.00025426 -0.315114308 0.0313317421
30299820.0 -0.3081554939 0.0393270445 0.3922552076 -0.0023223997 0.3922077017 -0.0021615036 -0.3119658249 0.035770007
35299790.0 -0.3042890344 0.0434737449 0.3945275042 -0.0049652229 0.3952741938 -0.0053126973 -0.3089691664 0.040020527
40299760.0 -0.301061486 0.0470701659 0.39841698 -0.0086321613 0.3987892558 -0.0089069345 -0.3064063073 0.0432428772
45299730.0 -0.2980672185 0.0500550951 0.4013370196 -0.0123677506 0.4013959153 -0.0127052912 -0.3035037618 0.0463690909
50299700.0 -0.2946176851 0.0530762414 0.4038262383 -0.0171043051 0.4038920171 -0.0172967834 -0.3012224823 0.0496503681
55299670.0 -0.2923704532 0.0555193938 0.4058839197 -0.0214803226 0.4059987316 -0.0222242408 -0.2996270508 0.0523394395
60299640.0 -0.2896822844 0.0578551359 0.4081966778 -0.0267387471 0.4080438428 -0.0269513689 -0.2970873485 0.0550523172
65299610.0 -0.2872985623 0.0600238476 0.4097265172 -0.0316312205 0.4097953308 -0.0317915729 -0.2951907067 0.0573186221
70299580.0 -0.2852822037 0.0621276841 0.410673612 -0.0365872937 0.4112439505 -0.0369366682 -0.2936001792 0.0598006097
75299550.0 -0.2834286585 0.064247908 0.4117402728 -0.042176283 0.4121434659 -0.0419294707 -0.2918458062 0.0623397832
80299520.0 -0.2817283095 0.066506464 0.4126587708 -0.0471705315 0.4129419041 -0.0474396716 -0.2904915674 0.0647784053
85299490.0 -0.280051754 0.0682844477 0.4133877215 -0.0527129733 0.4135710774 -0.0524186192 -0.2891289069 0.0667455462
90299460.0 -0.2782404594 0.0707042353 0.4135201912 -0.0579467161 0.4136691427 -0.0580080486 -0.2876766232 0.069341793
95299430.0 -0.2768018549 0.0728680015 0.4139964839 -0.0631227447 0.4141937219 -0.063223561 -0.286626731 0.0717354169
100299400.0 -0.2752701934 0.074660212 0.4138583919 -0.0679149581 0.4140619055 -0.0684727745 -0.2856271228 0.0741272035
105299370.0 -0.2738359041 0.0766856544 0.4137516305 -0.0734327912 0.4144871002 -0.0735043953 -0.2840308791 0.0763395922
110299340.0 -0.2726211738 0.0787765444 0.4138247909 -0.0783100159 0.4138372298 -0.0785697272 -0.2831146707 0.0785280525
115299310.0 -0.2715787134 0.0811393983 0.4136556341 -0.0835879355 0.4136684721 -0.0839741954 -0.2821032574 0.0814536071
120299280.0 -0.2704928823 0.083358562 0.4133737529 -0.0888350307 0.4130975862 -0.0890642575 -0.2810980695 0.083521376
125299250.0 -0.2692219139 0.0853421769 0.412541637 -0.0938082712 0.4127003461 -0.0937973052 -0.2800863819 0.0860337013
130299220.0 -0.2681924989 0.0875869825 0.4119783297 -0.0989627897 0.4120548877 -0.0995724918 -0.2791431842 0.0884046359
135299190.0 -0.2669160696 0.090179666 0.4111987968 -0.1034805813 0.4112333682 -0.104296727 -0.2781355191 0.0906154032
140299160.0 -0.2661281123 0.0923340942 0.41053771 -0.1092431731 0.410433378 -0.108861216 -0.27769897 0.0934271273
145299130.0 -0.2651881713 0.0946000601 0.4094503637 -0.1140087632 0.4096877697 -0.1138857682 -0.2767250498 0.0959439943
150299100.0 -0.2642904809 0.0971957641 0.4086125125 -0.1193112605 0.4086893549 -0.1189620786 -0.2758893544 0.0983077092
155299070.0 -0.2631654014 0.0993003893 0.4071510445 -0.1238351535 0.4074345316 -0.1241014497 -0.2749934685 0.1010476352
160299040.0 -0.2620566094 0.1021501501 0.4058056667 -0.1288812961 0.4060698191 -0.1287346425 -0.2741586274 0.1035157078
165299010.0 -0.2609411432 0.1044329165 0.4047793031 -0.1333497836 0.4046568813 -0.1338673021 -0.2726741088 0.1058668115
170298980.0 -0.2602514498 0.1069019819 0.4032102969 -0.1383727548 0.4033816159 -0.1384740266 -0.2720102327 0.1083947695
175298950.0 -0.2590541616 0.1092691867 0.4022494412 -0.1428393779 0.4024239399 -0.1434265999 -0.2710199697 0.1114631165
180298920.0 -0.2585333378 0.1119528771 0.4005973423 -0.1478280901 0.4007412886 -0.148220406 -0.2698142648 0.1139330519
185298890.0 -0.2569466424 0.1141816393 0.3995746658 -0.1524266085 0.399415726 -0.1529736219 -0.2690347804 0.1164873575
190298860.0 -0.2556642823 0.1174579037 0.3971341691 -0.1574970043 0.3975936926 -0.1571981239 -0.2678419513 0.1191228711
195298830.0 -0.2548947068 0.1197887006 0.3961276079 -0.1618864047 0.3960682853 -0.1620728938 -0.2667332727 0.1218285194
200298800.0 -0.2535495994 0.1221609566 0.3940432863 -0.167037405 0.3945107062 -0.1666818996 -0.2656791103 0.1245585811
205298770.0 -0.2530024779 0.1248675156 0.3926471868 -0.1710071205 0.3924319858 -0.1710135125 -0.2644960272 0.1271810515
210298740.0 -0.2515108076 0.1275237669 0.3907552141 -0.1757927767 0.3901311407 -0.1758625287 -0.2637398086 0.1299046044
215298710.0 -0.2503229445 0.1301835547 0.3885366055 -0.1797214613 0.3886524714 -0.18039473 -0.2621271269 0.1325779425
220298680.0 -0.2490687078 0.1323944346 0.3864740582 -0.184705856 0.3863455933 -0.1849106456 -0.2610874103 0.135212488
225298650.0 -0.2476685133 0.1353935992 0.3843410803 -0.1890377689 0.3845991636 -0.1887361273 -0.2599539886 0.137971416
230298620.0 -0.2467915516 0.1380628558 0.3828189967 -0.1933692546 0.3828139462 -0.193708781 -0.2585415948 0.1404406743
235298590.0 -0.2455684412 0.1405357393 0.3809229742 -0.1980866896 0.3810302055 -0.1979871951 -0.2576004298 0.1433256476
240298560.0 -0.2440429556 0.1433994031 0.3780968263 -0.2022608746 0.3785392488 -0.2021612159 -0.2562050119 0.1457483364
245298530.0 -0.2427862703 0.1458394782 0.3759517467 -0.2063548121 0.3760062422 -0.2067265004 -0.2550439624 0.1489347824
250298500.0 -0.2415243779 0.14848528 0.3739714351 -0.2106310278 0.3740657849 -0.2107985948 -0.2535826877 0.1514013855
255298470.0 -0.2403539114 0.1513937615 0.3720382958 -0.2149302375 0.3719834989 -0.2151180239 -0.2521632127 0.1540908801
260298440.0 -0.2388650891 0.1536265857 0.3694634108 -0.2186814486 0.3692322424 -0.2190732317 -0.2507078737 0.1568783568
265298410.0 -0.2373080332 0.1562806842 0.3668367629 -0.2234414122 0.366725834 -0.2239892741 -0.2487199254 0.1593401012
270298380.0 -0.2360066692 0.1585286661 0.3640814083 -0.2274505305 0.3643019625 -0.2274592249 -0.2474141154 0.1621294753
275298350.0 -0.2346918619 0.1616533496 0.3615885445 -0.2315694536 0.3617960842 -0.2315319745 -0.2459845814 0.1648806747
280298320.0 -0.2331701955 0.1642290949 0.3594476096 -0.2352864932 0.3598793613 -0.2357570667 -0.2445177075 0.1676462993
285298290.0 -0.2315575361 0.1668562423 0.3566308774 -0.2396831186 0.3568753297 -0.2395877666 -0.2428572455 0.1702634863
290298260.0 -0.2299604883 0.1694151406 0.3545002574 -0.2438281909 0.3539848505 -0.243679601 -0.241091671 0.1728889682
295298230.0 -0.2284393152 0.1715755711 0.3513144135 -0.2479311259 0.3517175557 -0.2481320611 -0.2395067308 0.1754081271
300298200.0 -0.2268472682 0.1743644794 0.3487257335 -0.2517448068 0.3490321394 -0.2517722684 -0.2376700007 0.1780611053
305298170.0 -0.2253143278 0.1765365252 0.3460475126 -0.2556922684 0.3463632395 -0.2560357055 -0.2357237051 0.1803896434
310298140.0 -0.2233490036 0.1791370647 0.3432245275 -0.2593638594 0.3437163897 -0.2594503482 -0.2339643292 0.1830414225
315298110.0 -0.2216878531 0.1812809332 0.3404759318 -0.263792932 0.3403469374 -0.2637580867 -0.2321161943 0.185298501
320298080.0 -0.2199762972 0.1837805856 0.3368823548 -0.2673188811 0.3377834033 -0.2676518622 -0.2309353608 0.1878055326
325298050.0 -0.2185401359 0.1856871109 0.3340253281 -0.2711858232 0.3348495566 -0.2713917313 -0.2284492745 0.1901781765
330298020.0 -0.2171271289 0.18845048 0.3311536268 -0.2749290989 0.331761001 -0.2751393444 -0.2270518447 0.1928703173
335297990.0 -0.2153129145 0.1908835183 0.3283491862 -0.27866476 0.3284330795 -0.2787647146 -0.2249453175 0.1954384822
340297960.0 -0.2134678325 0.1933081113 0.3246766701 -0.2823513611 0.3248838157 -0.2826661289 -0.2231268375 0.1980178304
345297930.0 -0.2118104792 0.1954788046 0.3217762249 -0.2859601153 0.3219454576 -0.2860341259 -0.2212529437 0.2003609538
350297900.0 -0.2101552894 0.1979524118 0.319020284 -0.2892405211 0.3188697016 -0.2892955877 -0.2195015525 0.2025239199
355297870.0 -0.2080759458 0.2002447201 0.3156655132 -0.2926829503 0.3155832557 -0.293057323 -0.2170581904 0.2054415816
360297840.0 -0.2063018285 0.2026195448 0.3121115311 -0.2961231205 0.3124848274 -0.2967180356 -0.2151641992 0.2076325365
365297810.0 -0.2045568286 0.2053290173 0.3090418366 -0.2997273373 0.3092953585 -0.2999289317 -0.2135639222 0.2101376226
370297780.0 -0.2023073397 0.2069893419 0.3050917116 -0.3030612576 0.3056932016 -0.3027934483 -0.2111988952 0.212526059
375297750.0 -0.200546356 0.2095472483 0.3022102161 -0.3063807581 0.3021300741 -0.3060809719 -0.2086810323 0.214833378
380297720.0 -0.198626663 0.2119754447 0.2992044223 -0.3099882114 0.2988282722 -0.3098484622 -0.2067326975 0.2174741128
385297690.0 -0.1964103967 0.2139715719 0.2950971206 -0.3130142658 0.2956699596 -0.3132923781 -0.2045814464 0.2200395177
390297660.0 -0.1939409121 0.2163093304 0.2919555491 -0.3158549743 0.2920455009 -0.3163649115 -0.2019988863 0.2218348948
395297630.0 -0.1918672008 0.218602696 0.2882401491 -0.3190962187 0.2883059032 -0.3191837532 -0.1997834198 0.2240601616
400297600.0 -0.1900518897 0.220630811 0.2850636768 -0.3222048069 0.2848105028 -0.3224047995 -0.1973787891 0.2268110539
405297570.0 -0.1879819196 0.2223172506 0.2816457464 -0.3253439927 0.2815380519 -0.3257310181 -0.1948955084 0.2285653378
410297540.0 -0.1855247563 0.2248577513 0.2779546932 -0.3291080071 0.2779406542 -0.3287417753 -0.1928161093 0.2315972739
415297510.0 -0.1835633252 0.2269891168 0.2741490769 -0.3318536118 0.2744305912 -0.3318019799 -0.1903400265 0.2332666014
420297480.0 -0.1812599714 0.2287584445 0.2701484232 -0.3345497085 0.2706880915 -0.3347256019 -0.1877431602 0.2357422442
425297450.0 -0.1784204322 0.2305859332 0.2669305482 -0.3372835747 0.266652195 -0.3377625325 -0.1853999259 0.2376372204
430297420.0 -0.1765129205 0.2331213299 0.2634957148 -0.3408484173 0.2632410469 -0.3405101908 -0.1825427253 0.2399480515
435297390.0 -0.174114164 0.234640538 0.2592249815 -0.3434951458 0.2595246009 -0.3434665955 -0.1808242097 0.2423195756
440297360.0 -0.1714992316 0.2363146624 0.2550479446 -0.346234635 0.255301932 -0.3461523635 -0.178296474 0.244080659
445297330.0 -0.1689233219 0.2381755411 0.2517846407 -0.3487390213 0.2517260708 -0.3491635223 -0.1755282586 0.2461594764
450297300.0 -0.1664593068 0.2401833837 0.2478441566 -0.3514523061 0.2479880542 -0.3518574254 -0.1725806726 0.2482404582
455297270.0 -0.1641890592 0.2420289118 0.243802925 -0.3540746732 0.2441906451 -0.3548319788 -0.1704093445 0.2501183118
460297240.0 -0.16142259 0.2441085557 0.2401077963 -0.3574577241 0.2401270193 -0.3570314505 -0.1677789806 0.2519641563
465297210.0 -0.1587786592 0.2458923121 0.2356304817 -0.3598997718 0.2357659478 -0.3601674571 -0.1644957492 0.2545422771
470297180.0 -0.1563147571 0.2475857266 0.2319316217 -0.3620459781 0.2323076054 -0.3619734329 -0.162184193 0.2559760459
475297150.0 -0.1540740045 0.2496304953 0.228153505 -0.3646910101 0.2281409048 -0.3648818142 -0.1594918239 0.2577736448
480297120.0 -0.1509774249 0.2512867234 0.2238830033 -0.3672904185 0.2241187156 -0.367175014 -0.1571530187 0.259728017
485297090.0 -0.1482788672 0.2528636337 0.21971792 -0.3695754732 0.2199896193 -0.3692790383 -0.1543489294 0.2615990514
490297060.0 -0.1452402748 0.2546199667 0.2156367617 -0.3719312682 0.2157635544 -0.3721717096 -0.1511271452 0.2633016702
495297030.0 -0.1431406883 0.2558849926 0.2120742109 -0.3743729593 0.2116198774 -0.3745766466 -0.1481527269 0.2646668819
500297000.0 -0.1401824803 0.2579627634 0.2076344232 -0.3764260819 0.2076550567 -0.3766072275 -0.1454270964 0.2667646249
505296970.0 -0.1371463825 0.259521314 0.2036886794 -0.378898432 0.2036837481 -0.3784991266 -0.142980635 0.2680531827
510296940.0 -0.1345312614 0.2612108598 0.1993855173 -0.3815164564 0.1993269388 -0.3813581401 -0.1394710559 0.2700963235
515296910.0 -0.1315749147 0.2629910723 0.195012598 -0.3833438015 0.1949118782 -0.3830143425 -0.1373054198 0.2714497642
520296880.0 -0.1287205361 0.2640377972 0.1910316726 -0.3851871712 0.1905585582 -0.385111452 -0.1339103615 0.2734212845
525296850.0 -0.1259905113 0.2655049322 0.1863700337 -0.3871029373 0.1861888813 -0.3871906637 -0.1310931059 0.2747046908
530296820.0 -0.1233464404 0.2672874521 0.1820988115 -0.3895204859 0.1823536262 -0.3891084904 -0.1284480942 0.2761420178
535296790.0 -0.1196726449 0.2685446138 0.1780219321 -0.3907433591 0.178142975 -0.3912679825 -0.1251587441 0.2777837101
540296760.0 -0.1171751776 0.2701490006 0.1735423128 -0.3931367703 0.1734821101 -0.3925439295 -0.1223884431 0.278729253
545296730.0 -0.1145950645 0.2718030098 0.1697638147 -0.3946068296 0.1692766131 -0.3946560748 -0.1193284732 0.280603996
550296700.0 -0.1110294958 0.2728287864 0.1647021494 -0.3968011463 0.1647220414 -0.3966794443 -0.1163039783 0.2821002961
555296670.0 -0.1083372544 0.2744958749 0.1608360375 -0.3988714256 0.1605859333 -0.3983430376 -0.1134998511 0.2829600373
560296640.0 -0.105068013 0.2755062537 0.1562381206 -0.4000465207 0.1563893947 -0.3998251434 -0.1105458565 0.2845923589
565296610.0 -0.1024688368 0.2769915922 0.1522722927 -0.401735296 0.1519178925 -0.4012638622 -0.107185292 0.286008619
570296580.0 -0.0995556557 0.2781024738 0.1477288352 -0.4032681212 0.1476585615 -0.4031865131 -0.1046832949 0.2868930849
575296550.0 -0.0959415341 0.2793860947 0.1434162387 -0.4050758302 0.1428043738 -0.4048870799 -0.101399024 0.2881927677
580296520.0 -0.0933311793 0.2809323096 0.1386199068 -0.406431057 0.1386016944 -0.4063582411 -0.0987063418 0.2894236562
585296490.0 -0.0899765472 0.2820395071 0.1345182666 -0.4077121252 0.1340303533 -0.407908004 -0.0949263534 0.2909929288
590296460.0 -0.0865162 0.2829027215 0.1297492796 -0.4092072146 0.1295837561 -0.4092039682 -0.0922897526 0.2918836691
595296430.0 -0.0839074426 0.2843040044 0.1250183299 -0.4107305514 0.1250652182 -0.4107461552 -0.0892510616 0.2927863276
600296400.0 -0.0806183456 0.2851358493 0.1205339958 -0.41165092 0.1205715771 -0.4116452123 -0.0861692287 0.2936606243
605296370.0 -0.0775554084 0.2863219295 0.116690816 -0.4129560619 0.1162063009 -0.4131809935 -0.0827414463 0.2951709254
610296340.0 -0.0742101881 0.2876360548 0.1118641248 -0.4139679033 0.1117995774 -0.413958018 -0.0799214785 0.2961228344
615296310.0 -0.0709467876 0.2886653306 0.1070439752 -0.4154615396 0.1067911942 -0.4154638365 -0.0765407324 0.297113826
620296280.0 -0.0685155328 0.290083965 0.1027033966 -0.416485761 0.1024263861 -0.4165137836 -0.0737804145 0.2982205781
625296250.0 -0.0652303385 0.2903849492 0.098069084 -0.4174963315 0.0982336697 -0.4176971914 -0.0705807397 0.2988901756
630296220.0 -0.0620368523 0.2913630467 0.0933861377 -0.4185150657 0.0931902521 -0.4183523588 -0.0671002414 0.2998495518
635296190.0 -0.0590903722 0.2924478204 0.089044409 -0.4191678804 0.0887788049 -0.4192570559 -0.0642583561 0.300349408
640296160.0 -0.0560115698 0.293181117 0.0843165609 -0.4204218266 0.0843410221 -0.4204274145 -0.0611044642 0.3013516909
645296130.0 -0.0524974085 0.294424116 0.0798548756 -0.4208154969 0.0798686324 -0.4208760532 -0.0578910118 0.3019249912
650296100.0 -0.0495159034 0.2948924713 0.075441407 -0.4221751041 0.0751504598 -0.4219233272 -0.0541115715 0.302863348
655296070.0 -0.0466053986 0.2960284127 0.0702735786 -0.4227021281 0.070617861 -0.4226349807 -0.0520195571 0.3038564339
660296040.0 -0.0435116084 0.2965785675 0.0660541884 -0.4234570349 0.0659574131 -0.423397732 -0.0482812366 0.3039387127
665296010.0 -0.0400991514 0.2975768298 0.061225834 -0.4238029133 0.0612295388 -0.4238990616 -0.0452526242 0.3048693165
670295980.0 -0.0373407298 0.2979984225 0.0568943137 -0.4246530175 0.0565648811 -0.4245531417 -0.0420433258 0.3055709619
675295950.0 -0.0338673259 0.2986665475 0.0522734838 -0.4249585009 0.0521632114 -0.4252979085 -0.0387375539 0.3060671977
680295920.0 -0.0310973857 0.2996902853 0.0478461728 -0.4254131754 0.0474434154 -0.4257941619 -0.0352984226 0.3064580345
685295890.0 -0.0278224212 0.3001260378 0.0432880016 -0.4263552228 0.0427886015 -0.4263853726 -0.0322548963 0.3071773822
690295860.0 -0.0244919065 0.3006635194 0.0384424802 -0.42667613 0.0383984065 -0.4264598915 -0.02912601 0.3074852968
695295830.0 -0.0212976555 0.3013084791 0.0339896048 -0.4269402297 0.0335231658 -0.4269440787 -0.0260216839 0.3084787155
700295800.0 -0.0181699049 0.3016167474 0.0295320987 -0.4271130909 0.0291847235 -0.4272513013 -0.022581962 0.3086071545
705295770.0 -0.015318655 0.3021209925 0.0245637061 -0.4274077314 0.0243474961 -0.4273840581 -0.019292199 0.309115699
710295740.0 -0.0123003947 0.3023506772 0.019990659 -0.4277655519 0.0199260422 -0.42788951 -0.0157442931 0.3093060109
715295710.0 -0.0087717297 0.302889829 0.0152458076 -0.4278090418 0.0152083004 -0.4279793245 -0.0127196534 0.3092382445
720295680.0 -0.0055786881 0.3032133916 0.0108744736 -0.4276901412 0.0104484531 -0.4279098153 -0.0094779539 0.3096813401
725295650.0 -0.0030527127 0.3036223565 0.0064195563 -0.427900275 0.0059967427 -0.4281471815 -0.0064296722 0.3101634565
730295620.0 8.53044e-05 0.3037501439 0.0015192929 -0.4274560646 0.0013520204 -0.427633553 -0.0033870031 0.3104628845
735295590.0 0.0031692823 0.3042901062 -0.0032954287 -0.4278972497 -0.0032649311 -0.4281236356 0.0003633596 0.3102176067
740295560.0 0.0060133335 0.3042929567 -0.0076467096 -0.4281991289 -0.0073933063 -0.4281049615 0.0033290332 0.3108178908
745295530.0 0.0093450482 0.3044806759 -0.012319638 -0.4271653061 -0.0118694076 -0.4275491369 0.0064598237 0.3109151812
750295500.0 0.0122938506 0.3049917734 -0.0167505716 -0.4272340102 -0.0170196093 -0.4275919298 0.0096445486 0.3108207887
755295470.0 0.0154060118 0.3049662694 -0.0211193711 -0.4275936916 -0.0215868266 -0.4276151659 0.0130434416 0.3114698749
760295440.0 0.018570506 0.3054135723 -0.0265133201 -0.4272226847 -0.0262609747 -0.4265612209 0.0165577199 0.3106585867
765295410.0 0.02171064 0.3049600833 -0.0305591901 -0.4267032381 -0.030598773 -0.4264888402 0.0196512334 0.3106847669
770295380.0 0.0245099129 0.3052490419 -0.0349974862 -0.426040876 -0.0353367959 -0.4269406294 0.0225508186 0.3108315093
775295350.0 0.0275079898 0.304890115 -0.0398402057 -0.4257257431 -0.0398362708 -0.4255292712 0.0262267625 0.3107426668
780295320.0 0.0309686852 0.3050372581 -0.0441097068 -0.4250168911 -0.0442850372 -0.4250589734 0.0295043634 0.3103681929
785295290.0 0.0338240195 0.3048320387 -0.0489652845 -0.4247687378 -0.049021598 -0.425102405 0.0323035131 0.3105377796
790295260.0 0.0367696806 0.3044643003 -0.0533582081 -0.4244326168 -0.0532037355 -0.4246382067 0.0357202785 0.310672211
795295230.0 0.0396348656 0.3040890945 -0.0581839725 -0.423527015 -0.0578652544 -0.4238360476 0.0388294064 0.3094496111
800295200.0 0.0427838013 0.304394514 -0.0622400412 -0.4225121278 -0.062640764 -0.4231848348 0.0419457405 0.3096115129
805295170.0 0.0458346662 0.3044174496 -0.0670388751 -0.4224267818 -0.0673233626 -0.4225137815 0.0457972282 0.3093348815
810295140.0 0.0493261945 0.3041726913 -0.0717098918 -0.421617507 -0.0717875382 -0.4213139231 0.0489519717 0.3088977942
815295110.0 0.0520704833 0.3035555335 -0.0759488085 -0.4204730118 -0.0761505996 -0.4207835311 0.0518996631 0.3088068037
820295080.0 0.0548449235 0.3032276435 -0.0804188218 -0.4195156721 -0.080335572 -0.4200046008 0.0546572132 0.3084467694
825295050.0 0.0578526904 0.302710216 -0.085293098 -0.4191598166 -0.085084214 -0.4191556265 0.0584950469 0.3081114519
830295020.0 0.0610901947 0.3022870576 -0.0896330306 -0.417609489 -0.089464361 -0.418183198 0.0614412511 0.3071847436
