!Created with skrf (http://scikit-rf.org).
# Hz S RI R 50.0 
!freq ReS11 ImS11 ReS21 ImS21 ReS12 ImS12 ReS22 ImS22
300000.0 0.8600586365 -0.0011420848 -0.0003869622 -0.0001733826 -0.0002317115 0.0012153587 -0.7649895001 -0.2019761735
5299970.0 0.8597241199 -0.0102882347 0.000151648 -2.2424e-05 -0.0001468727 -2.27982e-05 -0.7849857059 -0.0096385344
10299940.0 0.8586191166 -0.0183559838 -0.0001926508 0.0001647574 7.63682e-05 -3.55903e-05 -0.7874063007 -0.0053809077
15299910.0 0.858239194 -0.0274054293 0.0001679574 0.0001238881 -1.14107e-05 2.37706e-05 -0.7929433277 -0.0029879566
20299880.0 0.8570451948 -0.0357356744 6.67057e-05 -0.0002024804 0.0001552756 -0.0001460907 -0.7992800005 0.0016504453
25299850.0 0.8562445154 -0.0439041363 -8.0636e-05 0.0002816554 -0.0001736829 -2.2783e-05 -0.8059728038 0.0083561675
30299820.0 0.8560219583 -0.0525384714 -9.19534e-05 8.19683e-05 -0.0001019349 0.0001508754 -0.8115313604 0.0158643523
35299790.0 0.8552019779 -0.0602939614 -0.0001171271 3.71286e-05 -3.4252e-06 0.0002199476 -0.8166700617 0.0246948696
40299760.0 0.8545096612 -0.0678166909 -8.1976e-06 4.9216e-05 -2.2788e-05 -0.0001413912 -0.8212029115 0.0337882226
45299730.0 0.8539991406 -0.0767703075 -0.0001270894 0.0001400905 0.0001888584 -2.11862e-05 -0.8240000679 0.0437011316
50299700.0 0.8526881727 -0.0843484004 -0.0003047765 -0.0003285517 2.69603e-05 -0.0001144088 -0.826401011 0.0536738107
55299670.0 0.8524352972 -0.0927391212 -8.69826e-05 8.72682e-05 -7.42085e-05 0.0001790333 -0.828360743 0.0642263391
60299640.0 0.8506927208 -0.1012197946 -0.0001051716 0.0003008156 -2.75168e-05 2.18794e-05 -0.8294818826 0.074035088
65299610.0 0.8503093239 -0.1096544903 -0.0001518532 9.4225e-05 -5.2137e-05 1.79524e-05 -0.8300644083 0.0839911074
70299580.0 0.8491286936 -0.1178524236 5.6858e-05 -0.0002932213 -0.0001004157 3.18485e-05 -0.8307791707 0.0937788741
75299550.0 0.847527494 -0.1261988819 -3.13515e-05 -8.41882e-05 6.1523e-06 -0.0001107417 -0.8304489353 0.1040044168
80299520.0 0.8459488434 -0.1337470238 0.0002231128 -0.0001129441 9.9102e-05 9.7999e-06 -0.830423168 0.1138783745
85299490.0 0.8452474636 -0.1420461502 0.0001654086 0.000110814 8.67262e-05 0.0001207513 -0.8297614867 0.1235752223
90299460.0 0.8442678619 -0.1503619389 -8.8588e-06 1.30445e-05 4.97202e-05 -1.09573e-05 -0.828863239 0.1329955466
95299430.0 0.8422830706 -0.1582687768 -0.0001910034 -9.28308e-05 3.69408e-05 -9.78956e-05 -0.8277963681 0.1426076688
100299400.0 0.8405164663 -0.1661940499 -9.34864e-05 -2.73411e-05 -6.7118e-06 2.45388e-05 -0.8268381019 0.152025415
105299370.0 0.8391074565 -0.1741452773 3.65862e-05 -0.0001540822 5.88205e-05 9.91094e-05 -0.8254948371 0.1605057017
110299340.0 0.8377134782 -0.1829100748 6.11343e-05 -0.00011513 0.0001216402 0.000171937 -0.8242074349 0.1697559873
115299310.0 0.8356224718 -0.1909847129 -1.32278e-05 -7.57292e-05 -3.07354e-05 1.5664e-06 -0.8231625844 0.1789964212
120299280.0 0.8337830525 -0.1986360727 0.0001552852 0.0001113548 3.9102e-06 -1.62482e-05 -0.8209100856 0.188024129
125299250.0 0.8320557111 -0.2062927891 -3.85348e-05 7.33585e-05 -7.16668e-05 0.0001050275 -0.8195049579 0.197098091
130299220.0 0.8300328723 -0.2146387047 -9.88e-08 -0.000113028 -0.0001198941 3.43597e-05 -0.8173775176 0.205885958
135299190.0 0.8279825031 -0.2229952216 0.0001757796 -0.0001057689 0.0001255207 0.0001389626 -0.8160100772 0.2152619259
140299160.0 0.8260256249 -0.2301647121 -6.07517e-05 -0.0001453804 0.0001852485 -9.9492e-06 -0.8138701254 0.2230837329
145299130.0 0.823401119 -0.2382074142 -3.17749e-05 -0.0001261122 -0.0001260883 7.42358e-05 -0.8121535285 0.2326027248
150299100.0 0.820974767 -0.2460357324 4.35255e-05 -6.80048e-05 -2.23887e-05 1.05062e-05 -0.8095990039 0.2418177995
155299070.0 0.8185208193 -0.2542948808 -1.58336e-05 -0.0001042868 0.0001833936 -3.11901e-05 -0.8069620574 0.2508412423
160299040.0 0.8162356164 -0.2620730636 6.3334e-06 -2.24112e-05 -0.0001050232 -7.44657e-05 -0.8045241687 0.2594094044
165299010.0 0.8139175522 -0.269533337 -0.0001038689 7.31807e-05 0.0001005424 -0.0002498735 -0.8020579895 0.2667801233
170298980.0 0.8114424342 -0.2778718725 -0.0002342639 -9.57977e-05 4.84927e-05 0.0002024606 -0.7994380372 0.2759681029
175298950.0 0.8085538542 -0.2855304811 -8.68442e-05 1.949e-07 -8.15049e-05 -0.0001739812 -0.7963410488 0.284991595
180298920.0 0.8059607508 -0.2931372341 -6.4754e-05 7.44124e-05 6.51308e-05 2.70855e-05 -0.7933628115 0.292781761
185298890.0 0.802630225 -0.3005827323 0.000178882 0.0001492938 1.61043e-05 -0.0001904372 -0.7906231558 0.3013355408
190298860.0 0.7998581126 -0.30921113 -0.0001392849 3.49041e-05 -0.0002328485 -5.06529e-05 -0.787023768 0.3101065155
195298830.0 0.7969371604 -0.3158465486 -0.0002004082 -7.59659e-05 6.05381e-05 0.0002292854 -0.7839365307 0.3184417484
200298800.0 0.7942503128 -0.3237358652 5.9108e-06 -6.93445e-05 -9.28228e-05 7.98542e-05 -0.7809169359 0.3269355277
205298770.0 0.79085979 -0.3311089639 -8.02933e-05 -2.12427e-05 4.86325e-05 -9.79453e-05 -0.7774086848 0.335393231
210298740.0 0.7874036665 -0.3389937373 4.40374e-05 7.46758e-05 0.0001826692 8.67222e-05 -0.7737957936 0.3432149477
215298710.0 0.7841005423 -0.3467368327 0.0001316127 -0.0001655607 -0.0001672654 1.0109e-06 -0.7703755631 0.3513327563
220298680.0 0.7807552537 -0.3536550806 0.0001686784 2.51478e-05 -0.000116755 5.83633e-05 -0.7665514904 0.3596516705
225298650.0 0.7775862456 -0.3620893889 -6.25905e-05 0.0002169284 6.18485e-05 0.0001354819 -0.7629399231 0.3679609046
230298620.0 0.7737490885 -0.3686724136 0.0001039468 4.8192e-05 -8.41649e-05 -0.0001833871 -0.7590655393 0.375415719
235298590.0 0.7702811183 -0.3762545479 1.5279e-06 -0.0001252131 0.0001962529 4.87228e-05 -0.7548983178 0.3834758157
240298560.0 0.7667000773 -0.3835863721 -0.0001316015 -5.67963e-05 9.68279e-05 1.12329e-05 -0.7503900949 0.3910789713
245298530.0 0.7625392281 -0.3908327012 3.6706e-06 0.0001007228 2.0356e-06 -0.0002467093 -0.7473734842 0.3990921671
250298500.0 0.7594011935 -0.3983866583 0.0002245192 -6.1543e-06 6.2119e-06 -6.18319e-05 -0.7423201078 0.40712847
255298470.0 0.7551373391 -0.4049134462 -7.4862e-06 6.06284e-05 -8.47844e-05 8.9912e-06 -0.738636553 0.4150809272
260298440.0 0.7516648202 -0.412586771 4.11467e-05 -0.000217411 1.32899e-05 -5.7913e-05 -0.7337721295 0.4221317893
265298410.0 0.7466952398 -0.4200430486 5.53019e-05 0.0001455038 0.0001876066 0.0001950027 -0.7295484165 0.4303342558
270298380.0 0.7440762161 -0.4272634384 -0.0002697833 0.0001326906 -3.94832e-05 0.0002880664 -0.7247740132 0.4380734256
275298350.0 0.739350425 -0.4335695431 0.0001002802 0.0001848079 3.47481e-05 -0.0002594568 -0.720477121 0.4454263724
280298320.0 0.7348983182 -0.440917836 0.0001550278 -2.737e-06 4.22317e-05 -6.32329e-05 -0.7160316405 0.4522909818
285298290.0 0.7307902815 -0.4482634321 -0.0002564344 0.0002655309 -0.0001506782 7.41951e-05 -0.7117661963 0.4608503531
290298260.0 0.7259323919 -0.4561748945 2.29313e-05 -5.34512e-05 -0.0001298464 -0.0001014447 -0.707002942 0.4677194389
295298230.0 0.7218940376 -0.4628471148 0.0001853548 0.0001274669 -9.00216e-05 -6.58698e-05 -0.7012057385 0.474848284
300298200.0 0.718300408 -0.4695966132 -9.36268e-05 -9.25248e-05 1.59098e-05 -0.0001266032 -0.6961079677 0.4825654456
305298170.0 0.71428255 -0.4770723748 0.0001467106 -6.3795e-06 5.70179e-05 2.46812e-05 -0.6915838565 0.4893379228
310298140.0 0.7088056322 -0.4854993971 -0.0001578375 6.109e-05 -9.693e-05 2.00316e-05 -0.6861153756 0.4965232634
315298110.0 0.7041371718 -0.4919891692 0.0001074505 -4.45531e-05 9.10081e-05 -0.0001196579 -0.6814284467 0.5043666056
320298080.0 0.6983849056 -0.4996123445 6.08594e-05 0.0001426198 0.0003519628 -0.0001077661 -0.6760754278 0.5104329872
325298050.0 0.6922034524 -0.5064483656 2.02757e-05 3.4692e-05 -5.02643e-05 -0.000133843 -0.6701452406 0.5176615925
330298020.0 0.6865803511 -0.5140372747 -0.0001015585 -9.13502e-05 -0.0001667839 0.0001613723 -0.6651900463 0.5245219666
335297990.0 0.6808225381 -0.5193005279 6.29974e-05 1.68325e-05 0.0001335714 3.79113e-05 -0.6591032717 0.5312408777
340297960.0 0.6758557886 -0.5259327624 0.000228358 -5.21603e-05 0.0001572152 3.1432e-05 -0.6545136994 0.5383603202
345297930.0 0.670049064 -0.531585059 0.0002652319 -0.0002169035 2.83231e-05 -1.0456e-06 -0.6484761488 0.5445172773
350297900.0 0.6647894125 -0.5380195584 -3.03389e-05 -7.14408e-05 6.43431e-05 -0.0001159303 -0.6431339795 0.5513446913
355297870.0 0.6598391127 -0.5448903907 0.0001793341 -0.0001029801 -6.73005e-05 -0.0001005402 -0.6370564641 0.558827926
360297840.0 0.6543696569 -0.550474068 4.89471e-05 -0.0001101279 2.24135e-05 7.30601e-05 -0.6303706091 0.5652268957
365297810.0 0.6487740721 -0.5571794536 -3.08463e-05 7.27539e-05 0.0001377391 -5.99848e-05 -0.6257685728 0.5707845588
370297780.0 0.6434398642 -0.5629774043 0.0002762987 0.0002093999 -0.0001486304 0.0001363229 -0.6189123442 0.57733651
375297750.0 0.6377461629 -0.5691744662 -0.0002239607 -7.5057e-06 -0.0002729235 -2.55123e-05 -0.6130418462 0.5836642551
380297720.0 0.6320439656 -0.5746611509 4.68411e-05 -4.84484e-05 -4.34141e-05 -8.9004e-05 -0.6068895867 0.590606533
385297690.0 0.6265915017 -0.5810677146 6.74547e-05 -4.45928e-05 -0.0001538589 1.91026e-05 -0.6012195457 0.596468805
390297660.0 0.6209701229 -0.58718184 0.0001841347 -9.13503e-05 8.31017e-05 -0.0001272723 -0.5949353777 0.6018168107
395297630.0 0.6152231898 -0.5918730399 -0.0001623182 -0.0001171668 0.0001156354 0.0001271695 -0.5878537945 0.6080002157
400297600.0 0.6085542231 -0.598707455 -0.0001962276 3.0425e-06 0.000236639 3.62969e-05 -0.5825505042 0.6138807567
405297570.0 0.6035275022 -0.6050858027 -0.00017637 -0.0001765368 -4.42154e-05 -5.15046e-05 -0.5754230168 0.6198995258
410297540.0 0.5981918498 -0.6100791008 3.04452e-05 4.3476e-06 -5.23559e-05 -3.5946e-06 -0.5696815159 0.6262447414
415297510.0 0.591652365 -0.6157656913 -4.35691e-05 -0.0002239821 -8.34248e-05 -0.0002979115 -0.5632900261 0.6316976149
420297480.0 0.5859932529 -0.6219337384 9.88462e-05 0.0001151068 -2.94631e-05 -0.000134925 -0.5559952139 0.6381943913
425297450.0 0.5796713616 -0.6270500282 6.78932e-05 0.0001004178 2.6879e-06 0.000161489 -0.5495425883 0.6428605645
430297420.0 0.5733168547 -0.632602336 4.01485e-05 -0.0001561312 0.0001575825 0.0001211 -0.5430506334 0.6478939262
435297390.0 0.5670100272 -0.6387095571 7.90383e-05 0.000119622 6.56547e-05 -3.87878e-05 -0.5367233653 0.6545676355
440297360.0 0.5609538431 -0.6441214171 -6.06898e-05 2.7858e-05 3.73077e-05 -4.95961e-05 -0.5302639003 0.6600163025
445297330.0 0.5552362712 -0.6491917889 -0.0003105606 -7.53982e-05 9.97995e-05 -0.0001743936 -0.522913148 0.6650993894
450297300.0 0.5488643032 -0.6546510725 -2.36771e-05 6.86842e-05 -3.98904e-05 -8.11381e-05 -0.5154804934 0.6697822296
455297270.0 0.5426423632 -0.6594550563 4.88771e-05 -1.75314e-05 -6.60326e-05 -0.0001390159 -0.5089408057 0.6750905335
460297240.0 0.5362339872 -0.665187122 0.0003021999 0.000207283 -0.0001295283 -2.15184e-05 -0.5018279605 0.680317624
465297210.0 0.5292299136 -0.6698584005 6.8825e-06 -2.36915e-05 4.36428e-05 9.40904e-05 -0.4947641059 0.6860970949
470297180.0 0.5231875272 -0.6754619321 5.03529e-05 -0.0001362356 7.32214e-05 2.28562e-05 -0.4877986071 0.6902636849
475297150.0 0.515852896 -0.6801305175 -4.44292e-05 -9.27828e-05 -7.87768e-05 1.19162e-05 -0.4813291317 0.695201353
480297120.0 0.5095369965 -0.6854527473 -9.28138e-05 2.92982e-05 -0.0002522329 -0.0001532253 -0.4742064851 0.699981777
485297090.0 0.5025158174 -0.6901887859 4.26539e-05 -0.0001952847 0.0001243558 -4.46412e-05 -0.4668737942 0.7051009406
490297060.0 0.4967823063 -0.6944306934 -8.04471e-05 1.22748e-05 -8.26734e-05 1.20783e-05 -0.459401845 0.7090539132
495297030.0 0.490083383 -0.6994480541 0.0001832882 -1.56195e-05 -7.38579e-05 -7.75442e-05 -0.4521762198 0.7141759895
500297000.0 0.4832958397 -0.704342606 8.67456e-05 0.0001231643 2.6447e-06 1.36133e-05 -0.4451674231 0.7188483742
505296970.0 0.4764870633 -0.7088878218 4.90912e-05 7.74887e-05 0.0001219954 -0.0001449298 -0.4374418229 0.7227627868
510296940.0 0.4701864357 -0.713203275 -0.0001384147 -0.0001097641 2.57337e-05 -0.0001620603 -0.430003525 0.7271760834
515296910.0 0.4621202245 -0.7177745063 -0.0001086403 6.09857e-05 -2.54643e-05 -6.38489e-05 -0.423009206 0.731469303
520296880.0 0.456232678 -0.7225761823 0.0001366669 -8.14182e-05 9.71499e-05 7.63867e-05 -0.4148722574 0.7356506334
525296850.0 0.4488938686 -0.7270926498 5.35561e-05 3.19011e-05 0.0001908825 4.50511e-05 -0.4081528357 0.7396889524
530296820.0 0.4421178839 -0.7316035685 0.0001448192 2.49197e-05 0.0001189515 0.0001948837 -0.4008193394 0.7435426936
535296790.0 0.4348879747 -0.735830192 0.0001823231 0.0001533285 7.1766e-06 -0.000151347 -0.3930218636 0.7483202391
540296760.0 0.4285946636 -0.7395360615 -7.17948e-05 -0.0002377695 8.67413e-05 4.8143e-05 -0.385214506 0.7509841113
545296730.0 0.4199731287 -0.7438263369 3.33348e-05 -0.0001659675 -1.94431e-05 -0.0001284842 -0.377450186 0.7551547249
550296700.0 0.412772855 -0.7473973391 -0.0001059013 0.0001181716 -2.50609e-05 2.16855e-05 -0.3702624998 0.75934719
555296670.0 0.4058537628 -0.751563498 -8.33738e-05 4.56621e-05 -6.70546e-05 -5.80917e-05 -0.362978202 0.7622050557
560296640.0 0.3988996196 -0.7548712335 9.30683e-05 -8.36177e-05 0.0002725401 0.0002054519 -0.3544830313 0.7665494748
565296610.0 0.3911657413 -0.7593032192 8.69016e-05 9.21107e-05 -5.15083e-05 -0.0001839214 -0.346885146 0.7697405474
570296580.0 0.3842114406 -0.7627788574 6.74044e-05 -2.18537e-05 -6.976e-07 2.70755e-05 -0.3387598917 0.7727621409
575296550.0 0.3765628319 -0.7662761659 -0.000108923 -0.0001081159 6.33489e-05 1.9907e-05 -0.3308654667 0.7764868552
580296520.0 0.3691861922 -0.7695763318 -0.0001775872 8.7671e-06 0.0001022998 -3.4612e-06 -0.323938472 0.7799883418
585296490.0 0.3623424611 -0.772945307 -0.0001463097 0.000118253 0.0001646409 -0.0001749946 -0.3152520316 0.7835600719
590296460.0 0.3540758535 -0.7761677865 -5.06935e-05 5.94927e-05 3.79701e-05 0.000114248 -0.3077767361 0.7857594059
595296430.0 0.3463340782 -0.7797935961 -1.54633e-05 7.29481e-05 -7.6594e-06 -2.73604e-05 -0.2999266109 0.7895383779
600296400.0 0.3390669548 -0.7830077135 -1.20906e-05 5.18005e-05 0.0001203703 7.75454e-05 -0.2914609572 0.7921566259
605296370.0 0.3305171173 -0.7861516935 6.79941e-05 0.0001183372 -0.0001297544 -0.0001165043 -0.2833418902 0.7950325075
610296340.0 0.3237529647 -0.7897368239 0.0002752051 -2.29357e-05 -5.84312e-05 -0.0001264762 -0.2759623782 0.7975528576
615296310.0 0.3163255547 -0.792250443 8.5585e-05 0.000190827 -4.79364e-05 -1.45212e-05 -0.2671652089 0.8006282658
620296280.0 0.3076899143 -0.7949454462 8.17726e-05 -8.12005e-05 -1.4876e-05 0.0001673915 -0.2600332024 0.8034733416
625296250.0 0.3001022475 -0.7981741474 0.0001485472 -0.0001420493 -0.0001146841 -5.01421e-05 -0.2517486521 0.8050346935
630296220.0 0.2919464458 -0.8007477765 0.0001468887 -0.0001040247 3.01438e-05 0.0001626235 -0.243546421 0.8085053837
635296190.0 0.2838943262 -0.8028840805 0.000129011 -4.4025e-05 3.84547e-05 -9.37856e-05 -0.2352955718 0.8100661933
640296160.0 0.2760331458 -0.8059185743 2.2632e-06 5.35304e-05 9.50533e-05 -0.0001292929 -0.2271962216 0.8125781163
645296130.0 0.2690476395 -0.8083099246 5.17543e-05 0.0001225822 -8.1992e-06 -4.836e-05 -0.2194268025 0.8144610254
650296100.0 0.2601963271 -0.8101269745 -1.58436e-05 -0.0001192553 -2.3664e-05 -4.50584e-05 -0.210313482 0.8166419617
655296070.0 0.252471793 -0.8128401809 -2.516e-07 0.0001338458 0.0001517885 -4.90826e-05 -0.2035416597 0.8191533921
660296040.0 0.243972545 -0.8150372191 0.0003036039 0.0001125157 0.0001280827 6.0922e-06 -0.1942299832 0.8211521603
665296010.0 0.2361090644 -0.8176485818 -8.3187e-05 0.0001302233 -0.0001184968 -3.78886e-05 -0.1862348489 0.8223836895
670295980.0 0.2277423612 -0.8192658617 3.25904e-05 5.17408e-05 -3.69828e-05 -1.73571e-05 -0.1787114961 0.8244489009
675295950.0 0.2195786225 -0.821760854 -9.33198e-05 -0.0001247041 -3.57281e-05 -0.0001055151 -0.169610785 0.8266742882
680295920.0 0.2113756792 -0.823123219 -1.58812e-05 -0.00030865 8.51692e-05 9.273e-06 -0.1613137867 0.8279005941
685295890.0 0.203525643 -0.8245622373 6.18774e-05 -4.22399e-05 -7.29147e-05 -0.0001049639 -0.1537696827 0.8296111922
690295860.0 0.1951312327 -0.8267698828 8.18771e-05 -5.71704e-05 6.25702e-05 -9.8721e-05 -0.1451019935 0.8310486212
695295830.0 0.1864368798 -0.828897323 -0.0001744464 -0.0001346638 4.92562e-05 9.25197e-05 -0.13705239 0.8332072896
700295800.0 0.1788021803 -0.8298063533 -8.26309e-05 1.36867e-05 0.0001520578 8.90668e-05 -0.1281392997 0.833563794
705295770.0 0.1702079674 -0.8311414691 7.90721e-05 -7.5512e-06 -8.36955e-05 0.000107627 -0.120604868 0.8356572521
710295740.0 0.1620028183 -0.8324051775 1.13014e-05 7.31803e-05 0.0001221676 -3.2046e-05 -0.1116797615 0.8358879296
715295710.0 0.153918392 -0.8336997379 5.5214e-05 4.5085e-05 -9.953e-07 -4.27056e-05 -0.1028046467 0.8366832259
720295680.0 0.1453356713 -0.8354353894 0.0001692367 0.0003038623 0.0002528596 -2.14457e-05 -0.0942653657 0.8372732212
725295650.0 0.136866292 -0.8358638032 0.0001060241 -0.0001835417 -0.0001456637 0.0001654158 -0.0868221696 0.8393336348
730295620.0 0.1285026645 -0.8375469037 -4.182e-05 -0.0002098814 -0.0001112368 -4.24511e-05 -0.0788095856 0.840190659
735295590.0 0.120072527 -0.8387969604 9.54219e-05 -0.0001542431 3.15639e-05 -0.0001136061 -0.0697285507 0.8402968334
740295560.0 0.1118439201 -0.8398254655 -0.0001117576 -0.0001460956 3.05134e-05 0.0001084781 -0.0614241434 0.8410924579
745295530.0 0.1032856899 -0.8402070718 -8.81792e-05 0.0001056268 5.4798e-05 2.79897e-05 -0.0532545675 0.841595492
750295500.0 0.0947901845 -0.8414466003 -0.0001235645 -7.17278e-05 7.15402e-05 -4.69244e-05 -0.0449868341 0.8423109039
755295470.0 0.086719473 -0.8414894097 9.80739e-05 -9.29365e-05 -2.58935e-05 -7.37381e-05 -0.0366675924 0.8430201533
760295440.0 0.0783324808 -0.841498613 -0.0002153876 -1.94653e-05 -0.0001521578 -1.81167e-05 -0.0279328741 0.8428992316
765295410.0 0.0699218074 -0.8424139074 3.792e-06 9.6956e-06 -6.22027e-05 4.96531e-05 -0.0196980892 0.8434319615
770295380.0 0.0610320774 -0.8420527767 -3.06826e-05 5.1758e-05 -7.65546e-05 -0.0001181013 -0.0114652313 0.8436649523
775295350.0 0.0529073935 -0.8423822732 0.0002910824 -3.23264e-05 4.65648e-05 -4.17945e-05 -0.0031645093 0.8429728704
780295320.0 0.0445902881 -0.843313459 0.0001560301 3.2748e-05 -2.67109e-05 5.84742e-05 0.0054822043 0.8434374891
785295290.0 0.0362266074 -0.8431429061 -8.57854e-05 -0.0001169 -2.41913e-05 5.26784e-05 0.013133037 0.8432439434
790295260.0 0.0284076456 -0.843895382 -2.14622e-05 -0.0002448252 1.055e-06 -4.16982e-05 0.0216847836 0.8435054136
795295230.0 0.0196492674 -0.8435878851 2.20173e-05 4.7833e-06 2.3217e-05 -2.64693e-05 0.0301528794 0.8423234913
800295200.0 0.0112206072 -0.8441027333 8.95953e-05 9.29947e-05 -6.36353e-05 -2.0692e-06 0.0387754873 0.8424136719
805295170.0 0.0029018052 -0.8433581781 5.0919e-06 1.75573e-05 -2.1282e-06 -3.47722e-05 0.0472813432 0.8417515657
810295140.0 -0.0059395964 -0.8425491137 1.72516e-05 -6.05509e-05 -4.41784e-05 6.55028e-05 0.0558593452 0.8411218224
815295110.0 -0.0142730066 -0.8432210074 -2.15109e-05 -8.84192e-05 -4.07538e-05 -2.7092e-06 0.0633669085 0.8407638738
820295080.0 -0.0228027532 -0.8421450922 -9.3869e-05 -0.0001938232 0.0001169185 -9.14041e-05 0.0714979658 0.8403965036
825295050.0 -0.0317326922 -0.8425781646 2.6116e-05 0.0001164958 -0.0002858977 1.99492e-05 0.0802219721 0.8394735906
830295020.0 -0.0388512171 -0.8415457691 1.19051e-05 -0.0001391081 0.0001314214 -7.65163e-05 0.0879360323 0.8380163675
835294990.0 -0.0473955884 -0.8412134081 -8.99451e-05 -0.0002080698 -1.7814e-06 3.42851e-05 0.0963558585 0.8382107253
840294960.0 -0.0557325708 -0.8406647857 8.02652e-05 2.45107e-05 -0.0001870617 -9.44781e-05 0.1053944423 0.8365440013
845294930.0 -0.0642772316 -0.8393206291 -4.00191e-05 -2.89064e-05 0.0001070556 8.38406e-05 0.1133476778 0.8353980595
850294900.0 -0.0717235087 -0.8384460863 -6.14617e-05 5.09337e-05 -0.000173405 6.33739e-05 0.1214962656 0.8343604193
