!Created with skrf (http://scikit-rf.org).
# Hz S RI R 50.0 
!freq ReS11 ImS11 ReS21 ImS21 ReS12 ImS12 ReS22 ImS22
300000.0 -0.7770771124 -0.1488190006 -0.0012467213 0.0005106531 -0.0012907281 0.0001828272 -0.2125488517 -0.0926319808
5299970.0 -0.7856070086 -0.0077297599 -5.30944e-05 0.0001547358 0.0001623086 -7.21556e-05 -0.2164484894 0.0067605318
10299940.0 -0.7876367732 -0.0039433123 -4.28843e-05 0.0001204294 -4.67492e-05 4.03745e-05 -0.2135599565 0.0185535453
15299910.0 -0.7931992166 -0.001838484 0.0001210507 -0.0002281881 7.58309e-05 -0.0001193848 -0.2085218097 0.0278595906
20299880.0 -0.7991351634 0.0024452288 7.58995e-05 5.67112e-05 7.55647e-05 -1.5709e-06 -0.2030480788 0.0357509328
25299850.0 -0.8063109659 0.0079073075 1.4746e-06 -5.18097e-05 8.60266e-05 -9.0327e-06 -0.197410265 0.0414589663
30299820.0 -0.8119351358 0.0166208379 -8.04294e-05 -4.45316e-05 -4.80173e-05 6.87299e-05 -0.1920251857 0.0463596261
35299790.0 -0.816989781 0.0249179817 -0.0001624149 -6.2333e-06 -4.65297e-05 0.0001265547 -0.1860164372 0.0501351936
40299760.0 -0.8212644407 0.0338947929 6.82585e-05 0.0001069784 7.37246e-05 -9.5386e-06 -0.1804925155 0.0527124978
45299730.0 -0.8246432892 0.0446169764 0.0003081747 -1.33491e-05 -3.83364e-05 -6.16736e-05 -0.1756867185 0.0551866496
50299700.0 -0.8269020321 0.0537992592 0.0002419719 -3.90399e-05 9.85462e-05 0.0001265533 -0.1703512975 0.0565719242
55299670.0 -0.8286349825 0.0641765616 -8.7068e-05 0.0001650899 -1.96896e-05 -6.35269e-05 -0.1666333323 0.0578177894
60299640.0 -0.8301304914 0.0742456852 0.0001236192 3.38079e-05 9.29464e-05 0.0001666065 -0.1620384384 0.0584297593
65299610.0 -0.8309265614 0.0844622247 0.0001196581 -5.1029e-05 0.0001709759 0.0001033055 -0.158609725 0.0590357953
70299580.0 -0.8312118602 0.0943895067 -3.35751e-05 8.43983e-05 -0.0001334286 0.0001614065 -0.1555273628 0.0593006469
75299550.0 -0.831210877 0.1046774298 -0.0002461504 -4.72903e-05 0.0001027041 0.000178878 -0.152648305 0.0595618425
80299520.0 -0.8308407206 0.1145611013 4.788e-05 -3.96734e-05 -5.68645e-05 6.5863e-06 -0.1502804131 0.0594105004
85299490.0 -0.8301192187 0.12417212 0.0001071973 9.75703e-05 3.42888e-05 -5.09825e-05 -0.1476630091 0.059298351
90299460.0 -0.8295837396 0.133663524 0.0001348642 -0.0001408426 0.0001149801 -7.76974e-05 -0.1452677216 0.0595046749
95299430.0 -0.8283625682 0.1434393777 8.44666e-05 -8.88453e-05 0.0002028445 0.0002015319 -0.1432741655 0.0595825396
100299400.0 -0.8280482531 0.1528679149 1.6167e-06 -5.61366e-05 0.0001319698 -9.23519e-05 -0.1417424607 0.0594387429
105299370.0 -0.8263816903 0.1619011312 8.60322e-05 -6.65125e-05 -2.24687e-05 6.24041e-05 -0.1398838484 0.0592967344
110299340.0 -0.8248931367 0.1710637652 6.10498e-05 -9.92533e-05 1.176e-06 -9.91217e-05 -0.1385924167 0.0592814465
115299310.0 -0.8239483267 0.1807462917 -0.0001450161 7.7836e-06 6.06411e-05 0.0001062624 -0.1370004969 0.0591320761
120299280.0 -0.8217119894 0.1897365538 0.0001852803 9.14066e-05 -6.74715e-05 0.0001644188 -0.1362188548 0.0594655373
125299250.0 -0.8205320577 0.1981332102 6.258e-07 0.0001167322 2.3598e-06 0.0001874822 -0.1347423761 0.0592987055
130299220.0 -0.81841947 0.2075483243 2.58887e-05 -2.71136e-05 9.45828e-05 2.22491e-05 -0.1341183624 0.0595492656
135299190.0 -0.8168498376 0.2162415462 4.81792e-05 -3.11564e-05 -0.0001626525 9.36712e-05 -0.1331509514 0.0595617281
140299160.0 -0.8146234281 0.2256913059 -3.6628e-06 0.0002809971 -3.1252e-06 0.0001321709 -0.1319113533 0.0596289741
145299130.0 -0.8124625257 0.234294515 5.17274e-05 -3.72809e-05 0.0001304031 0.0001327259 -0.131572751 0.0603094794
150299100.0 -0.8100211046 0.2430644882 -1.32001e-05 2.60097e-05 8.37575e-05 3.6152e-06 -0.1308808851 0.0604625684
155299070.0 -0.8078283322 0.2524697753 5.18013e-05 0.0001112605 0.0001774594 -7.78108e-05 -0.1301206564 0.0608577807
160299040.0 -0.8048011761 0.2611526668 0.0001115028 0.0002255957 -0.0001045736 0.0002925967 -0.1296596916 0.0614135883
165299010.0 -0.8021424573 0.2691105754 -1.32506e-05 0.0001134957 9.26831e-05 7.89639e-05 -0.1290634516 0.061615011
170298980.0 -0.799467367 0.2779631641 -3.53625e-05 0.000104769 -1.5736e-06 1.43845e-05 -0.1282130337 0.0624514053
175298950.0 -0.7963936304 0.2870526846 3.8731e-06 7.89449e-05 5.78412e-05 -6.17573e-05 -0.1277171243 0.0625848147
180298920.0 -0.7933273904 0.2948292279 -2.6875e-05 5.51535e-05 0.0001175408 -9.20088e-05 -0.1268564433 0.0633635908
185298890.0 -0.7901287154 0.3043487231 -0.0001296908 -9.04661e-05 0.0001926843 5.11889e-05 -0.1268213833 0.0638642649
190298860.0 -0.7872471254 0.3123584576 0.0001254521 0.0001692249 5.16638e-05 5.37004e-05 -0.1259482646 0.0643370358
195298830.0 -0.7843078695 0.3207058253 -0.0001419777 3.50593e-05 0.0002184176 7.08238e-05 -0.125627874 0.0650364957
200298800.0 -0.7807441519 0.3296130113 3.22931e-05 -0.000118589 0.0001192949 0.0001401547 -0.1250089704 0.0656402159
205298770.0 -0.7772253557 0.3373925947 -6.4136e-05 0.0001232058 0.0002007021 -4.90476e-05 -0.1246320307 0.0665064803
210298740.0 -0.773691462 0.3459500595 9.92671e-05 0.0001355582 4.11212e-05 -7.97209e-05 -0.124171457 0.0670853075
215298710.0 -0.7704051525 0.3541082561 -7.07716e-05 0.0001728637 0.0001346401 9.07066e-05 -0.1239389574 0.0680835664
220298680.0 -0.7666580351 0.3622592121 -5.7287e-06 1.11746e-05 0.0002211829 0.0002150153 -0.1231240883 0.0688771726
225298650.0 -0.7624482469 0.3707710784 0.0001304374 9.18028e-05 8.79393e-05 -0.0001765675 -0.1229893713 0.0698434111
230298620.0 -0.7588087009 0.3787586874 -0.0001103667 0.000116658 0.0001442233 0.0001896718 -0.1221275539 0.0705547328
235298590.0 -0.7544215707 0.3871804095 -4.56559e-05 -6.17541e-05 0.000301513 -5.6379e-06 -0.1217687438 0.071185843
240298560.0 -0.7512705525 0.3952093341 0.0001897005 2.57012e-05 0.0001162781 0.0001996667 -0.1213159257 0.0723104882
245298530.0 -0.7464083197 0.4031932345 0.0002765395 0.0001481633 -0.000136793 0.0001697075 -0.1204485535 0.0730830807
250298500.0 -0.7424484218 0.4108155851 0.0002006486 0.0001134466 8.82329e-05 7.37609e-05 -0.1199089147 0.0744723666
255298470.0 -0.7376192505 0.4184597864 0.0001350473 2.81783e-05 4.15746e-05 0.0002068925 -0.1197427269 0.0748607525
260298440.0 -0.7337105886 0.4260720436 -1.83086e-05 9.96119e-05 0.000261157 0.000113647 -0.1192459249 0.0759593082
265298410.0 -0.7291990904 0.4338614607 0.0001442975 -0.0002477038 1.47699e-05 0.0001297426 -0.1185052228 0.0767191543
270298380.0 -0.7245252117 0.4417700004 0.0002501241 6.3112e-05 0.0001472805 -5.80709e-05 -0.1178677201 0.0776580589
275298350.0 -0.7191200571 0.4488607857 2.6942e-05 5.08367e-05 0.00015528 0.0001593274 -0.1171486892 0.0788607266
280298320.0 -0.7149200289 0.4564662764 0.0001506164 0.0002368949 0.0001013699 3.2671e-05 -0.1166494425 0.0798523918
285298290.0 -0.7101500755 0.4642810424 1.75252e-05 5.62255e-05 9.28104e-05 8.01603e-05 -0.1160585942 0.0810628774
290298260.0 -0.7056903334 0.4716630096 0.0002701018 0.0001488189 8.38971e-05 0.0001260839 -0.1151746869 0.0822319701
295298230.0 -0.7007031958 0.4795800458 0.0001120319 -0.0001405301 9.73692e-05 0.0001991659 -0.1147913223 0.0831343947
300298200.0 -0.6947292121 0.4867502144 0.0001699965 0.0001024582 8.19078e-05 0.0001527633 -0.1139471542 0.0840797233
305298170.0 -0.6904895174 0.4939069647 -2.61031e-05 -6.86038e-05 5.24278e-05 -9.39335e-05 -0.1132463911 0.0851137912
310298140.0 -0.684469274 0.5008387404 5.32597e-05 0.0001312698 0.0001469768 5.31319e-05 -0.1125699846 0.0864421821
315298110.0 -0.6795095321 0.5075797627 5.80741e-05 8.88953e-05 0.0001435537 1.98458e-05 -0.1115669028 0.0874968428
320298080.0 -0.6740769496 0.5157474757 0.000184655 5.53536e-05 5.56796e-05 0.0001873102 -0.1111468753 0.08820783
325298050.0 -0.6685787746 0.5227834331 9.97606e-05 -2.86354e-05 0.0003098867 0.0002721748 -0.1104577724 0.0892384571
330298020.0 -0.6626593268 0.5290153904 0.0001404586 -5.57901e-05 0.0001201972 8.77408e-05 -0.1098814323 0.0903016936
335297990.0 -0.657113415 0.5363868119 -0.0002313192 9.72606e-05 0.0001094573 6.01745e-05 -0.1094668138 0.0912231948
340297960.0 -0.6521182567 0.5423497334 0.000121455 0.0001190607 0.0001797755 6.417e-06 -0.108698721 0.0924203484
345297930.0 -0.6460903952 0.548759826 2.44289e-05 0.0001789444 0.0001904231 -2.00891e-05 -0.1081457031 0.0934120791
350297900.0 -0.6400774347 0.555903721 0.0002293321 0.0002016988 0.0001863329 -1.19185e-05 -0.1070310085 0.0949164051
355297870.0 -0.6344881534 0.5623412641 0.0001032522 0.000378586 9.3303e-05 0.000137446 -0.1066516204 0.0961403664
360297840.0 -0.6281455701 0.5691587344 4.0667e-05 -3.04476e-05 0.0003261432 0.0001304047 -0.10582343 0.0974249008
365297810.0 -0.6219552025 0.5754088629 -0.0001978016 4.3211e-05 9.78825e-05 -3.85909e-05 -0.1050974319 0.0982458775
370297780.0 -0.6162775708 0.581429037 0.0001844022 0.0002471447 0.0002124406 0.0002667061 -0.1044900467 0.0992506175
375297750.0 -0.6100254481 0.5885181976 7.45683e-05 -8.05903e-05 0.0001738155 7.36207e-05 -0.1038534938 0.1006337954
380297720.0 -0.6041568015 0.5950274575 0.0001187553 6.94063e-05 0.0001287157 5.67901e-05 -0.1029021698 0.1020760301
385297690.0 -0.5979911475 0.6007773183 2.71441e-05 0.0001390433 0.0001960829 2.37138e-05 -0.1018010736 0.1034809641
390297660.0 -0.5913379243 0.6069541811 0.0001356111 0.000266793 8.84491e-05 -8.37383e-05 -0.1010842198 0.1039844059
395297630.0 -0.5848406295 0.6134105891 0.0001476624 3.03998e-05 0.0001872248 0.0001447401 -0.1002888392 0.1055125825
400297600.0 -0.5785420635 0.6191734861 0.0002273015 0.0001911277 6.85244e-05 0.0001320849 -0.0995895757 0.1065699759
405297570.0 -0.5726484978 0.6246683664 1.85553e-05 6.78673e-05 -3.1778e-05 -3.47503e-05 -0.0986417417 0.1079457399
410297540.0 -0.5657102806 0.6303571812 0.0002114812 5.78934e-05 0.0001463513 5.65152e-05 -0.0977220807 0.1091371043
415297510.0 -0.5593765818 0.6361862143 8.4025e-05 5.99377e-05 0.0001252406 3.32218e-05 -0.0969148572 0.1101990399
420297480.0 -0.5516908848 0.6424752722 0.0002392929 0.0001238609 0.0002749567 -6.99207e-05 -0.0959871207 0.1111251644
425297450.0 -0.5457680807 0.6477006222 0.0002935172 4.38932e-05 0.0002765257 0.000148349 -0.094756108 0.1122684848
430297420.0 -0.5397880878 0.6530047668 0.0001661456 0.0002503059 0.000206242 0.0001489331 -0.0940342873 0.1133558686
435297390.0 -0.5322316839 0.6591836653 0.0001202637 2.6534e-05 0.0002603328 6.05834e-05 -0.0931253497 0.1144668243
440297360.0 -0.5259412326 0.6642086152 9.12433e-05 0.000100822 -2.82699e-05 0.0001586547 -0.0922660483 0.1155366651
445297330.0 -0.5185898523 0.6697293439 0.0002173519 0.0001790053 0.0002284999 0.0001746231 -0.0913941199 0.1168382738
450297300.0 -0.5115184112 0.6743093052 8.09987e-05 -6.55946e-05 0.0002408005 2.51945e-05 -0.0905172942 0.1178587547
455297270.0 -0.5045254174 0.6801942562 0.0001239256 0.000144247 0.0001475386 0.0001096759 -0.0893427931 0.1189629949
460297240.0 -0.4978221409 0.6854922124 0.000149525 7.78697e-05 0.0001199194 6.47908e-05 -0.0883040446 0.1200162489
465297210.0 -0.4898173148 0.6896533567 0.0001639329 0.0003127026 9.93629e-05 5.39621e-05 -0.0874973028 0.1209308625
470297180.0 -0.4837581445 0.6947983162 0.0002279185 0.0001126053 0.0002888637 5.41633e-05 -0.0869277614 0.1221024797
475297150.0 -0.4758352709 0.6999909397 0.0002743539 -4.97446e-05 8.06293e-05 0.0002057244 -0.0854378651 0.1231606346
480297120.0 -0.4691319835 0.7044708115 7.08139e-05 -4.57684e-05 0.0001437637 6.29875e-05 -0.0844091798 0.1244153366
485297090.0 -0.4611951684 0.7089620565 9.85673e-05 1.86486e-05 0.0001376648 0.0001241516 -0.0837114187 0.1253184559
490297060.0 -0.453974018 0.713934443 0.0003165357 0.0001123191 6.45289e-05 0.000109793 -0.0826095407 0.1263175446
495297030.0 -0.4471733062 0.7183521411 0.000156852 3.07624e-05 0.0002119384 6.78124e-05 -0.0813127455 0.1269181554
500297000.0 -0.4387389044 0.7229633335 0.0002333607 2.13175e-05 3.78902e-05 0.0001009554 -0.0807008268 0.1280593728
505296970.0 -0.4318743206 0.7267156086 0.000212707 0.0001186294 0.0003403177 4.33229e-05 -0.0797995017 0.1291330139
510296940.0 -0.4245717003 0.7322148489 0.000540444 0.0002243279 0.0002534156 -2.33114e-05 -0.0783023272 0.1301142303
515296910.0 -0.4164943583 0.7363670482 0.0001610532 3.06641e-05 9.10816e-05 3.36894e-05 -0.0771001457 0.1310519982
520296880.0 -0.4094066786 0.7401266797 0.0003048517 4.02206e-05 0.000409288 -8.8513e-05 -0.0762357286 0.1320141158
525296850.0 -0.4018601704 0.7448990221 0.0003294306 0.0001992877 0.0002604282 -0.0002521132 -0.0748460881 0.1330085754
530296820.0 -0.3940771971 0.7476676173 0.0001119861 7.21962e-05 8.54546e-05 6.26127e-05 -0.0744206969 0.133850969
535296790.0 -0.3860196379 0.7517482215 0.0002610178 -5.7321e-05 0.0003664176 -4.22638e-05 -0.0729936347 0.1344304452
540296760.0 -0.3784313563 0.7561885373 0.0001559816 9.3687e-05 0.0003530557 -8.60145e-05 -0.0717099771 0.1357472844
545296730.0 -0.3714481319 0.759682917 0.000241117 -5.88369e-05 0.0003315055 1.9165e-05 -0.0708330571 0.1365102139
550296700.0 -0.3635027439 0.764077537 0.0002482762 3.89206e-05 0.0002813428 -9.58591e-05 -0.0696379553 0.1371809436
555296670.0 -0.3545623029 0.7664123783 9.37538e-05 0.0001211798 0.0001233772 0.0001133316 -0.0683821487 0.1384365436
560296640.0 -0.3471209186 0.7704373481 0.0003387245 -6.84985e-05 0.000103482 6.30681e-05 -0.0670786162 0.1391398782
565296610.0 -0.3396274156 0.773906055 7.77541e-05 8.80533e-05 0.0003433391 5.68214e-05 -0.0661879154 0.1399760393
570296580.0 -0.3317935993 0.7768704607 0.0002881438 0.0001806469 0.0001691474 -4.51332e-05 -0.0647525488 0.1408509133
575296550.0 -0.323861491 0.7803275022 0.0003886546 3.51628e-05 0.0003283144 0.0002798684 -0.0635218799 0.1415320411
580296520.0 -0.316005583 0.7837994708 0.0002040283 0.0001124296 0.0001187402 0.0002334146 -0.0621909104 0.1425117442
585296490.0 -0.3083684598 0.7865364051 0.0003407908 -9.27317e-05 1.18644e-05 9.25661e-05 -0.0610908006 0.1428300999
590296460.0 -0.2996713536 0.7897004811 0.0003971799 6.80569e-05 0.0001498812 -0.0002231008 -0.0598573902 0.1437103296
595296430.0 -0.291550815 0.7930619678 0.000371904 6.24528e-05 0.0002836247 5.33761e-05 -0.0589131702 0.1446723474
600296400.0 -0.2837185409 0.795711347 0.0004124341 -0.0001264244 0.0003359935 0.0003233071 -0.0570467151 0.1453907019
605296370.0 -0.2756564946 0.7989520523 0.0002411149 -2.61178e-05 0.000271507 0.0001822336 -0.0560566353 0.1463413351
610296340.0 -0.2675217924 0.8014935534 0.0001727007 4.00227e-05 0.0001093324 7.51091e-05 -0.0548372859 0.1469297101
615296310.0 -0.2596146493 0.8040232347 0.0001773383 0.0001097174 0.0001919139 0.0002130615 -0.0535929709 0.1477922812
620296280.0 -0.2508391419 0.8058418058 -3.31115e-05 6.39763e-05 0.0001907921 0.0001109409 -0.0525835085 0.1480921158
625296250.0 -0.2430380138 0.8086846172 0.000242543 1.79491e-05 0.0002858786 5.21267e-05 -0.05096699 0.149100725
630296220.0 -0.2341115322 0.811893562 0.0003358315 0.0001071685 0.00026655 0.0001281478 -0.0493919867 0.1498318825
635296190.0 -0.2261354198 0.8133222968 0.0003511334 0.0001885284 0.0003032882 0.0003216262 -0.0486138357 0.1503268346
640296160.0 -0.2181868808 0.8150741707 0.0002034492 -6.20391e-05 7.24355e-05 -7.89193e-05 -0.0469909137 0.1507516225
645296130.0 -0.2102515123 0.8176717084 9.56217e-05 1.22336e-05 0.0002755372 -0.0001070777 -0.045660685 0.1514333479
650296100.0 -0.2018359863 0.8202040142 0.0002761303 -0.0001500337 0.0003044007 7.7522e-05 -0.0443034258 0.1522579841
655296070.0 -0.1931919611 0.821363758 9.6075e-05 2.9233e-05 0.0003465045 2.00197e-05 -0.0428741088 0.1528005499
660296040.0 -0.1853692642 0.8241982146 0.0003582101 5.1373e-06 0.0001117525 2.13212e-05 -0.0415726288 0.1534398942
665296010.0 -0.1769551294 0.8259499427 0.0003479513 -4.35208e-05 0.0002051676 6.3633e-05 -0.0402665627 0.1541269637
670295980.0 -0.167688071 0.8273778041 0.0003057723 0.0002258889 0.0002096625 0.0001821675 -0.0389709638 0.1547264872
675295950.0 -0.1604357601 0.8286500768 0.0001700841 -4.59332e-05 0.000110169 0.000111328 -0.0377204209 0.1552957892
680295920.0 -0.1518452868 0.8306167025 0.0002925357 -0.0003469824 0.0002515179 -5.3e-07 -0.0361046297 0.1557362307
685295890.0 -0.1429360741 0.8320811021 0.0002053432 0.0001362798 0.0003079261 -0.0001118861 -0.0348599735 0.1563783223
690295860.0 -0.1344872234 0.8336884961 0.0001468297 6.22565e-05 0.0001344008 -1.1187e-05 -0.0331440271 0.1568436285
695295830.0 -0.1265310696 0.8341586445 0.0003635716 -0.0002209224 0.0005957732 1.75536e-05 -0.0321110253 0.1572515176
700295800.0 -0.1181153679 0.8355059841 0.0003014385 7.85084e-05 0.0002671198 -6.44742e-05 -0.0301860047 0.1576565173
705295770.0 -0.1095706926 0.8371791767 0.0002697934 -7.50792e-05 0.0002945057 9.87374e-05 -0.0292762027 0.1582891718
710295740.0 -0.101322919 0.8382377523 0.0003367876 -7.38356e-05 0.0002040253 1.63912e-05 -0.0277722439 0.1587826063
715295710.0 -0.0932835019 0.8388790092 0.0003671047 7.13968e-05 0.0001125445 -3.68542e-05 -0.0262428718 0.1594640923
720295680.0 -0.0846451938 0.8395738041 0.0002605137 -4.3723e-06 6.13416e-05 5.19221e-05 -0.0242963459 0.1599122359
725295650.0 -0.0757558614 0.8408858606 0.0001310744 -8.3005e-06 0.0003998839 -2.24335e-05 -0.0229772658 0.1599978192
730295620.0 -0.0674129405 0.8412154896 0.0001790919 -8.79e-05 0.0003880451 0.0001402454 -0.0218301395 0.1605369377
735295590.0 -0.0588489179 0.8417480663 0.0002477603 -3.59958e-05 0.0003670096 7.73779e-05 -0.0202216524 0.1606481155
740295560.0 -0.0503575259 0.8425505374 0.0003165686 -0.0001070861 0.000345091 -0.0001048007 -0.0189321137 0.1610592676
745295530.0 -0.042081819 0.8424340635 0.0004306047 -0.0001097668 0.000354164 -4.67622e-05 -0.0173193349 0.1619139059
750295500.0 -0.0336518166 0.842922306 0.0003804078 4.64823e-05 0.0002643166 -9.58527e-05 -0.0162465922 0.161748217
755295470.0 -0.0245371206 0.8437740154 0.0002983924 -6.54738e-05 0.0001890478 -0.0001156288 -0.01447903 0.1627296671
760295440.0 -0.0159134218 0.8432837083 0.0003082206 -4.81224e-05 0.0004732045 1.72586e-05 -0.0132644534 0.1627972189
765295410.0 -0.0081741498 0.8433831747 0.0004308372 0.0001195837 0.0002148516 -0.0001201301 -0.0112601952 0.1633246046
770295380.0 -0.0002765757 0.8438364356 0.0003619271 -3.72936e-05 0.0002582198 0.0001218301 -0.0096885942 0.1635158445
775295350.0 0.0088012116 0.8438931834 0.0002314735 -9.49922e-05 0.0001269528 -0.000130476 -0.0087133048 0.1636750882
780295320.0 0.0178998628 0.8431294787 0.0002466941 -3.53612e-05 0.000260342 -5.90436e-05 -0.0070898728 0.1646392696
785295290.0 0.0257743662 0.8439720832 0.0001902795 -6.48304e-05 0.0003530967 0.0001115947 -0.0054696409 0.1647265851
790295260.0 0.0342690215 0.8426726562 0.0005966466 -9.75682e-05 0.0002475425 5.45744e-05 -0.0038899984 0.164883441
795295230.0 0.042384038 0.8431657671 0.0003237751 -0.0001691468 0.000190734 1.38075e-05 -0.0022066185 0.165335911
800295200.0 0.0512761962 0.8426508155 0.0002786244 5.50208e-05 0.0003039718 -0.000183055 -0.0008479904 0.1651679738
805295170.0 0.0596709543 0.8419333451 0.0002874205 -0.0001601746 9.04708e-05 -0.0001459831 0.0003928479 0.1655368677
810295140.0 0.0679257888 0.8408455516 0.0002624647 -0.0001881307 0.0002951922 -0.0001351525 0.0022581567 0.1660995096
815295110.0 0.0766013986 0.8398859765 0.0001455285 -9.04582e-05 0.0001328175 -0.0001447353 0.0035652674 0.1661363347
820295080.0 0.0845664437 0.8391173745 0.0003521305 9.55942e-05 0.0002875633 -3.35226e-05 0.004928797 0.1661183311
825295050.0 0.0931230842 0.8384975884 0.0004935167 -0.0001585321 0.0003762388 -6.5999e-05 0.0067536526 0.1661671277
830295020.0 0.102024659 0.8376015782 0.0005793121 -0.0001733464 0.000522017 -6.80855e-05 0.0081179193 0.1666102766
835294990.0 0.1099609025 0.8367515629 0.0001817201 -0.0001476655 0.0005034061 3.1991e-06 0.0096894925 0.1665464353
840294960.0 0.1184182989 0.8351273206 0.0002466104 -0.0001087579 0.000188031 -0.0002540002 0.0112858554 0.166971978
845294930.0 0.1266961348 0.8344716936 0.0003524711 -1.82882e-05 0.0003744081 -0.0002228507 0.0129061882 0.1669919488
850294900.0 0.1347833959 0.832792706 0.0004018707 -0.0001176922 0.0002999856 -0.0001379025 0.0142634219 0.1670484703
