!Created with skrf (http://scikit-rf.org).
# Hz S RI R 50.0 
!freq ReS11 ImS11 ReS21 ImS21 ReS12 ImS12 ReS22 ImS22
300000.0 -0.3190607081 -0.1291628512 0.3722275473 0.0635763545 0.3727362592 0.0647321647 -0.3155965667 -0.1282676484
5299970.0 -0.3248448372 0.0027064628 0.3783350471 0.003395186 0.3790386561 0.0035211475 -0.3257872389 0.0021377738
10299940.0 -0.3224213076 0.0142615771 0.3798285175 0.0028639641 0.3798428119 0.0031291747 -0.3232493062 0.0125334141
15299910.0 -0.3185985604 0.0224040319 0.381922425 0.0025954485 0.3823574159 0.002594728 -0.3207028199 0.0198779335
20299880.0 -0.3154725244 0.0290365131 0.3848131928 0.0017190043 0.3851941866 0.0018062526 -0.3177920992 0.0261513825
25299850.0 -0.3117886203 0.0348505863 0.3884957603 0.0004344586 0.3885085896 0.0002471938 -0.3146461899 0.0314730271
30299820.0 -0.3081291415 0.0394347905 0.3917777082 -0.0020631626 0.3920803822 -0.0024061202 -0.3116756711 0.0357979116
35299790.0 -0.3042987574 0.0434050948 0.3948585674 -0.0049058991 0.3955493404 -0.005126835 -0.3093725186 0.039975382
40299760.0 -0.3013162749 0.0468355167 0.3985908126 -0.0084118204 0.3985813418 -0.0086230059 -0.3065910533 0.0431864547
45299730.0 -0.2981165864 0.0498490678 0.4011095463 -0.0123053469 0.4017380078 -0.0124579375 -0.3040715199 0.0464201723
50299700.0 -0.2950763096 0.0527185559 0.4038486601 -0.0171231832 0.4039598635 -0.0171336245 -0.3012835318 0.0497535959
55299670.0 -0.2922599148 0.0551617314 0.4056119426 -0.0217372546 0.4060719787 -0.0217711089 -0.2993823486 0.0525500014
60299640.0 -0.2896552437 0.0580207666 0.4081435914 -0.0266992245 0.4078749501 -0.0266996644 -0.2968766884 0.054957898
65299610.0 -0.2873415849 0.0600376051 0.4098098845 -0.0316259263 0.4097612171 -0.0318626816 -0.2953205129 0.0575540992
70299580.0 -0.2853867157 0.0618700198 0.4107422286 -0.0364248622 0.4110858772 -0.0368205292 -0.2935935523 0.0599578986
75299550.0 -0.2835539435 0.0642603417 0.4117921976 -0.0420273512 0.4121330933 -0.0423108783 -0.2920192553 0.0625816092
80299520.0 -0.2818312902 0.0663573108 0.4128105509 -0.0470077631 0.4131650938 -0.0472513661 -0.2905914995 0.0649044196
85299490.0 -0.2796246794 0.068507501 0.4132454749 -0.0527462762 0.4135265985 -0.0525195987 -0.2891037271 0.0669942701
90299460.0 -0.2786069047 0.0708840667 0.4140998653 -0.057844132 0.4136293231 -0.0577034845 -0.2876709837 0.0692716724
95299430.0 -0.2768328226 0.0725458053 0.4143583784 -0.0632286298 0.4143677204 -0.0632194722 -0.2865800052 0.0718231025
100299400.0 -0.2753143167 0.074643548 0.413829376 -0.0684500002 0.4138649608 -0.0680304885 -0.2855054707 0.0741527888
105299370.0 -0.274028428 0.0766129562 0.413889966 -0.073566183 0.4143354047 -0.0733311484 -0.2838886128 0.0764201846
110299340.0 -0.2728860094 0.0787167977 0.4137526176 -0.0781902907 0.4139223029 -0.0786136193 -0.2831706042 0.078488911
115299310.0 -0.2718421821 0.0809847234 0.4135419315 -0.0835603071 0.413587126 -0.083793421 -0.2822208221 0.0812255839
120299280.0 -0.2703000596 0.0832033668 0.4131916076 -0.0891879013 0.4126536366 -0.0890633068 -0.2809956087 0.0834517049
125299250.0 -0.2694071976 0.0847402735 0.4125600125 -0.0936844192 0.4124215642 -0.0936214631 -0.2799250199 0.0861700371
130299220.0 -0.2682554738 0.0875393317 0.411836566 -0.0991106344 0.412075233 -0.0993437859 -0.2792030815 0.0882084566
135299190.0 -0.267252842 0.0898351952 0.4114178838 -0.1036204282 0.4113806394 -0.1041311883 -0.2781878741 0.0906601723
140299160.0 -0.2661092234 0.0922394399 0.4108463448 -0.1089959936 0.4104564602 -0.1086700985 -0.2776198477 0.0931536209
145299130.0 -0.2651632398 0.0944445336 0.4093561209 -0.1138378078 0.4096113535 -0.1139451002 -0.2764897132 0.0959759908
150299100.0 -0.2641086176 0.0967968899 0.4082642106 -0.1190279464 0.4083429232 -0.1188811066 -0.2757103779 0.0985680216
155299070.0 -0.2631295109 0.0993182228 0.4068373341 -0.1235590943 0.4075283345 -0.1238496909 -0.2747976604 0.1007066846
160299040.0 -0.2622665428 0.1018464413 0.406225005 -0.1285327598 0.4062608283 -0.1288930987 -0.2736947408 0.1036109753
165299010.0 -0.2611148575 0.1042902998 0.4046703976 -0.1333546233 0.4046819815 -0.1337635919 -0.2726081103 0.1059747683
170298980.0 -0.2601016927 0.1069201868 0.4031011639 -0.138386243 0.4037193962 -0.1383719357 -0.2721377465 0.1086713493
175298950.0 -0.258978654 0.1092654596 0.4021290817 -0.1430464954 0.4024837254 -0.1433675915 -0.2709366059 0.1112528048
180298920.0 -0.2579787766 0.1117256957 0.4005570362 -0.1478327303 0.4005170555 -0.1479398464 -0.269849137 0.1138356295
185298890.0 -0.2568730251 0.1141153754 0.3992987269 -0.1522726758 0.3992097442 -0.1524226901 -0.2688890496 0.1165993037
190298860.0 -0.2558673091 0.1172934677 0.3971719027 -0.1570816889 0.3977824645 -0.1572339071 -0.26806892 0.1192252031
195298830.0 -0.2548286035 0.1195264796 0.396198221 -0.1618800963 0.3961225506 -0.1617352192 -0.2669201563 0.1220636624
200298800.0 -0.2535619995 0.1217041364 0.3944278784 -0.1668691999 0.3944663973 -0.166721628 -0.2656499365 0.1244647662
205298770.0 -0.2525762043 0.1247808007 0.392099426 -0.1710228672 0.3924914585 -0.1710600005 -0.2647902015 0.1273879922
210298740.0 -0.2515131792 0.1275943028 0.3905565047 -0.1759599169 0.3904087053 -0.1757193027 -0.2634836715 0.1300868573
215298710.0 -0.2502411997 0.1300816284 0.3883599534 -0.1800860813 0.3884528702 -0.1804980015 -0.2621798104 0.1327077043
220298680.0 -0.248735666 0.1322089364 0.38607853 -0.1843856646 0.3865594518 -0.1847289139 -0.2611989783 0.1353171454
225298650.0 -0.2477303754 0.1351850624 0.3842516599 -0.1888241484 0.3846841652 -0.188668622 -0.2598632016 0.1382603285
230298620.0 -0.2462849949 0.1380393144 0.3825199502 -0.1935092062 0.3830173362 -0.1937908719 -0.2587123294 0.1406786939
235298590.0 -0.2455481971 0.1409481075 0.3804586554 -0.1984424123 0.3806301059 -0.19763479 -0.2572253692 0.1433267099
240298560.0 -0.2439089143 0.1433576605 0.3783639768 -0.2018227255 0.3784939359 -0.2021323378 -0.2560428228 0.1458939963
245298530.0 -0.242652558 0.1455713794 0.3757719472 -0.2066036671 0.3764409814 -0.2067806803 -0.2548706858 0.1488881494
250298500.0 -0.2413178761 0.1483334139 0.3740607658 -0.2105199592 0.3737491848 -0.2108751507 -0.2533243447 0.1517431704
255298470.0 -0.2400322611 0.1512210771 0.3718371001 -0.2145416746 0.3722534695 -0.215045581 -0.2520377735 0.1542860937
260298440.0 -0.2384397748 0.1534681445 0.3693323257 -0.2189029412 0.3694913507 -0.2190331981 -0.2508086065 0.1567408675
265298410.0 -0.2373570491 0.1562074408 0.3669970905 -0.2235377238 0.3667967714 -0.2236056446 -0.2486585348 0.1592978599
270298380.0 -0.2357231921 0.1586581088 0.364180233 -0.2275692393 0.3644869513 -0.2276065558 -0.2472057242 0.1621741201
275298350.0 -0.2346741144 0.1616952961 0.3618182445 -0.2313526732 0.3620150976 -0.2315658071 -0.2459560642 0.1651502611
280298320.0 -0.2333052203 0.1640236324 0.3595329341 -0.2353080871 0.3596974534 -0.2356771068 -0.2444441886 0.167444443
285298290.0 -0.2315355203 0.1667701164 0.3567857822 -0.2395433808 0.3573115989 -0.2394531423 -0.2433589517 0.1703435565
290298260.0 -0.2301264876 0.1693872494 0.3545536721 -0.243243863 0.3546408813 -0.2436343314 -0.2410443596 0.1730761913
295298230.0 -0.2285682157 0.1715595171 0.3515617767 -0.247591565 0.3519333549 -0.2476966029 -0.2397038022 0.1754413949
300298200.0 -0.2268398069 0.1744258408 0.3488026545 -0.2518245361 0.3490807432 -0.2515407615 -0.2376938241 0.1780378048
305298170.0 -0.2251876203 0.1763745658 0.3461504049 -0.2555093821 0.3464077037 -0.2560121448 -0.2358404514 0.1804120984
310298140.0 -0.2231379666 0.178901483 0.343371064 -0.259396863 0.3435421912 -0.2595336904 -0.2339585066 0.1830259614
315298110.0 -0.2218876563 0.18130022 0.3405924584 -0.2634251995 0.3407306124 -0.2637823619 -0.2320930716 0.1855097255
320298080.0 -0.2199989408 0.1839047061 0.3372673181 -0.2673715845 0.3380058375 -0.2673152952 -0.2303285777 0.1879276945
325298050.0 -0.2184428111 0.1856955663 0.3342741245 -0.271167531 0.3348029872 -0.2711705759 -0.2284766354 0.1904089145
330298020.0 -0.2169213914 0.1887667536 0.3314503531 -0.2751366978 0.33213482 -0.2747166352 -0.2270996899 0.1926260372
335297990.0 -0.2151242546 0.1908081475 0.3281396578 -0.2785311048 0.3286942366 -0.2785465984 -0.225154822 0.195480002
340297960.0 -0.2135625286 0.1929760318 0.3250663139 -0.2820396274 0.3247783076 -0.2824518901 -0.2228640974 0.1983628077
345297930.0 -0.2119077584 0.1956273869 0.322209758 -0.2861277016 0.321994552 -0.2859090419 -0.2211594453 0.2002843837
350297900.0 -0.2100887563 0.197837777 0.3189432973 -0.2888438271 0.318989407 -0.2891769527 -0.2194271223 0.20285563
355297870.0 -0.2082394058 0.2000781074 0.3157422649 -0.2923665783 0.3154915848 -0.2924186208 -0.217051901 0.2055921273
360297840.0 -0.2063835992 0.2025482305 0.3122466959 -0.2961323222 0.3125949932 -0.2964743925 -0.215014819 0.2080194417
365297810.0 -0.2045358121 0.2051057999 0.3088624525 -0.2995823399 0.3091734161 -0.2995228444 -0.2133449931 0.2102876353
370297780.0 -0.202445318 0.2073080219 0.3053517266 -0.3029934702 0.3059608525 -0.3030122095 -0.2111939016 0.2126980559
375297750.0 -0.2003977335 0.2095063144 0.3023358048 -0.3062033998 0.3025977604 -0.3063177234 -0.2090474796 0.215079508
380297720.0 -0.1986549267 0.2120133644 0.2993825141 -0.3099335438 0.2989158091 -0.3097289626 -0.2065828115 0.2174947689
385297690.0 -0.1964837951 0.2139997399 0.2954632454 -0.3128788263 0.2954896939 -0.3132908976 -0.2045133288 0.2198233164
390297660.0 -0.1941555117 0.2160973556 0.2918772884 -0.315862994 0.2922915435 -0.3159860996 -0.2019706627 0.2218066262
395297630.0 -0.1919791323 0.2184136222 0.2885486463 -0.3189916962 0.2886542793 -0.319165834 -0.2001294396 0.2243105407
400297600.0 -0.1899384082 0.2206293932 0.2849158466 -0.3225707557 0.2854905536 -0.3223411319 -0.1977655175 0.2266595889
405297570.0 -0.1878615541 0.2223784327 0.2814292571 -0.3254913366 0.2815662624 -0.325524479 -0.1948631188 0.2289547278
410297540.0 -0.1855010673 0.2248068912 0.2778028081 -0.3288787816 0.2780687354 -0.3282981967 -0.1929187893 0.2310929272
415297510.0 -0.1837669658 0.2268790866 0.2743395762 -0.3314650488 0.2744857699 -0.3316660384 -0.1904250442 0.2331335385
420297480.0 -0.1813426677 0.2286603628 0.2706312699 -0.3349517577 0.2707696924 -0.3347618224 -0.1877102682 0.2358686564
425297450.0 -0.1787100713 0.2305437064 0.2669487807 -0.3374524334 0.2668865015 -0.3372994222 -0.1854643794 0.237336043
430297420.0 -0.1764288189 0.232822248 0.2636381785 -0.3406061773 0.2634280005 -0.3401123626 -0.1829443944 0.2400675841
435297390.0 -0.1741741697 0.2345861955 0.2590471539 -0.343611843 0.259235609 -0.3432911151 -0.1806835178 0.242669494
440297360.0 -0.1713287124 0.2365508563 0.2554910556 -0.3462984718 0.2556098989 -0.3461688329 -0.1781285914 0.2443493781
445297330.0 -0.1691085715 0.2384003608 0.2519382135 -0.3488112276 0.2519579687 -0.3490962278 -0.1752752712 0.246294822
450297300.0 -0.1668395121 0.2404768613 0.2478929199 -0.3515594429 0.2483332311 -0.351242997 -0.1727087947 0.2480772395
455297270.0 -0.1642738326 0.242170973 0.2441993324 -0.354074472 0.2442348165 -0.3544284112 -0.170130066 0.250460507
460297240.0 -0.1613725827 0.2439977681 0.2402226974 -0.3571514103 0.2402632426 -0.3567984499 -0.1678660198 0.2518250359
465297210.0 -0.1589169109 0.2456536189 0.2359053357 -0.3594974393 0.2360023556 -0.359507909 -0.1647777143 0.2542939532
470297180.0 -0.1565013305 0.2474861567 0.232094304 -0.3618272937 0.2324550294 -0.3621047335 -0.1621528989 0.2558482801
475297150.0 -0.1540603932 0.2494825718 0.2281004741 -0.3645721478 0.2281793339 -0.3645097962 -0.159262624 0.2576934105
480297120.0 -0.1508483248 0.2511873629 0.2241148679 -0.3671133025 0.2243969747 -0.3669969323 -0.1569545126 0.2598918685
485297090.0 -0.1483207584 0.2527018309 0.219758368 -0.3694549688 0.22032668 -0.3693451176 -0.1543235506 0.261501457
490297060.0 -0.1453585399 0.2543875126 0.2154938232 -0.3720432347 0.2161174164 -0.3719284706 -0.1514110846 0.2631667637
495297030.0 -0.1429744153 0.2559645791 0.2120896868 -0.3744251582 0.2119523983 -0.3744549256 -0.1484043154 0.2647962203
500297000.0 -0.1405414427 0.2578008325 0.2077622949 -0.3762113665 0.2079546129 -0.3769178443 -0.1457711578 0.2668505189
505296970.0 -0.137086464 0.2594454065 0.2035072101 -0.3786505047 0.203704293 -0.3785791041 -0.1429318568 0.2682520464
510296940.0 -0.1345931867 0.2607307693 0.1996185339 -0.3811966229 0.1999075147 -0.3813583102 -0.139776635 0.2701614922
515296910.0 -0.1318137063 0.262755709 0.1951220041 -0.3832428273 0.1950383549 -0.3827227373 -0.1372261635 0.2713945233
520296880.0 -0.1289797452 0.2640994965 0.190813143 -0.3849738386 0.1906237156 -0.3850193243 -0.1336948782 0.2735837452
525296850.0 -0.1261355622 0.2655939353 0.1868183172 -0.3870272127 0.1866064551 -0.3871087379 -0.1312262 0.2749274528
530296820.0 -0.1234124711 0.2670572755 0.1823175994 -0.3893878479 0.182561276 -0.3887848977 -0.1288245812 0.275697054
535296790.0 -0.1200631968 0.2685295504 0.178145109 -0.3909175581 0.1781750491 -0.3910570752 -0.1255163743 0.2781782026
540296760.0 -0.1170589235 0.2701003856 0.173464683 -0.3931325518 0.173544731 -0.3926569103 -0.1224681096 0.2789262026
545296730.0 -0.1146535202 0.2715116873 0.1698620947 -0.3943637285 0.1696018771 -0.3947236041 -0.1194427706 0.2807868532
550296700.0 -0.1114562064 0.2727148566 0.1652748829 -0.3965511378 0.1649271423 -0.3965276114 -0.1163916065 0.2822475611
555296670.0 -0.1084899256 0.2742334174 0.1609114726 -0.3981479874 0.1609925047 -0.3983480748 -0.1138068458 0.2828576811
560296640.0 -0.1053855396 0.2750530821 0.1563362351 -0.3999279212 0.1566332554 -0.3999085732 -0.1107222912 0.2848917396
565296610.0 -0.1027739593 0.2771082806 0.1524902816 -0.4017081111 0.1519316407 -0.4012603178 -0.1073522615 0.2859684579
570296580.0 -0.0996356047 0.2779952936 0.1479219358 -0.4029986044 0.1476782256 -0.4032728464 -0.1045559286 0.2872129319
575296550.0 -0.0960727104 0.279064059 0.1436117561 -0.4046861261 0.1434954524 -0.4049213574 -0.1016096852 0.2885602824
580296520.0 -0.0934243667 0.2803172808 0.1389545339 -0.4060735077 0.1389369637 -0.4063001286 -0.0986599868 0.2895465976
585296490.0 -0.0902609887 0.2820800394 0.1345876583 -0.4080772916 0.1342817434 -0.4076905576 -0.0951247344 0.2911567543
590296460.0 -0.0864484137 0.2828683336 0.1300561881 -0.4090790816 0.130015952 -0.4092282772 -0.0926092928 0.2920223443
595296430.0 -0.083681929 0.2838529676 0.1253383531 -0.4103419353 0.1253474114 -0.4104516976 -0.0893133448 0.2931934513
600296400.0 -0.0806739549 0.2849944874 0.1206061827 -0.4115007406 0.1206767493 -0.411852152 -0.0861869135 0.2943497298
605296370.0 -0.0779865226 0.286309641 0.1167449157 -0.4128134882 0.1164043403 -0.4130893537 -0.083190087 0.2951220993
610296340.0 -0.0743151986 0.2875745318 0.1121673102 -0.4138228048 0.1121614048 -0.413977517 -0.079938656 0.296322163
615296310.0 -0.0710366306 0.2883135369 0.107521302 -0.4154081281 0.1068613352 -0.4155548383 -0.0766521138 0.2975022997
620296280.0 -0.0686419837 0.2896603948 0.1028694279 -0.4162324781 0.1024399247 -0.4163876343 -0.0735490605 0.298645911
625296250.0 -0.0659059555 0.2902928125 0.098397164 -0.4173845724 0.0985948192 -0.4173468427 -0.0707949503 0.2991648334
630296220.0 -0.0625076683 0.2914066131 0.0936274138 -0.4184950684 0.093477122 -0.4184289397 -0.0672148914 0.3000403509
635296190.0 -0.0593254171 0.2925375919 0.0895469709 -0.4193166877 0.0893505965 -0.4192507794 -0.0642775091 0.300828916
640296160.0 -0.0559961553 0.2934145584 0.0848451322 -0.4206375476 0.0846022598 -0.4201779251 -0.061008643 0.3016943004
645296130.0 -0.0525639218 0.2942370349 0.0800980599 -0.4209613331 0.0797648076 -0.4211633372 -0.0578424101 0.3023043091
650296100.0 -0.049796284 0.2948449961 0.075532409 -0.4219549154 0.0753609704 -0.4220794556 -0.0545615433 0.3029334225
655296070.0 -0.0466317052 0.2957546942 0.070946996 -0.4227972069 0.0706579086 -0.42254307 -0.0518612119 0.3039517157
660296040.0 -0.0435724788 0.2963412189 0.0666310902 -0.4233997363 0.0663191088 -0.4234248073 -0.048196307 0.3042062219
665296010.0 -0.040362545 0.2973034252 0.0614679185 -0.4237325259 0.0612342836 -0.4239431133 -0.0449034817 0.3050307233
670295980.0 -0.0374620023 0.2981957803 0.0572322813 -0.4247143891 0.0572112224 -0.4241674187 -0.0423440964 0.3053392233
675295950.0 -0.0338897851 0.2986522501 0.0523658654 -0.4250829769 0.052492418 -0.4252395067 -0.0387704541 0.306350754
680295920.0 -0.0315551844 0.2994302504 0.048288658 -0.4257518461 0.0477130664 -0.4253316366 -0.0351900338 0.3065986765
685295890.0 -0.0274273654 0.2999224739 0.0430068168 -0.4263087427 0.0433121523 -0.4263126349 -0.0324072773 0.3078630972
690295860.0 -0.0251499439 0.3004922096 0.0389927219 -0.4265757213 0.0384943649 -0.4265850313 -0.0291547716 0.307853192
695295830.0 -0.0215929296 0.3007587962 0.0341831544 -0.4268018939 0.0340603447 -0.4268339614 -0.0261639921 0.3085852395
700295800.0 -0.0184774528 0.3018154509 0.0299237122 -0.4270202285 0.0293578814 -0.4269570577 -0.0225097141 0.3086227866
705295770.0 -0.0157650762 0.3021979674 0.0251412822 -0.427683883 0.0248824302 -0.4272897235 -0.0196515841 0.3096491896
710295740.0 -0.0125015603 0.3021756531 0.0202952978 -0.4273778908 0.0199609138 -0.4280492798 -0.0157595271 0.3097551945
715295710.0 -0.0091610075 0.3028743531 0.0160907693 -0.4278352561 0.0154107686 -0.4276552444 -0.0129830544 0.3094373657
720295680.0 -0.0058672192 0.3031171942 0.0110055517 -0.4275769656 0.0109852625 -0.4280948296 -0.0095540519 0.3098510716
725295650.0 -0.0031508941 0.3037548122 0.0064017584 -0.4283588033 0.0065263443 -0.4280145641 -0.0067230335 0.3104782033
730295620.0 -0.0006103605 0.3038699711 0.001980938 -0.4277110386 0.0017289775 -0.427713541 -0.0032702478 0.3109997823
735295590.0 0.0028780428 0.3043498901 -0.0026590219 -0.4283128229 -0.0030460764 -0.4280001483 0.0002521248 0.3104698213
740295560.0 0.0058388079 0.3038903734 -0.0073717937 -0.4275939065 -0.007335168 -0.4284132828 0.0034283596 0.3109041918
745295530.0 0.0088707949 0.304663832 -0.0118825773 -0.427077696 -0.0119088446 -0.4276359869 0.0059282096 0.3111787461
750295500.0 0.0117298689 0.3048625798 -0.016260609 -0.4273841015 -0.0166644406 -0.4277325083 0.0096442832 0.3110667809
755295470.0 0.01535257 0.3047839427 -0.0212167638 -0.4275021911 -0.0210833254 -0.4277590487 0.0130209515 0.3116265612
760295440.0 0.0180922024 0.305494236 -0.0262588705 -0.4271116885 -0.0259740835 -0.4269368821 0.0164103057 0.3107901758
765295410.0 0.0213708117 0.3047947507 -0.0305580714 -0.42668799 -0.0303368086 -0.4268403981 0.0196649345 0.3112357676
770295380.0 0.0244137224 0.3050832986 -0.0347034808 -0.4261803724 -0.0349496974 -0.426511632 0.0223177085 0.3111866413
775295350.0 0.0273280551 0.3050429087 -0.0395956967 -0.4259039855 -0.0397364897 -0.4257721826 0.0260541254 0.311151272
780295320.0 0.0304007155 0.3049066203 -0.0435691778 -0.4249427808 -0.0440590511 -0.4253066128 0.0295727985 0.3110215025
785295290.0 0.0335861786 0.3047679275 -0.0484843409 -0.4248100941 -0.0483453697 -0.4250816721 0.0320740988 0.3110246763
790295260.0 0.0365258384 0.3044785835 -0.0530249522 -0.4242846263 -0.0529004165 -0.4248686766 0.0354342268 0.3108207304
795295230.0 0.0394987235 0.3042059993 -0.0577789581 -0.4235559233 -0.0578524681 -0.4237594958 0.0388598576 0.3101260479
800295200.0 0.0426135187 0.3044309803 -0.0618573656 -0.4227879882 -0.062348431 -0.423365549 0.0420249365 0.3099067072
805295170.0 0.0453875851 0.3042838747 -0.0666127646 -0.4222270592 -0.0666311254 -0.4224750543 0.045834111 0.3096045443
810295140.0 0.0489482922 0.3037744434 -0.0712559625 -0.4214009005 -0.0715235501 -0.4213910914 0.0489336015 0.309239425
815295110.0 0.0515804994 0.3036998026 -0.0757844359 -0.4207638455 -0.0757823994 -0.4209679293 0.0517541846 0.3091202853
820295080.0 0.0547298669 0.3030743953 -0.0799611509 -0.4194750974 -0.0798491067 -0.4202766675 0.054489458 0.3090179621
825295050.0 0.0577542885 0.3025871473 -0.0848643252 -0.4190568818 -0.0846999613 -0.4192620223 0.0585085668 0.3084002145
830295020.0 0.0607580658 0.3022550264 -0.0893901925 -0.4178699714 -0.0891663403 -0.4181987886 0.0612799592 0.3074731489
