!Created with skrf (http://scikit-rf.org).
# Hz S RI R 50.0 
!freq ReS11 ImS11 ReS21 ImS21 ReS12 ImS12 ReS22 ImS22
300000.0 0.8603304447 -0.0010785396 -0.0006945667 -0.0003679807 -0.0009539435 4.16976e-05 -0.7644543183 -0.1950006734
5299970.0 0.8593717836 -0.0102411367 -0.0001563472 -0.000125707 2.50952e-05 3.70735e-05 -0.7849845003 -0.0095259331
10299940.0 0.8583630065 -0.0188717211 0.000274758 -3.37367e-05 2.24893e-05 1.75e-06 -0.7874594476 -0.0053856346
15299910.0 0.8580178741 -0.0275089063 -4.79794e-05 -1.61738e-05 5.91811e-05 -6.65386e-05 -0.7929707661 -0.0025740146
20299880.0 0.8572416264 -0.0352778909 0.0002670824 4.60749e-05 -4.59048e-05 -6.64392e-05 -0.7993813942 0.0021765234
25299850.0 0.8563704135 -0.0439360266 -0.0001635244 -0.0002183119 0.0001824242 -3.90822e-05 -0.8058809075 0.0080531487
30299820.0 0.8558234286 -0.0519227746 -3.58558e-05 6.56865e-05 0.0001655182 6.26207e-05 -0.8123071515 0.0158419137
35299790.0 0.8549533379 -0.0602581941 0.0001812926 -1.08649e-05 2.9363e-06 2.59328e-05 -0.8169494379 0.0246788284
40299760.0 0.8548591422 -0.0687020619 -0.0002217994 -3.38105e-05 -4.89964e-05 -7.86283e-05 -0.8210475248 0.0339802658
45299730.0 0.8538413547 -0.0766029346 9.81333e-05 7.5761e-06 0.0001172223 -0.0001419639 -0.8241677295 0.0435719813
50299700.0 0.8525275059 -0.0842897833 -7.6423e-05 0.0001246211 -5.2262e-06 -3.92088e-05 -0.8266031965 0.054083164
55299670.0 0.8518912123 -0.0929017126 -0.0001222818 3.36687e-05 7.4032e-06 -0.0002213844 -0.8286431588 0.0638078501
60299640.0 0.8509810446 -0.101107703 -1.68041e-05 0.0001530794 -9.14452e-05 -3.00304e-05 -0.8298517753 0.0742896765
65299610.0 0.8499671416 -0.1087393893 -0.0001578982 -9.873e-07 -0.0001060075 -5.00151e-05 -0.8303701313 0.0840442883
70299580.0 0.8487916352 -0.117325036 -6.10961e-05 -6.4178e-06 3.3161e-06 0.0002709869 -0.8309256793 0.0934749161
75299550.0 0.8474356728 -0.1259727066 0.0002264659 2.12937e-05 -8.77388e-05 -0.0002093767 -0.8307277218 0.104038993
80299520.0 0.84646421 -0.133133941 2.74186e-05 0.00013195 -6.03203e-05 5.52225e-05 -0.830882253 0.1139214234
85299490.0 0.8454540244 -0.1418032073 -1.82162e-05 -0.0001853086 -5.0452e-06 -5.63568e-05 -0.8304942229 0.1230900796
90299460.0 0.844481157 -0.150597877 3.26354e-05 0.0001416003 2.37512e-05 -1.32859e-05 -0.8290729819 0.132864425
95299430.0 0.8422927889 -0.1581788572 -3.66485e-05 -4.26631e-05 3.31026e-05 -9.40529e-05 -0.8281865043 0.1425946926
100299400.0 0.8402866329 -0.1661716354 -3.04224e-05 -0.0002126584 8.10372e-05 -7.98124e-05 -0.8271607318 0.1519109854
105299370.0 0.839185764 -0.1741427153 -0.0002444936 4.09646e-05 2.6621e-06 4.08518e-05 -0.8259737517 0.1608531396
110299340.0 0.8373534252 -0.1828952268 -5.15004e-05 -5.3789e-05 8.09079e-05 -1.88224e-05 -0.8248060683 0.1698979212
115299310.0 0.8358811493 -0.1909395639 6.98931e-05 7.01359e-05 0.0001172232 -6.96131e-05 -0.8232176566 0.1788455452
120299280.0 0.8335255174 -0.1989241413 0.0001985184 -4.33903e-05 6.095e-06 -0.0002565853 -0.8207646397 0.1880864639
125299250.0 0.8317317441 -0.2066901967 0.0001515506 6.14172e-05 6.44722e-05 5.1767e-06 -0.8196656596 0.19708107
130299220.0 0.829923832 -0.2145069233 0.0001370029 4.262e-05 -0.0001563885 7.26543e-05 -0.8175801013 0.2058949347
135299190.0 0.828320381 -0.2228897655 3.09475e-05 -2.75893e-05 0.0001141232 0.000159301 -0.8159646777 0.2151865563
140299160.0 0.8253455441 -0.2300236417 -0.0001236287 -0.0001327783 4.39737e-05 9.42253e-05 -0.8139854768 0.2231324038
145299130.0 0.823268179 -0.2383018928 6.72301e-05 -5.89494e-05 7.70322e-05 -2.03048e-05 -0.8119321641 0.2325613218
150299100.0 0.8214269962 -0.2457694738 -5.06003e-05 -6.47218e-05 -0.0001812377 9.82143e-05 -0.8093128831 0.2411522717
155299070.0 0.8184340898 -0.2539177341 -6.70251e-05 0.0002397099 -9.82597e-05 -5.5178e-05 -0.8071583345 0.2510347771
160299040.0 0.815954683 -0.2622155519 0.0001006293 3.97368e-05 0.0001092437 -6.54967e-05 -0.8041749116 0.2588919562
165299010.0 0.8135857696 -0.2691942279 -9.38589e-05 -3.09234e-05 1.92552e-05 -2.76362e-05 -0.8018448753 0.2674355055
170298980.0 0.8113029418 -0.2777045483 -0.000189582 -5.28082e-05 0.0001300799 -2.21489e-05 -0.7997200358 0.2757631562
175298950.0 0.8079763363 -0.2855652305 -0.0001085128 0.0002169871 9.93592e-05 0.0001078011 -0.7964797755 0.2846640229
180298920.0 0.8059333775 -0.2929642441 0.0002098709 -8.79596e-05 -8.71025e-05 -0.0001199119 -0.7933251055 0.2933987306
185298890.0 0.8027976639 -0.3008261833 0.0001024023 -8.86423e-05 -9.44724e-05 8.33214e-05 -0.7902483786 0.3017900924
190298860.0 0.800036176 -0.3090918994 -4.38622e-05 -2.7698e-05 2.01887e-05 4.23499e-05 -0.7870577525 0.3099944522
195298830.0 0.7967409169 -0.3158880188 -1.01848e-05 -7.37736e-05 0.0001200101 -0.0001812648 -0.7840744331 0.3181253846
200298800.0 0.7937966945 -0.3238672934 3.3838e-05 -5.538e-07 0.0001627909 -1.78709e-05 -0.7809254152 0.3265924579
205298770.0 0.7910973802 -0.3312325239 3.34275e-05 -0.0001035372 -7.59364e-05 -6.16207e-05 -0.777550593 0.334773544
210298740.0 0.7880657829 -0.3388850545 -5.20474e-05 -0.0002336075 6.45914e-05 -0.0001612826 -0.7744593849 0.3431555279
215298710.0 0.7841319726 -0.3470420576 5.89309e-05 0.0001690337 8.52821e-05 3.63544e-05 -0.7708093951 0.3515667969
220298680.0 0.781258188 -0.3537152123 4.13332e-05 5.77735e-05 0.0001247777 5.25046e-05 -0.7666223777 0.3593643811
225298650.0 0.7776041501 -0.361614467 6.1162e-06 8.15588e-05 1.48608e-05 -0.0001569937 -0.7630252133 0.3676669253
230298620.0 0.7733579242 -0.3685874238 -3.4575e-06 0.0001258 6.39458e-05 6.29453e-05 -0.7589569656 0.3756019919
235298590.0 0.7702821102 -0.376176828 -0.0001453425 -8.07654e-05 0.0001295458 0.0001329789 -0.7548923182 0.3832832577
240298560.0 0.7661410699 -0.3834102328 -0.0002172401 5.60688e-05 0.0003435607 -0.0001152454 -0.7514177181 0.3908437746
245298530.0 0.7622401401 -0.3908088935 0.0001365446 -7.28049e-05 0.0001058191 1.52732e-05 -0.7472514442 0.3992003487
250298500.0 0.7589814374 -0.3979681963 1.12763e-05 4.5172e-06 -5.19818e-05 0.0002023161 -0.7425119779 0.4071585501
255298470.0 0.75527414 -0.4051265156 -3.3393e-05 -0.0001411991 4.46046e-05 8.98011e-05 -0.7387692557 0.4147231699
260298440.0 0.7507495644 -0.4128340649 1.16467e-05 2.40774e-05 2.08002e-05 -6.4305e-06 -0.733773345 0.4218918582
265298410.0 0.7463336977 -0.4198318463 -0.0002118773 7.36598e-05 -0.0001618321 0.0001901476 -0.7295059944 0.4302417938
270298380.0 0.7434759401 -0.4267095869 -0.0001077221 3.29115e-05 0.0001445527 -4.55324e-05 -0.7249816489 0.4380181749
275298350.0 0.7388140159 -0.4338859368 0.0002487523 9.75225e-05 -9.43662e-05 5.71659e-05 -0.7200803392 0.4453096126
280298320.0 0.734406408 -0.4406525568 -0.0001274524 -1.55422e-05 3.67271e-05 -4.56e-07 -0.7162168012 0.4528747947
285298290.0 0.7306689746 -0.4486965237 0.000162347 -0.0001297473 -9.80103e-05 0.0002508963 -0.7118423749 0.4608217677
290298260.0 0.7260379482 -0.4553862005 7.72555e-05 -0.0002520055 -7.99541e-05 2.78949e-05 -0.7062363809 0.4673948719
295298230.0 0.7224728087 -0.4620081966 0.0001003718 2.57684e-05 0.0001360048 -1.3422e-06 -0.7016734105 0.4751942195
300298200.0 0.7181272266 -0.4688780812 1.17909e-05 -3.30677e-05 -7.16843e-05 0.0002558078 -0.6967375652 0.4825837527
305298170.0 0.7138115316 -0.4769314509 -0.0001016326 0.0003057663 -0.0001857635 -1.87634e-05 -0.691367207 0.4895666874
310298140.0 0.7089046016 -0.4849419748 -0.000308318 -8.34672e-05 -6.57018e-05 -8.15396e-05 -0.6865622023 0.4969915325
315298110.0 0.7037288465 -0.4917314291 0.0001446621 0.0001163449 -2.39589e-05 -9.9643e-05 -0.6817051396 0.5040038821
320298080.0 0.6981510722 -0.4990376326 1.35983e-05 -6.24087e-05 -2.99977e-05 -2.68696e-05 -0.6761355268 0.5105668509
325298050.0 0.6923282025 -0.506546549 -0.0002188942 4.12549e-05 -0.0001564455 1.33883e-05 -0.6704931871 0.5175806199
330298020.0 0.6866083508 -0.5133795236 -3.71834e-05 0.000121901 9.55909e-05 -0.0001132029 -0.6653952935 0.5248104109
335297990.0 0.6807650401 -0.5190168971 -0.0001176197 -1.71734e-05 6.71243e-05 0.0001507163 -0.6594834713 0.5311591713
340297960.0 0.6753673822 -0.5256041684 -5.45675e-05 9.10719e-05 1.04499e-05 3.16222e-05 -0.6543611531 0.5382066614
345297930.0 0.6702415527 -0.5318711616 -1.41248e-05 4.15477e-05 1.53216e-05 0.0001296722 -0.6487097885 0.5451060376
350297900.0 0.6645059579 -0.538098396 -2.8583e-06 0.0001366868 4.22304e-05 0.0001464885 -0.6430329307 0.551227057
355297870.0 0.6600736824 -0.5446477009 3.86889e-05 2.8186e-05 0.0002274886 -0.0001716506 -0.6366140516 0.5589462595
360297840.0 0.6541582982 -0.5505074254 0.0001986053 5.9352e-06 4.69318e-05 -2.78664e-05 -0.6303260145 0.5650774102
365297810.0 0.6487953002 -0.5569755192 0.0002220539 8.9554e-05 0.0001167917 -8.16271e-05 -0.6258620782 0.5707380438
370297780.0 0.6431220015 -0.5628919586 -7.03517e-05 -3.2369e-06 2.9687e-05 1.17679e-05 -0.6194460275 0.5774861753
375297750.0 0.6376621344 -0.5689023849 -0.0003099483 5.77499e-05 0.00015294 -8.01006e-05 -0.6132000371 0.5840459396
380297720.0 0.6316876351 -0.574575926 9.4385e-05 -1.26599e-05 -2.17435e-05 4.45265e-05 -0.6066988036 0.5898418467
385297690.0 0.6263364587 -0.581055081 -0.0001033833 -6.97321e-05 5.1779e-05 5.83357e-05 -0.6012340255 0.5961031636
390297660.0 0.6210607731 -0.5871716833 -0.0001735999 -4.94941e-05 0.0001025949 -4.2671e-06 -0.5942849798 0.6021323053
395297630.0 0.6150783748 -0.5926520685 0.000156467 -1.01745e-05 -1.00793e-05 0.0001237685 -0.5880817818 0.6081083663
400297600.0 0.6086404921 -0.5986697486 8.84705e-05 0.0001222857 4.59366e-05 -4.74339e-05 -0.5820840503 0.6138193502
405297570.0 0.6033510024 -0.6045942848 3.81128e-05 6.76213e-05 -7.06509e-05 7.56323e-05 -0.5752708911 0.6200597968
410297540.0 0.5984232045 -0.6097791387 6.00645e-05 7.46189e-05 -1.90494e-05 -2.29552e-05 -0.5696490619 0.6262476105
415297510.0 0.591368953 -0.6156017472 3.938e-06 0.0001328834 0.0001514133 0.0001774423 -0.562584329 0.6315968913
420297480.0 0.5856690142 -0.6219452212 0.0001100027 -0.0001999307 -5.44953e-05 -1.92005e-05 -0.5555581673 0.6377371344
425297450.0 0.5795221137 -0.6271480713 -0.0001003819 -9.31143e-05 0.0001264171 0.0001863234 -0.5502303728 0.6431377283
430297420.0 0.5735894414 -0.6328468649 -1.96715e-05 -4.83139e-05 -0.0001681809 -5.61164e-05 -0.5430149606 0.6484471059
435297390.0 0.5671693554 -0.6384740606 1.14437e-05 -2.91063e-05 0.0001199371 -7.00252e-05 -0.5368534392 0.6541007587
440297360.0 0.5607205601 -0.6435845262 0.000124663 -3.44974e-05 -4.76913e-05 -6.07273e-05 -0.5302118511 0.6599730029
445297330.0 0.5551602042 -0.648732024 3.6979e-06 -7.41417e-05 0.0001056521 -0.0001390377 -0.523347401 0.6654015244
450297300.0 0.5490239661 -0.6547156804 2.22417e-05 -3.14341e-05 -9.0481e-06 -2.56559e-05 -0.5156477795 0.6700741027
455297270.0 0.5420706136 -0.6597616548 -2.26867e-05 6.05127e-05 -1.24799e-05 4.6722e-06 -0.5089838928 0.6753107247
460297240.0 0.5360567772 -0.6642381877 -0.0002155258 -0.0001161589 -9.48115e-05 -6.08861e-05 -0.5025917046 0.680016515
465297210.0 0.5292603481 -0.6697946738 7.47515e-05 2.06193e-05 0.0001593833 -5.22521e-05 -0.495285224 0.686165544
470297180.0 0.5232581611 -0.6751628545 3.27259e-05 -9.42974e-05 -8.21e-06 5.75302e-05 -0.4881501233 0.6904639389
475297150.0 0.5158042125 -0.6801184063 1.47686e-05 -5.18963e-05 -6.99602e-05 -8.45696e-05 -0.4810197802 0.6950996415
480297120.0 0.5099810276 -0.6852482414 -6.701e-07 0.0002084118 0.0001111319 -0.000221693 -0.474391963 0.7003270407
485297090.0 0.5033889394 -0.6901862461 -0.000119594 -9.9787e-06 2.07969e-05 -9.47746e-05 -0.4671693075 0.7049314663
490297060.0 0.4967731191 -0.6945717056 -6.28191e-05 -0.0001259515 1.35296e-05 7.66405e-05 -0.4597072353 0.7093368533
495297030.0 0.4896956927 -0.6997823259 0.0001454577 2.31637e-05 -4.95576e-05 -2.14197e-05 -0.4520979259 0.7134399556
500297000.0 0.4835415601 -0.7037948325 4.94944e-05 -2.96907e-05 7.49478e-05 2.52354e-05 -0.4451262433 0.7183199695
505296970.0 0.4764518708 -0.7088398193 7.93104e-05 7.98415e-05 3.90357e-05 9.60773e-05 -0.4375340857 0.7227457258
510296940.0 0.4690261564 -0.7136918915 2.24426e-05 9.42845e-05 -9.31462e-05 0.0001422497 -0.4301567565 0.7272134979
515296910.0 0.4618245141 -0.7177022074 -0.0001894645 -3.94373e-05 -0.0001460218 -0.0001318458 -0.4227752062 0.7312682729
520296880.0 0.4562650397 -0.7224705226 -8.26502e-05 5.0072e-06 5.95438e-05 -1.23124e-05 -0.4154672603 0.7358504284
525296850.0 0.4491349049 -0.7272976227 -4.68392e-05 4.44637e-05 0.0001820198 -0.00016424 -0.4079830632 0.7398268855
530296820.0 0.4423325333 -0.7316328712 -4.42352e-05 -0.0001319085 -0.0001613184 -1.07533e-05 -0.4005763255 0.7435762045
535296790.0 0.4348262217 -0.7352614508 9.55332e-05 0.0001669082 -0.0001579414 -0.0001137179 -0.3931454508 0.748119807
540296760.0 0.4281136754 -0.7392334286 0.0001319316 6.38598e-05 7.85757e-05 -1.53122e-05 -0.3850751759 0.7512996072
545296730.0 0.4202523247 -0.743646077 -7.81052e-05 4.98204e-05 5.19249e-05 -9.12681e-05 -0.3780802976 0.7559666342
550296700.0 0.4134959725 -0.7474937159 -2.69512e-05 1.04101e-05 -9.41248e-05 -2.92083e-05 -0.3698135134 0.7588448587
555296670.0 0.4058565483 -0.7517323383 0.0001695842 3.94639e-05 1.70483e-05 -5.93035e-05 -0.3625655424 0.7622432033
560296640.0 0.3987656037 -0.7546557556 0.0001438699 -0.000180748 7.72598e-05 0.0001002424 -0.3544788518 0.7668182181
565296610.0 0.3914445268 -0.7595273024 4.49043e-05 0.0001503316 0.0001204596 8.5061e-05 -0.3467369533 0.7698825884
570296580.0 0.3840576723 -0.7628811855 1.50948e-05 -0.0001421207 -8.8707e-06 -5.23463e-05 -0.3391008642 0.7727752681
575296550.0 0.3770481555 -0.7669542833 -5.40911e-05 -0.000104184 5.36922e-05 1.70394e-05 -0.3309669009 0.776717569
580296520.0 0.3695155494 -0.7695756021 -0.0001976787 0.0001259326 0.000152267 3.10181e-05 -0.3234485985 0.7793812813
585296490.0 0.3616679075 -0.7724920055 3.7587e-05 1.49139e-05 1.5799e-05 -5.10894e-05 -0.315195772 0.78336147
590296460.0 0.3535547971 -0.776096465 0.0001761911 1.43977e-05 3.6539e-05 -0.0001015696 -0.3078211313 0.785418202
595296430.0 0.3464053937 -0.7798162085 0.0001444811 5.51354e-05 0.0001815472 6.24421e-05 -0.2997490495 0.7891735786
600296400.0 0.3386983571 -0.7831584461 -9.1538e-05 3.6088e-06 0.0001961102 -1.47947e-05 -0.2919011266 0.7914690403
605296370.0 0.3306996343 -0.7862881453 2.96627e-05 -1.36376e-05 2.92139e-05 -0.0001216565 -0.283437574 0.7956405751
610296340.0 0.323203004 -0.7900390097 -8.5077e-05 -0.0002220155 -6.10052e-05 -8.99468e-05 -0.2759292495 0.7978391725
615296310.0 0.3156728914 -0.792104579 0.0002432479 -0.0001822742 9.4221e-06 0.0001227236 -0.2676032897 0.8005828656
620296280.0 0.3075884097 -0.7950954979 1.5667e-06 -6.60075e-05 -0.0002797544 0.0001496107 -0.2599830564 0.8034066859
625296250.0 0.3000016532 -0.7977884753 4.31501e-05 -0.0002432211 -4.60952e-05 9.06464e-05 -0.2516845687 0.8052523037
630296220.0 0.2916724536 -0.8007678601 0.0001400387 -0.000234306 -4.70754e-05 -3.32099e-05 -0.2434550331 0.8079600822
635296190.0 0.2837810621 -0.8031591302 6.73644e-05 6.25928e-05 -0.000127922 2.30259e-05 -0.2349948378 0.8101025923
640296160.0 0.2760225461 -0.8058812008 -4.37804e-05 -6.99539e-05 1.45672e-05 4.90224e-05 -0.2270873559 0.81256504
645296130.0 0.2685910585 -0.8082458089 -4.76815e-05 -2.59352e-05 9.6541e-06 3.22609e-05 -0.2194576063 0.814775058
650296100.0 0.2605525757 -0.8105944048 0.0001948967 -9.49852e-05 -8.34627e-05 0.0001444897 -0.2107471714 0.8168542125
655296070.0 0.2523045469 -0.8128187312 -0.0001167868 -5.51703e-05 -1.12822e-05 4.48333e-05 -0.2029207955 0.8191702197
660296040.0 0.2438960571 -0.8155731515 -2.5061e-06 6.78189e-05 5.30754e-05 -7.79e-07 -0.1944411452 0.8211784261
665296010.0 0.2357456389 -0.8173408675 6.43983e-05 1.29447e-05 9.54322e-05 -0.0002787337 -0.1858512137 0.8223959873
670295980.0 0.2281844332 -0.8193112046 -9.97053e-05 0.0002193436 0.000148782 -9.72165e-05 -0.1782665739 0.8244218845
675295950.0 0.2197625747 -0.821380508 0.0001116783 0.0001047376 0.0002352876 8.78221e-05 -0.1699057647 0.8265577187
680295920.0 0.2113775702 -0.8231313258 1.17352e-05 -0.0001952293 -9.52463e-05 6.1466e-05 -0.1613469928 0.8283632434
685295890.0 0.203122581 -0.824566064 -2.23263e-05 -7.39857e-05 -0.0001347758 -3.66808e-05 -0.1533408424 0.8294762441
690295860.0 0.1946359368 -0.8261969284 -5.51223e-05 -5.40163e-05 0.0001033463 -0.0001125873 -0.1452735933 0.8310886074
695295830.0 0.1866766546 -0.828524037 0.0002570501 -4.87174e-05 0.0001726712 1.73748e-05 -0.1367802564 0.8329026448
700295800.0 0.1781478397 -0.8300553651 -6.20596e-05 -5.16696e-05 0.0001100074 5.08963e-05 -0.128205756 0.8336121538
705295770.0 0.1700538363 -0.8315703639 -0.0001075067 -4.83309e-05 -0.0001594877 -0.0001448906 -0.1202992847 0.8353444549
710295740.0 0.1620442923 -0.8321734639 0.0001974642 7.16055e-05 7.02477e-05 -0.0001818214 -0.1117634085 0.8365232889
715295710.0 0.1538742545 -0.8332752451 -4.64148e-05 -5.72881e-05 -5.8887e-06 -0.0001187456 -0.1033357678 0.8368666261
720295680.0 0.1450541807 -0.8349337631 6.96772e-05 0.000194488 2.22784e-05 4.0775e-05 -0.0945035515 0.8373875446
725295650.0 0.1366974643 -0.8361011921 -0.0001133515 -0.0002017955 9.72598e-05 -0.000184253 -0.0870926346 0.8392292204
730295620.0 0.1283397379 -0.8378805109 0.0001327089 -0.0001246421 -0.0001536932 4.226e-07 -0.0783761237 0.8402384736
735295590.0 0.1199295245 -0.837864162 -6.19078e-05 1.06685e-05 3.10939e-05 1.30078e-05 -0.0699562122 0.8406375342
740295560.0 0.1117659996 -0.8393860045 0.0001292024 9.66918e-05 -4.23087e-05 7.02493e-05 -0.0611563948 0.8415593707
745295530.0 0.1033151016 -0.8399553025 0.0002370248 5.12186e-05 7.82535e-05 9.40484e-05 -0.053524756 0.8417855042
750295500.0 0.0951450746 -0.840959585 0.0001282655 -1.42042e-05 -0.000164899 -2.3873e-06 -0.044964509 0.8423745632
755295470.0 0.0864603677 -0.8410970943 0.0001857774 -3.50652e-05 5.77171e-05 0.0001570933 -0.0367472621 0.8431764719
760295440.0 0.0781147025 -0.8412065927 -7.38406e-05 -3.6156e-05 0.0001572618 -8.35053e-05 -0.02797059 0.8429205736
765295410.0 0.0700698765 -0.8422259763 -3.267e-07 -4.03938e-05 9.30727e-05 -5.16835e-05 -0.0195540498 0.8433994205
770295380.0 0.0614709663 -0.8422078407 -3.22385e-05 -1.89485e-05 -6.24421e-05 -5.92518e-05 -0.0116598938 0.843583617
775295350.0 0.0526526972 -0.8428194615 -0.0001400323 -5.26871e-05 0.0001054703 -8.93908e-05 -0.0034125661 0.8433330235
780295320.0 0.0442732476 -0.8428963435 -0.0001096768 3.39695e-05 2.1251e-05 1.26917e-05 0.0053804205 0.8440647101
785295290.0 0.0358498796 -0.8431387218 -6.82832e-05 -0.0001015559 -5.57227e-05 -0.0001284372 0.013336817 0.8437952327
790295260.0 0.0285304308 -0.8437117084 -7.62842e-05 0.0002412373 0.0001391275 6.1961e-05 0.0221440814 0.8431315525
795295230.0 0.0194013161 -0.8443841058 -4.9067e-06 -8.54332e-05 -0.0001409904 -3.52758e-05 0.0300852068 0.8429263303
800295200.0 0.0114406996 -0.8434793395 -7.87227e-05 -0.0002469707 4.63872e-05 2.15242e-05 0.0384628544 0.8421976042
805295170.0 0.0025158438 -0.8438796065 1.1999e-05 -6.65493e-05 -4.24597e-05 -4.30111e-05 0.04746784 0.8422398336
810295140.0 -0.0060829036 -0.8419915285 -0.0001823775 4.84877e-05 0.0001316473 -0.0001245469 0.0558919433 0.8411660409
815295110.0 -0.0141996963 -0.8427049904 0.0001917237 -5.72116e-05 -9.64571e-05 -1.71021e-05 0.0631768058 0.8409209673
820295080.0 -0.0222503474 -0.8421763818 -5.7241e-06 -9.25093e-05 0.0001089349 -7.64102e-05 0.0714885758 0.8406116195
825295050.0 -0.0315024231 -0.8421415786 -5.77137e-05 0.0003304329 6.46413e-05 0.0002313959 0.0800962291 0.8395608905
830295020.0 -0.0392190213 -0.8414608762 -0.0001654228 9.05451e-05 2.42394e-05 -1.97115e-05 0.0877394973 0.837935366
835294990.0 -0.0478745998 -0.840622285 -0.0001971153 -0.0001234198 -4.38988e-05 0.0001858699 0.0970528014 0.8376063934
840294960.0 -0.0555535675 -0.8404499812 -6.13689e-05 1.84791e-05 0.0003941439 -0.0001564155 0.1056372051 0.8368857959
845294930.0 -0.064592425 -0.8388074383 -0.0001763255 -0.0001068836 7.20488e-05 -0.0001347633 0.1137662757 0.8354473157
850294900.0 -0.0717273644 -0.8388937692 -3.29415e-05 -0.0001203489 0.0001456258 -4.21523e-05 0.1212667816 0.8344729248
