!Created with skrf (http://scikit-rf.org).
# Hz S RI R 50.0 
!freq ReS11 ImS11 ReS21 ImS21 ReS12 ImS12 ReS22 ImS22
300000.0 -0.2378651276 -0.1034254354 0.4645301958 0.0684296764 0.46763935 0.0723947154 -0.234535551 -0.1145606642
5299970.0 -0.2434620588 0.006944387 0.4736918572 0.0054759761 0.4736855584 0.005681856 -0.2436161181 0.0056553672
10299940.0 -0.2401576903 0.0198836335 0.4758136444 0.0062451864 0.4755583445 0.0063241005 -0.240473043 0.0181525769
15299910.0 -0.2359372678 0.0291459693 0.47941258 0.0076602452 0.4790851362 0.0080538934 -0.2364618657 0.0273478723
20299880.0 -0.2303860881 0.0372844255 0.4842095666 0.0086988963 0.4840690538 0.0084403838 -0.2317303704 0.0352855458
25299850.0 -0.2249013218 0.0435098651 0.4894789413 0.0072688863 0.4893475448 0.0072238562 -0.2266476202 0.0417897294
30299820.0 -0.2187950127 0.0485079966 0.4951056519 0.0058213163 0.4944674026 0.0052178979 -0.221299298 0.046726278
35299790.0 -0.2130541856 0.0527036929 0.5004279209 0.002282413 0.5002246468 0.0023477728 -0.2160789681 0.050867974
40299760.0 -0.2074663994 0.0555768691 0.5052851829 -0.0011452527 0.5054238259 -0.001698421 -0.2116282582 0.0548374974
45299730.0 -0.2025422733 0.0585075417 0.5103755636 -0.0067897503 0.5100373114 -0.0066112671 -0.2064366479 0.057302391
50299700.0 -0.1976757807 0.0601603971 0.5142454263 -0.012413768 0.5144836221 -0.0125637629 -0.2020213005 0.0600283407
55299670.0 -0.1937639856 0.0619714582 0.5180581905 -0.0177033184 0.5179964073 -0.017889991 -0.1983319801 0.0616841688
60299640.0 -0.1894023547 0.0627061768 0.5210754882 -0.0243699954 0.5212875371 -0.0243109197 -0.1943138957 0.0632017651
65299610.0 -0.1863015244 0.0638641221 0.5245316208 -0.03018426 0.5244659486 -0.0303609569 -0.1910844163 0.0646506063
70299580.0 -0.1826487446 0.0642368902 0.5267656698 -0.0368534228 0.5269094036 -0.0372499673 -0.1881243962 0.0659242009
75299550.0 -0.1798028541 0.0650951349 0.5283661464 -0.0440170697 0.5286616588 -0.0439404682 -0.1851126238 0.0668688865
80299520.0 -0.1770774598 0.0656162047 0.5306358355 -0.0510083401 0.5305883059 -0.0508287064 -0.1823097492 0.0674395558
85299490.0 -0.1744811943 0.0657845456 0.5319171425 -0.0579741155 0.5317080196 -0.057935075 -0.1803579605 0.0684320824
90299460.0 -0.1724861851 0.0666542152 0.5329938304 -0.0646221163 0.5330521489 -0.0648277375 -0.1776834199 0.0693842286
95299430.0 -0.1705135346 0.0671759341 0.5341587314 -0.0719868842 0.5341324541 -0.0716651583 -0.1758692067 0.070334757
100299400.0 -0.1687682195 0.0676601229 0.5342526654 -0.0783928775 0.53442873 -0.0787358686 -0.1744592738 0.0710022906
105299370.0 -0.1665699238 0.0679414333 0.534366778 -0.0853061148 0.5347252016 -0.0855470954 -0.1720284392 0.0717754715
110299340.0 -0.1656518982 0.0682901708 0.5348557047 -0.091981231 0.5347162156 -0.0922935601 -0.1707959766 0.0727355203
115299310.0 -0.1638696076 0.0685734798 0.5346025577 -0.098910619 0.5350559315 -0.0990669585 -0.1690850276 0.0733010321
120299280.0 -0.1627633923 0.069494953 0.5344397248 -0.1059582067 0.5348055387 -0.1061629332 -0.1678885563 0.0742883169
125299250.0 -0.161911076 0.0698674532 0.5340057928 -0.1124058922 0.534497742 -0.1127573248 -0.1663866856 0.0747161037
130299220.0 -0.1606042488 0.0707507413 0.5337647044 -0.1193771597 0.5336134315 -0.1192442866 -0.1653716047 0.0758294979
135299190.0 -0.1593103622 0.0710737308 0.5327525999 -0.1257138658 0.532545022 -0.1263916236 -0.1642183937 0.0768975797
140299160.0 -0.1585415895 0.0722679175 0.5322749544 -0.13262403 0.5322263532 -0.1326665383 -0.1629292917 0.0781637299
145299130.0 -0.1573899791 0.072967328 0.5314492021 -0.1396844365 0.5313140807 -0.1390388826 -0.1622113502 0.078797591
150299100.0 -0.1564408622 0.0736100466 0.5303249772 -0.1459924326 0.5302017658 -0.1456869221 -0.1611535023 0.0797372305
155299070.0 -0.15588765 0.0746691448 0.5292182765 -0.1526549825 0.5290687712 -0.1526799054 -0.1599993486 0.0810716774
160299040.0 -0.1548280229 0.0755184416 0.5272883014 -0.1584524835 0.5276642501 -0.1588016065 -0.1588648501 0.0824120967
165299010.0 -0.1543263816 0.0760648626 0.5269251589 -0.1653302431 0.52620661 -0.16545775 -0.1580388143 0.0833243532
170298980.0 -0.1537163993 0.0774066152 0.5239861564 -0.1715525995 0.524531111 -0.171702273 -0.1567860611 0.0844070692
175298950.0 -0.1524898016 0.07832188 0.5234636586 -0.1780067693 0.523336288 -0.1779642676 -0.1560871987 0.085721713
180298920.0 -0.1516473096 0.0790506287 0.5213580678 -0.1844142051 0.5214352762 -0.1841306909 -0.1548382165 0.0871743929
185298890.0 -0.1511644577 0.0803248728 0.5191354471 -0.1905346347 0.5194847722 -0.190502177 -0.1545900904 0.0880941304
190298860.0 -0.1501633024 0.0814243659 0.5173415159 -0.1969548397 0.5178049574 -0.1967551622 -0.1529818652 0.0893519664
195298830.0 -0.149327136 0.0821383418 0.5154082053 -0.2023289797 0.515872979 -0.2032510716 -0.152184407 0.0904809888
200298800.0 -0.1489415636 0.083435721 0.5140058111 -0.2084636407 0.5134551597 -0.2089228402 -0.1507922064 0.0921475664
205298770.0 -0.1480951963 0.0846537273 0.5115553628 -0.2147252784 0.5113549719 -0.214995439 -0.1500904644 0.0929607855
210298740.0 -0.1474920541 0.085557619 0.5092169142 -0.220780447 0.5093474255 -0.2210801524 -0.1491143412 0.0946173779
215298710.0 -0.1464592283 0.0869770814 0.5068496796 -0.2267916138 0.5070609891 -0.2265970582 -0.1483505033 0.0958432865
220298680.0 -0.145765293 0.0881021495 0.5040450466 -0.2328632906 0.5044221002 -0.2324106102 -0.1468494927 0.097523239
225298650.0 -0.1447519318 0.0893243801 0.5016570247 -0.238319003 0.5015468325 -0.2388123184 -0.1462391846 0.0989358598
230298620.0 -0.1446389552 0.0906591294 0.499494575 -0.2442339738 0.4996691002 -0.2444353273 -0.144955441 0.1001916253
235298590.0 -0.1435227812 0.0914793817 0.4965206136 -0.2497299815 0.496775963 -0.2500990682 -0.1441397129 0.1012725268
240298560.0 -0.1431868142 0.0929532612 0.4944808117 -0.2555372114 0.4941709412 -0.2551796563 -0.1427748046 0.1029980106
245298530.0 -0.1417129962 0.0942995893 0.4909105479 -0.2618240028 0.4909313259 -0.2619527692 -0.1416721301 0.1046882673
250298500.0 -0.1413835056 0.0951474704 0.4883416491 -0.2665587425 0.4885843564 -0.2667622138 -0.1403056634 0.1057254053
255298470.0 -0.1404516236 0.0967537062 0.4850463041 -0.2726429396 0.4855125975 -0.2727153545 -0.1394872645 0.1069367116
260298440.0 -0.1396304218 0.0980262111 0.4823220922 -0.278222774 0.4826619463 -0.2782916248 -0.1381273722 0.1088731025
265298410.0 -0.1384633064 0.0997370531 0.4793948829 -0.2841323361 0.479377103 -0.2837788973 -0.1372265969 0.1098929629
270298380.0 -0.1376171153 0.1007100792 0.4761591108 -0.2894798999 0.4763902182 -0.2891299169 -0.1357902858 0.111757074
275298350.0 -0.1372331616 0.1018986885 0.4731901075 -0.2950134247 0.473419737 -0.2947747288 -0.1345739164 0.1132117976
280298320.0 -0.136094197 0.1033587211 0.4701981521 -0.299715673 0.4699276648 -0.3001640377 -0.1334887604 0.1148482254
285298290.0 -0.1351790766 0.104775737 0.4667934092 -0.3049152025 0.4668429548 -0.3054806625 -0.1322036264 0.1160578506
290298260.0 -0.1341686169 0.1057998632 0.463896428 -0.3107233872 0.4637844646 -0.310708376 -0.1304984693 0.1179740247
295298230.0 -0.1332471228 0.1070656454 0.4607062159 -0.3159153502 0.4599473154 -0.315842781 -0.1293656227 0.1193896581
300298200.0 -0.1318962148 0.1086475779 0.456605284 -0.3218823579 0.4569009226 -0.3214619669 -0.1283839018 0.120872282
305298170.0 -0.1308810359 0.1095845896 0.4534728695 -0.3269234112 0.4536547624 -0.3265624317 -0.1263200419 0.1223846485
310298140.0 -0.1294789909 0.1107378285 0.4498230764 -0.33162006 0.4499815839 -0.3322350771 -0.1251616579 0.1242094126
315298110.0 -0.1293493136 0.1119787556 0.4462395635 -0.3370875135 0.446263234 -0.3369690609 -0.123570098 0.124947963
320298080.0 -0.1280119281 0.1132138164 0.4425622926 -0.3417976534 0.4423138931 -0.342297459 -0.1223321333 0.1262527103
325298050.0 -0.1274127324 0.1141635073 0.439032587 -0.3473720913 0.4389026877 -0.3474536667 -0.1210898987 0.1276068555
330298020.0 -0.1262952129 0.1156145614 0.4340454831 -0.3523499725 0.4340853513 -0.3523380407 -0.1202644673 0.1286629597
335297990.0 -0.1252637978 0.1163875321 0.4302337996 -0.3570084894 0.4301530408 -0.3572127297 -0.1186762417 0.1300460128
340297960.0 -0.1249758967 0.1183692646 0.4265223142 -0.3619196626 0.4264802934 -0.3616257049 -0.1178212966 0.1318018333
345297930.0 -0.1236307957 0.1194599358 0.4218356219 -0.3662850762 0.4217485826 -0.3661203002 -0.115934998 0.1330834336
350297900.0 -0.1223018971 0.1207471543 0.418039516 -0.370804445 0.4181522252 -0.3710056295 -0.1149224704 0.1349165038
355297870.0 -0.1214765279 0.1218967114 0.4138538028 -0.3754737561 0.4136786481 -0.3757763818 -0.1136760108 0.1364416068
360297840.0 -0.1204187446 0.1232458213 0.4094732634 -0.3806911236 0.409584707 -0.3802359532 -0.1121737768 0.1379874306
365297810.0 -0.1189005853 0.1248862124 0.4051931323 -0.3848024754 0.4054602647 -0.3847968806 -0.1108616544 0.1395556798
370297780.0 -0.1177148794 0.1257054431 0.4011840575 -0.3886718468 0.4012427866 -0.3895304341 -0.1091906798 0.1407956983
375297750.0 -0.1166241437 0.127761606 0.3972366877 -0.3937340936 0.396871195 -0.3939031226 -0.1074094324 0.1421070566
380297720.0 -0.1154660754 0.128529662 0.3923982496 -0.3978611687 0.3925268504 -0.3975658103 -0.1059812126 0.1437435716
385297690.0 -0.1141949572 0.129803175 0.3879376059 -0.4018673156 0.3881538867 -0.4021155208 -0.1044296545 0.1453296186
390297660.0 -0.1132354928 0.1311646973 0.3834460762 -0.4065750124 0.3835546964 -0.4068918535 -0.1027185173 0.1463362764
395297630.0 -0.1116562879 0.132040609 0.3793576299 -0.4104003783 0.3789827045 -0.4108165699 -0.1011773457 0.1484005522
400297600.0 -0.1108252719 0.1335132687 0.3748725828 -0.4147352375 0.3751723147 -0.4149874835 -0.1004673475 0.1491700617
405297570.0 -0.1091521143 0.1348159533 0.3699673044 -0.4187283639 0.3702113668 -0.4191974147 -0.0982564253 0.1507915919
410297540.0 -0.1076099841 0.1357251274 0.3648557576 -0.4226552912 0.3654777451 -0.4226831663 -0.0967819027 0.1517816362
415297510.0 -0.1067650817 0.1373601198 0.3605823263 -0.4266752612 0.3609930567 -0.4270873483 -0.0951102771 0.1536544914
420297480.0 -0.1053325155 0.1377852873 0.3560477339 -0.4309322266 0.3560826683 -0.4309435276 -0.0935238676 0.154311292
425297450.0 -0.1039906618 0.1391448183 0.3514233242 -0.4347481009 0.3517724629 -0.4348207299 -0.0920736606 0.1558690189
430297420.0 -0.1029116171 0.1406012416 0.3467125456 -0.4388977432 0.346859954 -0.4385505677 -0.0905266887 0.1567397165
435297390.0 -0.1010857609 0.141448574 0.3417933705 -0.4422916162 0.3415993364 -0.4420796624 -0.0886577776 0.1586032148
440297360.0 -0.0993987943 0.1426593165 0.3361646348 -0.4460631256 0.3360987845 -0.4457753263 -0.0868569402 0.1590663405
445297330.0 -0.0981053867 0.1437791024 0.3312084114 -0.4499246628 0.3319565674 -0.4494477904 -0.0851375815 0.1602957197
450297300.0 -0.0967831205 0.1446796794 0.3268653064 -0.4534090031 0.3271683451 -0.4532200983 -0.0836703348 0.1613087202
455297270.0 -0.0954623932 0.145652851 0.3219661333 -0.4565437967 0.3222019759 -0.4567455863 -0.0816196615 0.162778224
460297240.0 -0.0944511867 0.1467210252 0.3172594128 -0.4597044586 0.316701 -0.4604211355 -0.0798351143 0.1644773723
465297210.0 -0.0924879094 0.1477503886 0.3122153515 -0.4637449829 0.312321379 -0.4638455943 -0.0789365131 0.1646628613
470297180.0 -0.091278848 0.1487879485 0.3067593891 -0.4666635538 0.3071266437 -0.467007988 -0.0769624877 0.1658301509
475297150.0 -0.089835938 0.1499803014 0.3016948604 -0.4704345898 0.3019257447 -0.4699696266 -0.0744624168 0.1668590995
480297120.0 -0.0883322471 0.1505843866 0.2963555332 -0.4731760449 0.296670492 -0.4730955241 -0.0728695869 0.1683650991
485297090.0 -0.0867152704 0.1515798662 0.2916255715 -0.476689797 0.2916084026 -0.4768629827 -0.0712272479 0.1691073571
490297060.0 -0.0852630919 0.1524175789 0.2861751011 -0.4797346289 0.2861932626 -0.4798010784 -0.0695960926 0.1698991393
495297030.0 -0.0842105396 0.1538639149 0.2813125783 -0.4828873867 0.2806498917 -0.4829021809 -0.0674348928 0.1707722155
500297000.0 -0.0823657675 0.1543666725 0.275375278 -0.4860801017 0.2756177128 -0.4858319203 -0.0660435995 0.1718375433
505296970.0 -0.081223356 0.1552798839 0.2701756032 -0.4880947089 0.2704174047 -0.4888766258 -0.0643529342 0.1726972177
510296940.0 -0.0793404692 0.1563676932 0.2648453324 -0.4917144866 0.2651473604 -0.4917569732 -0.0618726215 0.1738049431
515296910.0 -0.0781161751 0.1572487482 0.2594077546 -0.4941018089 0.259854881 -0.4943123304 -0.0602958463 0.1744386624
520296880.0 -0.0764957757 0.1582646983 0.2537426521 -0.4973928286 0.2541076926 -0.4971673136 -0.0583317894 0.1753069353
525296850.0 -0.0750431396 0.1587830111 0.2488375415 -0.4996889099 0.2491423323 -0.500200483 -0.0561266849 0.1761642714
530296820.0 -0.0734235767 0.159708119 0.2432827554 -0.5020072806 0.2434208924 -0.5023956982 -0.054726751 0.1766201893
535296790.0 -0.0719576716 0.1607262565 0.2377053627 -0.5049968416 0.2376923363 -0.5046267369 -0.0528506968 0.1774047091
540296760.0 -0.070449551 0.1614236727 0.232067303 -0.5083286952 0.2319513972 -0.5080252919 -0.050965286 0.1784077801
545296730.0 -0.0687157976 0.1623067343 0.2267903802 -0.5097207724 0.2270927991 -0.5102762133 -0.0492821551 0.1788755413
550296700.0 -0.0674272913 0.1629431689 0.2213386403 -0.5124021901 0.2216158856 -0.5125000361 -0.0472727217 0.1799519385
555296670.0 -0.0653731443 0.1635357154 0.2154564727 -0.5148930681 0.2160825333 -0.514934373 -0.0453973809 0.1806593939
560296640.0 -0.0640232902 0.164225283 0.2101532011 -0.5168154277 0.210017209 -0.5168925004 -0.0430865294 0.1812709887
565296610.0 -0.0628669646 0.1652578394 0.204403189 -0.519147354 0.2043669424 -0.5193098569 -0.041235158 0.1819531073
570296580.0 -0.0607308673 0.1658004723 0.1984410573 -0.5214435746 0.1992425569 -0.5216581902 -0.0391759338 0.183141276
575296550.0 -0.0592313072 0.167100828 0.1932776845 -0.5235270318 0.1938047964 -0.5233957815 -0.0369732735 0.1831139294
580296520.0 -0.0577076429 0.1673213086 0.1875547504 -0.525778437 0.1873846293 -0.5257065193 -0.0351589883 0.1836726773
585296490.0 -0.0558757169 0.1677930547 0.1818950432 -0.5276300937 0.1818755564 -0.5273278982 -0.0333421715 0.1840317207
590296460.0 -0.0547003489 0.1683154232 0.1761274864 -0.5293388538 0.1756159229 -0.5297542608 -0.0311525539 0.1846529226
595296430.0 -0.0529748231 0.1693934869 0.17053913 -0.5315470554 0.170346728 -0.5317556574 -0.0290628125 0.1848046655
600296400.0 -0.0511411428 0.1699874652 0.1644125313 -0.5329317747 0.1647851351 -0.533255975 -0.0268814977 0.1860854902
605296370.0 -0.0495771891 0.1706967288 0.1588890296 -0.5348662103 0.1589039968 -0.5346686022 -0.0252955786 0.1859310206
610296340.0 -0.0479907844 0.1713600527 0.1534031714 -0.5365306232 0.1535373261 -0.5366456141 -0.0232689217 0.1869004062
615296310.0 -0.0462080133 0.1721816943 0.1470448347 -0.5380165032 0.1470443256 -0.5383102328 -0.0212278611 0.1868957493
620296280.0 -0.0445438778 0.1725268695 0.1413364055 -0.5395472113 0.1415909444 -0.5395767603 -0.0194205482 0.1869008372
625296250.0 -0.0428159606 0.1730219865 0.1352939387 -0.5413896013 0.1352938337 -0.5412098295 -0.0169291222 0.187805001
630296220.0 -0.0411799394 0.1736171932 0.1291454673 -0.5423962399 0.1297465618 -0.542812999 -0.0152286029 0.1881271666
635296190.0 -0.0396384241 0.1742692423 0.1236557598 -0.5435663478 0.1237025277 -0.5433182151 -0.0132765967 0.1884785903
640296160.0 -0.0377752514 0.1745017921 0.1181952791 -0.5449319299 0.1176471668 -0.545294334 -0.0107679676 0.1885899604
645296130.0 -0.036272948 0.1754247769 0.1118625787 -0.5464163321 0.1123064438 -0.5463589346 -0.0095050049 0.1889477617
650296100.0 -0.0346268994 0.1762247932 0.1064430277 -0.5473759624 0.1062931212 -0.5470169775 -0.007233578 0.1893695511
655296070.0 -0.0328863958 0.1761114966 0.1002469733 -0.5483073196 0.0999706756 -0.5484123056 -0.0046303717 0.1894097569
660296040.0 -0.0315988714 0.17696565 0.0946311984 -0.5491407968 0.0946013636 -0.5491600163 -0.0030857132 0.1896204868
665296010.0 -0.0293669842 0.1773533402 0.0886316482 -0.5504236022 0.0890124196 -0.5501857171 -0.0010741211 0.1899128447
670295980.0 -0.0271037903 0.177944146 0.0823162052 -0.5513733752 0.0826775454 -0.5513096351 0.0009576245 0.1901512132
675295950.0 -0.0256113665 0.1781309705 0.0763118998 -0.5521945948 0.0767091388 -0.5526844892 0.0034266458 0.190546631
680295920.0 -0.0243509104 0.1789543272 0.0705286883 -0.5530547996 0.0703328047 -0.5528436457 0.0054475787 0.1900293726
685295890.0 -0.0223701556 0.1789549798 0.0646138192 -0.5534086948 0.0642880023 -0.5536792829 0.0074224645 0.1905217634
690295860.0 -0.020309727 0.1793048604 0.0588008415 -0.5536315642 0.0582664147 -0.5541760266 0.009356593 0.1906942786
695295830.0 -0.0184910145 0.1795769619 0.0522603071 -0.5548490982 0.0521687924 -0.5546736948 0.0109616417 0.1907050398
700295800.0 -0.0167091425 0.1799062202 0.046071831 -0.5550536209 0.0467510645 -0.5555944461 0.0133405591 0.1903469671
705295770.0 -0.0150470741 0.180357509 0.0406693429 -0.5558445289 0.0407765544 -0.555605089 0.0152297314 0.1907724294
710295740.0 -0.0131734817 0.1807014656 0.0344995778 -0.5556504761 0.0346036714 -0.5562231272 0.0169072667 0.1909973573
715295710.0 -0.0116700251 0.1810668299 0.0285301002 -0.5563796508 0.0288041295 -0.5562952627 0.0192794941 0.1902067677
720295680.0 -0.0098417081 0.1809569509 0.0226121995 -0.5561559562 0.0228154204 -0.55708871 0.0219598985 0.1906382813
725295650.0 -0.0076926055 0.1814299213 0.0160455127 -0.5566423138 0.0167783058 -0.5565730648 0.0236472899 0.1904825798
730295620.0 -0.0063865293 0.1813409344 0.0104210705 -0.557149964 0.0105597808 -0.5568591252 0.0260096608 0.190005409
735295590.0 -0.0040055719 0.1818505857 0.0046602615 -0.5570539203 0.0048331805 -0.5574042709 0.0279716615 0.1902418803
740295560.0 -0.0027831238 0.1822511764 -0.0015185262 -0.5563699628 -0.0016294262 -0.5570394147 0.0302063276 0.1898636576
745295530.0 -0.000662334 0.1821390797 -0.0074120306 -0.55721388 -0.007403168 -0.557183407 0.0319084746 0.1897395951
750295500.0 0.000821698 0.1823958652 -0.0129902452 -0.5564394817 -0.0134407214 -0.5566909562 0.0338733096 0.189276239
755295470.0 0.0032666174 0.1828690726 -0.019208827 -0.5564118556 -0.0189378664 -0.5566423939 0.035399339 0.1893064531
760295440.0 0.004538121 0.1827784506 -0.0255106949 -0.5563121275 -0.0255373427 -0.5564799802 0.0375713395 0.1887522169
765295410.0 0.0062031936 0.1824338882 -0.0308255019 -0.5555332083 -0.0310312498 -0.5561446446 0.0405873422 0.1888874843
770295380.0 0.008251786 0.1828772046 -0.0376635844 -0.5554385902 -0.0374102921 -0.5556983841 0.0426872178 0.1884110147
775295350.0 0.0100230858 0.1830633911 -0.0434663908 -0.5543279024 -0.0431660037 -0.5548941436 0.0440577791 0.1876876083
780295320.0 0.0120922596 0.1827757362 -0.0489656119 -0.5540940041 -0.0491959203 -0.5545472694 0.0462918703 0.187805599
785295290.0 0.0136282796 0.1835171774 -0.0554957837 -0.5531046393 -0.0553635458 -0.5537893276 0.047865956 0.1873112159
790295260.0 0.0153855683 0.1831786162 -0.061096375 -0.5532619649 -0.0613680347 -0.5533891311 0.0504652383 0.1869601184
795295230.0 0.0172154972 0.18309917 -0.0670904585 -0.5518803357 -0.0670847809 -0.5525599352 0.0525413171 0.1871046865
800295200.0 0.019002223 0.1833310998 -0.0735292273 -0.5518384026 -0.0733111551 -0.5522097862 0.0546217095 0.1863834523
805295170.0 0.0203984841 0.1829888766 -0.0788728577 -0.5504550852 -0.079369432 -0.5505997824 0.0561894557 0.1855030518
810295140.0 0.0225716236 0.1827882045 -0.0844327136 -0.5497328188 -0.084684873 -0.5503017113 0.0584333174 0.1857714164
815295110.0 0.0243600038 0.1830326072 -0.0911510424 -0.5485196061 -0.0908966767 -0.5493560901 0.0603301002 0.1844626339
820295080.0 0.0262372554 0.1828305271 -0.0969719043 -0.547939743 -0.0966726245 -0.5484013278 0.0620982455 0.1840974486
825295050.0 0.0281993777 0.1827351962 -0.1027184186 -0.5460391634 -0.1026505087 -0.5470089804 0.0645884235 0.1835941029
830295020.0 0.0297610177 0.1828784875 -0.1084339961 -0.54548493 -0.1088914779 -0.546055239 0.066593436 0.1830553804
