!Created with skrf (http://scikit-rf.org).
# Hz S RI R 50.0 
!freq ReS11 ImS11 ReS21 ImS21 ReS12 ImS12 ReS22 ImS22
300000.0 -0.7737456591 -0.1580926467 -0.000324245 0.0001439268 -0.0006618074 -0.000420265 0.8604246982 -0.0020940652
5299970.0 -0.7849062242 -0.0076289273 8.0681e-05 5.7711e-06 -9.6604e-05 -0.0001604005 0.8589433459 -0.0109747669
10299940.0 -0.7879121045 -0.0041025073 5.21275e-05 -0.0001269532 -1.39818e-05 3.29946e-05 0.8582385023 -0.0185863375
15299910.0 -0.7930329483 -0.0010799209 0.0001235715 -5.53499e-05 -0.0001433221 4.05213e-05 0.8572429548 -0.0272595517
20299880.0 -0.7998851999 0.0020351916 8.9874e-06 -1.21485e-05 7.59199e-05 7.11568e-05 0.8564349369 -0.0363851734
25299850.0 -0.8063038365 0.0085265278 6.65581e-05 -5.6568e-06 -0.0001397466 -0.0001857928 0.8554209966 -0.0439300712
30299820.0 -0.8121234026 0.016413003 -1.7528e-06 7.73333e-05 -4.48893e-05 2.09878e-05 0.8552381589 -0.0520511906
35299790.0 -0.8171424052 0.0253000049 -0.0001458598 3.14734e-05 1.16141e-05 -7.30705e-05 0.8544443504 -0.0604506156
40299760.0 -0.821367933 0.0339190916 3.935e-06 -6.09468e-05 0.0001192872 -1.67815e-05 0.8535747376 -0.0687984907
45299730.0 -0.8247349418 0.0440839159 -8.18226e-05 0.0001316224 -7.37291e-05 0.0001080711 0.8529286227 -0.0771355846
50299700.0 -0.826738234 0.0540616672 8.29265e-05 8.583e-05 -8.52149e-05 0.0001097601 0.8513606243 -0.0850727381
55299670.0 -0.8285234811 0.0642064098 -6.43615e-05 -8.553e-05 9.698e-07 0.000202393 0.8505095537 -0.0928433711
60299640.0 -0.829924253 0.0747133818 -5.16487e-05 2.99096e-05 9.24673e-05 -1.22567e-05 0.8497531373 -0.1017908062
65299610.0 -0.8307320596 0.0847809913 0.0002362812 2.73228e-05 0.0001388093 0.0002459063 0.8485525946 -0.109974462
70299580.0 -0.8316529615 0.0947764062 -6.8425e-05 7.5388e-05 0.000274308 4.46907e-05 0.8479094145 -0.1185894648
75299550.0 -0.8311418429 0.1047144013 -0.0001322369 -5.31833e-05 -3.4144e-06 3.81274e-05 0.8467281434 -0.1262274326
80299520.0 -0.8311811674 0.1148498106 0.0001303931 4.65494e-05 0.0001479137 -0.0001706409 0.8448567662 -0.1342310194
85299490.0 -0.8307519421 0.1242435068 1.21315e-05 -7.69074e-05 -0.0004458322 -5.95205e-05 0.843568 -0.1428047106
90299460.0 -0.8294394181 0.1340772151 -5.94021e-05 -1.00315e-05 -1.743e-06 0.0001456975 0.8418040284 -0.1511984481
95299430.0 -0.8288823007 0.1435647012 6.6344e-05 -3.1717e-05 -2.89873e-05 0.0001132152 0.8398673345 -0.15918051
100299400.0 -0.8274834974 0.1529795551 8.26325e-05 0.0001243013 -8.37971e-05 -6.15987e-05 0.8389935471 -0.1672564648
105299370.0 -0.8265898003 0.1620186439 0.0001788499 8.9003e-06 -7.93865e-05 5.1801e-06 0.8371117736 -0.1755743473
110299340.0 -0.825458949 0.1713194692 -6.89115e-05 4.82881e-05 4.67267e-05 -7.20698e-05 0.8349746 -0.1836952359
115299310.0 -0.823710387 0.1805372693 5.28441e-05 0.0001082378 5.29852e-05 0.0002013603 0.8330845003 -0.1923241735
120299280.0 -0.8219657796 0.1893950622 -0.0004204709 -9.29591e-05 -0.000114074 -9.95882e-05 0.8307344214 -0.1995999109
125299250.0 -0.8205352812 0.1986177949 0.0002024524 -6.20225e-05 -1.03811e-05 -5.36635e-05 0.8290325491 -0.2084926704
130299220.0 -0.818392049 0.207163705 4.10585e-05 -7.41531e-05 0.0003024684 4.11219e-05 0.8270999894 -0.216278857
135299190.0 -0.816542669 0.2167799309 -0.00010015 -7.9612e-05 -6.64681e-05 9.18661e-05 0.8254116762 -0.2243115911
140299160.0 -0.8145434046 0.2257988174 -8.4725e-06 7.3841e-05 0.0001087636 3.21414e-05 0.8228484384 -0.2319921791
145299130.0 -0.8122248521 0.2342578833 -0.00023859 0.0001103746 -0.000113786 -0.0001468441 0.8199955941 -0.2409143634
150299100.0 -0.8103088339 0.2431802878 -0.0001755174 2.81237e-05 -5.70905e-05 3.44695e-05 0.8177554981 -0.2488705781
155299070.0 -0.8076129741 0.2520569038 -9.83833e-05 1.76404e-05 7.485e-06 -0.0002710466 0.8153064191 -0.255881017
160299040.0 -0.8051745896 0.2611397876 9.0789e-06 -0.0001787683 -0.0001123957 0.0001697889 0.8125132836 -0.2646011797
165299010.0 -0.8019714584 0.2691096307 -2.62262e-05 -0.0001791871 1.09865e-05 -0.0001049184 0.8104745701 -0.2723407002
170298980.0 -0.7992550215 0.2779741298 -0.0001052039 -0.0001398062 -5.29994e-05 -0.0001749335 0.8075194225 -0.2800175523
175298950.0 -0.7966640864 0.287132682 -0.0001299826 7.15515e-05 2.11222e-05 -2.77274e-05 0.8049708929 -0.2882859199
180298920.0 -0.7939218338 0.2948044992 -2.29675e-05 7.39929e-05 -0.0002093667 -0.0001073936 0.8017247534 -0.2961263854
185298890.0 -0.7904470806 0.3040679164 -5.85821e-05 -5.58347e-05 -0.0001026785 -0.0001156199 0.7986615426 -0.3039129805
190298860.0 -0.7870020415 0.312257806 -7.557e-07 -5.76478e-05 0.0001682806 -3.40637e-05 0.7962983841 -0.3112034994
195298830.0 -0.7839929544 0.3209894826 -6.4767e-06 0.0001212672 9.35189e-05 4.1434e-05 0.7929839299 -0.3189351944
200298800.0 -0.7810479071 0.3293405869 -2.83835e-05 -1.27635e-05 7.68768e-05 6.25679e-05 0.7900973396 -0.3276862962
205298770.0 -0.7773578462 0.3371829991 7.33989e-05 0.0001897616 -1.92903e-05 -0.0001069757 0.7869165467 -0.334755479
210298740.0 -0.7736867227 0.3460032092 -8.64104e-05 -3.44166e-05 0.0001114306 0.0001118212 0.7833664821 -0.3423533712
215298710.0 -0.7703738266 0.3538693849 -3.3897e-05 -0.0001213317 -0.0001988962 -0.00012114 0.7796054121 -0.3503358738
220298680.0 -0.7671936112 0.3622759391 -0.0001834344 0.0001335634 -7.79601e-05 -0.000110633 0.7769823434 -0.357269253
225298650.0 -0.7631973092 0.371333494 2.06727e-05 -8.78509e-05 4.85899e-05 -0.0002267257 0.7724081104 -0.3648771589
230298620.0 -0.7586175709 0.3782924652 -9.37706e-05 0.0001482052 4.53973e-05 1.33083e-05 0.7699677565 -0.3726773523
235298590.0 -0.7547124179 0.3871163972 -2.11008e-05 7.52727e-05 3.72908e-05 -2.20922e-05 0.7658089192 -0.3797936073
240298560.0 -0.7512812068 0.395233707 7.96673e-05 0.0002855019 -0.0001593915 3.36198e-05 0.7623491446 -0.3875872362
245298530.0 -0.7464683874 0.4030560892 9.0574e-05 4.73353e-05 0.000223174 -8.82178e-05 0.7581528004 -0.3949258391
250298500.0 -0.7425201733 0.4104425467 -0.0001257184 0.0001515164 -1.10994e-05 4.0601e-06 0.7543535471 -0.4022792038
255298470.0 -0.7375531261 0.4184592775 3.44815e-05 4.74432e-05 -5.28755e-05 0.0001090414 0.7509380957 -0.4092590114
260298440.0 -0.7333845863 0.4259072001 0.000113028 9.55664e-05 -4.70631e-05 7.89436e-05 0.7465251861 -0.4161615135
265298410.0 -0.7291986505 0.4338287385 -4.6871e-06 7.66498e-05 -2.73986e-05 2.8921e-06 0.7429831239 -0.4240426233
270298380.0 -0.7245903044 0.4417490192 -0.0001006043 7.67091e-05 2.8794e-06 1.97318e-05 0.739306926 -0.4309116164
275298350.0 -0.719436407 0.4494422805 5.51547e-05 -0.0001286707 -0.0002053907 3.5945e-05 0.7345725847 -0.4371590085
280298320.0 -0.7153936823 0.4562920231 0.0002278191 -5.53036e-05 -0.0001061827 -6.50232e-05 0.7307123763 -0.4455369908
285298290.0 -0.7096663119 0.4645828452 -0.0002329202 0.0001907744 -4.93072e-05 -9.82214e-05 0.7263272615 -0.4518651077
290298260.0 -0.7052423843 0.471966282 -6.38599e-05 0.0001390675 4.53949e-05 -6.4835e-06 0.7227335261 -0.4592128753
295298230.0 -0.7005486565 0.4793164481 -8.42374e-05 0.0002458827 -0.0001169306 -5.63998e-05 0.718036682 -0.4657032373
300298200.0 -0.6948959253 0.4869021677 0.0002047445 -9.17822e-05 -0.0001495023 -0.0001832942 0.7137962272 -0.4733961933
305298170.0 -0.6897816339 0.4941406712 3.95278e-05 0.0001448575 -1.66254e-05 3.81764e-05 0.7100243127 -0.4798212931
310298140.0 -0.6846688835 0.5010439777 -8.1884e-06 -5.25259e-05 2.5502e-06 -0.0001944159 0.7058020905 -0.4868960242
315298110.0 -0.679134878 0.5081275538 -4.145e-05 -8.89795e-05 -3.659e-06 -4.71774e-05 0.7009724197 -0.4944015037
320298080.0 -0.6745140593 0.5156042663 -7.64936e-05 5.93769e-05 -9.91776e-05 5.83516e-05 0.6964136164 -0.5013286841
325298050.0 -0.6684126234 0.5219024307 1.0575e-06 -8.21879e-05 -6.25254e-05 -2.54564e-05 0.6912653018 -0.5093929913
330298020.0 -0.6631025648 0.5293690403 6.77589e-05 -4.61907e-05 2.89988e-05 -0.0001745136 0.6855919428 -0.5167960699
335297990.0 -0.6572403552 0.5362516348 -0.0003392094 2.11193e-05 7.96215e-05 -4.48948e-05 0.680001389 -0.5230646297
340297960.0 -0.6520593984 0.5428430075 1.2619e-05 0.0001849812 2.7888e-06 0.0001112814 0.6743346302 -0.5296094251
345297930.0 -0.6462793565 0.5494327686 9.3661e-06 -0.0001989847 6.73409e-05 -2.35074e-05 0.6686614494 -0.5354719041
350297900.0 -0.6405718142 0.5558732209 -7.35942e-05 0.000109695 -0.0001185214 0.0001432196 0.6632015177 -0.5413964143
355297870.0 -0.6341605694 0.5623716154 0.0001234288 -0.0001778416 -6.20249e-05 3.56922e-05 0.6576407551 -0.5477232589
360297840.0 -0.6283202757 0.5689273682 0.0001724811 0.0001850788 0.0001837648 -3.2117e-06 0.6519563552 -0.5538087078
365297810.0 -0.6222560956 0.575052525 -5.27253e-05 0.0001385203 -0.0001054019 1.0782e-06 0.6468006321 -0.5602459407
370297780.0 -0.6166379455 0.5816381307 -5.2336e-06 0.0003972904 -4.06074e-05 3.28601e-05 0.6410740591 -0.5657313112
375297750.0 -0.610009896 0.5883202283 -1.22308e-05 -3.00214e-05 7.09536e-05 3.226e-07 0.6354625656 -0.572027443
380297720.0 -0.6039114735 0.5948624189 -8.89738e-05 0.0002600946 1.71e-07 5.64138e-05 0.6298728266 -0.5777369043
385297690.0 -0.5975827957 0.6007239863 -6.26437e-05 -7.73503e-05 2.6072e-05 -9.18996e-05 0.6237526193 -0.5831953207
390297660.0 -0.5913498736 0.6068111948 4.3192e-06 -6.45934e-05 1.01134e-05 1.37614e-05 0.6188240544 -0.5897843926
395297630.0 -0.5853862971 0.6133223221 5.46468e-05 0.0001452191 -8.9174e-05 1.64169e-05 0.6129417751 -0.5949864907
400297600.0 -0.5791604571 0.6195235258 5.40918e-05 -0.0002501523 -6.36542e-05 0.0001107954 0.6064164456 -0.6012222304
405297570.0 -0.5727243045 0.6251397034 8.24081e-05 0.0001687947 -1.1602e-06 -1.95292e-05 0.6012181283 -0.6064326338
410297540.0 -0.5655946104 0.6313419611 -0.0001137303 -4.4703e-06 0.0002565473 0.0002215974 0.5952563262 -0.6125064159
415297510.0 -0.5590972292 0.6363486504 0.0002460801 2.68799e-05 -1.44043e-05 -1.0101e-06 0.5889942692 -0.6181276397
420297480.0 -0.5514942476 0.6428084613 -0.0001052148 7.85061e-05 -7.19762e-05 -0.0002444001 0.5825775826 -0.6238463764
425297450.0 -0.5457320034 0.6483491756 -0.0003468442 0.0001385935 1.08517e-05 9.66868e-05 0.5766356106 -0.628746134
430297420.0 -0.5400169306 0.6535137255 8.9028e-05 -0.0001497748 -8.99261e-05 6.8633e-05 0.5708025351 -0.6349826402
435297390.0 -0.5320156265 0.6590069552 -0.0001108074 0.0001135147 -0.0002118225 0.0001305005 0.5644074976 -0.6399005787
440297360.0 -0.525586536 0.6644920149 -0.0001694001 -0.0002131184 0.0001735173 -7.15589e-05 0.5575111841 -0.6455402723
445297330.0 -0.518487039 0.670127738 4.9901e-06 -0.0001907939 2.26259e-05 2.42114e-05 0.5516871186 -0.6511608711
450297300.0 -0.5111495506 0.674358046 4.7299e-06 -0.0001387518 5.29128e-05 0.0002421153 0.5450860882 -0.6562040868
455297270.0 -0.504083641 0.6803920998 -0.0002376081 -0.0001364077 -3.75133e-05 2.70491e-05 0.5388953581 -0.6614482384
460297240.0 -0.498007918 0.6851633796 7.28461e-05 -0.000345572 4.66457e-05 0.0001192022 0.5327864842 -0.6664986706
465297210.0 -0.4898484797 0.6904019623 -4.71349e-05 -0.0001686522 -2.61017e-05 0.0002040351 0.5251036876 -0.6719182526
470297180.0 -0.4830216551 0.6946948299 7.92178e-05 -2.10704e-05 -3.04893e-05 -0.0001070377 0.5190083348 -0.6770932839
475297150.0 -0.4755673836 0.7001495655 0.0001644005 1.10408e-05 0.0001297541 -8.32007e-05 0.5127972768 -0.6818519199
480297120.0 -0.4688190902 0.7046348927 -8.59057e-05 -8.9331e-06 5.95352e-05 9.06416e-05 0.5051250516 -0.6866653701
485297090.0 -0.461255125 0.7096806648 -0.0002606697 -6.9942e-05 -9.4672e-05 3.02204e-05 0.498360506 -0.6917365822
490297060.0 -0.4545021077 0.7147463862 4.20293e-05 -2.04165e-05 -0.0001493434 3.74114e-05 0.4919855005 -0.6965561993
495297030.0 -0.4473814185 0.718554673 4.09346e-05 -2.21758e-05 0.0002288067 0.0001063814 0.4848938083 -0.7012772126
500297000.0 -0.4386810015 0.7235476966 -0.0001361328 0.0001857836 0.0001532801 -1.41294e-05 0.4775663569 -0.7063956516
505296970.0 -0.431729039 0.7268877437 8.79454e-05 9.89429e-05 3.34757e-05 -2.59386e-05 0.470348514 -0.7106743141
510296940.0 -0.4245978319 0.732077992 -0.0001332895 -8.82448e-05 -3.46742e-05 0.0001178655 0.4630153639 -0.7149070702
515296910.0 -0.4169460127 0.7363083884 -7.54757e-05 1.96912e-05 1.44055e-05 -9.29591e-05 0.4552819715 -0.7188223261
520296880.0 -0.4091016401 0.7406199736 -3.87854e-05 0.0002201552 9.27668e-05 1.93607e-05 0.4497019518 -0.7243798259
525296850.0 -0.4013794563 0.744337314 -0.0001465061 0.0001218243 0.0001023575 -3.89543e-05 0.442701887 -0.7280673197
530296820.0 -0.39440905 0.7481474589 1.74635e-05 -2.43212e-05 -3.06337e-05 -9.73319e-05 0.4344673986 -0.7330297243
535296790.0 -0.3859190707 0.7526292402 4.21705e-05 0.0001196302 -2.466e-06 -4.43513e-05 0.4275014509 -0.7377122043
540296760.0 -0.378586165 0.7561729041 -0.0001019612 -0.0001140041 0.0001364746 3.84962e-05 0.4197373439 -0.7408211112
545296730.0 -0.3711580598 0.7595282801 -6.97344e-05 0.0001299839 5.50441e-05 -9.08146e-05 0.4125124978 -0.7447516358
550296700.0 -0.3635133476 0.7636368108 0.0001565366 -0.0001063789 -0.0001219991 0.0001197886 0.4052109698 -0.7491431463
555296670.0 -0.3547049742 0.7671701985 6.50304e-05 -6.11154e-05 6.55e-08 0.0001728284 0.3975717089 -0.752298318
560296640.0 -0.3469960889 0.7703234754 -0.0001072828 3.71904e-05 -2.86053e-05 -7.16356e-05 0.3900455025 -0.7569138125
565296610.0 -0.3394973016 0.7736986202 5.3518e-05 -9.19538e-05 -0.0001127775 0.0001290409 0.3830506058 -0.7600624455
570296580.0 -0.33133873 0.7775344959 0.0002262923 -0.0002080801 -2.65562e-05 -4.12286e-05 0.3748818018 -0.7637419755
575296550.0 -0.3234770631 0.780894382 4.44491e-05 3.39604e-05 2.91446e-05 -9.61388e-05 0.3675296424 -0.7677609057
580296520.0 -0.315535347 0.7841551941 2.75409e-05 -3.01065e-05 -1.84269e-05 5.51008e-05 0.3591716812 -0.7705847678
585296490.0 -0.3077535545 0.7864869583 -6.69265e-05 0.0001338938 -8.69085e-05 -1.89414e-05 0.3520500362 -0.7752361109
590296460.0 -0.2997738392 0.7897444245 -0.0001075826 -0.0001775533 0.0003059912 -0.0001370245 0.3444169843 -0.7777230319
595296430.0 -0.2912024524 0.7935129287 0.0001517985 0.0002163515 0.0002293426 -0.0001311397 0.3355701109 -0.7807103141
600296400.0 -0.2832283602 0.7958499962 0.0002380289 -0.0002115664 1.79928e-05 -5.32689e-05 0.328460626 -0.7840801511
605296370.0 -0.2751896816 0.7989094812 -2.69639e-05 0.0002191616 -4.38422e-05 -4.03108e-05 0.320280985 -0.7869772542
610296340.0 -0.2673593718 0.801398891 8.111e-06 7.4135e-06 -4.36839e-05 6.79144e-05 0.3118226093 -0.7897030867
615296310.0 -0.2593186032 0.8046334828 -0.0001395073 3.13268e-05 1.74307e-05 0.0001130186 0.3048676346 -0.7939690065
620296280.0 -0.2506956991 0.8058627752 -4.91219e-05 -1.98529e-05 -0.0003013054 0.0001198454 0.2969540624 -0.7964174651
625296250.0 -0.2426213972 0.8091627816 0.0001204729 -4.73495e-05 -2.39105e-05 1.65498e-05 0.2889812742 -0.7984464946
630296220.0 -0.2341750696 0.8119561567 0.0001804537 -0.000271479 -4.59399e-05 0.0001157803 0.2802067452 -0.8012094489
635296190.0 -0.2261918398 0.8136896889 -3.46223e-05 -4.37472e-05 -8.09369e-05 0.0001071759 0.2727394421 -0.803338392
640296160.0 -0.2178386331 0.815334489 -9.77611e-05 -7.9675e-05 3.07037e-05 9.0696e-06 0.2643935526 -0.8066005027
645296130.0 -0.2099757166 0.8176450247 6.98883e-05 0.0001327474 -6.33625e-05 -1.26885e-05 0.2561335654 -0.8089903586
650296100.0 -0.2019107669 0.8202010481 0.0001048723 3.19387e-05 -0.0001796601 0.0002508055 0.2477801742 -0.811102081
655296070.0 -0.1932477505 0.822195932 2.16377e-05 9.7626e-05 5.6924e-06 -4.05391e-05 0.239645342 -0.8132735998
660296040.0 -0.1856302298 0.8240776622 4.4061e-05 -0.0003472185 4.45473e-05 -0.0002638352 0.231992061 -0.8157191184
665296010.0 -0.1768798146 0.8257189837 -9.29708e-05 -2.06699e-05 -2.32922e-05 6.01801e-05 0.2239207858 -0.8178024348
670295980.0 -0.1680568094 0.8273941722 3.73973e-05 0.000168053 0.0001068979 -7.526e-07 0.2161455034 -0.8201050054
675295950.0 -0.1598562258 0.8287886157 0.0001831746 -9.11096e-05 0.0001289625 4.8266e-06 0.2075749982 -0.821747261
680295920.0 -0.151684758 0.8306118496 -0.0001897951 -5.77566e-05 8.0594e-06 8.46156e-05 0.1990479746 -0.8239935978
685295890.0 -0.1429475132 0.8321085518 8.21873e-05 4.6553e-05 -8.7005e-06 -9.9411e-05 0.191705629 -0.8252649822
690295860.0 -0.1344351725 0.8336292034 -2.218e-05 0.0001454212 -0.0001794055 -4.25887e-05 0.1831448905 -0.8266659237
695295830.0 -0.1258799605 0.8342217484 6.33181e-05 -9.66531e-05 -5.14382e-05 0.0001442347 0.1742101882 -0.8293302608
700295800.0 -0.1179675616 0.8357568811 -7.0699e-06 9.64371e-05 0.0001458191 0.0001679205 0.1662345039 -0.8303818848
705295770.0 -0.1086682908 0.8373468331 -0.0001138259 -2.50553e-05 -0.0001229796 -3.22247e-05 0.157557497 -0.8311571283
710295740.0 -0.1014328748 0.8381378029 2.68972e-05 0.0001011509 0.0002045249 -0.0001143924 0.1488292343 -0.8322367438
715295710.0 -0.092512263 0.8397314513 2.9029e-05 0.0001481426 5.78411e-05 2.1925e-05 0.1413132031 -0.8340074663
720295680.0 -0.0843032018 0.8400207104 -2.78151e-05 8.56952e-05 -2.1662e-05 -9.01784e-05 0.132764844 -0.8352423299
725295650.0 -0.0745759664 0.8409787766 0.0001946332 0.0002079641 9.4426e-06 -0.0001863998 0.1246596737 -0.8360387765
730295620.0 -0.067297769 0.8414691601 4.9262e-06 6.10067e-05 1.99116e-05 -1.82924e-05 0.1163791237 -0.8377839334
735295590.0 -0.0579160831 0.8415723991 -1.72335e-05 -0.0001231006 -0.0001036847 4.72103e-05 0.1076678203 -0.8387510321
740295560.0 -0.0501468857 0.84285836 3.33879e-05 8.01585e-05 0.0001165711 -0.0001437842 0.0990422804 -0.8393574124
745295530.0 -0.0418396585 0.8425779396 -0.000152105 -5.10678e-05 0.0001697357 -2.17656e-05 0.0908446353 -0.8403683675
750295500.0 -0.0336062401 0.8425347678 1.1576e-05 -5.59761e-05 -0.0001025722 -6.03684e-05 0.0824530321 -0.8414340695
755295470.0 -0.024113775 0.8431857197 8.8554e-06 6.24691e-05 5.95531e-05 6.04963e-05 0.0739480057 -0.8412625338
760295440.0 -0.0160905891 0.8438053672 -0.000253353 -8.68239e-05 7.90779e-05 0.0001568546 0.0657252695 -0.8428415858
765295410.0 -0.0079794342 0.8440022723 9.49254e-05 -6.0904e-05 0.0001088613 -0.0001486778 0.0575742376 -0.8421999165
770295380.0 0.00043299 0.8442503192 -9.00863e-05 -4.92319e-05 7.6647e-05 0.0002643863 0.0496217465 -0.8431961517
775295350.0 0.0087766774 0.8442760878 0.0001480852 0.0001052798 -1.99796e-05 -2.05115e-05 0.0405313223 -0.8443385649
780295320.0 0.0179835009 0.8435410156 9.9789e-05 2.51678e-05 9.8084e-06 -6.20792e-05 0.0319666152 -0.8435034086
785295290.0 0.0260788192 0.8435926484 6.43848e-05 7.13268e-05 -7.84369e-05 -4.78228e-05 0.0232978544 -0.8438350716
790295260.0 0.0341452907 0.8428082355 4.89599e-05 -5.3925e-06 -2.45186e-05 -0.0001807135 0.015937637 -0.8440381403
795295230.0 0.0426439808 0.8433091083 -0.0001617185 5.8917e-05 5.83547e-05 8.67372e-05 0.0067911674 -0.8434229442
800295200.0 0.0514462174 0.8428661887 -4.43231e-05 8.5142e-05 7.37967e-05 3.98193e-05 -0.0016195922 -0.8437956892
805295170.0 0.0596942902 0.8423690563 0.0001916557 -3.13357e-05 -0.0001752073 -3.0948e-05 -0.0100935471 -0.8439791755
810295140.0 0.0681672747 0.8410194551 0.0001574313 3.08539e-05 -3.68771e-05 -4.07839e-05 -0.0187407115 -0.8431757972
815295110.0 0.0766042902 0.8399561597 -0.0001677486 -3.55967e-05 -6.14719e-05 -0.0001500802 -0.0270480494 -0.8431075298
820295080.0 0.0851202865 0.8391689624 -0.0001144379 6.9528e-05 -8.86965e-05 8.80488e-05 -0.0361144744 -0.8431551945
825295050.0 0.0936312512 0.8385882835 9.1223e-05 -0.0001850582 -4.31423e-05 3.62507e-05 -0.0435618917 -0.8425014007
830295020.0 0.1021442199 0.8377265342 7.4037e-06 -0.0001702833 0.0001090482 8.77765e-05 -0.0529376339 -0.8416965023
835294990.0 0.1104206157 0.8366588483 -0.0001976544 0.0001019347 -9.47029e-05 -0.0001949483 -0.0606186635 -0.8406238547
840294960.0 0.1185699365 0.835547459 6.218e-07 -1.2999e-06 -0.0001176511 -2.6818e-06 -0.0697675101 -0.8393303634
845294930.0 0.1271236553 0.8343530145 8.659e-06 0.00020489 -2.8027e-06 -1.32225e-05 -0.0773824854 -0.8392153866
850294900.0 0.1351886326 0.8327139388 0.0001824783 -0.0003012044 -4.55231e-05 -0.000123167 -0.0857176057 -0.8375351489
