!Created with skrf (http://scikit-rf.org).
# Hz S RI R 50.0 
!freq ReS11 ImS11 ReS21 ImS21 ReS12 ImS12 ReS22 ImS22
300000.0 -0.2383676025 -0.0856241299 0.4705906772 0.0600553369 0.4707595286 0.0562305778 -0.2403080728 -0.0986952943
5299970.0 -0.2450720331 0.0068043473 0.4750390498 0.0049889407 0.4748742589 0.0051304906 -0.240800096 0.0074870345
10299940.0 -0.2417393731 0.0179985396 0.4765066729 0.0059558987 0.4764964236 0.00601926 -0.2378165815 0.0204116861
15299910.0 -0.2376139371 0.0269853756 0.480266948 0.0073420623 0.4805531219 0.0072280563 -0.2329149388 0.0302418014
20299880.0 -0.2328390385 0.033997202 0.4849222893 0.0082490981 0.4850494774 0.008098944 -0.2278992743 0.0380638827
25299850.0 -0.2275426553 0.0403170106 0.4901737253 0.0070285646 0.4898699831 0.0070881733 -0.2217659893 0.044562777
30299820.0 -0.2222828665 0.044987201 0.4957202521 0.0048511534 0.4955545118 0.0048207456 -0.2162161208 0.0503448644
35299790.0 -0.2175308262 0.0492072263 0.5011748564 0.0012317171 0.5013004137 0.0013778644 -0.2106788219 0.0545392553
40299760.0 -0.2127151161 0.052389138 0.5056472094 -0.0025769581 0.505902966 -0.002391619 -0.2052092383 0.0574140537
45299730.0 -0.2080547581 0.0548013632 0.5103202825 -0.006903786 0.5108136635 -0.0073192424 -0.2002494024 0.0606060041
50299700.0 -0.2036772298 0.0569587853 0.5151199999 -0.0125595828 0.5150099019 -0.0125415777 -0.1954437569 0.0624475891
55299670.0 -0.1996808818 0.0584701127 0.5185685049 -0.0190523689 0.5184829432 -0.0187434495 -0.1913894334 0.0644420228
60299640.0 -0.1960110943 0.0598786334 0.5219637963 -0.0251220755 0.5219529635 -0.0246339911 -0.1872505845 0.0653445409
65299610.0 -0.1928243958 0.0611229419 0.5245796502 -0.0315551476 0.5249885218 -0.0310677667 -0.1840306805 0.0665864176
70299580.0 -0.189864168 0.0620134889 0.5272621483 -0.0377867049 0.527379125 -0.038060925 -0.1809618198 0.0677474341
75299550.0 -0.1873396167 0.0629654396 0.5287359159 -0.0445635209 0.5287398908 -0.0447439606 -0.1778059495 0.0682140895
80299520.0 -0.1846658804 0.0634651856 0.530678808 -0.0515306736 0.5308072958 -0.0518538474 -0.1752323242 0.0693142516
85299490.0 -0.1822086502 0.0641037391 0.5321817345 -0.0582658275 0.5319748515 -0.0579881964 -0.1727305192 0.0696404669
90299460.0 -0.1804982591 0.0649726454 0.5326612769 -0.0653487587 0.533217303 -0.0651956704 -0.1702558538 0.070295603
95299430.0 -0.1781575909 0.0651426182 0.5341125879 -0.0720422308 0.5339302465 -0.0726397302 -0.1681889664 0.0714241351
100299400.0 -0.1766437893 0.0662140708 0.5340697751 -0.0790527459 0.5339267891 -0.079507992 -0.1659299609 0.0714837874
105299370.0 -0.1749347099 0.0666206213 0.5345208286 -0.0860066307 0.5348694108 -0.086223317 -0.1641228025 0.0726062957
110299340.0 -0.1734720765 0.0676090821 0.5349560828 -0.0925564014 0.534756312 -0.0928935538 -0.1629537064 0.07293272
115299310.0 -0.1718059606 0.0681378931 0.5346013234 -0.0997471245 0.5346854162 -0.0996803273 -0.1612049013 0.0735702436
120299280.0 -0.1706779999 0.0688927547 0.5341589037 -0.1064945362 0.5344453396 -0.1066625835 -0.1596160964 0.0745626275
125299250.0 -0.1696789331 0.0691786097 0.5342485482 -0.1129774779 0.5340885205 -0.1131021645 -0.1585742499 0.0749804499
130299220.0 -0.1686813695 0.0702423138 0.5335590081 -0.1200956027 0.5333500579 -0.119998346 -0.1571615588 0.075781865
135299190.0 -0.1678352504 0.0711591649 0.533129393 -0.12656802 0.5330372263 -0.1262760659 -0.1557842733 0.0767824797
140299160.0 -0.166712078 0.0720892846 0.532358752 -0.1332126901 0.5320759202 -0.1331310721 -0.1546125786 0.0780819149
145299130.0 -0.1654973377 0.072801637 0.5311190608 -0.1397462377 0.5308456768 -0.1394959144 -0.1534765409 0.0790356409
150299100.0 -0.1643081793 0.0738465938 0.5298065074 -0.1458507418 0.529923983 -0.1460427104 -0.1522764495 0.0801963605
155299070.0 -0.1642656335 0.0746444276 0.5292946236 -0.1532452022 0.528842713 -0.1526813691 -0.1513425358 0.0813649566
160299040.0 -0.1629958812 0.0759772234 0.5271439462 -0.1592657612 0.5270849566 -0.1593186596 -0.1505739089 0.0820293244
165299010.0 -0.1621812054 0.0768374088 0.5258567715 -0.1656921877 0.5259775615 -0.1658441062 -0.1491744104 0.0837533698
170298980.0 -0.1614917383 0.0777285385 0.5237863506 -0.1718119439 0.5246693605 -0.1716649749 -0.1483238537 0.0847288432
175298950.0 -0.1606484246 0.0788368473 0.5227901492 -0.1780456796 0.5225469003 -0.1783100865 -0.1473767797 0.0861171092
180298920.0 -0.1599254839 0.0799795156 0.5210155774 -0.184569701 0.5209277526 -0.1842953661 -0.1465724477 0.087443608
185298890.0 -0.1589464003 0.0809734857 0.519161128 -0.190781374 0.5194438208 -0.1906801396 -0.1456235206 0.0885874753
190298860.0 -0.1584793527 0.0821362755 0.5173171146 -0.1970162583 0.5172555074 -0.1968104424 -0.1446704111 0.0897098148
195298830.0 -0.1578512149 0.0832510421 0.5155412622 -0.2029749779 0.515487369 -0.2026600571 -0.1437205737 0.0910662567
200298800.0 -0.1569688385 0.0844333969 0.5129398492 -0.2090684239 0.5130933306 -0.2093090691 -0.1429884617 0.0925213262
205298770.0 -0.1560805702 0.0859211698 0.5107128855 -0.2152884084 0.5105918533 -0.2151361074 -0.1420856428 0.0933585774
210298740.0 -0.1556337749 0.0870312867 0.5087361149 -0.2208860092 0.5085163234 -0.2208828469 -0.1407895054 0.0954896439
215298710.0 -0.1551908571 0.0883375998 0.5064423504 -0.2270199856 0.5063150786 -0.2272796502 -0.1402862497 0.0967652318
220298680.0 -0.1542048483 0.0891643293 0.5037463856 -0.2328511137 0.5036490147 -0.2330042017 -0.1396813148 0.0977652212
225298650.0 -0.1534817868 0.0906762095 0.5015788633 -0.2388260012 0.5014789692 -0.2388980699 -0.1385394282 0.0987701603
230298620.0 -0.1525477706 0.0920611746 0.4988558743 -0.2444550625 0.4992322357 -0.2445550062 -0.137881373 0.099990262
235298590.0 -0.1518589345 0.0937378336 0.4962766035 -0.2500338441 0.4962042899 -0.2501129161 -0.1368132566 0.1014996416
240298560.0 -0.1510552768 0.0948145447 0.4938438037 -0.255800718 0.4936835955 -0.2561581375 -0.1357729073 0.1032057421
245298530.0 -0.1504250697 0.0960997012 0.4910801397 -0.2618621392 0.491141752 -0.2617988566 -0.1349747171 0.1040570423
250298500.0 -0.1492320839 0.0974901474 0.4877343945 -0.2674990072 0.4873924795 -0.2668564441 -0.1341288123 0.1053015572
255298470.0 -0.1484480725 0.0985964365 0.4843289118 -0.2723276129 0.4847128416 -0.272605647 -0.1328318057 0.1068811881
260298440.0 -0.1478294902 0.0997847453 0.4814940694 -0.2785923616 0.4820271001 -0.2783677802 -0.1314398332 0.1085942832
265298410.0 -0.1468321341 0.1018120143 0.4788551993 -0.2843062077 0.4793793762 -0.2838416034 -0.1308869347 0.1098345785
270298380.0 -0.1458300197 0.1030352122 0.4761794241 -0.2891117816 0.4762862977 -0.2891260207 -0.1296130316 0.110940113
275298350.0 -0.1447131068 0.1043715029 0.4729938411 -0.2949252199 0.4729580833 -0.294764885 -0.128207454 0.1122873622
280298320.0 -0.143728904 0.1056137091 0.4699501745 -0.3004083385 0.4696720755 -0.2999311548 -0.1269084652 0.1135664935
285298290.0 -0.1430571936 0.1070773334 0.4662604789 -0.3053966473 0.4662115081 -0.3054173257 -0.1255600568 0.1149547176
290298260.0 -0.1418960441 0.1087052943 0.4629702948 -0.31039351 0.463177223 -0.3109467783 -0.1245152304 0.1167071364
295298230.0 -0.1408837144 0.1095731212 0.4598233973 -0.3157387522 0.4597541532 -0.316116306 -0.1228230948 0.1177014417
300298200.0 -0.1402247788 0.1111634859 0.4566427539 -0.3209372079 0.4566436534 -0.3215611455 -0.121883964 0.1187749443
305298170.0 -0.1390005018 0.1119908982 0.4523965405 -0.3264000443 0.453044284 -0.3263306203 -0.1200355642 0.1203651267
310298140.0 -0.1380820549 0.1136186746 0.4493324528 -0.3313264181 0.4495222296 -0.3315595376 -0.1191086758 0.1214565324
315298110.0 -0.1369570475 0.114491796 0.4457118909 -0.3367394415 0.4459228388 -0.3368127833 -0.1176669121 0.1226759271
320298080.0 -0.1357301055 0.115737138 0.4414417793 -0.3422729257 0.4420893505 -0.3420958387 -0.1165580591 0.1241073909
325298050.0 -0.135156192 0.1171325929 0.4378992519 -0.3472630235 0.4375882039 -0.3469651484 -0.1153740506 0.1252389081
330298020.0 -0.1340726571 0.1182888377 0.4336519677 -0.3521625503 0.4343631455 -0.3523981839 -0.1141823743 0.1266736634
335297990.0 -0.1331794173 0.1192198432 0.4296574 -0.3562382054 0.4298155378 -0.3567906692 -0.1135071473 0.1284101273
340297960.0 -0.1326542198 0.121111105 0.4259978265 -0.3614524732 0.4254333823 -0.3616643032 -0.1113663405 0.1294616826
345297930.0 -0.1316002014 0.1228118686 0.4217804443 -0.3664234415 0.4217656607 -0.3664971035 -0.1105325443 0.1307936298
350297900.0 -0.1304084107 0.123769692 0.4171474306 -0.3710934992 0.4171712264 -0.3710254068 -0.1092785086 0.1326377017
355297870.0 -0.1292980484 0.1258256788 0.4135904344 -0.3756043441 0.4135757234 -0.3752071781 -0.1082968841 0.1335442985
360297840.0 -0.1281986244 0.1267491286 0.4096641977 -0.3796112999 0.4095800992 -0.3796668047 -0.1066469986 0.1353423372
365297810.0 -0.1273718593 0.128332038 0.4049244028 -0.3849671258 0.4050032805 -0.3848187258 -0.1052155128 0.1366697417
370297780.0 -0.1258983031 0.129391816 0.4004601712 -0.3889867017 0.4009091372 -0.3883377551 -0.1037975339 0.1381164247
375297750.0 -0.1246293326 0.1306805462 0.3967087383 -0.3935864875 0.3968353466 -0.3929984424 -0.1024975954 0.1390964126
380297720.0 -0.1235769824 0.1320170663 0.3924498495 -0.3975264123 0.3923719028 -0.3971175736 -0.1013592716 0.1401036522
385297690.0 -0.1226364433 0.1333850525 0.3878190071 -0.401805135 0.3874638964 -0.4018102788 -0.0994423907 0.142198129
390297660.0 -0.1211232096 0.1352109892 0.3831797679 -0.4058989951 0.3833956886 -0.4056000897 -0.0983218618 0.1429624402
395297630.0 -0.1199628656 0.1362860344 0.3792384581 -0.4106165622 0.378693139 -0.410660541 -0.096378959 0.1445699462
400297600.0 -0.1185240405 0.1374516506 0.3736776433 -0.4145757276 0.3740888957 -0.4145847613 -0.0950143862 0.1455424208
405297570.0 -0.1176471099 0.1386331673 0.3697844969 -0.4182339903 0.3697562426 -0.4184656111 -0.0938436113 0.1468524436
410297540.0 -0.1160547218 0.1398981296 0.3652897218 -0.4228903267 0.3653473629 -0.4228221751 -0.0921991918 0.1482404565
415297510.0 -0.1146282581 0.1414188656 0.3604323002 -0.4268840856 0.3606911285 -0.4267011088 -0.0906386451 0.1492395857
420297480.0 -0.113372615 0.1428429993 0.3558656395 -0.4306229666 0.3557987095 -0.4305126958 -0.0892653209 0.1500691389
425297450.0 -0.1119427219 0.1436346118 0.3511441625 -0.4342412779 0.3516156816 -0.4345767547 -0.0876085591 0.1515509712
430297420.0 -0.1107487275 0.1445036592 0.346410198 -0.4377851479 0.3461802781 -0.4379382867 -0.0859898333 0.1524540155
435297390.0 -0.1094669884 0.1460964265 0.3413500309 -0.4418089384 0.3412944288 -0.4422425734 -0.0836636526 0.1533250794
440297360.0 -0.1078907115 0.1472293738 0.3366000737 -0.4451836871 0.3365151965 -0.4455172127 -0.0828341652 0.1545337939
445297330.0 -0.10661411 0.1482242628 0.3319759982 -0.4491426203 0.3319936258 -0.4487011525 -0.08081738 0.1548156383
450297300.0 -0.1049915047 0.149515448 0.326801309 -0.4526420705 0.3269520897 -0.4529119888 -0.0789924605 0.1559968391
455297270.0 -0.1037305889 0.1507541546 0.321614149 -0.4563625346 0.3222630703 -0.4565803374 -0.0774842476 0.1571868739
460297240.0 -0.1023467362 0.1515488626 0.3166657777 -0.4597527531 0.3173395091 -0.4598214661 -0.0757068141 0.1582247026
465297210.0 -0.1007115833 0.1527888006 0.3119232501 -0.4630525477 0.3118550799 -0.4637299036 -0.0736183545 0.1591369052
470297180.0 -0.0992892801 0.1538814706 0.3065687771 -0.4664511516 0.3068393808 -0.4667737052 -0.0715744595 0.1603029948
475297150.0 -0.0979349221 0.1548565716 0.3014226518 -0.4694795076 0.3018682783 -0.4695851459 -0.069687416 0.160879607
480297120.0 -0.0965721923 0.156290743 0.2964681419 -0.4731234682 0.2962647012 -0.4731249263 -0.0678976078 0.1620608388
485297090.0 -0.0950672936 0.1573108649 0.2912067926 -0.4762152478 0.2913471532 -0.476065349 -0.0663139834 0.1626998592
490297060.0 -0.093821873 0.1583430057 0.2861844104 -0.4794859466 0.2862077224 -0.4789397994 -0.0644093957 0.1638539683
495297030.0 -0.0920770239 0.1593955983 0.2806792449 -0.4823773192 0.2814904795 -0.4824302429 -0.0629064228 0.164861453
500297000.0 -0.0902672833 0.1602596076 0.275227903 -0.4851013867 0.2752782038 -0.4847968821 -0.0606592488 0.1661243389
505296970.0 -0.0887507816 0.1611877728 0.26996353 -0.48809868 0.2700502328 -0.488630855 -0.0589813508 0.1667259998
510296940.0 -0.0874551394 0.1624208334 0.2649206598 -0.4915166118 0.2645872341 -0.491549895 -0.0569805403 0.1675320512
515296910.0 -0.0858407559 0.1633023998 0.2591295734 -0.4939308783 0.259451257 -0.4940345543 -0.0550658579 0.1681975211
520296880.0 -0.0841596635 0.164300582 0.2542627475 -0.4970963247 0.2540595106 -0.4968633092 -0.05334285 0.1689538404
525296850.0 -0.0823569102 0.1646099036 0.2484861512 -0.4995775307 0.2491676482 -0.4996128471 -0.0517829405 0.1700601291
530296820.0 -0.0808934713 0.1661177464 0.2429021786 -0.502469959 0.2433186829 -0.5019917551 -0.0498010373 0.170696431
535296790.0 -0.0795399343 0.1670179395 0.2380498722 -0.5044297118 0.2381219952 -0.5044045683 -0.0477154882 0.1711945954
540296760.0 -0.0782067084 0.1680061378 0.2325019965 -0.5075306478 0.2321419188 -0.5076414222 -0.046135925 0.1722721119
545296730.0 -0.0764296263 0.1687683561 0.2268050057 -0.5099110759 0.2266467293 -0.5098489712 -0.0442090031 0.1724965654
550296700.0 -0.0741526737 0.1698013657 0.2206731762 -0.512422375 0.2212491151 -0.5123551657 -0.0425291544 0.1736240358
555296670.0 -0.0729125882 0.1705570938 0.2157658319 -0.5144394893 0.2159607242 -0.5144535216 -0.0405590557 0.1741959536
560296640.0 -0.071097246 0.1719759286 0.2100278005 -0.5174443631 0.2100533511 -0.5168590944 -0.0386492878 0.1746133254
565296610.0 -0.0698607205 0.1723618883 0.2042925856 -0.5191872743 0.2046418458 -0.5194471395 -0.0367518913 0.1754512211
570296580.0 -0.0681193683 0.1731240472 0.1988641754 -0.5217205014 0.198294788 -0.5214909033 -0.0349814092 0.1762004943
575296550.0 -0.0667158601 0.1743572559 0.1933413153 -0.5237126525 0.1929308426 -0.5233108518 -0.0325802114 0.176383796
580296520.0 -0.0645765619 0.1750613241 0.1870289046 -0.5256736208 0.1871854955 -0.5256088756 -0.0309553927 0.1767277758
585296490.0 -0.063116536 0.1753151076 0.1820708554 -0.5271080462 0.1819820654 -0.5276423669 -0.0292428368 0.177412505
590296460.0 -0.061146351 0.1762657159 0.175932135 -0.5287976601 0.1762021949 -0.5290366235 -0.0277183215 0.177880268
595296430.0 -0.0592003789 0.1768470805 0.1695913595 -0.5310537132 0.169889543 -0.5312646253 -0.0252811387 0.1780776166
600296400.0 -0.0578222834 0.1775993322 0.1645337131 -0.5328640215 0.1643724865 -0.5328067869 -0.0235331668 0.1784487916
605296370.0 -0.0566107897 0.1783380226 0.1587773937 -0.5343663163 0.158811535 -0.5344780928 -0.0212791576 0.1790165771
610296340.0 -0.0542805753 0.1791685893 0.1523775313 -0.536206381 0.1527016922 -0.536197196 -0.0189598464 0.1793026446
615296310.0 -0.0522751653 0.1795212177 0.1469781763 -0.5377810177 0.1467743618 -0.5383935407 -0.0171107193 0.1797612676
620296280.0 -0.0507990056 0.1799654609 0.141201875 -0.5394696495 0.1410086478 -0.5391753831 -0.0152702827 0.180013647
625296250.0 -0.0492990753 0.1805124953 0.1357667526 -0.5409013553 0.1351413219 -0.5414204176 -0.0129399974 0.1800411103
630296220.0 -0.0467108849 0.1812665445 0.1292976841 -0.5423951328 0.1291169382 -0.5420484969 -0.0113802538 0.1806514365
635296190.0 -0.0459180024 0.1817070799 0.1232115611 -0.5432064705 0.1235456647 -0.5438463389 -0.0089951121 0.1807565143
640296160.0 -0.0442268146 0.1824802671 0.1174779182 -0.5446771195 0.118069263 -0.5448935127 -0.0068299935 0.1810046768
645296130.0 -0.0422486428 0.1834458775 0.1117585561 -0.546077105 0.1121851071 -0.5459968415 -0.0049113684 0.1812911716
650296100.0 -0.0402001855 0.183661268 0.1057550067 -0.5467925754 0.1057749569 -0.5473136985 -0.0025463138 0.1807765716
655296070.0 -0.0387307867 0.1840718921 0.1002903436 -0.5483723644 0.1000403596 -0.5486807561 -0.0004786112 0.1814472637
660296040.0 -0.0373207957 0.1841779502 0.0943562342 -0.5492030472 0.0940249485 -0.5495877466 0.0019188685 0.1815565348
665296010.0 -0.0349418997 0.1847584752 0.0877369643 -0.5500389937 0.0881410406 -0.5503983767 0.003578945 0.1823872934
670295980.0 -0.0339650244 0.1854189317 0.0823316209 -0.5509666097 0.0819560354 -0.5510312752 0.005369329 0.1822796882
675295950.0 -0.0318002754 0.1860207364 0.0763807287 -0.5515620677 0.0761987379 -0.5514520797 0.0072244366 0.1823966506
680295920.0 -0.0299722019 0.1864846157 0.0700153052 -0.5525353885 0.0702688922 -0.5527869073 0.0094795133 0.1828803666
685295890.0 -0.0279717411 0.1872781557 0.0640589849 -0.5530995237 0.0642197027 -0.5532896724 0.0114415964 0.1827707221
690295860.0 -0.0259764201 0.1875627853 0.0580337949 -0.5537710291 0.0584909258 -0.554145483 0.0134475091 0.1830658802
695295830.0 -0.0242701086 0.187877313 0.0527678358 -0.5546424616 0.0521731867 -0.5544629256 0.0155570089 0.1831687428
700295800.0 -0.0224271622 0.1879315968 0.0460514227 -0.5544953856 0.0459867916 -0.5550007134 0.017468074 0.1834521504
705295770.0 -0.0209629649 0.1888300591 0.0402012493 -0.5552515854 0.040460058 -0.5555409557 0.0195353856 0.183411031
710295740.0 -0.0187255429 0.1892205981 0.0343914502 -0.556314263 0.0345193324 -0.5565183653 0.021531923 0.1827378253
715295710.0 -0.0174473123 0.189110459 0.0290844407 -0.5563036381 0.0284544256 -0.5560894287 0.0237463432 0.1824537363
720295680.0 -0.0153357448 0.1896413069 0.0225313607 -0.5563958033 0.0222424894 -0.5564850023 0.0254796552 0.1832230105
725295650.0 -0.0133060383 0.1897518176 0.0167917987 -0.556454218 0.0167545853 -0.5568356438 0.0271432375 0.1829163153
730295620.0 -0.0110576865 0.1900227828 0.01019667 -0.5562916471 0.0107140258 -0.5569127683 0.0287381996 0.1825002503
735295590.0 -0.00953785 0.1907920429 0.0046337112 -0.556701102 0.0043450891 -0.5568885392 0.031225253 0.1823690763
740295560.0 -0.007817483 0.1909946607 -0.0013047123 -0.5566293383 -0.0016800939 -0.5570476574 0.0335428659 0.1825802742
745295530.0 -0.0060468974 0.191153308 -0.0077542676 -0.5561753551 -0.0079931389 -0.5566428322 0.0355021604 0.1816028908
750295500.0 -0.0040042984 0.1912389943 -0.0132710612 -0.5562312326 -0.0137491402 -0.5563459052 0.0373681587 0.1816220399
755295470.0 -0.0020990583 0.1911610728 -0.0195274874 -0.5561178873 -0.0197784946 -0.5565339477 0.0396600914 0.1809478032
760295440.0 -0.0005263066 0.1917216159 -0.0255727035 -0.5564123352 -0.0258443319 -0.5564622062 0.0415758862 0.1808358097
765295410.0 0.001424873 0.191606441 -0.0314165261 -0.5555242834 -0.0321420464 -0.5558540738 0.0436101749 0.1807837032
770295380.0 0.0032441986 0.1916712827 -0.038120328 -0.55525733 -0.0376520281 -0.5549155096 0.0450802014 0.1798222272
775295350.0 0.0050117765 0.191551572 -0.0439799206 -0.5543516146 -0.0432156633 -0.5548420188 0.0467319436 0.1799240604
780295320.0 0.0069127849 0.1918254514 -0.0498566992 -0.5540006381 -0.0492643799 -0.5539641422 0.0490487626 0.1789928084
785295290.0 0.0085740722 0.191380876 -0.0560359121 -0.5532822079 -0.0558206726 -0.5536041407 0.051468377 0.1788909653
790295260.0 0.0111081884 0.1920806733 -0.0610950026 -0.5527305737 -0.0608221262 -0.5525813563 0.0532874764 0.17851575
795295230.0 0.0126432939 0.1916949446 -0.0672164383 -0.5517452928 -0.0670586281 -0.5523506105 0.0558079647 0.1781058387
800295200.0 0.0144080413 0.191891638 -0.0738794606 -0.5513762858 -0.073378659 -0.5513015895 0.0573735704 0.1772496086
805295170.0 0.0160944857 0.1917123986 -0.0789297103 -0.5502303023 -0.0793300129 -0.5507164584 0.059381532 0.1774424886
810295140.0 0.0179019232 0.1915443898 -0.0849113566 -0.5491590552 -0.0850747263 -0.5494168545 0.0617966195 0.1763582191
815295110.0 0.0199192205 0.1912013946 -0.0908726959 -0.5482978363 -0.0904728341 -0.5487151268 0.063525179 0.1761283032
820295080.0 0.0216985374 0.1919573214 -0.0967190132 -0.5475043547 -0.0969071648 -0.5477005239 0.0655842541 0.1755220436
825295050.0 0.0241929426 0.1913845462 -0.1027203986 -0.5461414054 -0.102539373 -0.5466330476 0.067786173 0.1749164038
830295020.0 0.0257077786 0.1915262686 -0.1085756253 -0.5451907032 -0.108896403 -0.5453739054 0.0703801037 0.1741532878
