!Created with skrf (http://scikit-rf.org).
# Hz S RI R 50.0 
!freq ReS11 ImS11 ReS21 ImS21 ReS12 ImS12 ReS22 ImS22
300000.0 -0.0448441816 -0.0556583994 -0.0012778951 0.0009928575 0.0012922761 0.002054302 -0.7668809472 -0.1614021493
5299970.0 -0.0448665703 0.0159648941 -9.746e-06 -0.0002485569 -7.19895e-05 2.45608e-05 -0.7842678401 -0.0085238434
10299940.0 -0.0390248746 0.0338003242 2.30859e-05 -8.52744e-05 1.92236e-05 -0.0001148882 -0.7883483045 -0.0048360078
15299910.0 -0.0307569617 0.0482872542 6.20809e-05 4.08904e-05 7.43627e-05 5.37459e-05 -0.7935216035 -0.0029876399
20299880.0 -0.0205134209 0.0599352729 0.0002193788 0.0001088669 -3.80844e-05 -0.000265837 -0.8001793327 0.0016116205
25299850.0 -0.0091452111 0.069287588 0.0001093162 0.0002054263 3.53071e-05 -0.0001004257 -0.8061980274 0.0074610676
30299820.0 0.0025206942 0.075916368 2.08304e-05 7.6701e-05 2.86084e-05 -3.36622e-05 -0.8124862173 0.0151812278
35299790.0 0.0145699274 0.0807905939 -0.0001764582 0.0001867938 -0.0001615385 9.21357e-05 -0.8175514974 0.0239249865
40299760.0 0.0257214142 0.0836113963 -9.0177e-05 -0.0001670754 -0.0001876768 8.8154e-06 -0.8216187951 0.0330810391
45299730.0 0.0365315765 0.0852462899 8.55096e-05 0.0002244401 -5.44736e-05 0.0001039266 -0.8252984187 0.0423396555
50299700.0 0.0467326248 0.0850987076 -8.60257e-05 -0.0001299711 0.0001181026 -0.0001300121 -0.8276480974 0.0523417815
55299670.0 0.0556820472 0.0840900492 -8.24135e-05 -0.0001401517 0.0001449201 4.40151e-05 -0.8297154835 0.0633320308
60299640.0 0.0644614171 0.0819970855 9.36216e-05 -8.66187e-05 0.000154775 -6.4602e-06 -0.8310674836 0.0731605867
65299610.0 0.0720432453 0.0798837162 -0.0002019525 9.38311e-05 9.18577e-05 -7.79051e-05 -0.8310179267 0.082656904
70299580.0 0.0792768015 0.0766138413 0.000101788 0.0003191742 0.0002201338 -9.68904e-05 -0.8323932835 0.0928713209
75299550.0 0.0856531299 0.0733684795 -6.8573e-06 0.0001274253 -0.0001294574 1.83063e-05 -0.8325047221 0.1021603257
80299520.0 0.0913014249 0.070340653 5.59068e-05 0.0001162071 4.0416e-06 4.19352e-05 -0.8315688474 0.1122962686
85299490.0 0.0963482405 0.0664016593 0.0001543836 -5.32434e-05 -0.0001217606 0.0001443435 -0.8314886519 0.1218096449
90299460.0 0.1008167372 0.06280945 0.0002015437 1.22079e-05 -2.43637e-05 9.02944e-05 -0.8307843503 0.1312173694
95299430.0 0.1049644444 0.058637309 3.69247e-05 -1.19535e-05 0.0002377005 -0.0001232583 -0.8299924692 0.1408927751
100299400.0 0.1086438918 0.0552112856 0.0002648024 -2.36161e-05 0.000110489 2.35617e-05 -0.8290529105 0.1499430204
105299370.0 0.1118163356 0.0512313484 5.48334e-05 -5.93349e-05 0.0001590348 5.1807e-05 -0.8277979422 0.1587197231
110299340.0 0.1145073971 0.0473205808 3.75533e-05 0.000106812 0.0001640382 0.0001135823 -0.8271253855 0.1684995828
115299310.0 0.1169393013 0.0431794883 8.58907e-05 5.1259e-05 0.0001946317 -4.38287e-05 -0.8245718979 0.1771498893
120299280.0 0.1192994365 0.0397420986 0.0001348007 -2.702e-07 -4.64532e-05 0.0001677795 -0.8234335842 0.1857174007
125299250.0 0.1210831056 0.035522179 0.0002398321 0.0001071213 -5.9577e-06 0.0001964208 -0.8219277573 0.1954073338
130299220.0 0.1230346137 0.0323787438 1.6379e-06 -7.7785e-06 -0.0001028097 4.07845e-05 -0.8200028231 0.2045462545
135299190.0 0.1244361375 0.0285592698 0.0002091967 4.93704e-05 8.73292e-05 0.00022345 -0.8183829072 0.2128905482
140299160.0 0.1259587979 0.0248718384 0.0001823597 0.0002799127 -1.31611e-05 0.0001164463 -0.8155773971 0.2216030298
145299130.0 0.1270629797 0.0217434112 3.32333e-05 0.000209325 0.0001690864 2.33472e-05 -0.813799149 0.2301723472
150299100.0 0.1278076181 0.0182081091 -4.06792e-05 0.0001549424 0.0001392684 4.85256e-05 -0.8117679911 0.2384033129
155299070.0 0.1288345926 0.0149586293 2.1111e-05 0.0001508276 0.0002410291 -1.02865e-05 -0.8092225379 0.2477168909
160299040.0 0.1294568754 0.0115486815 0.0002063515 3.46884e-05 0.0001157584 -2.10558e-05 -0.8072101974 0.2568267361
165299010.0 0.1296191401 0.0086708252 3.7534e-05 -4.39758e-05 -5.98562e-05 2.46549e-05 -0.8040734117 0.2650255006
170298980.0 0.130076867 0.0054161308 7.56429e-05 0.0002303869 0.0001253451 7.24453e-05 -0.8016722853 0.2733905559
175298950.0 0.1307193679 0.0027712711 3.89892e-05 7.9978e-06 -9.51716e-05 5.19205e-05 -0.7987064987 0.2820260152
180298920.0 0.1307776422 -0.0002454681 7.30987e-05 0.000104911 7.61059e-05 2.4018e-05 -0.7950040037 0.2906357362
185298890.0 0.1307781756 -0.0032933535 4.90645e-05 -3.7355e-05 0.0001706589 0.0002473879 -0.7930106012 0.2982497195
190298860.0 0.1312481767 -0.0061604139 -9.2774e-06 0.0001059011 -9.9669e-06 7.45071e-05 -0.7897129921 0.3076682362
195298830.0 0.1312251828 -0.008956431 0.0001689748 0.000227682 1.57964e-05 -2.40964e-05 -0.7869509537 0.3158899734
200298800.0 0.1310369758 -0.0116361617 0.0001034328 0.0002355785 6.03829e-05 0.0002187095 -0.7833404196 0.3240009451
205298770.0 0.1306542365 -0.0140828561 0.0001464561 5.72134e-05 5.5694e-05 -8.42496e-05 -0.7799144375 0.3324172111
210298740.0 0.1306271961 -0.0165395722 -0.000163852 -6.25452e-05 5.4477e-06 1.85307e-05 -0.776374634 0.3405951396
215298710.0 0.1299952473 -0.0190037916 2.16744e-05 0.0003051542 6.40079e-05 -4.54531e-05 -0.7734836935 0.3480648261
220298680.0 0.1298910506 -0.0215250411 0.0001931388 7.28576e-05 0.0001425467 0.0001894155 -0.7698332423 0.3569805797
225298650.0 0.1292771211 -0.0237380869 0.0001898259 0.0002233673 0.0001240641 0.0001157678 -0.7660641424 0.3646566694
230298620.0 0.1288140518 -0.0261861381 0.0001350997 8.9552e-06 6.3228e-06 0.000182851 -0.7614112778 0.372720814
235298590.0 0.1284599845 -0.0286840716 0.0001094045 0.0001006571 0.0001957704 8.80684e-05 -0.7575527677 0.3807419965
240298560.0 0.1277523978 -0.0307425069 0.0002696499 0.0001641483 7.23546e-05 -0.0001942778 -0.7538009377 0.3886899302
245298530.0 0.127750926 -0.0328798753 1.26598e-05 -0.0001557773 0.0002227503 2.4421e-06 -0.7498971654 0.3967906968
250298500.0 0.126421176 -0.0351701254 6.42284e-05 0.0001955652 0.000100014 7.05207e-05 -0.7460338167 0.404412381
255298470.0 0.1261514298 -0.0372118616 0.0002048897 -3.9694e-06 9.19172e-05 8.37617e-05 -0.7411963035 0.4127029187
260298440.0 0.1255961659 -0.039144512 -1.00739e-05 0.0001456067 5.7717e-05 0.0001164801 -0.7367605505 0.419816563
265298410.0 0.1247696125 -0.041319594 0.0001820056 0.0001184243 0.0001201061 0.000237644 -0.7324947244 0.4275673868
270298380.0 0.1241239356 -0.0430375944 -0.0001835974 2.99767e-05 3.46446e-05 0.000125924 -0.727625861 0.4354812502
275298350.0 0.1234820711 -0.0449961787 -0.0001629817 0.0001884253 -0.0002051991 0.0001251457 -0.7226599292 0.4432459519
280298320.0 0.1226567482 -0.0470157733 5.4153e-06 -2.0541e-05 5.3692e-06 7.42015e-05 -0.7188565333 0.4501791064
285298290.0 0.1218228444 -0.048716673 0.0003057109 -1.72776e-05 2.07912e-05 7.0035e-06 -0.7132844342 0.4579926592
290298260.0 0.1214648062 -0.0507697462 -5.03581e-05 0.0002977862 0.0002967911 0.0001384395 -0.7084589353 0.4656907844
295298230.0 0.1202435075 -0.0524701736 8.38114e-05 6.00901e-05 0.0003476173 0.00015365 -0.7036855326 0.4732213717
300298200.0 0.1197861839 -0.0547627121 0.0002392221 4.62587e-05 0.0003005611 9.93141e-05 -0.6988196929 0.480345671
305298170.0 0.1191078942 -0.056407377 9.38342e-05 0.000192018 -2.21034e-05 0.0003536983 -0.6932172748 0.4876166886
310298140.0 0.1180120814 -0.0586019755 -1.88954e-05 6.23713e-05 9.0073e-05 0.0001347893 -0.6887159638 0.4950925607
315298110.0 0.1167180226 -0.0604005113 -2.28716e-05 0.0002668691 0.0001235066 8.81867e-05 -0.6832617977 0.5017353024
320298080.0 0.1157846045 -0.0621127879 -9.23203e-05 0.0002460803 8.94597e-05 -7.60012e-05 -0.6774340164 0.5096836767
325298050.0 0.1142478662 -0.0639724512 -9.16245e-05 0.0001228854 0.0002450145 0.0003111246 -0.6723171106 0.5164431515
330298020.0 0.1131798978 -0.0652612392 3.74719e-05 0.0002488827 0.0002929239 0.0001450888 -0.6669028346 0.5236561262
335297990.0 0.1119255934 -0.0668344833 0.0002563613 0.0001086935 0.0002133669 5.70731e-05 -0.661736705 0.5300935864
340297960.0 0.1107115595 -0.0684187674 0.000283455 5.95234e-05 0.0002062716 0.0001578325 -0.6554020011 0.5369222147
345297930.0 0.1093688079 -0.0696929892 0.0002284252 8.35963e-05 0.0002131942 0.0001727665 -0.6499898984 0.5443258121
350297900.0 0.108562683 -0.0710313508 0.0002719964 0.0001025293 0.0003042108 4.07606e-05 -0.6440777166 0.5508044946
355297870.0 0.1070358642 -0.0724123032 0.0003393817 3.3975e-06 0.0001743973 -8.1525e-06 -0.6382609663 0.5572695688
360297840.0 0.105900309 -0.0738935461 0.0001375906 0.0001058663 -5.70483e-05 8.95425e-05 -0.6322179868 0.5636904928
365297810.0 0.1048641064 -0.075004741 0.0002297181 0.0002987446 -9.2057e-06 6.41444e-05 -0.6256876422 0.5707754631
370297780.0 0.1037034928 -0.0763626569 -1.4373e-05 2.6567e-05 0.0001799567 0.0001278607 -0.620389304 0.5766185148
375297750.0 0.1024809514 -0.0777919431 0.0001445183 0.0001134558 0.0002689549 0.0002774595 -0.6142116753 0.5832274894
380297720.0 0.1017237995 -0.0787148936 0.0001510389 7.47436e-05 0.0003451891 7.99555e-05 -0.608141496 0.5904646922
385297690.0 0.100104042 -0.0801630901 0.0004058447 -7.73325e-05 0.0003401155 0.0002434281 -0.6015332777 0.5957318533
390297660.0 0.0990286502 -0.0810799125 9.47309e-05 3.5439e-06 -8.8591e-06 4.6303e-06 -0.5950212475 0.6014807733
395297630.0 0.0977335985 -0.0825554444 0.0002321991 0.0001318804 0.0003267763 9.744e-05 -0.5891205344 0.608132122
400297600.0 0.0967222951 -0.0835527564 0.0001215774 0.0001762346 5.58025e-05 -3.9417e-06 -0.5832128723 0.6137043974
405297570.0 0.0954618449 -0.0848758575 0.00024004 0.0001217199 0.0001373284 0.0001321272 -0.5776207202 0.6199025734
410297540.0 0.0940884997 -0.0859097799 0.0003668996 0.0001110692 0.000422021 0.0001405583 -0.5697865096 0.625409618
415297510.0 0.0930817858 -0.0870612854 0.0002903529 2.40949e-05 0.0002937729 0.0001816317 -0.5634249073 0.6315672522
420297480.0 0.0915768144 -0.0883580361 0.0003140587 0.0003192461 0.000265951 7.23229e-05 -0.5569720576 0.636436806
425297450.0 0.090463978 -0.0893625597 0.0001594003 0.0001156299 0.0001110928 0.0001840876 -0.5499664491 0.6433098492
430297420.0 0.0890872687 -0.09021945 0.000148966 0.0002307408 0.0001856323 0.0002039048 -0.5440510153 0.6482727814
435297390.0 0.0878728833 -0.0914190372 0.0002821062 -2.07652e-05 0.0003024274 5.48313e-05 -0.536570438 0.6539562505
440297360.0 0.0865177368 -0.0924207124 0.0001986346 5.91503e-05 0.000259697 0.0002451739 -0.5296997738 0.658903305
445297330.0 0.085342859 -0.0930875138 0.0001112701 4.80528e-05 0.000254751 0.0001869207 -0.5234807139 0.6644518584
450297300.0 0.0837795292 -0.0943254773 0.0001587074 0.0004254509 0.0001036679 0.000295412 -0.5164335074 0.6698005711
455297270.0 0.082467942 -0.0948557166 0.0002295811 3.16652e-05 0.000399479 5.44815e-05 -0.509724008 0.6748346371
460297240.0 0.081098705 -0.0960856849 0.0002266967 0.0003170252 0.0001742796 7.47338e-05 -0.5027662621 0.6801237015
465297210.0 0.0798699836 -0.0967561039 0.0001085273 -8.28329e-05 0.0001632767 0.000106401 -0.4967225427 0.6849478335
470297180.0 0.0785190772 -0.0977089923 0.0001998592 -0.0001009022 -1.64996e-05 0.0001033269 -0.4892016225 0.6895872234
475297150.0 0.0773705779 -0.0984783677 5.90948e-05 4.97158e-05 0.0002491349 0.0001140408 -0.4818993506 0.6946290673
480297120.0 0.0759236015 -0.0995110448 0.0001892501 4.35671e-05 7.10867e-05 5.05758e-05 -0.4751152521 0.6995489132
485297090.0 0.0745516624 -0.0998823838 0.0002720163 0.0002168416 0.0002824269 -2.96455e-05 -0.4679134262 0.7042410998
490297060.0 0.0732602617 -0.1009539105 0.0004262668 0.0001221842 0.0002440218 0.0001055294 -0.4608228035 0.7086294535
495297030.0 0.0717202108 -0.1017846026 8.33337e-05 -1.6667e-06 8.5148e-05 -7.66871e-05 -0.4530662913 0.7127657936
500297000.0 0.0704698153 -0.1026748281 0.0002204586 -5.0349e-06 0.0002827833 -2.71164e-05 -0.4465762587 0.7179847125
505296970.0 0.0687415967 -0.1032462695 0.0002792099 0.0002230749 0.0003589837 0.0001527109 -0.43994293 0.7218905367
510296940.0 0.0676359639 -0.1038605638 0.0004276237 0.0001871303 0.0002884862 0.0001097145 -0.4320211825 0.7264309088
515296910.0 0.0661602718 -0.1041938988 9.75321e-05 0.0001949229 0.0002086066 3.65393e-05 -0.4245670031 0.7308469018
520296880.0 0.0647556568 -0.1051755559 0.0004000852 2.11596e-05 0.0003923285 -4.76109e-05 -0.4174483697 0.734727367
525296850.0 0.0633366401 -0.1056499778 0.0003052167 0.0001225575 0.0003942235 0.0001640055 -0.4095374163 0.7394632092
530296820.0 0.0616372473 -0.1063682769 0.0002159401 4.47184e-05 0.0003124638 0.0002608294 -0.4029962405 0.7426850779
535296790.0 0.0605279136 -0.1069923382 0.0001645651 -0.0001402914 0.0002475023 3.49513e-05 -0.3952232863 0.7462179889
540296760.0 0.0590408438 -0.1075637566 0.0004942509 -0.0002148178 0.0001397506 2.39282e-05 -0.3877824858 0.7506878232
545296730.0 0.0577258189 -0.1079464673 0.0002530952 8.73176e-05 0.0002682339 0.0001213199 -0.3802664025 0.7542764146
550296700.0 0.0562012359 -0.108575258 0.000200998 6.6579e-05 0.0003013315 -4.79606e-05 -0.3727429655 0.7584156691
555296670.0 0.0549864301 -0.1090921103 0.0004009014 0.0002514704 0.0002310635 0.0001149687 -0.3655105881 0.7620542151
560296640.0 0.0534245526 -0.1095894302 0.0004406468 -0.0001168985 0.0001478453 0.0001465405 -0.3576337901 0.7654715302
565296610.0 0.0518500805 -0.1100322517 0.0003335585 0.0001632459 0.0002206139 -0.0001557882 -0.3502050067 0.7689306899
570296580.0 0.0505667456 -0.110454714 0.0001287302 9.57665e-05 0.000146283 0.0001308677 -0.3433935042 0.7725806608
575296550.0 0.0492677346 -0.1109374167 0.000435318 0.0001109951 0.0004083947 7.68569e-05 -0.3346919447 0.7760043918
580296520.0 0.0480485228 -0.1112523014 0.0002821951 -1.81344e-05 0.0004130369 0.0001708457 -0.3269995355 0.7792352525
585296490.0 0.046045602 -0.1116727463 0.0002128907 -2.30727e-05 0.0003100768 -0.0001271277 -0.319179881 0.7816069076
590296460.0 0.0445415482 -0.1122065203 0.0003138001 8.28254e-05 0.0001137067 0.000207017 -0.311433014 0.7851223595
595296430.0 0.0434547263 -0.1125294869 0.0004268192 -8.00981e-05 0.0002634142 -3.92593e-05 -0.3035981269 0.7873509338
600296400.0 0.0419897448 -0.1127667548 0.0003369675 0.000141626 0.0001798427 3.58281e-05 -0.295662686 0.7910457522
605296370.0 0.0405594957 -0.1128556324 0.000237279 0.0003039069 0.0001469618 6.97027e-05 -0.2882557403 0.7945442906
610296340.0 0.0388739822 -0.1133738362 0.0004278726 8.1004e-05 0.0002809387 -4.07441e-05 -0.2801424634 0.7971514013
615296310.0 0.0375345493 -0.1135747735 0.0003915221 0.0004299378 0.0002058097 0.0001291242 -0.2724009594 0.7997234043
620296280.0 0.0360676134 -0.1138685204 0.0005019649 0.000303272 0.0001853934 -8.30379e-05 -0.264393568 0.8021512993
625296250.0 0.0344985464 -0.1141607224 0.0003583404 6.18204e-05 0.0003547581 -8.71747e-05 -0.2565184039 0.8047931733
630296220.0 0.0329525418 -0.1141699343 0.0003124793 6.83886e-05 0.0001652786 0.000161717 -0.2483597765 0.8080988158
635296190.0 0.0317188876 -0.1146958585 0.0004351497 6.64644e-05 0.0001920449 7.63716e-05 -0.2409668002 0.8091287677
640296160.0 0.0302987397 -0.1147340947 0.0001559677 0.0001157748 0.0004756859 -5.3143e-05 -0.2323261542 0.8115245909
645296130.0 0.028611475 -0.1149765396 0.0004580822 4.21332e-05 0.0003058702 -6.69718e-05 -0.2249757054 0.8139374167
650296100.0 0.0274407221 -0.1147356181 0.0003718121 3.00532e-05 0.0003011629 0.0001741435 -0.2162711928 0.8166141668
655296070.0 0.0257416451 -0.1150335343 0.0002352101 0.0001089915 0.0005225849 0.0001766079 -0.2084350797 0.8175948765
660296040.0 0.0239920803 -0.1148982275 0.0001735006 -0.0001079615 0.0003992921 0.000182832 -0.2004478519 0.8199214453
665296010.0 0.023115541 -0.1152140832 0.0005058186 5.48751e-05 0.0002083612 7.62533e-05 -0.1925876212 0.8225097265
670295980.0 0.0215033518 -0.1154356529 0.0003358445 -7.70334e-05 0.0004029121 1.77326e-05 -0.1850636668 0.8235792323
675295950.0 0.0199056145 -0.1154896069 0.0003053791 -1.12468e-05 0.0004075104 -1.0812e-06 -0.1763575495 0.8262010243
680295920.0 0.0183636101 -0.1152600222 0.0003824983 -0.0001228043 0.0005403169 9.89019e-05 -0.1679522632 0.8277951738
685295890.0 0.0171175731 -0.1152035477 0.0005313335 5.43857e-05 0.0001734107 -2.3446e-06 -0.1596735637 0.8292385809
690295860.0 0.0158216512 -0.1151234303 0.0002530934 9.34842e-05 0.000445843 -2.2441e-05 -0.1517580149 0.8305664026
695295830.0 0.0141716503 -0.1153316273 0.0004248998 4.8992e-06 0.000302982 -0.0002356431 -0.1431841002 0.8323617224
700295800.0 0.0128680239 -0.115154611 0.0004317214 0.0001041266 0.0004201759 5.94705e-05 -0.1346328962 0.8334863158
705295770.0 0.0115484873 -0.1152082639 0.0003147463 0.0001284467 0.0003661592 7.5445e-05 -0.1268889908 0.8347788727
710295740.0 0.010064459 -0.1150804286 0.0002831882 -1.45847e-05 0.0003350284 4.34779e-05 -0.1191436975 0.836908719
715295710.0 0.0083734705 -0.1147984469 0.0001925734 -7.34774e-05 0.000483289 -2.68181e-05 -0.1103953269 0.8371216419
720295680.0 0.0070684476 -0.1148425749 0.0003400046 0.000157557 0.0004124322 1.08212e-05 -0.1021303076 0.838222632
725295650.0 0.0058377463 -0.1145873371 0.0003600759 0.0001257046 0.0003081627 -1.1297e-06 -0.0937404027 0.8393242151
730295620.0 0.0040062047 -0.1148119389 0.0004393495 -6.43007e-05 0.0005013461 -2.11255e-05 -0.0853305904 0.8403258834
735295590.0 0.0031297477 -0.1144633987 0.0004471103 -7.79191e-05 0.0004391252 -0.0001571703 -0.0768705876 0.8405268612
740295560.0 0.0013876995 -0.11414913 0.0004055835 -0.0001212497 0.0001936028 -0.0001756931 -0.0690962597 0.8414147469
745295530.0 -0.0001183698 -0.1140593063 0.0003772837 -0.0001580747 0.0003259845 -8.13405e-05 -0.0606434198 0.8419026447
750295500.0 -0.0015232952 -0.1137507386 0.0005075925 -3.22869e-05 0.0003185322 -5.3078e-06 -0.0517879393 0.8425779184
755295470.0 -0.0026566174 -0.1133915131 0.000420005 3.26467e-05 0.0003652578 -0.0001100154 -0.0444826635 0.8431600843
760295440.0 -0.0045190772 -0.1130556123 0.0002325382 -0.000111228 0.0003554671 0.0001905552 -0.0360156897 0.8432433911
765295410.0 -0.0057369122 -0.1129507593 0.000188962 1.4166e-05 0.0003773763 -0.0002266097 -0.0266889156 0.8439459683
770295380.0 -0.007274076 -0.1124973144 0.0005174084 -9.52052e-05 0.0002853803 1.51749e-05 -0.0182591639 0.8442041205
775295350.0 -0.0086772317 -0.1120270727 0.0002037052 7.11475e-05 0.0004764617 -5.38699e-05 -0.0111517416 0.8436534195
780295320.0 -0.0100256903 -0.1119770194 0.0003658863 0.0001102384 0.0004981914 -3.70572e-05 -0.0026672384 0.8445835743
785295290.0 -0.0111601238 -0.1114898296 0.0004166533 8.71046e-05 0.0003484389 -0.0001343494 0.0051072309 0.8444707192
790295260.0 -0.0126626589 -0.1110129152 0.00056552 8.56066e-05 0.0003776011 -0.0001144272 0.0142376152 0.8442687208
795295230.0 -0.0140070834 -0.1105254648 0.0002439606 6.2294e-06 0.0004546992 5.70672e-05 0.0222365839 0.8445317987
800295200.0 -0.0153069747 -0.110155599 0.0002698799 0.0001503003 0.0004472378 -3.35853e-05 0.0307891122 0.8439384726
805295170.0 -0.0166640039 -0.1099964941 0.0004402369 -0.0002823781 0.0005390164 -1.88098e-05 0.0385432731 0.8429270529
810295140.0 -0.0178281215 -0.1095926984 0.0004078951 -3.13862e-05 0.0005727005 -8.78141e-05 0.0472034843 0.8437205963
815295110.0 -0.0191062685 -0.1088533666 0.0004033885 -0.0001499454 0.0002030616 -0.0001656831 0.0554288154 0.8425131101
820295080.0 -0.0209129408 -0.1087329452 0.0002803231 8.45322e-05 0.0002601404 -0.0002110585 0.0637018495 0.8422069848
825295050.0 -0.0221047851 -0.1078376435 0.000386342 -0.0001343464 0.0003596513 -9.42118e-05 0.0722147522 0.841555032
830295020.0 -0.0233360499 -0.1071868082 0.0003584279 -0.0001014477 0.0003817755 -0.0002476333 0.0798824629 0.8406608828
835294990.0 -0.0246089016 -0.1066193649 0.0004573746 -0.000266345 0.0004284847 6.87149e-05 0.0886492366 0.8398441976
840294960.0 -0.0258592842 -0.1063382886 0.0005614826 -0.0001329766 0.0006730244 -4.93601e-05 0.0960796594 0.8389571438
845294930.0 -0.0273270033 -0.1058453095 0.0003948041 -5.19573e-05 0.0003545084 -0.0001112174 0.1046403487 0.8379561664
850294900.0 -0.0287815093 -0.1051987192 0.0004853273 -0.0001664766 0.0005771984 -8.12578e-05 0.1127942061 0.8373255167
