!Created with skrf (http://scikit-rf.org).
# Hz S RI R 50.0 
!freq ReS11 ImS11 ReS21 ImS21 ReS12 ImS12 ReS22 ImS22
300000.0 0.8601753506 -0.0008195946 -0.0002705945 0.0006274233 -0.0006665054 0.0001064667 -0.7647118263 -0.2015976844
5299970.0 0.8595629626 -0.0099963514 -0.0001890352 -4.77412e-05 -3.04439e-05 -0.0001420059 -0.785082112 -0.0100269193
10299940.0 0.8587099705 -0.0184291112 0.000129396 -0.0001442585 -1.22265e-05 3.59182e-05 -0.7875077073 -0.0055148788
15299910.0 0.8578458258 -0.0269131058 0.0001014614 8.96276e-05 0.0001455941 -9.77863e-05 -0.792826366 -0.0030277475
20299880.0 0.8573887148 -0.0355129008 -4.85394e-05 0.0001656045 7.46039e-05 -3.93314e-05 -0.7990770367 0.0015980972
25299850.0 0.8560577029 -0.0440081718 -8.1169e-05 -0.0001106193 -0.0001856354 -1.8805e-06 -0.805786328 0.007920507
30299820.0 0.8560317728 -0.0520866821 7.94893e-05 -0.0001770002 -5.68798e-05 4.57108e-05 -0.8119274294 0.0158925118
35299790.0 0.85544218 -0.0602488763 -0.0001620084 -3.36472e-05 -0.000112002 -0.0001264388 -0.8167534248 0.0245991097
40299760.0 0.8548156219 -0.0683047563 5.87189e-05 -1.56034e-05 2.78349e-05 -0.0002440515 -0.8212552463 0.0341108267
45299730.0 0.8536437883 -0.0764990098 -0.0002971484 0.0002373395 0.0001413454 0.0001898758 -0.8240753519 0.0438863172
50299700.0 0.8528908484 -0.0843557983 0.0001024887 0.0001156885 -8.00609e-05 5.4561e-05 -0.8265565813 0.0540581082
55299670.0 0.852201978 -0.0926854046 -1.55251e-05 -2.69314e-05 0.0001200591 -1.3073e-06 -0.8280585904 0.0643182059
60299640.0 0.8512307467 -0.1011933666 -0.0001709183 0.0001806809 7.368e-06 -0.0001592239 -0.8298387328 0.0741469399
65299610.0 0.8506160141 -0.1095421422 2.21903e-05 -3.07122e-05 2.5797e-06 -5.80117e-05 -0.8298240809 0.0840791771
70299580.0 0.8488265696 -0.1173943994 7.41784e-05 -5.18417e-05 -0.000224628 0.0002107715 -0.830976948 0.0935725069
75299550.0 0.8472874986 -0.1253697784 -5.79142e-05 9.11325e-05 8.16066e-05 8.01143e-05 -0.8308264328 0.1040510854
80299520.0 0.8462192198 -0.1338540316 4.35364e-05 9.99721e-05 3.80077e-05 -0.0001659341 -0.8306561463 0.114054364
85299490.0 0.8452017514 -0.1422543757 0.0001125923 3.21221e-05 -0.0001690191 3.26088e-05 -0.829687904 0.1236291526
90299460.0 0.8446106235 -0.150293626 7.36007e-05 7.06817e-05 0.000132116 5.98038e-05 -0.8286723715 0.1327442507
95299430.0 0.8429378546 -0.1578335445 0.0002081122 -9.29161e-05 -2.19617e-05 -2.51523e-05 -0.8280483333 0.1426297068
100299400.0 0.8405779089 -0.1660086045 6.46573e-05 1.82167e-05 9.01874e-05 -0.0001164208 -0.827091144 0.1513870738
105299370.0 0.8389776451 -0.1743162706 0.0001203975 -0.0001787751 -0.0002766183 3.2824e-05 -0.8255724957 0.1609250086
110299340.0 0.8372799677 -0.182755171 -9.91979e-05 0.0002417832 -0.0001059544 0.0002300974 -0.8242989836 0.1698532866
115299310.0 0.8357050727 -0.1903947812 -5.49729e-05 0.0001537209 7.71254e-05 -0.000141817 -0.823089495 0.1790825077
120299280.0 0.8339571328 -0.1984899632 -5.44139e-05 5.30956e-05 5.31543e-05 7.43287e-05 -0.8209442703 0.1876547037
125299250.0 0.8316569153 -0.2063540933 -0.0001742903 0.000117256 0.0001160591 0.0001175432 -0.8192560637 0.1970120577
130299220.0 0.830080298 -0.21493467 -9.04864e-05 -0.0003205852 -2.15283e-05 4.68334e-05 -0.817212424 0.2058846633
135299190.0 0.8278904218 -0.2231275268 -0.0002344529 -0.0001244331 0.0001614443 8.8639e-05 -0.8156274096 0.215098727
140299160.0 0.8257504744 -0.229884744 -0.0001348086 1.91688e-05 -0.0001190225 0.000137729 -0.8142418489 0.2234431587
145299130.0 0.8229771406 -0.2380484577 -4.97843e-05 -3.48298e-05 -1.20578e-05 -0.0003130775 -0.8117654191 0.2321367878
150299100.0 0.8211561451 -0.2459902118 -1.12921e-05 -0.0001470053 -1.94228e-05 3.85158e-05 -0.8092644028 0.2417532937
155299070.0 0.8184511072 -0.2540650591 1.63303e-05 0.0002221335 -5.58141e-05 0.0001019387 -0.8067406888 0.2508640636
160299040.0 0.8163170459 -0.262019129 -3.40927e-05 8.35698e-05 -7.929e-07 1.1059e-06 -0.8041875885 0.2592268387
165299010.0 0.813823689 -0.2697752325 0.0001487549 1.59159e-05 1.48024e-05 1.5474e-05 -0.8017132512 0.267521702
170298980.0 0.8115439031 -0.277577666 7.36715e-05 -0.0002463532 0.0001342078 -0.0001462947 -0.7996689426 0.2757134896
175298950.0 0.8087611554 -0.2853089677 0.0002020565 3.1197e-05 -7.67197e-05 -7.95548e-05 -0.7965480399 0.2848447215
180298920.0 0.8061071519 -0.2928493136 -0.0002252915 -3.6486e-06 -0.0001103119 -1.3891e-05 -0.7927430546 0.2929797502
185298890.0 0.8026796736 -0.3011590448 -0.0003373767 8.0219e-06 6.20812e-05 -0.0001183967 -0.7903285114 0.3017230941
190298860.0 0.7998440905 -0.3089387991 -8.37722e-05 0.0001174557 -1.48169e-05 1.72986e-05 -0.7869619592 0.3100023669
195298830.0 0.7966021908 -0.31593126 -0.0002116905 -0.0001337152 -4.18369e-05 9.33438e-05 -0.7834851244 0.3181011559
200298800.0 0.7939076212 -0.3238271255 -3.0056e-05 0.000199841 3.82856e-05 -7.0981e-06 -0.7806480139 0.3269216751
205298770.0 0.7910184599 -0.3314912495 -5.33983e-05 0.0001994772 -4.64072e-05 6.03467e-05 -0.7776662757 0.3352984
210298740.0 0.7883123581 -0.3386642283 -5.73566e-05 -4.884e-07 -1.32384e-05 -6.69818e-05 -0.7739662029 0.3434835314
215298710.0 0.7847792816 -0.3468055719 -3.01841e-05 -8.4965e-05 3.93189e-05 6.234e-05 -0.7704533592 0.3515655673
220298680.0 0.7812166682 -0.353706442 0.0001625657 -8.06869e-05 0.0001376561 2.1207e-05 -0.7662841072 0.3594652441
225298650.0 0.7777196898 -0.3618980387 8.39598e-05 -3.12634e-05 0.0001361518 6.61565e-05 -0.7629890995 0.3679808198
230298620.0 0.7734214654 -0.3688537529 -5.3402e-05 -5.43473e-05 -0.0001661946 1.21999e-05 -0.7592703142 0.3757290547
235298590.0 0.7708953044 -0.3760145086 0.0001233333 9.9387e-06 3.74523e-05 0.0001034799 -0.7555040956 0.383689164
240298560.0 0.766398933 -0.3835724575 1.51026e-05 -4.5446e-06 -0.0001360529 0.0001244893 -0.7511479388 0.3903180973
245298530.0 0.7625701614 -0.3909890371 5.09947e-05 -4.56356e-05 -4.68872e-05 -0.0001502452 -0.7474025798 0.3989860639
250298500.0 0.7594804264 -0.3984290349 4.39741e-05 0.0001656645 -0.0001490003 -3.23242e-05 -0.7431119015 0.4067786183
255298470.0 0.7551379269 -0.4051055733 -6.64719e-05 0.0002803874 0.0003029021 -5.45339e-05 -0.7387716097 0.4146173561
260298440.0 0.7512046323 -0.4126837845 8.40712e-05 0.0001099904 -0.0001283305 0.0001872511 -0.7342689162 0.42221393
265298410.0 0.7467381653 -0.4198502868 8.24084e-05 -0.0003381854 0.0001377309 -0.0002762806 -0.7294682162 0.4300385784
270298380.0 0.7435470112 -0.4270017441 8.83061e-05 -6.5327e-05 -0.0001081608 -9.30821e-05 -0.7252037273 0.4376190247
275298350.0 0.7390192478 -0.4338240462 0.0001111617 -0.0001687323 -4.736e-07 7.73986e-05 -0.7203188282 0.4452884492
280298320.0 0.7348975198 -0.4408549778 9.77581e-05 -4.8983e-05 1.00131e-05 -4.59764e-05 -0.7163707211 0.4529014232
285298290.0 0.731336406 -0.4483463493 3.941e-06 -6.50618e-05 3.42784e-05 -0.0001282647 -0.7113795126 0.4608360699
290298260.0 0.7258868991 -0.4555998751 -0.0001526338 0.0001315955 4.57075e-05 -1.54312e-05 -0.7065399332 0.4678153159
295298230.0 0.7224716055 -0.4628020974 -6.13459e-05 5.6402e-06 7.30441e-05 -0.0001569187 -0.7016006117 0.4753577512
300298200.0 0.7186579785 -0.4693524337 0.0002113686 -0.0001840264 -2.18569e-05 8.9127e-05 -0.6965418662 0.4823613139
305298170.0 0.7137311893 -0.4776394695 0.0001694951 -1.06945e-05 0.0002178351 -0.0001365723 -0.6918199432 0.4891598267
310298140.0 0.7092544372 -0.4848468458 -1.48302e-05 -0.0001480603 0.0001229324 0.000114081 -0.6857812837 0.4965100039
315298110.0 0.7042476244 -0.4923135915 -9.24086e-05 6.003e-06 8.18274e-05 2.9033e-05 -0.6805566735 0.5039993098
320298080.0 0.6985559595 -0.4992667244 3.36443e-05 0.0001390307 0.0001105702 4.13589e-05 -0.6758930834 0.5105050441
325298050.0 0.6928208584 -0.5071740825 2.97729e-05 -6.21618e-05 0.0001139693 4.81063e-05 -0.6700481142 0.5182288057
330298020.0 0.6865405971 -0.5138971098 -0.0002259323 3.12912e-05 -1.40468e-05 6.75023e-05 -0.6648710771 0.5248167949
335297990.0 0.68106667 -0.5191991697 0.0001018563 -5.9542e-06 1.01937e-05 -0.0001324813 -0.6597429451 0.5314877491
340297960.0 0.6756104121 -0.5256137688 -0.0001607267 3.76387e-05 3.82609e-05 0.0001575188 -0.6540131361 0.5383088484
345297930.0 0.6701205857 -0.5320165753 -7.0507e-05 3.79538e-05 -5.86938e-05 6.91346e-05 -0.6487674762 0.5451028882
350297900.0 0.6652676946 -0.53883396 -2.08974e-05 -0.0001553645 -9.71975e-05 8.14042e-05 -0.6432835749 0.5510445672
355297870.0 0.66026937 -0.5443849728 2.48331e-05 0.0001039043 -0.0002010694 7.099e-05 -0.6366948046 0.5589089551
360297840.0 0.6540555411 -0.5507174391 -4.6165e-06 -2.75704e-05 7.01478e-05 -4.85631e-05 -0.6306334497 0.5647111755
365297810.0 0.6489442516 -0.5569350496 -0.000128005 -0.0001650422 4.75658e-05 -2.3239e-06 -0.6260526603 0.5707803447
370297780.0 0.6431902973 -0.5627166176 -3.61756e-05 -5.40889e-05 -1.339e-06 -0.0001268114 -0.6196574237 0.5777571652
375297750.0 0.6374556056 -0.5691449883 0.0003105004 -3.45848e-05 -3.59779e-05 -2.50284e-05 -0.6131536633 0.5844291513
380297720.0 0.6318875131 -0.5749158642 -0.000205957 9.45899e-05 0.0001584717 -4.6627e-06 -0.606974756 0.5907480713
385297690.0 0.62602319 -0.5809893872 0.0001041579 0.000202835 -3.49522e-05 -0.0001640111 -0.6016141813 0.5963709993
390297660.0 0.6214009985 -0.587319294 1.92973e-05 7.90859e-05 0.0001396112 -4.44831e-05 -0.5947327165 0.602249894
395297630.0 0.6149991748 -0.5921460179 1.1443e-06 -3.89776e-05 0.0002189594 -8.77526e-05 -0.5881942941 0.6078357437
400297600.0 0.6088941238 -0.5988920753 0.0002155552 0.0001433557 -0.0001093102 3.68667e-05 -0.5828499578 0.6146099738
405297570.0 0.603446858 -0.6044734337 5.16681e-05 -5.30297e-05 3.9313e-05 0.0001681996 -0.5753947634 0.6200031639
410297540.0 0.5981512294 -0.6094558087 6.50142e-05 -5.47893e-05 8.36863e-05 4.57885e-05 -0.569342571 0.6260382615
415297510.0 0.5916779939 -0.6158000476 1.26191e-05 -3.90517e-05 8.886e-05 -6.98656e-05 -0.5628324475 0.6315111599
420297480.0 0.5857037729 -0.6217991879 6.66238e-05 -0.0002086768 2.38308e-05 1.49015e-05 -0.5562406106 0.6384812378
425297450.0 0.5796010099 -0.6270920156 -0.0001118199 0.0002481418 -2.69922e-05 9.47912e-05 -0.5493841351 0.6426539344
430297420.0 0.5734070978 -0.6329940531 -5.72252e-05 3.06104e-05 -2.9576e-05 0.0001426511 -0.5425436315 0.6486884795
435297390.0 0.5675483534 -0.6384257195 -2.77933e-05 -0.0001102421 0.0001257826 7.92954e-05 -0.5366739641 0.6546895925
440297360.0 0.5612247412 -0.6439308098 -0.0001350271 7.6187e-05 0.0001641403 0.0001050898 -0.5303190366 0.6592777801
445297330.0 0.5550362475 -0.6489153653 6.58489e-05 0.0001246939 8.15375e-05 7.5161e-06 -0.5235703481 0.6652804687
450297300.0 0.5495286436 -0.6544139233 0.0001653491 7.50637e-05 9.01693e-05 -0.0001113663 -0.5158957449 0.6698761962
455297270.0 0.5424644626 -0.6596634216 -3.06895e-05 -9.71999e-05 -3.59007e-05 -7.34728e-05 -0.5089343464 0.6752827533
460297240.0 0.5355411946 -0.6646204877 5.26118e-05 0.0001915437 -2.16435e-05 0.0001319014 -0.502396244 0.6801859349
465297210.0 0.5297148097 -0.6696936883 -1.05179e-05 -8.96253e-05 -0.000207435 1.94966e-05 -0.4948107533 0.6859173473
470297180.0 0.5231245775 -0.6752662955 8.27706e-05 0.000147646 -0.0001193826 0.0001025773 -0.4881163463 0.6904474871
475297150.0 0.5157637023 -0.6802675288 -0.0002218705 -2.63578e-05 -0.0002228034 5.84014e-05 -0.4813090988 0.6955385997
480297120.0 0.509934236 -0.6857558012 0.0001336728 -0.0001421201 -3.7253e-05 -4.94644e-05 -0.4744963 0.7004634206
485297090.0 0.5027548949 -0.6902523457 0.0001122133 -6.19935e-05 -1.8826e-05 -0.0001147613 -0.4670787729 0.7046606089
490297060.0 0.4961095462 -0.6945911248 0.0002142719 1.50983e-05 3.00325e-05 5.24045e-05 -0.459596808 0.7091002204
495297030.0 0.4900099986 -0.6993647296 -0.0001646169 3.3314e-06 -9.22078e-05 -0.0001045215 -0.4528533475 0.7137487732
500297000.0 0.4835218836 -0.704396556 1.10902e-05 -6.33669e-05 -7.0549e-05 -6.66405e-05 -0.4449965401 0.7185261528
505296970.0 0.4766420866 -0.7088024005 -0.0002401074 -0.0002130886 -8.64921e-05 -0.0001673947 -0.437447703 0.7225791964
510296940.0 0.4696624375 -0.7132869916 -3.40505e-05 -5.7168e-05 0.0001589991 -0.000290119 -0.4302927972 0.7276099952
515296910.0 0.4621758215 -0.7184863733 -8.87384e-05 -5.97772e-05 -2.8323e-05 -7.28548e-05 -0.4232737514 0.7314931732
520296880.0 0.4561666946 -0.7228894131 2.91767e-05 -3.62255e-05 5.31397e-05 4.15543e-05 -0.4149357251 0.7359649072
525296850.0 0.4487288122 -0.7266093319 7.1012e-05 -0.0001830077 -4.1255e-06 -4.65357e-05 -0.4082077792 0.7396874519
530296820.0 0.442031895 -0.7316955083 1.24854e-05 0.0001125474 7.98186e-05 5.84368e-05 -0.4007975974 0.7437299203
535296790.0 0.4352453285 -0.7351598135 8.70085e-05 8.96139e-05 -0.0001014058 5.33193e-05 -0.3933475604 0.7481471378
540296760.0 0.4286249018 -0.7395457722 -0.0001409796 -5.84926e-05 -0.0001827232 3.8744e-05 -0.3851889529 0.7511551354
545296730.0 0.4199128101 -0.7441543429 -0.000196385 5.76982e-05 0.0001291861 3.851e-07 -0.3774967857 0.7558202507
550296700.0 0.4130321758 -0.7471945611 1.64298e-05 -0.0001723647 1.62163e-05 -0.0001873203 -0.3700177514 0.7591397132
555296670.0 0.4059658158 -0.7515729821 -6.8862e-06 -0.0001328682 1.05264e-05 -6.3619e-06 -0.3622462483 0.7623109871
560296640.0 0.3993210258 -0.7551088575 0.000168084 -5.53181e-05 6.93509e-05 8.04804e-05 -0.3543085915 0.7665922872
565296610.0 0.391577213 -0.7592771892 6.08398e-05 7.77498e-05 -0.0001105463 2.66717e-05 -0.3466064875 0.7699189719
570296580.0 0.384034081 -0.7627410499 -0.0001135392 -4.06986e-05 0.0001129633 -6.61441e-05 -0.3389019439 0.7730735939
575296550.0 0.3768777337 -0.7665985529 0.000116693 -0.000132241 -4.2091e-05 0.0001096766 -0.3306486834 0.7765542152
580296520.0 0.3691360422 -0.7697163915 -0.0001077031 8.47364e-05 -2.42421e-05 -2.31217e-05 -0.3238933093 0.7799097191
585296490.0 0.3622621809 -0.7730169358 1.6188e-06 -0.0001602223 5.70112e-05 -9.80581e-05 -0.3152425533 0.7836035726
590296460.0 0.354377732 -0.7758834006 7.62924e-05 4.5382e-06 -9.9186e-06 -1.7308e-05 -0.3080755196 0.7861792104
595296430.0 0.3468279967 -0.7796213798 -7.90099e-05 0.0002029646 -2.79954e-05 -0.0001525541 -0.3002135909 0.7894132603
600296400.0 0.3391727733 -0.7836508729 0.0001322999 0.0001399835 4.2966e-06 -1.3503e-06 -0.292083355 0.791455172
605296370.0 0.3307609653 -0.7864191389 -4.71159e-05 -2.53432e-05 6.39417e-05 7.1877e-06 -0.2837471281 0.7954365871
610296340.0 0.3233891392 -0.7894516171 6.92344e-05 0.0001425757 1.19553e-05 5.66348e-05 -0.276063981 0.7977276522
615296310.0 0.3161613267 -0.7924357197 -0.000114353 -0.0001298823 5.08884e-05 5.9811e-05 -0.2676106517 0.8004914934
620296280.0 0.3079625467 -0.7945391919 2.32174e-05 9.61873e-05 -0.0001067393 -0.0001171682 -0.2600007412 0.8031874972
625296250.0 0.3003691712 -0.7980756495 7.49679e-05 -7.59068e-05 4.82178e-05 9.06131e-05 -0.2516473623 0.8051758823
630296220.0 0.2916549052 -0.8006053931 -3.62765e-05 -3.47069e-05 -9.45132e-05 3.46645e-05 -0.2436217762 0.8081505103
635296190.0 0.2840504346 -0.8031640933 -0.0001320413 0.0001438012 2.44994e-05 -6.48187e-05 -0.2357982325 0.8101855133
640296160.0 0.2758156401 -0.8056940341 3.77712e-05 7.33436e-05 2.83282e-05 -1.18536e-05 -0.2269313102 0.8126478553
645296130.0 0.2689734031 -0.8082122058 6.23169e-05 -1.82395e-05 3.05933e-05 -4.34445e-05 -0.2194899166 0.8144561273
650296100.0 0.2605181273 -0.8107287273 -0.0001218199 8.63957e-05 -0.0001150257 -7.10743e-05 -0.2104968213 0.8170441992
655296070.0 0.2523014214 -0.8126342323 1.50947e-05 -0.0002346594 0.0001027607 -3.4253e-05 -0.2034927341 0.8192501816
660296040.0 0.2439216925 -0.8154072063 -4.91225e-05 6.6087e-06 0.0001747831 0.0002524225 -0.1943170003 0.8212876834
665296010.0 0.2362909814 -0.8177338225 -5.2704e-05 -8.67907e-05 8.91045e-05 0.0001700069 -0.1865007911 0.8224193114
670295980.0 0.228211852 -0.8194940615 4.28595e-05 2.37681e-05 -1.74323e-05 -5.97776e-05 -0.1787133919 0.8243727628
675295950.0 0.2197231734 -0.8215293027 1.29418e-05 6.97297e-05 0.0001526924 -3.60428e-05 -0.1701533542 0.8266387907
680295920.0 0.2116119009 -0.8234723663 -0.0001137019 -3.57912e-05 0.0002057723 2.65671e-05 -0.1617289496 0.8280603151
685295890.0 0.2030989339 -0.8248294846 -1.63971e-05 8.13319e-05 -7.33381e-05 -0.000213645 -0.1535233698 0.8294993345
690295860.0 0.195161221 -0.8267704583 7.38688e-05 1.3806e-05 0.0001135076 5.23494e-05 -0.1451944754 0.8307063531
695295830.0 0.1870790741 -0.8286006902 -6.18862e-05 4.62016e-05 -3.89931e-05 2.97935e-05 -0.1370461151 0.8330609693
700295800.0 0.1785445019 -0.8298762336 -0.0001156326 8.558e-06 9.36972e-05 7.5802e-05 -0.1284813578 0.8333732121
705295770.0 0.1701688444 -0.8315233179 -1.1215e-06 -2.83011e-05 0.0001311966 0.0001369648 -0.1202915557 0.8350246643
710295740.0 0.1619315843 -0.8325992679 -4.94307e-05 -2.7592e-05 -0.0001704796 -0.0001531689 -0.1115044057 0.8361566313
715295710.0 0.1540547477 -0.8337728147 0.0001185854 2.78789e-05 -2.43765e-05 0.000106277 -0.1037514897 0.8364420494
720295680.0 0.1459129221 -0.8354020935 0.0001455948 -7.43415e-05 -0.0001470568 -6.85051e-05 -0.0949472315 0.8376208295
725295650.0 0.1363015272 -0.836253904 0.0001558765 -0.0001330015 -2.22497e-05 -0.000114533 -0.0871563095 0.8390692668
730295620.0 0.1283786512 -0.8379072004 -0.0001664665 1.50949e-05 -8.48968e-05 0.0001516873 -0.0788935427 0.8401060255
735295590.0 0.1202822458 -0.8382404194 -0.0001225473 7.78364e-05 -0.0001217589 8.46227e-05 -0.0701000089 0.8407482299
740295560.0 0.1115097945 -0.8399324861 -2.76956e-05 -5.8909e-06 -0.0001034026 -0.0001599524 -0.0614346684 0.8414807074
745295530.0 0.1029066647 -0.8400097065 -0.0001311559 7.36825e-05 5.62262e-05 5.80232e-05 -0.0537291524 0.8417105994
750295500.0 0.0945929429 -0.8410146027 4.6415e-06 -3.2494e-06 2.31209e-05 8.17806e-05 -0.0451324455 0.8421679627
755295470.0 0.0865793039 -0.8415039807 -6.77313e-05 0.000169339 7.74236e-05 4.6877e-06 -0.0372130236 0.8430971742
760295440.0 0.0784641989 -0.841448562 0.000134482 7.8289e-05 1.80494e-05 0.0001919286 -0.0282412548 0.8428989588
765295410.0 0.0701685326 -0.8424019784 4.68891e-05 -6.68798e-05 -0.000139493 7.57919e-05 -0.0198767051 0.8435309082
770295380.0 0.061504856 -0.8421586167 -9.76956e-05 0.0002015143 0.0001137008 8.43603e-05 -0.0116672715 0.8434089977
775295350.0 0.0528924897 -0.8425804903 -0.00011046 9.03298e-05 -4.68546e-05 5.54104e-05 -0.003345062 0.8432140495
780295320.0 0.0442866128 -0.8431198832 -0.0002136239 -7.46603e-05 1.46152e-05 3.9242e-06 0.0051896901 0.8436704827
785295290.0 0.0363524142 -0.8433948132 -0.0001506208 -3.70212e-05 -7.86939e-05 -0.0001564069 0.0132153427 0.8436449007
790295260.0 0.028578656 -0.8432847832 -0.0001203947 0.0002359327 -3.5143e-05 -7.70721e-05 0.0217035627 0.8431013318
795295230.0 0.0194092131 -0.8440461197 -1.17152e-05 -0.0001404875 -0.0001349597 0.0001062443 0.0300720643 0.8423888164
800295200.0 0.0111416924 -0.8433747472 8.48393e-05 4.75399e-05 9.10684e-05 2.10514e-05 0.0383564299 0.8421069523
805295170.0 0.0021919612 -0.843363401 -2.45137e-05 0.0001228116 -0.0001053883 0.0001350416 0.0473708847 0.842081971
810295140.0 -0.0057330416 -0.8423545624 -4.43735e-05 2.48501e-05 -4.35519e-05 -0.0001060058 0.055477103 0.841211506
815295110.0 -0.0142463376 -0.8431763254 -0.0002892608 -0.0001001186 0.0001497531 -1.1627e-05 0.0630110753 0.8409844273
820295080.0 -0.0225507956 -0.8422507915 -7.08991e-05 6.70703e-05 -0.0001048695 -1.58296e-05 0.0713551379 0.8405552844
825295050.0 -0.0316717312 -0.8420388304 0.0001612147 -0.0002622327 0.0001798536 6.87539e-05 0.079918344 0.8394906643
830295020.0 -0.0390578511 -0.8417469181 -0.0001114718 2.18536e-05 4.83002e-05 4.47793e-05 0.0879478094 0.8381781381
835294990.0 -0.0473282811 -0.8407524098 -0.0003077358 0.0001308762 0.0001325238 -0.0001358119 0.0965438577 0.8384369791
840294960.0 -0.0552175224 -0.8404188976 -4.42482e-05 0.0001122283 -3.2935e-06 6.26799e-05 0.1050843956 0.8365912132
845294930.0 -0.0645045337 -0.8390823799 -0.000145176 -2.44653e-05 3.40987e-05 -4.6679e-06 0.113475059 0.8353948864
850294900.0 -0.0718447877 -0.8385296037 -0.0001305573 3.84721e-05 -0.0001308174 5.34203e-05 0.1212200368 0.8346652455
