!Created with skrf (http://scikit-rf.org).
# Hz S RI R 50.0 
!freq ReS11 ImS11 ReS21 ImS21 ReS12 ImS12 ReS22 ImS22
300000.0 -0.2383291852 -0.0742380992 0.4709574481 0.0523560734 0.4674818119 0.0502530864 -0.2409246948 -0.0907157777
5299970.0 -0.2441412286 0.0074752665 0.4735047843 0.004688351 0.4734579416 0.0050102386 -0.2442960643 0.0074548896
10299940.0 -0.2407822533 0.0192288374 0.4752950027 0.0060568032 0.4751765749 0.0063183063 -0.2407076329 0.0206009475
15299910.0 -0.2367727456 0.0283252139 0.4791007652 0.0073760089 0.4793954982 0.007553669 -0.2361828547 0.0294349469
20299880.0 -0.2319981059 0.0354977353 0.4839624106 0.0087069029 0.4837956862 0.0084397944 -0.2306127217 0.0373631544
25299850.0 -0.2270051792 0.0421347914 0.4888460789 0.0073516322 0.4890580107 0.0077277921 -0.2251629072 0.0439871545
30299820.0 -0.2215380222 0.0472054678 0.4946062663 0.0052340403 0.4945083581 0.0053291734 -0.2192139157 0.0493655705
35299790.0 -0.2163445144 0.0514333678 0.4997357619 0.0020901357 0.4997485036 0.001896197 -0.2135057226 0.0534031672
40299760.0 -0.2113038932 0.0549188179 0.5046512801 -0.0021163802 0.5053399955 -0.0017717059 -0.208088408 0.0562096409
45299730.0 -0.2067221103 0.0575861481 0.509568365 -0.0064456087 0.5099423024 -0.0065342322 -0.203206052 0.0588849205
50299700.0 -0.2024941778 0.0598361129 0.5143595669 -0.0119055675 0.514014583 -0.0116779881 -0.198760513 0.0605256478
55299670.0 -0.1981017098 0.0618847694 0.5179142637 -0.0185702499 0.5176832392 -0.017999698 -0.1944526168 0.0623765865
60299640.0 -0.1943277326 0.0633691897 0.5212775352 -0.0240916481 0.5214490733 -0.0242370254 -0.1904187144 0.0631609024
65299610.0 -0.1912339306 0.0647258415 0.5241123758 -0.0307740855 0.5243791489 -0.0304150794 -0.1872046232 0.0640321012
70299580.0 -0.1880515084 0.0661826148 0.5266907023 -0.0373482738 0.5264950407 -0.0373010183 -0.1838097841 0.0648982967
75299550.0 -0.185026925 0.0672534259 0.5283954866 -0.043908277 0.5286218505 -0.0442705697 -0.1810080483 0.06534912
80299520.0 -0.1824678183 0.0680999422 0.5303214612 -0.0510273485 0.5305970752 -0.0507031345 -0.1782459837 0.0659862495
85299490.0 -0.1800708026 0.068793123 0.5314729811 -0.0574604913 0.5317342758 -0.0574134186 -0.1760489838 0.0660028548
90299460.0 -0.1779087128 0.0695603452 0.5326620012 -0.0646620032 0.5331301493 -0.0647807814 -0.1736363229 0.0670675823
95299430.0 -0.1752369689 0.0704766553 0.5336054613 -0.0716657296 0.534069037 -0.0720017876 -0.1718014024 0.0675248419
100299400.0 -0.1740146354 0.0717093005 0.5335014121 -0.078640868 0.5339831887 -0.0785345434 -0.1695737017 0.067261912
105299370.0 -0.1720505536 0.0723941913 0.5343195901 -0.0858732524 0.5345731949 -0.0858676549 -0.1677182845 0.0679323091
110299340.0 -0.1702734833 0.0732139509 0.5346253275 -0.0922645287 0.5342728154 -0.091979929 -0.1666674038 0.0684105189
115299310.0 -0.1687716405 0.0742621847 0.5344654272 -0.099475618 0.5344335704 -0.0991078689 -0.1648301938 0.0689948489
120299280.0 -0.1674177153 0.0745224521 0.5338504463 -0.1062270807 0.5341804869 -0.106000918 -0.1635513331 0.0694244878
125299250.0 -0.1661632467 0.0752957203 0.5340623653 -0.1123779144 0.5340903686 -0.1123326751 -0.1625418433 0.069638924
130299220.0 -0.1650271874 0.0768935818 0.5331026144 -0.1196989608 0.5331747151 -0.1194225402 -0.1610587307 0.0701719439
135299190.0 -0.1635417112 0.0776863928 0.532683592 -0.1259950424 0.5325997611 -0.1261411798 -0.1598977596 0.0710443524
140299160.0 -0.162561436 0.0787113095 0.5316740184 -0.1329546503 0.5320703249 -0.1329363346 -0.1589007664 0.0723901549
145299130.0 -0.1612900801 0.0798526034 0.5307778928 -0.1393971978 0.5304322362 -0.1393403234 -0.157860655 0.0727851913
150299100.0 -0.1603554833 0.0811041379 0.5301964696 -0.1454394211 0.5301036516 -0.1452498077 -0.1571391323 0.0740026489
155299070.0 -0.1594509839 0.0820860396 0.5289290649 -0.1528574848 0.5285856284 -0.1525954551 -0.1561477205 0.074661777
160299040.0 -0.1582175668 0.083473949 0.5270397199 -0.1584592699 0.5272574742 -0.1588750048 -0.1554498062 0.0756563417
165299010.0 -0.1575426862 0.0845926789 0.5257893624 -0.1657196804 0.5262156866 -0.1656112071 -0.1541005684 0.0767664944
170298980.0 -0.1565839895 0.0856853895 0.524103536 -0.1715848866 0.5242504751 -0.1717433116 -0.153374822 0.0775149771
175298950.0 -0.1555345185 0.086841088 0.5230208072 -0.1779712434 0.5224858823 -0.1779267047 -0.1528472991 0.0785238039
180298920.0 -0.1548216469 0.0882930985 0.521028282 -0.1843969844 0.5206721779 -0.1842788566 -0.151970104 0.0799924638
185298890.0 -0.1535038388 0.0893446878 0.5192030731 -0.1904225903 0.5186264839 -0.1906403516 -0.1513370748 0.0807600287
190298860.0 -0.1529284323 0.0912548276 0.5175036361 -0.1972709002 0.5174592548 -0.1964137318 -0.1507478446 0.0817978962
195298830.0 -0.1519405581 0.0919181471 0.5154145073 -0.2029268418 0.5150507324 -0.2026047026 -0.1496015509 0.0830063275
200298800.0 -0.1508659767 0.0933457365 0.5129333615 -0.2089577773 0.5130241541 -0.2090441661 -0.1492484882 0.0841583415
205298770.0 -0.1498974986 0.0949951885 0.5106769845 -0.2153062446 0.5107856526 -0.2149824768 -0.148498381 0.0847526626
210298740.0 -0.1489515224 0.0961836646 0.5084714328 -0.2207552509 0.5085401836 -0.2207209266 -0.14763814 0.0865012956
215298710.0 -0.1485478015 0.0976679033 0.5066026211 -0.2268986157 0.5064354487 -0.2269865268 -0.1471530035 0.0876577421
220298680.0 -0.1471062257 0.0987852274 0.503242962 -0.2327167301 0.503746815 -0.2328243885 -0.1470881351 0.0886149865
225298650.0 -0.1461702872 0.1001338856 0.5013447563 -0.2389697368 0.5013603294 -0.2388712857 -0.1460251523 0.0896191845
230298620.0 -0.1450062216 0.101974106 0.4987541436 -0.2438702937 0.499051055 -0.2442577175 -0.145598703 0.0908851235
235298590.0 -0.1442576894 0.1035799743 0.4961413506 -0.2504422171 0.4963926342 -0.2497018518 -0.144635815 0.092464219
240298560.0 -0.1431673108 0.104888222 0.4935498938 -0.2561383854 0.4934744156 -0.2563125446 -0.1438593988 0.0938218804
245298530.0 -0.1420942288 0.1065081383 0.4909415705 -0.2617272055 0.4908418183 -0.2618645235 -0.1430393097 0.0941785505
250298500.0 -0.1410377863 0.1077272056 0.4873121104 -0.267330886 0.487717741 -0.2670150487 -0.1429515416 0.0955867799
255298470.0 -0.1398242149 0.1089105789 0.4842159847 -0.2724668047 0.4848869588 -0.2727167225 -0.1414340005 0.0968637733
260298440.0 -0.139034904 0.1107317889 0.4816088304 -0.278996247 0.4819312221 -0.2783250638 -0.1407060673 0.0981587324
265298410.0 -0.1376451351 0.1126138413 0.4788789634 -0.2840443055 0.4791006866 -0.2837196243 -0.139750824 0.0996828989
270298380.0 -0.1367597756 0.113675973 0.4759431495 -0.2893507685 0.4761732581 -0.289335464 -0.1392117646 0.1005622228
275298350.0 -0.1352997267 0.1150527862 0.4726943998 -0.294806953 0.4731938333 -0.2949816231 -0.1380833612 0.101611876
280298320.0 -0.1337585826 0.1166139434 0.4695318571 -0.3003328597 0.4696965299 -0.2999640566 -0.1369084998 0.1030115766
285298290.0 -0.1327253533 0.1185296091 0.4661959022 -0.3054392212 0.4661577605 -0.3055670412 -0.1359699019 0.1043384713
290298260.0 -0.1315474177 0.1194673341 0.4625839655 -0.3103580309 0.4628937076 -0.3109754372 -0.134892558 0.1059503019
295298230.0 -0.1303125116 0.1206651838 0.4595024534 -0.3158980414 0.4594873587 -0.3161887766 -0.1337067049 0.1065104667
300298200.0 -0.1292364271 0.1223779039 0.4564049768 -0.3209900926 0.4564197267 -0.3215229996 -0.1328976133 0.1080570096
305298170.0 -0.1278234829 0.1236906479 0.4525673982 -0.326895811 0.4525764493 -0.3267105644 -0.1313330876 0.1090683272
310298140.0 -0.1266413753 0.1251698841 0.4490273174 -0.3319021854 0.4490380905 -0.331669304 -0.1306677249 0.1104108886
315298110.0 -0.1252880437 0.1261927643 0.4456994659 -0.3366328604 0.4454195409 -0.337032471 -0.1294057103 0.111397586
320298080.0 -0.1238575932 0.1275122752 0.4409603142 -0.3424631244 0.4418932392 -0.342028506 -0.1287199597 0.1127256693
325298050.0 -0.1225207578 0.1290123309 0.4379809521 -0.3472921743 0.4377453644 -0.3470448518 -0.1280091435 0.1137831864
330298020.0 -0.1211885736 0.1297613384 0.4332985447 -0.3524675354 0.4337090063 -0.3520838236 -0.1271690515 0.1150778842
335297990.0 -0.1199976414 0.1312504057 0.4297575722 -0.3566651293 0.4295574381 -0.3568326278 -0.1266290087 0.1168949167
340297960.0 -0.1189573174 0.1329415881 0.4251799891 -0.3618100537 0.425228993 -0.361790757 -0.1250025175 0.1181119959
345297930.0 -0.1178657977 0.1345509342 0.421420671 -0.3663217377 0.4213072169 -0.3665414623 -0.1241421666 0.1191286904
350297900.0 -0.1166171787 0.1354234124 0.4167608783 -0.3710433963 0.4170868965 -0.3709272298 -0.1233691209 0.1210814405
355297870.0 -0.1150160826 0.13755152 0.4133585018 -0.375592311 0.4133335959 -0.3752588372 -0.1226021845 0.1222642021
360297840.0 -0.1137330965 0.1387421444 0.409602361 -0.3794804746 0.4098217999 -0.3797880773 -0.1215250868 0.1236556931
365297810.0 -0.1124623526 0.1402689169 0.4052855819 -0.3844926146 0.4052603503 -0.3847490466 -0.1201177353 0.1249752046
370297780.0 -0.1106735147 0.1411883157 0.3996525305 -0.3883646019 0.4007045448 -0.38894049 -0.1193607414 0.1262619446
375297750.0 -0.1093277204 0.1426137455 0.3963923622 -0.3934378029 0.3967942418 -0.3938105098 -0.1181123471 0.1277479456
380297720.0 -0.1077420162 0.1442786263 0.3916325111 -0.3981664679 0.3919590426 -0.3973165432 -0.1171892491 0.1286497792
385297690.0 -0.1065246742 0.1453924143 0.3876037596 -0.4021163557 0.3871315134 -0.4019775711 -0.1156511203 0.1300856578
390297660.0 -0.1046350146 0.1469799866 0.3828121878 -0.4063756167 0.3831471053 -0.4060378326 -0.1150442758 0.1313243517
395297630.0 -0.1029898672 0.1482869228 0.3785876348 -0.4104898267 0.3786273936 -0.4106311905 -0.1129508445 0.1325523617
400297600.0 -0.1016454844 0.1496027546 0.3733763279 -0.4152745392 0.374081661 -0.4146406115 -0.1124245624 0.1336820651
405297570.0 -0.1003296937 0.1509228086 0.3695617626 -0.4187676568 0.3694608609 -0.4181696715 -0.1112710299 0.1348769207
410297540.0 -0.0984284409 0.1518474961 0.3648703151 -0.4229627256 0.3651223113 -0.422778887 -0.109995766 0.1365999848
415297510.0 -0.0967001689 0.152927663 0.3599146246 -0.4268716631 0.3604947446 -0.4269949229 -0.108618426 0.1376579471
420297480.0 -0.0952548824 0.1546821333 0.3553069892 -0.4306293427 0.3555214378 -0.4309009836 -0.1077218503 0.1382479546
425297450.0 -0.0934543926 0.1552551926 0.3512331266 -0.4343380419 0.3510544268 -0.4344108082 -0.1063360768 0.1401746734
430297420.0 -0.092114184 0.1566632156 0.3465538394 -0.4380662754 0.3461129302 -0.4380746 -0.1054939436 0.1408183504
435297390.0 -0.0901971431 0.1577933834 0.3409012855 -0.442272119 0.3406946769 -0.4420246142 -0.1032493115 0.1419146948
440297360.0 -0.0882967003 0.1591323323 0.3361835183 -0.4455467896 0.3365435902 -0.4457045601 -0.102172747 0.1425917014
445297330.0 -0.0865315478 0.1599333123 0.3314814628 -0.4494897773 0.3313237846 -0.4489192003 -0.1006944675 0.143814911
450297300.0 -0.0848138043 0.1608425855 0.3260935525 -0.4527800217 0.3263262252 -0.4532119164 -0.0995370223 0.144857126
455297270.0 -0.0830881218 0.1620279832 0.3214609316 -0.4561953427 0.3213632553 -0.4566711803 -0.0980648617 0.1458152946
460297240.0 -0.0817848695 0.1631774995 0.3162165545 -0.4598326059 0.316611733 -0.4597996287 -0.0967993603 0.1473258491
465297210.0 -0.0794872732 0.1642603765 0.311379654 -0.4636706752 0.3111992803 -0.4638487798 -0.0951888583 0.147944131
470297180.0 -0.0776732493 0.1647794221 0.3057388125 -0.4667113186 0.3062915278 -0.4666807837 -0.093596002 0.149258063
475297150.0 -0.0758521335 0.1658519133 0.3008714326 -0.469587819 0.3012141544 -0.4697797192 -0.0920443899 0.1499449169
480297120.0 -0.0740999567 0.1673317163 0.295788028 -0.4735254972 0.2957966385 -0.4735529393 -0.0904569096 0.1510185338
485297090.0 -0.0723382822 0.167982787 0.2910165317 -0.4764110409 0.290696706 -0.4761720871 -0.0892542704 0.152123454
490297060.0 -0.0707623418 0.1692428155 0.285731114 -0.4797105514 0.2857043025 -0.4795961612 -0.0878089982 0.1535934337
495297030.0 -0.068905511 0.1699176649 0.2805021244 -0.4822460437 0.2807693409 -0.4824326566 -0.0861890912 0.1544324135
500297000.0 -0.0668512491 0.1708035317 0.2750028723 -0.4853798322 0.2744982455 -0.485240193 -0.0846300986 0.1557716972
505296970.0 -0.0649864706 0.171528833 0.2700713566 -0.4883542924 0.2696162776 -0.4885681542 -0.0832705488 0.1565663741
510296940.0 -0.063142809 0.1724441334 0.2643345086 -0.4915789214 0.2641463554 -0.4913489661 -0.0813571976 0.1574972152
515296910.0 -0.0613355982 0.1733117026 0.2591062288 -0.4946139859 0.2591117334 -0.4937824113 -0.0801309823 0.1585441439
520296880.0 -0.0593187109 0.1740967474 0.2535464725 -0.4971363479 0.2535428896 -0.4969336919 -0.0787419534 0.1592862316
525296850.0 -0.0576382322 0.1745154436 0.24819969 -0.499758854 0.248604042 -0.4997231949 -0.0772354118 0.1604138947
530296820.0 -0.0553468667 0.1756918029 0.2425671706 -0.5028356226 0.2427901244 -0.5024177496 -0.0754345146 0.1613589967
535296790.0 -0.0539515857 0.1762034359 0.2374466262 -0.5046545636 0.2373951677 -0.5044028721 -0.0743855782 0.1619515751
540296760.0 -0.0518453326 0.1770996942 0.2317540386 -0.5080616221 0.2316973025 -0.5076424934 -0.0728107081 0.1631803481
545296730.0 -0.0498121039 0.1778342645 0.2262017317 -0.509793829 0.2260874546 -0.5101640726 -0.0713919046 0.1640641119
550296700.0 -0.0475709299 0.178561933 0.2201914806 -0.5125600064 0.2207320608 -0.5126550516 -0.0699527003 0.164995508
555296670.0 -0.0460598889 0.1789710017 0.2149423098 -0.5145278237 0.2152577229 -0.5145406441 -0.0681326041 0.1660361256
560296640.0 -0.0434050777 0.1801408657 0.209378733 -0.5174358264 0.2095003022 -0.5170568479 -0.0664058567 0.1665730215
565296610.0 -0.0419736119 0.1806668624 0.2035385744 -0.5190743896 0.2038706721 -0.5192978737 -0.0651707385 0.1670962755
570296580.0 -0.0400251393 0.1811575208 0.1980882748 -0.5217036631 0.1977719935 -0.5215477219 -0.0635691632 0.1685340834
575296550.0 -0.0382788827 0.1820469453 0.1924319826 -0.5237838426 0.192267837 -0.5236061401 -0.0616700819 0.1688916875
580296520.0 -0.0356198433 0.182410798 0.1865369887 -0.5256401373 0.1868496987 -0.5258208891 -0.0599926092 0.1697685403
585296490.0 -0.034074149 0.1825108545 0.1812825595 -0.5271095944 0.1813859263 -0.5276827535 -0.0586576381 0.17056153
590296460.0 -0.0314690645 0.183535369 0.1754919354 -0.5290070786 0.1753355721 -0.5290556 -0.0573128936 0.1711082773
595296430.0 -0.0295734566 0.1840024058 0.169155696 -0.5312641947 0.169209926 -0.531283237 -0.055413812 0.1712470051
600296400.0 -0.0279007711 0.1841250749 0.1639772895 -0.5332693045 0.1638942681 -0.5329880929 -0.0539451977 0.1722373444
605296370.0 -0.0258990867 0.1846686931 0.1578724351 -0.5346536738 0.1578598713 -0.5346518784 -0.052349203 0.1729109972
610296340.0 -0.0238232921 0.1855557549 0.1518008191 -0.536691293 0.1521986774 -0.5364962772 -0.0501603087 0.1733218589
615296310.0 -0.0215223565 0.1853625127 0.1458524453 -0.5376347106 0.1459299698 -0.5382132046 -0.0483521236 0.1740318252
620296280.0 -0.0196401131 0.1855211121 0.1406151629 -0.5390308476 0.14064291 -0.5392242198 -0.0471036704 0.1745818551
625296250.0 -0.0179154245 0.1859002086 0.1350473529 -0.5413320024 0.1347928036 -0.5410716183 -0.0448779642 0.1750176868
630296220.0 -0.0149450998 0.1863759342 0.1281691467 -0.5425473724 0.1286567601 -0.5421366474 -0.0434806194 0.1759462113
635296190.0 -0.0141228241 0.1867618085 0.1227988422 -0.5434309231 0.1225727727 -0.5434318236 -0.0415656839 0.1763905066
640296160.0 -0.0118013997 0.1870375243 0.1171297363 -0.5448018349 0.1173444697 -0.5447719509 -0.0397418286 0.1769352491
645296130.0 -0.0093730139 0.1872195308 0.1109984989 -0.5455722317 0.1110025644 -0.5458973647 -0.0380910148 0.1775720688
650296100.0 -0.0073601291 0.1873555392 0.1050457943 -0.5467308203 0.1053873564 -0.5470617008 -0.0359257696 0.1774970537
655296070.0 -0.0053686561 0.1874974955 0.0990465397 -0.5482318722 0.0991936277 -0.5483594194 -0.0340469143 0.1784813447
660296040.0 -0.0036843847 0.187644437 0.093797208 -0.5490836039 0.0931294869 -0.5494063988 -0.0324764035 0.1787755501
665296010.0 -0.0011212667 0.1876670916 0.0868976188 -0.5500475122 0.0870434685 -0.5507036538 -0.0305780521 0.1797264789
670295980.0 0.0001849434 0.1882262719 0.0815755029 -0.551149031 0.080999083 -0.5508968551 -0.0293193455 0.1799569585
675295950.0 0.0026534155 0.1883680379 0.0757233652 -0.551841468 0.0756603939 -0.5511705778 -0.0277599752 0.1804165402
680295920.0 0.0044740997 0.1883418637 0.0695151398 -0.5521336584 0.0690723184 -0.5530396165 -0.0255666806 0.1816123541
685295890.0 0.0070687943 0.1889669588 0.0635622498 -0.5532989448 0.0631276633 -0.5533136437 -0.0238176144 0.1813941556
690295860.0 0.0093423749 0.188723853 0.0573872074 -0.5535711027 0.0578704623 -0.5539424585 -0.0225268568 0.1824595215
695295830.0 0.0111570981 0.1885340085 0.0518003306 -0.5542868963 0.0513036576 -0.5544977068 -0.0203193196 0.1826099907
700295800.0 0.0133593458 0.1882464349 0.045192238 -0.5547449783 0.0451989484 -0.5550049684 -0.018771819 0.1835659436
705295770.0 0.0148985721 0.1890730607 0.0395377897 -0.5553752066 0.0400439784 -0.5552553309 -0.0174320259 0.1839728091
710295740.0 0.0175531361 0.1887356711 0.0338481945 -0.5563455859 0.0336291537 -0.5559973771 -0.0151736716 0.1837943909
715295710.0 0.01912463 0.1885311489 0.0279668782 -0.5563491813 0.0270821088 -0.5559754425 -0.0129218459 0.1838930722
720295680.0 0.0212703212 0.1884118633 0.0217639689 -0.5562929626 0.0218129447 -0.5567557424 -0.01177256 0.1849729641
725295650.0 0.0236583099 0.1884751366 0.0155967978 -0.556473015 0.0154609176 -0.5568144517 -0.0101145364 0.1847448223
730295620.0 0.0260721912 0.1887498246 0.0093097154 -0.5562544528 0.0097356225 -0.5567936132 -0.0086077083 0.1848230131
735295590.0 0.0280402975 0.1884860216 0.0035640844 -0.5570195707 0.003532497 -0.5566381475 -0.0069549752 0.1850045666
740295560.0 0.0295065312 0.1882156112 -0.0029594469 -0.5564294608 -0.0028092444 -0.5565296808 -0.0044906889 0.185553529
745295530.0 0.0316446143 0.1880192657 -0.0082813811 -0.5562414287 -0.0085906914 -0.5564988882 -0.0028338724 0.1855512865
750295500.0 0.0341269684 0.1877948395 -0.0146517571 -0.5563793934 -0.014624891 -0.5562910167 -0.0010804639 0.185929379
755295470.0 0.0362383545 0.1874055156 -0.0206054362 -0.5566326191 -0.0206179033 -0.5561500278 0.0011437092 0.1855897503
760295440.0 0.0379374691 0.1873059585 -0.0262066697 -0.5565414723 -0.0266557297 -0.5561707835 0.0025228016 0.1858394472
765295410.0 0.0398526595 0.1868475087 -0.0322263995 -0.5555249833 -0.0328597245 -0.5558790634 0.0044183877 0.1859691359
770295380.0 0.0419396068 0.1864060376 -0.038548137 -0.5553064917 -0.0389367849 -0.5550234661 0.0060338987 0.1858162206
775295350.0 0.044031236 0.185850873 -0.0445885634 -0.5543505454 -0.0440312809 -0.5546072664 0.0073577176 0.1860702625
780295320.0 0.0462411133 0.1857156467 -0.050311546 -0.5538182963 -0.049790519 -0.5537377471 0.0091659782 0.1858207858
785295290.0 0.0479894873 0.1848775498 -0.0566678388 -0.5531037493 -0.0562842306 -0.5532195194 0.0119111806 0.1861321259
790295260.0 0.0506967683 0.185351686 -0.0619504251 -0.5528027221 -0.0612513337 -0.5530737864 0.0131403071 0.1859612314
795295230.0 0.0523628913 0.1844995942 -0.0681412352 -0.5520550913 -0.0680559584 -0.5519897064 0.0155502265 0.1861830299
800295200.0 0.054023848 0.184548381 -0.0745985746 -0.5509066944 -0.0744138188 -0.551194254 0.017532104 0.1860054479
805295170.0 0.0564769556 0.183523526 -0.0801000539 -0.5498495401 -0.0804047573 -0.5503712654 0.0190970908 0.1861661417
810295140.0 0.0580468386 0.1828951459 -0.0854423258 -0.5490278161 -0.0861219215 -0.5493769227 0.0209908114 0.186055013
815295110.0 0.0601638288 0.1820507463 -0.0920730607 -0.5480372068 -0.0915577448 -0.5485121714 0.022903995 0.186070944
820295080.0 0.0619651139 0.1820209829 -0.0975412309 -0.5467353034 -0.0977074798 -0.5474531611 0.0245846676 0.1856255733
825295050.0 0.0645899806 0.1815737819 -0.1033853891 -0.5461479758 -0.1036055652 -0.5460647562 0.0264861978 0.1857755594
830295020.0 0.0660860385 0.1808855841 -0.1098816589 -0.5447093235 -0.1094585341 -0.544819259 0.0292638669 0.1861677226
