!Created with skrf (http://scikit-rf.org).
# Hz S RI R 50.0 
!freq ReS11 ImS11 ReS21 ImS21 ReS12 ImS12 ReS22 ImS22
300000.0 -0.238305336 -0.1117353576 0.4672748275 0.0751244241 0.464328776 0.0747377985 -0.2331066105 -0.1217595818
5299970.0 -0.244793459 0.0058633959 0.4733210681 0.0059134054 0.4744774285 0.0057873939 -0.2440158441 0.0053650886
10299940.0 -0.2418985038 0.0187258971 0.4761551018 0.0067396769 0.4758596117 0.0069496963 -0.2402519711 0.0182041671
15299910.0 -0.2367435368 0.0284952736 0.4791269916 0.0084444378 0.479784611 0.0084033783 -0.2363074859 0.027457331
20299880.0 -0.2317649903 0.0362918754 0.4841567597 0.0085709195 0.4846798002 0.0087138607 -0.2312909955 0.0350666337
25299850.0 -0.2255787229 0.0430959795 0.4895727273 0.0079627218 0.49011135 0.0075825461 -0.2260894343 0.0416748561
30299820.0 -0.2204188182 0.0476888942 0.4954791062 0.0055696547 0.4951643849 0.0052980449 -0.220862027 0.0469796279
35299790.0 -0.2142001915 0.0518191586 0.5001088613 0.0022925143 0.5004818168 0.0026217661 -0.2159365259 0.0514146954
40299760.0 -0.2092592641 0.0545677057 0.5057534656 -0.0013097597 0.5058620428 -0.0015373578 -0.2108941223 0.0549856619
45299730.0 -0.204055298 0.0571796256 0.5101364573 -0.0062181421 0.5105962015 -0.0065969991 -0.2057963711 0.0578489242
50299700.0 -0.199139791 0.0587752334 0.5143360661 -0.0118118029 0.5146671846 -0.011668964 -0.2013531751 0.0604023011
55299670.0 -0.1949916848 0.0604909018 0.5184627933 -0.0172378031 0.5183214727 -0.0179881058 -0.19757575 0.0619492813
60299640.0 -0.1907905389 0.0617578892 0.5220142719 -0.0240506377 0.5219717349 -0.0239592388 -0.1939415604 0.0633274866
65299610.0 -0.1873955717 0.0625681499 0.5250554093 -0.0300792148 0.5252199686 -0.0305930914 -0.1899221319 0.0646397285
70299580.0 -0.1841117649 0.0631645419 0.5269731956 -0.0367149329 0.5274169387 -0.0370938528 -0.1876444706 0.0659947811
75299550.0 -0.1809774338 0.0636972648 0.528741675 -0.0440329079 0.5292132722 -0.0436901004 -0.1842325975 0.0669490828
80299520.0 -0.1782612245 0.0645785929 0.5312226852 -0.0506285893 0.5314194381 -0.0506588165 -0.1816457629 0.068279636
85299490.0 -0.1756927248 0.0649956972 0.5322310703 -0.0578799768 0.5325381051 -0.0576236184 -0.1793257775 0.0685901913
90299460.0 -0.1735002425 0.0652989599 0.5331328289 -0.0647031648 0.5328350994 -0.0642939873 -0.1770241112 0.0696551658
95299430.0 -0.1713843488 0.0655599054 0.5341950372 -0.0715683262 0.5347664973 -0.0718894699 -0.1751739931 0.070830175
100299400.0 -0.1694111648 0.0662185182 0.5347148437 -0.0782343947 0.5348171396 -0.0784437794 -0.173088742 0.0716196843
105299370.0 -0.1675292181 0.0663722609 0.535270316 -0.085080023 0.5351941399 -0.0850222976 -0.1710660248 0.0719542833
110299340.0 -0.1656906824 0.0668064375 0.5347872196 -0.0919754594 0.5354408962 -0.0918561809 -0.1697515697 0.073033899
115299310.0 -0.1648830525 0.0675357335 0.5352262791 -0.0985406854 0.535437439 -0.0987225603 -0.1684525192 0.0742744903
120299280.0 -0.1634543831 0.0683639804 0.5354386779 -0.1059509651 0.5352039895 -0.1061194971 -0.1669177439 0.074719672
125299250.0 -0.1617538717 0.0687162354 0.5344923518 -0.112609033 0.5345868573 -0.1120842973 -0.1653380288 0.075760468
130299220.0 -0.160598284 0.0691556157 0.5340055874 -0.1193843508 0.5339669247 -0.1198699224 -0.1642081578 0.0768868859
135299190.0 -0.1595840483 0.0703264104 0.5334045507 -0.1256929339 0.5339252103 -0.1261555747 -0.1630125886 0.0776306029
140299160.0 -0.1585008997 0.070882174 0.5332025355 -0.1327831268 0.5326923406 -0.1322616942 -0.1624115552 0.0788789603
145299130.0 -0.1577505708 0.0719009093 0.5315280835 -0.1392215302 0.5322501815 -0.1390671073 -0.1611858906 0.0797351166
150299100.0 -0.1566478004 0.0725329855 0.5305893793 -0.1456993163 0.530541988 -0.1456969452 -0.1602038846 0.0810934536
155299070.0 -0.1551429517 0.0734535051 0.5288148965 -0.1523678784 0.5295886708 -0.1523094498 -0.1587696838 0.0820920027
160299040.0 -0.1547511565 0.0746571035 0.5274485656 -0.1583736615 0.5278239282 -0.1588306904 -0.1577846899 0.0836106084
165299010.0 -0.1537081582 0.075165286 0.5264911507 -0.1649380779 0.5265059241 -0.1650640413 -0.1570235862 0.0845718757
170298980.0 -0.1533207022 0.0760542396 0.5249757238 -0.1713107246 0.525306743 -0.1718058036 -0.1561303149 0.0856989083
175298950.0 -0.1522763227 0.0771535022 0.5232517417 -0.1776561983 0.5236927955 -0.1784062461 -0.1552587648 0.0873857141
180298920.0 -0.1514224004 0.0784285811 0.5215303724 -0.1843931603 0.5217746583 -0.1841409813 -0.1543337981 0.0884499029
185298890.0 -0.150601834 0.0794957273 0.5202027443 -0.1901412651 0.5197696122 -0.1905700058 -0.1529273805 0.0894270749
190298860.0 -0.1496372736 0.081193633 0.5173078835 -0.196897014 0.5183548227 -0.196433369 -0.1521608733 0.0910326657
195298830.0 -0.1490086714 0.0821821338 0.5159735362 -0.2025331295 0.5162623191 -0.2027813426 -0.1514239634 0.0923867668
200298800.0 -0.148132232 0.0826645259 0.5142640854 -0.2092521847 0.5142562559 -0.2091060835 -0.1504435582 0.0937825474
205298770.0 -0.1479454406 0.0839248945 0.5113183284 -0.2147628074 0.5114816297 -0.2145578993 -0.1491367502 0.0949404413
210298740.0 -0.1468575086 0.0855573561 0.5095673186 -0.2208094576 0.5093337514 -0.2207393056 -0.1487827347 0.096223148
215298710.0 -0.1459357428 0.0865732252 0.5070510543 -0.226569159 0.5073088365 -0.226809272 -0.1473892615 0.0976078532
220298680.0 -0.1450340586 0.0878658549 0.5047447561 -0.2327254774 0.5042454846 -0.2324524973 -0.146632964 0.098570178
225298650.0 -0.1445226988 0.0892573034 0.5018765866 -0.2385479997 0.5022511736 -0.238206921 -0.1457803372 0.1004581696
230298620.0 -0.1437385962 0.0907736987 0.4998781229 -0.2444432377 0.4998358451 -0.2445975251 -0.1446366037 0.1016947202
235298590.0 -0.1433453224 0.0919211238 0.4975154772 -0.2505379025 0.4971407429 -0.2502344893 -0.1434399584 0.1031956404
240298560.0 -0.142262264 0.0932212493 0.4943306248 -0.2556233221 0.4946769739 -0.2554330326 -0.1427385423 0.1043930152
245298530.0 -0.1415068525 0.094339006 0.4915653257 -0.2614615245 0.4913358356 -0.2615966768 -0.141584183 0.1060832125
250298500.0 -0.1409232347 0.0953875858 0.4888438978 -0.2667758266 0.4888101402 -0.2669592525 -0.1406389672 0.107567901
255298470.0 -0.1401194449 0.0972518312 0.4861048333 -0.2721849899 0.4864448823 -0.2726741884 -0.1394674861 0.1092165785
260298440.0 -0.139264495 0.0982722469 0.4834450467 -0.2779155063 0.4834266312 -0.278027656 -0.1385941452 0.1104642434
265298410.0 -0.1385635088 0.0999031522 0.4801015203 -0.2840490719 0.4796224443 -0.2840815445 -0.1368210506 0.1115270662
270298380.0 -0.1378451279 0.1010710627 0.4769094746 -0.2892828878 0.476865851 -0.2891162481 -0.1359536141 0.1133166463
275298350.0 -0.1367374417 0.1027397758 0.4734387252 -0.2943328838 0.4734796503 -0.2943293471 -0.135042144 0.1148824676
280298320.0 -0.1361769928 0.103676237 0.4705928843 -0.2992194594 0.4708787605 -0.300319449 -0.1337162019 0.1163440954
285298290.0 -0.1354488094 0.1051509808 0.4671355584 -0.3051675811 0.4677197414 -0.3050199893 -0.1326733524 0.117851398
290298260.0 -0.1342672953 0.1065699141 0.4646160352 -0.3105902963 0.4641558225 -0.3105463105 -0.1311301108 0.1193955556
295298230.0 -0.1335840416 0.1077720179 0.4608953309 -0.316029384 0.4608044813 -0.3162243653 -0.1300255705 0.1203030466
300298200.0 -0.1324379509 0.109184028 0.4576360512 -0.3210500627 0.4574011829 -0.3209654918 -0.1285647154 0.1219643165
305298170.0 -0.1314549924 0.1102996795 0.4536760277 -0.3263788816 0.454301755 -0.3264475294 -0.1275076753 0.1231082006
310298140.0 -0.130238816 0.1113620846 0.4503428081 -0.3316934669 0.4504743724 -0.3313504609 -0.1262408431 0.1243345467
315298110.0 -0.129800848 0.1123537093 0.4472160667 -0.33683947 0.4467198061 -0.3370687957 -0.1246055822 0.1258351398
320298080.0 -0.1285421867 0.1137713934 0.4425768038 -0.3419916662 0.4430927959 -0.3422016357 -0.1235490134 0.1269206789
325298050.0 -0.1279931962 0.11455272 0.4386599882 -0.3469035971 0.4394432756 -0.347270006 -0.1221927109 0.1282726661
330298020.0 -0.1275611626 0.1162589465 0.434996418 -0.3517208308 0.4358628686 -0.3520654098 -0.1214766479 0.1296390036
335297990.0 -0.1265859904 0.1174531897 0.4310894579 -0.3565254883 0.4314972075 -0.3569601186 -0.1199293297 0.1312641735
340297960.0 -0.1259513244 0.1187666717 0.4267261625 -0.3617375894 0.4270355164 -0.3618893346 -0.118733099 0.132712575
345297930.0 -0.1251043571 0.1197915188 0.4230792583 -0.3663223364 0.4229159048 -0.3665159026 -0.1176848445 0.1336722877
350297900.0 -0.1240271668 0.1211288661 0.4193107785 -0.3706391523 0.4191297709 -0.3706205383 -0.1163012238 0.1350415112
355297870.0 -0.1229272477 0.1225553839 0.4146149743 -0.3749530216 0.4148629186 -0.3750748313 -0.1144749893 0.13646557
360297840.0 -0.1220901195 0.1237651751 0.4104740374 -0.3800567345 0.4107676517 -0.3802249311 -0.1136061331 0.1380185919
365297810.0 -0.1212740792 0.1252504506 0.4062578972 -0.384340216 0.4063781621 -0.3843235723 -0.1120208261 0.1393750434
370297780.0 -0.1201991862 0.1265479761 0.4019738349 -0.3885471443 0.4022695122 -0.3890532212 -0.1104740447 0.1407318581
375297750.0 -0.1191460481 0.1279052126 0.3982522368 -0.3933497803 0.3980189303 -0.3931704511 -0.108991385 0.1416444988
380297720.0 -0.1180800043 0.1293870875 0.3940543138 -0.3980379579 0.3934660067 -0.397614392 -0.1075127287 0.1432926377
385297690.0 -0.1172425932 0.1301495721 0.3888626661 -0.4021679301 0.3891830148 -0.402493466 -0.1057945995 0.1449038857
390297660.0 -0.1156633702 0.1310820979 0.3845359305 -0.4061322525 0.3849376626 -0.4063341252 -0.1041508634 0.1456897699
395297630.0 -0.1146019365 0.1325715398 0.38051417 -0.4099510338 0.3803051001 -0.410125836 -0.1030056565 0.1471559287
400297600.0 -0.1134633679 0.1341199195 0.3760089106 -0.414913934 0.3761762136 -0.4148475909 -0.1012362028 0.1488295426
405297570.0 -0.1124092613 0.1345854587 0.3711447245 -0.4183740953 0.3712155081 -0.4186012517 -0.0994616058 0.1497917155
410297540.0 -0.1110865779 0.136282618 0.3662285429 -0.4228319186 0.3670114686 -0.4225383684 -0.0978114726 0.1511106877
415297510.0 -0.1099984534 0.1375979917 0.3619339267 -0.4269928505 0.3626246648 -0.4268532876 -0.0964552295 0.1525630191
420297480.0 -0.108641958 0.1383389702 0.3569819058 -0.4308556525 0.3575839616 -0.430964838 -0.0944229562 0.1543362991
425297450.0 -0.1069194835 0.1396416926 0.3527951441 -0.4343872862 0.3525292018 -0.4346318934 -0.0929076455 0.1545898036
430297420.0 -0.1060679229 0.1408973426 0.3482449533 -0.4387909932 0.3482372993 -0.4382706751 -0.0912169386 0.1559697123
435297390.0 -0.10483007 0.1417019782 0.343233303 -0.442918193 0.3430039959 -0.4421877526 -0.0897110276 0.1574188891
440297360.0 -0.1032086561 0.1425178139 0.337616354 -0.4458412619 0.3380231518 -0.4459927194 -0.0879006076 0.1586050988
445297330.0 -0.1021635428 0.1435111887 0.3334453392 -0.4490190422 0.3330461789 -0.4500434363 -0.0858707478 0.1599105348
450297300.0 -0.1005208227 0.1449528919 0.3280971966 -0.4529808987 0.328740453 -0.4529026107 -0.0839641862 0.1606819838
455297270.0 -0.099640963 0.1458875888 0.3235511932 -0.4569241711 0.3236127009 -0.4570194465 -0.0825623721 0.1618695112
460297240.0 -0.0976054797 0.146916231 0.3185897121 -0.4610024616 0.3184311764 -0.4605109141 -0.0807127205 0.1626072799
465297210.0 -0.0965068084 0.1479876463 0.3133416729 -0.4637591131 0.3131270127 -0.464182437 -0.0785757249 0.164460241
470297180.0 -0.094952459 0.1489598663 0.3083469469 -0.4668150948 0.3084254428 -0.467250449 -0.0769133538 0.1650021334
475297150.0 -0.0939811326 0.1498837359 0.3030262112 -0.4701499196 0.3034193259 -0.4704837177 -0.0751731557 0.1658478887
480297120.0 -0.0920152708 0.1512073049 0.2978366991 -0.4736818485 0.2981606528 -0.4735168904 -0.0732245804 0.1668506494
485297090.0 -0.0904715097 0.1518448443 0.2926253442 -0.4769748136 0.2925339886 -0.4771453989 -0.0711870967 0.1682149572
490297060.0 -0.0887153323 0.1530282047 0.2870880645 -0.4803691983 0.2874722336 -0.4804455238 -0.0696879179 0.1686166037
495297030.0 -0.0877779389 0.153849741 0.2823529821 -0.4834354239 0.2822093084 -0.4832637289 -0.0671459655 0.1694760537
500297000.0 -0.086229851 0.1551485748 0.2768109246 -0.4861324933 0.2769203437 -0.4865134219 -0.0657626189 0.1707048481
505296970.0 -0.0841706804 0.1559719108 0.271418611 -0.4898175011 0.2717702907 -0.4891084458 -0.0634454512 0.1711997045
510296940.0 -0.0829004309 0.1565569041 0.2661097046 -0.4928481861 0.2666617361 -0.4928920028 -0.0615872793 0.172224978
515296910.0 -0.0811582502 0.1579149484 0.2607581656 -0.494912212 0.2602297032 -0.4949586844 -0.0598887655 0.1724879049
520296880.0 -0.0796503392 0.158594528 0.2556161017 -0.4977374018 0.2552967664 -0.4975981686 -0.0575224245 0.1741185298
525296850.0 -0.0779217183 0.1594216617 0.2502058428 -0.5003756566 0.2498163336 -0.5004143093 -0.0554852031 0.1747046807
530296820.0 -0.0764467968 0.160358929 0.2440956201 -0.5032121948 0.2442670871 -0.503392143 -0.0537250562 0.1751988691
535296790.0 -0.0742480363 0.1613337452 0.2391179809 -0.5056032095 0.2389973139 -0.5058007421 -0.0512170761 0.1763368005
540296760.0 -0.0729542706 0.1624123094 0.2330693538 -0.5085834303 0.2330675535 -0.5082209122 -0.0496812387 0.1766451652
545296730.0 -0.0715053687 0.1634605474 0.2278667956 -0.5106422115 0.2275021166 -0.510768499 -0.0477530262 0.1774981554
550296700.0 -0.0694986902 0.164078632 0.2220842556 -0.5132772364 0.2220151529 -0.5133382618 -0.0453082969 0.1780102298
555296670.0 -0.0680477607 0.1649939071 0.2165403114 -0.5159866746 0.2166919182 -0.5155360007 -0.0439269153 0.1778868044
560296640.0 -0.0656246965 0.1655015397 0.2108338299 -0.5178031798 0.2111238624 -0.5181231978 -0.0413413771 0.1793346662
565296610.0 -0.0647422339 0.1664091856 0.2056483726 -0.5205520534 0.2055304402 -0.5199112461 -0.0394625474 0.1799180152
570296580.0 -0.0629657417 0.1676829786 0.1997364046 -0.522512425 0.1999420466 -0.522541864 -0.0378211301 0.1802272355
575296550.0 -0.0609321981 0.1681058385 0.1943368366 -0.5246966752 0.1938651318 -0.5245302657 -0.0353871707 0.1807843008
580296520.0 -0.0596007301 0.1690335742 0.1886058625 -0.5264154801 0.1882084137 -0.5270838844 -0.0338905333 0.1814995425
585296490.0 -0.0577890035 0.1697876416 0.1828404576 -0.5282278258 0.1823845147 -0.5286151879 -0.0311842059 0.1820501615
590296460.0 -0.0552959272 0.1704735797 0.1768529057 -0.53034523 0.1765692633 -0.5307518436 -0.0296733474 0.1824939357
595296430.0 -0.0538891418 0.171159334 0.1702982757 -0.5322265034 0.1703760267 -0.5321966693 -0.0273527498 0.1827824566
600296400.0 -0.0521093885 0.1720854162 0.1647775745 -0.5338136375 0.1652228605 -0.5340937577 -0.0251047242 0.1828131473
605296370.0 -0.0508842518 0.1729195305 0.1599524116 -0.5355744706 0.1590942711 -0.5359567066 -0.0231445436 0.1837586916
610296340.0 -0.0485540532 0.173906055 0.1537006571 -0.536728959 0.1538276456 -0.5370246739 -0.021393744 0.1840521167
615296310.0 -0.0466369717 0.1743550505 0.1478610515 -0.5392711106 0.1470538004 -0.5388887158 -0.018558569 0.1844862207
620296280.0 -0.0455352598 0.1752934618 0.1419596288 -0.5403856991 0.1415208348 -0.5405587493 -0.0172201734 0.1852354494
625296250.0 -0.0436821475 0.1757980946 0.1363356223 -0.5422341705 0.1360236262 -0.5420841199 -0.0156045361 0.1850328947
630296220.0 -0.0415755453 0.1764695686 0.1297508824 -0.5433946057 0.1296531499 -0.5433539228 -0.0129995103 0.1854508392
635296190.0 -0.03988919 0.1773299042 0.1242272341 -0.5446030253 0.1240556984 -0.5446322386 -0.0110443075 0.1855944705
640296160.0 -0.0381992777 0.177805494 0.1184015312 -0.5463932545 0.1178460888 -0.5462112954 -0.0090495868 0.1859098861
645296130.0 -0.0359817313 0.1790463631 0.1123435929 -0.547379007 0.1123011326 -0.5470254976 -0.0070000931 0.1857517536
650296100.0 -0.0345228536 0.1791682454 0.1065930456 -0.5487842488 0.1062826959 -0.5485161993 -0.0043279538 0.1861619759
655296070.0 -0.0328204874 0.1796221341 0.1002848842 -0.5497677397 0.1004320724 -0.5490916356 -0.0028946845 0.1868290904
660296040.0 -0.0312288111 0.1804405243 0.0949830072 -0.5508658038 0.094291981 -0.5507267782 -0.000777428 0.1864164968
665296010.0 -0.0293790081 0.1810198525 0.0882171978 -0.550801878 0.0881132691 -0.551453172 0.0015451134 0.1870087478
670295980.0 -0.0276428571 0.181651519 0.0825864834 -0.552206739 0.0820554712 -0.5517112697 0.0032766175 0.186693953
675295950.0 -0.0257752958 0.1820971174 0.0764466706 -0.5530719945 0.0764480223 -0.5533046245 0.0056050629 0.1869393216
680295920.0 -0.0241794476 0.1827236987 0.0708421213 -0.5535897255 0.070685931 -0.5538470136 0.0074779352 0.1870408291
685295890.0 -0.0223482064 0.1832269604 0.0643625648 -0.5546303414 0.0640864485 -0.5549534283 0.0097993871 0.1876256257
690295860.0 -0.0208096051 0.1838681733 0.0586633053 -0.5551739146 0.0582951595 -0.5556162723 0.0116840795 0.187147438
695295830.0 -0.0188731155 0.1838552285 0.0529744015 -0.5560106661 0.0523508526 -0.5560185343 0.0136288497 0.1873867517
700295800.0 -0.0168919505 0.1847539466 0.0471431751 -0.5563457828 0.0469006312 -0.5561782021 0.0161255874 0.1872430756
705295770.0 -0.0155360545 0.1847402653 0.0408076581 -0.5568010015 0.0407326856 -0.5566304647 0.0179022441 0.1875631626
710295740.0 -0.013735011 0.1850981711 0.0348497571 -0.5574091617 0.0343523272 -0.5573891109 0.0202643118 0.1874868991
715295710.0 -0.011695577 0.1858744116 0.0286507136 -0.5574290564 0.0285313212 -0.5576249036 0.0221722153 0.1869821701
720295680.0 -0.0096074788 0.1860947773 0.0224764303 -0.5576171141 0.0224185809 -0.5579140257 0.0241103516 0.1867136948
725295650.0 -0.0085576323 0.1867326577 0.0170742335 -0.5574065546 0.0166666352 -0.5580591282 0.0258026703 0.1874379187
730295620.0 -0.0068641622 0.1870222299 0.0104016834 -0.5574490316 0.0106959877 -0.5574112485 0.0278401813 0.1871949438
735295590.0 -0.0049338449 0.18752156 0.004886127 -0.5581405462 0.0046756036 -0.5579396698 0.0302663101 0.1867145606
740295560.0 -0.0032503357 0.1871399558 -0.0011347139 -0.5579081051 -0.0011922614 -0.5583611097 0.0322096591 0.186810788
745295530.0 -0.0018045431 0.1878135862 -0.0068236479 -0.5572652341 -0.00646821 -0.5578758494 0.03369312 0.1865196213
750295500.0 -0.0001082853 0.1881040703 -0.0126752228 -0.5578697427 -0.0131394697 -0.557894437 0.0359171132 0.1863988645
755295470.0 0.001730079 0.1883256089 -0.0186936776 -0.5580649265 -0.0191433552 -0.5580810678 0.0382994012 0.186510769
760295440.0 0.0035995453 0.1892396125 -0.0254920527 -0.557561867 -0.0254635462 -0.5569110255 0.0404452093 0.1852041625
765295410.0 0.0056286053 0.1888537135 -0.0309619336 -0.5571183704 -0.0310212372 -0.5571254891 0.0423197568 0.1854047635
770295380.0 0.0067872392 0.1892486314 -0.0368282044 -0.5564054534 -0.0369813618 -0.5568505764 0.0440125556 0.1849540434
775295350.0 0.0087674659 0.1889895421 -0.0428595536 -0.5565117586 -0.0431724925 -0.5557141931 0.0467577955 0.1852281674
780295320.0 0.0105508732 0.1895757327 -0.0486001805 -0.5553401473 -0.0489403796 -0.555340369 0.048739576 0.1844751368
785295290.0 0.012132712 0.1894791386 -0.0548556117 -0.5554090567 -0.0545805084 -0.5549575565 0.05021216 0.1847470802
790295260.0 0.0142220586 0.1894026278 -0.0608672637 -0.5544794925 -0.0609049507 -0.5546934921 0.0521362 0.1842982041
795295230.0 0.0159009695 0.1892946473 -0.0667986661 -0.5534920839 -0.0671120211 -0.5539089425 0.0541956326 0.1829895505
800295200.0 0.0170979493 0.1898861823 -0.0721334341 -0.5524051837 -0.0729354824 -0.5531804783 0.0559407841 0.1829759212
805295170.0 0.0186528002 0.1896813782 -0.0783541452 -0.5519138264 -0.0785841325 -0.5525323816 0.05894571 0.1824079783
810295140.0 0.0208463661 0.1896991374 -0.0842814978 -0.5507807898 -0.0844204494 -0.5510821251 0.060610903 0.181872798
815295110.0 0.0224221654 0.1900914973 -0.0900184308 -0.5504561289 -0.0900789318 -0.5503016922 0.0623759852 0.1815328009
820295080.0 0.0242712912 0.189839266 -0.0960978478 -0.5490083749 -0.0962575459 -0.5497499606 0.0640346641 0.1814286597
825295050.0 0.0255824042 0.1897352056 -0.1025466952 -0.548388747 -0.1022256463 -0.5483558769 0.0665995187 0.1811092937
830295020.0 0.0273956031 0.1896309978 -0.1082102598 -0.5470792765 -0.1079606316 -0.5471223945 0.0684015499 0.1798276753
