!Created with skrf (http://scikit-rf.org).
# Hz S RI R 50.0 
!freq ReS11 ImS11 ReS21 ImS21 ReS12 ImS12 ReS22 ImS22
300000.0 -0.0470069175 -0.0611435297 -0.0005264354 0.0027555842 0.0005982835 0.0020153111 -0.7711894113 -0.1709905515
5299970.0 -0.0490635523 0.0156903645 0.0003121225 0.0001184236 -8.02174e-05 9.276e-06 -0.7850463545 -0.0087659651
10299940.0 -0.0433705816 0.0333979024 -0.0001180373 1.68767e-05 -8.73641e-05 -1.98963e-05 -0.7888635096 -0.0052911548
15299910.0 -0.0351192545 0.0479665108 -0.0001544501 -0.0001108831 3.09958e-05 2.82207e-05 -0.7934901148 -0.0034609744
20299880.0 -0.0246510602 0.0597097669 6.46253e-05 -0.0002185827 -1.39975e-05 -0.0001606229 -0.800555521 0.0017424893
25299850.0 -0.0132921398 0.0690145391 0.0001006171 -6.44121e-05 4.60077e-05 9.82415e-05 -0.8068059131 0.0073256919
30299820.0 -0.0014859127 0.0755043649 -9.46585e-05 9.53012e-05 9.16297e-05 2.7742e-06 -0.8128896062 0.0143782841
35299790.0 0.0103595977 0.0807254561 -0.0001297332 4.66228e-05 -3.77199e-05 6.9991e-06 -0.8178145863 0.0243946365
40299760.0 0.021770221 0.0833202642 1.71416e-05 4.45235e-05 -1.49632e-05 -0.0001212498 -0.8216930138 0.0329189661
45299730.0 0.0325657099 0.0846128221 5.08646e-05 4.81625e-05 3.0768e-06 4.98144e-05 -0.8252585636 0.0423329385
50299700.0 0.0428553714 0.0845430475 -0.0003578375 -5.40425e-05 -3.30035e-05 -2.58448e-05 -0.8283148802 0.0524966955
55299670.0 0.0521050695 0.0833419716 -0.0001473065 9.67585e-05 0.000152785 -9.42282e-05 -0.82986603 0.0628321247
60299640.0 0.0609258967 0.0813239821 0.0002541238 6.477e-05 -9.67839e-05 8.31838e-05 -0.831143137 0.0725327708
65299610.0 0.0683967944 0.0790379523 -0.0001239158 2.36829e-05 -4.37095e-05 2.96459e-05 -0.8315546227 0.0828477733
70299580.0 0.075741765 0.0756960662 0.00018646 -6.13065e-05 -1.03741e-05 -8.59104e-05 -0.8323061354 0.0923236642
75299550.0 0.0821833072 0.0719834675 0.0001460437 7.59847e-05 -7.15554e-05 0.0001367064 -0.8326949487 0.1026319121
80299520.0 0.0873599967 0.0690445939 -4.06626e-05 -0.0001709715 -5.18705e-05 1.18624e-05 -0.8320281676 0.112196769
85299490.0 0.0927742786 0.0646377179 0.0001036409 3.39961e-05 1.91308e-05 0.0001114398 -0.8320026308 0.1218297937
90299460.0 0.0973396105 0.0608636655 0.0001947744 -9.85413e-05 -0.0001725727 -0.0001975695 -0.8314618074 0.1307200434
95299430.0 0.1014424074 0.0568365789 1.8476e-06 -3.51536e-05 -0.0002277837 0.0001795175 -0.8301718638 0.1411815068
100299400.0 0.1048511533 0.0530146543 -1.79426e-05 -8.58578e-05 -7.0676e-05 -0.000113822 -0.8289695408 0.1497400948
105299370.0 0.1083329486 0.0486595492 -4.73246e-05 -0.0002279336 -0.000138215 7.84885e-05 -0.82785951 0.1589292048
110299340.0 0.1109519082 0.0446982141 0.0001114837 -3.42372e-05 -3.9499e-06 3.95675e-05 -0.8268058887 0.168331644
115299310.0 0.1135367334 0.0401688842 2.00906e-05 -0.0001024044 -0.0001410028 6.58209e-05 -0.8249222551 0.1771950046
120299280.0 0.1154537538 0.0367601845 -2.88927e-05 0.0001051369 3.521e-07 5.71486e-05 -0.8232502285 0.1857557351
125299250.0 0.1172979887 0.0327448666 -8.06724e-05 -2.60532e-05 0.000145775 -5.26079e-05 -0.8220279794 0.1950217416
130299220.0 0.1192029858 0.0290579089 -8.0457e-06 0.0002484056 -2.75996e-05 -9.94453e-05 -0.820260258 0.204301205
135299190.0 0.1208134496 0.025056286 -6.8717e-05 0.0001814708 -0.0001739862 7.7603e-06 -0.818341711 0.2126029859
140299160.0 0.1222211322 0.0214438121 -5.99711e-05 -1.04083e-05 0.0001966058 -0.0001188679 -0.8157037133 0.2214184843
145299130.0 0.1230818463 0.0179772379 0.0001992803 8.14565e-05 -7.44721e-05 2.03374e-05 -0.8138442492 0.2296514248
150299100.0 0.1240630835 0.0143781322 0.0003138689 -0.0002691643 0.0001348318 2.94119e-05 -0.8119615875 0.2383193038
155299070.0 0.1245054446 0.0111201631 2.8275e-05 8.0878e-05 -0.0001036552 -0.0001000702 -0.8097743028 0.2473310539
160299040.0 0.124989171 0.0073976066 -4.74076e-05 0.00014022 -6.75662e-05 8.1507e-06 -0.8075979172 0.2563846113
165299010.0 0.1254185678 0.0041598281 -8.37869e-05 0.000274937 5.38939e-05 -0.0002113047 -0.8041830786 0.2648013724
170298980.0 0.1257648183 0.0009092353 -1.6472e-06 0.0001176329 0.0001634607 0.0001242852 -0.8018723505 0.2732617439
175298950.0 0.1262583554 -0.0019243854 -0.0001316258 0.0001449564 -2.0638e-06 0.0001076904 -0.7990332177 0.2822186351
180298920.0 0.1263774768 -0.0052252087 1.04853e-05 3.36001e-05 -2.03379e-05 0.00015306 -0.7956884659 0.2900009298
185298890.0 0.1262011749 -0.0082228985 0.0001170806 5.92914e-05 9.81788e-05 -9.4549e-05 -0.7932676591 0.2982302942
190298860.0 0.1261282669 -0.011177893 -6.97864e-05 -4.22441e-05 6.82324e-05 -2.22734e-05 -0.7898410626 0.3067473655
195298830.0 0.1261705596 -0.0139737253 1.53195e-05 -0.0001570559 0.0001271063 8.259e-06 -0.7871098534 0.3150443706
200298800.0 0.1257460958 -0.01685013 2.65742e-05 0.0001231242 7.27688e-05 0.0002439053 -0.7835685413 0.3237588569
205298770.0 0.1255361803 -0.0195207861 2.75828e-05 4.6751e-05 5.88677e-05 -0.0003223883 -0.779980715 0.3320103828
210298740.0 0.1252166989 -0.021910827 7.92768e-05 -0.0001112027 -9.34874e-05 4.32046e-05 -0.7767725543 0.3407195092
215298710.0 0.1246114813 -0.0248304493 -4.14158e-05 9.64349e-05 0.0003064914 0.0001252154 -0.7737726026 0.3482052026
220298680.0 0.1241707483 -0.0276141462 3.27867e-05 0.0002123305 -7.98736e-05 -0.0001333511 -0.7694462933 0.3565659674
225298650.0 0.1238363373 -0.029785464 9.89761e-05 0.0001794048 -9.11743e-05 0.0002035627 -0.7663372115 0.3647871319
230298620.0 0.1230899774 -0.0324350937 0.0001479399 -0.0001383843 0.0001299464 0.0001392129 -0.7614607936 0.3728435787
235298590.0 0.1225086005 -0.0349762252 0.0002375673 0.0002286441 -4.64899e-05 -3.33061e-05 -0.7581367938 0.3805308068
240298560.0 0.1216222271 -0.0373263939 -0.0001751189 0.0001734784 0.0001348037 0.0003349063 -0.7541790925 0.3884619921
245298530.0 0.1210867493 -0.0394605738 9.59928e-05 9.921e-06 0.0002858164 -3.55031e-05 -0.7503554698 0.3965159262
250298500.0 0.1203481456 -0.0416472599 0.0001265611 -0.0001377126 0.0001828916 0.0001927223 -0.7459444821 0.4049272535
255298470.0 0.1195486321 -0.0439970984 0.0001956273 1.24016e-05 -8.16233e-05 -3.26851e-05 -0.7411131422 0.4123675658
260298440.0 0.1190727225 -0.0459927616 0.0001241942 5.02055e-05 0.0003592626 0.0002390627 -0.7368920685 0.4200475112
265298410.0 0.1178261198 -0.0481225736 0.0001367025 -5.84439e-05 1.3808e-05 3.09865e-05 -0.7326177389 0.4273125643
270298380.0 0.1170987894 -0.0502571203 3.64772e-05 -0.0001249835 6.60425e-05 -5.14517e-05 -0.7275270629 0.4354552173
275298350.0 0.1160684702 -0.0523762085 -4.64435e-05 0.000123274 2.37602e-05 6.33653e-05 -0.7231597591 0.4428871057
280298320.0 0.1151148777 -0.0542658886 0.0001818616 -1.49707e-05 0.0001021333 1.111e-05 -0.7184051421 0.4503219145
285298290.0 0.1142048244 -0.055910152 0.0001140119 2.47303e-05 -4.4474e-05 7.441e-06 -0.7133637499 0.4580662177
290298260.0 0.1132384824 -0.057940584 5.55528e-05 0.0001510556 0.000283406 1.30804e-05 -0.7089083245 0.4654394647
295298230.0 0.1123468923 -0.0601137634 2.0341e-06 0.000108784 0.0001341301 -0.0001407061 -0.7038876237 0.4730310773
300298200.0 0.111257642 -0.0622089428 -0.0001165328 0.0001047487 0.0001149867 -2.04386e-05 -0.698799822 0.4800977556
305298170.0 0.1104795033 -0.0640179366 0.0003291639 0.0001158154 0.0001383462 5.99364e-05 -0.6934184103 0.4873639774
310298140.0 0.1092980487 -0.0661729684 3.05581e-05 0.0001923206 -5.32037e-05 -6.6684e-05 -0.6888861507 0.4952714239
315298110.0 0.1076266957 -0.0681401216 -0.0001040029 0.0001233657 0.0001954123 -3.33752e-05 -0.6834878729 0.5020636449
320298080.0 0.106481344 -0.0700391259 4.98195e-05 5.24672e-05 0.0001689835 -0.0001614917 -0.6778597617 0.5098040277
325298050.0 0.1049619948 -0.0718459011 0.0001395194 0.0001971338 0.0001879665 9.1869e-05 -0.672507976 0.5167468134
330298020.0 0.1034206953 -0.0734878755 0.000304213 -7.41502e-05 2.50716e-05 4.82282e-05 -0.6666789556 0.5226621551
335297990.0 0.1023985391 -0.0750661979 0.0001222249 -9.22248e-05 -6.78444e-05 9.92821e-05 -0.6614669813 0.5300762865
340297960.0 0.1006663269 -0.0764274935 0.0001861623 -0.0001505826 4.29939e-05 0.0001923338 -0.6554642868 0.5370363909
345297930.0 0.0992214175 -0.0779685072 2.1803e-06 5.48701e-05 3.52992e-05 6.82415e-05 -0.6499446731 0.5438769066
350297900.0 0.0983187279 -0.0793157252 -6.96614e-05 -0.0001066164 -0.0002026889 -0.0002404514 -0.644297404 0.5513997939
355297870.0 0.0965487422 -0.0808872564 2.80315e-05 0.0002137669 0.000254467 1.39316e-05 -0.6390593 0.5568949253
360297840.0 0.0951292817 -0.082074453 0.0001701707 1.35e-05 3.43153e-05 0.0001111419 -0.6322544153 0.5636974782
365297810.0 0.0938539612 -0.0836911179 4.50871e-05 9.35824e-05 0.0001304649 -0.000127118 -0.626766404 0.5706389293
370297780.0 0.0923469635 -0.0847583187 2.27714e-05 -6.01331e-05 -9.79264e-05 0.0001263522 -0.6207343093 0.5761605757
375297750.0 0.0908452872 -0.0859542552 -9.7554e-05 4.63135e-05 0.0001713993 0.0001106411 -0.6148110562 0.5829593273
380297720.0 0.0899492375 -0.0873519706 0.0001353591 9.50323e-05 0.0001118658 0.0001360665 -0.6081162676 0.5904344079
385297690.0 0.0881333497 -0.0884815126 9.47705e-05 6.31767e-05 -5.13971e-05 -4.44488e-05 -0.6023906102 0.5966829076
390297660.0 0.0868807027 -0.0898222432 -4.44693e-05 0.0001143809 -2.8096e-05 0.0001501677 -0.5956225034 0.601641978
395297630.0 0.0855717424 -0.0913140412 0.0002044026 0.0002025306 0.0001071039 7.28625e-05 -0.5894956508 0.6080498589
400297600.0 0.0839141272 -0.0920599629 0.0002436493 -7.07443e-05 2.68539e-05 6.16245e-05 -0.5831969867 0.6140690649
405297570.0 0.0824332401 -0.0933126305 0.0001417652 -1.60403e-05 -0.0001679892 0.0001118358 -0.5774925668 0.6200516597
410297540.0 0.0811810095 -0.094228694 0.0001805461 -0.0001756081 4.16214e-05 0.0002142709 -0.5703028315 0.6256617314
415297510.0 0.079732634 -0.0953488694 7.62663e-05 8.48451e-05 -9.99153e-05 -0.0001518038 -0.5640152043 0.6319451709
420297480.0 0.0780210993 -0.0968885029 0.0001591314 -3.51798e-05 9.82138e-05 -2.62291e-05 -0.5574097354 0.6364654703
425297450.0 0.0766462077 -0.0977335825 6.8246e-05 2.34108e-05 -2.38032e-05 -2.39273e-05 -0.550196118 0.6430239326
430297420.0 0.0747968132 -0.0987291193 -0.0001051487 0.000128963 7.29391e-05 2.105e-06 -0.5441344751 0.6486321444
435297390.0 0.0735298523 -0.0995952265 0.0002004074 -1.52938e-05 0.0001312608 4.84847e-05 -0.5374991702 0.6536830137
440297360.0 0.0720775309 -0.1007029598 1.16003e-05 -2.4614e-05 8.52274e-05 -4.73739e-05 -0.5305126424 0.6595529458
445297330.0 0.0704243328 -0.101458159 6.21543e-05 0.0001929966 0.0001949896 -0.0001042818 -0.5239056554 0.6642105905
450297300.0 0.068881049 -0.1027098288 0.000100888 -6.08163e-05 4.97402e-05 -0.0001713439 -0.5173595791 0.6698393547
455297270.0 0.0673145483 -0.1033597483 0.0001517781 0.0001704405 6.10359e-05 -0.0001314244 -0.5102630974 0.6747712427
460297240.0 0.0654931092 -0.1041090665 0.0001156409 -4.7266e-06 0.0001176606 7.33757e-05 -0.5027857321 0.6806398078
465297210.0 0.0643692967 -0.1048653513 3.80945e-05 0.0001177049 0.0002088107 7.29557e-05 -0.4965329719 0.6848054305
470297180.0 0.0626994048 -0.1055180729 -7.80878e-05 2.663e-06 0.0001432981 -3.16815e-05 -0.4901135819 0.6897502774
475297150.0 0.0610895276 -0.1065322361 0.0001619495 2.01573e-05 7.21235e-05 8.5827e-06 -0.4821796087 0.6945868987
480297120.0 0.0594215392 -0.1074675286 0.0002633621 0.0001314652 3.994e-06 0.0001054573 -0.4757035009 0.699874052
485297090.0 0.057925373 -0.1079071928 -0.0001387598 -4.44893e-05 4.42955e-05 6.33808e-05 -0.4683275388 0.7039314261
490297060.0 0.0562474536 -0.1086691684 3.96429e-05 8.0859e-06 9.39897e-05 9.26585e-05 -0.4613529847 0.7084543335
495297030.0 0.0544042002 -0.109473779 0.0001578877 0.0001035404 2.56201e-05 -0.0001171698 -0.4537373313 0.7126314555
500297000.0 0.0529908637 -0.1102524353 -7.60165e-05 0.0001890919 7.62141e-05 0.0001003311 -0.4465616347 0.7178807841
505296970.0 0.0509120696 -0.1107697735 0.0001732572 0.0001190095 8.6777e-06 0.0001874178 -0.4400921332 0.7223559665
510296940.0 0.0497141853 -0.1110782965 0.0003079352 -7.26981e-05 0.0002594175 -2.03764e-05 -0.4324985639 0.7266387853
515296910.0 0.0478746469 -0.1115713196 6.8723e-05 -0.0002418146 0.000176624 7.35878e-05 -0.4247918336 0.7305862966
520296880.0 0.0463159471 -0.1123915316 1.40464e-05 6.97513e-05 4.0865e-06 -4.84263e-05 -0.41790094 0.7345288287
525296850.0 0.0445914019 -0.1129614077 4.69625e-05 2.62362e-05 -8.99066e-05 -1.10684e-05 -0.4102664131 0.7390946797
530296820.0 0.0428269913 -0.1134972085 -0.000155998 0.0001608884 0.0002332109 -0.0001618899 -0.4033150465 0.7431527612
535296790.0 0.0413108388 -0.1138389242 0.0001052891 4.21774e-05 -7.52979e-05 0.0001725407 -0.3961494624 0.7467294756
540296760.0 0.0395644407 -0.114487431 6.06217e-05 0.0001013838 0.0002014557 -1.003e-06 -0.3883423537 0.750756296
545296730.0 0.0379904623 -0.1146596712 -9.2826e-06 0.0002243804 5.98917e-05 -1.22981e-05 -0.3811387422 0.7542220509
550296700.0 0.0360215356 -0.1151354299 0.0002706008 6.95584e-05 0.0001275651 7.6999e-05 -0.3731234354 0.7583670235
555296670.0 0.0347009578 -0.1158007427 0.0001614258 0.0001329884 0.0001681205 -9.47985e-05 -0.366112871 0.7617601605
560296640.0 0.0329315325 -0.1161953617 -0.0001636455 0.0001217422 0.0001359829 9.26739e-05 -0.3574443188 0.7655890299
565296610.0 0.0313127593 -0.116211705 0.0003305132 4.60007e-05 0.0003341257 0.0001183185 -0.3505439728 0.7687922733
570296580.0 0.0296867627 -0.1166430851 -2.01346e-05 -9.29775e-05 6.50972e-05 9.98287e-05 -0.3431728584 0.7723805232
575296550.0 0.0281081047 -0.1166839975 6.89151e-05 5.66192e-05 0.0001604199 -0.0001192243 -0.3346397814 0.7755828972
580296520.0 0.026360274 -0.117343243 4.69805e-05 0.0001101223 3.01837e-05 -7.48781e-05 -0.3272464611 0.7788433652
585296490.0 0.0242661659 -0.1173538706 0.000235838 5.82452e-05 0.000245222 -4.94795e-05 -0.3196515244 0.7817976313
590296460.0 0.0227827609 -0.1177311719 0.0002396289 1.04315e-05 7.23913e-05 -3.8251e-06 -0.3123471212 0.7852288727
595296430.0 0.0212495002 -0.1177334391 -1.75754e-05 -8.34903e-05 0.0001667456 0.000174958 -0.3040870993 0.7874552174
600296400.0 0.0191995983 -0.1179792564 6.33694e-05 -6.8619e-05 -2.35773e-05 -4.92291e-05 -0.2962513226 0.7910569848
605296370.0 0.0179567517 -0.1180680293 -8.2079e-06 -0.0001274173 0.0002093979 -1.35916e-05 -0.2888369479 0.7946948126
610296340.0 0.0160231645 -0.1183353757 0.0003004744 2.00839e-05 -0.0001501405 0.0001619407 -0.2807247945 0.7972226204
615296310.0 0.0144112172 -0.1181987788 7.58393e-05 -0.0001613517 -1.87731e-05 0.0001620917 -0.2733429809 0.7995468851
620296280.0 0.0125771398 -0.1183884951 0.0002370432 9.88048e-05 0.0001592533 0.0001066958 -0.2645958792 0.8020427333
625296250.0 0.0111303802 -0.1183242263 -2.9449e-05 -0.0001429073 -6.64929e-05 -0.0001143273 -0.2568785916 0.8046016599
630296220.0 0.0093200982 -0.1184791203 0.0001594132 -0.0002072969 0.0001747896 0.0001022185 -0.2488081083 0.8073749119
635296190.0 0.0076728503 -0.1185970493 0.0001820692 9.85341e-05 0.000140046 -8.67211e-05 -0.2413192057 0.8093363516
640296160.0 0.0059386722 -0.1183870577 0.0002630685 2.24386e-05 3.17133e-05 -0.0002591557 -0.2319630798 0.811758769
645296130.0 0.0042057796 -0.1181397324 0.0001360125 -5.50967e-05 -1.535e-06 -2.84352e-05 -0.2253260442 0.8144110094
650296100.0 0.0027058896 -0.1180366001 0.0001213891 -8.55937e-05 -4.73803e-05 1.55854e-05 -0.217068646 0.8165253083
655296070.0 0.0009661237 -0.1181368445 0.0002677374 -0.0003069365 3.86276e-05 4.7046e-05 -0.2085185156 0.8183891835
660296040.0 -0.0009129657 -0.1179794317 0.0001826019 4.00041e-05 0.0002251342 -5.95272e-05 -0.2007138805 0.8200839543
665296010.0 -0.0023992453 -0.1178938865 -0.0001458717 8.78719e-05 0.0001010947 -0.0001005978 -0.1928583948 0.8225467121
670295980.0 -0.0041996365 -0.1178903443 0.0001743954 3.57387e-05 5.7396e-06 3.32452e-05 -0.1856188996 0.8240049416
675295950.0 -0.0057678914 -0.1174684385 7.5712e-05 5.6178e-06 -8.63374e-05 0.0001453334 -0.1768540194 0.8261908665
680295920.0 -0.0076049771 -0.1171889632 0.0001964778 9.64087e-05 8.8717e-05 -0.0001114119 -0.1682598246 0.8280140626
685295890.0 -0.0093469562 -0.117066008 0.0001795766 -0.0001152067 0.0001568267 0.000140652 -0.1601839878 0.8292013478
690295860.0 -0.010624381 -0.1164688811 2.1882e-06 0.0001682392 8.95343e-05 0.0001181095 -0.1521642792 0.8306924233
695295830.0 -0.0124229082 -0.1165522423 0.0001783779 5.18078e-05 0.0001174725 -0.0001626955 -0.1441024678 0.8325540878
700295800.0 -0.0139403424 -0.1160827731 0.0001639228 -0.0001398117 0.0002887148 9.83619e-05 -0.1350653091 0.8334773616
705295770.0 -0.0155747849 -0.115765092 -2.62579e-05 -5.85422e-05 2.94007e-05 3.74341e-05 -0.1275846688 0.8353004276
710295740.0 -0.0173430926 -0.1155694582 9.18446e-05 -9.2084e-06 0.0001803056 -0.0002245936 -0.1197251781 0.8368455316
715295710.0 -0.0192484677 -0.1147741692 0.0001350823 -0.0001627857 3.23439e-05 8.1986e-06 -0.1110820203 0.8380176089
720295680.0 -0.0205118855 -0.1146238164 6.97573e-05 0.0001526095 0.0001983841 0.0001283626 -0.1029946115 0.8383924033
725295650.0 -0.022259054 -0.1142691643 -0.0001347703 9.97435e-05 0.0002660638 -5.62887e-05 -0.0938789106 0.8401171697
730295620.0 -0.0237352671 -0.1141792622 0.0001002858 -0.000188575 0.0001611211 -1.46525e-05 -0.0858644305 0.8409869469
735295590.0 -0.0253396379 -0.1135285995 -1.48448e-05 5.569e-05 8.13173e-05 -0.0001014641 -0.076951169 0.8410510323
740295560.0 -0.0269780139 -0.1130419507 0.0002179752 -2.65975e-05 2.51867e-05 -0.0001932469 -0.0695611074 0.8412635836
745295530.0 -0.0286323422 -0.1124574452 0.0001140483 2.78418e-05 0.0001284316 -0.0001385337 -0.0609503738 0.8423450212
750295500.0 -0.0301981731 -0.1118701855 3.74064e-05 -5.61616e-05 0.0001161272 -4.3226e-06 -0.0528006837 0.8429271523
755295470.0 -0.0316435463 -0.1111227378 8.46131e-05 6.70458e-05 -4.15477e-05 2.15903e-05 -0.0445340992 0.8438541116
760295440.0 -0.0333784274 -0.1105468331 0.0003521683 -0.0001693924 6.53516e-05 -8.99171e-05 -0.0365194668 0.8440430091
765295410.0 -0.0347396523 -0.1104578833 0.0002253366 -4.1247e-05 0.0001275377 5.48454e-05 -0.0272940428 0.844283081
770295380.0 -0.0364483529 -0.1096065296 0.0002898403 0.0001116657 0.0002204256 -6.98585e-05 -0.0190464915 0.8441877449
775295350.0 -0.038204132 -0.1088533135 0.0001841309 -0.0001399258 0.0002568534 -0.0001076428 -0.0117641386 0.8442032029
780295320.0 -0.0396605511 -0.1084291052 0.0001374733 -0.0002108341 0.0001826601 6.49044e-05 -0.0029758761 0.8448765793
785295290.0 -0.0410446021 -0.1072014721 -5.34199e-05 9.19227e-05 0.0003172958 -0.0001505785 0.0048850301 0.8446721968
790295260.0 -0.0425861727 -0.1069542391 0.0002252258 9.62113e-05 0.0001829035 -0.0001944409 0.0144698544 0.8445650595
795295230.0 -0.0443160917 -0.106013542 1.34515e-05 -0.000269125 0.0002029118 0.0002741168 0.0219391309 0.8449496272
800295200.0 -0.0455017513 -0.1054556684 -8.35979e-05 -6.11087e-05 0.0001294478 -0.0001656437 0.0303285675 0.8441235294
805295170.0 -0.0470965217 -0.1049352264 -1.0053e-05 -6.40696e-05 0.0001089308 -6.28899e-05 0.0380785108 0.8435807643
810295140.0 -0.0486569477 -0.1037059332 7.20581e-05 0.0002539609 0.0001066884 9.168e-06 0.0463486125 0.8443134882
815295110.0 -0.0499545724 -0.1029560062 0.0001364882 -2.88747e-05 0.0002102615 0.0001548362 0.0550929935 0.8428923713
820295080.0 -0.0516805937 -0.1023255518 -4.6773e-05 -5.67964e-05 0.0003067579 -4.88789e-05 0.0629316659 0.842288402
825295050.0 -0.0530545679 -0.1014548743 3.00492e-05 -0.0002801888 0.0001557692 0.0001059938 0.071309684 0.842592743
830295020.0 -0.0544114249 -0.1006250805 0.0001838495 -0.0003158479 0.0001811815 0.000111768 0.0794198575 0.8411280869
835294990.0 -0.0556810331 -0.0997293186 0.0002251582 2.97069e-05 0.0001713378 -0.0001104456 0.0876419049 0.8401667346
840294960.0 -0.0571672323 -0.0987822502 0.0002371723 -0.0001437183 0.0001454654 -4.41297e-05 0.0956375624 0.83974695
845294930.0 -0.0587927557 -0.0978586563 0.000357592 3.7581e-06 9.4911e-05 -7.85476e-05 0.1038573638 0.838146479
850294900.0 -0.0600984323 -0.0969952328 0.0001226714 8.55452e-05 0.0001074131 -0.0001172327 0.1125623459 0.8379102092
