!Created with skrf (http://scikit-rf.org).
# Hz S RI R 50.0 
!freq ReS11 ImS11 ReS21 ImS21 ReS12 ImS12 ReS22 ImS22
300000.0 -0.1007412323 -0.0686628953 0.6311910333 0.0632149306 0.6244125079 0.063512753 -0.1012823292 -0.0733724917
5299970.0 -0.1020316223 0.0132216209 0.6305956689 0.0097191096 0.6307067596 0.010266112 -0.1008857927 0.0130230618
10299940.0 -0.097170253 0.0292286545 0.6337074324 0.0154390139 0.6338970824 0.0158274391 -0.0958324524 0.0302631383
15299910.0 -0.0897952565 0.042527543 0.6403733298 0.0202672918 0.6405669038 0.0202390862 -0.0887229042 0.0434718921
20299880.0 -0.0815913776 0.0531420242 0.6484333344 0.0238981729 0.6487273821 0.0236978149 -0.079799507 0.0547520294
25299850.0 -0.0723403249 0.0623885633 0.6577930442 0.0250823746 0.6576301012 0.02518592 -0.0698830982 0.0631450442
30299820.0 -0.0622111844 0.0690061928 0.6673944969 0.0240898814 0.6668725695 0.0247157241 -0.0599052743 0.0702074746
35299790.0 -0.0525266305 0.0736872183 0.6772321663 0.0211502995 0.6771529734 0.0214800814 -0.0499074582 0.0748758943
40299760.0 -0.0429904063 0.0774340928 0.6860682577 0.0169156586 0.6865619956 0.0175933529 -0.0402327217 0.0773262314
45299730.0 -0.033798197 0.0793492524 0.694701212 0.0117701422 0.6956085504 0.0120832822 -0.031382901 0.0799896893
50299700.0 -0.0256710258 0.0802660455 0.7036018525 0.0046778509 0.7034680016 0.0052421915 -0.0225554276 0.0804207018
55299670.0 -0.0174991559 0.0804267194 0.7106577282 -0.0031352879 0.7111562824 -0.0029197791 -0.0149001025 0.0806131456
60299640.0 -0.0099486243 0.0798960172 0.7174082466 -0.0117526242 0.7177675641 -0.0110135664 -0.0079934142 0.0794842862
65299610.0 -0.003679623 0.0786684994 0.7230773808 -0.0200520863 0.7236683408 -0.0201426353 -0.0011845971 0.0786404691
70299580.0 0.0026167177 0.0774001033 0.7283991656 -0.0300353286 0.7287603372 -0.0290414871 0.0048277191 0.0767761011
75299550.0 0.0081052491 0.0757615433 0.7325972598 -0.0388607781 0.7326473119 -0.0390779838 0.0100830371 0.0748612637
80299520.0 0.0130554992 0.073720739 0.7370853221 -0.0491795802 0.7372233379 -0.0488464153 0.0148156115 0.0726524392
85299490.0 0.0178023189 0.0714786323 0.7403294148 -0.0587838602 0.7402679483 -0.0582757762 0.0193910951 0.069886117
90299460.0 0.0217330049 0.069009229 0.7429581789 -0.0692327816 0.7434631441 -0.0685734527 0.0235770542 0.0677569447
95299430.0 0.025777133 0.0666474562 0.7459620436 -0.0788077294 0.745922772 -0.0793368442 0.0273211081 0.0654223921
100299400.0 0.0290110899 0.064634993 0.7467246966 -0.0893204886 0.7469213308 -0.0889589771 0.0311289565 0.0625845341
105299370.0 0.0322480246 0.0618884255 0.7482844482 -0.0997775805 0.7493279176 -0.0992455086 0.0341283645 0.0605715753
110299340.0 0.0350200474 0.0595864377 0.7499596336 -0.1089093452 0.7494196841 -0.1091253041 0.0361422707 0.0580123114
115299310.0 0.0375686073 0.057187842 0.750893911 -0.1196875247 0.7510553013 -0.1191704137 0.0389692135 0.0554245647
120299280.0 0.0398558257 0.054574615 0.7511640186 -0.1295464923 0.7512877855 -0.1295189878 0.0413912627 0.0529974376
125299250.0 0.0419497966 0.0522715856 0.75149585 -0.138881054 0.7514849778 -0.139011431 0.0427351623 0.0502040954
130299220.0 0.0434990849 0.0500952091 0.7508573235 -0.1490975235 0.7513512663 -0.1493800454 0.0449912959 0.0481656355
135299190.0 0.0452515618 0.0483082567 0.7514606096 -0.1590378389 0.7512964058 -0.1585696975 0.0466713674 0.0461665257
140299160.0 0.046585515 0.0462573979 0.7503883988 -0.16875138 0.7505255648 -0.1690302371 0.0480244296 0.044274368
145299130.0 0.0481391838 0.0437855003 0.7500825883 -0.1784487673 0.7498826806 -0.1780918454 0.0494409406 0.0419209914
150299100.0 0.0495788255 0.0421131106 0.7483847637 -0.1876799741 0.7485873196 -0.1879401583 0.0507372417 0.0402987734
155299070.0 0.0503574811 0.0396150879 0.7479036315 -0.1988065679 0.7476072459 -0.1977416977 0.0520020795 0.0384073373
160299040.0 0.0519962905 0.0378673499 0.746500702 -0.207395324 0.7456691161 -0.2072029144 0.0520901573 0.0362794364
165299010.0 0.0524097351 0.0362197164 0.7444389282 -0.2172141455 0.7448590492 -0.2170480122 0.0536036691 0.0350123079
170298980.0 0.0534155922 0.0338532287 0.7424850046 -0.2263007273 0.7431300087 -0.2258891012 0.0541127614 0.0327389788
175298950.0 0.0537197324 0.0321237389 0.7414936366 -0.2355954895 0.7403935372 -0.2354919765 0.0545974975 0.031211688
180298920.0 0.054459998 0.0305165272 0.7390476536 -0.2446777169 0.7385642477 -0.2441372985 0.0552410794 0.0298055283
185298890.0 0.0556281153 0.028597133 0.737015101 -0.2537328247 0.7363520716 -0.2541277729 0.0557722593 0.0283480977
190298860.0 0.0553393993 0.0272601247 0.7342420956 -0.2631053529 0.7345636762 -0.2633426613 0.0563046454 0.0263370426
195298830.0 0.0561592769 0.0253569842 0.7315587115 -0.2719970293 0.7323506828 -0.2717753945 0.0572427267 0.0250550229
200298800.0 0.0564266569 0.0240905603 0.7289107973 -0.2810699473 0.7289344319 -0.2817202969 0.0568459648 0.0237263456
205298770.0 0.0566726306 0.0229679177 0.7259450874 -0.2905596199 0.7261767959 -0.2896359018 0.0573201193 0.0214702365
210298740.0 0.0571282453 0.0208802682 0.7226686385 -0.2981356684 0.7234239294 -0.2981713937 0.0578681854 0.0213065248
215298710.0 0.0568666016 0.0195935851 0.7201456504 -0.307428209 0.7198847498 -0.3074359459 0.0577625708 0.0195914821
220298680.0 0.0575197976 0.0175081627 0.7165214518 -0.3162066795 0.7165853351 -0.3159871891 0.0576307989 0.0178775898
225298650.0 0.0576588724 0.0169354703 0.7139979676 -0.324472304 0.7138910097 -0.3244965597 0.0574102538 0.0168256723
230298620.0 0.0578516028 0.0157501874 0.710305312 -0.3330342587 0.710585087 -0.3329616676 0.0575189606 0.015037528
235298590.0 0.057976438 0.0144460104 0.7069548171 -0.3414406763 0.7071612142 -0.3410818381 0.0574597456 0.0139210461
240298560.0 0.0579735765 0.013464538 0.7036002831 -0.3501382857 0.7029399076 -0.3500223214 0.0576128559 0.0128951511
245298530.0 0.0578425593 0.0120190474 0.699519173 -0.3584590957 0.6995108958 -0.3586631405 0.0581921591 0.0108461472
250298500.0 0.0585006066 0.0108227585 0.6952255807 -0.3667833061 0.6946761995 -0.3661745352 0.0578898359 0.0102709737
255298470.0 0.0583630429 0.0092746657 0.6912289322 -0.3738469543 0.6916482779 -0.374300953 0.0583037939 0.0090425701
260298440.0 0.057907881 0.008007448 0.6871808775 -0.383271148 0.6877224009 -0.3824968903 0.0583047591 0.0079625673
265298410.0 0.0588299216 0.0074727957 0.6834479917 -0.39123772 0.6835507082 -0.3906281848 0.0578638835 0.0069048321
270298380.0 0.0584749805 0.0061701406 0.6799516203 -0.3981046237 0.6792207085 -0.3987189543 0.0578700608 0.0057609982
275298350.0 0.0590010911 0.0050678233 0.6749611287 -0.4069496446 0.6753170897 -0.4070568784 0.0584534803 0.0039822766
280298320.0 0.0585140033 0.0043995446 0.670975363 -0.4151190146 0.6709015277 -0.4145247984 0.0586604335 0.0036055234
285298290.0 0.0588503397 0.0029472133 0.6669393821 -0.4226224524 0.6665491123 -0.4220902071 0.0582132103 0.0022028858
290298260.0 0.0591146474 0.001846459 0.6615211269 -0.4297132057 0.6618144389 -0.4302534196 0.0587216166 0.0018382469
295298230.0 0.0588240261 0.0006432635 0.6572375634 -0.4377895423 0.6574550923 -0.4375071247 0.0593493338 0.0003414766
300298200.0 0.0581749679 -0.0003300838 0.652921083 -0.445456581 0.6528967878 -0.4457982928 0.0585790953 -0.0006904162
305298170.0 0.0585889279 -0.0014855699 0.6473352767 -0.4539269586 0.6480130606 -0.4531696286 0.0593261405 -0.0021000836
310298140.0 0.0584631381 -0.002597061 0.6426682501 -0.4608899475 0.6431089438 -0.4607330124 0.0593585487 -0.0031200948
315298110.0 0.0582960724 -0.0041357933 0.6382397128 -0.4687133154 0.6382796222 -0.4682857662 0.0589628215 -0.0043615401
320298080.0 0.0587104673 -0.0050004385 0.6318917532 -0.4767297411 0.6326400047 -0.4761372801 0.0584579441 -0.0052721937
325298050.0 0.0578306906 -0.0059918753 0.6271209272 -0.4837611609 0.6271164975 -0.4837190674 0.0578737767 -0.006556105
330298020.0 0.0573051072 -0.0073799107 0.6216666729 -0.4912040823 0.6215498468 -0.4907427319 0.0572771569 -0.0076907969
335297990.0 0.0570969925 -0.0086500285 0.6155901358 -0.4975691591 0.6155731332 -0.4979034472 0.0563955523 -0.0076975803
340297960.0 0.0561417907 -0.0091239341 0.6099182019 -0.5048304441 0.6095172231 -0.5052501612 0.0569202996 -0.0086431325
345297930.0 0.0557789705 -0.0093168871 0.6039689599 -0.5120537662 0.6040254375 -0.5122527474 0.0563260235 -0.0097355051
350297900.0 0.0552067074 -0.0110039395 0.5976724008 -0.518750944 0.5976822355 -0.5185221853 0.0551711449 -0.010077817
355297870.0 0.0547527813 -0.0106083017 0.592094506 -0.52477395 0.5922229588 -0.5250763414 0.0550953568 -0.0108081596
360297840.0 0.0545513488 -0.0117197353 0.5873138655 -0.5317462791 0.587330692 -0.531639423 0.0550252517 -0.0111329978
365297810.0 0.0540730438 -0.0123987284 0.5805763115 -0.5386312549 0.5810808246 -0.5387846182 0.054699742 -0.0118614923
370297780.0 0.0542818206 -0.0132971242 0.5744898055 -0.5444561598 0.5751204381 -0.5444262548 0.0541048713 -0.0124827168
375297750.0 0.0535095103 -0.0139315588 0.5684066496 -0.5512731049 0.5691019617 -0.5514145157 0.0543132323 -0.0131771518
380297720.0 0.0534834029 -0.014405235 0.5627502838 -0.5579486587 0.5627796731 -0.5568734507 0.0535710845 -0.0138576871
385297690.0 0.0526550803 -0.0153155021 0.5561816701 -0.5640106073 0.5558361915 -0.5635453423 0.0532242731 -0.0145448072
390297660.0 0.0528663984 -0.0154762121 0.5507408738 -0.5705245489 0.5502835909 -0.5700883059 0.0526278649 -0.0152699802
395297630.0 0.0520977249 -0.016035149 0.5440092129 -0.5760687902 0.5438949917 -0.5761977682 0.0529870721 -0.0155620377
400297600.0 0.0516497304 -0.016736095 0.5370012914 -0.5829389728 0.5372371005 -0.5823401674 0.052205045 -0.0163886737
405297570.0 0.0513337146 -0.0177164737 0.5308241432 -0.5878137582 0.5311572171 -0.5875133798 0.0515317559 -0.0168557707
410297540.0 0.051244163 -0.0180387299 0.5246998327 -0.5945838371 0.5249803984 -0.5941666615 0.0511842366 -0.0175166354
415297510.0 0.0513281546 -0.0188580871 0.5176883197 -0.6002577466 0.5180656097 -0.6000631821 0.0511399794 -0.0179408036
420297480.0 0.0508467832 -0.0190260314 0.5111453455 -0.6062052981 0.5113299701 -0.6061096657 0.0505588954 -0.0190770985
425297450.0 0.0502818786 -0.0204830925 0.5046565431 -0.6116853116 0.5049469571 -0.6115063758 0.0493902352 -0.0188884968
430297420.0 0.0495378081 -0.0209405559 0.4973172568 -0.6162808344 0.4979404569 -0.6166791643 0.0495544013 -0.0199866349
435297390.0 0.0492961473 -0.0213913375 0.4906097708 -0.6228528364 0.4911590023 -0.6222610055 0.0500535361 -0.0204003309
440297360.0 0.0493694847 -0.0215559515 0.4840074412 -0.6274599582 0.4840167865 -0.6275926068 0.0488369553 -0.0213769859
445297330.0 0.0485431195 -0.022839113 0.4773521367 -0.633497769 0.4774210538 -0.6329352774 0.0488291642 -0.0223733805
450297300.0 0.0487508651 -0.0230336685 0.4702758082 -0.6384138982 0.4701191922 -0.6387766763 0.0482732346 -0.0230527656
455297270.0 0.0483527329 -0.0237806174 0.4631785714 -0.6433377117 0.4636962444 -0.6437220567 0.0481154891 -0.0232568145
460297240.0 0.0476682863 -0.0242858167 0.4555388498 -0.648416372 0.4560480689 -0.6487124312 0.0476914367 -0.0236569871
465297210.0 0.0474568224 -0.0251706188 0.4491574952 -0.6538806326 0.4488770366 -0.6540977633 0.0474782335 -0.024498599
470297180.0 0.0467407263 -0.0256193522 0.4414237404 -0.6588166252 0.4414488903 -0.6589115829 0.0471245148 -0.0246955926
475297150.0 0.0465861154 -0.0265712822 0.4342071557 -0.6626948349 0.4346132024 -0.6633084171 0.0473592271 -0.0260539149
480297120.0 0.0459011968 -0.0262934892 0.427139874 -0.6685662274 0.4268402679 -0.6687381724 0.0470512268 -0.0260961705
485297090.0 0.0454827956 -0.0268898738 0.4198543565 -0.6726012297 0.4200008528 -0.6727949997 0.0463878639 -0.026856938
490297060.0 0.0448476417 -0.027941674 0.4128245837 -0.6783725632 0.4127169411 -0.6772665297 0.0460840534 -0.0267490795
495297030.0 0.0446191763 -0.0280737273 0.4048589233 -0.6818157137 0.4056622527 -0.6821297105 0.0452358311 -0.0278735911
500297000.0 0.0439804845 -0.0288949693 0.3973816821 -0.6865241477 0.3968989209 -0.6860125178 0.0448471451 -0.0272772439
505296970.0 0.0438688592 -0.0294932348 0.3900625591 -0.6903550748 0.3895849649 -0.6911053088 0.0445577369 -0.0282533268
510296940.0 0.0434522024 -0.0295765729 0.3821201232 -0.6954710815 0.3824108288 -0.6953284176 0.0443302656 -0.028386892
515296910.0 0.0426777294 -0.0299468965 0.374639807 -0.6998838611 0.3747471545 -0.698911294 0.0439692918 -0.0286271562
520296880.0 0.0420849467 -0.030552678 0.3665279012 -0.7039440534 0.367257079 -0.7032407158 0.0431770616 -0.0291093794
525296850.0 0.042026228 -0.0316858946 0.3587714597 -0.7070406653 0.3600669478 -0.7076200755 0.0425040565 -0.0297817298
530296820.0 0.0413918288 -0.03133088 0.3512277806 -0.7116686024 0.3514974163 -0.7114526356 0.0421527885 -0.030156056
535296790.0 0.0401906382 -0.0317546413 0.3440541647 -0.7151618278 0.3439142288 -0.7148534128 0.0418623345 -0.0309930659
540296760.0 0.0400449282 -0.03165178 0.3356261441 -0.7194966503 0.335644389 -0.7190789992 0.0406806759 -0.0307436558
545296730.0 0.039603131 -0.0327871046 0.3276653243 -0.722790439 0.3276663682 -0.7227315503 0.0402821859 -0.031281649
550296700.0 0.0396877676 -0.0326922304 0.3194039254 -0.7260792411 0.3201722139 -0.7267222681 0.0397122424 -0.0315213803
555296670.0 0.0385946962 -0.0330780397 0.3122153681 -0.7296300383 0.3120501708 -0.7295498509 0.0394286595 -0.031738166
560296640.0 0.0383365817 -0.0332588447 0.3038449002 -0.7330604331 0.304104673 -0.7331523187 0.0387742113 -0.032354647
565296610.0 0.0371769721 -0.0343353107 0.2957444085 -0.7361570245 0.2960530772 -0.7362347724 0.0378600606 -0.0330685298
570296580.0 0.0369321616 -0.0341534161 0.2876210181 -0.7403363765 0.2873582886 -0.7390569849 0.0377851125 -0.0325640762
575296550.0 0.0362971047 -0.0342855208 0.2800708131 -0.7428723608 0.2796111575 -0.7429553444 0.0373211643 -0.0334268439
580296520.0 0.0358202106 -0.0346036024 0.2714057049 -0.7460227945 0.2718161605 -0.7459470058 0.0366331043 -0.0340857895
585296490.0 0.0355922265 -0.0357613269 0.2635223511 -0.748068821 0.263570938 -0.7484142419 0.0361654713 -0.034219984
590296460.0 0.0354868378 -0.0357025532 0.2553253002 -0.7506070115 0.2551293365 -0.7513902008 0.034647553 -0.0346108402
595296430.0 0.0348461445 -0.0356684716 0.2469027633 -0.7545133883 0.2468426164 -0.7540647856 0.0350255056 -0.03502139
600296400.0 0.0335868604 -0.0363012686 0.2388949798 -0.757117321 0.2390379994 -0.7564483712 0.0340660053 -0.0356603984
605296370.0 0.0333976337 -0.0366690724 0.2299012197 -0.7588477369 0.230641789 -0.7598028089 0.0336531004 -0.0358954401
610296340.0 0.0330788838 -0.0370355023 0.2212051563 -0.76195926 0.2223538565 -0.7617583197 0.0337097843 -0.0363071345
615296310.0 0.0326600446 -0.0377787577 0.2136919437 -0.7638370432 0.2134281325 -0.7647921335 0.0329806401 -0.0363445593
620296280.0 0.0320389815 -0.0380438987 0.2055269322 -0.7664456351 0.2053085717 -0.7663088442 0.0322169684 -0.0367425928
625296250.0 0.0310672606 -0.0386584486 0.1976187283 -0.7687777504 0.1972258075 -0.7692711977 0.032363145 -0.0371996601
630296220.0 0.0316779089 -0.0384170973 0.1879703747 -0.7705381439 0.188066092 -0.7707368013 0.0313926349 -0.0370317893
635296190.0 0.029723432 -0.0390793982 0.180228973 -0.7725817219 0.1800686136 -0.7730537736 0.0310061378 -0.0376868308
640296160.0 0.0292471654 -0.0389985115 0.171877077 -0.7740033417 0.1718398896 -0.7744795961 0.0302505809 -0.037790514
645296130.0 0.0291459738 -0.0390155467 0.1630838292 -0.7758558884 0.1637087576 -0.7768410466 0.030007997 -0.0380338788
650296100.0 0.0284774818 -0.039524752 0.1544285626 -0.7779648202 0.1549451871 -0.7784476695 0.0303681482 -0.0389699679
655296070.0 0.0275354966 -0.0400522199 0.146409744 -0.7796915313 0.1467552638 -0.7795734072 0.0292297289 -0.0383974069
660296040.0 0.0264474315 -0.0405670977 0.137978694 -0.7812334863 0.1375628482 -0.7818490455 0.0290939411 -0.0388511572
665296010.0 0.0263980886 -0.0405253008 0.1284913627 -0.7825143326 0.1293383268 -0.7826238174 0.0282577896 -0.0381965532
670295980.0 0.0248143245 -0.0405845526 0.1205659675 -0.7839159757 0.1207665784 -0.7843429016 0.0271643749 -0.0390060119
675295950.0 0.0249613145 -0.0403717381 0.1123897917 -0.7852497228 0.1125380381 -0.7847218709 0.0264932543 -0.0392852717
680295920.0 0.0241047981 -0.0409237436 0.1034864958 -0.7864605284 0.1034231739 -0.7869578454 0.0263895556 -0.0385245105
685295890.0 0.0235633184 -0.0406144242 0.0948630888 -0.787412813 0.0943357301 -0.7881055113 0.0254939959 -0.0389700915
690295860.0 0.0233799508 -0.0408997787 0.0865226001 -0.7877286189 0.0861133909 -0.7887757718 0.0245711802 -0.0385217462
695295830.0 0.0227790861 -0.0413617705 0.0781705041 -0.7890917651 0.0773659659 -0.7895054929 0.0243389367 -0.0390049363
700295800.0 0.0221814998 -0.0419326837 0.0689743781 -0.7897659164 0.0685464236 -0.7897959058 0.0235340325 -0.038425117
705295770.0 0.0214956895 -0.0409067926 0.0602123537 -0.7906801953 0.0608325725 -0.7908668189 0.0226874308 -0.0388921598
710295740.0 0.0213259576 -0.0414907461 0.0523177697 -0.7923570287 0.0525439266 -0.7923509234 0.0227584254 -0.039951025
715295710.0 0.0195450041 -0.0416508955 0.0442678828 -0.7917327731 0.0431613669 -0.7921139165 0.0222611526 -0.039869193
720295680.0 0.0196352427 -0.0419778309 0.0347733602 -0.7928613427 0.0351352631 -0.7922711123 0.0212685095 -0.039049319
725295650.0 0.0190802781 -0.0418829855 0.0262713264 -0.7924743528 0.0258120812 -0.7931242693 0.0202320343 -0.0393396078
730295620.0 0.0186470012 -0.0414479779 0.0177869789 -0.7923135075 0.0175664894 -0.7933404609 0.0195417325 -0.0399279319
735295590.0 0.0179942393 -0.0414289563 0.0094160844 -0.7933302699 0.0086970268 -0.7930689634 0.0190422563 -0.0399350538
740295560.0 0.0167798513 -0.0414987681 0.0001803862 -0.7924532302 -0.0001783385 -0.7929541365 0.0189659827 -0.0395734712
745295530.0 0.0166403053 -0.0413801627 -0.0088675708 -0.7922634907 -0.0087210798 -0.7930363891 0.018310035 -0.0403153763
750295500.0 0.0160437965 -0.0419490535 -0.016608455 -0.7926382957 -0.0168306802 -0.7930688239 0.0174681947 -0.040360212
755295470.0 0.0153567624 -0.0418966421 -0.025270687 -0.7927074157 -0.0252958194 -0.7930601538 0.0176677814 -0.0406003722
760295440.0 0.0147739964 -0.0419881282 -0.0341057527 -0.7930106614 -0.0337973372 -0.7931363009 0.0168058938 -0.0402964146
765295410.0 0.0143019101 -0.0420419871 -0.0431708902 -0.7915800758 -0.0433618158 -0.7923400086 0.0160613114 -0.0405204232
770295380.0 0.0131251513 -0.0423791052 -0.051799569 -0.7914707157 -0.0516974199 -0.7912250119 0.0151479866 -0.0409311911
775295350.0 0.0127436337 -0.0427648446 -0.0605134012 -0.7903122976 -0.0598885973 -0.7905271498 0.0137513411 -0.0402588448
780295320.0 0.0123314856 -0.0424666467 -0.0690517168 -0.7897017146 -0.0679845988 -0.7900077211 0.0133377711 -0.0410622466
785295290.0 0.0112536945 -0.0431762748 -0.0774443281 -0.788222252 -0.0771467422 -0.7889891768 0.0137744499 -0.0409145676
790295260.0 0.0115024396 -0.0418624633 -0.084744055 -0.7880360655 -0.0850974689 -0.7881473284 0.0124284975 -0.0409666953
795295230.0 0.0104638926 -0.0425036012 -0.0941219895 -0.7868218703 -0.093822211 -0.7870592624 0.0122806257 -0.0401732884
800295200.0 0.0093174525 -0.0420769379 -0.10395761 -0.7855457776 -0.1028832114 -0.7857734117 0.0116423276 -0.0410368625
805295170.0 0.0087934998 -0.0422571541 -0.1113469931 -0.7849776873 -0.1116871377 -0.7856109201 0.0111787529 -0.0404214152
810295140.0 0.0078722166 -0.0427425821 -0.1196522785 -0.7834182496 -0.1197985558 -0.7838118002 0.0110205806 -0.0400775246
815295110.0 0.0078657271 -0.0429948039 -0.1280724473 -0.7820499567 -0.1283921337 -0.7820726144 0.0096835161 -0.0404628426
820295080.0 0.0064205651 -0.0418701859 -0.13731736 -0.7805058211 -0.1364298079 -0.7805755822 0.0095200594 -0.0402447231
825295050.0 0.0068173732 -0.0420520078 -0.1446666619 -0.778268158 -0.145460253 -0.7791175257 0.0093511304 -0.0402215472
830295020.0 0.0060871579 -0.0422180823 -0.154398824 -0.7773637518 -0.1541091291 -0.7767433162 0.0094420411 -0.0397890016
