!Created with skrf (http://scikit-rf.org).
# Hz S RI R 50.0 
!freq ReS11 ImS11 ReS21 ImS21 ReS12 ImS12 ReS22 ImS22
300000.0 0.8605383088 -0.0010775751 -0.0005023789 -0.0003249932 -0.0002091296 -0.0006989807 -0.7661965128 -0.1953964184
5299970.0 0.8594276673 -0.0103213828 8.78788e-05 8.24631e-05 1.55258e-05 -9.72334e-05 -0.7847773211 -0.0099748982
10299940.0 0.8585246674 -0.0186530836 0.000125836 0.0001206031 -0.0001599706 7.5082e-06 -0.7873524789 -0.0056548561
15299910.0 0.8576689654 -0.027257911 0.0001604471 -8.56961e-05 7.96039e-05 -3.6635e-06 -0.793515639 -0.0024422477
20299880.0 0.8572662217 -0.0354543868 -0.0002590183 -0.0001443025 -3.64657e-05 -4.79337e-05 -0.7998396755 0.0016513983
25299850.0 0.8563349649 -0.0441605535 -6.8709e-06 -0.0002408014 6.59772e-05 0.000111884 -0.8063430666 0.0080628243
30299820.0 0.8555533338 -0.0519204242 -6.25303e-05 -7.88399e-05 6.60882e-05 -0.000239912 -0.8124181778 0.0153614233
35299790.0 0.85528023 -0.0603790731 -0.0001690044 8.79576e-05 -0.0001399729 -3.57059e-05 -0.8175144821 0.0250468499
40299760.0 0.8547472774 -0.0678961225 -4.22779e-05 0.0002939231 7.77916e-05 5.74591e-05 -0.8217791883 0.0340672951
45299730.0 0.8534449657 -0.0760687739 5.9956e-06 -0.000129973 2.89049e-05 9.71597e-05 -0.82423623 0.043736794
50299700.0 0.8531228919 -0.084336831 -0.0002167815 -8.563e-07 -7.63312e-05 5.83803e-05 -0.8268517526 0.0542875643
55299670.0 0.8525822515 -0.0928957932 2.43432e-05 8.97907e-05 -0.0001453314 8.4468e-05 -0.8292707261 0.0636252522
60299640.0 0.8508196518 -0.1011312728 -6.5465e-06 -0.0001273416 0.0001157521 3.68029e-05 -0.8296199398 0.0740468349
65299610.0 0.8498318888 -0.1085475353 6.67589e-05 -2.4362e-05 0.0001630225 1.90347e-05 -0.8303333069 0.0836656252
70299580.0 0.8490636201 -0.1175233636 -0.0001129067 4.60166e-05 -4.1656e-06 4.61287e-05 -0.8311115083 0.0935850914
75299550.0 0.8476035926 -0.1260034459 -0.0001259455 0.0001322973 -0.0002711619 0.0001479127 -0.8311251135 0.1039408518
80299520.0 0.8458824612 -0.1338269382 7.31986e-05 -0.0002065948 8.99046e-05 0.000164501 -0.8307838583 0.1136524566
85299490.0 0.8449483264 -0.141727226 4.79074e-05 -0.0001063249 0.0001827284 -0.0002237652 -0.8301498382 0.1235487077
90299460.0 0.8441799061 -0.1498209025 -1.37706e-05 -9.14958e-05 -6.58271e-05 0.0001523811 -0.8290217403 0.1326025942
95299430.0 0.8430185199 -0.1578016673 -0.0001112152 -0.0001399541 5.77134e-05 4.76897e-05 -0.8282348094 0.1425890185
100299400.0 0.8405578203 -0.1659171768 -1.24171e-05 -7.782e-06 -2.73825e-05 -0.0001137958 -0.8272075251 0.1520653086
105299370.0 0.83950943 -0.174382665 0.0001631857 -5.91841e-05 2.31446e-05 9.28693e-05 -0.8257719815 0.1607452819
110299340.0 0.8374445242 -0.1827682172 0.0001456915 -7.66553e-05 -4.08409e-05 -0.0001449866 -0.8250492831 0.1696181195
115299310.0 0.8359711345 -0.190777272 3.21134e-05 -4.56627e-05 -1.6843e-05 7.14791e-05 -0.8233693805 0.1792773643
120299280.0 0.8340607878 -0.1988593824 6.80416e-05 -0.0001667629 -7.59188e-05 -0.0001034335 -0.8212322029 0.1877989338
125299250.0 0.8317750181 -0.2064668481 0.0002082242 0.0001594576 2.02681e-05 -7.17044e-05 -0.8196390549 0.1971785347
130299220.0 0.8298462499 -0.2143150834 -0.0001072665 -0.0001316551 -5.76223e-05 0.000139844 -0.8178010651 0.2057976334
135299190.0 0.8282995201 -0.2229441496 -0.0001415706 -5.52488e-05 5.29909e-05 -3.6472e-05 -0.8159692023 0.2149283242
140299160.0 0.8257633498 -0.2301733267 0.0001131216 -0.000101787 2.95492e-05 4.05072e-05 -0.8140059104 0.2236990354
145299130.0 0.8235063146 -0.237908406 -0.0001160586 -8.7263e-05 0.0001089524 0.0001405321 -0.811926021 0.2323948986
150299100.0 0.8204719148 -0.2458620501 3.51676e-05 -0.0001063835 -6.10838e-05 -9.77248e-05 -0.8098739856 0.2411779494
155299070.0 0.8188645874 -0.2542285693 -0.0002005992 2.70141e-05 -8.7012e-06 -0.0001928843 -0.8074223654 0.2502436703
160299040.0 0.8158406342 -0.2619857073 -9.63878e-05 3.53807e-05 0.0001614485 -7.78434e-05 -0.8049908741 0.2592681137
165299010.0 0.8141784824 -0.2696336412 5.883e-07 -9.87855e-05 6.30271e-05 -5.50808e-05 -0.8021356585 0.2674287122
170298980.0 0.8111954213 -0.2773157332 6.33118e-05 0.0001699943 -1.618e-07 -6.32779e-05 -0.7996088177 0.2758856314
175298950.0 0.8085632033 -0.2856013955 -0.00012292 -0.0002768937 5.36213e-05 6.8156e-05 -0.7966529503 0.2849781498
180298920.0 0.8057161264 -0.2932760449 0.0001740134 0.0002212199 -0.0001362389 9.8653e-05 -0.7931734944 0.293376318
185298890.0 0.8028164586 -0.3008529171 -2.2872e-06 -1.79103e-05 -1.45924e-05 -3.36659e-05 -0.7903820881 0.3013716673
190298860.0 0.8000052827 -0.3092448329 6.31517e-05 3.04955e-05 -0.0001908206 -3.51419e-05 -0.7872104115 0.3100061287
195298830.0 0.7968756919 -0.3156373538 -9.15859e-05 0.0001699061 0.000160258 -0.0001655618 -0.7842710257 0.3183244993
200298800.0 0.7941693525 -0.3232570558 9.64976e-05 8.46897e-05 -8.48264e-05 2.61631e-05 -0.7814274358 0.3269798105
205298770.0 0.7904816598 -0.3315382563 -1.14674e-05 3.194e-07 4.39116e-05 0.0001053401 -0.7777212348 0.3350818544
210298740.0 0.7878423034 -0.3390278069 -4.27371e-05 -3.73876e-05 -9.98337e-05 8.40728e-05 -0.7743336003 0.3433397524
215298710.0 0.7846505498 -0.346982799 -0.0001278088 -0.0001886323 9.22029e-05 -0.000143971 -0.7704114744 0.3515157415
220298680.0 0.7813241148 -0.3538819804 -7.39358e-05 -0.0001937061 3.60304e-05 -4.2917e-05 -0.7668310312 0.359396912
225298650.0 0.7775304088 -0.3616298407 -7.21407e-05 -0.0001262117 -3.46062e-05 0.0001167416 -0.7635021901 0.3678863365
230298620.0 0.7734660897 -0.3690850953 -3.97722e-05 -1.4529e-06 -4.98347e-05 -0.00016157 -0.7593750867 0.3753060767
235298590.0 0.769977218 -0.3764267765 -0.0001977719 -0.0001469732 7.992e-07 6.51865e-05 -0.7554122128 0.3834615713
240298560.0 0.7663180781 -0.3833127089 -0.0001820152 -0.0001062306 0.000117026 9.72511e-05 -0.7513301341 0.3905413281
245298530.0 0.7629599397 -0.3910510466 -7.58466e-05 2.48179e-05 3.50721e-05 -0.000121139 -0.7472037772 0.3985552194
250298500.0 0.7599095617 -0.398310147 -5.5938e-05 -0.0002682266 -5.84522e-05 -0.0001797661 -0.7426467359 0.4067067714
255298470.0 0.7550477101 -0.4048637823 0.000155615 0.0001469492 -8.82642e-05 -0.0001232662 -0.7387436381 0.4147238197
260298440.0 0.7513273592 -0.4133349949 3.26192e-05 -0.0001360267 -5.23517e-05 6.18963e-05 -0.7344763757 0.421884065
265298410.0 0.7467459092 -0.4197908894 7.75201e-05 -0.0001649664 5.60745e-05 -0.0001681273 -0.7302807727 0.4302252894
270298380.0 0.7434018655 -0.4271462444 7.70913e-05 -8.99514e-05 -7.48734e-05 -4.8006e-06 -0.7252019744 0.4386210969
275298350.0 0.7387196471 -0.4338422194 -0.0001897873 8.1459e-06 5.99742e-05 0.0001233498 -0.7203923704 0.4454913571
280298320.0 0.7342663996 -0.4408239765 -8.88982e-05 0.0001209837 3.58137e-05 0.0001661971 -0.716141568 0.4525136161
285298290.0 0.730523239 -0.4481578611 -0.0001571394 2.05488e-05 0.0001417934 -7.7034e-05 -0.7117305588 0.4608509713
290298260.0 0.7265603869 -0.455392186 -7.5738e-05 0.0001749771 2.17165e-05 0.0001957777 -0.7066243376 0.4675679544
295298230.0 0.72260873 -0.4623923926 -0.000244372 -2.27521e-05 0.0001942289 3.74084e-05 -0.7015244784 0.4749723977
300298200.0 0.71797375 -0.469117527 -8.82127e-05 0.0001167384 6.11939e-05 0.0002219 -0.6965405171 0.482309969
305298170.0 0.7141804053 -0.477177842 0.0001549752 8.44493e-05 0.0001684714 -8.58492e-05 -0.6912253416 0.4895036836
310298140.0 0.7087361008 -0.4849805804 8.88645e-05 -0.0001292088 0.0001919625 4.03919e-05 -0.6863942662 0.4971534209
315298110.0 0.7037067325 -0.4922025958 7.14855e-05 -3.78184e-05 6.99454e-05 2.3047e-06 -0.6812914578 0.5039766282
320298080.0 0.698142641 -0.4992156596 3.00417e-05 -7.55737e-05 -3.29628e-05 -0.0002590049 -0.6760144473 0.5106168473
325298050.0 0.6919053143 -0.5063305791 -0.0002460839 2.2347e-06 0.0001158986 -0.0001088292 -0.6701383137 0.5179211107
330298020.0 0.6865088596 -0.5132293443 -2.25273e-05 1.13064e-05 0.0002915367 2.17403e-05 -0.665102111 0.524356441
335297990.0 0.681121438 -0.5190905641 1.8022e-06 -0.0002197214 -4.92361e-05 0.0001635977 -0.6598671476 0.5315968431
340297960.0 0.6756693736 -0.5251924176 -6.25834e-05 -0.0001478505 -2.36731e-05 -4.84791e-05 -0.6538763991 0.5383135139
345297930.0 0.6702316097 -0.5320566714 -0.0002201954 -0.000257214 0.0001586984 -5.17254e-05 -0.6487813366 0.5445937992
350297900.0 0.6651328382 -0.5378394079 3.08581e-05 -9.16753e-05 6.13453e-05 5.9277e-06 -0.6433697169 0.5510909381
355297870.0 0.6598077352 -0.5445270247 5.6326e-06 9.5384e-06 -7.40742e-05 0.0001524815 -0.6371410668 0.5585456756
360297840.0 0.654335479 -0.5500739239 -7.45342e-05 4.30409e-05 0.0001461155 -6.04986e-05 -0.6308479268 0.5651041007
365297810.0 0.6488993121 -0.5566029187 -0.0001662817 -0.0001693708 -0.0001567818 0.0001269313 -0.6259302654 0.5712800607
370297780.0 0.6432547636 -0.5625455777 2.5168e-05 1.1248e-05 -0.0001022763 8.25719e-05 -0.6197792881 0.5777095841
375297750.0 0.6377376176 -0.5690343007 -9.34294e-05 -0.0001658249 0.0002290767 3.547e-07 -0.6134365611 0.5835884573
380297720.0 0.6319718283 -0.57437231 -3.39213e-05 -0.0001561093 -0.0001105925 8.7385e-06 -0.6068238262 0.5902045927
385297690.0 0.6265041138 -0.5811479435 -8.88957e-05 6.64484e-05 -7.34971e-05 0.0001611771 -0.6016750646 0.5969104441
390297660.0 0.6210750386 -0.5873048527 -7.06892e-05 -6.12463e-05 -0.0002056832 -6.26077e-05 -0.5943290176 0.602054451
395297630.0 0.614877154 -0.5917890981 -1.3867e-05 0.0001117735 7.37513e-05 5.2988e-05 -0.587875006 0.6079328432
400297600.0 0.6088718457 -0.5989159392 -1.56863e-05 -6.68132e-05 -0.0001051872 9.5912e-06 -0.5825151587 0.6140750118
405297570.0 0.6037026985 -0.604742542 7.3724e-05 0.0001157733 -0.0001737923 -0.0001055349 -0.5753876531 0.6198480414
410297540.0 0.5985226903 -0.6095918481 0.0002525256 -0.000177845 2.57981e-05 0.0001584055 -0.5691882696 0.6260472345
415297510.0 0.5913417764 -0.616023088 0.0001668898 -3.1298e-05 8.66741e-05 0.0001536419 -0.5632935768 0.6309542885
420297480.0 0.5859998602 -0.621507814 -8.98103e-05 4.70966e-05 -6.2338e-05 0.0001145787 -0.5560090977 0.6379254742
425297450.0 0.5796776388 -0.6269922426 -0.0001138262 -1.91928e-05 -1.3458e-05 -5.37187e-05 -0.5496308476 0.6426237794
430297420.0 0.5727987193 -0.6330418794 1.24673e-05 -2.80455e-05 -2.50056e-05 -0.0002269832 -0.5433213449 0.648659492
435297390.0 0.5670016298 -0.6386231586 -1.8339e-05 -8.00994e-05 -0.0001362636 -4.74203e-05 -0.5368851771 0.6540089222
440297360.0 0.5608069066 -0.6441843267 -4.88231e-05 7.8295e-06 0.0001062907 -3.03962e-05 -0.530637088 0.6597356662
445297330.0 0.5553673074 -0.649323194 -4.14428e-05 0.0001281114 -0.0001272873 -0.0002323103 -0.5226066723 0.6652456827
450297300.0 0.5492281914 -0.6549547011 3.28168e-05 0.0001057608 0.0001182086 7.10855e-05 -0.5157602499 0.6693263432
455297270.0 0.5424411973 -0.6594184356 -1.3999e-05 -5.2803e-05 1.60182e-05 2.01079e-05 -0.5089975758 0.6750403354
460297240.0 0.5360766832 -0.6643816898 -7.37624e-05 6.06881e-05 6.07718e-05 -7.74696e-05 -0.5026879273 0.6802777483
465297210.0 0.5295300861 -0.6697231529 -0.0001541674 7.88715e-05 0.0001728697 -4.14968e-05 -0.4948566647 0.6860464738
470297180.0 0.523580641 -0.6754771785 0.0001386366 0.0002239343 -5.64827e-05 -0.0001859505 -0.4884284664 0.6903608626
475297150.0 0.5162615877 -0.6804402456 7.09699e-05 -8.48485e-05 -6.78407e-05 1.68857e-05 -0.4811670238 0.6952002305
480297120.0 0.5101276968 -0.685812987 -9.39048e-05 -0.0001109854 5.25136e-05 0.0001081339 -0.4749503998 0.6996431782
485297090.0 0.50310834 -0.6905103626 0.0002239673 -9.74577e-05 0.0001364726 0.0001429928 -0.4672395424 0.7046120961
490297060.0 0.4967802918 -0.6945188248 -0.0001816334 0.0001670233 -0.000127643 3.53283e-05 -0.4596051948 0.7093611458
495297030.0 0.4897915851 -0.7000275164 1.70746e-05 0.0002131164 0.0001270165 -4.6376e-05 -0.4523304402 0.7134579132
500297000.0 0.4832835849 -0.704122952 0.00032508 -2.94546e-05 1.96538e-05 0.0002982575 -0.4452770707 0.7187246273
505296970.0 0.4767755563 -0.7090970618 -1.17453e-05 3.6512e-05 0.0001412398 4.5479e-06 -0.437649522 0.7226780518
510296940.0 0.4693549535 -0.7134390203 7.86441e-05 0.000201015 6.19792e-05 0.0001718124 -0.4297630873 0.7277507705
515296910.0 0.4621051342 -0.7177028699 0.0001774565 2.51212e-05 0.0001501478 0.0001230147 -0.4232722314 0.7309083599
520296880.0 0.4563544406 -0.7220607894 0.0001048576 -8.3904e-06 0.0001621309 -2.2978e-06 -0.4149570401 0.7360062672
525296850.0 0.4494326445 -0.7267432526 5.29576e-05 1.39971e-05 -3.04743e-05 6.15675e-05 -0.4079006762 0.7397868117
530296820.0 0.4421497706 -0.7317960827 -4.91685e-05 -3.46984e-05 -6.62141e-05 -9.31492e-05 -0.4004383254 0.7434500559
535296790.0 0.4349556452 -0.7349249729 1.30144e-05 2.39237e-05 -9.00523e-05 -0.0001623382 -0.393045244 0.747780809
540296760.0 0.4283078896 -0.7392780398 -2.70862e-05 4.85802e-05 1.49918e-05 -4.66962e-05 -0.3852711048 0.7515492958
545296730.0 0.4203648442 -0.7439136298 1.66107e-05 5.46936e-05 -2.90225e-05 4.19238e-05 -0.3778483786 0.7557870134
550296700.0 0.4125710102 -0.7471673323 0.000136941 -4.51934e-05 1.2587e-06 6.7998e-06 -0.3699529935 0.7591003151
555296670.0 0.4059219158 -0.7513495261 -0.0004030553 -7.09032e-05 2.40135e-05 -0.0002047154 -0.3626465442 0.7622974964
560296640.0 0.3991353186 -0.7545604916 4.37175e-05 -5.30456e-05 0.0002487751 -0.0001206863 -0.3544298796 0.7664363937
565296610.0 0.3916128114 -0.7587398565 -2.31715e-05 -1.35196e-05 -0.0001195631 -5.82535e-05 -0.3466921867 0.7699038293
570296580.0 0.3841807065 -0.7625001105 -0.0002844534 6.00036e-05 -4.02268e-05 3.79611e-05 -0.3389094109 0.7730363035
575296550.0 0.3768698918 -0.7666765076 -0.0001320692 8.66357e-05 0.0002709033 0.0001437989 -0.3308954649 0.7764979119
580296520.0 0.369532017 -0.7695327862 -5.88214e-05 0.0001786087 -7.63564e-05 0.0001561951 -0.3236408851 0.7794690165
585296490.0 0.36184342 -0.7727844757 -6.80787e-05 -6.97202e-05 0.0001029901 9.0024e-06 -0.3152836661 0.7834233812
590296460.0 0.3541914452 -0.775458481 -3.2902e-06 -1.9631e-05 -2.29006e-05 -9.22735e-05 -0.3079692114 0.7857000805
595296430.0 0.3465196798 -0.7798315971 -3.2802e-05 1.95632e-05 -8.5641e-06 -1.1775e-06 -0.2999517493 0.789128293
600296400.0 0.3395257228 -0.7829663696 -0.0001015257 -0.0001859698 0.0001940107 -0.0002126327 -0.2923285306 0.7918669426
605296370.0 0.3305197914 -0.7866540197 -0.0002547183 -0.0001323084 9.8147e-06 6.91175e-05 -0.2836233717 0.7953034227
610296340.0 0.3235485494 -0.7899795913 0.0001296996 8.32356e-05 0.0001076497 -0.0001611115 -0.2763236446 0.7975546248
615296310.0 0.3157272696 -0.7919133131 1.85958e-05 6.23367e-05 0.0001237646 -6.07469e-05 -0.2673300721 0.8008020968
620296280.0 0.3078903922 -0.7949205078 -0.000105517 -2.64238e-05 0.0002243192 1.97873e-05 -0.2600057899 0.803310083
625296250.0 0.2991685256 -0.7982144446 -0.0001704099 0.0001717408 0.0001855123 -3.60807e-05 -0.2516353182 0.8052295895
630296220.0 0.2918233241 -0.8004257963 9.41396e-05 -2.02434e-05 -0.000147007 6.07652e-05 -0.2433236343 0.8077400086
635296190.0 0.2840036718 -0.8033995426 2.05257e-05 6.85356e-05 -0.0001815493 -0.0002181532 -0.2352429264 0.8101362179
640296160.0 0.2758871423 -0.8061635593 8.89866e-05 0.0002044054 -8.1436e-05 0.0001519302 -0.2274633723 0.8126816644
645296130.0 0.2689990778 -0.8083590209 -0.0001504425 6.94654e-05 -0.0001914839 0.0001138386 -0.2197573186 0.8144493104
650296100.0 0.2607635256 -0.810124022 -8.687e-07 -0.0001227575 0.0001600418 -0.0001489209 -0.2108700654 0.8166516079
655296070.0 0.2522884656 -0.8126130682 0.0002939552 0.0001826915 -8.05552e-05 -3.42129e-05 -0.202993749 0.8189382387
660296040.0 0.2436332995 -0.8148614222 -6.8916e-06 7.45161e-05 8.94708e-05 -7.24709e-05 -0.1944808315 0.821059667
665296010.0 0.2359623179 -0.8174241712 1.79344e-05 -0.0002414942 -8.79375e-05 2.8316e-06 -0.1861146844 0.8225338473
670295980.0 0.2282451261 -0.8194793186 0.0001537546 2.79466e-05 0.0001729317 4.68772e-05 -0.1783138124 0.8241202262
675295950.0 0.2195162572 -0.8216182464 3.88469e-05 5.10341e-05 -0.0002144742 0.0001115429 -0.1698433291 0.8265247741
680295920.0 0.2115112251 -0.8234736295 8.2502e-06 3.27839e-05 4.56421e-05 -0.0001083318 -0.1609637192 0.8276538388
685295890.0 0.2033917012 -0.8247867569 3.11773e-05 5.63354e-05 -0.0001612887 -7.053e-06 -0.1532388405 0.8295651567
690295860.0 0.1949275654 -0.8264053986 2.34667e-05 0.0001126346 -5.5921e-06 -0.0001672055 -0.1452163604 0.8311992425
695295830.0 0.1866590234 -0.828155319 4.30655e-05 -3.1915e-06 8.86737e-05 1.45923e-05 -0.1369498908 0.8325543834
700295800.0 0.1784611144 -0.8303208639 -6.59196e-05 3.10792e-05 0.0001902919 8.26568e-05 -0.1286119601 0.8335877126
705295770.0 0.1698372781 -0.8315794137 -0.000103153 -8.91502e-05 -9.94598e-05 -0.0002744683 -0.1202801639 0.8352959052
710295740.0 0.1619827769 -0.8322826044 -4.93978e-05 -0.0001442358 -0.0001965145 -7.25234e-05 -0.1121516542 0.8363216885
715295710.0 0.1536812729 -0.8337701845 0.000180503 6.25335e-05 -4.25711e-05 -0.0001764911 -0.1033731622 0.8363916877
720295680.0 0.1455346467 -0.8350581283 0.0001574657 0.0001894312 -0.0001301371 -3.64991e-05 -0.0947294281 0.8377621278
725295650.0 0.1368416143 -0.8357900642 -8.53964e-05 -3.14692e-05 -0.0001091744 1.27109e-05 -0.0871756472 0.8395258507
730295620.0 0.1281142709 -0.8375831479 4.61369e-05 0.0001594291 -0.0001534573 -8.37593e-05 -0.0784894775 0.8402395003
735295590.0 0.1198278088 -0.8384883454 3.51026e-05 -9.87906e-05 1.0467e-06 -9.9641e-05 -0.0700219812 0.8402632066
740295560.0 0.1118179331 -0.8395018644 5.21242e-05 3.99033e-05 -6.82593e-05 -8.62137e-05 -0.0615351551 0.8411444783
745295530.0 0.1029828247 -0.8399367919 4.31756e-05 -9.18485e-05 -0.00016203 -9.40164e-05 -0.0535512258 0.8419370227
750295500.0 0.0948398711 -0.8410904294 -0.0001692983 -6.76031e-05 5.9983e-06 8.71187e-05 -0.0452190311 0.8424634117
755295470.0 0.0860346008 -0.8410911845 0.0002922009 -9.81978e-05 0.0001860706 0.0001521265 -0.0367520789 0.8429136456
760295440.0 0.0785830783 -0.8412013004 0.0001245708 6.39089e-05 9.48142e-05 -4.47804e-05 -0.0278895889 0.8424375443
765295410.0 0.0697993605 -0.8423871813 -5.70553e-05 -8.91669e-05 -8.44814e-05 0.0001508145 -0.0196810658 0.8432374248
770295380.0 0.0609449419 -0.8418455025 -8.53239e-05 0.0001231757 -5.77999e-05 -0.0001234466 -0.0116015292 0.8436445757
775295350.0 0.0529732693 -0.8421706359 0.0001475594 -4.4574e-05 -0.0001230553 8.82298e-05 -0.0033990314 0.8433196251
780295320.0 0.0446623595 -0.8430257035 2.29071e-05 -0.0001003577 -8.04319e-05 0.0002371963 0.005530033 0.8438980814
785295290.0 0.0361099281 -0.8430839185 -0.000157692 0.0001433041 0.0001528011 -4.09567e-05 0.0131648398 0.8433473473
790295260.0 0.0281141844 -0.8426167807 8.52921e-05 -0.0001155693 0.0001895531 -5.65699e-05 0.0218641747 0.8432095094
795295230.0 0.0193424828 -0.8437993448 0.000193042 1.77933e-05 -0.0001611787 -9.96809e-05 0.0299114629 0.842701027
800295200.0 0.0114474074 -0.8436983111 0.0001748834 1.24515e-05 -3.13806e-05 2.31703e-05 0.0383887536 0.8419315046
805295170.0 0.0028126436 -0.8435829704 0.0001460034 -8.42106e-05 -4.77817e-05 9.64892e-05 0.0471922458 0.8417812433
810295140.0 -0.005812121 -0.8427898529 -5.36928e-05 6.58203e-05 -0.0001723556 -5.92963e-05 0.0557187648 0.841183152
815295110.0 -0.013673498 -0.8427330216 0.0001438024 -0.0002637733 -8.54139e-05 -0.000364739 0.0630190209 0.8407929152
820295080.0 -0.0223909344 -0.842288479 2.27098e-05 -0.0001250491 2.14046e-05 0.0001423396 0.0717264401 0.8404383686
825295050.0 -0.0313772218 -0.8419847296 -0.0001352894 0.0002395161 -0.0001375119 9.83065e-05 0.0799503299 0.8394101377
830295020.0 -0.0388994008 -0.8416839038 -4.76546e-05 0.000295275 0.0001481448 5.32113e-05 0.0879263087 0.8381907671
835294990.0 -0.046982949 -0.8411332135 -0.0001026131 6.65005e-05 -2.43391e-05 0.0001113824 0.0969236996 0.8380413725
840294960.0 -0.0552338371 -0.840795347 -9.97238e-05 -0.000225642 -5.71494e-05 -8.64676e-05 0.1056417897 0.8369244564
845294930.0 -0.0640189959 -0.8387948315 1.34968e-05 0.0001632566 4.40748e-05 -0.0001309578 0.113485123 0.8357254234
