!Created with skrf (http://scikit-rf.org).
# Hz S RI R 50.0 
!freq ReS11 ImS11 ReS21 ImS21 ReS12 ImS12 ReS22 ImS22
300000.0 -0.3159881132 -0.1339856954 0.3704458725 0.0667814327 0.3716880702 0.0673317233 -0.3123896139 -0.1342840726
5299970.0 -0.3247889565 0.0025824454 0.3781008268 0.0034442597 0.3786394064 0.0033859796 -0.3254113035 0.0018838881
10299940.0 -0.3224380459 0.0141848812 0.3801154289 0.0027380965 0.3798437148 0.0029250146 -0.3230243407 0.0123719471
15299910.0 -0.3189071407 0.0221981296 0.382155574 0.0029890769 0.3823964114 0.0027738734 -0.3204116173 0.0197519237
20299880.0 -0.315480356 0.0290830947 0.38493957 0.0017762656 0.3853247671 0.0018329572 -0.3175663033 0.025926248
25299850.0 -0.3113022823 0.0347996993 0.3884772633 0.0006582856 0.3887235335 8.95287e-05 -0.3145542268 0.0311725627
30299820.0 -0.3079855037 0.0393471429 0.3919212903 -0.0020352474 0.3921540313 -0.0021584279 -0.3117566829 0.0356338752
35299790.0 -0.3044188107 0.0434716268 0.3947474075 -0.0047600429 0.395201221 -0.0048885904 -0.3087443304 0.0398300548
40299760.0 -0.3010413996 0.0468789645 0.3984133287 -0.0085467328 0.3982927334 -0.0089317898 -0.3060758186 0.0432475112
45299730.0 -0.2977260492 0.0500762395 0.4010229681 -0.0125939885 0.4010730276 -0.0126951094 -0.303226275 0.0464604406
50299700.0 -0.2947968581 0.0528024927 0.4037668448 -0.017111588 0.4039563165 -0.0174087775 -0.3008239484 0.0496460236
55299670.0 -0.2921683708 0.0553725288 0.4057866057 -0.0216517348 0.4058573589 -0.0217851696 -0.2990521231 0.0523723944
60299640.0 -0.2900106511 0.057868972 0.4081477253 -0.0264342305 0.4079427458 -0.0269615856 -0.2968620221 0.0547414767
65299610.0 -0.2872284621 0.0601967657 0.4098035018 -0.03179859 0.4097453643 -0.0315778239 -0.2950209521 0.0576963262
70299580.0 -0.2853842819 0.0620335919 0.4108572051 -0.0364076278 0.4108381557 -0.0368772432 -0.2935266568 0.0596336369
75299550.0 -0.2832742884 0.0643263096 0.4114726371 -0.0423829627 0.4120895494 -0.0421203703 -0.2915463847 0.0626012077
80299520.0 -0.2817797317 0.0665778482 0.4128829565 -0.046982165 0.4129992864 -0.0473932239 -0.2902137641 0.0648360159
85299490.0 -0.2798276581 0.068330992 0.4134941165 -0.0527419571 0.4135871682 -0.0524063175 -0.2886494669 0.0671042182
90299460.0 -0.2783791654 0.0710036578 0.4137194442 -0.0578632945 0.4137665036 -0.0579545245 -0.2873122414 0.0696265956
95299430.0 -0.2768282502 0.0725647075 0.4139237952 -0.0632921385 0.4140496196 -0.0632477832 -0.2862192544 0.0720647388
100299400.0 -0.2754344618 0.0747155038 0.4141398496 -0.0682835456 0.4141257458 -0.0682329204 -0.2852521706 0.0743846506
105299370.0 -0.2739319919 0.0765782294 0.4135944041 -0.0734875169 0.4143445557 -0.0733375168 -0.2835930036 0.0767050664
110299340.0 -0.2726109095 0.0786503742 0.4135559121 -0.0780643004 0.4139877761 -0.078379755 -0.2830959889 0.0786688108
115299310.0 -0.2715379365 0.0809821764 0.4131162313 -0.0836315367 0.4136913537 -0.0835349871 -0.2817108253 0.0815336598
120299280.0 -0.2702753815 0.0831134959 0.4128885075 -0.0889254767 0.4128475409 -0.0888612187 -0.2806865432 0.0831181054
125299250.0 -0.2692818956 0.0851589764 0.4123781348 -0.0935472184 0.4126159429 -0.0940671973 -0.2797264858 0.0862146132
130299220.0 -0.2683691658 0.0876626692 0.4120637513 -0.0992026502 0.4116036503 -0.099576565 -0.2786133685 0.0885220113
135299190.0 -0.2669926533 0.0899568622 0.4113101 -0.1038674643 0.4113339564 -0.1044671878 -0.2778239036 0.0907102476
140299160.0 -0.2661758356 0.0922235932 0.4103297822 -0.109136618 0.4103203341 -0.1087704836 -0.2774119836 0.0932567343
145299130.0 -0.2654593875 0.0944963725 0.4094883131 -0.114080661 0.4098603163 -0.1140617102 -0.2762926533 0.0959111742
150299100.0 -0.2643829596 0.0968527744 0.4085383149 -0.1189887348 0.4084474208 -0.1188367912 -0.2752339191 0.0985273477
155299070.0 -0.2631177654 0.0993243504 0.4067751587 -0.1233427523 0.4074045008 -0.1240337843 -0.2744670573 0.1011433341
160299040.0 -0.2622087649 0.1021635655 0.4059361196 -0.1288462926 0.4063006304 -0.1289843396 -0.2736313835 0.103865135
165299010.0 -0.2611703634 0.1045377105 0.4046078407 -0.1331649795 0.4046359196 -0.1335532198 -0.2724894146 0.1058117346
170298980.0 -0.2600110363 0.1067197605 0.4032465021 -0.1379746546 0.4035884119 -0.1383576933 -0.2718721894 0.1085383443
175298950.0 -0.258975688 0.1091380152 0.4018665818 -0.142898999 0.4022225727 -0.1434032232 -0.2705454418 0.1116117697
180298920.0 -0.2582318239 0.1118845781 0.4006342672 -0.1480905766 0.4008084378 -0.1479920381 -0.2698618246 0.1142243395
185298890.0 -0.2568911714 0.1144267468 0.3992001301 -0.1526245718 0.3990702814 -0.1527100288 -0.2682733965 0.1167477294
190298860.0 -0.2556537701 0.1173050291 0.3969875384 -0.157228924 0.3979093818 -0.1571857409 -0.2673765716 0.1194915793
195298830.0 -0.2546895634 0.1194627948 0.3963129723 -0.1615801631 0.3960115691 -0.1620869657 -0.2663070819 0.1221585349
200298800.0 -0.2534399104 0.1221242309 0.3942945304 -0.166822131 0.3942914765 -0.166901585 -0.2655021105 0.1247344512
205298770.0 -0.2526369625 0.1246023077 0.3918710202 -0.1709927233 0.3925433181 -0.1709539287 -0.2642523013 0.1275196366
210298740.0 -0.2512503678 0.127489688 0.3904456613 -0.1756067642 0.3906920801 -0.1755460615 -0.2633418505 0.1300855248
215298710.0 -0.2500900615 0.1303621165 0.3881581482 -0.1800370383 0.3885675466 -0.1806904027 -0.261993344 0.1327627368
220298680.0 -0.2489293409 0.1324575386 0.3864741647 -0.184773014 0.3866143991 -0.1846906917 -0.2607488292 0.1353938848
225298650.0 -0.2477675175 0.1351508883 0.384340463 -0.1887481562 0.3849457702 -0.1886705939 -0.2595239991 0.1380822134
230298620.0 -0.2466528651 0.138191009 0.3826914298 -0.1934312463 0.3829062682 -0.1935043482 -0.2585927303 0.1405783899
235298590.0 -0.2454962092 0.1404096399 0.3806338244 -0.1980087511 0.3806775943 -0.1979216015 -0.2571328884 0.1433453256
240298560.0 -0.2439022577 0.1433535188 0.3782773378 -0.2022051291 0.3782965789 -0.2022608287 -0.2557461138 0.1461631848
245298530.0 -0.2428363738 0.1457375249 0.3759582637 -0.2065260719 0.3759976537 -0.2068081752 -0.2543085359 0.1489120581
250298500.0 -0.2416312956 0.1480855792 0.3737658397 -0.2105436369 0.3740499327 -0.2106187613 -0.2532328963 0.1514730937
255298470.0 -0.2401225849 0.151256733 0.371642448 -0.2145886662 0.3718442521 -0.2150160744 -0.2516793238 0.1543659292
260298440.0 -0.2386074159 0.1534477525 0.3693933357 -0.2187578974 0.3693911264 -0.2189133389 -0.250516932 0.1566384373
265298410.0 -0.2372030806 0.1561762014 0.3667206131 -0.2236504456 0.3666655369 -0.2234793559 -0.2484991252 0.159209655
270298380.0 -0.2359253594 0.1586310112 0.364331318 -0.2274478244 0.3644293067 -0.2275594748 -0.2470863798 0.1623182955
275298350.0 -0.2344366008 0.1615102402 0.3613358689 -0.231570219 0.3616508437 -0.2314545211 -0.2452858191 0.1650983831
280298320.0 -0.2331349593 0.1640207143 0.3593449622 -0.2353220117 0.3594503469 -0.2355659684 -0.243987743 0.1676587623
285298290.0 -0.2312901885 0.166667872 0.3564579193 -0.2394328137 0.3569547008 -0.2393737431 -0.2427271798 0.1706286248
290298260.0 -0.2299030937 0.1691396906 0.3545156968 -0.2432857591 0.3544466051 -0.2435908935 -0.2409241003 0.1730257158
295298230.0 -0.2284366138 0.1716285727 0.3514048143 -0.2477762154 0.3516070205 -0.247751625 -0.2391185855 0.1752801518
300298200.0 -0.2268133249 0.1741867395 0.3489712665 -0.2517771624 0.3487491128 -0.2515833604 -0.2373226462 0.1780894288
305298170.0 -0.2252914106 0.1762622319 0.3459986312 -0.2556086981 0.3460484633 -0.2556151241 -0.2354301594 0.1803055835
310298140.0 -0.2232229467 0.1788014124 0.3433156413 -0.2592954927 0.3434977346 -0.2592354043 -0.2337324593 0.1831182598
315298110.0 -0.2217574121 0.1812114394 0.3403437532 -0.2636029115 0.3405398366 -0.2636056663 -0.2319570885 0.185593044
320298080.0 -0.2202205075 0.1838945421 0.3372841304 -0.2673711932 0.3377399232 -0.2675876297 -0.2303101906 0.1880442434
325298050.0 -0.2187694716 0.1856050371 0.3341572304 -0.2710132927 0.3348408676 -0.2714130812 -0.228424246 0.1904152954
330298020.0 -0.2170887287 0.1885591201 0.3310817395 -0.2749086922 0.3319316273 -0.2751900901 -0.2268063766 0.1929388962
335297990.0 -0.2151960792 0.1906210777 0.3285103779 -0.2786602475 0.3283668034 -0.2784977741 -0.2248580594 0.1955399561
340297960.0 -0.2136355158 0.1931744672 0.3245387845 -0.2819354086 0.325083787 -0.282347168 -0.2230441857 0.1980276902
345297930.0 -0.2117996278 0.1955300222 0.321563065 -0.2861299103 0.3219903105 -0.2858358376 -0.2209543265 0.2006085128
350297900.0 -0.2097719232 0.1979606488 0.318625906 -0.2892324202 0.3192829397 -0.2893133626 -0.219238623 0.2027964612
355297870.0 -0.2081337079 0.2001927687 0.3154749619 -0.2925380002 0.3153897295 -0.292457364 -0.2170776273 0.2056522875
360297840.0 -0.2063318152 0.202779331 0.3119241292 -0.2963032805 0.3123796278 -0.2965601941 -0.2148147691 0.2082397834
365297810.0 -0.204265541 0.2049903732 0.3088783576 -0.2998023975 0.309172937 -0.2996524071 -0.2130681878 0.2100961037
370297780.0 -0.2024271911 0.2070905538 0.3051869685 -0.303004819 0.3057496146 -0.3030740156 -0.2110948591 0.2126845079
375297750.0 -0.200549929 0.2097602728 0.3022637258 -0.3063795441 0.3024449619 -0.3061985122 -0.208779025 0.2148477665
380297720.0 -0.1985230887 0.2120111172 0.2991380387 -0.3100116258 0.2987213687 -0.3097723803 -0.2064784658 0.2178571166
385297690.0 -0.1966137836 0.2142993675 0.2951715184 -0.3128574506 0.2955467129 -0.313416789 -0.2042473815 0.2201745186
390297660.0 -0.1942377502 0.2162148736 0.2921629938 -0.3159540064 0.2918756903 -0.3162600726 -0.2014037688 0.2220391344
395297630.0 -0.1920249928 0.2180660998 0.2883185525 -0.3188053405 0.2882906094 -0.3191974943 -0.1995678881 0.2240831769
400297600.0 -0.1900687868 0.2207365808 0.285059169 -0.3226308431 0.2854413754 -0.3226127219 -0.1974318539 0.2270509166
405297570.0 -0.1880113443 0.2227048832 0.2812386357 -0.3255044047 0.2815571957 -0.3256789579 -0.1948078031 0.2292617796
410297540.0 -0.1856703288 0.2248503574 0.2779374751 -0.3288812094 0.2782373901 -0.328658586 -0.1929370344 0.2316671414
415297510.0 -0.1838028418 0.2268380487 0.2741031988 -0.331760399 0.2745440653 -0.3317414712 -0.1905833744 0.2334577244
420297480.0 -0.181098758 0.2286571255 0.2701902793 -0.3348057248 0.2705787159 -0.3348995238 -0.1877769218 0.2360556882
425297450.0 -0.1784338722 0.2308398005 0.266788995 -0.3374654314 0.2668331631 -0.3374050195 -0.1853340836 0.2376813919
430297420.0 -0.1764929351 0.2328707424 0.2634048394 -0.3404362546 0.2635085225 -0.3402703622 -0.182751892 0.2401504298
435297390.0 -0.1740580934 0.2349086078 0.2591353428 -0.3440243476 0.2594723205 -0.3437201936 -0.1809749129 0.2424262036
440297360.0 -0.1713034253 0.2363035102 0.2552246177 -0.3460624887 0.2553807462 -0.3463944088 -0.1781927207 0.2443609684
445297330.0 -0.1691476718 0.2383228483 0.2518348669 -0.3489190671 0.2516083775 -0.349316857 -0.1751402117 0.2466295743
450297300.0 -0.1664430251 0.240400432 0.2478033701 -0.3515812748 0.248103555 -0.3515788559 -0.1726782777 0.2483322028
455297270.0 -0.1644169142 0.2421579652 0.2441089058 -0.3544627117 0.2442727112 -0.3546548873 -0.1700670043 0.2504634562
460297240.0 -0.161347779 0.2440638041 0.2399213455 -0.3573285022 0.2403562425 -0.3573815188 -0.1678309125 0.2523511045
465297210.0 -0.1588806388 0.2459908622 0.2354662826 -0.359928503 0.2359343366 -0.3598093942 -0.1646497747 0.2541209918
470297180.0 -0.1566575092 0.247653897 0.2318926418 -0.3620898048 0.2324927453 -0.3621793031 -0.1619673071 0.2562928872
475297150.0 -0.1542615004 0.2494488043 0.2280513094 -0.3647928808 0.2281856984 -0.3648975668 -0.1593389311 0.2581718101
480297120.0 -0.1508075921 0.2514046559 0.2238474205 -0.3672545109 0.224063474 -0.366873958 -0.1569624591 0.2601825792
485297090.0 -0.1482047332 0.2526603227 0.220250915 -0.3694525872 0.2199538105 -0.36960907 -0.1543260178 0.2617725074
490297060.0 -0.1452101812 0.2547443114 0.2156026358 -0.3720970262 0.2160045961 -0.3719272025 -0.1515091812 0.2631035246
495297030.0 -0.1428967845 0.2561675063 0.2119114967 -0.3744907747 0.2117872033 -0.3742185045 -0.1484435737 0.264808309
500297000.0 -0.1403761123 0.2575923984 0.2079747497 -0.3762883397 0.2078045249 -0.3766778268 -0.1454724321 0.2670493309
505296970.0 -0.1371112221 0.2594892906 0.2035099461 -0.3791846104 0.2035048811 -0.3787357446 -0.1429665802 0.2682620984
510296940.0 -0.1344695488 0.2612600894 0.199402232 -0.3816646799 0.1998877455 -0.3812071043 -0.1398580983 0.2706312771
515296910.0 -0.1318534417 0.2626859967 0.1951430703 -0.3831479201 0.1948893634 -0.3830705115 -0.1372108833 0.2715120825
520296880.0 -0.1287221145 0.2641068494 0.1908685528 -0.3848584406 0.1908361001 -0.3850123683 -0.1335433368 0.2737283526
525296850.0 -0.1261930196 0.2656790193 0.1868593504 -0.3871116261 0.1864923191 -0.3870385152 -0.1314957364 0.2750344135
530296820.0 -0.1233012804 0.2670982887 0.1823290609 -0.3890329783 0.1822140351 -0.3889828587 -0.1281666529 0.2764430996
535296790.0 -0.119870145 0.2683668131 0.1781300911 -0.3908676909 0.1783562722 -0.3910519972 -0.1252395607 0.2780088155
540296760.0 -0.1172578185 0.2702423268 0.1738638996 -0.392819454 0.1736089283 -0.3925810366 -0.1223234797 0.2790899287
545296730.0 -0.1146726993 0.2717330978 0.169759124 -0.3945533379 0.1693660367 -0.3945670751 -0.1193138697 0.2809934574
550296700.0 -0.111114106 0.2730761875 0.1652395968 -0.3966981471 0.1650247783 -0.3966965829 -0.1165048658 0.2818782568
555296670.0 -0.1082816367 0.2741537432 0.1608712684 -0.398270242 0.1605504728 -0.3981719141 -0.1134250314 0.2830526338
560296640.0 -0.105060983 0.2751948959 0.1560564528 -0.399693238 0.1567472267 -0.4000070138 -0.1103819347 0.2850509673
565296610.0 -0.1027494185 0.2767176445 0.1521609746 -0.4016922837 0.1521230714 -0.4013458589 -0.1073708255 0.2863524162
570296580.0 -0.0992835275 0.2783867709 0.1475084968 -0.4032111488 0.1477023452 -0.4032732709 -0.1046236052 0.2873630994
575296550.0 -0.0962436951 0.2791924825 0.1436483837 -0.4046664895 0.1432161789 -0.4046424264 -0.1015010909 0.2886349848
580296520.0 -0.0931719195 0.2807781913 0.1387724328 -0.406276092 0.1387318272 -0.4063534674 -0.0986821964 0.2898942415
585296490.0 -0.0899537007 0.2819019709 0.1347295669 -0.4080145041 0.1338766639 -0.4075410197 -0.0951797352 0.2914094542
590296460.0 -0.0865690337 0.28288717 0.1299480271 -0.4087689326 0.129943871 -0.4094154831 -0.0924276631 0.2922574671
595296430.0 -0.0840188558 0.284114477 0.1250983932 -0.4103769438 0.124791683 -0.4105242064 -0.0890938365 0.2933193662
600296400.0 -0.0808292139 0.2850966129 0.1205994614 -0.4115783739 0.1205497247 -0.4118611572 -0.0859143685 0.2940760144
605296370.0 -0.0779492247 0.2864269495 0.1167047774 -0.4129036504 0.1161255407 -0.413206041 -0.0831498836 0.2953168524
610296340.0 -0.0743160739 0.2872874579 0.1118507736 -0.413516671 0.1122030684 -0.4142591886 -0.0800842907 0.2965886724
615296310.0 -0.0711408353 0.2883726232 0.1074878814 -0.4154466889 0.1071204898 -0.4152237235 -0.0764541476 0.2973962509
620296280.0 -0.0682965475 0.2896834841 0.1029162193 -0.4163768932 0.1024810153 -0.4161402171 -0.0739046405 0.298698297
625296250.0 -0.0654034865 0.2904057212 0.0980226096 -0.4174717913 0.0980794561 -0.4174231553 -0.0706718798 0.2989171982
630296220.0 -0.0622877393 0.2914922742 0.0937232431 -0.4185341788 0.0934495844 -0.4185184328 -0.0674693993 0.2999602208
635296190.0 -0.0591683414 0.2927807802 0.0894429472 -0.4194755355 0.0887361797 -0.4194389126 -0.0642080871 0.3005560936
640296160.0 -0.0560357965 0.2931214405 0.0846360027 -0.4205247717 0.0842169955 -0.4201443388 -0.0608789646 0.3015270835
645296130.0 -0.0525593522 0.2940453076 0.0800405194 -0.4209250401 0.0799763771 -0.4209893314 -0.0581535911 0.3021997173
650296100.0 -0.0496333901 0.2948935845 0.0755625619 -0.4218830332 0.0750271036 -0.4223202512 -0.0541657512 0.3032545095
655296070.0 -0.0462235848 0.2956044201 0.0703141289 -0.4226714664 0.0709096169 -0.4228176339 -0.0520821784 0.3038467361
660296040.0 -0.0434578197 0.2966971893 0.0662986069 -0.4235587629 0.0661548565 -0.4233930614 -0.0482490494 0.3042080581
665296010.0 -0.0405197537 0.2971789216 0.0610793143 -0.4234676667 0.0614317529 -0.4239969383 -0.0452393053 0.3050452152
670295980.0 -0.0370796779 0.2979137232 0.0566893314 -0.4247803654 0.0566947421 -0.4240677465 -0.0422731519 0.3052931183
675295950.0 -0.0341291323 0.2985766227 0.0522987489 -0.4249480736 0.0522128641 -0.425322978 -0.0387381239 0.3064781921
680295920.0 -0.0310952676 0.2993211773 0.0477688547 -0.4256223528 0.0475459746 -0.425510876 -0.0352757403 0.3066744893
685295890.0 -0.0274393832 0.3000842737 0.0431022859 -0.4263178263 0.0430120611 -0.4261403777 -0.0322383971 0.3072339018
690295860.0 -0.0247662387 0.3003701125 0.0385741407 -0.426583867 0.0381375369 -0.4266364202 -0.0291964327 0.3081425367
695295830.0 -0.0216993072 0.3009168998 0.0343169808 -0.4267265549 0.0335307229 -0.4271332109 -0.025884892 0.3086232813
700295800.0 -0.0182001776 0.3017561118 0.0298551485 -0.427299195 0.0295627891 -0.4274311689 -0.0224567269 0.3085110768
705295770.0 -0.0153789396 0.3021560507 0.0243703529 -0.4272956444 0.0245019223 -0.4273835062 -0.0196046537 0.3089396069
710295740.0 -0.0126239662 0.3022117736 0.0204670634 -0.4274571175 0.0198539196 -0.4276659598 -0.0162546146 0.3096845598
715295710.0 -0.0090149606 0.302787995 0.0157670944 -0.4274352128 0.0155073159 -0.4277804158 -0.0128987814 0.3093797141
720295680.0 -0.0054541959 0.302972091 0.0105318972 -0.4276484425 0.0106587236 -0.4281359044 -0.0095471058 0.31010643
725295650.0 -0.0033376626 0.3037602395 0.006657264 -0.4280879842 0.0064600076 -0.4282236129 -0.0066421481 0.3104871449
730295620.0 -0.0003662057 0.3037735977 0.0017270084 -0.4279146225 0.0013635856 -0.4278545624 -0.003555142 0.3107861539
735295590.0 0.0028039462 0.3041784614 -0.0029148784 -0.4277027579 -0.003441893 -0.4280573405 0.0002612932 0.3105181305
740295560.0 0.0059816683 0.3041995634 -0.0076505261 -0.4280777784 -0.0073969481 -0.4280986769 0.0032840994 0.3111955099
745295530.0 0.0092944225 0.3046592294 -0.0117292455 -0.4271850067 -0.0116468753 -0.4279416834 0.0062722172 0.3109802156
750295500.0 0.0117393837 0.3045215599 -0.0161226149 -0.4272342573 -0.0168967266 -0.4276785461 0.0094624886 0.3110847734
755295470.0 0.0152042694 0.3049005025 -0.0206258507 -0.4276863123 -0.0214697852 -0.4275380907 0.0130783041 0.3112026462
760295440.0 0.017838489 0.3049909146 -0.0259389687 -0.4270050267 -0.0260611553 -0.4267000278 0.0162485906 0.310662536
765295410.0 0.021606464 0.3046780936 -0.030734473 -0.4262891521 -0.0303732292 -0.4268115427 0.0192915528 0.3109025434
770295380.0 0.0243325365 0.3050875436 -0.0349476382 -0.4258996588 -0.0351935662 -0.426492346 0.0227279708 0.3109531401
775295350.0 0.0274715115 0.3049640507 -0.0395877888 -0.4259890688 -0.0395548381 -0.4256956557 0.025907017 0.3106545967
780295320.0 0.0308154935 0.304841287 -0.043776654 -0.4251215891 -0.0441640838 -0.4252894303 0.0291336139 0.3106738081
785295290.0 0.0335064117 0.3047201175 -0.0486497807 -0.4249451516 -0.0485818426 -0.4249682212 0.032215446 0.310907554
790295260.0 0.0366543325 0.3047625573 -0.053377563 -0.4243557011 -0.0528989331 -0.4246241835 0.035507407 0.3108603414
795295230.0 0.0398077289 0.3040882112 -0.0580995649 -0.4236514913 -0.0582330598 -0.4240296417 0.0388292203 0.3098441201
800295200.0 0.0425640324 0.3043892298 -0.0618828547 -0.4228306793 -0.0624947497 -0.4230562887 0.0418595744 0.309670824
805295170.0 0.0454947877 0.3042720656 -0.0668544486 -0.4222160875 -0.0669015677 -0.4224374834 0.0456612082 0.309467574
810295140.0 0.0488276477 0.3037557997 -0.071475602 -0.4213630929 -0.0718972064 -0.4216090446 0.0487814654 0.3092917019
815295110.0 0.0517500797 0.3034753984 -0.0757408974 -0.4209354591 -0.075996314 -0.4207350507 0.0516447491 0.3088362611
820295080.0 0.0548543946 0.3032832007 -0.0803019677 -0.4195632711 -0.0802317117 -0.4201214921 0.0545418106 0.3090260514
825295050.0 0.057596865 0.3026340951 -0.0846899461 -0.4188493093 -0.0850570323 -0.4187906968 0.0584904186 0.3084497681
830295020.0 0.060982962 0.3021055826 -0.0894318654 -0.4176977536 -0.0896623061 -0.417937621 0.0610912687 0.3075388946
