!Created with skrf (http://scikit-rf.org).
# Hz S RI R 50.0 
!freq ReS11 ImS11 ReS21 ImS21 ReS12 ImS12 ReS22 ImS22
300000.0 -0.7770047838 -0.086932512 0.0014382952 0.0027609507 0.0014998856 0.0015574419 -0.7704781833 -0.1273121817
5299970.0 -0.7850769431 -0.0052574089 7.24705e-05 -0.0001680484 6.79134e-05 0.000163911 -0.7840115195 -0.0071775562
10299940.0 -0.7881033941 -0.003860964 5.2929e-05 -0.00021733 -3.58996e-05 -3.9027e-05 -0.7875661179 -0.0037243102
15299910.0 -0.7936707461 -0.0017223521 -4.19404e-05 3.08406e-05 -3.46152e-05 -5.17032e-05 -0.7930224899 -0.001353759
20299880.0 -0.7999147264 0.0026079469 3.59229e-05 5.37184e-05 -3.92652e-05 -5.0853e-05 -0.7995999929 0.0020100297
25299850.0 -0.8061535884 0.0077568625 -1.97251e-05 1.342e-07 -0.0001786367 -6.1333e-06 -0.8059772954 0.0081228568
30299820.0 -0.8121069786 0.0155414073 -5.71112e-05 0.0002177848 0.0001324635 -0.0001974583 -0.8121131997 0.0163469384
35299790.0 -0.8172332232 0.0250233554 -0.000181593 5.44137e-05 -8.88214e-05 4.784e-07 -0.8168201769 0.0252769057
40299760.0 -0.8215083654 0.034045612 -6.23134e-05 0.0001310395 -1.98572e-05 -0.0001034288 -0.8210296789 0.0347607323
45299730.0 -0.8251835016 0.0432926373 7.63708e-05 8.95392e-05 -2.92336e-05 2.16412e-05 -0.8252129132 0.0440562413
50299700.0 -0.8274479549 0.0531413205 5.23107e-05 0.0001160474 -9.0658e-05 -0.0001102035 -0.8271872889 0.0539814088
55299670.0 -0.8290327916 0.0633230284 3.33559e-05 -0.0001755606 -8.85241e-05 7.3329e-06 -0.8297831698 0.0643155127
60299640.0 -0.8306498611 0.0738842865 0.0001881248 -2.6259e-05 -7.97035e-05 5.27519e-05 -0.8302367811 0.0742301232
65299610.0 -0.8310632811 0.0836638829 1.43926e-05 8.04404e-05 -0.0001107064 7.04952e-05 -0.8320252929 0.0842626096
70299580.0 -0.8314424298 0.0937399701 -0.0001434225 -3.5655e-06 -9.16801e-05 5.61581e-05 -0.8319575942 0.0947274589
75299550.0 -0.8322015269 0.1042246488 6.38185e-05 0.0002733633 -0.0001357827 0.0001241685 -0.8322393093 0.1043860515
80299520.0 -0.832196582 0.1133391629 -0.000149584 -1.14194e-05 2.8967e-05 -2.35523e-05 -0.832356005 0.1142375575
85299490.0 -0.8311296183 0.123022514 8.74221e-05 2.26416e-05 -4.22915e-05 -0.0001808658 -0.8321123496 0.1237356137
90299460.0 -0.8297889356 0.1327180472 -0.0002013788 2.9044e-06 -9.64865e-05 0.0001314003 -0.8310309885 0.1332402762
95299430.0 -0.829285364 0.1419070373 -9.1756e-06 7.29363e-05 -0.0002062519 -2.84336e-05 -0.8289734133 0.1427780647
100299400.0 -0.8280951788 0.1511941505 -0.0001497303 0.0001091611 7.96546e-05 -5.69634e-05 -0.8288810921 0.1523034497
105299370.0 -0.8267354153 0.160282517 -0.0001144698 -0.0001863118 -8.42956e-05 0.0001140922 -0.8274684854 0.161316848
110299340.0 -0.8256874836 0.169605656 8.48267e-05 -0.000105425 -0.0002469054 1.67055e-05 -0.8257503083 0.1708425394
115299310.0 -0.8239331645 0.1789643107 0.0001001055 3.56817e-05 -0.0001450434 7.81072e-05 -0.8238495303 0.1796718301
120299280.0 -0.8221778081 0.1876316794 -1.3886e-05 -8.31028e-05 5.17735e-05 5.96959e-05 -0.822607721 0.1891228743
125299250.0 -0.8202638744 0.1962715888 1.59806e-05 3.17526e-05 1.6551e-06 -9.07677e-05 -0.8208219297 0.1977087
130299220.0 -0.8183957654 0.2052449151 -5.63299e-05 -9.94964e-05 -0.0001905166 -2.84726e-05 -0.8187348539 0.2070325816
135299190.0 -0.8172025692 0.2140979852 -0.0001248512 0.0001592361 1.71391e-05 0.0002114774 -0.8163794538 0.2161961928
140299160.0 -0.8143939218 0.2235304386 6.93889e-05 0.0001312851 -2.3376e-06 5.0292e-06 -0.8139191265 0.2250658357
145299130.0 -0.8123811641 0.2322388043 3.26388e-05 -2.973e-06 5.68167e-05 -0.0001129385 -0.8119843061 0.2343882142
150299100.0 -0.8101119303 0.2410753158 -0.0001717799 -6.74668e-05 -0.0001794494 -0.0001480585 -0.8103271503 0.2433233125
155299070.0 -0.8074617058 0.2496771002 1.27603e-05 5.86825e-05 -0.0001416326 6.86178e-05 -0.8070841269 0.2520121594
160299040.0 -0.804944025 0.2585538348 7.54651e-05 0.0001485415 9.97738e-05 0.0001165862 -0.8053068676 0.2610807652
165299010.0 -0.8030751339 0.2667732746 1.97107e-05 -7.42779e-05 0.000155091 -0.0002126739 -0.8024610163 0.2698034944
170298980.0 -0.7998360404 0.2754220721 0.0001515767 0.0001924211 -2.24637e-05 0.0001978232 -0.7989032572 0.2779851246
175298950.0 -0.7968065464 0.2842735542 0.0002254651 0.0001431032 3.36767e-05 -8.99874e-05 -0.7967417733 0.286972691
180298920.0 -0.7947981051 0.2933388594 -0.000112438 2.18556e-05 -7.35357e-05 -0.0001247063 -0.7938064881 0.2952829901
185298890.0 -0.7907871064 0.3011906517 9.47812e-05 -0.000113815 -0.0001897563 5.5695e-06 -0.790319766 0.3041975131
190298860.0 -0.788188521 0.3095401829 9.07346e-05 9.2611e-06 2.27304e-05 -0.0002483226 -0.7875432894 0.3126452208
195298830.0 -0.7853632534 0.3179381488 -0.0002562098 -8.68799e-05 -0.0001633555 1.2593e-06 -0.7844967402 0.3213631723
200298800.0 -0.7811379264 0.3263190916 -0.0001729194 -5.73645e-05 3.87405e-05 4.1315e-05 -0.7814476358 0.3295119415
205298770.0 -0.7779540005 0.334576176 -0.0003459117 -0.0001342648 -0.0002358828 0.0001444864 -0.7771922015 0.3375698774
210298740.0 -0.7750583103 0.3426988045 0.0002119473 4.99422e-05 -8.07733e-05 0.0002163305 -0.7744770522 0.34613901
215298710.0 -0.7715908926 0.3508176515 -5.89063e-05 0.0002739229 4.79577e-05 0.0001384848 -0.7705412666 0.3543088832
220298680.0 -0.7671882754 0.358883814 -0.0001581372 -7.68113e-05 6.58043e-05 -4.43862e-05 -0.7672678578 0.3622340727
225298650.0 -0.7639832672 0.3670199194 0.0003211258 -2.70875e-05 8.48081e-05 3.19163e-05 -0.7636855497 0.3708365441
230298620.0 -0.7603979715 0.3748089169 -0.0003089896 -1.76118e-05 -0.0002177314 -0.0001052676 -0.7604464112 0.3783125726
235298590.0 -0.755978869 0.3836847598 -0.0002342376 3.23941e-05 -1.10909e-05 -0.0001360562 -0.7559288924 0.3870670376
240298560.0 -0.7521955825 0.3915476951 5.83585e-05 -0.0002872194 -0.0001155517 -4.02502e-05 -0.7516602576 0.3956797789
245298530.0 -0.7485332267 0.3988820172 6.08222e-05 -0.000116803 1.22692e-05 0.0001586477 -0.7481878111 0.4028903598
250298500.0 -0.7441958505 0.4068511406 -5.79521e-05 8.95568e-05 -4.67146e-05 -8.02225e-05 -0.7431941267 0.4106358233
255298470.0 -0.7395370002 0.4141754529 -0.0001688269 2.59865e-05 -9.61999e-05 6.66828e-05 -0.7392684925 0.4181416825
260298440.0 -0.7352737536 0.4220060321 9.31073e-05 -2.63852e-05 3.7796e-06 7.227e-06 -0.734463752 0.4260652197
265298410.0 -0.7310554721 0.4302821154 0.0002005164 6.29133e-05 -7.2013e-05 4.91479e-05 -0.730671887 0.4343664723
270298380.0 -0.7270095882 0.4375082583 -3.94282e-05 -1.04894e-05 -0.0001348558 5.1983e-05 -0.7257407618 0.4409866175
275298350.0 -0.7219356435 0.4449413842 9.11341e-05 -0.0001572652 4.22666e-05 -2.61524e-05 -0.721104079 0.4489602163
280298320.0 -0.7167708056 0.4526188129 -9.0055e-06 0.0001306166 6.29142e-05 0.0001369298 -0.7158284806 0.4563377325
285298290.0 -0.7127806185 0.4608243121 -3.18624e-05 -0.0001095365 0.0001631762 3.45044e-05 -0.7110521199 0.4635774947
290298260.0 -0.7079210811 0.467486665 -9.174e-05 -0.0001893785 -8.1668e-05 -3.61622e-05 -0.7062290937 0.4711538282
295298230.0 -0.7018996112 0.4747692521 -5.31009e-05 0.0002380933 1.66295e-05 -4.0362e-06 -0.701130102 0.4779767025
300298200.0 -0.6976407496 0.4820084624 6.47059e-05 -2.22828e-05 0.0001011443 -8.6488e-05 -0.6959929673 0.4854115016
305298170.0 -0.6924164038 0.4888164545 7.76801e-05 7.29044e-05 -0.0001275329 0.0001219475 -0.6899466111 0.4933298559
310298140.0 -0.686844114 0.4959451619 -0.0002923495 -0.0001610386 0.0002211886 7.67047e-05 -0.6858595033 0.4995319363
315298110.0 -0.6823127532 0.5028856956 -2.76721e-05 -0.0002063307 2.71331e-05 -0.000162364 -0.6802571976 0.5071378453
320298080.0 -0.6773599591 0.5102414589 7.53152e-05 3.7805e-06 8.54298e-05 1.84e-08 -0.6744457504 0.5148424082
325298050.0 -0.6714887292 0.5180311908 -0.0001530172 3.3764e-05 0.0001130304 4.55475e-05 -0.669143473 0.5214634286
330298020.0 -0.6661543963 0.5245240045 -3.30962e-05 -0.0001358035 -1.97692e-05 0.0001144531 -0.6632391893 0.5282742783
335297990.0 -0.6604478121 0.5302049831 -9.92211e-05 -2.66985e-05 7.87583e-05 9.02243e-05 -0.6579088461 0.5359621571
340297960.0 -0.6552659898 0.5376577237 0.0001537035 -7.34307e-05 0.0001945095 3.66113e-05 -0.6521495175 0.5425569791
345297930.0 -0.6496613358 0.5443403385 0.0002309472 -4.8369e-05 -3.2824e-05 -4.361e-06 -0.6469238942 0.5486932787
350297900.0 -0.6437258177 0.5514530882 0.000188424 -0.0001090812 -0.0001457179 2.0271e-05 -0.6415827692 0.5557869178
355297870.0 -0.6380258823 0.5585528268 0.0002975563 -3.65628e-05 3.04219e-05 9.5221e-05 -0.6349485878 0.5615879964
360297840.0 -0.6326212891 0.5640118969 3.24987e-05 0.0003442348 0.0001290136 -2.70959e-05 -0.6294218597 0.5690728099
365297810.0 -0.6273709443 0.5708807842 9.3846e-06 3.83308e-05 -3.86926e-05 0.0003815203 -0.623346477 0.5756982995
370297780.0 -0.6209420762 0.576964009 9.45803e-05 0.0001477855 -3.6479e-06 -7.07499e-05 -0.6175046086 0.5824653642
375297750.0 -0.6143422983 0.5837020819 0.0001275006 -4.3654e-06 9.88735e-05 1.98653e-05 -0.611585991 0.5881384832
380297720.0 -0.6086598928 0.5893030693 0.0001647462 2.41037e-05 -3.32407e-05 4.7135e-05 -0.605529198 0.5943323688
385297690.0 -0.6029509242 0.5957507952 8.81435e-05 -3.25865e-05 -5.7651e-05 -0.0002512763 -0.5986622082 0.6011538808
390297660.0 -0.5965372468 0.6017188524 8.94383e-05 4.01977e-05 -7.82004e-05 5.03148e-05 -0.5931727958 0.6073437892
395297630.0 -0.5902195518 0.60816815 -3.67184e-05 0.0001806903 -0.0002016882 -0.000126168 -0.5862900849 0.6138190165
400297600.0 -0.5835890682 0.6139101822 2.8923e-05 -0.0001759979 0.0001229359 -2.90684e-05 -0.5802864531 0.6191564256
405297570.0 -0.5777482134 0.6197894572 0.0001829103 -8.21241e-05 -6.78421e-05 -0.0001382773 -0.5743565678 0.6254326385
410297540.0 -0.5713535598 0.6253294058 -9.42077e-05 -0.0001047543 -3.73874e-05 -5.30394e-05 -0.5672169924 0.6310309654
415297510.0 -0.5641247507 0.6310816463 4.03672e-05 1.64197e-05 0.0002838631 0.0002953339 -0.5605491799 0.636757636
420297480.0 -0.558127252 0.6373088934 -7.14682e-05 0.000153497 -0.0002137961 -7.34993e-05 -0.5539475925 0.6429450409
425297450.0 -0.5517069065 0.6421804317 3.28327e-05 -7.34712e-05 -8.0437e-05 -7.34608e-05 -0.5478833886 0.6482342714
430297420.0 -0.5448122931 0.6483577123 0.0001307546 -9.35763e-05 4.63913e-05 9.17376e-05 -0.5409677033 0.6528497554
435297390.0 -0.5382837307 0.6532915254 0.000111213 0.0001081259 5.21365e-05 1.90688e-05 -0.5338250675 0.6588546943
440297360.0 -0.5315780262 0.6587264944 -0.0001166017 -9.45326e-05 0.000126755 8.81435e-05 -0.5276485213 0.6638714056
445297330.0 -0.5245821952 0.6644331823 0.0003829612 0.0002191148 -6.04483e-05 -3.61886e-05 -0.5206022775 0.6687403737
450297300.0 -0.5174805941 0.6693563528 -2.08979e-05 0.0002567368 0.0001573915 -5.33309e-05 -0.5131982988 0.6742163112
455297270.0 -0.5109873129 0.6742894049 -0.0002247379 -0.000289269 -0.0001487731 0.0002426158 -0.5063796582 0.6788117234
460297240.0 -0.5046119785 0.6799387749 7.56882e-05 -0.0002798011 1.88663e-05 9.99919e-05 -0.4993894142 0.6841972875
465297210.0 -0.4973236053 0.6853157687 -5.25544e-05 0.0002360948 -0.0001987399 9.37619e-05 -0.4920264011 0.6892940987
470297180.0 -0.4897808952 0.690343058 -9.03987e-05 2.353e-06 3.6772e-06 0.0001423876 -0.4846198518 0.694448713
475297150.0 -0.4832019435 0.6941983581 -0.0001116127 -0.0001172532 7.4753e-05 0.0001661447 -0.4775065951 0.6985824061
480297120.0 -0.4761416562 0.6996001205 8.51544e-05 1.48215e-05 8.24264e-05 -1.75385e-05 -0.4698568314 0.7038582921
485297090.0 -0.4686210106 0.7041872816 -6.97339e-05 -9.09443e-05 -2.22955e-05 0.0001155337 -0.4629866219 0.7084709482
490297060.0 -0.4617574489 0.7087872077 -2.40618e-05 -8.15816e-05 -1.22344e-05 0.0001851682 -0.4555036074 0.7122341915
495297030.0 -0.4546697004 0.7136027107 0.0001239109 7.24643e-05 0.0001582741 6.92789e-05 -0.4482599938 0.7176610331
500297000.0 -0.447152129 0.7177761477 -0.0001979739 -8.77215e-05 4.00492e-05 1.66495e-05 -0.4404086853 0.7226420756
505296970.0 -0.4399844928 0.722774065 0.0001601964 0.000338221 1.89313e-05 8.39993e-05 -0.43355704 0.726809049
510296940.0 -0.432531112 0.7269388355 7.85622e-05 -2.61945e-05 1.3903e-05 -6.35084e-05 -0.426000271 0.731288505
515296910.0 -0.4246438782 0.730830523 3.88505e-05 -5.58564e-05 -2.83936e-05 -0.0001234425 -0.4187627613 0.7355652731
520296880.0 -0.4184480789 0.735643428 2.94396e-05 1.15885e-05 0.0003073613 4.86457e-05 -0.4111854981 0.7396280023
525296850.0 -0.4095303832 0.7393549487 -9.01505e-05 0.0001065008 4.91915e-05 4.58292e-05 -0.4040192222 0.7442071526
530296820.0 -0.4023969567 0.7437686658 0.0001556886 -3.9839e-06 -9.845e-05 7.94346e-05 -0.3960430379 0.7478839281
535296790.0 -0.3956065118 0.74761632 6.46407e-05 -0.0001133779 -2.54014e-05 -2.269e-07 -0.3891256414 0.7517379535
540296760.0 -0.3874404175 0.7506455242 -0.0001071457 0.0001599596 8.56953e-05 5.44746e-05 -0.3804775866 0.7558564813
545296730.0 -0.3806254154 0.7555353206 -0.0001518131 1.51101e-05 4.29395e-05 -0.0001022953 -0.372928717 0.7597536754
550296700.0 -0.3728419961 0.7590583999 3.06821e-05 7.05788e-05 0.0001673374 0.0001838979 -0.3655183772 0.7634811056
555296670.0 -0.3641254681 0.762113425 0.0002556009 9.13036e-05 -4.82562e-05 6.07077e-05 -0.357560288 0.7677909389
560296640.0 -0.3567927201 0.7665516302 -3.48257e-05 -0.0001119838 -0.0001843994 0.0001623188 -0.3501436433 0.7713325454
565296610.0 -0.3493734051 0.7695249673 9.17663e-05 0.0001392698 -0.0001192181 -2.5318e-06 -0.342488663 0.7741366426
570296580.0 -0.3414955116 0.7724621299 0.0002810462 -0.0001052755 3.79548e-05 -6.42602e-05 -0.3344570763 0.7777840676
575296550.0 -0.3343688537 0.7769606804 -0.0002011335 0.0002243332 2.46456e-05 -9.0861e-06 -0.326260104 0.7814234943
580296520.0 -0.3253355292 0.7800353175 -0.0001246278 -0.000308279 -7.26369e-05 -0.0001485673 -0.3183133901 0.7842184597
585296490.0 -0.318144012 0.7829009584 -0.0001047672 2.71598e-05 0.000200588 1.6919e-06 -0.310324714 0.7877366091
590296460.0 -0.3099443493 0.7856581182 -9.58748e-05 3.3481e-06 -2.22004e-05 0.0001064473 -0.3028059491 0.7904021122
595296430.0 -0.3024445563 0.7885890852 0.0001796756 8.71161e-05 -2.31151e-05 -0.0002734504 -0.2943706549 0.7924466802
600296400.0 -0.2944077761 0.7920225819 7.37635e-05 -9.74521e-05 -1.76555e-05 -7.3038e-06 -0.2865457459 0.795807234
605296370.0 -0.2872972538 0.7945362826 5.98263e-05 -2.31021e-05 -3.14342e-05 4.03747e-05 -0.2777117651 0.7985733098
610296340.0 -0.2785554587 0.7972547383 8.53273e-05 0.0001964583 -3.57574e-05 -0.0002128813 -0.270274398 0.8011194285
615296310.0 -0.2698954369 0.8002450281 -8.8923e-06 8.86326e-05 -0.0001905927 -1.00636e-05 -0.2614149873 0.803541759
620296280.0 -0.2620145175 0.802047212 0.0001596428 5.76267e-05 7.77677e-05 7.73632e-05 -0.253792532 0.8063613518
625296250.0 -0.2539007615 0.8051692606 -9.19969e-05 -1.11083e-05 -0.0001691272 -0.0001216311 -0.2453458786 0.8082306296
630296220.0 -0.245683986 0.8076173015 8.07815e-05 1.85152e-05 -3.99079e-05 -0.0001787168 -0.2372035449 0.8107713788
635296190.0 -0.2376405855 0.8102758238 0.0001472202 7.30304e-05 0.0002867705 -6.26099e-05 -0.2293610394 0.8128278419
640296160.0 -0.2306763907 0.8121752689 -0.0001516197 6.6021e-05 -0.0001639092 -4.68169e-05 -0.2210218991 0.8155561278
645296130.0 -0.2219140158 0.814820203 0.0001143441 -5.2574e-05 -8.31161e-05 -0.0002999457 -0.2126730603 0.8177803123
650296100.0 -0.2139382337 0.8163955462 -0.000271049 -6.36749e-05 -0.0002002879 0.0002144222 -0.2041638416 0.8187076389
655296070.0 -0.2055780873 0.8193485371 -0.0001004914 -4.96752e-05 0.0001067898 -7.8415e-05 -0.1954498877 0.82088422
660296040.0 -0.1971986222 0.8206831862 -2.27175e-05 -4.64481e-05 -1.6247e-06 -3.00523e-05 -0.1872381119 0.823280475
665296010.0 -0.1889054982 0.8222476349 -8.42882e-05 -0.0001148292 -4.172e-05 0.0001686051 -0.1785451357 0.8252394505
670295980.0 -0.1814251554 0.8247277716 2.5178e-06 6.7458e-06 0.0001668307 -5.24189e-05 -0.1712497014 0.8264872541
675295950.0 -0.1729682036 0.8260026933 -7.45979e-05 -9.48483e-05 -1.54537e-05 3.14123e-05 -0.1630357111 0.8288252235
680295920.0 -0.1642229998 0.8283106915 3.28767e-05 -7.25328e-05 -6.9591e-06 0.0001274756 -0.1543186682 0.830644293
685295890.0 -0.155647095 0.8302211791 -0.0002663787 8.87036e-05 3.31673e-05 7.44705e-05 -0.1459244783 0.8313279227
690295860.0 -0.1481537702 0.8308940896 6.62229e-05 3.43255e-05 1.4065e-05 0.0001425493 -0.1380614838 0.8337463478
695295830.0 -0.1399206591 0.8316279426 -7.45062e-05 -0.00023019 -0.0001179306 2.65503e-05 -0.1285640435 0.8345216237
700295800.0 -0.1317169176 0.8336688619 -0.0001646021 -0.0002137251 9.97551e-05 2.35253e-05 -0.1215470148 0.8359876349
705295770.0 -0.1235110428 0.8354260954 -0.0002510247 -4.6969e-05 -6.37152e-05 1.39978e-05 -0.112598116 0.838474808
710295740.0 -0.1150424409 0.8366514733 -9.94895e-05 -0.0001025473 3.23799e-05 -0.000109544 -0.103845413 0.83844127
715295710.0 -0.1060491425 0.8371695639 -0.0001410957 7.77685e-05 -9.20889e-05 -0.0001800127 -0.0958237785 0.839769227
720295680.0 -0.0981937674 0.8389320681 0.0001668721 -9.37019e-05 0.0003399954 3.9539e-06 -0.0873312013 0.8409466218
725295650.0 -0.090273403 0.8395708483 -4.10696e-05 -6.1443e-06 -5.1019e-06 0.000134192 -0.0791459121 0.8422534782
730295620.0 -0.0813030212 0.8402319191 -0.0002391927 2.98026e-05 -7.38952e-05 -1.5833e-05 -0.0713272371 0.842393442
735295590.0 -0.0736929367 0.8411892699 2.92106e-05 0.0001472814 -2.93361e-05 0.0002367741 -0.0628395854 0.842859424
740295560.0 -0.065180481 0.8422335273 -1.80314e-05 -6.30066e-05 0.000111058 0.0002159379 -0.0537777216 0.8438490679
745295530.0 -0.0564994541 0.842578706 1.06621e-05 0.0001348353 -0.0001091312 2.54158e-05 -0.0457701753 0.8440680815
750295500.0 -0.047707056 0.8427081414 -2.78956e-05 -4.95381e-05 7.5986e-06 0.0002293196 -0.0376320384 0.8445937689
755295470.0 -0.039900876 0.8432848911 -0.0001481216 0.0001277468 7.12234e-05 -8.88819e-05 -0.028956389 0.8441089844
760295440.0 -0.0316652274 0.8427464708 0.0001511199 -4.25413e-05 1.37836e-05 2.99395e-05 -0.0205132314 0.8445154558
765295410.0 -0.0236890579 0.8440258986 -4.93087e-05 0.0002473014 0.0001263962 -6.87641e-05 -0.0116795448 0.8450931119
770295380.0 -0.015132097 0.843741134 9.4579e-06 5.46977e-05 -1.76125e-05 6.51685e-05 -0.0037227231 0.8444961823
775295350.0 -0.006429773 0.844193932 1.11577e-05 0.0001592101 -0.0001251537 0.0001310327 0.0043009464 0.8440181925
780295320.0 0.0018976757 0.8441130212 2.95782e-05 -3.16067e-05 -2.3939e-05 -9.74697e-05 0.0127474969 0.8443814429
785295290.0 0.0096281387 0.8434013368 0.0001555697 0.0001493531 4.21141e-05 0.0001536223 0.0217294499 0.8440634557
790295260.0 0.0184939353 0.843658856 0.0001862383 -8.37902e-05 -0.0001085999 3.83119e-05 0.0303445884 0.8440674304
795295230.0 0.0264870201 0.8436551516 -0.0001533615 4.20011e-05 -0.0002578703 -7.26727e-05 0.0392126099 0.8427586664
800295200.0 0.0344620237 0.8425696341 -8.21215e-05 -8.30816e-05 -1.42642e-05 -8.9118e-05 0.0473278943 0.8425520408
805295170.0 0.0436615759 0.8428803093 -6.19837e-05 -0.0002031297 -1.07371e-05 -6.78125e-05 0.0552451699 0.8424084697
810295140.0 0.0515692314 0.8419086223 0.0003569906 -0.0001137119 -7.96465e-05 4.051e-06 0.063937404 0.8415144951
815295110.0 0.0598609755 0.8414789624 -6.0809e-05 0.0001005804 0.0001655517 -8.09379e-05 0.0723200111 0.8406575635
820295080.0 0.0682256157 0.8412776549 0.000127412 9.11328e-05 -1.74843e-05 0.0001262506 0.0802757844 0.8403984919
825295050.0 0.0772172593 0.8402513504 0.000112106 4.238e-07 2.30399e-05 8.59083e-05 0.0889675014 0.8397945224
830295020.0 0.0843778871 0.8394314273 5.67998e-05 4.01295e-05 -4.63533e-05 0.0001248417 0.0986130029 0.8380085106
835294990.0 0.0927969645 0.8388110609 -0.0001030058 2.61528e-05 3.13235e-05 4.7621e-06 0.105571999 0.8375466679
840294960.0 0.1005791826 0.8382153992 0.0001609811 -0.0001165761 -0.0001200016 0.0001391527 0.1139281862 0.8360931797
845294930.0 0.1096470991 0.836916025 0.0001431768 7.3278e-06 -1.89909e-05 2.70656e-05 0.1222394209 0.8348783098
850294900.0 0.1177266889 0.8360183253 -0.0001419224 0.0001746721 4.84808e-05 4.04043e-05 0.1307211447 0.8335487178
