!Created with skrf (http://scikit-rf.org).
# Hz S RI R 50.0 
!freq ReS11 ImS11 ReS21 ImS21 ReS12 ImS12 ReS22 ImS22
300000.0 -0.2406505165 -0.0877407101 0.4721493505 0.0597637828 0.4715332093 0.057331233 -0.2404611922 -0.0989882318
5299970.0 -0.2450827761 0.0065438706 0.4751414565 0.0052242355 0.4749909972 0.0049819025 -0.2410857953 0.0074934221
10299940.0 -0.2417374773 0.0178841921 0.4762008255 0.0059708995 0.4768668183 0.0059786714 -0.2375823104 0.0206288164
15299910.0 -0.2374722932 0.0269052815 0.4805474168 0.0074482144 0.4805377608 0.0074300611 -0.2330238822 0.0302401647
20299880.0 -0.2328352483 0.0339561046 0.4852216169 0.0081301054 0.4850347955 0.0081478475 -0.2277767588 0.038166028
25299850.0 -0.2276905876 0.0402735783 0.490136449 0.007208616 0.4900042055 0.007371576 -0.2218811452 0.0446304783
30299820.0 -0.2224334293 0.0451907408 0.4955141989 0.0047801693 0.4955076261 0.004773684 -0.2159482612 0.0501526766
35299790.0 -0.2174341076 0.0491312465 0.5009697674 0.0014331001 0.5006631658 0.0014914896 -0.2105354679 0.0544723624
40299760.0 -0.2125896671 0.0524164672 0.505603301 -0.0023801745 0.5061995476 -0.0025199615 -0.2053904355 0.0576315495
45299730.0 -0.2078463942 0.054915458 0.5107532498 -0.0073407293 0.5107899717 -0.0069350106 -0.2003815381 0.0605441344
50299700.0 -0.2038782965 0.056661099 0.5149356476 -0.0124593863 0.5146654937 -0.0122981989 -0.1954719399 0.0624523054
55299670.0 -0.1999817757 0.0583813248 0.5188165469 -0.019239831 0.5186928329 -0.0187375673 -0.1914147275 0.0642909708
60299640.0 -0.1959864674 0.060105127 0.5221023329 -0.0250643679 0.5220588878 -0.0243516357 -0.1874938444 0.0652885969
65299610.0 -0.1928524495 0.0608106558 0.5246672835 -0.0312807784 0.5246784594 -0.0312855802 -0.184151302 0.066648615
70299580.0 -0.1900267067 0.0620756157 0.5270063495 -0.0378774328 0.5270369223 -0.037552708 -0.1809031947 0.06741655
75299550.0 -0.1873793329 0.0631544111 0.5292186877 -0.0446055268 0.5290175376 -0.0444574718 -0.1778677018 0.0683683426
80299520.0 -0.1846459184 0.0638275549 0.5305798931 -0.0519527373 0.5309059505 -0.0513237269 -0.1751678851 0.0688314615
85299490.0 -0.1824714239 0.0640193672 0.5321912496 -0.0579594776 0.5323365105 -0.0579677787 -0.173142397 0.0696371122
90299460.0 -0.1803567294 0.0648121121 0.5327146757 -0.0655197265 0.5335737016 -0.0653701212 -0.1703200533 0.0704703689
95299430.0 -0.1781763422 0.0653652903 0.5340772427 -0.0722279171 0.5343932047 -0.0724132956 -0.1684087209 0.0713035345
100299400.0 -0.1767697163 0.0665260216 0.5340177982 -0.0789408395 0.5341508292 -0.0791465931 -0.16583324 0.0717253859
105299370.0 -0.1749373755 0.0666706463 0.534469611 -0.0863721156 0.5348641693 -0.0863345636 -0.1639346436 0.0722251405
110299340.0 -0.1733858134 0.0674527407 0.535017324 -0.0925777646 0.5349501359 -0.0923633633 -0.1628908696 0.072695605
115299310.0 -0.1719874545 0.0682253338 0.5349026669 -0.0996307839 0.5346632244 -0.0994113763 -0.1609108567 0.073711487
120299280.0 -0.1707169843 0.0685069978 0.5342691432 -0.1064528174 0.5345126887 -0.1065193458 -0.1593944224 0.0742464079
125299250.0 -0.1696000743 0.0692742111 0.5345337941 -0.1127286477 0.5345319992 -0.112954684 -0.1584636165 0.0745955115
130299220.0 -0.1685108046 0.0705338126 0.5333613816 -0.1203536471 0.5336056459 -0.1199062948 -0.1570629841 0.0759433499
135299190.0 -0.1677225315 0.0712767504 0.5334165972 -0.1265884202 0.5328101287 -0.126179168 -0.1558619115 0.0767222684
140299160.0 -0.1665366913 0.0720096698 0.5321987744 -0.1333419318 0.5322242521 -0.1332271072 -0.1542901655 0.0781377331
145299130.0 -0.1657855152 0.0729657778 0.531651476 -0.1394947955 0.5305244109 -0.1394716411 -0.1535788851 0.0790481949
150299100.0 -0.164595861 0.0739291337 0.530072106 -0.1459888348 0.5298268123 -0.1458004452 -0.152417266 0.0803141861
155299070.0 -0.1639013312 0.0746318118 0.5290103315 -0.1531799988 0.5288837285 -0.1526201236 -0.1510010098 0.081145634
160299040.0 -0.1628782213 0.0758961672 0.5275766319 -0.1589281935 0.5268580801 -0.1594505514 -0.150731275 0.0820798529
165299010.0 -0.1622197331 0.0768558571 0.5257389696 -0.1658926302 0.5258385061 -0.1657522819 -0.1490630883 0.0837099527
170298980.0 -0.1614558059 0.0776581251 0.5240297463 -0.1720873907 0.5246046482 -0.1720492989 -0.1481954084 0.0846919159
175298950.0 -0.1607373901 0.0789644205 0.5230969651 -0.1778046349 0.5224697287 -0.1782648954 -0.1474249939 0.085769725
180298920.0 -0.1599203693 0.0801185187 0.5209699022 -0.1844943159 0.5208883243 -0.1843835259 -0.1465921152 0.0874033963
185298890.0 -0.1590040117 0.0810279799 0.5190368741 -0.1904215299 0.5189627613 -0.1905862066 -0.145641997 0.0884675006
190298860.0 -0.1584421006 0.0823883449 0.5177457607 -0.1970331972 0.5175110397 -0.1966956146 -0.1450342185 0.0896937871
195298830.0 -0.1578697748 0.0831211846 0.5152053709 -0.2029527961 0.5155029581 -0.2027710063 -0.1439226883 0.0907794052
200298800.0 -0.156832655 0.0846591305 0.5132211224 -0.2092255696 0.5132271676 -0.2090401371 -0.1432089228 0.0924206601
205298770.0 -0.1560671083 0.0860157206 0.5107158153 -0.2153266106 0.5110464715 -0.2151678596 -0.1422092992 0.0935243571
210298740.0 -0.1554085174 0.0868817042 0.5085978454 -0.2203248356 0.5086702912 -0.2205631736 -0.1407958545 0.0949214392
215298710.0 -0.1550257365 0.0882650294 0.5058904501 -0.2270473357 0.5063843196 -0.2272797294 -0.140470453 0.0968683266
220298680.0 -0.1540195765 0.0892097016 0.5037264181 -0.2329564917 0.503623076 -0.2330585312 -0.1395531403 0.0977703816
225298650.0 -0.1534730851 0.090546061 0.5014150651 -0.238788317 0.5015934024 -0.2388102572 -0.1387289244 0.0989874448
230298620.0 -0.1524135377 0.092388543 0.4988913865 -0.2445504099 0.4992544228 -0.24433851 -0.1378995136 0.099908467
235298590.0 -0.1517949051 0.0938675217 0.496388407 -0.2505989971 0.4963732851 -0.2499175654 -0.1369550437 0.1015827096
240298560.0 -0.1508479245 0.0949060316 0.4938916599 -0.2562365022 0.4936339598 -0.2559877788 -0.1357763756 0.1032473438
245298530.0 -0.1504971245 0.0962222347 0.4914684694 -0.2619189247 0.490933618 -0.2616957852 -0.1346077929 0.1037997983
250298500.0 -0.1491819691 0.0975575858 0.4875450603 -0.2674038271 0.4876314183 -0.267086902 -0.1340941372 0.1054494094
255298470.0 -0.1486512203 0.0986545867 0.4845506364 -0.2721164238 0.4848724708 -0.2724593398 -0.1327508465 0.1067745595
260298440.0 -0.1479940202 0.1000733756 0.4819526521 -0.2786661288 0.4822538492 -0.2782664143 -0.1312949516 0.1082418554
265298410.0 -0.1467936072 0.1017572818 0.478535782 -0.2837199515 0.4792536067 -0.2838068997 -0.1309985251 0.1097997011
270298380.0 -0.1460575741 0.1028128814 0.4761233571 -0.2890930976 0.4763328182 -0.2892722386 -0.1297017504 0.1109936333
275298350.0 -0.1450338346 0.1042944047 0.4727261682 -0.2949692128 0.4733443899 -0.2949077453 -0.128359721 0.1122042951
280298320.0 -0.1438300906 0.1057193208 0.469934556 -0.3001868425 0.4696915087 -0.3000078901 -0.1264697754 0.1138064978
285298290.0 -0.143034808 0.1071471303 0.4666995749 -0.3056824992 0.4663065376 -0.305405521 -0.1259089983 0.1151386657
290298260.0 -0.1417965394 0.108483831 0.4630145001 -0.3105901712 0.4634010709 -0.310904199 -0.1245738594 0.1165492738
295298230.0 -0.1407358839 0.109608858 0.4596180903 -0.3158239015 0.4597714029 -0.3160622046 -0.1227697605 0.1174410348
300298200.0 -0.1402804469 0.1110519298 0.4567739326 -0.3208189966 0.4564946935 -0.3212810536 -0.1217926266 0.1190090174
305298170.0 -0.1389897115 0.1121414653 0.4526381849 -0.3267183074 0.453020864 -0.3265629787 -0.1202690351 0.1202874421
310298140.0 -0.1381760867 0.1137238419 0.4494474098 -0.3317129369 0.4494734251 -0.3313181544 -0.1190224786 0.1216511275
315298110.0 -0.1369808634 0.1141478958 0.4459302787 -0.3367209573 0.4453904929 -0.3363790152 -0.1178269394 0.1227769624
320298080.0 -0.1357956254 0.1158288157 0.4415196565 -0.3421164612 0.4419939742 -0.3418182294 -0.1162427824 0.1241585861
325298050.0 -0.1350556294 0.1171408064 0.4378465591 -0.3472458209 0.4378147008 -0.346781255 -0.1155940594 0.125391317
330298020.0 -0.1340665754 0.1181864712 0.4336735061 -0.3518067188 0.4341385053 -0.3519600045 -0.1144743317 0.1268000258
335297990.0 -0.1329687761 0.119212267 0.4295787176 -0.3565311252 0.429580975 -0.3567830345 -0.1133064987 0.1285696449
340297960.0 -0.132792697 0.1211011018 0.4255794961 -0.3614666164 0.4254017965 -0.3616053259 -0.1113700112 0.1297140208
345297930.0 -0.1313981969 0.1224365722 0.4215698777 -0.3663630832 0.421399828 -0.3662999112 -0.1104783466 0.1305970796
350297900.0 -0.1306700236 0.1235930042 0.4171086246 -0.371093142 0.4173767819 -0.3708072859 -0.1092066877 0.1326366135
355297870.0 -0.1292307801 0.1254691221 0.4130775309 -0.375294346 0.4134731074 -0.3750967454 -0.108142959 0.1335859114
360297840.0 -0.1282614771 0.1267969762 0.409481928 -0.379742949 0.409788751 -0.3797476291 -0.1067918075 0.13521578
365297810.0 -0.1272226666 0.1283542055 0.4050289385 -0.3843813697 0.4053699149 -0.3845950947 -0.1052191352 0.1367739216
370297780.0 -0.1255372683 0.1293865953 0.4004644062 -0.3885367936 0.4011722984 -0.388519625 -0.1038147699 0.1380141327
375297750.0 -0.1244681668 0.1308017222 0.3963475382 -0.3932529654 0.3968447976 -0.3932000056 -0.1023204147 0.1391445676
380297720.0 -0.1235221822 0.1319902974 0.3924556256 -0.3976459364 0.3923031234 -0.3970812655 -0.1012985819 0.1403391863
385297690.0 -0.1225166539 0.1332545813 0.3877085286 -0.402046339 0.3876168548 -0.4017592243 -0.0994250316 0.1418610955
390297660.0 -0.121329034 0.1350523682 0.3832129203 -0.406112625 0.3831399592 -0.4057801057 -0.0985117684 0.1427634509
395297630.0 -0.1198120415 0.1362382832 0.3789487769 -0.4101668364 0.3789638645 -0.4103340604 -0.095969419 0.1444298017
400297600.0 -0.1185774986 0.13769818 0.3738165592 -0.4150749912 0.3744441748 -0.414351958 -0.0949675796 0.1454933649
405297570.0 -0.1178073579 0.1386167551 0.3701240825 -0.4181385316 0.3698593554 -0.4183025706 -0.093958837 0.1467227428
410297540.0 -0.1160197962 0.1398171553 0.3653446985 -0.4226351688 0.3655438325 -0.4224222528 -0.0919357183 0.1481109572
415297510.0 -0.1147607638 0.1411286305 0.360100177 -0.4268038111 0.3610467099 -0.4268137755 -0.0904613273 0.1493386643
420297480.0 -0.11357167 0.1427341274 0.3558113717 -0.4305541065 0.3557970513 -0.4309103542 -0.0890645064 0.1502930753
425297450.0 -0.1118270156 0.1435393216 0.3510050479 -0.434529538 0.351627751 -0.4344834486 -0.087749621 0.1515857754
430297420.0 -0.1108307725 0.1448343419 0.3465893982 -0.4378947998 0.3466273591 -0.4380634403 -0.085889058 0.1525685725
435297390.0 -0.1094180516 0.1461049252 0.3415092746 -0.4416845164 0.3413598445 -0.4420303963 -0.0839703047 0.153616552
440297360.0 -0.1081006143 0.1473414253 0.3370204758 -0.4453514612 0.3366800452 -0.4452811034 -0.0823138896 0.1544603283
445297330.0 -0.1067734916 0.1482271205 0.3321310131 -0.4491031632 0.331947461 -0.4488298302 -0.0807428768 0.1552929961
450297300.0 -0.1051762592 0.1494680257 0.327075032 -0.4526224296 0.3266810825 -0.4531216486 -0.0789401987 0.1564283817
455297270.0 -0.1037145186 0.1506103456 0.3216626044 -0.4563486451 0.3221845824 -0.4561559264 -0.0770653184 0.1572084649
460297240.0 -0.1023428017 0.1518020125 0.3169513889 -0.4595101075 0.3167781108 -0.4600541315 -0.0756826138 0.1583463526
465297210.0 -0.1007281994 0.1528602463 0.3121289926 -0.4632252857 0.3119182066 -0.4635837142 -0.0734503064 0.1589551294
470297180.0 -0.0992758629 0.1538166679 0.3065456383 -0.4664108627 0.3069321455 -0.4671328072 -0.0718387647 0.1603644549
475297150.0 -0.0977136593 0.1547996189 0.3012769928 -0.4691095558 0.3015573271 -0.4698235632 -0.0699018041 0.1608842108
480297120.0 -0.0965012096 0.1563939227 0.2965984925 -0.473153855 0.2960570635 -0.4734405372 -0.0679347107 0.1619200325
485297090.0 -0.0950434647 0.1572536426 0.2916657035 -0.4759745513 0.2915730781 -0.4760926626 -0.0661178482 0.162658525
490297060.0 -0.0936570323 0.1583918789 0.2863356585 -0.479475428 0.2861360276 -0.4790232669 -0.0645439846 0.1641310032
495297030.0 -0.0919928392 0.1591699218 0.2804709036 -0.4824303228 0.2812883647 -0.4824581035 -0.0628639532 0.1648379226
500297000.0 -0.0903850879 0.1600339234 0.2753173091 -0.4850669425 0.2753968272 -0.4849137833 -0.060683082 0.1660867599
505296970.0 -0.088760157 0.1612359884 0.2703782086 -0.4880089621 0.2703169831 -0.4881347341 -0.0592923047 0.1668642219
510296940.0 -0.0872888609 0.1621613058 0.2647651779 -0.4911181404 0.2644454168 -0.4912037768 -0.0570786958 0.1674263777
515296910.0 -0.0856585293 0.1631747949 0.259550394 -0.4944365279 0.2594180723 -0.4938445685 -0.0550464461 0.1683898821
520296880.0 -0.0844587345 0.164224535 0.2544853702 -0.4972538787 0.2542894179 -0.4969129332 -0.0533009937 0.1689950746
525296850.0 -0.0823676293 0.1649100667 0.2485948751 -0.4998092012 0.2491066748 -0.4997134859 -0.051589656 0.1699180082
530296820.0 -0.0807341232 0.1661383147 0.2430516067 -0.502422224 0.2433022719 -0.5022565883 -0.0496234986 0.1708360033
535296790.0 -0.0796271016 0.1670395206 0.2383425991 -0.5047413614 0.2380695067 -0.5044591395 -0.047934521 0.171203288
540296760.0 -0.0779607491 0.1682890706 0.2324258012 -0.5076771506 0.2323130283 -0.5073282138 -0.0464561534 0.1723001295
545296730.0 -0.0765074509 0.1691450706 0.2264142669 -0.5095775726 0.2272461526 -0.5101301408 -0.0443588296 0.1731343497
550296700.0 -0.0742538742 0.1698090364 0.2211992452 -0.5119942971 0.2212257239 -0.5124088779 -0.0423634905 0.173772667
555296670.0 -0.073286384 0.1705467277 0.2160256832 -0.5147865454 0.2158925743 -0.5147489112 -0.0404192275 0.1745262559
560296640.0 -0.0712398017 0.171571774 0.2098333139 -0.5169480823 0.2102154079 -0.5172510816 -0.0387924031 0.1746638563
565296610.0 -0.069606244 0.1725372662 0.204115181 -0.5190693089 0.2046782455 -0.5190589011 -0.0367298299 0.1750305085
570296580.0 -0.068051285 0.1731556686 0.198909112 -0.5217594675 0.1983130712 -0.5212727032 -0.0350330486 0.1761087568
575296550.0 -0.0664231262 0.1742609048 0.1933195864 -0.5239276741 0.1931541829 -0.5236935405 -0.0330081434 0.1769239213
580296520.0 -0.0647261446 0.174934519 0.1876343434 -0.5261138434 0.1874846841 -0.5254161321 -0.0310559081 0.1769464853
585296490.0 -0.063071053 0.1752394986 0.1819913741 -0.5273250166 0.1818950531 -0.5272997985 -0.0288769306 0.1773842985
590296460.0 -0.0610709604 0.1763686751 0.1763329049 -0.5285564883 0.1760731395 -0.5292089669 -0.0276475776 0.1778594472
595296430.0 -0.0593153289 0.1771139491 0.1698494233 -0.5313513142 0.1699925726 -0.5309323493 -0.0252106297 0.1776630081
600296400.0 -0.057889205 0.1775372465 0.1645477491 -0.5327598044 0.1645270866 -0.53261344 -0.0235230456 0.1784816564
605296370.0 -0.0561795725 0.1781614752 0.1586130717 -0.5344795381 0.1589808629 -0.5346761288 -0.0212764804 0.1789468721
610296340.0 -0.0542690956 0.1791186201 0.1523005072 -0.536175586 0.152973305 -0.5364029455 -0.0194263151 0.1792573305
615296310.0 -0.0523933806 0.1796066451 0.146663778 -0.5381018508 0.146774036 -0.538416532 -0.0169247897 0.1794608253
620296280.0 -0.0507977627 0.1800335205 0.1415066806 -0.5391966061 0.1410396067 -0.5390488303 -0.0154353648 0.1798646641
625296250.0 -0.0492127287 0.1805354962 0.1356908361 -0.5410970762 0.1357440438 -0.5413153299 -0.0128093669 0.1800561235
630296220.0 -0.0467389037 0.1814707354 0.1288088688 -0.5427542987 0.1292921989 -0.5424552711 -0.0109996937 0.1805080029
635296190.0 -0.0458897899 0.1818399654 0.1238796309 -0.5432535463 0.1237839778 -0.5438902803 -0.0089959261 0.1807618498
640296160.0 -0.0441509931 0.1824156436 0.1179496019 -0.5446406811 0.117982217 -0.5448187299 -0.0067601889 0.1808430824
645296130.0 -0.0423425927 0.1831729284 0.1116906292 -0.5459052176 0.1118715845 -0.5461035158 -0.0048170645 0.1814288477
650296100.0 -0.0402021734 0.183495894 0.1056992928 -0.5467673595 0.1061564274 -0.5469551659 -0.0025685886 0.1807693857
655296070.0 -0.0387762535 0.184026417 0.0999155147 -0.5483182711 0.1001289842 -0.548505204 -0.0004795938 0.1816181108
660296040.0 -0.0373653393 0.1841395448 0.0942317956 -0.5491651393 0.0944102867 -0.5493178971 0.0015778116 0.1814852844
665296010.0 -0.0346868068 0.1848482751 0.0881472258 -0.5504386415 0.0882078115 -0.5500432703 0.003548451 0.1821445352
670295980.0 -0.034024539 0.1857315593 0.0822309134 -0.551241812 0.0822180619 -0.5509367942 0.0051261931 0.182242786
675295950.0 -0.0318656927 0.1862333695 0.0766171102 -0.5518128668 0.0764240098 -0.5512777495 0.0074566662 0.1824107077
680295920.0 -0.0299250045 0.1863955821 0.0701479547 -0.5524204235 0.0697974133 -0.553267179 0.0094943045 0.183166748
685295890.0 -0.0281906797 0.1872394851 0.0641498331 -0.5535854103 0.0642362615 -0.5533129614 0.0112742402 0.1825407331
690295860.0 -0.0259052806 0.1873598493 0.0581269883 -0.5534874266 0.0584564711 -0.5543514012 0.0133420051 0.1831087499
695295830.0 -0.0241930124 0.1878218448 0.0528629618 -0.554477214 0.052511602 -0.5543497521 0.0155331668 0.1830749207
700295800.0 -0.0223682929 0.1879291261 0.0461164292 -0.5547552145 0.0462689941 -0.5544926005 0.017260396 0.1832286977
705295770.0 -0.0208457146 0.1890202481 0.0405862754 -0.5552013595 0.040794664 -0.5556736203 0.0193407708 0.1834022714
710295740.0 -0.0186258867 0.189043109 0.034404262 -0.556406746 0.0344904267 -0.5563567517 0.0216062325 0.1826038685
715295710.0 -0.0173437284 0.1891166571 0.0288997031 -0.5561622872 0.0282722041 -0.5562436681 0.023782258 0.1829685064
720295680.0 -0.0150296466 0.1896456729 0.0222419049 -0.5567330536 0.02275973 -0.5563200994 0.0255843097 0.1832896261
725295650.0 -0.0131916539 0.1898719772 0.016298174 -0.5563030468 0.016684959 -0.5567823899 0.0271422992 0.1827612375
730295620.0 -0.011410058 0.1903968217 0.0105336586 -0.5563639114 0.0104102207 -0.5567889854 0.0289743612 0.1827212866
735295590.0 -0.0095043589 0.1908858273 0.0044852545 -0.5570118445 0.0042082537 -0.5564733754 0.030858391 0.1821040904
740295560.0 -0.0079055677 0.1907007305 -0.0013724762 -0.556517889 -0.0014614428 -0.5570921455 0.0335690606 0.1825664191
745295530.0 -0.0062815081 0.1910942949 -0.0076219822 -0.5566265591 -0.0076009829 -0.5566153517 0.0355566342 0.18183771
750295500.0 -0.0040244748 0.1911523886 -0.0135595716 -0.556406421 -0.0136103115 -0.5565157626 0.0372639952 0.1818021854
755295470.0 -0.0021632531 0.1911397346 -0.019343912 -0.5561728624 -0.0192979216 -0.556532178 0.0393983543 0.1811127003
760295440.0 -0.0003960316 0.1913138198 -0.0252901884 -0.5564283404 -0.0255507256 -0.5562372204 0.0412581646 0.1808244635
765295410.0 0.001272146 0.1915766539 -0.0313968467 -0.5554917252 -0.0319773919 -0.5560406843 0.0435034412 0.1808000083
770295380.0 0.0026634466 0.1914514888 -0.0375164711 -0.5549679087 -0.0377155395 -0.5553998588 0.045204908 0.1802610966
775295350.0 0.0047454371 0.1914923361 -0.0437129849 -0.5542385774 -0.0432073678 -0.5545966425 0.0467866069 0.1798897501
780295320.0 0.0070672348 0.1916741205 -0.0493814716 -0.5535823147 -0.0492179824 -0.5538976207 0.049001428 0.1789796162
785295290.0 0.0085774882 0.1914543194 -0.0555029592 -0.553425678 -0.0551189626 -0.553303749 0.0516501691 0.1788112058
790295260.0 0.01081614 0.1922436584 -0.0607655731 -0.5531261484 -0.0607401378 -0.5528178831 0.0535181092 0.1783425565
795295230.0 0.0125268 0.1914894416 -0.0674254162 -0.5520042354 -0.066825065 -0.5522673917 0.0556677133 0.1781001029
800295200.0 0.0141625214 0.1920604079 -0.0737231051 -0.5512134944 -0.0731828777 -0.5513079108 0.0574235874 0.1776555418
805295170.0 0.0162463266 0.1916541425 -0.0793912752 -0.5503699854 -0.0795208766 -0.5509348571 0.0593883862 0.1771700278
810295140.0 0.0178973435 0.1915755271 -0.0847814919 -0.5493376422 -0.0851010928 -0.5497144863 0.062067538 0.1768725467
815295110.0 0.019979917 0.1914328154 -0.0905284219 -0.5487636202 -0.0905260925 -0.5485710963 0.063347167 0.176175186
820295080.0 0.0215669197 0.1918601423 -0.0965100614 -0.5475081502 -0.0963494731 -0.5475922206 0.0656825779 0.1755448779
825295050.0 0.0240900488 0.1917116617 -0.1024496052 -0.5463200148 -0.1024980084 -0.5465652619 0.0677354827 0.1751798518
830295020.0 0.0253562069 0.1916187356 -0.1084811552 -0.5448498905 -0.1082272469 -0.5454161528 0.0701460255 0.1745204046
