!Created with skrf (http://scikit-rf.org).
# Hz S RI R 50.0 
!freq ReS11 ImS11 ReS21 ImS21 ReS12 ImS12 ReS22 ImS22
300000.0 -0.2346757153 -0.1278805503 0.4698167614 0.0844968482 0.4685275189 0.0831333895 -0.2376051628 -0.1299708188
5299970.0 -0.2419792623 0.0054598566 0.474930755 0.0059095196 0.4749668496 0.0057392501 -0.2442800023 0.0047602577
10299940.0 -0.2385373756 0.0189596201 0.4770524939 0.0066883281 0.4771703446 0.0068445797 -0.2408785078 0.0172915884
15299910.0 -0.2339683522 0.0288565617 0.4808268537 0.0081936549 0.4808794462 0.0080026163 -0.2370294178 0.0262955914
20299880.0 -0.2285008784 0.0368307908 0.4851152112 0.0080655368 0.4856540884 0.0080072438 -0.2320307947 0.0338335168
25299850.0 -0.222297076 0.0436140189 0.4907561327 0.0073608751 0.4910136982 0.0070886861 -0.2271581009 0.0399438033
30299820.0 -0.2171842346 0.0485866826 0.4960756104 0.0052938904 0.496463514 0.0048845961 -0.221599384 0.0447631924
35299790.0 -0.2111763705 0.0528281244 0.5010208811 0.0020754151 0.5015511544 0.0017159581 -0.2167734813 0.0491079684
40299760.0 -0.2061943541 0.0562387841 0.5062889179 -0.0021988894 0.5066389538 -0.0022509144 -0.2119361449 0.0520837429
45299730.0 -0.2011026062 0.05888427 0.5110683817 -0.0065709752 0.5113513955 -0.0069907156 -0.2070573934 0.0545996549
50299700.0 -0.1961720633 0.0608870548 0.5156637965 -0.0122598674 0.5152111092 -0.0123879609 -0.2027157395 0.0570045199
55299670.0 -0.1918074838 0.0627047323 0.5187611308 -0.0184355268 0.51891085 -0.0185111031 -0.1991311559 0.0584904979
60299640.0 -0.1878422941 0.0639912189 0.5226953058 -0.0243554206 0.5222466662 -0.0246390348 -0.1953715193 0.0596438947
65299610.0 -0.1839758082 0.0656020028 0.5255003237 -0.0311070657 0.5254389737 -0.0312602176 -0.1919628483 0.0608551827
70299580.0 -0.1808285541 0.065896558 0.5275867217 -0.0371962953 0.5277411085 -0.0374722912 -0.189107849 0.0616694678
75299550.0 -0.1780509543 0.0667124578 0.5292766451 -0.0445033596 0.5297447012 -0.044535736 -0.1863556637 0.0626339585
80299520.0 -0.1752133813 0.0676980641 0.5316240323 -0.0512455501 0.5318264053 -0.0512764065 -0.1836113987 0.063731994
85299490.0 -0.1725035152 0.0682691171 0.5327438448 -0.0584222739 0.5328457712 -0.0584684115 -0.1816837088 0.0641986664
90299460.0 -0.1701617833 0.0690911623 0.5333194763 -0.0648595043 0.5335959827 -0.0647746389 -0.1793309555 0.0649331899
95299430.0 -0.1680688286 0.0697391976 0.5347273115 -0.0718421117 0.5348237315 -0.0721958193 -0.177727471 0.0654653408
100299400.0 -0.1659662198 0.0704033198 0.5349699628 -0.0786686705 0.5349864319 -0.0791685538 -0.1759019261 0.0665341984
105299370.0 -0.1642742808 0.0709716611 0.535337578 -0.0855705025 0.5358768892 -0.0857055565 -0.1738404877 0.066510183
110299340.0 -0.1621665879 0.0713807797 0.5352209619 -0.0922415332 0.535690809 -0.0923718243 -0.1728789693 0.067186438
115299310.0 -0.1607925311 0.0725008539 0.5352548275 -0.099099701 0.5355698035 -0.0989904032 -0.1717095465 0.0684192015
120299280.0 -0.1593847297 0.073499862 0.535159775 -0.1068472113 0.5350285652 -0.1067334619 -0.1701495479 0.068613644
125299250.0 -0.1581575541 0.0738481379 0.5347942884 -0.1127923114 0.5350337351 -0.1127744554 -0.1685936391 0.0696784506
130299220.0 -0.1566093497 0.0747953028 0.5342920717 -0.1195334793 0.5340189618 -0.1201849648 -0.1676928352 0.0703923964
135299190.0 -0.1554593404 0.0756712489 0.5336071239 -0.1257907644 0.533853254 -0.1266770566 -0.1666144774 0.0709032578
140299160.0 -0.154176368 0.0770364332 0.5331268951 -0.1333862961 0.533032746 -0.1329582048 -0.1661243014 0.0718480241
145299130.0 -0.1533215117 0.0779904781 0.5319592934 -0.1395086514 0.5319801861 -0.1392911741 -0.1650428036 0.0727576467
150299100.0 -0.1520742717 0.079049584 0.5306092543 -0.1462925529 0.5308141943 -0.1464564308 -0.1640810039 0.0740460372
155299070.0 -0.1507390744 0.080140769 0.5291163177 -0.1528731277 0.5296392976 -0.1528107517 -0.163412544 0.0747515953
160299040.0 -0.1498641483 0.0811190944 0.527985925 -0.1589612732 0.5279424902 -0.1590856492 -0.1626646361 0.0758171888
165299010.0 -0.1488164601 0.0824408285 0.5267499803 -0.1655265251 0.5265214326 -0.1655241123 -0.1614184982 0.076824199
170298980.0 -0.147933088 0.083272369 0.5249393711 -0.1714967263 0.5250703454 -0.171932339 -0.161116911 0.0776633588
175298950.0 -0.1469665971 0.0846121621 0.5238025988 -0.1780962891 0.5240120694 -0.1784671638 -0.1604496646 0.0793210119
180298920.0 -0.1461370032 0.0861050893 0.5218944322 -0.1848083166 0.5216421522 -0.1846698325 -0.1593367989 0.0800281248
185298890.0 -0.1451962349 0.0873927518 0.5202907217 -0.1906482712 0.5201241979 -0.1906332495 -0.1585172975 0.0808913502
190298860.0 -0.143913919 0.0886761755 0.5180335961 -0.1965969816 0.5180761872 -0.1968005978 -0.157790831 0.0821751654
195298830.0 -0.1433147308 0.0901166447 0.5160655247 -0.2025475821 0.5162160173 -0.202744321 -0.1573905602 0.0832483656
200298800.0 -0.1420019335 0.091206586 0.5139070448 -0.2093761211 0.5139015877 -0.2091303495 -0.156325258 0.0843821026
205298770.0 -0.1414817461 0.0924380407 0.5117392205 -0.2148699117 0.5116850111 -0.2147483282 -0.1554347107 0.0858590119
210298740.0 -0.140386851 0.0940580519 0.5094404508 -0.221111969 0.5093256945 -0.221251207 -0.1553156605 0.0870480389
215298710.0 -0.1393057754 0.0954031779 0.5069021555 -0.2268267786 0.5071776581 -0.2272943079 -0.1541128563 0.0883349872
220298680.0 -0.1382931074 0.0968444934 0.5041289476 -0.232634515 0.5042988438 -0.2327080523 -0.1534444798 0.0894798488
225298650.0 -0.1375552721 0.0982364841 0.5020792556 -0.2384039982 0.5021843374 -0.2382410682 -0.152878766 0.0906073709
230298620.0 -0.1358969234 0.1001141791 0.4995123681 -0.2444322284 0.4999140479 -0.2447850252 -0.1521541314 0.0919711504
235298590.0 -0.1354959844 0.1015331027 0.4974373962 -0.2508712191 0.4973882672 -0.2504825704 -0.1513553099 0.0934395751
240298560.0 -0.1342651024 0.1028368391 0.4942316321 -0.2559184585 0.494237 -0.2556870649 -0.1504820008 0.0943628003
245298530.0 -0.1333549077 0.1039099696 0.4918427768 -0.2613507594 0.4915048836 -0.2617197854 -0.1499939581 0.0956619035
250298500.0 -0.1323001128 0.1054506052 0.4888268754 -0.2669157523 0.488923179 -0.2668865629 -0.1488586611 0.0973439717
255298470.0 -0.1313536089 0.1073426704 0.4862131808 -0.2725511201 0.4862724971 -0.2727466232 -0.147952786 0.098858318
260298440.0 -0.1304227792 0.108512545 0.4835123767 -0.2777308928 0.4835122213 -0.2784436133 -0.1475543365 0.0997839134
265298410.0 -0.1293128081 0.1101489148 0.4799331818 -0.284127966 0.4798720241 -0.2841975957 -0.1460180415 0.1010687023
270298380.0 -0.1282904854 0.1115226378 0.4768951808 -0.2891145805 0.4771838475 -0.2890445597 -0.1454313904 0.1026257738
275298350.0 -0.1270922159 0.1132763482 0.4737964536 -0.2944751475 0.4735467623 -0.2945286817 -0.1446127166 0.1041298349
280298320.0 -0.1260927031 0.1143930009 0.470493658 -0.299510354 0.4709850079 -0.300234989 -0.1433716065 0.1055530046
285298290.0 -0.1250124329 0.1158952478 0.4675732206 -0.3052644597 0.4674253088 -0.3049522862 -0.1427628559 0.1068737051
290298260.0 -0.1237444093 0.1175919571 0.4645656735 -0.3103634743 0.4643036736 -0.3105983615 -0.1418397407 0.1079120639
295298230.0 -0.1226566576 0.1184881368 0.4608614002 -0.3158460807 0.460787117 -0.3163648459 -0.140688076 0.1092123539
300298200.0 -0.1213234007 0.1202886719 0.4576013351 -0.3211440296 0.457457589 -0.3213062582 -0.139877319 0.1105512973
305298170.0 -0.1201727813 0.1211149621 0.4542389451 -0.3264338402 0.454219441 -0.3263042465 -0.1388046888 0.1112527003
310298140.0 -0.1187358482 0.122686706 0.4509742722 -0.3314996795 0.4505348348 -0.3312312768 -0.1374643799 0.1127994919
315298110.0 -0.1176341161 0.1238196719 0.4471746828 -0.3370557971 0.4469882937 -0.3368404306 -0.1363827671 0.114233361
320298080.0 -0.1165721194 0.1254530752 0.4427533703 -0.3419868722 0.4433732565 -0.3422852552 -0.1359303072 0.115465049
325298050.0 -0.1159131986 0.1259183661 0.4391479657 -0.3464697192 0.4396944311 -0.3469438131 -0.1345107485 0.1166404771
330298020.0 -0.1148524604 0.1274879145 0.4351523607 -0.3519906869 0.4356890222 -0.3520018287 -0.1340820766 0.1176073419
335297990.0 -0.1135854714 0.1291383245 0.4317388643 -0.3566793317 0.4320166125 -0.3566831678 -0.1331105436 0.1193097237
340297960.0 -0.1123943377 0.1303439765 0.4269027309 -0.3611459532 0.4267618798 -0.3613512464 -0.1320154178 0.1206929949
345297930.0 -0.1112112764 0.1313883674 0.4229991414 -0.3663926622 0.4231989622 -0.3663688742 -0.130938214 0.1217812893
350297900.0 -0.1098855108 0.1328141846 0.4191345056 -0.370415882 0.4193388542 -0.3710645323 -0.130127338 0.1229204081
355297870.0 -0.1086509747 0.134352449 0.4150295899 -0.3749104647 0.4149761354 -0.3753194288 -0.1286570468 0.1248558089
360297840.0 -0.1074425711 0.135836541 0.4104493576 -0.3796444181 0.4111927104 -0.3801286526 -0.127873256 0.1263090253
365297810.0 -0.1062257784 0.1372363895 0.4064068163 -0.3840759782 0.4065542159 -0.3847226014 -0.1269292785 0.1272989696
370297780.0 -0.1049499681 0.138231227 0.4021756974 -0.3890533041 0.4024669238 -0.389013645 -0.1258180245 0.1287302592
375297750.0 -0.1031898463 0.139847526 0.3985677885 -0.3933080574 0.3981426863 -0.3931007377 -0.1244528454 0.1298753875
380297720.0 -0.1020126048 0.1412764468 0.393886283 -0.3981906544 0.393823506 -0.3976506206 -0.1232918408 0.1315372457
385297690.0 -0.1007418716 0.1420354648 0.3893726018 -0.4016007232 0.3893513544 -0.402095154 -0.1221462938 0.1329367357
390297660.0 -0.0990656466 0.143214537 0.3848863739 -0.4060573275 0.3852356308 -0.4064352299 -0.1206917818 0.1337870022
395297630.0 -0.0977182997 0.1447135683 0.3808284796 -0.4098705616 0.3803209717 -0.4100685357 -0.1195124064 0.1352751975
400297600.0 -0.0963191069 0.1455660982 0.3761709735 -0.4146672203 0.3760352584 -0.4145670241 -0.1179258468 0.1367022962
405297570.0 -0.0948212029 0.1463813734 0.3715827741 -0.4182623555 0.371565551 -0.4184752456 -0.1169674376 0.1381769259
410297540.0 -0.0930346036 0.1480915145 0.3669822198 -0.4225655423 0.3671387868 -0.4224909025 -0.1155851756 0.1395992942
415297510.0 -0.0915587751 0.1493034551 0.3620056407 -0.426621479 0.3625784479 -0.4267647485 -0.1141251887 0.1406085381
420297480.0 -0.0900981818 0.1502081396 0.3575644658 -0.4305901531 0.357746515 -0.4308327277 -0.1126642094 0.1422905747
425297450.0 -0.0881490787 0.1513863899 0.3527922685 -0.4343542027 0.3528807909 -0.4343192697 -0.1114506964 0.1430032802
430297420.0 -0.0869100451 0.1523961866 0.3485263998 -0.4384671366 0.3486202657 -0.4379709375 -0.1098985635 0.1443737086
435297390.0 -0.0851478557 0.1533490039 0.3431006682 -0.4422617523 0.3429688063 -0.4418803676 -0.1089293849 0.1456783667
440297360.0 -0.0834338064 0.1543456587 0.3382534707 -0.4458766047 0.3382666633 -0.4456994779 -0.1073877146 0.1468357632
445297330.0 -0.0815465494 0.1551658871 0.333922442 -0.4493262141 0.333772065 -0.4495296601 -0.1058749625 0.1480637758
450297300.0 -0.0799953851 0.1562387078 0.3289287082 -0.4529976832 0.3288618846 -0.4528985911 -0.1043171405 0.1491229028
455297270.0 -0.078668316 0.1573313025 0.3236918647 -0.4563208512 0.3241792723 -0.4563808106 -0.1030109224 0.1502894397
460297240.0 -0.0764079874 0.1585490106 0.3190897209 -0.4609867087 0.3187911531 -0.4602085225 -0.1015114062 0.1513972358
465297210.0 -0.074709824 0.1589755977 0.3132408214 -0.4636868455 0.3132200005 -0.4641145613 -0.0998068956 0.1531004149
470297180.0 -0.0730343941 0.1598706525 0.3082396301 -0.4668354404 0.3090231924 -0.4668099016 -0.0981968987 0.1537329075
475297150.0 -0.071604276 0.1612009198 0.3034989888 -0.4704057188 0.3035756235 -0.470171804 -0.0968438283 0.1548178616
480297120.0 -0.0693187273 0.1622865919 0.2985015733 -0.4736746159 0.2987169634 -0.4734440173 -0.0958548849 0.1559356618
485297090.0 -0.0673860855 0.1623781898 0.2932557153 -0.4766498061 0.2929122017 -0.476665649 -0.0938398167 0.1571043975
490297060.0 -0.0652749161 0.1638448483 0.2873121878 -0.4802602011 0.2880092803 -0.4803114272 -0.0926168408 0.1581349678
495297030.0 -0.0638652829 0.1644658641 0.2831559205 -0.4829659455 0.2824742478 -0.4832946888 -0.0907392883 0.1590609122
500297000.0 -0.0621263797 0.1655669482 0.2775786359 -0.4858841325 0.2773479829 -0.486266522 -0.0890942841 0.1600770923
505296970.0 -0.0597230567 0.1663096784 0.2718345741 -0.4895732587 0.2720313555 -0.4888654794 -0.0875000702 0.1607424811
510296940.0 -0.0579337348 0.166840855 0.2667678024 -0.4924646427 0.2669536844 -0.4927626712 -0.0855966186 0.1623512261
515296910.0 -0.0560243993 0.1677616832 0.2606964053 -0.4947645316 0.2605281787 -0.4947511599 -0.0840210385 0.1625760777
520296880.0 -0.0541632367 0.1685146716 0.2556390455 -0.4974205383 0.255421166 -0.4976906769 -0.0822067639 0.1644472685
525296850.0 -0.0522355871 0.169099258 0.2502522898 -0.4999015797 0.2499688265 -0.5002576282 -0.0806026073 0.1647420532
530296820.0 -0.0508258782 0.1699511496 0.2446529273 -0.5028815369 0.2449186652 -0.502763871 -0.079220545 0.1654601349
535296790.0 -0.0477840147 0.1708661533 0.2390469939 -0.5053244945 0.2394596307 -0.505553989 -0.0771983013 0.16671427
540296760.0 -0.0461781898 0.1716085101 0.2336923893 -0.508377311 0.2336101697 -0.507937135 -0.0759815308 0.1670666241
545296730.0 -0.0446614755 0.172518204 0.2285703165 -0.5104399745 0.2282313332 -0.5102694371 -0.0741840898 0.1681343389
550296700.0 -0.0420297941 0.1729638465 0.2225440004 -0.513305617 0.2223814367 -0.5133472866 -0.0723306103 0.1690116467
555296670.0 -0.040326767 0.1734910282 0.2169990889 -0.5160504141 0.2169753256 -0.515200462 -0.0707137931 0.1695438237
560296640.0 -0.0378665113 0.1740119891 0.2112316281 -0.5173476301 0.211890356 -0.5178429742 -0.0690958172 0.1708397441
565296610.0 -0.0365674256 0.1746061017 0.2061310248 -0.5200124548 0.2059050957 -0.5195005462 -0.0671899672 0.1716947416
570296580.0 -0.0343412738 0.1755424227 0.2002525022 -0.5224560917 0.2000735851 -0.5218318887 -0.0657819734 0.1720653859
575296550.0 -0.0320359664 0.1755731633 0.1945729361 -0.5241360063 0.1943581156 -0.524419478 -0.0640314554 0.1729524841
580296520.0 -0.0302212742 0.1766827515 0.1889947958 -0.5262930469 0.1886986722 -0.5264136272 -0.0626384891 0.1736309326
585296490.0 -0.0280365315 0.1771091928 0.1834721708 -0.5283884122 0.1825757235 -0.5282218398 -0.0604094368 0.1749335759
590296460.0 -0.0255051385 0.1777065528 0.1778628906 -0.5301784933 0.1773099559 -0.5302708988 -0.0591486099 0.1752763108
595296430.0 -0.0236533617 0.1780957303 0.1709631599 -0.5320505927 0.1713172347 -0.5319815858 -0.0572556375 0.175824824
600296400.0 -0.0214500837 0.178493873 0.1652408646 -0.5336543671 0.165478253 -0.5339743318 -0.055346937 0.176349986
605296370.0 -0.0198927479 0.1790102526 0.1601272011 -0.5350920029 0.1599376523 -0.5358286373 -0.0536880736 0.1773395102
610296340.0 -0.0173293989 0.1798373655 0.154130375 -0.5369419468 0.1542704873 -0.5370280578 -0.0522719456 0.1778835013
615296310.0 -0.0150902836 0.1797873478 0.1480978557 -0.5392850712 0.148052685 -0.5390348542 -0.0499918812 0.1788621383
620296280.0 -0.0135329009 0.1808287238 0.142512384 -0.5403341039 0.1417392195 -0.5402245893 -0.0483773469 0.1795579298
625296250.0 -0.0115161413 0.180767046 0.1364793331 -0.5421169079 0.1365235753 -0.5420392732 -0.0470641016 0.1795586337
630296220.0 -0.0092238803 0.1812192376 0.1306892086 -0.5431020474 0.1302098351 -0.5428860669 -0.0448509718 0.1804341957
635296190.0 -0.0072959112 0.1819423566 0.1249157239 -0.5446804114 0.1248312334 -0.5444836003 -0.0434450536 0.1812247023
640296160.0 -0.0053670532 0.1820938282 0.1191616068 -0.5459997293 0.118570662 -0.5460526771 -0.0417160208 0.1817317877
645296130.0 -0.0026256348 0.1827805083 0.1127200113 -0.5468436384 0.112983441 -0.5471599481 -0.0399726328 0.181867692
650296100.0 -0.0010257703 0.1823044586 0.1071106009 -0.5481305483 0.106464611 -0.5484169858 -0.037418862 0.1825752235
655296070.0 0.0010832323 0.182914955 0.1010143403 -0.5494282406 0.1008555994 -0.5491226443 -0.0361780927 0.1831369479
660296040.0 0.003342737 0.183313502 0.0950875648 -0.5504569104 0.0951339666 -0.550619737 -0.0343348815 0.1832037906
665296010.0 0.0053548014 0.183773334 0.0888073849 -0.5511143653 0.0890607116 -0.5512100424 -0.0326927741 0.1837641372
670295980.0 0.0072095482 0.1837777326 0.0831296695 -0.5524543015 0.0833232953 -0.5519683555 -0.0310621599 0.1842348368
675295950.0 0.0095117162 0.1838497983 0.0770143147 -0.5527408515 0.0772123837 -0.5529246065 -0.0289449272 0.1847855523
680295920.0 0.0110675187 0.1843651959 0.0712771817 -0.5535466464 0.0714567204 -0.5535430651 -0.0269766795 0.1848938829
685295890.0 0.0134451714 0.1845070133 0.065158511 -0.5548804569 0.0651748919 -0.5548817888 -0.025339405 0.1859708636
690295860.0 0.0150948465 0.1842944359 0.0594605589 -0.5550704468 0.0590190163 -0.5552865039 -0.023902734 0.1859082048
695295830.0 0.0174887434 0.1845019866 0.0534617384 -0.5557675741 0.0533267268 -0.5557442899 -0.0216708257 0.1866670675
700295800.0 0.0193635591 0.184646821 0.0473548674 -0.5561333782 0.0472363528 -0.556279505 -0.0196902425 0.1867800426
705295770.0 0.021116377 0.1848291341 0.0412442566 -0.5568896682 0.0413114588 -0.5568184901 -0.018265468 0.1873330861
710295740.0 0.0232328861 0.1846624296 0.0355123922 -0.5568129954 0.0349415633 -0.5574288218 -0.0161222634 0.187686652
715295710.0 0.0254733957 0.1850862212 0.029717158 -0.5576469358 0.0291339457 -0.5574511858 -0.0145059582 0.1879622936
720295680.0 0.0278789994 0.1847572663 0.0230567682 -0.5575027985 0.0232716606 -0.5578709056 -0.0124598036 0.1879459141
725295650.0 0.0292046079 0.1850367434 0.0176129811 -0.5577385244 0.0175337884 -0.5578056232 -0.0110852113 0.1886362271
730295620.0 0.0306443802 0.1847109376 0.0115517822 -0.5577488863 0.0112380621 -0.5577094656 -0.0093846509 0.189384498
735295590.0 0.0332229389 0.1846605996 0.005171555 -0.5579220502 0.0052616736 -0.558031068 -0.0071207463 0.1889894325
740295560.0 0.0347203613 0.1844407833 -0.0001004559 -0.5583982721 -0.0001712472 -0.5584759936 -0.0058411158 0.1893645508
745295530.0 0.036741356 0.1846237673 -0.006267303 -0.5576539751 -0.0059969052 -0.5579719287 -0.0041450902 0.189722961
750295500.0 0.0386883177 0.1843101669 -0.0120663469 -0.5578879623 -0.0124080872 -0.5579118895 -0.0020677874 0.1897196839
755295470.0 0.0407420041 0.184147336 -0.0181256476 -0.5579105491 -0.0182128069 -0.557673604 0.0001417926 0.1902160424
760295440.0 0.0428134607 0.1843517154 -0.0250762488 -0.557493617 -0.0247441426 -0.5572897644 0.0018377576 0.1895563765
765295410.0 0.0448244083 0.1836695343 -0.030301486 -0.5571455772 -0.0304747127 -0.5568433574 0.0036933678 0.1902582093
770295380.0 0.0465015581 0.1839628381 -0.0364101049 -0.5566385568 -0.0362037672 -0.5568252747 0.0052653599 0.1903438013
775295350.0 0.0485611788 0.1830079115 -0.0420024503 -0.5564663032 -0.0423991862 -0.5557801548 0.0072968286 0.1905657776
780295320.0 0.0502420059 0.1831706025 -0.0481002487 -0.5552769026 -0.0480815673 -0.5556368797 0.0095780241 0.1905003348
785295290.0 0.0523218533 0.1824847223 -0.0542212889 -0.5553501528 -0.0540752087 -0.5553192739 0.010480427 0.1908216694
790295260.0 0.0542426748 0.182070541 -0.0600935402 -0.5547499948 -0.0598640217 -0.5546495341 0.0126482677 0.1910077069
795295230.0 0.0561716399 0.181819579 -0.0662079124 -0.5545509653 -0.0660721014 -0.5541080589 0.014727644 0.1902891527
800295200.0 0.0578796487 0.1816965643 -0.0711682839 -0.5528916287 -0.071894033 -0.5533635584 0.0160410126 0.1909629365
805295170.0 0.059628005 0.1809906959 -0.0780529854 -0.5524320877 -0.0778598531 -0.5527942687 0.0185273522 0.1908452442
810295140.0 0.0620888789 0.1807640469 -0.0836156179 -0.5515313712 -0.0837684229 -0.5511187415 0.0203205722 0.1907182972
815295110.0 0.0635994371 0.1801429022 -0.0897854976 -0.5503836538 -0.0896202854 -0.550789607 0.0219170117 0.1907539127
820295080.0 0.0656192604 0.1796688525 -0.0951118367 -0.5490449915 -0.0957095645 -0.5498629387 0.0230910766 0.1910233783
825295050.0 0.0671923566 0.1786801645 -0.1014463779 -0.5484889371 -0.1015491367 -0.5485518297 0.0261339152 0.1912806191
830295020.0 0.0690298842 0.1784131693 -0.1076383673 -0.5474954131 -0.1075714172 -0.5474068572 0.0274342904 0.1904788758
