!Created with skrf (http://scikit-rf.org).
# Hz S RI R 50.0 
!freq ReS11 ImS11 ReS21 ImS21 ReS12 ImS12 ReS22 ImS22
300000.0 -0.3210933785 -0.0880027521 0.3760667007 0.0453964721 0.373090457 0.0447025017 -0.3191582154 -0.1019872893
5299970.0 -0.3261393244 0.0040299325 0.3779956023 0.002589324 0.3781861624 0.0026704316 -0.3236203611 0.0048106107
10299940.0 -0.3243475928 0.0133355579 0.3794586113 0.0022198199 0.3796133994 0.0022613358 -0.3212361327 0.0159894632
15299910.0 -0.3214897503 0.0203219798 0.3815454647 0.0021561285 0.3819163504 0.002057528 -0.3178453391 0.0237020523
20299880.0 -0.3188110083 0.0263736696 0.384662733 0.0020358983 0.3847367837 0.001439219 -0.3143841445 0.0305341423
25299850.0 -0.3156037944 0.0316049973 0.3880517758 6.54946e-05 0.3879578688 0.0002489309 -0.3104452746 0.0357919468
30299820.0 -0.3126024952 0.0360079054 0.3913985602 -0.0023370613 0.3914589827 -0.0021647486 -0.3069842163 0.0410695426
35299790.0 -0.3101405461 0.0400465622 0.3949162841 -0.0056317413 0.3950037485 -0.0055181995 -0.3034761133 0.0456393777
40299760.0 -0.3072826207 0.043862868 0.398247423 -0.0089214774 0.3978606171 -0.0086948055 -0.300046426 0.0489737618
45299730.0 -0.3047011909 0.0466658716 0.4006966572 -0.0126556594 0.4009734565 -0.0128528444 -0.2971713248 0.0521847113
50299700.0 -0.3027798666 0.0494569452 0.4032221003 -0.0173454328 0.4033812336 -0.0170132338 -0.294098938 0.0547060604
55299670.0 -0.3003458664 0.0524412046 0.4057719166 -0.022601963 0.4053997636 -0.022068565 -0.291714503 0.0575403398
60299640.0 -0.2981374364 0.0549300123 0.4073453342 -0.027239913 0.4076712674 -0.026996436 -0.2890154786 0.0594148138
65299610.0 -0.2964670916 0.0575988733 0.4090055257 -0.0318911262 0.4090386325 -0.0318148129 -0.2872777441 0.0618925505
70299580.0 -0.2947219213 0.0598590706 0.4104003668 -0.0370117319 0.4100522958 -0.0371748869 -0.2850196657 0.0642515249
75299550.0 -0.2928806326 0.0625241438 0.4110876394 -0.0424074913 0.4112243687 -0.0423991431 -0.2831492591 0.0659289393
80299520.0 -0.291304144 0.0648945869 0.4121341974 -0.0476722173 0.4124723482 -0.0476004487 -0.2815213594 0.0683278388
85299490.0 -0.2902741175 0.0669396008 0.4127293224 -0.0523281831 0.41296618 -0.0522381684 -0.2802212632 0.070037713
90299460.0 -0.2890026713 0.0695843639 0.4130616548 -0.0581757987 0.4131706906 -0.0580451851 -0.2781372379 0.0721079476
95299430.0 -0.2874046307 0.0716027007 0.4136571259 -0.0630718416 0.4134103679 -0.0634481337 -0.2767430884 0.0744621633
100299400.0 -0.286223798 0.0742204246 0.4132363995 -0.0684549721 0.4133458449 -0.0685848578 -0.2751998805 0.075913297
105299370.0 -0.285114544 0.0763257666 0.4131593935 -0.0738530019 0.4135702006 -0.0735124036 -0.273957056 0.0781758932
110299340.0 -0.2839225818 0.0787988563 0.4130012165 -0.0786821508 0.4128516524 -0.0788811702 -0.2730374363 0.0803714564
115299310.0 -0.2828112478 0.0809339678 0.4129429987 -0.0837106051 0.4128541085 -0.0839102629 -0.2714590433 0.0822655274
120299280.0 -0.2816338372 0.0833441005 0.4120836486 -0.0892004361 0.4123006893 -0.0891070309 -0.2703039067 0.0843925113
125299250.0 -0.2810556773 0.0854505052 0.4117294981 -0.0939021881 0.4118642175 -0.0936555498 -0.2693533862 0.0857491131
130299220.0 -0.2803308871 0.0882619477 0.411022711 -0.0995020728 0.4110991555 -0.098935204 -0.2683479098 0.0886637744
135299190.0 -0.279273494 0.0907241842 0.4107397483 -0.1042574933 0.4105541642 -0.1041635901 -0.2670726956 0.0910951561
140299160.0 -0.2784122048 0.0934682319 0.409856157 -0.1095392567 0.4095851919 -0.1093127274 -0.2661004122 0.0933206017
145299130.0 -0.2773911504 0.0956761385 0.4087155218 -0.1141119844 0.4086010402 -0.1140047133 -0.2650125464 0.0955260984
150299100.0 -0.2764222304 0.0983439624 0.4078178329 -0.1186188364 0.4076045215 -0.1186989582 -0.2642189457 0.098336843
155299070.0 -0.2754710589 0.1006565397 0.406766889 -0.1244273013 0.4064256906 -0.1239027545 -0.2626782855 0.1007403076
160299040.0 -0.2742238065 0.1034666322 0.4055109871 -0.1286077304 0.40515072 -0.1289026317 -0.2621689836 0.1029401694
165299010.0 -0.2736555396 0.1060990878 0.4041405533 -0.1337560619 0.4041761767 -0.1338957781 -0.2608572189 0.1058216544
170298980.0 -0.2728401633 0.108515662 0.4026030237 -0.1384757181 0.4028211756 -0.1384064834 -0.2598434542 0.1079791312
175298950.0 -0.2717962844 0.11123459 0.4016055589 -0.1431597678 0.4008130562 -0.1434089234 -0.2590357944 0.1108900587
180298920.0 -0.2711111068 0.1140644173 0.4001494646 -0.1480511949 0.3998549315 -0.1478054259 -0.2581319207 0.1133008974
185298890.0 -0.2693266523 0.1164277088 0.3982720535 -0.1525537299 0.3981300522 -0.1526350802 -0.2568655501 0.1157359641
190298860.0 -0.2685172739 0.1193603396 0.3969943681 -0.1575043995 0.3972837601 -0.1572599665 -0.2560645025 0.1182747043
195298830.0 -0.2677976042 0.1219464001 0.3953071833 -0.1621413893 0.3952191456 -0.161749231 -0.2550687673 0.1211217064
200298800.0 -0.2663351416 0.1246797003 0.3933655523 -0.1666050417 0.3935952525 -0.1668247987 -0.2542714674 0.1236838616
205298770.0 -0.2655109838 0.1272402707 0.391648501 -0.1712596295 0.3913806518 -0.1709532728 -0.2526475408 0.1258687814
210298740.0 -0.2642526966 0.1300572434 0.3892769003 -0.1756756808 0.3899407838 -0.1752468513 -0.2516259884 0.1288163208
215298710.0 -0.2634596858 0.1328109444 0.3879391349 -0.1802832944 0.3876292535 -0.1804465367 -0.2508860565 0.1312293475
220298680.0 -0.2620914856 0.135146356 0.3856194121 -0.1845798349 0.3855415776 -0.1848197941 -0.250047664 0.1338548807
225298650.0 -0.2610747668 0.1380826053 0.3839387518 -0.1892099702 0.3838832965 -0.1890396669 -0.2489198713 0.135906625
230298620.0 -0.2595217452 0.1409046069 0.3817813932 -0.1935184976 0.3822079373 -0.1933465102 -0.2478058487 0.1383269579
235298590.0 -0.2580267221 0.1439092343 0.3796488115 -0.1977294279 0.3798572192 -0.1973554171 -0.2466543997 0.1412251635
240298560.0 -0.2571290819 0.1462166825 0.3778701444 -0.2022870627 0.377474365 -0.2021737962 -0.2453469405 0.1438209636
245298530.0 -0.2558531258 0.1491778365 0.3754648003 -0.2066990954 0.3752547904 -0.2066487038 -0.2438208267 0.1458407596
250298500.0 -0.2540183257 0.1518408718 0.3725402093 -0.2111220287 0.3727807774 -0.2106082516 -0.2427349974 0.1486913853
255298470.0 -0.2528834408 0.1542552582 0.3701105826 -0.2149907923 0.3705112352 -0.215161496 -0.2411043977 0.1510129223
260298440.0 -0.2517141604 0.1571455755 0.3683838593 -0.2197060146 0.3684482315 -0.2193475973 -0.2395942031 0.1535518953
265298410.0 -0.2501509368 0.1599795192 0.3659436042 -0.2236171956 0.3657355554 -0.2233834359 -0.2384692706 0.1561136205
270298380.0 -0.2486689595 0.1624255188 0.3636444061 -0.2276803584 0.3635028727 -0.2278126398 -0.237049023 0.1585393376
275298350.0 -0.2471827226 0.1651179706 0.3610116737 -0.2318998659 0.3611388329 -0.2317097525 -0.2350977007 0.1610423457
280298320.0 -0.244978587 0.1679299982 0.3584222415 -0.2359046276 0.3583246849 -0.2357658491 -0.2335662897 0.1634739605
285298290.0 -0.2436252872 0.1707832414 0.3559120013 -0.2396505186 0.3559142305 -0.2400070588 -0.2319952399 0.1660956028
290298260.0 -0.241531863 0.1731740547 0.3528980357 -0.2438380615 0.3530830934 -0.2441790396 -0.2301639836 0.1684360359
295298230.0 -0.2400052792 0.1755112653 0.350700858 -0.2475430364 0.3501623772 -0.2477029545 -0.2278842328 0.1703965762
300298200.0 -0.2387497611 0.1784947506 0.3481058832 -0.2516203393 0.3481123958 -0.2520222147 -0.2266151517 0.1731826415
305298170.0 -0.2364124472 0.1807164738 0.3446126441 -0.2558428501 0.3448916035 -0.2558418119 -0.2244442483 0.1754846498
310298140.0 -0.2350754847 0.1837402385 0.3423594515 -0.2598011462 0.3423734124 -0.2595745553 -0.2228811382 0.178098447
315298110.0 -0.2331652249 0.1857411229 0.3393958205 -0.2638549068 0.3392041774 -0.2635852235 -0.221092782 0.1801522091
320298080.0 -0.2312375483 0.1882286796 0.3360797018 -0.2673743086 0.3363507677 -0.2674280229 -0.2190395913 0.1826364006
325298050.0 -0.2293444299 0.1906936292 0.3333505516 -0.2716687604 0.3331818666 -0.2714793656 -0.2176793501 0.1850756876
330298020.0 -0.2275917199 0.1931470359 0.3300233271 -0.275175637 0.3303988065 -0.2747952789 -0.2158804082 0.1874110359
335297990.0 -0.2256610275 0.1954793444 0.3268555585 -0.2781581116 0.3270224096 -0.2789187818 -0.2140506702 0.1903886918
340297960.0 -0.2241140876 0.1984218822 0.323878105 -0.2822601508 0.3234415816 -0.2825569201 -0.2117310964 0.192872102
345297930.0 -0.2221199565 0.2008569581 0.3204782114 -0.2860930594 0.3204295882 -0.28615494 -0.2103027005 0.1948930477
350297900.0 -0.2199302484 0.2029351554 0.3166610315 -0.2894937793 0.3173193938 -0.2895195685 -0.2086091106 0.1979652719
355297870.0 -0.2177951941 0.2060252754 0.3136895401 -0.2930367122 0.3143077602 -0.293058939 -0.2065362403 0.2003134988
360297840.0 -0.2160851495 0.2083071736 0.3109328956 -0.2965283865 0.3113232088 -0.2961954069 -0.204889999 0.2029851073
365297810.0 -0.2140291379 0.210960932 0.3076045876 -0.2999810233 0.3076212602 -0.2998477777 -0.2022603045 0.2051711887
370297780.0 -0.2118901585 0.2129694981 0.3038821216 -0.3030348604 0.3042912204 -0.3026761768 -0.2004819828 0.2074800755
375297750.0 -0.2093664106 0.2154955438 0.3007759188 -0.3061375273 0.3010312996 -0.3065793347 -0.1984667507 0.2096607939
380297720.0 -0.207348369 0.2176723825 0.2972537097 -0.3100343664 0.2974410961 -0.3093229834 -0.1968920027 0.2120121231
385297690.0 -0.2053967453 0.220334767 0.2939259789 -0.3128114126 0.2937400767 -0.3129726171 -0.1943567339 0.2143408391
390297660.0 -0.2033923062 0.2229727844 0.2906522008 -0.3164338712 0.2903559549 -0.3161330761 -0.1928005384 0.216747504
395297630.0 -0.2008145545 0.225164317 0.2868996236 -0.3196478875 0.28709669 -0.3192873527 -0.1900196001 0.2187574342
400297600.0 -0.1983585413 0.2276331627 0.283042603 -0.3228409501 0.2832773196 -0.3226765406 -0.1878174304 0.2208171025
405297570.0 -0.1962309991 0.2296825106 0.2798206964 -0.3255176372 0.2796892059 -0.3253226861 -0.1861643207 0.2231979478
410297540.0 -0.1937710173 0.2320151289 0.2763034834 -0.3287923812 0.2767443665 -0.3286160227 -0.1838204376 0.2252577509
415297510.0 -0.1910431909 0.2337711613 0.2723290218 -0.3321002388 0.272812163 -0.3320460939 -0.181617802 0.2274605396
420297480.0 -0.1890193099 0.2364167769 0.2688422198 -0.3349069337 0.2686989367 -0.3348087949 -0.1794019792 0.2293835879
425297450.0 -0.1864480303 0.2382764977 0.2652046583 -0.3375799837 0.2652730134 -0.3374265222 -0.177114753 0.2313623027
430297420.0 -0.1840649128 0.2404270782 0.2612230119 -0.3400799664 0.2615299631 -0.3399351414 -0.1748130793 0.2329198471
435297390.0 -0.1816401143 0.2427155001 0.257415021 -0.343427256 0.2573534937 -0.3433766744 -0.171776108 0.235068683
440297360.0 -0.17892747 0.2446074373 0.2538648184 -0.3457260801 0.2538956486 -0.3458984452 -0.1696755073 0.2366718381
445297330.0 -0.1765431033 0.246345683 0.2502238903 -0.348912619 0.249883003 -0.3484262009 -0.1673994726 0.2383523437
450297300.0 -0.1739954388 0.2485283634 0.2460479313 -0.3515702064 0.2460555022 -0.351827876 -0.1645179505 0.2405451254
455297270.0 -0.1717571674 0.250415513 0.2418714796 -0.3540987743 0.2425134054 -0.3544718686 -0.1623690261 0.2421672442
460297240.0 -0.1692234492 0.2523895303 0.2379829043 -0.3564939719 0.2384942577 -0.3565174351 -0.1596585266 0.2440093047
465297210.0 -0.1661858753 0.2545257631 0.2345840318 -0.3592888789 0.234361456 -0.3595597362 -0.1567290575 0.2456498179
470297180.0 -0.1634855883 0.2562562248 0.2299339802 -0.3618074835 0.2302727562 -0.3616215781 -0.1542657866 0.2475356573
475297150.0 -0.1608696321 0.2579132718 0.2263296423 -0.363896048 0.2265472727 -0.3636675636 -0.1512134329 0.2489969893
480297120.0 -0.1582322469 0.2599022352 0.2222769515 -0.3665163411 0.2223776704 -0.3670470739 -0.1487545711 0.2510703073
485297090.0 -0.1556451557 0.2617756986 0.2185339323 -0.3690585172 0.218423228 -0.3690018959 -0.1461121333 0.2531175632
490297060.0 -0.1532048453 0.2634985355 0.2145572719 -0.3713895605 0.2146178739 -0.3712407863 -0.1433909728 0.2548086194
495297030.0 -0.1502669126 0.2652948144 0.2103597472 -0.3735309284 0.2103722423 -0.3733710146 -0.1407710572 0.2563630973
500297000.0 -0.1472080545 0.266917957 0.2061223349 -0.3755085183 0.2058508234 -0.3756542123 -0.1378012667 0.2584665306
505296970.0 -0.1444718752 0.2685151538 0.2018920802 -0.377782483 0.2015826779 -0.3781151454 -0.1352457651 0.2598609613
510296940.0 -0.1417994143 0.2703333717 0.1981382498 -0.3801669346 0.1979119839 -0.3803271152 -0.1321555037 0.2616284757
515296910.0 -0.1383463362 0.2718687963 0.1935763769 -0.3822954724 0.193473508 -0.3822157257 -0.1295379867 0.2630360501
520296880.0 -0.1359859489 0.2736447021 0.1894997071 -0.3846489864 0.1890928178 -0.3841843962 -0.1269563563 0.2645263868
525296850.0 -0.1333026701 0.2750428445 0.1853579098 -0.3862962806 0.18561807 -0.3863966536 -0.1242974081 0.2664394231
530296820.0 -0.1300581065 0.2767409723 0.1808539202 -0.388566834 0.1809658823 -0.3881011819 -0.121247322 0.2678059646
535296790.0 -0.1276221141 0.2781017023 0.1769054061 -0.3900886554 0.176934606 -0.3898110463 -0.1188966308 0.2693608284
540296760.0 -0.1245771689 0.2799650677 0.1723350041 -0.3921382729 0.172231519 -0.3923571721 -0.1161628932 0.2710751879
545296730.0 -0.1217055936 0.2811447567 0.167751165 -0.3940762888 0.1681134856 -0.3939590562 -0.1134665778 0.2722372933
550296700.0 -0.1182549747 0.2828145507 0.1638227804 -0.3956813916 0.1637935148 -0.3959105896 -0.1106055059 0.2736934796
555296670.0 -0.1155708463 0.2837116604 0.159345922 -0.3974294683 0.159919098 -0.3972212064 -0.1077026327 0.275169676
560296640.0 -0.1122585587 0.2855982842 0.1548289617 -0.3995992695 0.155255893 -0.3993050764 -0.1049371417 0.2762199524
565296610.0 -0.1098462023 0.2868413341 0.1508322591 -0.4010892895 0.1507774653 -0.4008498772 -0.1024798915 0.2773536505
570296580.0 -0.1068086759 0.287838649 0.1464944523 -0.4024459017 0.1459663095 -0.4026647067 -0.0995034468 0.2792949889
575296550.0 -0.1038978283 0.2895924285 0.1421802052 -0.4041069157 0.1417387892 -0.4041416321 -0.0960987401 0.2801789817
580296520.0 -0.1004440115 0.2904743881 0.1376344407 -0.4055816836 0.1376767944 -0.4053384724 -0.0933796598 0.281229595
585296490.0 -0.0980627558 0.2913440526 0.1336974112 -0.4066976051 0.1330816481 -0.4069808969 -0.0906203377 0.28217356
590296460.0 -0.0943008623 0.2930833796 0.1286074929 -0.4079006559 0.1283589081 -0.4080447433 -0.0881349707 0.2833456936
595296430.0 -0.0911425523 0.2938287873 0.1237604091 -0.4096993982 0.124183063 -0.4096034119 -0.0848865325 0.2839993501
600296400.0 -0.0885991819 0.2952809939 0.1196149256 -0.4108031691 0.1196253673 -0.4107458469 -0.0822126814 0.2850818191
605296370.0 -0.0856482445 0.2962308142 0.1151754232 -0.4122245373 0.1155479111 -0.4120314949 -0.078717006 0.2862498765
610296340.0 -0.0823676813 0.2970712816 0.1105882812 -0.4135556703 0.1106582321 -0.4131661425 -0.0758746613 0.2870702365
615296310.0 -0.0788422026 0.2979982234 0.1060301016 -0.4139952179 0.1059765279 -0.4145174958 -0.0725223279 0.2878373797
620296280.0 -0.0760179321 0.2986636005 0.1018446496 -0.4153265373 0.1017506117 -0.41513922 -0.0697823824 0.2889227744
625296250.0 -0.0728517607 0.2997664089 0.0974836272 -0.4164963099 0.0969421425 -0.416383785 -0.0662366777 0.2893020113
630296220.0 -0.0693275499 0.3007860531 0.0921685575 -0.4177631726 0.0924298255 -0.4171994311 -0.0633055755 0.2900937679
635296190.0 -0.0668651526 0.3016947757 0.0878519456 -0.4181950747 0.0881811602 -0.4183403615 -0.0602960992 0.2912377929
640296160.0 -0.0637577492 0.3025594627 0.083302338 -0.4192046286 0.0837618153 -0.419083297 -0.0570632001 0.2919147878
645296130.0 -0.060238919 0.3035598353 0.0788883526 -0.4197985168 0.0791116465 -0.4200183753 -0.0539262317 0.2927903389
650296100.0 -0.0569488421 0.3040707923 0.0742621698 -0.4208662385 0.0745629385 -0.4207348899 -0.0505960639 0.2926824171
655296070.0 -0.0540876568 0.3046613271 0.0696575473 -0.421457297 0.0699791051 -0.4218558683 -0.0474041375 0.2938135399
660296040.0 -0.0509091443 0.3051740589 0.0651381247 -0.4219933928 0.0653798456 -0.4226945805 -0.0439200201 0.2947382308
665296010.0 -0.0474928836 0.3057080516 0.0605830766 -0.4227745766 0.0604685227 -0.4226557572 -0.0409284161 0.2956461109
670295980.0 -0.044979193 0.3065843025 0.0560466539 -0.4231856431 0.0560823913 -0.4233686413 -0.0382800162 0.2959947211
675295950.0 -0.0414541129 0.307434811 0.0516734122 -0.4240807477 0.0516524012 -0.4235904685 -0.0353068225 0.2967424053
680295920.0 -0.0380272229 0.3079245924 0.0470951518 -0.4246188899 0.0462680367 -0.4247870073 -0.0314980643 0.2976003214
685295890.0 -0.0348633182 0.3090165072 0.0424831866 -0.4255087613 0.0420216486 -0.4250339755 -0.0287534683 0.2976696917
690295860.0 -0.0316254873 0.3088716189 0.0378736947 -0.4248083315 0.0376254276 -0.425634705 -0.0255435432 0.2989586581
695295830.0 -0.0283007714 0.309290308 0.0332006394 -0.4255590092 0.0331406028 -0.4255642297 -0.0223605479 0.2991623481
700295800.0 -0.025025408 0.3097537031 0.0282864525 -0.4257651348 0.0278393172 -0.4256537952 -0.0194888801 0.2997513415
705295770.0 -0.0220584671 0.3106105158 0.023885387 -0.4263605316 0.0241798752 -0.426641807 -0.016348977 0.3005179909
710295740.0 -0.0187689963 0.3108528496 0.0191741065 -0.4265980574 0.0190882063 -0.426714999 -0.0130302957 0.3002599157
715295710.0 -0.0157395185 0.3108187447 0.0152093432 -0.4266847837 0.0143859013 -0.4266353979 -0.0099036374 0.3007466019
720295680.0 -0.0122924769 0.3112593078 0.009860878 -0.4271324936 0.0100828794 -0.4270268026 -0.0067224164 0.3016469859
725295650.0 -0.0086566848 0.3115106067 0.0054034687 -0.4266496458 0.0054853615 -0.4270344282 -0.0040993287 0.3016472183
730295620.0 -0.0051470063 0.3117801421 0.0003629762 -0.426341994 0.000921362 -0.427190333 -0.0011587187 0.3016740975
735295590.0 -0.0019002962 0.3120081341 -0.004192866 -0.4268771969 -0.0039768874 -0.4267951731 0.0020386743 0.3015832082
740295560.0 0.000837306 0.3125240882 -0.008601635 -0.426634834 -0.0085697577 -0.4268157766 0.0057467298 0.3020725847
745295530.0 0.0041468707 0.3123588391 -0.0133457391 -0.4263185264 -0.0134249378 -0.426428704 0.0085849424 0.3014696355
750295500.0 0.007672415 0.3125984765 -0.0176409709 -0.4261174728 -0.0178188513 -0.426533811 0.0113810444 0.3018813765
755295470.0 0.0109609059 0.3123491801 -0.0225348849 -0.4262025396 -0.0224989056 -0.4260978236 0.0146896169 0.3012449028
760295440.0 0.013843327 0.3124220337 -0.0270264998 -0.4257958435 -0.0272736236 -0.4258451 0.0178390181 0.3013224519
765295410.0 0.0171676094 0.3124992743 -0.0315303361 -0.4255826178 -0.0319396033 -0.4254572032 0.0212054169 0.3014336511
770295380.0 0.0204069365 0.3124599796 -0.0362586217 -0.4248367813 -0.0363435739 -0.4243756235 0.0240272549 0.3013187452
775295350.0 0.0233931827 0.3118515733 -0.041185631 -0.4240629435 -0.0404246614 -0.4245907301 0.0265832609 0.3011158767
780295320.0 0.0269485364 0.3118904995 -0.0453191789 -0.4237241426 -0.0450475171 -0.4235608272 0.0302064012 0.300653513
785295290.0 0.030146014 0.3113761978 -0.0502173782 -0.4231403983 -0.0498043242 -0.4231486177 0.03367301 0.3004544911
790295260.0 0.0337622399 0.3116798757 -0.0544773067 -0.4228061759 -0.0538378625 -0.4222669183 0.0370333305 0.2998357261
795295230.0 0.0366763867 0.3114948321 -0.0589849745 -0.4219761621 -0.0588079746 -0.4220574247 0.040284319 0.2999975606
800295200.0 0.0395034258 0.3110330284 -0.0637258413 -0.4210425063 -0.0636022275 -0.4215735837 0.0434539345 0.2997324929
805295170.0 0.0433486351 0.3105198096 -0.0681842457 -0.420477235 -0.0683533839 -0.4204222136 0.0465979373 0.2992552142
810295140.0 0.0464843981 0.3100273964 -0.0726173607 -0.4193660593 -0.0728152216 -0.4197461026 0.0502582904 0.2989929763
815295110.0 0.0497070536 0.3096932923 -0.0771057874 -0.418278379 -0.0769046764 -0.4189398583 0.0530858084 0.2986280502
820295080.0 0.0524809417 0.3095478895 -0.0815354005 -0.4177932219 -0.0811641456 -0.4178231664 0.0563835406 0.2982548967
825295050.0 0.0563900573 0.3088427637 -0.0858453589 -0.4169539448 -0.0860668206 -0.4171124385 0.0597628016 0.2978868008
830295020.0 0.0592355522 0.3086773139 -0.0910237554 -0.4160303496 -0.0906711961 -0.4159172771 0.0634554335 0.2974099558
