!Created with skrf (http://scikit-rf.org).
# Hz S RI R 50.0 
!freq ReS11 ImS11 ReS21 ImS21 ReS12 ImS12 ReS22 ImS22
300000.0 -0.3133862639 -0.1295377563 0.3712052847 0.0661297452 0.3698982624 0.0653263126 -0.3134041129 -0.1305870678
5299970.0 -0.3249199939 0.0031194816 0.3783469312 0.0033430377 0.3789317073 0.0031238617 -0.3260349881 0.0019810786
10299940.0 -0.3225901434 0.0143520292 0.3802178131 0.0026723044 0.3798773821 0.003245999 -0.3232702428 0.0123010826
15299910.0 -0.3188722744 0.0222983071 0.3819322642 0.0026023199 0.3822485932 0.0027990779 -0.3208326604 0.019955487
20299880.0 -0.3155330379 0.0288931255 0.3847845788 0.0017229255 0.3850514417 0.0021370389 -0.3178089915 0.0258316979
25299850.0 -0.3113619305 0.0348700978 0.3885829809 0.0004826067 0.3887453801 9.85774e-05 -0.3147433531 0.0313711957
30299820.0 -0.3084642708 0.0393385327 0.39221448 -0.0019438137 0.3922042147 -0.0021986905 -0.3120464386 0.0356241862
35299790.0 -0.3044659141 0.0437176659 0.3950522365 -0.0051212805 0.3954695744 -0.0053285829 -0.3092367708 0.0399724786
40299760.0 -0.3011703305 0.0471641163 0.3982946655 -0.0085688771 0.3985238348 -0.0088560712 -0.3064676138 0.0432002911
45299730.0 -0.2979407725 0.0501749783 0.4011784565 -0.0124723684 0.4016575443 -0.012731688 -0.3035647927 0.0466272172
50299700.0 -0.2948787573 0.0526425911 0.4034943356 -0.0169690199 0.4039585836 -0.0171008716 -0.3012812834 0.0498271886
55299670.0 -0.2921597441 0.0554560758 0.4056821989 -0.0216393614 0.40581722 -0.0219138712 -0.2992443015 0.0522918617
60299640.0 -0.2898133269 0.0580266263 0.4080094148 -0.0267760378 0.4083266638 -0.026906146 -0.2970735998 0.0547450201
65299610.0 -0.2873551138 0.0599966561 0.4096701075 -0.0318387096 0.4097133939 -0.0318291548 -0.2953722911 0.0577361028
70299580.0 -0.2853549108 0.0618829822 0.4106135764 -0.0363768625 0.4112548692 -0.036838043 -0.2938925431 0.0602677833
75299550.0 -0.2835999538 0.0642668178 0.4117232758 -0.0420317927 0.4118509985 -0.0420884632 -0.2916261461 0.0623113857
80299520.0 -0.2816047563 0.0664556731 0.4125923255 -0.0474711752 0.4131253983 -0.0472685636 -0.2904403414 0.0649648007
85299490.0 -0.279811607 0.0681853388 0.4134753347 -0.0523683349 0.4136870266 -0.0522309426 -0.2890358604 0.0670969465
90299460.0 -0.2783162431 0.0706328963 0.4139319371 -0.0577587061 0.4136007069 -0.0577399302 -0.2877575669 0.0693954093
95299430.0 -0.2769910795 0.0727288993 0.4141635959 -0.0629314948 0.41446144 -0.0633556999 -0.2864428061 0.071917334
100299400.0 -0.2752600165 0.074597041 0.4138362182 -0.0678110582 0.4139518787 -0.068247922 -0.2852869657 0.0744152193
105299370.0 -0.2739719379 0.0767274091 0.4139158438 -0.0732255471 0.4144938894 -0.0733873125 -0.284117923 0.0762055682
110299340.0 -0.2724634896 0.0788166493 0.4135604241 -0.0781268494 0.4138861522 -0.0782342501 -0.2830822561 0.078416784
115299310.0 -0.2715506591 0.0811501545 0.413406543 -0.0835001745 0.413355724 -0.083603872 -0.2822024195 0.0814260224
120299280.0 -0.2705179298 0.0834919029 0.413571735 -0.0889257446 0.4129022561 -0.0890321867 -0.2806765576 0.083315066
125299250.0 -0.2692115106 0.0853616462 0.4124802921 -0.0938536158 0.4124907779 -0.0938436503 -0.2801302857 0.0858600904
130299220.0 -0.2682995603 0.087341491 0.4120908565 -0.0988065763 0.4118646356 -0.0994942393 -0.2786803784 0.0884184995
135299190.0 -0.267337434 0.0899892249 0.4113132557 -0.1035477708 0.4113961727 -0.1040902507 -0.2781957105 0.0906146569
140299160.0 -0.2661351064 0.092111736 0.4105600062 -0.1091831465 0.4104033118 -0.1088060399 -0.2777172179 0.0931391899
145299130.0 -0.2651610449 0.0945338216 0.4097907351 -0.1141299219 0.4097733685 -0.1138509664 -0.276311603 0.0957926807
150299100.0 -0.2642136154 0.0970596559 0.4087412591 -0.1193005302 0.4084427035 -0.1188481359 -0.2754500998 0.0982974488
155299070.0 -0.263339011 0.0992488456 0.4069017846 -0.123641966 0.4072420278 -0.1238252069 -0.274666966 0.1011000226
160299040.0 -0.2624158672 0.1020414648 0.4061075809 -0.1285988325 0.4060756854 -0.1290859452 -0.2739105411 0.1039315816
165299010.0 -0.2611690715 0.1042648039 0.404964646 -0.1332373351 0.4045674938 -0.1336186505 -0.272455044 0.1060117378
170298980.0 -0.2601741872 0.1067140963 0.4031400813 -0.138120271 0.4036342634 -0.1382110316 -0.2720814162 0.1086504539
175298950.0 -0.2591516303 0.1093872281 0.4023523731 -0.1433541956 0.4023318121 -0.1432612917 -0.2708504408 0.1113091198
180298920.0 -0.2581265313 0.1118409296 0.400656381 -0.1478993135 0.4005873601 -0.1482658175 -0.2699327444 0.1141365957
185298890.0 -0.257138038 0.1145938966 0.3994028876 -0.1524593827 0.3992337529 -0.1527593403 -0.2688030155 0.1166293684
190298860.0 -0.2558074455 0.1172351914 0.397283397 -0.1572234994 0.397799211 -0.1571176094 -0.2677663428 0.1191401469
195298830.0 -0.2546624638 0.1197995011 0.3963577025 -0.1617702687 0.3958515907 -0.1620253207 -0.2667161355 0.1216913831
200298800.0 -0.2534520948 0.1220434389 0.3941689674 -0.1666882727 0.3939997375 -0.1666778018 -0.265343503 0.1245280979
205298770.0 -0.252773978 0.1247908327 0.392257947 -0.1711508489 0.392497121 -0.1711258436 -0.264588657 0.1273626539
210298740.0 -0.2514639492 0.1275711213 0.390348908 -0.1759100026 0.3902699484 -0.1757587889 -0.2633752905 0.1300213502
215298710.0 -0.2504236185 0.1300862193 0.3882620775 -0.1801146527 0.3887243806 -0.1804434498 -0.262247419 0.1326734603
220298680.0 -0.24894201 0.1323739685 0.3865518504 -0.1845999647 0.3866603916 -0.1849264566 -0.2611038046 0.1354917278
225298650.0 -0.2478745441 0.1353204424 0.3845220012 -0.1892612329 0.3846957141 -0.1887634822 -0.2598718493 0.1380636128
230298620.0 -0.2463358471 0.1380977866 0.3824621259 -0.1934724713 0.3829292058 -0.1938571001 -0.258445758 0.1404138415
235298590.0 -0.2453911634 0.1406048862 0.380633 -0.1983106053 0.3805495643 -0.1979628255 -0.2571202494 0.143414536
240298560.0 -0.2441699288 0.1431048237 0.3783593607 -0.2018440059 0.3784570301 -0.2021656311 -0.2559972706 0.1457541501
245298530.0 -0.2428433891 0.1456220721 0.3761887506 -0.206717376 0.3761279951 -0.2069042871 -0.2547408176 0.1488205234
250298500.0 -0.2417251439 0.1484322942 0.3740257897 -0.2106659233 0.3736859038 -0.2105591206 -0.2537281187 0.1516113238
255298470.0 -0.2399651809 0.1510435168 0.371862526 -0.2149452229 0.3719738231 -0.2150564245 -0.2518362886 0.154077423
260298440.0 -0.2386558371 0.1536524102 0.3691664292 -0.2188964859 0.3695651964 -0.2190382824 -0.25078295 0.15659611
265298410.0 -0.2374943545 0.1562112998 0.366835964 -0.2235584933 0.3666373227 -0.2236639101 -0.2487804615 0.1591632995
270298380.0 -0.2360254332 0.1585091518 0.3644803224 -0.2274923659 0.3643885906 -0.2273753813 -0.2472208161 0.1620576371
275298350.0 -0.2343627008 0.1614673815 0.3613417858 -0.2313843541 0.361846678 -0.231602963 -0.2456762486 0.1650500325
280298320.0 -0.2330969974 0.1640877098 0.3595338182 -0.235630393 0.3598746911 -0.2355719671 -0.2440719617 0.1675460644
285298290.0 -0.2315879301 0.1666962629 0.3566721443 -0.2393968886 0.356854415 -0.2396183464 -0.2427554225 0.1704270679
290298260.0 -0.2299413182 0.1691816718 0.3545803926 -0.2435336735 0.3545341391 -0.243579817 -0.2414237684 0.1729519747
295298230.0 -0.228407449 0.1717892978 0.3516276132 -0.2479022271 0.3516899851 -0.2479071477 -0.2392286446 0.1755698514
300298200.0 -0.2266562052 0.1744073924 0.348998431 -0.2517765627 0.3493187375 -0.251721938 -0.2377314839 0.1779063137
305298170.0 -0.2252622947 0.1764817764 0.3463284056 -0.2556487912 0.3462698458 -0.2557526964 -0.2358474728 0.1803091129
310298140.0 -0.2230052947 0.1786875269 0.3432060289 -0.2593988403 0.3436765388 -0.2596409078 -0.2340566606 0.1831344794
315298110.0 -0.2219254878 0.1811016082 0.3406477847 -0.2636131764 0.3405644073 -0.2636939878 -0.2319738182 0.1853201543
320298080.0 -0.2200616522 0.1840742253 0.337171674 -0.2674650841 0.3376871092 -0.2674744063 -0.2304181314 0.1882181421
325298050.0 -0.2184230039 0.1857589386 0.3342703323 -0.2710977434 0.3348368224 -0.2712843064 -0.2283135862 0.1903410174
330298020.0 -0.2172264666 0.188646198 0.3316547527 -0.2748611304 0.3316462276 -0.2752008173 -0.2267363828 0.192820673
335297990.0 -0.2150485408 0.1906557051 0.3281349614 -0.2785622697 0.3283686218 -0.2787306223 -0.2248448211 0.1953253862
340297960.0 -0.2136314192 0.1932919946 0.3249391241 -0.2821835127 0.3252137077 -0.2825562433 -0.2232398744 0.1984449486
345297930.0 -0.2119040012 0.1955814922 0.3219000304 -0.2857819337 0.3221091073 -0.2860504583 -0.2213306935 0.1999932981
350297900.0 -0.2100199805 0.197927377 0.3186621759 -0.2891449994 0.3190078223 -0.2892887476 -0.2193595668 0.2026211945
355297870.0 -0.2081897635 0.2004179201 0.3154707726 -0.2927926353 0.3155492032 -0.2924229366 -0.2170709879 0.2056226156
360297840.0 -0.2062012616 0.202758602 0.3120956379 -0.2963532337 0.3122937409 -0.2964183994 -0.2152019103 0.2079099455
365297810.0 -0.2045368262 0.2050130271 0.3090194439 -0.2996851623 0.3088685599 -0.2998245224 -0.2134017864 0.2102797369
370297780.0 -0.202264571 0.2070946796 0.3051751277 -0.3032013627 0.3061279508 -0.303021447 -0.2114195065 0.2127691735
375297750.0 -0.200422538 0.2097073235 0.3021179445 -0.3063988944 0.3023421132 -0.3066486517 -0.2086351392 0.2152989704
380297720.0 -0.1984339567 0.2119433327 0.2989330338 -0.30992482 0.2988367816 -0.3099595153 -0.2065792192 0.2178455399
385297690.0 -0.1966256896 0.2140606055 0.2952012895 -0.3129766931 0.2955401118 -0.3131731723 -0.2045013644 0.2198289476
390297660.0 -0.1939903411 0.2160326266 0.2917436205 -0.3162427228 0.2921624843 -0.3160814343 -0.2022608115 0.2218429015
395297630.0 -0.1918073197 0.2185195092 0.2886143903 -0.3191836421 0.2886505283 -0.319058816 -0.1999706311 0.223983503
400297600.0 -0.1901084338 0.220953127 0.2847188345 -0.3225940717 0.2853895094 -0.3224490208 -0.1980980629 0.2268099505
405297570.0 -0.1879116603 0.2228353952 0.2812665179 -0.3256432905 0.2814560913 -0.3257031336 -0.1948252095 0.2290921051
410297540.0 -0.1856088197 0.2248208169 0.2779528224 -0.3289280495 0.2781299068 -0.3289048063 -0.1930612602 0.2312749668
415297510.0 -0.1836670197 0.2270998916 0.2741873767 -0.3319973411 0.27456615 -0.3316379507 -0.1903141816 0.2332472107
420297480.0 -0.1808866977 0.2283800555 0.2702366537 -0.3346570866 0.2705635253 -0.3346333939 -0.1877667838 0.235972773
425297450.0 -0.1786929208 0.2304614272 0.2669423231 -0.3373779188 0.2667651595 -0.3377148343 -0.18577077 0.237553565
430297420.0 -0.1763094601 0.2327778808 0.2636266199 -0.3403694075 0.2631903687 -0.3402437689 -0.182694678 0.2398875915
435297390.0 -0.1742584095 0.2348847642 0.2595362288 -0.3438998782 0.2592203769 -0.3431752781 -0.1809462923 0.2421130604
440297360.0 -0.171679088 0.2363619814 0.2553602474 -0.3464984959 0.2554480155 -0.346190933 -0.178328336 0.2442250293
445297330.0 -0.1690203087 0.2384458624 0.251816546 -0.3488548676 0.2517485362 -0.3493271094 -0.1754219534 0.2463467136
450297300.0 -0.1665599953 0.2403482586 0.247492179 -0.3515655365 0.2479832024 -0.3515874956 -0.1723195531 0.2480979513
455297270.0 -0.164249259 0.2420530629 0.2440997143 -0.3540105344 0.2440981701 -0.3543626295 -0.1701966344 0.2501291469
460297240.0 -0.1616800857 0.2441453126 0.2403493814 -0.3573642057 0.2401257608 -0.3568819847 -0.1675576422 0.2518372286
465297210.0 -0.1589215759 0.2458673268 0.2359556458 -0.3597779895 0.2356300688 -0.3599171878 -0.1646695461 0.2543756409
470297180.0 -0.1563440795 0.2476074194 0.2322845897 -0.3618116888 0.2323305951 -0.3621920001 -0.1622349579 0.2559060619
475297150.0 -0.1543670981 0.2496137798 0.2282772125 -0.3648512155 0.228256958 -0.364817095 -0.1594014163 0.2578777397
480297120.0 -0.150870795 0.2514106048 0.2240859447 -0.367263613 0.2242382745 -0.3672343602 -0.1569814331 0.2599035187
485297090.0 -0.1485939217 0.2529572675 0.2199029932 -0.3693742122 0.2201016642 -0.3693930038 -0.1541569008 0.261496966
490297060.0 -0.1454946254 0.2545702648 0.2156485612 -0.372115711 0.2158947632 -0.3720391835 -0.1515909472 0.2632080973
495297030.0 -0.143063977 0.2561414331 0.2117833423 -0.3743597602 0.2119011457 -0.3744446373 -0.1483266815 0.2648571575
500297000.0 -0.1404809285 0.2577980709 0.2080096168 -0.3762290267 0.2078848678 -0.3765428986 -0.1457463916 0.2667344366
505296970.0 -0.1372120687 0.2594529747 0.2035888348 -0.3791445433 0.2036327062 -0.3785332887 -0.1429352083 0.2682674916
510296940.0 -0.1346071948 0.2610866552 0.1994629246 -0.3813325871 0.1998598941 -0.3811663079 -0.1398185863 0.2699106647
515296910.0 -0.1317002568 0.2627084354 0.1951654354 -0.3830357755 0.1951131074 -0.383196254 -0.1371043084 0.2715371394
520296880.0 -0.1289709988 0.2643749336 0.1911104384 -0.3852854265 0.1906879369 -0.3850167501 -0.1336859555 0.2733566165
525296850.0 -0.125972452 0.2653289833 0.1862581967 -0.386793033 0.1864186818 -0.387093746 -0.1311059761 0.2748976295
530296820.0 -0.1236255573 0.2670843195 0.1822820363 -0.3892602358 0.1823807922 -0.3891260114 -0.1284603808 0.276181326
535296790.0 -0.1198084615 0.2685988809 0.1778683406 -0.3908630111 0.1780988826 -0.3913779856 -0.1253986611 0.2781607363
540296760.0 -0.117177717 0.2701106675 0.1736200624 -0.3928596983 0.1734760149 -0.3926593288 -0.1225642837 0.2790434119
545296730.0 -0.1146109095 0.2717619259 0.1698293105 -0.3946542875 0.1695381543 -0.3946419061 -0.1195657096 0.2806924661
550296700.0 -0.1111652909 0.2728315771 0.1651221929 -0.3966723665 0.1649369798 -0.3966354771 -0.1164663626 0.2819210358
555296670.0 -0.1086961182 0.2741705242 0.1609468173 -0.3985739404 0.160789977 -0.3981550622 -0.1135571587 0.2830615325
560296640.0 -0.1050692669 0.2752880234 0.1559734889 -0.3997829205 0.1565111401 -0.3999531709 -0.1107457492 0.2848708931
565296610.0 -0.1026156515 0.276819682 0.1522857849 -0.4017503093 0.1521491396 -0.4011250086 -0.1073043157 0.2860096017
570296580.0 -0.0999134687 0.2781141542 0.1479783783 -0.4029718596 0.1475399023 -0.403248417 -0.1046113313 0.2872551046
575296550.0 -0.0961608994 0.2792445824 0.143493267 -0.404833022 0.142988179 -0.4047522133 -0.1014902751 0.2883925012
580296520.0 -0.0931581615 0.2807815362 0.1387592023 -0.4065517937 0.1384945638 -0.4063663774 -0.0986681295 0.2894878709
585296490.0 -0.0901448953 0.281765871 0.1349059417 -0.4079028113 0.1339353546 -0.4076705696 -0.095084299 0.2910342145
590296460.0 -0.0865242453 0.2829657785 0.1298775659 -0.4092664424 0.1296992083 -0.4092351335 -0.0922999304 0.2921559788
595296430.0 -0.0838280151 0.2838897396 0.1248519231 -0.4102983431 0.1251482128 -0.4103458301 -0.0893173453 0.2928781344
600296400.0 -0.08060198 0.2852412124 0.1203356847 -0.4115589733 0.1206689236 -0.4116635257 -0.0861698143 0.2940451141
605296370.0 -0.0780749298 0.2863200493 0.1166169495 -0.4129773695 0.1160293344 -0.4131223653 -0.0829708423 0.2952014196
610296340.0 -0.0745844751 0.2876726844 0.1120326425 -0.4139900199 0.1119924434 -0.4140640456 -0.0801229601 0.29641028
615296310.0 -0.0712542709 0.2885088809 0.1073043799 -0.4155438931 0.1068129083 -0.4152980171 -0.0766290103 0.2972524072
620296280.0 -0.0685154111 0.2898737978 0.1026522236 -0.4165199412 0.1024957832 -0.4165171757 -0.0739138994 0.2983591034
625296250.0 -0.0654362108 0.290221938 0.0984337372 -0.4177554845 0.098243231 -0.4174381961 -0.0707236144 0.2987948831
630296220.0 -0.062135727 0.2915318305 0.0937330228 -0.4185345048 0.0931385841 -0.41831773 -0.0673659196 0.2999123219
635296190.0 -0.0591079284 0.2925708747 0.0894484726 -0.4193811058 0.0889891125 -0.4192983812 -0.0640405142 0.3007563479
640296160.0 -0.0561568978 0.2932548793 0.0847036318 -0.4206100899 0.0842894312 -0.4202860626 -0.0611406321 0.3015586032
645296130.0 -0.0527012125 0.2946716761 0.0796855952 -0.4212763452 0.0798873215 -0.420973048 -0.0580484484 0.3022670053
650296100.0 -0.0496793503 0.2949491921 0.0755022101 -0.4220029745 0.0747866479 -0.4220055711 -0.054385979 0.303107796
655296070.0 -0.0466853254 0.2959664338 0.0706822144 -0.4231586782 0.0705647114 -0.4226333655 -0.051758634 0.3040265957
660296040.0 -0.0435165493 0.2966130852 0.0663686813 -0.4234514955 0.0659329332 -0.4235713031 -0.0482871636 0.3042551679
665296010.0 -0.0401722589 0.297000451 0.0613669302 -0.4239865574 0.0612514024 -0.4240680227 -0.0450917981 0.3052011118
670295980.0 -0.0375473218 0.2981450111 0.0567481567 -0.4249392239 0.0570542743 -0.4245200032 -0.0421939243 0.3053290079
675295950.0 -0.0340538512 0.2984527094 0.0525246189 -0.4249357013 0.0522493387 -0.4252491619 -0.0384516236 0.3063285294
680295920.0 -0.0313268991 0.2995128329 0.0479806837 -0.4255701082 0.0476692766 -0.4254804732 -0.0352976007 0.3063982721
685295890.0 -0.0277460174 0.3004174962 0.0428475167 -0.4263310308 0.0430802401 -0.4267747469 -0.032382564 0.3072852134
690295860.0 -0.0251305078 0.3003701462 0.0385947713 -0.426691674 0.0380866803 -0.4268157887 -0.0290406529 0.3078389375
695295830.0 -0.0217795466 0.3011122623 0.034222274 -0.427036591 0.0336019942 -0.4267066631 -0.0258064244 0.3084853339
700295800.0 -0.0184733536 0.3017344105 0.0297396286 -0.4272734347 0.0289826848 -0.4271407016 -0.0224086144 0.3084190652
705295770.0 -0.0156720918 0.3021669644 0.0247087567 -0.4276975746 0.0244453621 -0.4277730371 -0.0192126552 0.3093653432
710295740.0 -0.0125468309 0.3020706716 0.0201410297 -0.4274389732 0.0199714709 -0.4280345274 -0.0161908714 0.3095234849
715295710.0 -0.0090134469 0.302871204 0.0156191427 -0.4276899398 0.0152309402 -0.4279174549 -0.0126403503 0.3095775112
720295680.0 -0.005604328 0.3031947897 0.0108173821 -0.4279212475 0.0102127851 -0.4279594336 -0.0094593372 0.3098098242
725295650.0 -0.0032051581 0.3038028678 0.0064212532 -0.4284537101 0.0063412562 -0.4282022186 -0.0065125317 0.3107319171
730295620.0 -0.000388853 0.3038518465 0.0016524154 -0.4276135706 0.0015094707 -0.427766167 -0.0033787302 0.3107141726
735295590.0 0.0028858982 0.3044255176 -0.0027263934 -0.428187882 -0.0031039499 -0.4281555909 0.0002121931 0.3105922589
740295560.0 0.0059675216 0.3043917945 -0.0076910731 -0.4279258202 -0.0076571413 -0.4283184856 0.0033185585 0.3109633444
745295530.0 0.0091028622 0.3046089113 -0.0118930408 -0.4272298978 -0.0116671418 -0.4273478377 0.0064148759 0.3105339818
750295500.0 0.0119007989 0.304792518 -0.0165465405 -0.4274134592 -0.0167830104 -0.4275428897 0.009780591 0.3108719011
755295470.0 0.0151771916 0.3049665739 -0.0210981369 -0.4275601006 -0.0213698846 -0.4275659477 0.0129461103 0.3112661624
760295440.0 0.0183440864 0.3053003337 -0.026320578 -0.427074763 -0.0263991907 -0.4265847283 0.0164181223 0.3104910033
765295410.0 0.0215465058 0.3049316199 -0.0305058737 -0.4267362325 -0.0303034201 -0.4268149796 0.0195342237 0.3108568326
770295380.0 0.0246123002 0.305321005 -0.034883302 -0.4261763283 -0.035418327 -0.4262699983 0.0226473706 0.3109215809
775295350.0 0.0271464037 0.3048790347 -0.0393875822 -0.4259547698 -0.0396738443 -0.4256575075 0.0260678942 0.3107287735
780295320.0 0.0305249179 0.3051974652 -0.0438041786 -0.4251032782 -0.044267865 -0.4254351236 0.0292976544 0.3106574356
785295290.0 0.0333620321 0.3046422696 -0.0486698262 -0.4249786451 -0.0485708247 -0.4250187464 0.0322593698 0.3109084553
790295260.0 0.036386614 0.3045936289 -0.053418273 -0.4242329217 -0.0532821717 -0.4243611535 0.0353937341 0.310683062
795295230.0 0.0395899454 0.3041799618 -0.0580790975 -0.4235923897 -0.0580363143 -0.4237452832 0.0390440959 0.3093703398
800295200.0 0.0425733845 0.3041929373 -0.0621023536 -0.422686246 -0.0626751423 -0.4232278812 0.0421910288 0.3096786048
805295170.0 0.0455278783 0.3042102108 -0.0665955417 -0.4221230424 -0.0669960871 -0.4225076502 0.0458115665 0.3093539379
810295140.0 0.0489106316 0.304037523 -0.0714115267 -0.4215784368 -0.0717298071 -0.4215328431 0.0489201345 0.308890971
815295110.0 0.0518326522 0.3033377375 -0.0761244337 -0.4203736738 -0.0758409601 -0.4207688888 0.0515227331 0.3086654795
820295080.0 0.0547634367 0.3029775806 -0.0803852878 -0.4194431326 -0.0802313899 -0.4200272677 0.0544453379 0.30850734
825295050.0 0.0576438455 0.3026106375 -0.0851298945 -0.4189214996 -0.085252565 -0.4190944909 0.058558539 0.3080571951
830295020.0 0.060689936 0.3021929398 -0.0893908452 -0.4177711151 -0.0894310424 -0.4182944189 0.0613694422 0.3070363169
