!Created with skrf (http://scikit-rf.org).
# Hz S RI R 50.0 
!freq ReS11 ImS11 ReS21 ImS21 ReS12 ImS12 ReS22 ImS22
300000.0 -0.2357042523 -0.1089706962 0.4661295949 0.0722207034 0.4711998131 0.0742484511 -0.2363912474 -0.114392208
5299970.0 -0.24084809 0.007088968 0.475344811 0.0054121199 0.4750880756 0.0055152587 -0.2446652378 0.0054217108
10299940.0 -0.2370525734 0.020176207 0.4771438415 0.0059960928 0.4766850314 0.0066210271 -0.2414229272 0.0175864733
15299910.0 -0.2327012686 0.02987526 0.4800077855 0.0074454474 0.4801907025 0.0078754242 -0.2373583812 0.0261440346
20299880.0 -0.2273235996 0.0379076416 0.4850481078 0.0080999232 0.4852004134 0.00812298 -0.2327212125 0.0341349781
25299850.0 -0.2216370766 0.0443147722 0.490706175 0.006944218 0.4904606387 0.0071340229 -0.2278096527 0.0399698728
30299820.0 -0.2157190303 0.0495649823 0.496115656 0.0048754409 0.4957261631 0.005009585 -0.2224317075 0.0449658612
35299790.0 -0.2098906978 0.0543246005 0.5012086691 0.0018981249 0.5012552244 0.0016518636 -0.217242881 0.0485154875
40299760.0 -0.2045522377 0.0570701601 0.5064927604 -0.0019764437 0.5064585956 -0.0021835856 -0.2127177216 0.051836176
45299730.0 -0.1996905684 0.0599613913 0.5112825225 -0.0072273003 0.5111043348 -0.006662852 -0.2082495441 0.0543536128
50299700.0 -0.1945418303 0.061898394 0.5149255779 -0.0129179483 0.5151169651 -0.0124410999 -0.2035692547 0.0565065227
55299670.0 -0.1905186983 0.0637386686 0.5181051649 -0.0187942243 0.5188459065 -0.018535023 -0.199925305 0.0579007989
60299640.0 -0.186449155 0.0649907816 0.5218723717 -0.0248177004 0.522094512 -0.0248740282 -0.1961620292 0.0595696145
65299610.0 -0.1830760878 0.0663090342 0.5248815682 -0.0306160925 0.5253092484 -0.0310614004 -0.1928316307 0.06107357
70299580.0 -0.179871536 0.0667912948 0.5273126934 -0.0372429709 0.526975062 -0.0376378354 -0.1897967832 0.0615868929
75299550.0 -0.1763629995 0.0678846465 0.52917788 -0.0446322982 0.5292492836 -0.0447097367 -0.1870116038 0.0626303393
80299520.0 -0.1742301392 0.0690614487 0.5311419609 -0.0515256105 0.5313994125 -0.0512341925 -0.1847816347 0.0628695205
85299490.0 -0.1714304062 0.0693824119 0.5321896067 -0.0585479704 0.5323931697 -0.0585254249 -0.1824290418 0.0637618837
90299460.0 -0.1693852622 0.070283872 0.5333089522 -0.0650556971 0.5338178103 -0.0654622518 -0.1800009555 0.0642366284
95299430.0 -0.1670937396 0.0709706049 0.5345831558 -0.0725866671 0.534506564 -0.0718434603 -0.1785302821 0.0648523462
100299400.0 -0.1651642034 0.0718182381 0.5343434134 -0.0791275585 0.5346979516 -0.0790064404 -0.1771489334 0.0653944238
105299370.0 -0.1634561797 0.0726003012 0.5351505525 -0.0859388901 0.5351077224 -0.0863261917 -0.1750901001 0.0663957655
110299340.0 -0.1617984176 0.0730993485 0.5347077696 -0.0921821747 0.5349972452 -0.0929510198 -0.1736619874 0.0670042526
115299310.0 -0.1601672798 0.0733333262 0.5348284728 -0.0992006807 0.5350512669 -0.099456877 -0.1720886372 0.0673860217
120299280.0 -0.1591223529 0.0742779082 0.534841115 -0.1066746967 0.5351518907 -0.1068360656 -0.1710820795 0.0681346078
125299250.0 -0.1577752545 0.0750826302 0.534610985 -0.113309269 0.5346833637 -0.1132248306 -0.1700035143 0.0683328134
130299220.0 -0.1565417056 0.0761366078 0.5340685026 -0.1192452893 0.5338512708 -0.1199015923 -0.169074566 0.0693413135
135299190.0 -0.1550999149 0.0766687475 0.533292337 -0.1260567931 0.5328601246 -0.1265821883 -0.1678565735 0.0703361584
140299160.0 -0.1541962799 0.0780885836 0.5325892604 -0.1326772765 0.532608924 -0.1332259569 -0.1667290105 0.0709513299
145299130.0 -0.1529874059 0.0789425925 0.5317327612 -0.1399241546 0.5312726521 -0.1393663122 -0.1662565234 0.0717471015
150299100.0 -0.1518357169 0.0798456156 0.5303623325 -0.1465874755 0.5304154789 -0.1459156861 -0.1650194573 0.072630326
155299070.0 -0.151361567 0.0813262671 0.5294312675 -0.1531394714 0.529269619 -0.1530819933 -0.1646199759 0.0735492389
160299040.0 -0.1499343427 0.081976513 0.5274224655 -0.15906395 0.5279563118 -0.158824428 -0.1635580861 0.0746357582
165299010.0 -0.1491607137 0.083328465 0.5267400881 -0.1656290238 0.5263726515 -0.1657279115 -0.1628579668 0.075363617
170298980.0 -0.1484995812 0.0840611291 0.5238791567 -0.1716470191 0.5246744038 -0.1718154856 -0.1616784989 0.0761460614
175298950.0 -0.1473036753 0.0853395834 0.5236678079 -0.1779813667 0.5232036781 -0.1781054148 -0.1610990729 0.0773384687
180298920.0 -0.1460201842 0.0865454592 0.5213189146 -0.1845471528 0.5217317393 -0.1842806043 -0.1602534977 0.0789369712
185298890.0 -0.1452459182 0.0879757577 0.5192574408 -0.1908605083 0.5196621284 -0.1905390581 -0.1598369693 0.0795559636
190298860.0 -0.144195589 0.0889705961 0.5175719271 -0.1970616044 0.5177757601 -0.1968204383 -0.1584707973 0.0806370303
195298830.0 -0.1433815355 0.0902680082 0.5156242952 -0.2028839699 0.5157382757 -0.2032608438 -0.1578404281 0.0816902593
200298800.0 -0.1427342702 0.0917654125 0.5141398521 -0.2086819815 0.5136907268 -0.2088695816 -0.1571332094 0.082973408
205298770.0 -0.1416222772 0.0929814022 0.5116745596 -0.2148746833 0.5118482685 -0.2149367644 -0.1565815491 0.0838418015
210298740.0 -0.1409527564 0.0939877407 0.5094386689 -0.2212065794 0.5095388385 -0.2215116003 -0.1557498318 0.0855048186
215298710.0 -0.1398349303 0.0957281127 0.5068789232 -0.2270549626 0.5069834698 -0.2269681592 -0.1554216004 0.0867294359
220298680.0 -0.1388353222 0.0968778192 0.504324088 -0.2330459424 0.5045911896 -0.2329150839 -0.1542402352 0.0882246412
225298650.0 -0.1379084612 0.0984090877 0.5017785286 -0.2385498776 0.5018171987 -0.2389005297 -0.1534250899 0.0896216039
230298620.0 -0.1370089282 0.0997220953 0.4994671997 -0.2440492165 0.4996061214 -0.2446797102 -0.1526584027 0.0904501181
235298590.0 -0.1360946422 0.1011382285 0.4968734749 -0.2500931322 0.4970657894 -0.2504268 -0.15161507 0.0915083776
240298560.0 -0.1350132147 0.1023909438 0.4944670561 -0.255317155 0.4944065088 -0.2556861381 -0.1507649849 0.0930744035
245298530.0 -0.1336214501 0.1040380256 0.4910778831 -0.26174542 0.4911053483 -0.2615453268 -0.1501416778 0.0945370039
250298500.0 -0.1330105448 0.1051919038 0.4887571772 -0.2670474123 0.4886158704 -0.2668874172 -0.1488644683 0.0957806262
255298470.0 -0.1319430305 0.1068119433 0.4853810069 -0.2729659182 0.4856824781 -0.2726161478 -0.1480180225 0.0964837833
260298440.0 -0.1309595784 0.1080192731 0.4827516354 -0.2778134584 0.4828386265 -0.278691317 -0.1470171458 0.0982262321
265298410.0 -0.1292741025 0.109729595 0.4793227405 -0.2841702692 0.4794861237 -0.2838455234 -0.1466083216 0.099336918
270298380.0 -0.1282336335 0.1108637986 0.4760850722 -0.2892188825 0.4765765332 -0.2897140162 -0.1455699042 0.101013905
275298350.0 -0.1275653531 0.1126331161 0.4733208687 -0.2951092626 0.4734764877 -0.2947946411 -0.1442703514 0.1024514791
280298320.0 -0.1262789322 0.1137184489 0.4703524882 -0.2996253849 0.4700751548 -0.3002033344 -0.1434529508 0.1037651543
285298290.0 -0.124983697 0.1153873637 0.4667825513 -0.3054353779 0.4670593315 -0.3052470835 -0.1429548778 0.105172357
290298260.0 -0.1239255632 0.1167432334 0.4638592492 -0.3107297102 0.4634205358 -0.3106448397 -0.1412244903 0.1066568274
295298230.0 -0.1224832292 0.1180732309 0.4605920603 -0.3159294656 0.4599724198 -0.3159580464 -0.1400892448 0.1077921577
300298200.0 -0.1209405533 0.1192897139 0.4565900927 -0.3211724191 0.4571747809 -0.3214083131 -0.1395919534 0.1089510937
305298170.0 -0.1195436137 0.1207198655 0.4537072981 -0.3268237015 0.4536820557 -0.326810367 -0.1382844626 0.1110626144
310298140.0 -0.118011674 0.1218039581 0.4503644385 -0.332112378 0.4501558361 -0.3319372525 -0.1372068601 0.11245603
315298110.0 -0.1172841104 0.1230537647 0.4460890637 -0.3364615504 0.4463007865 -0.3369823496 -0.135779967 0.1131966274
320298080.0 -0.1157934776 0.1245939778 0.4424921103 -0.3420794574 0.4426606913 -0.3420665159 -0.1348781132 0.1145438018
325298050.0 -0.1145935156 0.1253336875 0.4390488411 -0.3472978783 0.438996688 -0.3475493942 -0.1339893595 0.1157372549
330298020.0 -0.1136498095 0.1270452421 0.434568591 -0.3521368095 0.4345084779 -0.3520863854 -0.1331160666 0.117040708
335297990.0 -0.1123612353 0.1279822833 0.4305588636 -0.357234765 0.4304386873 -0.3569058792 -0.1318107092 0.1181755322
340297960.0 -0.1113166479 0.1298154105 0.4264311598 -0.3617693284 0.4270291987 -0.3618137731 -0.1312302631 0.1199369121
345297930.0 -0.110100359 0.1310339679 0.4226612008 -0.3662135545 0.4217876395 -0.3661711247 -0.1299392516 0.121006304
350297900.0 -0.1083489496 0.1325369463 0.4183143754 -0.3708727153 0.4184560534 -0.3708069555 -0.1290395703 0.1228313724
355297870.0 -0.1071367664 0.1336650897 0.4141489358 -0.3751469005 0.4143594624 -0.3758032869 -0.1280514024 0.1243556271
360297840.0 -0.1059890344 0.1351632394 0.4103368303 -0.3802578627 0.4096457338 -0.3803262116 -0.126512896 0.1257597837
365297810.0 -0.104093204 0.1363392264 0.4055080915 -0.3845717118 0.4058515847 -0.3847302097 -0.1255847773 0.1275229547
370297780.0 -0.1024034968 0.1375603723 0.4010719662 -0.3889325569 0.4014039137 -0.3893934595 -0.1243479529 0.1287001054
375297750.0 -0.1013051001 0.1394032912 0.3977172043 -0.3936758573 0.3969028341 -0.3936355425 -0.1229279291 0.1303265022
380297720.0 -0.0996164324 0.1402042196 0.3928340798 -0.3974861621 0.3927618158 -0.3976601204 -0.1217643753 0.1316385367
385297690.0 -0.0982611772 0.1416813578 0.3883140411 -0.401769194 0.3884378073 -0.401972242 -0.120658114 0.1329659428
390297660.0 -0.0967795444 0.1427665903 0.3840008015 -0.4065886892 0.3837931151 -0.4065361466 -0.1191621324 0.1340046075
395297630.0 -0.0948137396 0.143845718 0.3797147897 -0.4103714457 0.3793627416 -0.4105367098 -0.1181097206 0.1357445461
400297600.0 -0.0936012451 0.1454174769 0.3748822214 -0.4149367605 0.3754171782 -0.414863426 -0.1174477754 0.1367913143
405297570.0 -0.0916861102 0.1465266981 0.3699187014 -0.4189884077 0.3706734587 -0.4188253068 -0.1157166314 0.138348951
410297540.0 -0.0902160392 0.1474504507 0.3652707021 -0.4226832072 0.3654546291 -0.4228664809 -0.1142308681 0.139605346
415297510.0 -0.0884014252 0.14907201 0.3612340516 -0.4267217483 0.3612896488 -0.4266113437 -0.1132705105 0.1411842886
420297480.0 -0.0868952004 0.1497978669 0.3561221911 -0.4310541783 0.3563719749 -0.430612347 -0.1116227759 0.1420206361
425297450.0 -0.0848501171 0.1507431855 0.3517343889 -0.4346997225 0.3520456459 -0.4346026432 -0.1102639049 0.1441042428
430297420.0 -0.0835879196 0.1522582098 0.3470888877 -0.4388533805 0.3468120159 -0.4386092933 -0.1090428294 0.1447461149
435297390.0 -0.0814199788 0.1529712208 0.3419809501 -0.4417217762 0.3420550781 -0.4422709362 -0.1077197299 0.1466132205
440297360.0 -0.0798983045 0.1540607251 0.3370327321 -0.4460568392 0.3367026106 -0.4461684855 -0.1063507809 0.1474451282
445297330.0 -0.0780856969 0.1546156093 0.3317449397 -0.4501471899 0.3320017696 -0.4495115123 -0.1048322013 0.148535364
450297300.0 -0.0763494356 0.1558446734 0.3269164258 -0.4532259278 0.3273803106 -0.4531402627 -0.1036352318 0.1499634022
455297270.0 -0.0747552118 0.1570421519 0.3222395274 -0.456652213 0.3225535458 -0.4567567133 -0.1020465001 0.1509880435
460297240.0 -0.0733531276 0.1583519068 0.317026769 -0.460088764 0.316746888 -0.4603836167 -0.1004257873 0.1528223731
465297210.0 -0.0711296982 0.1588883351 0.3125655541 -0.4634526695 0.312683544 -0.463596391 -0.0994026182 0.1533841382
470297180.0 -0.0694394998 0.1599130898 0.3072696389 -0.4669946641 0.3077742094 -0.4669919703 -0.0981683906 0.1545703242
475297150.0 -0.0680624533 0.1604027541 0.3020337292 -0.4697056363 0.302259999 -0.4695635566 -0.0964142078 0.1557390021
480297120.0 -0.0658208998 0.1611638071 0.2966567134 -0.4730399106 0.297345036 -0.4731542839 -0.0951935905 0.1571305433
485297090.0 -0.0640383424 0.1624106882 0.2922947432 -0.4764934899 0.2920266475 -0.4763644783 -0.0938440346 0.1577680501
490297060.0 -0.062119762 0.1628644016 0.2868698032 -0.4793740285 0.2867273283 -0.4796852389 -0.0920846533 0.159326189
495297030.0 -0.0607552823 0.1640850651 0.2813010102 -0.4826050547 0.2810740576 -0.4827823237 -0.0904066602 0.1600903073
500297000.0 -0.0583084541 0.1646031626 0.2759300064 -0.4859735822 0.2760004648 -0.4856410303 -0.0893941074 0.1611985748
505296970.0 -0.056654484 0.1652439489 0.2703421021 -0.4881571476 0.2707191926 -0.4885079144 -0.0881470555 0.1623086529
510296940.0 -0.0548754507 0.1662764125 0.2653776647 -0.4917818508 0.2655553529 -0.4916139684 -0.0860162565 0.1635256573
515296910.0 -0.0531997754 0.1672296974 0.2597556446 -0.4941617987 0.260173901 -0.4942855037 -0.0847621976 0.1645136533
520296880.0 -0.0512316394 0.1677592338 0.2543955536 -0.4970171566 0.2546291385 -0.497013048 -0.0827659788 0.1652173932
525296850.0 -0.0494735243 0.1685032481 0.2492369812 -0.4998796716 0.2494409353 -0.499970958 -0.0813596299 0.1663095314
530296820.0 -0.0475723071 0.1687764299 0.2438544493 -0.5017382022 0.2436721925 -0.5022089999 -0.0801915477 0.1669620783
535296790.0 -0.0455581975 0.1695892849 0.238286576 -0.5044127003 0.2384978216 -0.5046099997 -0.0785740849 0.1680038399
540296760.0 -0.0438777087 0.1700999072 0.2329555198 -0.5077387174 0.232593548 -0.5075622843 -0.0772661304 0.1691547587
545296730.0 -0.0421035174 0.1711523418 0.2270565529 -0.5096895539 0.2273145655 -0.5101241813 -0.0756613918 0.1697655726
550296700.0 -0.0402769689 0.1715349382 0.2221342644 -0.5123313804 0.2219020038 -0.5128359227 -0.0740985218 0.1712499302
555296670.0 -0.0378244127 0.1720049014 0.216334814 -0.5150732247 0.2163005304 -0.5145286484 -0.0724580783 0.1721868294
560296640.0 -0.036105148 0.1721248774 0.2107252963 -0.5166655859 0.2107215074 -0.5165633765 -0.0706075114 0.1724445325
565296610.0 -0.0346296357 0.1729565764 0.2050620421 -0.519109082 0.2047038327 -0.5195364318 -0.0692222096 0.1733218592
570296580.0 -0.0322700206 0.1735049072 0.1990193951 -0.5213654154 0.1995073198 -0.5214864469 -0.0674616439 0.1748300243
575296550.0 -0.0303507114 0.174443621 0.1934389973 -0.5231419883 0.1940564322 -0.5234940813 -0.0653697584 0.1751967712
580296520.0 -0.0286489858 0.1746620461 0.1883059009 -0.5254237948 0.187774763 -0.5253305908 -0.0641688603 0.1760033328
585296490.0 -0.0262949412 0.1746385477 0.1828056447 -0.5275307021 0.1823589161 -0.5275397624 -0.0626791055 0.1764646317
590296460.0 -0.024719846 0.1749786552 0.1768587516 -0.5292666927 0.1762843951 -0.5293895882 -0.0605905383 0.1776622088
595296430.0 -0.0228537451 0.175787642 0.1711363965 -0.5309787006 0.1705180648 -0.5312831526 -0.0590263418 0.1782542488
600296400.0 -0.0209340694 0.1761625629 0.1651665828 -0.5329748955 0.1654048817 -0.5329143368 -0.0573407678 0.1793580167
605296370.0 -0.0185775634 0.1767526336 0.1596041805 -0.535119948 0.1593072945 -0.5348786118 -0.0556238803 0.1796440936
610296340.0 -0.016936266 0.176955339 0.1539400186 -0.5365467388 0.1540009156 -0.5368684116 -0.0537442077 0.1806702893
615296310.0 -0.014823456 0.1774999172 0.1476726774 -0.5378501028 0.1477243752 -0.5382144622 -0.0522344454 0.1812441426
620296280.0 -0.0129554051 0.1774871429 0.141925554 -0.5395437516 0.1420005834 -0.5397511431 -0.0504689872 0.181375614
625296250.0 -0.010560951 0.1778824756 0.1356551104 -0.5413270504 0.1355956482 -0.5413042784 -0.0486382992 0.1827122734
630296220.0 -0.0088867108 0.1782516935 0.1303056819 -0.5426454984 0.1307997577 -0.5427986276 -0.0472862951 0.1830880817
635296190.0 -0.0069363216 0.1782261727 0.1245246004 -0.5432031769 0.124114548 -0.5431800702 -0.0453890233 0.1832085897
640296160.0 -0.0052374854 0.1785075109 0.1184701671 -0.5450400298 0.1185957332 -0.545155648 -0.0434867633 0.1841467931
645296130.0 -0.002884692 0.1790890534 0.1123861954 -0.546636118 0.1125709201 -0.5462003791 -0.0424197173 0.1844803436
650296100.0 -0.0008800131 0.1795648803 0.1069006565 -0.5471895656 0.1073656319 -0.5472513332 -0.0403934007 0.1851606496
655296070.0 0.0009168355 0.1789596286 0.1005603063 -0.5486419625 0.1007790514 -0.5485051021 -0.0381342987 0.1859717588
660296040.0 0.0025982181 0.1797250118 0.094930401 -0.5494340902 0.0949013876 -0.5494136581 -0.0364493214 0.1860173985
665296010.0 0.0052681771 0.1796342764 0.0889392852 -0.5503657446 0.0892892783 -0.5503308251 -0.035208792 0.1868503045
670295980.0 0.0073644582 0.1796447986 0.0828429425 -0.5515922997 0.0832949478 -0.5511175939 -0.0335265728 0.1868541276
675295950.0 0.0091742714 0.1798295107 0.0766965179 -0.5521809125 0.0772695157 -0.552336357 -0.031488277 0.187898215
680295920.0 0.011088259 0.1800761277 0.0714059288 -0.5524530196 0.0710300847 -0.5533554764 -0.0295143447 0.1881892167
685295890.0 0.0131133301 0.1798162868 0.0654992933 -0.5537592384 0.0649356712 -0.5537104463 -0.027589077 0.1884830367
690295860.0 0.015368286 0.1800380255 0.0591529569 -0.5540590426 0.0587842442 -0.5543212648 -0.0257092102 0.1893756545
695295830.0 0.0175743708 0.1795881232 0.0523595375 -0.5546515568 0.0528828793 -0.5551462759 -0.0246253658 0.1898003236
700295800.0 0.0193424228 0.1799669687 0.0470399644 -0.5558348593 0.0469448908 -0.5555138748 -0.0222795479 0.189384876
705295770.0 0.0216146203 0.1799155692 0.0407610675 -0.5557687343 0.0413474858 -0.5556669584 -0.0207947894 0.1901186107
710295740.0 0.023304255 0.1800853575 0.0350190555 -0.5564709666 0.0350918979 -0.5558018446 -0.0194868093 0.190497848
715295710.0 0.024962347 0.1795039224 0.029158774 -0.5564614802 0.0293739666 -0.5566163574 -0.0170709071 0.1905250163
720295680.0 0.0274303731 0.1791805767 0.0229914736 -0.556519758 0.0232788312 -0.557318632 -0.0147562785 0.1910911777
725295650.0 0.0296855325 0.1792043128 0.0168184952 -0.556969365 0.0170178685 -0.5569007134 -0.013140839 0.1917356656
730295620.0 0.0309847002 0.1790483573 0.0110882681 -0.5569440907 0.0110209322 -0.5571484072 -0.0113112813 0.1913746545
735295590.0 0.0335825183 0.1790357453 0.0052133755 -0.5570462258 0.0053373371 -0.5574519198 -0.0095788989 0.1923253136
740295560.0 0.0353341768 0.1787424652 -0.0010649507 -0.5564206218 -0.0010883521 -0.5568078742 -0.0075900694 0.1920595926
745295530.0 0.0375577126 0.1783009007 -0.0067183105 -0.5566869388 -0.0067493968 -0.5572565568 -0.0060727908 0.192484875
750295500.0 0.0394100387 0.1781519426 -0.012904826 -0.5564648261 -0.0129431726 -0.5566128625 -0.0038386638 0.1922371548
755295470.0 0.0418610072 0.1782636465 -0.0189088838 -0.5563894481 -0.0187424215 -0.557156845 -0.0022767564 0.1927625678
760295440.0 0.0433831158 0.1778404778 -0.025007856 -0.5564974589 -0.0247458234 -0.5565881893 -0.0008697686 0.1927374152
765295410.0 0.0454401199 0.1768010635 -0.0305628889 -0.5558785249 -0.0306651823 -0.556432499 0.002144526 0.1932922019
770295380.0 0.0475075436 0.1771378569 -0.0368818371 -0.555466267 -0.0367727652 -0.5559334964 0.003928133 0.1931519139
775295350.0 0.0494358982 0.1767579406 -0.04287947 -0.5546385404 -0.0424564279 -0.5550876781 0.0051002715 0.1927505281
780295320.0 0.0515107866 0.176082217 -0.0482032637 -0.5547272626 -0.0483948407 -0.5549122987 0.0069785482 0.1937409174
785295290.0 0.0533767313 0.1759001741 -0.0547659855 -0.5535735747 -0.0545747971 -0.5541372004 0.0085229439 0.193615551
790295260.0 0.0553028044 0.1754416298 -0.0606108524 -0.5534821811 -0.0605662946 -0.5537534452 0.0109703532 0.1935611103
795295230.0 0.0572576437 0.1750741956 -0.0660258491 -0.5524693657 -0.0661160265 -0.552747258 0.0125861906 0.1940519312
800295200.0 0.0596251659 0.17451865 -0.0731325665 -0.5519752669 -0.0729116796 -0.5520311989 0.0144783653 0.1937792175
805295170.0 0.0611210877 0.1740050385 -0.0782852343 -0.550711276 -0.0781261834 -0.5509273416 0.0162733115 0.1934616209
810295140.0 0.0632449846 0.1736675294 -0.083838923 -0.5504503003 -0.0842696034 -0.5506747823 0.0182650603 0.1939688219
815295110.0 0.065264236 0.1730914891 -0.0907890602 -0.5490794105 -0.0906594763 -0.5493626972 0.0198944405 0.1935147774
820295080.0 0.0669138253 0.1721022903 -0.096194759 -0.5485267946 -0.0962070501 -0.548645611 0.0219538545 0.1935207862
825295050.0 0.0689917249 0.1716357389 -0.1017432388 -0.5467110011 -0.1017186984 -0.5472302646 0.0240031039 0.1936448685
830295020.0 0.071141529 0.1711430581 -0.1082632953 -0.5456202018 -0.1085578354 -0.5463185081 0.0256101219 0.1934178445
