!Created with skrf (http://scikit-rf.org).
# Hz S RI R 50.0 
!freq ReS11 ImS11 ReS21 ImS21 ReS12 ImS12 ReS22 ImS22
300000.0 -0.7728512514 -0.174382029 -0.0012688706 -0.0005718351 0.0013940375 0.0016805608 -0.2105062824 -0.1028772391
5299970.0 -0.7861039265 -0.0099188556 0.0001807602 -0.0002192586 -0.0001254073 7.19314e-05 -0.216177971 0.0064259854
10299940.0 -0.7897057262 -0.0057391857 -0.0002437324 -1.89429e-05 0.0001463346 2.04147e-05 -0.2123173649 0.0187472958
15299910.0 -0.7945436297 -0.0029523613 -1.54582e-05 0.0001401917 -0.0001094166 0.0001030091 -0.2076613332 0.0283772014
20299880.0 -0.8009839851 0.0007850577 0.0001256669 0.0001093004 -0.0001263047 -0.0001872436 -0.2025422959 0.0357016866
25299850.0 -0.8077053707 0.0067831072 -0.0001130888 -7.09014e-05 8.0898e-06 -3.85513e-05 -0.1971826579 0.0420159423
30299820.0 -0.8136008551 0.013790273 -1.45414e-05 0.000199154 -0.0002158248 0.0001195543 -0.190840167 0.0466374655
35299790.0 -0.8190834678 0.0234708325 -0.00014419 -8.03147e-05 -8.77145e-05 5.60247e-05 -0.1854714471 0.0506061978
40299760.0 -0.8238888888 0.0319429917 -0.0001382871 -0.0001172335 4.33588e-05 3.16158e-05 -0.1799200301 0.0533243518
45299730.0 -0.8266502053 0.042030342 0.0001646079 1.30216e-05 1.56559e-05 3.61365e-05 -0.1745694323 0.055536869
50299700.0 -0.8295610513 0.0519124448 -7.07906e-05 0.0001590354 7.18786e-05 0.0002131063 -0.16970174 0.057077453
55299670.0 -0.8315596135 0.061401755 -4.9907e-06 -0.000243803 -6.71612e-05 8.70957e-05 -0.1653476431 0.0579381248
60299640.0 -0.832623592 0.0722672281 -4.28741e-05 0.0001885906 -4.82115e-05 -7.049e-07 -0.1612125327 0.0586964186
65299610.0 -0.8333821755 0.0816306117 3.58767e-05 9.11632e-05 -5.14225e-05 2.69292e-05 -0.1579413633 0.0591538942
70299580.0 -0.8341414916 0.0916416457 0.0001285461 3.56568e-05 -0.0001744814 -4.04513e-05 -0.1548567545 0.0596780835
75299550.0 -0.8338061513 0.1015684472 -5.0176e-05 -3.96761e-05 -8.08929e-05 0.0001040062 -0.1515119132 0.0598168438
80299520.0 -0.8334860629 0.1127254048 -3.21558e-05 -9.3173e-06 -0.0001209008 -5.2309e-05 -0.148843134 0.0598798735
85299490.0 -0.8325888654 0.1212924113 0.0001571257 0.0002774199 -0.0001521027 2.00816e-05 -0.1465639735 0.0597416792
90299460.0 -0.8323996781 0.1313779108 2.1671e-05 1.07143e-05 -6.7523e-06 -4.44523e-05 -0.1441260865 0.0595670109
95299430.0 -0.8317269658 0.1406625221 9.70716e-05 0.0002734547 1.976e-05 -0.0001722742 -0.1420429998 0.0600022319
100299400.0 -0.8305880211 0.1499174418 3.62842e-05 0.0001116772 0.0001404524 4.6584e-05 -0.1405262128 0.0602075421
105299370.0 -0.8286924082 0.1592597405 -8.4568e-05 2.34305e-05 -1.21822e-05 5.38252e-05 -0.1386456468 0.0598761326
110299340.0 -0.8275942721 0.1681267628 -0.000197966 -0.0001135573 0.0001092672 -8.3588e-06 -0.1376604999 0.0595555918
115299310.0 -0.8260491746 0.1781220313 0.0001733908 9.33769e-05 -3.97667e-05 0.0001741934 -0.1362806367 0.0599616969
120299280.0 -0.8244022431 0.1868699087 1.8706e-06 -0.0002232366 3.5539e-05 0.0001032442 -0.1349738655 0.0595888801
125299250.0 -0.821923834 0.1958409385 8.36437e-05 0.0001168614 -7.90861e-05 0.0001265128 -0.1337224068 0.0601901228
130299220.0 -0.8204232415 0.2050536949 2.6019e-05 5.57827e-05 0.0002268511 6.05352e-05 -0.1327968384 0.0601981617
135299190.0 -0.8187889682 0.2143000991 0.0001136352 5.93116e-05 8.01935e-05 0.0001125575 -0.1318905297 0.0604051219
140299160.0 -0.817229365 0.2233664199 4.45508e-05 0.0001225409 -0.0001655139 -0.0001354143 -0.1315673231 0.0604761013
145299130.0 -0.8151207588 0.2322090261 0.000108222 -3.53226e-05 0.0002885169 6.32731e-05 -0.1304295383 0.0608474404
150299100.0 -0.811776009 0.241192981 -5.36017e-05 0.000153677 0.0001380222 1.96312e-05 -0.1295524499 0.0614883796
155299070.0 -0.8101632098 0.2497495415 -4.25499e-05 0.0001647839 -0.0001311735 0.0001793718 -0.1290831537 0.0617990036
160299040.0 -0.8076902903 0.2589169265 -3.172e-05 -3.7481e-05 5.77404e-05 0.0001583361 -0.1285318912 0.0622271192
165299010.0 -0.8050829381 0.2674722088 0.0001016536 5.27033e-05 7.8487e-05 4.88308e-05 -0.1275577373 0.0626293953
170298980.0 -0.8019282674 0.2764991962 7.84597e-05 0.0003115885 -6.90223e-05 0.0001635452 -0.127227558 0.0634252862
175298950.0 -0.7992458712 0.2841269749 -5.48525e-05 0.0001441032 -0.000130694 -2.21844e-05 -0.1266220038 0.0639327532
180298920.0 -0.7962758189 0.2935105827 1.93513e-05 0.0001320929 1.04664e-05 8.72355e-05 -0.1262282901 0.0645101753
185298890.0 -0.7928258169 0.3025040876 5.22124e-05 8.57972e-05 0.000126009 0.0001475802 -0.1257096745 0.0647369185
190298860.0 -0.7895444651 0.311289925 -0.0001492824 5.08699e-05 -6.7188e-06 3.7139e-06 -0.125386953 0.065453199
195298830.0 -0.786213824 0.3192175009 0.0001016836 3.42549e-05 -1.93616e-05 8.61244e-05 -0.1248097342 0.0663675544
200298800.0 -0.7833558384 0.3274658048 -2.39583e-05 2.45825e-05 8.95407e-05 -5.97861e-05 -0.1241115338 0.0669226596
205298770.0 -0.7788648011 0.3362892554 2.912e-07 6.30432e-05 1.94519e-05 -8.8621e-06 -0.12391943 0.0676418337
210298740.0 -0.7764795605 0.3443693886 0.0001116072 -8.07715e-05 0.0001863693 -1.85268e-05 -0.1234955854 0.0686339868
215298710.0 -0.7724810629 0.3534589153 -8.3264e-06 0.000117618 0.0001836675 0.0001492389 -0.122949789 0.0688989357
220298680.0 -0.7687765708 0.3611912564 0.0002060446 0.0001144385 0.0001119884 -1.33361e-05 -0.1223321234 0.0702165453
225298650.0 -0.7652219165 0.3695958614 -1.16392e-05 2.0142e-06 -4.56808e-05 0.0001584755 -0.1219751314 0.071079723
230298620.0 -0.7603235467 0.3778080222 1.96499e-05 6.17618e-05 8.62861e-05 0.0002655704 -0.1215374563 0.0716456046
235298590.0 -0.757514381 0.3855437643 0.00010645 0.0002828604 0.0001853778 0.0001470323 -0.1209377642 0.0727818465
240298560.0 -0.7528866278 0.3938505575 -1.1876e-05 6.67428e-05 2.82453e-05 4.45242e-05 -0.1205509949 0.0733829829
245298530.0 -0.7486719075 0.4020452211 3.26491e-05 0.0001034295 9.96642e-05 -0.0001197138 -0.1201321469 0.0742592404
250298500.0 -0.7448564979 0.4095899854 6.0275e-06 0.000239773 3.69113e-05 -8.63824e-05 -0.119798786 0.0754241088
255298470.0 -0.7410975878 0.4176650367 -0.0001238905 -9.1557e-06 -3.6928e-06 0.0002443958 -0.1191151615 0.0762273009
260298440.0 -0.7364205018 0.425134593 0.0001901905 0.0001280745 -8.8554e-06 3.94178e-05 -0.118951911 0.0772968252
265298410.0 -0.7320380627 0.4324528339 -4.29263e-05 -2.8976e-06 4.36898e-05 6.16442e-05 -0.1178713323 0.0778536381
270298380.0 -0.7268542888 0.4407674771 5.29335e-05 0.0003426987 0.0001094185 0.000265425 -0.1174170133 0.079373764
275298350.0 -0.7234101158 0.447933308 0.0001951704 0.0001230378 0.0001426972 -8.47391e-05 -0.1169867219 0.0801675841
280298320.0 -0.7184195585 0.4556353294 0.0003356181 0.0001355436 0.0002038391 0.0001115836 -0.1168541217 0.081125552
285298290.0 -0.7137433279 0.4635115018 -6.50724e-05 -0.0001049904 0.0001100405 8.19967e-05 -0.1161413282 0.0822904488
290298260.0 -0.7085590186 0.4708318949 4.9432e-06 -3.19721e-05 4.15247e-05 3.85296e-05 -0.1154401041 0.0832166453
295298230.0 -0.7040533753 0.4778549156 3.4497e-06 3.2788e-05 7.00826e-05 -4.1853e-05 -0.1148386551 0.0843390913
300298200.0 -0.6990569922 0.4860170006 -0.0001191087 9.35786e-05 0.0003713392 0.0001843559 -0.1141656731 0.0852298608
305298170.0 -0.694505824 0.4922292382 0.0001191677 5.15976e-05 6.58959e-05 8.074e-05 -0.1132292804 0.0862896938
310298140.0 -0.6890232786 0.5001283798 0.0002432938 9.55178e-05 0.0001079543 0.0001462158 -0.1129152486 0.0874792939
315298110.0 -0.6842658268 0.5073714732 -0.0001747833 0.0001985098 0.0003250596 5.188e-05 -0.1121116821 0.0882911497
320298080.0 -0.6785673068 0.5145302041 7.7182e-06 -1.67175e-05 4.8982e-05 0.0001385936 -0.1117520403 0.0893116057
325298050.0 -0.6733476769 0.5214409064 0.0003397974 3.90443e-05 0.000120523 6.27515e-05 -0.1106096481 0.0901445197
330298020.0 -0.6680655464 0.5278014477 0.0003614761 9.53476e-05 0.0003414553 0.0002589158 -0.1104697388 0.0909448904
335297990.0 -0.6626228849 0.5347331404 0.0002116447 0.0001142469 -0.0001804358 0.0002446757 -0.1093574256 0.0920626187
340297960.0 -0.6578219787 0.5412579923 0.0001450351 0.0002678301 8.68198e-05 0.0001797528 -0.1090893882 0.0934432826
345297930.0 -0.6521433556 0.5482996463 1.10597e-05 0.0002142541 3.79705e-05 7.95137e-05 -0.1084574992 0.0942476488
350297900.0 -0.6466472847 0.5551468842 2.64076e-05 0.0001619206 5.40542e-05 8.61741e-05 -0.1079610289 0.0951512173
355297870.0 -0.641295928 0.5613824022 0.0002564987 0.0003872215 0.0001392089 -6.71627e-05 -0.1070984458 0.0965191939
360297840.0 -0.6350871218 0.5679591881 0.0002100895 0.0001728525 -1.85574e-05 0.0001163658 -0.1065482769 0.0976558172
365297810.0 -0.6298254998 0.5744841142 0.0001056885 0.0002222857 0.0001075504 2.85362e-05 -0.1058750993 0.0985798016
370297780.0 -0.6233862661 0.580207468 0.0002129174 0.0002088041 8.91785e-05 0.0001326736 -0.1051135368 0.0998740328
375297750.0 -0.617817941 0.5872371168 0.0001126769 0.0001457072 0.000156484 -9.87947e-05 -0.1043771218 0.10103147
380297720.0 -0.6116870306 0.5934851603 3.00349e-05 -3.60153e-05 0.0002284438 0.0001442538 -0.1034133777 0.1020452281
385297690.0 -0.6055595261 0.599194279 0.0002160526 7.27209e-05 6.9058e-06 0.0001526 -0.1027761348 0.1031373095
390297660.0 -0.5989520284 0.6055705991 0.0002338887 -6.283e-07 0.000144214 -9.362e-07 -0.1021852641 0.1042538598
395297630.0 -0.5930192597 0.6121120022 0.0002551056 9.39123e-05 0.0001575533 7.31975e-05 -0.1012337386 0.1049748499
400297600.0 -0.5869713412 0.6183181686 0.0001486855 3.48173e-05 0.0002966069 -2.17867e-05 -0.1002277936 0.1063238357
405297570.0 -0.5805898256 0.6233178207 0.0001862609 -1.6265e-05 0.000129821 0.0001699707 -0.0992623428 0.1071833301
410297540.0 -0.5744402583 0.6299857985 -0.0001472295 -0.0002841056 0.0001578792 -0.0001214439 -0.0986717138 0.1087041251
415297510.0 -0.5677725246 0.6354434056 0.0003167883 3.88822e-05 -4.14825e-05 -9.50926e-05 -0.0978899067 0.1093274756
420297480.0 -0.5614258216 0.6413613432 0.0001019756 0.0002350815 0.0001180749 2.21062e-05 -0.0965229788 0.1107575252
425297450.0 -0.5541338656 0.6464333716 -5.80447e-05 0.0002700671 0.0002095008 -1.69647e-05 -0.0960323461 0.1113276212
430297420.0 -0.5473364729 0.6521785354 -9.53273e-05 2.21599e-05 0.0002758294 0.0002095221 -0.0949961233 0.1125151038
435297390.0 -0.5408470587 0.6574896448 1.72866e-05 0.000358215 8.94859e-05 -0.0001689868 -0.0940623904 0.1138606549
440297360.0 -0.5340046906 0.6629600778 0.0001061369 0.0001968784 0.0001022716 0.0001071346 -0.0932340845 0.114902817
445297330.0 -0.5272913615 0.6682166029 0.0001772179 6.17506e-05 0.0002673489 0.0002007262 -0.0918151677 0.1157904842
450297300.0 -0.5200031771 0.6736935919 0.0002802932 0.000155135 0.0001778939 0.0001271677 -0.0908324315 0.1166469275
455297270.0 -0.5137882388 0.6785050495 8.8206e-06 -0.000154993 6.67405e-05 -5.131e-06 -0.0898417258 0.1175424244
460297240.0 -0.5063268371 0.6841279175 0.0002472104 0.0003920638 5.10032e-05 -0.0002195123 -0.088975214 0.1187779075
465297210.0 -0.4990335613 0.6891928985 0.0001649132 1.33002e-05 0.0002472567 4.05186e-05 -0.0882082748 0.1202210585
470297180.0 -0.4918497828 0.693849103 0.0003020338 5.81907e-05 0.0002392789 8.20576e-05 -0.086955025 0.120852261
475297150.0 -0.484628422 0.698765744 8.83024e-05 0.000250437 0.0002029945 9.50994e-05 -0.0857271645 0.1220412785
480297120.0 -0.477033197 0.7040740836 0.0001808348 1.29252e-05 0.0001804194 0.0001145237 -0.0851868801 0.1230997376
485297090.0 -0.4701881523 0.708929997 0.0002259824 0.0001471645 0.000243603 0.0001871134 -0.0840214956 0.1239243369
490297060.0 -0.4622527451 0.7140516943 2.33288e-05 -9.47993e-05 0.0003461738 7.94998e-05 -0.0828829247 0.1246237562
495297030.0 -0.4544695917 0.7182499393 -0.0001854961 0.0002080672 0.0002025224 -8.53735e-05 -0.0817022517 0.1256542514
500297000.0 -0.447081729 0.7219311502 0.0002219636 5.91265e-05 0.0002824033 0.0001482555 -0.0805560063 0.1265448206
505296970.0 -0.4397783186 0.7272844281 0.0002374278 0.0002395344 0.0002241748 0.0002565772 -0.0794665725 0.1271640081
510296940.0 -0.432090853 0.7314065274 -4.2411e-06 -2.96994e-05 0.0002704873 -0.0001005018 -0.0779201164 0.1283692308
515296910.0 -0.4241758005 0.7357391201 0.0002274724 9.5853e-05 9.53789e-05 9.39422e-05 -0.077125013 0.1292138629
520296880.0 -0.4159676023 0.7405012938 0.0002011677 4.38423e-05 -0.0001193563 -9.927e-06 -0.0758354774 0.1302670099
525296850.0 -0.408437922 0.7439255223 0.0002119817 6.502e-05 0.0001554969 1.04545e-05 -0.074971053 0.1309667431
530296820.0 -0.4014633159 0.7480380973 0.0001495338 1.33113e-05 0.0001145251 3.64391e-05 -0.0736878378 0.1318784994
535296790.0 -0.3929143173 0.7518731972 0.0001375216 0.0001574832 0.0001396664 0.0002716427 -0.072419727 0.1329008205
540296760.0 -0.385093722 0.7558147865 0.0002003727 7.59456e-05 3.74117e-05 0.0001214252 -0.0715249899 0.1337729897
545296730.0 -0.3776355037 0.7604226032 5.08774e-05 1.63349e-05 0.0002059986 2.46228e-05 -0.0701315419 0.1344304177
550296700.0 -0.3697966041 0.7641296789 0.0001852892 -5.74422e-05 0.0002721856 0.0001515588 -0.0690818299 0.1353273825
555296670.0 -0.3612740182 0.7671976289 0.0003750392 -0.0002265426 5.88402e-05 -5.53384e-05 -0.0680170011 0.136108577
560296640.0 -0.3532438249 0.7708672791 0.0001725311 0.0001579992 0.000267344 8.74016e-05 -0.0665614373 0.1367500227
565296610.0 -0.3456754286 0.774609068 0.000336401 -3.84173e-05 0.0001933273 -9.57548e-05 -0.0653791463 0.1381507867
570296580.0 -0.3370739667 0.7779236458 0.000333875 8.66052e-05 0.0002830635 -5.16772e-05 -0.0642695999 0.1385753061
575296550.0 -0.3284267069 0.7814610371 0.0001061017 -2.5381e-06 0.0001940445 -8.85106e-05 -0.0627512747 0.1393293685
580296520.0 -0.321249588 0.7849625446 0.0002140031 0.0001243513 0.0002421022 0.0001237487 -0.0615683389 0.140057096
585296490.0 -0.3125512917 0.7878815334 0.0001726996 8.8487e-06 0.0003576932 4.82115e-05 -0.0602431323 0.1411554729
590296460.0 -0.3037679325 0.7910068209 0.000278809 5.6413e-05 0.0004415055 -0.0001260545 -0.0591144899 0.1415673435
595296430.0 -0.2962535705 0.7939835843 0.0002784274 8.46659e-05 0.0002189831 0.0001095305 -0.0578070703 0.1426756438
600296400.0 -0.2881313347 0.7968638132 0.0001295523 1.85793e-05 0.0003491995 0.0001404962 -0.0563621501 0.1428649875
605296370.0 -0.279689168 0.7995816973 0.000356837 -3.1323e-06 0.0003198639 -5.27434e-05 -0.0551733114 0.1439692957
610296340.0 -0.2718352055 0.8027130171 9.08635e-05 0.0001516232 0.0002278461 0.0001236971 -0.0537305809 0.1444845137
615296310.0 -0.2632434238 0.8053970181 0.0003407328 -6.7509e-05 0.000298832 0.0001086106 -0.0523322449 0.1452502437
620296280.0 -0.2553315115 0.8082276781 0.0004402224 1.26388e-05 0.0002055473 2.8753e-05 -0.0514168905 0.1462439206
625296250.0 -0.2476007808 0.8101578845 0.0002359717 -0.0001052391 0.0003293678 -0.0001212338 -0.0498768829 0.1464370162
630296220.0 -0.2390827575 0.8136262317 0.000246989 -0.0002309005 0.0004320267 0.0001544176 -0.0485176334 0.147183989
635296190.0 -0.2304617565 0.8151290214 0.0001150697 0.0002636471 0.0003469275 -5.34327e-05 -0.0471444664 0.1478616235
640296160.0 -0.2218876175 0.8174999031 0.0001060357 9.6129e-05 0.0002416363 8.4947e-06 -0.0459752399 0.14878615
645296130.0 -0.2131210926 0.8210071004 0.0002190046 -8.9827e-06 0.0001476042 -4.06e-05 -0.04462887 0.149109709
650296100.0 -0.2053649649 0.8219543523 -4.4058e-06 -0.000156936 0.0003163434 0.0001068784 -0.0430327072 0.1499274172
655296070.0 -0.1978781672 0.8245044319 0.0001690414 -3.04273e-05 0.0001371435 0.0001826488 -0.041842809 0.1508227008
660296040.0 -0.1892491618 0.8263401631 0.0001610011 -8.26785e-05 0.0001090845 0.0001132326 -0.0403322817 0.1512238107
665296010.0 -0.1809913555 0.8291642504 0.0001587034 -0.0001433406 0.0002643943 -3.18417e-05 -0.0388461996 0.151818458
670295980.0 -0.1721923131 0.830314508 0.0003153672 -0.0001835769 0.0002918925 -0.0002421524 -0.0377521429 0.1522374758
675295950.0 -0.1638681507 0.832083472 0.0003749964 -8.8851e-06 0.0003761458 -7.83065e-05 -0.036208617 0.1529427713
680295920.0 -0.1564438582 0.8337308925 0.0003524995 3.16124e-05 0.0004633511 5.07313e-05 -0.0346267869 0.1532832184
685295890.0 -0.1478577386 0.8360274006 6.05035e-05 -4.70054e-05 0.0003619626 7.87936e-05 -0.0333582976 0.1540333943
690295860.0 -0.1391030041 0.8374061042 0.00034116 -6.49975e-05 0.0004596629 -2.2168e-05 -0.0318288756 0.1546345453
695295830.0 -0.1304176841 0.8383099365 0.0001945262 3.39194e-05 0.0002059195 0.0001161682 -0.0305306439 0.1549242533
700295800.0 -0.1223408624 0.8401221833 0.0002058112 -0.0001245445 0.000304298 -3.04855e-05 -0.0287482218 0.1553273364
705295770.0 -0.1148642274 0.8415799696 0.0004081423 6.77477e-05 0.0001519773 7.11955e-05 -0.0277134091 0.1560575833
710295740.0 -0.1065166718 0.8421406622 0.0001857586 -4.5005e-05 0.0001087538 -4.38569e-05 -0.0259789397 0.1562684795
715295710.0 -0.0976661578 0.844172784 0.0002802275 0.0001222205 0.0001136052 0.0002131768 -0.024416761 0.1568893985
720295680.0 -0.0888663282 0.844635599 0.0004076839 -0.0003057804 0.0002349362 1.17135e-05 -0.0230350741 0.1571055772
725295650.0 -0.0811362977 0.8456316097 0.000483762 0.0001006607 0.0004476477 -0.0001363737 -0.0217911755 0.1579845089
730295620.0 -0.0739592007 0.8465497429 0.0001680163 -0.0002115954 0.0005543899 -0.0001181338 -0.0202986167 0.158410839
735295590.0 -0.065890658 0.8479390015 0.0003528847 -0.000123492 0.0004017681 -9.26457e-05 -0.0187683804 0.1585819136
740295560.0 -0.0576476989 0.8477938254 0.0001261142 7.86424e-05 0.0002667012 -9.93037e-05 -0.017486319 0.1589666221
745295530.0 -0.0486854425 0.8487271 0.0002551951 -0.0001053024 0.0002853238 0.0002149539 -0.0157699979 0.1595208858
750295500.0 -0.0403162112 0.8492754668 -7.2528e-06 0.0001065184 0.0001448758 0.0001147235 -0.0141640442 0.1596261177
755295470.0 -0.0323090737 0.8498924026 0.0002665882 -8.53964e-05 0.0001456707 -0.0001075922 -0.01275603 0.1604561502
760295440.0 -0.024111634 0.8508584966 0.0002376901 -0.0001299439 0.0003425994 -3.14029e-05 -0.0110953034 0.1602675093
765295410.0 -0.0161750787 0.850662705 0.0001595088 6.84441e-05 0.0002135876 -9.52668e-05 -0.0097785956 0.1603909704
770295380.0 -0.0085397901 0.8509969365 0.0003373915 -0.0001152439 0.0004131021 1.20247e-05 -0.0082930294 0.1609949168
775295350.0 0.0001564912 0.8512598395 0.0001003696 -0.0002042111 0.0004296864 0.0001141403 -0.0064150363 0.1608154692
780295320.0 0.0092804227 0.8514011392 0.0002528086 -1.67463e-05 0.0003703529 5.05554e-05 -0.0050585985 0.1614720071
785295290.0 0.0169713074 0.8509810012 0.0004722175 -0.0001084504 0.0003637678 -0.0001102756 -0.0037563013 0.1615829168
790295260.0 0.0252829834 0.85120822 0.0004035306 -0.0001666669 0.0003606152 4.05453e-05 -0.0019536074 0.1620235663
795295230.0 0.0329908969 0.8503413831 0.0003366022 1.64331e-05 0.0003410179 -0.0001569188 -0.0007681785 0.1617572006
800295200.0 0.0409474088 0.8505200662 0.0002659669 -7.2954e-05 0.0002647234 -0.0001209046 0.0007916236 0.1618035804
805295170.0 0.0495223099 0.8510231383 0.0001850371 -0.0001004839 9.32572e-05 -0.000188657 0.0026573423 0.1620228545
810295140.0 0.0583026312 0.8506611406 0.0002084166 -0.0001542427 0.0001092897 -0.0002497349 0.0041502124 0.1625475851
815295110.0 0.0658039617 0.8499567695 0.0004900634 4.99211e-05 0.000351377 5.81674e-05 0.0053964377 0.162826883
820295080.0 0.0738937762 0.8490461712 0.0001880624 -0.0001820965 0.0002452309 8.75904e-05 0.0065176404 0.1631151272
825295050.0 0.0824905031 0.8485742178 0.0002957462 7.50058e-05 0.0002789934 -0.000119934 0.0087300674 0.1629305417
830295020.0 0.090730843 0.8476093991 0.0003840139 -0.0001445347 0.0002180398 -0.0001504534 0.0099045979 0.1631382151
835294990.0 0.0984334805 0.846808529 0.0002728848 -2.2734e-06 0.0002082009 -4.08808e-05 0.0116763088 0.1632721653
840294960.0 0.106881989 0.8454898028 0.0003244348 -6.51815e-05 0.0003246448 -2.16007e-05 0.0133643446 0.1632898225
845294930.0 0.1148024014 0.844512053 0.0002476014 -0.0002246073 0.0003583961 -0.0002256671 0.0149230599 0.1635879526
850294900.0 0.1244495555 0.8433000801 0.0003401579 -1.1436e-06 0.0002169167 -0.0001664096 0.0162234887 0.1636292104
