!Created with skrf (http://scikit-rf.org).
# Hz S RI R 50.0 
!freq ReS11 ImS11 ReS21 ImS21 ReS12 ImS12 ReS22 ImS22
300000.0 -0.238178582 -0.07456378 0.4715684869 0.0509891835 0.4678080208 0.05122876 -0.2420771948 -0.0913490532
5299970.0 -0.244351312 0.0073652065 0.4735116803 0.0045577836 0.4737092336 0.0045569568 -0.2441146564 0.0075101598
10299940.0 -0.2411261508 0.0188773813 0.4757874629 0.0059630848 0.4755599816 0.0065028873 -0.2408341161 0.0205189192
15299910.0 -0.2364942149 0.0278928465 0.4792443252 0.007593731 0.4794205014 0.0075654288 -0.2364171138 0.0298059869
20299880.0 -0.2318770336 0.0354010446 0.4835737316 0.0085813275 0.4838704518 0.0081331872 -0.2308307079 0.037665208
25299850.0 -0.2266726652 0.0419792617 0.4889711033 0.0073475182 0.4891732095 0.0073927175 -0.2250815302 0.0439334903
30299820.0 -0.2215720871 0.0471444614 0.4943359451 0.0048550346 0.4943761013 0.0050172946 -0.2191944663 0.0493682941
35299790.0 -0.216187202 0.0514639196 0.4999100131 0.001657596 0.5001232275 0.0018540913 -0.2134226954 0.0535956989
40299760.0 -0.2111917398 0.0550632504 0.5052039837 -0.0019017538 0.5051776401 -0.0020191542 -0.2081093788 0.0562642507
45299730.0 -0.2064163628 0.0577072872 0.509635104 -0.0068536385 0.5099951715 -0.0062744698 -0.2032937565 0.0589033697
50299700.0 -0.2022720956 0.0595641401 0.51380456 -0.0122295487 0.5140259668 -0.0117454229 -0.198693085 0.0605259759
55299670.0 -0.1984415785 0.0617135139 0.518072016 -0.0186418436 0.5175961718 -0.0179488484 -0.194506046 0.0620236804
60299640.0 -0.1942547315 0.0635841501 0.5211463286 -0.0244195329 0.5212660086 -0.0242114863 -0.1902937617 0.0631400925
65299610.0 -0.1911948958 0.0647889524 0.5246331101 -0.0310922067 0.5243802027 -0.0306932278 -0.1870983085 0.0643430233
70299580.0 -0.1880013141 0.0661791301 0.5265278466 -0.0373696369 0.526637621 -0.0373708436 -0.1837411737 0.0648649585
75299550.0 -0.1848992734 0.0673825717 0.5285762594 -0.0441530016 0.5282049069 -0.0442616164 -0.1810557947 0.0651864191
80299520.0 -0.1824617942 0.0679426692 0.5304704605 -0.0506849416 0.5306701617 -0.0510067345 -0.1784902417 0.0662103595
85299490.0 -0.180352296 0.0690432624 0.5318336362 -0.0576287549 0.5318347932 -0.0574148475 -0.1761157056 0.0662108684
90299460.0 -0.1780369312 0.0696050151 0.5324327562 -0.0649660813 0.533054583 -0.0648269439 -0.1739827222 0.0666756618
95299430.0 -0.1754490737 0.0707016338 0.5335412053 -0.0716434497 0.5338981911 -0.0722121647 -0.1717549597 0.0673246057
100299400.0 -0.173730441 0.0716771852 0.5337601717 -0.0785380745 0.5339536256 -0.078768054 -0.169666225 0.0672731542
105299370.0 -0.1719740771 0.0724992124 0.5341984003 -0.0855155611 0.5341812458 -0.0855692676 -0.167533353 0.0681446591
110299340.0 -0.1702659247 0.0734437678 0.5346079072 -0.0923871805 0.534481318 -0.0923314069 -0.1664739308 0.0684043245
115299310.0 -0.1688552774 0.0740962829 0.5345617172 -0.0991321277 0.534269723 -0.0991110927 -0.1648712298 0.0690010149
120299280.0 -0.1673936363 0.0746745677 0.5341475036 -0.1059387498 0.5343132 -0.1060931758 -0.163458116 0.0694427508
125299250.0 -0.1660426301 0.0754970289 0.5339077897 -0.1126728893 0.5341914567 -0.1125755573 -0.1623645931 0.0695700867
130299220.0 -0.1650151844 0.0768577374 0.533028553 -0.1196099586 0.532895189 -0.1194683794 -0.1611920029 0.0703302986
135299190.0 -0.163997645 0.0776646991 0.5329173091 -0.1260035839 0.5328419746 -0.1260498816 -0.1599028158 0.0709210532
140299160.0 -0.1627143255 0.0791786786 0.5320088634 -0.1331042266 0.5318765924 -0.1329677171 -0.1589727767 0.0722166234
145299130.0 -0.1616080099 0.0799166122 0.531037582 -0.139275097 0.5305674161 -0.1394068832 -0.157721341 0.0727608172
150299100.0 -0.1600394898 0.0811263356 0.5296400653 -0.1455477839 0.5298532683 -0.1456743794 -0.1568602091 0.0739915486
155299070.0 -0.1594335286 0.0821066118 0.5287143488 -0.1529537947 0.5282010896 -0.1526099623 -0.1558315649 0.0747523911
160299040.0 -0.1584070602 0.0835152033 0.5270973546 -0.1583402571 0.5272464717 -0.1590740488 -0.1554727087 0.0752702403
165299010.0 -0.1573488691 0.0846817174 0.5260185587 -0.165450347 0.526033707 -0.1657474236 -0.1539522842 0.0767103921
170298980.0 -0.1565647061 0.0858252325 0.5242381751 -0.1717719025 0.5242247306 -0.1716468052 -0.1535261567 0.0774679756
175298950.0 -0.1555635713 0.0868947746 0.5229894391 -0.1779414448 0.5225949096 -0.1780936405 -0.1527955084 0.0786971365
180298920.0 -0.1547608234 0.0883187588 0.5208763309 -0.1842581154 0.5207883397 -0.1840314523 -0.1520052906 0.0797069547
185298890.0 -0.1534211681 0.0896023354 0.5193503337 -0.1905128851 0.5185937416 -0.1903765448 -0.1513025477 0.0810839726
190298860.0 -0.1526734144 0.0911072822 0.5174051546 -0.19695925 0.5177068227 -0.1967499445 -0.1507099725 0.0819970817
195298830.0 -0.1516445164 0.0919767412 0.5148903176 -0.2027409562 0.5151910725 -0.2024757128 -0.1497341658 0.0831766967
200298800.0 -0.1504408786 0.0933488658 0.5130057764 -0.2090679928 0.5129134523 -0.2090442668 -0.1492811231 0.0840662934
205298770.0 -0.1497108497 0.0949518645 0.5104456481 -0.2149451504 0.5110512277 -0.2150817116 -0.1487418761 0.0849114662
210298740.0 -0.1488123145 0.0961798092 0.5082676815 -0.2208215818 0.5083734447 -0.2205445785 -0.1475695313 0.0865555198
215298710.0 -0.148209234 0.0979038308 0.50647963 -0.2272363021 0.5060663524 -0.2271132175 -0.1470774091 0.0877171063
220298680.0 -0.1471248513 0.0988200618 0.5032962582 -0.2328917585 0.5037439373 -0.2326126602 -0.1468802896 0.0886436969
225298650.0 -0.1458465832 0.1000438838 0.5011073205 -0.2387851946 0.50130476 -0.2387864292 -0.14647533 0.0898456055
230298620.0 -0.1451099289 0.1022393366 0.4987659138 -0.2442920641 0.4993091668 -0.2445333635 -0.1456379507 0.0909972713
235298590.0 -0.1440746961 0.1038193173 0.4961869064 -0.2506293106 0.4961561291 -0.24998784 -0.1447598643 0.0923144635
240298560.0 -0.1431823913 0.105129266 0.4938973483 -0.2561937613 0.4934902221 -0.255957692 -0.1439099428 0.0937348966
245298530.0 -0.1422801229 0.1063166331 0.4909129334 -0.2618042294 0.4907375637 -0.2617234642 -0.1428757487 0.0941265926
250298500.0 -0.1407753031 0.1079958867 0.4873596292 -0.2670925115 0.4873683173 -0.2668741535 -0.1425844472 0.0955380249
255298470.0 -0.139973271 0.1089526243 0.4845058434 -0.2727480608 0.4848514202 -0.2727637638 -0.1415817702 0.0969418371
260298440.0 -0.1392034554 0.1106667625 0.4817274816 -0.2788950057 0.4817295664 -0.2787365728 -0.1404172116 0.0980034913
265298410.0 -0.1374769699 0.1121302312 0.4787327501 -0.2839672949 0.4788443464 -0.2839657106 -0.139858717 0.0996085094
270298380.0 -0.1365442462 0.1136023136 0.4757787681 -0.2890405799 0.4758693996 -0.2894648713 -0.139076724 0.1007715202
275298350.0 -0.1352886758 0.1152764415 0.4725503155 -0.2949045417 0.4729368849 -0.2947196829 -0.1380203651 0.1016736139
280298320.0 -0.1338474507 0.1165524595 0.4697556609 -0.3003841058 0.4697516955 -0.300138565 -0.1367863733 0.102980158
285298290.0 -0.1328588903 0.1184021421 0.4664129396 -0.3056651102 0.4663267445 -0.3052801255 -0.1360355991 0.1040729405
290298260.0 -0.1314682278 0.1194851556 0.4630788286 -0.3104720485 0.4627896814 -0.310702374 -0.1349187488 0.1060106457
295298230.0 -0.1301727313 0.1206818965 0.459753984 -0.3156719705 0.4594184054 -0.3161088687 -0.1336215535 0.1067401419
300298200.0 -0.1291565249 0.122412936 0.4562745094 -0.3213030179 0.4563699947 -0.3217200042 -0.1328195225 0.1077374176
305298170.0 -0.1277044055 0.123536338 0.4525381977 -0.326961712 0.4525276786 -0.3264041659 -0.1313442516 0.1090336343
310298140.0 -0.1263922517 0.1251876405 0.4490284349 -0.3315772399 0.4491371699 -0.3314191494 -0.1307723708 0.110299363
315298110.0 -0.1251907588 0.1262443239 0.4453349372 -0.3368752531 0.4456325184 -0.3371145394 -0.1296828587 0.1114776693
320298080.0 -0.1236602916 0.1276246888 0.4410002673 -0.3423165228 0.4416476042 -0.3419763728 -0.1287664381 0.1127897729
325298050.0 -0.1226927023 0.1289836413 0.4374618276 -0.347329314 0.4378711244 -0.3470507153 -0.1278555667 0.1138514754
330298020.0 -0.1215239667 0.1299982277 0.433557244 -0.3518507652 0.4339355146 -0.3521031931 -0.1272181409 0.1149317343
335297990.0 -0.1201512143 0.1310367008 0.4297629672 -0.3566176103 0.4295316823 -0.357037299 -0.1265619408 0.1167583121
340297960.0 -0.119252309 0.1328075263 0.4254516798 -0.3617917864 0.4251613853 -0.3616805593 -0.1248372169 0.1181933716
345297930.0 -0.1178841025 0.1345966544 0.4213093525 -0.3666030558 0.4212937841 -0.3666745133 -0.1239911083 0.1190022714
350297900.0 -0.116529517 0.1354315189 0.4167796687 -0.3709693611 0.4168436653 -0.3712172074 -0.1235075608 0.1207925754
355297870.0 -0.1150231149 0.1375500661 0.412899992 -0.3756323052 0.413452334 -0.375580786 -0.1224590212 0.1218883239
360297840.0 -0.1137022511 0.1386131022 0.4091185306 -0.3797832007 0.4094841278 -0.38019268 -0.121579689 0.1236352477
365297810.0 -0.1123684822 0.1403345968 0.4045962019 -0.3846708321 0.4049576597 -0.3848412278 -0.1198712982 0.1248875249
370297780.0 -0.1104765944 0.1412505506 0.4003116167 -0.38906467 0.4007232022 -0.3889190726 -0.1188660815 0.1264896526
375297750.0 -0.1091257085 0.1426943881 0.3964345566 -0.3935977135 0.3966005787 -0.3934258104 -0.1177220368 0.1274623554
380297720.0 -0.1075668741 0.1442152043 0.3918641463 -0.3980754054 0.3920381748 -0.3972779178 -0.117360475 0.1286418324
385297690.0 -0.10651453 0.1453254255 0.3874160261 -0.4019737001 0.3873434139 -0.4020921391 -0.115808376 0.1300678212
390297660.0 -0.1049378839 0.1468850182 0.3832194917 -0.4064888276 0.3830890972 -0.4063278992 -0.1148530745 0.1314421479
395297630.0 -0.1033174975 0.1484153121 0.3786629797 -0.4104198018 0.3786293337 -0.4103272316 -0.1131230602 0.1326136932
400297600.0 -0.1016229533 0.1498149957 0.3737264519 -0.4147961529 0.3741505454 -0.4148802557 -0.1124476623 0.1340098316
405297570.0 -0.1005531323 0.1506348668 0.3693697526 -0.4190119478 0.369139354 -0.4186506131 -0.1114196511 0.135189756
410297540.0 -0.0985853921 0.1518553104 0.3651672998 -0.422800083 0.3653677733 -0.4224812367 -0.110154453 0.1361828318
415297510.0 -0.0965957175 0.1529608381 0.3600339834 -0.4268644793 0.3600577063 -0.4272269795 -0.1085606078 0.1377052611
420297480.0 -0.0951330387 0.1548061377 0.35517201 -0.4309508521 0.3551315434 -0.4309162098 -0.1076909203 0.1383743251
425297450.0 -0.093215723 0.1552322133 0.3510034755 -0.434516357 0.351135533 -0.4345950669 -0.1067414799 0.1400901907
430297420.0 -0.0917787692 0.1565798321 0.3456327547 -0.4379929919 0.3458959759 -0.4380079346 -0.1054548497 0.1409188106
435297390.0 -0.0901561187 0.1580360328 0.3407203313 -0.4423951845 0.3408682245 -0.4422487044 -0.1034252535 0.1421700773
440297360.0 -0.0883492499 0.1589835957 0.3358251342 -0.4455461574 0.33635984 -0.4456042449 -0.1023699965 0.1428884782
445297330.0 -0.086560427 0.1598414948 0.3313863026 -0.4497530195 0.3315576261 -0.4491789594 -0.1012157163 0.1435716655
450297300.0 -0.0847141169 0.1610343915 0.3266149237 -0.4528293767 0.326100473 -0.4532100096 -0.0996908417 0.1449301132
455297270.0 -0.0830733172 0.161990958 0.3209963234 -0.4567960716 0.3215012704 -0.4565230009 -0.098074687 0.1458159594
460297240.0 -0.0812396194 0.1631513505 0.3161110507 -0.4597540787 0.3164339355 -0.4602152381 -0.0967067297 0.1474357415
465297210.0 -0.0795014595 0.1640337114 0.3113071382 -0.4634085096 0.3113313888 -0.4639387888 -0.0949082786 0.1478490392
470297180.0 -0.0775425329 0.1648506294 0.3056360799 -0.4669314722 0.3062405618 -0.4671031759 -0.0937565411 0.149368668
475297150.0 -0.0761209065 0.1656937952 0.3013086624 -0.4693096446 0.30126506 -0.4696953164 -0.0918916503 0.1496960409
480297120.0 -0.0742737036 0.1672662818 0.2959716206 -0.4736612199 0.295661115 -0.4733855903 -0.0904723924 0.151131347
485297090.0 -0.0724835874 0.1679219163 0.2908983683 -0.4760689842 0.2909328201 -0.4760284321 -0.0890088525 0.1522145232
490297060.0 -0.0709609788 0.1687530707 0.28639455 -0.4798680571 0.2858222512 -0.4792389498 -0.0875705039 0.1533901204
495297030.0 -0.0688206071 0.1698352304 0.2798025766 -0.482674645 0.280547266 -0.4823587807 -0.0864309064 0.1539936512
500297000.0 -0.0667683158 0.170711201 0.2745825783 -0.4853602556 0.2747861046 -0.4852559706 -0.0844830356 0.1559698981
505296970.0 -0.0650795424 0.171572974 0.2695552005 -0.4883552239 0.2691442806 -0.4886621358 -0.0831185772 0.1566303448
510296940.0 -0.0628910264 0.1726210846 0.2643532455 -0.4914892335 0.2640344237 -0.4915883522 -0.0816084143 0.157440372
515296910.0 -0.0612205096 0.1733858701 0.2588788632 -0.4945414986 0.2588793133 -0.4940048457 -0.0801405001 0.1585373631
520296880.0 -0.0596543462 0.1742174225 0.2531717186 -0.4971191058 0.253622659 -0.4969441278 -0.078638132 0.1592986522
525296850.0 -0.0572662943 0.1743738431 0.2477347307 -0.5000070822 0.2485187646 -0.4996893232 -0.0771602777 0.1603894789
530296820.0 -0.0552101158 0.1756084359 0.2423857783 -0.5024593721 0.2425661462 -0.5025474224 -0.0754637259 0.1611754541
535296790.0 -0.0539327621 0.1764238124 0.2376460281 -0.5047953836 0.2376328143 -0.504813189 -0.0740880126 0.1621072307
540296760.0 -0.0518402426 0.1769865996 0.2316303244 -0.5077420809 0.231881206 -0.5076429641 -0.0728018866 0.1634504737
545296730.0 -0.0498497648 0.1778199798 0.2259248381 -0.5094724712 0.2260709284 -0.5101249568 -0.0713632938 0.1641660489
550296700.0 -0.0476636173 0.1785936531 0.2205227432 -0.5122706641 0.2204002297 -0.5126682794 -0.0696658155 0.1650318673
555296670.0 -0.0460474938 0.179331344 0.2152666713 -0.5149074355 0.2153667256 -0.5147157272 -0.0679909745 0.1660735294
560296640.0 -0.0434551686 0.1802836493 0.2094486133 -0.5171956444 0.2094463088 -0.5169899083 -0.0665342999 0.1666797983
565296610.0 -0.0418950911 0.1806965388 0.2038499265 -0.5193638003 0.2037938784 -0.5192427652 -0.0649809266 0.1672062391
570296580.0 -0.0400848042 0.1810585729 0.198256542 -0.5218806748 0.1975262911 -0.5215689881 -0.063405971 0.1685210809
575296550.0 -0.0380104254 0.1824465553 0.1924319735 -0.5238068852 0.1923347622 -0.5236834241 -0.0617133758 0.1690595068
580296520.0 -0.0357817562 0.1823790455 0.186550054 -0.5261423409 0.1869128222 -0.5256619738 -0.0603000092 0.1694144088
585296490.0 -0.0341583921 0.1828053656 0.1811642928 -0.5273077942 0.180971824 -0.5274287529 -0.0585522586 0.1705149457
590296460.0 -0.0315642065 0.1833089608 0.1756567366 -0.528977638 0.175248207 -0.5295757251 -0.0576044251 0.1711377052
595296430.0 -0.0296632893 0.183999741 0.1688753782 -0.531676893 0.1691630479 -0.5313048796 -0.0555193373 0.1712996451
600296400.0 -0.0277130762 0.1843120706 0.1638332854 -0.5333870917 0.1637268048 -0.5330810942 -0.0538531201 0.1722673783
605296370.0 -0.0259420482 0.1846571213 0.1576740692 -0.5343287867 0.1581165306 -0.5348678278 -0.0522685762 0.1729127915
610296340.0 -0.0237034441 0.1853282363 0.1519458063 -0.5365448358 0.1522060134 -0.5364696888 -0.0504362632 0.1733399383
615296310.0 -0.0215119607 0.1853808437 0.1457310507 -0.5376510774 0.1459394587 -0.5385628059 -0.0483766675 0.1740274676
620296280.0 -0.0195170666 0.1854343933 0.1401672473 -0.5392680374 0.140386776 -0.5392968153 -0.0472825465 0.1744746724
625296250.0 -0.0178445656 0.185731338 0.1356383286 -0.5410259283 0.1347738962 -0.5412423983 -0.044806053 0.175496977
630296220.0 -0.0146770274 0.1863742441 0.1282995594 -0.5422071924 0.1283177211 -0.5423588591 -0.0435930795 0.1757047106
635296190.0 -0.013912073 0.1866023881 0.1229178018 -0.5435371576 0.122666232 -0.5438644253 -0.0417275068 0.1762768454
640296160.0 -0.0117367357 0.1869219832 0.1169353564 -0.5446638764 0.1169514829 -0.5450976392 -0.0400359055 0.1767040798
645296130.0 -0.0093611757 0.1874454226 0.1105498248 -0.5461000803 0.1110513193 -0.5462045111 -0.0383463969 0.1774374027
650296100.0 -0.0074358599 0.1874641498 0.105246674 -0.5471347263 0.1050592957 -0.5473407526 -0.0360742549 0.1772938655
655296070.0 -0.0054235345 0.1875280806 0.0988505737 -0.5482933346 0.0993088618 -0.5483543343 -0.0342969831 0.1781847435
660296040.0 -0.0037488347 0.1875336063 0.0935437843 -0.5491924653 0.0932529005 -0.5494565903 -0.0324478536 0.1786765638
665296010.0 -0.0010369616 0.1876389383 0.0867999678 -0.5501957272 0.0872778009 -0.5500610977 -0.0306037082 0.1797758811
670295980.0 0.0003452423 0.1883013287 0.0812039333 -0.5508134836 0.0813723125 -0.5507937522 -0.029593454 0.1798112483
675295950.0 0.0028359483 0.1883762938 0.0752560802 -0.5516287891 0.0755378084 -0.5513514562 -0.0276051324 0.1804808185
680295920.0 0.0050590354 0.1881773321 0.0694684187 -0.5524733622 0.0687754177 -0.55312149 -0.025684467 0.1813971289
685295890.0 0.0069816103 0.1887156601 0.0633702882 -0.55339734 0.063150076 -0.5535444542 -0.0239336664 0.1814671236
690295860.0 0.0093241491 0.1885827694 0.057371701 -0.5537115338 0.0572994535 -0.5542664385 -0.0220151081 0.1823837925
695295830.0 0.0112931337 0.1882867637 0.0514215841 -0.554087071 0.0510914906 -0.5545726559 -0.0205520154 0.1823618817
700295800.0 0.0132748136 0.18810243 0.0449818048 -0.5543428838 0.0451795273 -0.5548942413 -0.0188924639 0.1832171404
705295770.0 0.0150086178 0.188857812 0.0392469205 -0.5553145483 0.0395915136 -0.5553700722 -0.0172045562 0.1835947353
710295740.0 0.0175521399 0.1884670393 0.0334571849 -0.5561103985 0.033761185 -0.5560624982 -0.0151722677 0.1833905332
715295710.0 0.0192797647 0.1886060732 0.0276210777 -0.5559675138 0.0271288515 -0.5561024717 -0.0131870139 0.1838375754
720295680.0 0.0215850292 0.1883555426 0.0214759359 -0.5563020203 0.0215537007 -0.5563210341 -0.0117982506 0.1850698811
725295650.0 0.0238508351 0.1885181125 0.0151887919 -0.5565349205 0.0154541013 -0.5563023474 -0.0101352358 0.1849998987
730295620.0 0.0261786768 0.1885217868 0.0088441982 -0.5563200387 0.0095187381 -0.5566560432 -0.008526862 0.1848903267
735295590.0 0.0279319533 0.1883748476 0.0037053629 -0.5568896705 0.0033847767 -0.5565458975 -0.0070145665 0.184782107
740295560.0 0.0297894877 0.1881014319 -0.0024047339 -0.5564557504 -0.002436843 -0.5564595947 -0.0045642826 0.1852980183
745295530.0 0.031974124 0.1880554999 -0.0087820314 -0.5561102048 -0.0091149528 -0.5562648464 -0.0027004856 0.1850911464
750295500.0 0.0339492689 0.1876146821 -0.0144712465 -0.5560890646 -0.0144025012 -0.556567676 -0.0012411915 0.1857513387
755295470.0 0.0360994711 0.1872145641 -0.020260638 -0.5560994735 -0.0207090964 -0.5562913486 0.0008345978 0.1854600651
760295440.0 0.0380491506 0.1870367822 -0.0267308696 -0.5562893718 -0.0264949539 -0.5558742272 0.0022995528 0.1856481193
765295410.0 0.0399972351 0.1870313394 -0.0326606274 -0.5554178198 -0.0329331958 -0.5559010111 0.0044753951 0.1858893834
770295380.0 0.0418860624 0.1864668754 -0.0388747357 -0.5548335157 -0.0386720685 -0.5547504789 0.0059162929 0.1856904131
775295350.0 0.0438917847 0.1858485317 -0.0446479127 -0.5541727734 -0.0445316591 -0.5545878147 0.0074159585 0.1862951542
780295320.0 0.045977977 0.1857516281 -0.0504779352 -0.5534993957 -0.0500088292 -0.5539665157 0.0091531965 0.1856980189
785295290.0 0.0479502395 0.1849573967 -0.0570003965 -0.5529594689 -0.0566148483 -0.5529948502 0.0117116507 0.1859548612
790295260.0 0.0506932376 0.1851270202 -0.0620355432 -0.5525610297 -0.0617604704 -0.5526557854 0.0132303507 0.185939532
795295230.0 0.0521861277 0.1843441846 -0.0681474576 -0.5514277179 -0.0679344877 -0.5521418008 0.0154497972 0.1861738166
800295200.0 0.0541201554 0.1842199945 -0.0747944437 -0.5509137704 -0.0743251396 -0.5512176415 0.0172717478 0.1860143209
805295170.0 0.0562443838 0.1834230626 -0.0805017556 -0.5502780947 -0.0801506787 -0.5503806985 0.0187873265 0.1861933702
810295140.0 0.0581057723 0.1828118115 -0.0858530756 -0.5494216644 -0.0859909073 -0.5495775028 0.0208899338 0.1861253601
815295110.0 0.06021928 0.1824311863 -0.0921769346 -0.5479959918 -0.0914969142 -0.5485189483 0.0228045248 0.1863307183
820295080.0 0.0620121977 0.1820593598 -0.0979366833 -0.5467818249 -0.0975083482 -0.5469656033 0.0245309591 0.186045541
825295050.0 0.0643412069 0.1813844491 -0.1034837394 -0.5456326635 -0.1036755173 -0.5460062485 0.0266735202 0.1859234099
830295020.0 0.0660223338 0.1808413055 -0.1097616005 -0.5447485284 -0.1094534918 -0.5447877868 0.0290857345 0.1856271594
