!Created with skrf (http://scikit-rf.org).
# Hz S RI R 50.0 
!freq ReS11 ImS11 ReS21 ImS21 ReS12 ImS12 ReS22 ImS22
300000.0 -0.7709468763 -0.0991264684 -0.0007446696 -0.0002919996 -0.0009717319 -0.0001918419 -0.7727308847 -0.1369040506
5299970.0 -0.784804612 -0.0057591813 0.0001756724 8.44906e-05 2.62032e-05 0.0001347513 -0.784445739 -0.0073191427
10299940.0 -0.7877687 -0.0041124386 -2.37429e-05 -2.82633e-05 -6.04075e-05 -0.0001327275 -0.7877120313 -0.0041267856
15299910.0 -0.7933493175 -0.0021788869 -3.09968e-05 -0.000124964 -0.0001686544 -0.0001479927 -0.7928302028 -0.0013003244
20299880.0 -0.800030693 0.0017822501 -0.0001589921 -6.96253e-05 -3.62804e-05 -4.74934e-05 -0.7996581723 0.0022580164
25299850.0 -0.8061625167 0.0074327417 -3.10301e-05 0.0002405183 5.12923e-05 -2.15286e-05 -0.8059105974 0.0082109445
30299820.0 -0.812491016 0.0155417332 -5.91088e-05 3.06348e-05 4.42807e-05 4.7373e-06 -0.8116878688 0.0161068132
35299790.0 -0.8178815979 0.024252631 0.0001047827 -6.06492e-05 -0.0001651429 -1.78104e-05 -0.8172250586 0.0254926802
40299760.0 -0.8209288503 0.0340292385 0.000167112 0.0002760295 -0.0001860837 -4.33401e-05 -0.8210021788 0.0343537086
45299730.0 -0.8241826302 0.0427918897 0.0001119077 0.0002501771 -0.0001218155 0.000127379 -0.8249943899 0.044396136
50299700.0 -0.8270462745 0.0529358389 1.8744e-05 2.4721e-06 -1.46701e-05 -3.79772e-05 -0.8271748996 0.0542635672
55299670.0 -0.8295515176 0.0629594976 -1.16971e-05 0.0001833628 4.4589e-05 -0.0001386482 -0.8293460616 0.0640506882
60299640.0 -0.8304096901 0.0733947359 -5.01901e-05 6.36099e-05 -0.0001125835 -3.34347e-05 -0.8301316939 0.0744045518
65299610.0 -0.8308337357 0.0833969545 -3.52061e-05 1.38049e-05 5.86752e-05 -7.762e-06 -0.8322043889 0.0842452223
70299580.0 -0.8314570389 0.0931127341 1.32364e-05 -0.0001365234 -0.0001099648 -3.21162e-05 -0.8320269738 0.0945146459
75299550.0 -0.8322923984 0.1032943515 -0.0001486884 1.32213e-05 -8.01053e-05 -6.47205e-05 -0.8321586732 0.103482118
80299520.0 -0.8319192941 0.113235247 -3.56801e-05 2.04773e-05 2.2811e-05 7.56702e-05 -0.831655565 0.1139545577
85299490.0 -0.8309624124 0.1228064169 -5.5059e-06 7.7377e-05 -2.06235e-05 2.21992e-05 -0.8314219757 0.1236840207
90299460.0 -0.8302886131 0.1320037259 -0.0001425207 -0.0001567325 5.43397e-05 -6.9718e-05 -0.830618189 0.1329973612
95299430.0 -0.8296028349 0.141700003 1.4973e-06 0.0001945294 5.24633e-05 0.000121426 -0.8292575219 0.1430902337
100299400.0 -0.8281971561 0.1509943048 4.3416e-06 4.5013e-06 -0.0001087399 6.9626e-05 -0.828463665 0.1522476972
105299370.0 -0.8271724693 0.1605153905 0.0002136384 -2.71147e-05 -0.0001755597 -0.0002754511 -0.8273469916 0.1613309789
110299340.0 -0.825530282 0.1694680923 -5.49055e-05 8.63694e-05 -0.0001021111 0.0001062337 -0.8257540008 0.170660596
115299310.0 -0.8237922664 0.1784571592 1.83162e-05 -4.028e-07 4.20293e-05 1.8889e-05 -0.8242398979 0.1794883442
120299280.0 -0.8217036639 0.1876657223 -9.94159e-05 7.75977e-05 -6.51029e-05 3.77368e-05 -0.8222364721 0.1885145481
125299250.0 -0.8202383759 0.1960038397 1.3895e-05 -0.0001670113 -0.0001478385 -0.0001518899 -0.8206527847 0.1981998113
130299220.0 -0.8183891309 0.2051037307 8.10325e-05 -3.31652e-05 4.6121e-06 6.08572e-05 -0.8185836159 0.2066416486
135299190.0 -0.8165435751 0.2140366292 -0.0003309341 1.38517e-05 0.0001308031 2.03003e-05 -0.8164629722 0.2154481914
140299160.0 -0.8148220288 0.2229446752 5.45867e-05 0.0001080163 0.0002768097 0.0001304634 -0.813901327 0.2248246238
145299130.0 -0.8127484059 0.2320421097 5.77507e-05 -3.33705e-05 0.0001469181 -8.91822e-05 -0.8118641634 0.2339562679
150299100.0 -0.8102289314 0.2410047432 -0.0001846566 -0.0001235857 -0.0001392676 8.06387e-05 -0.8103905315 0.2429849744
155299070.0 -0.8079583179 0.2495993653 0.0001990158 9.94222e-05 5.27494e-05 -0.0001452091 -0.8069636719 0.2518644797
160299040.0 -0.8051064608 0.2578951088 -6.0804e-05 6.95273e-05 -7.98475e-05 -0.0001262021 -0.8049426068 0.2603047368
165299010.0 -0.802818801 0.2667345204 -3.17914e-05 0.0002012553 3.19454e-05 -6.26028e-05 -0.8020953797 0.2692524798
170298980.0 -0.7997770271 0.2757359157 0.0001690641 9.66001e-05 -0.0001017361 0.0001393912 -0.7992176112 0.2780326162
175298950.0 -0.7973567849 0.2842795235 3.71615e-05 0.0001123328 0.0001590394 5.21699e-05 -0.7970192071 0.2869897015
180298920.0 -0.7948153865 0.2929549689 8.45517e-05 -8.08974e-05 5.04015e-05 -0.0001915856 -0.7933161056 0.2952044228
185298890.0 -0.7911084412 0.3008986953 1.9517e-05 -0.0001614581 4.25731e-05 -0.0001802681 -0.789686899 0.3039024856
190298860.0 -0.7886377016 0.3096002789 -4.34757e-05 7.05374e-05 -0.0001922141 -0.0001707513 -0.7877375082 0.3122079364
195298830.0 -0.785505294 0.3181868143 -4.95331e-05 7.47952e-05 -0.0003026748 3.12935e-05 -0.7841223139 0.3212912493
200298800.0 -0.7815416833 0.3253115963 -0.0001971146 -8.48296e-05 -8.08786e-05 0.0001308354 -0.7815005275 0.3291554582
205298770.0 -0.778517504 0.3345515389 8.72727e-05 -0.0001630712 -2.5433e-05 -0.0002154931 -0.7771947822 0.3376402093
210298740.0 -0.7745637568 0.3425952883 -0.0002306595 9.0895e-05 -2.11055e-05 -2.9882e-06 -0.7741013933 0.3460767694
215298710.0 -0.7718281281 0.3508333939 5.10756e-05 -4.84288e-05 -8.86719e-05 -0.0001684598 -0.7711376261 0.3540050887
220298680.0 -0.7673529104 0.3592101417 -0.0001258131 -0.0001018348 -0.0001210155 -4.72e-08 -0.7678443117 0.3619528101
225298650.0 -0.7643147466 0.3667903156 -0.0002129852 0.0002036491 0.0001404377 -0.0001857584 -0.7634248942 0.3703319244
230298620.0 -0.7603967697 0.3748548761 -4.41824e-05 3.8683e-05 -0.000264085 0.000104551 -0.7595857628 0.3782389902
235298590.0 -0.7558599811 0.3831603254 4.56697e-05 8.66647e-05 0.0001529394 1.55867e-05 -0.7559049336 0.3867714564
240298560.0 -0.7525467903 0.3912026018 5.99465e-05 4.379e-07 -6.61793e-05 0.0001870146 -0.7517203499 0.3952418176
245298530.0 -0.7488023466 0.3987364732 0.0003217484 0.0001452024 -4.04002e-05 -0.0001562927 -0.747506858 0.402677254
250298500.0 -0.7446432663 0.4069622549 -0.0001508916 -0.0001660031 7.21718e-05 3.83828e-05 -0.7433960469 0.4102144868
255298470.0 -0.7395562732 0.4139394872 -0.0001757126 -5.08104e-05 9.82405e-05 8.10494e-05 -0.7390327765 0.4177875496
260298440.0 -0.7359019354 0.4213655991 5.22419e-05 -0.0002788996 -0.000119443 0.0001072682 -0.7342705644 0.4260400245
265298410.0 -0.7312468825 0.4299209769 0.0001616177 3.2973e-05 -0.0001936641 9.21618e-05 -0.7299276978 0.433348809
270298380.0 -0.7270984884 0.4369831387 -3.4631e-06 -0.0001228652 -0.0002510586 -5.1877e-06 -0.7253948641 0.4406682887
275298350.0 -0.7218267984 0.4446758308 4.39627e-05 0.0001981154 -3.14281e-05 -1.10976e-05 -0.7208996547 0.448580489
280298320.0 -0.7169897277 0.4525806185 3.79193e-05 -0.0002396048 -0.0001583022 -1.41055e-05 -0.7154620026 0.456082188
285298290.0 -0.7130491346 0.4600729261 -4.16835e-05 0.0002452197 0.0001635073 -6.89408e-05 -0.710508202 0.4633373187
290298260.0 -0.7078868126 0.4675476374 -0.000141973 0.0001860709 -0.0001186071 -0.0001843593 -0.7061143997 0.4705752168
295298230.0 -0.7023251532 0.474424429 -0.0001222654 -6.03909e-05 4.2575e-06 5.67158e-05 -0.7010311541 0.4777253637
300298200.0 -0.6974841443 0.4815486621 -6.12878e-05 -3.47206e-05 -0.0002812961 0.0001895118 -0.6959511391 0.4849363751
305298170.0 -0.6924534187 0.4883739316 5.19035e-05 0.0001115177 9.02694e-05 -4.43041e-05 -0.6900102649 0.492592975
310298140.0 -0.6874621449 0.4965326783 -1.1157e-05 -4.07041e-05 -1.5595e-06 0.0001236818 -0.6852941425 0.499492931
315298110.0 -0.6829588938 0.5032507828 -0.0002978366 8.40003e-05 3.13852e-05 -3.03388e-05 -0.6799313959 0.5068488337
320298080.0 -0.6774120042 0.5102469672 0.0001607857 -2.43303e-05 -0.0001599162 1.03034e-05 -0.6747887699 0.5141153034
325298050.0 -0.6718580581 0.5173320611 -0.0001054294 0.0001500211 2.15014e-05 3.59635e-05 -0.6686679441 0.5212531896
330298020.0 -0.6667037087 0.5239375216 -0.0001489538 -2.51337e-05 -0.0001076646 -6.87114e-05 -0.6635596802 0.5280986175
335297990.0 -0.6609982586 0.5307142844 -6.20869e-05 -0.0001273917 -5.07407e-05 -0.000107772 -0.6582302333 0.5351333334
340297960.0 -0.6559565893 0.5379452105 -0.0002177052 -4.05391e-05 4.43511e-05 -7.68132e-05 -0.6526814778 0.542081652
345297930.0 -0.6503074036 0.5444722503 -2.3217e-06 0.0001216956 1.64518e-05 -0.0001073041 -0.6469958297 0.548534432
350297900.0 -0.6446048439 0.5509544963 4.15965e-05 -7.6128e-06 -6.1507e-05 0.0001672312 -0.6407651851 0.5550480914
355297870.0 -0.638300412 0.5582696195 -8.67149e-05 -9.4753e-06 3.65767e-05 1.45346e-05 -0.6356008584 0.5617453713
360297840.0 -0.632652242 0.5638235177 -0.0002788782 0.0001597161 -5.39889e-05 8.66323e-05 -0.6295618212 0.5690871442
365297810.0 -0.6268799143 0.5703129549 0.0001122401 3.60681e-05 -2.25958e-05 0.000156667 -0.6231771088 0.5752499888
370297780.0 -0.6209334378 0.5769671674 0.0002008858 -2.87049e-05 4.37735e-05 -0.0002186258 -0.6172186126 0.5818176279
375297750.0 -0.6143900174 0.5832916631 9.31861e-05 -6.03621e-05 6.1073e-06 -0.0001003212 -0.6113019782 0.5872715316
380297720.0 -0.6086138299 0.5893525785 3.09271e-05 -0.0001487242 2.39343e-05 -0.000206737 -0.6053772058 0.5943499114
385297690.0 -0.6032881327 0.595618735 0.0002668444 4.1438e-05 -4.8905e-05 2.92902e-05 -0.5986400566 0.6004418761
390297660.0 -0.5972057741 0.6009773434 -7.99148e-05 -0.0002017902 0.0001517903 -1.18483e-05 -0.5935249818 0.6070360331
395297630.0 -0.5903701676 0.6082832707 -4.99771e-05 -6.32515e-05 -0.0001288836 -3.29354e-05 -0.5866806182 0.6129211551
400297600.0 -0.5839205037 0.6138895632 -9.84165e-05 0.0002054501 -5.51185e-05 -9.79804e-05 -0.5808275437 0.6184904035
405297570.0 -0.5780153412 0.6193748921 0.0001379977 -0.0001745389 1.2063e-05 -8.85618e-05 -0.5741393239 0.6249165699
410297540.0 -0.5710622602 0.6253565476 0.0001632406 -0.0001956862 0.0001977918 -0.0002696839 -0.5675727256 0.630905498
415297510.0 -0.5642353204 0.6311367509 -0.000148585 -8.50712e-05 0.0001717215 0.0001507572 -0.561332091 0.6360784474
420297480.0 -0.5593574721 0.6365803326 0.000267385 0.000225675 5.23212e-05 -0.0001875063 -0.554630112 0.6422596194
425297450.0 -0.5517510767 0.6431144103 -3.59362e-05 -1.6309e-06 0.0002464466 0.0001301928 -0.5481301732 0.6477707232
430297420.0 -0.5452148547 0.6486292463 -2.78826e-05 -1.23351e-05 -0.000105246 -8.52379e-05 -0.5414732843 0.6524762831
435297390.0 -0.5388944037 0.6530651498 -0.0001864454 8.1635e-05 -3.10817e-05 1.80453e-05 -0.5341624962 0.6585542381
440297360.0 -0.5322918728 0.658710629 2.39301e-05 -0.0001596526 4.95476e-05 0.0001278979 -0.5273893163 0.6632635882
445297330.0 -0.524585735 0.6646679608 0.0001896242 -0.0001619356 -9.475e-05 1.36491e-05 -0.5203041067 0.6684003496
450297300.0 -0.5182922048 0.669299106 -0.0001272235 7.26691e-05 -4.64226e-05 -7.5576e-06 -0.5131428525 0.6734465861
455297270.0 -0.5116902208 0.6747194139 9.88712e-05 -2.83569e-05 0.0001555896 -3.97664e-05 -0.5062483941 0.6780606043
460297240.0 -0.5051273167 0.6796359661 1.50979e-05 5.88421e-05 4.3361e-06 -9.35648e-05 -0.4997616768 0.6841535363
465297210.0 -0.4978968148 0.6848604313 -1.95237e-05 0.0001070444 -9.16253e-05 0.000140003 -0.4921898616 0.6889193076
470297180.0 -0.4903309863 0.6895494179 -0.0001342179 1.93055e-05 -2.89238e-05 -0.0002219618 -0.4846480937 0.6939773693
475297150.0 -0.4837661779 0.69457345 -9.51666e-05 1.40862e-05 0.0001068646 -0.0001293774 -0.4776718361 0.6984932453
480297120.0 -0.4764346369 0.6993282689 -1.72273e-05 3.61276e-05 -7.71237e-05 0.0001642227 -0.4699323319 0.703295263
485297090.0 -0.4691471836 0.7041073412 -5.3068e-05 7.22196e-05 -0.0001729982 0.0002799921 -0.4628852322 0.7080081463
490297060.0 -0.4623828586 0.7085846113 -8.722e-07 0.0001219668 7.91681e-05 -9.81198e-05 -0.4559981336 0.7121134381
495297030.0 -0.4550056886 0.7128084248 0.0002391277 -5.2365e-06 -0.0001265368 -2.16579e-05 -0.4482736032 0.7176120501
500297000.0 -0.4476371341 0.7178176272 -5.71815e-05 -1.2202e-06 8.14689e-05 -2.30394e-05 -0.4407921165 0.7221058701
505296970.0 -0.440244163 0.7223356811 0.0002108011 -1.29041e-05 -0.0001294448 1.59189e-05 -0.4337954659 0.7265783954
510296940.0 -0.433313245 0.7266994516 2.93408e-05 -0.0001914469 0.0001022133 -0.0001018021 -0.4261499359 0.7306358083
515296910.0 -0.4244179913 0.7302873959 -3.49382e-05 -2.17606e-05 -4.89733e-05 -7.3033e-05 -0.4186292651 0.7349953187
520296880.0 -0.4178528529 0.7356202554 2.50308e-05 -0.000302926 -2.29705e-05 6.49701e-05 -0.4112574965 0.7387111058
525296850.0 -0.4102404052 0.7391777252 -0.0001395906 -0.0001160969 0.0003642781 -0.0001340031 -0.4036558852 0.7433881215
530296820.0 -0.4026258835 0.7432877787 -1.75176e-05 -0.0001892627 7.93525e-05 -0.0001540729 -0.3961996451 0.7472611453
535296790.0 -0.3960069416 0.7472647311 -0.000145148 9.88889e-05 0.0002296761 6.7677e-05 -0.3892428463 0.751337502
540296760.0 -0.3884911501 0.751151003 9.0207e-05 -8.00233e-05 0.0001203872 9.88827e-05 -0.3813651801 0.7553928518
545296730.0 -0.3804444711 0.7553114927 -6.7978e-06 2.94729e-05 -0.0001547194 5.24855e-05 -0.3737778579 0.7589360008
550296700.0 -0.3735627873 0.7588982701 -8.79403e-05 6.37319e-05 3.09416e-05 2.03157e-05 -0.3658702902 0.7632558734
555296670.0 -0.3650560188 0.7618947672 0.0001931562 2.47384e-05 -0.0001138019 -8.49046e-05 -0.3580838459 0.7671709232
560296640.0 -0.3575144068 0.7662750068 5.20699e-05 3.58451e-05 4.46387e-05 -0.0001348157 -0.3498329868 0.7706634603
565296610.0 -0.3494664976 0.7696074455 0.0001283011 1.99661e-05 -0.0001438851 7.82971e-05 -0.3424498216 0.7743826443
570296580.0 -0.3423639314 0.7722567821 -3.22568e-05 0.0001209786 1.45621e-05 0.0001652151 -0.3351806932 0.7778631469
575296550.0 -0.3345743616 0.7766696232 8.76254e-05 0.0002359262 -0.0001142103 0.0001045506 -0.3269095342 0.7810217593
580296520.0 -0.3256377338 0.7798140683 -4.49928e-05 -9.34649e-05 -6.93043e-05 -0.0002176556 -0.3181429737 0.7841260742
585296490.0 -0.3188004029 0.7828541416 -0.0001211271 -0.0002000602 2.25891e-05 -3.80284e-05 -0.3100514543 0.7873855569
590296460.0 -0.3103223903 0.785644895 -0.0001381224 -1.3216e-06 0.0001510871 9.07579e-05 -0.3030848942 0.7901435245
595296430.0 -0.302767472 0.7888869408 -0.0002101609 9.5806e-05 3.06222e-05 0.0001262318 -0.2949906676 0.7924185884
600296400.0 -0.2952487057 0.791753338 0.0001286663 -5.60423e-05 9.26619e-05 -0.000225186 -0.2868742136 0.7950058906
605296370.0 -0.2874107873 0.7943297191 2.79962e-05 5.4776e-05 0.0002118158 8.32681e-05 -0.2781805007 0.7984748944
610296340.0 -0.2786932453 0.7975930922 -0.0002580327 -1.93537e-05 -3.80748e-05 -0.0001489917 -0.2703753491 0.8009985279
615296310.0 -0.2704783458 0.8001191528 -4.0371e-05 7.70351e-05 -6.42916e-05 -5.56203e-05 -0.2620498379 0.8031695646
620296280.0 -0.2631572488 0.801683122 0.0001365144 0.0001272572 0.0001974831 -1.56552e-05 -0.254674801 0.8060169366
625296250.0 -0.2548649166 0.8053809971 0.0001155297 -0.0001448687 -6.82495e-05 -0.0001246998 -0.2454376496 0.8079438515
630296220.0 -0.2457220824 0.8079151058 0.0001782751 -0.000104182 -2.11775e-05 -9.3598e-06 -0.2375019256 0.8107104618
635296190.0 -0.2387725852 0.8104796629 2.85471e-05 -3.37036e-05 6.46401e-05 -0.0001130914 -0.229604501 0.812627577
640296160.0 -0.2309564389 0.8124267148 2.50854e-05 -8.46926e-05 -2.43748e-05 0.0001486574 -0.2211091371 0.8150700363
645296130.0 -0.2227230814 0.8151161032 7.08735e-05 1.55005e-05 5.98974e-05 -8.08207e-05 -0.2133488531 0.8175993374
650296100.0 -0.2141821284 0.8167858234 9.99691e-05 -2.72952e-05 3.73256e-05 -4.2276e-06 -0.2046849058 0.8184419097
655296070.0 -0.2064920254 0.8189503453 2.20242e-05 0.0001256111 0.0001820078 -4.45592e-05 -0.1963478824 0.8210127286
660296040.0 -0.1979966796 0.8207570427 -3.18336e-05 -7.66179e-05 0.0001535174 8.15807e-05 -0.187415619 0.8231981241
665296010.0 -0.1897772195 0.822488077 7.43768e-05 0.0001306569 0.0002409749 -5.29343e-05 -0.1793628084 0.825302323
670295980.0 -0.1819692499 0.8243631121 9.7822e-05 4.74925e-05 -5.93949e-05 7.69129e-05 -0.1714894249 0.8265798079
675295950.0 -0.1733928998 0.826006738 -8.77043e-05 -6.85962e-05 -1.87828e-05 -8.91338e-05 -0.163854557 0.8287849651
680295920.0 -0.164753434 0.8283458247 -1.07969e-05 -1.13428e-05 -0.0001719853 0.0002855776 -0.1550181162 0.8306395184
685295890.0 -0.1563365174 0.8299585227 -0.0001430148 3.16799e-05 -0.0001144409 -4.69154e-05 -0.1458169803 0.8318918102
690295860.0 -0.1486870564 0.8311623861 -0.000232678 8.3952e-06 -6.06076e-05 1.34253e-05 -0.1380569382 0.8332559649
695295830.0 -0.1406831452 0.8319927276 -9.01806e-05 -0.0002570526 0.0001354431 3.12332e-05 -0.1291506044 0.8345852023
700295800.0 -0.1315604361 0.8340754305 7.26271e-05 0.0002011787 0.0001258201 -3.64142e-05 -0.1219252471 0.8360996393
705295770.0 -0.123754563 0.8356009565 -0.0001214693 9.44767e-05 0.0001299394 -1.90807e-05 -0.1131785581 0.8376103868
710295740.0 -0.1154439528 0.836403591 8.32071e-05 8.80533e-05 -1.54978e-05 1.618e-07 -0.1051855809 0.8386225193
715295710.0 -0.1071431966 0.8368909466 -0.0001605314 5.66404e-05 -0.0001931783 -1.65019e-05 -0.0965905753 0.8396074444
720295680.0 -0.0992282483 0.8384929384 -8.28676e-05 -4.37387e-05 0.0001236021 -1.68301e-05 -0.0884728084 0.8403873586
725295650.0 -0.0906384427 0.8400202165 -8.68924e-05 -0.000147703 -9.55597e-05 2.0432e-05 -0.0800490176 0.8417041425
730295620.0 -0.082404471 0.8399929811 -5.69657e-05 0.0002911965 -0.000219905 0.0001697 -0.0721940995 0.8417399766
735295590.0 -0.074170563 0.8411058718 -3.89141e-05 7.59499e-05 -4.19434e-05 4.80401e-05 -0.0631505114 0.8427710862
740295560.0 -0.065885384 0.8421874413 -0.0001186527 1.72402e-05 0.0001166605 8.65883e-05 -0.0545078828 0.8437490497
745295530.0 -0.0572271479 0.842790418 6.74285e-05 6.08369e-05 -2.51868e-05 -0.0002070852 -0.0460394463 0.843841986
750295500.0 -0.0492097639 0.8430012317 -0.0001644887 -0.0001409491 -9.7747e-05 -0.0001559455 -0.0378374732 0.8445204043
755295470.0 -0.0406161567 0.8436812282 -4.52285e-05 1.33511e-05 -2.13156e-05 -1.2851e-06 -0.0291404081 0.8445118641
760295440.0 -0.0322036856 0.8433585293 5.03465e-05 -0.0001283043 1.9065e-06 -7.07582e-05 -0.0205623432 0.8440244511
765295410.0 -0.024177106 0.8440288192 9.23327e-05 -1.70136e-05 5.73596e-05 -0.0001013214 -0.0125480888 0.8447125422
770295380.0 -0.0156483232 0.8447060727 -0.0001921909 -6.35258e-05 4.94292e-05 -9.9037e-06 -0.0041606018 0.8446868692
775295350.0 -0.0071005072 0.8440902706 0.0001425085 0.0004726578 -0.0002469054 -0.0001037236 0.003340743 0.8439095383
780295320.0 0.0011142737 0.8441456287 0.000111195 -9.4125e-06 -3.782e-07 7.02249e-05 0.01253408 0.8438390376
785295290.0 0.0089267721 0.8436020003 4.1511e-06 -8.4972e-06 0.0002239903 0.0001235918 0.0209454706 0.8438772738
790295260.0 0.0176753447 0.843567777 -0.0001961884 -5.39843e-05 0.0001289877 6.37812e-05 0.0300662343 0.8440577421
795295230.0 0.0257224416 0.8436049301 6.45324e-05 -0.0001633432 -0.0001012444 0.0001508444 0.0386880853 0.8423324466
800295200.0 0.0341496334 0.8430639437 -7.3774e-05 -6.24031e-05 9.20898e-05 -4.4623e-06 0.0466495706 0.8423356063
805295170.0 0.0428199256 0.8426050631 -4.84568e-05 -1.86873e-05 -2.994e-07 0.0002593093 0.0544453684 0.8424890192
810295140.0 0.0510481237 0.8426035025 0.0002403926 -4.45127e-05 0.000104035 -4.72153e-05 0.0632262905 0.8415881915
815295110.0 0.0591753656 0.8417764872 -8.74116e-05 -8.54121e-05 -7.04837e-05 -4.90171e-05 0.0717615319 0.8407721232
820295080.0 0.0675271609 0.8413202468 -4.4125e-05 -9.39802e-05 5.8849e-05 -0.0001906162 0.0801430336 0.8405696921
825295050.0 0.076647792 0.840136569 1.56857e-05 -6.70695e-05 -7.8784e-06 -4.1358e-05 0.08853162 0.8395446397
830295020.0 0.0840607055 0.8401452123 7.32751e-05 -8.558e-06 5.02705e-05 3.58951e-05 0.0977599831 0.8385742813
835294990.0 0.0920693922 0.8386188896 -6.43172e-05 -4.81325e-05 -4.81895e-05 6.49993e-05 0.1053498086 0.8374775407
840294960.0 0.1003602877 0.8386861889 5.6705e-05 6.26034e-05 -5.76638e-05 0.0001304399 0.1137130803 0.8368084954
845294930.0 0.1085575244 0.8369103239 -3.25343e-05 -0.0002057698 5.01102e-05 -0.0001120435 0.1216365789 0.8346912506
