!Created with skrf (http://scikit-rf.org).
# Hz S RI R 50.0 
!freq ReS11 ImS11 ReS21 ImS21 ReS12 ImS12 ReS22 ImS22
300000.0 -0.0948961793 -0.0966754133 0.6229986744 0.0896903556 0.6199727547 0.0906336833 -0.0942654079 -0.1019293245
5299970.0 -0.1011403308 0.0115887197 0.6303396394 0.0112525632 0.6307628353 0.0112946898 -0.1016816525 0.0114451084
10299940.0 -0.0969256212 0.0287289437 0.6346914579 0.0163401425 0.6343669157 0.0167729026 -0.0964094925 0.0285022938
15299910.0 -0.0892476848 0.0424275525 0.6405123468 0.0213508922 0.6407933126 0.0213289492 -0.0898230598 0.0419269703
20299880.0 -0.0804074878 0.05345304 0.6488110551 0.0240560744 0.6492515662 0.0246664716 -0.0809194511 0.0530441738
25299850.0 -0.070286055 0.0622613406 0.6580724153 0.0257314144 0.6584627439 0.0257965861 -0.0717541402 0.061967113
30299820.0 -0.0608578378 0.0689422046 0.6680127043 0.0244719845 0.6677979109 0.0245704264 -0.062054983 0.0683744982
35299790.0 -0.050475785 0.0736114313 0.6770785219 0.0221118986 0.6775489751 0.021982084 -0.0523454159 0.0737209385
40299760.0 -0.0412003839 0.0764236125 0.6872880911 0.017819691 0.6866813902 0.0178713052 -0.0425058263 0.0771073446
45299730.0 -0.0318968206 0.0784235829 0.6959012929 0.012377014 0.6957572201 0.0120141398 -0.0333211554 0.0790636298
50299700.0 -0.0230015905 0.07890972 0.7041673634 0.0050050429 0.7037344435 0.0051153301 -0.0245665259 0.0801126837
55299670.0 -0.0151566677 0.0790878588 0.7112384563 -0.0024516936 0.7108990753 -0.0025890607 -0.0173675923 0.0803141225
60299640.0 -0.0075779802 0.0786850251 0.7182088618 -0.0109722601 0.7179862646 -0.0111774836 -0.0097234093 0.0794024328
65299610.0 -0.0012847942 0.0772200128 0.7241255764 -0.0191795309 0.7240699587 -0.0198905775 -0.0026391182 0.0786368664
70299580.0 0.0052877857 0.07543149 0.7294263379 -0.028859232 0.7295199671 -0.0290548831 0.002898598 0.0769796999
75299550.0 0.0104628861 0.0731457511 0.7333523117 -0.0391403344 0.7332620814 -0.0388926866 0.0086815347 0.0752280877
80299520.0 0.0152491502 0.0713745519 0.738038927 -0.048449745 0.7379173179 -0.048645996 0.0138022861 0.0733701273
85299490.0 0.0199655546 0.0692003409 0.7408954743 -0.0591144526 0.7411314536 -0.0582198834 0.0181469327 0.0710187633
90299460.0 0.0240211514 0.0666893371 0.7438255379 -0.0688890124 0.7432942095 -0.0681116719 0.022240866 0.0693277163
95299430.0 0.0280937727 0.0642308369 0.7458292336 -0.0788288165 0.7463382901 -0.0790129246 0.0257296443 0.0665092393
100299400.0 0.0313079551 0.0615317581 0.7476774539 -0.0884396033 0.7478295495 -0.0891818515 0.0291798887 0.064514748
105299370.0 0.0343608463 0.0592407705 0.7495430455 -0.0987021649 0.7495231854 -0.0992264741 0.0327563916 0.0615932575
110299340.0 0.0374320312 0.0563320101 0.7503730061 -0.1086982712 0.750889161 -0.108596147 0.0349933284 0.0595390119
115299310.0 0.0394730931 0.0544536263 0.7513199259 -0.1187746866 0.7510579668 -0.1189172183 0.0373981634 0.0574622764
120299280.0 0.0415399096 0.0521818052 0.7525529385 -0.1292584083 0.7515552234 -0.1293681611 0.0397564384 0.0544825752
125299250.0 0.0438690769 0.0496136246 0.7520571612 -0.1396859075 0.7517674636 -0.1385177053 0.0419385921 0.0527116071
130299220.0 0.0457334756 0.0468839827 0.7523197087 -0.1492382034 0.7517111927 -0.1494352775 0.0437660172 0.0506809953
135299190.0 0.046868748 0.0453123374 0.7519039018 -0.158498097 0.7517243091 -0.1592050134 0.045457937 0.0478028352
140299160.0 0.0489146459 0.0432838301 0.751742301 -0.1692426567 0.7510853462 -0.1683894564 0.0462630561 0.0454522002
145299130.0 0.0492521228 0.0411339723 0.7500428691 -0.177812922 0.7504800088 -0.1780860003 0.0479130227 0.0437583383
150299100.0 0.0508038376 0.0393425313 0.7495646005 -0.1880975628 0.749346949 -0.1877163837 0.0491230992 0.0419922841
155299070.0 0.0525323801 0.0371812229 0.7475638901 -0.1974583624 0.7485196708 -0.1982234465 0.0505762229 0.0394639703
160299040.0 0.0532596892 0.0357143526 0.747160493 -0.2068391944 0.746470755 -0.2073124855 0.0509693869 0.037953589
165299010.0 0.0541116072 0.0334027392 0.7453524883 -0.2164837157 0.7450154835 -0.2166124939 0.0523029003 0.0356810264
170298980.0 0.0550454483 0.032046913 0.7432801169 -0.2257875747 0.7431793055 -0.2260351559 0.0526524225 0.0335116447
175298950.0 0.0559330563 0.0301864118 0.7415791501 -0.2352667566 0.7419623467 -0.2358343825 0.0536340126 0.0325717091
180298920.0 0.0562469674 0.0288048199 0.7396475865 -0.2451102956 0.7394247435 -0.2446120587 0.0540074642 0.0307459274
185298890.0 0.0568764397 0.0272586331 0.7373711884 -0.2533817944 0.7372343516 -0.2536202044 0.0552101799 0.0291628129
190298860.0 0.0578735474 0.0257842434 0.7346694306 -0.2628674115 0.7348547955 -0.2626764541 0.0551882988 0.0271313024
195298830.0 0.0577171593 0.0242479744 0.7325866537 -0.2717757645 0.7328729324 -0.271368849 0.0556417159 0.0256516347
200298800.0 0.0584846653 0.0224296027 0.729843644 -0.2812830223 0.7294036099 -0.2808599182 0.0560511681 0.0237766753
205298770.0 0.0583945416 0.0208074275 0.7268145746 -0.2893345688 0.7268659297 -0.2895380722 0.0569674309 0.022453112
210298740.0 0.0590057219 0.0197748508 0.7244805233 -0.2987919739 0.7236214101 -0.29873554 0.0565337939 0.020634716
215298710.0 0.0595282225 0.0186120919 0.7212018492 -0.3072109404 0.7209694503 -0.3071151407 0.0572523826 0.0198518555
220298680.0 0.0597027394 0.017582293 0.7173333688 -0.3158258489 0.7174727958 -0.3157536774 0.0572723306 0.0181412433
225298650.0 0.0594831511 0.0160881944 0.7143028233 -0.323801782 0.7142982605 -0.323796459 0.0574925626 0.0163157433
230298620.0 0.0601672089 0.0151550019 0.7111969887 -0.3329311596 0.7114431001 -0.3331681149 0.0572779287 0.0152915307
235298590.0 0.0595573429 0.0139273418 0.7081078285 -0.3417470925 0.707676524 -0.341310999 0.0579860197 0.0140856081
240298560.0 0.0601538685 0.0127666444 0.7040940423 -0.3494415197 0.7040584924 -0.3491651159 0.0574183162 0.0127754129
245298530.0 0.060022133 0.0112582438 0.7003258133 -0.358163129 0.7001447058 -0.3575649379 0.0578210714 0.0116449016
250298500.0 0.0601806719 0.0101916055 0.696753893 -0.3661392798 0.6969113586 -0.3660118128 0.057751057 0.0103673299
255298470.0 0.0606936328 0.0095926593 0.6930945786 -0.3742402703 0.6932784656 -0.3746851122 0.0579064316 0.009459141
260298440.0 0.0604485646 0.0081848153 0.689276153 -0.3817124717 0.6891474223 -0.3817119033 0.0574723613 0.0076341142
265298410.0 0.0599726824 0.0074070974 0.6841093081 -0.3906651369 0.6844785722 -0.3907952647 0.0587727497 0.0065988153
270298380.0 0.059977629 0.0062452911 0.6807736999 -0.3984730176 0.6804410266 -0.3982493294 0.0578053834 0.0058112843
275298350.0 0.0603285001 0.0057001499 0.6755133017 -0.4061241323 0.6758845719 -0.4058169867 0.0575496334 0.0048364586
280298320.0 0.0596890106 0.0043914957 0.6718371245 -0.4135145794 0.6723703903 -0.414060889 0.0582828316 0.0037885821
285298290.0 0.0597889622 0.0034948493 0.6670466633 -0.4220534248 0.667494778 -0.4212497439 0.058131098 0.0025017125
290298260.0 0.0596751214 0.0024478184 0.6632443302 -0.42944689 0.6632947465 -0.4296083393 0.0580672785 0.0014241996
295298230.0 0.0598006293 0.0012160548 0.6584001249 -0.4380137155 0.6580110913 -0.4378649934 0.0578677357 0.0001310988
300298200.0 0.0602259211 0.0009124558 0.6538405838 -0.4453792803 0.6535717142 -0.4448254592 0.0575661731 -0.0010592698
305298170.0 0.060010812 -0.0011281332 0.6490341285 -0.4532837948 0.6489513579 -0.453411758 0.0575813181 -0.0022541232
310298140.0 0.060202406 -0.0018083564 0.6440539544 -0.4606084769 0.6443872002 -0.460052275 0.0576697743 -0.0039077453
315298110.0 0.0594748202 -0.003130657 0.639258053 -0.468540617 0.6388883162 -0.4685584251 0.0574276656 -0.0046537614
320298080.0 0.0594537539 -0.0038361884 0.6332502269 -0.4757885218 0.6342187417 -0.4763925509 0.0570888133 -0.0058008724
325298050.0 0.058550614 -0.005563928 0.6281384166 -0.4830202116 0.628712467 -0.4831233173 0.0568816957 -0.0069793001
330298020.0 0.0573056824 -0.0060174755 0.623100941 -0.4906863885 0.6231412376 -0.4910265421 0.0560021831 -0.0079323689
335297990.0 0.0575290421 -0.0067437666 0.6174629053 -0.4973812072 0.6171289295 -0.4977413705 0.0555936969 -0.0089167028
340297960.0 0.056973859 -0.0077328852 0.6111745798 -0.5052520751 0.6109989445 -0.5046086654 0.0552291487 -0.0093466666
345297930.0 0.0562827196 -0.0082748066 0.6054837372 -0.5118691255 0.6052888678 -0.5118422899 0.0551268321 -0.0107187323
350297900.0 0.0557064663 -0.0090007503 0.6004713277 -0.5179492473 0.6003098285 -0.5181581236 0.0545647268 -0.0115864044
355297870.0 0.0556356688 -0.0097904009 0.5941808103 -0.5241716773 0.5944368263 -0.5242876695 0.0546712307 -0.0119845106
360297840.0 0.055376652 -0.0103183535 0.5879814728 -0.5319086546 0.588190386 -0.5316996186 0.0535502935 -0.0125304125
365297810.0 0.0544921889 -0.0110260619 0.5819401798 -0.5377879813 0.5820836756 -0.5384447283 0.0530927967 -0.0133750364
370297780.0 0.0547863454 -0.0114210445 0.5763975145 -0.5449575649 0.5762539966 -0.5444092085 0.0528052806 -0.0142332373
375297750.0 0.0543632394 -0.0123548384 0.5706984568 -0.5508316485 0.5705240397 -0.5510304903 0.0525872304 -0.0145884228
380297720.0 0.0534574317 -0.0125194976 0.564466944 -0.5577988523 0.5644500822 -0.5572259585 0.0521951138 -0.0153167113
385297690.0 0.0531224764 -0.0136706367 0.5577632709 -0.5635148278 0.5581959011 -0.5640418032 0.0519711315 -0.0157384527
390297660.0 0.0529714686 -0.0144586114 0.5518729106 -0.5693457982 0.552069239 -0.5701321611 0.0522399268 -0.0169826088
395297630.0 0.0527456697 -0.0148272499 0.5458060475 -0.5749978778 0.5455510388 -0.5754183429 0.0512490085 -0.0172248139
400297600.0 0.0523276086 -0.0158383447 0.5396888664 -0.5821653876 0.539637478 -0.581732357 0.0513185702 -0.0175285792
405297570.0 0.051964444 -0.0167580796 0.5332717363 -0.5876314993 0.5333257577 -0.5873565699 0.0507104312 -0.018166403
410297540.0 0.0515525755 -0.0167468688 0.526587613 -0.593683868 0.526644807 -0.5939479328 0.0504350095 -0.0188670132
415297510.0 0.050963238 -0.0175610893 0.5196367494 -0.5995528397 0.5203733834 -0.6001095067 0.0504149704 -0.0192133944
420297480.0 0.0504891734 -0.0183232461 0.5132581568 -0.6055337729 0.5137719801 -0.6057743948 0.0503070384 -0.0195604014
425297450.0 0.0509031585 -0.0187932371 0.5072554491 -0.6102937731 0.5065068055 -0.6108510366 0.0498601686 -0.0209238702
430297420.0 0.050319287 -0.0193513098 0.5006367455 -0.616736364 0.5005981787 -0.6166575266 0.0497438986 -0.0212786714
435297390.0 0.0495445575 -0.020441079 0.4927856772 -0.6227314664 0.4931642242 -0.6222050316 0.0488595672 -0.0215891046
440297360.0 0.0498491366 -0.0210633306 0.4862351597 -0.6276523072 0.4861308758 -0.6280346918 0.0486205726 -0.0221644758
445297330.0 0.0491891136 -0.022078558 0.4793182474 -0.6328065246 0.4795986044 -0.6330545973 0.0482266561 -0.0224214406
450297300.0 0.0489223992 -0.0222753134 0.4726217193 -0.6382702558 0.4730634867 -0.6379355544 0.047928764 -0.0231685514
455297270.0 0.0479363521 -0.0228575268 0.4658872402 -0.6435871161 0.4660687337 -0.6437944501 0.0477643499 -0.0238296992
460297240.0 0.0482139957 -0.0231190607 0.4589698662 -0.6492718533 0.4587770531 -0.6488777433 0.0473635605 -0.0242429331
465297210.0 0.0474658793 -0.0241561831 0.4513231767 -0.6540929909 0.4506822098 -0.654052323 0.0476505576 -0.0241289011
470297180.0 0.0471786893 -0.0248271406 0.444133212 -0.6584993123 0.4443872471 -0.6583796491 0.0469916219 -0.0253374691
475297150.0 0.0465650936 -0.024949476 0.4366256171 -0.6640620137 0.4372172463 -0.6637787092 0.0466748222 -0.0259705142
480297120.0 0.0467450207 -0.0249887282 0.4297980126 -0.6683303708 0.4293427078 -0.6680652162 0.0459660141 -0.0264603559
485297090.0 0.0460978382 -0.0267182825 0.4220794572 -0.6737658474 0.4220769205 -0.6731896721 0.0454526822 -0.0266854055
490297060.0 0.0463194449 -0.0264746501 0.4139866575 -0.6777631219 0.4145478344 -0.677985558 0.0451425214 -0.0274320837
495297030.0 0.0449587803 -0.0275418247 0.4076336508 -0.68267976 0.4072010803 -0.6824794627 0.0451733973 -0.0280264007
500297000.0 0.0446197209 -0.027592287 0.3998297812 -0.6867325409 0.3998987627 -0.6869913178 0.0447429544 -0.0279644718
505296970.0 0.0446902673 -0.0280596441 0.3922557133 -0.6913830705 0.3924081464 -0.6910840374 0.0442554517 -0.029471223
510296940.0 0.0442872103 -0.0288819544 0.3849471519 -0.6963181417 0.3852644465 -0.696310467 0.0442344468 -0.0294875424
515296910.0 0.0436693105 -0.0288698878 0.3765836692 -0.6997309548 0.3765987725 -0.7002731749 0.0435421726 -0.0305029839
520296880.0 0.0433571603 -0.0296354445 0.3692508955 -0.7040735069 0.3689654969 -0.7033876056 0.0436124258 -0.0297643478
525296850.0 0.0431842879 -0.0303652184 0.361192822 -0.7077518516 0.3615087525 -0.7078933194 0.0432536284 -0.0307159994
530296820.0 0.0424261669 -0.0309862846 0.3539785355 -0.7117781102 0.3536604022 -0.7116596236 0.0426799457 -0.031695746
535296790.0 0.0426967611 -0.0310904854 0.3460133613 -0.7153063816 0.3464498853 -0.7157618339 0.0429734196 -0.0315733102
540296760.0 0.0420407758 -0.0313314525 0.3373379456 -0.7196163392 0.3379596499 -0.7197219189 0.042286905 -0.0327900213
545296730.0 0.040687241 -0.0317806765 0.3303486433 -0.7235196665 0.3299154971 -0.7231167114 0.0418858259 -0.0328216107
550296700.0 0.0413540057 -0.0319564325 0.3224611712 -0.7269231025 0.3216267948 -0.7267924675 0.0418792641 -0.0331980438
555296670.0 0.0404924222 -0.0324103387 0.3141710526 -0.7307932532 0.3144789875 -0.7303228019 0.0409061168 -0.0342560599
560296640.0 0.0409209694 -0.033132352 0.3060204493 -0.7335335435 0.3067429005 -0.7337831993 0.0406330989 -0.0340836916
565296610.0 0.0394919072 -0.033517066 0.2987504653 -0.7372534548 0.2986176364 -0.7363312276 0.0404201187 -0.0342267991
570296580.0 0.0393016685 -0.0336521638 0.2900720897 -0.7398114958 0.2904212685 -0.7404662902 0.0397615001 -0.035136878
575296550.0 0.0389867185 -0.0342908925 0.2824971456 -0.7437276951 0.2821386853 -0.7435424334 0.0390890591 -0.0353684236
580296520.0 0.0385319951 -0.0340756728 0.2742062578 -0.7463117908 0.2738234363 -0.7467160294 0.0382283319 -0.0355530409
585296490.0 0.0381053479 -0.0344518535 0.2663315376 -0.7493459668 0.2654319857 -0.7491811812 0.0387741615 -0.035749941
590296460.0 0.0382658135 -0.0352600717 0.2576943126 -0.7521477298 0.2581989456 -0.7527473886 0.0372736857 -0.0362841386
595296430.0 0.0376944788 -0.0352697652 0.2490101938 -0.7552268655 0.2486017453 -0.7548291877 0.0374540083 -0.0376230722
600296400.0 0.0374299788 -0.0354169107 0.24056414 -0.7572857073 0.2406272189 -0.757662558 0.0371660526 -0.0373867197
605296370.0 0.036298399 -0.035761849 0.2330739352 -0.7601155441 0.2322778435 -0.7603004521 0.0363512649 -0.0377231466
610296340.0 0.0361309705 -0.0356802061 0.2239894386 -0.7624036492 0.2245535777 -0.7622427711 0.035526797 -0.0378202514
615296310.0 0.0358584951 -0.036216764 0.216003459 -0.7654290106 0.2156911348 -0.7652184022 0.0354460005 -0.0381370549
620296280.0 0.0347379594 -0.0360865174 0.2072692664 -0.767503428 0.2071334925 -0.7675273425 0.0344283684 -0.0384046543
625296250.0 0.034502377 -0.036541817 0.1991371406 -0.7698593422 0.1994266498 -0.7699257256 0.0334381499 -0.0390296087
630296220.0 0.0340744406 -0.0366575116 0.1899816487 -0.7720810716 0.1907297483 -0.7717001964 0.0335135034 -0.0392348179
635296190.0 0.0329767594 -0.0368329409 0.1824107151 -0.7742488089 0.1825213554 -0.773642075 0.0328431482 -0.0395344722
640296160.0 0.0326654378 -0.0368705432 0.1737436595 -0.7762345104 0.173584884 -0.7759614724 0.032171205 -0.0397070678
645296130.0 0.0327444235 -0.0365983598 0.1650520584 -0.7774894465 0.1654295937 -0.7776295674 0.0314011545 -0.0407910032
650296100.0 0.0320725484 -0.0372011658 0.156840407 -0.7796769053 0.1564999347 -0.7799825358 0.0318550353 -0.0406938578
655296070.0 0.0315898791 -0.0374931417 0.1478485803 -0.7813431361 0.1478080784 -0.7807527283 0.0305215088 -0.0403500282
660296040.0 0.0309370988 -0.0371785303 0.1398592765 -0.7830328757 0.1400723883 -0.7830396052 0.0297162855 -0.0417245825
665296010.0 0.0307564616 -0.0376572457 0.13021423 -0.7837746204 0.131007164 -0.7836652628 0.0293580528 -0.0413156422
670295980.0 0.0301756629 -0.0377310139 0.1219075068 -0.7858189296 0.1219753275 -0.7846918881 0.02811769 -0.0417096183
675295950.0 0.0291831798 -0.0380145221 0.1134835545 -0.7866712367 0.1143500927 -0.7866762923 0.0277928283 -0.0418558547
680295920.0 0.0287351467 -0.0378716043 0.1052130887 -0.7878825919 0.1059009927 -0.7874995046 0.0279078096 -0.0422143797
685295890.0 0.0284485031 -0.0377542725 0.0961172626 -0.7892747649 0.0971853945 -0.7894368307 0.0271940113 -0.0420062503
690295860.0 0.027578687 -0.03800425 0.0879799624 -0.7900273916 0.0880681953 -0.7900857553 0.0261458372 -0.0425243629
695295830.0 0.0271395796 -0.0383258739 0.0797879295 -0.7912542431 0.0797896351 -0.7910314948 0.0256725003 -0.0422866428
700295800.0 0.0265941562 -0.0378814421 0.0708663597 -0.7920492653 0.0712069733 -0.7912243788 0.0249650909 -0.0423614134
705295770.0 0.0257974703 -0.0382609585 0.0625678314 -0.7932556042 0.0629587298 -0.7921580984 0.0244082896 -0.042423252
710295740.0 0.0254531141 -0.0385520173 0.0537366373 -0.7929381357 0.054074349 -0.7934165464 0.0239628502 -0.042812325
715295710.0 0.0247543801 -0.0380143494 0.0452110024 -0.79379438 0.0455449241 -0.7936164397 0.0232652904 -0.043168806
720295680.0 0.0247093954 -0.0381642275 0.0363744879 -0.7941291872 0.0365422405 -0.7944227061 0.0226548169 -0.0432851873
725295650.0 0.0231515485 -0.0381679902 0.0284929071 -0.7942140125 0.0280734619 -0.7940380697 0.0215363448 -0.0427654456
730295620.0 0.0219837068 -0.0385156638 0.0193984545 -0.7942500269 0.018981985 -0.7939202989 0.0207605124 -0.0420670056
735295590.0 0.0223804976 -0.0384661293 0.0105229002 -0.7952874117 0.010817578 -0.7946352612 0.0204563123 -0.0431584311
740295560.0 0.021703331 -0.0386051013 0.002065888 -0.7950688694 0.0025602076 -0.7950238427 0.0194510554 -0.0426574336
745295530.0 0.0207592951 -0.0384315111 -0.0062969362 -0.7938620824 -0.0055733123 -0.7944274243 0.0180111515 -0.0430825562
750295500.0 0.019958356 -0.0381555889 -0.0150343452 -0.7950214361 -0.0152264235 -0.7944480668 0.0177800543 -0.0429558495
755295470.0 0.0192348985 -0.0383059406 -0.0233220103 -0.7946048075 -0.0234112827 -0.7946854637 0.0174734911 -0.0424360423
760295440.0 0.0183906955 -0.037896509 -0.0327251255 -0.7943736745 -0.0323860388 -0.7939878982 0.0168960127 -0.0439164318
765295410.0 0.0186406936 -0.0383451456 -0.0409279681 -0.7934640637 -0.0405563666 -0.7933516392 0.0162686275 -0.0429991007
770295380.0 0.0177917478 -0.0381206253 -0.0494480069 -0.7928423314 -0.0491926204 -0.7932083451 0.0152537224 -0.0429837363
775295350.0 0.0171796003 -0.0383882364 -0.0583231781 -0.792776313 -0.0578840603 -0.7922480213 0.015101599 -0.0429372075
780295320.0 0.0164056525 -0.0379217425 -0.0662082113 -0.7915678305 -0.0662574134 -0.791177042 0.0146313415 -0.0429102374
785295290.0 0.0155819675 -0.0379582369 -0.0750871408 -0.7910428602 -0.0751874213 -0.7911166935 0.0133883178 -0.0425452482
790295260.0 0.0152851487 -0.038213852 -0.0834767883 -0.7904790395 -0.0830702352 -0.7903771827 0.0126005058 -0.0418634872
795295230.0 0.0147575857 -0.0386506019 -0.09272323 -0.7897388458 -0.0919398624 -0.7891286445 0.0121420397 -0.0431614069
800295200.0 0.013415189 -0.0377872657 -0.1001982242 -0.7871557689 -0.100581286 -0.7882610167 0.0109631244 -0.0423731437
805295170.0 0.0129640877 -0.037925543 -0.1095307161 -0.7870102882 -0.1092639381 -0.787018035 0.0113319562 -0.0423990473
810295140.0 0.0126728558 -0.037628479 -0.1182259675 -0.785425737 -0.1180416253 -0.7857179389 0.0105891781 -0.0422540991
815295110.0 0.0117388141 -0.0376384871 -0.1262072672 -0.7842379998 -0.1258332916 -0.7843014681 0.0095341619 -0.0424630882
820295080.0 0.0115548287 -0.0375901849 -0.1338937274 -0.7824246287 -0.1343446748 -0.7829921562 0.0081578711 -0.041544061
825295050.0 0.0105291828 -0.0376902653 -0.1431031737 -0.7817576032 -0.1433291817 -0.7807496713 0.0087854955 -0.04146511
830295020.0 0.0099245187 -0.0377584318 -0.1519424964 -0.7796231919 -0.1514978803 -0.7801006456 0.0078383034 -0.0418866738
