!Created with skrf (http://scikit-rf.org).
# Hz S RI R 50.0 
!freq ReS11 ImS11 ReS21 ImS21 ReS12 ImS12 ReS22 ImS22
300000.0 -0.2346855467 -0.1120670762 0.4666655464 0.0734707837 0.4720195169 0.0763006891 -0.2393448355 -0.1178759037
5299970.0 -0.2410043836 0.0070547685 0.4753572743 0.0055124524 0.4751146901 0.0058050626 -0.2446442034 0.0053775357
10299940.0 -0.2369177885 0.0200617595 0.477456234 0.0062299723 0.477169278 0.0063178864 -0.241613307 0.0174347714
15299910.0 -0.2331175679 0.0298295182 0.4807256672 0.0077217569 0.4804430542 0.0078677474 -0.2372734145 0.0262611188
20299880.0 -0.22748523 0.0378883349 0.4852434918 0.0079658846 0.4849989328 0.0080302657 -0.2326475432 0.0341213625
25299850.0 -0.2218428851 0.0443042004 0.4906541831 0.0068152348 0.4907475794 0.0073301294 -0.2279881609 0.0401466142
30299820.0 -0.2158481949 0.0496242863 0.4961775973 0.0053122232 0.4955945446 0.0049465076 -0.2224526003 0.0448481715
35299790.0 -0.2098154765 0.0540217991 0.5010689791 0.0015039596 0.5012016445 0.0017401802 -0.2172422614 0.0486804504
40299760.0 -0.2044589443 0.0573502569 0.5061985053 -0.002042467 0.5064164389 -0.0026197925 -0.2123610208 0.0523131333
45299730.0 -0.1995301222 0.0601593711 0.5110877358 -0.0073219204 0.5109243105 -0.0068212503 -0.2077833228 0.0545483078
50299700.0 -0.1944587078 0.0618583076 0.5150309686 -0.0127626404 0.5150983131 -0.0126571923 -0.2035492427 0.0567188059
55299670.0 -0.1906057557 0.0638763 0.5186335389 -0.0187033548 0.5188661676 -0.0187642699 -0.1998492743 0.0580878516
60299640.0 -0.1863974139 0.0650707298 0.5217599105 -0.0250079091 0.5220097927 -0.0248327982 -0.1962301832 0.059780488
65299610.0 -0.1827721305 0.0663691198 0.5247597313 -0.0307586681 0.5251341695 -0.0308160909 -0.192822414 0.0608876815
70299580.0 -0.1795896344 0.0670404974 0.5270947828 -0.0373793749 0.5274136478 -0.0376098753 -0.1897346802 0.0616381297
75299550.0 -0.1763485602 0.0680691022 0.5289624955 -0.0445445604 0.5292327008 -0.0444595603 -0.1870259853 0.0626266479
80299520.0 -0.1739761884 0.0690538771 0.5310934946 -0.0514946684 0.5309068543 -0.0516598124 -0.1843835238 0.0631934177
85299490.0 -0.1714426432 0.069296158 0.5323465055 -0.0586465158 0.5325189069 -0.0583463388 -0.1825267258 0.0638017714
90299460.0 -0.1693140559 0.0700718074 0.5336960472 -0.0652239166 0.5333623589 -0.0654754572 -0.179964011 0.0643158492
95299430.0 -0.1669611467 0.0713324048 0.5346369058 -0.0727157611 0.5343540445 -0.0721388664 -0.1781575136 0.064852708
100299400.0 -0.1653279497 0.0717675426 0.5345643929 -0.0790321894 0.5347027166 -0.0792860051 -0.1771389245 0.0655973008
105299370.0 -0.1633363031 0.0724660765 0.534855129 -0.085865133 0.5348959108 -0.0860595589 -0.174956883 0.0661911126
110299340.0 -0.1618182924 0.0731246929 0.5345740034 -0.0927335557 0.5352924597 -0.0929116301 -0.1735137922 0.0673321084
115299310.0 -0.1602787127 0.0733709459 0.5349085611 -0.0991611324 0.5350430504 -0.0996842967 -0.1723122259 0.0673178241
120299280.0 -0.1590306245 0.074394219 0.5352257677 -0.1064832518 0.534957598 -0.1063374745 -0.1713378591 0.0680197366
125299250.0 -0.1578952954 0.0751822195 0.5340810307 -0.1129076273 0.5346720061 -0.1131184588 -0.169901022 0.0684498871
130299220.0 -0.156458994 0.0759902858 0.5342277672 -0.1192482978 0.5337047671 -0.1198792352 -0.1688704153 0.0695944803
135299190.0 -0.1551122912 0.076679024 0.5331602267 -0.1264125853 0.5329201995 -0.1261625316 -0.1681267214 0.0703488612
140299160.0 -0.1545069474 0.0780556967 0.5321503538 -0.1328693581 0.5324589172 -0.1330080617 -0.1667542513 0.0710640765
145299130.0 -0.1530130242 0.0790298663 0.5317128907 -0.1400766159 0.5312425676 -0.1394306024 -0.1661573726 0.0716196961
150299100.0 -0.1520606771 0.0797735529 0.5306053835 -0.1463551016 0.5303528871 -0.1461176436 -0.1653467236 0.0728062756
155299070.0 -0.1511242279 0.0814287629 0.5291535597 -0.1528283093 0.5291243833 -0.1530694081 -0.1645674173 0.0736473912
160299040.0 -0.1501279577 0.0820095447 0.5276293482 -0.1586407148 0.5278117697 -0.1592696666 -0.1635457254 0.0748765471
165299010.0 -0.1491624159 0.0831457791 0.526537533 -0.1658593097 0.526312648 -0.1654631101 -0.1625936786 0.075449723
170298980.0 -0.1482420922 0.0843669377 0.5241051273 -0.1717305408 0.5247119686 -0.1718479125 -0.1620506343 0.0763119193
175298950.0 -0.1472699565 0.0856218136 0.5237500286 -0.1779724842 0.5234540593 -0.1780538997 -0.1612606584 0.0773795307
180298920.0 -0.146182849 0.0864202951 0.5213133675 -0.1846495215 0.5215710939 -0.1841854236 -0.1602799508 0.0789234444
185298890.0 -0.1452884525 0.0879925366 0.519437651 -0.1907292316 0.5199026474 -0.1906417952 -0.1600308637 0.0795709294
190298860.0 -0.1442471559 0.0890843798 0.517306453 -0.1967367119 0.5180062693 -0.196947252 -0.1587137035 0.0806366018
195298830.0 -0.1434764641 0.0900413745 0.5156209674 -0.2025388758 0.5160027204 -0.2032076478 -0.1578934692 0.0815444931
200298800.0 -0.1425140366 0.0917374899 0.5136357996 -0.20831321 0.5136871342 -0.2088910213 -0.1569717354 0.0831059916
205298770.0 -0.1417238746 0.0928947133 0.5117482805 -0.2148884138 0.511796788 -0.2151412835 -0.1566090619 0.0837979944
210298740.0 -0.1407246378 0.0941414624 0.5090756325 -0.2211852154 0.5092978141 -0.2212315865 -0.1556866499 0.0855239808
215298710.0 -0.1396886294 0.0956377733 0.50704088 -0.2269244308 0.5068271279 -0.2265005411 -0.1551088912 0.0864680742
220298680.0 -0.1388053896 0.0970386817 0.504286665 -0.2328163855 0.5045158466 -0.2328772474 -0.1542111475 0.0879312764
225298650.0 -0.1375419181 0.0983518586 0.5017353077 -0.2386541722 0.5017363265 -0.2386692877 -0.1533854305 0.0892753069
230298620.0 -0.1366698452 0.0998510175 0.4994735929 -0.2446011525 0.4998326067 -0.2445359378 -0.1526419876 0.090434441
235298590.0 -0.1358207781 0.1010807383 0.4966779741 -0.2504552115 0.4969954318 -0.2505779981 -0.1518010661 0.0914947336
240298560.0 -0.1349392527 0.1025110066 0.4943287292 -0.2554591519 0.4941786544 -0.2552585647 -0.1507073151 0.0931137976
245298530.0 -0.1334995045 0.1040167354 0.4906924884 -0.2617677779 0.4909935008 -0.2616203035 -0.1501204511 0.0943334213
250298500.0 -0.1330740019 0.104947207 0.4886022706 -0.266844612 0.4887544239 -0.2666937448 -0.1489338687 0.0956428504
255298470.0 -0.1318783506 0.1068729314 0.4854062251 -0.2729549181 0.4856249605 -0.272515829 -0.148431952 0.0966302706
260298440.0 -0.1309426387 0.1083416031 0.4828278961 -0.2782562356 0.482930287 -0.2783152055 -0.1470286553 0.0981577784
265298410.0 -0.1292680831 0.1097412953 0.4793278442 -0.2840068394 0.4793159636 -0.2838531597 -0.1465131029 0.0993135463
270298380.0 -0.1281232011 0.1110641114 0.4760623501 -0.2893716789 0.4767048297 -0.2892144004 -0.1452254083 0.1011082925
275298350.0 -0.1271055798 0.1124158386 0.47314482 -0.2947834889 0.4735031689 -0.2948278514 -0.1443358594 0.1023143599
280298320.0 -0.1262482568 0.1141195575 0.4701102398 -0.2997012376 0.4700851605 -0.3001477435 -0.143188 0.1035790227
285298290.0 -0.1247235749 0.1154438552 0.4668894776 -0.3049442053 0.4669321722 -0.3056442703 -0.1424473797 0.1051276899
290298260.0 -0.1237612389 0.1167017872 0.463793717 -0.3107253146 0.4637844354 -0.310832446 -0.1409855523 0.1066913425
295298230.0 -0.1224642947 0.1180613662 0.4605494108 -0.3156412347 0.4602473851 -0.315878989 -0.1402090227 0.1078246685
300298200.0 -0.1208186092 0.1193935525 0.4568502245 -0.3212707978 0.4570916313 -0.3212912315 -0.139078792 0.1094566016
305298170.0 -0.1195350472 0.1208717171 0.4538663124 -0.3264646992 0.4539572037 -0.3269493018 -0.1376922184 0.110967987
310298140.0 -0.1179441115 0.1219245721 0.4500628819 -0.3318722568 0.4500908152 -0.3317439619 -0.137033124 0.1123612613
315298110.0 -0.1172041274 0.1230708651 0.446223503 -0.3369200996 0.4463940961 -0.3369130725 -0.1354833522 0.113033788
320298080.0 -0.1158157083 0.1245842355 0.4426051957 -0.3419291903 0.4425609946 -0.3417530838 -0.1346162928 0.114483172
325298050.0 -0.1147882807 0.1254865568 0.4390028577 -0.3473463392 0.4390284745 -0.3471035199 -0.1338514205 0.1158595367
330298020.0 -0.1134770749 0.1271145608 0.4340574086 -0.3523192581 0.4348352734 -0.3522165646 -0.1328590526 0.1171728591
335297990.0 -0.1122185409 0.1281074734 0.430612892 -0.3572660663 0.4306232001 -0.3570526234 -0.1318802107 0.118407202
340297960.0 -0.1115119222 0.1296403787 0.4265619298 -0.3615538442 0.4264730424 -0.3618464542 -0.1312956171 0.1200013079
345297930.0 -0.1100838406 0.1310866301 0.4223587746 -0.3658768392 0.422309319 -0.3662612474 -0.1296710647 0.1212536704
350297900.0 -0.1084114536 0.132563729 0.4180399684 -0.3704051315 0.4187176684 -0.3710920602 -0.1289399527 0.1231125858
355297870.0 -0.1071340427 0.1337910013 0.4139805274 -0.3757226713 0.414061751 -0.3756282298 -0.1277306397 0.1244735989
360297840.0 -0.1056838043 0.1353348456 0.4100031964 -0.3800025455 0.409919766 -0.3803005295 -0.1265564614 0.1257294058
365297810.0 -0.1043321595 0.1363942991 0.4059272725 -0.3843712588 0.4056864183 -0.3848885782 -0.1254356233 0.1276539613
370297780.0 -0.1024809472 0.1376380087 0.4013333115 -0.3887953472 0.401379961 -0.3892470966 -0.1241344622 0.1286014477
375297750.0 -0.1011860006 0.1392872462 0.3975879172 -0.3935188051 0.3972742825 -0.3937013947 -0.1230304383 0.1302925115
380297720.0 -0.0995794448 0.1400027121 0.392763061 -0.3970524664 0.3925359335 -0.3974920442 -0.1215238709 0.1318221686
385297690.0 -0.0978699505 0.1417292056 0.3881591456 -0.4017083287 0.3883841143 -0.4019096271 -0.1205354943 0.1333569501
390297660.0 -0.0966777321 0.142974286 0.3834502183 -0.4066467946 0.3843595968 -0.4067294058 -0.1193357993 0.1342986369
395297630.0 -0.0947568966 0.144066919 0.3797293599 -0.4101366373 0.3797256177 -0.4103090097 -0.1181369869 0.1360666013
400297600.0 -0.0933465258 0.1455314618 0.3750893102 -0.4143039438 0.3753468809 -0.4147501958 -0.1173436284 0.1369030494
405297570.0 -0.0914967487 0.1467434065 0.3705852023 -0.4188827106 0.3706669524 -0.4191486619 -0.1157807957 0.1389935658
410297540.0 -0.0898080925 0.1474986364 0.3653440688 -0.4226809422 0.3654639243 -0.422532881 -0.1143153084 0.1395333908
415297510.0 -0.0886967134 0.1491191613 0.3614619957 -0.4265305914 0.360876172 -0.4266147686 -0.1131105087 0.141386058
420297480.0 -0.0867652285 0.1498024008 0.3560306102 -0.4309073475 0.3565219401 -0.4305639306 -0.1117717105 0.1421076094
425297450.0 -0.0848628556 0.1509797267 0.3515591305 -0.4346820934 0.3521198719 -0.4344969808 -0.1103869957 0.1439893757
430297420.0 -0.0834729826 0.1521321807 0.3472395204 -0.4385661787 0.3472150739 -0.4384835592 -0.1091292217 0.1450183108
435297390.0 -0.0816249221 0.1531537141 0.3421094736 -0.4417211338 0.3421852129 -0.4417065112 -0.1075611878 0.1466561496
440297360.0 -0.0799176948 0.1540414558 0.3370363603 -0.4458919807 0.3367230616 -0.445494561 -0.1062422714 0.1472433094
445297330.0 -0.0779229974 0.1551496226 0.3320791131 -0.4497182361 0.3321284331 -0.4493078514 -0.1048846962 0.1487412
450297300.0 -0.0763234123 0.1560434008 0.3272293662 -0.4531837476 0.3274569513 -0.4531302805 -0.1039081841 0.1499387405
455297270.0 -0.074922898 0.1569583511 0.3226324825 -0.4566024358 0.322927711 -0.4564080447 -0.1021507751 0.1511837765
460297240.0 -0.0734473345 0.158193677 0.3177822805 -0.4598270136 0.3170148708 -0.4602934758 -0.1006235763 0.1528039058
465297210.0 -0.0709030533 0.158833705 0.3124948218 -0.4635755694 0.3123904607 -0.4636881536 -0.0995981539 0.153546069
470297180.0 -0.0692877762 0.160038995 0.3075951197 -0.4667593802 0.3077526913 -0.4667625921 -0.0983982031 0.1547503885
475297150.0 -0.0678328339 0.1604238871 0.3018883207 -0.4699979672 0.3021236572 -0.469470472 -0.0964812662 0.1558595597
480297120.0 -0.0657020308 0.1614589125 0.2969983633 -0.4729670846 0.2972808106 -0.4733710303 -0.0951406229 0.1572682726
485297090.0 -0.0639333892 0.1622290322 0.2921963674 -0.476588483 0.29209078 -0.4765004486 -0.0936046786 0.1579985039
490297060.0 -0.062125033 0.1629872753 0.2867872998 -0.4795771173 0.2868489074 -0.4796672967 -0.0922322992 0.1594069449
495297030.0 -0.0604691787 0.1637746908 0.2812075722 -0.4826030853 0.28110531 -0.4831871335 -0.0908447138 0.1601779962
500297000.0 -0.0584638295 0.1645316744 0.2758455599 -0.4855807026 0.2761977245 -0.4857331262 -0.0894660145 0.160969372
505296970.0 -0.0566377357 0.165508301 0.2701746652 -0.4885201665 0.2704576468 -0.4883456288 -0.0882862313 0.1620734753
510296940.0 -0.0550548758 0.1663247154 0.2658640878 -0.4915305445 0.2656584368 -0.4916530345 -0.0862849341 0.1633691168
515296910.0 -0.0531917529 0.1675685438 0.2599893688 -0.494409853 0.2600584422 -0.4945643258 -0.0849899273 0.1644533357
520296880.0 -0.0512072582 0.1677289183 0.25461664 -0.4970820092 0.25494256 -0.4967991705 -0.0829507784 0.1653189516
525296850.0 -0.0494529524 0.1682503651 0.2494244237 -0.4998972387 0.2495808077 -0.4998191605 -0.0812008971 0.1663164958
530296820.0 -0.0474790588 0.1689730471 0.2443171267 -0.5019765535 0.2436159329 -0.5024133755 -0.0801903192 0.1669797609
535296790.0 -0.0457623812 0.1696811982 0.2382114072 -0.5046076836 0.2385989007 -0.5048399351 -0.078763718 0.1679327225
540296760.0 -0.0437530847 0.1699256217 0.2329537743 -0.5075078143 0.2325912278 -0.5075658498 -0.0769719132 0.169288561
545296730.0 -0.0415048592 0.1709934478 0.2267236978 -0.509871125 0.2276813276 -0.510298871 -0.0755796673 0.1697380634
550296700.0 -0.04024163 0.1717108519 0.2217962841 -0.5122902415 0.2222491116 -0.512574463 -0.0739986903 0.1712069556
555296670.0 -0.0379486929 0.1719737162 0.2162491195 -0.5149068525 0.216271267 -0.5150557415 -0.0722745554 0.1719960536
560296640.0 -0.0361400463 0.1723959068 0.2105943419 -0.516944933 0.210760533 -0.5168838156 -0.0706217147 0.1726219037
565296610.0 -0.0345887111 0.1733519143 0.2051852299 -0.5194689428 0.2046865627 -0.5195660467 -0.0692357454 0.1734176007
570296580.0 -0.0320937656 0.173470632 0.1991040965 -0.5211377273 0.1997417456 -0.5212181227 -0.0672170578 0.1747382832
575296550.0 -0.0304303651 0.1743410541 0.1936837368 -0.5231100584 0.1942275336 -0.5231987395 -0.065606506 0.1754690447
580296520.0 -0.0284329296 0.1748128492 0.1880677841 -0.5254448156 0.1880962165 -0.525378638 -0.0640492524 0.1756433413
585296490.0 -0.026326368 0.1746717746 0.182324303 -0.5277143139 0.1823122907 -0.5275264923 -0.0624310751 0.1763584485
590296460.0 -0.0249001375 0.1751521264 0.1767885404 -0.5293065915 0.176535401 -0.5295363628 -0.0605531275 0.1777044185
595296430.0 -0.0228419896 0.1759088924 0.1712338096 -0.5311604341 0.170723099 -0.5315704611 -0.0587741345 0.1778340061
600296400.0 -0.0206694742 0.1764463109 0.1653188968 -0.5331478214 0.1652400734 -0.5329273046 -0.0569529819 0.1791888653
605296370.0 -0.0187148052 0.1768790888 0.159556556 -0.5348675058 0.1592090562 -0.5346260578 -0.0555114431 0.1797313865
610296340.0 -0.0167607715 0.1770152571 0.1541957952 -0.5362808858 0.1541083208 -0.5365501411 -0.0538493642 0.1807860385
615296310.0 -0.0148369684 0.1773740534 0.147709987 -0.5380823991 0.1478916774 -0.5381706606 -0.0520728011 0.1809452245
620296280.0 -0.0130455713 0.1774426103 0.1422895946 -0.5393369926 0.1421003572 -0.5397224494 -0.050450461 0.1815430299
625296250.0 -0.0107813448 0.1779503636 0.1357533793 -0.5412342689 0.1358933451 -0.5412946843 -0.0483844012 0.1824167071
630296220.0 -0.0087458095 0.1782301166 0.1299804304 -0.5426407532 0.1306578831 -0.5426144371 -0.0469737415 0.1830345979
635296190.0 -0.0068638152 0.1786473104 0.1244733853 -0.5436000793 0.12415822 -0.5434331627 -0.0453738606 0.1834510288
640296160.0 -0.0051300979 0.1785223868 0.1188565359 -0.5448640516 0.1184216258 -0.5454126304 -0.0431315285 0.1839784876
645296130.0 -0.0031536861 0.1791319794 0.1126524538 -0.5466424874 0.1128190594 -0.5466282735 -0.0422023445 0.184378811
650296100.0 -0.0009963971 0.1795299098 0.1073343372 -0.5474747221 0.1068661264 -0.5471562576 -0.0399140494 0.185156438
655296070.0 0.0009466579 0.1791599224 0.1011760338 -0.548620874 0.101159113 -0.5483675543 -0.0380406829 0.1860007675
660296040.0 0.0026659372 0.1794299148 0.0950577168 -0.5492133015 0.0950171215 -0.5492288641 -0.0364159363 0.186056604
665296010.0 0.0050354509 0.1794414291 0.0894227418 -0.5501614744 0.0897429097 -0.5502753855 -0.035291617 0.1869324703
670295980.0 0.0074741219 0.1797472294 0.0830601534 -0.5510370096 0.0835536796 -0.5512900322 -0.0334246133 0.1870340482
675295950.0 0.0094530966 0.1799673452 0.0768774099 -0.5522820887 0.0774303386 -0.5523776831 -0.031032817 0.1876614258
680295920.0 0.0110987417 0.1800141393 0.0709433171 -0.552669996 0.0712148287 -0.5530706819 -0.0294485737 0.1882268564
685295890.0 0.0129996664 0.179953487 0.0655018044 -0.5534672454 0.0651172365 -0.55423454 -0.0276443004 0.1886441925
690295860.0 0.0153593607 0.1799784461 0.0592941876 -0.5540622671 0.0591883604 -0.5542362071 -0.025660984 0.1894707411
695295830.0 0.0176026141 0.1797578764 0.0524913652 -0.5548504338 0.0528447923 -0.554843466 -0.023945806 0.1898032834
700295800.0 0.0194861705 0.1798872453 0.0470946544 -0.5554011983 0.0474883944 -0.5554848327 -0.0224979264 0.1898920949
705295770.0 0.021499511 0.1798141329 0.041096176 -0.5557543271 0.0412933026 -0.5560095643 -0.0207137182 0.1904439402
710295740.0 0.0235288018 0.1799662968 0.035009379 -0.5565464005 0.0354629396 -0.5563192596 -0.0193602233 0.1907746179
715295710.0 0.0251976966 0.1796657942 0.0292274294 -0.5564216269 0.0292155769 -0.5567980271 -0.0169832895 0.1911516446
720295680.0 0.0273670211 0.1792264973 0.0230736667 -0.556498282 0.023469154 -0.5571551335 -0.0150658876 0.1912045953
725295650.0 0.0295945047 0.1794672754 0.0171960595 -0.5570188334 0.0170969414 -0.5566807274 -0.0131821637 0.1916098676
730295620.0 0.0312414067 0.1789864285 0.0110747472 -0.5570522655 0.0113816416 -0.5569414121 -0.0112996296 0.19142035
735295590.0 0.0337765711 0.1789593318 0.0055963979 -0.5567280277 0.0057895053 -0.5568117026 -0.0094887057 0.1920824067
740295560.0 0.0354850335 0.1790038739 -0.000704703 -0.5569215147 -0.0010867507 -0.5570228828 -0.007477913 0.192129429
745295530.0 0.0373981338 0.1781531802 -0.0068645358 -0.557049684 -0.0065024784 -0.5573961247 -0.0061029959 0.1925980545
750295500.0 0.0395479169 0.178008805 -0.0125114466 -0.5566170631 -0.0124526581 -0.5567858808 -0.0042085989 0.1922338276
755295470.0 0.0419086756 0.1781082646 -0.018481202 -0.5566690244 -0.0181868816 -0.5565925418 -0.0026324648 0.192912024
760295440.0 0.0434068285 0.1777076782 -0.0247835798 -0.5563984472 -0.0246374032 -0.5566092336 -0.0007186397 0.1930760207
765295410.0 0.0454905086 0.177081096 -0.0304130282 -0.5558421448 -0.0305530504 -0.5560857671 0.0020999368 0.1932849188
770295380.0 0.0477077364 0.1771841164 -0.0364738688 -0.5556907928 -0.0363875734 -0.5559618802 0.0034550299 0.1935754241
775295350.0 0.0494859396 0.1767177725 -0.0427888144 -0.5546754926 -0.042306487 -0.5550286444 0.0049553344 0.1930428913
780295320.0 0.0517583167 0.1760900021 -0.0480269247 -0.5541853739 -0.0483630063 -0.5549237185 0.0072709796 0.1939743874
785295290.0 0.0534294166 0.1760860519 -0.054355699 -0.5535254549 -0.0547939987 -0.5544834434 0.0084012514 0.1938558535
790295260.0 0.05534632 0.175620022 -0.0603227551 -0.5534874932 -0.0603917911 -0.5536605502 0.0109878876 0.193505922
795295230.0 0.0573766902 0.1750438724 -0.066033266 -0.5520919128 -0.0658549374 -0.5528752717 0.0126934505 0.1941562407
800295200.0 0.0592764711 0.1746543746 -0.072653304 -0.5525557032 -0.0726218077 -0.5523094152 0.0147916572 0.1936924815
805295170.0 0.0608290685 0.1740302383 -0.0778504144 -0.5506837795 -0.0779855883 -0.5511385964 0.0160916939 0.1934977209
810295140.0 0.0632050616 0.1734632924 -0.0839886998 -0.5502608629 -0.0840602365 -0.5505761178 0.0183634142 0.1939458947
815295110.0 0.0652314839 0.173057605 -0.0902867038 -0.5488739092 -0.0903668388 -0.5488689838 0.0199094299 0.1935060582
820295080.0 0.067023473 0.1720674627 -0.0954928761 -0.5480400331 -0.096027949 -0.5484965732 0.0215420484 0.1937555417
825295050.0 0.069255112 0.1714629469 -0.1019605046 -0.5464668962 -0.1019941725 -0.5471670563 0.0240990994 0.1938518698
830295020.0 0.0708753204 0.1712246056 -0.1076914815 -0.5457867312 -0.1079861082 -0.546213346 0.0254818391 0.1935991342
