!Created with skrf (http://scikit-rf.org).
# Hz S RI R 50.0 
!freq ReS11 ImS11 ReS21 ImS21 ReS12 ImS12 ReS22 ImS22
300000.0 -0.2418926365 -0.0821822168 0.4730875943 0.0561614532 0.4716735283 0.0530184026 -0.2427900097 -0.0921235897
5299970.0 -0.2451041754 0.0066497906 0.4746027741 0.0053210038 0.4748386404 0.0050808419 -0.2416784992 0.0075237575
10299940.0 -0.2418369377 0.0180600153 0.4768775799 0.0059540816 0.4774493893 0.0060239025 -0.2380830783 0.0207158016
15299910.0 -0.2374937192 0.0270010394 0.4803003772 0.0075233161 0.4805786292 0.0072153685 -0.2334945781 0.0301523781
20299880.0 -0.2329858584 0.0340179005 0.4850949752 0.0081793293 0.4852847423 0.0077756411 -0.2279885278 0.0379487323
25299850.0 -0.2278953094 0.0403286224 0.4906157883 0.0069093496 0.4901265926 0.0072138993 -0.2222022828 0.0445798676
30299820.0 -0.2226421604 0.0449534532 0.4954818302 0.0049107456 0.4953974224 0.0049677035 -0.2165540871 0.0499500118
35299790.0 -0.217895341 0.0490046666 0.5012597017 0.0014775831 0.5009752394 0.00166066 -0.2106476424 0.0541017291
40299760.0 -0.2128111037 0.052466776 0.5060626029 -0.0024402991 0.5061062722 -0.0023229646 -0.2053646099 0.057334724
45299730.0 -0.2079311795 0.0549512088 0.5101937378 -0.0070813245 0.5110111065 -0.0066669134 -0.200803596 0.0602301307
50299700.0 -0.2039271051 0.0570277564 0.5151706609 -0.0125114525 0.5150517324 -0.0124247674 -0.195511799 0.0620244271
55299670.0 -0.200006753 0.0582614549 0.5188366577 -0.0190776659 0.5186212552 -0.0186134649 -0.1914405507 0.0640907888
60299640.0 -0.1958834643 0.0597655267 0.5216169396 -0.0246955364 0.5222147658 -0.0243218949 -0.1874905127 0.0650480931
65299610.0 -0.192768754 0.0608501028 0.5243957298 -0.0313294387 0.5249035457 -0.0310707844 -0.1838981412 0.0664715831
70299580.0 -0.1898533509 0.0622127351 0.5270780285 -0.0380637268 0.5271988187 -0.0375812654 -0.1807206155 0.0673839648
75299550.0 -0.1871665811 0.0630951841 0.5289976024 -0.0445703044 0.5290927686 -0.0444869599 -0.1778223223 0.0682951202
80299520.0 -0.1845279972 0.0634985981 0.5309442686 -0.0513312961 0.5311470442 -0.0516323999 -0.1752636085 0.0692073058
85299490.0 -0.1824558382 0.0640182184 0.5325202448 -0.0581108515 0.5323431441 -0.0578594307 -0.1728062262 0.0694868718
90299460.0 -0.1803279087 0.0647770336 0.5328663155 -0.0652307492 0.5333912041 -0.0651581612 -0.1702966811 0.0703433195
95299430.0 -0.1780049862 0.0651529843 0.5341339894 -0.0718012354 0.5342267429 -0.072162556 -0.168063586 0.0712972681
100299400.0 -0.1766945878 0.0663605611 0.5340351583 -0.0788843124 0.5344053263 -0.0787161452 -0.1657985774 0.0718580481
105299370.0 -0.1748702939 0.0668920701 0.5347404443 -0.086142694 0.534934895 -0.0855914894 -0.1640075578 0.072313069
110299340.0 -0.1736112238 0.0676573134 0.5349720724 -0.0928664414 0.5350474501 -0.0926174349 -0.1630477258 0.0731910273
115299310.0 -0.1719060747 0.0681378487 0.5349297486 -0.0999617969 0.5350292456 -0.0993427272 -0.1610934218 0.0741100397
120299280.0 -0.1708935686 0.0683628645 0.5345621805 -0.1060273103 0.5347749535 -0.1062972819 -0.1594685371 0.0746769664
125299250.0 -0.1694947579 0.0691755108 0.5343554906 -0.1129257456 0.5346646303 -0.1127057464 -0.1585352911 0.0752177566
130299220.0 -0.1685698792 0.0701864209 0.5336539533 -0.1199594865 0.5335443474 -0.1196982891 -0.1572061927 0.0760168547
135299190.0 -0.1674947868 0.071274998 0.5332740201 -0.1261511088 0.5331426554 -0.1260093014 -0.1555678177 0.0770925121
140299160.0 -0.1667438658 0.0720558413 0.5325771743 -0.133071359 0.5322461454 -0.133067793 -0.1547051132 0.078343141
145299130.0 -0.1654720211 0.0727659708 0.5315978679 -0.1394567784 0.5310435946 -0.1394120085 -0.1537127113 0.0790708077
150299100.0 -0.1646011022 0.0738092503 0.530091354 -0.1454593665 0.5302620761 -0.1453390539 -0.1524069163 0.0803822733
155299070.0 -0.164022979 0.0746536334 0.529107854 -0.1530837194 0.5288060177 -0.1528226103 -0.1514207264 0.0813211148
160299040.0 -0.1630615142 0.0757242672 0.5274421991 -0.1588326576 0.5274908313 -0.1589425963 -0.1510315206 0.0823275755
165299010.0 -0.1624020935 0.0769090653 0.5262712432 -0.1657741249 0.5261864828 -0.16559387 -0.1495825199 0.0837286147
170298980.0 -0.1618274264 0.0778760796 0.5245111676 -0.1719013154 0.5247365158 -0.1717657022 -0.1485537526 0.0847716864
175298950.0 -0.1608636922 0.0788250295 0.5233988212 -0.1779577766 0.5227573719 -0.1778387837 -0.1482019128 0.0859614019
180298920.0 -0.1603919112 0.0801904523 0.5212393901 -0.1843897265 0.5213031871 -0.184083213 -0.1469353393 0.0874393822
185298890.0 -0.159066439 0.0811561932 0.5193038247 -0.1906347398 0.5191362304 -0.1902350058 -0.146120994 0.0885739566
190298860.0 -0.1587368195 0.0823426193 0.5179141935 -0.1965924433 0.5176110624 -0.1965612678 -0.1450546202 0.0894286552
195298830.0 -0.1576518975 0.0832763625 0.5153150056 -0.2027379557 0.5153776381 -0.2024794835 -0.1439433351 0.0908614365
200298800.0 -0.15699758 0.0845593652 0.5131896179 -0.2089290087 0.5135210908 -0.20902387 -0.1433082947 0.0924464936
205298770.0 -0.1563404456 0.085922699 0.5109040227 -0.2153167803 0.5111924724 -0.214834429 -0.1420826098 0.0930664613
210298740.0 -0.1554286294 0.0867772333 0.5085414557 -0.2204531259 0.5087246274 -0.220496176 -0.1409250242 0.0950857326
215298710.0 -0.1551207767 0.0885172261 0.5066022542 -0.2268646205 0.506696075 -0.2271524506 -0.1405492286 0.0961582632
220298680.0 -0.1540550658 0.0890785452 0.50365836 -0.2326163022 0.5041048152 -0.2323075815 -0.139688584 0.097136165
225298650.0 -0.1532601389 0.0905894074 0.5012786734 -0.2387344521 0.5017169466 -0.238924932 -0.1388399507 0.0986387334
230298620.0 -0.1524655839 0.0922904661 0.4991565526 -0.2441639954 0.4996188953 -0.2444274824 -0.1378739281 0.0999216834
235298590.0 -0.1518946392 0.093874435 0.4963230961 -0.2501919676 0.4964421816 -0.2494982026 -0.136599775 0.1011087404
240298560.0 -0.1511132778 0.0948916767 0.4939854436 -0.255874297 0.4936461228 -0.2557230914 -0.1357496734 0.1031195426
245298530.0 -0.1505495286 0.0961098013 0.491575684 -0.2616728645 0.4910851787 -0.2616610479 -0.1343562705 0.103736302
250298500.0 -0.1492779469 0.0976993901 0.4878356994 -0.2672002735 0.4877651526 -0.266572971 -0.1338891971 0.1053946003
255298470.0 -0.1486268987 0.0982925768 0.4849310687 -0.2723391877 0.4852259598 -0.2727145575 -0.1326877125 0.1067690666
260298440.0 -0.1478541822 0.10001413 0.4820080049 -0.2784655142 0.4821119796 -0.2781658827 -0.1311485116 0.1082452199
265298410.0 -0.1469497261 0.1018675808 0.4792977945 -0.2838037513 0.4794748207 -0.2836827177 -0.1302092633 0.1098696558
270298380.0 -0.1462470463 0.1028273796 0.4764315189 -0.2888892883 0.4766135503 -0.2888375189 -0.1293249548 0.1111295454
275298350.0 -0.1448652583 0.1042284282 0.4730453731 -0.2945241315 0.4731021867 -0.2943391326 -0.1281013002 0.1122733203
280298320.0 -0.1438295903 0.1056859794 0.4698601841 -0.2998000397 0.4699946545 -0.2998093165 -0.1266176371 0.1140215101
285298290.0 -0.1429893573 0.1073183813 0.4669405229 -0.3050314572 0.4663503141 -0.3052746684 -0.1253670355 0.1151216982
290298260.0 -0.1419668624 0.1085448883 0.4630730838 -0.3102001019 0.4637332937 -0.3105142039 -0.1247291635 0.1169522216
295298230.0 -0.1408734132 0.1095401893 0.4600850714 -0.315283558 0.4599737707 -0.315835877 -0.1227540738 0.117874413
300298200.0 -0.1403105376 0.1109376208 0.4569233844 -0.3206344076 0.4569498238 -0.3214047058 -0.122064797 0.1194169857
305298170.0 -0.1391978573 0.1121669298 0.4525698408 -0.3266423161 0.453511442 -0.3264959601 -0.1202645382 0.1205965699
310298140.0 -0.1379683909 0.1137508339 0.4495926086 -0.3311537692 0.4500239251 -0.3313592513 -0.119292093 0.121813719
315298110.0 -0.1369888438 0.1146593946 0.4457102942 -0.3365487309 0.4460236541 -0.3365078577 -0.1179751534 0.1228046325
320298080.0 -0.1359466937 0.1159872263 0.4416637674 -0.3417675687 0.4423948487 -0.3417015497 -0.1166302695 0.1244547424
325298050.0 -0.1350504292 0.1171336618 0.4379951041 -0.3467987396 0.4384151011 -0.3468764551 -0.1157111416 0.1255897204
330298020.0 -0.134298331 0.118414705 0.4342510706 -0.3519623263 0.4346623513 -0.3520941532 -0.1146432508 0.1270166077
335297990.0 -0.1332400087 0.1195421678 0.4306501935 -0.3566026735 0.4302021756 -0.3565602444 -0.1138318551 0.1289111248
340297960.0 -0.1328062955 0.1212704075 0.4258513528 -0.3615213942 0.4260572123 -0.3612499716 -0.1118742815 0.1298192344
345297930.0 -0.1314412053 0.1228918239 0.4219286642 -0.3662442882 0.4216478242 -0.3661741571 -0.1111201116 0.1312680683
350297900.0 -0.1305388677 0.1237416852 0.417420111 -0.3708209809 0.4175341003 -0.3706069358 -0.1099256829 0.1326977906
355297870.0 -0.1294156293 0.1258397144 0.4138509438 -0.3756522053 0.4140876375 -0.3752721276 -0.108827434 0.1337279536
360297840.0 -0.1282501691 0.1270645423 0.4098061779 -0.3798282618 0.4101621857 -0.3797742255 -0.1069915273 0.1353307416
365297810.0 -0.1273458677 0.1285649961 0.4056061857 -0.3846161164 0.4057401709 -0.3844548648 -0.1053916145 0.1366966718
370297780.0 -0.1257819456 0.1296261091 0.4012243038 -0.3887207789 0.401712875 -0.3883732594 -0.1041959474 0.1381816341
375297750.0 -0.124600311 0.1309109324 0.3971122698 -0.3931398495 0.3973209409 -0.3930937648 -0.1025591783 0.1391102185
380297720.0 -0.1234776311 0.1320761954 0.3924008003 -0.3976498097 0.3926274676 -0.3970087142 -0.1012367075 0.1404775076
385297690.0 -0.1224552174 0.1333649934 0.3880573377 -0.4017994039 0.3880648125 -0.4014510218 -0.0998603585 0.1417393179
390297660.0 -0.1213033746 0.1350767299 0.3838667242 -0.4057191462 0.383580413 -0.4055439062 -0.0981238051 0.1427765485
395297630.0 -0.1197212948 0.1363655759 0.3792369302 -0.4102432389 0.3792969902 -0.4102759 -0.0961986253 0.1443126578
400297600.0 -0.1185824682 0.1376131977 0.3743825928 -0.4146382215 0.3747329047 -0.4147026825 -0.0952438642 0.1456539101
405297570.0 -0.1175974592 0.138906025 0.3698703124 -0.4180258823 0.3700649614 -0.4181058931 -0.0937663942 0.1466746666
410297540.0 -0.1161561496 0.1401208618 0.3660208247 -0.422492596 0.3657426536 -0.422209939 -0.0921701152 0.1479307982
415297510.0 -0.1146189601 0.1408936754 0.3604030242 -0.4263545769 0.3610154753 -0.4266337553 -0.0902990791 0.1492171012
420297480.0 -0.1137118201 0.142766224 0.3561216581 -0.4304977524 0.3562563415 -0.4307304564 -0.0891703579 0.1502530587
425297450.0 -0.1121924939 0.1436029742 0.3516042269 -0.434348851 0.3520432784 -0.4345239314 -0.0877605043 0.1516154381
430297420.0 -0.110970566 0.1445649812 0.3468772082 -0.4374870189 0.3469463927 -0.4376075276 -0.0859340713 0.1522840365
435297390.0 -0.1097060133 0.1458522447 0.3417421617 -0.441723536 0.3417013927 -0.4416132302 -0.0833929858 0.1533166472
440297360.0 -0.1079585878 0.1476218626 0.3368810565 -0.4450116632 0.337257902 -0.4453621456 -0.0824648668 0.1543642269
445297330.0 -0.1068565505 0.1482124878 0.3326208506 -0.4491959831 0.3324079698 -0.4488547314 -0.0804700102 0.1552899572
450297300.0 -0.1053824055 0.1495183661 0.3269325397 -0.4527187967 0.3273183707 -0.4529553295 -0.0788443404 0.1564437545
455297270.0 -0.1038652622 0.1506634906 0.3219448676 -0.4560019605 0.3225532916 -0.4563517526 -0.0772424238 0.1576539143
460297240.0 -0.1026611369 0.1516724825 0.3167639837 -0.4592835335 0.3176556905 -0.459769788 -0.0755304895 0.1588949677
465297210.0 -0.1007438494 0.1532007373 0.312720257 -0.4631693593 0.3123801292 -0.463497368 -0.0736813121 0.1595013462
470297180.0 -0.0993113382 0.1537926215 0.3069383358 -0.4661059688 0.3074425261 -0.466426144 -0.0719698571 0.1607109687
475297150.0 -0.097968647 0.1550452312 0.3019203387 -0.4693424108 0.3020428778 -0.4695241514 -0.0696442039 0.1613674347
480297120.0 -0.0963607497 0.1566088296 0.296655739 -0.4733540566 0.2967221199 -0.4733710076 -0.068120123 0.1624987494
485297090.0 -0.0949596897 0.1572937579 0.2918968125 -0.4758157144 0.2920064551 -0.4759937362 -0.0663654981 0.1632798559
490297060.0 -0.0939788195 0.158461711 0.2870591583 -0.4795060947 0.286701132 -0.4792906887 -0.0643547492 0.1644377905
495297030.0 -0.0919840721 0.1594793557 0.2811997279 -0.4823714868 0.2818683534 -0.482596477 -0.0627686071 0.1650200919
500297000.0 -0.0905609638 0.1603130987 0.2760228586 -0.485221845 0.2759015549 -0.4849607474 -0.0608234532 0.1663424416
505296970.0 -0.08888411 0.1615543281 0.2706339686 -0.4882534328 0.2703686864 -0.4883467252 -0.0592694378 0.1667548529
510296940.0 -0.0871027466 0.1624849137 0.2653555116 -0.4914326521 0.2654814928 -0.491337969 -0.0572206147 0.1679993894
515296910.0 -0.0857716219 0.1635202876 0.2597121286 -0.4943718072 0.2597829809 -0.4939187871 -0.0554937768 0.1685399368
520296880.0 -0.0842736985 0.1645488507 0.2547002329 -0.4970036557 0.2546606993 -0.4966623891 -0.0537632566 0.1690592587
525296850.0 -0.0821847716 0.1648698069 0.24866006 -0.4996322059 0.2492308271 -0.499529869 -0.0519662978 0.1698934015
530296820.0 -0.080967238 0.1662823399 0.2437189704 -0.5025488712 0.2436673733 -0.5023636188 -0.0499972467 0.1707895495
535296790.0 -0.0798508063 0.1671181186 0.2385444874 -0.5044740408 0.2385182973 -0.5040912711 -0.0483325903 0.1709404596
540296760.0 -0.0780534349 0.1681593945 0.2330268911 -0.5075924865 0.2327565309 -0.5071335916 -0.0463354198 0.1720234571
545296730.0 -0.0764378122 0.1688951644 0.2269786985 -0.5094077066 0.2271355538 -0.509865421 -0.044620812 0.1725128759
550296700.0 -0.0743155457 0.17020551 0.2218242458 -0.512327809 0.2215062644 -0.5125078919 -0.0428457536 0.1734421229
555296670.0 -0.0731861777 0.1704925088 0.2164005202 -0.5146775866 0.2164234106 -0.5146272748 -0.0406661733 0.1743152107
560296640.0 -0.0711591887 0.171802576 0.210658029 -0.5169859995 0.2105551682 -0.5168955527 -0.0383031494 0.1746557464
565296610.0 -0.0698393764 0.1725979432 0.2045172707 -0.5188661654 0.2050940601 -0.5190278861 -0.0368238564 0.1749582187
570296580.0 -0.0681076228 0.1731395618 0.1990368839 -0.5212392795 0.1992230586 -0.5213957186 -0.0351837383 0.1761142259
575296550.0 -0.0665883933 0.1743230741 0.1941451708 -0.5238529394 0.1936718738 -0.5235132362 -0.0327524227 0.1763061745
580296520.0 -0.0646581993 0.1749390487 0.1876909841 -0.5257017179 0.1882020825 -0.5254580724 -0.0311811023 0.1768593947
585296490.0 -0.0631222867 0.1753453741 0.1821475615 -0.5271711598 0.182424346 -0.5276535771 -0.0288515872 0.1773900328
590296460.0 -0.0611765825 0.1764294776 0.1763790241 -0.5287703547 0.1766936814 -0.529134954 -0.0273507457 0.1779300072
595296430.0 -0.0596031829 0.1773667492 0.1701615371 -0.531477499 0.1705395838 -0.5309290789 -0.0251409661 0.1782309681
600296400.0 -0.0579673645 0.1776746475 0.1650196427 -0.5327820983 0.1651290758 -0.5327579603 -0.0233770098 0.1785956762
605296370.0 -0.0563116627 0.1784063812 0.1592056655 -0.5342907122 0.1592939431 -0.5345954909 -0.0208861317 0.1789267843
610296340.0 -0.0544741624 0.1789432997 0.1531491571 -0.5361654118 0.1537010604 -0.5362815783 -0.0186091433 0.1794745092
615296310.0 -0.0525601542 0.1797133492 0.1473684708 -0.5378376268 0.1477167644 -0.5383489883 -0.0169509926 0.1794778534
620296280.0 -0.0508162861 0.1798618765 0.1417784325 -0.5392118929 0.1418106475 -0.5392774425 -0.0151439204 0.1802965146
625296250.0 -0.0492057741 0.1807025051 0.1362286635 -0.5412018204 0.1358375604 -0.5416198299 -0.0127395978 0.1801999436
630296220.0 -0.0468469991 0.1818434337 0.1292127709 -0.5421594781 0.1298071431 -0.5422402247 -0.0109930153 0.1807641836
635296190.0 -0.0461003509 0.1819507595 0.1241165095 -0.5434001079 0.1241268676 -0.5434465548 -0.0086818321 0.180987013
640296160.0 -0.0441012758 0.1828005939 0.1182587502 -0.5447098965 0.1183353584 -0.5450846588 -0.0067525347 0.1807987862
645296130.0 -0.0421870763 0.1837084874 0.1121665896 -0.546055695 0.1123771062 -0.5459385728 -0.0048121265 0.1817201944
650296100.0 -0.040389071 0.1839019031 0.1066329943 -0.5471937625 0.1064466453 -0.5473248673 -0.0027269804 0.1815243633
655296070.0 -0.0387713933 0.1844571823 0.1004445655 -0.5482050856 0.1002922709 -0.5482766265 -0.0005675639 0.1817156451
660296040.0 -0.0373288279 0.1845596601 0.0946239197 -0.5492614893 0.0947766003 -0.5495434633 0.0016301902 0.181920285
665296010.0 -0.0347350153 0.1849294026 0.0882823111 -0.550059552 0.0885742779 -0.550255015 0.0033457733 0.1825916886
670295980.0 -0.0339706915 0.1857310278 0.0827647328 -0.5508007058 0.082413273 -0.5510299643 0.0052057037 0.182390129
675295950.0 -0.0319004409 0.1864418584 0.076782944 -0.5514798761 0.0769013998 -0.5513655574 0.0070092686 0.182390297
680295920.0 -0.0300995406 0.1865836602 0.0706713152 -0.5523900635 0.0702143421 -0.5531026532 0.009331406 0.1831367046
685295890.0 -0.0280751069 0.1876212318 0.0646720738 -0.5535929209 0.0645808579 -0.5533159562 0.0109470166 0.1826525165
690295860.0 -0.0261899942 0.1876767258 0.0589875439 -0.5534102692 0.0587369737 -0.554219318 0.0129381845 0.1832822723
695295830.0 -0.0243889391 0.1881126707 0.0531435862 -0.5544934829 0.0530927141 -0.5545372969 0.0151394386 0.1830732109
700295800.0 -0.0225479983 0.1884034002 0.046781615 -0.5548697773 0.0467594242 -0.5548387304 0.0170398351 0.1835218496
705295770.0 -0.0206266602 0.1894409114 0.0405762091 -0.5555922407 0.0409558685 -0.5556735894 0.0189620431 0.1832324684
710295740.0 -0.018639726 0.1890190751 0.0347418784 -0.5562325899 0.0350830389 -0.5561780028 0.0210658457 0.1825712014
715295710.0 -0.0174056421 0.1894223708 0.0290664085 -0.5563868437 0.0286831408 -0.5563148302 0.0235357909 0.1826328026
720295680.0 -0.0153320414 0.189582551 0.0233263711 -0.5566049936 0.023135899 -0.5567824863 0.0255910479 0.1831895938
725295650.0 -0.0132170268 0.1901555108 0.0169866117 -0.5565749137 0.0171339402 -0.5570615814 0.0268432536 0.182878705
730295620.0 -0.0111482968 0.190557507 0.0105794966 -0.556362829 0.0110978936 -0.5569918536 0.028892162 0.1823040723
735295590.0 -0.0096925671 0.1907754708 0.0052899159 -0.5570530255 0.004978156 -0.5571452936 0.0309186724 0.1819756882
740295560.0 -0.008153875 0.1910874506 -0.00085699 -0.5567243253 -0.0009406188 -0.5570514727 0.0336849947 0.1824360362
745295530.0 -0.0062046952 0.1912128732 -0.0069477192 -0.5563571337 -0.0069814127 -0.5566917931 0.0354290914 0.1813200586
750295500.0 -0.0039796313 0.1914637249 -0.0130752508 -0.5567266233 -0.0127768545 -0.5570270025 0.0372351769 0.1814413867
755295470.0 -0.0022576551 0.1911515968 -0.0189228228 -0.5564732684 -0.0185862492 -0.556623298 0.0395574711 0.1806681456
760295440.0 -0.0002513874 0.1919356069 -0.0250927474 -0.5565930377 -0.0251858863 -0.5564449022 0.0414536897 0.1809061894
765295410.0 0.0013904011 0.1916913701 -0.0311237395 -0.555831844 -0.0313642764 -0.5561743697 0.043584225 0.1806014051
770295380.0 0.0030100579 0.1918167909 -0.0372139069 -0.5552420858 -0.0370751652 -0.5553327711 0.0453241742 0.1799890496
775295350.0 0.0046229666 0.1915646415 -0.0428737614 -0.5545591643 -0.0428088983 -0.5549400875 0.046728124 0.1799744815
780295320.0 0.0070295708 0.192278383 -0.0493216327 -0.5543655597 -0.0485178274 -0.5545593751 0.0491706961 0.1790373586
785295290.0 0.0083146235 0.1918209811 -0.0550634367 -0.5533767733 -0.0551667955 -0.5537251956 0.0518997136 0.1790270962
790295260.0 0.0109709255 0.1926902799 -0.0607803736 -0.5533479357 -0.0598667471 -0.5531810827 0.0535000846 0.1786540217
795295230.0 0.0124953448 0.1919783047 -0.0667056288 -0.5525085697 -0.0661562631 -0.5525562913 0.0557631504 0.1786199006
800295200.0 0.0141443986 0.1924751575 -0.0734236934 -0.5515902384 -0.0725982569 -0.5517251647 0.0576520773 0.1777541679
805295170.0 0.0162052093 0.1922904577 -0.078698102 -0.550941317 -0.0786573902 -0.5509583626 0.0594500382 0.1773232849
810295140.0 0.0178288883 0.1917769279 -0.0844158755 -0.549321121 -0.0847623391 -0.5503569884 0.0622515117 0.1769205792
815295110.0 0.0201057321 0.1917935593 -0.0906816641 -0.5488382152 -0.089885649 -0.5489924719 0.0634902452 0.1762966987
820295080.0 0.021583512 0.1920320672 -0.0963621138 -0.5475881979 -0.0955286739 -0.5478366341 0.065518068 0.1759582156
825295050.0 0.0240488532 0.19189779 -0.1015999167 -0.5464472023 -0.102047562 -0.5465052375 0.0677281266 0.1754665558
830295020.0 0.0257713648 0.1919676594 -0.1086588258 -0.5450971734 -0.1079707955 -0.5457739969 0.0702092269 0.1746396569
