!Created with skrf (http://scikit-rf.org).
# Hz S RI R 50.0 
!freq ReS11 ImS11 ReS21 ImS21 ReS12 ImS12 ReS22 ImS22
300000.0 -0.2421620235 -0.0822693901 0.4737090727 0.0553171073 0.4684637952 0.0542946891 -0.2418266399 -0.0956850941
5299970.0 -0.2443516293 0.0069435162 0.4736277374 0.0047946357 0.4735903648 0.0054328331 -0.243974754 0.0071259534
10299940.0 -0.2409411461 0.0188184392 0.4754223402 0.0059597322 0.4754276798 0.0066271609 -0.2406794039 0.0201424948
15299910.0 -0.2365505169 0.0280426395 0.4789032188 0.0078530282 0.4795356263 0.0074537725 -0.2360349505 0.0295941987
20299880.0 -0.2320645584 0.035423037 0.4836222259 0.0084607201 0.484070851 0.008078736 -0.2308775258 0.0376642055
25299850.0 -0.2267779652 0.042104708 0.4890153012 0.007310052 0.4889588215 0.0078605149 -0.2247441574 0.0439425398
30299820.0 -0.2212451366 0.0472994194 0.4941164105 0.0053071177 0.494705173 0.0054820493 -0.2189187225 0.0492329694
35299790.0 -0.2160570912 0.0514107802 0.4998351506 0.0018980637 0.4999360973 0.0020154971 -0.213463543 0.0535006636
40299760.0 -0.2114655591 0.0551701301 0.5051192645 -0.0018235975 0.5051967821 -0.00183827 -0.2083506871 0.0563863281
45299730.0 -0.2066550787 0.0577858606 0.5100423601 -0.0064493311 0.5097819782 -0.0064732307 -0.2033342064 0.0589308983
50299700.0 -0.20230889 0.0598754222 0.5143395472 -0.0120878507 0.5138183879 -0.0118945351 -0.1983258851 0.060512155
55299670.0 -0.1983667409 0.0617666989 0.5179428534 -0.0182538027 0.5179714529 -0.017811587 -0.1944097836 0.0623691111
60299640.0 -0.1942657525 0.0637731131 0.5211649522 -0.0246719087 0.5214424269 -0.0238017127 -0.1904123118 0.063281077
65299610.0 -0.1911725218 0.064688099 0.524096906 -0.0307169513 0.5240932209 -0.0302864555 -0.1872873901 0.0640993708
70299580.0 -0.1880868304 0.0661102605 0.5264938811 -0.0373168101 0.526328197 -0.0371541856 -0.1837996866 0.0647528454
75299550.0 -0.1849018547 0.0671709812 0.5285054853 -0.04406766 0.5281720737 -0.0441670428 -0.1813178974 0.0652202551
80299520.0 -0.1825030092 0.0682240898 0.5304079728 -0.0510968875 0.5305780267 -0.0510439877 -0.1783800621 0.0662732883
85299490.0 -0.1803585821 0.0688406565 0.5314528371 -0.0575172906 0.5318477536 -0.0573848376 -0.1761834983 0.0661228124
90299460.0 -0.178036981 0.0698657766 0.5324062209 -0.064723453 0.5332134716 -0.0647694899 -0.1738928576 0.0666100651
95299430.0 -0.175665506 0.0705011452 0.5338598004 -0.0716006126 0.533840075 -0.0719192091 -0.171255745 0.0671735973
100299400.0 -0.1737157662 0.0714985075 0.5335336096 -0.0787798537 0.5337654752 -0.0786022615 -0.1693865223 0.067456033
105299370.0 -0.1720647471 0.0720725578 0.5345702641 -0.0859072815 0.5346496385 -0.0854244254 -0.1677488169 0.0678647339
110299340.0 -0.1704258097 0.0732158999 0.5347421336 -0.0917948248 0.534515983 -0.0921267351 -0.1666458815 0.0683514015
115299310.0 -0.1687383708 0.0741112593 0.5346386523 -0.0991519074 0.5340948856 -0.098852179 -0.1645334519 0.0690574512
120299280.0 -0.1674555248 0.074712211 0.5343730907 -0.1058941812 0.5341244385 -0.1059758054 -0.1633978692 0.0694706626
125299250.0 -0.1660307528 0.0753548037 0.5337766218 -0.1124927822 0.5341970541 -0.1124280906 -0.1627260534 0.0695694786
130299220.0 -0.1647707497 0.0768044484 0.5328574983 -0.1191918463 0.5330711093 -0.1195128701 -0.160834231 0.0703439927
135299190.0 -0.1636667242 0.0778063938 0.5330956703 -0.125965322 0.5327531556 -0.1259888245 -0.1596421198 0.0710021524
140299160.0 -0.1626538764 0.079143261 0.5319384758 -0.1326638571 0.5318937192 -0.1328981813 -0.1587439408 0.072094628
145299130.0 -0.1613131688 0.0799620195 0.5309874804 -0.1395372683 0.5304065174 -0.1394047042 -0.1579816743 0.0727852244
150299100.0 -0.1600285233 0.0811203519 0.5296618637 -0.1455629538 0.5298299535 -0.1452184699 -0.1568417097 0.0736797401
155299070.0 -0.1593595986 0.0821786491 0.5291078289 -0.1529403341 0.5288142373 -0.1521858741 -0.1556492796 0.0746982715
160299040.0 -0.1584120849 0.0834085476 0.5270519532 -0.1585400085 0.5267327255 -0.1586858756 -0.1556815671 0.0754249653
165299010.0 -0.1571989013 0.0845588917 0.5255673987 -0.1654427077 0.525755198 -0.1653079724 -0.1540491471 0.0768005987
170298980.0 -0.1565716701 0.0859717512 0.5242358732 -0.1718193024 0.5245949973 -0.1716431841 -0.1532902233 0.0776788027
175298950.0 -0.1555106367 0.0869889622 0.5230290536 -0.1777168484 0.5224979622 -0.177855713 -0.1528147478 0.0785824403
180298920.0 -0.1547878676 0.0884436778 0.5211325871 -0.1840594692 0.5210155088 -0.1838704209 -0.1519790045 0.0800123357
185298890.0 -0.1532157149 0.0895637512 0.5191616457 -0.1902512029 0.5187027639 -0.1902512708 -0.151300424 0.081101191
190298860.0 -0.1525966582 0.0910774037 0.5172875321 -0.1966943529 0.5174169621 -0.1963912745 -0.1506121594 0.0819312277
195298830.0 -0.1519062745 0.0919567568 0.5155183245 -0.2027947266 0.5153878992 -0.202836323 -0.1495628377 0.0829595695
200298800.0 -0.1505482372 0.0936981022 0.5129033221 -0.2090394069 0.5130093109 -0.2088667287 -0.149265505 0.0842615249
205298770.0 -0.1496070787 0.0948299682 0.5105156017 -0.2152246931 0.5107100309 -0.2146649249 -0.1486053067 0.084708794
210298740.0 -0.1489626078 0.0960579346 0.5086510389 -0.2207721324 0.5085020215 -0.2205000231 -0.1473758857 0.0867387308
215298710.0 -0.1483658707 0.0977818348 0.5064771366 -0.2268326191 0.5060329765 -0.227070151 -0.1473248287 0.0878944916
220298680.0 -0.147035674 0.0990222078 0.5037253388 -0.2324566019 0.5037458167 -0.2327194382 -0.1467912037 0.0889657674
225298650.0 -0.146178059 0.1004965042 0.5009706901 -0.2388550932 0.5016407948 -0.2384658362 -0.1462863788 0.089764841
230298620.0 -0.1451877914 0.1022488697 0.4992744584 -0.2440406071 0.4993754419 -0.244117165 -0.1458044393 0.0909494906
235298590.0 -0.1440182191 0.1038161315 0.4960206225 -0.2502438793 0.4962724594 -0.2497540892 -0.1448354589 0.092182187
240298560.0 -0.1433220092 0.1050484733 0.4937579679 -0.2560084857 0.4934906266 -0.2558470526 -0.143804058 0.0937615627
245298530.0 -0.1422283875 0.106298761 0.4911966833 -0.2615790604 0.490771786 -0.2617848235 -0.1429333055 0.0944951776
250298500.0 -0.141024515 0.1082059752 0.4873248978 -0.2673385549 0.4873526046 -0.2667598489 -0.1424693107 0.095767828
255298470.0 -0.1399377122 0.1091342507 0.4842944158 -0.2724405918 0.484748621 -0.2725391394 -0.1414588427 0.0967686277
260298440.0 -0.139302183 0.1105977005 0.481905357 -0.2782345747 0.4823721799 -0.2779718546 -0.1404581402 0.0981812046
265298410.0 -0.1373313273 0.1125990228 0.4787868574 -0.2840088151 0.4791256772 -0.2834744711 -0.1400018459 0.0993596417
270298380.0 -0.1366060481 0.1136821314 0.4759652711 -0.2888291747 0.4759676898 -0.2891461989 -0.1388260711 0.1005817944
275298350.0 -0.1353425471 0.1152756564 0.4727048553 -0.2949306872 0.4728598256 -0.2943022587 -0.1378032755 0.101586952
280298320.0 -0.1339230223 0.1170125859 0.46971435 -0.3006091394 0.4694647587 -0.2997196793 -0.1366715259 0.1030244074
285298290.0 -0.1329413972 0.1184613917 0.4662917902 -0.3053126245 0.4661892272 -0.3055237449 -0.1359385914 0.1039327112
290298260.0 -0.1314379107 0.1196653067 0.462708643 -0.3108846941 0.4626856133 -0.3105479237 -0.1347074236 0.1059451421
295298230.0 -0.1302377402 0.1209840955 0.4597990496 -0.3159562295 0.4594946067 -0.3158390485 -0.1334545113 0.1064950021
300298200.0 -0.129164768 0.1222975023 0.456548012 -0.3207597938 0.4565255343 -0.3213924909 -0.1328490955 0.1080213308
305298170.0 -0.1277419546 0.1235487004 0.4527750801 -0.3265047792 0.4530404469 -0.3263102822 -0.1310792666 0.1089074638
310298140.0 -0.1266098202 0.1252093751 0.4490612185 -0.331897079 0.4493213127 -0.3312891354 -0.1303925438 0.1105496227
315298110.0 -0.1254247423 0.1263579386 0.445662254 -0.3366894422 0.4460550754 -0.3367765564 -0.1295805052 0.1113223446
320298080.0 -0.1236332648 0.1276849196 0.4411036281 -0.3422802592 0.4416040938 -0.3419298922 -0.1284402727 0.11268655
325298050.0 -0.1227017709 0.1288205719 0.4380730508 -0.3471915974 0.4376747965 -0.3468330806 -0.1280236113 0.1137112443
330298020.0 -0.1212672715 0.1300850843 0.4335618596 -0.352295848 0.4339849863 -0.3521388348 -0.1268599568 0.1152780688
335297990.0 -0.1198167069 0.1310990599 0.4299076899 -0.3565992061 0.4294675877 -0.3567397747 -0.1259357436 0.1170144814
340297960.0 -0.1192129111 0.1330334403 0.4254342815 -0.3615685986 0.4251498598 -0.3618292494 -0.1246390844 0.1179641183
345297930.0 -0.1177009841 0.1345281634 0.4213313542 -0.3662797723 0.4214633044 -0.3666824036 -0.1241908304 0.1193236466
350297900.0 -0.1165405657 0.1355664663 0.4169189863 -0.3712349521 0.4170918026 -0.3712278697 -0.123312295 0.1211574335
355297870.0 -0.1149987834 0.1375206525 0.4128173727 -0.3753636502 0.4134729775 -0.3752448038 -0.1224590386 0.1223294084
360297840.0 -0.113783874 0.1386826739 0.4093758459 -0.3795235857 0.4093845676 -0.3797689312 -0.1212240762 0.123683248
365297810.0 -0.1125309589 0.1400255615 0.4046569093 -0.3846094209 0.4050561257 -0.3848594 -0.1198823796 0.124820722
370297780.0 -0.1106328284 0.1415353788 0.4007275209 -0.3888657195 0.4011227006 -0.3884268139 -0.1190106753 0.1263027487
375297750.0 -0.1091418695 0.1429292529 0.3966093325 -0.3934249953 0.3967759235 -0.3930423115 -0.1178336505 0.1275134472
380297720.0 -0.10769293 0.1441697459 0.3920217279 -0.3977842093 0.3921679605 -0.397111123 -0.1173980313 0.1288159385
385297690.0 -0.1064437589 0.1453926499 0.3872709992 -0.4016220205 0.3871620829 -0.4017473683 -0.1156806625 0.1300310088
390297660.0 -0.1048046859 0.1471495168 0.3833074717 -0.4061179611 0.3830826526 -0.4057110825 -0.1149238713 0.1312061861
395297630.0 -0.1031815917 0.1483510223 0.3792716895 -0.4105032299 0.3789597563 -0.4104416428 -0.1129677514 0.132681586
400297600.0 -0.101681366 0.1497296201 0.3738898166 -0.4152572357 0.3740757368 -0.4148449961 -0.112225577 0.1340371604
405297570.0 -0.1001307412 0.1508258636 0.369289668 -0.418245859 0.3696681058 -0.4183397531 -0.1114462452 0.1351311935
410297540.0 -0.098343473 0.1521873206 0.3650059019 -0.4226244447 0.3653776848 -0.4226965783 -0.1101745485 0.1364080229
415297510.0 -0.0964266912 0.1529828462 0.360136059 -0.4271938551 0.3604699582 -0.4267638819 -0.1089331416 0.137488942
420297480.0 -0.0950674294 0.1548380689 0.3558215153 -0.4307595023 0.3553604251 -0.4305019336 -0.1075232966 0.1382422651
425297450.0 -0.0933774481 0.1552633116 0.3508549105 -0.4345073592 0.3509846284 -0.4346047475 -0.1064564398 0.1402420855
430297420.0 -0.0916306594 0.1568415945 0.3458138614 -0.4374762214 0.346243434 -0.4380524886 -0.1053379794 0.1408296622
435297390.0 -0.0900709463 0.1577787753 0.3407416843 -0.4417685202 0.341079023 -0.4422336905 -0.1035239365 0.1420339386
440297360.0 -0.0883374785 0.1589672234 0.3363865089 -0.4453965393 0.3365789371 -0.4453731529 -0.1024148096 0.1428493758
445297330.0 -0.0868295973 0.1599899023 0.3317675598 -0.4489312304 0.3314199774 -0.4490323397 -0.100757838 0.1439260158
450297300.0 -0.0847716762 0.1611062952 0.3268269572 -0.4529933721 0.3267624415 -0.4534117607 -0.0995042308 0.1447049256
455297270.0 -0.0828571366 0.162222134 0.3209097402 -0.456368061 0.3219841 -0.4563076699 -0.0980985822 0.1456417003
460297240.0 -0.0814862504 0.163061239 0.3164541751 -0.4599179266 0.3163845939 -0.4598398928 -0.0965422098 0.1470487123
465297210.0 -0.0794749223 0.1643017883 0.311702888 -0.4631687552 0.3118273427 -0.4637797661 -0.0950812365 0.1476488465
470297180.0 -0.0777230906 0.1650787077 0.3059231515 -0.4668637961 0.3066160328 -0.466714223 -0.093877819 0.1493296512
475297150.0 -0.0761571115 0.1658921031 0.3011463963 -0.4698940491 0.3012443613 -0.4694350401 -0.0920230107 0.149631793
480297120.0 -0.0742860575 0.1674196719 0.2962004261 -0.4732136677 0.2961276596 -0.4734282246 -0.0905251664 0.1510267874
485297090.0 -0.0723256568 0.1682825303 0.2908780078 -0.4761515316 0.2911916185 -0.4759822636 -0.0886948286 0.1523225077
490297060.0 -0.0709387321 0.1689951657 0.2860117842 -0.4796313207 0.2859199525 -0.4793978682 -0.0874618541 0.153420343
495297030.0 -0.0690093024 0.1697952566 0.2804586435 -0.4824009558 0.2811309372 -0.4823289217 -0.0862972636 0.1543880719
500297000.0 -0.066781692 0.1711566327 0.2749640018 -0.4851905188 0.2749681773 -0.4853217514 -0.0840773715 0.1558489496
505296970.0 -0.064912598 0.1716736895 0.270023368 -0.4881301349 0.2697159726 -0.4885489704 -0.0832550681 0.1563060716
510296940.0 -0.0629563053 0.1726481077 0.2644728654 -0.4914279985 0.2645675582 -0.4916814642 -0.0812799455 0.1576473222
515296910.0 -0.0613224967 0.1733391069 0.2589328826 -0.4942125034 0.2591969239 -0.4941512506 -0.0798985106 0.1584526536
520296880.0 -0.0593254411 0.1743394399 0.2538807212 -0.4972512721 0.2539205776 -0.4967862337 -0.0786542095 0.1593247162
525296850.0 -0.0572120019 0.1745580094 0.2481142024 -0.4996111908 0.2485233577 -0.4993753441 -0.0769044907 0.1605176149
530296820.0 -0.0555297692 0.1757349991 0.242590082 -0.5026302947 0.2427781529 -0.5019194882 -0.0753876291 0.1614412611
535296790.0 -0.0538716293 0.1767091328 0.2378947626 -0.5049621532 0.2378241219 -0.5044341154 -0.0742832357 0.161838021
540296760.0 -0.0518935436 0.1774981429 0.2321419939 -0.5077318177 0.2315613794 -0.5076437511 -0.0725210137 0.1634258273
545296730.0 -0.0498467785 0.1781027534 0.2259884269 -0.5097816089 0.2265299442 -0.5097825146 -0.0713666827 0.1640325933
550296700.0 -0.0475188837 0.1789594039 0.2203014817 -0.5124599411 0.2210641385 -0.5126257975 -0.0700579071 0.1651788694
555296670.0 -0.0457886454 0.179132358 0.2153688375 -0.5145498249 0.2154486116 -0.5145691384 -0.0682389731 0.1659963866
560296640.0 -0.0434529063 0.1805577957 0.20938368 -0.5174138569 0.2095596614 -0.5170345276 -0.0664761855 0.1665270551
565296610.0 -0.0420297361 0.1809250169 0.2038376896 -0.5192213609 0.2041423941 -0.5193237259 -0.0648895012 0.1669592697
570296580.0 -0.0400108938 0.1815184485 0.1983254443 -0.5217981159 0.1979535301 -0.5214206486 -0.0638649521 0.1685525248
575296550.0 -0.0379664185 0.1822079068 0.1925769531 -0.5240343061 0.1927424608 -0.5233062822 -0.0615823276 0.1690281195
580296520.0 -0.0358333839 0.1826265042 0.1866369638 -0.5255425818 0.1869284058 -0.525455293 -0.0601490826 0.1695770739
585296490.0 -0.0339902181 0.1829194162 0.1813420234 -0.5272088186 0.181338875 -0.5274730982 -0.0587176669 0.1702578438
590296460.0 -0.0319177365 0.1834985089 0.1758207643 -0.5290621897 0.1756893426 -0.5291591114 -0.0574937699 0.1711312394
595296430.0 -0.0295009573 0.1841132537 0.1694008921 -0.5317016939 0.1696534677 -0.5309732718 -0.055431126 0.1712389375
600296400.0 -0.027882044 0.184586307 0.1635917478 -0.5331924112 0.1639254869 -0.5325406519 -0.0539624979 0.1719587607
605296370.0 -0.0258895196 0.1849405841 0.1580179572 -0.5348761652 0.1584953183 -0.5344024603 -0.0521648732 0.1728048366
610296340.0 -0.0237033021 0.1854336224 0.1518912993 -0.5363488937 0.1525766312 -0.5362703202 -0.0502380287 0.1733212005
615296310.0 -0.0215877774 0.1853035992 0.1462738026 -0.5373275768 0.1462462706 -0.5383866807 -0.0481564226 0.1736565843
620296280.0 -0.0194846182 0.1858296207 0.1404081956 -0.539290419 0.1406682265 -0.5390132396 -0.0471144137 0.1745294511
625296250.0 -0.0178734166 0.1858743894 0.1351037844 -0.540873138 0.1344983128 -0.5411241579 -0.0448357077 0.1751313441
630296220.0 -0.0148779737 0.186614753 0.1285378398 -0.5423301245 0.1288703669 -0.5417235059 -0.043462412 0.1755951759
635296190.0 -0.013855665 0.1867653716 0.123027036 -0.5435853692 0.1232004712 -0.5438014013 -0.0414898296 0.1760389319
640296160.0 -0.0115115659 0.1872210079 0.1171477673 -0.5447997514 0.1174494501 -0.5449182334 -0.0397260893 0.1768316392
645296130.0 -0.0092964462 0.1873805006 0.1110619201 -0.545753864 0.1115173648 -0.5461575016 -0.0375745344 0.1772218987
650296100.0 -0.0072618943 0.1876656522 0.1052084739 -0.5469444715 0.1056715785 -0.5470032838 -0.035805492 0.1771852159
655296070.0 -0.0054549342 0.1876750482 0.0995892403 -0.548457335 0.0997689906 -0.5483253582 -0.0342910542 0.1782219844
660296040.0 -0.0034726876 0.1877339798 0.0933469912 -0.54934462 0.0938986339 -0.5494836769 -0.032345576 0.1787395022
665296010.0 -0.0009805544 0.188141717 0.0872695917 -0.5501110591 0.0875387008 -0.5502485713 -0.0304541194 0.1794991947
670295980.0 0.000106738 0.1882346946 0.0819997333 -0.550896194 0.0817485039 -0.5509320751 -0.029387481 0.1800880425
675295950.0 0.0027584021 0.1882669497 0.0759737472 -0.5516775904 0.0760283856 -0.5513605015 -0.0276150921 0.1805354565
680295920.0 0.0046047538 0.1882901853 0.0695936096 -0.5521308398 0.0692551621 -0.5527543919 -0.0256886945 0.1811165655
685295890.0 0.0071652833 0.1890212438 0.0636585787 -0.5532492425 0.063727089 -0.5534180942 -0.0239299407 0.1815267582
690295860.0 0.0092137835 0.1887969459 0.0576417766 -0.5535142211 0.0574638072 -0.5542559602 -0.0220091626 0.1825484277
695295830.0 0.0111281738 0.1885850634 0.0521261755 -0.5541039413 0.0514388186 -0.5543462048 -0.0204003394 0.182342277
700295800.0 0.0131139642 0.1885477929 0.0454812246 -0.554606877 0.0456481754 -0.5546753712 -0.0187127285 0.1835580038
705295770.0 0.0151517298 0.1893829049 0.0397424502 -0.5554903649 0.0403134961 -0.5553733815 -0.0170065227 0.1840134474
710295740.0 0.0176823201 0.1888605103 0.0344207975 -0.5560594383 0.0341314679 -0.555698616 -0.0153017197 0.1834597817
715295710.0 0.0190437444 0.1887719491 0.0284364796 -0.5558901716 0.0276914093 -0.5561261777 -0.0130694886 0.1842760098
720295680.0 0.0215596967 0.1888263117 0.0221295632 -0.5566559389 0.0221439931 -0.5564455585 -0.0114505554 0.1846690787
725295650.0 0.0238107264 0.1886532437 0.0154624589 -0.5563004918 0.0156511035 -0.5566159115 -0.0100800365 0.1850649297
730295620.0 0.0260272195 0.1885205056 0.0095270004 -0.5564000966 0.0099341446 -0.5567941637 -0.0088848812 0.185048744
735295590.0 0.0279127474 0.1885869834 0.0041141911 -0.5567163876 0.0038725485 -0.5565808737 -0.0068851335 0.1851191592
740295560.0 0.0296944549 0.1883768415 -0.0022941939 -0.556660448 -0.0022100857 -0.5565140413 -0.0045684553 0.1853965545
745295530.0 0.0317377008 0.1885478519 -0.0083895127 -0.5562107153 -0.0082027463 -0.5563433713 -0.0029004562 0.1853172778
750295500.0 0.034008958 0.1878220388 -0.0140017586 -0.5560126424 -0.0142461491 -0.556438617 -0.0013554945 0.1858228597
755295470.0 0.0362713541 0.1873679816 -0.0200464325 -0.5557159454 -0.0203835953 -0.5562675746 0.0010129218 0.1855453854
760295440.0 0.0379427886 0.1874837554 -0.0256469237 -0.555989664 -0.026152639 -0.5561203336 0.002316855 0.1853783891
765295410.0 0.0399090743 0.1870862776 -0.0320215049 -0.5553455543 -0.0326781437 -0.555682652 0.0041246983 0.1859298943
770295380.0 0.0417911074 0.1865131788 -0.0383344257 -0.555364533 -0.0383585044 -0.5551365649 0.0058370096 0.185862238
775295350.0 0.044072266 0.186097058 -0.0444869829 -0.5540318926 -0.0440183252 -0.5545719188 0.0071501901 0.1860343328
780295320.0 0.0465834611 0.1859185527 -0.0505955038 -0.5534307379 -0.0496468271 -0.5538626701 0.0091530912 0.1854374266
785295290.0 0.0478164708 0.1851176865 -0.0566251251 -0.5529220236 -0.0558577143 -0.5536201908 0.0116541302 0.185880776
790295260.0 0.0506780138 0.185512821 -0.0619067083 -0.5528835389 -0.0611578064 -0.5526211002 0.0134149841 0.1858962641
795295230.0 0.0525441289 0.1846510065 -0.0680968668 -0.5517875238 -0.067462072 -0.5520792684 0.0154236988 0.1860661843
800295200.0 0.0540460584 0.1844268277 -0.0745744416 -0.5509173013 -0.0736234799 -0.5512906426 0.0172865386 0.1857065683
805295170.0 0.0563841949 0.1836929721 -0.0799535671 -0.550096416 -0.0799928878 -0.5504857769 0.0189599641 0.1858994002
810295140.0 0.058056395 0.1829591887 -0.0853082182 -0.5486322462 -0.085840603 -0.5495953539 0.0212172864 0.1858704614
815295110.0 0.0604032049 0.1823180716 -0.0916993948 -0.5482212212 -0.0913060713 -0.548502999 0.0230615562 0.1858159349
820295080.0 0.0619497455 0.1825513716 -0.0975092305 -0.5472446257 -0.0970542121 -0.5472603402 0.0244959687 0.1859490538
825295050.0 0.0648244962 0.1816565266 -0.1031286533 -0.5459882336 -0.1033647064 -0.5463187571 0.0266518091 0.1855626373
830295020.0 0.0663519569 0.1813400662 -0.1092016906 -0.5446722018 -0.1092857463 -0.5447736152 0.0290791657 0.185722496
