!Created with skrf (http://scikit-rf.org).
# Hz S RI R 50.0 
!freq ReS11 ImS11 ReS21 ImS21 ReS12 ImS12 ReS22 ImS22
300000.0 -0.7755214832 -0.1401441424 -0.0024138496 0.0012104137 0.000660016 0.0011702315 -0.0473420595 -0.0687118525
5299970.0 -0.7851581197 -0.0070983255 3.73545e-05 0.000333985 0.0001825046 4.65717e-05 -0.0495637402 0.0146168296
10299940.0 -0.7873257184 -0.0043195537 0.0001800476 8.15363e-05 -0.0001301487 -1.28584e-05 -0.0440951971 0.0321166353
15299910.0 -0.7934950264 -0.0014476326 0.0003129388 -5.74542e-05 6.141e-05 0.0001031426 -0.0355912867 0.0463896829
20299880.0 -0.7996569623 0.0028095473 -1.51961e-05 -5.81336e-05 -4.35482e-05 -1.51931e-05 -0.0261033137 0.0583442864
25299850.0 -0.8065090575 0.0081757769 0.0001137642 5.8792e-05 -1.71698e-05 4.51346e-05 -0.0150788485 0.0675473084
30299820.0 -0.8118974201 0.0163224943 -8.6694e-06 -0.0001050338 0.0001017523 -3.15855e-05 -0.0038052526 0.0744623037
35299790.0 -0.8165539509 0.02540433 0.00014477 3.56594e-05 7.14787e-05 -7.6686e-06 0.0075066402 0.07929849
40299760.0 -0.8211875862 0.0340642843 -9.674e-05 -5.9307e-06 -3.46609e-05 -3.42738e-05 0.0187110763 0.0824005125
45299730.0 -0.8248261336 0.0443972507 6.03299e-05 0.0001723611 0.0001391386 -2.84478e-05 0.0292927621 0.0839595956
50299700.0 -0.8268300059 0.0543211096 6.20171e-05 0.0001734478 2.2057e-05 9.0784e-06 0.0397013081 0.0843763408
55299670.0 -0.8287226155 0.0645363986 0.000215465 0.0001584776 -0.0001508671 -9.85953e-05 0.0482863613 0.0833336689
60299640.0 -0.8299143604 0.0744844072 4.93524e-05 0.0001259953 0.0001729809 -3.7991e-05 0.0570757584 0.0815064359
65299610.0 -0.830919809 0.0847431346 -0.000153354 0.0001032141 9.63842e-05 -2.98147e-05 0.064628619 0.0791955985
70299580.0 -0.8312290124 0.0947346006 3.95968e-05 -9.03779e-05 1.90295e-05 8.99366e-05 0.0716096649 0.076429987
75299550.0 -0.831435436 0.1046078608 -4.07768e-05 0.0001164243 3.6957e-05 -0.0001040941 0.0780157756 0.0735000945
80299520.0 -0.8314569888 0.114467309 4.80455e-05 0.0001051496 -0.0001274753 6.9019e-05 0.0833297946 0.0703135333
85299490.0 -0.8307107778 0.1240673249 0.0001538932 -8.96288e-05 -3.8776e-05 -3.47357e-05 0.0887165173 0.0665330174
90299460.0 -0.8296139772 0.1345408013 0.0001544732 -6.23068e-05 3.9886e-06 4.5222e-06 0.0936018718 0.0629176679
95299430.0 -0.8290376982 0.1432798616 -5.49741e-05 -2.86635e-05 -9.19771e-05 7.28308e-05 0.0975723278 0.0590838948
100299400.0 -0.828240211 0.1525997226 -6.7683e-05 8.41673e-05 1.70557e-05 0.0001260225 0.1010684736 0.0554422516
105299370.0 -0.8264273016 0.1620289443 0.0002439596 0.0003581623 -5.94386e-05 0.0001441445 0.1047252721 0.051016186
110299340.0 -0.825451964 0.1708661776 1.27535e-05 0.0001469698 0.0001392446 5.8016e-06 0.1071706965 0.0475658664
115299310.0 -0.8234323265 0.180647084 -9.97545e-05 5.96435e-05 -5.69605e-05 1.172e-07 0.1100350413 0.043645307
120299280.0 -0.8223127368 0.189691795 8.54668e-05 0.0003145106 -1.73179e-05 -6.00454e-05 0.1122450533 0.0399451235
125299250.0 -0.8204701059 0.1984404684 2.99423e-05 -2.50223e-05 1.4657e-06 -1.2182e-06 0.1143859839 0.0360199215
130299220.0 -0.8183226459 0.2078421744 9.75787e-05 6.06835e-05 6.57756e-05 7.99687e-05 0.1159246137 0.0327741217
135299190.0 -0.8165367596 0.2164605874 0.0002194261 2.38607e-05 0.000130409 0.0002220663 0.117449637 0.0288730334
140299160.0 -0.8146666657 0.2256538974 -2.2538e-05 0.0001287715 2.21659e-05 2.34189e-05 0.1189966409 0.0254500194
145299130.0 -0.8122119379 0.2341413989 0.0002197414 9.13542e-05 -0.000111133 -3.64827e-05 0.1196076421 0.0220800751
150299100.0 -0.8099810964 0.2429159632 3.60329e-05 4.81005e-05 8.33506e-05 0.0004033549 0.1209777565 0.018471066
155299070.0 -0.8075261434 0.2521769012 1.4568e-06 7.85685e-05 2.0295e-05 7.1528e-06 0.1217200078 0.0153622162
160299040.0 -0.8049953523 0.2612822774 0.0001525655 -2.48707e-05 0.0001551901 8.28293e-05 0.1223235779 0.0124798635
165299010.0 -0.8019400845 0.2689024407 4.20167e-05 0.00013498 -2.93858e-05 6.1673e-05 0.1232384922 0.0091115742
170298980.0 -0.7995127825 0.2780797842 3.18026e-05 5.76649e-05 -6.22406e-05 6.11454e-05 0.1236618355 0.0061019498
175298950.0 -0.7971179424 0.2873099462 -3.20911e-05 2.11594e-05 -7.48537e-05 0.0001731783 0.1238743031 0.0027520402
180298920.0 -0.7935357251 0.2948331801 0.0002373232 0.0001302557 0.0001719467 2.55005e-05 0.1243345007 0.0001106038
185298890.0 -0.790515363 0.3042911811 5.25467e-05 0.0002808569 0.0001125911 0.000181722 0.1241280863 -0.0029949629
190298860.0 -0.787275791 0.3124497067 0.0002661938 0.0001213802 0.0001742972 0.0001980604 0.1247746469 -0.0055752332
195298830.0 -0.7837668444 0.3208222613 0.0001327397 -0.0001139907 0.0001790926 0.0001749202 0.124465601 -0.0084013237
200298800.0 -0.7807139645 0.3293847811 -8.45368e-05 0.0001474269 0.0001577208 0.000160186 0.1249047277 -0.0111662037
205298770.0 -0.7774142849 0.3371125389 1.78773e-05 0.000179031 7.95561e-05 0.0001515014 0.1242940416 -0.013778886
210298740.0 -0.7737110128 0.3457830929 5.31206e-05 0.0002025811 0.0002341911 0.0001535101 0.1241412103 -0.016145987
215298710.0 -0.7702562837 0.3541951511 0.0004519374 -2.92421e-05 4.983e-06 0.0002984034 0.1234155111 -0.018307556
220298680.0 -0.7668142453 0.3619745859 0.0002073729 2.72923e-05 -6.86944e-05 7.49536e-05 0.1235116363 -0.0209702768
225298650.0 -0.7629633426 0.3710948192 0.0001872708 8.20218e-05 0.0001020707 0.0001433154 0.1230723694 -0.0231202793
230298620.0 -0.758847086 0.378643328 0.0001037552 1.94683e-05 0.0002162619 -1.7215e-05 0.1228312476 -0.02577036
235298590.0 -0.7546870609 0.3870622062 -3.24095e-05 0.0001014123 0.0001072561 0.0002064712 0.1221658871 -0.027944189
240298560.0 -0.7508983906 0.3949972889 0.0002380292 3.37509e-05 0.0001000169 0.000141183 0.1217735521 -0.0304372573
245298530.0 -0.7464841087 0.4032810053 0.0002508351 6.02859e-05 0.0001710341 -0.0001770958 0.1211785283 -0.0323714531
250298500.0 -0.7424989565 0.4111328094 2.28177e-05 0.0001351549 -2.98265e-05 0.0001939786 0.1208393097 -0.0341909136
255298470.0 -0.7377801755 0.4185952589 4.51828e-05 0.0002059483 3.18684e-05 9.55252e-05 0.1200363132 -0.0367069177
260298440.0 -0.7338275686 0.4260475614 0.0001655468 8.0965e-05 0.0001864467 0.0003321878 0.1194363026 -0.0385697881
265298410.0 -0.7289000065 0.4339624564 0.0001378091 6.895e-07 0.0002257982 -4.63496e-05 0.1188886769 -0.0405333682
270298380.0 -0.7246475697 0.4417287605 1.86205e-05 0.0001517133 -7.01997e-05 0.0002520212 0.1185037542 -0.0428479545
275298350.0 -0.7195374401 0.4488905535 8.75923e-05 -1.12614e-05 0.0001654292 0.0001468405 0.1174284644 -0.0443756003
280298320.0 -0.7155557233 0.4565941062 0.0001149267 0.0004146227 0.0002386018 0.0001350779 0.1170406794 -0.0461316127
285298290.0 -0.7106188041 0.4646681736 0.0002527419 0.0001379967 0.0001400005 0.0001408005 0.1159427493 -0.0477775724
290298260.0 -0.7055962519 0.4713384863 9.24273e-05 0.0002817672 0.0001039247 3.27169e-05 0.1154264578 -0.0498610412
295298230.0 -0.6999710398 0.4792575072 0.0002011077 0.0001084044 7.27478e-05 9.48162e-05 0.1146613445 -0.0514539959
300298200.0 -0.6950261867 0.4866467465 0.000178177 0.0001199238 0.0003334742 0.0001049309 0.113700743 -0.0532850852
305298170.0 -0.6899297363 0.4944264411 0.0002675941 4.79234e-05 0.0001715159 0.0001925115 0.1134316181 -0.0548204323
310298140.0 -0.6846397826 0.5007783729 9.1881e-05 0.0001014476 -0.000130122 6.01e-06 0.1123806616 -0.056559079
315298110.0 -0.6795961959 0.5077234961 0.0001876144 0.0001541935 -0.0001231494 0.0003482729 0.1118319102 -0.0587043583
320298080.0 -0.67460873 0.5154317575 0.0002752044 0.0001118979 9.31266e-05 -8.36524e-05 0.1106922451 -0.0603963891
325298050.0 -0.6684572255 0.522193634 0.0001010072 6.30866e-05 0.0003422895 0.0001806284 0.109736771 -0.0622158937
330298020.0 -0.662972883 0.5292633732 0.0001383258 0.0001982955 0.0001930314 1.151e-05 0.1084526359 -0.0638872292
335297990.0 -0.6568574371 0.536152313 7.72304e-05 0.0002490629 0.0002007748 0.0002025405 0.107129858 -0.0651822824
340297960.0 -0.6524962528 0.5427468849 0.0002126435 0.0001441405 9.69297e-05 0.0002028901 0.1064550768 -0.06688691
345297930.0 -0.6462679005 0.5486952265 0.0003611498 0.0002054051 0.0001733345 0.0002209486 0.1051198133 -0.0679106116
350297900.0 -0.6404950157 0.5560298263 0.0002849956 2.01877e-05 0.0001881208 9.79336e-05 0.10400608 -0.0693429091
355297870.0 -0.6342937386 0.5624577007 0.0002873297 0.0001684227 0.0002744736 0.0001026093 0.1027296362 -0.0704673703
360297840.0 -0.6282067392 0.5685278276 0.0002944186 0.0001177902 0.0002177965 0.0002649171 0.1015722244 -0.0717589444
365297810.0 -0.6221321076 0.5753462894 0.0001723094 1.673e-06 0.000126195 0.000232765 0.1003225143 -0.0731509482
370297780.0 -0.6161036032 0.5815088301 0.0001843117 0.000170749 0.0002479518 0.0001867049 0.0993027661 -0.0742863012
375297750.0 -0.6102169802 0.5881391197 0.0001472459 0.0002691479 0.0001067409 0.0002114145 0.0982087013 -0.0751397219
380297720.0 -0.6039111138 0.594884812 0.0003183799 9.71453e-05 0.0003190251 0.0001358009 0.0970769847 -0.0765715675
385297690.0 -0.5976680961 0.6007837158 0.0002858193 0.0001531994 0.0002459114 0.000192996 0.0956923695 -0.0772036412
390297660.0 -0.5913979001 0.6072765213 0.0002548571 0.0001813524 -6.74117e-05 7.66096e-05 0.094667247 -0.078605708
395297630.0 -0.585112441 0.612989577 0.00014439 0.0002570748 0.0003772127 4.63543e-05 0.0931159309 -0.0796443918
400297600.0 -0.5793549165 0.619322967 0.0003100813 0.0002356008 0.0001986766 0.0002470944 0.0918726847 -0.0808023424
405297570.0 -0.5728733122 0.6250723846 0.0002088958 5.37322e-05 0.0001898075 4.80364e-05 0.0909410462 -0.0814527102
410297540.0 -0.5656234862 0.6307912221 5.9339e-06 -1.85451e-05 0.0001657692 0.0003027825 0.0894991948 -0.0828098787
415297510.0 -0.5587324648 0.6362779365 0.0003609504 6.48466e-05 6.98682e-05 6.82878e-05 0.088400349 -0.083671268
420297480.0 -0.5518025883 0.6418938839 0.000340081 0.0002204777 -4.33681e-05 0.0001943752 0.0870051266 -0.0843678951
425297450.0 -0.5461032053 0.6478623057 0.0004379587 0.0001468801 8.40776e-05 0.0002716337 0.0858247363 -0.0854944501
430297420.0 -0.5395724477 0.6533423523 0.0003899283 9.10717e-05 0.0001958691 0.0001655362 0.084366043 -0.0864835652
435297390.0 -0.5319368804 0.6591657141 1.78748e-05 9.04305e-05 0.0003121162 0.0002236095 0.0832462774 -0.0873565719
440297360.0 -0.5254673892 0.6641342957 0.0002294277 -4.97064e-05 0.0001765116 0.0002225343 0.0818822432 -0.0881410293
445297330.0 -0.5184085395 0.6698305968 0.0004635628 8.4235e-06 0.000187287 -2.81705e-05 0.080562635 -0.0891091732
450297300.0 -0.5112715258 0.6746305132 0.0001856659 0.0003868792 0.0001464182 6.73152e-05 0.0792351867 -0.0899855322
455297270.0 -0.5040285732 0.6796843438 0.0002200638 8.50447e-05 0.0003068778 -7.8379e-05 0.0779316432 -0.0907985721
460297240.0 -0.4980094078 0.6851276182 0.0003218023 0.0003487475 0.0001647186 -2.89577e-05 0.0770269872 -0.0911448078
465297210.0 -0.4900334159 0.6907155411 0.0002555393 -4.49533e-05 0.0002403689 0.0002660247 0.0751282761 -0.0924151179
470297180.0 -0.4827200832 0.6946334749 0.0005386787 0.0002224625 0.0002811978 0.0002531046 0.0735957667 -0.0930013911
475297150.0 -0.4757974523 0.700564548 0.0003370382 2.09314e-05 0.000234439 0.000218998 0.0727779858 -0.093435706
480297120.0 -0.4690695879 0.7049435019 0.0003193984 0.0001652258 0.0001179437 0.0001157468 0.07127996 -0.094282293
485297090.0 -0.4614401366 0.7094001846 0.0002307503 0.0001753101 0.000363431 0.0001363573 0.0695451194 -0.0951339354
490297060.0 -0.454186842 0.7139910373 0.0003456684 0.0001331607 0.0002963694 0.0001362359 0.0683272515 -0.0958600777
495297030.0 -0.4471582613 0.7184525778 0.000614312 6.69844e-05 0.0002501201 -2.25573e-05 0.0670918771 -0.0965459459
500297000.0 -0.4382828794 0.7225723794 0.0002135644 9.67439e-05 0.0001864254 6.52522e-05 0.0653646097 -0.0972592818
505296970.0 -0.43184911 0.7270028917 0.0003528332 7.67383e-05 7.40403e-05 6.79148e-05 0.063760323 -0.0974698336
510296940.0 -0.4243252137 0.7325052133 0.0002283176 0.000225687 0.000259147 2.3573e-05 0.0626127526 -0.0981184264
515296910.0 -0.4173704985 0.736087351 0.0003228375 0.0003708116 0.0002455403 -2.24605e-05 0.0611205587 -0.0985189047
520296880.0 -0.4089465065 0.7406909533 0.0004213766 -5.55793e-05 0.00022994 0.000265112 0.0598360508 -0.0994818428
525296850.0 -0.4020782392 0.7446312271 0.0004055859 0.0002734186 0.0006075955 5.46363e-05 0.0583605352 -0.0999941865
530296820.0 -0.3946310175 0.748218316 0.0005001847 0.0002024898 0.0001838018 9.31716e-05 0.0565968218 -0.1002096196
535296790.0 -0.3864153156 0.7521101199 0.0004423186 0.0002070312 0.000408556 0.0004368592 0.0552207296 -0.1013017872
540296760.0 -0.3781735927 0.7560336125 0.0002954426 9.89279e-05 0.000213036 0.0001156532 0.053798298 -0.1014505307
545296730.0 -0.3709985417 0.7594758324 0.0003899098 0.0001801552 0.0002048721 4.55817e-05 0.0520615336 -0.1018641971
550296700.0 -0.3628960818 0.7638382557 0.0004740384 0.0001220576 0.0003544869 0.0001285123 0.0509825715 -0.1027093958
555296670.0 -0.3541880225 0.7669676731 0.0002427816 0.0001309791 0.0002720936 -0.0002104187 0.0493009702 -0.1027848897
560296640.0 -0.3469438187 0.7705688325 0.0003762636 -3.07381e-05 0.0004658601 0.0001689709 0.0480013931 -0.103529837
565296610.0 -0.3398099702 0.7741114495 0.0005654076 0.0001377861 0.0002918338 -7.68191e-05 0.0463410234 -0.1037879326
570296580.0 -0.3316528124 0.7773388185 0.0002133003 0.0001655946 0.0003701087 0.0001149171 0.0449602762 -0.1038680062
575296550.0 -0.3237014734 0.7805662372 0.0004005484 7.16761e-05 0.0002059658 -3.61029e-05 0.0438408561 -0.1046623431
580296520.0 -0.3160213949 0.7838185259 0.0002905273 0.0002016692 0.0003289434 3.5996e-06 0.0421301434 -0.1045754928
585296490.0 -0.3074751623 0.7864247202 0.0005363489 0.0001257195 0.0002736566 6.97168e-05 0.0404491502 -0.105488862
590296460.0 -0.2996151227 0.7894743675 0.0002663973 0.0001591699 0.0003927623 0.0003005738 0.0390745727 -0.1056672178
595296430.0 -0.2913782648 0.793384397 0.0002736381 2.15331e-05 0.0002486478 -0.0001340855 0.037685753 -0.1058392294
600296400.0 -0.2834174131 0.7958290754 0.0002763736 -7.66855e-05 0.0004636631 1.30741e-05 0.0362202359 -0.1060354678
605296370.0 -0.2752211631 0.7985510441 0.0003819583 0.0001078263 0.000539842 0.0001137246 0.0349204031 -0.1062881173
610296340.0 -0.2672376585 0.8012452655 0.000263137 0.0001847078 0.0002969099 0.0001575429 0.0331652153 -0.106273418
615296310.0 -0.259448551 0.8043135227 0.0003085161 -1.1593e-06 0.0002285372 4.56139e-05 0.0317285239 -0.106770136
620296280.0 -0.2507599019 0.8060963027 0.0004057075 -0.0001293299 0.0001507672 3.28807e-05 0.0303736415 -0.1074159799
625296250.0 -0.2428137076 0.8088383554 0.0002544841 -0.0002287486 0.0002050013 5.72257e-05 0.0288347303 -0.1070703274
630296220.0 -0.2343897303 0.8115608367 0.0006374848 8.25217e-05 0.0005960699 4.77807e-05 0.0271747513 -0.1072898129
635296190.0 -0.2266730263 0.8137749869 0.0003686969 -9.7818e-06 0.0003309177 7.2007e-06 0.0259345378 -0.1074466848
640296160.0 -0.2179539907 0.8151484299 0.0001977777 -3.21078e-05 0.0004276016 0.0001641555 0.0243981553 -0.1076223797
645296130.0 -0.2101816039 0.8176933571 0.0002624391 0.0002273525 0.0001275579 0.0001276815 0.0229310028 -0.1077671387
650296100.0 -0.2017015166 0.8201002008 0.0003996351 0.0001732985 0.0004629769 7.0995e-06 0.0211208378 -0.1075197723
655296070.0 -0.1929861084 0.8220231693 0.0004672654 -2.29001e-05 0.0003626468 1.64746e-05 0.0198851765 -0.1075738305
660296040.0 -0.1856917892 0.8243680879 0.0001740247 -9.8058e-05 0.0004443059 0.0001741621 0.0182839523 -0.1076853795
665296010.0 -0.1770951173 0.825727981 0.0003698152 0.0001583486 0.000372415 -5.26177e-05 0.0169615282 -0.1077710902
670295980.0 -0.1682664203 0.8274188727 0.0002389518 0.0001445626 0.0003217389 -0.0001425038 0.0155218084 -0.1074557469
675295950.0 -0.1596992496 0.8282974239 0.0003021982 7.34312e-05 0.0006203253 5.78471e-05 0.0141625099 -0.1075729873
680295920.0 -0.1515780055 0.8305297746 0.0002217026 0.0001073457 0.0003977748 -2.35571e-05 0.0124655656 -0.1076394499
685295890.0 -0.1430747375 0.8318425787 0.0003876708 -4.73419e-05 0.0002367915 -4.74142e-05 0.0111399671 -0.1079222463
690295860.0 -0.1343028935 0.8339295018 0.0004029073 -7.52869e-05 0.0003217073 -9.6296e-05 0.0099342092 -0.1076620884
695295830.0 -0.1261789468 0.834098043 0.0003285825 -0.0001150714 0.0006421058 -6.6954e-05 0.0082959841 -0.1072311661
700295800.0 -0.1181319951 0.835396649 0.0006120922 0.0001795873 0.0003701722 5.5581e-05 0.0069671366 -0.1073340104
705295770.0 -0.1088018045 0.8372732837 0.0004144561 -0.0001449254 0.0003773376 0.0001754933 0.0052953341 -0.10707069
710295740.0 -0.1009285143 0.8383846178 0.0004207126 -0.0001017741 0.0003616776 0.0001324988 0.0039183472 -0.1068204599
715295710.0 -0.0931721463 0.8393647686 0.0003833897 0.0001240928 0.0004238203 -7.93727e-05 0.0025366616 -0.1068988824
720295680.0 -0.08445526 0.839391626 0.0004200975 9.62158e-05 0.0001496718 0.000166116 0.0011679932 -0.1062932123
725295650.0 -0.0750307214 0.8406291025 0.0003469027 -5.98272e-05 0.00044081 5.43226e-05 -0.0001234563 -0.1065976437
730295620.0 -0.0680024639 0.8409249441 0.0003310731 -0.0001325896 0.0003830132 6.5998e-06 -0.0016292403 -0.1061304452
735295590.0 -0.0580727608 0.8417762466 0.0002805409 0.00010587 0.0005428264 -2.43872e-05 -0.0032227256 -0.105885424
740295560.0 -0.0503391293 0.8430026849 0.0006460653 2.7833e-05 0.0002561674 2.66365e-05 -0.0042294213 -0.1058077641
745295530.0 -0.0417524263 0.8421955179 0.0005646194 -0.000205558 0.0004204645 -0.0001246942 -0.0057699997 -0.1054136717
750295500.0 -0.0335023738 0.8433793391 0.0002964093 6.1888e-05 0.0005394677 -7.1747e-05 -0.0072137255 -0.1053072083
755295470.0 -0.0242528505 0.8434692126 0.0003258989 -5.48635e-05 0.0003441327 -0.000129395 -0.0088865802 -0.1047739116
760295440.0 -0.0163841943 0.8436394592 0.0004113966 -7.94693e-05 0.0002558697 -0.0001616854 -0.0103663267 -0.1047096325
765295410.0 -0.0080304845 0.8434417556 0.0003719068 -0.0001188549 0.00027065 -0.0002473789 -0.0114100112 -0.1039150142
770295380.0 0.0002038892 0.8440796663 0.0003197784 -0.0001251556 0.0003570878 -0.0001971219 -0.0126023791 -0.1036685508
775295350.0 0.0086420929 0.8438982674 0.0004459759 -0.0001248716 0.0005817954 1.52484e-05 -0.0145438873 -0.1037830622
780295320.0 0.017759468 0.8434091503 0.0004441778 0.000120429 0.0003517237 -7.63961e-05 -0.0158513644 -0.1026522117
785295290.0 0.0260724029 0.8438770566 0.000196921 -0.0001382406 0.0007688011 -6.03222e-05 -0.0171049815 -0.1023294294
790295260.0 0.0341492964 0.8428058272 0.0004022753 -0.0001631221 0.0005546548 -0.0001373907 -0.0181823534 -0.1022252541
795295230.0 0.0430208844 0.8435387878 0.0004754568 9.1422e-06 0.0006602613 -0.0001435001 -0.0199425019 -0.1012136412
800295200.0 0.0513411773 0.8426951605 0.0005770516 4.32276e-05 0.0002982354 -9.89827e-05 -0.021052586 -0.101109448
805295170.0 0.059782689 0.8420176906 0.0005115813 -5.41114e-05 0.0004393 -0.0001846197 -0.0226956734 -0.1003932488
810295140.0 0.0675847709 0.8410217564 0.0003405909 -0.0002377289 0.000440565 -0.0003143384 -0.0237837058 -0.0999341754
815295110.0 0.0768570219 0.8401278068 0.000327884 -3.20511e-05 0.0002962549 -6.73973e-05 -0.0252409934 -0.099387559
820295080.0 0.0850550547 0.8392707486 0.0004847952 -0.0001709263 0.0005674253 -0.0001134991 -0.0265687408 -0.0990400316
825295050.0 0.0935376247 0.8381788688 0.0004472151 -0.0002154755 0.0001842052 -3.84054e-05 -0.027572725 -0.0984636459
830295020.0 0.1021729816 0.8377217337 0.0004048056 8.0644e-06 0.0006454564 -0.000233898 -0.0291301718 -0.0976669176
835294990.0 0.1101917615 0.836767974 0.0004631172 -0.0002233547 0.0004240241 8.0478e-06 -0.0302644709 -0.0973489712
840294960.0 0.1185932833 0.8352459552 0.0005094516 -0.0001548471 0.0005050448 -0.0001481769 -0.0314775971 -0.0962098546
845294930.0 0.1271270862 0.8337329327 0.0003573864 -4.49475e-05 0.0002956883 -0.0001984877 -0.0329610626 -0.0958522941
850294900.0 0.1350670492 0.8328041133 0.0001063479 -0.0001789169 0.0004493383 -0.000144528 -0.0341348712 -0.0951868251
