!Created with skrf (http://scikit-rf.org).
# Hz S RI R 50.0 
!freq ReS11 ImS11 ReS21 ImS21 ReS12 ImS12 ReS22 ImS22
300000.0 -0.7739072156 -0.1341131492 -0.0023555201 -0.0003958074 0.0013344371 0.0013392315 -0.7694186677 -0.1592953269
5299970.0 -0.7851365255 -0.0067794966 -1.39228e-05 -8.61825e-05 -3.69991e-05 -0.0002835384 -0.7848613079 -0.0084400767
10299940.0 -0.7872746388 -0.0036234625 1.04439e-05 -9.03447e-05 -3.70096e-05 0.0001914801 -0.7887730055 -0.0051246104
15299910.0 -0.7932645006 -0.0014513578 -0.0001234648 0.0001025176 0.0001263116 4.8642e-05 -0.7937344026 -0.0030218788
20299880.0 -0.7994261154 0.0025632204 -9.28293e-05 4.04673e-05 -8.41004e-05 -8.17203e-05 -0.8005876384 0.0016132978
25299850.0 -0.8062840853 0.0086811654 -0.0001439116 -0.0003660218 -0.0001186305 3.77089e-05 -0.8066867444 0.0077128279
30299820.0 -0.8119412427 0.0162397477 0.0001800382 6.12519e-05 5.43099e-05 -0.00010421 -0.8127347655 0.0149180393
35299790.0 -0.8165077413 0.0252425052 -5.09403e-05 5.58042e-05 0.0002430828 6.08859e-05 -0.8184014905 0.0239298393
40299760.0 -0.8211063716 0.0343944464 -9.9541e-05 -7.40565e-05 -0.000210248 -0.0001670515 -0.8215347921 0.0331763194
45299730.0 -0.824674495 0.044367988 -8.65103e-05 -9.22562e-05 -7.83e-07 1.30547e-05 -0.8254748206 0.0426742347
50299700.0 -0.8266382934 0.054273538 -2.56095e-05 -2.14901e-05 0.0001556011 -5.10449e-05 -0.8277544045 0.05240152
55299670.0 -0.8286692318 0.064527296 3.79342e-05 -0.0003015921 -0.0003016635 0.0001612978 -0.8298188637 0.0631573919
60299640.0 -0.8299502392 0.0745186886 -9.86709e-05 -3.75872e-05 -1.13582e-05 8.86217e-05 -0.831583805 0.0732916811
65299610.0 -0.8308444933 0.08471089 3.49764e-05 9.61164e-05 1.85934e-05 3.07855e-05 -0.831404735 0.0826696507
70299580.0 -0.8313076901 0.0947331064 0.0001700879 -9.3646e-06 0.0001416988 -7.90656e-05 -0.832114108 0.092544003
75299550.0 -0.8311423918 0.1048148458 0.0001047445 0.0001769275 4.51019e-05 6.04027e-05 -0.8326367804 0.1022233655
80299520.0 -0.8310239951 0.1146785825 7.56878e-05 8.00778e-05 -3.02042e-05 6.34107e-05 -0.8324112999 0.1123793492
85299490.0 -0.8306617281 0.1244035311 -3.1728e-05 -4.59787e-05 -0.0001114837 7.90913e-05 -0.8313757418 0.12151982
90299460.0 -0.829716805 0.134120581 -7.77878e-05 -5.15135e-05 9.41132e-05 -9.30887e-05 -0.8307358259 0.1312220876
95299430.0 -0.8281202442 0.143608826 2.82169e-05 -2.7795e-05 -0.0001665259 0.0002624817 -0.8297259085 0.1411119868
100299400.0 -0.8279083571 0.1529301752 7.12453e-05 0.0001622598 1.39701e-05 7.60189e-05 -0.8288842399 0.1493892244
105299370.0 -0.8268108663 0.1621654128 0.0002336197 -0.0002026401 2.69324e-05 -2.7273e-06 -0.8277940159 0.1586220231
110299340.0 -0.8254125672 0.1709248778 -0.0001131625 -0.0001011257 -1.46385e-05 -0.0001272062 -0.8271933696 0.1684096359
115299310.0 -0.8235750985 0.1801932133 0.0001673152 -4.30877e-05 -0.0001358914 -2.38661e-05 -0.8248893921 0.1768396959
120299280.0 -0.8218520305 0.1894023725 -1.69092e-05 0.0001270812 2.63028e-05 3.9416e-06 -0.8230195185 0.1860180296
125299250.0 -0.8205471066 0.1983950034 -7.15359e-05 2.4778e-05 -0.0001304362 -2.66411e-05 -0.8219926878 0.1951707115
130299220.0 -0.818524703 0.208022511 4.07471e-05 2.68132e-05 0.0001903073 -4.48554e-05 -0.819722601 0.203858971
135299190.0 -0.8169348886 0.2170745452 -3.70638e-05 -0.0001222677 6.93774e-05 9.67123e-05 -0.8181884297 0.2122047443
140299160.0 -0.8148729399 0.2254856661 -0.0002134261 -3.0592e-05 6.47473e-05 7.74847e-05 -0.8154448269 0.2209910095
145299130.0 -0.8121323113 0.2342791909 0.0001468738 -3.70942e-05 -7.9483e-05 -0.000174088 -0.8138901222 0.2302751819
150299100.0 -0.8103847839 0.2428185599 -7.21752e-05 0.0002464121 -9.66921e-05 -0.0001715238 -0.8119310305 0.2384139896
155299070.0 -0.807859101 0.2520990517 7.7521e-06 -0.000238206 8.13913e-05 -9.38372e-05 -0.8096594515 0.2476429483
160299040.0 -0.8047784559 0.2611582423 5.11979e-05 -0.0001301307 3.13185e-05 -1.81907e-05 -0.8073963972 0.2563139328
165299010.0 -0.8018830882 0.2693977102 -3.2053e-06 9.14102e-05 0.0001107466 -2.37888e-05 -0.8047309426 0.2649128891
170298980.0 -0.7991200126 0.2778505752 0.000118097 8.75552e-05 -0.0001225673 3.60672e-05 -0.8020956715 0.2729901865
175298950.0 -0.797244677 0.2871783854 -1.6072e-06 8.94675e-05 -7.73846e-05 -4.23443e-05 -0.7988875899 0.2820398269
180298920.0 -0.793394696 0.2954955824 -0.0001036798 -5.31296e-05 5.5861e-06 -4.53119e-05 -0.7955487115 0.2905870809
185298890.0 -0.7912743568 0.3041195884 5.918e-06 -0.0001109177 8.95606e-05 -0.0001487586 -0.7932870549 0.2986114114
190298860.0 -0.7868862938 0.3120568534 -3.1416e-06 3.85439e-05 -0.0001575949 7.43558e-05 -0.7896182674 0.3075403294
195298830.0 -0.783504791 0.320608365 -0.0002183684 0.0001579271 -3.3955e-05 2.95613e-05 -0.7869329532 0.3157178488
200298800.0 -0.780884589 0.3293596394 -7.70119e-05 -0.0001607499 -2.9353e-05 9.81575e-05 -0.7834258513 0.3238015973
205298770.0 -0.7770473318 0.3370702951 -0.0001626109 3.86026e-05 9.96919e-05 -4.7503e-06 -0.7802107761 0.332327761
210298740.0 -0.7734897198 0.345402442 1.65131e-05 6.44977e-05 -0.0001035848 0.0001494054 -0.776832095 0.3406265162
215298710.0 -0.7701323788 0.3537905831 -2.54477e-05 -0.00015558 -7.56222e-05 -1.06416e-05 -0.7731852533 0.3482238406
220298680.0 -0.7673887995 0.3624765068 -4.40242e-05 -8.70444e-05 0.0002068628 4.2802e-06 -0.7698714148 0.3570454408
225298650.0 -0.7626759858 0.3703886309 5.3063e-06 6.01271e-05 -1.2247e-05 -6.3403e-05 -0.7663705286 0.3650990114
230298620.0 -0.7585137556 0.3780316268 7.88916e-05 -6.67611e-05 2.95507e-05 3.93897e-05 -0.7619441856 0.37248433
235298590.0 -0.7546618375 0.3870324055 -0.0001281266 0.0001660635 -0.0002009115 -1.6384e-05 -0.7578185448 0.3805334573
240298560.0 -0.7509824592 0.3946900966 -8.6594e-05 0.000100674 0.0001098792 -4.79616e-05 -0.7541201708 0.3885642697
245298530.0 -0.7467209661 0.4028751132 9.84376e-05 7.00048e-05 -0.0001236017 9.44006e-05 -0.7502218857 0.3965895997
250298500.0 -0.7419855786 0.4100461516 0.000125419 -7.24973e-05 0.000261913 3.7009e-06 -0.7459605002 0.4044331503
255298470.0 -0.7373854423 0.4186553416 2.43601e-05 6.90524e-05 0.00012225 -4.12197e-05 -0.7413280325 0.4124633421
260298440.0 -0.7334316614 0.4259629871 -9.07949e-05 0.0001938439 1.4637e-06 7.69629e-05 -0.7372001455 0.4202038279
265298410.0 -0.7291740806 0.4336675878 -0.000109056 -1.15245e-05 -2.28771e-05 1.31467e-05 -0.7328098894 0.4275881606
270298380.0 -0.7242122509 0.4410503137 -3.31964e-05 0.0002605447 -6.19029e-05 5.40123e-05 -0.727950249 0.4354961898
275298350.0 -0.7196189422 0.4490934282 0.0003452843 -9.22569e-05 5.48802e-05 -0.0001609471 -0.7228861668 0.4433143232
280298320.0 -0.7153620215 0.4567787545 -6.07471e-05 -3.4341e-05 9.73946e-05 -1.36107e-05 -0.7185479887 0.4499682377
285298290.0 -0.7106069322 0.4647570822 -0.0002672238 0.0001847997 2.59379e-05 -1.60962e-05 -0.7136012526 0.4579861897
290298260.0 -0.7052170342 0.4718575594 -8.80504e-05 -0.0001031327 -8.1319e-05 6.19648e-05 -0.7088453737 0.4653653694
295298230.0 -0.7003937287 0.4792574511 1.63657e-05 9.2972e-05 -2.88711e-05 -2.29928e-05 -0.7039912999 0.4729978664
300298200.0 -0.6944798322 0.4863845757 0.0001850084 -7.30823e-05 -0.0001058715 -0.0001038409 -0.6990257062 0.4802142255
305298170.0 -0.6901330456 0.4941608611 -0.0001986282 -0.00013885 -6.52039e-05 -3.70498e-05 -0.6935059749 0.4879983185
310298140.0 -0.6842902895 0.5008481824 8.19899e-05 4.19595e-05 0.0001085522 4.43636e-05 -0.6890632618 0.4953502629
315298110.0 -0.6792565369 0.5074819908 -0.000226623 0.000467621 0.0001803747 7.48091e-05 -0.6836554064 0.5020562542
320298080.0 -0.6746157035 0.5154069202 -5.34558e-05 -9.07689e-05 -0.0001003946 -8.65093e-05 -0.678254668 0.5092398166
325298050.0 -0.6689358469 0.5217055976 -0.0001781983 -0.0001150386 4.68056e-05 0.0001278174 -0.6729133225 0.5164141083
330298020.0 -0.6631164993 0.5291102539 6.37667e-05 0.0001820567 -4.16738e-05 0.0001595202 -0.667011459 0.5230824458
335297990.0 -0.657204974 0.5364024893 -0.0001017483 2.12517e-05 -4.03907e-05 5.82815e-05 -0.6618711496 0.530065441
340297960.0 -0.6522961012 0.5425174096 9.97458e-05 -7.76187e-05 3.1944e-05 -2.34672e-05 -0.6556793757 0.5370682756
345297930.0 -0.6464424078 0.5488118759 0.0002439032 -0.0001423016 5.0131e-06 -0.0001213922 -0.6499878165 0.5437353598
350297900.0 -0.6404321071 0.5559742479 -0.0002011813 0.0001307492 4.2075e-05 4.04326e-05 -0.6446970943 0.5510496741
355297870.0 -0.6345329892 0.5622305068 0.0001642828 -4.0753e-06 -7.67313e-05 0.0001000286 -0.6384843489 0.5576449964
360297840.0 -0.6286206843 0.5690889823 -0.0001306457 -4.37123e-05 0.0002228434 6.702e-06 -0.6328198199 0.5639013687
365297810.0 -0.6218795136 0.5755942171 -0.0001847926 1.89701e-05 0.0001392439 -8.02792e-05 -0.626381396 0.570817862
370297780.0 -0.6158834537 0.5819589288 -4.30016e-05 -8.64645e-05 -3.86399e-05 -0.0001005699 -0.6210466761 0.5764099291
375297750.0 -0.6098513148 0.5882716148 0.0002073298 -6.04068e-05 1.85376e-05 4.08669e-05 -0.6146745706 0.5827808316
380297720.0 -0.6042132926 0.5948574679 -5.03243e-05 5.1311e-06 2.1146e-05 -0.0001570169 -0.6081707296 0.5900040448
385297690.0 -0.597867749 0.6004178105 1.35333e-05 -2.12887e-05 -0.0002087775 -0.0002913451 -0.60190236 0.5961425993
390297660.0 -0.5915637477 0.6070187639 -0.0001766695 -0.0002230849 -9.32659e-05 -0.0003792902 -0.5954279414 0.6011950792
395297630.0 -0.5853330545 0.6127286292 0.0001721656 9.15603e-05 0.0001361176 0.0002501747 -0.5894410612 0.6087025412
400297600.0 -0.5789696501 0.6188092128 -0.0001663792 -7.42851e-05 8.169e-05 -4.15958e-05 -0.5830764383 0.6136416977
405297570.0 -0.5726790295 0.625349624 -2.61285e-05 -1.36369e-05 1.1062e-05 0.0003107243 -0.5774572386 0.6198031197
410297540.0 -0.5660336366 0.6310146084 8.03093e-05 0.0001008644 -6.92812e-05 -0.0001004007 -0.5704328322 0.6254296497
415297510.0 -0.5595904822 0.6364954225 1.38834e-05 -2.73082e-05 -7.8329e-05 -9.11215e-05 -0.5640270085 0.6316648726
420297480.0 -0.5514590342 0.6418188336 0.0001375452 -9.46093e-05 -0.0001867416 8.61965e-05 -0.557498653 0.6366982594
425297450.0 -0.5464082161 0.6477528772 4.43085e-05 0.0002806454 -0.0001654793 -8.65338e-05 -0.5502303665 0.6431926595
430297420.0 -0.5397102447 0.6535159658 7.2015e-06 2.5717e-06 7.0133e-06 -2.66375e-05 -0.5445298746 0.648423962
435297390.0 -0.5319703285 0.6586523436 -7.87786e-05 -6.957e-07 3.26303e-05 -0.0001032077 -0.5370216315 0.6538818806
440297360.0 -0.5253511618 0.6641764728 5.78885e-05 1.7961e-06 -1.95591e-05 -6.34637e-05 -0.5303627762 0.6589498042
445297330.0 -0.5179972838 0.6695134197 4.1517e-06 -3.93591e-05 -0.0001042113 4.47321e-05 -0.523924934 0.6641886847
450297300.0 -0.5108799977 0.674836195 -1.96499e-05 5.00502e-05 6.67393e-05 -8.921e-06 -0.5173360999 0.6697351368
455297270.0 -0.5041299618 0.6796001694 4.57754e-05 5.35875e-05 -5.74648e-05 0.0001151362 -0.5103095559 0.6746887218
460297240.0 -0.4976310251 0.6853676651 0.0001145852 1.55951e-05 4.3103e-05 -0.0003115089 -0.5030588361 0.6802629863
465297210.0 -0.4900596268 0.6908377176 -1.72823e-05 0.0002237954 2.19696e-05 5.69456e-05 -0.4962579325 0.6847461765
470297180.0 -0.4832545317 0.6942625874 9.84425e-05 -8.44057e-05 -0.0001312139 5.1603e-06 -0.4896877636 0.6894840399
475297150.0 -0.4763189946 0.7001013012 1.74548e-05 7.29635e-05 6.28423e-05 -6.29432e-05 -0.4821616747 0.6945655811
480297120.0 -0.4690939393 0.7044194229 2.9895e-06 5.41878e-05 8.55288e-05 0.0001066533 -0.4757977951 0.6997651765
485297090.0 -0.4611403361 0.7088812361 0.0001653515 -5.80109e-05 -8.9393e-06 -7.17697e-05 -0.467968529 0.7039353101
490297060.0 -0.4542671068 0.713974145 -0.0001083215 -0.0001570561 3.24082e-05 -0.0002095587 -0.4612931847 0.7086364244
495297030.0 -0.4466365798 0.7182034004 0.0003621248 -7.0098e-06 2.34391e-05 -0.0001311377 -0.453198437 0.7126774109
500297000.0 -0.4389128486 0.723094227 4.08757e-05 -4.04978e-05 4.29136e-05 -9.49305e-05 -0.4472788974 0.717921847
505296970.0 -0.4312495308 0.7267859646 -0.0001072871 -0.0003097224 -0.0001211377 -9.59649e-05 -0.4401157537 0.7220823801
510296940.0 -0.4248099443 0.7318475646 -0.0002091522 -0.000140202 -0.0001197348 0.0001370944 -0.4321105504 0.726274247
515296910.0 -0.4170600582 0.7358780251 -0.0001669655 -0.0001020649 3.33994e-05 0.000155445 -0.424838444 0.7303815833
520296880.0 -0.4094857806 0.7402242758 0.0002011823 3.84816e-05 -2.11692e-05 3.83927e-05 -0.4180420698 0.7345681666
525296850.0 -0.4022289764 0.7451699603 -4.71841e-05 0.0001279361 -1.17363e-05 -0.0001519582 -0.4100824768 0.7396951456
530296820.0 -0.3942240725 0.7478513951 0.0001567326 -8.28296e-05 0.0002335108 0.0001577835 -0.4033939808 0.7425865457
535296790.0 -0.3856495889 0.7523345588 -1.07584e-05 -0.0002553702 8.96288e-05 6.75887e-05 -0.3958281799 0.7465673491
540296760.0 -0.3782590808 0.7562498893 9.00435e-05 -4.8596e-06 9.334e-07 0.0001387468 -0.3885420005 0.75099248
545296730.0 -0.371511004 0.7595878509 0.0001980148 0.0001798208 5.92328e-05 -9.618e-06 -0.3809012129 0.754338146
550296700.0 -0.362820821 0.7634373642 6.7001e-06 0.0001339975 -0.0001230054 7.77795e-05 -0.373090308 0.7580595746
555296670.0 -0.3551337938 0.7673947357 -4.59301e-05 -0.000122819 5.01482e-05 1.01756e-05 -0.3657631144 0.7620605247
560296640.0 -0.3471566659 0.7709611268 0.0002297804 1.64556e-05 0.0002020557 5.61831e-05 -0.3579826379 0.7654118856
565296610.0 -0.3397539032 0.7735877837 -2.50103e-05 0.000122305 -0.0001071489 9.3414e-06 -0.3506949797 0.7689240899
570296580.0 -0.332307509 0.777394512 -2.61621e-05 -6.40641e-05 -0.0001751143 9.52042e-05 -0.3430757947 0.7724378971
575296550.0 -0.3237293539 0.7798764916 3.11835e-05 -4.38011e-05 -8.71131e-05 -0.0001217767 -0.3347343699 0.7762578955
580296520.0 -0.3160503962 0.7833204277 2.684e-05 -1.18445e-05 1.82913e-05 -0.0001407839 -0.3275010262 0.7790089747
585296490.0 -0.3079569957 0.7863910972 6.47705e-05 1.11428e-05 0.0001619467 0.0001576776 -0.3195127568 0.7823990221
590296460.0 -0.2995947732 0.7893997201 -0.000125472 0.0001142422 -0.0001040512 0.0001300714 -0.3119251671 0.7852223937
595296430.0 -0.2913391691 0.793447301 0.0002040803 -7.18639e-05 -2.9779e-05 -8.41101e-05 -0.3043954933 0.787474742
600296400.0 -0.2837560342 0.7957574202 0.0002408819 -2.15671e-05 -5.96229e-05 -4.4697e-05 -0.2965283608 0.7909906071
605296370.0 -0.275281521 0.7987787796 -0.000215068 3.10336e-05 0.000100317 0.0001308816 -0.2884908967 0.7944058162
610296340.0 -0.2676849547 0.8012736007 0.0001522155 -0.0001693179 -7.36755e-05 1.86892e-05 -0.2810095514 0.7973504401
615296310.0 -0.2590167619 0.8041999757 -9.82386e-05 4.57787e-05 -0.0001342129 0.0001545457 -0.2730051189 0.79951718
620296280.0 -0.2506941987 0.806412079 -0.0002772651 -0.000314642 2.10642e-05 -6.61532e-05 -0.2650083888 0.8018413336
625296250.0 -0.2429843235 0.8092724181 -0.0001244265 4.46981e-05 0.0001048184 3.74769e-05 -0.2577273758 0.804714298
630296220.0 -0.2344194413 0.8121549449 -6.38039e-05 -7.99554e-05 -0.0001267136 -4.41566e-05 -0.2489160345 0.8073418671
635296190.0 -0.2262138585 0.8139826022 -0.0001442499 2.78675e-05 1.82596e-05 -3.53778e-05 -0.2413626009 0.8099994335
640296160.0 -0.2179483202 0.8153420884 -0.0001151369 8.21898e-05 -0.0001933808 0.0001058061 -0.232381365 0.8117007772
645296130.0 -0.2098516117 0.8176358075 0.0002116067 0.0001499337 -3.71322e-05 0.0001602382 -0.2252593045 0.8140481462
650296100.0 -0.2021437779 0.820347413 -4.5661e-06 9.71532e-05 3.7825e-06 -9.65183e-05 -0.2171812512 0.8165461286
655296070.0 -0.1931920004 0.8219925813 -0.0001846157 0.0001910289 1.08633e-05 -0.000269025 -0.2091514656 0.8179278122
660296040.0 -0.1853693266 0.8240108594 -5.925e-06 -7.5241e-05 -0.0001880608 -7.51221e-05 -0.2003551748 0.8197200085
665296010.0 -0.1768876909 0.8252824736 4.10285e-05 0.0001928067 0.0002027084 -0.0001339992 -0.1927996994 0.8224084663
670295980.0 -0.1679238157 0.8271119224 0.0001786947 0.000149304 -0.0001430964 0.0001386368 -0.1853576137 0.8242131065
675295950.0 -0.1597828301 0.8284500123 -0.0001495267 0.0001356231 -4.84062e-05 -0.0001710355 -0.1764274637 0.8261793895
680295920.0 -0.1515047298 0.8308469992 -0.0002012999 0.0002688027 9.02677e-05 0.0001131893 -0.1681966176 0.8278125605
685295890.0 -0.1427783413 0.8320761459 2.18997e-05 -1.3016e-05 -6.09138e-05 4.56707e-05 -0.1601706387 0.8291871149
690295860.0 -0.1343950046 0.8337559977 0.0002074252 -0.0001381378 0.0001030968 4.10964e-05 -0.1516146086 0.8307944692
695295830.0 -0.1262043099 0.8343556885 -4.53084e-05 4.89669e-05 -4.70545e-05 -0.0001511685 -0.143842765 0.8319102484
700295800.0 -0.1179344921 0.8353873846 6.539e-06 8.82212e-05 -0.0001074188 0.0001495111 -0.135273383 0.833440426
705295770.0 -0.1090245278 0.8371737963 -0.0002086089 -9.82269e-05 9.78908e-05 5.65555e-05 -0.1276739053 0.8352044153
710295740.0 -0.1012745727 0.8382410824 0.0002094992 -0.0001075299 -2.13049e-05 -2.97086e-05 -0.1193664493 0.8364779975
715295710.0 -0.0927366273 0.839010717 -1.88051e-05 -0.0001012162 -9.9974e-06 4.71948e-05 -0.111068536 0.8372084371
720295680.0 -0.0844444781 0.8391957131 -0.0001835331 -3.91709e-05 -6.23637e-05 0.0001497919 -0.1027608812 0.8385230118
725295650.0 -0.0751648092 0.8407783367 -8.3353e-05 -0.0001210959 -0.0001462227 5.06375e-05 -0.0945623926 0.8395683024
730295620.0 -0.0675201831 0.8411625507 6.03775e-05 0.0002091751 -5.754e-05 -0.0001061372 -0.0855846809 0.8401002463
735295590.0 -0.0583268835 0.8417569636 4.21063e-05 0.0002382239 1.3177e-06 5.66423e-05 -0.077096982 0.840668722
740295560.0 -0.0501007383 0.8428657149 3.91987e-05 4.49528e-05 -0.0001348067 -1.16355e-05 -0.0693596558 0.8410985359
745295530.0 -0.0420561871 0.8429308848 -6.30892e-05 0.0002038227 0.00012043 -2.15223e-05 -0.0611716764 0.8421879407
750295500.0 -0.0337405904 0.8429067474 -0.0001278712 -9.18719e-05 7.76921e-05 -8.34389e-05 -0.0528032585 0.8423117468
755295470.0 -0.0247780302 0.8429646627 -6.1239e-06 -2.38452e-05 -7.50212e-05 -7.58095e-05 -0.0445786017 0.8438993013
760295440.0 -0.0159640176 0.8438019894 1.08296e-05 -0.0001316959 -3.6973e-06 2.0424e-05 -0.0364713887 0.843645361
765295410.0 -0.0083736903 0.8434916093 7.78228e-05 2.39581e-05 9.67297e-05 -2.07491e-05 -0.0274155232 0.8442592726
770295380.0 0.0004287031 0.8442248507 -0.0001064482 0.000102331 5.02819e-05 -0.0002098238 -0.0188354897 0.8446354399
775295350.0 0.008691317 0.844136313 8.72882e-05 0.0001407691 -8.86195e-05 -1.57662e-05 -0.0114512426 0.844158782
780295320.0 0.017699696 0.8430929763 4.0421e-05 8.73551e-05 2.4422e-05 1.74831e-05 -0.0029546461 0.8449284964
785295290.0 0.0260146994 0.8438651488 -1.6799e-06 -0.0001183778 8.72248e-05 -4.89627e-05 0.0047691491 0.8444440038
790295260.0 0.0341524088 0.8424752133 -8.35651e-05 -0.0001285209 -0.0001361354 0.000120044 0.0141797696 0.8444639554
795295230.0 0.04281684 0.8432592052 -0.0001182407 5.79121e-05 -0.0001488848 -9.948e-05 0.0221352073 0.8445952423
800295200.0 0.0510032803 0.8427220966 -0.0001176951 -5.34713e-05 -4.51909e-05 0.0001092918 0.0302983355 0.8441668582
805295170.0 0.0594637179 0.8417411339 0.000213807 0.0001092622 0.0001268745 -0.0003516334 0.0383172241 0.8429391499
810295140.0 0.068210173 0.8410361669 2.45616e-05 0.0001703074 -8.89102e-05 7.55468e-05 0.046769903 0.8443963184
815295110.0 0.0768243604 0.840452684 -8.7556e-06 -4.66217e-05 -2.20415e-05 0.0001718311 0.0551241636 0.8431529676
820295080.0 0.0851255107 0.8389106152 0.0001429997 7.59318e-05 3.28602e-05 -9.45845e-05 0.0630645479 0.8424991305
825295050.0 0.0936394425 0.8385953851 -1.38526e-05 0.0001655634 6.85407e-05 0.0002120713 0.0715938854 0.8416711102
830295020.0 0.1018027703 0.8379414813 -0.0001977205 4.19386e-05 1.82761e-05 -6.30252e-05 0.0793501051 0.8411017077
835294990.0 0.1099017577 0.8367093624 6.83239e-05 8.58363e-05 4.70887e-05 7.0985e-06 0.0883500391 0.8405138627
840294960.0 0.1185376075 0.8353106441 -0.000162404 -3.9485e-06 0.000219596 -3.29194e-05 0.096143427 0.8399055552
845294930.0 0.1267902267 0.8342265154 -5.1935e-06 5.71644e-05 -0.000128102 1.57731e-05 0.1041681167 0.8384371953
850294900.0 0.1348076955 0.8326891393 0.0001178014 -5.23044e-05 9.6924e-06 6.27876e-05 0.112577913 0.8372275524
