!Created with skrf (http://scikit-rf.org).
# Hz S RI R 50.0 
!freq ReS11 ImS11 ReS21 ImS21 ReS12 ImS12 ReS22 ImS22
300000.0 -0.2312677481 -0.1340580163 0.4682265419 0.0876529019 0.4683059573 0.0860961485 -0.2375315306 -0.1314835794
5299970.0 -0.2418829556 0.0051165934 0.4752370511 0.0060883795 0.4751724813 0.0058610702 -0.2444651917 0.0046254506
10299940.0 -0.2388900402 0.0187801719 0.4774739953 0.007010431 0.4769712423 0.007088823 -0.2409900442 0.0174589989
15299910.0 -0.2335784669 0.0286571188 0.480572974 0.0081430596 0.4809977104 0.0081375202 -0.2368542589 0.0262376764
20299880.0 -0.2284625227 0.0367747127 0.4852342028 0.0083568823 0.4854453523 0.0085324841 -0.2322691807 0.0338152597
25299850.0 -0.2225631571 0.0435709707 0.4909338672 0.0077783965 0.4908547953 0.0071927948 -0.2272118179 0.0402064071
30299820.0 -0.2171798596 0.0486003206 0.4962464398 0.0050716603 0.4961158742 0.0050000526 -0.2218914413 0.0449164522
35299790.0 -0.2115134793 0.0529250676 0.5009440891 0.0019190419 0.5016929182 0.0019964912 -0.2169203598 0.0490262823
40299760.0 -0.2062464702 0.056199387 0.5063434749 -0.0024507602 0.506738047 -0.0022644552 -0.2119507632 0.0521565912
45299730.0 -0.201195098 0.0588251533 0.5109127489 -0.0065735001 0.5114302641 -0.0070614321 -0.207109459 0.0546061017
50299700.0 -0.1962949741 0.0607380156 0.5154191331 -0.0121538707 0.5150535856 -0.0123787536 -0.20277949 0.0571338551
55299670.0 -0.1919470255 0.062553166 0.5190964999 -0.0180924832 0.5188406547 -0.018594674 -0.1993207411 0.0585173166
60299640.0 -0.1879121067 0.0641146747 0.522429725 -0.0244796043 0.5225209474 -0.0248028376 -0.1952453658 0.0598815483
65299610.0 -0.1843100923 0.0650950776 0.5259306072 -0.0309842377 0.525517094 -0.0310810697 -0.1919474624 0.0607727514
70299580.0 -0.1808270439 0.0659258807 0.5275111168 -0.0372031047 0.5280171681 -0.0372425957 -0.1890857767 0.0620420349
75299550.0 -0.177922401 0.0666993372 0.5293801607 -0.0444563259 0.5295121141 -0.0443284664 -0.186332484 0.0626657544
80299520.0 -0.1752757246 0.0678354545 0.5315213276 -0.0513292571 0.5317886954 -0.0514265665 -0.1838972016 0.0635934963
85299490.0 -0.1726725113 0.0682189014 0.5328061677 -0.0581487291 0.5327293858 -0.0580533131 -0.1816024057 0.0639580228
90299460.0 -0.1704133961 0.0690716377 0.5335080989 -0.0648622185 0.5335324504 -0.064961022 -0.1792305844 0.0648614993
95299430.0 -0.1680599222 0.0697115069 0.5345361633 -0.0722445459 0.5349368895 -0.0720790542 -0.1775912244 0.0655548107
100299400.0 -0.1659306682 0.0703925785 0.535185708 -0.0789404928 0.5351524751 -0.0789532967 -0.1759303245 0.0663819459
105299370.0 -0.1640064006 0.0706300711 0.5350862241 -0.0856858745 0.5355292378 -0.0857938537 -0.1740588082 0.0666200235
110299340.0 -0.1620363221 0.0715687145 0.5353398114 -0.0923229859 0.5358075782 -0.092567296 -0.1728629543 0.0673788936
115299310.0 -0.1610310845 0.0725266122 0.5355233661 -0.0991421896 0.5354587507 -0.0993663498 -0.1714997926 0.0685344439
120299280.0 -0.1591883454 0.0733972521 0.5353660016 -0.1065326521 0.5348519837 -0.106605191 -0.1701391802 0.0685983425
125299250.0 -0.1579277841 0.0741384994 0.5345365807 -0.1128457742 0.5348416504 -0.1128081099 -0.1686061259 0.0697346046
130299220.0 -0.1567528567 0.07460595 0.534396306 -0.1198882571 0.5341693063 -0.1201582583 -0.1678030124 0.0703297752
135299190.0 -0.1553980248 0.076021088 0.5339428677 -0.126106869 0.5341026032 -0.1265468161 -0.1664942895 0.070868354
140299160.0 -0.1542559388 0.0769260652 0.5329963706 -0.1334344025 0.5329696335 -0.1327067472 -0.1661467305 0.0716882819
145299130.0 -0.1532452706 0.0778466278 0.5316960761 -0.1395225701 0.531995578 -0.1394190874 -0.1647775053 0.0727765162
150299100.0 -0.1522052682 0.0787541697 0.530554936 -0.146038375 0.5306383905 -0.1461268953 -0.1640163095 0.0741083821
155299070.0 -0.1507104791 0.0799492932 0.5289271766 -0.152581178 0.5294619529 -0.1526562378 -0.1631430389 0.0747523013
160299040.0 -0.1502376998 0.0814065609 0.5280239629 -0.1589598853 0.5278979225 -0.1591692644 -0.1624188287 0.0759104162
165299010.0 -0.1487944893 0.0821969248 0.5266705746 -0.1649716546 0.5267959116 -0.1655287028 -0.1615829791 0.0765365487
170298980.0 -0.1478813024 0.0835200115 0.5248685774 -0.1716234702 0.5255192478 -0.1717036589 -0.1611547385 0.0777537636
175298950.0 -0.1467395854 0.0847038357 0.5236905673 -0.1780461115 0.5236996217 -0.178457163 -0.1602041482 0.0792739671
180298920.0 -0.1460221525 0.0859806864 0.5219336091 -0.1845344963 0.5217511745 -0.1846934878 -0.1595938646 0.0802458211
185298890.0 -0.1449434977 0.0873170744 0.5201585804 -0.190625367 0.5200108923 -0.1905823694 -0.1585425782 0.0812623036
190298860.0 -0.1436531059 0.0887684758 0.5171731514 -0.1967028164 0.5183134356 -0.1967492508 -0.1579164249 0.0823083272
195298830.0 -0.1430406512 0.0901189285 0.516299322 -0.2028260532 0.5161228026 -0.2026656204 -0.1571739598 0.0833776213
200298800.0 -0.1421431786 0.0911844671 0.5140478375 -0.2094580774 0.5142226688 -0.2090181539 -0.1566017853 0.0846380167
205298770.0 -0.1416915154 0.0924967736 0.5116675282 -0.2147383567 0.5119710186 -0.2149413042 -0.1556028407 0.0858944751
210298740.0 -0.1403432787 0.0940553152 0.5095018799 -0.2209819745 0.5096333758 -0.2207271072 -0.155404097 0.0869558513
215298710.0 -0.1393081877 0.0954371401 0.5071290459 -0.2265246946 0.507210371 -0.2272268643 -0.1543146653 0.0884431365
220298680.0 -0.1382330012 0.0969223238 0.5048979541 -0.2327040998 0.504654998 -0.2327347324 -0.1534073119 0.0895354168
225298650.0 -0.1374342264 0.0982102698 0.5017722012 -0.2386288466 0.5022521493 -0.2380723247 -0.1528668385 0.0905735127
230298620.0 -0.1358929508 0.1002419253 0.4998373649 -0.2446367861 0.4999665197 -0.2445077815 -0.1520154531 0.0918587403
235298590.0 -0.1353315313 0.1013558746 0.4974798353 -0.2502824888 0.4973870995 -0.2504035723 -0.151243541 0.0934433235
240298560.0 -0.1342014635 0.1027051982 0.4944547691 -0.2556669315 0.4946335099 -0.2558809847 -0.1507351029 0.0945253887
245298530.0 -0.1332526334 0.1038299388 0.4916454932 -0.2616203233 0.4919484562 -0.2614947206 -0.1498056683 0.0958149433
250298500.0 -0.1325803522 0.1053985765 0.4887983618 -0.2671767598 0.4887148082 -0.266706555 -0.1490646011 0.0975081453
255298470.0 -0.1312151509 0.1074665209 0.486162941 -0.2724687777 0.4865510752 -0.2726810433 -0.147943287 0.0990723502
260298440.0 -0.1300558653 0.1083865586 0.4831691627 -0.2776738228 0.4829299998 -0.2780438707 -0.1473456423 0.0998009553
265298410.0 -0.1293090884 0.110093891 0.4802050401 -0.2841164827 0.4802038417 -0.2841825939 -0.145928108 0.1010163169
270298380.0 -0.1283125297 0.1112893203 0.4766511863 -0.2891016744 0.4771231571 -0.2890840139 -0.1453565076 0.1026287625
275298350.0 -0.127082518 0.1133050585 0.4732580152 -0.2942244005 0.4735441936 -0.2944589167 -0.1445756257 0.1040324342
280298320.0 -0.1262229709 0.114303732 0.4708451073 -0.2993739487 0.4710355322 -0.3000346742 -0.1433884396 0.1053305977
285298290.0 -0.1248536275 0.1159240414 0.4670076227 -0.3050911616 0.4678209257 -0.304951461 -0.1424266278 0.1067376672
290298260.0 -0.1236132988 0.1173965811 0.4644449932 -0.3102842656 0.4643386712 -0.3104161313 -0.1416013649 0.1080628693
295298230.0 -0.1225810797 0.1186710042 0.4608606562 -0.3161181347 0.4610990965 -0.3159454351 -0.1408417146 0.1092308297
300298200.0 -0.1214004762 0.1203454332 0.4580428965 -0.3214207274 0.4580222087 -0.3208502705 -0.1397445809 0.1106602978
305298170.0 -0.1201531265 0.121218452 0.4539653721 -0.3262785605 0.4543651074 -0.3263895126 -0.1386154272 0.1114943571
310298140.0 -0.1187474332 0.122386886 0.4506543884 -0.3313064403 0.4503087462 -0.3312022303 -0.1374546701 0.1128542138
315298110.0 -0.117800029 0.1239517802 0.4470999777 -0.3373237179 0.4471122612 -0.3368405837 -0.136607058 0.1145788751
320298080.0 -0.1163902656 0.125144004 0.4427221574 -0.3420398838 0.4437935485 -0.3417825243 -0.1359980848 0.1152918767
325298050.0 -0.1156227378 0.1261115884 0.4392764984 -0.3465648533 0.4399293516 -0.3466871877 -0.1346918631 0.1163424689
330298020.0 -0.1148220275 0.1277550888 0.435417979 -0.3520225275 0.435935124 -0.3519092013 -0.1340269365 0.1177001441
335297990.0 -0.1133333966 0.1288489243 0.4314995761 -0.3564801596 0.4313574704 -0.3565886846 -0.1331354766 0.1193451395
340297960.0 -0.11247783 0.130252521 0.4270946589 -0.3613144613 0.4268619983 -0.3616024186 -0.1319469562 0.1210047525
345297930.0 -0.1112358491 0.1316553874 0.4230461563 -0.3660713239 0.4236385763 -0.3662947579 -0.1310256357 0.1218928464
350297900.0 -0.1103686259 0.1331317028 0.4198474447 -0.3706099853 0.4196173235 -0.3704617913 -0.1301153041 0.1230580693
355297870.0 -0.1087833146 0.1342702707 0.4149938304 -0.3750313788 0.4151491089 -0.3749552078 -0.1289850412 0.1247029296
360297840.0 -0.1076825313 0.135870642 0.4108117487 -0.3795692065 0.4111829306 -0.3802098124 -0.1277976216 0.126046497
365297810.0 -0.1061747314 0.1371180442 0.4066799628 -0.3841786771 0.4065946918 -0.3842000242 -0.1269264321 0.1273542415
370297780.0 -0.1048023606 0.1383995502 0.4021295677 -0.3889006057 0.4025124937 -0.3885801076 -0.1257880545 0.1288462912
375297750.0 -0.1035084275 0.1397773044 0.3981320118 -0.3932476329 0.3980884707 -0.3932838295 -0.1243083376 0.1302464793
380297720.0 -0.1021893498 0.1414309962 0.3941433837 -0.3978589497 0.3937628343 -0.3973699083 -0.1232549303 0.1316311051
385297690.0 -0.1006339056 0.1423675593 0.3893432612 -0.4018814216 0.3896812949 -0.4022390337 -0.1221800244 0.1332512752
390297660.0 -0.099051034 0.1434197733 0.3849893785 -0.4060391255 0.3854632096 -0.4061163493 -0.1205358912 0.1341001529
395297630.0 -0.0975064231 0.1447559897 0.3807270744 -0.4096659931 0.3803661941 -0.4101006379 -0.1196324813 0.1350137853
400297600.0 -0.0964103455 0.1458624438 0.3762530554 -0.4145886325 0.3763627934 -0.4146336501 -0.1181022983 0.1368197861
405297570.0 -0.0947628345 0.1465545046 0.371933118 -0.4180659893 0.3719328584 -0.4186583145 -0.1168667567 0.1382464393
410297540.0 -0.0931290094 0.1482397313 0.3673829164 -0.4227800929 0.367303688 -0.4223436057 -0.11559495 0.1393056956
415297510.0 -0.09173982 0.1493240183 0.3623746898 -0.4263585948 0.3630503717 -0.4266912031 -0.1142176241 0.140767773
420297480.0 -0.0901877055 0.1502090073 0.3574097916 -0.4306981277 0.3580543687 -0.4305410712 -0.1126464437 0.142475833
425297450.0 -0.0882333227 0.151162608 0.3533197088 -0.434211479 0.3526960135 -0.4342980476 -0.1114123052 0.1432631368
430297420.0 -0.0870196079 0.152437268 0.3487316672 -0.4385344971 0.348743508 -0.4377843636 -0.1099278541 0.1444910352
435297390.0 -0.0851990674 0.1533025549 0.3433346946 -0.4424639071 0.3435779295 -0.4419588178 -0.1089835007 0.1460332697
440297360.0 -0.0838705094 0.1543482238 0.3385652431 -0.4457773874 0.3382802965 -0.4459394768 -0.1074433485 0.1469849132
445297330.0 -0.0815713961 0.1554128584 0.3337991106 -0.4492599857 0.3338382834 -0.4495030551 -0.1058696764 0.1481549915
450297300.0 -0.0800319685 0.1565117335 0.3287405185 -0.4529392225 0.3294288306 -0.4528132187 -0.1045663451 0.1492434193
455297270.0 -0.0787035774 0.156963927 0.3240406734 -0.4563854032 0.3242739367 -0.4567949652 -0.1031371666 0.1505351947
460297240.0 -0.0765893471 0.1582432088 0.3191519818 -0.4603156329 0.3190483296 -0.4603117738 -0.1017469056 0.151345147
465297210.0 -0.0747712006 0.1592517603 0.3133629434 -0.4636738793 0.313523225 -0.4638349084 -0.0999941667 0.1531179558
470297180.0 -0.0733530354 0.1600766644 0.308671533 -0.4666604568 0.3090417356 -0.4669119423 -0.0982614423 0.1538635198
475297150.0 -0.0716046245 0.1611558469 0.3034887649 -0.4701681931 0.3040398887 -0.4703107763 -0.096712814 0.1550817323
480297120.0 -0.0694003445 0.1624845993 0.2983098091 -0.4738996559 0.2985957212 -0.4732601413 -0.0957304003 0.1558145031
485297090.0 -0.0676644805 0.1624582474 0.2929421552 -0.4768495361 0.2931735024 -0.4767710228 -0.0938990784 0.1572931134
490297060.0 -0.065362923 0.1639855746 0.2875218442 -0.4800301452 0.2882675954 -0.480119886 -0.092374319 0.1583403896
495297030.0 -0.0643074289 0.1644669937 0.2832953967 -0.4829905317 0.282984373 -0.4833921746 -0.0907074977 0.1590628371
500297000.0 -0.0621586925 0.1655038644 0.2774066257 -0.4858535842 0.2774480322 -0.486258489 -0.0891977522 0.1602351061
505296970.0 -0.0598542471 0.1662281101 0.2723185543 -0.4891545974 0.2722509894 -0.488922076 -0.0873040237 0.1608415031
510296940.0 -0.0581887556 0.1670060254 0.2670491818 -0.4924435316 0.2671278561 -0.4923780195 -0.0856491568 0.1622979157
515296910.0 -0.0561978485 0.1680390338 0.2611909056 -0.4946898645 0.2610054618 -0.4948672318 -0.0842873938 0.162794448
520296880.0 -0.0543245947 0.1684899273 0.256142068 -0.4974599543 0.2558950103 -0.497377239 -0.0823021294 0.1643170506
525296850.0 -0.0521501305 0.1691492545 0.2508028571 -0.5001890647 0.2501401016 -0.5003643851 -0.0807073072 0.1648664314
530296820.0 -0.0506280426 0.1700934571 0.2448355545 -0.5033081181 0.2450699453 -0.5027875332 -0.0792219965 0.1656277866
535296790.0 -0.0478802637 0.1705424606 0.2396009753 -0.5055244286 0.2396389036 -0.5057346019 -0.0772157868 0.1669478803
540296760.0 -0.0463807626 0.171923406 0.2338734907 -0.5082438336 0.2340068126 -0.5081566442 -0.0759558276 0.167572313
545296730.0 -0.0448626986 0.1722304815 0.228570247 -0.5104401027 0.2285649604 -0.5101726867 -0.0743556024 0.1685464426
550296700.0 -0.0423102038 0.1728678967 0.2227963637 -0.513139342 0.2223519865 -0.5134578451 -0.072247762 0.1692502571
555296670.0 -0.0403779399 0.173449194 0.2174688315 -0.5157179463 0.2173742059 -0.5153201013 -0.0710342521 0.1697391757
560296640.0 -0.0381055316 0.1738753141 0.2112887925 -0.5177591788 0.2117922418 -0.5176936553 -0.0691766667 0.1708228415
565296610.0 -0.0365092592 0.1746347717 0.2062889047 -0.519877827 0.2060200084 -0.5194964265 -0.0671880451 0.1718055564
570296580.0 -0.0343378516 0.1752383003 0.2001757908 -0.5222179648 0.2002375747 -0.5221663934 -0.0659843552 0.1721300648
575296550.0 -0.032177087 0.1755550086 0.194967622 -0.5245531567 0.194640026 -0.5241926164 -0.0641681708 0.1730255358
580296520.0 -0.0302069773 0.1765741702 0.1892171548 -0.526372234 0.1888759207 -0.5264933301 -0.0627858707 0.1737877151
585296490.0 -0.0279600643 0.1770261944 0.1836272404 -0.5283793566 0.1831913741 -0.5283428133 -0.0604929931 0.1748478014
590296460.0 -0.0253022025 0.1772769151 0.1774463329 -0.5303941086 0.1775111573 -0.530381925 -0.0591028966 0.1752641961
595296430.0 -0.0237352765 0.177993993 0.1712887806 -0.5319207271 0.1714383033 -0.5320476823 -0.057100869 0.1760510084
600296400.0 -0.0213809778 0.1784353036 0.1655512688 -0.533852338 0.1658125086 -0.5338998762 -0.0552929797 0.1765999889
605296370.0 -0.020026966 0.179224625 0.1601871808 -0.5356406744 0.1597552224 -0.5356466028 -0.0533285624 0.1771644933
610296340.0 -0.0172864619 0.1798743619 0.1542692513 -0.5369087572 0.1547523705 -0.5369860281 -0.0522872109 0.178311046
615296310.0 -0.0150709545 0.1799072681 0.1484355951 -0.5393180498 0.1482555077 -0.5388919139 -0.049976157 0.1788869056
620296280.0 -0.0136532195 0.1806367185 0.1426685135 -0.5402047539 0.1424505169 -0.5404376478 -0.0487986443 0.1796208803
625296250.0 -0.0118333878 0.1808530366 0.1367636412 -0.542143732 0.1367978933 -0.5418996314 -0.0470941871 0.1798433458
630296220.0 -0.0093411036 0.1814034604 0.1306618889 -0.5433280005 0.1307840702 -0.5431071374 -0.0449674453 0.1805713584
635296190.0 -0.0074160197 0.1818383298 0.1247463178 -0.544206591 0.124751321 -0.5445980996 -0.0433018248 0.1811222906
640296160.0 -0.0052418611 0.1819773626 0.1188139455 -0.5463695962 0.1189808736 -0.5460015818 -0.0415889161 0.1815185979
645296130.0 -0.0032825417 0.1825769563 0.1132402118 -0.5470195631 0.113325782 -0.5467948956 -0.0399019831 0.1818143172
650296100.0 -0.0011434922 0.1826210039 0.1073899677 -0.5483099216 0.1069717888 -0.5483487902 -0.037505525 0.1827517033
655296070.0 0.0006935299 0.1827505357 0.1010424338 -0.5495922934 0.1011991394 -0.5492258313 -0.0361542577 0.1835239505
660296040.0 0.002790328 0.1830960035 0.0955533047 -0.5503357034 0.0951801222 -0.5505498141 -0.0342886124 0.1832293863
665296010.0 0.0052541594 0.1835217044 0.0889947862 -0.5512016989 0.0888874477 -0.5510131525 -0.0325071208 0.1842770037
670295980.0 0.007120301 0.1839043893 0.0834315695 -0.5525334683 0.0828930877 -0.5517180739 -0.030816582 0.1844120728
675295950.0 0.0092286265 0.1837348902 0.0774919919 -0.5525863893 0.0774914722 -0.553331294 -0.0289293255 0.1850798832
680295920.0 0.0110687162 0.1843042139 0.071701557 -0.5537456089 0.0713695694 -0.5536350066 -0.0269930512 0.1850059138
685295890.0 0.0132749323 0.1843602852 0.0652671524 -0.5548657839 0.0653399387 -0.5546917244 -0.0253790123 0.1860262933
690295860.0 0.015065926 0.1844186204 0.0597849352 -0.5552710023 0.0591139614 -0.5554794771 -0.0236111437 0.1863638267
695295830.0 0.0173003053 0.1846017876 0.0540630198 -0.5561482753 0.0533537614 -0.5557892893 -0.0215756426 0.1868500711
700295800.0 0.0193111157 0.1847175926 0.047859634 -0.5564142743 0.0476994971 -0.5567543427 -0.0199443238 0.1870926177
705295770.0 0.0212137007 0.1848689185 0.0414564909 -0.5568303446 0.0413901372 -0.5566847941 -0.0180336374 0.187634632
710295740.0 0.0233289364 0.1846364297 0.0357522212 -0.5570922271 0.0355584905 -0.5573853178 -0.0158745872 0.1876264167
715295710.0 0.0251567796 0.1848158601 0.0298726221 -0.5575192121 0.0295713131 -0.5574567395 -0.0142408472 0.1879411351
720295680.0 0.0275178778 0.1846728248 0.0235159811 -0.55750305 0.0234195843 -0.5580010794 -0.0125970751 0.1880833279
725295650.0 0.028995391 0.184803805 0.0179510624 -0.557674874 0.017743877 -0.558195405 -0.0111828743 0.1890771407
730295620.0 0.0304844692 0.1845894577 0.0116528572 -0.5577601441 0.0117966763 -0.5579309327 -0.0094704432 0.189410084
735295590.0 0.0330556907 0.1849117656 0.0055255609 -0.5583544226 0.0057131246 -0.5584478167 -0.0074929847 0.1890815931
740295560.0 0.0348262179 0.1842406538 -0.0001780339 -0.5581573745 -0.0001973258 -0.5583086501 -0.0054863619 0.1894836917
745295530.0 0.0369280197 0.184646711 -0.0060272528 -0.5578082236 -0.0059350377 -0.5577248037 -0.0040732503 0.1896896881
750295500.0 0.0384294929 0.1845032357 -0.011690018 -0.5585114761 -0.0124644579 -0.5581996758 -0.0019212741 0.1900024111
755295470.0 0.0404837786 0.1840034264 -0.0177610486 -0.5580474961 -0.0180506255 -0.5579156595 4.76728e-05 0.1902118991
760295440.0 0.042410598 0.1842123498 -0.0249587998 -0.557447323 -0.0245808985 -0.5572664458 0.0018212819 0.1895749254
765295410.0 0.0446877339 0.1835643432 -0.0306165982 -0.5571049215 -0.030122813 -0.5572470929 0.0037574187 0.1906026901
770295380.0 0.0465858327 0.1838715198 -0.036161187 -0.5565003145 -0.0360715357 -0.5570823939 0.0052630245 0.1905938833
775295350.0 0.048294372 0.1829667521 -0.0419928994 -0.5561243613 -0.0420205008 -0.5559862112 0.0073175904 0.1905837765
780295320.0 0.0502485144 0.1832016905 -0.0481521786 -0.555513608 -0.0481680343 -0.5554661448 0.0094656074 0.1909925741
785295290.0 0.0523663062 0.1826294667 -0.0537016449 -0.5554614834 -0.0538588246 -0.5553326821 0.0107954939 0.1912023245
790295260.0 0.0540988915 0.1818681784 -0.059994608 -0.5545337999 -0.0596127782 -0.5550311686 0.0125694039 0.1913527088
795295230.0 0.05589348 0.1814489007 -0.0655925375 -0.5540074019 -0.0662395742 -0.5544655834 0.0146437127 0.1907093085
800295200.0 0.0574904034 0.1814746232 -0.0711080681 -0.553031925 -0.071764735 -0.5533580734 0.0161506936 0.1910037007
805295170.0 0.0597047899 0.1808462923 -0.0772935342 -0.5528986275 -0.0775567473 -0.552567659 0.0189346473 0.1909123842
810295140.0 0.0617214511 0.1806022253 -0.0837683894 -0.5512646908 -0.0838652948 -0.5514157908 0.0204420417 0.1909897406
815295110.0 0.0633953331 0.1801894961 -0.0896342868 -0.5504604579 -0.0893855268 -0.5505794333 0.0219416927 0.190819646
820295080.0 0.0654021496 0.1794852853 -0.0949251342 -0.5489667506 -0.0951255738 -0.5496974139 0.023213379 0.1911351512
825295050.0 0.0669608219 0.1788725618 -0.1014366794 -0.5484667985 -0.1016256735 -0.5484638095 0.0260644094 0.1913935075
830295020.0 0.0693054902 0.1784399715 -0.1075319088 -0.547560008 -0.1068322242 -0.5474144354 0.0275807541 0.1905636443
