!Created with skrf (http://scikit-rf.org).
# Hz S RI R 50.0 
!freq ReS11 ImS11 ReS21 ImS21 ReS12 ImS12 ReS22 ImS22
300000.0 -0.2390919716 -0.0822595818 0.4709404534 0.0542912448 0.4666753063 0.0532656838 -0.2406954237 -0.0944307343
5299970.0 -0.2440107534 0.0071720241 0.4736529682 0.0051073866 0.4735500038 0.0054621662 -0.2442366553 0.0073682146
10299940.0 -0.2411063433 0.0186681265 0.4754369096 0.0064442184 0.4754206417 0.0062048631 -0.2407044185 0.0206244062
15299910.0 -0.2365988844 0.0279846235 0.4789263706 0.0076171697 0.4796028234 0.0074327831 -0.2360365479 0.0294643807
20299880.0 -0.2319667723 0.0351882935 0.4839322853 0.008728891 0.4838548897 0.0083792128 -0.2308462087 0.0375629374
25299850.0 -0.2268568677 0.041990633 0.4887399809 0.0077226176 0.4892326717 0.0074645517 -0.224941289 0.0441258343
30299820.0 -0.2213926647 0.0470047947 0.4943980548 0.0054320412 0.4942427794 0.0051827919 -0.2191270157 0.0491073098
35299790.0 -0.21626436 0.0513355388 0.500067625 0.0018938218 0.4999124782 0.0024630241 -0.2135959604 0.0533454897
40299760.0 -0.2114733001 0.0549621113 0.5049480085 -0.0018396709 0.5048969296 -0.0019523917 -0.2082147576 0.0558792677
45299730.0 -0.2066176681 0.05760355 0.509731975 -0.0061613323 0.5098346533 -0.0064599435 -0.2033466708 0.0588464928
50299700.0 -0.2025000128 0.0599214969 0.5145088718 -0.0117410854 0.5139472615 -0.01169124 -0.1982501892 0.0604917896
55299670.0 -0.1983215789 0.0616759509 0.5182669596 -0.0185565309 0.5181421915 -0.0179481232 -0.1945502555 0.0623469132
60299640.0 -0.1941613039 0.0635777724 0.5214557203 -0.0243585385 0.521610567 -0.0239301224 -0.1905101861 0.0634390264
65299610.0 -0.1911081042 0.0647497724 0.5241607232 -0.0309088141 0.5242713473 -0.0306442663 -0.187127443 0.0641490312
70299580.0 -0.1878366721 0.0663098293 0.5268388906 -0.0370820703 0.5265121874 -0.0369901783 -0.1833987065 0.0648683642
75299550.0 -0.1851242845 0.0673036984 0.5284734385 -0.0438498133 0.5284043434 -0.0441598189 -0.1807306834 0.0652438891
80299520.0 -0.1825861156 0.0682569796 0.5304113764 -0.0509977041 0.5305321187 -0.0506171322 -0.1784987227 0.066011034
85299490.0 -0.1802295171 0.0688896907 0.5316206571 -0.0576872894 0.5318970127 -0.0576400349 -0.176024329 0.0662652082
90299460.0 -0.1782382238 0.069732022 0.5325710013 -0.0649707784 0.5329616964 -0.0647273778 -0.1737790563 0.0667170366
95299430.0 -0.1757136813 0.0706631968 0.5340592673 -0.0714597082 0.533652861 -0.0717727964 -0.1716275735 0.0674400055
100299400.0 -0.1738767478 0.071335606 0.5336265429 -0.0783830195 0.5340493231 -0.0786153534 -0.1695544467 0.0673803069
105299370.0 -0.1721337418 0.0722710207 0.5343511267 -0.0855498272 0.53444288 -0.0857309718 -0.1674765525 0.0678697837
110299340.0 -0.1703412328 0.0732208731 0.5342328981 -0.0923352055 0.534305003 -0.0918973864 -0.1664354863 0.0680210832
115299310.0 -0.1687595623 0.0741968535 0.5345201177 -0.0990627059 0.5343361855 -0.0991887675 -0.1648462041 0.0689569231
120299280.0 -0.167560461 0.0747343492 0.5341829176 -0.105769889 0.534434451 -0.1062139483 -0.16332885 0.0694539524
125299250.0 -0.1662323982 0.0754581094 0.5341232863 -0.1123488137 0.533978075 -0.1126882374 -0.1623563052 0.0698464835
130299220.0 -0.1650092377 0.0767456579 0.5333249647 -0.1196579177 0.5332779958 -0.1192492788 -0.1609263562 0.0702860564
135299190.0 -0.1635619575 0.0781574686 0.5327410118 -0.1262002138 0.5327123747 -0.1256334331 -0.159805744 0.0711861092
140299160.0 -0.1624860612 0.0788820313 0.53158572 -0.1326248207 0.5317055411 -0.1328071639 -0.1586374968 0.0722809105
145299130.0 -0.1615048981 0.0799123317 0.5313474621 -0.1392655505 0.5303262798 -0.1392474039 -0.1577245964 0.0724477447
150299100.0 -0.1598680535 0.0811055786 0.5294036755 -0.145393246 0.5299167584 -0.1452688188 -0.1567088546 0.074027121
155299070.0 -0.1593467352 0.0820357062 0.5285830773 -0.1527119139 0.5284689873 -0.1525264465 -0.1558389011 0.0747054356
160299040.0 -0.1579304641 0.0835258974 0.5272057807 -0.1586570794 0.5268883972 -0.1588546743 -0.1555221154 0.0756278276
165299010.0 -0.1574267213 0.0844555494 0.5260684254 -0.1655442331 0.5260538631 -0.1649679727 -0.1540697609 0.0765869885
170298980.0 -0.156514069 0.0857308577 0.5240275138 -0.1716248073 0.5245417482 -0.1717146195 -0.1532057376 0.0776572243
175298950.0 -0.1556482979 0.0871482959 0.5228262596 -0.1781395641 0.5223712134 -0.1776711725 -0.1527528869 0.0785936879
180298920.0 -0.1549116182 0.0883118688 0.520974876 -0.184268943 0.5206626671 -0.1837418161 -0.1518191838 0.0799314614
185298890.0 -0.1532615902 0.0893267696 0.5188012274 -0.1903841009 0.5189465952 -0.1901234102 -0.1512639168 0.0810227302
190298860.0 -0.1526936465 0.0910749188 0.5171792937 -0.1969656295 0.5174282022 -0.1961219741 -0.1507214934 0.0818654032
195298830.0 -0.1517764798 0.0919150722 0.5152247934 -0.2024867993 0.5151138911 -0.2025870294 -0.1497378308 0.0830048968
200298800.0 -0.1507321527 0.093477421 0.5131890338 -0.2089369631 0.5129627049 -0.2089031867 -0.1493726297 0.0839981553
205298770.0 -0.1498206777 0.0953411227 0.5105455303 -0.2150844411 0.5110050865 -0.2144652158 -0.1484730729 0.0847245136
210298740.0 -0.1487870797 0.0964429704 0.5085847379 -0.2210586135 0.5083627877 -0.2205059534 -0.1476380609 0.086592234
215298710.0 -0.1481755212 0.0977099765 0.5064634386 -0.2269803909 0.5060770653 -0.2269612099 -0.1472036757 0.0877844863
220298680.0 -0.1471619456 0.0989684646 0.5034725081 -0.2325951808 0.5038914393 -0.2326915364 -0.1465689339 0.0887375661
225298650.0 -0.1461685812 0.1005147196 0.5011908624 -0.2388075249 0.5015186323 -0.2386253818 -0.146352463 0.0898647023
230298620.0 -0.1452213851 0.1021673393 0.4989542318 -0.2440770579 0.4994721415 -0.2442365309 -0.1454444643 0.0908983191
235298590.0 -0.1441390205 0.1037447647 0.4960038592 -0.250134675 0.4964407329 -0.2496298767 -0.1445017629 0.0923870114
240298560.0 -0.1432746392 0.1049803889 0.494255549 -0.2560381163 0.4934438191 -0.2559286104 -0.1440897321 0.0936049068
245298530.0 -0.1423135723 0.1066176984 0.4912216799 -0.2614809823 0.4909989694 -0.261508161 -0.1429197854 0.0942930148
250298500.0 -0.140695602 0.1083632913 0.487235233 -0.2676873032 0.4874727628 -0.2665779179 -0.1425431005 0.0958094116
255298470.0 -0.1398608532 0.1091023476 0.4842542113 -0.2723956426 0.4847855236 -0.2725109919 -0.1413145846 0.0967705836
260298440.0 -0.139118086 0.1102679943 0.4818327858 -0.2783337927 0.48247605 -0.2783436983 -0.1406150338 0.098604433
265298410.0 -0.1375689307 0.1125506073 0.4786396067 -0.2839774326 0.4793901934 -0.2833783569 -0.1398916189 0.0993655836
270298380.0 -0.1364158279 0.1137833343 0.4759702573 -0.2888892327 0.4763589361 -0.2892715497 -0.1391501048 0.1004787467
275298350.0 -0.1351933009 0.1153382821 0.4725194563 -0.2950714781 0.4728609665 -0.2945470527 -0.1378486168 0.1018223749
280298320.0 -0.1340477188 0.1169620876 0.4700102427 -0.3000096819 0.4698015932 -0.2997380754 -0.1368067016 0.1028379224
285298290.0 -0.1328483591 0.1180913153 0.4664450609 -0.3054224967 0.4663081432 -0.3056367047 -0.1360753811 0.1042068669
290298260.0 -0.1314838352 0.119519072 0.4627227415 -0.3103659379 0.4634742934 -0.3106601262 -0.1350168931 0.1058985842
295298230.0 -0.1302394094 0.1208198123 0.4599610564 -0.3158812795 0.4594080945 -0.3159988678 -0.1335279774 0.1065459314
300298200.0 -0.1291458293 0.122455889 0.4561863273 -0.3211571361 0.4567395233 -0.3211173398 -0.1327869626 0.1079802057
305298170.0 -0.1276985795 0.1238986126 0.4523399169 -0.3266154361 0.4527015885 -0.3260106143 -0.1315993513 0.1089258618
310298140.0 -0.1264917596 0.1250067235 0.4492063608 -0.3315581489 0.4495034014 -0.3312841964 -0.1304452582 0.110254651
315298110.0 -0.125528189 0.12606037 0.4453621976 -0.3367210281 0.4459753635 -0.3368384132 -0.1296900538 0.1114465325
320298080.0 -0.1236975238 0.127581959 0.441204338 -0.3421052314 0.4419315495 -0.3416880501 -0.1287394933 0.1127802159
325298050.0 -0.1227423242 0.1288988302 0.4380057944 -0.3471873425 0.4380638869 -0.3471961911 -0.1281089069 0.1138112266
330298020.0 -0.1214699325 0.1301639523 0.4336949814 -0.3521482437 0.4340723209 -0.3519756482 -0.1268701846 0.1151201329
335297990.0 -0.1201898105 0.1312000112 0.4298291115 -0.356653862 0.4295131222 -0.3568296919 -0.1266263388 0.116747561
340297960.0 -0.1191927228 0.1330211594 0.4254125949 -0.3613736939 0.4253969551 -0.3618202792 -0.1245766136 0.1180974625
345297930.0 -0.1176693127 0.134770716 0.4213038218 -0.3662649004 0.4212807067 -0.3664278527 -0.1239195246 0.1192209406
350297900.0 -0.1165307799 0.1356895623 0.4170191905 -0.3711650743 0.4175316454 -0.3711126938 -0.1233478469 0.1209801017
355297870.0 -0.115116971 0.1374314756 0.4127427805 -0.3757600768 0.4135484201 -0.3750235361 -0.1224872856 0.1221271897
360297840.0 -0.113850903 0.1390421045 0.4095947737 -0.379586098 0.4095918189 -0.380025877 -0.1213560699 0.1237982527
365297810.0 -0.1125794597 0.1402016422 0.4047647096 -0.3846580522 0.4048889182 -0.3845168195 -0.1199897665 0.1248765729
370297780.0 -0.1106762107 0.1414328795 0.4003271616 -0.3888497411 0.40124336 -0.3886755026 -0.1190804949 0.126618199
375297750.0 -0.1092557663 0.1430190974 0.3963201898 -0.3936817061 0.3969445868 -0.3930738818 -0.1180482822 0.1277425849
380297720.0 -0.1077408652 0.1442439177 0.3919060246 -0.3975077566 0.3922909299 -0.3971216258 -0.1170648458 0.1288936171
385297690.0 -0.1064102067 0.145450942 0.3876630308 -0.4018024888 0.3873212351 -0.4017447877 -0.1155696122 0.1303183843
390297660.0 -0.1048332339 0.1471553598 0.3831101462 -0.4064383733 0.3831514286 -0.4056991774 -0.1149639071 0.131102248
395297630.0 -0.1033261744 0.148084183 0.3790852465 -0.4104117882 0.3787968312 -0.4102363943 -0.1129878516 0.1325897401
400297600.0 -0.1018342117 0.1496007016 0.3738200453 -0.4146139382 0.3742492531 -0.4143298335 -0.1121180562 0.1338694777
405297570.0 -0.1002876153 0.1507579985 0.3694530227 -0.418238738 0.3695911915 -0.4182302897 -0.1113190435 0.1349340805
410297540.0 -0.0983020749 0.1518972168 0.3652355445 -0.4226815961 0.3655808638 -0.4226329771 -0.1102250124 0.1365128018
415297510.0 -0.0966140197 0.1529899256 0.3600377812 -0.4264389153 0.3603787635 -0.4269505691 -0.1088987177 0.1376855147
420297480.0 -0.0950989319 0.1547722027 0.3553957621 -0.4307692128 0.3558768949 -0.4308734415 -0.1078061511 0.13862503
425297450.0 -0.0934269437 0.1554344253 0.3509475548 -0.4346876406 0.3513997305 -0.4344623399 -0.1066326636 0.1400925132
430297420.0 -0.0918394405 0.1565571437 0.3462418295 -0.4378097288 0.3463185943 -0.4374306511 -0.1052923744 0.1407052487
435297390.0 -0.090293015 0.1580945964 0.3412012276 -0.4420823425 0.3406962442 -0.4418031494 -0.1032510668 0.1417716271
440297360.0 -0.0883629739 0.1589799664 0.3362701288 -0.4455591998 0.3366920785 -0.4458519755 -0.102341005 0.1429180985
445297330.0 -0.0868333368 0.1600610563 0.3318282474 -0.4493821521 0.331508801 -0.4491080538 -0.1009637216 0.1438357413
450297300.0 -0.0847654789 0.1609535381 0.3268772611 -0.4528684601 0.3266023456 -0.4530263968 -0.0996203584 0.1448670529
455297270.0 -0.0832558732 0.1620289444 0.3212360361 -0.4563807479 0.3219134905 -0.4564873833 -0.0981131719 0.1458337041
460297240.0 -0.0815777543 0.1629820014 0.3165338573 -0.459885886 0.3166022395 -0.4598022938 -0.0967815729 0.1473050907
465297210.0 -0.0794432413 0.1643295328 0.3117392327 -0.4635287353 0.3116811247 -0.4636373314 -0.094995454 0.1476734608
470297180.0 -0.0777160991 0.165169764 0.3063416729 -0.4667640476 0.3065274009 -0.4667915833 -0.093501116 0.1491665209
475297150.0 -0.0758942829 0.1658061324 0.3008878283 -0.4695032584 0.3015431417 -0.4694372254 -0.0916308992 0.1496474275
480297120.0 -0.0741740452 0.1673941424 0.2960771765 -0.4733828025 0.2958592436 -0.4733739437 -0.0903469546 0.1512069503
485297090.0 -0.0723224104 0.168332706 0.2912840557 -0.4760127015 0.2910202757 -0.4759356684 -0.0889454034 0.1520123841
490297060.0 -0.0709483452 0.1691817426 0.2859811304 -0.4798824689 0.2861673734 -0.4790905623 -0.0876324018 0.153276924
495297030.0 -0.0688031436 0.1699840647 0.280329422 -0.4824221882 0.2812053579 -0.4822032742 -0.0863499318 0.1544368482
500297000.0 -0.0669884437 0.1707696102 0.2750425985 -0.485180646 0.2750282113 -0.4850792689 -0.0844512671 0.1556315643
505296970.0 -0.0650194279 0.171602712 0.2698632329 -0.488297204 0.2698010932 -0.4883232592 -0.0831157701 0.1564911613
510296940.0 -0.0631191794 0.1729735566 0.264652393 -0.4910674648 0.2643601757 -0.4913627707 -0.0811467378 0.1575172437
515296910.0 -0.0613050719 0.173475999 0.2588263385 -0.4943152451 0.2592651211 -0.4937888524 -0.0800304029 0.1586549939
520296880.0 -0.0591966407 0.1745212848 0.2539262639 -0.4971847481 0.2539949069 -0.4971493138 -0.0782783639 0.1593765198
525296850.0 -0.0572681508 0.174511957 0.2479943395 -0.4996006627 0.2486517088 -0.4995154297 -0.0773293005 0.1602155855
530296820.0 -0.0554475826 0.1759373074 0.2426684419 -0.5025472142 0.2429851197 -0.5021452864 -0.0755338276 0.1611232935
535296790.0 -0.0539233509 0.1764161632 0.2378910774 -0.5045293842 0.2374865639 -0.5045381106 -0.0741982778 0.1620542936
540296760.0 -0.0515891026 0.1776213967 0.2319108295 -0.5080240391 0.2316233762 -0.5076260376 -0.0727853733 0.1633806581
545296730.0 -0.0501388573 0.1782069465 0.2261987263 -0.5095799671 0.2262900667 -0.5095798517 -0.0712055608 0.1640195003
550296700.0 -0.0475676685 0.178922312 0.220668706 -0.5123323481 0.2210853692 -0.5122143231 -0.069818101 0.1648300243
555296670.0 -0.0460453162 0.1794010924 0.2153529981 -0.5146747664 0.2154328767 -0.5143164728 -0.0679260293 0.1661543415
560296640.0 -0.0434641985 0.1803223537 0.2096067401 -0.517197749 0.2096806644 -0.5167854945 -0.0665581326 0.1666174396
565296610.0 -0.0418119254 0.1807964645 0.2035305257 -0.5191065175 0.2044052616 -0.5191519722 -0.0651625027 0.1673548237
570296580.0 -0.0398538785 0.1814347636 0.1983461219 -0.5216891218 0.1979114018 -0.5212946223 -0.063690174 0.1684212975
575296550.0 -0.0379955581 0.1824183683 0.1928736462 -0.5235894598 0.1926693194 -0.5236291264 -0.0618322596 0.1691309371
580296520.0 -0.0359233558 0.1828085817 0.1869534904 -0.525785966 0.1870133654 -0.525367067 -0.0601223221 0.1696100063
585296490.0 -0.0340738055 0.1826849572 0.1814011999 -0.526939867 0.1815138797 -0.5274687974 -0.0585526623 0.1704374308
590296460.0 -0.0317517407 0.1835866768 0.1754990865 -0.528946081 0.1757538768 -0.5291289284 -0.0574666862 0.1710425044
595296430.0 -0.0295370123 0.1841912845 0.1692237952 -0.5314289577 0.1695738042 -0.5310261402 -0.0554282441 0.1712002402
600296400.0 -0.0279679807 0.1845297332 0.1640649447 -0.5329723611 0.1640011834 -0.5327482274 -0.0539588804 0.1723709062
605296370.0 -0.0260487752 0.184984641 0.15827813 -0.5349155179 0.1583702007 -0.5347046147 -0.0520788048 0.1728362206
610296340.0 -0.0236633795 0.1853206459 0.1517051299 -0.5364192801 0.1522875388 -0.5361902123 -0.0501452741 0.173640079
615296310.0 -0.0213526062 0.1854939721 0.1463152785 -0.5376724509 0.1464103534 -0.5382483939 -0.0485045258 0.1742774785
620296280.0 -0.0193887906 0.1856005017 0.1402220537 -0.5394749683 0.1406731574 -0.5388190557 -0.0471852889 0.1744936882
625296250.0 -0.0178141023 0.185926841 0.1356746315 -0.5411823211 0.1348410171 -0.5409410114 -0.044870572 0.175008264
630296220.0 -0.0149303629 0.1865737062 0.1284194136 -0.5425531217 0.1289031349 -0.5422645785 -0.0432626503 0.1758440392
635296190.0 -0.0138935976 0.186301423 0.1233232403 -0.5434151088 0.123108604 -0.5435296975 -0.0415081636 0.1761145222
640296160.0 -0.0116310567 0.1870807702 0.1174144216 -0.5447289205 0.1175728204 -0.5450575257 -0.039781289 0.1766104194
645296130.0 -0.0093300199 0.1876504611 0.1109257458 -0.5457466898 0.1117421093 -0.5460104214 -0.0380188403 0.1773449367
650296100.0 -0.0071391294 0.1876697696 0.1053011435 -0.5469892652 0.10551509 -0.5468979741 -0.035877337 0.177694752
655296070.0 -0.0052723652 0.1877195129 0.0991356609 -0.5483721811 0.0995579374 -0.5478806308 -0.034273718 0.1780774146
660296040.0 -0.0035937743 0.1876539201 0.0936901068 -0.5489729088 0.0938939636 -0.549451146 -0.0320440917 0.1787794419
665296010.0 -0.0009066108 0.1878383993 0.0869734642 -0.5501945057 0.0878145099 -0.5501839141 -0.0306276036 0.1798316403
670295980.0 0.0002155866 0.1883766568 0.0816422318 -0.5508414559 0.0815882304 -0.550995372 -0.0293863271 0.1797586761
675295950.0 0.0026609683 0.1884754193 0.0755946433 -0.5516530456 0.0760959982 -0.5514539672 -0.0276357662 0.1802892921
680295920.0 0.0046603812 0.18844436 0.0698707587 -0.5523970968 0.069505434 -0.5529332772 -0.0256917015 0.1814161426
685295890.0 0.0069279879 0.189108128 0.0636664896 -0.5530299063 0.0635276757 -0.5533127624 -0.0240190745 0.1816029602
690295860.0 0.0093209066 0.1889981343 0.0579391236 -0.5535112656 0.0576454478 -0.5542814351 -0.0222617401 0.182304438
695295830.0 0.0110891878 0.1887769099 0.0521150665 -0.5544797992 0.0514579711 -0.5544808714 -0.0203986897 0.1827547935
700295800.0 0.0131385581 0.1884376933 0.0457563029 -0.5544382032 0.0455700916 -0.5547606567 -0.0188582304 0.1836048099
705295770.0 0.0150873027 0.1891112005 0.0395671457 -0.5550890544 0.0398115511 -0.5552604432 -0.0169293709 0.1837132144
710295740.0 0.0175613136 0.1890967467 0.0338050185 -0.5562667661 0.0341228859 -0.5561914856 -0.0151483696 0.1833317855
715295710.0 0.019136733 0.1887283613 0.0283380951 -0.5562494908 0.0276251887 -0.5560035888 -0.0132640656 0.1839380408
720295680.0 0.0214485467 0.1887489088 0.021720678 -0.5562911824 0.0221116694 -0.5563411445 -0.0115778539 0.1847010731
725295650.0 0.0236982006 0.1887547105 0.015554043 -0.5565735117 0.0161567499 -0.5568188319 -0.0103353055 0.1850219405
730295620.0 0.0256577511 0.1887401446 0.0100887409 -0.5563492505 0.0100938929 -0.5568021245 -0.0084880318 0.1849049456
735295590.0 0.0281110244 0.1885893101 0.0041324488 -0.5569298748 0.0039197763 -0.5563393497 -0.0070065989 0.1850283857
740295560.0 0.0296885695 0.1884494127 -0.0022109158 -0.5568177528 -0.0020583288 -0.5564265131 -0.0042898049 0.1854136742
745295530.0 0.0317965184 0.1882535439 -0.0083834397 -0.555955162 -0.0081717675 -0.5564782785 -0.0032548713 0.1852667303
750295500.0 0.0338577802 0.1880264317 -0.0140425563 -0.5562586756 -0.0142257531 -0.5565236929 -0.0009107175 0.1858847672
755295470.0 0.0362527729 0.1874466487 -0.0200325743 -0.5559394096 -0.0199718216 -0.5562479148 0.001000765 0.1855410116
760295440.0 0.0381847825 0.1875701658 -0.0261776263 -0.5560786367 -0.0260106746 -0.5559969561 0.0025230654 0.1857099597
765295410.0 0.0402072915 0.1872083111 -0.0324439756 -0.5556390969 -0.0323307201 -0.5554494891 0.0042505842 0.1860247506
770295380.0 0.0420108863 0.1868495931 -0.0387341981 -0.5550746059 -0.0383354316 -0.5549131203 0.0060918074 0.1855796308
775295350.0 0.0441425846 0.1860246724 -0.0445731983 -0.5541630815 -0.043545432 -0.5544987368 0.007274729 0.1859480864
780295320.0 0.046196989 0.1858617209 -0.0504389276 -0.5538317328 -0.0495500424 -0.5540647742 0.0089353433 0.1854916961
785295290.0 0.0480066723 0.1851042275 -0.05642105 -0.5529419205 -0.0558658072 -0.5535367839 0.0117407174 0.1859060065
790295260.0 0.0505701066 0.1851742182 -0.0617999931 -0.5524278787 -0.0613374131 -0.5526943574 0.0133029712 0.1859819845
795295230.0 0.0524323013 0.1844398678 -0.0680504594 -0.5517660268 -0.0673632309 -0.5521818771 0.0155251764 0.1862707042
800295200.0 0.0541130521 0.1843451961 -0.0743195948 -0.5510678596 -0.073626972 -0.5512470609 0.0171597562 0.1858063058
805295170.0 0.0562222226 0.1838418993 -0.0796551357 -0.5502422207 -0.0798687075 -0.5505529219 0.0188003773 0.1858369442
810295140.0 0.0582231966 0.1830360098 -0.0855173486 -0.5492716709 -0.0857257944 -0.5492957159 0.0210673874 0.1859333259
815295110.0 0.0603772088 0.1822562715 -0.0916763551 -0.5476867194 -0.0915260634 -0.5481288857 0.0226143253 0.1858084605
820295080.0 0.0621781886 0.1825020907 -0.0974472565 -0.5470705105 -0.0970050679 -0.547159283 0.0245712223 0.1858185619
825295050.0 0.0647156922 0.1816613283 -0.1028460422 -0.5458183126 -0.1031140895 -0.5462978744 0.0264538878 0.1858511683
830295020.0 0.0662345546 0.1811437777 -0.1088483251 -0.5447836013 -0.109355097 -0.545008348 0.0291433748 0.1859402455
