!Created with skrf (http://scikit-rf.org).
# Hz S RI R 50.0 
!freq ReS11 ImS11 ReS21 ImS21 ReS12 ImS12 ReS22 ImS22
300000.0 -0.2389245841 -0.1012603815 0.4664687037 0.0672492936 0.4689125684 0.0697710387 -0.2355715917 -0.1099493466
5299970.0 -0.2438250775 0.0071217078 0.4737626566 0.0053125737 0.4738849937 0.0059007889 -0.2439597025 0.0057457186
10299940.0 -0.2402927148 0.0196569315 0.4758117225 0.0065561378 0.4757764487 0.0065672992 -0.240649716 0.0183317408
15299910.0 -0.235957882 0.0292653641 0.4795590385 0.0075598408 0.4791308269 0.0080558774 -0.2363688336 0.0274847836
20299880.0 -0.2305056191 0.0372116883 0.4840161205 0.0083918076 0.4842724296 0.0083532138 -0.2315477854 0.0354132554
25299850.0 -0.2249572146 0.0436274223 0.4895775535 0.0070677919 0.4892190314 0.0072484706 -0.2269241238 0.0416048349
30299820.0 -0.2188220425 0.0484666917 0.4949664492 0.0055380125 0.4946720815 0.0055948359 -0.221280631 0.0467249383
35299790.0 -0.2130264096 0.0529544193 0.5005063707 0.0019228388 0.5002909448 0.0020751085 -0.2159764729 0.050912733
40299760.0 -0.2073511613 0.0556203828 0.5052756019 -0.0017126586 0.5053345064 -0.00188045 -0.2113710259 0.0547535779
45299730.0 -0.2025121618 0.0585387774 0.5101006761 -0.0068310337 0.5102831972 -0.0065616644 -0.2066611726 0.0574511583
50299700.0 -0.1973005984 0.0601584307 0.5136606614 -0.0122944009 0.5143663704 -0.0121315353 -0.2020790167 0.0596243531
55299670.0 -0.1936700969 0.0618319874 0.5179624084 -0.0180353015 0.5179928128 -0.0179881601 -0.1983775426 0.0615043803
60299640.0 -0.1893989475 0.0625344044 0.5211140869 -0.0240184975 0.5213017768 -0.0242417703 -0.1945334277 0.0631833732
65299610.0 -0.1861751919 0.0639900724 0.5244615334 -0.0301918284 0.5246901555 -0.0304299582 -0.1910378492 0.0644424943
70299580.0 -0.1826526016 0.0642153203 0.526868186 -0.0367401016 0.5267969828 -0.0371390272 -0.1878237838 0.065816234
75299550.0 -0.1796687215 0.06509211 0.5287640897 -0.0440148932 0.5287340457 -0.0443322488 -0.1850146924 0.0669151259
80299520.0 -0.1772394937 0.0655124496 0.5311822338 -0.0508296939 0.5306897118 -0.051094151 -0.1824016551 0.0673563957
85299490.0 -0.1746215519 0.0658459339 0.532031799 -0.0578450105 0.5319766412 -0.058039244 -0.1803112389 0.0684246767
90299460.0 -0.1726129928 0.0662958427 0.5334111973 -0.064426561 0.5330517162 -0.0649006804 -0.1776461549 0.0694167342
95299430.0 -0.1703892497 0.067223089 0.5340024381 -0.0722168919 0.5341687655 -0.071929939 -0.1757972712 0.0702986109
100299400.0 -0.1688572164 0.0676703271 0.5344143042 -0.0787246588 0.5347053151 -0.0787633749 -0.1745047153 0.0710830928
105299370.0 -0.166776091 0.0679932804 0.5346579883 -0.0853604117 0.5348119347 -0.0858251213 -0.1719642505 0.0717932801
110299340.0 -0.1659138454 0.0683752157 0.5349662794 -0.0917748885 0.5345102895 -0.0925596052 -0.1707174895 0.0726968729
115299310.0 -0.1637899009 0.0686338285 0.5345966656 -0.09881225 0.5349418866 -0.0992241354 -0.1692733559 0.0732482203
120299280.0 -0.1629223035 0.0692767377 0.5351146833 -0.1058153114 0.534660938 -0.1060644824 -0.1679240196 0.0745384246
125299250.0 -0.1616448632 0.0699176419 0.5343940549 -0.1126020804 0.5342970166 -0.1130177913 -0.1662936412 0.0745386378
130299220.0 -0.1603845421 0.0707476622 0.5336527613 -0.1192179323 0.5336740647 -0.119379751 -0.1651611565 0.0760060414
135299190.0 -0.1594913131 0.0710327883 0.5331013243 -0.1260358041 0.5329453053 -0.1263319069 -0.1644242345 0.0771785426
140299160.0 -0.1585215952 0.0723598002 0.5323160595 -0.1325193962 0.5324582963 -0.1326553615 -0.1630571336 0.0779551211
145299130.0 -0.157398914 0.0726577229 0.531433781 -0.1393651176 0.5311857072 -0.1388551961 -0.1623316649 0.0788721075
150299100.0 -0.1564104214 0.0734958564 0.5299904603 -0.1458672582 0.5300501538 -0.1456799065 -0.1610696091 0.0800221559
155299070.0 -0.1560948958 0.0746674515 0.5293598353 -0.1524786387 0.5288905103 -0.1529210595 -0.1600259568 0.0810544478
160299040.0 -0.1551595705 0.0751719873 0.5275232979 -0.1581745688 0.5274055204 -0.1591157019 -0.1590487061 0.082389847
165299010.0 -0.1544163294 0.0762120447 0.5265491229 -0.1653234617 0.526414328 -0.1655577837 -0.1579395913 0.0831937389
170298980.0 -0.1535784834 0.0771450601 0.5239236678 -0.1716570288 0.5246471931 -0.1718591992 -0.1568371098 0.0843811192
175298950.0 -0.1525415194 0.0783517655 0.5234947343 -0.177875791 0.5233727756 -0.1777172852 -0.1560322689 0.0854593283
180298920.0 -0.1516712796 0.079141031 0.5216716872 -0.1843529581 0.5215379324 -0.1844070362 -0.1549733349 0.0872123659
185298890.0 -0.1510863785 0.0802146683 0.5196944849 -0.190629937 0.5197260574 -0.1904865655 -0.1543240958 0.0880104628
190298860.0 -0.1500782303 0.0812583262 0.5169765233 -0.1966467325 0.5175003946 -0.1967262673 -0.1528353292 0.0893825221
195298830.0 -0.1494724968 0.0823671172 0.5154937589 -0.2022316159 0.5156514282 -0.2030406102 -0.1520959171 0.0905013711
200298800.0 -0.1488224159 0.083426624 0.5134814603 -0.2084580036 0.5137498103 -0.2084299576 -0.1508472181 0.0919418798
205298770.0 -0.1481301581 0.0846035057 0.5116264376 -0.2148758793 0.5114890528 -0.214969977 -0.1499930987 0.0931660448
210298740.0 -0.1477207544 0.0857597434 0.5096203204 -0.2214785405 0.5093991516 -0.221124398 -0.1491489946 0.0947325417
215298710.0 -0.1467587146 0.0867698337 0.5064358114 -0.2267702127 0.5066127002 -0.2266246222 -0.1484316951 0.0958168313
220298680.0 -0.145835473 0.0878890015 0.5039524096 -0.2328630351 0.5047142888 -0.2327689747 -0.1470729416 0.0975033683
225298650.0 -0.1449479567 0.0892717384 0.5018243994 -0.2383150089 0.5019117397 -0.2382657534 -0.146327255 0.0988489829
230298620.0 -0.1443795951 0.090402453 0.4996169437 -0.2444034022 0.4995218298 -0.2444718309 -0.1449276245 0.1003529613
235298590.0 -0.1437528647 0.0915343429 0.4968694353 -0.2498793409 0.4968544271 -0.2502374711 -0.1439558051 0.1014374241
240298560.0 -0.143083397 0.0928925979 0.494181913 -0.2555597502 0.4940276265 -0.2555401295 -0.1428127328 0.1031954163
245298530.0 -0.1417611249 0.0943504347 0.49047715 -0.2616078415 0.4911752922 -0.2613764323 -0.1418702382 0.104557965
250298500.0 -0.1413662977 0.0953262617 0.4884221871 -0.2669332984 0.4888057937 -0.2665925493 -0.1403615265 0.1059739126
255298470.0 -0.1406479832 0.0967579702 0.4853786617 -0.2728867666 0.4855161681 -0.2726821352 -0.1394300653 0.1071560793
260298440.0 -0.1399529489 0.09812208 0.4825400161 -0.2777989564 0.4827401175 -0.2783599958 -0.138069866 0.1088295747
265298410.0 -0.1387119528 0.0996352337 0.4795061897 -0.284397748 0.4793099507 -0.2840406272 -0.1372307235 0.1101008639
270298380.0 -0.1378446857 0.1007661206 0.4760375497 -0.2896366977 0.4763727044 -0.2895058825 -0.136030971 0.1119480584
275298350.0 -0.1370496381 0.1020622067 0.473342601 -0.294882088 0.4736770756 -0.2947182494 -0.1348248859 0.1135181197
280298320.0 -0.1362880082 0.1032298176 0.4698972314 -0.2995601657 0.4700462812 -0.3002762312 -0.1333481327 0.1146992604
285298290.0 -0.1351786556 0.1046690922 0.4668265317 -0.3050983475 0.4665849242 -0.3052422872 -0.132215924 0.1161473222
290298260.0 -0.1341859668 0.1058465891 0.4636639884 -0.3108488139 0.4636088646 -0.3107574147 -0.1307590084 0.117860837
295298230.0 -0.1331323107 0.1070436544 0.4602382487 -0.3160259729 0.45959397 -0.3162338733 -0.1293996902 0.1192408508
300298200.0 -0.1319872671 0.108561543 0.4568322128 -0.3215583984 0.4565558832 -0.321507769 -0.1281211547 0.1208064179
305298170.0 -0.1310022528 0.1096522898 0.4534781828 -0.3267121717 0.4535139296 -0.3271016503 -0.1265693674 0.1223286906
310298140.0 -0.1297364027 0.1106695435 0.4498809307 -0.3319275311 0.4500372105 -0.3323096211 -0.1251041388 0.1240801616
315298110.0 -0.1290665746 0.1118470233 0.4458659949 -0.3373808489 0.4464607601 -0.3372399762 -0.1238832807 0.1248970351
320298080.0 -0.1281505819 0.113499736 0.4423222593 -0.3425256405 0.4426723139 -0.3420999606 -0.1227257862 0.1258545975
325298050.0 -0.1272776738 0.1141039206 0.4387115871 -0.3475107145 0.4388450765 -0.3473476562 -0.121154983 0.1277278316
330298020.0 -0.1262914329 0.1154704793 0.4339597464 -0.3523509665 0.4343131308 -0.3524934229 -0.1204410671 0.1289818268
335297990.0 -0.1252263418 0.1165920786 0.4301720054 -0.3569255387 0.4303394853 -0.3571173413 -0.1190833766 0.1302413787
340297960.0 -0.1249896713 0.118115468 0.4264660737 -0.3618131015 0.4264448668 -0.3617160237 -0.1175375363 0.1320830591
345297930.0 -0.1237151191 0.1194014868 0.4221311101 -0.3663305266 0.4217778943 -0.3665065602 -0.1161867302 0.1330665948
350297900.0 -0.1222752341 0.1209519899 0.4179914986 -0.370888517 0.4181737156 -0.3711160086 -0.1146345171 0.1349553953
355297870.0 -0.1212455072 0.1219543657 0.4133933169 -0.3755555916 0.413856462 -0.3759895465 -0.1135857102 0.1362343952
360297840.0 -0.1202482175 0.1234246215 0.4097090779 -0.3807228546 0.4095795701 -0.3804657439 -0.1121383866 0.1381510691
365297810.0 -0.1190295541 0.1245795508 0.405294543 -0.3847730158 0.4053355655 -0.3850792695 -0.1109168632 0.1394710022
370297780.0 -0.117638654 0.125931566 0.4011498866 -0.3890463912 0.4012165586 -0.389393993 -0.1090488909 0.1408865278
375297750.0 -0.116917713 0.1273116547 0.3973744508 -0.3938012463 0.3968779978 -0.3938052501 -0.1076312811 0.1422325846
380297720.0 -0.1155552583 0.1283887599 0.392565254 -0.3979815002 0.392533149 -0.3979255013 -0.1058840738 0.1439946601
385297690.0 -0.1143984393 0.1298206298 0.3879260643 -0.4018010765 0.3878512044 -0.4021603452 -0.1047364111 0.1453252783
390297660.0 -0.1134112077 0.1310318999 0.383649399 -0.4064820984 0.383658314 -0.407027665 -0.1029752942 0.1463122982
395297630.0 -0.1116230934 0.1321034972 0.3792852793 -0.4107648454 0.3792075203 -0.4107845954 -0.101450184 0.1481374704
400297600.0 -0.1108927289 0.1336468077 0.3745723154 -0.4149314199 0.3748723332 -0.414787882 -0.1004972928 0.1489147691
405297570.0 -0.1091825711 0.1347325164 0.369766194 -0.4191024821 0.3701964684 -0.418991442 -0.0984306653 0.1505309014
410297540.0 -0.1076575792 0.1358571239 0.3649265879 -0.4229833388 0.3650949719 -0.4228907078 -0.0968368806 0.1515268683
415297510.0 -0.1067184428 0.1372785896 0.3607665534 -0.4266349875 0.3609916748 -0.4267886232 -0.0953211297 0.1533149495
420297480.0 -0.1052417515 0.1380815119 0.3558567072 -0.4311467261 0.355953542 -0.4308483966 -0.0933801636 0.1542727311
425297450.0 -0.1038833029 0.1390767691 0.3511978872 -0.434904127 0.3517561393 -0.4347995543 -0.0917157482 0.1558078502
430297420.0 -0.1027883427 0.1405711565 0.3465517036 -0.4388418361 0.3465943845 -0.4387603051 -0.0903323113 0.1567867262
435297390.0 -0.1012272963 0.1414780248 0.3417031913 -0.4419426642 0.3420818285 -0.4420559937 -0.0885522698 0.1583152039
440297360.0 -0.0995706243 0.1424977339 0.3363551416 -0.4459090563 0.336520924 -0.446149753 -0.087057673 0.1590541449
445297330.0 -0.0982683942 0.1437883875 0.3314716146 -0.4500251892 0.3316139677 -0.4495091213 -0.0852298585 0.1599977642
450297300.0 -0.0968907794 0.1444829679 0.3267576449 -0.452933374 0.3268353226 -0.4535325191 -0.0833780537 0.1618677139
455297270.0 -0.0954720284 0.1459143832 0.3222593954 -0.4569547523 0.32224491 -0.4565482209 -0.0815783676 0.1626271742
460297240.0 -0.0944976969 0.1468634623 0.3166069473 -0.4598359375 0.3164307309 -0.4601415059 -0.0797755168 0.1639425555
465297210.0 -0.0925891078 0.1476832817 0.3116107697 -0.4640326368 0.311834214 -0.4636975266 -0.0782475251 0.1647139931
470297180.0 -0.091183005 0.1488550322 0.3069007681 -0.4670836678 0.307074936 -0.4667756493 -0.0769622075 0.1659874505
475297150.0 -0.0901360149 0.1495225035 0.3016101721 -0.4701074494 0.3018717181 -0.4697425964 -0.0748172748 0.1670058086
480297120.0 -0.0883512889 0.1504485408 0.2963527133 -0.4731238472 0.296951553 -0.4734744541 -0.0732357265 0.1683228738
485297090.0 -0.0869446566 0.1517252642 0.2914080172 -0.4767429921 0.2911970856 -0.4769063886 -0.0713801092 0.1687947952
490297060.0 -0.0854763604 0.1523321396 0.2861275588 -0.479902212 0.2863596524 -0.4798991196 -0.0692966002 0.1700376369
495297030.0 -0.0840504226 0.1536523439 0.2808683057 -0.4826032327 0.2805834288 -0.4829630157 -0.0672686764 0.1708472173
500297000.0 -0.0823513504 0.1542405734 0.2753801556 -0.4857167185 0.2757497248 -0.48578187 -0.0661117738 0.1716719715
505296970.0 -0.0811609874 0.1553868517 0.2701664232 -0.4884795285 0.269872946 -0.4887151238 -0.0647303109 0.1728717473
510296940.0 -0.0795048577 0.1560848928 0.2645721957 -0.4916927003 0.2649527082 -0.4918180549 -0.0619559782 0.1736673044
515296910.0 -0.0781425542 0.1573888454 0.2591978812 -0.4945392235 0.2594411159 -0.494476163 -0.0603720076 0.1743872744
520296880.0 -0.0766707228 0.1581480969 0.254228306 -0.4972984129 0.2541834846 -0.4970515213 -0.0582390833 0.1754496646
525296850.0 -0.0751719807 0.1588702989 0.2488850595 -0.4999694663 0.2488327147 -0.5002377207 -0.0561008319 0.1762435736
530296820.0 -0.0735427069 0.1598142434 0.2438465191 -0.5022949306 0.2434655491 -0.5024854588 -0.0547521384 0.1765695922
535296790.0 -0.0718551488 0.1605135328 0.2375074223 -0.5046492281 0.2380149427 -0.5049731387 -0.0526615028 0.1771984541
540296760.0 -0.0704198994 0.1612002214 0.2321633284 -0.507802621 0.2318627976 -0.5077812108 -0.05093671 0.178434916
545296730.0 -0.0689978809 0.1621963174 0.2267038228 -0.5096335054 0.2268908039 -0.5102965478 -0.0491564263 0.1786404878
550296700.0 -0.067424483 0.1630220935 0.2213030471 -0.5127146134 0.222026625 -0.5126976449 -0.0471936496 0.1799955508
555296670.0 -0.0654318269 0.1635941908 0.2157306897 -0.514760411 0.2156250414 -0.5145555985 -0.0453830853 0.1805481127
560296640.0 -0.0641820803 0.1641713444 0.2100497267 -0.5169238184 0.2102333084 -0.517240746 -0.0433497245 0.1815197962
565296610.0 -0.0629674607 0.1650620928 0.2042654655 -0.5192891175 0.2041115847 -0.5194135022 -0.0412791748 0.1817226653
570296580.0 -0.0606678027 0.165625443 0.1982539725 -0.5213817902 0.1988485315 -0.5211751676 -0.0391756237 0.182952953
575296550.0 -0.0592431642 0.166841673 0.1930443013 -0.5231376334 0.1933787344 -0.5233792698 -0.0369253954 0.1832045751
580296520.0 -0.0577119184 0.1672409614 0.1876225517 -0.5255063414 0.1872926106 -0.5255414959 -0.035412752 0.1835386728
585296490.0 -0.056004014 0.1679260753 0.1819424648 -0.5279742676 0.1815633021 -0.5273453246 -0.0333447774 0.1837581662
590296460.0 -0.0546740701 0.168307802 0.1761490358 -0.529312698 0.1759061579 -0.5295285876 -0.0313868538 0.1847019294
595296430.0 -0.0528001741 0.1693690177 0.1705029023 -0.5315336185 0.1702402657 -0.5316320443 -0.0290803376 0.1850455277
600296400.0 -0.0510901688 0.1699294296 0.1646114889 -0.532908306 0.1645204342 -0.5332012426 -0.027286495 0.1858933033
605296370.0 -0.0493412654 0.1709633989 0.1588969731 -0.5354378902 0.1588038341 -0.5344800075 -0.0252537568 0.1861905925
610296340.0 -0.0481297285 0.1713955758 0.1533178317 -0.5367200205 0.1532541139 -0.5366984896 -0.0234351435 0.1872175244
615296310.0 -0.0462634001 0.1720181523 0.1467129621 -0.5381339212 0.1471305212 -0.5383800074 -0.0211478863 0.1872245498
620296280.0 -0.0446801702 0.1725812183 0.1414171339 -0.539236611 0.1412104883 -0.5396995628 -0.0191982906 0.1870627483
625296250.0 -0.0426949338 0.1730411223 0.1348902537 -0.5412397384 0.1355254884 -0.5411576365 -0.0170209013 0.187989123
630296220.0 -0.041047574 0.1735643535 0.1293366709 -0.5425576902 0.1302211454 -0.5427394548 -0.0154440366 0.1883293446
635296190.0 -0.0395815653 0.1743868829 0.1233522226 -0.5434337259 0.1235412221 -0.5432647713 -0.0131626466 0.188332372
640296160.0 -0.0377263497 0.1744614612 0.1179906662 -0.5446810839 0.1178341786 -0.5453119174 -0.0108749029 0.1886720763
645296130.0 -0.0361221423 0.17522815 0.1117932111 -0.5466166017 0.1120682885 -0.5463618726 -0.009549924 0.1889421452
650296100.0 -0.034744416 0.1760526617 0.1066055266 -0.5473192552 0.1059169125 -0.5477805581 -0.0070384122 0.1894547216
655296070.0 -0.0329143053 0.1760172036 0.0999836191 -0.5483155357 0.1001025988 -0.5485615123 -0.0047999965 0.1899632178
660296040.0 -0.0313587605 0.1771549894 0.0943189218 -0.5491918162 0.0941688925 -0.5491997778 -0.0028650801 0.1895042627
665296010.0 -0.0294310545 0.1771129845 0.0886440778 -0.5505678124 0.0886029229 -0.5503895943 -0.0013887501 0.189929754
670295980.0 -0.0272831728 0.1777354364 0.0823572547 -0.5513087373 0.0828169843 -0.5511350129 0.0006694194 0.1899412286
675295950.0 -0.0256549833 0.1782485146 0.076021518 -0.5523699552 0.0770495605 -0.5525047209 0.0030527925 0.1902806783
680295920.0 -0.0240503828 0.1786308831 0.0700067002 -0.5527144091 0.0701656976 -0.5532092956 0.0052959177 0.1905993128
685295890.0 -0.0223416166 0.1789693819 0.064733664 -0.5534265566 0.0642021182 -0.5537131396 0.0075788449 0.1904362954
690295860.0 -0.0205024026 0.1793973734 0.0583705621 -0.5539943712 0.0580444209 -0.5538412681 0.0094563176 0.1907659165
695295830.0 -0.0183432145 0.1794805043 0.0519511067 -0.5547009589 0.0520777002 -0.5550877039 0.0110637764 0.1906286337
700295800.0 -0.0164157391 0.1799661162 0.0461558682 -0.5554437954 0.0462464624 -0.5552406072 0.0136735447 0.1901935872
705295770.0 -0.0149259093 0.180490512 0.0404116102 -0.5556793046 0.0405606649 -0.5556128977 0.0152060512 0.1905538525
710295740.0 -0.0134664907 0.180973375 0.0342946247 -0.5559437452 0.0340837623 -0.5562279815 0.0167173429 0.1909553683
715295710.0 -0.0115615426 0.1809088896 0.0282612771 -0.5561249765 0.0288399876 -0.5567059072 0.0193688906 0.1902468748
720295680.0 -0.0099834129 0.1809712273 0.0223204846 -0.5564259275 0.0224668607 -0.5570497489 0.0218738535 0.1906066195
725295650.0 -0.0076865421 0.1814045616 0.0162720317 -0.5563673456 0.016453062 -0.5567417389 0.0236447708 0.1903327873
730295620.0 -0.0064201469 0.181330751 0.0101802948 -0.5567145332 0.0102005277 -0.5569698515 0.02565123 0.1898718833
735295590.0 -0.0042424622 0.1818350347 0.0047385424 -0.5568020211 0.004773805 -0.5571658825 0.0280451333 0.1900523486
740295560.0 -0.0027895889 0.1822761476 -0.0016022405 -0.5568507864 -0.001763195 -0.5569067699 0.0301134015 0.1898305273
745295530.0 -0.0008719 0.1821411709 -0.0075547698 -0.5569477273 -0.0074532275 -0.5571118918 0.0321595837 0.1898458507
750295500.0 0.0009405214 0.1824138788 -0.0133203287 -0.5564346104 -0.0138409697 -0.5562949747 0.0343173096 0.1892056973
755295470.0 0.0029847445 0.1824379196 -0.0196139976 -0.5563431922 -0.0192477276 -0.5566335053 0.0359264535 0.189382912
760295440.0 0.0046721363 0.1826167468 -0.0257321553 -0.5561705252 -0.0256430194 -0.556309979 0.037646267 0.1888041036
765295410.0 0.0062166163 0.1824077649 -0.0311269193 -0.5557003483 -0.0313123037 -0.5560712786 0.0405455316 0.1888818901
770295380.0 0.0083544269 0.1827382708 -0.0373768464 -0.5548945409 -0.0375680646 -0.5557177759 0.0426620904 0.1887754381
775295350.0 0.0100880771 0.182962101 -0.043687497 -0.5545297568 -0.0435930976 -0.5554083779 0.0441776688 0.1879587574
780295320.0 0.0120088083 0.1829222609 -0.0490206124 -0.5540772972 -0.049136825 -0.5545143962 0.0461766507 0.1878634479
785295290.0 0.0135966599 0.1834158804 -0.0553245851 -0.5536050983 -0.0555188984 -0.5540993901 0.0480357929 0.187308748
790295260.0 0.0154897227 0.1833421157 -0.0616610115 -0.5533651032 -0.0613491154 -0.5535108114 0.0507400754 0.1868630853
795295230.0 0.0170260196 0.1833020832 -0.0673037179 -0.5521051944 -0.0670077767 -0.5526545003 0.0525285173 0.1868843239
800295200.0 0.018962578 0.183360229 -0.0734751388 -0.5520464052 -0.0736512001 -0.5517973388 0.0545649642 0.1860395046
805295170.0 0.0205168571 0.1831461859 -0.0792053368 -0.5506028316 -0.0793799094 -0.5508702725 0.0563335712 0.185368418
810295140.0 0.0227563262 0.1831302904 -0.0850357094 -0.5498422145 -0.0851223973 -0.550453396 0.0586229078 0.1854254435
815295110.0 0.0245510966 0.1831091641 -0.0909804545 -0.5487283344 -0.0913188094 -0.5491790758 0.0602794513 0.1844885476
820295080.0 0.0258712384 0.1826401769 -0.0966436541 -0.5480051637 -0.0968999119 -0.5483449953 0.0621839209 0.1840084208
825295050.0 0.0279017243 0.1828937469 -0.1025193242 -0.5463899707 -0.1027396692 -0.5467339398 0.0646036087 0.1839206006
830295020.0 0.0300321399 0.1828985813 -0.1090261759 -0.5455221052 -0.1091722596 -0.5459322968 0.0664048103 0.1828052477
