!Created with skrf (http://scikit-rf.org).
# Hz S RI R 50.0 
!freq ReS11 ImS11 ReS21 ImS21 ReS12 ImS12 ReS22 ImS22
300000.0 -0.0955513036 -0.1009331817 0.6226712405 0.0926575035 0.6201303119 0.0940580003 -0.0939551803 -0.106185422
5299970.0 -0.1014041279 0.0115498417 0.6300844161 0.011110043 0.6309171183 0.0113840377 -0.1018586212 0.011252145
10299940.0 -0.0968237496 0.0287657446 0.6347014294 0.0161298179 0.6343382018 0.0163448309 -0.0963206949 0.0283864921
15299910.0 -0.0891113257 0.0423929985 0.6404251095 0.0210342328 0.6407631117 0.0212981444 -0.0897749428 0.0416904901
20299880.0 -0.0804175172 0.0534858911 0.6488861152 0.0242156259 0.6491308312 0.0240960154 -0.0810040023 0.0528398021
25299850.0 -0.0701216322 0.0624674887 0.6578632206 0.025928869 0.6584388934 0.0253484751 -0.0715360514 0.0618306528
30299820.0 -0.0608320451 0.0686773074 0.6679434534 0.0244446502 0.6679509311 0.0243658084 -0.0619163466 0.0683379766
35299790.0 -0.0503296745 0.0735234472 0.6770192139 0.0218608753 0.6773021824 0.0220416977 -0.05223991 0.073801538
40299760.0 -0.0410030981 0.0764430577 0.6869938416 0.0180807538 0.6868712823 0.0173428689 -0.0427686975 0.0769656588
45299730.0 -0.0319790766 0.0783162327 0.6956271067 0.0122338877 0.6961308105 0.0120733909 -0.0331072414 0.079119746
50299700.0 -0.0230436331 0.0789691886 0.7041528705 0.0051637785 0.7038105876 0.0049442906 -0.024532532 0.0802415263
55299670.0 -0.0150351764 0.0787306571 0.7108750116 -0.0019270427 0.710888103 -0.0025147764 -0.0172012489 0.0804443887
60299640.0 -0.0075705484 0.0785674795 0.7177049511 -0.0109193059 0.7177508838 -0.0110165583 -0.0097317226 0.0795223299
65299610.0 -0.0009087083 0.0770891185 0.7239326963 -0.0196708875 0.7243387746 -0.019707017 -0.0025637472 0.0790974031
70299580.0 0.0051729355 0.0750986206 0.7290202939 -0.02878534 0.7292535358 -0.0289671995 0.0029939953 0.0771258192
75299550.0 0.0106571584 0.0731246102 0.7334077993 -0.0396917896 0.7335775272 -0.0389070502 0.0088610988 0.0754916434
80299520.0 0.0153836922 0.071522668 0.7374728965 -0.0484563458 0.7379006766 -0.0486283818 0.0139313983 0.0735464724
85299490.0 0.0203934707 0.0691979679 0.7410092892 -0.0587660289 0.7409944694 -0.0583204842 0.017915617 0.0709518016
90299460.0 0.0240541693 0.066776134 0.7431657054 -0.0685501801 0.7437290584 -0.0686750027 0.0226523725 0.0693748172
95299430.0 0.0280791402 0.0642651013 0.7461563569 -0.0791574179 0.7464987953 -0.0792078266 0.0259451038 0.0665731279
100299400.0 0.0313760768 0.0616168033 0.7476532379 -0.0887819672 0.7477672971 -0.0891386454 0.029315096 0.0646716012
105299370.0 0.034309741 0.0591708207 0.7490756701 -0.0983025459 0.7495189484 -0.0992334691 0.0328382686 0.0616672149
110299340.0 0.0374517984 0.0563407047 0.7505748308 -0.1086671124 0.7510946396 -0.1084855212 0.034937539 0.0594275083
115299310.0 0.0397128155 0.0542397195 0.7510897641 -0.1186884358 0.7511946879 -0.1189052044 0.0375633713 0.0574278782
120299280.0 0.0417097036 0.051876142 0.7520335395 -0.1298674753 0.7519414323 -0.1293318268 0.0398114467 0.0545627729
125299250.0 0.0438491425 0.0495643386 0.7521890487 -0.138716057 0.7526145199 -0.13836533 0.0421892108 0.0529393107
130299220.0 0.0457401319 0.0470139193 0.7518162026 -0.1494754883 0.7521173322 -0.1490120602 0.0437417297 0.0508409927
135299190.0 0.046994797 0.0450856276 0.7518575419 -0.158477825 0.7519773684 -0.1586522573 0.0455283712 0.0481820721
140299160.0 0.0491278084 0.0431905357 0.752005863 -0.168959886 0.7510013794 -0.1683670455 0.0463457293 0.0455245831
145299130.0 0.0493603572 0.0412298355 0.7497074219 -0.1779116604 0.7509337002 -0.1783470594 0.0481487191 0.0438076775
150299100.0 0.0511159202 0.039061678 0.7491701994 -0.1882361461 0.7493119113 -0.1876190716 0.0490620873 0.0421292578
155299070.0 0.0526081926 0.0370140828 0.7477068564 -0.1975873937 0.7484438189 -0.1978072271 0.0508125552 0.0396098815
160299040.0 0.0534094274 0.0353876572 0.7464312492 -0.2067709073 0.7467052363 -0.2071109824 0.0509632338 0.0382475646
165299010.0 0.0544479651 0.0332785731 0.7456090866 -0.216350183 0.745325489 -0.2164428475 0.0524574813 0.0359174699
170298980.0 0.0551264172 0.0320023531 0.7433898251 -0.225798262 0.7432272513 -0.2262138239 0.0525794683 0.0339962074
175298950.0 0.0561059379 0.03027177 0.7419200422 -0.2349879588 0.7419206699 -0.235885024 0.0534675209 0.0325489796
180298920.0 0.056425974 0.028662525 0.7397457905 -0.2444875499 0.7393252672 -0.2445972063 0.0541140018 0.0309846546
185298890.0 0.0566676768 0.0273120712 0.7375838678 -0.2532436621 0.7374200176 -0.2533978461 0.0553098252 0.0291711348
190298860.0 0.0579109191 0.0255500215 0.7345549176 -0.2628380828 0.7346794834 -0.2625687226 0.0554435391 0.0273852598
195298830.0 0.0579776824 0.0242392359 0.7326581114 -0.2713306567 0.7325659862 -0.2716667971 0.0557110048 0.026079418
200298800.0 0.058581907 0.022414953 0.7302042982 -0.2811609633 0.7297648807 -0.2812055954 0.0565283497 0.0239366417
205298770.0 0.0583790389 0.0207323474 0.7266164803 -0.2893211236 0.7271066171 -0.2894351682 0.0570809834 0.0228138811
210298740.0 0.0589879492 0.0199577763 0.72438982 -0.2983312499 0.7237033086 -0.2983308215 0.0566147267 0.020887065
215298710.0 0.0594144671 0.0185132844 0.7206257549 -0.3071830975 0.7212356841 -0.3070836096 0.0571432518 0.0199800409
220298680.0 0.0599146264 0.0176891956 0.7176590606 -0.3151841035 0.7174540455 -0.3159910692 0.0574870168 0.0181249357
225298650.0 0.0597725144 0.0161426084 0.7142537113 -0.324065616 0.7146254205 -0.3238890321 0.0574702576 0.0165431619
230298620.0 0.0602004478 0.0149683682 0.7111170132 -0.332991508 0.7110223208 -0.3328605004 0.0574917754 0.0153364866
235298590.0 0.059985852 0.013842318 0.7080565286 -0.3412583152 0.7080485194 -0.3414654902 0.0580443747 0.0142718601
240298560.0 0.0604317905 0.012792277 0.7041925161 -0.3494260014 0.7039810944 -0.3492011462 0.0575072274 0.0128580224
245298530.0 0.0601996064 0.0112582546 0.7007848807 -0.3578781571 0.6999486707 -0.3579842503 0.058194215 0.0120646478
250298500.0 0.0598645186 0.010137943 0.6971038066 -0.3664355087 0.6966271611 -0.3653457542 0.057727192 0.0106119746
255298470.0 0.0607150302 0.0097283873 0.693357086 -0.3738515706 0.6935027581 -0.3742570303 0.0577985459 0.0099541681
260298440.0 0.0608037319 0.0081915454 0.6891813917 -0.3816290016 0.6891924869 -0.3824738039 0.0578508741 0.007917941
265298410.0 0.0600286586 0.0076629559 0.6849331044 -0.3903089359 0.6845114303 -0.3908821211 0.058953474 0.006527491
270298380.0 0.060114083 0.006119341 0.6805279059 -0.3983275078 0.6803534169 -0.3984058421 0.0582945583 0.0060543111
275298350.0 0.0603995724 0.0057428371 0.6757558786 -0.4060998763 0.675634704 -0.4058462268 0.057478874 0.0049148774
280298320.0 0.0599313129 0.0042629166 0.6716983642 -0.4135074291 0.6722303363 -0.4140652399 0.0584849275 0.0038364657
285298290.0 0.0600855178 0.0037435607 0.6672041461 -0.4217253986 0.6679168258 -0.4217705057 0.0581538279 0.0028072591
290298260.0 0.0600631162 0.0026485235 0.6637653936 -0.4294357525 0.6631528924 -0.4297018756 0.0584111121 0.0016730527
295298230.0 0.0599587106 0.001142825 0.6584643714 -0.4379195978 0.6585231201 -0.4380985805 0.0579235358 0.0005631535
300298200.0 0.0600585707 0.0009113603 0.6541694395 -0.4454019087 0.6536781496 -0.4448995475 0.0578283339 -0.0008540558
305298170.0 0.0601241767 -0.0007719667 0.6491908915 -0.4534876853 0.6492035156 -0.4532908441 0.0577253486 -0.0019495176
310298140.0 0.0606370947 -0.0017351759 0.6442992859 -0.4600913963 0.6446602393 -0.4601265282 0.0581562653 -0.0035031629
315298110.0 0.0597642343 -0.0028083626 0.6394452876 -0.4691011854 0.639360255 -0.4684526009 0.057734666 -0.0044819674
320298080.0 0.0595402151 -0.003782299 0.6330507069 -0.4753960329 0.6345914657 -0.4758029307 0.057091449 -0.0056343048
325298050.0 0.0586946025 -0.0051943611 0.6282844148 -0.4830739561 0.6294500467 -0.4832764136 0.057016196 -0.0066904878
330298020.0 0.0574870809 -0.0058162895 0.6226338912 -0.4906052273 0.6230671555 -0.4907082794 0.0559381542 -0.007715715
335297990.0 0.0575536669 -0.0067388855 0.6171384912 -0.4974061971 0.617515899 -0.4979470937 0.0556410107 -0.0088388323
340297960.0 0.0567460012 -0.0078429247 0.6109819698 -0.5049337119 0.6109235702 -0.5045440485 0.0552575958 -0.0090892197
345297930.0 0.0563540616 -0.0084741346 0.6056570845 -0.5121214594 0.6055806491 -0.51173699 0.055341167 -0.0102504989
350297900.0 0.0559521114 -0.0089646777 0.6004745524 -0.5176004707 0.6005267319 -0.5181927822 0.0548644692 -0.0111552763
355297870.0 0.0555034277 -0.0098485023 0.5945144032 -0.5241828618 0.5940614956 -0.5243389982 0.0544760085 -0.0119473733
360297840.0 0.0550666219 -0.0104782834 0.5882095558 -0.5311395324 0.5886686275 -0.5317676074 0.0535906454 -0.0120661113
365297810.0 0.0545872029 -0.0109797978 0.5821693764 -0.537592472 0.5824289472 -0.5385537541 0.0528760324 -0.0130544625
370297780.0 0.0546865255 -0.011271811 0.5760499701 -0.5443605781 0.5767297093 -0.5444901862 0.052693541 -0.0138692517
375297750.0 0.0542473849 -0.0121018116 0.5708110993 -0.5510808056 0.5705941181 -0.5513599863 0.0527553874 -0.014633121
380297720.0 0.0533507353 -0.0129211006 0.5648940377 -0.5578841503 0.5645218695 -0.5573234037 0.0522720123 -0.0146213162
385297690.0 0.0532710814 -0.0135892884 0.5579555702 -0.5638374042 0.5580370955 -0.5642583641 0.0523189864 -0.0153250854
390297660.0 0.0528339535 -0.0142060563 0.5521486803 -0.5691932022 0.5523516993 -0.5696302672 0.0519258263 -0.0165254874
395297630.0 0.053164189 -0.01471396 0.5457339731 -0.5747934466 0.5457954714 -0.5752752369 0.0513541562 -0.0169190632
400297600.0 0.0520281215 -0.015901515 0.5399955176 -0.5817154969 0.5396892577 -0.5816661268 0.0512199667 -0.0173901022
405297570.0 0.0519934508 -0.016619819 0.533834762 -0.5876756354 0.5338183793 -0.5876303131 0.0507026967 -0.0178058187
410297540.0 0.0514995147 -0.0166907865 0.5265564803 -0.5937999404 0.5267685835 -0.5944437382 0.0504378299 -0.0186516928
415297510.0 0.0510750026 -0.0172599033 0.5201566787 -0.5996770154 0.520620717 -0.5997404043 0.0505227984 -0.0189767177
420297480.0 0.0504355185 -0.018522681 0.5133502217 -0.6052080287 0.5138907198 -0.6056697387 0.050319845 -0.0194446681
425297450.0 0.0510022425 -0.0189500653 0.5068860899 -0.610356482 0.5071435003 -0.6109206787 0.0499083604 -0.0205744977
430297420.0 0.0500451873 -0.0194422073 0.5007993459 -0.6172296829 0.5008473608 -0.6162932689 0.0500223343 -0.0211071445
435297390.0 0.049851933 -0.0203665241 0.4928266645 -0.6228908159 0.4936966912 -0.6219335196 0.0485947523 -0.0213360113
440297360.0 0.049772894 -0.0210957639 0.4860594242 -0.6276498249 0.4860437493 -0.6278945016 0.0486576948 -0.0217286757
445297330.0 0.0494399539 -0.0219954147 0.4797923336 -0.63258032 0.4798424842 -0.6332135991 0.0484491367 -0.0220334862
450297300.0 0.049075504 -0.0221013576 0.4729846841 -0.6380043978 0.4728680516 -0.6376084323 0.0478678701 -0.0226379974
455297270.0 0.0479683012 -0.0228631785 0.4656099343 -0.6436095411 0.4659764822 -0.6435428641 0.0478069876 -0.0232973994
460297240.0 0.0480153287 -0.023470671 0.4590007334 -0.6490831854 0.4586232725 -0.6491403329 0.0475709458 -0.0239196091
465297210.0 0.0476173544 -0.0239809405 0.4517402102 -0.6533603917 0.4510100186 -0.6539054452 0.0473225253 -0.0240210035
470297180.0 0.0473308929 -0.0249941023 0.4441278604 -0.6587526818 0.4446570076 -0.658508109 0.0469289115 -0.0252087835
475297150.0 0.0467173124 -0.0249132014 0.4367114103 -0.6631211853 0.437371558 -0.6637619547 0.0463931788 -0.0257725321
480297120.0 0.0468500247 -0.0251843214 0.4296458791 -0.6682253301 0.4299313728 -0.6680233867 0.0455414292 -0.0261440073
485297090.0 0.0461483044 -0.0267686564 0.4221368753 -0.6736752521 0.4224318843 -0.6726906853 0.0457495532 -0.0261695675
490297060.0 0.0464746845 -0.0267699467 0.4145058212 -0.6779949628 0.4149385917 -0.6782316381 0.0452555663 -0.0268744869
495297030.0 0.0449629155 -0.0278476904 0.4076639647 -0.6828649986 0.4076539794 -0.6826330525 0.0455239511 -0.027590309
500297000.0 0.0447587255 -0.0278966686 0.4005710682 -0.6865315107 0.3999769088 -0.6866095048 0.0448227073 -0.0276493156
505296970.0 0.0450520339 -0.0283905521 0.3925744699 -0.6910905343 0.3925416447 -0.6915980242 0.0443907217 -0.0290904331
510296940.0 0.0444929658 -0.0290700761 0.3849525412 -0.6957446732 0.3853843169 -0.6962204054 0.0443637839 -0.0289302846
515296910.0 0.0437796299 -0.0291354242 0.3769417051 -0.6998342757 0.3767171891 -0.6997847652 0.0439946351 -0.0301492417
520296880.0 0.0436017211 -0.0295835364 0.3694208036 -0.7035635218 0.3693020381 -0.7039775654 0.0438492355 -0.0295965034
525296850.0 0.043285814 -0.0304241126 0.3618599076 -0.7080522473 0.3614895085 -0.708201123 0.0434306073 -0.0306237165
530296820.0 0.0426690037 -0.0311408088 0.3538683887 -0.7121433782 0.3542686195 -0.7118672481 0.0429698349 -0.0312521092
535296790.0 0.0428962593 -0.0311926413 0.3460719646 -0.7152788535 0.3463301311 -0.7157316674 0.0430113733 -0.0310235875
540296760.0 0.0421692343 -0.0313385006 0.3383450778 -0.7189921187 0.338405951 -0.7196999885 0.0423510876 -0.0324604236
545296730.0 0.0409010039 -0.0320894503 0.3302577933 -0.7226582872 0.3305920018 -0.7230980661 0.0418335655 -0.0323671828
550296700.0 0.0417535192 -0.032332738 0.3227478257 -0.7267448449 0.322371063 -0.7271690676 0.0415505427 -0.0331065042
555296670.0 0.0408524399 -0.0324134841 0.3144923068 -0.7307629396 0.3150730594 -0.7302575747 0.0410324829 -0.0338883145
560296640.0 0.0414390444 -0.0330170931 0.3062562489 -0.7337608587 0.3065827813 -0.7334772019 0.0402871341 -0.0336508396
565296610.0 0.0398966458 -0.033545053 0.2982287818 -0.7368696413 0.298543168 -0.7364832128 0.0403793696 -0.0338997569
570296580.0 0.0392321197 -0.0336980464 0.2899037135 -0.7395509814 0.290458759 -0.7406914028 0.0396242988 -0.0349769001
575296550.0 0.0394000275 -0.034383891 0.2827127578 -0.7434431429 0.2824519299 -0.7432843824 0.0391023741 -0.0351738953
580296520.0 0.0388659007 -0.03445237 0.2744179355 -0.746575633 0.2738226391 -0.7467995026 0.0381660458 -0.0354668623
585296490.0 0.0382779673 -0.034801226 0.2665741969 -0.749166753 0.2660748957 -0.7492383542 0.0384904313 -0.0357363282
590296460.0 0.0386275971 -0.03501274 0.2582564261 -0.7522624714 0.2579221372 -0.7527340952 0.0375383997 -0.0361606627
595296430.0 0.0378891979 -0.0355179805 0.2490886368 -0.7549919319 0.2490615829 -0.7553741657 0.0373871309 -0.0368113545
600296400.0 0.0377797883 -0.0360013505 0.2410421626 -0.757664546 0.241286519 -0.7576168021 0.0371458818 -0.0372563617
605296370.0 0.0366487838 -0.0359592647 0.233437952 -0.7603318277 0.2325480443 -0.7603715399 0.0361812513 -0.0374301888
610296340.0 0.0363251671 -0.0357992344 0.2244124348 -0.7620830837 0.2250712354 -0.7626644934 0.0356776633 -0.0377151637
615296310.0 0.0363554468 -0.0363606995 0.2162755657 -0.7653885851 0.2159427008 -0.76516725 0.0353625023 -0.0378809017
620296280.0 0.0352003117 -0.0360859536 0.2075027741 -0.7678791454 0.2078899237 -0.7676976403 0.0344237941 -0.0381340085
625296250.0 0.0346712634 -0.036735923 0.1993044198 -0.7697127755 0.1994196986 -0.7703488351 0.0337080834 -0.0386503493
630296220.0 0.0343913627 -0.03690778 0.1906173651 -0.7720616392 0.190629447 -0.7717663482 0.0336198273 -0.0388500518
635296190.0 0.0334498973 -0.0368572712 0.1825698671 -0.7739032492 0.1827004969 -0.7738008567 0.0331510041 -0.0390073277
640296160.0 0.0329898846 -0.0370987573 0.1743001636 -0.7761098155 0.1740810752 -0.7761796693 0.0322926262 -0.0398282622
645296130.0 0.0328893671 -0.0368464858 0.1652334072 -0.7774507151 0.1655144523 -0.7776589775 0.0314398108 -0.04043874
650296100.0 0.0322327062 -0.0374100559 0.1573514689 -0.7799453047 0.1569781361 -0.7799193263 0.0319228474 -0.0404001239
655296070.0 0.031780043 -0.0377133486 0.1476735371 -0.7816342849 0.1487292077 -0.7809732818 0.0303696275 -0.04052131
660296040.0 0.0313248255 -0.037487705 0.1403035504 -0.7832921836 0.1403841766 -0.7829630243 0.0298210211 -0.0411982116
665296010.0 0.0309076747 -0.0377247027 0.1311188264 -0.7837938261 0.1314269123 -0.7839080653 0.0294865297 -0.0408522041
670295980.0 0.0301302682 -0.0377390632 0.122457822 -0.7856057039 0.1228165228 -0.7851481191 0.0283861862 -0.0415205165
675295950.0 0.0296240236 -0.0381043732 0.1139546282 -0.7867364279 0.1142643134 -0.7866449397 0.027929727 -0.0411172044
680295920.0 0.0288026994 -0.0380915685 0.105865902 -0.7878377662 0.1061340165 -0.7878741374 0.0279122003 -0.0419269677
685295890.0 0.0287601683 -0.0378671264 0.0968336323 -0.7896422969 0.0976230969 -0.7890170884 0.0273161626 -0.0414905091
690295860.0 0.0274942011 -0.0378440064 0.0883282497 -0.7900331569 0.0883691964 -0.7900099394 0.0262439046 -0.0422826005
695295830.0 0.0272883657 -0.038502838 0.0806305565 -0.7909674613 0.0800493098 -0.7907318298 0.0256923277 -0.0421754952
700295800.0 0.0267959326 -0.0383634052 0.0719776419 -0.7916146969 0.0716841439 -0.7916384537 0.0251627118 -0.0421887279
705295770.0 0.0258002754 -0.0384085025 0.0626347212 -0.7926701334 0.0630644687 -0.7918906367 0.024420584 -0.0421523094
710295740.0 0.0258378056 -0.0384052519 0.0541605606 -0.793826004 0.0542570107 -0.7931126795 0.0241613487 -0.0422147905
715295710.0 0.0247913322 -0.0380692371 0.0451814132 -0.7943015837 0.0454243212 -0.7938723844 0.0230941938 -0.0425898167
720295680.0 0.0248257707 -0.0384194025 0.0364839351 -0.793922196 0.0370098928 -0.7948717634 0.0225059015 -0.0428499523
725295650.0 0.023332289 -0.0382294626 0.0282228842 -0.7944672953 0.0284346995 -0.7947013978 0.02166414 -0.0424420603
730295620.0 0.0222899574 -0.0388676978 0.0194875932 -0.7944576751 0.0199797026 -0.793976587 0.0209983939 -0.0423428937
735295590.0 0.0226044637 -0.0385618573 0.0107326997 -0.7952441472 0.0106797026 -0.7952975508 0.0200871122 -0.0430505378
740295560.0 0.0218358708 -0.0389308397 0.0024850446 -0.7952216067 0.0026837597 -0.7953725214 0.0193147752 -0.0425662616
745295530.0 0.0209306665 -0.0384750958 -0.006762334 -0.7941702901 -0.0057002108 -0.7946717207 0.0181814051 -0.0428506529
750295500.0 0.0201207922 -0.0382640801 -0.0142028159 -0.7947274484 -0.014506359 -0.7945789849 0.0180540685 -0.0426401493
755295470.0 0.0192550589 -0.0384883537 -0.0229492997 -0.7949771202 -0.0234685742 -0.7949039661 0.0176097877 -0.0422991002
760295440.0 0.0187275982 -0.0378089606 -0.033117844 -0.7940676428 -0.031940499 -0.7941383007 0.017103425 -0.0439296973
765295410.0 0.0186106474 -0.0387359078 -0.0404740609 -0.7937847544 -0.0401259526 -0.7938194706 0.016251788 -0.04278372
770295380.0 0.0179380571 -0.0382218722 -0.0493017785 -0.792720327 -0.0489743378 -0.7935812833 0.0151072946 -0.0428913129
775295350.0 0.0171731509 -0.0385603299 -0.0575019535 -0.7930052812 -0.0572445497 -0.7923562277 0.0152371355 -0.0426447653
780295320.0 0.0162723519 -0.0379262332 -0.0660279827 -0.7915180903 -0.0655103233 -0.7923782226 0.014769027 -0.0430354348
785295290.0 0.0156238365 -0.0384131487 -0.0750025947 -0.7914413872 -0.0745629212 -0.7910885616 0.0131603371 -0.0425068602
790295260.0 0.0154048725 -0.0387117311 -0.0831893186 -0.7906814387 -0.0832269272 -0.7903859903 0.0125969317 -0.0417185669
795295230.0 0.0145348915 -0.0387285625 -0.0919926146 -0.7895642637 -0.092100493 -0.7897294887 0.0122165357 -0.0429560336
800295200.0 0.0135010014 -0.0378190065 -0.0995634237 -0.7878770335 -0.1002824556 -0.7882308198 0.0113068068 -0.042234752
805295170.0 0.0128545427 -0.0382498486 -0.1091488087 -0.7869157785 -0.1085271899 -0.7877205135 0.0115222021 -0.0422156691
810295140.0 0.0128252284 -0.0380947174 -0.1176311077 -0.7858321281 -0.1176725353 -0.7854430062 0.010583116 -0.0419653301
815295110.0 0.011856308 -0.0377929994 -0.1257921963 -0.7843010472 -0.1256344945 -0.7847527879 0.0094860741 -0.042049273
820295080.0 0.0112975806 -0.037941164 -0.1337219108 -0.7822553643 -0.1343534132 -0.7831759009 0.008071826 -0.0411758129
825295050.0 0.0105501524 -0.0376075858 -0.1430772511 -0.781728301 -0.1428928852 -0.7811298397 0.0086513766 -0.0412131915
830295020.0 0.0098825187 -0.0377221126 -0.1513905765 -0.7803808284 -0.151576894 -0.7799549589 0.007637294 -0.0417619869
