!Created with skrf (http://scikit-rf.org).
# Hz S RI R 50.0 
!freq ReS11 ImS11 ReS21 ImS21 ReS12 ImS12 ReS22 ImS22
300000.0 -0.3184033122 -0.1013783112 0.3723766722 0.0505734554 0.37438286 0.0548327244 -0.3183561124 -0.1118158214
5299970.0 -0.323988327 0.0049735861 0.3787548091 0.0027041331 0.3785654604 0.0033792138 -0.3261210755 0.0029124232
10299940.0 -0.3209913901 0.0156383497 0.3797952709 0.0022491972 0.3797264069 0.0024006724 -0.3240383764 0.0128210662
15299910.0 -0.3181704193 0.023542351 0.3820030812 0.0020561498 0.3819973523 0.0025094736 -0.321208026 0.0198176339
20299880.0 -0.3144880848 0.0304687405 0.3850559386 0.0014901053 0.3852463674 0.0014438478 -0.3185117121 0.0259365264
25299850.0 -0.3107231271 0.0361111144 0.388090985 -0.0001966431 0.3885342212 0.0002805612 -0.3157244904 0.0309268657
30299820.0 -0.3067273906 0.0405028742 0.3920505979 -0.0021641171 0.3916159536 -0.0020036678 -0.3126706553 0.0355745541
35299790.0 -0.3029440634 0.0447806176 0.3950204744 -0.0052611202 0.3952266758 -0.0053931849 -0.3098752737 0.0394182112
40299760.0 -0.2997262102 0.0478841072 0.3985514263 -0.0087528911 0.3983024101 -0.0088466407 -0.3071911909 0.0433057954
45299730.0 -0.2962421903 0.0515954185 0.4010212231 -0.0130695778 0.4012935529 -0.0129186542 -0.3047513077 0.0460589537
50299700.0 -0.293150424 0.0543082641 0.4036022604 -0.017429726 0.4036455295 -0.0174291601 -0.3021211367 0.0493073712
55299670.0 -0.2909141704 0.0570210605 0.405589912 -0.0222994377 0.4058356464 -0.0221011784 -0.3003698935 0.0520468898
60299640.0 -0.2879576547 0.0590524545 0.4076794408 -0.0270234161 0.4073492265 -0.0269748021 -0.2982148438 0.0545706272
65299610.0 -0.2862069284 0.0614950105 0.4094980221 -0.0314302194 0.4093927951 -0.0318481116 -0.2961541535 0.057216912
70299580.0 -0.2837673565 0.0637086747 0.4101604104 -0.0368033538 0.4109147964 -0.0368133368 -0.2949099356 0.0593379084
75299550.0 -0.2820693971 0.0657712042 0.4116246926 -0.0422519456 0.4115272363 -0.0422004988 -0.2929381041 0.0620393119
80299520.0 -0.2803498027 0.0679057553 0.4125005566 -0.0475785922 0.4126062086 -0.0473799713 -0.2914485327 0.063932813
85299490.0 -0.2784050571 0.0697277804 0.4129086741 -0.0525136959 0.4130882045 -0.0527779085 -0.2902064553 0.0665303376
90299460.0 -0.277042238 0.0720193439 0.4133586628 -0.0576748305 0.4134851663 -0.0579250071 -0.2884319392 0.0685086159
95299430.0 -0.2754888831 0.0743369073 0.4138088832 -0.0635694268 0.4141751826 -0.063159469 -0.2878108557 0.0711239348
100299400.0 -0.274488497 0.0764101031 0.4138081996 -0.0683697598 0.4137807598 -0.0684089576 -0.286541584 0.0732032155
105299370.0 -0.2730140605 0.0782721265 0.4133734476 -0.0735023039 0.4138315894 -0.0736880541 -0.2851040265 0.0758721029
110299340.0 -0.2718136405 0.080463895 0.4132973521 -0.0782318702 0.4133775249 -0.0787818882 -0.2844133293 0.0779493791
115299310.0 -0.2708091434 0.0823223934 0.4132089194 -0.0835275779 0.4131856841 -0.0835608522 -0.2831546877 0.0798734704
120299280.0 -0.2696906927 0.0845791656 0.4129788097 -0.0889949697 0.4130246404 -0.089130863 -0.2823816046 0.0827450321
125299250.0 -0.2688061926 0.0868329472 0.4124401309 -0.0938609296 0.412612956 -0.0940421704 -0.2812249562 0.0846805563
130299220.0 -0.267620667 0.0891543694 0.4116260517 -0.098914285 0.4115226216 -0.0993432765 -0.2807736034 0.0873196726
135299190.0 -0.2667863351 0.0911741921 0.4108871986 -0.1038154342 0.4107234749 -0.1040878202 -0.2794307035 0.0897018501
140299160.0 -0.2657908907 0.0936721993 0.4099338782 -0.1088515563 0.4104010602 -0.1092585924 -0.2785111806 0.0921157845
145299130.0 -0.264701681 0.0958581032 0.4090767024 -0.1142207592 0.4090596253 -0.1137959654 -0.2779216108 0.0947776474
150299100.0 -0.2638829622 0.0981267304 0.4084265092 -0.1189740389 0.4080564886 -0.1189595196 -0.2767551544 0.0968005874
155299070.0 -0.2631987549 0.1009993792 0.4074269752 -0.124241996 0.4071851993 -0.1242146753 -0.2763442241 0.0995993642
160299040.0 -0.2617840053 0.1030144703 0.4055913648 -0.1287278893 0.4060875076 -0.1290688071 -0.275220612 0.1022618116
165299010.0 -0.261389304 0.1053200228 0.4049829073 -0.1336342092 0.4044883289 -0.1338368894 -0.2741860309 0.1047001017
170298980.0 -0.260201919 0.1076976034 0.402730665 -0.138464808 0.403182101 -0.1384285852 -0.2730954286 0.1069011531
175298950.0 -0.2590214292 0.1104961626 0.4021205887 -0.1427404816 0.4021259413 -0.1431134215 -0.2723148203 0.1098258321
180298920.0 -0.2579135906 0.1126335332 0.4005102266 -0.1481000904 0.4006490715 -0.1473951521 -0.271091034 0.1123124288
185298890.0 -0.2569021539 0.1151780753 0.39872132 -0.1527263655 0.3988415587 -0.1527925108 -0.2702483118 0.1152764332
190298860.0 -0.2559336415 0.1177010133 0.3971554261 -0.1573567815 0.3973806569 -0.1575645071 -0.2689061713 0.1178030928
195298830.0 -0.2547010662 0.1201238997 0.3958199936 -0.1619783618 0.3958471721 -0.1621256037 -0.2678251252 0.1201109443
200298800.0 -0.2535078442 0.1229203239 0.3940259294 -0.1664049378 0.3939860652 -0.1665557368 -0.266664954 0.122792792
205298770.0 -0.2526830328 0.1253454743 0.3927019981 -0.1712671897 0.3923872484 -0.1710482877 -0.2657929265 0.1254927553
210298740.0 -0.2516777905 0.1277561595 0.3904707862 -0.17587508 0.3903431345 -0.1758750393 -0.2645537034 0.1281272358
215298710.0 -0.250364427 0.1305305927 0.3887099735 -0.1804532156 0.3883047379 -0.180401947 -0.2637026104 0.1308623696
220298680.0 -0.2493117844 0.132910781 0.3864493021 -0.1846529769 0.3864018927 -0.1847340415 -0.2619893543 0.1337977464
225298650.0 -0.2478335027 0.1355651094 0.3846119486 -0.1891805577 0.3844436424 -0.1889969937 -0.2611529826 0.1362555461
230298620.0 -0.2468043862 0.1381305703 0.3827800687 -0.193305127 0.3827309976 -0.193725002 -0.2594581829 0.138885522
235298590.0 -0.24531656 0.1405532372 0.3800803226 -0.1975602456 0.3809079421 -0.1982016197 -0.2584946966 0.1414051437
240298560.0 -0.2443830693 0.1431638931 0.3782044829 -0.2019382259 0.3782882355 -0.2019967072 -0.2569536511 0.1443734534
245298530.0 -0.2427029914 0.1459082811 0.3754201538 -0.2067279657 0.3759577259 -0.2066043235 -0.2555646203 0.1470652725
250298500.0 -0.241572064 0.1483072481 0.3735106077 -0.2104844303 0.3738132007 -0.2103507839 -0.2540668651 0.149956675
255298470.0 -0.2400637485 0.1508416987 0.3711755824 -0.2154571571 0.3714490583 -0.2149762049 -0.2525218413 0.1525009932
260298440.0 -0.2386479674 0.1534648335 0.3692620468 -0.2194251451 0.3690589068 -0.2192848772 -0.2508945308 0.1552566815
265298410.0 -0.2370307244 0.1561090201 0.36627609 -0.223643531 0.3665022457 -0.2233942411 -0.2496876523 0.1577357933
270298380.0 -0.2353971247 0.1585995344 0.3639403054 -0.2276403773 0.3640524529 -0.227992798 -0.2478246434 0.1605076347
275298350.0 -0.2340098947 0.1608775889 0.361434844 -0.2317095492 0.3617215875 -0.2320794837 -0.2462618395 0.1631544435
280298320.0 -0.2324379402 0.1636074906 0.3588673665 -0.2356331562 0.35883958 -0.2358199171 -0.244594727 0.1658715597
285298290.0 -0.2311117058 0.1664658265 0.3565007703 -0.2397809066 0.356222899 -0.2399294837 -0.2430368764 0.1683074916
290298260.0 -0.2293195151 0.1690367311 0.3540282344 -0.2439404998 0.3537947914 -0.2440884387 -0.2409725363 0.1713096342
295298230.0 -0.2276582227 0.1715172567 0.3512349899 -0.2482009779 0.3508418611 -0.2480031401 -0.2392945229 0.173803705
300298200.0 -0.2257502871 0.1736115778 0.3482319716 -0.2516483217 0.3483682229 -0.2519666268 -0.23761969 0.1764768352
305298170.0 -0.2241507759 0.1761484375 0.3458993759 -0.256240317 0.345889759 -0.256159361 -0.2356489191 0.1790892344
310298140.0 -0.2220187509 0.1782072876 0.3428982832 -0.2601447718 0.3430406663 -0.2602135049 -0.2339774457 0.1817454041
315298110.0 -0.2206756782 0.181147458 0.3399625713 -0.2641518792 0.3401159457 -0.2639729481 -0.2318305894 0.1842324878
320298080.0 -0.2189702047 0.1831804932 0.337170756 -0.267887223 0.3370584952 -0.2677587521 -0.2301060938 0.1867936107
325298050.0 -0.2169214238 0.1853103081 0.3340777272 -0.2717674067 0.3341975813 -0.2719293198 -0.2281967314 0.1894760099
330298020.0 -0.2151500183 0.1878424448 0.3303471462 -0.2755370944 0.330629518 -0.2753481987 -0.2265673788 0.1917652703
335297990.0 -0.2132895893 0.1905161532 0.3276585293 -0.2790889466 0.327693955 -0.2792319424 -0.224975309 0.1943909007
340297960.0 -0.2117783349 0.1927213167 0.324452974 -0.2828324904 0.3245267618 -0.2826113502 -0.2226234721 0.196929357
345297930.0 -0.2099440188 0.1952005395 0.3211727478 -0.2862529506 0.3205278402 -0.2863849353 -0.220587577 0.1993934987
350297900.0 -0.2076482662 0.1975818173 0.3180762992 -0.2895129347 0.318150157 -0.2894813918 -0.2187708649 0.2021857419
355297870.0 -0.2059682678 0.2000177668 0.3147494396 -0.2930474277 0.3145325916 -0.2934720032 -0.2164052948 0.2048499047
360297840.0 -0.2037812809 0.202243783 0.310937673 -0.2966325424 0.3114065941 -0.2967173136 -0.2144470294 0.2073828205
365297810.0 -0.20164612 0.2044691882 0.3079291489 -0.3001374712 0.3081557872 -0.3001796412 -0.2127638331 0.2101619168
370297780.0 -0.1997295637 0.2068204575 0.3045991764 -0.3031745004 0.3046327947 -0.3037542557 -0.2102181143 0.2122393964
375297750.0 -0.1977104833 0.209210832 0.3020295723 -0.3070599377 0.3014919477 -0.3071005589 -0.2082511292 0.2149437312
380297720.0 -0.1953223776 0.211362723 0.2977061676 -0.3100114632 0.2979239896 -0.3100775393 -0.2056674321 0.2174610201
385297690.0 -0.1932726355 0.2138179275 0.2945401715 -0.3134162462 0.294602972 -0.3133257051 -0.203667993 0.219785946
390297660.0 -0.1910692573 0.2158398861 0.2908930363 -0.3165380781 0.2907471431 -0.3167761394 -0.2015494846 0.2216729328
395297630.0 -0.1887807925 0.2179808081 0.28748196 -0.319534447 0.2873893272 -0.3194986315 -0.1991001624 0.2246419081
400297600.0 -0.1865958801 0.2203225139 0.283886362 -0.3227967138 0.2840243429 -0.3230283105 -0.1969624468 0.2265308251
405297570.0 -0.1844569111 0.222375476 0.2804871586 -0.3260415269 0.2803502392 -0.3261853205 -0.1947465959 0.2289383696
410297540.0 -0.1817072726 0.2248161534 0.2762029394 -0.3290636901 0.2764756269 -0.3287925647 -0.1920676367 0.2310706393
415297510.0 -0.1798120311 0.2264182556 0.2731572059 -0.3318717738 0.2731895815 -0.3319240603 -0.190058123 0.23380606
420297480.0 -0.1771416877 0.2285802731 0.2689479501 -0.3354361989 0.2694938326 -0.3348632645 -0.1875054924 0.2354366123
425297450.0 -0.1744959179 0.230486578 0.2652734409 -0.3380244652 0.2659573474 -0.3380838222 -0.1849465552 0.2382860478
430297420.0 -0.172156755 0.2326513051 0.2616662198 -0.341058033 0.2621740265 -0.340951571 -0.1827446768 0.2400218089
435297390.0 -0.1700344453 0.2344896602 0.2583297136 -0.3435978114 0.2582026843 -0.343408865 -0.1801300265 0.2426853755
440297360.0 -0.1674886791 0.2367000534 0.2544576358 -0.3463093999 0.2538940687 -0.3461901091 -0.1775689075 0.2441665294
445297330.0 -0.1649959746 0.2385430259 0.250097855 -0.3494516973 0.2502217155 -0.3490698444 -0.174740038 0.2465907103
450297300.0 -0.1624040092 0.2401584532 0.2460938396 -0.3518988483 0.2465823968 -0.351776961 -0.1726437595 0.2485011955
455297270.0 -0.1597304166 0.2419400554 0.2427572317 -0.3544391608 0.2430497911 -0.3544237808 -0.1697348847 0.2507011255
460297240.0 -0.1576255272 0.2440042221 0.2385260788 -0.3567691531 0.238210259 -0.3572359562 -0.1671237983 0.2531739942
465297210.0 -0.1547948919 0.2459066199 0.234941203 -0.3597180623 0.2348662013 -0.3596285834 -0.1649604557 0.2546428502
470297180.0 -0.1523671516 0.2473979559 0.2306839158 -0.3618801852 0.231053821 -0.3620459996 -0.1626122045 0.2565692942
475297150.0 -0.1495752736 0.2493610927 0.2266314192 -0.3642447838 0.2268300791 -0.3641992907 -0.1598845492 0.2586645023
480297120.0 -0.146785053 0.2506834744 0.2226073689 -0.3667807431 0.2230264264 -0.3669625292 -0.1570302463 0.2611202931
485297090.0 -0.1444164477 0.2529892948 0.2187383815 -0.3697215031 0.2189589293 -0.3691973308 -0.1544007338 0.2624234783
490297060.0 -0.1418686094 0.2542144771 0.2150410716 -0.3716185969 0.2148526215 -0.3718262174 -0.151466787 0.2643565963
495297030.0 -0.1390298849 0.2562816915 0.2105903233 -0.3739649922 0.2103960645 -0.3741684566 -0.1487118812 0.2661579172
500297000.0 -0.1360544165 0.2574654596 0.2061712304 -0.3764630616 0.206542879 -0.3760919067 -0.1460887675 0.2677756951
505296970.0 -0.1335561742 0.2591919696 0.2020145293 -0.3781386198 0.2022886932 -0.3781021531 -0.1438825841 0.2695005602
510296940.0 -0.1311257408 0.2609504726 0.1982873227 -0.3807856558 0.1980696244 -0.3804927711 -0.1407067214 0.2714039987
515296910.0 -0.1282048362 0.2621755842 0.1935339991 -0.3822055848 0.1940027398 -0.382569363 -0.1379041802 0.2730625349
520296880.0 -0.1252509026 0.263888433 0.1894413399 -0.3847741024 0.1897352644 -0.38452909 -0.134884442 0.274549379
525296850.0 -0.1227710101 0.2653629589 0.1857970383 -0.3864667112 0.1855733481 -0.3868284027 -0.1318863532 0.2759821328
530296820.0 -0.1197782164 0.2668350924 0.1815980816 -0.3882172834 0.181250251 -0.3881681874 -0.1296473752 0.2773608677
535296790.0 -0.1168956197 0.2678203896 0.1769806772 -0.3901118588 0.1772777002 -0.3900572199 -0.1267772945 0.2789958546
540296760.0 -0.1143586912 0.2691719177 0.1729132208 -0.3923382752 0.1725286233 -0.3927546064 -0.1240981173 0.2809398598
545296730.0 -0.1112886753 0.2706066874 0.1685453038 -0.3937304244 0.1685276537 -0.3942219215 -0.1209488324 0.2816879706
550296700.0 -0.108999849 0.2723617575 0.1644920892 -0.395925889 0.1645510167 -0.3960964258 -0.1181621916 0.2836732007
555296670.0 -0.1053282121 0.2731934914 0.1599428213 -0.3976445029 0.1599689029 -0.3977021981 -0.1152689982 0.2851327484
560296640.0 -0.1027814416 0.2744370032 0.1555817996 -0.3993565736 0.1555890595 -0.3992418758 -0.1124489092 0.2863072702
565296610.0 -0.1001070615 0.2758867254 0.1511525961 -0.4010045501 0.1509757161 -0.400935119 -0.1094098509 0.2876746911
570296580.0 -0.0969265939 0.2768535797 0.1467965536 -0.4023693807 0.1471037001 -0.4026088345 -0.1064005468 0.2893503949
575296550.0 -0.0940369082 0.2781416852 0.1423914505 -0.4037730575 0.1425399914 -0.4039602932 -0.1034181337 0.2904331837
580296520.0 -0.0911084429 0.2792979556 0.1381192845 -0.4053684149 0.1382720242 -0.405357378 -0.1003350602 0.2914407049
585296490.0 -0.0881457774 0.2802832072 0.1336483169 -0.4070278879 0.1335878312 -0.4068558873 -0.0977181481 0.2924114047
590296460.0 -0.0853295472 0.2811115365 0.1290333529 -0.4076800885 0.1290817768 -0.4082610773 -0.0944727309 0.2939936012
595296430.0 -0.0822115872 0.2828508706 0.1246986293 -0.4096220575 0.1244167474 -0.4098974391 -0.0911389759 0.2945713051
600296400.0 -0.0791745825 0.2832141374 0.1200566028 -0.4107959873 0.1203497329 -0.4113266985 -0.0883241212 0.296340759
605296370.0 -0.076173301 0.2847386818 0.1157591493 -0.4125862075 0.1158891265 -0.4120363616 -0.0853122418 0.2971416352
610296340.0 -0.0733630542 0.2853504097 0.111741159 -0.4132947384 0.1116158075 -0.4139842416 -0.0822721774 0.2985399261
615296310.0 -0.0703460212 0.2864775043 0.1068481388 -0.4144472921 0.1068148677 -0.4146339389 -0.0791670428 0.2993574076
620296280.0 -0.0673476152 0.2873336353 0.1026119075 -0.415620405 0.1021150362 -0.4154735015 -0.0765574915 0.2995813211
625296250.0 -0.0640263448 0.2884892733 0.0972802995 -0.4172018769 0.0978236485 -0.4167177263 -0.0731388101 0.3010989341
630296220.0 -0.0611279768 0.2892112028 0.0932003489 -0.4179676634 0.0935181736 -0.4178789961 -0.0701045025 0.3022140914
635296190.0 -0.0581843097 0.2899977397 0.0888183887 -0.4184135778 0.0886189986 -0.4181386626 -0.0668785586 0.3026482317
640296160.0 -0.0547943449 0.2903481679 0.0841785722 -0.4194506893 0.0839442269 -0.4197253988 -0.0633522075 0.303725558
645296130.0 -0.0522559779 0.29130777 0.0794328153 -0.4208385593 0.0795368205 -0.4202192352 -0.0608882215 0.3041714908
650296100.0 -0.0489214467 0.2921661943 0.0753429534 -0.420696868 0.0750386111 -0.4208141538 -0.0574751462 0.3053084779
655296070.0 -0.0455419029 0.2925883097 0.0704017022 -0.4216799834 0.0705408467 -0.4219191166 -0.0540274069 0.306166686
660296040.0 -0.0431417046 0.2933957116 0.0659624905 -0.4224186105 0.0658520298 -0.4222951718 -0.0513683632 0.306518447
665296010.0 -0.0396706276 0.2935735943 0.0616166808 -0.4232965206 0.0618442515 -0.4232486522 -0.0483678286 0.3076667092
670295980.0 -0.0358464756 0.2942803676 0.056287298 -0.4237222997 0.0569756911 -0.4235751445 -0.045326747 0.3079765442
675295950.0 -0.0332069846 0.2948345736 0.052160537 -0.4243345062 0.0525451974 -0.4247805623 -0.0418896693 0.3086336686
680295920.0 -0.0303018052 0.2956450443 0.0472896486 -0.4248262837 0.0472010817 -0.4249817791 -0.0383668336 0.3092320392
685295890.0 -0.0270561565 0.2960043654 0.0431734411 -0.4254226738 0.0427027779 -0.4257170952 -0.0354618538 0.3095917774
690295860.0 -0.0235823803 0.2961446555 0.0381379913 -0.4251668922 0.0380580011 -0.4257372432 -0.0318292727 0.3102236087
695295830.0 -0.0207864344 0.2966606134 0.0330436079 -0.4262798037 0.0334657411 -0.426375653 -0.0291812326 0.3109935148
700295800.0 -0.017440577 0.2970008278 0.0287274209 -0.4266583822 0.0287379796 -0.4266755343 -0.0255165367 0.310985752
705295770.0 -0.014234874 0.2977138586 0.0241059688 -0.426713231 0.0243104149 -0.4267525733 -0.0223584096 0.3116546625
710295740.0 -0.0112132374 0.2978222149 0.0197394343 -0.4269208026 0.0197280408 -0.4267979574 -0.0195244953 0.3122349417
715295710.0 -0.0082347515 0.2978731653 0.0149075523 -0.426843493 0.0156945366 -0.4272868434 -0.016231822 0.3122141314
720295680.0 -0.0051260943 0.298061823 0.0104714955 -0.4267562308 0.010433924 -0.4275820653 -0.0126323007 0.3126839337
725295650.0 -0.0016413967 0.2983532965 0.0054970649 -0.4268102025 0.0059053724 -0.4271363932 -0.0098452761 0.3129834671
730295620.0 0.001286183 0.2983747891 0.000902801 -0.4270344836 0.0011366494 -0.427228163 -0.0059827006 0.3128206307
735295590.0 0.0048628734 0.2985543787 -0.0033930696 -0.4268022545 -0.0031568104 -0.4271012274 -0.0026102128 0.3132819621
740295560.0 0.0077337999 0.2989380975 -0.0080083822 -0.4265997817 -0.0080438632 -0.4268951441 0.0004151639 0.3130877296
745295530.0 0.0108175961 0.2988624484 -0.0126302329 -0.4266596598 -0.0123038964 -0.4269481313 0.0036241027 0.313311101
750295500.0 0.0139671542 0.2987014461 -0.0172750496 -0.426486779 -0.0173566402 -0.4264202268 0.0068809127 0.3132217389
755295470.0 0.0175874036 0.2990130887 -0.0218229 -0.426277501 -0.0215150601 -0.4264912254 0.0097998878 0.3138481924
760295440.0 0.0202055919 0.2991997899 -0.0264503158 -0.426156953 -0.0264456342 -0.4262438801 0.0130454255 0.3137205919
765295410.0 0.0237193409 0.2984840791 -0.0306203862 -0.4252131265 -0.0311137047 -0.4257333706 0.0168340182 0.3138140932
770295380.0 0.026977237 0.29894855 -0.0357094582 -0.4253816588 -0.0355023532 -0.4253235861 0.0202116774 0.3138649184
775295350.0 0.029674791 0.2988059816 -0.0403242755 -0.4247157645 -0.0400722346 -0.4246207194 0.0229023486 0.3134595775
780295320.0 0.0333471977 0.2982697179 -0.044960981 -0.4243265976 -0.044542951 -0.4245041676 0.0262703653 0.3135679651
785295290.0 0.0363099161 0.2984419808 -0.0495126952 -0.4235354596 -0.04911895 -0.4238320559 0.0293398681 0.3134046756
790295260.0 0.0392885769 0.2982133176 -0.0537375878 -0.4233257999 -0.0538538984 -0.4234771086 0.0329174165 0.3131796853
795295230.0 0.0423356651 0.2978103557 -0.0581079575 -0.4224693763 -0.0580874818 -0.4225879387 0.0361872782 0.3132323575
800295200.0 0.045698718 0.29772069 -0.0631875661 -0.422150023 -0.0629584558 -0.4217848254 0.0392303455 0.3125174796
805295170.0 0.0487498091 0.29718192 -0.0674580624 -0.4209619228 -0.0675288235 -0.4209900173 0.0422794963 0.3123957864
810295140.0 0.0521008696 0.2968081297 -0.0722427356 -0.4204217843 -0.0718979739 -0.4204777773 0.0456419773 0.3123671487
815295110.0 0.0551690558 0.2963495229 -0.0766694998 -0.4193784364 -0.0769972522 -0.4192600583 0.0490258684 0.311861017
820295080.0 0.0584850699 0.2956280211 -0.081191925 -0.4188184864 -0.0809511516 -0.4186685233 0.0521403104 0.3112482113
825295050.0 0.0616568585 0.2952900498 -0.0857321513 -0.4173321836 -0.0856916661 -0.4175874881 0.0557615317 0.311188156
830295020.0 0.0646282748 0.2948397391 -0.0903103211 -0.4167732102 -0.0904589515 -0.4165046452 0.0586961432 0.3104820571
