!Created with skrf (http://scikit-rf.org).
# Hz S RI R 50.0 
!freq ReS11 ImS11 ReS21 ImS21 ReS12 ImS12 ReS22 ImS22
300000.0 -0.2398337825 -0.093420077 0.4717573469 0.0637151245 0.470745662 0.059303481 -0.238752654 -0.1004665416
5299970.0 -0.2449305655 0.0063433257 0.475072442 0.0050803089 0.4752648778 0.0052179718 -0.2411609712 0.0073987079
10299940.0 -0.2417011219 0.017952273 0.4767972576 0.0060072342 0.4768693403 0.0064088813 -0.2378256779 0.0204504612
15299910.0 -0.23738147 0.0267109033 0.4804012423 0.007459828 0.4806837034 0.0075085126 -0.2331460413 0.0298579906
20299880.0 -0.2329178854 0.033901088 0.4850021798 0.0083301301 0.4854164258 0.0081243149 -0.2281126319 0.0380887782
25299850.0 -0.2277987867 0.0402897195 0.4902043056 0.0068860299 0.4904420927 0.0074386973 -0.2220842096 0.044811912
30299820.0 -0.2224654872 0.0450890734 0.4953800678 0.0050942057 0.4954788445 0.004953797 -0.2159096782 0.0501129383
35299790.0 -0.2175218809 0.0490100913 0.5011177394 0.0013774659 0.500856317 0.0017599405 -0.2105725673 0.0545553589
40299760.0 -0.2127042669 0.0525662397 0.5059995897 -0.0021437889 0.5061692728 -0.00256165 -0.2051171482 0.0577536524
45299730.0 -0.2079096361 0.0548558595 0.5104430358 -0.0072309032 0.5108613478 -0.0068688785 -0.2004341753 0.0605318086
50299700.0 -0.2039943178 0.0568522808 0.5150197559 -0.0126853676 0.5149777337 -0.0123598092 -0.1953832639 0.0626788755
55299670.0 -0.199872512 0.0581534187 0.518657373 -0.0186203289 0.5185609711 -0.0185466681 -0.1913809018 0.0644144335
60299640.0 -0.1957800173 0.060205832 0.5218970493 -0.0251667107 0.5220364827 -0.0245417961 -0.1871607721 0.0654393234
65299610.0 -0.1927963894 0.060939194 0.5246300761 -0.0314177578 0.5248686929 -0.0309552486 -0.184075831 0.0665755401
70299580.0 -0.189779491 0.0621338567 0.5268285882 -0.0378860421 0.5271980892 -0.0375665464 -0.1808770977 0.0677705587
75299550.0 -0.187205798 0.0632420685 0.5289176393 -0.044555992 0.528861422 -0.0442538103 -0.1779282702 0.0681724488
80299520.0 -0.1848198168 0.063505498 0.5310712992 -0.0515533037 0.5309174772 -0.0514808073 -0.1752347872 0.0691976378
85299490.0 -0.1824730303 0.0643135747 0.5318625183 -0.0582034081 0.5323080968 -0.0579727565 -0.1728644773 0.0696945494
90299460.0 -0.180314131 0.0647721993 0.5329132995 -0.0651927794 0.5336445904 -0.0652073664 -0.1707304011 0.070582719
95299430.0 -0.1782287709 0.0652406967 0.5340461512 -0.0719926634 0.5341542498 -0.0722563637 -0.1682630522 0.071306279
100299400.0 -0.1767034706 0.0663648751 0.5342533202 -0.0790890715 0.5340743553 -0.0789209476 -0.165792646 0.0717019822
105299370.0 -0.1750936851 0.0668392729 0.5345997581 -0.0861313313 0.5351365225 -0.0859206167 -0.1642805676 0.0723843189
110299340.0 -0.1732554653 0.067645732 0.5346628724 -0.0925913807 0.5349576741 -0.0922271152 -0.1627469119 0.0730770142
115299310.0 -0.1717991912 0.0679587937 0.534958587 -0.099286163 0.5348175799 -0.0993056908 -0.1609537959 0.0736703877
120299280.0 -0.1710843647 0.0686090391 0.5344904193 -0.1062765716 0.5345559647 -0.1063279503 -0.1597413621 0.074707396
125299250.0 -0.169526251 0.0691859505 0.5345897093 -0.1129174245 0.5344813745 -0.1126722879 -0.1584428382 0.0750908719
130299220.0 -0.1686399854 0.0704681772 0.5334097578 -0.1202088469 0.5333774104 -0.1193632906 -0.1570352378 0.0756735681
135299190.0 -0.1676249216 0.0711907794 0.5330402251 -0.1266041023 0.5330142579 -0.1259990708 -0.1558336996 0.0770200097
140299160.0 -0.1666579785 0.0720485423 0.5321863182 -0.1331315693 0.5317379621 -0.1332285448 -0.1545004244 0.0781832067
145299130.0 -0.1655219467 0.0729210035 0.5314353115 -0.139830454 0.5308348743 -0.1391865694 -0.1536357595 0.0788487047
150299100.0 -0.1644307936 0.0738984259 0.5297219518 -0.1457321101 0.5300730233 -0.1455320592 -0.1521343126 0.0802527903
155299070.0 -0.1638192345 0.074721864 0.5291521358 -0.1531598807 0.528466072 -0.1527605861 -0.1514368535 0.0812159111
160299040.0 -0.1628752597 0.0759924125 0.5271700809 -0.1590213843 0.5269033077 -0.1589958138 -0.1505138223 0.0822895526
165299010.0 -0.1621806183 0.0771007444 0.5260310606 -0.1658902319 0.5261271911 -0.1653214681 -0.1491174122 0.0835796689
170298980.0 -0.1614812574 0.0777406218 0.5241220759 -0.1717793127 0.524617225 -0.1717656448 -0.1483963528 0.0848910201
175298950.0 -0.1606958589 0.0787430684 0.5231538808 -0.177656905 0.5228868717 -0.1778143368 -0.1476905414 0.086189214
180298920.0 -0.1598930964 0.0800536769 0.520943952 -0.1844025639 0.5208682324 -0.1839411903 -0.1466727878 0.0871018024
185298890.0 -0.1587191273 0.0811679443 0.51947375 -0.1906686396 0.5189509957 -0.1902104567 -0.1456470943 0.088759491
190298860.0 -0.158584722 0.0824961577 0.517793901 -0.1967369197 0.5174638472 -0.1965773131 -0.1447022711 0.0897693706
195298830.0 -0.1574891812 0.0836991709 0.5149127651 -0.2032096178 0.5154673914 -0.2025542385 -0.1435511378 0.0912153603
200298800.0 -0.1566796074 0.0845873456 0.5131236474 -0.2089210389 0.5133648783 -0.2089199329 -0.1431847591 0.0921660022
205298770.0 -0.1559582191 0.0860602123 0.5105265679 -0.2152261055 0.5111100734 -0.2148235945 -0.1420592014 0.0933606188
210298740.0 -0.1554913105 0.0870168122 0.5086977382 -0.2206587194 0.5087560836 -0.2206706262 -0.1412385919 0.0951364663
215298710.0 -0.1550836881 0.0885465523 0.5068608694 -0.2267903541 0.5063208422 -0.2270517924 -0.1404764004 0.0965933678
220298680.0 -0.1540031615 0.0892374904 0.5036875836 -0.2323129459 0.5039470745 -0.2326014925 -0.1396578089 0.0976753366
225298650.0 -0.1535501078 0.0908021967 0.5015389132 -0.2390096181 0.5015434752 -0.2384219716 -0.1389020327 0.0987670605
230298620.0 -0.152749936 0.0925060313 0.4990779072 -0.2445574707 0.4995379813 -0.2444062063 -0.1379703126 0.1001622843
235298590.0 -0.1518871254 0.0937172739 0.4963456253 -0.2499107602 0.4965752282 -0.2497664545 -0.1366986095 0.1016864668
240298560.0 -0.151066075 0.0950585238 0.4938247098 -0.255990956 0.4937333682 -0.25587848 -0.1359404276 0.1031964829
245298530.0 -0.1503880352 0.0962091051 0.4915359075 -0.2618737957 0.4909232129 -0.2617189495 -0.134626377 0.1040284554
250298500.0 -0.1494008816 0.0978297585 0.4876620642 -0.2674481053 0.4877885419 -0.2669416409 -0.1340379003 0.1056544174
255298470.0 -0.1485995474 0.0985884048 0.48433547 -0.2721273977 0.4850893683 -0.2724062287 -0.1328089243 0.106939912
260298440.0 -0.1478687038 0.0998964739 0.4818214195 -0.2781518809 0.4822234299 -0.2779508213 -0.1314042203 0.1081215689
265298410.0 -0.1467265127 0.1018610674 0.4792294174 -0.2840905873 0.4791288974 -0.2838432726 -0.1305313652 0.1098459586
270298380.0 -0.1460664059 0.1030145494 0.4761541777 -0.2888934561 0.4763575039 -0.2891010291 -0.1295891604 0.110999665
275298350.0 -0.1448664974 0.1043562479 0.4729930842 -0.2950212534 0.4729812334 -0.294493158 -0.1280851623 0.1122805627
280298320.0 -0.1437643683 0.1059315991 0.4698805154 -0.3000892085 0.4700154818 -0.2993774736 -0.1265599718 0.1137835408
285298290.0 -0.1431211856 0.1072604815 0.4664495196 -0.3055031335 0.4664854315 -0.3052898565 -0.1256558551 0.1149042693
290298260.0 -0.1419789987 0.1083985653 0.4628984618 -0.3100794904 0.4633009851 -0.3105389691 -0.1244214506 0.1164699154
295298230.0 -0.1409977359 0.1094535259 0.4599377389 -0.3157862817 0.4595069434 -0.3158725462 -0.1226297416 0.1177036635
300298200.0 -0.1402195712 0.1110351466 0.4567094756 -0.3206186713 0.4566869016 -0.321222444 -0.12192125 0.1188837263
305298170.0 -0.1387914323 0.1120363613 0.4527345105 -0.3264334085 0.452926261 -0.3260137787 -0.1201078119 0.120622478
310298140.0 -0.1380433003 0.1137635071 0.4491692966 -0.33159026 0.4494555666 -0.3311263765 -0.1187522771 0.1215991177
315298110.0 -0.136826835 0.1146910797 0.4456487431 -0.336585721 0.4459669613 -0.3365968492 -0.1174948578 0.1228512899
320298080.0 -0.135625903 0.11605398 0.4414901176 -0.3422113341 0.4422236051 -0.3419183882 -0.1163835816 0.1242681366
325298050.0 -0.1348987273 0.1171901481 0.4379478342 -0.3468835042 0.4376215673 -0.3467761203 -0.1154333524 0.1254491511
330298020.0 -0.1341714966 0.1181458119 0.43372166 -0.3520153365 0.4344228427 -0.3518184526 -0.1142901343 0.1266976556
335297990.0 -0.1327352638 0.1193685219 0.430062014 -0.3563228958 0.4296852999 -0.3565998509 -0.113484919 0.1285232867
340297960.0 -0.1327736186 0.1211102332 0.4261674149 -0.3614655296 0.4255940182 -0.3615506447 -0.1114915938 0.1299599827
345297930.0 -0.1314433613 0.1225626491 0.4215131755 -0.3663460764 0.4215479069 -0.3660896578 -0.1103506385 0.1305453505
350297900.0 -0.1306394599 0.1236117509 0.4177424783 -0.370640583 0.4174860299 -0.370695513 -0.1092487307 0.1325741983
355297870.0 -0.1291907524 0.1258628113 0.4132832663 -0.3755162205 0.4138236327 -0.3750663747 -0.1082581754 0.1338243654
360297840.0 -0.1281269759 0.1270173919 0.409655289 -0.3796532888 0.4097650096 -0.3796087209 -0.1068365392 0.1351894593
365297810.0 -0.1273399616 0.1285033715 0.4052189732 -0.3844345195 0.4057232574 -0.3843519747 -0.1051869171 0.1368075639
370297780.0 -0.1258307754 0.1295612026 0.4009379964 -0.3883772852 0.4012494265 -0.3882992683 -0.1037194156 0.1380398483
375297750.0 -0.1243513566 0.1307374011 0.3963480982 -0.393120017 0.3974170656 -0.3930296106 -0.1026341955 0.1394062645
380297720.0 -0.1234861078 0.1321840461 0.3922836534 -0.3978088083 0.3922894758 -0.39687239 -0.1011472928 0.140436178
385297690.0 -0.1225707387 0.1336259028 0.3875991473 -0.4016683097 0.3879065937 -0.4015431588 -0.0994415474 0.1420344248
390297660.0 -0.1212047895 0.1349236364 0.3839009999 -0.4058113207 0.3833236075 -0.405682374 -0.0981586988 0.1429992912
395297630.0 -0.1199744663 0.1362313959 0.3793338077 -0.4099462978 0.379152102 -0.4100743479 -0.096147544 0.1446579455
400297600.0 -0.1185943444 0.1377498782 0.3741875498 -0.4145122447 0.3745216201 -0.4144183833 -0.0949800474 0.1454709381
405297570.0 -0.1175926579 0.1388870534 0.3699264014 -0.4183006433 0.3700918908 -0.4181279641 -0.0937746444 0.1466982218
410297540.0 -0.1158068703 0.140076095 0.3653936077 -0.4224824376 0.3660197321 -0.4222725299 -0.0921985406 0.1479711112
415297510.0 -0.1143926209 0.1411478096 0.3605254296 -0.4264594414 0.3606706522 -0.4267107791 -0.0903946603 0.1489030708
420297480.0 -0.1132101755 0.1425283898 0.3557713991 -0.4298812879 0.3562997545 -0.4302106853 -0.0890656486 0.1501657281
425297450.0 -0.1120289116 0.1437126056 0.3514779525 -0.4339078241 0.3518940034 -0.4343319023 -0.0875759783 0.1515292207
430297420.0 -0.1107244482 0.1448114451 0.346565472 -0.4375715633 0.3465662858 -0.4376204199 -0.0862637965 0.1522665817
435297390.0 -0.1095008972 0.14617366 0.3412783651 -0.4418578829 0.341336112 -0.4416071445 -0.083609767 0.1534925245
440297360.0 -0.1079090145 0.147189227 0.3370053258 -0.4451476343 0.3370567801 -0.4453715069 -0.082294662 0.154227826
445297330.0 -0.1067596739 0.1482089899 0.3322586514 -0.4489838332 0.3323449968 -0.4483197738 -0.0805837884 0.1550881164
450297300.0 -0.1047751676 0.1494993452 0.326916385 -0.4526225045 0.3269772053 -0.4528593351 -0.0790697544 0.1561443684
455297270.0 -0.1036763385 0.1507628266 0.3219708961 -0.4562388133 0.32236949 -0.4564449969 -0.0771558905 0.1569636656
460297240.0 -0.1023571307 0.1517738255 0.316944188 -0.4594635695 0.3171505296 -0.4598653669 -0.0757166546 0.1585169224
465297210.0 -0.1007097717 0.1531025864 0.3119126091 -0.4629353969 0.3121494989 -0.4632318031 -0.0734632498 0.1589587813
470297180.0 -0.0990794819 0.1539820461 0.3067805733 -0.4664668673 0.3072212265 -0.4667485732 -0.0717543882 0.1600728665
475297150.0 -0.0975442084 0.1549622414 0.3016159698 -0.4690375841 0.3020936536 -0.4691776181 -0.0696837665 0.1608471084
480297120.0 -0.0965352498 0.1561627641 0.296938117 -0.4726666823 0.2964847163 -0.4729656283 -0.067789222 0.1621225007
485297090.0 -0.0948471522 0.1573109927 0.2917692564 -0.4761312144 0.2917887864 -0.4756121292 -0.066205726 0.1628221234
490297060.0 -0.0936037365 0.1585023988 0.2866713515 -0.4793493248 0.2867899652 -0.4791194391 -0.0646386244 0.1638778351
495297030.0 -0.091821239 0.1593405137 0.2807710604 -0.482396106 0.2816287383 -0.4819765306 -0.0627183948 0.1649610832
500297000.0 -0.0903635366 0.1603527281 0.2758016536 -0.4850152712 0.2759273309 -0.4848384121 -0.0608254982 0.1661369719
505296970.0 -0.0886942383 0.1610218207 0.2704993333 -0.4880080979 0.2704855428 -0.4882665747 -0.0588633 0.1666893798
510296940.0 -0.0870892425 0.1622358504 0.264984647 -0.4910264353 0.2651709474 -0.4914529636 -0.0568113213 0.1677453768
515296910.0 -0.0857189692 0.1635464195 0.2597104153 -0.4941813143 0.2599343399 -0.4937392126 -0.0550930938 0.1685108506
520296880.0 -0.0844321575 0.1642201824 0.2543233074 -0.4970764691 0.2545121225 -0.4964897133 -0.0533567361 0.1690847937
525296850.0 -0.0823204264 0.1648132573 0.2487644644 -0.4990844798 0.2494225917 -0.4992812008 -0.0517319422 0.170142358
530296820.0 -0.0808071832 0.1662630292 0.2434324794 -0.5022176569 0.2436045359 -0.501988361 -0.0496600888 0.1707676982
535296790.0 -0.0795308154 0.1669951158 0.2381947516 -0.5043567078 0.2382943055 -0.5042963202 -0.0479884062 0.1709830303
540296760.0 -0.0781853223 0.1682535866 0.2330504165 -0.507349404 0.2328429943 -0.5072307128 -0.0465149521 0.172463491
545296730.0 -0.0762341541 0.1690995723 0.2268666347 -0.5095625777 0.2270087263 -0.5099009416 -0.0446237629 0.1728538248
550296700.0 -0.074290247 0.1699467046 0.2211274108 -0.5123728327 0.2213911547 -0.5121171909 -0.042333188 0.1733440318
555296670.0 -0.0728636393 0.1709686369 0.2161188371 -0.5145714837 0.2162129941 -0.5142957808 -0.0404038961 0.1745495351
560296640.0 -0.0709814627 0.1717753045 0.2103794007 -0.5165504322 0.2105615868 -0.5165208726 -0.0385376908 0.1749253797
565296610.0 -0.0698051612 0.1728604394 0.2043465856 -0.5190042143 0.205097219 -0.5190285669 -0.036990891 0.1750864883
570296580.0 -0.0681554679 0.1735884768 0.1992061822 -0.5221870049 0.1986394173 -0.5211925173 -0.034679418 0.176221601
575296550.0 -0.0665805713 0.1744050787 0.1936962268 -0.523745436 0.1932831083 -0.5234893619 -0.0328476255 0.1766127875
580296520.0 -0.0645900264 0.1750939991 0.1875759378 -0.5254848889 0.1879235966 -0.5254135279 -0.0309346862 0.1766822884
585296490.0 -0.0632666074 0.1754674441 0.1821543678 -0.5273793017 0.1824797505 -0.5273295137 -0.02902775 0.1774831677
590296460.0 -0.0606531218 0.1764428711 0.1762015015 -0.5288581066 0.1764614524 -0.5289245333 -0.027287079 0.1779313399
595296430.0 -0.0595430569 0.1770350897 0.170325547 -0.5316631878 0.170473029 -0.5309709973 -0.025306687 0.1779192039
600296400.0 -0.0580991121 0.1776783787 0.1649322397 -0.5330326324 0.165051969 -0.5325503536 -0.0234261282 0.1784296887
605296370.0 -0.0563541739 0.1783976603 0.1591490894 -0.5343943694 0.1593192842 -0.5344093196 -0.0210928938 0.1787080109
610296340.0 -0.0543860158 0.1791552645 0.1532300634 -0.5362641237 0.1532806057 -0.5363030038 -0.0191731195 0.1791183655
615296310.0 -0.0525042186 0.1796401823 0.1470672071 -0.5375291141 0.1472045095 -0.5381111156 -0.0167803571 0.1795511847
620296280.0 -0.0507848547 0.18018047 0.1416932633 -0.5393927556 0.1415711861 -0.5388811478 -0.0150787996 0.1799708094
625296250.0 -0.0493299023 0.1807172589 0.1361060067 -0.5409784512 0.1359526083 -0.5411824459 -0.012653499 0.1800291854
630296220.0 -0.0468348974 0.1815899095 0.1291541328 -0.5423672974 0.1295907396 -0.5419715987 -0.011074503 0.1806180009
635296190.0 -0.0459846443 0.18217144 0.1239313719 -0.5436119747 0.1239947304 -0.5437172173 -0.0090371443 0.1807617115
640296160.0 -0.0441124677 0.1827490523 0.1179905567 -0.5448618516 0.1183546168 -0.5449097123 -0.0070172998 0.1806760627
645296130.0 -0.0420313172 0.1835114354 0.1121348182 -0.5460910875 0.1128897534 -0.5460425801 -0.0048489813 0.1813922617
650296100.0 -0.0401555925 0.1840803197 0.1060665151 -0.5472435202 0.1064612958 -0.5469628435 -0.0024763664 0.1809424997
655296070.0 -0.0387528422 0.1841155762 0.1000604047 -0.5482894517 0.10069037 -0.54819181 -0.0007800596 0.1814373484
660296040.0 -0.0372351498 0.1843796603 0.0942729397 -0.5487027198 0.0947268449 -0.5494072437 0.0017544879 0.1818388918
665296010.0 -0.0348089384 0.1850218952 0.0879319888 -0.5499471041 0.0886860819 -0.549997521 0.0038318164 0.1824668898
670295980.0 -0.0338557191 0.1858763006 0.0827827839 -0.5510718799 0.0824812046 -0.550878434 0.0053030041 0.1822842989
675295950.0 -0.0316985172 0.1863404378 0.076630194 -0.551949881 0.0768897581 -0.551370997 0.0072975705 0.1825660724
680295920.0 -0.0300145653 0.186567222 0.0702678587 -0.5526115393 0.0702580658 -0.5528703239 0.0095888209 0.1829874399
685295890.0 -0.027784322 0.1878098586 0.0646875646 -0.5533512318 0.0642453549 -0.5535208269 0.011465151 0.1825034995
690295860.0 -0.0259668464 0.1876316458 0.058663973 -0.5534749869 0.0591488203 -0.5539647905 0.0131727369 0.183219785
695295830.0 -0.0241194025 0.1878297593 0.0528197009 -0.5542174608 0.0525430877 -0.5545341361 0.0154132324 0.1831699504
700295800.0 -0.0224402895 0.1879239359 0.0466196461 -0.5549128893 0.0461730914 -0.5546408667 0.0170524841 0.1835840503
705295770.0 -0.0206376296 0.189176459 0.0404294561 -0.5551393504 0.0413027955 -0.555937834 0.0191036346 0.1836739123
710295740.0 -0.0186321775 0.1890769475 0.0350003684 -0.5560966696 0.035402069 -0.5564356356 0.0215335878 0.1828907804
715295710.0 -0.0172877355 0.1893857169 0.0291494153 -0.5563739173 0.0285755171 -0.5560139302 0.0236602552 0.1826735489
720295680.0 -0.0152995779 0.1897351274 0.0231728376 -0.5566895666 0.0229484966 -0.5566201941 0.0257571308 0.1832991001
725295650.0 -0.0132896753 0.1900273063 0.016871023 -0.5564667543 0.0169551248 -0.5565294602 0.0270534526 0.182933334
730295620.0 -0.0113061312 0.1907615417 0.010461318 -0.5567379874 0.0110571881 -0.556742175 0.0288464704 0.1823305163
735295590.0 -0.0098917031 0.1909771059 0.0050353767 -0.5571173797 0.0048785375 -0.5567468538 0.0308216828 0.1823037243
740295560.0 -0.0080954637 0.1911326837 -0.0010293197 -0.556679058 -0.0010593097 -0.5568618631 0.0336355184 0.1824485616
745295530.0 -0.0059937206 0.1914190896 -0.0073658914 -0.5563008018 -0.0071507907 -0.5566058955 0.0352899494 0.1816702714
750295500.0 -0.0039340906 0.1913171629 -0.0131857493 -0.5560905029 -0.0132086281 -0.5567755856 0.0374515572 0.1815401402
755295470.0 -0.0019694486 0.191472424 -0.0188131449 -0.5564036968 -0.0187089994 -0.5563498931 0.0396471413 0.1807324451
760295440.0 -0.0005020859 0.1915825623 -0.025005547 -0.5562546938 -0.0252955467 -0.5566067131 0.041525129 0.1806749585
765295410.0 0.0014121528 0.1920959235 -0.0311009157 -0.5559424515 -0.0313296468 -0.5560938395 0.0436585721 0.1805372961
770295380.0 0.0030643553 0.1918435336 -0.0373317599 -0.5553184006 -0.0369883421 -0.5552944786 0.0453608849 0.1801293235
775295350.0 0.0049014843 0.191560746 -0.0434116172 -0.5544961864 -0.0425186298 -0.5546514058 0.0468407403 0.1798356552
780295320.0 0.0067328964 0.1919231849 -0.0489975947 -0.5539329619 -0.0485731656 -0.5541071364 0.048988895 0.1791537909
785295290.0 0.0084627406 0.1916646872 -0.0554042529 -0.5535331279 -0.0547787377 -0.5537080349 0.0517402013 0.1786721855
790295260.0 0.0109650203 0.1923115631 -0.0606581788 -0.55291729 -0.0602264587 -0.5526546791 0.0534058907 0.1785266328
795295230.0 0.0124239731 0.1920400892 -0.0667782279 -0.5518861318 -0.0665240183 -0.5523391975 0.0555674417 0.1779150499
800295200.0 0.0142943395 0.191996611 -0.0732767985 -0.5507772072 -0.0726137823 -0.5514697783 0.0577041442 0.1774367475
805295170.0 0.0159594398 0.1918070459 -0.0785302366 -0.550465787 -0.0785063201 -0.5507466657 0.0593079317 0.1770656468
810295140.0 0.0180190625 0.1916842042 -0.0843348738 -0.5491127797 -0.0842536241 -0.5499513231 0.0617734924 0.1768829317
815295110.0 0.0200768574 0.1913651863 -0.0905435723 -0.5483147414 -0.0900369555 -0.5485941668 0.0636011216 0.175947839
820295080.0 0.0215220025 0.192297038 -0.096312151 -0.5474430539 -0.0959996065 -0.5473119029 0.0654146256 0.1755341412
825295050.0 0.0241996164 0.1918646939 -0.1020485567 -0.5462862093 -0.1024141893 -0.5464664252 0.0677338092 0.1752083469
830295020.0 0.0257035116 0.1917848931 -0.1084406687 -0.5448325583 -0.1082389636 -0.5453688045 0.0702214463 0.1744913181
