!Created with skrf (http://scikit-rf.org).
# Hz S RI R 50.0 
!freq ReS11 ImS11 ReS21 ImS21 ReS12 ImS12 ReS22 ImS22
300000.0 -0.0975405316 -0.0854710808 0.6235457952 0.0805824803 0.6245018754 0.085109914 -0.0948754001 -0.0945878347
5299970.0 -0.1004574528 0.0127145483 0.6307066165 0.0102640098 0.6309835476 0.0109593605 -0.1020534608 0.0119332267
10299940.0 -0.0952933442 0.0296535632 0.634394697 0.0155191909 0.6341007126 0.0161429257 -0.0972043181 0.0290418504
15299910.0 -0.0885594149 0.0430561681 0.6403244768 0.0205975606 0.6404851678 0.0210801115 -0.0899366237 0.0421347279
20299880.0 -0.0794846882 0.0543118723 0.6485186157 0.0241321051 0.6489576598 0.0240909214 -0.0818251437 0.0535990979
25299850.0 -0.0697099741 0.0626260239 0.6579992078 0.0250709293 0.6579407718 0.0252629429 -0.0724361878 0.0618053042
30299820.0 -0.0594370723 0.0689712119 0.667709776 0.0244721862 0.667308718 0.0245265113 -0.0625585964 0.0688106333
35299790.0 -0.0492524787 0.0743446263 0.6775103616 0.0214707623 0.6772733774 0.0217556522 -0.052323309 0.0734444593
40299760.0 -0.0396099578 0.0770030117 0.6862552485 0.0176940033 0.6868209312 0.0175987651 -0.0436512439 0.0772435163
45299730.0 -0.0303969474 0.0792654745 0.6954448528 0.0116391189 0.6957235056 0.0120217749 -0.0340853277 0.0791368699
50299700.0 -0.0218086786 0.0798245327 0.7032606028 0.0046104971 0.7034844417 0.0046306026 -0.0254809721 0.0803247749
55299670.0 -0.0141886603 0.0798172818 0.7107726774 -0.0031373089 0.7110723065 -0.0026230197 -0.0178333864 0.0798243988
60299640.0 -0.0064110336 0.0787658986 0.716745337 -0.011776565 0.7175434577 -0.0113996004 -0.0102232465 0.0797304867
65299610.0 -0.0004029148 0.0781082276 0.723880777 -0.019612078 0.7237087788 -0.0200370299 -0.003567003 0.0784895912
70299580.0 0.0060198969 0.0757831331 0.7283752631 -0.0290754379 0.7282921075 -0.0292080165 0.0021189849 0.0770760032
75299550.0 0.0118192982 0.0742577675 0.7326682706 -0.0390655025 0.7328570298 -0.0394947543 0.0083302673 0.0759391373
80299520.0 0.0160594673 0.0719011422 0.7372476485 -0.0489977325 0.7376436084 -0.048810458 0.0131004007 0.072511282
85299490.0 0.020887486 0.0697028757 0.7410882987 -0.0591393065 0.7403749002 -0.0588916594 0.0173841524 0.0707684244
90299460.0 0.0245396602 0.0676345847 0.7434378805 -0.0689601254 0.7438672798 -0.0686811758 0.0220218252 0.0689984492
95299430.0 0.0281275774 0.0651859724 0.7462031365 -0.0794571555 0.7457595097 -0.0790164987 0.0251982865 0.0663834943
100299400.0 0.0314817294 0.0628363911 0.7476310802 -0.0891416866 0.7473401656 -0.0893436306 0.0285569392 0.0638149426
105299370.0 0.0346843739 0.0602035786 0.7488699612 -0.0989722486 0.7489261948 -0.0994701981 0.0320041829 0.0617989611
110299340.0 0.0369556897 0.0575112965 0.749626895 -0.1092943859 0.7496405788 -0.1093454323 0.0346101026 0.0593768712
115299310.0 0.0398191254 0.0548816584 0.7508005102 -0.118671497 0.7511793536 -0.1189565054 0.0374941053 0.0563255265
120299280.0 0.0413290644 0.0528895865 0.7518393336 -0.1293458293 0.7512225102 -0.1293236937 0.0390882385 0.0542379
125299250.0 0.0432208408 0.0503398605 0.7518103594 -0.1392508037 0.7522084782 -0.1395027573 0.0412347581 0.0513057236
130299220.0 0.0451939125 0.0480401136 0.7515355389 -0.1490703308 0.7514053667 -0.1491847265 0.0434787973 0.0493386932
135299190.0 0.0467901766 0.0453953027 0.7511084132 -0.1587033215 0.7512463222 -0.1585800241 0.0444985707 0.0475339397
140299160.0 0.0479659735 0.0439508338 0.7507433348 -0.1691518537 0.7511403244 -0.1687600477 0.0462268682 0.045457652
145299130.0 0.0492734273 0.0418152516 0.7506130613 -0.1788002869 0.7501056638 -0.1784736675 0.0472224122 0.0427792071
150299100.0 0.0505445154 0.0399272889 0.7492928245 -0.1883506194 0.7490510715 -0.1880959715 0.0487139346 0.0408383208
155299070.0 0.0511436088 0.038427992 0.7476819556 -0.1983229142 0.747795508 -0.1980565998 0.0492934697 0.0385556686
160299040.0 0.0525447476 0.0359937063 0.7467351608 -0.2071799604 0.7462567938 -0.2073415407 0.050969694 0.0374460054
165299010.0 0.0528940043 0.034114799 0.745064878 -0.2169393149 0.7449833197 -0.2168547993 0.0516917676 0.034778321
170298980.0 0.0533949685 0.0327334231 0.7420410791 -0.2260582961 0.742909589 -0.2264765364 0.0527871416 0.032802009
175298950.0 0.0546113271 0.0303534884 0.7414994189 -0.235077086 0.7415863723 -0.2351586911 0.0535345762 0.0311022131
180298920.0 0.0552277392 0.0290117033 0.7391563347 -0.2449708839 0.7389354838 -0.2442420394 0.0537567709 0.0299687988
185298890.0 0.0559731378 0.0271750009 0.7368952393 -0.2540803682 0.7366642723 -0.2535768291 0.0541967585 0.0275539686
190298860.0 0.0563329368 0.0260019935 0.7343286378 -0.2631114024 0.7345782104 -0.263090247 0.0554197066 0.0262565552
195298830.0 0.0561075509 0.0241072058 0.7317928646 -0.2715834117 0.7320485159 -0.2724740939 0.0557840872 0.0240689892
200298800.0 0.0571443655 0.0224344365 0.7291498055 -0.2805005476 0.7295110832 -0.2805927317 0.055860522 0.0232004553
205298770.0 0.0570631207 0.0212972349 0.7271780422 -0.2897309539 0.7266103016 -0.2898201189 0.0566217948 0.0208282356
210298740.0 0.0569529257 0.0197332119 0.7236367906 -0.2988997696 0.7240351682 -0.2987043686 0.0569283164 0.0197802267
215298710.0 0.057895529 0.018715437 0.7205105008 -0.3070499065 0.7209882138 -0.3072190741 0.0570126336 0.0184038476
220298680.0 0.0580467597 0.0171603028 0.7173939485 -0.3161011425 0.7171538807 -0.3159225874 0.0574767832 0.0173383671
225298650.0 0.0584310982 0.0162542419 0.7143447866 -0.3239869429 0.7141574845 -0.3243441657 0.057709828 0.0158192334
230298620.0 0.0580647677 0.0148249465 0.7112230077 -0.3326976605 0.7111190963 -0.3330075585 0.0577496191 0.014407412
235298590.0 0.0584211018 0.0134013594 0.7076291639 -0.340814147 0.7076452366 -0.341558223 0.0580703883 0.0129208759
240298560.0 0.0583665919 0.0118545328 0.7043921038 -0.3492836943 0.704170152 -0.3491657256 0.0581149128 0.0118004841
245298530.0 0.058956203 0.0112359739 0.6989923105 -0.3576719106 0.6996166231 -0.3582058237 0.0582873477 0.0107060527
250298500.0 0.0584417055 0.0097308854 0.6958638417 -0.3661523384 0.6965573291 -0.365293812 0.0588694461 0.0089141599
255298470.0 0.0583866914 0.0089246834 0.6918102042 -0.3741660681 0.6922422778 -0.3744420292 0.0588248223 0.0075407921
260298440.0 0.0582655511 0.0078862443 0.6881628365 -0.3819956127 0.6880422767 -0.3820587361 0.0593259619 0.00683018
265298410.0 0.0590438861 0.0068741395 0.6841161902 -0.390949513 0.6839486553 -0.3906359165 0.0587476565 0.0055418885
270298380.0 0.0589442762 0.005566307 0.6795331262 -0.3980618771 0.6798953972 -0.3983969651 0.0589368242 0.0048499123
275298350.0 0.0585687679 0.0048621985 0.6754564878 -0.4064747587 0.6756818747 -0.4063341528 0.0587199888 0.0037014702
280298320.0 0.0586237873 0.0039687546 0.6712389937 -0.4137014873 0.6710292104 -0.4146103066 0.0596591206 0.0027589312
285298290.0 0.0587667393 0.003010007 0.6662583766 -0.4216846764 0.6662650165 -0.4220688617 0.0589885575 0.0017545034
290298260.0 0.0585661219 0.0018082101 0.6624626273 -0.4296613353 0.6624018932 -0.4297678453 0.0596683726 0.0005016571
295298230.0 0.0587923402 0.0006288933 0.6578810158 -0.4378152007 0.657284061 -0.4372543678 0.0596981681 -0.0001732507
300298200.0 0.0594310695 2.8251e-06 0.6531696962 -0.4448433151 0.6530537075 -0.4451639367 0.0592397752 -0.0015521537
305298170.0 0.058841151 -0.001607387 0.648185974 -0.4527653393 0.6487872779 -0.4530547479 0.0597972675 -0.0020998252
310298140.0 0.0594485936 -0.0025140175 0.6439256575 -0.4604048242 0.6433494862 -0.4613097912 0.059756096 -0.0029535215
315298110.0 0.0586672185 -0.0033650755 0.6383602262 -0.4681351194 0.6387874636 -0.4681991433 0.0596872164 -0.0046301185
320298080.0 0.0586247713 -0.0044292692 0.633288953 -0.4757068427 0.6334820365 -0.4756579578 0.0594860914 -0.0057427815
325298050.0 0.0582065836 -0.005937826 0.6282251584 -0.4836130624 0.6283232791 -0.4835340191 0.0592322567 -0.0069739808
330298020.0 0.057606787 -0.0065504098 0.6215679177 -0.4906338283 0.6221838024 -0.4907142436 0.0586386119 -0.0081081917
335297990.0 0.0574576042 -0.0078303145 0.6164816472 -0.4979083465 0.6167199914 -0.4979314587 0.0580113684 -0.0089638939
340297960.0 0.0567146959 -0.0080024306 0.6106238548 -0.5051687375 0.6105361622 -0.5044413984 0.0573920596 -0.0094058783
345297930.0 0.0563988358 -0.0085911273 0.6050098451 -0.5108977562 0.6044581787 -0.5111580518 0.0575246444 -0.010779289
350297900.0 0.0564603646 -0.0092977635 0.5991520315 -0.5178020959 0.5996194778 -0.5178132143 0.0568091011 -0.0106922738
355297870.0 0.0559845567 -0.010201962 0.5933875722 -0.524452436 0.5931058223 -0.5250821825 0.0563644371 -0.0114938803
360297840.0 0.0560621623 -0.0106467264 0.5877909876 -0.5316656499 0.5875183466 -0.5313702966 0.0564299612 -0.0118337649
365297810.0 0.055849009 -0.0115841828 0.5815331034 -0.5382018562 0.581278241 -0.5377487004 0.0558853369 -0.0124609407
370297780.0 0.0557013411 -0.0122908676 0.5756782369 -0.5439192156 0.5756364169 -0.544904893 0.0560639452 -0.0130152007
375297750.0 0.0551339469 -0.0121891911 0.5697011185 -0.5511683092 0.5698395483 -0.5512647145 0.0555187127 -0.0137440885
380297720.0 0.0548265795 -0.0138885816 0.5635475308 -0.5568301751 0.5636804129 -0.5569863087 0.0553199093 -0.0141042439
385297690.0 0.0550012688 -0.0140901279 0.5575197055 -0.5631034583 0.5573024875 -0.5635902993 0.0548909388 -0.0146026395
390297660.0 0.054261913 -0.0146940088 0.550506396 -0.5698989631 0.5512330828 -0.5698688011 0.0546721514 -0.0156882996
395297630.0 0.0543886499 -0.0156479235 0.544817699 -0.5753408404 0.5446246539 -0.5756729624 0.0544216986 -0.0157340122
400297600.0 0.05379823 -0.016149787 0.5385577045 -0.5819218162 0.5386166288 -0.582349618 0.0534384356 -0.0171768113
405297570.0 0.0539296229 -0.0165900763 0.5322143681 -0.5878988053 0.5324731149 -0.5880201276 0.053734565 -0.0168511696
410297540.0 0.0539063958 -0.0174671745 0.5250202218 -0.5938811185 0.525294112 -0.5941116802 0.0534152637 -0.0178179072
415297510.0 0.0533072738 -0.017324866 0.5190229953 -0.5992235655 0.5190875699 -0.5995079143 0.0526564715 -0.0181210104
420297480.0 0.0529779711 -0.0188815807 0.51197466 -0.6056136192 0.5124067364 -0.6055585492 0.0525989193 -0.01937274
425297450.0 0.0533529493 -0.0196873789 0.505900273 -0.6109762252 0.5060662974 -0.6109926793 0.0522031728 -0.0191388786
430297420.0 0.0523461373 -0.0196396283 0.4992820993 -0.6170846188 0.4993794113 -0.6168619042 0.0517989555 -0.0204174155
435297390.0 0.0523779327 -0.0208392621 0.492372126 -0.6222659724 0.4921693103 -0.621704343 0.0511596925 -0.0202059714
440297360.0 0.0523254047 -0.0211925711 0.4852512485 -0.6274690833 0.4847418184 -0.6278403696 0.0509961769 -0.0216021565
445297330.0 0.0523364844 -0.0222288787 0.4778299777 -0.6332031838 0.4779659668 -0.6332223928 0.0506242706 -0.0219377185
450297300.0 0.0518406958 -0.0227330624 0.4713602877 -0.6383243359 0.471604349 -0.6385519557 0.0501747705 -0.0221353235
455297270.0 0.0509950186 -0.0234135485 0.464658167 -0.6435301213 0.4650040303 -0.643576342 0.0502498282 -0.022652157
460297240.0 0.0503339195 -0.023793876 0.4570470239 -0.6484194275 0.4567809088 -0.6489542623 0.0495435202 -0.0226914362
465297210.0 0.0506834197 -0.024644432 0.4498452003 -0.6541420025 0.4507348775 -0.653891086 0.048652828 -0.0238239956
470297180.0 0.0498533834 -0.025220248 0.4426866599 -0.6585748268 0.4433053872 -0.6591291992 0.0480806375 -0.0242318404
475297150.0 0.0495250623 -0.0264554661 0.4354201523 -0.6635033384 0.4359205362 -0.663057621 0.0481675727 -0.0247180332
480297120.0 0.0500127195 -0.0269074853 0.4286453406 -0.6686626553 0.4285665139 -0.6676855786 0.0475056784 -0.0246229434
485297090.0 0.0491992217 -0.0272705029 0.4213493873 -0.6726782087 0.4212163004 -0.6732668751 0.0469952391 -0.0257959408
490297060.0 0.0489542229 -0.0282188727 0.4142327768 -0.6778208208 0.4140016745 -0.6774488343 0.0469360132 -0.0252523
495297030.0 0.0479999877 -0.0281021647 0.4058690374 -0.682378677 0.4058838726 -0.6824942854 0.0466841344 -0.0265893445
500297000.0 0.0480837367 -0.0292581848 0.3987573961 -0.6866652299 0.3987025376 -0.6867016677 0.0452676 -0.0268640049
505296970.0 0.0469148775 -0.0297189803 0.3906595957 -0.6904674926 0.3911125152 -0.6907342481 0.0448681725 -0.0272894778
510296940.0 0.0469884976 -0.0299363492 0.3834536473 -0.6957641971 0.3837869055 -0.6953618463 0.0451572946 -0.0271165896
515296910.0 0.0463069117 -0.0304595634 0.3755679588 -0.6993343035 0.3760766959 -0.6994029147 0.0438265956 -0.0280571005
520296880.0 0.0457334192 -0.0312380071 0.3676382937 -0.7033366004 0.3683623221 -0.703621232 0.0440935455 -0.028403139
525296850.0 0.0454204721 -0.0322288818 0.3600636308 -0.7074930996 0.3605399801 -0.7078231403 0.0438183379 -0.0288929024
530296820.0 0.045044057 -0.032435945 0.3535052721 -0.7101756548 0.3526664191 -0.7114309751 0.0428082166 -0.0299969203
535296790.0 0.0442195302 -0.0329594767 0.3445480243 -0.7145660052 0.3448934071 -0.7154671364 0.0426087473 -0.0301180539
540296760.0 0.0438602569 -0.0338435521 0.3373938668 -0.7194189208 0.3369147898 -0.7192971652 0.041618339 -0.0300841464
545296730.0 0.0433189369 -0.033828584 0.3290553447 -0.7219973051 0.3293734275 -0.7225941436 0.0412420767 -0.0311109936
550296700.0 0.0427308389 -0.0345194475 0.3214398719 -0.7263651997 0.3218756004 -0.726444576 0.0406036696 -0.0305730568
555296670.0 0.0426432882 -0.0351997164 0.3135855407 -0.7304322642 0.3132897964 -0.7296564599 0.040158973 -0.0310194956
560296640.0 0.0416582996 -0.0357208488 0.3057594607 -0.7331019036 0.3057680324 -0.7325574768 0.0397687278 -0.0316427215
565296610.0 0.0407722783 -0.0359945994 0.2969404874 -0.7367213319 0.2971215786 -0.7366464305 0.03888817 -0.0322956367
570296580.0 0.0411085568 -0.0365302972 0.2889517622 -0.7395243352 0.2890598218 -0.7399188933 0.0385023292 -0.0317682425
575296550.0 0.0402448425 -0.0361926875 0.2811461645 -0.7421934516 0.2818239319 -0.7424064213 0.0382512 -0.0328142159
580296520.0 0.0397133743 -0.0373768728 0.2731188497 -0.7454917803 0.272928505 -0.7463283567 0.0375038754 -0.0332664572
585296490.0 0.0393131466 -0.0379205875 0.2655092724 -0.7490495572 0.2646596141 -0.7486652415 0.0369975545 -0.033702533
590296460.0 0.0381620521 -0.0387279281 0.2567100264 -0.7523082139 0.2561059566 -0.751867358 0.0366029174 -0.0336307716
595296430.0 0.0377431939 -0.0381987092 0.2488641063 -0.7544089726 0.2481848954 -0.7549270468 0.0364022067 -0.0341612528
600296400.0 0.0371666504 -0.0386744663 0.2403576237 -0.7572234174 0.2405702293 -0.7569838663 0.0355425317 -0.0342500849
605296370.0 0.0368642812 -0.0386861595 0.2321031629 -0.7599260622 0.2319862324 -0.7592502719 0.0348247076 -0.0352777939
610296340.0 0.0357826125 -0.0394830291 0.2241222133 -0.7622864318 0.2242200373 -0.7623476187 0.0344301372 -0.034384847
615296310.0 0.0353447339 -0.0396622255 0.2154377966 -0.7642256364 0.2152416468 -0.7649418944 0.0341883384 -0.0351537605
620296280.0 0.0348184438 -0.0401453256 0.2068100483 -0.766650486 0.2065353285 -0.7669297779 0.0333474073 -0.036092687
625296250.0 0.0343510566 -0.0403932861 0.1980929338 -0.7696540181 0.1986040905 -0.7694147788 0.0332189034 -0.035666035
630296220.0 0.0337440918 -0.0405012132 0.1901269628 -0.7715154448 0.1904036345 -0.7715606189 0.0316453232 -0.0358428025
635296190.0 0.0332104695 -0.0409607971 0.1818094841 -0.7729493801 0.1816108938 -0.7725998065 0.0313119431 -0.0365051189
640296160.0 0.0321931519 -0.0412045338 0.1735212346 -0.7748778686 0.1731486832 -0.7753007092 0.031546669 -0.0368592958
645296130.0 0.0320653526 -0.0413075482 0.1650710845 -0.7771312462 0.1648076708 -0.7773405319 0.029562747 -0.037354286
650296100.0 0.030829173 -0.0408472995 0.1570681675 -0.7781927079 0.1568178151 -0.7781735759 0.0297945659 -0.0374125701
655296070.0 0.0302877163 -0.0420285754 0.1481263298 -0.780055584 0.1478065244 -0.7804352496 0.0297895235 -0.0368487262
660296040.0 0.0292757377 -0.0419159259 0.1392582901 -0.7810213809 0.1394364719 -0.7817212749 0.0284710637 -0.0380248695
665296010.0 0.0293096852 -0.0423215203 0.1311968041 -0.7832555808 0.1317304474 -0.7830110866 0.0279461493 -0.0373498235
670295980.0 0.0291468015 -0.0422121307 0.1228910245 -0.7844395554 0.122706072 -0.7843908055 0.0270645151 -0.038012615
675295950.0 0.0283915664 -0.0425813056 0.1139062733 -0.7859423242 0.1143473998 -0.7861137944 0.0269203762 -0.0377851309
680295920.0 0.0273811058 -0.0423986622 0.1050714154 -0.7869172714 0.1053129742 -0.7872863287 0.0264156488 -0.0384507331
685295890.0 0.0267858103 -0.0426469968 0.0969692727 -0.78836801 0.0968247782 -0.7885468223 0.0255932855 -0.0381454871
690295860.0 0.0266555012 -0.0432213147 0.0885099641 -0.7884635357 0.0879649924 -0.7886175184 0.025368947 -0.0385422692
695295830.0 0.0262054799 -0.0434264124 0.0794183209 -0.7904030425 0.078683085 -0.7902048384 0.024001265 -0.0385211882
700295800.0 0.0258058514 -0.043451357 0.0703790292 -0.7907331647 0.0708205854 -0.7913872413 0.0236936554 -0.0393418901
705295770.0 0.0246408743 -0.0435120882 0.0623500734 -0.7915481784 0.0623353179 -0.7916897489 0.0229133652 -0.0392293443
710295740.0 0.0240100289 -0.0433556055 0.0536113031 -0.7920025066 0.0532970991 -0.7916751868 0.0215261763 -0.0388558871
715295710.0 0.023448291 -0.0438544637 0.0447627834 -0.7929608692 0.0449494103 -0.7927748545 0.0216566584 -0.0400561493
720295680.0 0.0225855791 -0.0443081126 0.0362159075 -0.7931666418 0.0364820728 -0.7936692278 0.0217677106 -0.0390731756
725295650.0 0.0222614583 -0.0439997088 0.0276738548 -0.7931482632 0.0272976751 -0.7933951137 0.0209163016 -0.0391715847
730295620.0 0.0212825908 -0.0444562037 0.0189211874 -0.7935207475 0.0192436978 -0.7936739802 0.02051421 -0.0404354505
735295590.0 0.0211818134 -0.0443130769 0.0106347709 -0.7941500627 0.0108531983 -0.7938708401 0.0195778558 -0.0396166385
740295560.0 0.0202282717 -0.044231269 0.0018326686 -0.7936963072 0.001810507 -0.7939085479 0.0194548325 -0.0398761993
745295530.0 0.0198416072 -0.0449471828 -0.0065005645 -0.7939501374 -0.0067695292 -0.7942032362 0.0183192636 -0.0397858052
750295500.0 0.0190641436 -0.0447092751 -0.0153220766 -0.7931567058 -0.0154635587 -0.7934248103 0.0183634199 -0.0404632699
755295470.0 0.0189979224 -0.0445760519 -0.0235355628 -0.7933281785 -0.0236529984 -0.7939185807 0.0167522189 -0.0402248038
760295440.0 0.017900255 -0.0444180188 -0.0334145316 -0.7930551333 -0.0329239502 -0.7931086486 0.0161163323 -0.040322089
765295410.0 0.0169709199 -0.0449673794 -0.040654014 -0.7926947208 -0.0411308079 -0.7930130257 0.0165949088 -0.0399468431
770295380.0 0.0167915375 -0.044908491 -0.0494860949 -0.7922441583 -0.0497672934 -0.7921876617 0.0158128405 -0.0398649977
775295350.0 0.0160734321 -0.0448184583 -0.0586263638 -0.791323946 -0.0585745185 -0.7917117935 0.0146082446 -0.0409609322
780295320.0 0.0156795645 -0.0446715721 -0.0665739839 -0.7906700313 -0.0667222941 -0.791077037 0.0140322959 -0.0400075183
785295290.0 0.0147515362 -0.0446890059 -0.0755078886 -0.7890990835 -0.0757427168 -0.7903055224 0.0130520177 -0.0402847241
790295260.0 0.014019526 -0.0444505345 -0.0841163263 -0.7892367677 -0.0840049012 -0.7897756111 0.0133687596 -0.0404056646
795295230.0 0.0134050031 -0.0447933398 -0.0917883273 -0.787844437 -0.0923751787 -0.7880294519 0.0122447387 -0.0396774001
800295200.0 0.0129210861 -0.0446731841 -0.1020502375 -0.7876647923 -0.1016915887 -0.7872469511 0.0119668487 -0.0399892931
805295170.0 0.0116527677 -0.0448613406 -0.1101185117 -0.7854736514 -0.1093850204 -0.7861216906 0.0109648228 -0.0403108946
810295140.0 0.0113835423 -0.044688857 -0.1182513425 -0.7845093003 -0.1180719585 -0.7853271723 0.0109508604 -0.0396213745
815295110.0 0.0108972618 -0.0442401342 -0.1271644007 -0.7828748374 -0.1275225574 -0.7833519733 0.0096226712 -0.0404905467
820295080.0 0.01029752 -0.044668823 -0.1351046558 -0.7819938589 -0.1353626414 -0.7823938713 0.009013068 -0.0399968314
825295050.0 0.0095530424 -0.0447879787 -0.14393462 -0.7803238691 -0.1438738751 -0.7798355085 0.0088509241 -0.0394977552
830295020.0 0.0089965072 -0.0441398026 -0.1525463119 -0.7787858784 -0.1533101734 -0.7788385294 0.007896436 -0.0400856996
