!Created with skrf (http://scikit-rf.org).
# Hz S RI R 50.0 
!freq ReS11 ImS11 ReS21 ImS21 ReS12 ImS12 ReS22 ImS22
300000.0 -0.7727663909 -0.1422505621 -0.0004110248 0.0014029293 0.0007685831 -1.39186e-05 -0.045464048 -0.069696493
5299970.0 -0.7850824073 -0.0075301519 1.8303e-06 0.0002340867 -0.0001653071 -4.4772e-05 -0.0482743197 0.0142112714
10299940.0 -0.7877804789 -0.0039677741 -0.0001619431 1.88899e-05 2.73882e-05 2.75607e-05 -0.0429567409 0.0314214086
15299910.0 -0.7931320763 -0.0015125411 -8.82835e-05 0.0001926017 -8.54087e-05 -9.22672e-05 -0.0343727132 0.0454252808
20299880.0 -0.7998236742 0.0025958141 -0.0001254348 9.39951e-05 1.69759e-05 -0.0001582907 -0.0246261227 0.0570147299
25299850.0 -0.8064570123 0.0086189168 2.37667e-05 -0.0003011713 -7.81046e-05 0.0001954117 -0.0143874143 0.0662370657
30299820.0 -0.8116932057 0.0162532003 -7.32973e-05 2.50658e-05 3.22073e-05 -3.76354e-05 -0.0029281718 0.0727343395
35299790.0 -0.8166684387 0.0250985734 -0.0001476187 0.0001459731 0.0001181384 9.46337e-05 0.0082237229 0.0771323177
40299760.0 -0.8215485523 0.034406969 3.74792e-05 -2.01678e-05 -2.3118e-06 0.0001086109 0.0194679568 0.0798711468
45299730.0 -0.8245956872 0.0442612934 7.82184e-05 -4.32197e-05 -8.35013e-05 -0.0001250209 0.0296983886 0.0812417945
50299700.0 -0.8270375721 0.0541368966 0.0001199781 3.28481e-05 -0.0002095082 9.81859e-05 0.039875593 0.0811472336
55299670.0 -0.8289850366 0.0640748784 5.40568e-05 0.0001057213 0.0001438194 2.3641e-06 0.0484223968 0.08058552
60299640.0 -0.8298368607 0.0745922435 0.0001246536 -6.9744e-05 4.83495e-05 5.54785e-05 0.0567163534 0.078481823
65299610.0 -0.8312399889 0.0847451098 0.0001923201 4.47109e-05 -6.41087e-05 7.16344e-05 0.0644026678 0.0761856498
70299580.0 -0.8309988549 0.0948126352 0.0001156909 8.64513e-05 7.39198e-05 -5.19061e-05 0.0713129405 0.0731468116
75299550.0 -0.8318093737 0.1048268209 1.78847e-05 1.92329e-05 0.0001352897 0.0002092671 0.0773591971 0.069954011
80299520.0 -0.8313033372 0.114627686 -1.32613e-05 0.0001896171 0.0001308112 -4.35717e-05 0.0826667066 0.0664060907
85299490.0 -0.8305391777 0.1240143112 2.72504e-05 2.36312e-05 2.57783e-05 0.0001122751 0.0878309924 0.0625827444
90299460.0 -0.8297931525 0.133711496 -5.29768e-05 -4.89517e-05 7.98443e-05 0.0002189375 0.0925383766 0.0585188692
95299430.0 -0.8288979846 0.1436616152 -6.24797e-05 -5.82868e-05 -3.82193e-05 -4.58057e-05 0.0964664979 0.0548032855
100299400.0 -0.8280535314 0.1528054477 8.27923e-05 -0.0001296491 2.65848e-05 -6.53617e-05 0.0995476658 0.0507703859
105299370.0 -0.8267880796 0.1623084382 6.69731e-05 3.25809e-05 0.000135359 0.0001101081 0.1029133371 0.0468631342
110299340.0 -0.8252385245 0.1715425566 -0.0001293772 7.39251e-05 -1.09867e-05 0.0001877758 0.1056020292 0.04285218
115299310.0 -0.8236963777 0.1805172162 2.32952e-05 6.66453e-05 -0.000122793 0.0002266957 0.1078313984 0.0387718834
120299280.0 -0.8220009626 0.1892721125 -2.69325e-05 -0.0001267672 -0.0001056064 7.12137e-05 0.1103398702 0.035062714
125299250.0 -0.8204912127 0.1984308363 -0.0001037222 4.2501e-05 -5.08619e-05 0.0001065709 0.1123304003 0.0309851674
130299220.0 -0.8185209056 0.2078218083 0.0002960518 0.0001249639 -0.0001051587 -0.0001668685 0.1134317563 0.0272385908
135299190.0 -0.8169801204 0.2164325797 9.1033e-06 -4.7734e-06 -4.60945e-05 0.0001491141 0.1152573353 0.0237534278
140299160.0 -0.8146970893 0.2259416038 7.13816e-05 -1.33164e-05 0.0003048995 9.50352e-05 0.1166880677 0.0198758817
145299130.0 -0.8121839341 0.2339324553 0.0001757127 -5.79932e-05 -0.0002347644 3.71343e-05 0.1172710071 0.0165922772
150299100.0 -0.810181515 0.2428162524 0.0001260573 -0.0002904849 0.0001531781 -5.63137e-05 0.117956426 0.0129944149
155299070.0 -0.8079981814 0.2526738011 6.03629e-05 0.0001614746 0.000132437 0.0001508142 0.1188974298 0.0098707206
160299040.0 -0.8046538509 0.2609443191 -0.0001019083 -3.79556e-05 1.42867e-05 8.00064e-05 0.1197046111 0.0062907393
165299010.0 -0.8019787021 0.2693853277 4.94229e-05 -0.0001347289 2.5327e-05 -6.4666e-05 0.1200656651 0.0030881737
170298980.0 -0.799762756 0.2783187986 0.0001823509 -0.0001342317 0.0002647588 2.8381e-06 0.120313712 -0.000107203
175298950.0 -0.7968338014 0.2871980093 5.2455e-06 0.0003002264 -1.95625e-05 -0.0001199276 0.120414233 -0.0034723244
180298920.0 -0.7937097017 0.2951429685 9.72547e-05 0.0001151829 5.1491e-05 3.76068e-05 0.1205651385 -0.0063214136
185298890.0 -0.7905844743 0.3040353971 -0.0001533184 -4.39913e-05 0.0004302474 -8.91201e-05 0.1206955717 -0.0093661496
190298860.0 -0.7876373517 0.3124933233 0.0001290651 -3.35554e-05 -0.000331682 0.0002551166 0.1208198966 -0.0124978988
195298830.0 -0.784393292 0.3212106186 0.0002130262 1.38119e-05 0.0001185007 -2.9249e-05 0.1203697475 -0.0148468975
200298800.0 -0.7810709553 0.3293120985 -2.31101e-05 0.0002402661 4.1355e-06 0.0001075849 0.1206584761 -0.0179846279
205298770.0 -0.7764529561 0.3372929525 0.000352041 5.11627e-05 6.67343e-05 -7.73665e-05 0.1203208206 -0.0205625168
210298740.0 -0.7736086912 0.3460279032 3.50638e-05 0.0002070799 0.0001396113 0.0001453202 0.1198603553 -0.0229648336
215298710.0 -0.7706901146 0.3545107906 7.68572e-05 -0.0001182597 1.80361e-05 -0.0001081121 0.1190760104 -0.0260786005
220298680.0 -0.7670760805 0.3623925339 8.96808e-05 -7.26616e-05 2.23394e-05 1.08153e-05 0.1191525934 -0.0282256672
225298650.0 -0.7628117314 0.3708751327 0.0002314319 -2.32885e-05 9.0255e-06 4.79851e-05 0.1180153316 -0.0302804518
230298620.0 -0.7583776409 0.3786505161 -5.17653e-05 0.0001024421 0.0001126906 0.00017403 0.1178171469 -0.0330441837
235298590.0 -0.7545509659 0.3872709947 0.0001985467 0.0001490358 -0.0001453371 -0.0001429898 0.1172280929 -0.0357165186
240298560.0 -0.7509310591 0.3948823957 6.0359e-05 -5.29276e-05 -1.43559e-05 1.92297e-05 0.1163146949 -0.0376299876
245298530.0 -0.7463523631 0.4028359288 8.72381e-05 -9.72088e-05 0.0001438638 -6.015e-07 0.1158782665 -0.0399668174
250298500.0 -0.7427500439 0.4109119711 -4.45045e-05 -8.35122e-05 0.0001386672 0.000214746 0.1155567478 -0.042114985
255298470.0 -0.7379981051 0.4191045493 7.24332e-05 6.91162e-05 -8.12904e-05 -2.51368e-05 0.1145553378 -0.0445882967
260298440.0 -0.7340104049 0.4255970724 7.32592e-05 -0.000179522 9.39322e-05 7.39864e-05 0.1134350548 -0.0467728398
265298410.0 -0.72921457 0.4342023871 -8.0952e-06 -2.55891e-05 0.0001190757 5.25586e-05 0.1130147861 -0.0486974988
270298380.0 -0.7241671241 0.441917507 5.45631e-05 0.000112568 0.000157699 0.00016953 0.1122037636 -0.0506851421
275298350.0 -0.7194258056 0.4491130362 6.25941e-05 -2.53333e-05 -9.04891e-05 0.0001168562 0.1112142046 -0.0523645424
280298320.0 -0.7153499793 0.4570768376 -0.0003195688 8.6675e-05 0.0002159706 1.0624e-05 0.1104490671 -0.0545922686
285298290.0 -0.7106086969 0.4646055251 0.0001645598 -8.63651e-05 5.14044e-05 -0.0001528016 0.1094284289 -0.0563455947
290298260.0 -0.7052534188 0.4718121128 0.0001528001 7.79826e-05 4.99078e-05 6.99764e-05 0.1086261483 -0.0581584243
295298230.0 -0.7008281798 0.4796540272 0.0002331831 0.0002435033 -7.7251e-05 9.34447e-05 0.1075403013 -0.0599294982
300298200.0 -0.6950427714 0.4866959206 -5.23074e-05 0.0001071664 8.7406e-05 0.0001367033 0.1066368693 -0.0620055798
305298170.0 -0.689992173 0.4945008319 0.0002008415 -5.54216e-05 -5.32816e-05 0.0001229966 0.1060576056 -0.063421477
310298140.0 -0.6847919674 0.5009628926 -1.98565e-05 8.41598e-05 0.0001223292 -2.727e-07 0.10500006 -0.0649764207
315298110.0 -0.6795895032 0.5082571786 0.0001444309 9.32297e-05 1.264e-05 0.0001352528 0.1039134842 -0.0673615512
320298080.0 -0.6741920745 0.5160888546 -0.0001003344 -0.0001503644 0.0001323449 0.0001041228 0.1030118326 -0.0689961796
325298050.0 -0.6685683359 0.5220840588 -0.0001161429 5.72174e-05 8.71236e-05 8.27158e-05 0.1014582201 -0.0708776101
330298020.0 -0.6626770937 0.5290415604 0.0001643699 -9.93027e-05 -8.32936e-05 0.0001596697 0.1004479071 -0.0722494947
335297990.0 -0.6568135697 0.5359898333 0.0003753276 0.0001417509 0.0001053945 1.33462e-05 0.0989567676 -0.0742007855
340297960.0 -0.6521032725 0.5430096424 -3.81359e-05 4.79072e-05 0.0002179945 6.5967e-05 0.0974872341 -0.0756652607
345297930.0 -0.64609939 0.5489401836 9.83273e-05 5.56609e-05 -0.0001192934 7.08433e-05 0.0960372793 -0.0769047644
350297900.0 -0.6402067137 0.5566354447 0.0001073824 -3.76755e-05 4.76331e-05 -0.000212357 0.0950486829 -0.0780642265
355297870.0 -0.6342530412 0.5629374846 -1.0119e-06 -4.29861e-05 0.0001274206 0.0001170368 0.0934569374 -0.0793056973
360297840.0 -0.6284269762 0.5692317883 0.000111785 7.531e-05 0.0001060299 -2.74295e-05 0.092197475 -0.0804791691
365297810.0 -0.6226043322 0.5756232838 -9.41416e-05 0.0002516878 3.47654e-05 0.0001037485 0.090739374 -0.0820062311
370297780.0 -0.6159221142 0.581823844 0.0002657769 -5.6324e-06 7.88873e-05 0.0002311389 0.0891455445 -0.0832856505
375297750.0 -0.6104231127 0.5884305386 0.0001353212 -0.0001267513 0.0001464145 0.000156181 0.0879932127 -0.0842295445
380297720.0 -0.6042761665 0.5951170059 0.0001871174 -1.51699e-05 -1.54627e-05 -9.28725e-05 0.0868014496 -0.0854931201
385297690.0 -0.598264678 0.6007652027 8.81776e-05 -0.0001168778 0.0001464128 1.81309e-05 0.0852823448 -0.0864261026
390297660.0 -0.5912462392 0.607051325 0.0004085947 -4.08996e-05 8.44942e-05 0.0002136951 0.0838434307 -0.0878300297
395297630.0 -0.5850843333 0.6136976142 0.0001345507 -0.0001741869 0.0001801585 -1.26671e-05 0.0825276929 -0.0890859068
400297600.0 -0.5790920215 0.6191163509 8.49051e-05 3.97217e-05 4.54904e-05 0.0002103632 0.0807453519 -0.0901481959
405297570.0 -0.5728345394 0.625083658 0.0001467906 0.0001105913 -1.53943e-05 3.4316e-06 0.0795327558 -0.0905539015
410297540.0 -0.5656586966 0.6310771164 0.0003284426 8.53232e-05 0.0001658504 -4.11041e-05 0.077922017 -0.0919973805
415297510.0 -0.559286439 0.6366144525 -9.70499e-05 9.84647e-05 0.0003573001 -5.68017e-05 0.0766144392 -0.0923684395
420297480.0 -0.5518197718 0.6421455986 0.0002929302 1.8911e-06 -2.94585e-05 0.0001446978 0.0752002699 -0.0937838424
425297450.0 -0.5454009134 0.6478820763 0.000227682 -0.0001459358 0.0002410154 -6.307e-06 0.074163247 -0.0946516986
430297420.0 -0.538933411 0.6537915149 9.53779e-05 -0.0001700236 0.0002367834 9.42954e-05 0.0722974157 -0.0955801567
435297390.0 -0.5324969681 0.6590429177 3.9291e-06 -9.5592e-06 0.0001804414 5.7099e-05 0.0709049169 -0.0962853744
440297360.0 -0.5257637577 0.6645223165 -0.0001304537 -1.30166e-05 5.27689e-05 0.0001382058 0.0690745867 -0.0973652715
445297330.0 -0.5187339819 0.6703072845 0.0001208876 9.46818e-05 9.10788e-05 0.0002287969 0.0672610239 -0.0983679148
450297300.0 -0.5114474566 0.6748096349 0.0002401778 0.0002059159 0.0001879272 -6.77936e-05 0.0657151317 -0.0989410762
455297270.0 -0.5042273427 0.680287449 4.33712e-05 -0.0002115909 0.0001579575 1.02497e-05 0.0643831149 -0.0998898188
460297240.0 -0.4975925028 0.6851886287 0.0001211936 0.0002156948 0.0001415038 4.48813e-05 0.0631991401 -0.1004678694
465297210.0 -0.4898329728 0.6905524024 0.0002172342 -0.000116295 3.4745e-06 0.0001465449 0.0609608553 -0.1016839727
470297180.0 -0.4831213016 0.6947776147 -3.097e-05 -0.0001526389 0.0003804917 0.0001702715 0.0591899922 -0.1021072055
475297150.0 -0.4752410075 0.7002905156 0.0001844028 0.0003745663 3.87338e-05 -1.12416e-05 0.058177715 -0.1025688804
480297120.0 -0.4687107192 0.7045524313 -0.0002538043 6.50523e-05 0.0002082173 2.48285e-05 0.056533278 -0.1030462857
485297090.0 -0.4615387257 0.7092813093 6.33909e-05 3.5236e-05 0.0001491865 0.0002417222 0.0545868804 -0.1037651212
490297060.0 -0.4541417537 0.7144799047 4.28642e-05 6.24402e-05 -3.22044e-05 2.40847e-05 0.0531916582 -0.1048022371
495297030.0 -0.447530671 0.7187113886 7.13913e-05 7.77137e-05 0.0002235645 -5.69619e-05 0.0515038747 -0.1054703428
500297000.0 -0.4385998174 0.7232828371 0.0004042249 0.0002196954 9.31626e-05 -0.0001454584 0.0497565285 -0.1057916393
505296970.0 -0.4314717234 0.7272795199 0.0002820168 1.03906e-05 -0.0002230631 3.49694e-05 0.047992485 -0.1063675515
510296940.0 -0.4238729783 0.732157961 0.0002279716 -7.84571e-05 3.12638e-05 -0.0001578714 0.0465719315 -0.1067546881
515296910.0 -0.4169767992 0.7363535161 0.0002209987 5.133e-07 3.89864e-05 0.0001111523 0.0446298876 -0.1071335998
520296880.0 -0.409109869 0.7408651231 0.0001933621 -3.55701e-05 0.0001034557 -5.45864e-05 0.0434750169 -0.1079199363
525296850.0 -0.4015465185 0.7447432878 9.21287e-05 6.80814e-05 0.0001702722 4.7466e-05 0.0417353474 -0.1082811768
530296820.0 -0.3942491853 0.7481540797 0.000118492 0.0001304216 0.0002704627 -1.28979e-05 0.0398553834 -0.1087363044
535296790.0 -0.3863753047 0.7526112936 0.0002763535 -0.0001707199 3.60997e-05 -1.6815e-06 0.0381934908 -0.1094485292
540296760.0 -0.3784009186 0.7563262781 0.0001863436 -5.83919e-05 0.0002806085 -0.0001910203 0.0361246684 -0.1097245659
545296730.0 -0.3709939918 0.7597846661 0.0001462015 0.0001123845 0.0002613645 3.75705e-05 0.0345427036 -0.1100725326
550296700.0 -0.3637363731 0.764004641 0.0001402435 0.0001390873 -2.96771e-05 3.01593e-05 0.0329879554 -0.1104631509
555296670.0 -0.3545372783 0.7668313768 0.0001580834 -2.23614e-05 6.74786e-05 -1.6151e-05 0.0311004936 -0.1105983646
560296640.0 -0.3469787975 0.7704270984 0.0003038974 -2.85844e-05 0.0001535621 0.0001246154 0.0296520586 -0.1110058372
565296610.0 -0.3397153906 0.7740333183 3.18282e-05 0.0001204339 -9.2136e-05 0.0001049826 0.027994241 -0.1111373504
570296580.0 -0.3317103463 0.7776713016 -8.8144e-06 -0.0001103614 6.35371e-05 -4.1877e-05 0.026272117 -0.111454909
575296550.0 -0.3239014637 0.7808582277 0.0001480216 -2.35697e-05 0.0001618899 0.0001079685 0.0246989075 -0.111841376
580296520.0 -0.3152957447 0.7841008979 0.0001306254 3.84521e-05 4.30831e-05 3.8859e-05 0.0225330166 -0.112040766
585296490.0 -0.3074528162 0.7866503579 0.0003268567 5.16822e-05 0.0001812125 -1.75075e-05 0.0209407253 -0.1125029183
590296460.0 -0.2993905481 0.7900935454 1.79848e-05 2.97606e-05 0.0002833881 -0.0001153609 0.0193622142 -0.112507755
595296430.0 -0.2916651915 0.7933518536 0.0001692519 -8.19393e-05 0.0002417158 5.94322e-05 0.0176065867 -0.1128597326
600296400.0 -0.2835101862 0.7960386119 0.0001450867 0.0001435211 4.04353e-05 -0.0001136364 0.0158435294 -0.1130044242
605296370.0 -0.2749670814 0.7990007521 0.000106841 0.0001310987 0.0003767628 0.0001124699 0.014363845 -0.1129114478
610296340.0 -0.2673245746 0.8014548462 -2.20803e-05 -0.0001618724 0.0001590763 9.03179e-05 0.0125750291 -0.1130277974
615296310.0 -0.2589545509 0.804394578 0.000129306 9.74425e-05 8.75026e-05 2.19349e-05 0.0108612903 -0.1131354993
620296280.0 -0.2508402425 0.80620673 0.00036408 8.22426e-05 5.21031e-05 -2.07696e-05 0.0093062045 -0.1134257387
625296250.0 -0.2423938384 0.8095519631 0.0001083803 0.0001331708 -0.0001323332 -4.48382e-05 0.0072710357 -0.1130438243
630296220.0 -0.2340339411 0.8116369887 0.0001359451 0.0001042533 0.0001273935 -1.63746e-05 0.0056559504 -0.1129251731
635296190.0 -0.2259649094 0.8144017147 0.0002138392 6.39583e-05 0.0002389785 -7.72702e-05 0.0042450124 -0.1127471652
640296160.0 -0.2180324078 0.8155784175 0.0002745793 7.84549e-05 0.0001881551 -0.0001094694 0.0023773399 -0.1128615029
645296130.0 -0.2097610884 0.8182298105 0.000137844 8.69998e-05 7.00632e-05 7.80858e-05 0.0003026574 -0.1131551969
650296100.0 -0.2015271213 0.8201597456 0.0002735164 -0.0001211738 0.0001044343 0.0001044098 -0.0014683629 -0.112684926
655296070.0 -0.1929880864 0.8219023042 0.0001759223 6.77089e-05 0.0002508063 -0.0001091887 -0.0026891722 -0.1125639479
660296040.0 -0.1852574861 0.8242660188 0.000337465 -0.000203143 1.7797e-05 -7.75152e-05 -0.0046447596 -0.1123409403
665296010.0 -0.1766654381 0.8260626516 9.00478e-05 5.18468e-05 3.10146e-05 0.0001150484 -0.0064022749 -0.1121889144
670295980.0 -0.1682902902 0.8274212537 0.0001906407 9.4431e-06 0.0001370888 -4.69452e-05 -0.0076273432 -0.112047556
675295950.0 -0.1598429623 0.8284636335 9.6291e-06 9.77256e-05 7.01379e-05 0.0002062277 -0.0096450926 -0.1120646365
680295920.0 -0.1513971569 0.8309693183 0.0001031027 7.0798e-06 6.7771e-06 -1.52985e-05 -0.0110869999 -0.1119010359
685295890.0 -0.142981169 0.831765449 7.49337e-05 -5.93257e-05 -9.7362e-06 2.75911e-05 -0.0126399335 -0.111419501
690295860.0 -0.1338279856 0.8331921459 0.0002167322 -0.0002496168 0.0002597227 -0.0001421571 -0.014385814 -0.1113460582
695295830.0 -0.1260254991 0.8345812667 -2.45622e-05 4.7621e-05 0.000234174 6.1266e-06 -0.0162442526 -0.1109195871
700295800.0 -0.1176110113 0.8352562445 -1.22389e-05 -0.0001534095 0.0002725661 -0.0001900887 -0.0177727464 -0.1105693298
705295770.0 -0.1088495349 0.8373030595 0.0002038095 0.0001344777 0.0001701387 -9.54301e-05 -0.0195561196 -0.1100239617
710295740.0 -0.1010922004 0.8380658508 4.4529e-06 -3.2253e-05 0.0001355142 0.0001529916 -0.0216846745 -0.1096029714
715295710.0 -0.0929927584 0.8392406408 0.0002826594 -0.0001323341 0.0002679194 3.19198e-05 -0.0228838561 -0.109346394
720295680.0 -0.0840721052 0.8397512916 0.0002334059 -8.96121e-05 -5.3806e-06 0.0001599771 -0.0242241692 -0.1090447482
725295650.0 -0.0746959934 0.8408552373 0.00017537 -6.41326e-05 0.0002775344 0.0001602109 -0.0257588899 -0.108525342
730295620.0 -0.0671926124 0.8417056032 0.0002914956 -8.84042e-05 0.0001550639 -0.0001308736 -0.0277938992 -0.108252654
735295590.0 -0.0577404861 0.8417545417 -1.08583e-05 -6.57984e-05 -5.8909e-06 -0.0001420917 -0.0293309839 -0.1074449949
740295560.0 -0.0499319593 0.8429242184 -0.0001827842 -0.0001376722 1.1803e-05 6.5966e-06 -0.0307653761 -0.1074056981
745295530.0 -0.0413729023 0.8425101751 0.0003167857 0.0001151116 6.62143e-05 -1.81531e-05 -0.0325679568 -0.1066068951
750295500.0 -0.0334532111 0.8430187571 0.0004230427 -0.000201084 0.0002325591 -2.74695e-05 -0.034066945 -0.1063346885
755295470.0 -0.0242334294 0.843482294 0.000272731 -0.0001478264 0.0002086547 1.68434e-05 -0.0357806335 -0.1053941331
760295440.0 -0.0162300221 0.8436482728 0.0002397929 -7.32873e-05 2.6405e-05 0.0001919036 -0.0374072919 -0.1050491643
765295410.0 -0.007915615 0.84365957 0.0002139765 -0.0002166266 -0.0001310012 -7.75691e-05 -0.0386250367 -0.1041869973
770295380.0 0.0007753821 0.8445890855 9.91133e-05 0.0002814996 0.0001055846 -1.68854e-05 -0.0401306044 -0.103913583
775295350.0 0.0091164288 0.8441625868 0.0001509439 -0.000156383 5.61203e-05 0.0002522594 -0.0422127695 -0.1034960155
780295320.0 0.0178270506 0.8435931918 9.466e-05 4.35917e-05 0.0002168346 -2.2728e-05 -0.0436633126 -0.1020784653
785295290.0 0.0260150339 0.8437565353 0.000285141 -8.74074e-05 0.0003089475 9.28761e-05 -0.0452814936 -0.1013171091
790295260.0 0.034889906 0.8430301015 1.87647e-05 -4.93821e-05 0.0001012034 -7.79256e-05 -0.0467922015 -0.1009645526
795295230.0 0.0430863089 0.8433945246 -4.13258e-05 -0.0001243712 1.2744e-06 6.65061e-05 -0.0481620841 -0.0999621288
800295200.0 0.0518479729 0.842956903 -1.4054e-06 -1.78056e-05 0.0002631076 0.0001323404 -0.0498518254 -0.0994609504
805295170.0 0.0600187884 0.8422990039 8.45535e-05 -0.0001611712 0.0001527218 -0.0002045377 -0.0511492915 -0.0984455751
810295140.0 0.068073627 0.8409092298 5.84524e-05 -0.0002098471 0.0001006813 0.0001356906 -0.0525409163 -0.0975470141
815295110.0 0.0771899145 0.8402378313 9.59921e-05 5.6208e-06 6.08761e-05 -2.3044e-06 -0.0542610297 -0.0967702053
820295080.0 0.085228731 0.8388352814 0.0001626035 8.5175e-05 0.0002023162 0.0001177246 -0.0557219489 -0.0961736104
825295050.0 0.0940098294 0.8381853103 9.68559e-05 2.27631e-05 0.0002116784 -0.0001123302 -0.0569561879 -0.0952945467
830295020.0 0.1024574988 0.8376437899 0.0004911627 -6.56404e-05 0.0001007789 0.0001024889 -0.058749111 -0.0942465333
835294990.0 0.1102579036 0.8370896689 9.56012e-05 -0.0001618251 0.0002254652 -0.0002988127 -0.0594336034 -0.0937884986
840294960.0 0.1191623376 0.8355149573 0.0001520562 9.85908e-05 8.99005e-05 -0.0001467623 -0.0614704973 -0.092018901
845294930.0 0.1271950311 0.834164924 5.27837e-05 1.06091e-05 -8.1226e-06 -9.06266e-05 -0.0625451838 -0.0915434692
850294900.0 0.1349908068 0.8327704061 0.0002176093 -0.0001690453 0.0002026575 0.0002723729 -0.0639943599 -0.0906327565
