!Created with skrf (http://scikit-rf.org).
# Hz S RI R 50.0 
!freq ReS11 ImS11 ReS21 ImS21 ReS12 ImS12 ReS22 ImS22
300000.0 -0.3236968076 -0.0812851053 0.3778304364 0.0427917807 0.3737747113 0.0415970807 -0.3216995652 -0.0984175203
5299970.0 -0.3266314504 0.0041370324 0.3784200647 0.0025128472 0.3780525321 0.0027015409 -0.3240642779 0.0047936948
10299940.0 -0.324004174 0.0134698874 0.3792973803 0.0022429168 0.3792991992 0.002340377 -0.3217139549 0.0159244229
15299910.0 -0.3214757435 0.0204915865 0.3820450077 0.0020096562 0.3820063253 0.0022763533 -0.3183517724 0.0237383498
20299880.0 -0.3186546459 0.0262127986 0.3845553926 0.0020176168 0.3848885518 0.0015513351 -0.3150292418 0.0301317779
25299850.0 -0.3156492714 0.031503454 0.3879838333 3.46607e-05 0.3879273625 9.13971e-05 -0.3108626658 0.0358945134
30299820.0 -0.3129608211 0.0358792242 0.3914189578 -0.0024671669 0.3916533687 -0.0020903628 -0.3070395327 0.0408664154
35299790.0 -0.3100665374 0.0398828664 0.3950364731 -0.0053598569 0.394659314 -0.0051304 -0.3036621875 0.0449430914
40299760.0 -0.3070320994 0.0436323757 0.3979052267 -0.0088894059 0.3979479337 -0.0085622879 -0.3003899275 0.0483539795
45299730.0 -0.3047752521 0.0465859274 0.4005410737 -0.0125931002 0.4010116844 -0.0127640427 -0.2972580947 0.0518514136
50299700.0 -0.3023832321 0.0493748106 0.4035314765 -0.0172349214 0.4035463238 -0.0170542645 -0.2942904311 0.0545544644
55299670.0 -0.3001884107 0.0520971166 0.4055965242 -0.0224145778 0.4057192755 -0.0219465683 -0.2916621911 0.0572738267
60299640.0 -0.2977599511 0.0548593797 0.4071781301 -0.0270548088 0.4076137448 -0.0265870898 -0.2891785445 0.0593108262
65299610.0 -0.296178595 0.0574107893 0.4089346783 -0.0320831112 0.4092121068 -0.0319590166 -0.2872708986 0.061446275
70299580.0 -0.2945875726 0.0599452343 0.4104748324 -0.0371696843 0.4105356661 -0.036839232 -0.2851121209 0.0640704313
75299550.0 -0.2930554749 0.0628091619 0.4113406542 -0.0421201974 0.4112267258 -0.0424866591 -0.2832001193 0.0659204653
80299520.0 -0.2916974804 0.0647159107 0.4123487108 -0.0470829307 0.4123253157 -0.0472743502 -0.2814194209 0.0681597797
85299490.0 -0.2903728879 0.0669585037 0.4129357817 -0.0525295359 0.4130593389 -0.0522101713 -0.2801089729 0.0700694573
90299460.0 -0.2887335059 0.0694725586 0.4129217079 -0.0579849686 0.4133745296 -0.0577603495 -0.2781622331 0.0722015778
95299430.0 -0.2874659693 0.071353828 0.4135414279 -0.063174331 0.4134639309 -0.0631377467 -0.2766029981 0.0743981574
100299400.0 -0.2864372313 0.0741435559 0.4133249125 -0.0683049975 0.4132675747 -0.0684090388 -0.275315886 0.0759209883
105299370.0 -0.2851593125 0.0766569229 0.4132874132 -0.0738400983 0.4137425547 -0.0734877884 -0.2738919357 0.078634318
110299340.0 -0.284020285 0.0786864085 0.4130919378 -0.0782667001 0.4134354753 -0.078505742 -0.2729832312 0.0804290485
115299310.0 -0.2827515906 0.080862072 0.4129430742 -0.083710863 0.4130173065 -0.0839252891 -0.2715475946 0.0825953519
120299280.0 -0.2820872685 0.0831062549 0.412730591 -0.0889690118 0.4124865636 -0.0890607154 -0.270488118 0.0844763719
125299250.0 -0.2811621413 0.0854502269 0.4119099746 -0.0939053343 0.4120991462 -0.0937868284 -0.2694643583 0.0864696071
130299220.0 -0.2803561348 0.0882552558 0.4112936873 -0.0990825609 0.4110190261 -0.0990316607 -0.2684038666 0.088596259
135299190.0 -0.2793117168 0.0907738988 0.4107741203 -0.1039617165 0.4106705834 -0.103957081 -0.2671262597 0.0908996808
140299160.0 -0.2783882052 0.0933018777 0.409657971 -0.109155443 0.4096889701 -0.1088955175 -0.2661288519 0.0937091356
145299130.0 -0.2775007638 0.0955084374 0.4089224812 -0.1138097195 0.4088323278 -0.1141022814 -0.2652665812 0.0957429122
150299100.0 -0.2764151443 0.0982598472 0.4074758448 -0.118737478 0.4079428494 -0.1185100428 -0.2644395972 0.0986021766
155299070.0 -0.275486842 0.1007836484 0.4067998677 -0.1245157281 0.4063374131 -0.1236500734 -0.2633971285 0.1007050745
160299040.0 -0.2745136628 0.1035282788 0.4052104215 -0.1286869641 0.4054099441 -0.1287101606 -0.262944182 0.1030987336
165299010.0 -0.2735868722 0.1060219104 0.4040680113 -0.1340098082 0.4042533501 -0.1336786877 -0.2611975561 0.1056369615
170298980.0 -0.2729991662 0.1087801042 0.4026460715 -0.138434232 0.4030859862 -0.1380850472 -0.260160617 0.1081009704
175298950.0 -0.2717154315 0.1112771113 0.4018919553 -0.1431380769 0.4012444981 -0.143217871 -0.2595396456 0.1105863888
180298920.0 -0.2708035739 0.1140680696 0.4001157969 -0.1480135143 0.4001995091 -0.1477682796 -0.2583043914 0.1133993332
185298890.0 -0.2696263307 0.11639171 0.3984662706 -0.1525386355 0.3983303706 -0.152576497 -0.2571538049 0.1161527158
190298860.0 -0.2685896946 0.1192460211 0.3969032402 -0.1572758385 0.3970258035 -0.1571625799 -0.2563014054 0.1181330288
195298830.0 -0.2678873817 0.121798967 0.3953894518 -0.1621039101 0.3950353086 -0.1616194996 -0.2551113412 0.1207226957
200298800.0 -0.2664231093 0.1246158604 0.3932602398 -0.166585323 0.3935777508 -0.1665584574 -0.2545388363 0.12334673
205298770.0 -0.2654429104 0.1272288082 0.3915344349 -0.171207792 0.3914158277 -0.171012642 -0.2530582677 0.1253732663
210298740.0 -0.2642340346 0.1297768829 0.3898135705 -0.1751730495 0.3899684733 -0.175456388 -0.2517990916 0.1286910381
215298710.0 -0.2633527197 0.1326684595 0.3881218703 -0.1803023624 0.3877939581 -0.1803348304 -0.2511807371 0.1309938814
220298680.0 -0.2618718721 0.1353101707 0.3854777409 -0.1846121952 0.3858074833 -0.1846025306 -0.2501905004 0.1334340998
225298650.0 -0.2611918939 0.1377985067 0.3839175501 -0.1891693673 0.3840666518 -0.1889110811 -0.2492050774 0.1357948962
230298620.0 -0.2596287124 0.1408118331 0.3818705512 -0.1933623525 0.3822084709 -0.1932211377 -0.2478104105 0.1383287517
235298590.0 -0.2579837946 0.1437911387 0.3798381807 -0.1980096074 0.3799520395 -0.1974029526 -0.2464877347 0.1410575114
240298560.0 -0.2571576534 0.146228491 0.3779600587 -0.2023766713 0.3776662954 -0.2022346684 -0.2453262482 0.1439815796
245298530.0 -0.2556715196 0.1492722496 0.375879535 -0.2067478713 0.375402447 -0.2064946568 -0.2440079148 0.1459497765
250298500.0 -0.2540141627 0.1518300108 0.372676858 -0.2108733424 0.3731636277 -0.2105645187 -0.2429701293 0.1485894769
255298470.0 -0.2527968208 0.1538235047 0.3706445973 -0.2146657734 0.3705541415 -0.2145722096 -0.2410102423 0.1509946148
260298440.0 -0.2516527334 0.156766851 0.3682315372 -0.2193903534 0.3687653233 -0.2191251007 -0.2398100697 0.1536190916
265298410.0 -0.2499698628 0.1600083841 0.365744211 -0.2236293785 0.3664720194 -0.2232172314 -0.238238642 0.1560785808
270298380.0 -0.2486494579 0.1624361256 0.3636415457 -0.2273691808 0.3635469694 -0.2275062186 -0.2366469859 0.1586849668
275298350.0 -0.2469472771 0.1654090149 0.3608977049 -0.2319139016 0.3613284661 -0.231654251 -0.2350349703 0.161003864
280298320.0 -0.2449346211 0.1680802324 0.3585388428 -0.235908121 0.3584282195 -0.23555958 -0.2336215988 0.1639248103
285298290.0 -0.2437600342 0.1706489114 0.3564250013 -0.2395571568 0.3560186135 -0.2399153995 -0.2321404936 0.1660575742
290298260.0 -0.2416144902 0.1730386188 0.3533284754 -0.2434580889 0.3535312097 -0.2438073341 -0.2304558157 0.1687656652
295298230.0 -0.2401221874 0.1755925615 0.3507723007 -0.2479451299 0.350584313 -0.2475143825 -0.228129146 0.1709844347
300298200.0 -0.2386787514 0.1783161528 0.3480710145 -0.2514120286 0.3480894776 -0.2517185073 -0.2266375876 0.1732815674
305298170.0 -0.2366908834 0.1809316574 0.344936674 -0.2559931605 0.3452269267 -0.2555710893 -0.2242756731 0.1757637873
310298140.0 -0.235049631 0.1833905143 0.3423207174 -0.2594351725 0.3425619432 -0.2594838369 -0.2232708528 0.1785289788
315298110.0 -0.2332346016 0.1857629082 0.3397657441 -0.2634740257 0.3398301525 -0.2633287702 -0.2212340308 0.1805783332
320298080.0 -0.2310302548 0.1883056884 0.3359959588 -0.2676481022 0.3366213059 -0.2672600324 -0.2194676236 0.1831902419
325298050.0 -0.2295531345 0.190826519 0.3337156669 -0.2713536686 0.3335553047 -0.2711474584 -0.2179891071 0.1854292552
330298020.0 -0.2275989117 0.1929866488 0.3301465388 -0.2747997414 0.3304873371 -0.2747873058 -0.216169905 0.1877378551
335297990.0 -0.2258943376 0.1954936065 0.3271850082 -0.2785706616 0.3272726075 -0.2787101851 -0.2148200887 0.190537004
340297960.0 -0.2242700889 0.1981056093 0.3239678889 -0.2818405963 0.3236556921 -0.2824890934 -0.2122576315 0.1930863208
345297930.0 -0.222281159 0.2009296643 0.3208440739 -0.2856780616 0.3207091715 -0.2857692528 -0.2106985412 0.1950990282
350297900.0 -0.2200380523 0.2030694853 0.3170353368 -0.2893622468 0.3171878932 -0.2892813371 -0.2090784425 0.1977385051
355297870.0 -0.2178740531 0.2059291577 0.3140649015 -0.2927701034 0.3146209825 -0.2925740302 -0.2072512529 0.200107331
360297840.0 -0.2161827102 0.2083846118 0.3114280699 -0.2961002199 0.311287224 -0.2959231485 -0.2052265557 0.2026046752
365297810.0 -0.21431154 0.2111893841 0.3078403832 -0.2996296691 0.3081169752 -0.2997708469 -0.2026237827 0.2048153243
370297780.0 -0.2119823245 0.2131183844 0.3040868623 -0.3027809756 0.304689902 -0.3026889146 -0.2006942502 0.2071519287
375297750.0 -0.2095455285 0.2155549647 0.3009600236 -0.3061746808 0.3014600785 -0.3062485167 -0.1988794878 0.2094264934
380297720.0 -0.2074407586 0.2178267984 0.2975649082 -0.3099432864 0.2975321188 -0.3090558991 -0.197016561 0.211692447
385297690.0 -0.2055207777 0.2202082765 0.293962782 -0.3130817558 0.2940595619 -0.312859749 -0.194539779 0.2141315649
390297660.0 -0.203104183 0.2226288422 0.2908504278 -0.3161891481 0.2906612437 -0.3156227433 -0.192913974 0.2164427973
395297630.0 -0.2007245412 0.225042571 0.2870517956 -0.3192256022 0.2872080763 -0.3192371487 -0.1903964773 0.2188189481
400297600.0 -0.1981856058 0.2275759667 0.2831296831 -0.3227656685 0.2837187223 -0.3224257934 -0.1881464335 0.220749654
405297570.0 -0.1965907877 0.2294649772 0.2800003726 -0.3253683078 0.2800570938 -0.3251744034 -0.1861999615 0.2230189782
410297540.0 -0.1937793905 0.2316658523 0.2762328495 -0.3285875399 0.2768900691 -0.3284460098 -0.1840211828 0.225153828
415297510.0 -0.1914973173 0.2339076081 0.2726729053 -0.331928372 0.2729593143 -0.3317283328 -0.1816892969 0.2270427813
420297480.0 -0.1892322664 0.2362570404 0.2691201068 -0.334419435 0.2692756512 -0.3346819303 -0.179205925 0.2288482308
425297450.0 -0.186580603 0.2379898133 0.265672497 -0.3375227763 0.2659256753 -0.3374768281 -0.1770082038 0.2313540616
430297420.0 -0.184171279 0.2403105058 0.2614216033 -0.3398596865 0.2615316851 -0.3402017154 -0.1750698538 0.233269975
435297390.0 -0.1817069899 0.2423945073 0.2573995678 -0.3432309899 0.2575200482 -0.343141748 -0.1717653212 0.2349583747
440297360.0 -0.1790083854 0.2445896881 0.2539593378 -0.3456658309 0.2544768158 -0.3459855367 -0.1695363683 0.2368381365
445297330.0 -0.1769160521 0.2465710068 0.2504212159 -0.3483506593 0.2504354127 -0.3483781693 -0.1671526196 0.2386350449
450297300.0 -0.1740110395 0.2483213549 0.2463043067 -0.3512809593 0.2465250772 -0.3513859032 -0.164629294 0.2405003422
455297270.0 -0.171781083 0.2504072828 0.2422436993 -0.353646556 0.2426222954 -0.3539004179 -0.1620894124 0.2423953986
460297240.0 -0.1691476739 0.252387118 0.2386563598 -0.3565533037 0.2387903344 -0.3563045413 -0.1596347526 0.2446248971
465297210.0 -0.1661793491 0.2545450994 0.2347443218 -0.358987371 0.2348353909 -0.3592921944 -0.1567619101 0.2460946367
470297180.0 -0.1634342274 0.2561040757 0.2306262202 -0.3615644091 0.2306979033 -0.3616667371 -0.1540331899 0.2481243745
475297150.0 -0.1610386854 0.2576627473 0.2262719374 -0.3636993183 0.2268846851 -0.3636574366 -0.1516146957 0.249526314
480297120.0 -0.1583947784 0.2599468589 0.2229024664 -0.3665671775 0.2228641816 -0.3666736567 -0.148799609 0.2513864506
485297090.0 -0.1557408413 0.2615651313 0.2184942142 -0.3685420655 0.2187601216 -0.3685144253 -0.146238007 0.253259702
490297060.0 -0.1530267875 0.2635970881 0.21463613 -0.371355238 0.2150594335 -0.3711125751 -0.1438772168 0.2551591074
495297030.0 -0.150335563 0.2653059354 0.2102057666 -0.3733654099 0.2110729605 -0.3731432052 -0.1409357129 0.2567902965
500297000.0 -0.1472803633 0.2672630374 0.2061578298 -0.3754275939 0.2064872599 -0.3755982553 -0.1380521398 0.2587966263
505296970.0 -0.1443420465 0.2688122786 0.2022993624 -0.3775472792 0.2019912947 -0.377890817 -0.1354327611 0.2601133503
510296940.0 -0.1415177695 0.2705226476 0.1982442953 -0.3802115781 0.1980824719 -0.3802942709 -0.1328729028 0.2618032082
515296910.0 -0.1389085879 0.2720640065 0.1936721362 -0.3821937061 0.1936609755 -0.3819345255 -0.1300161526 0.2633152291
520296880.0 -0.1361737777 0.2738016341 0.1900322302 -0.3846841116 0.1899778235 -0.3839922599 -0.1271585259 0.2647451757
525296850.0 -0.1331322374 0.2748614023 0.1850353235 -0.3860334553 0.1860736918 -0.3862508668 -0.1248383888 0.2665040974
530296820.0 -0.130261227 0.2770458654 0.181182105 -0.3885760039 0.1812922166 -0.3881633188 -0.1219552086 0.2678901089
535296790.0 -0.1279380158 0.2784120333 0.17722622 -0.3898564236 0.1774833622 -0.389765035 -0.1194697886 0.2692479478
540296760.0 -0.1244872253 0.2800111451 0.1727546719 -0.3923233821 0.1728818019 -0.3921813611 -0.1167775102 0.2708665344
545296730.0 -0.1220589411 0.2813522012 0.1682001545 -0.3938032031 0.1683937255 -0.3936585588 -0.1136883923 0.2720291686
550296700.0 -0.1184495978 0.2830271936 0.1640097088 -0.3959105153 0.1641834966 -0.3959361925 -0.1106691826 0.2736793028
555296670.0 -0.1158308286 0.2840679176 0.1598242999 -0.3975777705 0.1599951013 -0.3971761772 -0.1081516747 0.2750063159
560296640.0 -0.1125489812 0.2852470077 0.1555531422 -0.3989964742 0.1554641277 -0.3992767825 -0.1049339292 0.276336399
565296610.0 -0.1097948568 0.2868589289 0.1507254531 -0.4008435631 0.1512574396 -0.4004713332 -0.1022501117 0.2772174541
570296580.0 -0.1070274831 0.2880130841 0.1466867883 -0.4027465641 0.1465168827 -0.4025167548 -0.0996228812 0.2791181479
575296550.0 -0.1039493233 0.289574175 0.1426129107 -0.4043161289 0.142153004 -0.4039169653 -0.0965993067 0.2801601153
580296520.0 -0.1004950311 0.2909843617 0.1377893117 -0.4060719035 0.1380437077 -0.4053336251 -0.0935496376 0.2811442035
585296490.0 -0.0979040957 0.2915787661 0.1336794953 -0.4065897097 0.1336201123 -0.4069204455 -0.0906508911 0.2821709489
590296460.0 -0.0947468871 0.2929410384 0.1291204757 -0.408065385 0.1291598428 -0.4081536626 -0.0879714704 0.283446312
595296430.0 -0.0914989893 0.2942413019 0.1241921856 -0.4099213507 0.1243420923 -0.4095332677 -0.0846141987 0.2843010184
600296400.0 -0.0882868201 0.2951822504 0.119883145 -0.4106699127 0.1203126824 -0.4108399233 -0.082032986 0.2854155735
605296370.0 -0.0859749319 0.2960708061 0.1158411489 -0.4120462087 0.1160297134 -0.4123166369 -0.0787352548 0.2862492541
610296340.0 -0.0826769316 0.2973749131 0.1109995529 -0.4133017149 0.1112502431 -0.4131470433 -0.0755934172 0.2871044881
615296310.0 -0.0791160388 0.2982309037 0.10637648 -0.4143458233 0.1064279428 -0.4147711892 -0.0722175713 0.2881378896
620296280.0 -0.0759116296 0.2987323074 0.1020196265 -0.4152547854 0.1021202817 -0.4150824709 -0.0699581734 0.2890933433
625296250.0 -0.0733983361 0.299768134 0.098279066 -0.4166393154 0.0975396616 -0.4169098085 -0.0661298559 0.2896566448
630296220.0 -0.069508967 0.3009280792 0.0925750065 -0.417440438 0.0928566775 -0.417390852 -0.0632701819 0.2904664756
635296190.0 -0.0669303908 0.3019481291 0.0883018626 -0.4185408471 0.0883452085 -0.4185695505 -0.0602053435 0.2914818696
640296160.0 -0.0640089393 0.3028068226 0.0840524867 -0.4191539206 0.0840627924 -0.4191481979 -0.0568566001 0.2922421766
645296130.0 -0.0604377105 0.3035965833 0.0791564926 -0.4199502378 0.0795751922 -0.4203217274 -0.054113279 0.292928631
650296100.0 -0.0572261171 0.3039975853 0.0745546758 -0.4206927206 0.0748813351 -0.4206118338 -0.050711934 0.2934793782
655296070.0 -0.0538398782 0.3048507691 0.0699602849 -0.4216044719 0.0702491854 -0.4218146425 -0.0475814695 0.2940213928
660296040.0 -0.051129814 0.3053920175 0.0656467304 -0.4224756558 0.0657442488 -0.4223242938 -0.0442673095 0.2950217455
665296010.0 -0.0473765227 0.305721913 0.0607969088 -0.4230633535 0.0611713986 -0.4230011947 -0.0413625617 0.2961402422
670295980.0 -0.044963425 0.3068576122 0.0564851034 -0.4233814931 0.0563480242 -0.4231600428 -0.0388073447 0.2964407467
675295950.0 -0.0412847566 0.3074800795 0.0518809653 -0.4241260506 0.0518396982 -0.4237294508 -0.035370749 0.2968938143
680295920.0 -0.0381238464 0.3079236652 0.0472146099 -0.4241993522 0.0468657999 -0.4249853387 -0.0317983694 0.2980341172
685295890.0 -0.0348479211 0.3090079973 0.0427864613 -0.4250787604 0.0426306826 -0.4249096825 -0.0288447293 0.2979739003
690295860.0 -0.0315250169 0.3089341057 0.0380607767 -0.4251466156 0.038013071 -0.4260315709 -0.0257955425 0.2990002849
695295830.0 -0.0285037969 0.3094644254 0.0337432433 -0.4257431654 0.0334353731 -0.4258335446 -0.0227437358 0.2995114184
700295800.0 -0.0255026671 0.3098237351 0.0291216245 -0.4256367859 0.0286581857 -0.4259636982 -0.0199462156 0.2999774206
705295770.0 -0.0221860329 0.3107741307 0.0240934712 -0.4261177611 0.0244265448 -0.4268470234 -0.0166280566 0.3004891295
710295740.0 -0.0186268824 0.3110412101 0.0196630405 -0.4270101822 0.0197736362 -0.4268821581 -0.0136089609 0.3005887865
715295710.0 -0.0156892749 0.3109866322 0.0152106764 -0.4263816471 0.0146301458 -0.4266580729 -0.0100095211 0.3007238015
720295680.0 -0.0124340923 0.3113847679 0.0103627572 -0.4267925261 0.0105428331 -0.4271293547 -0.0076572677 0.3013175137
725295650.0 -0.0089327751 0.3118815865 0.005726658 -0.427033448 0.0058527421 -0.4270745769 -0.0044192512 0.3016188305
730295620.0 -0.0057491286 0.3120921574 0.0011040699 -0.4267143376 0.0013246947 -0.4271031556 -0.0015314497 0.3013910725
735295590.0 -0.002538813 0.3125746976 -0.003350166 -0.4269599125 -0.0035377405 -0.4268552462 0.0018038581 0.3013493396
740295560.0 0.0005037903 0.3125194095 -0.0080828755 -0.4267446073 -0.0080099064 -0.4271196611 0.0053926983 0.3020731234
745295530.0 0.0036041157 0.3128980454 -0.0128810503 -0.4261895651 -0.0127235666 -0.4266448567 0.0081554446 0.3016639505
750295500.0 0.0075161714 0.3125179028 -0.0175217088 -0.4260402661 -0.0170701911 -0.4265700886 0.0113533809 0.3019439864
755295470.0 0.0108019228 0.3126626772 -0.0217857659 -0.4260910849 -0.0220886082 -0.4264373951 0.0148481965 0.3014005427
760295440.0 0.0135578305 0.3125923719 -0.0263103426 -0.4261389048 -0.0264398802 -0.4262158733 0.0177133499 0.3015388112
765295410.0 0.0172225201 0.312916418 -0.0315169277 -0.4256837693 -0.0313329284 -0.4256164805 0.0210370591 0.3015030854
770295380.0 0.0199775954 0.3126416292 -0.0358016987 -0.4252426086 -0.035979449 -0.4250161474 0.0238804813 0.3011711668
775295350.0 0.0231531136 0.3120325278 -0.0407027119 -0.4239302943 -0.0400347361 -0.4247937731 0.0267700955 0.3013123941
780295320.0 0.026943339 0.312249114 -0.0452473637 -0.4238735862 -0.0445731567 -0.4237025917 0.0304504748 0.3008278054
785295290.0 0.0297815942 0.3114829511 -0.049738348 -0.4231392244 -0.0495133618 -0.4233409985 0.0340659142 0.300747435
790295260.0 0.0337467111 0.3119234476 -0.0537588754 -0.422501752 -0.0536166598 -0.4226189418 0.0370706359 0.3008324108
795295230.0 0.0366499167 0.3116798842 -0.0587961624 -0.4218826067 -0.0583278593 -0.4221445229 0.0404130943 0.3001317309
800295200.0 0.0393047338 0.3115241675 -0.0634201657 -0.421206408 -0.06333624 -0.4212843631 0.0435886042 0.3002978114
805295170.0 0.0430966733 0.3109369974 -0.0679368434 -0.4205989241 -0.0676603167 -0.4207554521 0.0464257886 0.2998387919
810295140.0 0.0463222589 0.3104418457 -0.0723174708 -0.4198659272 -0.0722240444 -0.4198946441 0.0498353524 0.2994122684
815295110.0 0.0494058368 0.3097265014 -0.0767340316 -0.4187059756 -0.0763201727 -0.419271057 0.0530853859 0.2992688882
820295080.0 0.0523380269 0.3100957065 -0.0808370664 -0.4180817043 -0.0807795998 -0.4181950972 0.0562953105 0.2988503376
825295050.0 0.0564017499 0.3094220986 -0.0856294866 -0.4173330313 -0.085630302 -0.4173606158 0.0594532752 0.2980571532
830295020.0 0.0593977451 0.3089096198 -0.0906908912 -0.4158190789 -0.090123188 -0.4161500269 0.0633115382 0.2975534365
