!Created with skrf (http://scikit-rf.org).
# Hz S RI R 50.0 
!freq ReS11 ImS11 ReS21 ImS21 ReS12 ImS12 ReS22 ImS22
300000.0 -0.7788726993 -0.0838320854 -0.0007999011 0.0001728199 0.0007592874 0.0016461477 -0.7728993512 -0.1162231636
5299970.0 -0.784992303 -0.005214779 0.0001514988 3.81425e-05 0.0002068474 7.97664e-05 -0.7852162768 -0.0062402354
10299940.0 -0.7879537423 -0.0036387439 -2.8704e-06 -0.0001479249 -1.84076e-05 -0.0002206851 -0.78825535 -0.0035465654
15299910.0 -0.7931717644 -0.0017948832 4.09909e-05 0.0002295049 0.0001047593 5.99961e-05 -0.793916239 -0.0011765663
20299880.0 -0.7999042734 0.0021976572 3.61498e-05 -0.0001656083 -0.0002672135 1.08217e-05 -0.8003854741 0.0025067188
25299850.0 -0.8067129214 0.0076875654 7.80645e-05 -4.60301e-05 0.0002214096 -0.0001157691 -0.8065673424 0.0082693529
30299820.0 -0.8124461589 0.015228871 9.71464e-05 6.997e-05 3.70643e-05 -0.0002251492 -0.8129195012 0.0161596699
35299790.0 -0.8174350484 0.0247332514 1.69633e-05 2.59339e-05 -8.13946e-05 -1.39655e-05 -0.817562635 0.0248284286
40299760.0 -0.8214689701 0.0339014907 2.36746e-05 2.78135e-05 -0.0001455668 -3.32195e-05 -0.8216639525 0.0347267884
45299730.0 -0.8243004489 0.0423522366 -0.00016782 -0.0001571465 -5.37981e-05 2.69903e-05 -0.825626489 0.0438945251
50299700.0 -0.8272097547 0.0526905187 -5.71556e-05 -4.43194e-05 -2.74554e-05 -0.0001238234 -0.8274479511 0.0537770878
55299670.0 -0.8292786594 0.0630885137 4.08091e-05 -1.21618e-05 -4.1988e-06 -0.0001943567 -0.8297991892 0.0640831203
60299640.0 -0.8301358874 0.0734736675 0.0001260726 7.5344e-06 5.44771e-05 8.5909e-06 -0.8302980562 0.0738643335
65299610.0 -0.8311560415 0.082842965 3.17087e-05 3.87325e-05 -0.0002393188 -0.0001622989 -0.832228819 0.0839931341
70299580.0 -0.8316028592 0.0932650585 4.01446e-05 8.33544e-05 0.0001768709 4.82702e-05 -0.8315557164 0.0943225744
75299550.0 -0.8318101634 0.1034763285 0.0002050438 -0.000104083 0.0001306882 -8.0181e-06 -0.8321667464 0.1035929392
80299520.0 -0.8319842299 0.1130504197 0.0001557915 -0.0002670425 -7.7658e-06 -0.0001274801 -0.831704827 0.113537396
85299490.0 -0.8313458701 0.1222951285 3.92635e-05 -0.0001141761 -5.70839e-05 6.00807e-05 -0.8314798497 0.1232762803
90299460.0 -0.8296991648 0.1316952823 -0.0002551031 -0.0001208157 5.2705e-05 -0.0001332612 -0.830563276 0.1327917538
95299430.0 -0.8293296454 0.1416888049 -7.6117e-05 7.54446e-05 -1.10391e-05 0.000232184 -0.8291786248 0.1427847555
100299400.0 -0.8279841376 0.1503946665 -0.0001531889 5.54678e-05 -1.56238e-05 -0.0001355892 -0.8288332009 0.1521168486
105299370.0 -0.8272414862 0.1601432286 7.77567e-05 -0.0001775411 2.89418e-05 -7.14349e-05 -0.826575977 0.1610327401
110299340.0 -0.8251867431 0.1693840423 3.79281e-05 -2.84438e-05 -5.95445e-05 2.149e-06 -0.8258326793 0.1707041316
115299310.0 -0.8244585569 0.1783508501 0.0001126741 0.0001324805 2.82425e-05 2.39182e-05 -0.8243942375 0.1798129273
120299280.0 -0.8219924687 0.1869290116 -7.41629e-05 -9.60902e-05 -3.2067e-06 0.0001597896 -0.8229350612 0.1888978803
125299250.0 -0.8205581406 0.1958027942 0.000115 0.0001211553 0.0002230736 -2.33617e-05 -0.8209768748 0.1976595478
130299220.0 -0.8190133027 0.205097356 0.0001381184 0.0001430863 -5.74038e-05 -0.0001537011 -0.8193284502 0.2070009004
135299190.0 -0.8171097575 0.2143247853 -8.01314e-05 7.40727e-05 -1.83042e-05 9.17499e-05 -0.8170906374 0.2162793062
140299160.0 -0.8142468336 0.2227188862 -8.54005e-05 8.3165e-05 5.24307e-05 2.07678e-05 -0.8147994395 0.2247803386
145299130.0 -0.8125056784 0.2323214701 -0.000271381 -0.0001175273 -0.0001049038 3.35102e-05 -0.8131303002 0.2340854801
150299100.0 -0.8100319497 0.2405788387 -8.44952e-05 3.89864e-05 -8.44426e-05 -5.54432e-05 -0.8110612765 0.243217323
155299070.0 -0.8075428405 0.2495196838 5.10229e-05 9.41269e-05 2.84723e-05 0.0001377463 -0.8077259682 0.2520715795
160299040.0 -0.8054466048 0.2573881001 3.54626e-05 2.60364e-05 0.0001684884 0.0001411049 -0.8061880357 0.2610548295
165299010.0 -0.803090642 0.2665181095 -0.0001742572 6.57284e-05 0.0002296691 7.31531e-05 -0.803354029 0.2693633643
170298980.0 -0.8003985674 0.2750902387 0.0001713849 -0.0001562915 0.0001441362 0.000147151 -0.8001581726 0.2781201393
175298950.0 -0.7975353633 0.2839956424 1.51108e-05 -5.22486e-05 6.94225e-05 1.57966e-05 -0.7976165582 0.2867571365
180298920.0 -0.7949660163 0.2920084702 -1.63778e-05 -1.39796e-05 -0.0002695403 -7.60494e-05 -0.7946592496 0.2954200714
185298890.0 -0.7912103849 0.300683083 7.31246e-05 -7.4196e-05 -6.4978e-05 7.09755e-05 -0.7913382787 0.3034957343
190298860.0 -0.7885925026 0.3097334556 7.27556e-05 2.76324e-05 6.77575e-05 0.000137014 -0.7886192839 0.3125177861
195298830.0 -0.7853463126 0.31770356 0.0001392679 -0.0001557701 -0.0001498105 -0.0001425367 -0.7850564287 0.3211451037
200298800.0 -0.7818068158 0.3255562803 1.18359e-05 -0.000197493 -0.0002302945 -1.77501e-05 -0.7821437425 0.3288995432
205298770.0 -0.7790105208 0.3339998963 1.13137e-05 4.01781e-05 -0.0001195847 0.0001158364 -0.778327101 0.3373433689
210298740.0 -0.7749557651 0.3425309368 5.60343e-05 0.0002052264 4.72029e-05 1.20406e-05 -0.7746223263 0.3459400879
215298710.0 -0.7718411307 0.3503172893 -0.0002940714 0.0001626614 -9.4822e-06 -7.6592e-06 -0.7714082921 0.3535449317
220298680.0 -0.767455439 0.3588916381 -0.0001165541 1.89447e-05 5.84216e-05 3.58441e-05 -0.7677861931 0.3616131151
225298650.0 -0.7642989369 0.3660497957 0.0002003681 -8.72312e-05 8.27139e-05 -0.0001581987 -0.7639461245 0.3699006569
230298620.0 -0.7599847793 0.374370377 4.40039e-05 7.22739e-05 1.65026e-05 1.8e-06 -0.7598603025 0.3781884112
235298590.0 -0.7568041129 0.3826341562 0.0001254213 0.0002328249 -6.53248e-05 4.54749e-05 -0.7557358466 0.3864265699
240298560.0 -0.7530692371 0.3907149779 -4.54692e-05 -7.23216e-05 -8.43852e-05 -1.29978e-05 -0.7517484505 0.3947874319
245298530.0 -0.748801484 0.3983551819 0.0002576197 -6.74831e-05 7.72087e-05 -5.92114e-05 -0.7475876073 0.4021366772
250298500.0 -0.743929736 0.4063299248 -6.87134e-05 0.0002335814 0.00021712 -0.0001685331 -0.7433572796 0.4095388995
255298470.0 -0.7396366289 0.4133743561 -4.90499e-05 -6.38504e-05 -3.18301e-05 -2.97256e-05 -0.7388966958 0.4175439938
260298440.0 -0.7357569555 0.4209662613 -9.29609e-05 4.53098e-05 9.22612e-05 0.0001407571 -0.7347463747 0.4263091528
265298410.0 -0.7311450235 0.42935222 -8.4489e-06 0.0001724933 9.88318e-05 -3.75453e-05 -0.7300128599 0.4332997719
270298380.0 -0.726526385 0.4370505207 -5.27e-08 0.0001292851 -7.2384e-06 -0.0001906023 -0.7255243312 0.4408825762
275298350.0 -0.7221071916 0.4445409846 -5.37603e-05 0.0001580813 -3.79959e-05 0.000132052 -0.7208857769 0.4485892167
280298320.0 -0.7168058945 0.4525548928 -6.62002e-05 -5.33731e-05 -2.33329e-05 8.32086e-05 -0.7163008012 0.4560129203
285298290.0 -0.7133812387 0.4601324409 3.41606e-05 -2.84969e-05 -0.0001217346 5.6492e-05 -0.7115915577 0.4638772219
290298260.0 -0.7081142743 0.4675703494 9.35852e-05 -8.7646e-05 -0.0002132907 0.0001737056 -0.7063769736 0.470520521
295298230.0 -0.7024410567 0.4738634543 -6.91272e-05 0.0001172215 0.0001724217 5.17836e-05 -0.7015941624 0.4782742464
300298200.0 -0.6980293481 0.4814498973 0.0001580128 1.13002e-05 0.000133339 0.0002445388 -0.6967475282 0.4857666001
305298170.0 -0.6925464938 0.488200598 -3.10821e-05 -3.9592e-05 6.6231e-05 4.24059e-05 -0.6909772411 0.4934508097
310298140.0 -0.6875290338 0.4961252866 3.50434e-05 -5.12579e-05 -0.0001844854 6.86431e-05 -0.6863005158 0.5001076273
315298110.0 -0.682707087 0.5029441127 9.15883e-05 3.4037e-06 -0.0001199672 -0.0001194508 -0.680592414 0.5068620168
320298080.0 -0.6774615082 0.5101341068 -0.0002102287 -3.85159e-05 3.49819e-05 1.77603e-05 -0.6755550994 0.5144423001
325298050.0 -0.6718031728 0.5172865886 3.03876e-05 -0.0002384343 4.6947e-05 7.88785e-05 -0.6700700851 0.5220625549
330298020.0 -0.6667605893 0.523829193 -0.000143806 -0.0002472563 -0.0001710664 3.52299e-05 -0.6645072895 0.5285702874
335297990.0 -0.6612166283 0.5307031213 0.0001298658 -9.56207e-05 -0.0001595844 5.64531e-05 -0.6595767105 0.5356369367
340297960.0 -0.6562482777 0.5375339643 -2.99502e-05 -9.95819e-05 -0.0001193341 -0.0001937189 -0.6530852329 0.543085554
345297930.0 -0.6502987839 0.5440716941 -5.72864e-05 -0.0001301877 -5.216e-07 -2.79986e-05 -0.6479320828 0.54870734
350297900.0 -0.6443799881 0.5510380635 -1.9616e-05 -0.0002895652 -1.8348e-06 -8.32242e-05 -0.6421271908 0.5557256253
355297870.0 -0.6383900186 0.5577165913 0.0002156541 1.1674e-06 -0.0001009991 0.0001297358 -0.636393618 0.5617807829
360297840.0 -0.6326229486 0.5638298333 -9.04388e-05 6.41954e-05 -1.90101e-05 -5.48487e-05 -0.6305794084 0.5687112434
365297810.0 -0.6276373684 0.5707427413 -0.0001616632 -0.0001321829 2.16e-06 -0.0001740428 -0.6236659779 0.5751845109
370297780.0 -0.6213077033 0.5766493735 -0.0002646383 9.22e-07 2.81846e-05 -1.30391e-05 -0.6178755141 0.5817044281
375297750.0 -0.6146445472 0.5831277379 6.46499e-05 0.0001052068 6.7814e-06 0.0001174517 -0.6115791459 0.5878731034
380297720.0 -0.6087618675 0.5884328949 2.49728e-05 -3.39968e-05 -1.85478e-05 -7.89489e-05 -0.6063079392 0.5937217029
385297690.0 -0.6035253685 0.5949966503 0.0001028908 -2.57363e-05 0.0001223205 3.4569e-06 -0.5988919574 0.6003009478
390297660.0 -0.5971285319 0.6008372145 4.12793e-05 -0.0001461619 7.55132e-05 1.816e-07 -0.5938476595 0.6065333743
395297630.0 -0.5903897182 0.6081674828 -0.0001599655 9.19547e-05 3.09865e-05 -9.32854e-05 -0.5872874514 0.6124405171
400297600.0 -0.5841338385 0.6133743242 9.42089e-05 -5.05982e-05 1.13435e-05 -1.6404e-05 -0.5811132408 0.6181027905
405297570.0 -0.5779041549 0.6188207378 -7.52766e-05 0.0002608669 -4.07998e-05 -6.22715e-05 -0.5745105636 0.6242707065
410297540.0 -0.5713596039 0.6250676494 -0.0001106782 -0.0001403057 6.071e-05 1.94049e-05 -0.5681587406 0.6308848031
415297510.0 -0.5646462292 0.630543173 -1.38746e-05 -6.79895e-05 8.7024e-05 2.3324e-06 -0.5615750341 0.6358991606
420297480.0 -0.5591518471 0.6369962234 0.0001967177 3.37684e-05 0.0001059704 -5.01434e-05 -0.5546159308 0.6419994028
425297450.0 -0.5517774191 0.6422946101 1.88e-07 0.0002227879 -0.0001276035 0.0001886378 -0.5482741777 0.6476717504
430297420.0 -0.5455314108 0.6478644488 6.04985e-05 -1.38022e-05 -8.6608e-06 4.8281e-06 -0.5415142148 0.6528264282
435297390.0 -0.5387820526 0.6529147333 2.79366e-05 -7.5497e-05 -5.58423e-05 -4.2565e-06 -0.5342524626 0.6585699134
440297360.0 -0.5318619555 0.6588743223 1.59946e-05 -8.70388e-05 -3.4625e-05 0.0002170065 -0.5276594177 0.6636069978
445297330.0 -0.5248676741 0.6642374434 -0.000224102 -4.15155e-05 -9.56743e-05 -1.63937e-05 -0.5206714247 0.6689857795
450297300.0 -0.5184363306 0.6691973425 0.0002757787 -3.8473e-05 -0.0002202359 -4.6875e-05 -0.5135973655 0.6736685626
455297270.0 -0.5116562869 0.674717534 9.76749e-05 2.97995e-05 2.84791e-05 -0.0002786759 -0.5068976643 0.6791750476
460297240.0 -0.5049237129 0.6797090861 -0.0001429693 8.26697e-05 -2.34762e-05 -2.41251e-05 -0.500036527 0.6846232754
465297210.0 -0.4981120763 0.6846624034 -0.0002416005 -2.04984e-05 -0.000117829 5.29406e-05 -0.4923835455 0.6895165577
470297180.0 -0.490671901 0.6895536934 -0.0001540575 0.0002020026 -0.0001158686 -5.8699e-06 -0.4856146486 0.6949994686
475297150.0 -0.4838299088 0.6940876693 2.14394e-05 6.51364e-05 -0.000146405 2.98653e-05 -0.47871578 0.6988532423
480297120.0 -0.476846204 0.6996185114 2.59107e-05 0.0001028054 0.0002311404 1.72446e-05 -0.4706634805 0.7041001045
485297090.0 -0.4695604362 0.7040340627 5.54175e-05 -0.0002055904 -0.0001326449 -7.0524e-05 -0.4640022118 0.7088274295
490297060.0 -0.4625407621 0.7086407628 0.0001070655 7.962e-07 -0.0002571286 3.04841e-05 -0.456404975 0.7131774072
495297030.0 -0.4551730397 0.7133186974 0.0001718555 -0.0001046766 3.86073e-05 0.0001323114 -0.4497094793 0.7184066335
500297000.0 -0.4479968997 0.7180063565 0.0001516067 -7.35192e-05 0.0001955645 -0.0002082818 -0.4415454457 0.7233394968
505296970.0 -0.440470831 0.7224464522 4.42765e-05 0.0001096703 -3.67669e-05 -0.000144467 -0.4345232239 0.7269316028
510296940.0 -0.4328319805 0.726490634 5.82775e-05 0.0001909884 -9.40343e-05 3.47942e-05 -0.4268698737 0.7312981003
515296910.0 -0.425052779 0.7305536804 -6.10502e-05 -2.85031e-05 -0.0001081137 4.9078e-06 -0.4189833312 0.7357571061
520296880.0 -0.4181188649 0.7353966927 0.0001317632 0.0002375072 8.5233e-05 0.0001383701 -0.4119856423 0.7396674958
525296850.0 -0.4105215621 0.7386726955 0.0001461875 -7.3819e-06 -0.0001415683 6.62286e-05 -0.4049401952 0.7437001346
530296820.0 -0.4026251179 0.743125581 0.0001185315 0.0002237471 -0.000189885 4.68738e-05 -0.39730423 0.7479777905
535296790.0 -0.3959421424 0.747187237 -7.67e-07 0.0001298091 -3.87408e-05 0.0001008075 -0.389842747 0.7515140122
540296760.0 -0.3887484919 0.7508517603 3.52256e-05 -6.3115e-05 -5.46817e-05 -0.0001214333 -0.3815105782 0.75578894
545296730.0 -0.3810861472 0.7549684743 5.70013e-05 -7.66633e-05 -1.56385e-05 3.52927e-05 -0.3746251458 0.7595320808
550296700.0 -0.3735588716 0.7596756319 -0.0001528832 7.8958e-06 0.000104994 -0.0001868359 -0.3662794334 0.7627166153
555296670.0 -0.3650594814 0.7619582184 -0.0002875055 -0.0001281343 -4.17399e-05 -1.14706e-05 -0.3587228311 0.767370724
560296640.0 -0.3578464974 0.7661595326 0.0002259073 4.81188e-05 3.7823e-05 -1.7651e-06 -0.350092565 0.7705369137
565296610.0 -0.3500761959 0.7697010507 7.66024e-05 -5.78929e-05 0.0001403076 2.8301e-05 -0.3425081999 0.7734609455
570296580.0 -0.3428006741 0.7722689518 -2.94886e-05 -9.56562e-05 0.0001430812 -3.49391e-05 -0.3353301857 0.7775184682
575296550.0 -0.3348236471 0.77640118 -7.9154e-06 0.0002089318 -0.0001344155 9.94601e-05 -0.3274230492 0.7806192137
580296520.0 -0.3265748276 0.7795906811 -9.85575e-05 -9.6552e-06 0.0001769317 -0.0001125344 -0.3188718245 0.7832167983
585296490.0 -0.3188959119 0.7825046889 0.0001208716 3.82139e-05 -9.88166e-05 -1.36146e-05 -0.3107937773 0.7873588421
590296460.0 -0.3106142918 0.7860898019 -0.0001664187 -0.0001617515 5.49902e-05 -0.0001293498 -0.3031801775 0.7898077771
595296430.0 -0.3030774758 0.7881744032 0.0002741894 -0.0002332255 0.0001630667 -8.71843e-05 -0.2952322773 0.7924539686
600296400.0 -0.2953854788 0.7919648795 0.0001389986 -1.90055e-05 -0.0001542357 -0.0001960347 -0.2869871551 0.7954956539
605296370.0 -0.288150402 0.7942777082 5.05292e-05 2.3083e-05 2.86511e-05 2.8633e-06 -0.2785077923 0.7989134182
610296340.0 -0.279588683 0.7970856384 0.0001271572 -0.0001632945 9.34466e-05 6.11085e-05 -0.270890066 0.8010614442
615296310.0 -0.2705664625 0.7999310349 0.0001796641 -8.19229e-05 9.48258e-05 6.73843e-05 -0.2622108679 0.8040509054
620296280.0 -0.2633368738 0.8022664521 3.74611e-05 -0.0002547545 -9.19201e-05 -1.66104e-05 -0.2546823407 0.806548223
625296250.0 -0.2552271066 0.8054343162 -4.92658e-05 -5.66882e-05 9.17061e-05 -5.53911e-05 -0.2458429083 0.808398542
630296220.0 -0.2463108909 0.8083008436 -0.0001502672 6.5846e-05 1.098e-05 -6.13531e-05 -0.2378906944 0.8115250047
635296190.0 -0.2390560737 0.8103060682 2.93538e-05 0.0001911201 7.05709e-05 -5.92791e-05 -0.2300198032 0.8135684156
640296160.0 -0.2313272614 0.8125058269 0.0002322732 0.0001125517 -6.20845e-05 6.80948e-05 -0.2217111959 0.8162003919
645296130.0 -0.2227637049 0.815487986 6.69128e-05 9.1843e-06 0.000114867 1.5858e-06 -0.2137979558 0.8183260895
650296100.0 -0.2144364202 0.8165071169 -0.0001048583 1.35209e-05 -6.89511e-05 -6.9105e-06 -0.2054345929 0.8196190924
655296070.0 -0.2060988506 0.8191113824 7.57542e-05 1.59335e-05 1.1165e-06 -8.92497e-05 -0.1963745862 0.8216214914
660296040.0 -0.1984137066 0.8204581136 0.0001932224 0.0002793348 2.84223e-05 -3.28481e-05 -0.188096827 0.8240536939
665296010.0 -0.1898556328 0.8220238996 -6.52812e-05 0.0001850636 -2.21423e-05 0.0001131532 -0.1801231483 0.8259647517
670295980.0 -0.1822422344 0.8243872114 -6.77912e-05 -3.46114e-05 5.88097e-05 7.13919e-05 -0.1721747555 0.8275807428
675295950.0 -0.1739381343 0.8258442175 0.0001109766 0.0001114348 0.0001328056 -6.44741e-05 -0.1639206224 0.8292008038
680295920.0 -0.1651562 0.8278011376 5.50592e-05 0.0001445934 -9.21885e-05 6.50887e-05 -0.1557249235 0.831839213
685295890.0 -0.1572934647 0.830285339 5.9408e-05 -9.8313e-06 0.0002184744 -0.0001047557 -0.1465792436 0.831788051
690295860.0 -0.1487997431 0.8309511976 -7.53793e-05 2.89264e-05 -1.59369e-05 0.0001970712 -0.1387422136 0.8340704785
695295830.0 -0.1410084947 0.832097961 -0.0001343154 0.0001310535 5.2428e-05 7.17431e-05 -0.1297863514 0.8346514477
700295800.0 -0.1321863711 0.8340095277 2.13305e-05 5.84767e-05 0.0001741027 -0.0002059225 -0.1224380708 0.8360450863
705295770.0 -0.1247346503 0.8353551903 -0.0001612048 3.5367e-06 -0.0002025524 3.8929e-05 -0.11421778 0.8382517847
710295740.0 -0.1159068047 0.8367677044 9.438e-06 -2.403e-06 0.0001261273 -0.0001204581 -0.1055544218 0.8385312407
715295710.0 -0.1074504258 0.8372058737 -6.21006e-05 0.0001701839 -5.53363e-05 0.000187212 -0.0968130845 0.839620151
720295680.0 -0.0986832028 0.8383034573 -3.22091e-05 0.0001770596 -0.0001412808 -1.18463e-05 -0.0883146744 0.8406168326
725295650.0 -0.090651494 0.8397999211 -1.74403e-05 6.70063e-05 -0.0001299356 5.84962e-05 -0.0806361614 0.8415515342
730295620.0 -0.0820172258 0.8397942049 -1.70429e-05 1.39612e-05 -9.44071e-05 0.0001599757 -0.0723026738 0.8423728912
735295590.0 -0.0742609442 0.8409609869 0.0003299332 0.0002574258 8.62747e-05 -0.0001320997 -0.0638431772 0.842387495
740295560.0 -0.0657811385 0.8417762703 0.0001150058 1.8718e-06 -0.0001036343 -1.14243e-05 -0.0550011999 0.8439035776
745295530.0 -0.0576551192 0.8428241539 -0.0001910488 -0.0001079661 0.0001131937 -1.54518e-05 -0.0464662762 0.8433499394
750295500.0 -0.0488822045 0.842679724 7.82315e-05 -0.0001332954 8.724e-07 -0.000108702 -0.0380677415 0.8443274024
755295470.0 -0.0406607784 0.8426918766 -8.78579e-05 -1.79921e-05 3.45636e-05 4.97429e-05 -0.02943433 0.844009214
760295440.0 -0.0329078127 0.842939385 -0.0002124152 2.36852e-05 5.06877e-05 0.0001098323 -0.0211118148 0.8447941415
765295410.0 -0.0247223393 0.8436718009 0.0001405682 -3.96872e-05 4.14173e-05 4.11399e-05 -0.0126619308 0.8451507952
770295380.0 -0.0165094926 0.8442382089 -5.13536e-05 8.665e-05 2.07248e-05 -3.04337e-05 -0.0045020197 0.8448559708
775295350.0 -0.0079616064 0.8440924072 -9.00228e-05 -0.0002516064 7.21858e-05 0.0001013584 0.0035036675 0.8441662204
780295320.0 0.0009398827 0.8443223937 -0.0001488778 -1.53452e-05 7.87984e-05 0.0003688281 0.0121165715 0.8446795223
785295290.0 0.0087718039 0.8434844545 0.0002018967 8.78151e-05 -7.81512e-05 -0.0002471826 0.0212140009 0.8443528226
790295260.0 0.0178370237 0.8436888007 6.8623e-05 0.0001107355 -2.37298e-05 5.17233e-05 0.0298910111 0.8444826953
795295230.0 0.0252360874 0.8435396506 9.71747e-05 -1.2375e-06 -2.62164e-05 -7.70099e-05 0.0386272151 0.843587794
800295200.0 0.033813595 0.8434355063 -7.46199e-05 8.30071e-05 -4.91493e-05 -0.0001399007 0.0470324447 0.8434934068
805295170.0 0.0429482763 0.8434068707 2.50213e-05 -0.0001371794 0.0001398895 -0.0002381251 0.0547058118 0.8432016518
810295140.0 0.0510485525 0.84244808 -1.9696e-05 0.0001351694 -4.6215e-06 0.0002356969 0.0633607624 0.8427631314
815295110.0 0.0591939069 0.8419937929 4.14095e-05 2.57848e-05 -2.75685e-05 -2.21833e-05 0.0713702146 0.841866784
820295080.0 0.0672511488 0.8417861183 -7.97742e-05 -0.0001184298 5.23278e-05 7.10826e-05 0.0797654663 0.8413269064
825295050.0 0.0763783525 0.8403972857 -2.8571e-06 4.69793e-05 -0.0001086659 3.23189e-05 0.087996963 0.8408702497
830295020.0 0.0841664588 0.8400835596 5.62001e-05 0.0001349253 -0.0001314146 6.21131e-05 0.0972437656 0.8391501647
835294990.0 0.0921144366 0.83923301 9.45374e-05 -0.0001222012 -0.0002336601 0.0002502631 0.1049787331 0.8381413898
840294960.0 0.1003128977 0.839101269 0.0004044214 1.24627e-05 3.8179e-06 -7.88257e-05 0.1135434853 0.8372490907
845294930.0 0.1083386621 0.8371282643 0.0001736218 -0.0001643532 0.0001174926 0.0001183818 0.121736166 0.8361511914
850294900.0 0.116940013 0.8361873328 -4.387e-06 -0.000104497 6.37428e-05 -0.0001133901 0.1294870437 0.8348414234
