!Created with skrf (http://scikit-rf.org).
# Hz S RI R 50.0 
!freq ReS11 ImS11 ReS21 ImS21 ReS12 ImS12 ReS22 ImS22
300000.0 -0.3230704899 -0.078011805 0.3784898679 0.0425053973 0.3740185877 0.03992467 -0.3224216865 -0.0975755686
5299970.0 -0.3266256843 0.0044258158 0.3783977296 0.0023565896 0.378382333 0.002499305 -0.3239592193 0.0048891735
10299940.0 -0.3243002919 0.0133433832 0.379284563 0.0022096744 0.3796187474 0.0022487498 -0.3216668019 0.0157736755
15299910.0 -0.3215693256 0.020335451 0.3821266636 0.002371029 0.381820825 0.0021742782 -0.3181301859 0.0238263037
20299880.0 -0.3186746792 0.026107396 0.3849349584 0.0019017773 0.3848320053 0.0013087867 -0.3148558333 0.0304087376
25299850.0 -0.3155547789 0.0316328384 0.3881670991 6.23838e-05 0.3880235989 -1.13555e-05 -0.3107291996 0.0359612273
30299820.0 -0.3129635734 0.0359244513 0.3915768099 -0.0024509863 0.3916838167 -0.0024541661 -0.3070137042 0.0409465618
35299790.0 -0.3100622818 0.0398811489 0.3947833388 -0.0054296475 0.3947712457 -0.0056213654 -0.3033265088 0.0452922247
40299760.0 -0.3072698774 0.043534182 0.3980542674 -0.0090351363 0.3981593763 -0.0087813903 -0.3003764128 0.048546009
45299730.0 -0.3045123292 0.0466948151 0.4006707723 -0.0128264528 0.4007502171 -0.0128753256 -0.2971063619 0.0517403881
50299700.0 -0.3024484925 0.0497418288 0.4037615424 -0.0174850907 0.403468274 -0.0171664591 -0.2942352238 0.054267607
55299670.0 -0.3004247763 0.0521709239 0.4056680483 -0.0222499883 0.4054773887 -0.0224113448 -0.2916970414 0.0572894914
60299640.0 -0.2980465426 0.0550991253 0.4075187788 -0.0272555341 0.4077926376 -0.0269291791 -0.2890700129 0.0595039724
65299610.0 -0.2961911367 0.0573598972 0.408960053 -0.0320898739 0.4091765792 -0.0321102849 -0.287147798 0.0617640459
70299580.0 -0.2944599822 0.0600418919 0.4102107035 -0.0372761185 0.4103974863 -0.0367889572 -0.2851100627 0.0636197383
75299550.0 -0.293027002 0.0624902872 0.4112293114 -0.0423472033 0.4113116075 -0.0421920143 -0.2832656606 0.0657273667
80299520.0 -0.2914714841 0.0647823816 0.4124290916 -0.0477964877 0.4124604016 -0.047405018 -0.281754381 0.0680644139
85299490.0 -0.2900130484 0.0671165251 0.4125919987 -0.0523352992 0.4128944466 -0.0523588353 -0.2800011781 0.0700920277
90299460.0 -0.2887963135 0.0693668119 0.4130329786 -0.0580042423 0.4135254588 -0.0579093033 -0.2782727042 0.0720660024
95299430.0 -0.2872790689 0.071526789 0.4136142238 -0.0632347667 0.4135553504 -0.0633962345 -0.2766426884 0.0744758816
100299400.0 -0.2862355573 0.074026891 0.4132826942 -0.0680328234 0.4131559099 -0.0685180194 -0.2752212765 0.0760520698
105299370.0 -0.2853279498 0.0765086947 0.413195018 -0.0740061206 0.4134789663 -0.0736438747 -0.2737873462 0.0782083547
110299340.0 -0.2838654284 0.0788645049 0.4134343787 -0.0785415647 0.4129646982 -0.0786568252 -0.2726634474 0.0804388688
115299310.0 -0.2829618685 0.0810144354 0.4129764796 -0.0838660751 0.4131313216 -0.0837746964 -0.2715969176 0.0824026211
120299280.0 -0.2822084872 0.0830990964 0.4122572362 -0.0889569959 0.4125990061 -0.0892781625 -0.2706795787 0.0844061848
125299250.0 -0.2808313404 0.0855927471 0.412013132 -0.0939612259 0.4117590588 -0.0939803506 -0.2696098669 0.0865531284
130299220.0 -0.2803459565 0.0882692131 0.4110635269 -0.099090564 0.4111462548 -0.0994722096 -0.2684064302 0.0886566459
135299190.0 -0.2795943117 0.0907061601 0.4106173676 -0.1040818847 0.4102188296 -0.1038553784 -0.2671097552 0.0910832034
140299160.0 -0.2784463882 0.0934366154 0.4097112291 -0.1095010049 0.4098306784 -0.1095351662 -0.2660024692 0.0934665029
145299130.0 -0.2773985489 0.0957205859 0.4090193958 -0.1142576455 0.4084541034 -0.1141483045 -0.2653547279 0.0957765482
150299100.0 -0.2764310184 0.09827158 0.4078102376 -0.1189646351 0.4076352537 -0.1185485953 -0.2644896129 0.0985671322
155299070.0 -0.2755582644 0.1008412398 0.4067240994 -0.1242681488 0.4062099771 -0.1239230866 -0.263161874 0.1009183092
160299040.0 -0.2746402691 0.1035468141 0.4053812709 -0.1289912283 0.4051683706 -0.1287148781 -0.2627497494 0.1031863453
165299010.0 -0.2737718969 0.1060744568 0.4042421871 -0.1339299931 0.404308506 -0.1335804155 -0.2613309022 0.1061116641
170298980.0 -0.2727137002 0.1084030632 0.4025203148 -0.1383698229 0.40280458 -0.1383187579 -0.2604399302 0.108154769
175298950.0 -0.2718627451 0.111310473 0.4016973754 -0.1430844281 0.4013683485 -0.143115152 -0.2596279674 0.1105588521
180298920.0 -0.2708745786 0.1139861765 0.4000044077 -0.1476725569 0.3998764556 -0.1476823245 -0.2586380891 0.113029296
185298890.0 -0.2693344395 0.1164228056 0.3982139518 -0.152538319 0.3979564977 -0.1525782846 -0.256888844 0.1159563657
190298860.0 -0.2685240647 0.1193262753 0.3970665536 -0.1573526483 0.3971894142 -0.1573047061 -0.2561756253 0.1182381217
195298830.0 -0.2678977266 0.1216858739 0.3953245007 -0.1619371612 0.3953542677 -0.1616749802 -0.2552427789 0.1208832194
200298800.0 -0.2665170504 0.1245539658 0.3934737558 -0.1667284427 0.3937393799 -0.1667516558 -0.2546013704 0.1233976373
205298770.0 -0.2654882533 0.1274605822 0.3916840817 -0.1713668297 0.3916834949 -0.1710522356 -0.2530815284 0.1253564649
210298740.0 -0.2645630783 0.1299726646 0.3897964992 -0.1754469585 0.3897275293 -0.1753835124 -0.2519315175 0.1283607582
215298710.0 -0.2635408148 0.1326295043 0.3881154846 -0.1801433399 0.3877965909 -0.1804156268 -0.2513270385 0.1310757561
220298680.0 -0.2619832064 0.1352054609 0.3856919733 -0.1846677124 0.3857423256 -0.1846750162 -0.2500917176 0.133269436
225298650.0 -0.2612108185 0.1378235801 0.3839805961 -0.1891096245 0.384014821 -0.1894153591 -0.249018297 0.1359213889
230298620.0 -0.2596033756 0.1408201947 0.381863391 -0.193676339 0.3821434382 -0.1934941351 -0.2477800084 0.1382082323
235298590.0 -0.2582961768 0.1438670868 0.3799121793 -0.1982239758 0.3799508649 -0.1974805023 -0.246522458 0.1411558658
240298560.0 -0.2569698965 0.1464963217 0.3775605898 -0.2026458368 0.3777989933 -0.2024239553 -0.2455005593 0.1437448046
245298530.0 -0.2559156571 0.1488650996 0.3757836592 -0.2065985816 0.3754866746 -0.2066230283 -0.2436649546 0.1458949932
250298500.0 -0.2542048605 0.1517114834 0.3726015885 -0.210873571 0.3728459243 -0.2106219508 -0.2429537821 0.1486016999
255298470.0 -0.2526823501 0.154163102 0.3703149818 -0.2149090302 0.3707481446 -0.2149687105 -0.240992717 0.1508093892
260298440.0 -0.2518173072 0.1567467144 0.3685466391 -0.2194385949 0.3684113235 -0.2192320031 -0.2395689062 0.1538347602
265298410.0 -0.2501127134 0.159890812 0.3658993273 -0.2237275542 0.3658626654 -0.2234741861 -0.2382709873 0.1562407344
270298380.0 -0.2484890929 0.1623176279 0.3635653862 -0.2273502512 0.3637438517 -0.2277823689 -0.2370039637 0.1585221799
275298350.0 -0.2467290281 0.1652630334 0.3605385763 -0.231605988 0.361077962 -0.2316755254 -0.2350210417 0.1611929738
280298320.0 -0.2450512324 0.1678415286 0.3587731127 -0.2357143321 0.3585090088 -0.2358680041 -0.2335239364 0.1634087895
285298290.0 -0.2436921357 0.1708712607 0.3561337914 -0.2399320636 0.355789204 -0.2399906427 -0.2318189332 0.1661105098
290298260.0 -0.2419019122 0.1733327573 0.353465644 -0.243802091 0.3534169848 -0.2438240177 -0.2304514868 0.1689528028
295298230.0 -0.2398895285 0.175748079 0.3504064068 -0.2480161518 0.3504690829 -0.2478934854 -0.2284290293 0.170854943
300298200.0 -0.2386416607 0.1782073561 0.3482263895 -0.2515085299 0.3480112984 -0.2516354416 -0.2263874929 0.1733703187
305298170.0 -0.2363930489 0.1804470946 0.3447483812 -0.2557740376 0.3451080091 -0.255778753 -0.2246212807 0.1756899092
310298140.0 -0.2348841887 0.1835647002 0.34232938 -0.2599029044 0.3423100374 -0.2596654681 -0.2232249616 0.1783022799
315298110.0 -0.2331776169 0.1857445674 0.339496362 -0.2638195105 0.3395498297 -0.2635160443 -0.2212397539 0.1804227394
320298080.0 -0.2310476804 0.1882570914 0.3359260951 -0.2675554244 0.3363309279 -0.2673303046 -0.2193314949 0.183065397
325298050.0 -0.2293607357 0.190751975 0.3331971243 -0.2717726858 0.333260249 -0.2711873114 -0.2179435219 0.1854574193
330298020.0 -0.2276964666 0.1932352401 0.3303296933 -0.2753789453 0.3304175602 -0.2750185892 -0.216216075 0.1877371925
335297990.0 -0.2256439559 0.1954343823 0.327017967 -0.2787134676 0.32680442 -0.2789151318 -0.2148589675 0.1905240908
340297960.0 -0.2241702546 0.1983946688 0.3236559159 -0.2825130193 0.3236110039 -0.2826211993 -0.2122828657 0.1929542766
345297930.0 -0.222189137 0.2009611053 0.3206198899 -0.2861099966 0.3204066134 -0.2858917798 -0.2104221788 0.19508008
350297900.0 -0.2199855638 0.2031266548 0.3170820696 -0.289653619 0.3174925076 -0.2894921347 -0.2087254744 0.1980536788
355297870.0 -0.2178082387 0.2056794689 0.3140981334 -0.2930751372 0.3143441173 -0.2925920909 -0.2070391364 0.2003027396
360297840.0 -0.2158809352 0.2084410857 0.3106977278 -0.2964459344 0.3111137769 -0.2962843845 -0.2050620985 0.2027618347
365297810.0 -0.2140769989 0.210791899 0.3074980125 -0.299669692 0.3075379596 -0.3000488212 -0.2027581714 0.2049395632
370297780.0 -0.2116649304 0.2131646095 0.303870785 -0.30278672 0.304265881 -0.3030254187 -0.2008336188 0.2075573753
375297750.0 -0.2094309498 0.2154560039 0.3006834205 -0.3063141843 0.3010484053 -0.3066943037 -0.19902156 0.2093001277
380297720.0 -0.2073717513 0.2177534568 0.2974244559 -0.3098657254 0.2975309674 -0.3093503369 -0.197134147 0.2119071171
385297690.0 -0.2057421079 0.2200356267 0.2941595567 -0.3128725406 0.2937764368 -0.3127845394 -0.1944430799 0.2142368969
390297660.0 -0.2030739968 0.2224582496 0.2905342476 -0.3162862862 0.2905106047 -0.3162212885 -0.1926909154 0.2165292637
395297630.0 -0.2008887108 0.2250045966 0.2872944209 -0.3195081924 0.2869931469 -0.3196541418 -0.1899189663 0.2186723
400297600.0 -0.198436503 0.2275717089 0.2834001403 -0.322747651 0.2834231704 -0.3225155201 -0.188194838 0.2207011685
405297570.0 -0.1965124084 0.2298211151 0.2798759246 -0.3254115493 0.27976852 -0.3254939938 -0.1862167544 0.2228938033
410297540.0 -0.193789425 0.2317624731 0.2762304221 -0.3285016836 0.2765914609 -0.3288718777 -0.1838752294 0.2253100725
415297510.0 -0.1913142829 0.2336335638 0.2724684909 -0.3317161199 0.2729281676 -0.3320722501 -0.1814770692 0.2271230793
420297480.0 -0.1892234422 0.2364250908 0.2692889351 -0.3345833562 0.269105231 -0.3347126253 -0.1792587285 0.229292842
425297450.0 -0.1866061546 0.2382079671 0.2654893037 -0.3375503966 0.2659216765 -0.337725335 -0.1773045474 0.2314944797
430297420.0 -0.1840526447 0.2404329846 0.2613958734 -0.3404736939 0.2615735899 -0.3404447445 -0.1748460866 0.2331998945
435297390.0 -0.1818206235 0.2423360814 0.2574599783 -0.3430600347 0.2575973932 -0.3430846922 -0.1718231402 0.2350644996
440297360.0 -0.1788889374 0.244756542 0.2535660875 -0.3464465352 0.2540543809 -0.3459573419 -0.1699263811 0.2368779161
445297330.0 -0.1767911625 0.2463782824 0.2501169216 -0.3487237332 0.2502944665 -0.3485304139 -0.167092454 0.2384559771
450297300.0 -0.1738429431 0.2484667257 0.2461898224 -0.3516295832 0.2465344642 -0.3515934388 -0.164786355 0.2404040438
455297270.0 -0.1716239023 0.2503404427 0.2422355312 -0.3539035952 0.2425559353 -0.3543596318 -0.1624352459 0.2424641707
460297240.0 -0.1691658409 0.2525266358 0.2380517621 -0.3567742719 0.238605121 -0.3566593142 -0.1598722283 0.2442334571
465297210.0 -0.1662114186 0.2542954883 0.2347167634 -0.3592162438 0.2346376568 -0.3596612717 -0.1568198354 0.246119997
470297180.0 -0.1636246871 0.2559377823 0.2305859043 -0.3617892657 0.2309734591 -0.3620434272 -0.1542508935 0.2483037168
475297150.0 -0.1606659942 0.2580067429 0.2261071135 -0.3636298782 0.226471124 -0.3637997292 -0.1513118558 0.249439087
480297120.0 -0.1582227658 0.2599581196 0.2223639665 -0.3667855931 0.2225371686 -0.3668474164 -0.1485732154 0.2515270687
485297090.0 -0.1556165004 0.2618654826 0.2186328164 -0.3685608781 0.2184218579 -0.3687386933 -0.1459783745 0.2531755324
490297060.0 -0.1530293387 0.2637187884 0.2144345361 -0.3713334997 0.214686295 -0.3713856386 -0.1434106731 0.2550497502
495297030.0 -0.1503926409 0.2653621412 0.2102469952 -0.3736129822 0.2107241615 -0.373821282 -0.1408502029 0.2567216459
500297000.0 -0.1474050662 0.2668396565 0.2059717767 -0.3752996545 0.2061131151 -0.3755393247 -0.1381737096 0.2588698032
505296970.0 -0.1445423798 0.2687926852 0.2021824294 -0.3775025409 0.2018592182 -0.3780519495 -0.1356068334 0.2600554781
510296940.0 -0.1419797224 0.2703554574 0.1983269311 -0.3803692019 0.1977715738 -0.380302231 -0.1326698419 0.2618279885
515296910.0 -0.1386983163 0.2720069512 0.1934398175 -0.3821599728 0.1938358538 -0.3823022429 -0.1300922623 0.2633711918
520296880.0 -0.136134827 0.2737916899 0.1894670082 -0.3846072828 0.1894829479 -0.3841481639 -0.1272875716 0.2647417627
525296850.0 -0.1330674437 0.2746381683 0.1853154402 -0.3861313156 0.1855270292 -0.3864251662 -0.1246123009 0.2665212752
530296820.0 -0.1302287362 0.2768509341 0.1809514387 -0.3885370037 0.1810980782 -0.3884800344 -0.1217939534 0.2680936629
535296790.0 -0.1276457201 0.2782444555 0.1770947303 -0.3903712395 0.17684886 -0.3897779076 -0.1192006966 0.2692938922
540296760.0 -0.1245558594 0.2796342564 0.1724568324 -0.3920948375 0.1726682723 -0.3923819146 -0.1165731913 0.2710519984
545296730.0 -0.1217053507 0.2813995877 0.1680805987 -0.3940641384 0.1683877226 -0.3939032939 -0.1138414957 0.2722743778
550296700.0 -0.1184724843 0.2828224558 0.163801927 -0.3959757858 0.1640759258 -0.3961262437 -0.1105910707 0.2737500307
555296670.0 -0.1155209429 0.283799295 0.1594968066 -0.3976304047 0.1595883907 -0.3974532402 -0.1078846064 0.2754807095
560296640.0 -0.112537484 0.2856290475 0.1551753868 -0.3994711667 0.1552328055 -0.3992709525 -0.1047877058 0.2765258838
565296610.0 -0.1098597744 0.2871214634 0.1508590154 -0.4011929591 0.1510255945 -0.4009451739 -0.102352844 0.2776048015
570296580.0 -0.107060914 0.2878665684 0.1464211747 -0.4028750984 0.1463838076 -0.4028730478 -0.0995640474 0.2794117227
575296550.0 -0.1039322777 0.2895977166 0.1422488725 -0.404188506 0.1421099241 -0.4044200843 -0.0966586361 0.2800595831
580296520.0 -0.1006403723 0.2904525901 0.1374680679 -0.4056844129 0.1377082467 -0.4057442733 -0.0937325294 0.281142255
585296490.0 -0.0979326442 0.2914907944 0.1337170244 -0.4065860017 0.1333940003 -0.4070584167 -0.0906637615 0.2823636426
590296460.0 -0.0944509271 0.2927139663 0.1288775547 -0.407796445 0.1289148261 -0.4083397642 -0.0880626527 0.2833868639
595296430.0 -0.0915906449 0.2941376724 0.1239252508 -0.409715429 0.1241852274 -0.4095626839 -0.0845790156 0.2839353604
600296400.0 -0.0886220162 0.2950926967 0.119626677 -0.4108985275 0.1201430925 -0.4109753591 -0.0821147577 0.2852192607
605296370.0 -0.0856041636 0.295816591 0.1154768149 -0.4117433645 0.1154635588 -0.4120483805 -0.0786916362 0.2861733262
610296340.0 -0.0823846171 0.2972111373 0.1103865338 -0.413519901 0.1107509517 -0.4130592421 -0.0757286989 0.2871847837
615296310.0 -0.0788799012 0.2981054762 0.1059715582 -0.414376005 0.1061679311 -0.41475029 -0.0726079457 0.2879863999
620296280.0 -0.0759569892 0.2986533933 0.1017318614 -0.4152657934 0.1019218417 -0.4155654216 -0.0701124152 0.2888589295
625296250.0 -0.073214524 0.2996959801 0.0978399181 -0.4166709367 0.097368217 -0.4166926817 -0.0661279803 0.2897296179
630296220.0 -0.0694785145 0.3005268861 0.0922746308 -0.4175057458 0.0926907135 -0.41741311 -0.0634850794 0.2906966146
635296190.0 -0.0669273694 0.3016840295 0.0881119636 -0.4186552784 0.0882954487 -0.418527897 -0.060109564 0.2912982262
640296160.0 -0.0637123029 0.302532532 0.0837542398 -0.419321225 0.0837387772 -0.4195481537 -0.0569974787 0.2924058365
645296130.0 -0.0606160352 0.3034646767 0.0789196995 -0.4199801402 0.0791733579 -0.4205056081 -0.0538016008 0.2929512114
650296100.0 -0.0570069042 0.3040574559 0.0745536266 -0.4207727889 0.0745330217 -0.4209539218 -0.0509268054 0.2932169564
655296070.0 -0.0540753457 0.3047413394 0.0700471612 -0.4218000529 0.0701166742 -0.4217723574 -0.0475187331 0.2941463531
660296040.0 -0.0511728267 0.3051742297 0.0656964808 -0.4221300353 0.0656026872 -0.4223967961 -0.0443345474 0.2949617928
665296010.0 -0.0475524166 0.3056537198 0.060498702 -0.4229880963 0.0607609442 -0.4229741433 -0.0412015842 0.2957555117
670295980.0 -0.0451695199 0.3067333001 0.0562393021 -0.4236562955 0.0562762218 -0.4235027609 -0.038485327 0.2963455875
675295950.0 -0.0415133529 0.3072357732 0.0517906043 -0.4240138268 0.0515984564 -0.4239405613 -0.0355906365 0.2968579644
680295920.0 -0.0383764443 0.3078180283 0.0470763741 -0.4246554329 0.0468168316 -0.4249259363 -0.0318115463 0.2977904586
685295890.0 -0.0346717258 0.3087723614 0.0423327969 -0.4251715391 0.0422550877 -0.4248952302 -0.0286981037 0.2983181338
690295860.0 -0.0313969803 0.3090390049 0.0379293987 -0.4250632595 0.037693046 -0.4257641666 -0.026215777 0.2988477839
695295830.0 -0.0283145525 0.3093792964 0.0333728481 -0.4258186561 0.0330429015 -0.4256703307 -0.0228667786 0.2991560507
700295800.0 -0.0251221796 0.3099031005 0.0286445042 -0.4259722386 0.0283503522 -0.4260694021 -0.0198642953 0.300039388
705295770.0 -0.0218772515 0.310415547 0.0235315016 -0.4264286284 0.0240649643 -0.4266394169 -0.016668398 0.3004864119
710295740.0 -0.0188026296 0.3107179849 0.0196532454 -0.4268299951 0.0195244387 -0.42695466 -0.0133941018 0.3004156418
715295710.0 -0.0156370384 0.3107773319 0.0152058405 -0.4267575363 0.0144649307 -0.4269809704 -0.0101306508 0.3011104627
720295680.0 -0.0121376381 0.310997431 0.0097406436 -0.4268069289 0.010067302 -0.4271413638 -0.0066745791 0.3016483946
725295650.0 -0.0089303377 0.3115019533 0.0052555126 -0.4270460842 0.0055993953 -0.4271786409 -0.0045003211 0.3017764204
730295620.0 -0.0054593156 0.3121114704 0.0005574763 -0.426914874 0.0009298141 -0.4268707089 -0.0011929045 0.3018000371
735295590.0 -0.0025540451 0.3120145141 -0.0037356721 -0.4269412119 -0.0039210643 -0.4270615165 0.0018430292 0.3014386216
740295560.0 0.0005992796 0.3122527292 -0.0082063146 -0.4268162134 -0.0086845123 -0.4269120191 0.0057797584 0.3020228781
745295530.0 0.0039531386 0.3126008367 -0.0132477047 -0.4262741615 -0.0134687044 -0.4265290627 0.008519071 0.301775341
750295500.0 0.007463584 0.3124032562 -0.017728536 -0.4264426414 -0.0174977785 -0.4264135121 0.0116916207 0.3019711318
755295470.0 0.0107898036 0.3125490386 -0.0223886223 -0.4262536476 -0.0224751955 -0.4262461816 0.015252151 0.3015659987
760295440.0 0.0139262155 0.3125294134 -0.0268834621 -0.4260329579 -0.0270819238 -0.4260332695 0.0177912361 0.301633725
765295410.0 0.0171592083 0.3124904858 -0.0315483066 -0.4253578088 -0.0320645272 -0.4254785868 0.0216240088 0.3016895386
770295380.0 0.0200489145 0.3123418667 -0.0360979219 -0.4251003581 -0.0362778612 -0.4250850805 0.0240659384 0.3017293981
775295350.0 0.0233721961 0.3117326709 -0.0404739384 -0.4241178663 -0.0405765833 -0.4244890004 0.0269404303 0.3011409219
780295320.0 0.02689671 0.3120364302 -0.0454784855 -0.42374366 -0.0453251092 -0.4239634621 0.0303494661 0.3010406182
785295290.0 0.0298211842 0.311609451 -0.0501788118 -0.4233032785 -0.050285374 -0.423685184 0.0339997615 0.3007049144
790295260.0 0.0337524658 0.3118693398 -0.0540628227 -0.4230501826 -0.0538929643 -0.4227402664 0.0369724688 0.3004886385
795295230.0 0.0366030977 0.3112809833 -0.0585634657 -0.4220971751 -0.0587378395 -0.422410623 0.0404444448 0.3004735835
800295200.0 0.0396917352 0.3110401198 -0.0637720744 -0.421394168 -0.0635491825 -0.4213331759 0.0435407667 0.3000945924
805295170.0 0.0432632977 0.3107330196 -0.0680656425 -0.4206353968 -0.068157791 -0.4209840921 0.0465031247 0.2998612536
810295140.0 0.046291019 0.3102289031 -0.0723987839 -0.4193190502 -0.0724377229 -0.4199498805 0.0499668833 0.2995070005
815295110.0 0.0495048056 0.3097095789 -0.07716146 -0.4183384048 -0.0770245376 -0.4191460116 0.0527965232 0.2989048397
820295080.0 0.0527080619 0.3099864976 -0.0816506154 -0.4184297327 -0.0811344402 -0.4181880346 0.0561737321 0.2984553123
825295050.0 0.0563863909 0.3088626918 -0.0857046532 -0.4171934437 -0.0859075356 -0.4171317457 0.0594121941 0.2984170962
830295020.0 0.0590684756 0.3087958818 -0.0908605514 -0.4160150488 -0.0908074436 -0.4160137215 0.0632562228 0.297702197
