!Created with skrf (http://scikit-rf.org).
# Hz S RI R 50.0 
!freq ReS11 ImS11 ReS21 ImS21 ReS12 ImS12 ReS22 ImS22
300000.0 -0.7745275989 -0.130637984 -0.0012071559 -0.0011212225 -8.36834e-05 0.0003542709 0.8587684247 -0.003130423
5299970.0 -0.7852822728 -0.0066639216 -9.62849e-05 1.91871e-05 2.66067e-05 -0.0001784189 0.8590858189 -0.0098202166
10299940.0 -0.787713902 -0.0047014467 3.49691e-05 -1.1606e-05 9.19384e-05 1.94143e-05 0.8588760663 -0.0184807821
15299910.0 -0.7933307044 -0.0020445298 3.53155e-05 7.35142e-05 1.69905e-05 -5.46901e-05 0.8572496452 -0.027352875
20299880.0 -0.7999281435 0.0017247616 8.43234e-05 -0.0001020712 -8.72266e-05 1.55256e-05 0.8569375892 -0.0360347681
25299850.0 -0.8065210493 0.0077646724 -0.0001186145 -4.8918e-06 -8.87685e-05 7.5661e-06 0.8562378128 -0.0435171608
30299820.0 -0.8123058842 0.0151380105 4.49406e-05 -0.0001458392 -0.0002138942 -8.4166e-05 0.8552686469 -0.0523495876
35299790.0 -0.8168614238 0.0244881465 0.0001577043 0.0001039244 0.0001236178 -0.0002119656 0.8544952429 -0.0599502889
40299760.0 -0.8214236008 0.033818148 -0.0001173071 -4.74397e-05 -0.0001131168 8.43119e-05 0.8534464735 -0.0675852669
45299730.0 -0.8244981269 0.0430242172 -8.13217e-05 -2.80421e-05 1.77255e-05 -7.1411e-05 0.8526411099 -0.0764344138
50299700.0 -0.8271345402 0.0526802711 1.76305e-05 7.35337e-05 4.44533e-05 -1.87708e-05 0.8513197067 -0.0840644889
55299670.0 -0.8290906489 0.0630940295 0.0001526136 -3.43334e-05 4.7161e-06 0.0002045337 0.8507389007 -0.0930156153
60299640.0 -0.8301572356 0.0736918303 -9.29759e-05 4.54363e-05 3.21673e-05 6.7775e-06 0.8495851479 -0.1005424674
65299610.0 -0.8311760456 0.0836394838 6.79344e-05 -0.0001602723 -5.0038e-05 5.86083e-05 0.8487829527 -0.1090099426
70299580.0 -0.8317598892 0.0933553417 2.04733e-05 -6.66767e-05 1.01938e-05 -8.5542e-05 0.8473682949 -0.1173717697
75299550.0 -0.8315161532 0.1033851916 -0.0001771939 5.26619e-05 -5.3071e-06 -0.0001092054 0.8457719139 -0.1256888773
80299520.0 -0.8322073796 0.1132668184 -8.81236e-05 0.0001280433 0.0001359608 9.80207e-05 0.8449847856 -0.1338777896
85299490.0 -0.8311517756 0.122348742 4.2061e-05 8.74162e-05 0.0002179948 -3.63354e-05 0.843759277 -0.1419942098
90299460.0 -0.8298554373 0.131899965 -0.0002376637 0.0001542616 0.0001303252 9.43054e-05 0.8416191643 -0.1499181639
95299430.0 -0.8290509285 0.1419198019 -0.0001434469 -0.000190415 0.0001203676 5.2401e-05 0.840375184 -0.1576741057
100299400.0 -0.8283096086 0.1510322795 -0.0001071719 0.0001858394 5.6388e-05 0.0001754186 0.8393258819 -0.1663705965
105299370.0 -0.8268965534 0.1604349453 -0.0001484839 -0.0002316696 7.38327e-05 0.0001047739 0.8373255019 -0.1746430907
110299340.0 -0.8256053918 0.1692966061 -2.49635e-05 -0.0002163553 7.59509e-05 0.0001791373 0.8356844428 -0.1822440918
115299310.0 -0.82383185 0.1786514329 4.3282e-06 -0.0001275836 -0.0001030313 0.0003207982 0.8340384213 -0.1910551777
120299280.0 -0.8221168278 0.1870773899 -0.0001045982 0.0001026815 5.0605e-05 0.0001193171 0.8321291556 -0.1992096071
125299250.0 -0.8201493061 0.1962357108 -0.0001567498 3.39682e-05 1.27881e-05 -7.02844e-05 0.8304542296 -0.2067763105
130299220.0 -0.8189557142 0.2053503736 -0.0001398119 -5.48785e-05 8.10918e-05 1.40588e-05 0.8286341523 -0.2152047055
135299190.0 -0.8170291484 0.2139901074 -6.28011e-05 -8.00566e-05 -7.40771e-05 -0.0001674768 0.826218795 -0.2223305181
140299160.0 -0.8150229866 0.2234013199 0.0002711294 -5.47e-07 8.42065e-05 -6.9899e-05 0.8242811782 -0.2309620661
145299130.0 -0.8126681665 0.2322320217 -4.2936e-06 4.69723e-05 6.77028e-05 -8.03246e-05 0.8216383361 -0.2385139188
150299100.0 -0.8103443446 0.2411137116 4.73054e-05 -0.0001965081 0.0001617311 -2.3245e-05 0.8200933124 -0.2469964765
155299070.0 -0.8076762865 0.249641298 8.5482e-06 -0.0001626921 0.0001928567 -5.61518e-05 0.8174102212 -0.2546716114
160299040.0 -0.8054767658 0.2577842275 0.0001879359 -0.0001723486 3.53844e-05 3.43728e-05 0.8143810152 -0.2625443335
165299010.0 -0.8025991867 0.2669484199 -0.0001631256 -9.64678e-05 -0.0001147358 0.0001103641 0.8115903875 -0.2700301382
170298980.0 -0.8005544537 0.2751441125 -0.0001455129 5.73964e-05 7.89671e-05 2.79114e-05 0.8093389471 -0.2780191405
175298950.0 -0.7973899553 0.2843851722 -0.0001820102 -7.12826e-05 -6.5642e-06 0.0001046496 0.8065277057 -0.285918884
180298920.0 -0.7948114837 0.2927557134 7.83294e-05 -0.0001605797 0.0001296105 1.93365e-05 0.8037449464 -0.2937080422
185298890.0 -0.7914166334 0.3007819988 0.0001454368 -3.70416e-05 -0.0002140141 6.71274e-05 0.8006781806 -0.3018840303
190298860.0 -0.788316725 0.3098010596 4.3896e-06 -0.0001178624 0.0001942745 -7.73774e-05 0.7979401425 -0.3086549868
195298830.0 -0.784780426 0.3175790769 6.99235e-05 1.544e-07 9.21601e-05 -0.0001599087 0.7947417103 -0.3166316763
200298800.0 -0.7811870326 0.3261883647 9.7e-07 -0.0002451892 -4.44402e-05 3.13419e-05 0.7912507617 -0.3246924191
205298770.0 -0.7781866744 0.3343080022 -2.75227e-05 -0.0001084552 5.37669e-05 7.14265e-05 0.787815557 -0.332123642
210298740.0 -0.7751129481 0.3417220978 -6.98184e-05 0.0001484406 8.35067e-05 -4.11975e-05 0.7844417751 -0.3391189879
215298710.0 -0.7718969537 0.3508209591 -6.35702e-05 -1.00365e-05 4.661e-06 2.3219e-05 0.7811868602 -0.3466255676
220298680.0 -0.7672162123 0.3590461261 0.0001943627 -0.0001418322 5.77785e-05 2.83717e-05 0.7779059538 -0.3546409863
225298650.0 -0.7640336219 0.3663278868 0.000166203 3.64638e-05 0.0001892502 5.53787e-05 0.7737603207 -0.3617833535
230298620.0 -0.7598365226 0.3745544369 -0.000232787 -8.195e-06 3.99287e-05 2.23092e-05 0.7704902559 -0.369238469
235298590.0 -0.7563258023 0.3831344142 -0.0002923064 1.66415e-05 0.0001114328 8.53622e-05 0.7665581173 -0.3768012804
240298560.0 -0.752125163 0.3912867404 0.0001485137 1.8992e-05 0.0001462478 5.98083e-05 0.7628876861 -0.384564438
245298530.0 -0.7481347656 0.3985467554 -9.62319e-05 0.0001793592 0.0001083228 9.13594e-05 0.7591694316 -0.3922546812
250298500.0 -0.7441431437 0.4066496067 -0.000412293 0.0001647932 8.08648e-05 3.71975e-05 0.7553110615 -0.3992922682
255298470.0 -0.7394849522 0.4138808406 7.1705e-06 1.33918e-05 4.579e-05 8.23359e-05 0.7514355852 -0.4065752322
260298440.0 -0.735079224 0.4215215791 -4.41275e-05 -1.37508e-05 5.2021e-06 -2.1761e-06 0.7473766389 -0.4134796638
265298410.0 -0.7313978901 0.4290969412 0.0001149937 0.0001760954 0.0001201053 -2.24551e-05 0.7434771737 -0.4205258589
270298380.0 -0.7271179553 0.4372792102 -0.0001490564 -5.1257e-05 -0.0001001174 -7.2548e-06 0.7399389765 -0.4277383824
275298350.0 -0.7219134011 0.4449863417 -9.44889e-05 0.0001387199 -6.78361e-05 0.0001048279 0.7357173199 -0.4357256127
280298320.0 -0.7171303361 0.4523635729 -6.62219e-05 -0.0001826087 9.77721e-05 0.000218236 0.7319046548 -0.4429379621
285298290.0 -0.7130037858 0.4600793869 -0.0002520686 -1.98263e-05 -1.88604e-05 -5.14568e-05 0.7277736061 -0.4498715363
290298260.0 -0.7076233582 0.4677345693 0.0001965944 0.0001742621 0.0002254505 0.0002256329 0.7234135251 -0.4569239053
295298230.0 -0.7027374934 0.4743061415 -0.0001024798 1.94564e-05 7.90546e-05 0.0001091383 0.7198249529 -0.4637915131
300298200.0 -0.6980884448 0.481521244 7.84467e-05 5.27284e-05 3.26018e-05 -0.0001405197 0.7153607136 -0.4715438419
305298170.0 -0.6929101129 0.4885405129 -4.86708e-05 -0.000129757 0.0002508912 5.16924e-05 0.7113073674 -0.4793917726
310298140.0 -0.6875531998 0.4961470546 0.0002852017 0.0001245949 0.0001492737 -0.0001467787 0.7061776488 -0.4873526785
315298110.0 -0.6824906828 0.502970403 1.93515e-05 0.0001441646 -0.000136029 -0.0001261397 0.7008916029 -0.4941574438
320298080.0 -0.6776259407 0.5103741905 0.0001152123 -3.048e-06 -8.15166e-05 0.0001631018 0.6958798811 -0.5020903064
325298050.0 -0.6717942899 0.5171042907 9.20784e-05 8.21846e-05 -5.86022e-05 -0.0001809089 0.690700759 -0.5087676132
330298020.0 -0.6664184642 0.5238705713 0.0001581275 0.0001818486 5.86865e-05 -6.60721e-05 0.6837267658 -0.5149067527
335297990.0 -0.6608876271 0.5305900604 8.12366e-05 -0.0002003431 -3.2959e-05 5.96486e-05 0.6793127879 -0.5209762533
340297960.0 -0.6563526157 0.5378661967 -8.64141e-05 5.49502e-05 0.0001890722 -4.5977e-06 0.6737884475 -0.5273549571
345297930.0 -0.6502787694 0.5442362292 0.0002509098 -3.79526e-05 -6.87854e-05 -1.72246e-05 0.668147076 -0.5340385692
350297900.0 -0.6444619001 0.5512043908 -3.5607e-06 0.0001833972 -9.36189e-05 2.11503e-05 0.6622522674 -0.539591681
355297870.0 -0.638182458 0.5579850912 7.981e-07 9.253e-06 0.0001721068 2.55531e-05 0.6570555686 -0.5459590374
360297840.0 -0.6332754191 0.5635632659 5.62216e-05 -6.04085e-05 -7.47634e-05 1.68269e-05 0.6517395254 -0.5527998165
365297810.0 -0.6273100949 0.5703281347 7.14842e-05 7.34364e-05 5.84201e-05 5.22271e-05 0.6458539542 -0.5587876254
370297780.0 -0.6213338946 0.5763419225 -3.65428e-05 8.53479e-05 2.58277e-05 4.49497e-05 0.6404354917 -0.563811459
375297750.0 -0.6144239111 0.5833302093 0.0001963003 -0.0002329353 1.43308e-05 0.0001154638 0.6345641554 -0.5702528232
380297720.0 -0.608607807 0.5892153211 -6.0212e-05 0.0002001066 0.0001676288 8.04705e-05 0.6283414229 -0.5760206403
385297690.0 -0.6030797952 0.595197349 -0.0001491781 0.0001211628 -7.0825e-06 -4.78388e-05 0.6233133496 -0.5821222838
390297660.0 -0.5966309303 0.6011925645 7.9991e-06 0.0001938972 -0.0002547043 1.77849e-05 0.6169314492 -0.58834621
395297630.0 -0.590462431 0.6077485082 0.0002248811 -3.3435e-06 3.91979e-05 7.51847e-05 0.611198655 -0.5942070747
400297600.0 -0.5842664372 0.6140534118 5.02924e-05 0.0001399525 0.0001465064 -0.0001780168 0.605207947 -0.5991079318
405297570.0 -0.5780204034 0.6195312366 6.00139e-05 -0.000196245 -0.000224363 -1.0899e-05 0.5997155463 -0.6054570862
410297540.0 -0.571298577 0.6251508747 0.0002651443 -1.81076e-05 -0.0001306771 -0.0001312324 0.5929665747 -0.6113668692
415297510.0 -0.5647409539 0.6307637598 6.5273e-06 -6.7262e-05 -0.0003109517 -0.0001524015 0.5871597419 -0.6170807096
420297480.0 -0.5593465056 0.6373227275 -9.27917e-05 -0.0001230162 0.0001111115 6.99585e-05 0.5817959731 -0.6222667523
425297450.0 -0.5514658612 0.6425462054 0.0001035204 9.07648e-05 0.000105383 9.1525e-06 0.5751650666 -0.6281164183
430297420.0 -0.5453841369 0.6485487204 -5.19216e-05 -7.34328e-05 6.58909e-05 -4.15931e-05 0.5689369911 -0.6344652172
435297390.0 -0.5387320559 0.653697979 0.0001064164 -2.73755e-05 -9.13106e-05 0.0002902078 0.5625238557 -0.6398983768
440297360.0 -0.5315727423 0.6587307222 -0.0001619862 0.0001625208 -3.94392e-05 0.0001140901 0.5564818552 -0.6449162527
445297330.0 -0.525242811 0.6645667536 -0.0001026772 5.89069e-05 5.15962e-05 -4.43876e-05 0.5506013268 -0.6509567165
450297300.0 -0.5185975632 0.6690614543 3.95294e-05 4.33806e-05 -6.57506e-05 -5.10776e-05 0.5434940572 -0.6552268994
455297270.0 -0.5113709686 0.6743653842 -4.49353e-05 -0.0001878036 -2.18542e-05 4.49441e-05 0.5377462682 -0.6608628306
460297240.0 -0.5048130438 0.6798410328 -0.0001006053 -0.0001209383 -0.0001160976 -1.45376e-05 0.5307998799 -0.6665301396
465297210.0 -0.4982680364 0.6847663106 0.0001174179 -0.0001444381 -0.0001029175 -0.0002156496 0.5247176405 -0.6710101825
470297180.0 -0.4903284471 0.6896774208 1.93742e-05 -0.0002510883 0.0001339334 1.3271e-05 0.5178097945 -0.6763772891
475297150.0 -0.4838377472 0.6945403284 0.0001915574 4.97268e-05 6.11253e-05 -0.0001371683 0.511002468 -0.6818484476
480297120.0 -0.4764648078 0.6993262492 -2.9341e-05 7.91987e-05 3.21665e-05 -0.0001466933 0.5049182559 -0.6856580474
485297090.0 -0.4692963095 0.7040840688 0.0001507368 0.0001080317 -0.0001750448 5.0743e-05 0.497857616 -0.6908948675
490297060.0 -0.4621322607 0.7085716736 5.44912e-05 -9.19871e-05 0.0001345945 -0.0001285705 0.4907296102 -0.6957624426
495297030.0 -0.4551597844 0.7134017136 0.0003128795 0.0001855855 -0.0002176496 -0.0001602664 0.4839568067 -0.7004340364
500297000.0 -0.4476678278 0.7182307213 -4.11434e-05 8.66534e-05 -0.0001359232 0.0003162037 0.4776297187 -0.7050259144
505296970.0 -0.4401877373 0.7227327483 7.90174e-05 -0.0001390306 -2.69388e-05 1.19747e-05 0.4699113882 -0.7093467483
510296940.0 -0.4330273788 0.7264528307 -2.16933e-05 -2.31415e-05 0.00011615 -2.52108e-05 0.4631515615 -0.7145150902
515296910.0 -0.4247837713 0.7304248093 -3.5621e-06 0.0001820385 2.29365e-05 2.12973e-05 0.4560358423 -0.7179573079
520296880.0 -0.4181875998 0.7353399215 0.000221552 0.0002117341 -0.0001692556 -0.0001475236 0.4488999745 -0.7228445209
525296850.0 -0.4100983021 0.7386077025 5.92059e-05 -0.000195517 -1.78775e-05 -7.52198e-05 0.4418340768 -0.7259999117
530296820.0 -0.4029177815 0.7435934371 -0.000185877 0.0001659876 6.11816e-05 -0.0001850002 0.4349953969 -0.7307663311
535296790.0 -0.3960134722 0.746930548 0.0001134215 -3.60002e-05 2.429e-05 9.38381e-05 0.4269300587 -0.7350418335
540296760.0 -0.3880605554 0.7508244594 0.0003255674 -0.0002472203 -0.0001187484 -8.0593e-06 0.4195644297 -0.7383689014
545296730.0 -0.3805465253 0.754907879 4.67282e-05 0.0001986075 0.0001289647 -0.0001978265 0.4131953601 -0.7429423183
550296700.0 -0.3734661104 0.7588180929 -0.0001930538 0.0001326263 0.0001545346 0.0002593803 0.4051921379 -0.7475568369
555296670.0 -0.3646686256 0.7619595607 -4.56375e-05 0.0003340039 -7.00684e-05 -7.05522e-05 0.3978752401 -0.7504749828
560296640.0 -0.3574948767 0.7658881269 0.0003682601 -7.6641e-05 0.0001064834 5.19809e-05 0.3900100046 -0.7537765196
565296610.0 -0.3497311766 0.7698957956 4.99324e-05 0.0001651694 5.71775e-05 -0.0002497991 0.3824778135 -0.7577345884
570296580.0 -0.3423384759 0.7726915769 9.5739e-06 3.35045e-05 -3.2312e-06 -0.0001427872 0.3752605162 -0.7614412181
575296550.0 -0.3342979811 0.7766254474 4.64341e-05 2.09579e-05 7.01311e-05 -8.6323e-06 0.3675071355 -0.764951925
580296520.0 -0.3261141459 0.7796996455 0.0002075527 4.21984e-05 -3.95777e-05 0.000184955 0.3600035628 -0.7690411391
585296490.0 -0.3189105682 0.7827566572 0.0001429277 -0.0002078049 1.0684e-05 3.80126e-05 0.3527658239 -0.7725208076
590296460.0 -0.310652077 0.7854854914 5.4952e-05 -0.0001379884 9.82384e-05 -2.3699e-05 0.3441482779 -0.7752665513
595296430.0 -0.3030599772 0.7884764931 -0.000140724 -7.52929e-05 -0.0001270895 2.83904e-05 0.3367376499 -0.7785532301
600296400.0 -0.2950577488 0.7921015506 1.69688e-05 1.72474e-05 5.84328e-05 4.07887e-05 0.330059891 -0.7821762112
605296370.0 -0.2872655554 0.7947920409 -6.1559e-06 -6.45853e-05 8.29228e-05 -7.44541e-05 0.3216100756 -0.7853415475
610296340.0 -0.278902053 0.7971224689 -0.0002015105 -9.48532e-05 3.5908e-06 -0.0001461091 0.3143449236 -0.7877138462
615296310.0 -0.2707306092 0.7999124111 0.0001081391 6.51303e-05 0.0001744456 -0.000118506 0.3056502941 -0.7914547873
620296280.0 -0.2628637141 0.8023473262 -0.0001285371 9.60148e-05 -5.54818e-05 2.75e-05 0.2989665622 -0.7945212894
625296250.0 -0.2548082634 0.8048655569 1.44062e-05 2.98632e-05 -4.47619e-05 -2.36921e-05 0.2907977828 -0.7970836641
630296220.0 -0.2459848034 0.8078943892 -2.37733e-05 -7.59968e-05 7.06238e-05 2.10003e-05 0.2828411686 -0.7995711995
635296190.0 -0.2385955212 0.8100324477 8.96359e-05 5.78578e-05 3.34966e-05 -9.02444e-05 0.2754414251 -0.8024821772
640296160.0 -0.2313732299 0.8121101465 -4.20828e-05 -0.0001508311 0.0001393541 -4.23729e-05 0.2668389513 -0.8053347372
645296130.0 -0.2226800287 0.8153597297 0.0001190353 4.49603e-05 -0.000120839 -1.29502e-05 0.2592540889 -0.8072578455
650296100.0 -0.2146621343 0.8167981446 -7.29955e-05 3.92801e-05 -0.0002901943 -3.90415e-05 0.2513283689 -0.8111990312
655296070.0 -0.2063535301 0.8198371964 -9.15189e-05 6.32724e-05 9.54094e-05 0.0001303235 0.2439893305 -0.811830979
660296040.0 -0.1980532567 0.8204222403 -6.57453e-05 0.0001541889 7.65636e-05 -1.30085e-05 0.2357689261 -0.8148362657
665296010.0 -0.1893926794 0.8221443598 -7.53345e-05 8.9473e-05 -5.25369e-05 0.0001245273 0.2275741819 -0.8164725468
670295980.0 -0.1822021495 0.824809469 -0.0001080757 0.0001730907 1.73984e-05 9.59325e-05 0.2187143143 -0.8188421356
675295950.0 -0.1733878882 0.8258378601 8.17434e-05 9.1064e-06 -0.0001222453 -3.20945e-05 0.2109366038 -0.820781335
680295920.0 -0.1650753703 0.8283516827 -1.64454e-05 0.000161684 2.89854e-05 0.0001108024 0.2031364461 -0.8218421626
685295890.0 -0.1565676542 0.830297552 -5.78411e-05 8.61551e-05 -1.3324e-06 -2.886e-07 0.1951264923 -0.8242259949
690295860.0 -0.1484441466 0.8308931217 -0.0001482982 5.7485e-05 0.000124813 5.6794e-05 0.1862469947 -0.8254349704
695295830.0 -0.140572265 0.832759535 -3.18066e-05 0.0001748113 0.0002591229 -4.20366e-05 0.1781774524 -0.8269429724
700295800.0 -0.1316277449 0.8338574331 2.1489e-06 0.0001507068 -9.91686e-05 0.0001044268 0.1700757095 -0.8292941405
705295770.0 -0.1239730709 0.8350491685 0.0003600497 2.92989e-05 -8.32544e-05 -0.0001235093 0.1620950625 -0.8297750488
710295740.0 -0.1155558179 0.8364655311 -2.8933e-05 7.29034e-05 7.76946e-05 -5.46779e-05 0.1533660053 -0.8315894437
715295710.0 -0.1074189038 0.8375804703 0.0001734692 0.0003137477 0.0001077091 -6.60544e-05 0.1453938296 -0.8330843302
720295680.0 -0.0992764473 0.838403013 0.0001293498 -2.1398e-06 0.0001439777 0.000391529 0.137340748 -0.8341933452
725295650.0 -0.0904831236 0.839547775 4.2522e-06 0.0001820602 0.0001286446 7.20342e-05 0.1287359022 -0.8349713878
730295620.0 -0.0819969733 0.8403634118 1.9391e-06 -8.75549e-05 1.59179e-05 -0.0001232905 0.1200389922 -0.8362756472
735295590.0 -0.0747173084 0.8412362073 -3.21548e-05 4.73872e-05 -9.02511e-05 2.37177e-05 0.1118756647 -0.8379411856
740295560.0 -0.0656692883 0.8418391475 -0.0001402705 0.0001141721 -0.0001083709 3.1791e-05 0.1036455813 -0.8381704401
745295530.0 -0.0571970609 0.842522305 0.00037446 5.873e-06 4.03498e-05 0.0001146696 0.0955890921 -0.8387520119
750295500.0 -0.0488421868 0.8428057853 -8.1826e-06 3.72148e-05 -0.0001851001 -4.1186e-05 0.0873973104 -0.8395023566
755295470.0 -0.0409294697 0.8426993504 8.52788e-05 0.0001524697 -3.1899e-05 0.0001268638 0.0788904441 -0.8411476672
760295440.0 -0.0326556848 0.8432723737 0.0001740471 -0.0001030893 0.0001248906 8.45377e-05 0.0703889734 -0.8419040771
765295410.0 -0.0243131021 0.843961596 0.0001486097 -1.77345e-05 -3.23291e-05 -0.0001156845 0.0621496603 -0.8419920422
770295380.0 -0.0161686435 0.844431759 -7.8406e-06 0.000113332 1.31391e-05 -5.96767e-05 0.0534094739 -0.8428561817
775295350.0 -0.007383845 0.8440140666 -0.0001506611 2.0856e-05 9.65877e-05 -4.57103e-05 0.044817959 -0.8434246519
780295320.0 0.0008628955 0.8444758197 -0.0001823598 0.0001319582 -0.000216053 -0.0001215179 0.0372335802 -0.8431732187
785295290.0 0.0089633841 0.8432356302 5.83848e-05 -0.0001258164 2.3854e-05 0.000120219 0.0290687376 -0.8433639607
790295260.0 0.017724842 0.8439393811 -7.6045e-05 0.0001356608 3.23878e-05 0.0001413487 0.0211643843 -0.8437236532
795295230.0 0.0257038706 0.8433599403 0.0001973293 6.4482e-06 0.0002178106 -4.50172e-05 0.0120456469 -0.8437240285
800295200.0 0.0340733159 0.843242411 -5.5678e-06 -2.91363e-05 6.24668e-05 -2.7528e-06 0.0034790637 -0.8439773205
805295170.0 0.0430283868 0.8429052149 -0.0001026999 1.85912e-05 -0.000189614 -6.34478e-05 -0.0046005927 -0.8434565528
810295140.0 0.0512679416 0.8424771736 -4.5779e-06 6.20323e-05 5.7351e-06 0.0001880769 -0.0118271458 -0.8442268066
815295110.0 0.0593059349 0.8415077994 3.4874e-05 5.87445e-05 0.0001816683 8.13266e-05 -0.0210023078 -0.8430988293
820295080.0 0.0672614934 0.8412731801 0.0001156883 -7.54071e-05 -1.59556e-05 -4.57938e-05 -0.0294519336 -0.8427229411
825295050.0 0.0766567019 0.8404921575 4.32129e-05 -0.0002132359 -1.4202e-06 -6.16718e-05 -0.0372195291 -0.8425327797
830295020.0 0.0835855924 0.8399913566 -0.0002223874 7.29762e-05 0.0001558931 -7.49707e-05 -0.0453994292 -0.8418528449
835294990.0 0.0920488325 0.8389485658 -7.2436e-06 -8.56899e-05 -0.00012157 7.1933e-06 -0.0542108897 -0.8414816514
840294960.0 0.1003865373 0.8382724987 -0.0001754863 -4.7873e-05 0.0001873766 -2.0743e-05 -0.0625212614 -0.8407076552
845294930.0 0.1087457204 0.8370617133 0.0001294337 -1.7691e-05 -2.53106e-05 -0.0001780222 -0.0707956225 -0.8392633974
850294900.0 0.1166682477 0.8359765062 -6.68389e-05 -6.79277e-05 9.64904e-05 7.63542e-05 -0.0792710255 -0.8386515449
