!Created with skrf (http://scikit-rf.org).
# Hz S RI R 50.0 
!freq ReS11 ImS11 ReS21 ImS21 ReS12 ImS12 ReS22 ImS22
300000.0 -0.2347848724 -0.10608562 0.4663424236 0.0700943117 0.4713904638 0.0721579802 -0.2370378561 -0.1118206054
5299970.0 -0.240859324 0.007062036 0.4752468394 0.0056045889 0.4750178542 0.0056968774 -0.2446729441 0.0055806355
10299940.0 -0.2372268901 0.0199718008 0.4774342987 0.0065085298 0.4769538084 0.0063159411 -0.2419286354 0.0177450426
15299910.0 -0.2329362099 0.0297866019 0.4805041772 0.0074702601 0.4806957354 0.00767179 -0.2372643761 0.0263276368
20299880.0 -0.227470887 0.0377777465 0.4852758619 0.0080714603 0.485404423 0.0079859711 -0.2328347801 0.0340469947
25299850.0 -0.2217196819 0.0442955007 0.4905597886 0.0068778476 0.490434511 0.0068684422 -0.2277284626 0.0399133671
30299820.0 -0.2157068722 0.0494283064 0.4961450449 0.0049782555 0.4957682352 0.0048124882 -0.2227431963 0.0450233235
35299790.0 -0.2100772813 0.0539082458 0.5009001006 0.0016549595 0.5016196893 0.0019470027 -0.2171963483 0.0489084166
40299760.0 -0.2043282299 0.057161729 0.5062545487 -0.0020797898 0.506412509 -0.0023725977 -0.2127736779 0.0520479431
45299730.0 -0.1994933707 0.0600917072 0.5115644906 -0.0071797615 0.5112185824 -0.0069470974 -0.2082590862 0.0541979305
50299700.0 -0.1947777404 0.0620037049 0.5150535951 -0.0124112033 0.5151537598 -0.0129104444 -0.2035732809 0.05653416
55299670.0 -0.1906019958 0.0637786699 0.5186402581 -0.0185446923 0.518915757 -0.0187204699 -0.2000775287 0.0580960279
60299640.0 -0.186426254 0.0650490148 0.5219785139 -0.0248685325 0.5217184652 -0.0250314023 -0.1960646483 0.0593460942
65299610.0 -0.1831059768 0.0664728916 0.5250791022 -0.0308281705 0.5253152858 -0.0311475508 -0.1927666968 0.0606170805
70299580.0 -0.1794981993 0.0669432381 0.5272185371 -0.0373875602 0.5271066621 -0.0378289675 -0.1898466584 0.0614481075
75299550.0 -0.1763442124 0.0681149658 0.5286232717 -0.0446556734 0.5289974818 -0.0447236761 -0.1870264766 0.062554839
80299520.0 -0.1739068433 0.0688845916 0.531173683 -0.0515723052 0.531468899 -0.0517187102 -0.1848544898 0.0629143839
85299490.0 -0.1715616582 0.069308987 0.5324573696 -0.0579867225 0.5321766423 -0.0582671807 -0.1824613285 0.0634640526
90299460.0 -0.1691753169 0.07029047 0.5333384682 -0.0651001956 0.5334100223 -0.0651531476 -0.1798553858 0.0641096996
95299430.0 -0.1671855742 0.0711051561 0.5344054019 -0.0726287711 0.5345075265 -0.0720601746 -0.1784276985 0.0651076818
100299400.0 -0.1652302273 0.0717799356 0.5347423994 -0.0789200032 0.5346782981 -0.0790078938 -0.1769216987 0.0651306216
105299370.0 -0.1634112962 0.0725144246 0.5349152064 -0.0859673928 0.5349681749 -0.0858082841 -0.175124387 0.0659789169
110299340.0 -0.1619478097 0.0729123415 0.5350087009 -0.0927102485 0.5351026943 -0.0928408651 -0.1739247228 0.0670039131
115299310.0 -0.1603805546 0.0734419843 0.5350598723 -0.0992303568 0.5351655085 -0.0994786471 -0.1723399057 0.0669452713
120299280.0 -0.1589032496 0.0743737793 0.5347959337 -0.1063754856 0.5348564521 -0.1068991153 -0.1713618091 0.0681770501
125299250.0 -0.1577904956 0.0750222137 0.5345532373 -0.1129294097 0.5346452827 -0.1130403737 -0.1695177069 0.0680959733
130299220.0 -0.1565705373 0.07595653 0.5335720591 -0.1195113725 0.5339938463 -0.1200800082 -0.1689151948 0.0697292635
135299190.0 -0.1550534404 0.0767589024 0.533081909 -0.1261004444 0.5328424755 -0.1264105078 -0.1678936383 0.0703569716
140299160.0 -0.1546245357 0.0781815928 0.5321456783 -0.1329782242 0.5326342745 -0.1335022935 -0.1666047442 0.0711981584
145299130.0 -0.1531571959 0.0789087519 0.5317618984 -0.1397700169 0.5313234345 -0.1393839556 -0.1661030456 0.0716047318
150299100.0 -0.1521147436 0.0798597055 0.5305792488 -0.1463369947 0.530360027 -0.14604552 -0.1650727539 0.0726279715
155299070.0 -0.1512512146 0.0812823313 0.5292956281 -0.1529837827 0.5294029122 -0.1528477996 -0.1647645399 0.0733332364
160299040.0 -0.1500532404 0.0821283102 0.5273819842 -0.1588139107 0.527932824 -0.1590882263 -0.1636792481 0.0748402146
165299010.0 -0.1492199367 0.083179816 0.5268014642 -0.1655640387 0.5265860244 -0.1657634222 -0.1629159241 0.0755709064
170298980.0 -0.1483565527 0.084329888 0.5243237976 -0.1719611095 0.5248461263 -0.1720397333 -0.1618892797 0.0767162445
175298950.0 -0.1472252574 0.0856392433 0.5235653561 -0.1778124804 0.523609502 -0.1778957412 -0.1612262948 0.0774028512
180298920.0 -0.1461163438 0.0865179918 0.5211067817 -0.184715851 0.5217476877 -0.184365908 -0.160395456 0.0789773864
185298890.0 -0.1452397486 0.087757615 0.5192552885 -0.1904498582 0.5196993208 -0.1906243595 -0.1598438819 0.079549112
190298860.0 -0.1445622318 0.0889216979 0.5176286098 -0.1967615387 0.5179407184 -0.1969656417 -0.1583327163 0.0809595312
195298830.0 -0.1434467778 0.0899467796 0.5155600015 -0.2026112634 0.5155915364 -0.2031074533 -0.1576657472 0.0818232332
200298800.0 -0.1427953666 0.0915512548 0.5138610352 -0.2084332916 0.5134002425 -0.2086670409 -0.1571054105 0.0832489604
205298770.0 -0.141752314 0.0928804851 0.5115752201 -0.2150337227 0.5116747849 -0.2148123637 -0.1563425072 0.0839714298
210298740.0 -0.1408304906 0.0942122495 0.5091823757 -0.2211781804 0.5093607357 -0.2213410929 -0.1556929388 0.085821583
215298710.0 -0.1396989777 0.0954421034 0.506589713 -0.2268731742 0.5069793392 -0.2267139815 -0.1551220089 0.0866400867
220298680.0 -0.1388573502 0.0969111308 0.504238074 -0.2332283072 0.5045767848 -0.2330022021 -0.1540412005 0.0881762466
225298650.0 -0.1376540622 0.0984855207 0.5016393925 -0.2385874788 0.5017949106 -0.2389055373 -0.1536370725 0.0893285789
230298620.0 -0.1369161603 0.0995709989 0.4996176874 -0.2444895229 0.499607959 -0.2443997937 -0.152280997 0.0907501264
235298590.0 -0.1360658908 0.1008513362 0.4967705284 -0.2500758175 0.496839401 -0.2507045187 -0.1517011113 0.0917065753
240298560.0 -0.1350645173 0.1022408035 0.4943600418 -0.2556190527 0.4946197697 -0.2554391292 -0.1509124033 0.0932580274
245298530.0 -0.1338473111 0.1038169064 0.4910568764 -0.261776157 0.491168722 -0.2616500409 -0.1501171667 0.0947665872
250298500.0 -0.1331709507 0.1051163733 0.4888452649 -0.2665279609 0.4888713876 -0.2665762443 -0.1489906362 0.0955710629
255298470.0 -0.1318262448 0.1069097223 0.4853642622 -0.2727837109 0.4857220159 -0.2726793325 -0.1484948837 0.0967178485
260298440.0 -0.1309020092 0.1080569254 0.4829467573 -0.2778159145 0.4826777486 -0.278354479 -0.147050848 0.098337
265298410.0 -0.1295388684 0.1097092466 0.479652958 -0.2842970561 0.4795054548 -0.2842201441 -0.1464971777 0.0995734837
270298380.0 -0.1282653064 0.1108150393 0.4760355855 -0.289130377 0.476924856 -0.2895577948 -0.1453569035 0.1013032361
275298350.0 -0.1275903572 0.1125468184 0.4734296359 -0.2950674471 0.4735020181 -0.2950520642 -0.1446696928 0.1025510766
280298320.0 -0.1263533402 0.1135891936 0.4702012993 -0.2996025768 0.4702513446 -0.3001235672 -0.1434730118 0.1038857769
285298290.0 -0.1249727414 0.1152860512 0.4668894566 -0.3048335215 0.4666651703 -0.3052439242 -0.1426627207 0.1052539992
290298260.0 -0.1240394129 0.1168990579 0.4641141904 -0.3105610239 0.4635564297 -0.3107380216 -0.1413062045 0.1065945623
295298230.0 -0.1225330286 0.1181566596 0.4605242309 -0.3158646179 0.459976915 -0.3163083026 -0.1403415664 0.1079387169
300298200.0 -0.1207075533 0.1192604362 0.4564293727 -0.321255307 0.4569466073 -0.3212860615 -0.1393533732 0.1093231147
305298170.0 -0.1198315705 0.1203195047 0.4534834918 -0.3263265731 0.4535475454 -0.3268771287 -0.1378480025 0.1109934416
310298140.0 -0.1181951463 0.1217356802 0.4500699948 -0.3321361736 0.4501866738 -0.3319786762 -0.137111186 0.1123065055
315298110.0 -0.1171893081 0.1231854762 0.4462237083 -0.3369762901 0.4464535875 -0.337396816 -0.1355865099 0.1131932771
320298080.0 -0.1159542596 0.1246113078 0.4426747321 -0.3422632653 0.4425432109 -0.3421130891 -0.1348407406 0.1145736441
325298050.0 -0.1148290115 0.1255410735 0.4388409332 -0.3470515008 0.4389381583 -0.3472926791 -0.1339088724 0.1156688816
330298020.0 -0.1134650406 0.1268475228 0.4343487881 -0.352429924 0.4345570089 -0.3521908674 -0.1330595003 0.116821136
335297990.0 -0.1122492704 0.1280417454 0.4304161014 -0.356983962 0.4304742625 -0.3572835433 -0.1323243355 0.1183646656
340297960.0 -0.1112006223 0.129742381 0.4261771642 -0.3620990242 0.4268633271 -0.361672812 -0.1311735909 0.1198225696
345297930.0 -0.1098933381 0.1310847789 0.4223344514 -0.3662603611 0.4222338842 -0.3661965733 -0.1300948483 0.1208701441
350297900.0 -0.1083266401 0.1324821068 0.4183198933 -0.3703178938 0.4185185734 -0.3709289825 -0.1292450381 0.1228015056
355297870.0 -0.10731917 0.1336206786 0.4142067981 -0.3753501061 0.4140581419 -0.3758223733 -0.1281000602 0.1240990934
360297840.0 -0.1057078675 0.1351189955 0.4096112986 -0.380134675 0.4100182577 -0.3800797449 -0.1267333557 0.125655107
365297810.0 -0.1043124626 0.1364921984 0.4058718496 -0.3845547129 0.4058612421 -0.3845462985 -0.12567344 0.1270989673
370297780.0 -0.10266611 0.1377167477 0.4016584845 -0.3891233889 0.4016071319 -0.3894561678 -0.1244722739 0.1286775184
375297750.0 -0.1013504837 0.1391500381 0.3976162654 -0.3935357004 0.3971141335 -0.3939406833 -0.1232377592 0.1302539597
380297720.0 -0.0996299197 0.1401073552 0.3931661224 -0.3973224508 0.3927440623 -0.3978441807 -0.1217089243 0.1316667996
385297690.0 -0.098138153 0.1416536701 0.3884647846 -0.401891458 0.3882895486 -0.4019270121 -0.1204605694 0.1330634769
390297660.0 -0.0965951988 0.1428201579 0.3839138483 -0.4063380006 0.383830599 -0.4068309344 -0.1191648477 0.133989414
395297630.0 -0.0947900919 0.1440366035 0.3798903414 -0.4104619848 0.379464635 -0.4102915818 -0.1181024666 0.1357445622
400297600.0 -0.0934842798 0.1454543624 0.3747839245 -0.414714632 0.374941818 -0.4146551127 -0.1172866883 0.1366914598
405297570.0 -0.09175587 0.1465176111 0.3703839394 -0.4187319714 0.370486326 -0.4191237042 -0.1158468429 0.1385964417
410297540.0 -0.0901401873 0.1474038399 0.3649962646 -0.422780806 0.3655700334 -0.4229044402 -0.1143903431 0.139570923
415297510.0 -0.0886343989 0.149130783 0.3613039581 -0.4265979114 0.3610072791 -0.426767623 -0.1133135252 0.1412968073
420297480.0 -0.0868047925 0.1496917447 0.356163452 -0.4310849955 0.356421704 -0.4308230172 -0.111794607 0.1421435635
425297450.0 -0.0848868475 0.1505443951 0.3514702726 -0.4345906869 0.3519735273 -0.4347490006 -0.1103483499 0.1436761043
430297420.0 -0.0836708636 0.1518705729 0.3474242078 -0.4387092609 0.3468351584 -0.4385185644 -0.1089520498 0.1445802563
435297390.0 -0.0816770747 0.1530245204 0.3422016052 -0.4421422253 0.3421077039 -0.4421202172 -0.1074763352 0.1463556832
440297360.0 -0.0800506314 0.1540157818 0.3369445189 -0.4457154355 0.3366523689 -0.4458018432 -0.1063693483 0.146997523
445297330.0 -0.0778881014 0.1548757302 0.3318343534 -0.4497328336 0.3322845471 -0.4495077187 -0.1051864726 0.1485113692
450297300.0 -0.0765106143 0.1559081322 0.3269815536 -0.4529878063 0.3274692903 -0.4532388306 -0.1034621063 0.1497319528
455297270.0 -0.0750535756 0.1569165224 0.3226906634 -0.4567509583 0.323034587 -0.4566741186 -0.1020788864 0.1509451223
460297240.0 -0.0731643002 0.1579565631 0.3170039244 -0.4600557384 0.3169519817 -0.4602870114 -0.1002625081 0.1527943409
465297210.0 -0.0711667848 0.1586658017 0.3125380892 -0.4633626475 0.3124451588 -0.4637658557 -0.0994572684 0.1531820579
470297180.0 -0.0695215875 0.1599442491 0.3074093821 -0.4671636339 0.3073877508 -0.466835698 -0.0979715365 0.1546025505
475297150.0 -0.0680040335 0.1603596699 0.3022190063 -0.4700626719 0.302154124 -0.4699033198 -0.0962602535 0.1557376443
480297120.0 -0.0661026179 0.1611577119 0.2971782786 -0.4726534322 0.2972630689 -0.4734215488 -0.0950031926 0.1575614554
485297090.0 -0.0640127019 0.1624217642 0.292076581 -0.4770608304 0.2919529312 -0.4769146802 -0.0936703809 0.1581499861
490297060.0 -0.0621138575 0.1630628205 0.2866553849 -0.4800538776 0.2869163515 -0.4797887456 -0.0919724221 0.1593172603
495297030.0 -0.0606345761 0.1641613763 0.2813108473 -0.4825467865 0.2809894448 -0.4826770371 -0.0904943322 0.1597073402
500297000.0 -0.0586189323 0.1646646648 0.2760794249 -0.4857796309 0.2761824506 -0.4858401748 -0.0893400463 0.1611464962
505296970.0 -0.0571923674 0.165441583 0.2704560101 -0.4885855625 0.2708158352 -0.4887382651 -0.0879918307 0.1622316565
510296940.0 -0.055149718 0.1664020367 0.2653033006 -0.4918582334 0.2653903255 -0.4920077283 -0.0861076852 0.163867112
515296910.0 -0.0534535753 0.1672943743 0.2598972398 -0.4943925015 0.260444162 -0.4943165585 -0.0847952958 0.1645190148
520296880.0 -0.0511895303 0.1676357586 0.2542503308 -0.4971415133 0.2545842113 -0.4970188454 -0.0827882557 0.1655292016
525296850.0 -0.0496453213 0.1683136184 0.2491754311 -0.4999519321 0.2492925236 -0.5000623949 -0.0810721647 0.1665598559
530296820.0 -0.0476806409 0.1690570367 0.2439782211 -0.5018835945 0.2436749761 -0.5025332133 -0.0799446073 0.1671820583
535296790.0 -0.0457072198 0.1695343672 0.2381813696 -0.504795201 0.2383945398 -0.5048283762 -0.0785263623 0.1680869826
540296760.0 -0.0440307807 0.1700424973 0.2330071308 -0.5080438158 0.2324273576 -0.5077663091 -0.0771647983 0.1694731977
545296730.0 -0.0420679293 0.1710474114 0.2275575431 -0.5098864295 0.2272700057 -0.5102615595 -0.0753859923 0.1699467262
550296700.0 -0.040432661 0.171604376 0.2217597435 -0.5123333507 0.2223413108 -0.5129120556 -0.0737880281 0.1713226025
555296670.0 -0.0379471249 0.1719161131 0.2161528484 -0.5149903853 0.2160404763 -0.5149769815 -0.0724980348 0.1721404588
560296640.0 -0.0361042452 0.1725227106 0.2105425387 -0.5168477467 0.2106681694 -0.5173390799 -0.0704387051 0.1728980727
565296610.0 -0.0345394977 0.1729664997 0.2046235445 -0.5191407495 0.2046391982 -0.5193351401 -0.0690383509 0.1737040379
570296580.0 -0.0323495797 0.173571121 0.1991902062 -0.5212837826 0.1995140933 -0.5218694695 -0.0676447088 0.1750116402
575296550.0 -0.0306339414 0.174414254 0.1934090629 -0.5232304099 0.1939895366 -0.5232525017 -0.0656335511 0.1756067226
580296520.0 -0.0286852755 0.174560565 0.1883406225 -0.5254629507 0.1875758297 -0.5256206364 -0.0643680111 0.175870967
585296490.0 -0.0264488808 0.1749173115 0.18268872 -0.5274823809 0.1821774968 -0.5274020314 -0.0625557962 0.1765951412
590296460.0 -0.0248121257 0.1752211471 0.1763087434 -0.5292659184 0.1767464271 -0.5298896163 -0.0608660405 0.1780342118
595296430.0 -0.0227062114 0.1758990385 0.1712826099 -0.5316174701 0.1707362855 -0.5317868129 -0.0590192669 0.1782649328
600296400.0 -0.020683402 0.1762983865 0.1652699119 -0.5333026052 0.165121076 -0.5333436143 -0.0573937562 0.179217835
605296370.0 -0.018521115 0.1767946039 0.1591145024 -0.5352697935 0.1595843086 -0.5348585 -0.0558680269 0.179877507
610296340.0 -0.0166945928 0.1768460671 0.1539980597 -0.5366001503 0.1536822486 -0.5369366005 -0.0538794156 0.1807661166
615296310.0 -0.0147824338 0.1775875029 0.1477754382 -0.5379804721 0.1474915902 -0.5383915607 -0.0524086401 0.1811921602
620296280.0 -0.0130646661 0.1774312861 0.1423304449 -0.5393810983 0.141738216 -0.539733366 -0.0505798855 0.1817114867
625296250.0 -0.0108249653 0.1780337705 0.1357488101 -0.5410414451 0.1357506182 -0.5413220861 -0.0485364431 0.1827738143
630296220.0 -0.0087947856 0.1780995 0.1302260724 -0.5426838204 0.1301968446 -0.5429093569 -0.0471120708 0.1831774085
635296190.0 -0.0070063241 0.1783271968 0.124468771 -0.5433220877 0.1243598425 -0.5434011542 -0.0454799652 0.1835304958
640296160.0 -0.0047774658 0.1785652997 0.1182586619 -0.5448079174 0.1185644317 -0.5454117283 -0.0434223345 0.1843038979
645296130.0 -0.0029073655 0.1789632725 0.1126215491 -0.5464036059 0.1126826564 -0.5464709851 -0.0424433458 0.1843724814
650296100.0 -0.001083999 0.179486216 0.1069540327 -0.5473571832 0.1069456215 -0.5474268865 -0.040257929 0.1853061876
655296070.0 0.0008749292 0.1791275582 0.1008915621 -0.5485901418 0.1003800488 -0.5485383158 -0.0382459709 0.1859372486
660296040.0 0.0025878749 0.179727001 0.0948738966 -0.5493582835 0.0950839812 -0.5490550373 -0.0367324047 0.1859790019
665296010.0 0.0051133842 0.1793868709 0.0891523428 -0.550367092 0.0895145102 -0.5504224443 -0.0350118417 0.1869770798
670295980.0 0.0072327045 0.1798598992 0.0832941223 -0.5517292204 0.0834119252 -0.5512525543 -0.033600316 0.1872001041
675295950.0 0.0093027663 0.1797850891 0.0769726142 -0.5522517251 0.0774453916 -0.5524009804 -0.031183416 0.1876616919
680295920.0 0.0109142226 0.1797954382 0.0711428687 -0.5530164659 0.0709138189 -0.5529758371 -0.0294171374 0.1879510642
685295890.0 0.0129631713 0.1796035048 0.0654988327 -0.5538896886 0.0649283354 -0.553715029 -0.0276935736 0.1885770771
690295860.0 0.0153224016 0.1797042312 0.0593562408 -0.5537371737 0.0586865727 -0.5543834831 -0.0259242509 0.1894422905
695295830.0 0.0174441356 0.1795714641 0.0522448079 -0.5546087043 0.0529309279 -0.555224078 -0.0243288359 0.1895317173
700295800.0 0.0194919424 0.1798226146 0.0469375509 -0.5555928939 0.0468503103 -0.5555314515 -0.0224593986 0.1897878069
705295770.0 0.0215704791 0.1798343427 0.0409721604 -0.5558153095 0.0411266316 -0.5559602379 -0.0206222994 0.190110188
710295740.0 0.0232508952 0.1798787898 0.0351248497 -0.5559784177 0.0350661269 -0.5561441494 -0.0191225698 0.1907594352
715295710.0 0.0252717471 0.1796686012 0.0294514116 -0.5564294019 0.0293838882 -0.5565865266 -0.0168613939 0.1905909374
720295680.0 0.0273264791 0.1790358321 0.022819362 -0.5565878332 0.0234607872 -0.5571936252 -0.0148794601 0.1911285989
725295650.0 0.0295169675 0.1791874168 0.0169022843 -0.5566107261 0.0171711935 -0.5569635551 -0.0131863668 0.1916035861
730295620.0 0.0310024042 0.1789314618 0.011209692 -0.5568040791 0.0110873173 -0.5571421135 -0.0110358996 0.1912985175
735295590.0 0.033738588 0.1787045277 0.005192522 -0.5570011668 0.0052821819 -0.5574242587 -0.0094802317 0.1918726751
740295560.0 0.0354649886 0.1789651813 -0.0009520388 -0.5566225914 -0.00092152 -0.5573426119 -0.0074596577 0.1920390472
745295530.0 0.0374913279 0.178437913 -0.0070204817 -0.5570909985 -0.0069800559 -0.5572547329 -0.0056276832 0.1922621811
750295500.0 0.0396307122 0.1780670007 -0.0125771838 -0.5565557356 -0.012811191 -0.5569978847 -0.0037694002 0.1923196883
755295470.0 0.0417899899 0.1781515803 -0.0189454029 -0.5568577545 -0.0188135749 -0.5567779738 -0.0023306281 0.1926648403
760295440.0 0.0432579979 0.1778300372 -0.0246378326 -0.5562627282 -0.0250842166 -0.5562460245 -0.0004660083 0.1928083862
765295410.0 0.0452403367 0.1770031553 -0.0303069436 -0.5558721808 -0.030757655 -0.5564571676 0.0019677452 0.1932248634
770295380.0 0.0477237579 0.1772130673 -0.0373770029 -0.5554727745 -0.0367534158 -0.5559700166 0.0036816384 0.1931891897
775295350.0 0.0494261911 0.1768923568 -0.0426705146 -0.5551823562 -0.0426472498 -0.5553142378 0.0050883964 0.192635361
780295320.0 0.0515398629 0.1759364631 -0.0484379125 -0.5549254762 -0.0483064861 -0.555098697 0.007107429 0.1935316284
785295290.0 0.0534894302 0.1762535239 -0.0547033174 -0.5535733652 -0.0543894961 -0.5541510327 0.0088154241 0.1936019018
790295260.0 0.0553543158 0.1753176342 -0.0604422446 -0.553671474 -0.0605567357 -0.5538056346 0.0112013108 0.1933928623
795295230.0 0.0570340469 0.1752683119 -0.0661511664 -0.5523543835 -0.0660986129 -0.5525715216 0.0129263249 0.1940186457
800295200.0 0.0595042121 0.1747728484 -0.072821177 -0.5521445159 -0.0727844933 -0.5520496172 0.0151113567 0.193660154
805295170.0 0.0612983956 0.1739095785 -0.0784861159 -0.5505035028 -0.0784586365 -0.5511643741 0.0162343954 0.1934398685
810295140.0 0.0632728042 0.1732564803 -0.0840913904 -0.5503301941 -0.0841322308 -0.5508413719 0.0184770833 0.1938148524
815295110.0 0.0649681265 0.1729791808 -0.0901961807 -0.5488720189 -0.0905103806 -0.5490274572 0.0202288125 0.1934086902
820295080.0 0.0671692483 0.1719567849 -0.0962665164 -0.5482199041 -0.0964245838 -0.5486028254 0.0218813813 0.1936124502
825295050.0 0.0691341833 0.1715445532 -0.1021985289 -0.5465480625 -0.1019540719 -0.5468980957 0.0240009655 0.1937209727
830295020.0 0.0707414485 0.1713426662 -0.1078033747 -0.5461671386 -0.1084363783 -0.5459174473 0.0259184838 0.1934722001
