!Created with skrf (http://scikit-rf.org).
# Hz S RI R 50.0 
!freq ReS11 ImS11 ReS21 ImS21 ReS12 ImS12 ReS22 ImS22
300000.0 -0.1006848147 -0.0664896117 0.6313389409 0.0617964113 0.6251527285 0.0625653499 -0.101812552 -0.0732818485
5299970.0 -0.1022084993 0.013641637 0.6301693447 0.0095301729 0.6308941721 0.0097873596 -0.100476901 0.0129866152
10299940.0 -0.097020256 0.029493659 0.6339206156 0.0147328364 0.6339519314 0.0154176576 -0.0954759812 0.0304786037
15299910.0 -0.0900810801 0.042579508 0.6403578614 0.0202267107 0.640628053 0.0204936262 -0.0883846371 0.0437208232
20299880.0 -0.0815316357 0.0531425831 0.6484866343 0.0242487704 0.6487240612 0.023787154 -0.0797406947 0.0543840756
25299850.0 -0.0721141927 0.0623200683 0.6578090812 0.0246133127 0.6574633878 0.0247625401 -0.0698500956 0.063468387
30299820.0 -0.0619777687 0.0686013983 0.6672484618 0.0241355622 0.6672557608 0.0242966474 -0.0594837208 0.0701758958
35299790.0 -0.0522825203 0.0738038157 0.6769654058 0.0209930385 0.6773902584 0.0212624387 -0.0498232082 0.0751187365
40299760.0 -0.0431750991 0.076963113 0.6861810552 0.017041429 0.6866206535 0.0168283899 -0.0403271857 0.077568959
45299730.0 -0.0339428158 0.0793781627 0.695108742 0.0116841565 0.6953054689 0.0117057226 -0.0311756419 0.0796208905
50299700.0 -0.0256211688 0.0801881295 0.7039713173 0.0044949365 0.7033793989 0.005256497 -0.0225807038 0.080558368
55299670.0 -0.0177494793 0.0802430755 0.710574168 -0.0035597364 0.7105985829 -0.0030803036 -0.0147656352 0.0805679128
60299640.0 -0.0100209486 0.0800204335 0.717713676 -0.0114875194 0.7177798304 -0.0113084896 -0.0078320656 0.0795513329
65299610.0 -0.0038001054 0.0787156974 0.7231849235 -0.0207207824 0.7236356088 -0.0201352747 -0.0012295721 0.0785992283
70299580.0 0.0026085574 0.0774321387 0.7286166344 -0.0299153676 0.7284791244 -0.0296102362 0.0046983466 0.0767809678
75299550.0 0.0080920819 0.0756028051 0.7326875531 -0.0389657438 0.7327842519 -0.0397305313 0.0100213121 0.0747910518
80299520.0 0.0131061964 0.0736523877 0.7371180598 -0.0492962677 0.7373167293 -0.0491379278 0.0148802958 0.0726641324
85299490.0 0.0178473393 0.0714767419 0.7403986463 -0.0584790004 0.7401599619 -0.0585775701 0.0192496571 0.0701437524
90299460.0 0.0218384427 0.0689229585 0.742687046 -0.0692529972 0.7434392384 -0.0693826782 0.0234106345 0.0681475304
95299430.0 0.0257643932 0.0665739746 0.7457997052 -0.079684134 0.7453420486 -0.0792971009 0.0271190283 0.0653875536
100299400.0 0.0287350178 0.0647490447 0.7465614988 -0.0889934985 0.7465830816 -0.0896150321 0.0306724288 0.0625417311
105299370.0 0.0322776026 0.061990675 0.7483703386 -0.0996928469 0.7492116182 -0.0994540622 0.0337208872 0.0605668609
110299340.0 0.0347193916 0.0596801329 0.7502295736 -0.1094867412 0.7494905534 -0.1092778025 0.0358891947 0.0577752728
115299310.0 0.037570868 0.057259985 0.7504703603 -0.1197298813 0.7505364677 -0.1195297521 0.0388973456 0.0555377803
120299280.0 0.0397200215 0.0545257951 0.7509876646 -0.1289562543 0.7514728805 -0.1296978581 0.0412177413 0.0529524262
125299250.0 0.0420280381 0.0523676329 0.7517163897 -0.1389754569 0.7516005005 -0.1388530014 0.0427555562 0.050141804
130299220.0 0.0437048869 0.050164732 0.7510088468 -0.1490782126 0.7512296437 -0.1494871971 0.0448953014 0.0479660733
135299190.0 0.045368477 0.0481489865 0.751182602 -0.1595498212 0.7510917482 -0.1590221033 0.0467409676 0.0459835934
140299160.0 0.0468537571 0.0464356756 0.7505485635 -0.1690828255 0.750322173 -0.1690272866 0.0480108349 0.0444135183
145299130.0 0.0482671041 0.0436285629 0.7502485599 -0.1785454788 0.7491728248 -0.1785098204 0.0492565001 0.0418326
150299100.0 0.0497803476 0.0419999688 0.7485916298 -0.1876484092 0.7488405075 -0.1876255845 0.0508438765 0.0398588213
155299070.0 0.050373039 0.0397664073 0.7476979179 -0.1983032745 0.7474212126 -0.1982051966 0.0519563142 0.0379840625
160299040.0 0.0520377196 0.0378817509 0.7462565711 -0.2076935505 0.7456075643 -0.2077551549 0.052434586 0.0360316714
165299010.0 0.0523886158 0.0362792322 0.7446710644 -0.2175843868 0.7443912081 -0.2173922604 0.0536799022 0.0347307117
170298980.0 0.0533814557 0.0337125014 0.7425973887 -0.2268545864 0.7427545053 -0.2266379872 0.0542087427 0.0328510738
175298950.0 0.0537335555 0.0319852425 0.7410708513 -0.2358998021 0.7403678129 -0.2358284361 0.0546881721 0.0312876384
180298920.0 0.0544574674 0.0304092018 0.7389611503 -0.2450847717 0.7386492283 -0.2443995871 0.0553809869 0.0297071101
185298890.0 0.0556131889 0.0286891562 0.7367512561 -0.2541179399 0.7361179478 -0.2540954469 0.0557475157 0.0281253429
190298860.0 0.0554782671 0.0273303032 0.734008356 -0.2636889687 0.7346115103 -0.2633475602 0.0562285398 0.0260565696
195298830.0 0.0560110628 0.0252192352 0.731964374 -0.2717907692 0.7320079061 -0.2720612446 0.0572180313 0.0251681295
200298800.0 0.0560695481 0.0239288699 0.7283796467 -0.281610834 0.7292096785 -0.2814876325 0.0571201354 0.0237971672
205298770.0 0.0567382614 0.0227063258 0.725770436 -0.290222698 0.7258381304 -0.2901398004 0.0573696505 0.0213898545
210298740.0 0.0571785147 0.0207634503 0.7229863296 -0.2983429311 0.7227855748 -0.2981317881 0.0576850432 0.0212820588
215298710.0 0.0567152658 0.0193335998 0.7199481832 -0.3077847161 0.7194362595 -0.3080498673 0.0577918257 0.0198168179
220298680.0 0.0574466693 0.017617113 0.7165611455 -0.3161995848 0.7165888637 -0.3159649081 0.0574684219 0.0180546777
225298650.0 0.0575770027 0.0167281707 0.7134329479 -0.3252830758 0.7140574486 -0.3249692493 0.0573402242 0.0165485009
230298620.0 0.0578952913 0.0155347891 0.710154401 -0.3328766711 0.7107073376 -0.3333650541 0.0572794121 0.0151375697
235298590.0 0.0578160278 0.0144680616 0.7063159674 -0.3416833416 0.7065041443 -0.3411914898 0.0574495745 0.0140252565
240298560.0 0.0581307068 0.0131682939 0.7032175727 -0.3499357599 0.7027769351 -0.3503291134 0.0576694386 0.0132113916
245298530.0 0.0580405166 0.0118620774 0.6994011165 -0.3587375065 0.6993136122 -0.3590191059 0.0581416723 0.0110182833
250298500.0 0.0583491262 0.0108432536 0.6951137507 -0.3669077593 0.6945454799 -0.3661914236 0.0578215355 0.0102717558
255298470.0 0.0584060162 0.0091206275 0.691313147 -0.37450316 0.6913339256 -0.3744131008 0.0580552445 0.0087624687
260298440.0 0.0578832522 0.0079170999 0.6875520521 -0.3839996827 0.6876375789 -0.3828192182 0.0583307647 0.007951235
265298410.0 0.0588372278 0.0075845238 0.683026451 -0.3912998747 0.6832245813 -0.3906593611 0.0580709853 0.0069539906
270298380.0 0.0584799041 0.006082919 0.6794932387 -0.3985981594 0.6795495548 -0.3985197081 0.057716925 0.0058121415
275298350.0 0.0590421081 0.0050653917 0.6754848362 -0.4069075581 0.6753281146 -0.4070234184 0.0581769059 0.0042988913
280298320.0 0.0584535894 0.0043393923 0.67100363 -0.4149601024 0.6708216624 -0.4143978741 0.0583187413 0.0033272329
285298290.0 0.0586849537 0.0031917428 0.6663500335 -0.4220714254 0.6661930428 -0.4228683427 0.0582621112 0.0021283517
290298260.0 0.0589771788 0.0018812797 0.661465212 -0.4297612126 0.6616924856 -0.4304095465 0.0583227209 0.0014993161
295298230.0 0.0589091111 0.0005729935 0.6572311749 -0.4375980753 0.6570981566 -0.4381118433 0.0591174198 8.94171e-05
300298200.0 0.0584584349 -0.0004884655 0.6526709414 -0.4453279732 0.65263302 -0.4459476714 0.0583340313 -0.000941031
305298170.0 0.0587457652 -0.0017056188 0.6471174558 -0.4536452979 0.6474887522 -0.4535337248 0.0594933185 -0.0022525442
310298140.0 0.0583708739 -0.0026146927 0.6424857246 -0.4609140694 0.6431265398 -0.4611144857 0.0592899812 -0.0033894184
315298110.0 0.0583191382 -0.0041812396 0.6375842132 -0.4693749312 0.6375872676 -0.4683623781 0.0587997061 -0.004425858
320298080.0 0.0586163858 -0.0051940426 0.631897746 -0.4764094641 0.6322051251 -0.4767964019 0.0585844047 -0.0056712998
325298050.0 0.0577509157 -0.006304612 0.6270293248 -0.4841826372 0.6269329492 -0.4837958135 0.0578432035 -0.0066420156
330298020.0 0.0575570358 -0.0077699183 0.6212559921 -0.4910483541 0.6213801181 -0.4912824908 0.0575843863 -0.0079647807
335297990.0 0.0572801073 -0.0087896986 0.6156203915 -0.4979207846 0.6151831709 -0.4982407965 0.0566468774 -0.008065051
340297960.0 0.0560710049 -0.0093336794 0.6095166638 -0.5049065288 0.6093533691 -0.5053815998 0.0570535065 -0.0088730474
345297930.0 0.0556059796 -0.0094333754 0.6041248537 -0.512139499 0.6032185345 -0.5123562411 0.0564411288 -0.0099946815
350297900.0 0.0550999606 -0.0111108129 0.5970746983 -0.519305671 0.5977284264 -0.5185229412 0.055582277 -0.010142369
355297870.0 0.05485439 -0.0108290352 0.5920961356 -0.525293304 0.5924301719 -0.5256436394 0.0554107372 -0.0105929181
360297840.0 0.0547520171 -0.0117613598 0.5870270994 -0.531722984 0.5867579913 -0.5319864741 0.0550069275 -0.0112267227
365297810.0 0.0538806425 -0.0122655951 0.5799141377 -0.5389174775 0.5809174152 -0.5390024822 0.0546819028 -0.0118990664
370297780.0 0.0541227807 -0.0133672744 0.5742742527 -0.5451112322 0.5747281645 -0.5444736534 0.0541871567 -0.0122738661
375297750.0 0.0536362933 -0.0140357117 0.5683170931 -0.5515496844 0.5692131018 -0.5513017606 0.0543931114 -0.0130084876
380297720.0 0.053264185 -0.0145006578 0.5622313418 -0.558212607 0.5621469195 -0.5569381659 0.0532531276 -0.0137922722
385297690.0 0.0527026717 -0.0153401564 0.5557896166 -0.564354708 0.5558702852 -0.5637015145 0.0531949516 -0.01404826
390297660.0 0.0525141829 -0.0156125535 0.5502553591 -0.570387369 0.5496230176 -0.5698662387 0.0523613072 -0.0150546241
395297630.0 0.052133597 -0.0163442702 0.5440397521 -0.5763173556 0.5435201643 -0.5764831432 0.0531580273 -0.0156985915
400297600.0 0.051425831 -0.0168904488 0.5369034773 -0.582640749 0.5368791581 -0.5827284287 0.0523409092 -0.016138059
405297570.0 0.0511010059 -0.0175456027 0.5310359756 -0.5885074027 0.5303626746 -0.5879386097 0.0515096013 -0.0166380293
410297540.0 0.0512654255 -0.0181467246 0.5247566973 -0.5946130504 0.5249027203 -0.5943340297 0.0511110416 -0.0170245646
415297510.0 0.0512255996 -0.0190251939 0.5177803151 -0.6001384654 0.517842768 -0.6003664097 0.0507389743 -0.0178892567
420297480.0 0.0507940488 -0.0191975245 0.5109745829 -0.6055021379 0.5109085804 -0.6066006846 0.0501553429 -0.0187947326
425297450.0 0.0500850786 -0.0205209414 0.5046113279 -0.6115113803 0.5042370251 -0.6116214949 0.0491747938 -0.0187114894
430297420.0 0.0496974259 -0.0209253964 0.4971340978 -0.6161309566 0.4972183558 -0.6163861199 0.0493236369 -0.0200905016
435297390.0 0.0494631722 -0.0215388277 0.4906310293 -0.622756186 0.4905808877 -0.622752609 0.0500218249 -0.0206283764
440297360.0 0.0493233915 -0.0218640713 0.483619376 -0.6273971009 0.4839701477 -0.6280908278 0.0484863695 -0.0215039964
445297330.0 0.0486380787 -0.0230254354 0.4774231076 -0.6331622716 0.4772271044 -0.6331050967 0.0487139438 -0.0224297098
450297300.0 0.0486916155 -0.0233655067 0.4700369198 -0.6385114518 0.4697972616 -0.6389611953 0.048188381 -0.0231005283
455297270.0 0.048085487 -0.0238724165 0.4629496403 -0.643488503 0.4633775874 -0.6440204688 0.0479416092 -0.0235359431
460297240.0 0.0474947254 -0.0245672324 0.4555544043 -0.6488929544 0.4559098652 -0.6489439618 0.0476434378 -0.0240925133
465297210.0 0.0475416742 -0.0249381242 0.4486568837 -0.6543760688 0.4483273927 -0.6547294211 0.0472657848 -0.02516831
470297180.0 0.0468331642 -0.0258323894 0.4412619344 -0.6589317463 0.4410134291 -0.6592074733 0.0471728401 -0.0253215184
475297150.0 0.0465895075 -0.0266001786 0.4339848677 -0.6630285171 0.4342179646 -0.6630889599 0.0470415502 -0.0262064739
480297120.0 0.0458200873 -0.0267265546 0.4265094333 -0.6691427374 0.4265083099 -0.6691006422 0.0466385837 -0.0263149409
485297090.0 0.0452351462 -0.0272156911 0.4198442803 -0.6730189188 0.4193746601 -0.6729114807 0.0462689859 -0.0269634304
490297060.0 0.0444082297 -0.0281054258 0.4126232602 -0.6784550639 0.4125820424 -0.6775265101 0.0457737755 -0.0269836405
495297030.0 0.0443959636 -0.0282657706 0.4041252538 -0.682651165 0.4052782099 -0.6824245145 0.0454718967 -0.0281763373
500297000.0 0.0438818514 -0.0291120004 0.3968599426 -0.6864847749 0.3962042997 -0.6860707831 0.044650763 -0.0275364622
505296970.0 0.0437966341 -0.0296914625 0.389639547 -0.6913469124 0.3888553245 -0.6914559401 0.0444346962 -0.0285355139
510296940.0 0.0429926493 -0.0299038649 0.382128991 -0.6955444246 0.3818816818 -0.6952374656 0.044396255 -0.0284360111
515296910.0 0.042407953 -0.0300083582 0.3741480446 -0.6994771419 0.3742184369 -0.6993191332 0.0437972762 -0.0288844444
520296880.0 0.0418730964 -0.0308495091 0.3665790274 -0.7046346063 0.3665212788 -0.7033874542 0.0431563408 -0.0295260681
525296850.0 0.0418730546 -0.0318524585 0.3586201179 -0.7078311686 0.3592621621 -0.7078272472 0.0426529127 -0.0296950466
530296820.0 0.0410222473 -0.0316257896 0.3508131802 -0.7120888942 0.3509218119 -0.7117935399 0.0423363361 -0.0301534441
535296790.0 0.040345713 -0.0320772783 0.3433830082 -0.7150387433 0.3438623784 -0.7147452376 0.0416384376 -0.0311386717
540296760.0 0.0400684307 -0.0319523286 0.3352530496 -0.7196292085 0.3348956359 -0.7191818376 0.0407169934 -0.0303495368
545296730.0 0.0393787058 -0.0328631517 0.3273647928 -0.7224110543 0.3268108888 -0.7228808674 0.0400436226 -0.0313435343
550296700.0 0.039808734 -0.0328857527 0.3193838163 -0.725912191 0.3196763318 -0.7269214978 0.0394146939 -0.0313099696
555296670.0 0.0383793355 -0.0332605179 0.3113506055 -0.7299986841 0.3115910653 -0.7297786188 0.0391819764 -0.0315101992
560296640.0 0.0383978801 -0.0332658353 0.3036001536 -0.7334592179 0.3033257992 -0.7332478787 0.0388764607 -0.0321285863
565296610.0 0.0371100047 -0.0342843923 0.2954631406 -0.7366000603 0.2953732454 -0.7368396969 0.0378142164 -0.0328251858
570296580.0 0.0366117559 -0.034229434 0.2875071581 -0.7403474433 0.2868145329 -0.7395498277 0.0374646473 -0.0322735287
575296550.0 0.0360053411 -0.0342816785 0.279069593 -0.743081009 0.2789632315 -0.7430462101 0.0373238359 -0.0335429368
580296520.0 0.0359811905 -0.034918774 0.2710016836 -0.7462899664 0.2712945657 -0.7457524698 0.0363877763 -0.0338667914
585296490.0 0.0353659277 -0.0358357756 0.2633747721 -0.7482928092 0.2631680561 -0.7489943142 0.0358622498 -0.0342620121
590296460.0 0.0352239692 -0.0355472397 0.2547369387 -0.7505035208 0.2546264893 -0.751445763 0.0345507457 -0.0343826351
595296430.0 0.0348426179 -0.0359703587 0.2459214679 -0.7546662659 0.2463172846 -0.7543817665 0.0348307013 -0.0351542849
600296400.0 0.0336495644 -0.036465856 0.2382420064 -0.7569410069 0.2387463466 -0.7560819274 0.0339793534 -0.0355316668
605296370.0 0.033473835 -0.036722548 0.2299083512 -0.7588479812 0.2299954936 -0.7592246587 0.0335216062 -0.0357493654
610296340.0 0.0329645942 -0.0370163923 0.2210757249 -0.7614358701 0.2217706489 -0.7619270935 0.0334886641 -0.0360833344
615296310.0 0.0327182694 -0.0381773481 0.2133153048 -0.7638189982 0.2129139694 -0.7648337503 0.0325906858 -0.0363213252
620296280.0 0.0322478361 -0.0382282029 0.2050219354 -0.7670979282 0.2046770426 -0.7658910728 0.0317465446 -0.0364747756
625296250.0 0.0308738801 -0.0387968368 0.1976555322 -0.7693170447 0.1964841086 -0.7695866822 0.0321862652 -0.0371911612
630296220.0 0.0313398704 -0.0384628971 0.1874821511 -0.7707261456 0.187707134 -0.7706991672 0.0312855068 -0.0372717367
635296190.0 0.0293164282 -0.0394687209 0.1797771754 -0.7727969311 0.1794058889 -0.7727138998 0.030804943 -0.0377069366
640296160.0 0.0290551458 -0.0389927342 0.1713813468 -0.7744581024 0.1717882134 -0.7747860623 0.0300742282 -0.0380004716
645296130.0 0.0288906037 -0.0395179904 0.1624990557 -0.776394926 0.1628452818 -0.7764582358 0.0299262017 -0.0382227394
650296100.0 0.0284226207 -0.0399558379 0.1541826103 -0.778074525 0.1542531792 -0.7785951707 0.0297804573 -0.039286513
655296070.0 0.0274814716 -0.0402657847 0.146080997 -0.7802969091 0.1458782969 -0.7800369238 0.0288425871 -0.0389494068
660296040.0 0.0262196589 -0.0407954809 0.1369889995 -0.782090688 0.1375392358 -0.7817281011 0.0287394081 -0.0391225439
665296010.0 0.0267935242 -0.0405936199 0.1284507559 -0.7830327435 0.1290946521 -0.7826451942 0.0280301271 -0.0385041213
670295980.0 0.0246300969 -0.0408086431 0.1201396025 -0.7842978282 0.1201764131 -0.7840782344 0.0270681634 -0.0393072598
675295950.0 0.0249874876 -0.0406536215 0.111993848 -0.7853368073 0.111502551 -0.7845699788 0.0261564717 -0.0394707795
680295920.0 0.023744654 -0.0413425183 0.1025742149 -0.7863347574 0.1022310488 -0.7864335495 0.0261952622 -0.038753586
685295890.0 0.0235608049 -0.0405816324 0.0944388839 -0.7876516647 0.0936764956 -0.7873869965 0.0254540465 -0.0392847404
690295860.0 0.0232950524 -0.0408449656 0.0858935014 -0.7880770818 0.0856790221 -0.7890802586 0.0245814061 -0.0385489161
695295830.0 0.022561959 -0.0414137644 0.0776511402 -0.7894594612 0.076474391 -0.7892955603 0.0242961123 -0.0388796514
700295800.0 0.0219391918 -0.0419386786 0.0687780832 -0.7897916191 0.0679474294 -0.7894778695 0.0235003756 -0.0385539277
705295770.0 0.0209374379 -0.0408565398 0.059819379 -0.7908252976 0.0602576058 -0.7908333965 0.0229878876 -0.0388742364
710295740.0 0.0209449206 -0.0413759569 0.0514790729 -0.7924120087 0.0518875999 -0.7917615228 0.0224717395 -0.0399339382
715295710.0 0.0194037129 -0.041726204 0.0431535888 -0.7922036754 0.0424766277 -0.7919728075 0.0223734401 -0.0393921837
720295680.0 0.0192198979 -0.0416274127 0.0335830166 -0.7923161424 0.0341760146 -0.7922798676 0.021589782 -0.0385434313
725295650.0 0.0190632577 -0.0418071205 0.0258297449 -0.7924548692 0.0257053955 -0.7927970328 0.020304958 -0.0389730911
730295620.0 0.0186474518 -0.0414221383 0.0173157194 -0.7926150834 0.0171105066 -0.7930095049 0.0194971696 -0.0396094744
735295590.0 0.0176551124 -0.0417091297 0.0084070702 -0.793220928 0.0084080611 -0.7931418286 0.0187750973 -0.0398832541
740295560.0 0.0168887325 -0.0416562921 -0.0002129799 -0.792761247 -0.0006361193 -0.7930545578 0.019120278 -0.0395193204
745295530.0 0.0165748346 -0.0415673528 -0.008887986 -0.7924454974 -0.0093572284 -0.7925465124 0.0183123676 -0.0402708534
750295500.0 0.0161761589 -0.0417760833 -0.017223955 -0.7921268662 -0.0175490908 -0.7927820431 0.0169963798 -0.0399133197
755295470.0 0.0155118732 -0.0422719997 -0.0257526078 -0.7928521422 -0.0258589764 -0.7928897764 0.017076605 -0.0402965518
760295440.0 0.014487657 -0.0421333418 -0.0347161806 -0.7932319717 -0.0352909166 -0.7927950233 0.0163003145 -0.0404358671
765295410.0 0.0141745641 -0.0421889415 -0.043993729 -0.7918153064 -0.0436956883 -0.7920350042 0.0158940487 -0.0403846738
770295380.0 0.0130623234 -0.0424715627 -0.0526557323 -0.7913714298 -0.0522074349 -0.7910381103 0.0149072188 -0.0407371523
775295350.0 0.0127102121 -0.0430121996 -0.0612264527 -0.7900443286 -0.0603613866 -0.7903237042 0.0134846464 -0.0400253813
780295320.0 0.0123873986 -0.0423339976 -0.0693456026 -0.7896835003 -0.068782804 -0.7898212429 0.0132362904 -0.0410687153
785295290.0 0.0111450561 -0.0431775585 -0.078166981 -0.7884892138 -0.0778248486 -0.7889829399 0.0137090771 -0.040629492
790295260.0 0.011272059 -0.0420091187 -0.0860828508 -0.787727754 -0.0853802861 -0.7873888969 0.0125058904 -0.040678798
795295230.0 0.0103887854 -0.0427247351 -0.0948208237 -0.78679738 -0.094388099 -0.7873816506 0.012312442 -0.0403672484
800295200.0 0.0092493316 -0.0420393425 -0.1039942382 -0.7854857972 -0.1035763675 -0.7857672533 0.0115260968 -0.0408821022
805295170.0 0.0087651716 -0.0425297692 -0.1119652976 -0.7844588459 -0.1124407517 -0.7850930871 0.0108370345 -0.0404606601
810295140.0 0.007722032 -0.0428387929 -0.1205154515 -0.7829009341 -0.1207833848 -0.783233357 0.0106088089 -0.0403619408
815295110.0 0.0077102103 -0.0429637432 -0.1290535543 -0.7813520457 -0.1290486325 -0.781404434 0.0099245041 -0.0404130378
820295080.0 0.0062060116 -0.0420263394 -0.1372633391 -0.7804312283 -0.1373593087 -0.7802790092 0.0091959568 -0.0405402731
825295050.0 0.0065941088 -0.0422446324 -0.1455428075 -0.7788528981 -0.1458939464 -0.7788152295 0.0089909335 -0.0402706075
830295020.0 0.0058002145 -0.0420305724 -0.154490019 -0.7771978109 -0.15433965 -0.7767719168 0.0090582862 -0.0400775736
