!Created with skrf (http://scikit-rf.org).
# Hz S RI R 50.0 
!freq ReS11 ImS11 ReS21 ImS21 ReS12 ImS12 ReS22 ImS22
300000.0 -0.0057905192 0.0167847318 1.004802192 -0.023794207 1.003333185 -0.0223102665 -0.0037883702 0.0275976752
5299970.0 0.0007569859 0.00142645 0.9984329711 -0.0033180029 0.9994531096 -0.0034336385 0.0013193744 0.0021043775
10299940.0 0.0005634843 0.0013746348 0.9999191105 -0.0066525547 1.000056899 -0.0062499916 0.0013415678 0.0020662584
15299910.0 0.0011674739 0.0007744949 0.999900707 -0.0092482214 1.000190426 -0.009219633 0.0007480254 0.0010313376
20299880.0 0.0004574401 -0.0001299803 0.9993567148 -0.0104205653 0.999963747 -0.0118360886 0.0006398962 0.0012743268
25299850.0 0.0001914183 0.0005930808 0.9996011318 -0.0146470621 0.9991596663 -0.0138514039 0.0012877792 0.0012541787
30299820.0 0.0011690276 0.0003353268 0.9994813622 -0.017358507 0.9994609938 -0.0166196722 0.0012187655 0.0013705438
35299790.0 0.0008301659 -4.1151e-05 0.9993774776 -0.0206227456 0.9996340751 -0.0199084054 0.0010607969 0.0014293265
40299760.0 -1.14304e-05 0.0002828475 0.998262842 -0.0224217469 0.9993476692 -0.0222020108 0.0008884993 0.0007777136
45299730.0 0.0001761525 0.000593885 0.9983988233 -0.024856159 0.9997267254 -0.0243837548 0.000309359 0.0009574807
50299700.0 -3.03065e-05 0.0003819747 0.9994994932 -0.0280380353 0.9991321969 -0.0270146392 0.0007519364 0.0015068502
55299670.0 0.0002266912 0.0008237463 0.999080375 -0.0311748246 0.9986260302 -0.0306053275 0.0007052449 0.0015643986
60299640.0 0.000735679 0.0010863613 0.9985384793 -0.0340734483 0.9992090965 -0.032909326 2.70494e-05 0.0009769888
65299610.0 -0.0003514663 0.001008448 0.9984945589 -0.03564709 0.9990050882 -0.0355442217 0.0003246384 0.0016851418
70299580.0 0.0003166788 0.001075727 0.9982362117 -0.0388079402 0.9980470398 -0.0380624714 0.0002693658 0.0009953636
75299550.0 0.0002070323 0.0011957438 0.9971338447 -0.0414541861 0.9976674946 -0.0416859839 -1.34881e-05 0.0013452
80299520.0 5.95352e-05 0.0006055874 0.9977581184 -0.044605724 0.9983028344 -0.0441686521 5.7704e-06 0.0010624924
85299490.0 0.0002569198 0.0010394651 0.9976465305 -0.0463742791 0.9977294272 -0.0460321259 0.0003288767 0.0002614969
90299460.0 0.0003175918 0.0008127357 0.996324135 -0.049694161 0.9984807217 -0.0495206408 4.36347e-05 0.0012843379
95299430.0 0.0007489593 0.0010848568 0.9980972852 -0.0522865869 0.9979296661 -0.0523741783 0.0009906774 0.0010490198
100299400.0 0.0001425596 0.0015324991 0.9960900784 -0.0547847034 0.997280193 -0.0545949011 0.0013131227 0.0002301573
105299370.0 0.000801146 0.0011996039 0.9966444394 -0.0581456728 0.9976210323 -0.057819034 0.0014067452 0.0014201573
110299340.0 0.0005193393 0.0014452272 0.9966563554 -0.0600632781 0.9963979068 -0.0605155668 0.0004169513 0.000342385
115299310.0 0.0003294515 0.0016200658 0.9965219203 -0.0631499274 0.9968445994 -0.0632790025 0.0011288054 0.0007850545
120299280.0 0.0010706194 0.0013607723 0.9962810096 -0.0662970127 0.9968741729 -0.0662032737 0.0018631287 0.0009465161
125299250.0 0.0012563034 0.0014617036 0.9959905055 -0.0681470933 0.9964402277 -0.068174796 0.0012295523 0.0004177745
130299220.0 0.0010461297 0.00172017 0.9960197421 -0.0716942823 0.9963171284 -0.0711613385 0.0012448016 0.0005419241
135299190.0 0.0011980787 0.0016925489 0.9964095118 -0.0742303788 0.996082093 -0.0741072532 0.0016695939 0.0005740222
140299160.0 0.0008892201 0.0023150068 0.9952065999 -0.0768085572 0.9958829777 -0.0770636475 0.001511691 0.0011380344
145299130.0 0.0014875517 0.0015925953 0.9959165308 -0.0793685739 0.9956189738 -0.079329026 0.0021264395 0.0011694649
150299100.0 0.0015841971 0.0023773103 0.9948898153 -0.0811728198 0.9951569797 -0.0814591173 0.0024854306 0.0012477693
155299070.0 0.0014515446 0.0015665957 0.9950484633 -0.085299799 0.9951175782 -0.0847445055 0.0022064432 0.0013219526
160299040.0 0.0022252858 0.0021247568 0.9952579724 -0.0879341985 0.9947123975 -0.0881217321 0.0017205488 0.0007436212
165299010.0 0.0014163582 0.0021704554 0.9945680503 -0.0912437873 0.995063833 -0.0910579246 0.0022604965 0.0018108998
170298980.0 0.0021547961 0.0015489302 0.9939168165 -0.0939066449 0.9949249328 -0.0935082701 0.0020268887 0.0016390547
175298950.0 0.001424557 0.0013683615 0.9945665104 -0.0953247579 0.9939845767 -0.095991765 0.0018437032 0.0017903368
180298920.0 0.0014593361 0.0011417043 0.9933785126 -0.0993752295 0.9935836233 -0.098452737 0.0020457493 0.0018810522
185298890.0 0.0023321037 0.0017134809 0.9933539344 -0.101314611 0.9933080847 -0.1013917255 0.0019164259 0.0021296283
190298860.0 0.0014772895 0.0014607113 0.993165932 -0.1040124088 0.9935081063 -0.1042648752 0.0020596285 0.0012664014
195298830.0 0.0020236458 0.0010450303 0.9928851051 -0.1072180467 0.9931567741 -0.1068623206 0.0024017589 0.0020825774
200298800.0 0.0016178521 0.0012807144 0.9924298099 -0.1101665824 0.992549352 -0.1105331524 0.0013730831 0.0018901375
205298770.0 0.00159167 0.0015536276 0.9921614959 -0.1135126634 0.9922489347 -0.1121943411 0.0021065481 0.0011559359
210298740.0 0.0018445501 0.0013872757 0.9912826004 -0.1150341047 0.9920921671 -0.1141690134 0.001641062 0.0028891904
215298710.0 0.0008848801 0.0011085358 0.9915417824 -0.1179338173 0.9912754074 -0.1186428161 0.0013577005 0.002851963
220298680.0 0.0020735485 0.0009549774 0.9901531693 -0.1205245951 0.991002637 -0.1207633423 0.0010871787 0.0020142578
225298650.0 0.0019971762 0.001496807 0.9909405598 -0.123520357 0.9910979434 -0.1234594413 0.0010086453 0.0014003495
230298620.0 0.0016024709 0.0019312778 0.9902298027 -0.1252262006 0.9913716122 -0.1254721399 0.0007707935 0.0009619252
235298590.0 0.0010953677 0.0017792629 0.9902800961 -0.1291969135 0.9898575115 -0.1279073981 0.0009263163 0.0011946059
240298560.0 0.0010059855 0.002008354 0.9899888612 -0.1312943094 0.9900705784 -0.1312008188 0.0003534616 0.0020085992
245298530.0 0.0008043595 0.0017624022 0.9904055585 -0.133843655 0.9903310419 -0.1341176316 0.0015022595 0.0013842912
250298500.0 0.0012864144 0.002176737 0.9881492548 -0.1371764718 0.9882423359 -0.1367769577 0.000510573 0.0017836827
255298470.0 0.001561521 0.0018565338 0.9877021243 -0.1391210221 0.9887058406 -0.1390103068 0.0006654747 0.0019705045
260298440.0 0.0012638397 0.0012291722 0.9876832327 -0.1432278493 0.9889782953 -0.1417581749 0.001395158 0.0017332475
265298410.0 0.001742139 0.0027403286 0.9880204091 -0.1453184516 0.9881249202 -0.144901764 0.001127952 0.001401974
270298380.0 0.0016765836 0.0021413213 0.987775206 -0.1470776166 0.9877169499 -0.147085166 0.0005817492 0.0011778049
275298350.0 0.0022136623 0.0027118679 0.9870729286 -0.1506608288 0.9875113194 -0.1501605517 0.0017527517 0.0009440175
280298320.0 0.0015242079 0.0024868324 0.9867613374 -0.1531709283 0.986842394 -0.152346733 0.0017475581 0.0012148958
285298290.0 0.0020264094 0.0019700699 0.9862771296 -0.1559330379 0.9862481544 -0.15570865 0.0016917581 0.0009584475
290298260.0 0.0019940126 0.0026178667 0.985335121 -0.1584695754 0.9862399959 -0.1585533686 0.0012756135 0.0016964213
295298230.0 0.0017923994 0.0023393255 0.9853207394 -0.1604634145 0.9854617639 -0.1613313341 0.0021571823 0.0016192917
300298200.0 0.0014420821 0.0015657687 0.985114502 -0.1636475982 0.9854550307 -0.1635789661 0.0017400767 0.0012408146
305298170.0 0.0021258506 0.0019503364 0.9842423374 -0.1676648469 0.9841888324 -0.1661944338 0.0023378016 0.0012649733
310298140.0 0.0019134304 0.002077154 0.984281985 -0.1694057509 0.9845482807 -0.1690460839 0.002149769 0.0021605205
315298110.0 0.0026485052 0.0014138438 0.9835007885 -0.1716767814 0.984139903 -0.1718370053 0.0025169262 0.0016864153
320298080.0 0.001890139 0.0026603066 0.9824476679 -0.175862538 0.9833581708 -0.1744219499 0.0024724904 0.0021363448
325298050.0 0.0020027998 0.0020675723 0.9816889643 -0.1773030183 0.9824798851 -0.176956735 0.0019652007 0.0018120083
330298020.0 0.0023285852 0.0020350918 0.9813958588 -0.1800955195 0.9824868824 -0.1800095608 0.0024738497 0.0015981529
335297990.0 0.0029376633 0.0021837992 0.9817109074 -0.1815303418 0.9817088777 -0.182852999 0.0016354633 0.0016351522
340297960.0 0.0021379501 0.0018160726 0.9808090741 -0.1851186849 0.9810901611 -0.1856611945 0.0027077685 0.0022614254
345297930.0 0.00150882 0.0025953247 0.9806937014 -0.1881854254 0.980572887 -0.188613368 0.0031038625 0.0021874596
350297900.0 0.0028648496 0.0012339141 0.9787539633 -0.1921585266 0.9795768568 -0.1911984532 0.0024125155 0.0018837218
355297870.0 0.0014343903 0.00185922 0.9790752173 -0.19350399 0.9794263138 -0.1930055583 0.0022880727 0.0022263463
360297840.0 0.0019708259 0.0017866624 0.9790693263 -0.1955085556 0.9797235014 -0.1954825495 0.0021516828 0.0026396601
365297810.0 0.0016988362 0.002024308 0.9782143629 -0.1990659182 0.9789060286 -0.1991223439 0.0023814778 0.0023338889
370297780.0 0.002680031 0.0022372457 0.9775760549 -0.2016067771 0.978192746 -0.2007272953 0.0020871209 0.0022499745
375297750.0 0.00215067 0.0018704886 0.9768282254 -0.2043327685 0.9786189937 -0.2035150599 0.0016195738 0.0029804804
380297720.0 0.0017592513 0.0022079274 0.9767598029 -0.2075437562 0.9768898375 -0.2056284608 0.002154864 0.0025142432
385297690.0 0.0020711552 0.0019094454 0.9758401949 -0.2096492756 0.9756125267 -0.2094777554 0.0017595323 0.0027558865
390297660.0 0.0017215994 0.0025416324 0.9755726286 -0.2121665038 0.9757140018 -0.2120701522 0.0022307975 0.0025490615
395297630.0 0.0015677705 0.0018162027 0.9746320705 -0.2146728998 0.9753683016 -0.2149334318 0.0021756645 0.0033717476
400297600.0 0.0019802762 0.0017796091 0.9737148937 -0.2185620687 0.9748093803 -0.2176661197 0.0017861631 0.0027782407
405297570.0 0.0016200549 0.0018552525 0.9733444649 -0.2198440898 0.9736823639 -0.2195720271 0.0014315434 0.0025167826
410297540.0 0.0015682271 0.002485403 0.9734963025 -0.2231726074 0.973471438 -0.2223765129 0.0011002284 0.0024126417
415297510.0 0.001404143 0.0025268457 0.9719626851 -0.2257673494 0.9732868541 -0.2252881933 0.0011089384 0.002753666
420297480.0 0.0017945354 0.003172647 0.9719986849 -0.2283258662 0.9723288275 -0.22866866 0.0018515339 0.0020310418
425297450.0 0.0028219524 0.0021913316 0.971605652 -0.2310573523 0.9720885073 -0.2305727402 0.0003207954 0.0015434778
430297420.0 0.0024154175 0.002275302 0.9700300626 -0.2331433068 0.970291366 -0.2329227353 0.0008655305 0.0020335709
435297390.0 0.0021450836 0.0024346341 0.9694870201 -0.235846604 0.9701730534 -0.235798162 0.0012246547 0.0032588834
440297360.0 0.0013658071 0.0031712749 0.9692027314 -0.2387728278 0.9695434116 -0.2385070426 0.0018329717 0.0015632557
445297330.0 0.0022948627 0.002256029 0.9688180247 -0.2413068975 0.9685957883 -0.2408416615 0.0015364451 0.0021148787
450297300.0 0.0020998586 0.0030472814 0.9681905233 -0.2434894604 0.9681377799 -0.2445592967 0.0021917877 0.0020380342
455297270.0 0.0021463729 0.003382796 0.9670285439 -0.2470735816 0.9682451395 -0.2469066904 0.0016237374 0.0020062286
460297240.0 0.0022261116 0.003088339 0.9664721974 -0.2494383274 0.966581556 -0.2491143529 0.0018885857 0.0022166307
465297210.0 0.002603243 0.0032980598 0.9655849845 -0.252004477 0.9667697061 -0.2525763997 0.002320907 0.002006392
470297180.0 0.0029140452 0.0029531871 0.964951978 -0.2555081821 0.9650904163 -0.254645733 0.0024426793 0.0022781888
475297150.0 0.0030391671 0.0033410258 0.963845203 -0.2568187675 0.9641850362 -0.2565520683 0.0027070484 0.0024644558
480297120.0 0.0022739869 0.0027607721 0.9639828326 -0.2603973018 0.9643289657 -0.2603028602 0.0027037365 0.0028102059
485297090.0 0.0024292934 0.002735976 0.9631426487 -0.2617881167 0.9632203191 -0.2620592002 0.0034392179 0.0024312311
490297060.0 0.0031331986 0.0027444543 0.9630380413 -0.2652432231 0.9628866085 -0.2644837118 0.0020163759 0.00259438
495297030.0 0.0024858497 0.0030294748 0.9614185225 -0.2683785948 0.9622360427 -0.267190897 0.0030952159 0.0024599644
500297000.0 0.0032632384 0.0025020213 0.9599833711 -0.2704494759 0.9600473417 -0.2701688375 0.0024200366 0.0024032872
505296970.0 0.0032681619 0.0028075186 0.9598214973 -0.2730850555 0.9596337674 -0.2736952015 0.0023316732 0.0025112563
510296940.0 0.0022937587 0.0027428761 0.9593506992 -0.276115445 0.9597254152 -0.2759617133 0.0020012258 0.0031800183
515296910.0 0.0023406525 0.0022906265 0.9586699098 -0.2785774812 0.958420935 -0.2783602167 0.0022910634 0.00331082
520296880.0 0.002728234 0.0025948127 0.9581856399 -0.2815539521 0.9579542263 -0.2806493953 0.0026811189 0.003184893
525296850.0 0.0032702369 0.0025609575 0.9566043096 -0.2840318198 0.9571390671 -0.2833653929 0.0030540009 0.0026748505
530296820.0 0.0027863359 0.0031026201 0.9561249676 -0.2867527411 0.9572561831 -0.2864296605 0.0032586316 0.0033587788
535296790.0 0.0028777573 0.0023884914 0.9555641339 -0.2890500056 0.9554064639 -0.2876933463 0.002894021 0.0036862415
540296760.0 0.0022507038 0.0024674021 0.9546931118 -0.2918433811 0.9548822188 -0.2914285294 0.0017914151 0.0030728407
545296730.0 0.0027062114 0.0028780998 0.9536523116 -0.2943681207 0.953712018 -0.2946349118 0.0023484868 0.0030674092
550296700.0 0.0022998784 0.003099389 0.9524070874 -0.2967728984 0.9533624769 -0.2969835737 0.0021430366 0.0028305668
555296670.0 0.0018305064 0.0026872408 0.9526502483 -0.2993110484 0.9529818511 -0.29878253 0.0022347256 0.0035732331
560296640.0 0.0021122882 0.0027752433 0.9514743995 -0.3020006853 0.9518335119 -0.301461046 0.0027154346 0.0032523224
565296610.0 0.00255495 0.0025075444 0.9502102766 -0.304598948 0.9511438243 -0.3043244733 0.0028351048 0.0029086882
570296580.0 0.0018717933 0.0028909155 0.9503875328 -0.3075303127 0.9496110037 -0.3077064414 0.0014360339 0.002958369
575296550.0 0.0019870169 0.002514838 0.9490209062 -0.3094634926 0.94930606 -0.3102348575 0.0020994288 0.0038552879
580296520.0 0.0017877035 0.0025861884 0.9479982948 -0.3127359068 0.9482596889 -0.3125204905 0.0023642751 0.0032089358
585296490.0 0.0025998586 0.0029079353 0.9471093164 -0.3148737927 0.9477437924 -0.3150921597 0.0019007227 0.0028660937
590296460.0 0.0024501391 0.0032942562 0.945951141 -0.3170831378 0.9467238389 -0.3174154044 0.0024010361 0.0023198077
595296430.0 0.0015776216 0.0035434647 0.9449011094 -0.3207173413 0.9452301566 -0.32077961 0.0023100175 0.0031026944
600296400.0 0.0022104048 0.003298053 0.9445627627 -0.3233259185 0.94377097 -0.3225342243 0.0019487424 0.0024331814
605296370.0 0.0021467652 0.0032402552 0.9430857661 -0.3251155231 0.9438233421 -0.3248966789 0.0024009108 0.0024210488
610296340.0 0.0019011224 0.0034478534 0.9424302452 -0.3281860702 0.9432143175 -0.3279914712 0.0027114649 0.0032070617
615296310.0 0.0027711272 0.0037231013 0.9413303609 -0.331112818 0.9422762939 -0.3310020622 0.0020535025 0.0028446052
620296280.0 0.0024436302 0.0037888002 0.9405011528 -0.3328794223 0.9407790557 -0.3331690752 0.0026323206 0.0022584757
625296250.0 0.0034021102 0.0034884712 0.9405193288 -0.3349349756 0.9408828552 -0.3356211511 0.0024074837 0.0030675438
630296220.0 0.0021519229 0.0040254772 0.9388077373 -0.3390053912 0.9385805468 -0.3384673049 0.0024784636 0.0027619471
635296190.0 0.0036794066 0.0032628937 0.9378657355 -0.3405182643 0.9381499042 -0.3412850865 0.0026191457 0.0029901244
640296160.0 0.0030800362 0.0027627785 0.9368695695 -0.3432764874 0.9372479943 -0.3429471673 0.0029121579 0.0025089259
645296130.0 0.0030620451 0.0035903357 0.9352423609 -0.3458256906 0.9365512913 -0.3455850692 0.0029844353 0.0030385832
650296100.0 0.0031530857 0.0041484155 0.9353100876 -0.349296807 0.93524921 -0.3487748236 0.0034274205 0.0037124638
655296070.0 0.0036685734 0.0032523903 0.9340517084 -0.3516768059 0.9340729539 -0.3509207606 0.0034260615 0.0032030245
660296040.0 0.0042554481 0.0032941789 0.9332085491 -0.3537098162 0.9336713833 -0.3537371283 0.0034400097 0.0030763422
665296010.0 0.0031871078 0.0031243991 0.931904282 -0.3572589564 0.9327049543 -0.3556050901 0.0028080458 0.0031381539
670295980.0 0.0038517546 0.0023945238 0.9307927683 -0.3590553168 0.931196593 -0.3587952803 0.0036402743 0.0032189476
675295950.0 0.0031868218 0.0030070653 0.9304498879 -0.3616200804 0.9295315392 -0.3606970024 0.003549864 0.0034362739
680295920.0 0.0046318231 0.0029111178 0.928399133 -0.3641406687 0.9294047216 -0.3652515002 0.0031507156 0.0027613447
685295890.0 0.0032553565 0.0027205857 0.9278757376 -0.3669354739 0.9288320978 -0.366853858 0.0034474841 0.0029681244
690295860.0 0.0035367936 0.0032617128 0.9268506479 -0.3687592784 0.9277189264 -0.3699742241 0.0031012306 0.0029717496
695295830.0 0.0034785091 0.0037551099 0.9262891175 -0.3709347229 0.9259362835 -0.3721382029 0.0033947959 0.0027932293
700295800.0 0.0038078863 0.0036790067 0.9249568366 -0.3742558762 0.9244075956 -0.3743717914 0.0023851125 0.0026259417
705295770.0 0.0026374786 0.0028480387 0.9235807873 -0.3769610862 0.9248900704 -0.3767066511 0.0036758099 0.0038515967
710295740.0 0.0029509045 0.0036182884 0.9238846215 -0.3793645134 0.9244806534 -0.3795870151 0.0034425513 0.0045866671
715295710.0 0.0034733045 0.0030136602 0.9220995481 -0.3820473561 0.9222295049 -0.3823156901 0.0031876281 0.0041860987
720295680.0 0.0032298154 0.0032357535 0.9214894792 -0.3846874978 0.9216888606 -0.3835070942 0.0024860514 0.003004669
725295650.0 0.0031870594 0.0035505927 0.9196846721 -0.3874040265 0.9204961548 -0.38694667 0.0031408124 0.003502067
730295620.0 0.0024016711 0.0036675487 0.9181873717 -0.3893332721 0.9191068655 -0.3897598152 0.0034272966 0.0035306703
735295590.0 0.0029462008 0.0033921271 0.9183617085 -0.3918377169 0.9179989176 -0.3920686017 0.0028891365 0.0038175769
740295560.0 0.0029866824 0.0029992312 0.916302429 -0.3946843864 0.9169957716 -0.3948924574 0.0027946005 0.0036855808
745295530.0 0.0024396835 0.0036021133 0.9152760381 -0.3967342055 0.915971583 -0.3973553512 0.00332556 0.0041346502
750295500.0 0.0028236367 0.0035791941 0.9142882458 -0.3996165653 0.9149782739 -0.3999694344 0.0034087657 0.0039886257
755295470.0 0.0028529081 0.004022573 0.9134681347 -0.4017142607 0.9139727431 -0.4021667342 0.0026330855 0.0042873602
760295440.0 0.0028646263 0.0035236608 0.9123793998 -0.4045734927 0.9131640975 -0.4049881329 0.0025705275 0.0037440993
765295410.0 0.0030464298 0.003902385 0.9117133218 -0.4069211749 0.9116982174 -0.4081569949 0.0028331954 0.0040160783
770295380.0 0.0034250464 0.0036536952 0.910425935 -0.4107506873 0.9101114435 -0.4099043605 0.0031052893 0.0040888665
775295350.0 0.0033498734 0.004374388 0.9086347134 -0.4123113766 0.9093712351 -0.4118323581 0.0031403973 0.0026104888
780295320.0 0.0029381474 0.0043035633 0.9071059071 -0.4152027931 0.9082888473 -0.4138232642 0.0041516468 0.0037083795
785295290.0 0.0032793019 0.0043891544 0.9056809616 -0.4174141761 0.906790766 -0.4168589088 0.0032838501 0.0035127674
790295260.0 0.0027079935 0.0040062094 0.9058739019 -0.4193646884 0.9058295616 -0.4184061381 0.0043359814 0.003354514
795295230.0 0.0032898682 0.0047126639 0.9044564505 -0.4218115774 0.9047295946 -0.4215682054 0.003534299 0.0029563046
800295200.0 0.0034597925 0.0039048836 0.9027900286 -0.4251289305 0.9034086955 -0.4240607236 0.003879286 0.0039899845
805295170.0 0.0034823369 0.0038895418 0.9015410055 -0.427379222 0.9029438226 -0.4277971382 0.0036765809 0.0031995518
810295140.0 0.0046772723 0.0039351552 0.9003892633 -0.428892307 0.900910791 -0.4294978683 0.0036735093 0.002898239
815295110.0 0.0034873665 0.0045296083 0.8996389253 -0.4318871893 0.900000049 -0.4313653208 0.0045700704 0.0028666471
820295080.0 0.0042124153 0.0033485059 0.8979148447 -0.4343394962 0.8982754782 -0.4340810631 0.0045446515 0.0031947302
825295050.0 0.0038512668 0.0038707387 0.8970389044 -0.4357338911 0.8974123638 -0.4368518133 0.004032395 0.0038869293
830295020.0 0.0036172124 0.0037676634 0.8955763347 -0.4392029459 0.8961674269 -0.4391558057 0.0041830551 0.0038870318
835294990.0 0.0037393801 0.0041322174 0.8944378356 -0.4412303707 0.8955168226 -0.4422909091 0.0045470399 0.003725994
840294960.0 0.0038074167 0.0034648807 0.8942167868 -0.4433273908 0.8940233547 -0.4437330014 0.0047550867 0.0039102658
845294930.0 0.0041543034 0.0031332966 0.8923325341 -0.4469952499 0.8925256291 -0.4472333303 0.0046101184 0.003335641
