!Created with skrf (http://scikit-rf.org).
# Hz S RI R 50.0 
!freq ReS11 ImS11 ReS21 ImS21 ReS12 ImS12 ReS22 ImS22
300000.0 -0.7672719202 -0.1803488838 -0.0005007079 0.0004823336 -7.23255e-05 0.000270043 0.8595493976 -0.0028292131
5299970.0 -0.7862595608 -0.0098875802 8.86277e-05 -0.0001269579 -3.90101e-05 -0.0001158634 0.8592408108 -0.0104687108
10299940.0 -0.7891942197 -0.0059067349 2.03505e-05 0.000173279 2.29452e-05 2.25984e-05 0.8580762427 -0.0188995822
15299910.0 -0.7942965946 -0.0035737618 0.0001958282 0.0001214345 5.19905e-05 0.0002115051 0.8569827605 -0.0278082637
20299880.0 -0.8011617986 0.0005062263 0.0001131947 0.0001027792 -1.27766e-05 -9.62227e-05 0.8564016416 -0.0357070352
25299850.0 -0.8076693933 0.0066872215 0.0001388364 -3.63644e-05 -0.0001996645 -0.0001190749 0.8559704322 -0.0433667428
30299820.0 -0.8142399033 0.0138364176 3.87598e-05 -0.0003250266 6.88876e-05 6.46755e-05 0.8553641645 -0.0524422004
35299790.0 -0.8185716624 0.0230979739 0.0001899309 -0.0001577229 0.0001348733 -0.0001336912 0.8545235528 -0.0610917071
40299760.0 -0.8235384569 0.0320240421 -5.28203e-05 -7.4052e-06 2.23146e-05 7.9837e-05 0.8537980015 -0.0687423111
45299730.0 -0.8271307187 0.0423378881 -0.0001381274 -8.13057e-05 -4.58014e-05 -0.0001158779 0.8522950845 -0.0770076443
50299700.0 -0.8294683543 0.0517733226 0.0001089596 0.0001831423 -0.000111864 2.10874e-05 0.8517114571 -0.0860656513
55299670.0 -0.8313914224 0.0614748582 0.0001429422 0.0001694835 4.55755e-05 6.70521e-05 0.8511048723 -0.0933498898
60299640.0 -0.8326940972 0.0716866953 3.23606e-05 0.0002314847 -0.0001493639 -3.93373e-05 0.8499014769 -0.1020647823
65299610.0 -0.8338032194 0.0816393224 -0.0001364955 -3.903e-06 -0.00022532 -6.9612e-05 0.8489079693 -0.1103226123
70299580.0 -0.8337959132 0.0912104517 4.32006e-05 -3.92566e-05 0.0001104797 5.621e-05 0.8478663217 -0.1189307984
75299550.0 -0.8339521904 0.1012734229 4.01292e-05 -5.49998e-05 0.0001075049 9.11986e-05 0.8460440534 -0.1263760326
80299520.0 -0.834049125 0.112288913 1.26304e-05 5.98325e-05 -1.08577e-05 2.99829e-05 0.8454236872 -0.1356806789
85299490.0 -0.8329349304 0.1210156943 8.05735e-05 -8.32408e-05 -0.0001017557 -4.30105e-05 0.8438898418 -0.14310406
90299460.0 -0.8323173561 0.1314085335 0.000174066 -5.19052e-05 0.0001324434 -0.0002003579 0.8422922075 -0.1520288449
95299430.0 -0.8317093067 0.1403002291 -2.39617e-05 8.98081e-05 -8.52465e-05 -0.0002329269 0.8405431123 -0.1596661972
100299400.0 -0.8306744605 0.1502108016 8.35178e-05 -7.33239e-05 -0.0001600479 4.39521e-05 0.8389629273 -0.1680029966
105299370.0 -0.8289564119 0.1597194605 -3.81845e-05 -2.69789e-05 0.0001312789 7.71995e-05 0.8377592346 -0.1760356266
110299340.0 -0.8277665328 0.168379271 -7.66462e-05 6.4381e-06 0.0001209556 0.0001539869 0.8352741825 -0.1843575421
115299310.0 -0.825740442 0.1776926237 0.0001670652 3.70267e-05 6.5604e-05 6.09681e-05 0.8329271333 -0.1926659835
120299280.0 -0.8245322128 0.1868843191 8.29446e-05 -0.0001236462 -6.56586e-05 9.457e-07 0.8321806367 -0.2007590255
125299250.0 -0.8226307172 0.1957367654 0.0001385187 6.06916e-05 0.0001238886 5.3759e-05 0.8296987579 -0.2087621577
130299220.0 -0.8208060899 0.205190988 0.0001983261 -8.98095e-05 5.85994e-05 1.78068e-05 0.8279645998 -0.21664073
135299190.0 -0.8189423137 0.2144092149 -7.03239e-05 6.7571e-06 -9.72464e-05 -0.000147574 0.8256925743 -0.2252781029
140299160.0 -0.816744434 0.2235102506 -3.21173e-05 -4.6612e-05 0.0002273737 0.0001906142 0.8231226547 -0.2332100859
145299130.0 -0.8147138446 0.2318779685 0.0001977938 -0.0002308113 5.52527e-05 0.0002061283 0.8205807703 -0.241277529
150299100.0 -0.812538592 0.2412671886 6.7813e-06 8.80516e-05 1.0393e-05 -5.16474e-05 0.8183058548 -0.2490902887
155299070.0 -0.809977614 0.2501389152 0.0001155119 -1.15091e-05 -0.000165083 7.85546e-05 0.8158889179 -0.2575427446
160299040.0 -0.8079177352 0.2591923047 0.0001290605 -1.6826e-06 -4.75544e-05 0.0001771189 0.8131933555 -0.2652744467
165299010.0 -0.8048044224 0.2675213643 -0.0001555969 -6.73118e-05 -0.0001217195 5.42397e-05 0.810593076 -0.2729885454
170298980.0 -0.8019669515 0.2768451646 5.89349e-05 0.0001392136 -0.0001639122 0.0003626809 0.8075124429 -0.2813243335
175298950.0 -0.7989525986 0.2840215266 -8.45168e-05 1.60662e-05 -7.22861e-05 -0.0001100574 0.8049325852 -0.2892181732
180298920.0 -0.7962916417 0.2935784635 -0.000143638 -9.95482e-05 3.22082e-05 0.0001808099 0.8020338876 -0.2970416583
185298890.0 -0.7925597364 0.3019921338 -0.0001274858 0.0002298351 4.53524e-05 -0.0001985147 0.7997390066 -0.3044314268
190298860.0 -0.7897903351 0.3108583054 0.0001104967 -0.0001370153 -0.000109821 -4.27048e-05 0.7959752577 -0.3126606415
195298830.0 -0.7865339829 0.3195129143 -0.0001387133 -6.09382e-05 -2.95622e-05 1.24598e-05 0.7928002852 -0.3202852795
200298800.0 -0.7827713407 0.3278785949 -0.0001097814 6.30145e-05 -3.9087e-05 -8.3173e-06 0.7891794597 -0.3275291424
205298770.0 -0.7793157743 0.336866397 -5.32977e-05 0.0001458245 -3.81977e-05 0.000128337 0.7867624067 -0.3362597694
210298740.0 -0.7767392151 0.3446081761 -7.30851e-05 0.0001452193 9.14688e-05 1.37481e-05 0.7834292286 -0.3435847928
215298710.0 -0.7724421456 0.3532832158 -0.0001068914 -0.0001121961 6.5066e-06 -7.46939e-05 0.7795553973 -0.3513319971
220298680.0 -0.7685221385 0.3608750515 6.95321e-05 -5.32704e-05 0.0001120732 0.0001670923 0.7758711084 -0.3587983908
225298650.0 -0.7649222121 0.3698720688 -8.90927e-05 0.0001711076 0.0001190582 -4.79916e-05 0.7721256287 -0.3661346203
230298620.0 -0.7611393605 0.3781965871 -2.01143e-05 -0.0001225077 7.13858e-05 0.0001761036 0.7691678691 -0.3737325865
235298590.0 -0.7572143181 0.3863340966 -7.01972e-05 2.027e-06 -4.43043e-05 0.0001768828 0.7647383745 -0.3809828177
240298560.0 -0.7529242937 0.3936660091 -0.0001581447 -2.66826e-05 -3.98676e-05 -0.0001430988 0.7618653658 -0.3882509449
245298530.0 -0.7484665039 0.4016766946 -6.66775e-05 -0.0001935122 -1.46373e-05 -3.88202e-05 0.756878526 -0.3960809562
250298500.0 -0.7449102929 0.4095190433 0.0002977203 0.0002844857 -0.0001246558 -0.0001333088 0.7535591691 -0.4029659847
255298470.0 -0.7406826635 0.4175492158 -3.89179e-05 4.01306e-05 2.01957e-05 8.73884e-05 0.7495595736 -0.4110389849
260298440.0 -0.736768009 0.425181983 -0.0001980247 0.0001319426 0.0001038956 8.66566e-05 0.745406025 -0.4180170929
265298410.0 -0.732060269 0.4327736104 -1.2784e-06 0.000224114 -3.74096e-05 -3.05236e-05 0.7412646844 -0.4250451803
270298380.0 -0.7269870984 0.4406450426 -0.0001199707 3.46189e-05 6.11249e-05 3.71597e-05 0.7379543241 -0.4322649077
275298350.0 -0.7233455861 0.4483141226 -0.0001013064 7.03735e-05 0.0001497127 -0.0001100823 0.7324527621 -0.439953564
280298320.0 -0.7183262484 0.4555411766 0.0001339278 -5.087e-05 -0.0001110046 -3.01205e-05 0.7286201688 -0.4465904159
285298290.0 -0.7133018999 0.4635423468 3.38e-08 5.02462e-05 -1.14196e-05 -1.4211e-06 0.7247936841 -0.4542631524
290298260.0 -0.7085020274 0.4712012211 -6.34295e-05 -7.245e-07 4.7222e-05 3.55126e-05 0.7202877255 -0.4604245044
295298230.0 -0.7037653896 0.4783586323 -0.0002656259 0.0001476645 0.0002029079 4.50376e-05 0.7157000029 -0.4676843994
300298200.0 -0.6990286424 0.4856193401 -0.0001642346 -3.65354e-05 -2.96364e-05 -1.81096e-05 0.7113307618 -0.474991678
305298170.0 -0.6943476431 0.4922249176 5.90617e-05 8.59688e-05 5.34699e-05 -1.33792e-05 0.7063311828 -0.4821608404
310298140.0 -0.6887512311 0.4997979303 0.0001301435 -0.0001832323 4.88681e-05 -1.16803e-05 0.7027853414 -0.4894970075
315298110.0 -0.6845882562 0.5068780535 -9.32284e-05 4.89659e-05 -0.0001671505 -0.000143181 0.6971455496 -0.496769871
320298080.0 -0.6788093176 0.5141070599 0.0001698018 -3.75564e-05 -9.82799e-05 8.77827e-05 0.6925307337 -0.5042147105
325298050.0 -0.6738509506 0.5211859327 3.25766e-05 -3.46125e-05 0.0002596364 9.0444e-05 0.687724763 -0.5117223115
330298020.0 -0.6680949016 0.527975974 4.62466e-05 6.40404e-05 0.0001461779 6.2894e-06 0.6821967101 -0.5192547485
335297990.0 -0.6631659996 0.5348944278 0.0001318546 4.50866e-05 -6.196e-05 0.0001302068 0.6761915128 -0.5261421397
340297960.0 -0.6579692494 0.5414463822 3.53599e-05 0.0001075459 -0.0001112647 1.60839e-05 0.6697693276 -0.532083807
345297930.0 -0.651618604 0.5484766865 7.69792e-05 -7.01779e-05 2.28438e-05 3.78147e-05 0.6642735303 -0.5387956078
350297900.0 -0.6466600805 0.5547999852 3.9722e-06 -1.5407e-05 -1.10923e-05 -9.93232e-05 0.6585616324 -0.5453037333
355297870.0 -0.6410747334 0.5616302454 2.88732e-05 0.0002568206 -6.03609e-05 -3.5936e-06 0.6530380783 -0.5510624363
360297840.0 -0.6349436104 0.5682891014 -0.000105012 4.96358e-05 3.76275e-05 -5.25941e-05 0.6468970391 -0.5571944166
365297810.0 -0.6296235224 0.5746245633 -2.91551e-05 -0.0001567624 -0.000145573 0.0001811688 0.6413511827 -0.5628407625
370297780.0 -0.6231736068 0.5805786995 7.8118e-05 -0.0002315095 0.0001029114 5.52515e-05 0.6353062575 -0.5692684383
375297750.0 -0.6182677734 0.5870028389 -2.68777e-05 0.0001946341 0.0001136034 -0.0001284238 0.6303166481 -0.5758102805
380297720.0 -0.6119463066 0.5934907594 -0.0001205169 -6.6078e-06 6.86122e-05 -3.40861e-05 0.6244432762 -0.5812739946
385297690.0 -0.6059641222 0.5995338136 0.0002338034 0.0001346609 0.0002425228 4.42246e-05 0.6178829292 -0.587499685
390297660.0 -0.5986317271 0.6052944038 0.0001446904 -0.0001318139 -6.37255e-05 -0.0001490448 0.6123244894 -0.5931285984
395297630.0 -0.5929179762 0.6122923175 -0.0002054036 0.0001798369 2.981e-05 7.83138e-05 0.6062548485 -0.5992301111
400297600.0 -0.5865023627 0.6186583566 -9.83691e-05 0.0001235822 -0.0001422397 -8.21997e-05 0.6008606607 -0.6043445858
405297570.0 -0.5810073378 0.6232388496 0.0001350831 -9.38716e-05 -1.97267e-05 6.68744e-05 0.5945921311 -0.6105656665
410297540.0 -0.5739500343 0.6296433147 -7.85413e-05 4.9502e-06 7.80278e-05 0.0001500021 0.5883512315 -0.6167186253
415297510.0 -0.5674968276 0.6358357384 -1.9591e-06 0.0001587767 -9.53272e-05 8.85646e-05 0.5820056432 -0.6222075208
420297480.0 -0.5612792127 0.6415026323 0.0001117566 9.53943e-05 -0.00021483 0.0001455278 0.5763563589 -0.6270570885
425297450.0 -0.5543847589 0.6465028299 0.0001298261 -3.71769e-05 5.01134e-05 9.21005e-05 0.569904794 -0.63390179
430297420.0 -0.5474798727 0.651784506 -0.0001486391 -0.0001214196 -1.6e-06 -0.0002180565 0.5634488893 -0.639218196
435297390.0 -0.5413105153 0.6575074559 -0.0001770204 6.54518e-05 0.0001597736 -0.0001443089 0.5565899636 -0.6448297611
440297360.0 -0.5347564332 0.6633700101 -1.33677e-05 -0.0002715742 -9.36879e-05 -0.000174638 0.55090742 -0.6488131256
445297330.0 -0.5271028205 0.6681508725 -1.75531e-05 2.49673e-05 -0.0001332124 6.14762e-05 0.5438139745 -0.6541181804
450297300.0 -0.5202877437 0.6736112091 1.57318e-05 -0.0002846406 6.82837e-05 0.0002387455 0.5376678144 -0.659943985
455297270.0 -0.5137549866 0.6785785727 0.0001010835 -0.000205774 2.52831e-05 -7.31768e-05 0.5306923291 -0.66518415
460297240.0 -0.5058248275 0.6841447055 9.57174e-05 -7.10423e-05 -5.5213e-06 8.42064e-05 0.5239605707 -0.6703829737
465297210.0 -0.4991833225 0.6887044223 0.0001088731 0.0001767566 9.60985e-05 9.0406e-05 0.5178375633 -0.6745132121
470297180.0 -0.4918305454 0.6939608443 -0.0001380328 0.0002222444 0.0002332694 2.31227e-05 0.5112351257 -0.6803440217
475297150.0 -0.4850214116 0.6994542512 -0.0001441322 0.0001240427 -0.0001203683 4.28881e-05 0.5048066932 -0.6847938457
480297120.0 -0.4772570715 0.704159268 -0.0003385465 -0.0002270804 -5.34126e-05 -4.68607e-05 0.4976092514 -0.6899538003
485297090.0 -0.4703701912 0.7087557286 -8.30398e-05 -0.0002287936 0.0001248233 -5.65551e-05 0.4906647528 -0.6951159326
490297060.0 -0.4623644947 0.7141071517 -0.0001051819 0.0001313876 8.60039e-05 0.0001573753 0.4834172945 -0.6995780038
495297030.0 -0.4546607165 0.7183891119 0.0002045567 -6.978e-07 2.77668e-05 -7.12592e-05 0.4766994721 -0.7041442509
500297000.0 -0.447408278 0.7222182353 1.84944e-05 7.79146e-05 -0.0001663218 9.05864e-05 0.4696526358 -0.7088044742
505296970.0 -0.4393726822 0.7266340971 5.80458e-05 2.5049e-05 3.74444e-05 0.0001663305 0.4623258847 -0.7131268921
510296940.0 -0.432032741 0.7316283384 -0.0001507539 1.0154e-05 5.15038e-05 -0.0001055729 0.4549904407 -0.7176759944
515296910.0 -0.4239196039 0.7359212028 0.000137035 0.0003049916 -2.87102e-05 9.82947e-05 0.4480258622 -0.7221714778
520296880.0 -0.4164235116 0.7399480813 0.0001026444 2.81811e-05 -0.0002216232 1.66716e-05 0.4411053179 -0.726793693
525296850.0 -0.4087022474 0.7438345467 8.54524e-05 -0.0001884883 -6.42986e-05 9.64e-05 0.4340952504 -0.7308203513
530296820.0 -0.4015044434 0.7478285451 -0.000122504 -1.3722e-05 0.0001402975 -0.0001715095 0.4266566441 -0.7347375918
535296790.0 -0.3930322092 0.7521451122 4.8406e-05 -7.83931e-05 6.96639e-05 6.06267e-05 0.4201711678 -0.7387372026
540296760.0 -0.3853677401 0.7559684661 -6.25181e-05 0.000100384 -0.0002120743 8.8945e-06 0.4121964708 -0.743118797
545296730.0 -0.378009099 0.7607040728 -6.37687e-05 6.50485e-05 3.46163e-05 -1.00522e-05 0.4047716238 -0.7469548066
550296700.0 -0.3691973448 0.7637906143 -3.53725e-05 -7.86076e-05 -0.0002153492 6.85998e-05 0.3969895162 -0.7503090891
555296670.0 -0.3616400238 0.7678578321 -5.89499e-05 0.0001577391 8.33148e-05 0.0001040061 0.3898784358 -0.7542407223
560296640.0 -0.3535377881 0.7706662552 -0.0002386803 -1.22821e-05 -5.56458e-05 6.86683e-05 0.3817472225 -0.7582928875
565296610.0 -0.3458409963 0.7740086101 4.43664e-05 -0.0001535794 5.67279e-05 -8.78571e-05 0.3745877167 -0.7619766771
570296580.0 -0.3374462801 0.7781765741 -6.50257e-05 -3.69316e-05 7.09699e-05 0.000201407 0.3667152006 -0.7660688494
575296550.0 -0.3282548084 0.7815049023 -0.0001051067 -0.0001409143 -9.2631e-06 8.9422e-06 0.3591142014 -0.7686744084
580296520.0 -0.3211049093 0.7852416995 -0.0001615588 0.0001203257 0.0001869332 -0.0001729121 0.3511702099 -0.7724391744
585296490.0 -0.3127314097 0.7875024176 -0.0004444432 -0.0001375227 -9.77408e-05 -3.72058e-05 0.3438262729 -0.7751061389
590296460.0 -0.3036907754 0.7907088095 -9.08269e-05 2.20603e-05 -1.57044e-05 0.0001710153 0.3357753903 -0.7788855714
595296430.0 -0.2964388646 0.7937371575 0.0001489696 -0.0001428284 -4.339e-07 -8.68935e-05 0.3284643269 -0.7819029603
600296400.0 -0.2881139714 0.7967532998 0.0001418278 -7.47386e-05 2.9326e-06 -9.2472e-06 0.3205995118 -0.785288116
605296370.0 -0.2798345812 0.7995619554 -2.59308e-05 -0.0001897745 0.0001891217 -3.50333e-05 0.3129912325 -0.787769471
610296340.0 -0.2712482183 0.8030996808 6.54763e-05 -0.0001733094 -1.4974e-05 5.57856e-05 0.3046498583 -0.7907170747
615296310.0 -0.2627152991 0.805957792 3.38762e-05 0.0002354079 -0.0001717462 -0.0001420969 0.2968000058 -0.7940997599
620296280.0 -0.2551823956 0.8082543642 0.0002102992 -0.0002841373 5.71316e-05 -3.87541e-05 0.289198963 -0.7964489369
625296250.0 -0.2474538078 0.810146113 -0.0002823765 -0.0001019775 -7.38072e-05 -8.023e-07 0.2809021406 -0.79989641
630296220.0 -0.2386727401 0.8131184851 6.3599e-06 8.4339e-06 6.08612e-05 7.69383e-05 0.2729207915 -0.801713734
635296190.0 -0.2302362446 0.8160625948 -0.0001437544 -0.0002025456 9.7037e-05 -2.4247e-05 0.2650658994 -0.8043486222
640296160.0 -0.2217667098 0.81769824 -7.8146e-05 9.67595e-05 -7.82319e-05 4.05963e-05 0.2567042409 -0.8065789582
645296130.0 -0.2137863097 0.8207340429 2.39463e-05 8.02255e-05 -0.0001952022 -9.10783e-05 0.2482656767 -0.8093221422
650296100.0 -0.2053562302 0.8221120898 -0.000127119 -4.7759e-05 8.42825e-05 -5.32449e-05 0.2403644961 -0.8113301079
655296070.0 -0.1971003766 0.8247567483 0.0002278651 8.76919e-05 -4.55392e-05 1.6571e-05 0.2326668483 -0.8147239966
660296040.0 -0.1890423389 0.826880718 0.0002434346 0.000167424 -9.72481e-05 -6.00713e-05 0.2248930417 -0.8167918089
665296010.0 -0.1813589327 0.8280557514 -0.0003001716 -0.0002003297 0.0002240541 -0.0002137711 0.216834706 -0.8179474501
670295980.0 -0.1726884936 0.8306809929 -1.37582e-05 1.90363e-05 0.0001935876 -0.0001341896 0.2078039485 -0.8205391655
675295950.0 -0.1641054808 0.8321506791 0.000166148 6.88664e-05 0.000133604 -8.30225e-05 0.199285644 -0.8219172236
680295920.0 -0.1569047055 0.8339449437 -2.3574e-05 -0.0002144607 -6.75113e-05 0.0001309854 0.1914685538 -0.8242090777
685295890.0 -0.1474003884 0.8364016035 -0.0001677397 -0.0001345534 -0.0001801269 3.65383e-05 0.1841378705 -0.8253428506
690295860.0 -0.1389882955 0.8373019387 -0.0001786492 2.93134e-05 -0.0001113799 0.0001601133 0.1754020775 -0.8275754453
695295830.0 -0.1310799972 0.8387583047 1.7528e-05 0.0001190383 -6.47539e-05 0.0001452118 0.1669970292 -0.8287228438
700295800.0 -0.1226334424 0.8405077612 9.64392e-05 -2.82102e-05 -0.0002659467 -8.96454e-05 0.1589994868 -0.8304354002
705295770.0 -0.1151977077 0.8415690798 -8.72264e-05 1.09654e-05 0.000147627 4.37944e-05 0.1502613929 -0.8309755111
710295740.0 -0.1068071377 0.8420533435 5.61888e-05 -4.03952e-05 -0.0002435524 -4.21766e-05 0.1425334384 -0.8327823789
715295710.0 -0.0972462878 0.8435263449 -9.0145e-06 0.0001476496 0.0002074856 0.0001344429 0.1346171072 -0.8345309113
720295680.0 -0.0888924583 0.8446273462 -4.0434e-06 -2.57411e-05 -6.15787e-05 -0.0001891441 0.1258073516 -0.8357117452
725295650.0 -0.0813988103 0.8459526502 -2.8571e-05 1.48957e-05 -3.87621e-05 -0.000110849 0.1174377423 -0.8365183984
730295620.0 -0.0743593526 0.8470006065 -3.97134e-05 -1.96991e-05 0.0001238495 5.8487e-06 0.1088604917 -0.83718943
735295590.0 -0.065762027 0.8480290874 3.607e-05 0.0001997062 -9.05956e-05 -7.06038e-05 0.1011971639 -0.8377401842
740295560.0 -0.0575234431 0.8478069282 -0.0002243721 5.599e-05 -0.000150824 -8.8043e-05 0.0920944038 -0.8385584017
745295530.0 -0.0491724132 0.8493386668 -9.35613e-05 -8.91841e-05 0.0001202073 -0.0001468782 0.0833550301 -0.8394356497
750295500.0 -0.0410521772 0.8498494856 -0.0001685182 0.0002027983 1.84681e-05 2.54846e-05 0.0754449569 -0.8404162963
755295470.0 -0.0325438824 0.8500843882 -5.76057e-05 0.0002594623 0.0001847857 4.87449e-05 0.0669892513 -0.8404110101
760295440.0 -0.0242908372 0.8505981941 -5.15596e-05 -0.0001128768 -0.0001151222 -8.43547e-05 0.0594065979 -0.841534994
765295410.0 -0.0164636488 0.8504170778 -7.46138e-05 -1.94318e-05 6.04263e-05 -3.29467e-05 0.0497335667 -0.841651322
770295380.0 -0.0084214671 0.8517415776 6.03e-06 -0.0002206369 -0.0001636053 8.51679e-05 0.0422200903 -0.8418460719
775295350.0 -0.0002706273 0.8508773102 0.0002943678 9.32674e-05 -1.40043e-05 -0.0001292181 0.0336686839 -0.8425029356
780295320.0 0.0086170752 0.8516787036 5.76099e-05 7.8639e-05 -0.0001847181 0.0001427064 0.0251716055 -0.8421339715
785295290.0 0.0165300109 0.8516041534 0.0001563093 -2.82765e-05 -4.69265e-05 8.14406e-05 0.0160398558 -0.842359737
790295260.0 0.0252094588 0.8508018583 0.0001397506 -0.0001213965 -0.0001548551 -7.86084e-05 0.0088554527 -0.8422764953
795295230.0 0.0329802376 0.8510572047 0.0001493314 -2.16813e-05 1.35463e-05 -8.28185e-05 -7.4066e-05 -0.8432386793
800295200.0 0.0409388017 0.8503330529 -0.0001103213 -7.71088e-05 1.68978e-05 -1.33668e-05 -0.0086143892 -0.8423818281
805295170.0 0.0491304462 0.850838399 -6.28675e-05 1.4683e-05 -2.38468e-05 -7.62914e-05 -0.0159780975 -0.8422120275
810295140.0 0.0577514103 0.8508630761 -0.000258826 2.3437e-05 0.0001495157 7.50601e-05 -0.0251728707 -0.8410346709
815295110.0 0.0650428072 0.8500644562 6.59927e-05 6.4747e-06 0.0003599797 -7.50972e-05 -0.0339259993 -0.8409408445
820295080.0 0.0735182256 0.8487644949 2.61461e-05 2.3989e-05 -0.0001302514 1.83858e-05 -0.0421891739 -0.8399481985
825295050.0 0.0818495156 0.8489469565 -0.0001055862 0.0001109328 2.01573e-05 -5.17624e-05 -0.0500918688 -0.8397414903
830295020.0 0.0902253264 0.8477526498 -8.64293e-05 0.0001724602 9.76676e-05 2.76122e-05 -0.0591216349 -0.8396299968
835294990.0 0.0983782466 0.8478210434 -2.25144e-05 -0.0001717492 -5.82707e-05 -2.32442e-05 -0.0674108156 -0.8378289997
840294960.0 0.106782562 0.8457385733 0.0001129989 8.91321e-05 4.5149e-05 -4.3113e-06 -0.0752386237 -0.837095207
845294930.0 0.1143506515 0.8444139411 -6.27603e-05 -7.85002e-05 0.0001799608 9.50083e-05 -0.0837049158 -0.8362559429
