!Created with skrf (http://scikit-rf.org).
# Hz S RI R 50.0 
!freq ReS11 ImS11 ReS21 ImS21 ReS12 ImS12 ReS22 ImS22
300000.0 -0.2379585896 -0.1233036485 0.4665120909 0.0818132387 0.4655337912 0.0818750628 -0.2346931515 -0.1290867038
5299970.0 -0.2448204086 0.00518541 0.4735767688 0.0057793441 0.4742986533 0.0059282069 -0.2434578346 0.0049664586
10299940.0 -0.2417392196 0.0183655017 0.4760434075 0.0069714079 0.4757537972 0.0071136206 -0.2397839987 0.0181867887
15299910.0 -0.2368951809 0.0283477372 0.4795544169 0.0081329805 0.4796735637 0.0084068344 -0.2359851028 0.0273496876
20299880.0 -0.231603994 0.0363163594 0.4840813498 0.0081491283 0.4841884138 0.0086509671 -0.2311136892 0.035273443
25299850.0 -0.2255646399 0.0427659898 0.4896819328 0.0082186295 0.4899820848 0.0074443179 -0.225710246 0.0419292128
30299820.0 -0.2201421517 0.0478572611 0.4950226182 0.0055040324 0.4951595595 0.005216919 -0.2204218748 0.0467961418
35299790.0 -0.2142103449 0.0519010144 0.4997799099 0.0024951327 0.500298103 0.002308431 -0.2156782971 0.0514161194
40299760.0 -0.2090097161 0.0546899712 0.5052863627 -0.0016722582 0.5058137467 -0.001481754 -0.2103450334 0.0548106329
45299730.0 -0.2039456358 0.0569888035 0.5103727282 -0.0061591202 0.5103711623 -0.0065636233 -0.2055615348 0.0577172932
50299700.0 -0.1990304158 0.0589689224 0.5144930214 -0.0117112875 0.514428411 -0.0121356804 -0.2008084504 0.0600977333
55299670.0 -0.1948729284 0.0603885407 0.5182719813 -0.017445562 0.5184134238 -0.0179347602 -0.1973028859 0.0618625108
60299640.0 -0.1907233284 0.0620683724 0.5220992038 -0.0239564731 0.5216359199 -0.0241864092 -0.1934648905 0.0633689712
65299610.0 -0.1870874205 0.0627758549 0.5250057801 -0.0300924058 0.5250160214 -0.0302001173 -0.1898292058 0.0648840437
70299580.0 -0.1837630024 0.063213442 0.5272419771 -0.0366300901 0.5271721173 -0.0370375926 -0.1867452616 0.0660640058
75299550.0 -0.1810021443 0.0638418538 0.5287311432 -0.043982424 0.5291761809 -0.044001398 -0.1838038659 0.0670422538
80299520.0 -0.1782021271 0.064574729 0.5308570369 -0.050760928 0.5312979922 -0.0507961369 -0.1810710373 0.0681002224
85299490.0 -0.175652822 0.0648973983 0.5323442319 -0.0578636925 0.5323849249 -0.057367738 -0.1791475629 0.0686986825
90299460.0 -0.1735003589 0.06556159 0.5331834698 -0.0644919399 0.5329839278 -0.0644611156 -0.1764498317 0.0697362332
95299430.0 -0.171234964 0.0658233512 0.5339741935 -0.0715546331 0.5347012627 -0.0716156734 -0.1747011288 0.0708688111
100299400.0 -0.169438033 0.0660279547 0.5345808975 -0.0780686131 0.5345794151 -0.0787222402 -0.1727738393 0.0718957925
105299370.0 -0.1675260795 0.0663261243 0.5349893073 -0.0850899723 0.5350560786 -0.0852486964 -0.1708781195 0.0721895251
110299340.0 -0.1657612628 0.0669221675 0.5347105789 -0.0916636609 0.5353325563 -0.0917723104 -0.1694704561 0.0730947526
115299310.0 -0.1642747546 0.0675504819 0.5351484279 -0.0985680625 0.5348316188 -0.0989233665 -0.1680628471 0.0742386422
120299280.0 -0.1633316311 0.0683408293 0.5351551876 -0.106361318 0.5349924676 -0.1058292949 -0.1665080341 0.0745343334
125299250.0 -0.1620115098 0.0688973444 0.534652429 -0.1127535774 0.5344888773 -0.112673282 -0.1650123641 0.0760853055
130299220.0 -0.1604350653 0.0691008453 0.5340516046 -0.1195283137 0.534067514 -0.1196900553 -0.163731256 0.0772892107
135299190.0 -0.159617789 0.0702149889 0.5332597299 -0.1260663428 0.5335790014 -0.1263469991 -0.162788862 0.0779470307
140299160.0 -0.1585778758 0.0709430865 0.5329630811 -0.1328432844 0.5324716824 -0.1324782605 -0.1618625612 0.078963954
145299130.0 -0.1581224183 0.0715479411 0.5318368029 -0.139067283 0.5314120772 -0.1393582336 -0.16063479 0.0800918029
150299100.0 -0.1564790896 0.072622298 0.5305902089 -0.1456211143 0.5303628319 -0.1459085792 -0.1594840856 0.0815035804
155299070.0 -0.1555896706 0.0735458976 0.528667792 -0.152217635 0.5297179537 -0.1522528265 -0.1585204648 0.0823464902
160299040.0 -0.1548144095 0.0746774134 0.5278723393 -0.15877722 0.5278492149 -0.15862938 -0.1577667072 0.0837328817
165299010.0 -0.154123293 0.0753579126 0.5265403207 -0.1651397618 0.5263301902 -0.1654839126 -0.1563473081 0.0846160764
170298980.0 -0.1530601511 0.0761899428 0.5244227878 -0.1715208727 0.5247792988 -0.1716140078 -0.1556201098 0.0856665247
175298950.0 -0.152114404 0.0774274875 0.5235867375 -0.1779171142 0.5237605276 -0.1779956419 -0.1548167514 0.0875030453
180298920.0 -0.1516627121 0.078476255 0.5215945173 -0.1841779643 0.5214928426 -0.1844775121 -0.153812796 0.0886005448
185298890.0 -0.150785737 0.0796060595 0.5199283355 -0.1903445817 0.519909399 -0.1902965091 -0.1527231775 0.0896272738
190298860.0 -0.1497813855 0.08089728 0.5174670711 -0.1966491721 0.5181144499 -0.1964628518 -0.1518876679 0.0910661832
195298830.0 -0.1491442244 0.0820401357 0.5161977547 -0.2025558483 0.5165350097 -0.2028075371 -0.1512590822 0.0926893675
200298800.0 -0.1484700599 0.0825825481 0.5141263611 -0.2090307587 0.51384038 -0.2092242228 -0.1499389034 0.0937804019
205298770.0 -0.1478054725 0.0838496737 0.5112789352 -0.2145660281 0.5120954084 -0.2146096662 -0.1489395699 0.095319887
210298740.0 -0.1469143988 0.0853009543 0.5094712425 -0.2206389158 0.509344131 -0.2207353227 -0.148682855 0.0962663328
215298710.0 -0.1462002519 0.086616244 0.5066189006 -0.2266772844 0.5070484073 -0.2268301188 -0.1469656287 0.0978301502
220298680.0 -0.145133162 0.0878160923 0.5042705181 -0.2326312331 0.5045526383 -0.2330164519 -0.1460717985 0.0993265703
225298650.0 -0.1445631049 0.0892304971 0.5015573613 -0.2383221465 0.5024380462 -0.23809674 -0.1453748377 0.100429146
230298620.0 -0.1435245522 0.0907254614 0.4997920103 -0.2440812277 0.4998587895 -0.2445230545 -0.1444880031 0.1016526759
235298590.0 -0.1429015639 0.0916030005 0.4965607179 -0.2502048529 0.4968572668 -0.250401158 -0.1431608184 0.1033588159
240298560.0 -0.1423895188 0.0933742383 0.494246913 -0.2554258304 0.4945637838 -0.2557442356 -0.1422789069 0.1046165743
245298530.0 -0.1414876292 0.0942153075 0.4915105363 -0.2613650877 0.4917392888 -0.261475241 -0.1411993797 0.1063884213
250298500.0 -0.140909904 0.0951489559 0.4889571346 -0.2667284612 0.4889658381 -0.2668973791 -0.1402630074 0.1079631313
255298470.0 -0.1401267458 0.0970471074 0.4862229835 -0.2722954931 0.4864297706 -0.2727983882 -0.1392333322 0.1094192602
260298440.0 -0.139211571 0.0980326025 0.4828803878 -0.277628716 0.4830920539 -0.2776503553 -0.1384565655 0.1104191918
265298410.0 -0.1383042447 0.0996437923 0.4797199899 -0.2839371578 0.4798716731 -0.2839319104 -0.1363636 0.1119360439
270298380.0 -0.1376000187 0.1006554473 0.4771267149 -0.2890434016 0.47681749 -0.2889421531 -0.135678688 0.1131974128
275298350.0 -0.1368292965 0.1024617187 0.4731144032 -0.2941903483 0.4736336076 -0.2943069356 -0.1348446236 0.1153168389
280298320.0 -0.1361756538 0.1036084105 0.470635676 -0.2994320777 0.4709803353 -0.299890561 -0.1334942913 0.11651052
285298290.0 -0.1351290107 0.1050444608 0.4669402024 -0.3052610817 0.4674352991 -0.3049536119 -0.1326657438 0.1179409796
290298260.0 -0.1340950409 0.1064083585 0.4643800758 -0.3105127957 0.4640494965 -0.3104565407 -0.1311718203 0.1193103467
295298230.0 -0.1333183816 0.1075756772 0.460547378 -0.3159340152 0.4609373009 -0.3160533869 -0.1300807343 0.1205474591
300298200.0 -0.1325096469 0.1091373814 0.4573003262 -0.3209250862 0.45745128 -0.3208815894 -0.1284231039 0.1223947806
305298170.0 -0.1312328443 0.1100265998 0.4540548432 -0.3265309506 0.454169573 -0.3266620209 -0.1273547536 0.1233210128
310298140.0 -0.1301518009 0.1112410366 0.4501431874 -0.3314927251 0.4505525967 -0.3311534937 -0.1257948336 0.1245878639
315298110.0 -0.1295848893 0.1120617718 0.4468365298 -0.3370094779 0.4467910387 -0.3369802046 -0.1246592686 0.1261815878
320298080.0 -0.1285732149 0.1135787416 0.4422627222 -0.3419457303 0.4432999072 -0.3422861365 -0.1233995675 0.1275260793
325298050.0 -0.1281287677 0.1141814531 0.4389037578 -0.3464082071 0.4395370224 -0.3469355469 -0.1220947014 0.1284663285
330298020.0 -0.1277708586 0.1159471528 0.4352086151 -0.351976947 0.4354326611 -0.3518507185 -0.1211832345 0.1299094627
335297990.0 -0.1265307819 0.1173922588 0.4312447229 -0.3564022076 0.4313984025 -0.3569553322 -0.1197195892 0.1311903279
340297960.0 -0.1259198331 0.1185082549 0.4266753307 -0.3616421337 0.4268250432 -0.3616895669 -0.1184443152 0.1331005966
345297930.0 -0.1251250659 0.1201135034 0.4233681634 -0.3664338452 0.4232089774 -0.3661999828 -0.1173506889 0.1338873684
350297900.0 -0.1241387009 0.1210136766 0.4190898524 -0.3703389599 0.4190557398 -0.3705315892 -0.1161165411 0.134999762
355297870.0 -0.1229755659 0.1225200085 0.4148986684 -0.3751240789 0.4148934589 -0.3749936354 -0.1145005465 0.1367580363
360297840.0 -0.1220950016 0.1237361053 0.4105921866 -0.3797138884 0.4105140796 -0.3799717815 -0.1131755546 0.1383700899
365297810.0 -0.1212999407 0.1252301669 0.4065246477 -0.3846764928 0.4062466024 -0.3845333768 -0.1121361512 0.1396027899
370297780.0 -0.1199340752 0.1265480358 0.4018349035 -0.3888394089 0.4023487417 -0.3885567248 -0.1105535801 0.1409221461
375297750.0 -0.1190373576 0.1275672132 0.3976706181 -0.3931559692 0.3979151822 -0.3934511512 -0.1088464697 0.1424103761
380297720.0 -0.1181580928 0.1291149567 0.3936975211 -0.397930125 0.3933805193 -0.3981354084 -0.1073179642 0.1439647037
385297690.0 -0.1172905642 0.1302141071 0.3891455659 -0.4021904997 0.389285695 -0.4026315073 -0.1058851642 0.1452052247
390297660.0 -0.115681191 0.1313374787 0.3845180442 -0.4057496135 0.3848851972 -0.4065823236 -0.1041785221 0.1465816312
395297630.0 -0.1143535202 0.1330021129 0.3803246391 -0.4100980474 0.3799190396 -0.4101586998 -0.1027333183 0.147627254
400297600.0 -0.11361773 0.1339954146 0.3762518274 -0.414663197 0.3760752275 -0.4146651528 -0.1010184764 0.1491380685
405297570.0 -0.1120086937 0.1346072846 0.3710728758 -0.4184661382 0.3714203086 -0.418634634 -0.0994363105 0.1504320091
410297540.0 -0.1110048976 0.1362891857 0.3668330793 -0.4230257694 0.3669650982 -0.4230782502 -0.0979108998 0.1518188396
415297510.0 -0.1099837678 0.1373000103 0.3616679092 -0.4265886997 0.3623671452 -0.4268800838 -0.0961054612 0.1525868228
420297480.0 -0.1087597156 0.138274929 0.3572665494 -0.4309397361 0.3574485958 -0.4306917185 -0.0942180469 0.1542765606
425297450.0 -0.1070150426 0.1394672573 0.3528354928 -0.4342762476 0.3526337343 -0.4347284626 -0.0930389907 0.1552825364
430297420.0 -0.1061081041 0.140714563 0.3482175538 -0.4384832624 0.3481895683 -0.438025196 -0.0909485721 0.1563992377
435297390.0 -0.1048175807 0.141610921 0.3428971074 -0.4423694462 0.3427806331 -0.4421961257 -0.089503904 0.1579056771
440297360.0 -0.1031569199 0.1426761087 0.3379595834 -0.4456591619 0.3379617317 -0.4461583814 -0.0879028032 0.1590436813
445297330.0 -0.1019737963 0.1435119352 0.3330788592 -0.4493812562 0.3334158688 -0.4498332171 -0.0858178677 0.160212648
450297300.0 -0.1006865323 0.144893134 0.3280838384 -0.4526880393 0.3288585681 -0.4529719102 -0.0839452151 0.160916065
455297270.0 -0.0995102446 0.1457019388 0.3237649175 -0.4562598469 0.3236710226 -0.4569100113 -0.0822553683 0.1620800729
460297240.0 -0.097802988 0.1470054937 0.3186098038 -0.4604952598 0.3185017882 -0.4602495804 -0.0804218981 0.1628519591
465297210.0 -0.096476636 0.1479843164 0.3128553789 -0.4638130393 0.3126256698 -0.464190728 -0.078210361 0.1645945169
470297180.0 -0.095007632 0.1490226032 0.3083695215 -0.4666402996 0.308548505 -0.467181095 -0.0766517652 0.1651044917
475297150.0 -0.0937549459 0.1502651166 0.3031747262 -0.4705149609 0.3030918547 -0.470500008 -0.0748050135 0.1659173742
480297120.0 -0.0918029431 0.1513110687 0.2978624942 -0.4737268292 0.2981493135 -0.4737390146 -0.0734015103 0.1674517897
485297090.0 -0.0907278881 0.1517696041 0.2923908863 -0.4766599362 0.2925146571 -0.4768158103 -0.0712704369 0.1683330163
490297060.0 -0.0886615866 0.1529445748 0.287139425 -0.4801752057 0.2873676202 -0.4804253739 -0.0694601156 0.1689708007
495297030.0 -0.087817767 0.1536238197 0.2826453972 -0.4832167561 0.2825014125 -0.4835421237 -0.0675412098 0.1699743955
500297000.0 -0.0860607337 0.1549302742 0.277244599 -0.4857743161 0.277039438 -0.4865310265 -0.0653778494 0.170881291
505296970.0 -0.0842229658 0.155804501 0.2719214425 -0.4893996035 0.2714873536 -0.4892210053 -0.0637120386 0.1713173464
510296940.0 -0.0827878125 0.1566537789 0.2662346431 -0.4924670591 0.2662793892 -0.4928142619 -0.0613167157 0.1726656198
515296910.0 -0.0812424562 0.1580425631 0.2605933434 -0.4948232674 0.2607041739 -0.4947488509 -0.0598152011 0.1728027277
520296880.0 -0.0797141832 0.1585836502 0.2553185124 -0.4976922283 0.2548649328 -0.4977113594 -0.0574486518 0.1745214819
525296850.0 -0.077996982 0.1594153504 0.2499191017 -0.5002838895 0.2499454106 -0.5003697159 -0.0553139143 0.174702176
530296820.0 -0.0765100734 0.1600534208 0.2443714441 -0.5034989321 0.2441934294 -0.5030813784 -0.0536931583 0.1753596913
535296790.0 -0.0742360552 0.1612548382 0.2390353999 -0.504949743 0.2390747642 -0.5055771389 -0.0515502239 0.1761275927
540296760.0 -0.0729775277 0.1623677079 0.2332887853 -0.5083288085 0.2333812541 -0.5081560837 -0.0498428131 0.1766354436
545296730.0 -0.0716791938 0.163284251 0.228026354 -0.5104041188 0.2276170599 -0.5107393313 -0.047558924 0.1775130784
550296700.0 -0.0695597364 0.1642162791 0.2223932015 -0.5133720556 0.2219002196 -0.5134135264 -0.0453457227 0.1782749608
555296670.0 -0.067905839 0.1647584151 0.2163474915 -0.5157573067 0.2167812074 -0.5153007153 -0.0438820753 0.1783547221
560296640.0 -0.065869783 0.1655211403 0.2105675068 -0.5178628844 0.2110128167 -0.5176697572 -0.0416732245 0.1795804326
565296610.0 -0.0647405693 0.1663674594 0.2056634295 -0.5202743217 0.2052670886 -0.5195610922 -0.0394583752 0.180146789
570296580.0 -0.0631464246 0.1672625855 0.1996350892 -0.5220705895 0.1997518305 -0.5225222351 -0.03776784 0.1805783143
575296550.0 -0.0610752787 0.1678093286 0.1942981011 -0.5244110266 0.1939030925 -0.5246254337 -0.0354115207 0.1812159271
580296520.0 -0.0593927199 0.1689974424 0.188328061 -0.5262675564 0.1882931299 -0.5269287049 -0.0336782137 0.1816649599
585296490.0 -0.0578033999 0.1697970927 0.1829695558 -0.5282600313 0.1817459847 -0.5284066151 -0.0311598751 0.1822689676
590296460.0 -0.0552178747 0.1705179235 0.1766706517 -0.5302434008 0.1770080487 -0.5304572875 -0.0295583919 0.1828236565
595296430.0 -0.0538062454 0.1710568153 0.1703658618 -0.5319123696 0.1707683633 -0.5320507305 -0.027402891 0.1826183418
600296400.0 -0.0522581269 0.1718567321 0.1646590135 -0.5338938651 0.164931605 -0.5340001689 -0.0252852252 0.1832304189
605296370.0 -0.0507462835 0.1727609134 0.1595317663 -0.5358414329 0.1591687537 -0.5358907262 -0.0234451012 0.1841193651
610296340.0 -0.0486828556 0.1736883741 0.1536566638 -0.5368856918 0.1538605074 -0.5371013097 -0.0217184676 0.1843790753
615296310.0 -0.0465155012 0.1740927833 0.1479393342 -0.5388804704 0.1471623593 -0.5389918861 -0.0189162299 0.1846263577
620296280.0 -0.0453080818 0.1753517986 0.1417178575 -0.5405337513 0.1414188183 -0.5402659174 -0.0173962152 0.1853294662
625296250.0 -0.0436182776 0.1755702215 0.1360887595 -0.5423932386 0.1362765571 -0.5420511875 -0.015316411 0.1853157661
630296220.0 -0.0419246627 0.1766056501 0.1297380406 -0.5437568426 0.1300470918 -0.543116022 -0.0131899306 0.1854117671
635296190.0 -0.0402244668 0.1774170995 0.1245918363 -0.5444024931 0.1241347518 -0.5445139946 -0.0111565884 0.1860441863
640296160.0 -0.0383530559 0.1776755573 0.1180933879 -0.5460936917 0.1179917043 -0.5461962716 -0.0093623089 0.1861375113
645296130.0 -0.0361752941 0.178734061 0.1124697263 -0.5470078248 0.1122908361 -0.5467151297 -0.007355297 0.1862467051
650296100.0 -0.0346987101 0.1789792096 0.1065215568 -0.5482596917 0.106310816 -0.5485427467 -0.0044748221 0.1864800688
655296070.0 -0.0329869255 0.179215027 0.1005098885 -0.5492160007 0.1002663456 -0.5493248589 -0.0030506168 0.1868520995
660296040.0 -0.0309850502 0.1802376046 0.0941799609 -0.5503205878 0.0944364224 -0.550292575 -0.0006200596 0.1867925266
665296010.0 -0.0292043672 0.1807490295 0.0880232803 -0.5511068214 0.0881873766 -0.5512341208 0.0013879564 0.1870542661
670295980.0 -0.0275012989 0.1813767253 0.0824178523 -0.5522357461 0.0824250305 -0.5518327654 0.0030405215 0.1870346107
675295950.0 -0.025813554 0.1818976621 0.0763489155 -0.5526818335 0.0763836965 -0.5529370889 0.0054422723 0.1872620321
680295920.0 -0.0243068891 0.1825272591 0.0705904394 -0.5534899159 0.0707045825 -0.5534372228 0.0075715933 0.1869423464
685295890.0 -0.0220862031 0.1829824661 0.064372841 -0.5546671452 0.0645390478 -0.5545889356 0.0096151791 0.1873062257
690295860.0 -0.0207285619 0.1834803707 0.058727128 -0.5551032247 0.0580560694 -0.554863001 0.01150095 0.1874434474
695295830.0 -0.0185355977 0.1837207552 0.0530929079 -0.5554626614 0.0525419185 -0.5559295651 0.0134326867 0.1876944244
700295800.0 -0.016861149 0.1844479672 0.0470488239 -0.5558188823 0.0465449923 -0.5561905312 0.0157528934 0.1876184138
705295770.0 -0.015398156 0.1849306715 0.0404264424 -0.5571020376 0.0406220259 -0.5562487263 0.017536343 0.1876425173
710295740.0 -0.0135584292 0.1850581983 0.0345874127 -0.5570278688 0.0342676631 -0.5575904299 0.0197408065 0.187772301
715295710.0 -0.0119479446 0.1858921303 0.0289251059 -0.5571732275 0.0282601497 -0.5576267581 0.0221812157 0.1872288603
720295680.0 -0.0098978479 0.1860141629 0.022582063 -0.5572666024 0.0226302639 -0.5577432495 0.0241372759 0.1872778308
725295650.0 -0.0086246627 0.1865512598 0.0171083451 -0.5578595407 0.0167676769 -0.5578703569 0.02573251 0.1875347515
730295620.0 -0.0072282461 0.1865908452 0.0106459522 -0.5574250297 0.010483313 -0.5574338255 0.0280494251 0.1877663438
735295590.0 -0.0049966547 0.1872286212 0.0049437985 -0.5581548092 0.0045522598 -0.5582039811 0.0300533456 0.1869840358
740295560.0 -0.0030933221 0.1872316762 -0.0014766904 -0.5576399204 -0.0012805763 -0.5583275226 0.0318362837 0.1870140387
745295530.0 -0.001319918 0.1876607112 -0.0069535884 -0.557325382 -0.0068179117 -0.5578123247 0.0335945191 0.1866125426
750295500.0 -9.6896e-05 0.1882384771 -0.0130117521 -0.5576171206 -0.0134589809 -0.5580167375 0.0357496022 0.1865856019
755295470.0 0.0017155058 0.1879583158 -0.0187128266 -0.5574016098 -0.0190098542 -0.5578677296 0.0382476182 0.1865629329
760295440.0 0.003201959 0.1888076996 -0.0253676244 -0.5573237548 -0.0252792891 -0.5573074042 0.0402068762 0.1853473402
765295410.0 0.0054238439 0.1887072801 -0.031038189 -0.5570647638 -0.0310637547 -0.5566623736 0.0423851545 0.1856190095
770295380.0 0.0070731979 0.1889973157 -0.0370266366 -0.5562718043 -0.0372935512 -0.5566938759 0.0441803734 0.1854542063
775295350.0 0.0086085318 0.1890244673 -0.0426645501 -0.556030653 -0.0432545429 -0.55561108 0.0465847248 0.1851277679
780295320.0 0.0105876819 0.1893127684 -0.0485903738 -0.5554366361 -0.048885375 -0.555120826 0.0485657972 0.1845124086
785295290.0 0.0121608086 0.189205194 -0.0550087696 -0.5552678847 -0.0546441769 -0.5549913361 0.0500876431 0.1844176651
790295260.0 0.0140023915 0.1890772114 -0.0605975215 -0.5544090584 -0.060324541 -0.5548089609 0.0519830872 0.1844777207
795295230.0 0.0157807915 0.1890523542 -0.0668827236 -0.5537983665 -0.0668828608 -0.5537131618 0.0540563234 0.1833497276
800295200.0 0.0169934622 0.1895369987 -0.0724178497 -0.552452518 -0.0729308474 -0.5530232821 0.0560092732 0.1830054484
805295170.0 0.0186940547 0.1895972977 -0.0784452642 -0.5518396866 -0.0783971773 -0.5521350728 0.0585466318 0.1825209167
810295140.0 0.020963908 0.1898724455 -0.0845962073 -0.5510239943 -0.0841707175 -0.551227746 0.060304873 0.1820592221
815295110.0 0.0224269954 0.1898673611 -0.0902869626 -0.5499449761 -0.0904867076 -0.5502241176 0.0622775742 0.1818916814
820295080.0 0.0242597165 0.1895618388 -0.095885698 -0.5489178457 -0.0959553414 -0.5497695602 0.0634061063 0.181783023
825295050.0 0.0258274078 0.1892276793 -0.1020340956 -0.5479316954 -0.1022004745 -0.5481298461 0.0663581504 0.1810014384
830295020.0 0.0274972777 0.1895068885 -0.1079854209 -0.5469566577 -0.1079633269 -0.5472963136 0.0680889458 0.1799340181
