!Created with skrf (http://scikit-rf.org).
# Hz S RI R 50.0 
!freq ReS11 ImS11 ReS21 ImS21 ReS12 ImS12 ReS22 ImS22
300000.0 -0.2151532345 -0.0660657143 -0.0015006413 -0.0001401391 -0.0005876233 0.0009872273 -0.7754292908 -0.1357023605
5299970.0 -0.2168708759 0.0082039299 -0.0002502635 -0.0001027594 8.84555e-05 -1.96489e-05 -0.7844012099 -0.0073160803
10299940.0 -0.2133352113 0.0192774133 6.4968e-05 7.37078e-05 -0.0001625218 -2.03138e-05 -0.7876447254 -0.0036163373
15299910.0 -0.2088093455 0.0284045014 1.76763e-05 9.58744e-05 -6.88723e-05 -9.21258e-05 -0.7932117711 -0.0013910751
20299880.0 -0.2035856094 0.0356952138 -0.0001759688 0.0001242808 6.76873e-05 -0.000115533 -0.7996925247 0.0019480093
25299850.0 -0.1975406798 0.0424250924 0.000214867 -5.6924e-06 -5.57401e-05 -8.2523e-06 -0.8059281871 0.0081492676
30299820.0 -0.1920692584 0.0466904919 5.31639e-05 0.0001138049 -2.6952e-06 6.07366e-05 -0.812101892 0.0159832606
35299790.0 -0.1865389813 0.0503554217 -2.7968e-05 -3.5259e-06 0.0001816868 0.0001336393 -0.8170074886 0.0250691195
40299760.0 -0.1807651796 0.0535244011 -0.000219652 0.0001033053 -1.72555e-05 5.76865e-05 -0.8210930334 0.0344974629
45299730.0 -0.1755956306 0.0556726345 -5.73846e-05 -4.72873e-05 8.12135e-05 9.05492e-05 -0.824551226 0.0443765161
50299700.0 -0.1708688926 0.0569122031 -0.0001427429 5.1709e-05 0.0002628447 -9.54996e-05 -0.8270319091 0.05391245
55299670.0 -0.1666862084 0.0578632513 -2.11147e-05 -6.92296e-05 -0.0001660835 -0.0001137327 -0.8292476665 0.0646500842
60299640.0 -0.162209705 0.0588415453 3.42041e-05 -1.18964e-05 -2.56351e-05 -0.0001236148 -0.8302347111 0.0744346826
65299610.0 -0.1589946223 0.0591010918 -7.70294e-05 -1.44915e-05 0.0002295441 -0.0002275459 -0.8318744064 0.0843348238
70299580.0 -0.1555215256 0.0596732974 0.0001759375 0.000209925 -5.80845e-05 0.00012591 -0.8314758223 0.0943458214
75299550.0 -0.1527341826 0.0600496787 0.0001233709 -6.5125e-05 0.0001143934 -8.31084e-05 -0.832550726 0.1038085069
80299520.0 -0.1499820477 0.0603717199 4.41465e-05 -8.0417e-06 4.84871e-05 0.0002932755 -0.832705262 0.1140334736
85299490.0 -0.1475677527 0.0597911722 3.03242e-05 8.11867e-05 8.22949e-05 9.60954e-05 -0.8316402663 0.1236651221
90299460.0 -0.1453454546 0.0601272163 0.000114551 0.0001978818 -0.0001510563 0.0002021639 -0.8307285675 0.1329432706
95299430.0 -0.1433157897 0.0597563558 -3.21967e-05 0.0001193476 4.45094e-05 5.43839e-05 -0.8290111175 0.1429253971
100299400.0 -0.1418177783 0.0598383996 -0.0001570511 4.52249e-05 0.0001942734 0.0001287505 -0.8284116687 0.1526011833
105299370.0 -0.1401246645 0.060104215 8.21259e-05 -0.0001608658 0.000124209 0.0001838575 -0.8266073422 0.1605376168
110299340.0 -0.138649848 0.060242848 -6.48482e-05 6.44429e-05 2.8668e-05 0.0002553614 -0.8253456137 0.1708840581
115299310.0 -0.1371220901 0.0600113345 6.26584e-05 -0.0001042061 -1.81913e-05 4.70696e-05 -0.823986208 0.1797688456
120299280.0 -0.1362201453 0.0597587825 0.0002118471 -2.14979e-05 -6.60647e-05 4.14065e-05 -0.8216375446 0.1887799939
125299250.0 -0.1350227921 0.0600037534 0.000104606 0.00034997 5.6266e-06 -0.0001237352 -0.8206740856 0.1980578443
130299220.0 -0.1344081462 0.0603179398 0.000133459 1.63654e-05 0.0001031313 0.0002698425 -0.8188439947 0.2069004592
135299190.0 -0.1332196879 0.0607548693 -6.55994e-05 -4.54854e-05 1.60106e-05 -2.51183e-05 -0.8161163724 0.2157281404
140299160.0 -0.1323426273 0.060956472 8.73014e-05 -0.0001116899 3.26809e-05 -0.0001305553 -0.8144178132 0.224757886
145299130.0 -0.1314534087 0.0610517648 4.606e-06 0.0002138949 0.0002642074 7.57116e-05 -0.8120306238 0.2340132805
150299100.0 -0.1308033939 0.0615533542 3.58876e-05 0.000117344 6.06461e-05 0.0001290713 -0.81027985 0.2429270644
155299070.0 -0.130061588 0.0619128801 0.0001471045 -3.09793e-05 2.20614e-05 0.0001214102 -0.8066453008 0.2516708482
160299040.0 -0.1295835161 0.0625767062 0.0001732113 2.9292e-05 -0.0002015245 0.0001089102 -0.8050891958 0.2608024189
165299010.0 -0.128794431 0.0630009345 0.0002020242 0.0001390328 -8.61781e-05 -4.77869e-05 -0.8021570427 0.2690127747
170298980.0 -0.1287488176 0.0636027725 0.0002122261 6.5888e-06 7.59461e-05 9.49248e-05 -0.7991238716 0.2779606562
175298950.0 -0.1278505049 0.0641279842 -9.07784e-05 0.0001328918 0.0002527377 -0.0001453261 -0.796173882 0.2869130184
180298920.0 -0.1272169291 0.0648328171 5.17412e-05 -5.93954e-05 2.8826e-06 0.0001998301 -0.7931510869 0.2953809966
185298890.0 -0.1265769024 0.0651638205 0.0002284072 0.0001392341 -3.96804e-05 -2.06441e-05 -0.7901033184 0.3037755701
190298860.0 -0.1262591821 0.0658750395 -0.0002239576 -8.03803e-05 9.53348e-05 1.38031e-05 -0.7875506019 0.3124920815
195298830.0 -0.1259060289 0.0666966403 3.15695e-05 0.0001595293 0.0001677246 0.0001397207 -0.784428337 0.3210119654
200298800.0 -0.1251188689 0.0675640059 -5.40371e-05 0.0001824076 0.0001949723 7.58633e-05 -0.7814606009 0.3290987188
205298770.0 -0.124854152 0.0681935763 -0.0002194519 0.0001761958 -0.0001016709 -2.63624e-05 -0.7776790872 0.3374259851
210298740.0 -0.1242783411 0.0688778564 -5.52529e-05 0.0001618369 6.54383e-05 0.0001309665 -0.7744805655 0.3462868171
215298710.0 -0.1240935073 0.0696626744 -9.52108e-05 -4.5467e-06 0.0001946149 0.0001864022 -0.7709930077 0.3541521411
220298680.0 -0.1236110473 0.070541809 0.0002519728 9.4158e-06 -2.49256e-05 0.0002961735 -0.7674519796 0.3624746414
225298650.0 -0.1232625172 0.0713088073 0.0002380732 0.0001445418 -1.22403e-05 -0.0001073092 -0.7637548461 0.3704956201
230298620.0 -0.1229713871 0.0722833817 -2.15119e-05 -0.0001624204 0.0002197023 6.56214e-05 -0.7597963087 0.3784449001
235298590.0 -0.1219834655 0.0732670061 -6.9032e-05 0.0001354927 0.0001392196 8.27634e-05 -0.7560024414 0.3869066186
240298560.0 -0.1219206524 0.0737240362 -3.61886e-05 -1.78565e-05 8.48431e-05 2.6735e-05 -0.7515238468 0.3952034702
245298530.0 -0.1214223481 0.0749701683 -0.0001307578 0.0001065599 0.0001216623 7.41357e-05 -0.747837728 0.4018623319
250298500.0 -0.1207890005 0.0759689635 -0.0001847855 0.0001347426 0.0001880708 3.50357e-05 -0.7435930565 0.4104874175
255298470.0 -0.1204570062 0.0767433338 0.0002332859 8.08391e-05 0.0001476778 0.0001032734 -0.7388159914 0.4176455987
260298440.0 -0.119970236 0.0775263395 0.0002515944 0.0002682846 0.0002536087 -6.0658e-05 -0.7348266219 0.4262943211
265298410.0 -0.1195139453 0.0789303618 7.00606e-05 -5.67383e-05 -1.06454e-05 6.99734e-05 -0.7301530179 0.4337138407
270298380.0 -0.1189734697 0.0798408024 2.48307e-05 0.0001784373 -1.5291e-05 1.53241e-05 -0.725543496 0.4411740998
275298350.0 -0.1183403014 0.0806994218 2.13197e-05 0.0001236501 -2.94894e-05 7.58979e-05 -0.7210245998 0.4480374688
280298320.0 -0.117412474 0.0819263454 0.0002257515 3.99374e-05 -3.40632e-05 0.0001759602 -0.7156805089 0.4557430958
285298290.0 -0.1170534401 0.0832601029 8.2799e-05 0.0001596053 8.6363e-05 0.0002234831 -0.7105796437 0.4633446492
290298260.0 -0.1167892957 0.0838678403 -0.0001296151 0.0001898139 9.1588e-05 -7.2946e-06 -0.7057173302 0.4710523543
295298230.0 -0.1158866833 0.084529509 4.87344e-05 0.0001040727 5.93162e-05 8.38873e-05 -0.7006482907 0.4779364391
300298200.0 -0.1152398261 0.0858318802 0.0001930728 -0.0001435775 0.0002024628 8.67337e-05 -0.6959118999 0.4852671938
305298170.0 -0.1144113629 0.0866662206 0.0001909684 0.0002755468 0.0003028716 3.53032e-05 -0.6899007384 0.4925697903
310298140.0 -0.114081184 0.0879912515 0.0002524545 9.36504e-05 0.0002046572 9.54991e-05 -0.6856244992 0.499803703
315298110.0 -0.1132395006 0.0889974597 -8.69083e-05 0.0001362479 0.000288332 5.47635e-05 -0.6798511601 0.5065900607
320298080.0 -0.1125782349 0.0896451219 0.0001671282 5.21964e-05 -3.85261e-05 -0.000118932 -0.6744370466 0.5140657151
325298050.0 -0.1120587906 0.0906450253 0.0002272034 0.0002253342 0.0002141089 2.98142e-05 -0.6687576744 0.5207862543
330298020.0 -0.1113848643 0.0912763631 6.79182e-05 0.0003543616 0.0002902596 -2.28546e-05 -0.663578377 0.5283154232
335297990.0 -0.1110094976 0.092504087 0.0002888085 0.0001934148 0.0001505028 0.0002780006 -0.6580653027 0.5352621812
340297960.0 -0.1105487301 0.0936350629 0.0001888859 -1.00336e-05 0.0003632268 -1.38088e-05 -0.6520743173 0.5420945474
345297930.0 -0.1100481044 0.0947301213 6.4976e-05 0.000112275 0.0001984774 0.0001663033 -0.6471701945 0.5482771004
350297900.0 -0.1092154524 0.0961882653 0.0002036693 0.0001718878 0.0001371577 4.60423e-05 -0.6412464004 0.5552740233
355297870.0 -0.108282618 0.0969900724 0.000186688 -7.83166e-05 0.0001824912 0.0002901945 -0.6357176215 0.5618983568
360297840.0 -0.1076835571 0.0981647715 8.75725e-05 1.94512e-05 0.0001143169 0.0001535112 -0.6296936005 0.5684203953
365297810.0 -0.1072508149 0.099585095 0.0002218304 3.13261e-05 0.0003543896 0.0001924166 -0.6231947812 0.5752892727
370297780.0 -0.1061422704 0.1008286859 0.0001420014 9.95472e-05 0.0003439698 0.000167239 -0.6173497004 0.5814353904
375297750.0 -0.1054962646 0.1018168318 -4.19478e-05 4.95452e-05 0.0002203261 0.00029497 -0.6114287454 0.5875571742
380297720.0 -0.1047101462 0.1025890154 6.17116e-05 -3.10493e-05 -4.72398e-05 0.0001524799 -0.6053747776 0.5937136861
385297690.0 -0.1042151888 0.1040826034 0.0002338737 -2.45758e-05 0.0001106124 0.0001888689 -0.5990605645 0.6002329363
390297660.0 -0.1033879803 0.1049754261 9.36405e-05 0.0001683027 0.0001629867 -9.87472e-05 -0.592901714 0.6065934926
395297630.0 -0.1022498517 0.1061621454 8.78856e-05 1.08398e-05 0.000113344 6.56172e-05 -0.5864453825 0.6131045505
400297600.0 -0.1016845278 0.1073500956 9.28334e-05 0.0001966597 0.000201979 0.0001990074 -0.580798874 0.6191658864
405297570.0 -0.1009339216 0.108219609 0.0003243297 1.60239e-05 0.0002726129 3.56592e-05 -0.5742743212 0.6249104439
410297540.0 -0.0999535618 0.10902188 0.0003790113 -0.0001066391 6.21028e-05 0.0003602537 -0.5674844285 0.6307302987
415297510.0 -0.099120882 0.1103685102 0.0004873622 6.14772e-05 4.58485e-05 0.0001066077 -0.5609941342 0.6363815921
420297480.0 -0.098147496 0.1117718546 0.0001867003 -9.90921e-05 0.0001358636 0.0001663671 -0.5544948444 0.64227607
425297450.0 -0.0972567082 0.1126189917 0.0001184885 0.0001919597 0.0003096566 1.20969e-05 -0.5477847372 0.6477033315
430297420.0 -0.0964151429 0.1135674225 9.31349e-05 0.0001796347 0.0001468977 7.04875e-05 -0.5412513265 0.6527805745
435297390.0 -0.095407832 0.1146051176 0.0003102027 -0.0001062167 0.0001273702 7.2072e-05 -0.5342174421 0.6582741035
440297360.0 -0.0946593709 0.115611862 0.0001816847 6.85469e-05 0.0001551069 -8.08861e-05 -0.5271568975 0.6635552971
445297330.0 -0.0934464723 0.1165870749 0.0001222564 0.0003921527 1.67133e-05 0.0001043182 -0.5201845797 0.6686983565
450297300.0 -0.0925292068 0.117571956 1.54814e-05 0.0002293576 1.33232e-05 -2.11176e-05 -0.513279847 0.6737409238
455297270.0 -0.0918386218 0.1186896424 0.0001170224 -2.3077e-05 -5.25856e-05 0.0001029018 -0.5061605417 0.6781822623
460297240.0 -0.0905200753 0.1194765507 2.6809e-05 0.0002452516 5.62324e-05 1.75711e-05 -0.4993231465 0.6840931258
465297210.0 -0.08942932 0.1207174859 0.0003607658 0.0001611344 0.0002186884 8.83465e-05 -0.4917172344 0.6887705363
470297180.0 -0.0882659997 0.1215901207 9.33998e-05 -0.0001807603 0.0003656657 -0.0001026935 -0.4845614802 0.6943789539
475297150.0 -0.0875846217 0.1224462475 4.57711e-05 0.000255748 6.85403e-05 -0.0001789366 -0.4771124641 0.6981500677
480297120.0 -0.0862547597 0.1237362105 0.0002514167 0.0002049293 0.0001717042 5.82044e-05 -0.4699198262 0.7037247658
485297090.0 -0.0851828177 0.1244933766 0.0002424102 6.07198e-05 3.15394e-05 1.50744e-05 -0.4635736783 0.7082160755
490297060.0 -0.0846705476 0.1259827215 0.0001777594 -4.7227e-05 0.0003496047 -6.15924e-05 -0.4553750279 0.7122668594
495297030.0 -0.0835157022 0.1266911916 0.000174964 0.0001502097 0.0002484747 -7.51989e-05 -0.4485642532 0.7174126565
500297000.0 -0.08193187 0.1276989953 0.0004507533 0.0001290709 0.0001699276 0.0001376917 -0.4409874361 0.722095739
505296970.0 -0.080829337 0.1283857348 0.0002236028 -0.0001106918 0.0002012717 -0.0001203403 -0.4337953314 0.7260418766
510296940.0 -0.0799227751 0.1292644704 0.0003578504 0.0002087448 0.0001923863 0.0001777281 -0.4261320938 0.7310384304
515296910.0 -0.078614452 0.1302130093 0.0001695844 -7.35861e-05 1.5054e-06 -8.97174e-05 -0.4187000442 0.7348514094
520296880.0 -0.0778018964 0.1313622102 0.0001613908 0.0001028657 0.0002679701 -3.2105e-06 -0.4112143116 0.7391977065
525296850.0 -0.0762702591 0.1317669557 0.0002292168 4.30292e-05 0.0004397487 0.0002990963 -0.4038857458 0.7430364233
530296820.0 -0.0751280795 0.1332301366 0.0002056611 -3.94944e-05 8.75782e-05 0.0001289221 -0.3961516765 0.7474123193
535296790.0 -0.0741871784 0.133968204 0.0003130529 -0.0001746408 0.0004220367 -7.6769e-05 -0.3889178826 0.7515331023
540296760.0 -0.0730463953 0.1345296368 8.52056e-05 9.98255e-05 0.0002387562 0.0002304637 -0.3805129344 0.7555022556
545296730.0 -0.0720734396 0.1357809359 0.0004387581 2.73863e-05 0.0003816965 1.26375e-05 -0.3735463586 0.759180676
550296700.0 -0.0703580903 0.1366945735 0.0004366874 2.25788e-05 5.85584e-05 -5.93595e-05 -0.3658507307 0.7633877828
555296670.0 -0.0691083976 0.137232018 0.000448443 5.82998e-05 0.0002835337 7.2585e-05 -0.35836478 0.7672356229
560296640.0 -0.0680246081 0.1383279489 0.0003168228 1.07838e-05 0.0005159986 0.0001493934 -0.3499970555 0.7711131844
565296610.0 -0.0668507839 0.1391329357 0.0002176573 -3.68024e-05 0.000162201 1.91708e-05 -0.3425126978 0.7737713063
570296580.0 -0.0659456642 0.1397033916 0.0001144837 -6.26268e-05 0.0001912149 -2.96013e-05 -0.3348111271 0.7773313329
575296550.0 -0.0644443563 0.140928378 0.0002380941 3.7657e-06 0.0003017627 1.22727e-05 -0.3266862608 0.7807435311
580296520.0 -0.0629051541 0.1415360839 0.0004316619 0.0001918649 0.0001090302 -7.53e-06 -0.3179850157 0.7837908752
585296490.0 -0.0622250317 0.1421913972 0.0002139487 -4.763e-07 8.22141e-05 5.59234e-05 -0.3101940332 0.7875414466
590296460.0 -0.0605416595 0.142826658 0.0001702087 0.0001964062 0.0002386821 -6.74062e-05 -0.3028922227 0.7899282666
595296430.0 -0.0595147041 0.1436826086 0.0001433524 0.000145121 0.0002544035 -2.14151e-05 -0.2945170073 0.792340837
600296400.0 -0.0582436651 0.1444876044 0.0001391024 -2.7318e-06 9.75474e-05 0.0002334582 -0.2867539628 0.7953403587
605296370.0 -0.0570083874 0.1451935764 0.0004940215 -0.000226538 0.0002285296 0.000137816 -0.2777086236 0.7982028313
610296340.0 -0.0558078672 0.1459568048 0.0003870427 1.1309e-05 0.0003364368 7.86881e-05 -0.2705552681 0.8005559471
615296310.0 -0.0537781576 0.1466432724 0.0003685607 1.47249e-05 0.0001661431 3.98703e-05 -0.2615254241 0.8035177886
620296280.0 -0.0529716722 0.1471569947 0.0003628557 -0.0001432601 0.0002436446 4.36191e-05 -0.2544300323 0.8060239219
625296250.0 -0.0514810267 0.1477068237 4.95674e-05 6.30174e-05 -0.000106053 0.0001841952 -0.245135004 0.8076885437
630296220.0 -0.0497727749 0.1483337734 0.0003449252 0.0001667551 0.0002132428 0.000117082 -0.2377234844 0.8105865495
635296190.0 -0.0488345985 0.1492744196 0.0002364136 7.0722e-05 0.0003628856 2.25417e-05 -0.2296470826 0.8128935802
640296160.0 -0.0473018121 0.1499419606 0.0002789314 7.02059e-05 0.0001571165 0.0001834253 -0.2210202984 0.8153858897
645296130.0 -0.0460901003 0.1508270379 3.55276e-05 6.29021e-05 0.0001875875 0.000180077 -0.2130617543 0.8171897882
650296100.0 -0.0446005947 0.1512666739 0.0001734451 2.4801e-05 0.0003567258 8.21177e-05 -0.2046170262 0.8185360918
655296070.0 -0.0434492794 0.151859236 0.0002868539 0.0002488941 0.0002937223 -4.93071e-05 -0.1961762865 0.8207194316
660296040.0 -0.0419668967 0.1525566197 0.0005566782 -0.0001730211 0.0002819649 0.0001174661 -0.1874708241 0.8230638789
665296010.0 -0.040480633 0.1528738499 0.0003197198 0.0002240233 0.0004726425 0.0001912243 -0.1793359117 0.8253079939
670295980.0 -0.039289739 0.1537446977 0.0002903223 -0.0001134408 0.0001141264 -0.000130396 -0.1720355365 0.8267551568
675295950.0 -0.0377487585 0.1540154109 0.0002172873 9.57392e-05 0.0003796143 -8.64023e-05 -0.1635459649 0.8289585998
680295920.0 -0.0361425387 0.154793553 0.0004246268 -0.0001438672 0.0002228857 -0.0002131027 -0.1546226606 0.8306103845
685295890.0 -0.0347051133 0.1554671362 -0.0001238116 -0.0003669817 0.0002497464 -5.4299e-05 -0.1465798445 0.8319432071
690295860.0 -0.033430033 0.1556865203 0.000413335 -0.0001015868 0.0003592988 2.09718e-05 -0.1383625568 0.8332503861
695295830.0 -0.0323464017 0.1563383167 0.0002051863 -0.0001211315 7.53594e-05 -8.7725e-06 -0.1294083428 0.8347816579
700295800.0 -0.0304650578 0.1566025531 0.000366417 8.79194e-05 0.0002482207 -0.0001302335 -0.1225649522 0.8359946657
705295770.0 -0.0294142974 0.1572660319 0.0003318689 6.52725e-05 0.0001815304 -4.42944e-05 -0.1133530887 0.8382583994
710295740.0 -0.0276580178 0.1577139647 0.0001880145 1.34906e-05 0.0001767093 0.0001647833 -0.1047493557 0.8382911459
715295710.0 -0.0265483182 0.1581419205 0.0002458017 -0.0001220933 0.0003417748 -4.63863e-05 -0.0964460571 0.8394732134
720295680.0 -0.0248153159 0.158673525 0.0003866278 -2.09375e-05 0.0001632903 6.87454e-05 -0.087919756 0.8404365241
725295650.0 -0.0233874398 0.159454423 0.0001312402 0.0001664631 0.0002923979 -0.0001027346 -0.079408402 0.8417905045
730295620.0 -0.0218283876 0.1596747343 7.40479e-05 -4.99644e-05 0.0003315795 -2.78518e-05 -0.0722385145 0.8420047473
735295590.0 -0.0203531817 0.1600392377 0.0004827308 -0.000227267 0.0002189512 8.08439e-05 -0.0631364245 0.8426895727
740295560.0 -0.0193535854 0.1604164255 0.0002992709 0.0001597437 0.0006275387 -0.0001049386 -0.0537510105 0.844091938
745295530.0 -0.0174481371 0.1607947555 0.0003053204 -0.0001806038 0.0001778865 -9.37387e-05 -0.0458819325 0.8438486089
750295500.0 -0.0159242736 0.1612483364 0.0003727285 -8.19058e-05 0.00016041 -0.0001210599 -0.0380204612 0.844318202
755295470.0 -0.0145620972 0.1616553771 0.0003316113 -2.6038e-05 0.0002428073 1.38819e-05 -0.0290198088 0.843553379
760295440.0 -0.0130450181 0.1620989775 0.0004372005 4.4554e-06 0.0002724853 0.0001844626 -0.0207479709 0.8442868098
765295410.0 -0.0113853651 0.1623092613 0.0001777263 -3.62341e-05 0.0002389409 -0.0002452239 -0.0122661588 0.8448680309
770295380.0 -0.0101810635 0.1627582205 0.000222109 -5.25351e-05 0.0002577855 3.02694e-05 -0.0038576762 0.8444094255
775295350.0 -0.00858205 0.1627905475 0.0002737884 -6.70642e-05 0.0003814069 -4.715e-05 0.0035778756 0.8437945508
780295320.0 -0.0069320894 0.1629636661 0.0001990621 -0.0001341845 0.0001821786 -1.77344e-05 0.012474663 0.8435259094
785295290.0 -0.0057522868 0.1630034763 0.0002721724 -0.0001470981 0.0005152026 -6.42033e-05 0.0212199277 0.8435777869
790295260.0 -0.0038699001 0.1635744668 0.0002736737 -7.94804e-05 0.0002987246 6.89932e-05 0.0297648561 0.8435174174
795295230.0 -0.0026091005 0.1637436406 0.0003248851 -0.0001216797 0.0003521032 5.17607e-05 0.0385194973 0.842573892
800295200.0 -0.0007653864 0.164120663 0.0001839862 -0.0001152286 0.000308657 -0.0001192852 0.0468783086 0.8425127793
805295170.0 0.0008517104 0.1639306145 0.0002135891 -0.0001543302 0.0001505924 -3.46e-08 0.05483686 0.8423230333
810295140.0 0.0023580569 0.1642548685 0.0003321096 0.0001127186 0.0003268726 -4.71267e-05 0.0634407539 0.8413768197
815295110.0 0.0035051462 0.1643852779 0.0002954415 -1.26418e-05 0.0003173477 -2.49774e-05 0.0721816008 0.8407514897
820295080.0 0.0052113927 0.1649446477 0.000237149 0.0001154218 1.87232e-05 -4.47013e-05 0.0806509212 0.8402091948
825295050.0 0.0072156391 0.164599931 0.0001418426 -0.000168344 0.0003954862 -0.0002577688 0.0886553435 0.8392600016
830295020.0 0.0084592865 0.1650402959 0.0004019212 -3.81546e-05 0.0003734081 3.84955e-05 0.0978721463 0.8383987599
835294990.0 0.0096889531 0.1653919308 0.0001597088 -0.0003046098 0.0002976607 -0.0001260383 0.1051855011 0.8379800054
840294960.0 0.0115104391 0.1654420744 0.0003872999 -1.95918e-05 0.0003983757 -0.0001149537 0.1141220156 0.8360027797
845294930.0 0.013151432 0.1652672342 0.0003994247 4.9036e-06 0.000237156 -6.36598e-05 0.1215861506 0.8351657925
850294900.0 0.0145874729 0.1655921646 0.0003468237 -0.0001460801 0.0002038024 0.0001328424 0.1299485114 0.8335637529
