!Created with skrf (http://scikit-rf.org).
# Hz S RI R 50.0 
!freq ReS11 ImS11 ReS21 ImS21 ReS12 ImS12 ReS22 ImS22
300000.0 -0.7741291753 -0.1387263643 -0.0005082906 0.0007052915 -0.0011057297 0.0012515864 -0.2113740382 -0.0932608521
5299970.0 -0.7855147409 -0.0073104804 7.89994e-05 -8.86317e-05 7.87801e-05 7.12851e-05 -0.2166256096 0.0069157396
10299940.0 -0.7879221911 -0.0042358722 -4.32828e-05 -0.0001236455 8.85967e-05 6.70268e-05 -0.2133884085 0.01861759
15299910.0 -0.7936461247 -0.0014831459 9.96207e-05 -0.0002193027 -2.69646e-05 6.69353e-05 -0.2084543284 0.0279311999
20299880.0 -0.7996919624 0.0024503862 -1.74719e-05 0.0001110661 1.05347e-05 7.38008e-05 -0.2033986247 0.0355707625
25299850.0 -0.8063244884 0.0082504712 -1.23549e-05 0.0002011946 4.42861e-05 4.66001e-05 -0.1977377472 0.0416423812
30299820.0 -0.8119702939 0.0162275583 -2.9092e-06 -1.49777e-05 0.0001179772 -0.000189526 -0.1919309161 0.0463640386
35299790.0 -0.8170624192 0.0255911998 8.46817e-05 -0.000115339 2.29899e-05 9.29059e-05 -0.1861550316 0.0499011359
40299760.0 -0.8215924817 0.034244743 0.000219487 3.1969e-06 1.31127e-05 0.0001729935 -0.1804807211 0.0529431214
45299730.0 -0.8248939369 0.0437324461 5.54293e-05 0.0001159913 -9.41736e-05 -5.816e-07 -0.1755030181 0.0551297155
50299700.0 -0.8268638229 0.0537692306 0.0001600864 9.91854e-05 9.3544e-05 2.03704e-05 -0.1706093781 0.0567863886
55299670.0 -0.8286879096 0.0642966177 -2.3429e-05 0.0001360549 -0.0001904732 -4.20082e-05 -0.1665891466 0.0576540585
60299640.0 -0.829736803 0.0743294969 4.51214e-05 0.0002305928 0.0001259652 -0.000132859 -0.1625981164 0.058108175
65299610.0 -0.8309420235 0.0850377186 -0.00011536 8.81664e-05 -0.0001250568 -3.80615e-05 -0.1588690114 0.0590231983
70299580.0 -0.8313602668 0.0948235721 -1.3869e-06 -3.98201e-05 7.75374e-05 5.121e-06 -0.1554035381 0.0591034523
75299550.0 -0.8316453557 0.1045444863 8.27557e-05 0.0001277147 -0.0001110763 -0.0001782081 -0.1526571543 0.0594430514
80299520.0 -0.8314571417 0.1142948264 4.1517e-06 6.87776e-05 0.0002083631 0.0001057023 -0.1502465098 0.0596732991
85299490.0 -0.830500925 0.1242128567 -4.94039e-05 -0.0001083594 0.0002428429 -7.85039e-05 -0.1478151255 0.0595513361
90299460.0 -0.8299791663 0.1338274066 -0.0001190828 0.0001092558 -1.66333e-05 4.87649e-05 -0.1453228073 0.0595008486
95299430.0 -0.8288881769 0.1434327619 0.0001001796 0.0002009171 -0.0002446029 0.0001068568 -0.1433535081 0.0596874483
100299400.0 -0.8282129903 0.1530221688 0.0001157907 0.0001291909 -3.3177e-06 0.0002895138 -0.1417563035 0.0593231887
105299370.0 -0.826772948 0.162240764 0.0001719261 5.07911e-05 -0.0001906988 -0.0001323628 -0.1399208358 0.0591798896
110299340.0 -0.8255779888 0.1706381676 6.80912e-05 1.43758e-05 3.39014e-05 -0.0001418528 -0.1386564615 0.0593035039
115299310.0 -0.8235374426 0.1800971676 0.0001302221 1.74122e-05 -9.78673e-05 0.0001142916 -0.1374090794 0.0592778042
120299280.0 -0.8224598104 0.1895506094 1.36128e-05 2.88507e-05 0.0002424967 -3.21603e-05 -0.1361894823 0.059263298
125299250.0 -0.8203893853 0.1983785097 3.7666e-05 -6.9347e-05 -1.68188e-05 6.72201e-05 -0.1348493717 0.0592248885
130299220.0 -0.8183960357 0.2082557819 4.48009e-05 -3.75683e-05 2.08904e-05 7.64728e-05 -0.1343634234 0.0596865672
135299190.0 -0.8166936201 0.2163783269 -8.45894e-05 -4.76165e-05 -7.32574e-05 4.95214e-05 -0.1332205638 0.059508462
140299160.0 -0.8146458458 0.2256471866 -3.35825e-05 5.5157e-06 6.94981e-05 2.95662e-05 -0.1320060271 0.0594093906
145299130.0 -0.812206694 0.233967917 0.0002115273 5.02358e-05 8.93436e-05 -8.7416e-05 -0.1317316446 0.0602185869
150299100.0 -0.8101948386 0.243372416 0.0001679377 1.04919e-05 6.95967e-05 0.0001440018 -0.1309048176 0.0603507719
155299070.0 -0.8078632041 0.2525021732 0.0001516328 -9.6958e-06 2.11273e-05 0.0001590938 -0.1304479902 0.060906004
160299040.0 -0.8049181957 0.2614009295 2.76654e-05 0.0001609163 7.17143e-05 3.97942e-05 -0.1295441573 0.0612284508
165299010.0 -0.802401253 0.2696007869 0.0001088279 5.62009e-05 5.4667e-06 6.53689e-05 -0.1288833928 0.0615203269
170298980.0 -0.800129426 0.2785905048 0.00016384 8.40265e-05 0.0002055054 3.49633e-05 -0.1283529813 0.0624031497
175298950.0 -0.7965653418 0.2871922132 -7.6173e-05 0.0001816397 -4.10161e-05 -6.3849e-05 -0.1279708107 0.0625412231
180298920.0 -0.7936872068 0.2947968459 0.000189701 -0.0002915303 0.0001042164 6.07129e-05 -0.1269356487 0.0633611528
185298890.0 -0.7908179595 0.3040880874 8.43714e-05 -2.73042e-05 -0.0001720969 -0.0001563519 -0.1266962508 0.0633807996
190298860.0 -0.7873338641 0.3121371748 -5.42338e-05 0.0002157301 1.08539e-05 0.0001104779 -0.1258770129 0.0644423422
195298830.0 -0.784322066 0.3207753934 8.47042e-05 1.28275e-05 1.48412e-05 0.0001192844 -0.1255239362 0.064995374
200298800.0 -0.7807293086 0.3297352855 -9.09429e-05 0.000129252 -2.18205e-05 0.0001134122 -0.1247699449 0.0658173218
205298770.0 -0.7774049965 0.3373052061 2.77117e-05 3.60108e-05 0.000216855 0.0001078109 -0.1249374517 0.066111094
210298740.0 -0.7733703793 0.3453126706 0.0001003513 -4.72408e-05 0.0001315612 0.0001620221 -0.12402054 0.0672366917
215298710.0 -0.7700648803 0.353927089 -7.15358e-05 0.0001094233 0.0001999612 0.0001168445 -0.1239457276 0.0681521119
220298680.0 -0.7670645168 0.3621390888 -9.26118e-05 0.0001581856 0.0001240116 0.0001428679 -0.1230773491 0.069019283
225298650.0 -0.7627864526 0.3708706949 0.0001693463 6.5718e-06 -9.76802e-05 0.00013054 -0.1229386104 0.0698740447
230298620.0 -0.7585298579 0.378632784 -0.0001606436 -3.146e-05 -0.0001493815 -6.78506e-05 -0.1222049742 0.0704974949
235298590.0 -0.7547979873 0.3872267526 0.000117495 3.49691e-05 3.8832e-05 0.000239218 -0.121741362 0.0712408768
240298560.0 -0.7510255525 0.3951111462 -0.0001002944 -3.80525e-05 5.68347e-05 0.0001883288 -0.1214189722 0.0721803738
245298530.0 -0.7465383849 0.402981925 0.0001437838 1.2985e-05 9.16195e-05 0.0001875659 -0.120456967 0.0735097349
250298500.0 -0.7422231298 0.4110222862 0.0001937613 -9.38993e-05 0.0001817918 0.0002092017 -0.1200232287 0.0744073213
255298470.0 -0.7376895777 0.4191344528 4.35254e-05 0.0001509285 -5.75044e-05 0.0003203119 -0.1195932297 0.0749862218
260298440.0 -0.7334679609 0.4261969107 7.20639e-05 1.17405e-05 0.0002160214 0.0002569308 -0.1190939268 0.0759209675
265298410.0 -0.7291703817 0.4341896261 0.0002175181 0.000142503 3.10773e-05 0.0001937028 -0.118519206 0.0767312728
270298380.0 -0.7247041696 0.4418660008 0.0001591214 -3.75387e-05 6.22646e-05 0.000295929 -0.1177377545 0.077749341
275298350.0 -0.7190941123 0.449121449 -8.2873e-05 -4.44443e-05 9.11575e-05 0.0002411491 -0.1175077415 0.078861745
280298320.0 -0.7153981187 0.4565176667 0.0002558722 1.8516e-05 0.0002255385 7.43227e-05 -0.1165707403 0.0797980953
285298290.0 -0.7101030497 0.4645347051 0.0001837515 -0.0002537567 8.9839e-05 0.0001579446 -0.1161017874 0.0808156979
290298260.0 -0.7052908157 0.4715629393 6.68179e-05 -4.32554e-05 0.0001029238 3.09731e-05 -0.1152385696 0.0821191
295298230.0 -0.7004945354 0.4793869391 0.0001911406 9.54472e-05 0.0002398027 3.90078e-05 -0.1147398011 0.082888623
300298200.0 -0.6948313995 0.4866726335 4.4963e-05 0.0001918265 0.0001381293 -8.61123e-05 -0.1141138625 0.0841934535
305298170.0 -0.6900110101 0.4942799512 0.0002576041 0.0001195692 -4.44744e-05 -2.13079e-05 -0.1129279501 0.0853973769
310298140.0 -0.6845061626 0.5010637716 -1.0081e-05 5.6392e-05 0.0003081445 -2.38707e-05 -0.1124231961 0.086482927
315298110.0 -0.679443548 0.507927851 -4.02412e-05 0.0002188903 3.34433e-05 -1.89293e-05 -0.1117768878 0.0871122258
320298080.0 -0.6740716174 0.5152308862 4.52074e-05 0.0001595326 -6.35898e-05 0.0002456599 -0.1108631085 0.0879987561
325298050.0 -0.6684577903 0.5220855573 0.0001477967 9.2659e-05 0.0002592909 6.2569e-06 -0.1105955833 0.0893987227
330298020.0 -0.6629964935 0.52967909 0.0003068078 4.77287e-05 -8.0322e-06 -3.41285e-05 -0.1098189436 0.0901314832
335297990.0 -0.6570150971 0.5361920065 1.6321e-05 -7.43826e-05 -7.54044e-05 3.83577e-05 -0.1093413007 0.0910644648
340297960.0 -0.6523129888 0.5427099873 0.000456105 -1.1086e-06 5.9212e-05 -4.66308e-05 -0.1085732359 0.0923450203
345297930.0 -0.6462384476 0.5489745056 8.81901e-05 1.64112e-05 0.0001238802 1.3778e-06 -0.1080646621 0.0936719949
350297900.0 -0.6410029354 0.5561269415 7.30178e-05 0.0001039472 -6.13325e-05 5.56561e-05 -0.1071492474 0.0947331281
355297870.0 -0.6345644234 0.5624032288 4.87567e-05 1.2221e-06 5.70633e-05 0.0002754409 -0.1067563285 0.0961128826
360297840.0 -0.628638235 0.5691482048 0.0002170242 6.91324e-05 1.67896e-05 3.0983e-06 -0.1058739422 0.0973983329
365297810.0 -0.6224425381 0.5758006357 0.000355382 0.0002644704 8.36e-07 8.79812e-05 -0.1048983517 0.0985887645
370297780.0 -0.6163349221 0.5814824393 0.0001931272 -0.0001537623 0.0002309105 -1.9608e-06 -0.1046714086 0.099245146
375297750.0 -0.610083827 0.5881989272 0.0003103938 9.79354e-05 0.0001912815 0.0001104463 -0.1034453019 0.1008078792
380297720.0 -0.6037707074 0.5948052778 4.54046e-05 2.24697e-05 0.0001123595 0.0001411452 -0.1026272736 0.1021723914
385297690.0 -0.5979928592 0.6009844665 4.06164e-05 5.53919e-05 0.0002224695 5.19115e-05 -0.1018414784 0.1033576707
390297660.0 -0.5914232951 0.6072858216 8.69705e-05 0.000295188 0.0001480729 7.24682e-05 -0.1010290013 0.1044601038
395297630.0 -0.5851711803 0.6134861466 5.59554e-05 3.49649e-05 0.0001197855 0.0004171274 -0.1004791717 0.1055118838
400297600.0 -0.5786357056 0.6190369064 0.0001804488 7.83884e-05 0.0002825257 6.91101e-05 -0.0996994332 0.1064870312
405297570.0 -0.5731911712 0.6252311064 0.0003592687 0.0001787921 0.0003347932 0.000139354 -0.0987907588 0.1076787216
410297540.0 -0.5662122897 0.6308127749 6.64975e-05 -7.27101e-05 0.0001355437 8.96163e-05 -0.0977998892 0.1088479189
415297510.0 -0.5593433622 0.6365903486 -6.33715e-05 8.71646e-05 -0.0001434929 7.62732e-05 -0.0968615296 0.1102307075
420297480.0 -0.5519480062 0.6422402605 0.000298062 3.5787e-05 0.0003014061 0.0001713268 -0.096199638 0.1109345995
425297450.0 -0.5457498904 0.647939893 0.0002627138 1.67971e-05 0.0001681322 -1.366e-06 -0.0950048076 0.1121174626
430297420.0 -0.540042461 0.6532754671 0.0001562875 0.0001415028 0.0003096698 8.92514e-05 -0.0942305037 0.1130561299
435297390.0 -0.5321062968 0.6592962357 0.0002179337 0.0003120076 0.0003485275 1.02927e-05 -0.0930453562 0.1146278826
440297360.0 -0.5251756237 0.6646565463 0.0001728265 -0.0002722545 0.0002131234 5.28691e-05 -0.0922661249 0.115442311
445297330.0 -0.5177936488 0.6704054932 0.0002592578 -0.0002032556 0.000142074 3.56492e-05 -0.0914418253 0.1164740182
450297300.0 -0.5116158684 0.6749221141 0.0003200447 -7.6161e-05 0.0002182151 0.0002032785 -0.0904460888 0.1178377559
455297270.0 -0.5043905464 0.6801872923 0.0003223932 0.0001900635 0.0002628396 7.62494e-05 -0.0892960542 0.1187815921
460297240.0 -0.4974364836 0.6851688096 -2.10181e-05 6.30538e-05 5.33068e-05 5.07162e-05 -0.0882369152 0.1199756904
465297210.0 -0.4899757765 0.6902867406 0.0002481724 -0.0001591145 6.93683e-05 -4.38231e-05 -0.0878345573 0.1211561173
470297180.0 -0.4826825915 0.6950068874 0.0001740245 0.0001278471 0.0001370741 0.00018477 -0.0868663498 0.122217406
475297150.0 -0.4758534063 0.7002225976 0.0002001148 0.0001942888 0.0002808773 -4.35227e-05 -0.0855500372 0.1231382542
480297120.0 -0.4689899633 0.7046522234 0.0001799103 1.4627e-06 0.000241889 0.0001919535 -0.084381327 0.1243852863
485297090.0 -0.4611221399 0.7094747122 0.0001919383 0.0001032881 0.0002276607 0.0001889252 -0.0836620462 0.1251027612
490297060.0 -0.4543280953 0.7137804724 0.0002706793 7.1386e-06 0.0003483178 0.000123845 -0.0824786066 0.1261293578
495297030.0 -0.4469468521 0.7184123449 0.0001401294 -0.0001255713 0.0003715003 4.6241e-05 -0.0814890097 0.1270162665
500297000.0 -0.4389653054 0.7233658807 7.39498e-05 1.49686e-05 0.0002202448 0.000174229 -0.0802665544 0.1281340658
505296970.0 -0.4316140601 0.727377347 0.0001217844 5.65435e-05 0.0001931174 0.0002535391 -0.0796838086 0.1293654486
510296940.0 -0.4244978686 0.732290081 0.0002615017 8.526e-07 0.0002197985 -5.628e-06 -0.078415953 0.1301179384
515296910.0 -0.417262682 0.7358850892 0.0002372913 9.70091e-05 7.87271e-05 5.95428e-05 -0.0768497108 0.1309407825
520296880.0 -0.4094576383 0.740458027 6.37714e-05 0.0001352487 0.0001029773 0.0001300845 -0.0759286026 0.1320024958
525296850.0 -0.4017765616 0.7446537803 0.0002496317 1.25621e-05 0.0002473514 0.0001577191 -0.0747753717 0.1328142835
530296820.0 -0.3943827893 0.7483313857 0.0002878363 1.21761e-05 0.0001488299 -7.32044e-05 -0.0742346511 0.1336508512
535296790.0 -0.3861366147 0.7523476433 0.000210386 0.0001100283 0.0002136781 0.0002188239 -0.0728893077 0.1345221894
540296760.0 -0.3785563713 0.7560171872 0.0003023742 0.0002159235 0.0001987588 -7.20154e-05 -0.0718825112 0.1357588515
545296730.0 -0.3716107613 0.7596387025 4.78994e-05 0.0001152724 0.0001703209 4.60417e-05 -0.0706007222 0.1364309261
550296700.0 -0.3628411307 0.763907734 0.0002231707 -0.0001147212 0.0003404245 8.29296e-05 -0.069329175 0.1371266359
555296670.0 -0.3549277936 0.7671168648 0.0001577072 7.9726e-05 0.0003770663 -1.98997e-05 -0.0685112553 0.1381758231
560296640.0 -0.3474856404 0.7708268434 8.23316e-05 -3.828e-07 0.000254074 -5.25984e-05 -0.0671597365 0.1389877578
565296610.0 -0.3396508499 0.7739938581 0.0002124636 5.68194e-05 0.0001652804 0.0001152807 -0.0658610917 0.139844768
570296580.0 -0.3317566756 0.7769038758 0.0003329113 2.09217e-05 0.0003213462 -2.1245e-05 -0.0650118109 0.1408750932
575296550.0 -0.3232993862 0.7808396604 0.0002521408 0.0001580268 0.00018838 -1.04498e-05 -0.0632606133 0.1415651083
580296520.0 -0.3154950282 0.7842210677 8.4566e-05 0.0002179528 0.0002920496 6.61606e-05 -0.0621238309 0.1426994143
585296490.0 -0.3077632136 0.786550949 0.0001258226 -5.28546e-05 0.0002145583 0.0001267709 -0.0610631596 0.1427356888
590296460.0 -0.299285808 0.7896440821 0.0001159982 -1.89269e-05 0.0003442531 3.54053e-05 -0.0597817637 0.1438248413
595296430.0 -0.2915074631 0.7936540704 0.0002038328 -3.07519e-05 0.0001700078 0.0002309509 -0.0586374204 0.1444336054
600296400.0 -0.2833789605 0.7956589589 0.0001881194 -8.78291e-05 0.0002845327 0.0001579043 -0.0573643486 0.1452869483
605296370.0 -0.2756976243 0.7990451944 0.0002542317 0.0002290598 0.000140647 -8.96787e-05 -0.0561197943 0.1459396488
610296340.0 -0.2677685262 0.8016629438 0.0003064799 0.0002025495 0.0002717782 0.0001063497 -0.0547950723 0.1468181753
615296310.0 -0.2590045287 0.804479331 8.26907e-05 0.0001589134 0.0001627464 -5.2371e-05 -0.0533831947 0.1473459409
620296280.0 -0.2504093805 0.8062142956 0.0003124842 -0.0001052018 0.0002269837 -9.09102e-05 -0.0523117648 0.1479338477
625296250.0 -0.2431398486 0.809265534 0.000128579 3.422e-06 4.97375e-05 -1.56035e-05 -0.0509135854 0.148770336
630296220.0 -0.2342959822 0.8116275602 0.0004287343 0.0001923597 0.0003347585 6.59995e-05 -0.0494196295 0.1497391544
635296190.0 -0.2261459205 0.8140001744 0.0003273209 1.75914e-05 9.05909e-05 -0.0001008698 -0.0483032611 0.1502466401
640296160.0 -0.2180139873 0.815533216 -2.3642e-05 -2.76586e-05 0.0003212199 5.45834e-05 -0.0468299975 0.1507800304
645296130.0 -0.2098770411 0.8182828467 0.0002396216 -2.66599e-05 0.0003690948 0.0001374731 -0.0456705536 0.1514002602
650296100.0 -0.2016683299 0.8201988514 0.0003922863 -4.41688e-05 7.33936e-05 1.3797e-05 -0.0446601002 0.1523405315
655296070.0 -0.1930774906 0.8220711776 0.0001940203 -9.44715e-05 0.0003731658 -2.19011e-05 -0.0426810332 0.1525721557
660296040.0 -0.185485667 0.8243666644 0.0003854961 0.0001630958 5.43452e-05 -0.0001728042 -0.0415914527 0.1532508452
665296010.0 -0.1770825914 0.8262771532 7.01297e-05 0.000219871 0.0004294393 0.0002194645 -0.0403604953 0.1541740282
670295980.0 -0.1679921814 0.8277358618 0.0001172589 8.82986e-05 0.0004534302 0.0002105873 -0.038915055 0.1545648307
675295950.0 -0.159850927 0.8288537825 0.0001573161 6.38061e-05 0.0003268632 -9.42329e-05 -0.037407329 0.1550965501
680295920.0 -0.1515119852 0.830694029 0.0003372811 -5.94952e-05 0.0003257218 -2.15772e-05 -0.0358817489 0.1558544965
685295890.0 -0.1429423254 0.832103477 0.0003617326 -7.78593e-05 0.0002927398 0.0001883331 -0.0346984062 0.1562243947
690295860.0 -0.1341563425 0.8338765308 3.10438e-05 -5.62932e-05 0.0002770601 -1.91193e-05 -0.0330126616 0.1566981277
695295830.0 -0.1258564639 0.8342564463 0.0001427866 -5.72128e-05 0.0002533955 -9.27996e-05 -0.0319867987 0.1575484168
700295800.0 -0.1178140906 0.8353746063 0.0002061534 5.009e-07 0.000301741 -3.79116e-05 -0.0302685227 0.1577111462
705295770.0 -0.1089031398 0.8374678325 -7.5106e-06 6.24928e-05 0.0002917287 -0.0002081658 -0.0289572841 0.1583940437
710295740.0 -0.1011713267 0.8384841214 0.0003540338 -0.000237026 0.0002229962 -8.37511e-05 -0.0278969525 0.1590456264
715295710.0 -0.0933130843 0.8391963143 6.08038e-05 3.88786e-05 0.0002868579 -0.0001896224 -0.0261079519 0.1590891972
720295680.0 -0.0842148277 0.8400553258 0.0005079392 -3.14596e-05 0.0004734995 2.11909e-05 -0.0245723944 0.1598267138
725295650.0 -0.0751489473 0.840907513 0.0003794749 -9.54284e-05 0.000300293 0.000227376 -0.0234310039 0.1604076467
730295620.0 -0.0671417155 0.841553192 5.82867e-05 7.2828e-06 0.0001850219 -0.0001457998 -0.021704395 0.1607364753
735295590.0 -0.0578623065 0.8423319247 0.0001729684 -8.23969e-05 0.0002018586 7.24622e-05 -0.0203264221 0.1610423307
740295560.0 -0.0495918734 0.8429375668 0.0001295669 2.54965e-05 0.0003123161 0.0001585521 -0.0187234954 0.1611032469
745295530.0 -0.041689648 0.8428830907 0.0002074292 -5.91867e-05 0.0003676505 1.34815e-05 -0.0173288128 0.1619202963
750295500.0 -0.0338580825 0.8433258558 0.0002057266 -6.59886e-05 0.0003170724 2.2899e-06 -0.0155808754 0.1617163871
755295470.0 -0.0246791841 0.8438009283 0.000267197 -0.0001990492 0.0002111721 6.5387e-05 -0.0143436716 0.1627365779
760295440.0 -0.0161983214 0.8439145603 0.000128972 -0.0002354068 0.0003328872 1.21178e-05 -0.0130917747 0.1627953419
765295410.0 -0.0077998083 0.8436548189 0.0003635709 -1.72339e-05 0.0003732011 0.0002487093 -0.011312651 0.1634819354
770295380.0 0.0008245751 0.8443483063 0.000298418 -0.0002565672 0.0002975262 -0.0002125744 -0.0097881703 0.1634033383
775295350.0 0.0087624601 0.8437529122 0.0004747709 4.1966e-06 0.0003022302 -0.000173783 -0.0085886525 0.1636610994
780295320.0 0.0176395935 0.8430048214 0.0003398688 -0.0001346984 0.0004104892 -2.03057e-05 -0.0069207578 0.1642754571
785295290.0 0.0260908482 0.8442005969 0.0001204328 9.72152e-05 3.25359e-05 1.93715e-05 -0.0058010749 0.1646310145
790295260.0 0.0340255385 0.8429353773 0.0005658606 -2.97832e-05 0.0004413911 1.3337e-06 -0.0039048404 0.1645085931
795295230.0 0.0427764394 0.8432705114 0.0001782231 7.6232e-05 0.0002935009 -1.99947e-05 -0.0022437801 0.1650238546
800295200.0 0.0514619262 0.8423638574 0.0001762162 5.94649e-05 0.0002155791 -0.0001939594 -0.0008356681 0.1650198312
805295170.0 0.0597361534 0.8422013065 0.0003172263 -0.0001242047 0.0002741783 -1.55736e-05 0.0005482765 0.1653785319
810295140.0 0.068180262 0.841544635 0.0003432822 0.0001402759 0.0002773742 -1.90728e-05 0.0021225917 0.1660619226
815295110.0 0.0770330448 0.840128601 0.0002478517 4.5859e-05 0.0002206182 -9.1392e-06 0.003761108 0.1658983182
820295080.0 0.0856830418 0.839337353 5.45455e-05 -0.0002289991 0.000260361 -9.6133e-05 0.0050505021 0.1660655979
825295050.0 0.0939180836 0.8383995529 0.0003443333 -0.0001630271 0.0002290631 2.16573e-05 0.0069242151 0.1658973255
830295020.0 0.1016562372 0.8380241605 0.0001329624 -4.16147e-05 0.0002998593 -0.0001974158 0.0080311026 0.1664804426
835294990.0 0.1099399701 0.8366491021 0.0002669021 2.5271e-05 0.0003349471 -4.48298e-05 0.0099293283 0.1664816357
840294960.0 0.1187715443 0.8351062889 0.0002819562 5.1748e-06 0.0002561173 5.2201e-06 0.0111100828 0.1667323911
845294930.0 0.1269077719 0.8346321936 0.0004437384 3.55903e-05 0.0002019428 9.2075e-06 0.0127931894 0.1669539958
850294900.0 0.1349661364 0.832842807 0.0002834771 5.44304e-05 0.0001807276 -2.19865e-05 0.0143265955 0.1671341713
