!Created with skrf (http://scikit-rf.org).
# Hz S RI R 50.0 
!freq ReS11 ImS11 ReS21 ImS21 ReS12 ImS12 ReS22 ImS22
300000.0 -0.7777995808 -0.1068074158 0.0007811667 0.0013628996 0.0004372586 0.0014354245 -0.2122476975 -0.0857538641
5299970.0 -0.7849789918 -0.0063211479 0.0002395881 1.62707e-05 0.0001778677 -9.6999e-06 -0.2149595932 0.0081717768
10299940.0 -0.7877150113 -0.0045043817 -0.0001712711 0.0001682314 -7.59026e-05 5.98656e-05 -0.2110131603 0.0216390184
15299910.0 -0.7933684775 -0.0022008046 -4.24702e-05 -0.0001685163 -2.66186e-05 -5.7138e-06 -0.2060909635 0.0309606633
20299880.0 -0.799746679 0.0016559107 -5.23766e-05 -0.0001224624 -1.26238e-05 0.0002155266 -0.2001316189 0.0392205092
25299850.0 -0.806249939 0.0078244474 -0.0001868143 3.66603e-05 0.0001782593 -9.35213e-05 -0.1937938953 0.0458952218
30299820.0 -0.8120624544 0.015427533 -0.0001281821 8.46401e-05 -9.06318e-05 -8.01016e-05 -0.1871542952 0.0509308504
35299790.0 -0.8170996455 0.0247224083 5.1753e-06 7.31257e-05 -4.98772e-05 0.0001013438 -0.1810680866 0.054894138
40299760.0 -0.8213070117 0.033690217 -3.94247e-05 -0.0001197424 -2.3804e-06 -0.0001813629 -0.1749423833 0.0575071788
45299730.0 -0.8247448844 0.042601453 8.61151e-05 0.0001418232 2.56534e-05 -3.2045e-05 -0.169495841 0.0598236461
50299700.0 -0.8267763513 0.0531790037 -6.55109e-05 -3.80645e-05 -4.51563e-05 -7.83826e-05 -0.1644099678 0.0609076862
55299670.0 -0.8290353408 0.0631499273 -5.38616e-05 -2.01671e-05 0.0001778879 3.7421e-06 -0.1596461164 0.0618156529
60299640.0 -0.8302702736 0.073404895 9.414e-06 0.000197487 -2.75207e-05 0.000151175 -0.1548442282 0.0625113591
65299610.0 -0.8309890467 0.0831700867 8.361e-05 -5.1951e-06 8.67236e-05 -2.9878e-05 -0.1514095356 0.0626697353
70299580.0 -0.8316321928 0.0931244011 -9.94869e-05 0.0002350409 2.8617e-05 -2.91696e-05 -0.1480726361 0.0629749367
75299550.0 -0.8317844223 0.1033506667 0.0002443682 0.0002143306 -6.61341e-05 -2.89357e-05 -0.1449054278 0.0627090096
80299520.0 -0.831904962 0.1130065872 3.77622e-05 4.00328e-05 9.523e-05 -0.0001011128 -0.1420098622 0.0627786094
85299490.0 -0.831232812 0.1225810118 -6.61381e-05 -1.00809e-05 6.449e-07 0.0001474469 -0.1395921008 0.0623968818
90299460.0 -0.8302456439 0.1319456667 -5.1425e-06 2.74628e-05 0.0001824696 0.0001561946 -0.1367829905 0.0617921594
95299430.0 -0.8293482153 0.1422052701 -9.1926e-05 -7.48395e-05 0.000113518 0.0001095897 -0.1348863652 0.0622396923
100299400.0 -0.8277476457 0.1510418534 0.000171531 -0.0001661052 -8.43008e-05 7.09634e-05 -0.1325674214 0.0618839182
105299370.0 -0.826829471 0.1602163835 -8.51123e-05 -2.99438e-05 -6.43923e-05 0.0001152268 -0.1307716612 0.0613493616
110299340.0 -0.8254629503 0.1692076305 0.0002121167 -9.76181e-05 0.000123857 -1.2377e-05 -0.1294559873 0.0614280006
115299310.0 -0.8240239774 0.1785772138 -6.29996e-05 -9.89175e-05 -0.0001079597 0.000155971 -0.1278623922 0.0612200652
120299280.0 -0.8220320618 0.1874114183 3.54422e-05 0.0001515276 -3.25492e-05 -9.37623e-05 -0.1265667083 0.061504264
125299250.0 -0.820152305 0.1958567692 6.52497e-05 3.20836e-05 0.0001951924 -3.79797e-05 -0.1257897543 0.0607255346
130299220.0 -0.8186094637 0.2052047917 -2.19323e-05 2.80226e-05 -5.2626e-06 -1.07791e-05 -0.1245420125 0.060629939
135299190.0 -0.8167138171 0.2144040458 -0.0001521335 -6.46303e-05 5.71495e-05 4.33089e-05 -0.1231327492 0.0609757731
140299160.0 -0.8148884483 0.2230240561 0.0001336793 0.000119367 0.0001143574 -8.7714e-06 -0.1222972782 0.0616089255
145299130.0 -0.8128881275 0.2317718378 0.0001861926 -6.65551e-05 -0.0002001524 7.3357e-06 -0.1216873052 0.0613855799
150299100.0 -0.8100909365 0.2409682617 1.17447e-05 1.3095e-06 5.04619e-05 9.1546e-06 -0.1209301266 0.0621812607
155299070.0 -0.8077806114 0.2493745826 -9.43211e-05 -0.0001953497 -0.0001128561 2.7204e-05 -0.1201158734 0.0621490187
160299040.0 -0.8050775428 0.257459899 0.0002094783 3.00916e-05 6.2131e-06 -0.0001295467 -0.1196530709 0.0629440993
165299010.0 -0.8029016768 0.2670324759 0.0001990627 0.0002349286 7.96269e-05 -3.17645e-05 -0.1188001147 0.0627863191
170298980.0 -0.7999854974 0.2754031329 -4.64009e-05 0.0002416973 -0.0001386639 -9.44805e-05 -0.1182484501 0.0634838403
175298950.0 -0.797454378 0.28379912 -8.99106e-05 0.0001214025 8.5778e-06 0.0002024712 -0.1181448922 0.0637486007
180298920.0 -0.7948216197 0.2925796997 0.0001940189 0.0001214098 2.78981e-05 -7.74162e-05 -0.1173788903 0.0648563805
185298890.0 -0.7913672022 0.3008288637 1.61596e-05 -3.6987e-06 0.0001157763 7.83245e-05 -0.1165733323 0.0651169858
190298860.0 -0.788640524 0.3093100324 9.71033e-05 -7.19822e-05 0.0001752134 -8.59383e-05 -0.1161147805 0.0657258897
195298830.0 -0.785192353 0.317117936 -1.72554e-05 5.98934e-05 -0.0001133584 0.0001210062 -0.115705329 0.0663604578
200298800.0 -0.7813684894 0.3261185529 -6.19582e-05 -8.66757e-05 -0.0001241484 -0.000103745 -0.1154292315 0.0668588722
205298770.0 -0.7782181588 0.33397606 4.94337e-05 0.000315723 0.0001717152 -0.0001012479 -0.1149769983 0.0672503713
210298740.0 -0.7752279404 0.3421610329 -8.72428e-05 -1.47563e-05 -2.74333e-05 0.0002234388 -0.1142393383 0.0680434591
215298710.0 -0.771790352 0.350655319 -0.0002647181 -5.51191e-05 -6.86388e-05 9.05763e-05 -0.1141614315 0.0688300015
220298680.0 -0.7674321018 0.3583477873 0.0001608018 0.000218135 9.27209e-05 0.0001931797 -0.1137917353 0.0692059117
225298650.0 -0.7643913438 0.366339517 3.89309e-05 0.0001836569 0.0001028273 3.6859e-05 -0.113501266 0.0698571674
230298620.0 -0.760208438 0.374653446 7.42098e-05 4.78395e-05 0.0001729393 -1.21973e-05 -0.112830977 0.0707417723
235298590.0 -0.7560577529 0.3832477495 7.37721e-05 0.000360498 -2.72073e-05 8.96829e-05 -0.1125184923 0.0716300754
240298560.0 -0.7525164629 0.3913364677 0.0002636497 0.0001882927 -3.9753e-06 5.66966e-05 -0.1120284995 0.0723754765
245298530.0 -0.7485806779 0.3988580612 0.0001886945 0.000185993 -7.0448e-06 -1.67597e-05 -0.1118273624 0.0728093652
250298500.0 -0.7438384847 0.4062867024 0.0002947134 -8.4214e-05 0.0002244326 6.12076e-05 -0.1111815812 0.0733416884
255298470.0 -0.7400399087 0.4139392413 5.20149e-05 0.0001714089 1.0289e-06 -2.09206e-05 -0.1109685621 0.0743845305
260298440.0 -0.7354581874 0.4213263461 -0.0001022903 0.0002839262 0.0001673526 0.0001351383 -0.1100761625 0.0755086743
265298410.0 -0.731592602 0.4296242948 2.71675e-05 -0.0001194603 -4.78636e-05 0.0001265059 -0.1094805014 0.0760836898
270298380.0 -0.7273132342 0.437267049 0.0001271872 -0.0001793439 0.0002346791 0.0001192521 -0.1090716882 0.0772708901
275298350.0 -0.7220625809 0.4445117749 -9.42363e-05 0.0001743471 7.85899e-05 -8.6152e-05 -0.1082648245 0.0779691277
280298320.0 -0.7172181541 0.4522550225 0.0001513188 7.48947e-05 -7.63466e-05 0.0002557222 -0.1080400213 0.07886529
285298290.0 -0.7129241389 0.4597710089 0.0001330976 9.3372e-06 6.16398e-05 0.0001954243 -0.1070245608 0.0800005668
290298260.0 -0.7083355729 0.4675130455 3.3085e-05 -0.0002020348 0.0002250529 -4.91911e-05 -0.1064247109 0.0807482243
295298230.0 -0.7023796274 0.4743050234 3.45197e-05 0.000181585 -1.4297e-05 0.0001379098 -0.1055712724 0.0814964762
300298200.0 -0.6979677556 0.4814964784 9.61191e-05 2.11485e-05 2.12503e-05 0.0001034995 -0.1052880158 0.082673662
305298170.0 -0.692634912 0.4884851525 -9.60675e-05 0.0001348564 0.0001519863 0.0002165332 -0.1042213416 0.0830477044
310298140.0 -0.687295892 0.4962475338 4.83027e-05 0.0002384473 -5.98581e-05 2.63265e-05 -0.1041678165 0.0842692427
315298110.0 -0.6827850328 0.5033420473 0.0001133502 9.53204e-05 0.0001081031 -1.63751e-05 -0.1034027728 0.0850086281
320298080.0 -0.6778289628 0.5098061239 5.40264e-05 0.0002085963 -1.86582e-05 4.36505e-05 -0.102815766 0.085850222
325298050.0 -0.6718457968 0.5169621563 -9.39847e-05 0.0001496835 0.0001867748 0.0001392158 -0.1026293077 0.0864654438
330298020.0 -0.6663681574 0.5237123335 7.38378e-05 4.6877e-06 2.17189e-05 2.98e-06 -0.101818617 0.0881631352
335297990.0 -0.6606588061 0.5303028833 0.000434769 -0.000147078 6.22848e-05 0.0002111333 -0.1015894657 0.0893608523
340297960.0 -0.6562568168 0.537758954 0.0002846907 0.0002307867 2.33211e-05 0.0001658512 -0.1001506883 0.090253678
345297930.0 -0.6502176661 0.5437308054 0.0003425431 0.0001574043 -2.13199e-05 0.0001130133 -0.1001290888 0.0913291741
350297900.0 -0.6444679597 0.5512345828 3.21196e-05 -0.0001254725 5.82634e-05 -2.67011e-05 -0.0996434279 0.0925985755
355297870.0 -0.638100334 0.5583790154 -6.714e-06 -1.99176e-05 3.92909e-05 0.0003434864 -0.0992147974 0.0935217098
360297840.0 -0.6324008782 0.5636539769 0.0001182344 4.59499e-05 7.05528e-05 0.0001468907 -0.0981172835 0.0947704827
365297810.0 -0.6275650075 0.5699955475 -3.42615e-05 -1.14964e-05 0.0002803035 0.0002038795 -0.0975087374 0.0951997265
370297780.0 -0.6212620766 0.5768124921 3.44251e-05 -0.0002076062 0.0003511768 -5.0512e-05 -0.0967007363 0.0965588008
375297750.0 -0.6147288183 0.5833912515 0.0001304476 0.0002766116 0.0001827114 4.62394e-05 -0.0962200923 0.0972398803
380297720.0 -0.6083412327 0.589312642 9.54606e-05 0.0002640416 4.3398e-05 0.0001294859 -0.0958966229 0.0985528684
385297690.0 -0.603074559 0.5952694207 -0.0002142911 2.40633e-05 0.0002141562 -5.23061e-05 -0.0947646578 0.0994851459
390297660.0 -0.597076431 0.6006762045 9.13936e-05 0.0001121235 0.0001748785 7.48087e-05 -0.094258238 0.1006809051
395297630.0 -0.5903848895 0.6077988165 5.49089e-05 0.0002579904 6.15122e-05 8.03507e-05 -0.0929378145 0.1014892598
400297600.0 -0.5841785875 0.6141395011 0.0003617237 0.0001953964 0.0001675443 0.0002278704 -0.092373153 0.1027721143
405297570.0 -0.5778018706 0.6191603105 9.9526e-05 0.0001011485 8.33339e-05 9.26165e-05 -0.0919994892 0.1035307251
410297540.0 -0.5712183378 0.6252517419 0.0003578829 9.61867e-05 0.0001614607 0.0001802424 -0.0911333836 0.1045834357
415297510.0 -0.565171059 0.6309733883 1.40464e-05 0.0001151224 0.0002568226 1.16214e-05 -0.0901943209 0.1056495771
420297480.0 -0.5592067423 0.6370976214 -0.0001456191 0.0002559174 5.40002e-05 0.0001135873 -0.0892021991 0.1061409962
425297450.0 -0.5520175355 0.6424450145 0.0003112954 -0.0002313767 8.79945e-05 8.16685e-05 -0.0884589769 0.1076881013
430297420.0 -0.5454900331 0.6481031075 8.4891e-05 0.0003777021 0.0001255133 -2.5884e-06 -0.0879026886 0.108242105
435297390.0 -0.5388003754 0.653498349 0.0001656079 -0.0001154145 2.39566e-05 1.52499e-05 -0.0864798984 0.1091730009
440297360.0 -0.5316432568 0.6585391229 -4.90199e-05 6.04347e-05 0.0001112806 3.88297e-05 -0.0856947717 0.109843392
445297330.0 -0.5251196258 0.6642392936 0.0001875873 0.0002286105 0.0001906834 -0.0001514965 -0.084925283 0.1107557349
450297300.0 -0.5179928915 0.6694007838 0.0001882871 -6.33982e-05 0.0001440559 0.000219684 -0.0837376449 0.1117091739
455297270.0 -0.5118385788 0.6745201711 7.94163e-05 1.56433e-05 0.0001666681 0.0002998709 -0.0830308777 0.1126609628
460297240.0 -0.5051877289 0.6797400603 -7.3394e-05 0.0001465979 0.0001822522 0.0002061717 -0.082182247 0.1140202423
465297210.0 -0.4979721516 0.6845875055 0.0001406115 1.0985e-06 7.35182e-05 8.93701e-05 -0.0807868345 0.114458425
470297180.0 -0.4905092938 0.6896744096 0.0001227748 6.48015e-05 0.0003186932 2.6389e-05 -0.0798437967 0.1159847713
475297150.0 -0.4837579313 0.6944619293 0.0001695064 2.38797e-05 0.0002795128 0.0001924859 -0.0788567298 0.1167448921
480297120.0 -0.4771143463 0.699157189 0.0001145619 -0.0002654412 0.0003250057 0.0001870246 -0.0776123743 0.1171178582
485297090.0 -0.469395492 0.7039678574 2.70864e-05 9.79082e-05 0.0001253433 8.39633e-05 -0.076595933 0.1184191684
490297060.0 -0.4623734844 0.7083437386 0.000137109 0.0001692975 0.0001339402 -0.0001633224 -0.075816884 0.1188979331
495297030.0 -0.4544441913 0.7131106552 0.0001924502 7.34915e-05 0.0003429739 -0.0001550683 -0.0746521548 0.1204356023
500297000.0 -0.4477800283 0.7180561094 0.0001116224 0.0001445954 0.0001014866 8.95252e-05 -0.0736514285 0.1214451639
505296970.0 -0.4403405046 0.7223161234 1.53384e-05 6.7779e-05 0.0003044372 5.19641e-05 -0.0723839517 0.1217747269
510296940.0 -0.4332909496 0.7268361582 7.12645e-05 0.0001158845 0.0001983534 3.11983e-05 -0.0711518048 0.1229588078
515296910.0 -0.4252260619 0.730332876 6.86363e-05 -3.901e-05 0.0002583665 0.0001341358 -0.0702138947 0.1239914092
520296880.0 -0.4182922595 0.7358415023 0.0004709686 -7.019e-05 0.0002685315 0.0001215293 -0.0693746624 0.1249227709
525296850.0 -0.4104769004 0.7388894306 0.0003064284 -0.000115281 -2.44086e-05 5.32311e-05 -0.0683595618 0.1256065101
530296820.0 -0.4032623387 0.7433477744 0.000377828 -0.0001450434 0.0002154267 -0.0001223536 -0.0671196321 0.1265960583
535296790.0 -0.3957620149 0.7469968344 0.0002775431 -0.0001737945 0.0001803656 2.19328e-05 -0.0664283373 0.1273942623
540296760.0 -0.3881515616 0.7502781893 0.0002306657 0.0002081358 9.66677e-05 -1.61684e-05 -0.0651180439 0.1283674321
545296730.0 -0.380950592 0.7547208228 -6.19895e-05 3.36797e-05 0.0001781235 0.0001392597 -0.0642049414 0.1287142061
550296700.0 -0.3730485381 0.7586471224 0.0002923681 -1.38799e-05 2.32801e-05 0.0002456955 -0.0629413166 0.1298621886
555296670.0 -0.3653417208 0.7619030753 0.0001161239 -5.75308e-05 0.0002373005 -5.66842e-05 -0.0617033669 0.130743944
560296640.0 -0.3575992212 0.7663733011 0.0001249383 3.0557e-06 0.0003432221 8.86269e-05 -0.0603380785 0.1313883921
565296610.0 -0.3499459301 0.76979444 0.0001714687 2.52608e-05 0.0001758314 8.9277e-06 -0.0594788175 0.1320976244
570296580.0 -0.3426300811 0.7720982937 0.0003631749 0.0002239755 0.0001903933 -0.000152251 -0.0583564501 0.1328347825
575296550.0 -0.3338596626 0.7768803273 0.0001761889 0.000182054 2.94762e-05 -1.12925e-05 -0.0572672944 0.1336007453
580296520.0 -0.3258905721 0.7796470968 0.0002215209 0.0001216864 0.0003212512 5.55275e-05 -0.0557356173 0.1339903433
585296490.0 -0.3190522778 0.7826183299 0.0003826864 -1.88603e-05 0.0001386715 0.0001540235 -0.0547218953 0.1349607061
590296460.0 -0.31067637 0.7854761691 0.0001103772 0.0001302999 0.0003149345 8.78984e-05 -0.0537834066 0.1357258107
595296430.0 -0.3032282977 0.7884817434 4.59784e-05 -5.24342e-05 0.0002713263 0.0001190356 -0.0524562352 0.1362482286
600296400.0 -0.2951445677 0.7918673215 0.0001919824 -6.52356e-05 0.0003208811 -0.0001470877 -0.0513585894 0.1366814756
605296370.0 -0.2879526585 0.794468707 0.0005314414 0.0002763321 0.0003215053 0.0001160058 -0.0498018304 0.1373724827
610296340.0 -0.2790114692 0.7970184077 0.0002228404 0.0001335112 0.0001895569 -0.0001293265 -0.0484592241 0.1379683512
615296310.0 -0.2706542088 0.7999787577 0.0002000295 8.63334e-05 0.0003739157 -2.1667e-05 -0.0469701805 0.1385941396
620296280.0 -0.2626296567 0.8020360158 0.0001010067 3.78784e-05 0.000317293 -6.28425e-05 -0.0460202018 0.1392377178
625296250.0 -0.2550273971 0.8051855723 0.0002175047 -8.55045e-05 0.0002651853 -6.559e-06 -0.0444865173 0.1397953637
630296220.0 -0.2464813845 0.8075360447 4.21823e-05 -0.0002524041 0.00013463 4.02055e-05 -0.043360653 0.1405384628
635296190.0 -0.2386669588 0.8106408236 0.0001048075 3.73643e-05 0.0002516394 -0.0001181974 -0.0420465518 0.141305023
640296160.0 -0.2315786898 0.8122922279 0.0002781988 -9.67699e-05 0.0003053238 6.41009e-05 -0.0406057719 0.1418014804
645296130.0 -0.2228502971 0.8153726684 -4.77379e-05 0.0001417122 0.0001476033 -8.84208e-05 -0.0391292767 0.1425775089
650296100.0 -0.2146595419 0.8168810731 7.28858e-05 -0.0002456004 0.0001737984 5.25834e-05 -0.0378320422 0.1427031765
655296070.0 -0.2063131981 0.8186999258 0.0001963267 -1.88457e-05 0.0002408028 -0.0002091331 -0.0363773233 0.1434487007
660296040.0 -0.1984231384 0.8204215746 0.0002612899 -0.0001848615 0.0003542914 0.0002103935 -0.0348749466 0.1442321805
665296010.0 -0.1898739297 0.8220523543 9.96778e-05 0.0001374453 0.0002240671 9.58886e-05 -0.033453847 0.1448433657
670295980.0 -0.18223791 0.8242553342 0.0003093551 0.000326336 0.0001857137 -0.0001574315 -0.0324799593 0.1452310674
675295950.0 -0.1737222934 0.8258225674 0.0002863811 2.79497e-05 8.78903e-05 6.82418e-05 -0.0312627787 0.1461962525
680295920.0 -0.1651074013 0.8283136092 1.5089e-05 -0.0002836476 0.0001285606 8.11424e-05 -0.0297949166 0.1468949251
685295890.0 -0.1566972292 0.8299322265 0.0002108746 3.12551e-05 0.0001568365 -7.1366e-05 -0.0282451023 0.1469325469
690295860.0 -0.1493065136 0.8304693672 -3.98939e-05 0.0002304316 0.0002948284 -0.0002102031 -0.0270654989 0.1479187045
695295830.0 -0.1408815457 0.8327026531 0.0002927446 -0.0001937574 0.0003256227 -0.0001800835 -0.0256169539 0.1481092803
700295800.0 -0.1316105881 0.8340575339 0.0003874776 3.57033e-05 0.0002526863 -9.8364e-05 -0.0244886831 0.1488321544
705295770.0 -0.1244701794 0.83490973 0.0002966103 5.02575e-05 0.0001390765 -2.72563e-05 -0.0229944481 0.1496907463
710295740.0 -0.1163822775 0.8359929094 0.0002496438 -9.18556e-05 5.38487e-05 -9.03283e-05 -0.0215769553 0.1495432155
715295710.0 -0.1077374371 0.8371143825 0.0002011815 6.92673e-05 0.0003520861 -0.0002390848 -0.0205481073 0.1500971061
720295680.0 -0.0988508139 0.8381015202 0.0001525746 -4.12195e-05 0.00016338 -0.0001383276 -0.0187994669 0.1506643277
725295650.0 -0.0907838707 0.8393559577 0.0003374303 0.0001253918 0.0002678496 -0.0001295067 -0.017645351 0.1513773684
730295620.0 -0.082481887 0.8402818769 0.0004555252 0.0002098516 0.0002984502 7.81289e-05 -0.0166407186 0.1512354687
735295590.0 -0.0747046456 0.8409099482 0.0002545059 0.0001055271 0.000455137 3.57107e-05 -0.0150905339 0.1515134739
740295560.0 -0.0658524536 0.8422053229 0.0005821132 -0.0002808911 0.0002366456 0.0001206845 -0.0131861485 0.1521193011
745295530.0 -0.0582002648 0.8426741678 0.0002394008 1.86077e-05 0.0002031538 -0.0001664822 -0.0121678396 0.1519772773
750295500.0 -0.0487547469 0.8428944828 9.31732e-05 -8.47089e-05 0.0002071908 5.1925e-05 -0.0105287293 0.1524332267
755295470.0 -0.0409365991 0.8429770578 0.0004299109 -0.0001173805 0.0002704166 -0.000159485 -0.009212651 0.1525513469
760295440.0 -0.0331161468 0.8435035585 0.0002271945 -1.03108e-05 0.0002909169 -8.83926e-05 -0.0077843173 0.1526557544
765295410.0 -0.0243307653 0.8437919282 7.41093e-05 5.83278e-05 0.0002241054 -5.68812e-05 -0.0061820968 0.1532351689
770295380.0 -0.016466706 0.8443363275 0.0003055653 -9.00107e-05 0.0002060312 -2.6237e-05 -0.0049856155 0.1531650538
775295350.0 -0.0078457714 0.8436772771 0.00012172 -4.61905e-05 0.0003689233 -9.5876e-06 -0.0039839687 0.1534920268
780295320.0 0.0007599113 0.8439815948 0.0004390109 -0.0002892613 0.000296643 2.56988e-05 -0.0021645279 0.1535810698
785295290.0 0.0085364948 0.8434100637 0.0003324174 -9.19928e-05 0.0004205836 9.55103e-05 -0.0003210463 0.1537558962
790295260.0 0.0176950721 0.8439143569 0.000109273 2.90959e-05 7.50976e-05 8.09942e-05 0.0015039321 0.1544005632
795295230.0 0.02549889 0.8434738961 5.0048e-06 -6.46572e-05 0.0002722303 0.0001473156 0.0028494829 0.1543199184
800295200.0 0.0336311356 0.8427939361 0.0004747783 8.58524e-05 0.000196471 -4.65763e-05 0.0041991411 0.1545598994
805295170.0 0.0425893083 0.8431064992 0.0002882447 3.3554e-06 0.0002538963 -8.09015e-05 0.0057121542 0.1547923799
810295140.0 0.0511584674 0.842399977 0.0003903731 -8.19661e-05 0.0003670252 0.0001858341 0.0074543463 0.1548480261
815295110.0 0.0587271094 0.8416757177 0.0003345219 -6.0062e-05 0.0001647572 -4.79088e-05 0.0087578417 0.1550626659
820295080.0 0.0670342096 0.8416438679 0.0002850165 -0.0001914183 0.0002291194 7.43272e-05 0.0104631066 0.1548128769
825295050.0 0.0763036609 0.8401568018 0.0002311569 -1.82611e-05 0.0001373675 -0.0001246598 0.0117812333 0.1554956226
830295020.0 0.0837261956 0.8396937498 0.0001706097 4.74782e-05 0.0004686893 -0.0003186046 0.0139599858 0.155329689
835294990.0 0.0918928188 0.8388423341 0.0003333468 -0.0002031031 0.0004275944 2.1067e-05 0.0146764005 0.1559950612
840294960.0 0.1003606014 0.8382424355 0.0001270415 3.36063e-05 0.000388413 1.03138e-05 0.0166049111 0.1558370744
845294930.0 0.108681947 0.8374001631 0.0003291895 -0.0003606964 0.0002778672 -0.0001909714 0.0177001833 0.1557254811
850294900.0 0.1163289857 0.8358773624 0.0003305493 -9.31199e-05 0.0001328675 -0.0001620881 0.0194559903 0.1559357271
