!Created with skrf (http://scikit-rf.org).
# Hz S RI R 50.0 
!freq ReS11 ImS11 ReS21 ImS21 ReS12 ImS12 ReS22 ImS22
300000.0 -0.0483691821 -0.0388286265 0.0001350581 -0.0010056063 -0.0013635027 0.0002735246 -0.7742127246 -0.117913292
5299970.0 -0.0487847593 0.0156556751 -3.5877e-05 0.0002119886 7.7024e-05 -0.0001929985 -0.7850205508 -0.0070565921
10299940.0 -0.0430534165 0.0319025552 -3.01291e-05 -4.13963e-05 5.03212e-05 1.15845e-05 -0.7884724057 -0.0034603906
15299910.0 -0.0352866518 0.0462444336 1.89795e-05 6.9259e-06 -0.0001027678 2.1342e-06 -0.7940434486 -0.0011977318
20299880.0 -0.02540102 0.0574151275 -0.0001686112 0.0001203558 -8.41022e-05 0.0002360487 -0.8008894317 0.0022546985
25299850.0 -0.014391643 0.0665324387 5.56387e-05 -0.0001613241 0.0001029307 8.99507e-05 -0.8060453318 0.0087747377
30299820.0 -0.0035316147 0.073032272 -2.45381e-05 -0.0001714832 -8.30194e-05 -3.62707e-05 -0.8129256753 0.016057017
35299790.0 0.0075559507 0.0773597154 -6.40662e-05 -0.0002941365 0.0001906648 0.0001016914 -0.817595426 0.0248018283
40299760.0 0.0189560117 0.0803765315 7.29698e-05 9.76162e-05 -0.0002680685 0.0001244309 -0.8218125344 0.0345113404
45299730.0 0.0295728845 0.0816291113 -1.14316e-05 -2.60306e-05 -9.5814e-06 -8.29136e-05 -0.8253198067 0.0437390592
50299700.0 0.0391955215 0.0815319713 0.0002629589 0.0001365914 -1.0333e-05 0.0001352622 -0.827246624 0.0535325353
55299670.0 0.048033003 0.0803337496 1.1535e-05 -0.0001657523 -6.26187e-05 2.6886e-05 -0.8297354909 0.0638498475
60299640.0 0.0566409561 0.0786946368 6.82932e-05 7.17449e-05 1.79231e-05 2.96503e-05 -0.8305184329 0.073762312
65299610.0 0.0643197559 0.0761458244 -2.55568e-05 -3.13754e-05 0.0001559825 8.9209e-06 -0.8320196962 0.0836691682
70299580.0 0.0709140959 0.0733735672 2.65104e-05 0.0001129411 -0.0001140027 2.94161e-05 -0.8316632261 0.094098206
75299550.0 0.0772273393 0.0701067432 -5.61252e-05 9.45224e-05 5.56033e-05 0.0002133556 -0.8319738827 0.1037522945
80299520.0 0.0830459814 0.0666495044 0.0001434281 -9.25668e-05 0.0003121517 -5.71885e-05 -0.8321038832 0.1139248559
85299490.0 0.0877843626 0.0627271364 -0.0001691287 4.5561e-06 -1.01599e-05 -4.87966e-05 -0.8313169318 0.1236604792
90299460.0 0.0923074265 0.0594345729 -2.52181e-05 0.0001097902 -8.3112e-06 0.0001618941 -0.8306979423 0.1329366655
95299430.0 0.0963245985 0.0547901417 0.0001700224 5.10441e-05 -1.43356e-05 -1.59595e-05 -0.8293973871 0.14307954
100299400.0 0.0998107957 0.0512367084 -7.87058e-05 -9.81193e-05 -3.80988e-05 0.0001311598 -0.8285260786 0.1517853365
105299370.0 0.1028948355 0.04734568 4.18859e-05 0.0001500749 5.9479e-05 0.0001337515 -0.8270455725 0.1608365695
110299340.0 0.1056980557 0.0432733715 -4.83576e-05 -1.02804e-05 0.000272696 1.21579e-05 -0.8257713377 0.1709964015
115299310.0 0.1085452321 0.0393857027 -5.10079e-05 6.53859e-05 9.20033e-05 -1.27323e-05 -0.8245706551 0.1800221219
120299280.0 0.1103303962 0.0355221878 9.42286e-05 0.0001231773 4.3406e-06 9.1273e-05 -0.8226884305 0.1891217536
125299250.0 0.1122043213 0.0316392771 -0.0001221467 0.0002389268 0.0001345069 0.0002608712 -0.8213978734 0.1979329123
130299220.0 0.1136324781 0.0279217183 8.26146e-05 -0.0001320616 5.08742e-05 -0.000223891 -0.8194519558 0.206855995
135299190.0 0.1152761611 0.0244781731 0.0001047854 -4.30948e-05 -5.36438e-05 6.1017e-06 -0.8169417878 0.2159007444
140299160.0 0.1162245234 0.0206537895 8.09961e-05 1.6324e-06 -8.67868e-05 -4.83568e-05 -0.8150454385 0.2249180266
145299130.0 0.1174135372 0.0170993335 0.0001768912 -0.0001338472 -6.04656e-05 2.87711e-05 -0.8131442128 0.2342373215
150299100.0 0.1183669059 0.013675661 3.03237e-05 7.69823e-05 -5.42994e-05 4.55583e-05 -0.8112131572 0.2428729999
155299070.0 0.1188817309 0.0103133307 4.78575e-05 0.0002147334 9.0603e-06 1.46652e-05 -0.8078523566 0.2517869977
160299040.0 0.119182052 0.0074078082 2.50753e-05 -0.000108068 5.84557e-05 -9.26528e-05 -0.8059220377 0.2607644051
165299010.0 0.119951088 0.0037093029 0.0003156912 -0.0001096011 2.02687e-05 2.99395e-05 -0.8036738932 0.2693712699
170298980.0 0.1198406304 0.0008620875 -5.0273e-05 -0.0002028492 9.68836e-05 -3.84166e-05 -0.8002195545 0.2777649165
175298950.0 0.1203477483 -0.0023083111 0.000246151 9.43939e-05 -8.1774e-06 -5.88715e-05 -0.7979125434 0.2866211725
180298920.0 0.1205807835 -0.0050207658 0.0002803156 7.1281e-05 7.80487e-05 0.0001085721 -0.794209747 0.2954750866
185298890.0 0.1203255474 -0.008142084 -1.33175e-05 0.0001600665 -0.0002931339 -0.0002030913 -0.7908739004 0.3037373151
190298860.0 0.1203487356 -0.0106482166 6.99818e-05 -7.08884e-05 1.0184e-05 1.64924e-05 -0.7883334272 0.3123889922
195298830.0 0.1201631799 -0.0138059855 0.000252979 1.96916e-05 -0.0002510604 -5.79524e-05 -0.7854130317 0.3207623541
200298800.0 0.1199436214 -0.0163176384 -0.0001318775 -6.6757e-05 -6.05978e-05 -0.0002288601 -0.78201915 0.3285717296
205298770.0 0.1196332077 -0.0191225812 0.0001232627 5.06497e-05 3.44322e-05 2.68093e-05 -0.7781308366 0.3374031677
210298740.0 0.1192086544 -0.0216303901 -0.0001145414 8.49498e-05 0.0001619064 -1.49936e-05 -0.7747881425 0.3457632961
215298710.0 0.1186728621 -0.0242344504 9.907e-05 -6.23368e-05 -0.0001032676 0.0001537689 -0.7716547101 0.3538561881
220298680.0 0.1182257809 -0.0269746255 0.0001364545 0.0002178988 0.0002876438 2.57015e-05 -0.7678473475 0.3616710457
225298650.0 0.1172916114 -0.0293139553 0.0001195779 0.0002547703 6.80425e-05 -7.09951e-05 -0.7642100054 0.36993613
230298620.0 0.116958238 -0.0315669687 -0.0001515285 7.53846e-05 8.64561e-05 9.81479e-05 -0.7596979229 0.3776465204
235298590.0 0.1166414262 -0.0338051096 1.96685e-05 5.56977e-05 -8.45429e-05 -4.3652e-06 -0.7559315197 0.3867049744
240298560.0 0.1157445046 -0.0362653034 3.75541e-05 0.0001951496 1.40033e-05 3.96423e-05 -0.7516770794 0.3947882188
245298530.0 0.1151248515 -0.0383037222 0.0002188279 0.0001942248 3.61877e-05 4.14429e-05 -0.7474350845 0.4020394658
250298500.0 0.1146090626 -0.040668392 -0.0001475203 0.0001115443 0.000205783 4.89135e-05 -0.7438633412 0.4098351543
255298470.0 0.1130621208 -0.0429300392 9.06656e-05 3.67108e-05 0.000203908 3.58199e-05 -0.7386635833 0.4175941272
260298440.0 0.1123101392 -0.0451246153 3.31179e-05 -1.12278e-05 -0.0001053045 7.37527e-05 -0.7350792259 0.4259037004
265298410.0 0.1116971595 -0.046748544 8.16681e-05 -3.65198e-05 1.55767e-05 9.8058e-06 -0.7303774694 0.4332854918
270298380.0 0.1106930847 -0.0490090663 4.8961e-05 0.0001678793 -0.0001629188 1.8032e-05 -0.7256080668 0.4410411754
275298350.0 0.1098151896 -0.0509622573 0.0001717974 0.0002233168 -8.9289e-06 0.0002298032 -0.7209213463 0.4481971299
280298320.0 0.1089114965 -0.0529871021 -0.0001123221 4.40794e-05 4.78461e-05 7.07219e-05 -0.7160512604 0.4559819901
285298290.0 0.1081764672 -0.0544769306 -6.76522e-05 0.0001893044 8.1926e-06 -2.6457e-06 -0.7111881688 0.4639197005
290298260.0 0.1071933226 -0.0566072558 4.52642e-05 -9.84308e-05 4.583e-05 -6.0141e-05 -0.7062069713 0.4709883102
295298230.0 0.1060942988 -0.0586816271 4.0141e-05 1.56338e-05 0.0002271713 1.04428e-05 -0.7017661327 0.4779009047
300298200.0 0.1052082302 -0.0602095569 -0.0001812091 -0.0001595824 0.000106584 -0.0001350525 -0.6965560749 0.4853397465
305298170.0 0.1040037716 -0.0623418625 0.0001066454 0.0001768452 0.0002516482 -8.27013e-05 -0.6909199641 0.4935973517
310298140.0 0.1031583695 -0.0639882782 0.0002069809 3.83524e-05 9.71133e-05 6.30946e-05 -0.6863552435 0.5000459445
315298110.0 0.1018158039 -0.0658228719 0.0002065245 -9.3731e-05 0.0001126585 5.46269e-05 -0.6804844763 0.5075148979
320298080.0 0.1007196803 -0.0678575541 0.0001403578 6.29484e-05 -2.76126e-05 -4.4766e-06 -0.6752626445 0.5150407281
325298050.0 0.0997110215 -0.0696192488 0.0001477406 7.77077e-05 5.33653e-05 7.87096e-05 -0.6697002993 0.5215209957
330298020.0 0.0980959696 -0.0713279936 0.0001852367 -0.0001267009 -7.04913e-05 -0.0001455397 -0.6645898257 0.5281528101
335297990.0 0.0964420394 -0.0732498618 0.0001847489 1.53547e-05 0.0002666518 -7.18675e-05 -0.6592946424 0.535759779
340297960.0 0.0949466586 -0.0744136815 -0.0001594403 -5.74426e-05 2.4679e-05 0.0001020409 -0.6533811536 0.5427537235
345297930.0 0.0935397852 -0.0759736965 0.0004135354 -0.0002094637 -0.0001313478 0.0001390979 -0.6474284799 0.5488799334
350297900.0 0.0922940296 -0.0771531637 0.0003145737 0.000156415 0.000340445 -0.0001623154 -0.6422545969 0.556086799
355297870.0 0.0910464751 -0.0785918449 -5.80798e-05 -3.63078e-05 0.00016593 -0.0001162583 -0.636541797 0.561956373
360297840.0 0.0893140987 -0.0797210325 -5.07627e-05 -8.9485e-06 0.0002964121 0.0001789348 -0.6299685496 0.5690213516
365297810.0 0.0880904644 -0.0808368236 6.76072e-05 -9.47608e-05 0.0001078305 6.261e-05 -0.6237868425 0.5750235388
370297780.0 0.0867733937 -0.0825666183 0.0001350246 0.0001632392 0.0001906854 -5.44559e-05 -0.6180931832 0.5820233428
375297750.0 0.0850798882 -0.0836021468 0.0002496086 2.69317e-05 -3.54446e-05 -5.06976e-05 -0.6116829629 0.5872881999
380297720.0 0.0838436832 -0.0851301393 9.07259e-05 2.68434e-05 0.0001480904 -9.2151e-06 -0.6062947348 0.5938335177
385297690.0 0.0823868545 -0.0860098279 0.0001120698 -0.0001641623 -0.0001425032 -1.67765e-05 -0.6000015078 0.6002207499
390297660.0 0.0808726014 -0.086949021 -2.26386e-05 -0.0001090103 9.56942e-05 6.08769e-05 -0.5935329316 0.606721497
395297630.0 0.079502125 -0.0883565669 2.99846e-05 1.08037e-05 0.0001659128 -4.26846e-05 -0.5868493709 0.6129339965
400297600.0 0.0782164345 -0.08930285 0.0002990732 -1.85471e-05 -6.5596e-05 3.59431e-05 -0.5808381903 0.6185583772
405297570.0 0.0764328051 -0.0905904025 7.4107e-06 -3.02452e-05 3.21273e-05 -8.7232e-06 -0.5741061583 0.6239614356
410297540.0 0.0751777694 -0.091581669 0.0002233208 -3.21797e-05 3.40713e-05 9.48903e-05 -0.5676687589 0.6305439066
415297510.0 0.0736941483 -0.0931748702 0.000194753 0.0002251094 4.06229e-05 6.68336e-05 -0.5613743968 0.636299004
420297480.0 0.0721065253 -0.093332863 0.0001819378 -5.66216e-05 1.651e-07 -3.48805e-05 -0.5548724187 0.6424452375
425297450.0 0.0707824017 -0.094643273 7.5206e-06 1.6162e-06 4.22198e-05 8.95252e-05 -0.5479154548 0.647469754
430297420.0 0.0691965386 -0.0957022825 9.05248e-05 2.84361e-05 0.0001095131 7.47043e-05 -0.5412850249 0.6527483156
435297390.0 0.0677542749 -0.0967022305 0.000259182 0.0001956814 7.75608e-05 -5.17678e-05 -0.5342427858 0.6587155192
440297360.0 0.0661772111 -0.0975277362 0.0001706043 -0.0002532071 -1.51842e-05 4.8326e-05 -0.5275423735 0.6637353266
445297330.0 0.0644970335 -0.0986747975 -0.0002047068 0.0001793873 0.0001495609 -8.26004e-05 -0.5209386833 0.6687485486
450297300.0 0.0630865724 -0.0992929765 8.3243e-05 4.84822e-05 0.0001204716 -7.89114e-05 -0.5138115786 0.6744189895
455297270.0 0.0613998333 -0.1000464322 8.21863e-05 -9.86115e-05 -0.0001136888 -0.0001641651 -0.506785714 0.6788615732
460297240.0 0.0600958595 -0.1009262772 0.0003504566 0.0001138436 5.9215e-06 0.0001118895 -0.5001826812 0.6846689143
465297210.0 0.0588139731 -0.1017491704 0.0003332232 -0.0001522741 -0.0001287267 0.0001324575 -0.4926590977 0.6892842739
470297180.0 0.0568179123 -0.1023761364 0.0001016879 -0.0001017553 0.000261797 0.0001742667 -0.4853555025 0.6947792833
475297150.0 0.0549739147 -0.1035488283 0.000198223 -0.0001002204 0.0001900463 0.0001023358 -0.4779132249 0.6991197149
480297120.0 0.053699747 -0.1040354003 0.0002339327 0.0002078805 6.34586e-05 -0.0001298893 -0.470731497 0.7041693227
485297090.0 0.0520607123 -0.1045497148 0.0003243714 -7.50381e-05 4.10036e-05 -1.37699e-05 -0.4639042017 0.7089771468
490297060.0 0.0501862943 -0.1049307843 8.8306e-06 -4.72163e-05 0.0002751851 -1.78e-08 -0.4563145902 0.7128549347
495297030.0 0.0488335357 -0.1056600663 0.00032271 -3.67284e-05 0.0001380889 7.95445e-05 -0.4496975749 0.7183131142
500297000.0 0.0472695195 -0.1064839653 0.0001872676 0.0002322662 3.39707e-05 -3.51831e-05 -0.4421496788 0.722882256
505296970.0 0.0457907395 -0.1069160997 0.000374294 9.74534e-05 0.0001292296 8.4658e-06 -0.4342793645 0.7270709119
510296940.0 0.0439580286 -0.1077396573 0.0002761218 4.11517e-05 0.0001549591 4.14465e-05 -0.4267722838 0.7314827059
515296910.0 0.0425889291 -0.1082509449 0.0001887087 3.48408e-05 0.0002231431 4.73286e-05 -0.4193899146 0.7358135153
520296880.0 0.0404854224 -0.1085695041 0.0001911173 -9.50765e-05 0.0001892488 7.3767e-05 -0.4117046119 0.7397153352
525296850.0 0.0393511891 -0.1096100616 0.0002814694 9.33909e-05 0.0002236431 6.67657e-05 -0.4044877542 0.7440936001
530296820.0 0.0373035279 -0.1094450973 0.0001669947 -0.0001168298 0.0001265667 5.37617e-05 -0.3970699084 0.7474843623
535296790.0 0.0357067795 -0.1099899664 3.15947e-05 6.8914e-05 0.0002386161 1.81837e-05 -0.3897531778 0.7516621715
540296760.0 0.0338299873 -0.1104252005 6.14197e-05 -0.0001283576 -2.69544e-05 0.0001121786 -0.381240124 0.7556878233
545296730.0 0.0321642015 -0.1107668161 9.9314e-05 0.0002698135 1.81393e-05 0.000135629 -0.3739177522 0.7589880837
550296700.0 0.0310525592 -0.1111538514 -7.8332e-06 6.70016e-05 0.0002094645 0.0001581525 -0.3662724943 0.7633613335
555296670.0 0.0291823774 -0.1116390904 0.0001289568 7.97877e-05 0.00025609 -0.0001487192 -0.3585939226 0.7665835064
560296640.0 0.0276988135 -0.1118906305 0.0001353761 -0.0001032748 0.0002023833 -0.0001796682 -0.3504502163 0.7706304354
565296610.0 0.0258222711 -0.1121185289 -6.48184e-05 -7.91458e-05 0.0001204509 -1.09265e-05 -0.3424218217 0.7736134807
570296580.0 0.0238942603 -0.1124325906 0.0003025695 -6.12555e-05 0.0001749532 0.0002025661 -0.335109467 0.7773597795
575296550.0 0.0222352468 -0.1126298303 0.0001300026 -6.46169e-05 0.0001745638 9.65715e-05 -0.3270914357 0.7807487699
580296520.0 0.0209160975 -0.1129743666 0.0001719425 5.91967e-05 4.88279e-05 -6.18828e-05 -0.3186811375 0.7837345319
585296490.0 0.0187931323 -0.113135519 0.0001949591 -1.6009e-06 0.0001525851 -2.29234e-05 -0.3108887212 0.7870766692
590296460.0 0.0176914019 -0.1133123917 0.0001255193 -0.0002144665 0.0001954247 6.44589e-05 -0.3035422682 0.7901615724
595296430.0 0.0156508798 -0.1135440048 0.0002051143 -0.0001581306 0.0001156405 0.0001159241 -0.2950504151 0.7926884134
600296400.0 0.0138968153 -0.1135643389 0.0003310134 -0.0001417864 8.6368e-05 -5.44989e-05 -0.2873874435 0.795783981
605296370.0 0.0121264176 -0.1135377916 0.0001234595 0.0001653316 0.000179085 -4.67194e-05 -0.2781207114 0.798734006
610296340.0 0.0107307287 -0.1138987598 0.0001553574 -0.0001212901 1.8756e-06 8.3596e-06 -0.2705249121 0.8008584993
615296310.0 0.0090487439 -0.1139583047 0.0001264375 -7.43533e-05 0.0001981698 1.16959e-05 -0.2620182684 0.8037536554
620296280.0 0.0073377114 -0.1140320732 5.26832e-05 -6.43011e-05 0.0001011858 0.0001618824 -0.2546400335 0.806725885
625296250.0 0.0056390989 -0.1142090773 0.0001438 -0.0001936061 6.0268e-06 -3.10486e-05 -0.245522684 0.8088075509
630296220.0 0.0043058072 -0.1140452921 0.0001967441 -0.0002254386 1.09937e-05 7.71646e-05 -0.2378417074 0.8114527432
635296190.0 0.002286832 -0.1137974023 0.0002214907 -0.0001376144 0.0001123642 0.0001796311 -0.2298932923 0.8134746722
640296160.0 0.0009461579 -0.1137285525 0.0001096545 7.08782e-05 0.0001434807 -0.000103449 -0.2213094412 0.8163088038
645296130.0 -0.0010347018 -0.1134908842 7.28882e-05 5.94675e-05 0.0002355841 -5.69256e-05 -0.2132961925 0.8183685743
650296100.0 -0.0026617869 -0.1132909808 0.0003544108 5.10566e-05 -2.19004e-05 2.0291e-06 -0.2050712212 0.8197564312
655296070.0 -0.0045079858 -0.1133824368 0.0001868395 0.0001520866 2.03737e-05 -3.39347e-05 -0.1965813311 0.8213276487
660296040.0 -0.0060836693 -0.1134072299 0.0003867127 0.0002058298 0.0002887049 0.0002577214 -0.1881727984 0.823710496
665296010.0 -0.0075350645 -0.1132990488 0.0001926559 6.55065e-05 -1.3006e-05 6.9749e-06 -0.1798717452 0.8257913783
670295980.0 -0.0095918218 -0.113003461 0.000343492 2.09503e-05 -1.85831e-05 0.0001217297 -0.1721730487 0.8272177115
675295950.0 -0.0112061876 -0.1125623925 0.0001894631 -0.0001047926 0.0001033418 0.0002575701 -0.1640489587 0.8295097311
680295920.0 -0.0128335519 -0.1124711491 1.5526e-06 -1.81905e-05 0.0002911479 -0.0002362496 -0.1556835473 0.8315309994
685295890.0 -0.0140177394 -0.1119916505 -0.0001045531 0.0001640853 2.74818e-05 -0.0002941313 -0.1464983227 0.8317711412
690295860.0 -0.0158474593 -0.1117422594 0.0002128962 0.0003648491 0.0001227162 -3.77192e-05 -0.1385102342 0.8343427923
695295830.0 -0.017702808 -0.1115744761 0.0002919479 4.72235e-05 0.000192041 -0.0001460608 -0.1296762761 0.8346788646
700295800.0 -0.0195283261 -0.1113959284 -5.27676e-05 2.16914e-05 0.000431579 -0.0001559297 -0.1224494516 0.836269984
705295770.0 -0.0210862259 -0.1107262678 0.0001544242 2.70462e-05 0.0001639326 0.0001121669 -0.1138860519 0.837838193
710295740.0 -0.0227310077 -0.1102288689 0.0001653182 8.96007e-05 5.73688e-05 7.773e-05 -0.1054610764 0.8383193809
715295710.0 -0.0244487058 -0.1100852341 0.0001219402 5.7941e-06 0.0002401413 0.000174778 -0.0968424562 0.8394340003
720295680.0 -0.0259830933 -0.1098678654 0.0003043274 3.78223e-05 0.0002133359 0.000110715 -0.088471079 0.8404847544
725295650.0 -0.0274777256 -0.1092696708 0.0001672053 -0.0001257955 5.35993e-05 -5.55101e-05 -0.0802965459 0.8415051398
730295620.0 -0.0289093307 -0.1085507892 0.0003175688 0.0001028547 0.0002724921 -0.0001356689 -0.0721485772 0.8419797494
735295590.0 -0.0306123005 -0.1078041634 0.0003246269 0.0001746894 0.0002310654 5.55605e-05 -0.0634765383 0.8427682815
740295560.0 -0.0321837835 -0.1074568902 0.0002138986 7.06323e-05 -9.24813e-05 -4.28384e-05 -0.0545441321 0.8439534586
745295530.0 -0.0339409892 -0.1068821602 1.7305e-06 -5.90779e-05 -2.6704e-06 6.18819e-05 -0.0461577054 0.8436598552
750295500.0 -0.0354758009 -0.106467947 0.0004260131 -0.0002570313 9.01515e-05 0.0001063323 -0.0376540369 0.8440534249
755295470.0 -0.0373258006 -0.1061013797 9.63122e-05 5.13353e-05 5.40742e-05 -9.70967e-05 -0.0291324608 0.8441406219
760295440.0 -0.0388261475 -0.105027319 0.0001235249 5.77638e-05 0.0002983898 0.0001116562 -0.0212036018 0.8444691878
765295410.0 -0.0399731002 -0.1045011642 7.81164e-05 2.6785e-06 3.41624e-05 -0.0001303058 -0.0129628722 0.845368215
770295380.0 -0.0418901316 -0.1042266773 0.0002629766 -5.23676e-05 0.0001882073 3.9794e-05 -0.0044827782 0.8454238845
775295350.0 -0.0436157338 -0.1035475379 0.0002554937 1.59541e-05 0.0001171127 0.000238162 0.0036509097 0.8446276031
780295320.0 -0.0448347832 -0.1024758156 0.0002552438 -0.000108533 1.55997e-05 9.30026e-05 0.01187343 0.8447502404
785295290.0 -0.0467052117 -0.102147891 -6.63167e-05 -0.0002363324 0.000138896 -7.19527e-05 0.0208971785 0.8442089834
790295260.0 -0.0478425393 -0.1011409312 0.0004418633 0.0002043961 0.0003063115 -0.0001393791 0.0298678622 0.844803438
795295230.0 -0.0491222739 -0.100355352 0.0003064582 0.0001573025 0.0001602992 1.71574e-05 0.0381300947 0.8436194063
800295200.0 -0.0510648204 -0.099527075 0.0003800396 0.000124428 2.69602e-05 0.0001762649 0.0467002043 0.8436398067
805295170.0 -0.0521477605 -0.0990464119 0.0001331341 -7.41621e-05 0.000307083 5.21885e-05 0.0544796302 0.8433408935
810295140.0 -0.0535224705 -0.0982174207 0.0001635835 0.0002274408 0.0001726302 -6.01107e-05 0.0631903131 0.8423439552
815295110.0 -0.0553835078 -0.0974951309 0.0004117338 -0.0001086847 0.0002533956 4.7965e-06 0.0718662889 0.8415918071
820295080.0 -0.0569345689 -0.0961892058 0.0002981741 9.56065e-05 0.0001303678 -0.0002854686 0.0800709352 0.8413675536
825295050.0 -0.0578616101 -0.095745851 0.0001617009 0.0001492529 0.0001246766 -5.58259e-05 0.0882321529 0.8404269217
830295020.0 -0.0594222311 -0.0946728729 0.0003082041 0.0001314398 0.0002557794 -0.0001327642 0.0976200178 0.8390129321
835294990.0 -0.0612244809 -0.0937837014 6.76344e-05 4.95003e-05 0.0001506618 -0.0002861303 0.1049858869 0.8385368648
840294960.0 -0.0624073636 -0.0928931633 0.0003766448 -3.29027e-05 0.0003575447 -5.04624e-05 0.1132570264 0.8369489943
845294930.0 -0.0639804225 -0.0918068537 0.0001987392 0.0001125282 -0.0001009665 -8.54459e-05 0.1208475555 0.8362418127
850294900.0 -0.065001618 -0.0906077011 4.11782e-05 -6.79876e-05 0.0001051225 -0.0002862298 0.1292766958 0.834299712
