!Created with skrf (http://scikit-rf.org).
# Hz S RI R 50.0 
!freq ReS11 ImS11 ReS21 ImS21 ReS12 ImS12 ReS22 ImS22
300000.0 -0.7772459375 -0.1082566717 -0.0002916713 0.0010541211 -4.4056e-05 0.0010366528 -0.212780714 -0.0850291666
5299970.0 -0.7851861756 -0.006383417 0.0001205524 -0.0002089151 3.12267e-05 0.0001323473 -0.214984696 0.0083906702
10299940.0 -0.7881629097 -0.0043304278 -1.584e-06 5.9925e-06 0.0001268383 -0.0001095486 -0.2111096293 0.0217798206
15299910.0 -0.7934886938 -0.0025000887 -2.63297e-05 0.0001848443 5.74429e-05 0.000108521 -0.2058864518 0.0311629739
20299880.0 -0.7998719281 0.0017623361 -8.31243e-05 5.9546e-06 6.17928e-05 -9.6235e-06 -0.1998175996 0.039171087
25299850.0 -0.8066385978 0.0077441187 7.44011e-05 -0.0001102212 0.0001546631 -0.0001235889 -0.1935552853 0.0457274858
30299820.0 -0.8127259189 0.0147035632 -3.13164e-05 0.0001303659 -3.40962e-05 -7.26721e-05 -0.1871147718 0.0508195004
35299790.0 -0.8171614279 0.0241919204 0.0002040477 0.0001618016 -3.32055e-05 0.0002169952 -0.1810116882 0.054937577
40299760.0 -0.8212828011 0.0336418608 -0.0002063017 4.78922e-05 3.36131e-05 -1.9274e-06 -0.1749151525 0.0573103404
45299730.0 -0.8241970143 0.0431680053 4.9874e-06 -0.0001415282 -0.000143545 -6.32551e-05 -0.169230244 0.0599331433
50299700.0 -0.8273493237 0.0530211588 0.0001427818 -0.0002178377 0.0001261008 0.0001564209 -0.1640589341 0.061161435
55299670.0 -0.8292689006 0.0631068834 0.0001853643 -1.1305e-06 -2.35891e-05 0.0003097471 -0.1595932414 0.0619283268
60299640.0 -0.8302216536 0.0735588908 -6.35408e-05 -0.0002086331 5.7466e-05 0.0001022478 -0.1547458751 0.0623986017
65299610.0 -0.8313481424 0.0832422706 -2.08625e-05 5.2389e-05 0.0001357615 -3.93428e-05 -0.1513986578 0.0626073854
70299580.0 -0.8315336659 0.0936669936 7.42619e-05 6.96173e-05 -1.21883e-05 0.000215403 -0.1481529733 0.063291815
75299550.0 -0.8319159786 0.103248494 -3.656e-05 -9.99403e-05 0.0002009495 -3.51835e-05 -0.1449133887 0.0626524018
80299520.0 -0.8319721311 0.1136736272 3.55172e-05 0.000256167 7.73517e-05 -5.54285e-05 -0.1419185278 0.0626744683
85299490.0 -0.830968317 0.1225189048 0.0002437949 -7.63611e-05 -0.0001791675 2.34186e-05 -0.1397448017 0.0625216464
90299460.0 -0.8301952986 0.132542766 2.02551e-05 9.20828e-05 -9.81571e-05 -8.94159e-05 -0.1368684303 0.0620473905
95299430.0 -0.8292732 0.1414577577 -7.86794e-05 -0.0001176103 0.0001533497 -6.59136e-05 -0.1349208612 0.0623832846
100299400.0 -0.8281160429 0.1510522203 1.85481e-05 -2.35876e-05 0.0001150493 -0.0001098485 -0.132788978 0.0616132989
105299370.0 -0.8270469545 0.1604854189 -0.0001423741 -1.9776e-06 0.0001031154 3.8834e-05 -0.1308246041 0.0614246348
110299340.0 -0.8254253308 0.1695448377 0.00021612 0.0001458215 2.11498e-05 8.9601e-05 -0.1295385979 0.061168832
115299310.0 -0.8241866509 0.1787924003 8.589e-07 5.2821e-05 8.54933e-05 0.0001415367 -0.1280460963 0.0614290497
120299280.0 -0.8225161039 0.1867857187 -7.50082e-05 -0.0001168346 -1.41792e-05 0.0001475966 -0.1267496307 0.0610805027
125299250.0 -0.8207323158 0.1957230225 -4.73089e-05 -7.88845e-05 -0.0002320487 6.118e-05 -0.1258110848 0.0609140928
130299220.0 -0.8187179344 0.2054073349 7.65206e-05 0.0001265772 -4.62875e-05 2.95516e-05 -0.1243838346 0.0606747378
135299190.0 -0.8168610214 0.2140079131 9.09401e-05 4.11898e-05 3.40666e-05 0.0001379672 -0.123460918 0.0608689104
140299160.0 -0.8143511522 0.2233446663 0.0001132039 7.301e-07 8.99308e-05 0.0001452385 -0.1219743237 0.0610920658
145299130.0 -0.8127029755 0.2324061267 9.05976e-05 -8.0252e-06 -1.66305e-05 6.77545e-05 -0.1215544057 0.0613450802
150299100.0 -0.810197266 0.2408685678 -4.17184e-05 9.46535e-05 6.49372e-05 0.0003457759 -0.1208686225 0.0621877358
155299070.0 -0.8077388051 0.2490966738 5.2776e-05 0.000101332 -0.0001421928 -8.34099e-05 -0.1197196559 0.0622821047
160299040.0 -0.8051697938 0.2577409785 0.0001490914 -9.86522e-05 -1.225e-06 -6.3403e-05 -0.1194973903 0.0625950269
165299010.0 -0.802824751 0.2667923806 -8.61536e-05 0.0001758736 4.77826e-05 -3.65841e-05 -0.1186594701 0.0629207828
170298980.0 -0.7996380766 0.2750828227 0.0001197921 2.57615e-05 0.0003084809 -4.85185e-05 -0.1180781458 0.0632874662
175298950.0 -0.7972161433 0.284459334 -6.54749e-05 0.0001507885 0.0002821815 7.9044e-05 -0.1177087157 0.0638643666
180298920.0 -0.7950734278 0.2929527155 0.0001808184 8.54996e-05 6.05187e-05 4.96717e-05 -0.1170796964 0.064570578
185298890.0 -0.7910818382 0.3010420283 2.25776e-05 -3.98754e-05 -1.60909e-05 0.0001494207 -0.1165602764 0.0648831273
190298860.0 -0.7883189054 0.3096140826 8.40668e-05 3.02374e-05 7.05648e-05 9.22318e-05 -0.1161403657 0.0659325631
195298830.0 -0.7852406477 0.3175983837 -0.0001125763 -6.97397e-05 3.4978e-05 -2.73437e-05 -0.1155117221 0.0663870647
200298800.0 -0.7818496295 0.3260988335 0.0001485236 -6.00114e-05 4.79048e-05 0.0001534484 -0.1151805242 0.0669530513
205298770.0 -0.7782845366 0.3342265757 2.66251e-05 1.02933e-05 0.0001600078 9.26601e-05 -0.1146336967 0.0672605065
210298740.0 -0.7751302847 0.3424014496 6.84236e-05 0.0002904726 9.30916e-05 1.1357e-06 -0.1143774214 0.0682899696
215298710.0 -0.7717330653 0.3510331639 5.57093e-05 0.0001423013 0.0004309695 0.0002592283 -0.1140442885 0.0688323401
220298680.0 -0.7673177161 0.3589384662 0.0001329428 5.80645e-05 0.000103397 -0.0001154849 -0.1137301303 0.0691022295
225298650.0 -0.7637256967 0.3668600018 0.0003205021 0.0003272001 0.0003044732 -1.45075e-05 -0.1133981247 0.070346524
230298620.0 -0.7602651049 0.3745384993 0.000292327 3.37767e-05 -5.9215e-06 -1.0502e-06 -0.1130403876 0.0708118763
235298590.0 -0.7565175813 0.3834429031 -8.1925e-05 -2.55731e-05 4.9974e-05 8.29731e-05 -0.1126184212 0.071907691
240298560.0 -0.7526338896 0.3908664619 0.0001560761 0.0001303105 0.0001630812 0.0003157064 -0.1120667665 0.0726035801
245298530.0 -0.7485353452 0.398911817 0.0001381014 -0.0001716575 0.0001139214 0.0002103126 -0.1116989801 0.0731517848
250298500.0 -0.7442138613 0.4069139421 9.67743e-05 -3.28291e-05 0.0001208495 -0.0001076377 -0.1112372709 0.0737151322
255298470.0 -0.7392961567 0.4138038577 0.0001532419 -0.0001174379 0.000133219 7.3421e-06 -0.1105313125 0.0744638746
260298440.0 -0.7354062918 0.4216600734 0.0002277143 -4.78268e-05 -0.000253602 -4.11765e-05 -0.1102791384 0.0751945532
265298410.0 -0.7310871232 0.4299772809 6.49019e-05 0.0003979049 0.0001304499 2.925e-06 -0.1095779002 0.076676546
270298380.0 -0.7272354306 0.4373076384 -4.11839e-05 -1.87196e-05 5.30229e-05 -4.50656e-05 -0.1092121782 0.0772106374
275298350.0 -0.7221675 0.4448281798 3.5335e-05 2.50428e-05 0.0001333561 0.0002686164 -0.1083649487 0.0779720529
280298320.0 -0.7170767213 0.4522599651 3.80376e-05 0.0001773508 0.0001224524 5.1884e-05 -0.1075638818 0.0787569949
285298290.0 -0.7132684126 0.459977797 6.32738e-05 0.0002796123 6.38184e-05 -8.01874e-05 -0.1072433404 0.079681204
290298260.0 -0.707746519 0.4672594769 0.0001318477 3.35131e-05 -5.8924e-06 8.96987e-05 -0.1066701943 0.0809178325
295298230.0 -0.7021010395 0.4743201067 0.0001225527 -0.0001432014 5.8351e-06 -0.0001517564 -0.1059687967 0.0812903279
300298200.0 -0.6981117162 0.4813506004 -2.25343e-05 -2.98302e-05 4.92946e-05 0.0002141258 -0.1051379605 0.0824769692
305298170.0 -0.692442306 0.4878165666 7.28181e-05 -1.12871e-05 0.0002774544 -4.90069e-05 -0.1040328164 0.0830650474
310298140.0 -0.6876948564 0.4958578016 0.0002642838 -1.79072e-05 -0.0001593551 -2.28551e-05 -0.1039976827 0.0840609843
315298110.0 -0.6827457195 0.5031475309 0.0001342833 -2.29198e-05 -3.9443e-05 0.000158254 -0.1033084047 0.0849304294
320298080.0 -0.6774680048 0.5101824682 9.38232e-05 -3.6857e-06 -0.0001454992 -8.6463e-06 -0.1028073004 0.0858345663
325298050.0 -0.6718405446 0.5173425623 -6.63476e-05 -5.11275e-05 1.16744e-05 7.96198e-05 -0.1022746212 0.0867027307
330298020.0 -0.6665448394 0.5238037059 0.0001147957 6.29412e-05 0.0001346074 8.47361e-05 -0.1016738559 0.0879241238
335297990.0 -0.6608000666 0.5305199943 8.49934e-05 0.0001463832 -3.844e-07 -3.5926e-06 -0.1015412096 0.0891438492
340297960.0 -0.6557889581 0.5376964881 0.0002022217 2.36259e-05 0.0001493364 -4.96607e-05 -0.1003518681 0.0902962862
345297930.0 -0.6502804981 0.5438962627 7.14306e-05 -3.94369e-05 -1.92538e-05 -7.63856e-05 -0.1002295154 0.0911310959
350297900.0 -0.6444665557 0.550746814 -2.32535e-05 -3.8643e-05 0.000176023 -3.62643e-05 -0.0994860879 0.0925298342
355297870.0 -0.6383987977 0.5578829127 6.0779e-05 9.24503e-05 5.37321e-05 2.68855e-05 -0.0990228464 0.0933555159
360297840.0 -0.6328264032 0.5637866629 0.0001657407 5.61842e-05 0.0001559495 0.0001871109 -0.0982571401 0.0946372332
365297810.0 -0.6275732733 0.5702707368 0.0001465935 -2.47666e-05 4.94993e-05 1.61936e-05 -0.0975364944 0.0954818501
370297780.0 -0.6205459608 0.5766159423 7.44311e-05 0.0002804911 0.0001197878 0.0001582118 -0.0962779339 0.0969370758
375297750.0 -0.6149032204 0.5831348111 0.0002968712 -1.47652e-05 2.56699e-05 0.0002181782 -0.0961125111 0.0973984043
380297720.0 -0.6088023614 0.5892495992 0.0001617869 -8.12296e-05 0.0001823708 0.0001244404 -0.0956925111 0.098979449
385297690.0 -0.6033084218 0.59490033 0.0001037565 -1.68634e-05 9.75191e-05 0.000161012 -0.0945640615 0.099721141
390297660.0 -0.5972254255 0.601821279 0.000311543 -2.5242e-05 1.4254e-05 -3.42137e-05 -0.0943442653 0.1010623299
395297630.0 -0.5905288423 0.6081417538 0.0001077423 -1.96037e-05 0.0002959538 8.51584e-05 -0.0930108294 0.1020361145
400297600.0 -0.5844347953 0.6140267182 0.0002857761 8.95307e-05 -2.48261e-05 2.99557e-05 -0.0924526914 0.102612361
405297570.0 -0.5775391187 0.6196585885 0.0004203121 0.0001068877 2.86845e-05 0.0001478956 -0.091888702 0.1035195145
410297540.0 -0.5711954641 0.6251579764 0.0001086835 -4.82228e-05 9.80969e-05 4.5493e-06 -0.0910758638 0.1048570572
415297510.0 -0.5647505182 0.6308984822 -4.01851e-05 -6.67411e-05 0.0003705185 0.0001475445 -0.090093568 0.1056818914
420297480.0 -0.559229407 0.6370676133 0.0001311853 0.0001692793 2.20409e-05 -2.98683e-05 -0.0895537322 0.1065032085
425297450.0 -0.5516118835 0.6424018898 0.0001547042 0.0002940366 -1.37136e-05 1.595e-06 -0.0886643773 0.1073316272
430297420.0 -0.5454313074 0.648291052 -0.000136157 8.30001e-05 0.0002065776 -8.066e-06 -0.0878733438 0.1083393506
435297390.0 -0.5389444155 0.6532603975 -4.36383e-05 -8.97555e-05 4.56867e-05 0.0002703657 -0.086921275 0.1089140381
440297360.0 -0.5322549805 0.6588914714 0.000191844 -3.51193e-05 7.01827e-05 0.0001864631 -0.0858746283 0.1099029887
445297330.0 -0.5254778501 0.6637759513 9.55548e-05 -0.0001629868 0.0001519363 2.39962e-05 -0.0848280517 0.1105085875
450297300.0 -0.5182124199 0.6696742986 0.0003568287 0.0001439311 9.99121e-05 3.0231e-05 -0.0839989008 0.1115674336
455297270.0 -0.5117187396 0.6745059451 0.0002073747 0.0001273839 0.0001856476 0.00013801 -0.0830084094 0.1125004988
460297240.0 -0.504993907 0.6795692205 0.0001768829 5.4071e-06 0.0001746906 -6.10027e-05 -0.0820068142 0.1139997254
465297210.0 -0.4976789162 0.6846886915 0.0001244504 -5.76316e-05 9.9226e-06 0.0001352042 -0.0810807647 0.1144566983
470297180.0 -0.490539018 0.68973526 4.12537e-05 -7.2496e-06 3.97866e-05 0.0001264018 -0.0796006314 0.1156379546
475297150.0 -0.4838751547 0.6946176778 0.0001420278 -3.86601e-05 -1.33669e-05 -9.67765e-05 -0.0788243345 0.1159695397
480297120.0 -0.4765856181 0.6995799934 2.20078e-05 0.0001882592 0.0001275629 -1.02546e-05 -0.0775703906 0.1172832788
485297090.0 -0.4689404051 0.7037252985 0.0001760213 -2.3618e-05 2.41851e-05 0.0001029329 -0.0764277755 0.1183876132
490297060.0 -0.4627129518 0.7085071195 0.0002297637 0.0001013546 0.0001136891 -1.3708e-06 -0.0756180351 0.1187715122
495297030.0 -0.4553174826 0.713101134 0.0002164532 -8.38837e-05 -4.43805e-05 0.0001399331 -0.0745948846 0.120593201
500297000.0 -0.4479456739 0.7182669377 1.21189e-05 4.83066e-05 0.0001438647 -7.12056e-05 -0.0732685337 0.1213141934
505296970.0 -0.4399856148 0.7223177338 5.58315e-05 0.0001194991 0.000155484 2.33803e-05 -0.0723229852 0.1220164282
510296940.0 -0.4329265272 0.7266928768 4.29227e-05 9.83566e-05 0.00013593 4.39136e-05 -0.0713665699 0.1228981362
515296910.0 -0.4248001637 0.730762057 0.0001637044 0.0001261471 8.59751e-05 0.0002014362 -0.0701879531 0.123948289
520296880.0 -0.4186559678 0.7353815912 9.59769e-05 0.0001811508 0.0002116102 2.99667e-05 -0.0692200539 0.1245624876
525296850.0 -0.4101503169 0.7393726407 0.0004397977 6.8266e-05 0.0001596802 4.62182e-05 -0.0680784125 0.1259518865
530296820.0 -0.4028458792 0.7436122634 0.0001227834 0.0001955033 0.000299421 6.53719e-05 -0.0668680446 0.1264293256
535296790.0 -0.3958981514 0.7467443977 0.0001314793 -0.0002605663 0.0001445122 -5.56561e-05 -0.0662199422 0.1274259875
540296760.0 -0.3883731098 0.7506447016 6.57779e-05 1.75109e-05 6.90683e-05 -3.24393e-05 -0.0650660752 0.1280733851
545296730.0 -0.3808183249 0.7546183299 0.0003414168 -0.0002155493 0.0002772877 7.2384e-06 -0.0639244993 0.1288446121
550296700.0 -0.3734451966 0.7588146681 0.0002456913 -1.7879e-06 0.0001491183 6.4542e-05 -0.0630255507 0.1295465561
555296670.0 -0.3646647935 0.761356868 0.0001817656 -6.95452e-05 0.000222601 -0.0001076448 -0.0617762082 0.1309050649
560296640.0 -0.3575321007 0.7658647576 1.05046e-05 0.0001015873 0.0001656815 9.50926e-05 -0.060282222 0.1314830304
565296610.0 -0.349562438 0.7694418682 7.18736e-05 -3.20334e-05 0.0003283895 1.75897e-05 -0.0594849771 0.1320699753
570296580.0 -0.3427563053 0.7723747769 0.0001526649 -8.8251e-05 0.0003472998 -3.76165e-05 -0.0582523572 0.1328617524
575296550.0 -0.3346362735 0.7764494282 9.04207e-05 8.48953e-05 0.00013618 -0.0001218142 -0.0570874299 0.1337092723
580296520.0 -0.3261314423 0.7794409033 8.89755e-05 6.26984e-05 9.39228e-05 -5.73785e-05 -0.0560385596 0.1344255681
585296490.0 -0.3186408077 0.7822360217 3.33124e-05 0.0001838981 0.0002167451 9.05233e-05 -0.0543802079 0.1353213707
590296460.0 -0.3104644204 0.7861553204 0.0003652458 -0.0001378177 0.0002049765 9.92454e-05 -0.0539816484 0.1356401481
595296430.0 -0.3027105699 0.788982725 2.49569e-05 -4.70272e-05 4.11777e-05 8.64146e-05 -0.0524258193 0.1361799741
600296400.0 -0.2951925265 0.791707721 0.0001538061 0.0001731644 8.01707e-05 5.60483e-05 -0.0515924801 0.1366443032
605296370.0 -0.2875039274 0.7950310592 0.000228753 0.0001321129 0.0001312308 -3.35179e-05 -0.0497406419 0.1375455638
610296340.0 -0.2794435273 0.7976856622 0.0002677969 -0.0001366727 0.0003380808 5.52659e-05 -0.0484490969 0.1381891399
615296310.0 -0.2706336292 0.7999180753 0.0003227404 -2.23638e-05 1.71693e-05 1.53662e-05 -0.0471260557 0.1387208722
620296280.0 -0.2628654138 0.8020134725 0.0004312256 -5.88483e-05 0.0001079762 -5.18082e-05 -0.0461111252 0.1394328727
625296250.0 -0.2554852395 0.8052771217 0.0003993682 0.0001893956 0.000280069 -4.67416e-05 -0.0442763217 0.1396572788
630296220.0 -0.2463887727 0.8079318554 0.0002027531 -5.71001e-05 0.0001578378 0.0001684476 -0.0432468119 0.1406339207
635296190.0 -0.2393457558 0.8104851745 0.0002192575 -0.0001381741 -7.0429e-06 1.76644e-05 -0.0420688289 0.1411669219
640296160.0 -0.2308081521 0.8118664674 0.0003166306 -8.43258e-05 0.0002518897 0.0001450349 -0.0404179824 0.1414865612
645296130.0 -0.2223343197 0.8151165045 0.0001515737 -2.28425e-05 0.0001286767 4.16275e-05 -0.039375767 0.1422202158
650296100.0 -0.214544471 0.8166529689 0.0002439501 -2.99376e-05 0.0004687282 -8.0143e-06 -0.038010499 0.1427261567
655296070.0 -0.20619567 0.8188205146 9.46237e-05 -5.4645e-06 6.4048e-05 -0.0001043783 -0.0362861255 0.1434298332
660296040.0 -0.1979195834 0.8208073245 0.0003849394 0.0002630737 0.0001973431 0.0001166327 -0.034620376 0.1438363149
665296010.0 -0.1898080619 0.8222622609 0.0001316577 0.0001951328 0.0003111402 -0.0003159245 -0.033264792 0.1448629717
670295980.0 -0.1821449787 0.8245779657 0.0002950482 -0.000126956 0.0001690222 -0.000276081 -0.0322949818 0.1453311499
675295950.0 -0.1729141611 0.8259574774 0.0004289445 -1.67992e-05 0.0002077623 -8.14451e-05 -0.0311983861 0.1460383217
680295920.0 -0.1652809127 0.8282156658 0.0002049778 0.0002223491 0.0002868457 -1.19215e-05 -0.0295990006 0.1469529767
685295890.0 -0.1561543604 0.8304333654 0.0003229108 2.25365e-05 0.0002110611 9.9267e-06 -0.0282233895 0.1467550957
690295860.0 -0.1488107012 0.8307113996 0.0001637845 0.0001398709 0.0001956982 8.15459e-05 -0.0267578356 0.1478867495
695295830.0 -0.1402135023 0.8318351942 0.0002880614 9.18104e-05 0.0003850711 6.38055e-05 -0.0256164473 0.1481618335
700295800.0 -0.1313330748 0.83353727 0.0002220454 -0.0001796655 8.35593e-05 7.22023e-05 -0.0243018349 0.1485862245
705295770.0 -0.123441046 0.8352542912 0.00032973 0.0001398226 0.0001423968 -0.0002118078 -0.0225848433 0.1495942497
710295740.0 -0.1157753859 0.8361131683 0.0001543191 -0.0002196171 0.0002918211 0.0001015086 -0.0217134977 0.1492623843
715295710.0 -0.1069038827 0.8370922018 0.0003606442 -9.23048e-05 5.39141e-05 0.0001036286 -0.0199678313 0.1501179321
720295680.0 -0.0988427309 0.8385582413 0.0002997349 -5.2116e-05 0.0003639115 -0.0001194532 -0.018831513 0.150655253
725295650.0 -0.090662321 0.8394524138 0.0002986081 0.0001614268 -1.27139e-05 5.16772e-05 -0.0177264995 0.1511560088
730295620.0 -0.0820888275 0.8405087813 0.00010625 -0.0001172 0.0001258834 -3.6184e-06 -0.0163814728 0.151499638
735295590.0 -0.0743208096 0.8413634002 0.0002034375 5.07684e-05 0.0002929295 -0.0002056369 -0.0153450875 0.151205294
740295560.0 -0.0659357565 0.8420867111 0.0002892501 0.0001771497 0.0002551871 -0.0001133395 -0.013322235 0.1520910456
745295530.0 -0.0578532846 0.8424328308 0.0004145663 0.000164832 0.0002498423 0.0001193348 -0.0122293025 0.1523350117
750295500.0 -0.0489752456 0.8430308817 0.0003819976 5.36687e-05 0.0001819897 7.07026e-05 -0.0106128571 0.1525625155
755295470.0 -0.0407128581 0.8429482103 0.0003498417 -1.94448e-05 0.0001486429 8.33709e-05 -0.009447734 0.1525645091
760295440.0 -0.0329148507 0.8433714404 0.0001018786 -0.000113898 0.0003576153 8.98182e-05 -0.0079339776 0.1529524846
765295410.0 -0.0238159807 0.8436574928 0.0002986651 -1.03685e-05 0.0004865846 5.63024e-05 -0.0063586129 0.1533304561
770295380.0 -0.0157393896 0.8444599344 9.08753e-05 -6.7434e-06 0.0002397586 6.31654e-05 -0.005144722 0.1532461413
775295350.0 -0.0071509608 0.8441169185 9.66749e-05 -2.16082e-05 0.0001960024 -2.22986e-05 -0.0036204344 0.1535684182
780295320.0 0.0005037726 0.843798189 0.0001839528 -0.000120917 0.0003896637 -7.1175e-05 -0.002046688 0.1537889214
785295290.0 0.0089141276 0.8435498345 0.0003072542 0.0003093198 0.0002743122 1.14663e-05 -0.0006594858 0.15380248
790295260.0 0.0177565289 0.8441718159 0.0003589649 4.86275e-05 0.0003481106 0.0001613094 0.0012318178 0.154106426
795295230.0 0.0258526667 0.8434992125 0.0001258742 -0.0001266322 0.0002873812 -7.25715e-05 0.0028163492 0.1542833032
800295200.0 0.0337263588 0.8433691588 0.00029263 -9.53807e-05 0.0001370062 -0.0002281862 0.004193877 0.1545978887
805295170.0 0.0425528089 0.8432294707 0.0002565091 -0.0001505263 0.000293874 -4.80628e-05 0.005387548 0.1546194618
810295140.0 0.051033109 0.8426506629 0.0002959077 -0.0002026885 0.0001430302 -0.0001071954 0.0073505454 0.1547786031
815295110.0 0.0590507901 0.8420457821 0.0001354062 0.0001769797 0.0001375784 2.5702e-05 0.0088333165 0.1546638053
820295080.0 0.0674389438 0.8417103975 0.0001331756 -7.56668e-05 0.0002883454 -0.0001649497 0.0103639337 0.1549175127
825295050.0 0.0766376093 0.8405386173 0.0003619785 -0.0001615784 0.0002148488 -1.47981e-05 0.0118620761 0.1551436252
830295020.0 0.0837869358 0.8399937832 0.0003074482 -0.0001591219 9.59154e-05 -4.3972e-06 0.0137206055 0.1554022894
835294990.0 0.0919300105 0.8393515776 0.0003966094 9.84904e-05 0.0003108145 6.40146e-05 0.0148124741 0.1555869002
840294960.0 0.1002340061 0.8382359327 0.0005070437 -0.000225948 0.0002760264 7.51198e-05 0.0163623397 0.1556408519
845294930.0 0.1085961772 0.8373764338 0.0002549587 -1.05114e-05 8.78441e-05 -0.0003829707 0.017709256 0.155801956
850294900.0 0.1162891369 0.8363611875 0.0001876332 0.0003765463 0.0002223738 -0.0002349211 0.0193884914 0.1559263722
