!Created with skrf (http://scikit-rf.org).
# Hz S RI R 50.0 
!freq ReS11 ImS11 ReS21 ImS21 ReS12 ImS12 ReS22 ImS22
300000.0 -0.0467924041 -0.0450159799 0.0015720846 0.0016180738 -0.0011541917 0.0003097242 -0.7694767276 -0.137624327
5299970.0 -0.0487699066 0.015438043 -9.2195e-05 -2.69821e-05 0.0001329822 -5.35916e-05 -0.784647747 -0.007580709
10299940.0 -0.0431775636 0.0318368969 4.73895e-05 9.4534e-05 -3.213e-06 -5.34526e-05 -0.7878418662 -0.0037970151
15299910.0 -0.0351540766 0.0460286896 8.43715e-05 0.0001070231 7.65606e-05 9.481e-07 -0.7931905329 -0.0015441354
20299880.0 -0.025474393 0.0573350357 8.37444e-05 0.0001715529 -4.04073e-05 2.87594e-05 -0.7999151889 0.0022753645
25299850.0 -0.0145491304 0.0664586618 0.0001382508 -3.52102e-05 3.13652e-05 0.0001383762 -0.8059342063 0.0083681715
30299820.0 -0.0035204128 0.0731392902 -8.1191e-06 -0.0001059268 -4.37887e-05 0.0001065267 -0.8120781422 0.0165725131
35299790.0 0.00779032 0.0774538909 8.17528e-05 -0.0001410274 -5.73872e-05 9.53545e-05 -0.8172704731 0.0251509796
40299760.0 0.019154899 0.0805273883 7.25655e-05 1.28649e-05 -5.00174e-05 0.0001094779 -0.8212507952 0.0346631735
45299730.0 0.029534324 0.0815632272 2.63e-07 1.37053e-05 2.6352e-05 8.95763e-05 -0.8246329119 0.0440344549
50299700.0 0.0391503688 0.0814508562 0.0001778816 -0.000151887 -2.76489e-05 6.72788e-05 -0.8270095243 0.0536765977
55299670.0 0.048120259 0.0804525112 0.0001500506 -4.81675e-05 -1.75398e-05 0.0001746645 -0.8293668071 0.0646366848
60299640.0 0.0566766124 0.078755038 5.66731e-05 8.97949e-05 0.0001312097 3.07488e-05 -0.8302553663 0.0740914949
65299610.0 0.0643975293 0.0763846862 -0.0001745258 -1.99981e-05 3.41669e-05 -0.0002680012 -0.8320521308 0.084234377
70299580.0 0.0710617231 0.0735113637 3.78838e-05 -2.19336e-05 -0.0001842817 7.6482e-06 -0.83187978 0.0943098838
75299550.0 0.0774514072 0.0700090158 -0.00019668 -4.99055e-05 0.0001394987 0.0002564769 -0.8322341621 0.1039232251
80299520.0 0.0830211862 0.0666516961 9.66617e-05 -0.0001093031 4.27712e-05 -9.00485e-05 -0.8322616951 0.1137931006
85299490.0 0.0875653042 0.0627218629 9.0948e-05 5.95768e-05 0.0001564193 0.0002741737 -0.8321555793 0.1235767886
90299460.0 0.0920193813 0.0592240473 6.24398e-05 -4.94946e-05 4.66507e-05 -2.147e-07 -0.8305814194 0.133145236
95299430.0 0.0966289788 0.0546861106 4.3304e-05 0.0001086226 0.0001115635 3.52144e-05 -0.8291249273 0.1430581601
100299400.0 0.0997843816 0.0513592762 9.18054e-05 -1.90361e-05 0.0001248126 -4.05172e-05 -0.8286996939 0.1519632033
105299370.0 0.1030248542 0.047354769 0.0002725364 -6.16384e-05 0.0002385071 8.32726e-05 -0.8270070077 0.1611525352
110299340.0 0.1060560571 0.0432719645 0.0001120636 6.16954e-05 5.52405e-05 0.0001358744 -0.8259877675 0.1711342904
115299310.0 0.1084334132 0.0392151857 7.66883e-05 -3.63667e-05 -5.77312e-05 8.35806e-05 -0.8239396028 0.1795884646
120299280.0 0.1104417988 0.0352797854 0.0001271209 -1.79135e-05 3.4017e-05 6.6009e-05 -0.8220113746 0.1889713037
125299250.0 0.1121624 0.0314936637 -1.0456e-05 3.08689e-05 6.98841e-05 -0.0001002227 -0.82110289 0.1976998166
130299220.0 0.1136052322 0.0278551574 1.91402e-05 1.75729e-05 7.62002e-05 -3.09962e-05 -0.8187943454 0.2069024281
135299190.0 0.1152728904 0.0242910145 7.4563e-05 4.4227e-05 5.94473e-05 -1.352e-05 -0.8166769339 0.2162131874
140299160.0 0.116297844 0.0206324982 0.0001675634 0.0002180349 0.0001352675 0.0001104963 -0.8147098315 0.2249574929
145299130.0 0.1174259448 0.0170645594 -4.76076e-05 -5.079e-06 -0.0002498323 7.09147e-05 -0.8123042939 0.2341141892
150299100.0 0.118596184 0.0136721321 0.0002977305 0.0002335624 8.8681e-06 0.0001913658 -0.8105175317 0.2426650606
155299070.0 0.1188505891 0.0104469842 9.59094e-05 -0.0002904176 9.174e-06 1.1474e-06 -0.8073121879 0.2518819803
160299040.0 0.1192204301 0.0071408081 -6.3734e-05 -9.39261e-05 2.69193e-05 0.0003027342 -0.8051990592 0.2604597196
165299010.0 0.1201062903 0.0039700533 0.0001240139 4.01416e-05 -9.4793e-06 1.32585e-05 -0.8025717515 0.2690348821
170298980.0 0.1199609035 0.0009866049 -5.05766e-05 3.11677e-05 9.0447e-05 0.0001264573 -0.7995404522 0.2779153266
175298950.0 0.1203451357 -0.0022076592 4.54914e-05 0.0001186374 8.03289e-05 0.0001226164 -0.7967243646 0.2869422111
180298920.0 0.1205626249 -0.0051455786 -2.36325e-05 -0.0001298665 -6.37109e-05 0.0002771085 -0.7936219097 0.295236503
185298890.0 0.1205230962 -0.0082352869 0.0001326926 4.30516e-05 -8.7447e-06 -4.71151e-05 -0.7903123643 0.3039591572
190298860.0 0.1206834431 -0.0109716797 0.0002177373 -0.0001119705 -0.0001041327 5.57392e-05 -0.7878276892 0.3121027528
195298830.0 0.1202987338 -0.0137396899 0.0002015182 0.0001102903 -2.30051e-05 6.64248e-05 -0.7849282474 0.3210123563
200298800.0 0.1202931315 -0.0161875795 0.000428963 3.60587e-05 -0.0001011493 -8.14564e-05 -0.7811089742 0.3289178021
205298770.0 0.1197556501 -0.0189210428 3.10376e-05 9.88488e-05 -2.2371e-06 -8.35013e-05 -0.777878099 0.3373068346
210298740.0 0.1190632025 -0.0215187677 0.0002628939 0.0002324424 0.0001362042 1.52482e-05 -0.7744841793 0.3457290319
215298710.0 0.1185477381 -0.024177367 6.45348e-05 -0.0001240084 0.0001852505 -7.05597e-05 -0.770893916 0.3540187864
220298680.0 0.1182532494 -0.0268807204 -0.0001480754 -5.34867e-05 0.0001497225 0.0002326518 -0.7675109807 0.3617390823
225298650.0 0.1171770628 -0.029206792 5.27827e-05 -7.71931e-05 3.46057e-05 0.0001851198 -0.7634653972 0.3700313296
230298620.0 0.1169953325 -0.0313501468 2.02569e-05 0.0002481656 3.77232e-05 -1.77705e-05 -0.7596182886 0.3782589147
235298590.0 0.1166158098 -0.0336145728 8.40351e-05 -3.26441e-05 2.83146e-05 5.57102e-05 -0.755531663 0.3863766118
240298560.0 0.1157833188 -0.036457443 0.0004125441 2.35178e-05 -2.14226e-05 8.23297e-05 -0.7515752635 0.3953212636
245298530.0 0.115035673 -0.0385641631 -8.81989e-05 9.28579e-05 0.0002175202 3.54541e-05 -0.7475036906 0.4023143595
250298500.0 0.114318083 -0.0406228065 0.000242575 -0.0001170716 0.0001654468 -8.36654e-05 -0.7432168889 0.41018681
255298470.0 0.1131512226 -0.0432262754 0.0001114536 0.0001340327 1.27758e-05 -6.49792e-05 -0.7385634517 0.4175104827
260298440.0 0.1124798111 -0.0451586787 0.000243249 -7.7876e-05 1.71743e-05 -0.0001364577 -0.7347888929 0.426369934
265298410.0 0.1118077873 -0.0470611588 5.75927e-05 6.70029e-05 -4.68502e-05 -2.48083e-05 -0.7301059653 0.4332246682
270298380.0 0.110635342 -0.0488774536 0.0001135319 -1.58942e-05 -6.53001e-05 8.61241e-05 -0.7253004279 0.4410495839
275298350.0 0.1097690991 -0.051035993 0.0002033591 1.5525e-05 9.14566e-05 0.0001122203 -0.7206193258 0.4481347029
280298320.0 0.1090154946 -0.0528634575 0.0001799865 0.0001727651 -2.467e-05 9.64665e-05 -0.7157520063 0.4557568289
285298290.0 0.108389476 -0.0544931715 -0.000145207 -2.56823e-05 -1.73712e-05 8.28204e-05 -0.710634036 0.4635556952
290298260.0 0.1069384577 -0.0567512735 0.0001108708 0.0002250862 3.94502e-05 0.0001380003 -0.7063114526 0.4706045675
295298230.0 0.1061162525 -0.0587764882 9.78896e-05 0.0002454186 7.68715e-05 2.81159e-05 -0.7014759792 0.4777375432
300298200.0 0.1050955381 -0.0600995385 -2.08145e-05 0.0001825386 7.89754e-05 0.0002693094 -0.6961366706 0.4853428347
305298170.0 0.1038925863 -0.0622734464 0.0002603063 3.271e-06 0.0002132758 2.3502e-06 -0.6904732263 0.4927031562
310298140.0 0.1031210306 -0.0641311965 0.0001138327 -0.0001248347 0.0002035038 9.30418e-05 -0.6858083903 0.499956691
315298110.0 0.1021078249 -0.0656603435 -3.93907e-05 -9.87987e-05 0.0001770168 0.0001529628 -0.6800155434 0.5067644423
320298080.0 0.100904132 -0.0679642847 0.0001540914 0.0003010287 2.76642e-05 -0.0001005221 -0.6749864267 0.5146030125
325298050.0 0.0995256513 -0.0693852146 5.97002e-05 0.0002191987 0.0001523547 0.000197374 -0.6691783183 0.5210969898
330298020.0 0.0980834635 -0.0715406887 0.0001072066 -6.99788e-05 7.90991e-05 -0.0001517098 -0.6641697441 0.5283952472
335297990.0 0.096708506 -0.073280731 -7.28329e-05 -0.0001104502 0.0001195516 9.78376e-05 -0.6581349093 0.5351313726
340297960.0 0.0949514729 -0.0742432792 3.46965e-05 9.66217e-05 0.0001161937 8.6792e-06 -0.6525030995 0.542554896
345297930.0 0.0937437379 -0.0759074233 0.0002557773 -3.6853e-05 6.59445e-05 0.0001242215 -0.6468636365 0.5484421194
350297900.0 0.0922473987 -0.0772475508 -6.32619e-05 -5.48383e-05 -1.50682e-05 -9.09161e-05 -0.6411181082 0.5551175372
355297870.0 0.0909660423 -0.0786410893 7.30471e-05 -8.63469e-05 0.0001962084 6.42007e-05 -0.6361432654 0.5613910104
360297840.0 0.0894686721 -0.0797144342 -2.3541e-05 9.28698e-05 5.78094e-05 2.28619e-05 -0.6295213137 0.5691163888
365297810.0 0.0876166717 -0.081174507 -1.88529e-05 6.80088e-05 0.0002716829 0.0001773053 -0.62354831 0.575330574
370297780.0 0.0866836372 -0.0824896933 0.0002182263 -0.0001543938 9.36907e-05 0.0002020737 -0.617774684 0.5817516174
375297750.0 0.0853911429 -0.0836150034 -5.16506e-05 0.0001495244 -6.64181e-05 2.75335e-05 -0.6119182876 0.5878500089
380297720.0 0.083826582 -0.0849860907 0.0001218612 7.57008e-05 4.91942e-05 -7.02575e-05 -0.6057558586 0.5944441514
385297690.0 0.0823552394 -0.0857788585 0.0001676153 6.84482e-05 -1.31731e-05 0.000214729 -0.599353118 0.6006883122
390297660.0 0.0807981629 -0.0870701268 -0.0001107857 -7.86831e-05 0.0002489642 -6.81581e-05 -0.5930900642 0.6067004433
395297630.0 0.0798386895 -0.0883412227 -1.67925e-05 8.00242e-05 8.4818e-06 0.000135676 -0.5868275487 0.6130791217
400297600.0 0.0780832391 -0.0894793563 0.000246956 -3.02296e-05 0.0002413565 -5.04406e-05 -0.5812208607 0.618936533
405297570.0 0.0765458767 -0.0905258815 0.0001901626 0.0001751925 -0.0001229499 -7.70197e-05 -0.5737604463 0.6244295954
410297540.0 0.0750602992 -0.0916139102 0.0002129677 0.0001797141 1.25051e-05 4.513e-06 -0.5678073956 0.6308061116
415297510.0 0.0736845644 -0.0928680214 9.14104e-05 0.0003091338 -6.61658e-05 0.0002722127 -0.5614721072 0.6364287882
420297480.0 0.07216403 -0.0936634375 0.0001532816 -4.54191e-05 -6.73779e-05 0.000120842 -0.5543151897 0.642233479
425297450.0 0.0705677153 -0.0944984808 6.34277e-05 -5.16995e-05 6.09134e-05 -1.30742e-05 -0.5475664537 0.6470526817
430297420.0 0.0693632087 -0.095708463 -3.75963e-05 3.73206e-05 -4.24262e-05 9.37352e-05 -0.5409532497 0.6526417796
435297390.0 0.0679141034 -0.096435412 -1.50897e-05 6.76614e-05 7.1111e-05 2.78883e-05 -0.5339963021 0.6582603389
440297360.0 0.066043351 -0.0976030358 0.0001080739 0.0002164828 5.49352e-05 -5.16648e-05 -0.5276638208 0.6634495339
445297330.0 0.0647175579 -0.0982132238 0.0001486383 -5.01133e-05 -3.26017e-05 -0.0001382546 -0.520378073 0.6683740769
450297300.0 0.063032495 -0.0992087077 0.0001383979 -0.0001269533 0.0001557423 -4.65129e-05 -0.5134448597 0.6741184208
455297270.0 0.0615199511 -0.0998459408 5.64585e-05 0.0001497467 3.80817e-05 -4.29479e-05 -0.5065199402 0.6784806438
460297240.0 0.0600156446 -0.1008563904 5.81861e-05 0.0001698275 0.0001488725 9.45115e-05 -0.4995442908 0.6839602151
465297210.0 0.0584101733 -0.1016051929 -0.0001002371 -6.18298e-05 8.29588e-05 6.5352e-06 -0.4921777101 0.6887072612
470297180.0 0.0569160593 -0.1021321573 -0.0001762309 6.30554e-05 0.000103268 1.0008e-05 -0.4847264312 0.6941241279
475297150.0 0.0553171041 -0.1033467575 5.34428e-05 4.02049e-05 -7.83269e-05 -0.0001323237 -0.4777531598 0.6983389095
480297120.0 0.0539173899 -0.1038950981 0.000217162 -0.0001839771 0.0001503004 -0.0001098861 -0.4703810708 0.7033896069
485297090.0 0.0521984735 -0.1043589394 0.0002628027 0.0001782892 0.0001015272 0.0001100204 -0.4631278814 0.7080115661
490297060.0 0.0503586449 -0.1049147231 -4.57708e-05 7.9402e-06 0.0002880706 0.0001346146 -0.4558435184 0.712646963
495297030.0 0.0487648657 -0.1059221477 0.0001546251 -0.0002081934 7.58294e-05 0.0001006995 -0.4487620924 0.7178453291
500297000.0 0.0472241017 -0.1063911065 7.4802e-05 2.2713e-06 0.0001006438 -3.07935e-05 -0.441009033 0.7226191063
505296970.0 0.0458559903 -0.1070447821 0.0002738977 2.00803e-05 -3.33199e-05 0.0001443798 -0.4332924174 0.7263037238
510296940.0 0.0439698136 -0.1076058513 0.0002243394 0.000217002 0.0002295202 0.0001718762 -0.4264193062 0.7311635326
515296910.0 0.0426042395 -0.1081966887 1.35712e-05 0.000241541 0.0002195987 0.0001646451 -0.4190195305 0.7349235171
520296880.0 0.040587116 -0.108609258 0.000126245 0.0003738667 0.0002330057 9.3219e-06 -0.411215129 0.7389919286
525296850.0 0.0391209239 -0.1095096437 0.000105591 0.000191907 -3.0817e-06 -0.0001557347 -0.4044449677 0.7435608465
530296820.0 0.0375033281 -0.1098161446 4.47729e-05 0.0001585459 4.45597e-05 2.39392e-05 -0.396568758 0.7474570592
535296790.0 0.0359191761 -0.1100253713 0.0002245151 0.0001925976 -7.57296e-05 0.0001356627 -0.3898996263 0.7510435559
540296760.0 0.0341007237 -0.1105311432 -6.17748e-05 5.06215e-05 0.0001424772 0.000139399 -0.3809962739 0.755623188
545296730.0 0.0324919649 -0.1106592468 0.000276506 -0.0001307784 0.0001198682 0.0003261857 -0.3740580551 0.7593847774
550296700.0 0.0311100804 -0.1113700451 0.0001063838 -5.12786e-05 0.0002889122 0.0002384481 -0.3657845171 0.7632008518
555296670.0 0.0291215233 -0.1117365481 0.0001639866 0.0002301703 0.0001169864 4.5609e-06 -0.3585521329 0.7672006004
560296640.0 0.0277577724 -0.1119598144 0.0001646459 8.45961e-05 0.0003119028 0.0001794688 -0.3504361067 0.7710443458
565296610.0 0.0259814412 -0.1118742371 -2.43292e-05 8.81418e-05 8.5669e-05 -9.29772e-05 -0.3428248665 0.7736137038
570296580.0 0.0241500014 -0.1124613679 4.30438e-05 -6.89856e-05 8.94232e-05 0.0001312814 -0.3348109821 0.7774915533
575296550.0 0.0223859447 -0.1124742539 0.0001670476 0.0002461675 1.73644e-05 9.63281e-05 -0.3265876411 0.780937599
580296520.0 0.0210274607 -0.1128304282 4.31701e-05 0.0001304639 0.0003020003 2.38588e-05 -0.318577114 0.7838447408
585296490.0 0.0188737319 -0.1132581435 0.0001861082 5.80876e-05 0.000249468 7.76902e-05 -0.3106311992 0.7875016702
590296460.0 0.0177177958 -0.1132648309 0.0001431424 1.50996e-05 -6.81767e-05 0.000146162 -0.3036105778 0.7898090891
595296430.0 0.0157703378 -0.1134405844 0.0002000571 -6.37483e-05 0.0001086704 -8.561e-06 -0.294674543 0.7923557281
600296400.0 0.0139762051 -0.1136045143 0.0001401627 3.56912e-05 8.68741e-05 3.33886e-05 -0.2872523796 0.7955643793
605296370.0 0.012282201 -0.1136601834 4.63067e-05 6.95902e-05 0.0003334633 0.0001000001 -0.2785483449 0.7984980578
610296340.0 0.0104424505 -0.1137365299 5.7039e-06 -1.27593e-05 0.0002772771 5.99296e-05 -0.2705732842 0.800911514
615296310.0 0.0092194729 -0.1139976994 4.9572e-06 8.1248e-05 0.00019901 1.99197e-05 -0.2619623526 0.8034387069
620296280.0 0.0071560966 -0.1137735847 -6.5398e-06 -0.0001568101 0.0003945822 0.0001091791 -0.2546071183 0.8060755349
625296250.0 0.0055413998 -0.1138979977 -1.08334e-05 2.6408e-06 0.0001927942 9.0584e-05 -0.2458816325 0.8084718115
630296220.0 0.0042453874 -0.1142664434 0.000260544 -9.91727e-05 0.0003567215 0.0002439835 -0.2378818581 0.8107312132
635296190.0 0.0021195856 -0.113873819 -9.69923e-05 1.1716e-05 2.18994e-05 2.19405e-05 -0.2295550899 0.8129010084
640296160.0 0.0009520252 -0.1139031792 0.0001541723 -0.0002251043 0.0002316813 0.0001090164 -0.2209606214 0.8155729162
645296130.0 -0.0009959722 -0.1137759463 0.0003100018 -0.0001503032 0.0002128904 0.0001279123 -0.213319522 0.8178966138
650296100.0 -0.0027505639 -0.1135954027 -4.12575e-05 -0.0001479322 3.26547e-05 8.15195e-05 -0.2050502682 0.8191162405
655296070.0 -0.0042988578 -0.1135527399 8.17849e-05 0.0001664671 0.0002405096 0.0001264032 -0.1962595529 0.8207381254
660296040.0 -0.0061428992 -0.1131109289 4.64221e-05 -7.00582e-05 0.0001357068 -0.0001430758 -0.1880619005 0.8230421396
665296010.0 -0.0074789005 -0.1132943588 -4.34937e-05 0.0001196222 -0.0002085005 -4.47468e-05 -0.1794451721 0.8253636506
670295980.0 -0.0095429377 -0.1130033446 0.0003680222 -0.0001685003 0.0002375037 3.441e-06 -0.1717091672 0.8271116908
675295950.0 -0.0112083818 -0.1128339064 8.74844e-05 -0.0001108929 0.0002572366 7.42116e-05 -0.163878276 0.8287489262
680295920.0 -0.0126855872 -0.1122256395 -4.63328e-05 -0.0001241708 0.0001583858 -2.38107e-05 -0.1546943736 0.8308855897
685295890.0 -0.0142787012 -0.1118177799 0.000134257 -0.000109472 0.0004200374 8.85526e-05 -0.1465778357 0.831918751
690295860.0 -0.0157266907 -0.1117260478 0.0001414665 6.82847e-05 -0.0001277068 2.8878e-06 -0.1387827912 0.8334797466
695295830.0 -0.0175396498 -0.1113994344 1.46776e-05 0.000119923 8.92878e-05 -9.10639e-05 -0.1299928196 0.8350049417
700295800.0 -0.0192705195 -0.1112647918 0.000247549 -3.2637e-05 0.0002562426 -0.0001612074 -0.1219155716 0.836137214
705295770.0 -0.0210291194 -0.1106732236 0.0002135518 -4.10827e-05 0.0001588961 -0.0001939616 -0.1140487745 0.8381020328
710295740.0 -0.0227850335 -0.1102364512 0.0001678509 3.39928e-05 0.0002251632 0.000164845 -0.1047594525 0.8382555544
715295710.0 -0.0242399913 -0.1099534272 0.0002723161 0.0001820775 0.0001429477 -0.0001313352 -0.0967248009 0.8393071179
720295680.0 -0.0258029717 -0.1096507551 0.0001117669 9.69009e-05 0.0001117684 -0.0002424556 -0.0883633874 0.8406599154
725295650.0 -0.0272588583 -0.1090178337 2.93672e-05 -8.7104e-06 -6.68809e-05 -5.1025e-06 -0.0797934088 0.8420934462
730295620.0 -0.0289209404 -0.1082803042 7.27499e-05 -0.0001664693 0.0001646492 0.0001173367 -0.0722521701 0.8422084135
735295590.0 -0.0305616152 -0.1076949485 6.32702e-05 -6.26367e-05 0.0001613275 -1.12992e-05 -0.0633128693 0.8426556396
740295560.0 -0.0323998647 -0.1073288202 0.0002777617 -7.5495e-05 -2.23176e-05 0.0002080483 -0.0546104225 0.8441442356
745295530.0 -0.0338619093 -0.1066891833 0.0001519174 -0.0001100599 3.70813e-05 0.0001784218 -0.0461856127 0.8441722658
750295500.0 -0.0354783012 -0.1062690693 8.62596e-05 6.29136e-05 7.25401e-05 -8.69442e-05 -0.0382240935 0.8443605399
755295470.0 -0.0370905781 -0.1058417939 -6.3246e-06 0.0002058551 1.16813e-05 2.4155e-05 -0.0292061305 0.8437900396
760295440.0 -0.0387488904 -0.1051773431 -9.13274e-05 7.054e-05 0.0001600898 7.1172e-06 -0.0211228439 0.8440711594
765295410.0 -0.0399760896 -0.1044956307 0.0002557669 0.0001918749 0.0002820974 1.24763e-05 -0.0127753925 0.8448993656
770295380.0 -0.0417609306 -0.1040550582 0.0004201655 0.000115648 9.34445e-05 -2.17119e-05 -0.0045922498 0.8445332973
775295350.0 -0.0437985496 -0.1033355619 0.0001010417 0.0001058587 0.0001155285 0.0002738985 0.0034255777 0.8440687443
780295320.0 -0.0450448461 -0.1024059159 9.21072e-05 -0.0001090934 0.0001504672 -5.94251e-05 0.0122243147 0.844151387
785295290.0 -0.0463499472 -0.1019114379 -5.02602e-05 -0.0001439129 0.000164996 -8.36637e-05 0.02062445 0.8441727791
790295260.0 -0.0478660085 -0.1011009846 0.0001238995 0.0001394067 0.0002617938 6.71361e-05 0.0300474355 0.8441410661
795295230.0 -0.0493908792 -0.1003077538 0.0001354735 -5.35885e-05 0.0003782271 -4.28738e-05 0.0386477621 0.843059458
800295200.0 -0.0509364373 -0.0995670634 0.0001282423 0.0001735039 0.0001113449 5.95486e-05 0.0471302003 0.8429350976
805295170.0 -0.0523843278 -0.098911392 0.0001034648 -5.88688e-05 -1.09625e-05 -0.0001734473 0.0547759002 0.8425083837
810295140.0 -0.0537651626 -0.0979185804 3.53995e-05 -2.84327e-05 3.62227e-05 -1.72333e-05 0.063314494 0.8414273715
815295110.0 -0.0555072256 -0.0976503995 0.0002699389 -0.0001922507 0.0001173138 3.0345e-05 0.0718963075 0.8409032277
820295080.0 -0.0566883583 -0.0962408805 1.10049e-05 -9.41682e-05 8.76602e-05 -4.86648e-05 0.0801189801 0.8405543322
825295050.0 -0.0579128208 -0.0954616208 9.47762e-05 -0.0001335631 0.0003807898 2.99509e-05 0.088100859 0.8397550242
830295020.0 -0.0595087432 -0.0945983657 0.0003484669 8.92952e-05 0.0002930854 -0.0001989561 0.0975689503 0.8390307805
835294990.0 -0.0611046566 -0.0934753821 0.0001980206 2.43979e-05 5.92052e-05 0.0002351213 0.1056342075 0.8382632368
840294960.0 -0.062737277 -0.0927923219 0.0002575098 -0.0001580225 0.0001536859 0.0001777595 0.113477993 0.83672094
845294930.0 -0.0638487321 -0.0917654648 0.0001811478 4.76244e-05 -0.000122062 -0.0001373431 0.1218678405 0.8350951214
850294900.0 -0.0648233873 -0.0904791718 0.0002393702 -1.68904e-05 0.0001503178 -9.604e-05 0.12988668 0.833563637
