!Created with skrf (http://scikit-rf.org).
# Hz S RI R 50.0 
!freq ReS11 ImS11 ReS21 ImS21 ReS12 ImS12 ReS22 ImS22
300000.0 0.8605245354 -0.0013881815 -0.0004376945 -0.0002195357 -0.0007968021 1.08594e-05 -0.7631655614 -0.2035274731
5299970.0 0.8602974626 -0.0105241829 0.000234065 0.0003490824 -8.64163e-05 -6.4459e-06 -0.7850285327 -0.0098797283
10299940.0 0.858429116 -0.0188825313 0.0001240509 -8.5761e-06 -0.0001161066 -0.0001927926 -0.7874382275 -0.005712801
15299910.0 0.8577608214 -0.0276052844 -1.55334e-05 -7.28651e-05 0.0001193986 -4.388e-06 -0.7925035348 -0.00250726
20299880.0 0.8570968479 -0.0354386449 -6.5844e-05 -1.41292e-05 -0.0001296251 -0.0001471202 -0.7993147159 0.001631367
25299850.0 0.8564451553 -0.0436110143 -5.9857e-06 3.56021e-05 6.18203e-05 7.40329e-05 -0.8058842038 0.0080430405
30299820.0 0.8559009645 -0.0518170986 -6.42189e-05 6.93913e-05 -8.17626e-05 3.15143e-05 -0.8118107735 0.0158916957
35299790.0 0.8552096952 -0.059963789 -6.3356e-05 0.000207252 6.58044e-05 0.0001150524 -0.8167720263 0.0248931922
40299760.0 0.85466661 -0.0685226369 2.73472e-05 0.0001113208 -0.0001678051 2.77669e-05 -0.8209306821 0.0337829888
45299730.0 0.8535193082 -0.0764500963 -7.35136e-05 8.83154e-05 -1.10119e-05 -4.16501e-05 -0.8239513468 0.0436324296
50299700.0 0.8530482374 -0.0844228343 -0.0003910283 9.017e-07 -2.88047e-05 -4.08596e-05 -0.8260431506 0.0536953823
55299670.0 0.8521325901 -0.0927775461 2.84979e-05 6.11123e-05 -2.72943e-05 -6.19673e-05 -0.8284510078 0.0636362077
60299640.0 0.8507319182 -0.1013216072 -4.609e-07 5.6149e-05 7.52518e-05 -4.04606e-05 -0.8299180431 0.0740696538
65299610.0 0.8499241782 -0.1093257701 1.82109e-05 -8.302e-05 0.0001562672 -0.0002241565 -0.8299196672 0.0840437269
70299580.0 0.8491971438 -0.1176844362 3.8659e-05 -0.0002679751 -7.5205e-05 -5.66306e-05 -0.8305641698 0.0937591264
75299550.0 0.8477045103 -0.1256140673 0.0001060951 8.16778e-05 -0.0001085372 -2.16787e-05 -0.8306764492 0.104206106
80299520.0 0.8466256616 -0.1332014028 -0.0001015228 -0.0002675435 -4.98736e-05 4.51032e-05 -0.8303730856 0.1140750868
85299490.0 0.8450792127 -0.1417354393 0.0001373261 -0.0001971073 -6.09761e-05 0.00020307 -0.8291924881 0.1233279774
90299460.0 0.8444400938 -0.150373549 -0.0001450505 -0.0001556062 0.0001080536 4.16924e-05 -0.828992775 0.1329509177
95299430.0 0.8429183916 -0.158001063 -1.71564e-05 -8.56921e-05 -9.0937e-05 -4.1495e-06 -0.8281174899 0.1424273798
100299400.0 0.8407989897 -0.1662930752 -0.000103682 5.18533e-05 -2.0199e-06 -8.18384e-05 -0.8268136881 0.1515701626
105299370.0 0.8394875985 -0.1743078349 -0.0002751706 -5.03123e-05 -4.30093e-05 -1.02427e-05 -0.8255536829 0.1609995916
110299340.0 0.8373860947 -0.1828694413 4.6927e-05 0.0001208625 -4.91946e-05 -0.0001109893 -0.8242425349 0.1700411688
115299310.0 0.8358949685 -0.1908489539 4.0427e-05 -0.0001634849 -0.0001783884 0.0001367589 -0.8229833896 0.1790313869
120299280.0 0.8339177842 -0.1986622356 7.36698e-05 -4.48827e-05 0.0001269339 -2.94691e-05 -0.8209371661 0.188071589
125299250.0 0.8320139855 -0.206332148 -4.03068e-05 0.0002301047 -2.04522e-05 -5.00552e-05 -0.8195296903 0.1970332107
130299220.0 0.8301443445 -0.2148142308 0.0002579012 -6.41005e-05 0.0001219337 5.03618e-05 -0.8176012411 0.2054443135
135299190.0 0.8280709324 -0.2226308454 2.50513e-05 -8.78048e-05 -0.0001177859 0.0001805085 -0.815511682 0.2149014355
140299160.0 0.8256248881 -0.2299784152 7.469e-05 0.0001748034 -0.0001091663 9.83367e-05 -0.8132756897 0.2234830258
145299130.0 0.8232312088 -0.2383578911 8.07279e-05 6.845e-07 -8.57873e-05 9.4648e-06 -0.8118160993 0.2324106918
150299100.0 0.8212051296 -0.2460970198 -0.0001111963 4.13184e-05 -4.08539e-05 0.0001593808 -0.8090285426 0.2412491848
155299070.0 0.81847507 -0.2536071728 4.43208e-05 -4.44135e-05 -6.51455e-05 0.0001867488 -0.8070012242 0.2504230189
160299040.0 0.8160661526 -0.262030166 0.000103831 7.0787e-05 0.0001720055 -8.1362e-06 -0.8040586996 0.2593411126
165299010.0 0.8137950167 -0.269428658 3.24749e-05 0.0002325315 8.214e-07 -0.0001282934 -0.8013548401 0.2675480952
170298980.0 0.8114685551 -0.277754623 -6.93063e-05 -8.50927e-05 0.0001048356 6.81625e-05 -0.7990035882 0.276025045
175298950.0 0.8087125357 -0.2856364457 -0.0001010894 0.000118657 5.7035e-05 -5.40377e-05 -0.7962096748 0.2850195564
180298920.0 0.8062147369 -0.292844999 1.84966e-05 1.77241e-05 0.0001963432 -1.36572e-05 -0.7929389753 0.2931676301
185298890.0 0.802803958 -0.3007217471 0.0001614353 5.94277e-05 -8.3062e-05 -4.30123e-05 -0.7898672227 0.3015818958
190298860.0 0.8004868242 -0.308782529 -3.1187e-05 2.82989e-05 -3.29989e-05 4.6862e-06 -0.7867294864 0.3101262383
195298830.0 0.7967497244 -0.3161549398 1.58113e-05 1.82327e-05 -5.46595e-05 9.74628e-05 -0.7838199141 0.3181824684
200298800.0 0.79436673 -0.3239364135 1.0506e-05 -4.70544e-05 1.97674e-05 3.26289e-05 -0.7805915984 0.3267835369
205298770.0 0.7907791804 -0.3318627521 3.08449e-05 0.0001645232 -9.5826e-05 -0.0001847076 -0.7775371638 0.3353421498
210298740.0 0.7881355268 -0.3393064588 0.0001933963 3.67416e-05 0.0001943473 -6.77777e-05 -0.7737814379 0.3434738744
215298710.0 0.784928489 -0.3469670086 1.66867e-05 -0.0002764683 8.17628e-05 -0.0001878789 -0.7703684495 0.3515234993
220298680.0 0.7810172392 -0.3534924037 -1.48997e-05 6.69691e-05 -0.0001236398 3.16566e-05 -0.7664643706 0.3596074705
225298650.0 0.7776972583 -0.3621246739 -2.98201e-05 0.0001283998 0.0001237995 9.54848e-05 -0.762979665 0.3678668667
230298620.0 0.7737243462 -0.3686039504 0.0001328138 -2.97485e-05 5.59085e-05 7.61821e-05 -0.7590494237 0.3755617076
235298590.0 0.7701691976 -0.3760625737 -0.0001894475 1.25244e-05 0.0002369832 0.0001514506 -0.7547137533 0.383543538
240298560.0 0.7661193181 -0.3834474803 -3.22809e-05 -5.22021e-05 -1.13722e-05 4.93904e-05 -0.7507404688 0.3909304397
245298530.0 0.7627511416 -0.3909339422 0.0001119188 -0.0001214213 -7.06503e-05 -8.3642e-06 -0.7469790325 0.3991956774
250298500.0 0.7592284914 -0.3982574306 0.0002087495 -0.0001111627 0.00012962 1.704e-05 -0.7425243971 0.4070092738
255298470.0 0.7556387237 -0.4051397935 0.000173487 0.0001580826 -1.39558e-05 3.50732e-05 -0.7387410559 0.4148535556
260298440.0 0.7510819689 -0.4128884309 -9.39858e-05 -0.0001344356 -0.0001544109 0.0002309949 -0.7341024801 0.4217715612
265298410.0 0.7469586537 -0.4200481146 0.0002128382 -6.86675e-05 -2.3059e-06 1.84796e-05 -0.7296164858 0.4299761506
270298380.0 0.7439509864 -0.4269883302 -9.22958e-05 -0.0002924747 -0.0001944398 -4.36354e-05 -0.7251029768 0.4379207017
275298350.0 0.7388874492 -0.4340413019 -9.71701e-05 -1.89129e-05 0.0001178029 0.0001427088 -0.7202710141 0.4456660456
280298320.0 0.7346855757 -0.4414370345 0.0001558307 -9.70807e-05 -3.99821e-05 0.0001398182 -0.7164590308 0.4530122459
285298290.0 0.7313201121 -0.4487745292 -2.3688e-05 -3.40927e-05 -8.0152e-06 0.0002518878 -0.7117460015 0.460738788
290298260.0 0.726022751 -0.4554799925 -0.0002475037 -6.55657e-05 -6.08637e-05 -0.0001887276 -0.706137515 0.4674380182
295298230.0 0.7226592234 -0.4626364827 9.70456e-05 -0.0001744996 3.93593e-05 -6.84542e-05 -0.701199098 0.4749206633
300298200.0 0.7183062018 -0.4698961758 7.94697e-05 -9.6831e-05 -0.0001708961 0.0001531528 -0.6965977848 0.4819506144
305298170.0 0.7140019736 -0.4772276022 9.85026e-05 7.73322e-05 -4.6642e-06 6.0665e-06 -0.6912538871 0.4900953656
310298140.0 0.7089867492 -0.4854132609 8.18122e-05 -0.0001940678 2.67433e-05 0.0001591543 -0.6859960782 0.4967152544
315298110.0 0.7041235677 -0.4924970616 -1.11524e-05 -0.000153691 5.34202e-05 8.78736e-05 -0.6812568351 0.5041958691
320298080.0 0.6984355973 -0.4993178947 -2.67319e-05 -0.0002647425 -3.78165e-05 0.0001160112 -0.676262575 0.5102413522
325298050.0 0.6925665725 -0.5070932458 5.93513e-05 -0.0002745523 8.18859e-05 -7.60684e-05 -0.6703172027 0.517923058
330298020.0 0.6865647227 -0.5133758154 0.0002174916 0.0001026602 -0.0002045654 -0.0002746858 -0.6651936862 0.5249761238
335297990.0 0.68100784 -0.5192259171 2.01766e-05 -1.15608e-05 0.0001138924 -8.90589e-05 -0.659231784 0.5315394516
340297960.0 0.6757081495 -0.5256156613 0.0001722269 0.0002254691 -0.0001806956 -7.23925e-05 -0.6541207585 0.538804766
345297930.0 0.6703271838 -0.5320091603 0.0002437242 -5.68415e-05 0.0002177999 2.20069e-05 -0.6485639715 0.5452516949
350297900.0 0.6651365666 -0.538498068 -4.92746e-05 3.45851e-05 -2.43774e-05 1.97165e-05 -0.6431662873 0.5514449662
355297870.0 0.6598964842 -0.5442966371 -0.0001485701 0.0002773916 0.0001074334 -4.92057e-05 -0.6370711611 0.5585278365
360297840.0 0.6538111845 -0.5505078657 -0.0001481905 0.000114513 3.21681e-05 -0.0003421038 -0.6304215218 0.5651340708
365297810.0 0.6486290059 -0.5569537329 -4.76012e-05 5.56507e-05 0.0001323934 -0.0002431058 -0.6254507335 0.5708282071
370297780.0 0.6435182295 -0.5631309337 -8.3425e-05 -0.0001502389 0.0001912533 0.0001346885 -0.6191478504 0.5779189109
375297750.0 0.6374932776 -0.5693545019 1.78299e-05 -8.42107e-05 0.0001726349 1.65628e-05 -0.6131970197 0.5837819544
380297720.0 0.6319764939 -0.5744848546 -4.6677e-05 0.0001742303 -8.83238e-05 -9.8733e-06 -0.6068009352 0.5907602678
385297690.0 0.6262805268 -0.5809139524 -0.0001826343 0.0001965923 5.77235e-05 -8.52217e-05 -0.6011389014 0.5966976609
390297660.0 0.6209932593 -0.5872060718 -5.64305e-05 5.3193e-05 7.35394e-05 5.2284e-06 -0.5945846719 0.6017636519
395297630.0 0.6151110088 -0.592185358 0.0001672832 5.835e-05 0.0001782651 -8.26203e-05 -0.5877850857 0.6077565406
400297600.0 0.6086007773 -0.5988684004 -0.0001471169 0.0001013528 9.38736e-05 -0.0001561739 -0.5825094349 0.614121647
405297570.0 0.6032175948 -0.6049026096 -1.86734e-05 -2.78348e-05 -0.00017897 6.55246e-05 -0.5754836471 0.620399143
410297540.0 0.598314541 -0.6096534326 -9.23203e-05 4.2991e-06 9.82111e-05 0.0001727542 -0.5694773845 0.6264359375
415297510.0 0.5915578677 -0.6160828317 5.07539e-05 6.91175e-05 2.76668e-05 -0.0001459379 -0.5626609874 0.6318716471
420297480.0 0.5856682452 -0.6215881913 -1.43778e-05 -0.0002574454 -8.57287e-05 0.0002014677 -0.5561855266 0.638244309
425297450.0 0.579706513 -0.6271444056 -0.0001920519 -0.000134516 7.2865e-05 -1.1136e-06 -0.5495246823 0.6429269796
430297420.0 0.5736769413 -0.6330812825 0.0002020108 -1.72852e-05 -0.0001293543 -5.78238e-05 -0.5428276008 0.6488833467
435297390.0 0.567324094 -0.6384683548 0.0001117694 8.63002e-05 -4.67849e-05 -2.18243e-05 -0.5369173307 0.6544890687
440297360.0 0.5612673841 -0.6437570618 -7.05688e-05 -0.0002789291 -9.13766e-05 0.0001383303 -0.5298752782 0.659338298
445297330.0 0.5555586684 -0.6491052328 -0.0001717355 5.66189e-05 -8.5615e-05 -9.69732e-05 -0.5226428362 0.6654783891
450297300.0 0.5491102178 -0.6549358021 6.23558e-05 -7.70517e-05 0.0001070625 -5.65097e-05 -0.5158585831 0.6699998555
455297270.0 0.5418787917 -0.6599772468 3.98327e-05 -0.000211972 8.06999e-05 -0.0001601102 -0.50869742 0.6754421035
460297240.0 0.5359570313 -0.6647510234 5.50296e-05 -1.02028e-05 0.0001505196 9.51807e-05 -0.5020512629 0.6799593568
465297210.0 0.5294333964 -0.6692919251 -0.0001987357 3.7199e-05 -4.64213e-05 4.47114e-05 -0.4952530271 0.6862758758
470297180.0 0.5231794162 -0.6752417668 0.0001225352 -0.0001879468 -0.0001439482 -3.91622e-05 -0.4878927364 0.6904224825
475297150.0 0.5158964275 -0.679847866 -0.0001562046 -4.69626e-05 -0.0001127849 -6.91558e-05 -0.48084597 0.6953185495
480297120.0 0.5099875303 -0.6853286136 -5.4425e-06 -3.67239e-05 9.92672e-05 -2.8148e-05 -0.4745637656 0.700099659
485297090.0 0.5029014987 -0.6905205682 0.0001032783 1.20535e-05 6.5221e-05 7.24756e-05 -0.4673180818 0.7048143522
490297060.0 0.4967865589 -0.694939981 4.96194e-05 7.66917e-05 6.91713e-05 0.0001302588 -0.4597211113 0.7089185173
495297030.0 0.4900661609 -0.6998954038 5.61795e-05 0.0001451397 7.0165e-06 5.95431e-05 -0.4524828231 0.7133993274
500297000.0 0.4833788687 -0.7041767034 -0.0001345769 -2.90733e-05 0.0001686845 0.0001449575 -0.4454530116 0.7187507891
505296970.0 0.4762485602 -0.7086468479 -0.0001451342 -8.19112e-05 -2.57675e-05 -4.39234e-05 -0.4373152056 0.7231370013
510296940.0 0.4695650732 -0.7135464258 -0.0001845041 -2.96489e-05 7.91922e-05 -0.0001069674 -0.4302027428 0.7273133816
515296910.0 0.4623582956 -0.7185579983 0.0001569477 0.0001037722 0.0001750554 1.21057e-05 -0.4228791501 0.7311594448
520296880.0 0.4565272822 -0.7226393293 8.68681e-05 4.14558e-05 -2.32797e-05 -8.50476e-05 -0.4154689355 0.7360086359
525296850.0 0.4491759515 -0.7269041385 -3.56122e-05 0.0002150629 4.92109e-05 -0.0001123878 -0.4079623509 0.7396566491
530296820.0 0.4424296544 -0.7315652988 9.63824e-05 -6.60599e-05 0.0001684852 3.1563e-05 -0.4001755454 0.74388247
535296790.0 0.4352545407 -0.7352071663 -1.11606e-05 -0.0001310738 -0.0001205293 -7.88756e-05 -0.3932127966 0.7483233361
540296760.0 0.4277111567 -0.7397706348 -0.0001625339 -0.0001608271 -2.41894e-05 3.46672e-05 -0.3849280687 0.7516613758
545296730.0 0.4199368255 -0.7445444837 7.631e-05 6.41628e-05 -8.78429e-05 -4.08227e-05 -0.3780712971 0.7556841941
550296700.0 0.4128472098 -0.7474803867 3.1993e-06 -7.34273e-05 0.0001082331 0.0001564405 -0.3695680307 0.7591453816
555296670.0 0.4058716907 -0.7516858084 -0.0001118 0.0001331325 2.795e-07 -5.50616e-05 -0.3623707414 0.7627019468
560296640.0 0.3996899418 -0.7549710462 -0.0001115471 -0.0001370299 5.27106e-05 -3.42793e-05 -0.3547778456 0.7662533333
565296610.0 0.3913872657 -0.75988978 3.96732e-05 9.01019e-05 -8.08296e-05 -9.03231e-05 -0.3468454238 0.7702159965
570296580.0 0.3839887915 -0.7626521344 0.0002689103 -0.0001992665 0.0001619453 3.8117e-05 -0.3391170392 0.7733050643
575296550.0 0.3772179658 -0.7669553328 -4.02537e-05 -0.0001474067 -0.0001229247 6.15951e-05 -0.3311193286 0.7766437705
580296520.0 0.3690760605 -0.7700682173 3.08063e-05 2.75419e-05 4.38313e-05 -0.0001246564 -0.323514467 0.7796741006
585296490.0 0.3618007316 -0.7728608722 -5.01739e-05 -0.0002639001 -4.012e-06 0.0001187266 -0.3150798574 0.7834582735
590296460.0 0.3544308274 -0.7759876942 -7.4111e-06 -0.0001303168 5.07282e-05 7.03517e-05 -0.307591727 0.7859741359
595296430.0 0.3465993054 -0.7799142331 -6.0714e-06 5.27389e-05 5.38472e-05 -4.93775e-05 -0.3001960402 0.7895728299
600296400.0 0.3392714254 -0.7836117598 0.0002158105 7.0516e-05 -0.0001702647 -0.0001108841 -0.2917618513 0.7915707405
605296370.0 0.3309033635 -0.7868648553 -2.3285e-06 4.45217e-05 -0.0002989352 -1.41192e-05 -0.2835665431 0.7954291164
610296340.0 0.3238485986 -0.7898560025 1.0426e-06 9.84922e-05 4.7697e-05 -3.40008e-05 -0.2757701457 0.7979976921
615296310.0 0.3157575093 -0.7928403135 0.0001252781 0.0001281135 0.0001129861 -0.0002132387 -0.2671764707 0.8005441457
620296280.0 0.307833108 -0.7953979585 0.0001187361 0.0001324498 9.55499e-05 -5.3872e-06 -0.2599693872 0.8034300601
625296250.0 0.3001887076 -0.7983762368 -9.9584e-05 8.2439e-06 2.7111e-05 0.0002127504 -0.2512971927 0.8051635812
630296220.0 0.29189131 -0.8009153336 -7.20998e-05 0.0002183531 2.92951e-05 1.15924e-05 -0.2434215075 0.8082620072
635296190.0 0.2844695912 -0.8031072425 -6.08787e-05 -2.21383e-05 -6.27369e-05 -1.41921e-05 -0.23552859 0.810029432
640296160.0 0.2760874816 -0.8061885923 -1.81812e-05 0.0001700414 2.24768e-05 0.000156003 -0.2270195822 0.8127550321
645296130.0 0.2687195161 -0.808168851 -0.0001559572 -8.8004e-05 0.0001133767 5.01417e-05 -0.2194342178 0.8144991491
650296100.0 0.2603211646 -0.8105252583 -4.99677e-05 -0.0001708534 3.56146e-05 -8.88418e-05 -0.2108458585 0.8169923731
655296070.0 0.2523011289 -0.8133916909 -3.17783e-05 0.0001696167 9.23572e-05 0.0001306411 -0.2032153996 0.8188498306
660296040.0 0.2437950115 -0.8151816156 0.0001856409 -1.3035e-05 -0.0001937476 7.82009e-05 -0.1942401229 0.8212095598
665296010.0 0.2360706438 -0.8177278378 0.0001564035 -4.474e-05 -6.99245e-05 0.0001552167 -0.1861808903 0.8225632673
670295980.0 0.2281177475 -0.8197477557 -9.20931e-05 2.31631e-05 -0.0001081815 0.0001533102 -0.178553742 0.8247779425
675295950.0 0.2195526202 -0.8218490893 4.1049e-05 -8.40016e-05 2.62106e-05 1.52533e-05 -0.1698693569 0.8266176163
680295920.0 0.211060921 -0.823574856 9.20238e-05 -0.0001276157 -3.75292e-05 6.272e-05 -0.1610658836 0.8277250939
685295890.0 0.2035487522 -0.8248690671 -4.8346e-05 0.0001242041 3.71596e-05 0.0001187775 -0.1531505051 0.8300789161
690295860.0 0.1952972313 -0.8266587794 -0.0001597059 0.0001013435 7.32769e-05 -1.51043e-05 -0.1453639639 0.8310482199
695295830.0 0.1868317104 -0.8290879109 0.0001185072 -6.09314e-05 -0.0001442804 6.81502e-05 -0.1374626076 0.8327600314
700295800.0 0.1777307407 -0.8305294571 -0.0001126199 -0.0001617821 7.4577e-06 -0.0001396668 -0.1284962448 0.8336311842
705295770.0 0.1704563871 -0.8318233534 3.7196e-05 0.0001426094 0.00018484 0.0001074871 -0.1202352666 0.8354289889
710295740.0 0.1619381945 -0.8325660244 -8.05023e-05 -3.0049e-05 1.90697e-05 4.12852e-05 -0.1117269827 0.8364685413
715295710.0 0.1540243366 -0.8338266267 -0.0001637011 0.00030901 -2.32604e-05 -6.41888e-05 -0.1030674978 0.8363969642
720295680.0 0.1454976744 -0.8353528374 0.0001245498 8.73261e-05 7.28354e-05 -0.0001312083 -0.0944563416 0.8379440377
725295650.0 0.1369946083 -0.8363813852 -0.000108107 -0.0001396314 8.8329e-06 -5.85522e-05 -0.0870257499 0.8395836133
730295620.0 0.1286012697 -0.8378723032 0.0001661673 0.0002260769 -9.33204e-05 -3.96824e-05 -0.0785376452 0.8397204896
735295590.0 0.1203166195 -0.8387178167 0.0002247771 -0.0001425407 -2.19555e-05 0.0001129051 -0.0699779573 0.8406476742
740295560.0 0.111700842 -0.8397398873 -0.0001948782 5.17553e-05 0.0001074164 8.09849e-05 -0.0616929955 0.841511141
745295530.0 0.1035924916 -0.840164948 5.59546e-05 -0.0001148536 -0.0002246748 -1.31344e-05 -0.0535419808 0.8416078557
750295500.0 0.0950046231 -0.8410638478 0.0001202662 6.86498e-05 -4.00074e-05 -3.106e-05 -0.0449515955 0.8422822934
755295470.0 0.0864104264 -0.8411998974 1.38577e-05 -0.00023504 -7.37206e-05 2.63403e-05 -0.0364766705 0.8429413515
760295440.0 0.0784617766 -0.8419688761 6.57989e-05 -1.01299e-05 8.83101e-05 0.000106501 -0.0277407282 0.8424915339
765295410.0 0.0703642748 -0.8419142104 7.67908e-05 0.0002687065 -9.6898e-05 0.0001116985 -0.0195092848 0.8432779939
770295380.0 0.0617236674 -0.8421443365 -9.4546e-06 -8.98009e-05 0.0001530212 -0.0001745857 -0.0113681121 0.8431957312
775295350.0 0.0528310771 -0.842725864 7.4953e-05 0.0001481138 -0.0001337306 4.3437e-05 -0.0033143759 0.8435222024
780295320.0 0.044431692 -0.843385495 -0.0001907246 -0.0001247427 -7.2413e-05 -0.0002304594 0.0056818035 0.8437553907
785295290.0 0.0364414241 -0.8430811358 6.57886e-05 7.66105e-05 8.95184e-05 0.0001505428 0.0137269491 0.8432726175
790295260.0 0.0281348061 -0.8436529278 -0.0001011328 6.4631e-06 -3.14753e-05 7.16585e-05 0.0218899699 0.8433902222
795295230.0 0.0200008243 -0.8438484018 6.9206e-05 -0.0001588704 2.651e-07 -0.0001234175 0.0299197128 0.8425922974
800295200.0 0.010881128 -0.8436677208 -0.0001556335 2.87048e-05 -0.0001472005 4.41532e-05 0.0382689571 0.842345342
805295170.0 0.002573777 -0.8439635897 -7.33763e-05 7.06321e-05 -8.90833e-05 -0.0001010293 0.047364508 0.8413833452
810295140.0 -0.0054081392 -0.8424719313 0.0001362396 0.000132595 6.37347e-05 -6.30681e-05 0.0557205403 0.8412458228
815295110.0 -0.0139709149 -0.8426255728 -0.000207903 4.28795e-05 -0.0001158103 -0.0001408454 0.063033243 0.8409949394
820295080.0 -0.0229243188 -0.8422151452 -0.0002083647 -1.75515e-05 4.46981e-05 6.33334e-05 0.0713733577 0.8404255478
825295050.0 -0.0315897651 -0.8419974008 0.0001454568 5.37556e-05 0.0001161592 0.0001073903 0.0802020201 0.8392750334
830295020.0 -0.0389613789 -0.8416982976 4.77301e-05 2.08671e-05 -6.76327e-05 -0.0001130381 0.0880262497 0.8379332886
835294990.0 -0.0477124731 -0.8410147484 -9.37781e-05 -8.96589e-05 -0.0001204976 -0.0001664759 0.0968047984 0.8382552418
840294960.0 -0.0552612437 -0.8405057827 3.8968e-05 5.56451e-05 -6.32933e-05 -4.27083e-05 0.1054672803 0.8370696483
845294930.0 -0.0646007788 -0.8394272813 0.0001415099 -1.42315e-05 -1.8602e-05 -5.24743e-05 0.1135692709 0.8353423263
850294900.0 -0.0716758632 -0.8384820983 0.000176496 6.65404e-05 6.44283e-05 0.0002505067 0.1213556384 0.8346002928
