!Created with skrf (http://scikit-rf.org).
# Hz S RI R 50.0 
!freq ReS11 ImS11 ReS21 ImS21 ReS12 ImS12 ReS22 ImS22
300000.0 -0.2085234158 -0.0802482156 -0.0021026908 -0.0009335503 0.0009701948 0.0005988982 -0.7676157507 -0.1681448534
5299970.0 -0.2140181468 0.0084002906 0.0001302726 -0.0001770574 2.693e-07 -5.84695e-05 -0.7845068412 -0.0086522601
10299940.0 -0.2102452205 0.0212643408 1.95707e-05 7.86916e-05 -3.86438e-05 2.77231e-05 -0.7880461208 -0.0053631357
15299910.0 -0.2055052751 0.0312403139 5.48469e-05 -9.21528e-05 -3.98692e-05 1.67579e-05 -0.7936331316 -0.0032054534
20299880.0 -0.1994393964 0.039044648 6.67911e-05 0.0001774831 -4.20045e-05 -8.6023e-05 -0.8000093125 0.0015384911
25299850.0 -0.1928325776 0.0454283828 0.000159632 7.8478e-06 -0.0001045591 3.72979e-05 -0.8066367447 0.0075108502
30299820.0 -0.1861639371 0.0504343398 -8.2145e-05 4.62538e-05 -1.11122e-05 -9.3545e-05 -0.8120649557 0.0148344758
35299790.0 -0.1799101688 0.0546616156 -0.0001534642 0.0003530742 -0.0001508314 -0.0001420008 -0.8176340381 0.0236211349
40299760.0 -0.1737952922 0.0570345746 -0.0001088772 -5.61046e-05 3.211e-07 -0.0002314929 -0.8212173701 0.0331679578
45299730.0 -0.1682777895 0.0594200416 0.0002059154 -9.859e-07 -0.0001402936 7.97239e-05 -0.8252493036 0.0425317147
50299700.0 -0.1630747588 0.0606567647 -0.0001773406 -0.0001222591 5.08193e-05 -0.0001171493 -0.8276240805 0.0525207422
55299670.0 -0.1583286354 0.0617289912 2.7497e-05 0.0001426955 -9.65659e-05 0.0001110188 -0.8295625735 0.06290205
60299640.0 -0.1539784231 0.0620365418 9.84288e-05 -0.000132008 3.59968e-05 5.19432e-05 -0.8305468284 0.073323489
65299610.0 -0.1500939785 0.0628487871 6.162e-05 -0.000200404 0.0001954376 -1.51028e-05 -0.8309775742 0.0829473321
70299580.0 -0.1466554801 0.0626550615 -1.95123e-05 0.0001589849 0.0001180423 -0.0001101015 -0.8321508735 0.0926605894
75299550.0 -0.1432834677 0.062595133 0.0001933541 8.39473e-05 -2.44235e-05 0.0001121137 -0.8326861465 0.1026321611
80299520.0 -0.1403828405 0.0626646662 0.000117153 -8.35378e-05 -0.0002341841 4.1395e-05 -0.8317208709 0.1121955794
85299490.0 -0.1378639847 0.0621336747 0.0001107848 -0.0001655108 -6.2288e-06 -7.39357e-05 -0.8316191132 0.1220764683
90299460.0 -0.1354271241 0.0622054996 0.0002462764 -3.98552e-05 0.0001645698 -0.0001659353 -0.8303532876 0.131341195
95299430.0 -0.1332441168 0.061989848 -1.62826e-05 8.28253e-05 -0.0001450131 -5.8287e-05 -0.8301090541 0.1414018643
100299400.0 -0.1316734405 0.0623215116 -0.0001209432 -9.86811e-05 -0.0001434847 9.79768e-05 -0.8285647859 0.1497417196
105299370.0 -0.129589204 0.061614533 7.4581e-06 6.46249e-05 3.36592e-05 -6.2253e-06 -0.8273030803 0.1594658006
110299340.0 -0.1283091002 0.0616713793 5.22104e-05 0.000167873 -0.000148713 0.0001922093 -0.8270257479 0.1681467316
115299310.0 -0.1268524264 0.0611691574 0.000323319 6.11676e-05 -2.2764e-06 4.60665e-05 -0.8245571619 0.1772729894
120299280.0 -0.1256537123 0.0612685278 0.0001561771 3.51236e-05 -3.54283e-05 -6.07713e-05 -0.8234689711 0.1862375581
125299250.0 -0.1247784171 0.060944274 -0.0001926101 3.56274e-05 8.22108e-05 1.91143e-05 -0.8218892911 0.1960089267
130299220.0 -0.123288998 0.0614690685 6.28813e-05 0.0003348271 -8.7088e-06 -5.4392e-05 -0.8205193677 0.2039050346
135299190.0 -0.1225058682 0.0611807889 5.72572e-05 0.0001109116 8.6615e-06 -2.09686e-05 -0.8179828826 0.2126209561
140299160.0 -0.1215757863 0.0615399183 8.54214e-05 0.0001278921 -2.18875e-05 0.0001117086 -0.815963857 0.2213549297
145299130.0 -0.1207835958 0.0615029856 6.74142e-05 -4.7481e-06 5.60939e-05 0.0001878258 -0.8139514134 0.2302975127
150299100.0 -0.1200869173 0.0617526585 1.62781e-05 3.75728e-05 0.0001229921 -4.53601e-05 -0.8117334892 0.2388325753
155299070.0 -0.1194229242 0.0622027738 0.0001111175 0.0002317579 3.49506e-05 3.36792e-05 -0.8092011478 0.2476618399
160299040.0 -0.1188239449 0.0620884098 0.0003137809 7.56138e-05 -8.28219e-05 0.0001774863 -0.8077035957 0.2566717042
165299010.0 -0.1182252743 0.0625182765 3.74443e-05 0.0001802649 9.05639e-05 -0.000142854 -0.8042470644 0.2650880844
170298980.0 -0.1175873532 0.062802244 6.1012e-05 6.19474e-05 7.825e-07 8.4345e-06 -0.8024383983 0.2733803402
175298950.0 -0.1169159116 0.0635060178 0.000249193 0.0001939551 7.29603e-05 2.95371e-05 -0.7991174007 0.281988927
180298920.0 -0.1164931723 0.0638089061 -0.0001764905 -8.02635e-05 0.0001975968 8.95528e-05 -0.7953074272 0.2905644911
185298890.0 -0.1160769676 0.0641286424 3.45362e-05 0.0001723519 -9.48667e-05 0.0002362302 -0.7928760728 0.2987865424
190298860.0 -0.1152108434 0.0645834353 -8.5524e-05 5.59421e-05 -1.899e-07 0.0001092484 -0.7895641663 0.3079897735
195298830.0 -0.1145870185 0.0651227914 0.0001359759 2.18481e-05 -0.0001222895 0.0001031262 -0.7864643377 0.3158543045
200298800.0 -0.114333001 0.0660763956 0.0001669209 -0.0001453179 0.0001842195 8.12967e-05 -0.7829985902 0.3238828666
205298770.0 -0.1137868597 0.0666189987 8.78404e-05 -0.0001007331 0.0001498263 0.0002249116 -0.7799743994 0.3321609117
210298740.0 -0.1132791182 0.0672703754 3.7292e-05 -4.69322e-05 0.0001545092 -2.31522e-05 -0.7767810684 0.3404083661
215298710.0 -0.1129121143 0.0679157945 0.000296236 -6.12045e-05 0.0001975656 2.31737e-05 -0.773009732 0.3481880085
220298680.0 -0.1126264115 0.0683719941 -4.77695e-05 0.0001637837 4.24573e-05 6.58386e-05 -0.7695198987 0.3569299627
225298650.0 -0.1120578383 0.069357514 -2.85725e-05 7.19289e-05 -4.3077e-05 0.0001646589 -0.7659276608 0.3647343283
230298620.0 -0.1116849254 0.0699654729 3.9534e-05 -7.4531e-05 -0.0001354866 0.0001261676 -0.7616013731 0.3724302217
235298590.0 -0.1111747967 0.0705108905 9.8628e-05 9.39404e-05 0.0001509217 0.0001052492 -0.7579067914 0.380786127
240298560.0 -0.1107089845 0.0716278953 0.0001055377 -5.58599e-05 0.0001266896 1.30646e-05 -0.7538195028 0.3883757827
245298530.0 -0.110072027 0.0723696432 -3.80124e-05 0.0001184342 0.0001735952 0.0001675885 -0.7501090937 0.3964669751
250298500.0 -0.1096888897 0.0734130591 0.000163075 9.29016e-05 6.53585e-05 5.18488e-05 -0.7454115661 0.4048054751
255298470.0 -0.1090778156 0.0741121274 0.000205202 -0.0001373905 0.000214832 3.65672e-05 -0.7410692058 0.4123521223
260298440.0 -0.1084264727 0.074931012 9.03254e-05 -7.634e-05 -7.02904e-05 8.88234e-05 -0.7365216333 0.4199339296
265298410.0 -0.1081856708 0.0759295999 0.0002040107 -2.6355e-06 0.0001374578 -3.00312e-05 -0.7324585046 0.4273620979
270298380.0 -0.1072849203 0.0768703466 -8.45353e-05 -0.0001410372 7.797e-06 -9.05898e-05 -0.7277737603 0.4353111236
275298350.0 -0.1069118355 0.0776816625 0.0001823111 0.0001529356 7.80759e-05 6.19834e-05 -0.7227556981 0.4431329379
280298320.0 -0.1064682459 0.0785451969 1.41921e-05 0.0001435305 4.66491e-05 0.0002095914 -0.7185413474 0.450399882
285298290.0 -0.1060606065 0.0797274001 0.0001386998 -0.0001559733 0.0002788099 0.0002431057 -0.7129107534 0.4577111826
290298260.0 -0.1053693149 0.0802831065 -3.53727e-05 0.0001629002 6.83193e-05 6.06412e-05 -0.7087105898 0.4654448562
295298230.0 -0.1048231229 0.0812691635 4.42254e-05 3.11022e-05 0.0001830036 4.64868e-05 -0.7034526104 0.4723542054
300298200.0 -0.1041260388 0.0818847974 1.28558e-05 0.0001311173 0.0001226857 6.91496e-05 -0.6986481186 0.48032246
305298170.0 -0.103233749 0.0829708879 7.99133e-05 -1.80743e-05 -0.0001101828 8.02178e-05 -0.692903992 0.4880819432
310298140.0 -0.1028489512 0.0834249992 0.0001364412 0.0001481005 4.8458e-06 0.0002238334 -0.6885368591 0.4953247885
315298110.0 -0.1024090042 0.0844583263 8.56004e-05 0.0001196188 0.00023532 0.000210079 -0.6829907551 0.5024169696
320298080.0 -0.1016822796 0.0854389246 -3.6929e-05 0.0001417121 0.0001480412 3.22651e-05 -0.6777683679 0.5094209124
325298050.0 -0.1014459078 0.0861116067 -0.0001064937 5.7456e-06 2.32832e-05 0.0001551709 -0.6720730938 0.516254286
330298020.0 -0.1008963652 0.0874179031 9.50592e-05 0.0001227357 0.000100726 -8.72604e-05 -0.6662832888 0.5232468197
335297990.0 -0.1003572728 0.0882797908 0.000271515 -0.0001302376 0.0002703814 2.6542e-05 -0.6611202544 0.5298083156
340297960.0 -0.099901973 0.0892366478 6.8337e-05 -2.88281e-05 0.0001253116 0.0001436989 -0.6553646516 0.5372105869
345297930.0 -0.099406704 0.0899526292 0.000198219 2.99368e-05 2.26459e-05 -1.73306e-05 -0.64980054 0.5438925405
350297900.0 -0.0985174273 0.0913717397 8.9972e-05 0.000101699 -3.27814e-05 0.0001721267 -0.6441919628 0.5512176129
355297870.0 -0.0980126688 0.0921349458 8.42288e-05 0.0002723139 -6.88399e-05 0.0001249735 -0.6383070127 0.5571450429
360297840.0 -0.0972136737 0.0932825007 0.0001299616 3.45268e-05 -7.0791e-05 7.90676e-05 -0.6323334557 0.5635562652
365297810.0 -0.0967089879 0.0939799893 0.000305829 1.70611e-05 0.0002151766 9.11391e-05 -0.6261613182 0.5707167977
370297780.0 -0.0959052757 0.0950527925 0.0002039649 7.2851e-05 0.0002766675 0.0001515997 -0.6203320503 0.576462331
375297750.0 -0.0950714165 0.0963434044 2.69845e-05 -5.6755e-06 7.44843e-05 0.0002601598 -0.6139072002 0.5833916771
380297720.0 -0.094230535 0.0972418317 0.0001766169 9.7275e-06 4.10368e-05 0.000116535 -0.6079308331 0.5907748846
385297690.0 -0.0936302324 0.0983247367 0.0002450108 2.60635e-05 5.03286e-05 7.21185e-05 -0.6024180823 0.5963146181
390297660.0 -0.0927332045 0.0994952607 0.0001263845 6.84946e-05 0.0002093 -6.61491e-05 -0.5951118178 0.6018990531
395297630.0 -0.0921785566 0.1001923106 -3.96548e-05 8.47563e-05 -0.00013634 -4.8801e-06 -0.5886437088 0.6090658131
400297600.0 -0.0910802767 0.1014279924 0.0001333211 4.25401e-05 -0.0001058561 6.15242e-05 -0.5826481918 0.6137912185
405297570.0 -0.0903205315 0.1020580779 2.13079e-05 0.0001305874 0.000153178 0.0001439163 -0.5770303677 0.6199766613
410297540.0 -0.0894716122 0.1032234835 0.0002282937 0.0002772834 0.0002086872 7.19088e-05 -0.5697745034 0.6256180226
415297510.0 -0.0887503721 0.1042876112 0.0001755792 7.73843e-05 0.0001390148 6.73106e-05 -0.5637458141 0.6317614482
420297480.0 -0.087696247 0.1051287908 3.8782e-05 2.15408e-05 0.0001853455 0.0001334289 -0.5568751847 0.6371643817
425297450.0 -0.0869029315 0.1060611842 -3.10558e-05 5.85341e-05 0.0001043932 1.97201e-05 -0.5500849188 0.643546737
430297420.0 -0.086291348 0.1072023706 0.0001919405 8.15723e-05 0.0001521434 -7.07801e-05 -0.5434594267 0.6486895494
435297390.0 -0.0850404462 0.1079309929 -6.00517e-05 2.48163e-05 0.0001147112 -3.03839e-05 -0.5368876344 0.6537809228
440297360.0 -0.0841167063 0.1089697927 0.0001589663 9.47443e-05 9.57276e-05 -6.63879e-05 -0.530213051 0.6594878569
445297330.0 -0.08341519 0.1102737698 5.92663e-05 3.43117e-05 0.0001501289 -0.0001253426 -0.5235070003 0.6643815415
450297300.0 -0.0823236762 0.1109157744 0.0001208391 -5.52662e-05 0.0001320693 0.0002231162 -0.5167535145 0.6697366556
455297270.0 -0.0815188067 0.1118863298 0.0001675695 0.000172793 0.0001701397 0.0001459552 -0.5096929477 0.6749099696
460297240.0 -0.0807123947 0.1129559392 0.0001739683 1.46753e-05 0.0001843872 7.86007e-05 -0.5028415581 0.6803885254
465297210.0 -0.0793276289 0.1137635678 0.0001649189 5.32874e-05 0.0001703665 0.0002133782 -0.4963128213 0.6849210909
470297180.0 -0.0785000191 0.1144681826 0.00027767 0.0001901865 0.0002255169 -0.0002125816 -0.4892145413 0.6897406389
475297150.0 -0.0776371697 0.1156013682 0.000276491 3.5294e-05 9.28843e-05 0.0001152968 -0.4816607074 0.6946155529
480297120.0 -0.0766803007 0.1163137622 0.0002334452 0.0003159781 0.000114813 -9.2511e-06 -0.4749324908 0.6999804352
485297090.0 -0.0753401362 0.1173827586 0.000157479 0.0001214154 0.0001387988 0.0001232635 -0.4677097614 0.7039273525
490297060.0 -0.0745378274 0.1181540727 0.0002957001 -1.95395e-05 5.18015e-05 0.0001032455 -0.4605048153 0.7087054999
495297030.0 -0.0734113742 0.1190016568 7.53651e-05 -0.0001057635 0.0002928418 -2.7602e-05 -0.4531546365 0.7129035965
500297000.0 -0.0724607942 0.1198171017 0.0001427043 0.0001649239 -3.64277e-05 4.15739e-05 -0.4466933258 0.7176325193
505296970.0 -0.0715178513 0.120760323 0.0001026039 0.0001174651 0.0002359092 -0.000147186 -0.4400109828 0.7218068922
510296940.0 -0.0703215798 0.1216442693 0.0002136337 0.0002393312 0.0003145422 -9.18057e-05 -0.4322853012 0.7261364272
515296910.0 -0.0691979778 0.1226952043 -3.54566e-05 0.0001225795 0.0002585697 -1.24972e-05 -0.4247189267 0.7306603106
520296880.0 -0.0679105473 0.1234269156 0.0003073185 0.0001689813 0.0001046083 1.1173e-05 -0.4172990815 0.7347407069
525296850.0 -0.0670285859 0.124284196 3.05167e-05 1.26743e-05 7.18369e-05 -9.49763e-05 -0.4097920796 0.7393990638
530296820.0 -0.0660288496 0.1249769963 -3.08333e-05 0.0002428188 0.0001360414 4.1939e-05 -0.4029127027 0.7424521994
535296790.0 -0.0648544181 0.1259284632 0.0001845146 0.0003131199 0.0001581451 0.0001344657 -0.3952816009 0.7458198607
540296760.0 -0.0636977523 0.1262910628 0.0002278655 0.000253435 4.86207e-05 0.0001567872 -0.3878384806 0.7507127739
545296730.0 -0.0626665996 0.1272981045 0.000151803 -3.01642e-05 0.0001929225 9.27915e-05 -0.3803822106 0.7538287905
550296700.0 -0.0615131054 0.1283433818 0.0001432859 0.0001412493 0.0002435693 8.30063e-05 -0.3729269375 0.7579626367
555296670.0 -0.0600874146 0.128944718 0.0001691207 1.78045e-05 1.34542e-05 2.09747e-05 -0.3652412149 0.7615163188
560296640.0 -0.0591514892 0.1297858148 0.0003141906 -0.0002074091 4.90849e-05 7.85946e-05 -0.3575585492 0.7655206024
565296610.0 -0.0580688449 0.1306445979 0.0002416163 7.9945e-05 0.000301337 0.0001409525 -0.3501596258 0.7688565222
570296580.0 -0.0566663465 0.1311947781 0.000220864 -2.55e-06 0.0001405538 -3.74755e-05 -0.3430574109 0.7727620017
575296550.0 -0.0552826881 0.1319795638 0.0002512276 -0.0001419568 0.0001059173 4.97703e-05 -0.3344729891 0.7757465857
580296520.0 -0.0543470576 0.1324216635 0.0002635123 0.0002771512 0.0003275187 -1.40711e-05 -0.3265929147 0.7791861031
585296490.0 -0.0530427945 0.1333142694 0.0001603149 0.000215441 0.0003758791 -1.4962e-06 -0.3192181224 0.7816372789
590296460.0 -0.0520466405 0.13396267 0.0003188167 0.0002463109 0.0003071727 -5.49017e-05 -0.3112005805 0.7849285713
595296430.0 -0.0506934365 0.134711881 0.000240012 0.0001128535 9.90076e-05 1.00791e-05 -0.3039492104 0.7873426402
600296400.0 -0.0495164437 0.1353731996 0.0002446824 0.0001621972 0.0001698502 -8.94341e-05 -0.2956336965 0.7913562415
605296370.0 -0.0481237324 0.1360936407 0.0003614277 -0.0002062992 0.0001967812 0.0001235688 -0.2882481087 0.7942441037
610296340.0 -0.0467794147 0.1365076221 0.0004103454 -2.98573e-05 0.0003536027 -6.1757e-05 -0.2802042047 0.796769763
615296310.0 -0.0455486427 0.137495323 0.0002824698 0.0002638563 0.0002048269 -3.53394e-05 -0.2723161561 0.79928853
620296280.0 -0.0442629541 0.1378644753 0.0001849919 -0.0001281063 0.0003914384 2.97409e-05 -0.2646713757 0.8017173249
625296250.0 -0.0429338707 0.1387772013 0.0001775481 4.56594e-05 0.0002221493 1.82117e-05 -0.2565235614 0.8045683546
630296220.0 -0.0415324161 0.1394332954 6.61285e-05 -3.43954e-05 0.0001012324 -0.0001194886 -0.2482040437 0.8070186392
635296190.0 -0.0406258304 0.1400007499 0.0001514729 5.18411e-05 0.0002155958 0.0001195699 -0.2406419059 0.8095164925
640296160.0 -0.0389970215 0.1400227071 0.0001949353 -0.0002303185 8.57461e-05 0.0001166962 -0.2317909406 0.8118120746
645296130.0 -0.0379609392 0.1408993368 0.0002019585 -0.0001020153 0.0002859361 -9.0664e-05 -0.2247986542 0.8139881437
650296100.0 -0.0365414667 0.1416915076 0.0004497823 3.5435e-06 0.0001399265 8.85897e-05 -0.2164169799 0.8162714809
655296070.0 -0.0349864233 0.1419323923 8.66663e-05 5.60094e-05 0.0002933609 -4.9068e-05 -0.2078630267 0.8179642529
660296040.0 -0.0339894216 0.1427316515 -5.7465e-05 -0.0001655302 0.0001716834 -3.812e-06 -0.200507196 0.8203683101
665296010.0 -0.0325905487 0.1429443762 0.0001292622 -0.0001785593 5.43646e-05 -6.64691e-05 -0.1925803862 0.8221582197
670295980.0 -0.031076714 0.1434961917 0.0001535013 2.83715e-05 0.0002531247 -0.0001470184 -0.1848079741 0.8242284479
675295950.0 -0.0296517133 0.1439394263 0.0002012849 5.86738e-05 0.0002136531 -7.3811e-05 -0.1761087842 0.8262166248
680295920.0 -0.0285737876 0.1445614646 0.0003365863 -0.0001451555 0.0003454619 1.8471e-06 -0.167401912 0.8274024802
685295890.0 -0.0270214484 0.145116374 0.0001229177 2.31331e-05 0.0001614851 0.0001180043 -0.159358653 0.8297654921
690295860.0 -0.0257819049 0.1455972229 0.0001277153 -0.000275459 0.0003888712 -0.0001157539 -0.1514020004 0.8306128926
695295830.0 -0.0242646578 0.1459469111 0.0003709658 -3.61615e-05 0.0003534909 9.0855e-05 -0.1430405534 0.8323890508
700295800.0 -0.0229106364 0.14650442 0.0003972903 4.71467e-05 0.0001758562 -0.0002042924 -0.1345355898 0.8325085012
705295770.0 -0.02136004 0.1470315433 0.000353399 1.24014e-05 0.0002987255 2.34472e-05 -0.1274266927 0.8352841339
710295740.0 -0.0201620288 0.1474932096 0.0001994931 7.82052e-05 7.53219e-05 2.76426e-05 -0.1190410015 0.8367864976
715295710.0 -0.0188392753 0.1477969244 0.0002825357 -1.91133e-05 0.0001706844 -8.60709e-05 -0.1102468994 0.8376047688
720295680.0 -0.0175924112 0.1479373702 0.0001298583 0.0001362129 0.0003616834 -4.21027e-05 -0.1022878352 0.8384115569
725295650.0 -0.0159410708 0.1486200902 0.0001999534 7.2357e-05 0.0003227542 4.2875e-06 -0.0937165564 0.8395314641
730295620.0 -0.0145159956 0.1484185065 0.000113927 -2.8873e-05 0.0002688173 8.67566e-05 -0.0854970813 0.8401622031
735295590.0 -0.0127108136 0.1491270253 0.0002070868 -0.0001601082 0.0001096535 -0.0002023585 -0.0770359255 0.8407313338
740295560.0 -0.0115028861 0.1496957524 0.0003443929 -0.0001919308 0.0001379954 -4.60641e-05 -0.0688163074 0.8411546221
745295530.0 -0.0103915134 0.1497798284 0.0003063969 0.000127367 0.0003146647 2.9882e-05 -0.060913178 0.8419070106
750295500.0 -0.0090931284 0.1501109611 0.0004654359 0.0002280969 0.0001195902 -3.07914e-05 -0.0521301601 0.8424756849
755295470.0 -0.0070274903 0.1505083855 0.0001816366 8.70017e-05 4.33888e-05 1.17645e-05 -0.0442923236 0.843547537
760295440.0 -0.0060666969 0.1507146991 0.0003977472 0.0002231279 0.0001697298 7.57383e-05 -0.0362152415 0.8433061237
765295410.0 -0.0044219774 0.1508831321 5.49614e-05 -0.0001387076 0.0001345136 -3.58402e-05 -0.0268719075 0.8442243084
770295380.0 -0.0029521563 0.1513427357 0.0003421561 4.1156e-06 0.0002789736 -4.5842e-06 -0.0186984216 0.8438826844
775295350.0 -0.0015535416 0.1516168477 0.0002323761 -4.72629e-05 0.0002921283 -0.0001220066 -0.0112558883 0.8436852991
780295320.0 -0.0002272933 0.1516655373 0.0003035338 8.13302e-05 0.0003800529 -5.3455e-06 -0.0024601902 0.8446336126
785295290.0 0.0015413201 0.1521292119 0.0002169545 0.0001327011 0.0002717448 -1.47992e-05 0.0054245738 0.8444148825
790295260.0 0.0027892068 0.152095387 3.25175e-05 -5.91622e-05 0.0003478669 -0.0002335616 0.0145284316 0.8442144894
795295230.0 0.0043003354 0.1524797795 0.0003712808 -0.0002610776 0.0002517679 1.39519e-05 0.0224863522 0.8441576195
800295200.0 0.0059455192 0.152668677 0.000344045 -7.4937e-05 0.0001167414 -0.0001360943 0.0305352844 0.8435070854
805295170.0 0.0073765006 0.1525426969 0.000487017 -0.0001559228 0.0001533397 -8.74871e-05 0.038536269 0.842975798
810295140.0 0.0088039243 0.1529259253 0.0003005658 2.24584e-05 0.0002267984 -7.8668e-06 0.0474433236 0.8436944467
815295110.0 0.0101853972 0.1530132665 0.0005375484 5.35205e-05 0.0002276433 -6.75176e-05 0.0552788062 0.8426437339
820295080.0 0.011752031 0.1526719297 0.0002509235 -5.59911e-05 5.99066e-05 -1.56716e-05 0.0632754145 0.8418169431
825295050.0 0.0131512277 0.1533262771 0.0001844436 6.81387e-05 0.0003882256 -2.9264e-05 0.0720621979 0.8413882103
830295020.0 0.014857876 0.1531394675 0.0002040391 -6.00958e-05 0.0001911878 -0.0001592539 0.0798489337 0.8404303047
835294990.0 0.0162373003 0.1535475397 0.0002534957 -0.0001416089 0.0005686531 -0.0001960666 0.088433442 0.8397727985
840294960.0 0.0176735659 0.1531017131 0.0003065423 -0.0004088943 0.0004527984 -0.0001333302 0.0962321957 0.8392000361
845294930.0 0.0192428897 0.1537837851 1.45967e-05 -0.0001804375 0.0002644488 -0.0002801363 0.1048878473 0.8377555733
850294900.0 0.0206908951 0.1534311917 0.0002180634 9.07324e-05 0.0004395881 -0.0002986101 0.1129576445 0.8365379769
