!Created with skrf (http://scikit-rf.org).
# Hz S RI R 50.0 
!freq ReS11 ImS11 ReS21 ImS21 ReS12 ImS12 ReS22 ImS22
300000.0 -0.7715492549 -0.1444573504 7.07372e-05 0.0009616251 0.0002948688 0.0010519998 -0.0479009039 -0.0689974739
5299970.0 -0.7853049439 -0.0072315751 0.0002136901 0.0001676688 4.90412e-05 -0.0002974307 -0.0493499298 0.0148313946
10299940.0 -0.7879012042 -0.0046436833 -1.88313e-05 -0.0001445153 0.000179632 -9.45465e-05 -0.0436957762 0.0321563382
15299910.0 -0.7929936169 -0.0017296835 0.0001777375 0.0001288037 -2.03681e-05 -1.06878e-05 -0.0355402681 0.0464273827
20299880.0 -0.7995691831 0.0022987793 0.0001348083 0.0001013407 0.000191533 2.59059e-05 -0.0259939716 0.0581880774
25299850.0 -0.8065674639 0.0084961716 1.52508e-05 0.0001114113 0.0001920399 4.10783e-05 -0.014843032 0.0676013868
30299820.0 -0.8119408238 0.0162177321 -9.88238e-05 -5.7725e-06 -4.07651e-05 0.000182211 -0.0040463388 0.0745191484
35299790.0 -0.8169457999 0.0248791011 -1.32335e-05 -6.59412e-05 0.0001238303 -5.541e-07 0.0076237664 0.079384017
40299760.0 -0.8214757433 0.0341451771 0.0001768249 7.35022e-05 -0.0001844664 1.01972e-05 0.0188331769 0.0825264856
45299730.0 -0.8247811171 0.0446727435 0.0001639429 1.6593e-06 0.000270937 6.5961e-06 0.02933904 0.0838243511
50299700.0 -0.8269948949 0.054201816 0.0001144798 1.80541e-05 -3.71477e-05 -0.0001356088 0.0396002255 0.0842953029
55299670.0 -0.8288114175 0.0641680364 -3.40829e-05 0.0001267479 -4.25315e-05 0.0001692969 0.0481972102 0.0837291301
60299640.0 -0.830324068 0.0741581697 4.35343e-05 -5.98459e-05 -1.06614e-05 0.0003291772 0.057133831 0.0817364141
65299610.0 -0.8312279131 0.0848720491 -0.0001164342 -8.14286e-05 -2.80183e-05 4.49593e-05 0.0647564168 0.0795058878
70299580.0 -0.8310568868 0.094684583 -2.44568e-05 0.0002874523 -8.50583e-05 -7.33372e-05 0.0720662115 0.076675094
75299550.0 -0.8313654034 0.1048466105 0.0001267179 0.0001545853 0.0003702014 -0.0001760529 0.078260657 0.0735999221
80299520.0 -0.8312089224 0.1144403662 -7.61848e-05 0.0001677383 -2.25727e-05 0.0001180513 0.083478184 0.0704972154
85299490.0 -0.8307063045 0.1242942471 0.0002343122 0.0001098653 0.0001852044 -1.46356e-05 0.088875252 0.0666092331
90299460.0 -0.8299087967 0.1340523574 -0.0001491019 0.0001097015 7.5267e-05 -4.11803e-05 0.0933447732 0.0628243243
95299430.0 -0.828687733 0.1436418461 -2.8382e-05 0.0001236811 9.06424e-05 0.0001815225 0.0977525468 0.0588526291
100299400.0 -0.827991602 0.1533524292 2.24178e-05 6.28671e-05 0.0001154284 -0.0001646305 0.1010656605 0.055226428
105299370.0 -0.8269008713 0.1624185924 -2.3195e-06 0.0001493548 5.26871e-05 5.44975e-05 0.1047627314 0.0511911358
110299340.0 -0.8251469837 0.171054067 6.39208e-05 0.0001189131 3.02116e-05 4.82928e-05 0.1073574719 0.0477794563
115299310.0 -0.8239570798 0.1805790633 -6.35721e-05 -0.0001232798 0.0001043317 -1.03912e-05 0.1099704075 0.0436957408
120299280.0 -0.8219596962 0.1894496763 9.38176e-05 0.0001497602 0.0002504003 -0.000135887 0.1122605698 0.0399736274
125299250.0 -0.8206368398 0.1983222696 -0.0001955438 4.32606e-05 -2.9723e-06 -1.90082e-05 0.1143419889 0.0360446853
130299220.0 -0.8183814031 0.2077421804 3.9568e-05 0.0001933582 4.35583e-05 1.35688e-05 0.115426178 0.0326169976
135299190.0 -0.816753015 0.2172319194 -1.15958e-05 2.11297e-05 9.02819e-05 7.30932e-05 0.1171794694 0.0289444594
140299160.0 -0.8146204026 0.22579731 2.08729e-05 5.94249e-05 -6.70042e-05 -2.6672e-05 0.1190253483 0.0250912817
145299130.0 -0.8124249278 0.2345648083 0.0001584414 -5.07203e-05 8.26439e-05 0.0001376264 0.1196407653 0.0222220159
150299100.0 -0.8099800809 0.2432491841 3.84782e-05 0.0002551437 -8.27127e-05 5.5348e-05 0.1210323208 0.0186561369
155299070.0 -0.8080187713 0.252618941 -3.75702e-05 2.51374e-05 -2.79237e-05 0.0001496294 0.1213343875 0.0154534816
160299040.0 -0.804773832 0.2611179345 4.45831e-05 0.0001376887 0.0001246745 9.43023e-05 0.1223210756 0.012226702
165299010.0 -0.8024955771 0.2688944474 0.0001716317 0.0002179779 8.4382e-06 8.05249e-05 0.1230591615 0.0085847965
170298980.0 -0.7998097236 0.2781065504 4.56786e-05 -2.315e-07 -1.77208e-05 0.0001248249 0.1234735317 0.0058258178
175298950.0 -0.7968298366 0.2870904582 1.89946e-05 8.01052e-05 4.93053e-05 0.0001190661 0.1237056639 0.0027621497
180298920.0 -0.7938190795 0.2949448082 0.0001529248 1.14481e-05 -3.38543e-05 0.0003278775 0.1242216837 -0.000111647
185298890.0 -0.7905616959 0.304145111 8.7653e-05 0.0001052005 0.0002588748 6.54854e-05 0.124057368 -0.0029874355
190298860.0 -0.7872757047 0.3127712733 4.24567e-05 2.6993e-06 5.02451e-05 0.0001571363 0.1246416789 -0.0055922464
195298830.0 -0.7842397129 0.3210713655 1.5372e-05 -3.36038e-05 7.48285e-05 9.17691e-05 0.1244231814 -0.0085614036
200298800.0 -0.7810455795 0.3299203924 0.0001420865 7.83795e-05 5.7675e-06 0.0001324115 0.1245284037 -0.0113335375
205298770.0 -0.7770842476 0.3373601807 0.0003724084 1.96451e-05 8.9629e-06 7.16833e-05 0.1242628084 -0.0138517318
210298740.0 -0.7735479781 0.3457999888 0.0002043535 0.000192518 0.0002248906 0.0001886392 0.1240451264 -0.0163837211
215298710.0 -0.7702032866 0.3540138339 0.000171606 5.15875e-05 4.17298e-05 0.0001064203 0.1234502378 -0.0188167498
220298680.0 -0.7670674248 0.3624861472 0.0002817501 5.62752e-05 0.0001844275 0.0002301686 0.1234345319 -0.0211648929
225298650.0 -0.7628315403 0.3711707384 -0.000129532 -6.79078e-05 0.0001835035 4.99113e-05 0.1228145989 -0.0231415505
230298620.0 -0.7588710381 0.3784365217 -8.01622e-05 0.0002207303 0.0002435665 0.0001116077 0.1227658413 -0.025976922
235298590.0 -0.7547811407 0.3868637213 2.893e-06 0.0003188174 1.7363e-06 0.000176423 0.1223221969 -0.0281613767
240298560.0 -0.7507909745 0.3952342463 7.01588e-05 0.0001142542 0.0001401323 0.0001591087 0.1215826536 -0.0303089396
245298530.0 -0.7463324728 0.4027401235 0.0001070137 1.37016e-05 0.0002035388 0.0002514402 0.1213016648 -0.0321992965
250298500.0 -0.7424975976 0.4107654984 5.02601e-05 1.64045e-05 0.0002169021 0.0001015964 0.1208669877 -0.0346090475
255298470.0 -0.7377236652 0.4186657698 0.0002130421 2.12087e-05 -3.00328e-05 1.58835e-05 0.119978955 -0.0366937023
260298440.0 -0.7337231929 0.4257757752 0.0001459129 0.0001877325 0.0002264872 0.0001756189 0.1195046493 -0.038608658
265298410.0 -0.7293007648 0.4337256929 0.0002615205 0.0002019161 0.0001821849 1.60385e-05 0.1189566996 -0.0407458372
270298380.0 -0.7245284957 0.4414246089 0.0002902104 9.70459e-05 -0.0001529842 0.0002293136 0.1185852037 -0.0428009178
275298350.0 -0.7196680918 0.4491180687 -5.37968e-05 0.0001395752 1.52451e-05 3.6889e-05 0.1175086149 -0.0443431204
280298320.0 -0.7152386228 0.4569780097 0.0002875813 -0.0001917801 0.0002608909 0.0002623807 0.1170503937 -0.0463746559
285298290.0 -0.7101731247 0.4646864065 9.03e-08 0.0003975104 0.0001908078 0.00018899 0.1161239046 -0.0480111904
290298260.0 -0.7057426331 0.471411071 0.000163405 -1.36255e-05 0.0001816774 -3.14136e-05 0.1156325671 -0.0500141973
295298230.0 -0.7005009892 0.4797423925 3.15936e-05 0.0001509408 -0.0001454806 1.02561e-05 0.1144839496 -0.0516492712
300298200.0 -0.6946054329 0.4866568861 1.373e-07 0.0001891244 5.50077e-05 0.0002850638 0.1136951953 -0.0532918948
305298170.0 -0.6902268341 0.4944286028 0.0002354478 -1.0532e-05 0.0002887033 9.3612e-06 0.1134187728 -0.0547652969
310298140.0 -0.6844233343 0.5010148136 0.0002090847 0.0001466015 0.0001371688 6.36192e-05 0.1124584403 -0.0566589102
315298110.0 -0.6795615187 0.5080631404 0.0001825068 9.0153e-05 4.38951e-05 0.0002412954 0.1118781527 -0.0587919935
320298080.0 -0.6742252485 0.515543969 2.43032e-05 0.0001817037 -2.18098e-05 8.45831e-05 0.1110626554 -0.0604148579
325298050.0 -0.6679546165 0.5222282729 -1.9167e-05 0.0001743976 0.0001301097 3.57052e-05 0.1097387834 -0.0619191905
330298020.0 -0.6628863459 0.5293116977 0.0001285992 0.0001190941 7.55322e-05 0.0002157384 0.1085620182 -0.0640271459
335297990.0 -0.6574132289 0.5362676619 0.0002054895 0.0002380891 0.0001084643 0.0002302925 0.1075531165 -0.0654464983
340297960.0 -0.6522810086 0.5430173057 0.0005151789 5.2125e-05 0.0001221559 0.0001093619 0.1064304017 -0.0668629855
345297930.0 -0.6468498766 0.5488211241 8.78004e-05 8.61474e-05 0.0003842024 -4.0576e-06 0.1048478172 -0.0680947715
350297900.0 -0.6402463795 0.5558721682 6.24975e-05 0.0001132777 0.0002146923 9.81486e-05 0.1039351008 -0.0693309598
355297870.0 -0.6344304281 0.5628890506 -5.93693e-05 0.0001844 0.0001633612 0.000368327 0.102735738 -0.07055646
360297840.0 -0.6283123113 0.5693434623 0.0004910534 0.0002270976 0.0002226247 0.0001064161 0.1015352034 -0.0718582755
365297810.0 -0.6224178347 0.5759565704 3.74474e-05 -0.0001226524 0.0004011017 0.0002796954 0.1004577816 -0.0730383997
370297780.0 -0.6160416638 0.5823441744 0.0002809829 4.08417e-05 0.0001612605 4.19117e-05 0.0991446591 -0.0744117396
375297750.0 -0.6102686984 0.5882747181 0.0003135208 -0.000175988 0.0002049473 0.00013171 0.0978520172 -0.0751572078
380297720.0 -0.6035308923 0.5949738117 0.0004400214 1.23485e-05 0.0001685166 0.0002263443 0.0969751595 -0.0764044467
385297690.0 -0.5979223265 0.6011644696 0.0001157641 0.0001474259 0.0001078537 -2.33004e-05 0.0957406102 -0.0773497136
390297660.0 -0.5910379951 0.6073052849 0.0001742307 0.0002910084 0.0002781918 0.0001413483 0.0944538183 -0.0788095029
395297630.0 -0.5853342213 0.6134127198 6.00712e-05 -3.08441e-05 0.0002687838 0.0002277304 0.0932642989 -0.079975561
400297600.0 -0.5793840996 0.6190166198 0.0003821299 -5.85258e-05 9.72931e-05 0.0002391734 0.092182697 -0.0807231752
405297570.0 -0.572522694 0.6250484467 0.0001766157 -2.088e-07 5.71671e-05 1.92031e-05 0.0907251647 -0.0816615322
410297540.0 -0.5655182467 0.6311608048 0.0002046624 -0.0001216447 5.07356e-05 -0.0001843477 0.089189426 -0.0824254187
415297510.0 -0.5593666966 0.6368672938 -2.87868e-05 0.0004429476 0.0003199862 0.0001939057 0.0882580974 -0.0833020349
420297480.0 -0.551894778 0.6424789685 0.0002038453 6.1881e-05 0.0001203704 0.0001899665 0.0868055512 -0.0847055252
425297450.0 -0.5457757391 0.6481288478 -1.74824e-05 0.0001156615 0.0001848452 4.05708e-05 0.0857885051 -0.0857211852
430297420.0 -0.5394564832 0.6529594452 0.0002251243 0.0001886172 0.000217666 0.0002189777 0.0845631802 -0.086374269
435297390.0 -0.5320516905 0.6587436404 3.80283e-05 0.0001994042 0.0002319289 0.000217269 0.0832433437 -0.0871259434
440297360.0 -0.5254356959 0.6644430765 0.0002985187 0.0001401178 0.0002442247 0.0001973894 0.0818146639 -0.0882817178
445297330.0 -0.5182906241 0.6699723569 0.0003226487 -6.86621e-05 0.0003706951 3.57615e-05 0.0807301818 -0.0893014036
450297300.0 -0.511427326 0.6746313358 6.07144e-05 6.67057e-05 0.0001517397 0.0002655242 0.0789865951 -0.0897753034
455297270.0 -0.5043911632 0.6800342777 0.0003154423 0.0001991773 0.0002957588 4.59055e-05 0.0778154524 -0.0908874761
460297240.0 -0.4979200135 0.6858436873 0.0002859459 0.0001884912 0.0002841747 0.0001707128 0.0767793628 -0.0915454886
465297210.0 -0.4899775377 0.6907228983 0.0004504201 -4.93222e-05 0.0003058821 0.0001637926 0.0749528263 -0.0923303036
470297180.0 -0.4831291002 0.6949325291 0.0001962114 0.0002209104 0.0001072527 0.0002301197 0.0735267027 -0.0929688034
475297150.0 -0.4759513382 0.6996995333 -1.26621e-05 0.000170162 0.0003800747 0.0001261154 0.0726880146 -0.093871672
480297120.0 -0.4691376046 0.7048735674 0.000445426 5.22316e-05 5.54057e-05 0.0001351682 0.0710080663 -0.0942682288
485297090.0 -0.4612883905 0.7094225563 0.0003131681 9.40317e-05 0.0001948555 0.000113128 0.0693908465 -0.0952758949
490297060.0 -0.4543943705 0.7143901111 0.0002573177 6.07149e-05 0.000316344 6.29815e-05 0.0683663687 -0.0959413739
495297030.0 -0.4470779883 0.7191738576 0.0003808012 0.0003062543 0.0003843419 5.39116e-05 0.0666351894 -0.0966263007
500297000.0 -0.4388334577 0.7234499299 0.0002741342 -0.000101576 0.0002377011 9.11434e-05 0.0654448522 -0.0972568016
505296970.0 -0.4309477061 0.7269476546 0.0002712752 2.71389e-05 0.0004728732 5.83516e-05 0.0635548854 -0.097806417
510296940.0 -0.4242895033 0.7323365352 2.59268e-05 0.0002584592 0.0003325971 0.0001331417 0.0626113603 -0.0982407384
515296910.0 -0.4171843759 0.7365970958 0.0002270488 3.92673e-05 0.0002524837 0.0004292824 0.0607230013 -0.0985882978
520296880.0 -0.4095020529 0.740479652 0.0003512269 0.0001278646 0.0001889386 7.77904e-05 0.0597818821 -0.0994229037
525296850.0 -0.401948699 0.7446000119 0.0004569102 0.0001745858 0.0002023645 4.82719e-05 0.058490622 -0.1004124311
530296820.0 -0.3945111812 0.7481087731 0.0004156063 0.0002578256 0.0002918615 -0.000109815 0.0564896502 -0.1003742762
535296790.0 -0.3863776397 0.7528210698 0.000359697 1.64272e-05 0.00046736 -1.6216e-06 0.055036247 -0.1013890123
540296760.0 -0.3784500745 0.7564108219 0.0002397616 8.78083e-05 0.0003532594 0.0001847517 0.0536186434 -0.1017636039
545296730.0 -0.3713834551 0.7598133865 0.0003452457 0.0003457403 0.0003156516 0.0001336418 0.0524386663 -0.1022553426
550296700.0 -0.3632180468 0.763832481 0.0005421049 0.0003776971 0.000300398 -5.75406e-05 0.0510920423 -0.1025722917
555296670.0 -0.3544661819 0.7668652917 0.0003463527 1.36657e-05 0.0004329133 0.000151817 0.0493123392 -0.1028124705
560296640.0 -0.3471409618 0.7711661598 0.0004211908 9.01326e-05 0.0002580068 0.0001033243 0.0478745162 -0.1035112096
565296610.0 -0.3400843969 0.7738071677 0.000179665 0.0001224514 0.0004611401 9.71759e-05 0.0465856322 -0.1036794757
570296580.0 -0.3316442128 0.7775147075 0.0003595239 -0.0001660333 0.0004022796 0.0002010478 0.0447623835 -0.1041632988
575296550.0 -0.3233640424 0.7809581689 0.000292966 7.56039e-05 0.0002603484 0.0001480496 0.0434651548 -0.1046766132
580296520.0 -0.3158644838 0.7844023803 0.0003590088 0.0001539165 0.0005096551 -6.7791e-06 0.042093244 -0.1046123163
585296490.0 -0.3080397822 0.7866253722 0.0001915721 -0.0001470276 0.0002377142 9.3158e-06 0.0406080939 -0.1055586304
590296460.0 -0.299595749 0.7896601236 0.0002073287 7.56847e-05 0.0002735521 1.01502e-05 0.0392115128 -0.1054327439
595296430.0 -0.2910850091 0.7932068866 0.0002247264 4.64549e-05 0.0002813073 -0.0001410969 0.0374070596 -0.1061379549
600296400.0 -0.283538901 0.7958430131 0.0003543539 -0.0001116062 0.000427982 0.0002237394 0.0362363779 -0.106034239
605296370.0 -0.2754668099 0.7991072677 0.0002933504 0.0001282464 0.0003439883 -1.58472e-05 0.0347505268 -0.1062886755
610296340.0 -0.267694399 0.8018032237 0.000476782 -4.72234e-05 0.0003605157 -6.33531e-05 0.0331912489 -0.1063972861
615296310.0 -0.2595588595 0.8047045546 0.0003397029 0.0001231035 0.0002921656 0.0001088462 0.0317162305 -0.1070560272
620296280.0 -0.2509493149 0.8064329163 0.0001599712 0.0001872132 0.0001276648 9.3587e-06 0.0301553642 -0.1071797086
625296250.0 -0.2423579847 0.8094476071 0.0003599873 6.69011e-05 0.0003601297 0.0001288471 0.028593125 -0.1072757475
630296220.0 -0.2342468395 0.811759525 0.0005226641 0.0002330776 0.0005237465 2.63175e-05 0.0272894099 -0.1070478469
635296190.0 -0.2263612876 0.813996822 0.0002016121 4.58885e-05 0.000414828 0.0001929403 0.0260891401 -0.1073033955
640296160.0 -0.2176593804 0.8153701366 0.0003097066 -0.0001719607 0.0004319648 1.75159e-05 0.0243870776 -0.1074511484
645296130.0 -0.2101679765 0.8179686249 0.0002664505 0.000121693 0.0004225735 -1.74746e-05 0.0225128111 -0.1076133169
650296100.0 -0.201432014 0.8202325456 0.0003327859 0.0001549352 0.0003501212 -0.0001791685 0.0211732014 -0.1075503358
655296070.0 -0.1928851344 0.8221803206 0.0004574079 0.0001040654 0.0003737083 -0.0002404922 0.0198037584 -0.1078002328
660296040.0 -0.1856634088 0.8244082407 0.000287766 6.95651e-05 0.0006861972 3.9259e-06 0.0183366403 -0.1077340143
665296010.0 -0.1764932938 0.8261061831 0.0004486731 0.0001631479 0.0004455406 0.0001404654 0.016794752 -0.1077511011
670295980.0 -0.1677210019 0.82768019 0.0001705896 -0.0001202767 0.0002033427 6.33148e-05 0.0152878408 -0.1077728595
675295950.0 -0.1598138614 0.8287155769 0.000384018 -0.0003186379 0.0004451161 0.0001260822 0.0140695182 -0.1078420948
680295920.0 -0.1521994009 0.8305122098 0.0003644236 -0.0001578579 0.0003146453 0.0001490225 0.0124240355 -0.1079226389
685295890.0 -0.142533139 0.8317026364 0.0004943234 3.2125e-06 0.0004522166 1.93756e-05 0.011127055 -0.1075730737
690295860.0 -0.134569836 0.8333792392 0.000172617 -9.41854e-05 0.0003620314 5.1609e-05 0.0100068196 -0.1074472956
695295830.0 -0.1261228407 0.8345358251 0.0005009606 0.0002626723 0.0003789715 5.1826e-05 0.0078468496 -0.1076897779
700295800.0 -0.1176177937 0.8361669816 0.000541262 0.0001207841 0.0003743881 -2.53831e-05 0.0069024593 -0.1074560316
705295770.0 -0.1089261682 0.8373189569 0.0002023134 2.3353e-06 0.0004328608 9.17712e-05 0.0051009357 -0.1071396669
710295740.0 -0.1007836013 0.8384521513 0.0005494814 -1.7501e-06 0.0004469674 -0.0001593939 0.0035019218 -0.106901175
715295710.0 -0.0928215563 0.8391753857 0.0002651095 1.08713e-05 0.0005029801 0.000180968 0.0023488377 -0.1070466601
720295680.0 -0.0839281655 0.8393329808 0.0003145887 3.77233e-05 0.0003101441 4.15613e-05 0.0010467309 -0.1066912856
725295650.0 -0.0749372671 0.8408582394 0.0004345868 -6.1395e-06 0.0003298071 -0.0001947812 -0.0003176207 -0.1067219838
730295620.0 -0.0672925851 0.8412059076 0.0003348114 -4.55156e-05 0.0001882472 -3.97632e-05 -0.0021246436 -0.1064923586
735295590.0 -0.0580181155 0.8415764717 0.0002421386 -0.0001157759 0.000410618 -0.0001899338 -0.0031821271 -0.1062127227
740295560.0 -0.0496914145 0.8427627108 0.0004807067 -8.52678e-05 0.0003233751 -1.01517e-05 -0.0048332196 -0.1059625304
745295530.0 -0.0416215298 0.8427199902 0.000305161 -0.0002196466 0.0004014379 -0.0001641282 -0.0063008444 -0.1052492515
750295500.0 -0.0332639005 0.8431007446 0.0002654835 2.10029e-05 0.0005917727 2.10634e-05 -0.0076589346 -0.1056420452
755295470.0 -0.0244636701 0.8432948258 0.0004384526 -2.30411e-05 0.0002360761 -0.0001656635 -0.0090758206 -0.1047917695
760295440.0 -0.015815067 0.8438460958 0.0003565059 -0.0001025073 0.0007071816 -5.53101e-05 -0.010814432 -0.1044891474
765295410.0 -0.0078500589 0.8438807378 0.0005081613 -0.0002159621 0.0004208082 -0.0003277299 -0.0115557411 -0.1040523955
770295380.0 0.0005566482 0.844189668 0.0004493275 3.67082e-05 0.0003004344 1.9899e-06 -0.0130062605 -0.1037912232
775295350.0 0.0088014628 0.8441021661 0.0001684369 -2.34556e-05 0.0005351271 -0.0001692008 -0.0147439088 -0.1036918033
780295320.0 0.0177571355 0.8436996486 0.0003052652 2.11687e-05 0.0005935893 -0.0002927909 -0.0159640544 -0.1029321573
785295290.0 0.0262449409 0.8440418934 0.0003369426 -4.32453e-05 0.0003258131 -5.00012e-05 -0.017566638 -0.1026608476
790295260.0 0.0346255112 0.8424872196 0.0003022265 -2.63842e-05 0.0002259061 -4.46342e-05 -0.0185540704 -0.1020775996
795295230.0 0.04309308 0.843099012 0.0003534821 -6.339e-05 0.000411562 -4.96195e-05 -0.0198532306 -0.1014570763
800295200.0 0.0514341472 0.8429363935 0.000507406 -9.76292e-05 0.0004937052 5.38407e-05 -0.0212275505 -0.1012199429
805295170.0 0.0596868319 0.8419892882 0.0002764434 -0.0001528855 0.0003857593 8.7317e-06 -0.0228212598 -0.1008257446
810295140.0 0.0680401706 0.841168131 0.0003827687 -4.87325e-05 0.0005962542 -0.0001756435 -0.0239955708 -0.1000695394
815295110.0 0.0769923683 0.84004961 0.0002368969 -5.9595e-06 0.0003295405 -0.0001889854 -0.0253222485 -0.0995226379
820295080.0 0.0853144165 0.8390255812 0.0003133295 -0.0001636821 0.0005684708 -7.00491e-05 -0.0267268817 -0.0989971817
825295050.0 0.0945051263 0.8389004145 0.0002971988 -0.0003105686 0.0003367022 3.1433e-05 -0.0276680143 -0.0986761918
830295020.0 0.1021585882 0.8376017441 0.0003628047 1.11762e-05 0.0004465786 -0.0001214084 -0.0292373917 -0.0979946635
835294990.0 0.1100842699 0.8367117572 0.000414938 -0.0001387323 0.0005338567 -0.0003021368 -0.0301023974 -0.0976056138
840294960.0 0.118619092 0.8354528827 0.0003446536 -0.0001852295 0.000600417 -3.02661e-05 -0.0318329428 -0.0963148435
845294930.0 0.1270259796 0.8343950485 0.0003217123 9.80218e-05 0.0004488246 -0.0001049508 -0.0330967976 -0.0957469298
850294900.0 0.1350595693 0.8326611488 0.0003225754 -0.0002374781 0.0003237024 -0.0003257358 -0.034315911 -0.0952107728
