!Created with skrf (http://scikit-rf.org).
# Hz S RI R 50.0 
!freq ReS11 ImS11 ReS21 ImS21 ReS12 ImS12 ReS22 ImS22
300000.0 -0.2395904571 -0.1027158192 0.4654817037 0.0681842265 0.468254524 0.0717927429 -0.2351030275 -0.112981844
5299970.0 -0.2436371346 0.0069522274 0.4739084139 0.0052742182 0.4738363455 0.0059532632 -0.2440153011 0.0058008796
10299940.0 -0.2401644482 0.0197695593 0.4758674097 0.006118394 0.4758096379 0.0066353114 -0.2409607023 0.0184911506
15299910.0 -0.236041693 0.0293498484 0.4793488824 0.007859327 0.4792316628 0.0081184647 -0.2365885437 0.027354979
20299880.0 -0.2304727509 0.0371609655 0.4840920995 0.0083126315 0.484356927 0.0083896284 -0.2319906608 0.0352611305
25299850.0 -0.2248166576 0.043470113 0.4894251513 0.0073450561 0.4895844957 0.0073377837 -0.2269301807 0.0414740143
30299820.0 -0.2186526613 0.0485574155 0.495154136 0.0054413564 0.4947875154 0.0054540557 -0.2218666709 0.0469159348
35299790.0 -0.2131190214 0.0530001654 0.5003269325 0.0024362856 0.500281696 0.0019263647 -0.216286342 0.0509818842
40299760.0 -0.2074267739 0.0556281285 0.5051902564 -0.0015554173 0.5054115607 -0.0017828842 -0.2114036107 0.0545636709
45299730.0 -0.2028723508 0.0584269314 0.5101209792 -0.0064585414 0.5104217192 -0.0061877861 -0.2066706513 0.0572439074
50299700.0 -0.1976390011 0.0602176212 0.5138951874 -0.0121514204 0.5146485908 -0.0119188259 -0.2022650633 0.0596544967
55299670.0 -0.1935575273 0.0617665455 0.5178930132 -0.0180470478 0.5183250105 -0.0179718653 -0.1984484384 0.0612183643
60299640.0 -0.1895353309 0.0626922539 0.5209410454 -0.0248721232 0.5214413117 -0.0240829923 -0.1944402715 0.0633083522
65299610.0 -0.186146283 0.0641857262 0.5244369235 -0.0303048688 0.5246375268 -0.0302419126 -0.1912181552 0.0644704553
70299580.0 -0.1825985059 0.0643458696 0.5266363556 -0.0369763846 0.5267844871 -0.0370197433 -0.1881531563 0.0654991972
75299550.0 -0.1794828276 0.0649633588 0.5284835758 -0.0438640197 0.5287764122 -0.0439083859 -0.1852013985 0.0667276997
80299520.0 -0.1774020085 0.0658677931 0.5309226192 -0.0509106139 0.5310876481 -0.050779473 -0.1826846541 0.0673544543
85299490.0 -0.1745560059 0.0663035639 0.5321539132 -0.0580715304 0.5321328191 -0.0579115381 -0.1801137656 0.0682350515
90299460.0 -0.1724638149 0.0667139419 0.5332455774 -0.064354735 0.5332129395 -0.064828607 -0.1776361449 0.0693005387
95299430.0 -0.1705281124 0.0672407527 0.5340383967 -0.0720475496 0.5341544649 -0.0715708539 -0.175968243 0.0699744327
100299400.0 -0.1686157992 0.0676739187 0.5340490922 -0.0785192132 0.534631783 -0.0788930035 -0.1740900011 0.0708681181
105299370.0 -0.1669478731 0.0678371246 0.5344995816 -0.0850855831 0.5348051228 -0.0855269173 -0.1724309595 0.0718167553
110299340.0 -0.1653824289 0.0684721472 0.5346440291 -0.091962125 0.5349702632 -0.0926559266 -0.1707548485 0.0726709908
115299310.0 -0.1637919195 0.0687380145 0.5346526882 -0.0988131276 0.5351487318 -0.0992513301 -0.169150011 0.0730105785
120299280.0 -0.1628498774 0.0692407733 0.5344995148 -0.1057578393 0.5350098431 -0.1059651783 -0.1680614032 0.0744896944
125299250.0 -0.1618246696 0.0700585712 0.534292805 -0.1127037361 0.5346953739 -0.1126326502 -0.1663440309 0.0745983061
130299220.0 -0.1606611342 0.0706519213 0.5336084773 -0.1189182278 0.5338117157 -0.1194363459 -0.1651279294 0.0760602196
135299190.0 -0.1592872857 0.0710203481 0.5331903796 -0.1256290283 0.5326578722 -0.1257393809 -0.1642290408 0.0770029364
140299160.0 -0.1583530461 0.0723892028 0.5323034302 -0.1328770989 0.5326472454 -0.1325305132 -0.1630624309 0.0778899845
145299130.0 -0.1575881914 0.0728180946 0.531716797 -0.1393409408 0.5314664681 -0.1387278916 -0.1622348987 0.0788847854
150299100.0 -0.1566474372 0.073717861 0.5301878717 -0.1458315395 0.530370911 -0.1458866023 -0.1608171065 0.0800633595
155299070.0 -0.1557447063 0.0747811757 0.5291223554 -0.1523899216 0.5292275777 -0.1528963728 -0.1603272761 0.0810365112
160299040.0 -0.154647163 0.0754489313 0.5274233001 -0.1585533459 0.5278046352 -0.15883227 -0.1588274993 0.0822950706
165299010.0 -0.1542850574 0.0761771181 0.526323145 -0.1652571591 0.5261192112 -0.1652992227 -0.157828702 0.0831798404
170298980.0 -0.1536496452 0.0773050357 0.5242128611 -0.1718577523 0.524323601 -0.1713562524 -0.1567974941 0.0844848514
175298950.0 -0.1525368457 0.0781297832 0.5234766281 -0.1776241745 0.5233535839 -0.1775597879 -0.1559590181 0.0854782948
180298920.0 -0.1517010194 0.0791355935 0.5212665985 -0.1840987762 0.5216152607 -0.1841603802 -0.1548510311 0.0872067327
185298890.0 -0.1509775267 0.0800909813 0.5191021446 -0.1905532872 0.5198832883 -0.1902222976 -0.1542626789 0.0883526128
190298860.0 -0.1502835404 0.0814961459 0.5176888739 -0.1966764592 0.517592339 -0.1965160958 -0.152431939 0.0893781629
195298830.0 -0.1495175521 0.0821068735 0.5157798754 -0.2023676868 0.5155256053 -0.2030385137 -0.1519654542 0.0906785184
200298800.0 -0.1487831834 0.0834293182 0.5135602105 -0.2079944192 0.5134469793 -0.2083397733 -0.1508753653 0.0922344921
205298770.0 -0.1481165371 0.0845039617 0.5117873433 -0.2145602675 0.5115397717 -0.2147153895 -0.1499518978 0.0933687218
210298740.0 -0.1473993353 0.0856104812 0.5094537645 -0.2209649534 0.5092809232 -0.22123757 -0.1490782149 0.0949383147
215298710.0 -0.1466063455 0.086903077 0.5068709296 -0.2267865117 0.5069227819 -0.2265266165 -0.1482388095 0.0959582203
220298680.0 -0.1461699387 0.0880806197 0.5045521355 -0.2327243459 0.5043970997 -0.2325116456 -0.1470996392 0.0978571606
225298650.0 -0.144842765 0.0893755043 0.5020475261 -0.2382557785 0.5018948916 -0.2382963788 -0.1460285572 0.0991046374
230298620.0 -0.1445673475 0.0906871919 0.4997261023 -0.2442175748 0.5000018363 -0.2442706125 -0.1448780375 0.1003449247
235298590.0 -0.1436685129 0.0917317018 0.496894716 -0.2497590307 0.4969156101 -0.2504203078 -0.1442522834 0.1014618614
240298560.0 -0.1431602104 0.093050636 0.4943311824 -0.2553936938 0.4945412822 -0.2556228064 -0.1429324834 0.1030903442
245298530.0 -0.1419989043 0.0945237562 0.4908424404 -0.261865225 0.4913836368 -0.2616074767 -0.1416887314 0.1048873689
250298500.0 -0.1416340315 0.0955469213 0.4885834104 -0.2668123129 0.4890242356 -0.2665348697 -0.1405823975 0.1061499266
255298470.0 -0.1406430427 0.0968592258 0.4853287622 -0.2730220304 0.4855597086 -0.2726475022 -0.1395992166 0.1075091378
260298440.0 -0.1398171441 0.0980168825 0.482917482 -0.2779245406 0.4825771319 -0.2782517907 -0.1380037143 0.1090619397
265298410.0 -0.1387035683 0.0995742446 0.4796562166 -0.284075853 0.4793651894 -0.2837819675 -0.137438365 0.1101563222
270298380.0 -0.1378473334 0.1006049474 0.4762967569 -0.2890266086 0.4767065737 -0.289318685 -0.136043168 0.1121115186
275298350.0 -0.1370473013 0.1019486497 0.4733608463 -0.2951204978 0.4736289325 -0.2949261476 -0.1348519735 0.1135717571
280298320.0 -0.1363040363 0.1033157162 0.4701084897 -0.2996249655 0.4702260281 -0.3004803095 -0.1332477405 0.114778736
285298290.0 -0.1351694911 0.1047567066 0.4667795668 -0.3051953618 0.4671620095 -0.3057925561 -0.1323003522 0.1164368189
290298260.0 -0.1341569524 0.1058321056 0.4638309048 -0.3106972669 0.4638834606 -0.3107704149 -0.1308364848 0.1181971109
295298230.0 -0.1335307325 0.1072273124 0.4604269291 -0.3155371726 0.4601983201 -0.3159279826 -0.1293656385 0.1194061554
300298200.0 -0.132134759 0.1085755435 0.4567032965 -0.3211132015 0.4570504144 -0.3213997698 -0.1283167207 0.1208261534
305298170.0 -0.1311835011 0.1095514704 0.4537713168 -0.3264854146 0.4537158155 -0.3267244991 -0.1265925033 0.1224543735
310298140.0 -0.1298243999 0.1107748005 0.4500992377 -0.3319690134 0.4498173361 -0.3320891442 -0.1254019128 0.1242292385
315298110.0 -0.128961948 0.1120439248 0.4459268971 -0.33696389 0.4462110729 -0.3371055738 -0.1238882932 0.1250625598
320298080.0 -0.1280768604 0.1133616064 0.442418962 -0.3420860779 0.4426182764 -0.3420551109 -0.1226744356 0.1265814785
325298050.0 -0.1273687479 0.1140533356 0.4389281754 -0.3471276126 0.4391611422 -0.3472652903 -0.1213940162 0.1276355966
330298020.0 -0.1262525246 0.1155175225 0.4338158662 -0.352055486 0.4345316356 -0.3523732267 -0.1201237668 0.1288762112
335297990.0 -0.1251706239 0.1166251977 0.4303759689 -0.3569028415 0.4306891552 -0.3571267519 -0.119065261 0.1302650553
340297960.0 -0.1247506416 0.1179050459 0.4261412593 -0.3619071502 0.4267828889 -0.3618636487 -0.1177501488 0.1320719304
345297930.0 -0.1239437807 0.1194666443 0.4224933096 -0.3660125344 0.4220266074 -0.3660700001 -0.1162529339 0.133261599
350297900.0 -0.1222774472 0.1208264427 0.418023823 -0.3707538047 0.4186761737 -0.3711985412 -0.1149947466 0.1351506527
355297870.0 -0.1213510404 0.1220162054 0.4137967386 -0.3751360248 0.4138039772 -0.3758503664 -0.1136911761 0.1365942276
360297840.0 -0.1203864478 0.1233418707 0.4096032277 -0.3803140927 0.4095859737 -0.3804474453 -0.1120286311 0.1376978113
365297810.0 -0.1189118095 0.1247573549 0.4055171119 -0.3844945396 0.4057796027 -0.3847005615 -0.1106467922 0.1394372091
370297780.0 -0.117845974 0.1257507977 0.4010902296 -0.3888054606 0.4014257401 -0.3894461673 -0.109297794 0.1409355202
375297750.0 -0.1167460558 0.1275419266 0.3971462757 -0.3936950884 0.3971367105 -0.3937394409 -0.1077915389 0.1421964875
380297720.0 -0.1156313784 0.1281175641 0.3926498816 -0.3975312388 0.3928300861 -0.3978593723 -0.1064693155 0.1439267178
385297690.0 -0.1140966306 0.1299112898 0.388015813 -0.4018024676 0.3885621026 -0.4020290396 -0.1046558619 0.1453520511
390297660.0 -0.1131673398 0.1310970128 0.383686083 -0.4066353914 0.3836600848 -0.4067237335 -0.1029941603 0.1462782081
395297630.0 -0.1118395443 0.1322504781 0.3796121393 -0.4104299552 0.3797009875 -0.4105143178 -0.1016635341 0.1480282638
400297600.0 -0.1105310355 0.1335992092 0.3744982087 -0.4148465331 0.3750129651 -0.4149895875 -0.1003115463 0.1489151134
405297570.0 -0.1092490857 0.1346749084 0.3703279896 -0.4188333056 0.3703574816 -0.418929153 -0.0986983314 0.150709312
410297540.0 -0.1079004639 0.135678563 0.3653652082 -0.422629694 0.365516904 -0.4228593661 -0.0968761764 0.1517085118
415297510.0 -0.1066077978 0.1374564075 0.3610720445 -0.4266872297 0.3609822344 -0.4267429827 -0.0952256765 0.1533483924
420297480.0 -0.1053968766 0.1381206686 0.356089858 -0.4311942598 0.3563141102 -0.4306730173 -0.0934899008 0.1539982027
425297450.0 -0.1037504004 0.1388222798 0.3514237862 -0.4346120293 0.3518013534 -0.4348173155 -0.0919064539 0.1559251995
430297420.0 -0.1027206491 0.1404072043 0.3470701685 -0.4392015992 0.3467865541 -0.4385923406 -0.0901155414 0.1569753508
435297390.0 -0.1011419191 0.1413320981 0.3419562495 -0.4416764843 0.3418263161 -0.4419973531 -0.0885226719 0.158212664
440297360.0 -0.0996911416 0.1424621942 0.3366198361 -0.4457080565 0.3368018032 -0.4458660794 -0.0870183676 0.159150956
445297330.0 -0.0983219281 0.1434725924 0.3318937135 -0.4497498309 0.3319506406 -0.4495778756 -0.0850667764 0.1601288094
450297300.0 -0.0966200434 0.1446433786 0.326802099 -0.453282023 0.3276846665 -0.4536211431 -0.0836857684 0.1616967594
455297270.0 -0.0956509711 0.1458470087 0.3221428137 -0.456754682 0.3225607905 -0.456743981 -0.0815417092 0.1626965837
460297240.0 -0.0944095286 0.1469085392 0.3171383018 -0.4597742124 0.317128687 -0.4599859207 -0.0795585374 0.1641097984
465297210.0 -0.0927718389 0.1477227547 0.3122777848 -0.4639002608 0.3124503872 -0.4638481158 -0.0786253191 0.1646546583
470297180.0 -0.0911886356 0.148831254 0.3069793542 -0.4665741548 0.3073449509 -0.466768849 -0.0768658339 0.1658586337
475297150.0 -0.0902444244 0.1495966852 0.3015658189 -0.4696979936 0.3020917974 -0.4696748061 -0.0746209022 0.1671080726
480297120.0 -0.0884033898 0.1504726819 0.2966416582 -0.4731352929 0.2972405305 -0.4732337097 -0.0727699759 0.1687594491
485297090.0 -0.0868357763 0.1514943162 0.2917148753 -0.4764474064 0.2919774519 -0.4766791221 -0.0714018604 0.1690054653
490297060.0 -0.0853335921 0.1522072196 0.2862389238 -0.4796859564 0.2865421466 -0.479900621 -0.0692995215 0.170228615
495297030.0 -0.0842856369 0.153793538 0.2807655744 -0.4829913843 0.2809363335 -0.4829471631 -0.0672699479 0.1708055766
500297000.0 -0.0824793271 0.1544551258 0.275736312 -0.48593435 0.2760772293 -0.4858616151 -0.0659052493 0.1718424625
505296970.0 -0.0811646467 0.1551519803 0.2701148603 -0.4883042506 0.270435111 -0.4884981137 -0.0643255589 0.1728765572
510296940.0 -0.0792969337 0.1564067283 0.2650719708 -0.4918580615 0.265510365 -0.491783681 -0.0619689501 0.1741011791
515296910.0 -0.0784251021 0.1576096045 0.2594857834 -0.4946036902 0.2600634702 -0.4943336127 -0.0605518801 0.1745980371
520296880.0 -0.0765277257 0.1582123146 0.2542507387 -0.4972575819 0.2546886736 -0.4971764622 -0.0580796186 0.1756475255
525296850.0 -0.0752253621 0.1587518707 0.2489910605 -0.4997682334 0.2490972434 -0.5002377317 -0.0560922897 0.1764455556
530296820.0 -0.0736728098 0.1595940817 0.2437806151 -0.5018115485 0.2435541302 -0.5025781681 -0.0549631271 0.1766968372
535296790.0 -0.0720204481 0.1604980513 0.2378865104 -0.5048685756 0.2384165694 -0.5051473358 -0.0528611718 0.1776770249
540296760.0 -0.0702368412 0.1612492468 0.2323580393 -0.5079765313 0.2325317247 -0.5079662865 -0.0510329212 0.1788627453
545296730.0 -0.0687374571 0.1624086698 0.226895679 -0.5096845746 0.2271857033 -0.5102329534 -0.0492288834 0.179209677
550296700.0 -0.0676117403 0.1631458422 0.2215723495 -0.5125849859 0.2221621033 -0.5128615924 -0.0472014392 0.1803247823
555296670.0 -0.0654688663 0.1635759806 0.2156596463 -0.515068843 0.2163167534 -0.5152423198 -0.0453143906 0.1811677458
560296640.0 -0.0640106906 0.1643375431 0.2103073541 -0.5170943187 0.2105466312 -0.5168685103 -0.0433802514 0.181488313
565296610.0 -0.0628337027 0.16511563 0.2044688705 -0.5193630624 0.2045530381 -0.5196636801 -0.0413236333 0.182178395
570296580.0 -0.0608998573 0.1658510069 0.1989246181 -0.5211390738 0.1994746736 -0.5213994229 -0.0391297832 0.183149469
575296550.0 -0.0594683071 0.1669086444 0.1932737499 -0.5233471664 0.1936990706 -0.523222244 -0.0371967875 0.1834363081
580296520.0 -0.0575890167 0.1674041033 0.1877530789 -0.5254157599 0.1878006655 -0.5255902214 -0.0353813021 0.1838078326
585296490.0 -0.0560104505 0.167837645 0.1819981728 -0.5275758716 0.1821498821 -0.5272916591 -0.0334967731 0.1841901591
590296460.0 -0.0548725791 0.1682207246 0.1762899518 -0.5289657943 0.176271914 -0.5294857992 -0.0313290486 0.1850146114
595296430.0 -0.0528581883 0.1693556088 0.1705078062 -0.5315197142 0.1702394811 -0.5317919661 -0.0291299914 0.1852736121
600296400.0 -0.0512649781 0.1701440923 0.1649144949 -0.5330639795 0.1650800741 -0.5334147265 -0.0273030173 0.1862760349
605296370.0 -0.0494351559 0.1709731235 0.1591309988 -0.5346892959 0.1593026263 -0.5349309388 -0.0251270728 0.1863908214
610296340.0 -0.0478792477 0.1713135606 0.1535513764 -0.5362271024 0.1535149164 -0.5366352222 -0.0233622517 0.1870330803
615296310.0 -0.0465248701 0.172075659 0.1474405319 -0.5379573978 0.1474358199 -0.538118152 -0.0213357741 0.1871803909
620296280.0 -0.044829641 0.1725142677 0.141849237 -0.5391208197 0.1418821691 -0.5394623257 -0.0194707871 0.1873139051
625296250.0 -0.042843935 0.1729506553 0.1355944825 -0.5412966529 0.1357554879 -0.5414084838 -0.0170062664 0.1879212989
630296220.0 -0.0411026124 0.1737713105 0.1295191136 -0.5423009795 0.1305797856 -0.5427506426 -0.0155234684 0.1884646693
635296190.0 -0.0394307299 0.1742884871 0.1240457113 -0.5436608836 0.1237048301 -0.5435297489 -0.013102231 0.1883024478
640296160.0 -0.037647222 0.1745220409 0.1180868936 -0.5448762748 0.1182350897 -0.5454990166 -0.0110906852 0.1890820113
645296130.0 -0.0361046561 0.1755456321 0.1121813271 -0.5465628324 0.1122799423 -0.5463711429 -0.0094153144 0.1888750814
650296100.0 -0.0344353463 0.1759359268 0.1064577839 -0.5469596901 0.1064714766 -0.5471732901 -0.0071770894 0.1894320458
655296070.0 -0.032503473 0.1763521169 0.1003896866 -0.5484518006 0.1003153285 -0.5486578023 -0.0047748216 0.1899986926
660296040.0 -0.0313645628 0.176855835 0.0946287489 -0.5493377147 0.0945613482 -0.5494060136 -0.0028081089 0.1897091919
665296010.0 -0.0292308528 0.1771211804 0.0890045194 -0.5503210973 0.0892873096 -0.5504767217 -0.0012284642 0.1901670351
670295980.0 -0.0272093595 0.1779062594 0.0826603332 -0.5513115756 0.0832654845 -0.5512844479 0.0008170331 0.1899067803
675295950.0 -0.0258121733 0.1780470457 0.076439869 -0.5518930506 0.0772824168 -0.5528534312 0.0031492051 0.1905761635
680295920.0 -0.0241645282 0.1786458412 0.0705484191 -0.5530899054 0.0706025508 -0.5531902314 0.0054374962 0.190420078
685295890.0 -0.022560686 0.17882933 0.0648415708 -0.5537288805 0.0645987384 -0.5538725611 0.0073299763 0.1908655279
690295860.0 -0.0201994694 0.1793009771 0.058768515 -0.5540000769 0.0587646169 -0.5538822778 0.0095054279 0.1910126896
695295830.0 -0.0184048013 0.1794016328 0.0520827154 -0.5544978866 0.0524533219 -0.5550991739 0.0111328921 0.1908762336
700295800.0 -0.016623133 0.1799257584 0.0465528192 -0.5550635827 0.0469156965 -0.5552608074 0.0132990776 0.1902575466
705295770.0 -0.0147859319 0.1801578696 0.0408150038 -0.5557123463 0.0411462161 -0.5560627941 0.0152898338 0.1906220878
710295740.0 -0.013129539 0.1808951227 0.034975738 -0.556049875 0.0349387166 -0.5560146579 0.0168208806 0.1910474196
715295710.0 -0.011572056 0.1810507055 0.0285397983 -0.5564903362 0.028792962 -0.5566760307 0.0194097693 0.190547019
720295680.0 -0.0098316732 0.1808500852 0.0227407261 -0.5562921214 0.0228670802 -0.5571477606 0.0218234187 0.190857803
725295650.0 -0.0077522893 0.1813189567 0.0162467279 -0.5564017368 0.0168286576 -0.5571824037 0.0237540588 0.1908173525
730295620.0 -0.0064805272 0.1814512286 0.0104968516 -0.5566233129 0.0104858087 -0.5568834715 0.026102347 0.1899585743
735295590.0 -0.0042117397 0.181765479 0.0047603399 -0.5571175781 0.0047988224 -0.5573364821 0.0282429405 0.1903257268
740295560.0 -0.0027806343 0.1823793708 -0.0011788415 -0.5566874879 -0.0012351099 -0.556916349 0.0301507267 0.1898990178
745295530.0 -0.0008692475 0.1821578182 -0.0074937545 -0.5570699488 -0.0072297051 -0.5573190915 0.0319287479 0.1899415038
750295500.0 0.0008624219 0.1821173245 -0.0128783729 -0.5564002827 -0.0133805595 -0.5566266673 0.0341854814 0.1891747032
755295470.0 0.0030897281 0.182541022 -0.0189012142 -0.5565569131 -0.018875905 -0.5569920984 0.0357918251 0.1895656759
760295440.0 0.0043071011 0.1828372604 -0.0254046249 -0.5561361641 -0.0252586016 -0.5564222716 0.0378549304 0.1890646986
765295410.0 0.0062626374 0.182523573 -0.0308606836 -0.5555928566 -0.0312749054 -0.5560507567 0.0408142698 0.1892440786
770295380.0 0.0082248798 0.1829452862 -0.0373919577 -0.5550900512 -0.0374294824 -0.5559644624 0.0426607816 0.1889026285
775295350.0 0.0101131853 0.1831192989 -0.0433284866 -0.5545966666 -0.0428299383 -0.5548206025 0.0441950566 0.1878755585
780295320.0 0.0118927564 0.1828076033 -0.0490518759 -0.5543688937 -0.048695414 -0.5550813283 0.0461473329 0.1885178946
785295290.0 0.0134672487 0.1833283566 -0.0554802084 -0.5533664933 -0.0549869758 -0.5543284213 0.0481823104 0.1876168041
790295260.0 0.0153377661 0.1831499951 -0.0608346189 -0.55314209 -0.0607966352 -0.5536583153 0.0507363895 0.187266806
795295230.0 0.0171029542 0.1831902545 -0.0667830144 -0.5522760066 -0.066594085 -0.5526800808 0.0526176642 0.1872343909
800295200.0 0.019005072 0.1831347671 -0.073095143 -0.5517670315 -0.0730674114 -0.5520706359 0.0547608555 0.1865575677
805295170.0 0.0207320996 0.1829163266 -0.0789315524 -0.5503669164 -0.0787764747 -0.5512173847 0.0562854784 0.1859123346
810295140.0 0.0225771635 0.1831098041 -0.0848288149 -0.549796539 -0.0847084142 -0.550692218 0.058492383 0.1857054744
815295110.0 0.0244934101 0.1832017927 -0.0910964325 -0.5488873596 -0.090602387 -0.5489084479 0.0605861419 0.1849597788
820295080.0 0.0259278535 0.1824856942 -0.0961304706 -0.5480524007 -0.096405079 -0.548255172 0.0623503068 0.1846146195
825295050.0 0.0279266837 0.1825890506 -0.102184419 -0.5469267896 -0.1024337158 -0.5470257761 0.0647217653 0.1842593881
830295020.0 0.0297752526 0.1829556714 -0.1082059361 -0.5458368439 -0.1084732365 -0.5459865005 0.0662812986 0.1834163204
