!Created with skrf (http://scikit-rf.org).
# Hz S RI R 50.0 
!freq ReS11 ImS11 ReS21 ImS21 ReS12 ImS12 ReS22 ImS22
300000.0 -0.0470735753 -0.0551187979 0.0001829183 0.0001659428 -0.0001691771 0.0016205385 -0.7719287203 -0.1522110934
5299970.0 -0.0492457896 0.0160903955 -0.0001845227 -0.000138933 -0.0002363745 4.1361e-05 -0.7850745129 -0.0083494727
10299940.0 -0.0432175723 0.0335355237 0.0001363969 0.0001550211 2.2872e-06 4.21725e-05 -0.7885508509 -0.004804114
15299910.0 -0.0349527733 0.0478324866 1.11491e-05 -4.77426e-05 -0.0001221407 -0.0001454082 -0.794272448 -0.0029719645
20299880.0 -0.0248342257 0.0597083578 -0.000194512 -0.0001205617 -0.0001983025 -1.40632e-05 -0.8005002428 0.0017630955
25299850.0 -0.0133534456 0.0689789661 1.64153e-05 -0.0002676662 -8.82234e-05 1.34003e-05 -0.8065747771 0.0075024755
30299820.0 -0.0013354512 0.0757451072 1.58071e-05 -0.000103492 1.43963e-05 -7.66323e-05 -0.812603126 0.0146765331
35299790.0 0.0103612225 0.0803758128 1.44424e-05 2.9702e-06 -0.0002371896 0.0001001769 -0.8178480389 0.023908405
40299760.0 0.0218604204 0.0833030123 -3.60788e-05 -4.20503e-05 1.66163e-05 -1.48819e-05 -0.8218192288 0.0329679639
45299730.0 0.0325855878 0.0846384939 -0.0001525206 -0.0002289207 7.36784e-05 0.0001471973 -0.8252271867 0.0421910854
50299700.0 0.0428121355 0.0844989378 0.0001999072 8.4443e-06 3.10909e-05 -1.49189e-05 -0.8277805831 0.0522630439
55299670.0 0.0519952892 0.0834316444 6.63347e-05 6.07385e-05 1.8704e-06 0.0001106351 -0.8300491292 0.0629142467
60299640.0 0.0605504451 0.08119035 -4.88588e-05 7.67971e-05 0.0001356049 0.0002581731 -0.8311127821 0.0732982128
65299610.0 0.0684727908 0.0788958974 0.000194723 -0.0001061045 -0.000152554 -4.95637e-05 -0.8316537475 0.0827589111
70299580.0 0.075708478 0.0757471181 -0.0001369647 2.42793e-05 5.29828e-05 0.000113459 -0.8323260054 0.0929908244
75299550.0 0.0821693438 0.072137542 -9.36913e-05 6.65488e-05 -1.4556e-06 -6.22637e-05 -0.8324860069 0.1025042272
80299520.0 0.087477772 0.0688582528 1.80527e-05 -4.34249e-05 -0.0001749807 -0.0001256527 -0.8320705038 0.1120591429
85299490.0 0.0928513117 0.0645762952 9.71863e-05 0.0001155628 -9.81221e-05 6.47017e-05 -0.8321277942 0.1219152761
90299460.0 0.0971448263 0.0608672382 4.46444e-05 -0.0001408134 2.47201e-05 6.78119e-05 -0.8306201138 0.1310762302
95299430.0 0.1013888035 0.0566892102 0.000105308 -4.27374e-05 0.0001021242 7.47599e-05 -0.8295634751 0.1413699873
100299400.0 0.1049393191 0.0529687751 -3.66162e-05 -7.33696e-05 -9.56308e-05 -1.39262e-05 -0.8287439304 0.1498926703
105299370.0 0.1078912994 0.0488212413 -4.13597e-05 -8.33277e-05 2.88034e-05 7.30742e-05 -0.8276176622 0.1591160712
110299340.0 0.1108984448 0.0446981061 -0.0001076718 -6.2742e-06 2.12813e-05 0.0002436745 -0.826794994 0.1682697175
115299310.0 0.1133462712 0.0403886309 8.34735e-05 -0.0002254893 -0.000131435 -1.24674e-05 -0.824807153 0.17809297
120299280.0 0.1152821976 0.0368044967 8.36117e-05 -0.0001454099 1.39675e-05 -4.16114e-05 -0.8237601717 0.1863204787
125299250.0 0.1174247109 0.0325350004 -2.36283e-05 -2.09247e-05 7.41258e-05 8.73008e-05 -0.8217679401 0.1960493231
130299220.0 0.1191681356 0.0292286362 2.81337e-05 7.68924e-05 0.0002151605 5.8175e-06 -0.8202306023 0.2042186241
135299190.0 0.1208017807 0.0251796886 9.75954e-05 2.80964e-05 0.0001057181 -6.75967e-05 -0.8181755526 0.2125578619
140299160.0 0.1219386551 0.0214964133 -0.0001184632 4.9755e-06 3.54789e-05 0.000125174 -0.8158388353 0.221211396
145299130.0 0.1230353499 0.0178184465 8.29465e-05 9.94291e-05 0.0001953057 -0.0001919113 -0.8137003685 0.229873661
150299100.0 0.1238232483 0.0141160839 7.0078e-06 6.55575e-05 0.0001778597 -0.0002563771 -0.8119193782 0.2386415913
155299070.0 0.1245893118 0.0110791565 -1.46565e-05 3.79506e-05 -2.30364e-05 1.00707e-05 -0.8094988875 0.2476448334
160299040.0 0.1248081648 0.0075824963 2.42291e-05 0.0001271159 9.20286e-05 0.0002005402 -0.8071809105 0.256695959
165299010.0 0.1254026857 0.0043744969 -0.0001754741 0.0003117258 0.0002579692 0.0001155415 -0.8041941514 0.2650184762
170298980.0 0.125620653 0.0007773513 -0.0001240357 -9.27814e-05 -4.82209e-05 0.000151042 -0.8017012116 0.2734013586
175298950.0 0.1261001276 -0.0018072723 0.0001980492 0.0001293737 -0.0001736911 0.0004073535 -0.7987665055 0.2821513732
180298920.0 0.1260375397 -0.0051649911 2.54613e-05 0.0001158084 -2.50907e-05 0.0001702808 -0.7952328474 0.2903233362
185298890.0 0.1259598985 -0.0083162026 -5.804e-06 0.0001377071 -1.663e-07 -2.08827e-05 -0.793030571 0.2986449371
190298860.0 0.1260670486 -0.0112643551 3.18067e-05 0.0002079845 9.62651e-05 -2.82806e-05 -0.7898465454 0.3076890935
195298830.0 0.1263774319 -0.0140690434 0.0001242188 0.0001042809 0.0001094474 0.0001139711 -0.7871669156 0.3157842703
200298800.0 0.1256748785 -0.0168319536 -5.4008e-05 0.0001613361 7.8183e-06 3.77907e-05 -0.7833647348 0.3242514157
205298770.0 0.1253833878 -0.0196804936 7.8611e-05 2.27867e-05 -3.94487e-05 1.54152e-05 -0.7800493569 0.332607945
210298740.0 0.125298792 -0.0221114483 7.06422e-05 2.19081e-05 -3.67161e-05 -8.41752e-05 -0.777097414 0.3406735407
215298710.0 0.1246243861 -0.0248131885 -0.0001598606 -3.36434e-05 -3.9809e-06 9.37033e-05 -0.7733960469 0.3485154534
220298680.0 0.1240631745 -0.0276227393 0.0001306928 4.2563e-06 -3.85491e-05 1.09321e-05 -0.769605709 0.3567983521
225298650.0 0.1236403294 -0.0299821322 0.0001849645 3.49893e-05 -0.0001901769 -1.84044e-05 -0.7660381668 0.3650715348
230298620.0 0.1229474451 -0.0324444003 -0.0001206756 0.0001519592 0.0001358043 -4.57309e-05 -0.7617814574 0.3728833015
235298590.0 0.1222311947 -0.0349162083 8.25029e-05 0.0002701728 -8.62343e-05 -1.69435e-05 -0.7578514724 0.3809056615
240298560.0 0.1216350883 -0.0375170533 -3.72254e-05 0.0002609056 0.0001440581 0.000198802 -0.7543252102 0.3884907678
245298530.0 0.1210243655 -0.0395371476 -7.21558e-05 0.0002142018 -0.0002352163 9.32909e-05 -0.7502970263 0.3967340962
250298500.0 0.1201062843 -0.0417910938 9.0272e-06 -2.3863e-05 -5.8934e-06 2.3992e-05 -0.7463816268 0.4051513482
255298470.0 0.1192429868 -0.0439509624 0.0002155922 8.16006e-05 0.0001391075 -7.14339e-05 -0.7417995219 0.4126681059
260298440.0 0.1189409978 -0.0462647866 0.0001744874 -3.36587e-05 0.0001350712 -0.0001038068 -0.736893862 0.4200043205
265298410.0 0.1179284727 -0.047925112 -0.0001268514 1.12352e-05 8.06645e-05 0.0001116829 -0.7328837426 0.4276205647
270298380.0 0.1169093263 -0.050209214 9.3179e-05 5.4542e-05 0.0001281504 -7.46796e-05 -0.7278541561 0.4355142661
275298350.0 0.1160165166 -0.052366621 4.60888e-05 -4.936e-05 0.0001997215 0.0003093879 -0.7230988624 0.4434345341
280298320.0 0.1149952062 -0.0540721077 0.0001384411 8.53506e-05 9.20974e-05 -2.5431e-05 -0.7190688732 0.4503155434
285298290.0 0.1140369984 -0.0561149466 0.000134328 0.0004244485 5.17585e-05 0.0001172733 -0.7131248918 0.4579332571
290298260.0 0.1130808338 -0.0580788058 0.0001830041 -2.35283e-05 -5.01292e-05 0.000126588 -0.7090496477 0.4657751538
295298230.0 0.1121782756 -0.0603859293 0.0002319853 8.31693e-05 0.0002298906 0.0003154974 -0.7038300315 0.4731126922
300298200.0 0.1112568802 -0.0625793786 -0.0002037126 -0.0001907154 0.0001159187 1.5218e-06 -0.698930449 0.4804125275
305298170.0 0.1105933032 -0.0640977694 -0.0001142174 1.72342e-05 -4.50107e-05 -2.60406e-05 -0.6934083863 0.4881944525
310298140.0 0.1090887751 -0.0663969497 0.000194143 -0.0001647976 0.0001358031 0.0003230155 -0.6888371669 0.4949694102
315298110.0 0.1076838989 -0.0683132338 0.000105612 -0.000171282 0.0002241927 3.0959e-05 -0.6834243576 0.5022351981
320298080.0 0.1062491602 -0.0698871955 0.0001562455 5.39094e-05 0.0001324006 -8.03267e-05 -0.67846621 0.509322914
325298050.0 0.1050415465 -0.0722628676 7.21193e-05 7.69208e-05 -2.41758e-05 0.0001853916 -0.6722025959 0.516203422
330298020.0 0.1035184905 -0.0734661223 0.0001018387 2.89064e-05 0.0001828779 -0.0002531088 -0.667040996 0.5232205419
335297990.0 0.1020435366 -0.0752289635 -3.0606e-05 6.73963e-05 -0.0001109278 0.0001309312 -0.6613723327 0.5302247126
340297960.0 0.1006347608 -0.0764782817 0.0001618825 -0.0001802057 5.19806e-05 0.0001269265 -0.6556387889 0.5370296638
345297930.0 0.0989702613 -0.0779378715 -3.86798e-05 2.42674e-05 0.0002662825 -9.85785e-05 -0.6498092872 0.5438885943
350297900.0 0.0979827563 -0.0793638072 2.7016e-06 -0.0001371908 0.0002115906 0.0001084942 -0.6441263246 0.5508710351
355297870.0 0.0964037649 -0.0809460063 0.0002090606 0.0001699334 7.60861e-05 -0.0001729359 -0.638403663 0.5571582714
360297840.0 0.0948494541 -0.0821441667 5.34699e-05 0.0001603658 -5.64715e-05 7.06904e-05 -0.6329540643 0.5638614171
365297810.0 0.0938141734 -0.0836633934 5.54321e-05 -4.5438e-06 2.99045e-05 3.75756e-05 -0.6259559316 0.5707546448
370297780.0 0.0922978803 -0.084997658 7.9963e-05 -0.0002393606 5.06413e-05 -7.16743e-05 -0.6207300579 0.5767385145
375297750.0 0.0909096903 -0.0859137125 -9.8463e-05 -3.96515e-05 -0.0001336494 -9.57242e-05 -0.6141950047 0.583167447
380297720.0 0.0899471114 -0.0874481311 4.06677e-05 2.95249e-05 5.34514e-05 5.88409e-05 -0.6076453571 0.589780294
385297690.0 0.0883128009 -0.0886021056 0.000105373 4.05939e-05 -2.33207e-05 -5.50125e-05 -0.6020787701 0.5960918736
390297660.0 0.0867373904 -0.0899881449 0.0002444818 5.3356e-06 -0.0001161193 -2.6744e-06 -0.5954563493 0.6014133669
395297630.0 0.0855970464 -0.0913426756 -1.59447e-05 -0.0001353253 -8.8231e-06 8.97152e-05 -0.5891681637 0.6080330283
400297600.0 0.0838597289 -0.0919480153 3.61108e-05 -0.0001539617 -4.83933e-05 0.0002583873 -0.5829312098 0.6135707968
405297570.0 0.0825872486 -0.093323604 0.0001026191 2.13731e-05 0.0002079829 -1.9839e-05 -0.5770073134 0.6199804579
410297540.0 0.080856521 -0.0944074512 -9.529e-07 -5.9902e-06 -7.7195e-05 1.59482e-05 -0.5699034769 0.6255276084
415297510.0 0.0796366756 -0.095912829 6.45279e-05 -6.6269e-06 0.0001293661 0.0001953989 -0.5637997278 0.6321494608
420297480.0 0.0779113417 -0.0965653106 4.0823e-06 -0.0001994667 0.0001007913 -5.32692e-05 -0.5570853641 0.6369173422
425297450.0 0.0764053086 -0.0979313018 8.53189e-05 1.50567e-05 -5.48459e-05 2.90514e-05 -0.5505503392 0.6433545015
430297420.0 0.0750154467 -0.0986210717 -0.0001258302 -4.16212e-05 0.0001300218 0.0001497311 -0.543986194 0.6493216261
435297390.0 0.0734099969 -0.0998585218 0.0001935014 0.0001458363 0.0002065008 3.22518e-05 -0.5371663733 0.6541557119
440297360.0 0.0719989002 -0.1005816143 0.0003298868 -0.0001162008 0.0001309546 -0.0001763082 -0.5296578017 0.6587662872
445297330.0 0.0703401784 -0.1015493055 0.0002299093 0.0002898888 -5.34417e-05 0.0001763543 -0.5234020029 0.6640085036
450297300.0 0.0687077849 -0.1025380385 6.87205e-05 5.14581e-05 9.68798e-05 -0.000232266 -0.5168046694 0.6699926938
455297270.0 0.0671289213 -0.1032463749 -6.16793e-05 0.0001624936 8.96913e-05 0.0001287159 -0.5099050328 0.6750991556
460297240.0 0.0654339992 -0.1039572627 0.0001335949 -7.21009e-05 0.0001138437 -8.09188e-05 -0.5025301486 0.6809572353
465297210.0 0.0641470159 -0.1052081834 8.73965e-05 0.000334694 0.0001965957 0.0001136512 -0.496098985 0.6853160598
470297180.0 0.0624639238 -0.1060415758 -3.31168e-05 -0.0001360869 0.0001278564 0.0002654303 -0.4894927865 0.6896311272
475297150.0 0.0607791794 -0.10686214 0.0001190857 -8.78727e-05 0.000118824 8.78339e-05 -0.4819160552 0.6946137116
480297120.0 0.059182781 -0.1074406009 -7.4358e-05 1.7858e-05 0.0001826819 -0.0001405597 -0.4749698706 0.6997622626
485297090.0 0.0578880087 -0.1081430341 0.0002609784 6.18751e-05 4.64887e-05 -9.5873e-06 -0.4675203425 0.7043264104
490297060.0 0.0562678691 -0.108877902 -6.50406e-05 -4.54109e-05 0.0002540263 3.69748e-05 -0.4611726595 0.7089330611
495297030.0 0.0543701557 -0.1095220777 0.0001537726 -0.00010927 -5.67526e-05 -5.37494e-05 -0.453110021 0.7128815461
500297000.0 0.052855422 -0.1105859812 0.0001719756 -0.0002576422 0.0003497898 0.0001108461 -0.4467682216 0.7182024568
505296970.0 0.0508758549 -0.1107279053 0.0002243153 -0.0001118719 0.0001546199 -2.38941e-05 -0.440067061 0.7224250352
510296940.0 0.0494232481 -0.1114660108 -0.0001324881 5.20138e-05 2.87025e-05 -2.83322e-05 -0.4315752956 0.7262587765
515296910.0 0.0478569871 -0.1120084816 0.0001384313 0.0001077542 4.72367e-05 -0.0002060398 -0.4246375379 0.7310235565
520296880.0 0.0459131962 -0.1124619029 4.85603e-05 0.0001249894 -5.31695e-05 5.11252e-05 -0.4173598966 0.7348571533
525296850.0 0.04457268 -0.113152815 0.0001455237 -9.083e-07 2.42554e-05 0.0001270565 -0.4094794755 0.7396297472
530296820.0 0.042591347 -0.1136894768 3.98932e-05 0.0001726109 -3.26176e-05 -4.902e-07 -0.4025953104 0.7436046868
535296790.0 0.0411823981 -0.1139551463 -2.939e-07 -3.63985e-05 0.0002278308 -0.0001617503 -0.3954579121 0.7468361683
540296760.0 0.0394203606 -0.114702149 0.0001323416 6.3941e-06 7.99437e-05 6.98823e-05 -0.3875014475 0.7511404076
545296730.0 0.0379887415 -0.1147786019 -2.2335e-06 -3.56391e-05 1.14362e-05 3.42459e-05 -0.3803258591 0.7541699347
550296700.0 0.0361478851 -0.1151359075 0.0001601593 0.0001786676 0.0001512078 -4.65594e-05 -0.3729145563 0.7580469273
555296670.0 0.0345664962 -0.115668164 0.000196323 6.38789e-05 8.45827e-05 -8.93175e-05 -0.3650076542 0.762083122
560296640.0 0.0329164257 -0.1162484869 0.0002398902 -0.0001884587 2.96093e-05 0.0001588346 -0.3574180154 0.7657680511
565296610.0 0.0311344875 -0.1163319589 1.5243e-06 -7.23425e-05 7.61635e-05 -9.89078e-05 -0.3503948138 0.7695125154
570296580.0 0.0295146355 -0.1168386109 3.52543e-05 -4.85575e-05 -4.75912e-05 8.20352e-05 -0.3428633675 0.7729119461
575296550.0 0.0281530352 -0.1168795814 0.0001601211 -1.09126e-05 -0.0001549922 8.59175e-05 -0.3346732173 0.7763567714
580296520.0 0.02643756 -0.1173144168 -0.0001371268 8.64241e-05 0.000112589 -1.3125e-06 -0.3268453429 0.7792420691
585296490.0 0.0244596979 -0.1175620927 0.0001088497 0.0001312233 6.85327e-05 7.381e-07 -0.3192965212 0.7820795014
590296460.0 0.0225865849 -0.1178318523 0.0001345275 -0.0001508948 1.26918e-05 -9.95561e-05 -0.3117475572 0.7848565023
595296430.0 0.0212454408 -0.117706323 0.0001713131 6.23568e-05 0.000362659 -0.0001201491 -0.3031535236 0.788069596
600296400.0 0.0194687213 -0.1178911112 0.0001122583 -0.0001608459 1.84134e-05 3.76082e-05 -0.2959949282 0.7917926599
605296370.0 0.0177870293 -0.1182470796 -7.6862e-06 -1.75543e-05 5.49859e-05 3.7938e-06 -0.2877615182 0.7940410876
610296340.0 0.0161626219 -0.1185668007 0.0001929896 -0.000167589 0.0002191087 7.35744e-05 -0.279994071 0.7977264815
615296310.0 0.0145125269 -0.1181865553 0.0001085572 0.0001755149 0.0001004617 -5.73957e-05 -0.2724074965 0.8000545585
620296280.0 0.0124850788 -0.1185432654 0.000348742 -9.16733e-05 9.47448e-05 -0.0002855062 -0.264498533 0.8019799065
625296250.0 0.0109000963 -0.1186080821 5.0501e-05 0.0001554128 9.86243e-05 -0.0001814855 -0.2567361735 0.8047679179
630296220.0 0.009026702 -0.1185874897 -3.8462e-05 0.0002020998 0.0002290014 -0.0001007147 -0.2485406069 0.8076728388
635296190.0 0.0073933893 -0.1187609121 7.76848e-05 -6.8423e-06 0.0001419454 0.0001186452 -0.2409164649 0.8099104487
640296160.0 0.0059555305 -0.1185492422 0.0003402835 -0.000157604 0.000231355 3.97028e-05 -0.2322707498 0.8119455562
645296130.0 0.0040124732 -0.1183714361 -0.0001522871 2.99151e-05 0.0001827643 -0.0001647732 -0.2252484403 0.8140011672
650296100.0 0.002380818 -0.1182691886 0.0001525066 5.26805e-05 -9.409e-06 -4.33944e-05 -0.2163614187 0.8166052399
655296070.0 0.0008286004 -0.1182616399 0.0002952791 -0.0001120472 9.70172e-05 6.45821e-05 -0.2083543153 0.8177488309
660296040.0 -0.0010894833 -0.1177026692 1.0278e-06 -0.0001422698 8.46134e-05 -7.9885e-06 -0.2003982499 0.8205098294
665296010.0 -0.0025288791 -0.1181586545 0.0001820764 -0.0001787437 8.35812e-05 2.803e-06 -0.1925460218 0.8226376236
670295980.0 -0.0040858034 -0.1177583012 0.0002287677 -0.0002889815 0.0002838882 4.69212e-05 -0.184790167 0.824287587
675295950.0 -0.0057388254 -0.1176162693 0.0003298219 -8.16024e-05 -0.000146218 -5.74446e-05 -0.1763802149 0.8262500715
680295920.0 -0.0076602602 -0.1172041056 -2.62118e-05 -0.0002396977 0.0002721958 -0.0002704843 -0.1675823885 0.8275462239
685295890.0 -0.0093848662 -0.1171305854 1.21413e-05 -0.0002180662 6.14451e-05 3.11704e-05 -0.1597534895 0.8295224405
690295860.0 -0.0106561454 -0.1168510226 0.0002732458 -9.6341e-05 0.0001944763 4.33086e-05 -0.1510696465 0.8306299442
695295830.0 -0.0125631061 -0.1167666366 0.0001288653 8.83402e-05 0.0001309376 2.24921e-05 -0.1432973678 0.8328989768
700295800.0 -0.0139240168 -0.1164166835 0.0002444764 5.29832e-05 0.0002470197 -0.0001431952 -0.1344268192 0.8335338392
705295770.0 -0.0157202764 -0.1158796417 0.0001493146 -5.52654e-05 0.0001243974 0.000317197 -0.1268212621 0.8352154367
710295740.0 -0.0173666577 -0.1155158607 -4.48257e-05 -9.88306e-05 0.0001633844 -0.0003281769 -0.1190066726 0.8363848325
715295710.0 -0.0191635759 -0.1150920032 0.0001866317 -0.0001333441 -2.35424e-05 -5.80942e-05 -0.1108315004 0.8372908554
720295680.0 -0.0207022171 -0.1150686611 -5.54543e-05 -0.0001919475 7.69895e-05 -3.921e-06 -0.1018102077 0.8384385465
725295650.0 -0.0222318641 -0.1145963368 0.0002481552 -4.37427e-05 7.30378e-05 -2.11224e-05 -0.0936940163 0.8395604039
730295620.0 -0.0239467567 -0.1144043899 4.17908e-05 -8.01023e-05 4.77888e-05 4.42645e-05 -0.0854721566 0.8403178841
735295590.0 -0.0253482974 -0.1136092431 0.0001334612 -2.2633e-05 9.44044e-05 2.14169e-05 -0.0766337297 0.8408428282
740295560.0 -0.0272961493 -0.1130835926 6.8502e-05 -0.0002623889 0.0001071512 -4.45929e-05 -0.0687549802 0.8412832613
745295530.0 -0.0287686085 -0.1126561118 0.0001025091 2.313e-06 9.45519e-05 2.63463e-05 -0.060538817 0.8422079491
750295500.0 -0.0302876232 -0.111847013 0.0002092864 -5.61704e-05 3.88011e-05 0.0001593551 -0.051666358 0.842052064
755295470.0 -0.0317089823 -0.1115600191 0.0001157187 -2.4607e-06 0.0002989304 -0.000113886 -0.0440820401 0.8434533292
760295440.0 -0.033686173 -0.1106819623 0.0002932386 -0.0002039963 0.0001521565 0.0001236711 -0.0360887189 0.8437121255
765295410.0 -0.0351882579 -0.1105947195 1.2235e-06 -5.74335e-05 0.0002299038 4.13816e-05 -0.0266658525 0.8445236592
770295380.0 -0.0367485081 -0.1097077781 0.0002578288 7.11453e-05 0.0001227051 -8.67641e-05 -0.0185612273 0.8440584647
775295350.0 -0.0384422406 -0.1090071493 0.0002439322 -6.41158e-05 0.0003133839 -4.4219e-05 -0.0112588615 0.8439910007
780295320.0 -0.0399035255 -0.1086012876 0.0002426047 -0.0001567116 6.94323e-05 -8.46289e-05 -0.0024992888 0.8444195826
785295290.0 -0.0413529253 -0.107684752 0.0002428839 -1.92509e-05 7.6455e-05 0.000177851 0.0058314623 0.8447007277
790295260.0 -0.0426094491 -0.1073054912 0.0001191806 -0.0001370643 0.0001567248 -7.8979e-06 0.0148833626 0.8445577253
795295230.0 -0.0442493006 -0.1060578565 0.0001442367 2.62908e-05 -2.03809e-05 5.6803e-06 0.0230716253 0.8446095807
800295200.0 -0.0456410621 -0.1052305053 0.0003695442 -0.0002438089 0.0002282683 -0.000127216 0.0310956513 0.8440208353
805295170.0 -0.047340431 -0.104882196 0.000263496 -1.22828e-05 2.86524e-05 -0.0001227963 0.0392117385 0.843337459
810295140.0 -0.0488228063 -0.1040469142 0.0001972713 -0.0002161432 6.24376e-05 2.7994e-06 0.0475191175 0.8438658275
815295110.0 -0.0503177674 -0.1031015931 2.55079e-05 -0.0001596005 0.0001440025 -5.23312e-05 0.0560240397 0.8427896901
820295080.0 -0.0517369993 -0.1024434586 0.0001242113 -0.0002418815 0.0001331779 2.34437e-05 0.0640746263 0.8419422048
825295050.0 -0.0529354173 -0.1017083867 7.84677e-05 3.61522e-05 0.0002058627 -0.0001326009 0.0725325729 0.8420038605
830295020.0 -0.0543099022 -0.1007274663 7.53219e-05 -7.5101e-06 0.0001329953 -0.000107212 0.0806847801 0.8404388385
835294990.0 -0.0558409354 -0.0994338438 0.0001573807 -8.76395e-05 0.0001526355 -0.0001022092 0.0891594121 0.8399615137
840294960.0 -0.0572218997 -0.0990337877 0.0002720792 6.603e-07 5.20647e-05 -0.000255135 0.0968866973 0.8389184635
845294930.0 -0.0590306121 -0.0980432552 0.0002615212 -0.0001588937 8.57251e-05 5.57877e-05 0.1053980892 0.838264654
850294900.0 -0.0600114738 -0.0971103118 0.0002677199 -3.011e-06 4.96838e-05 -0.0001233128 0.1133926747 0.8375174636
