!Created with skrf (http://scikit-rf.org).
# Hz S RI R 50.0 
!freq ReS11 ImS11 ReS21 ImS21 ReS12 ImS12 ReS22 ImS22
300000.0 -0.2365229069 -0.1250197207 0.4647277359 0.081975709 0.4639193547 0.0840651627 -0.2289471254 -0.1304450244
5299970.0 -0.2450893074 0.0052979536 0.473713591 0.0061040162 0.4741368422 0.0059987151 -0.2433725596 0.0049158472
10299940.0 -0.2418605792 0.0183180569 0.4759926983 0.0070651164 0.4761600589 0.0072533488 -0.2399485219 0.0181117359
15299910.0 -0.236725905 0.028111281 0.4793375379 0.0084538649 0.4797101665 0.0085916743 -0.2360141301 0.0271861933
20299880.0 -0.2316161319 0.0362355071 0.4841765231 0.0085717356 0.4845584984 0.0085586952 -0.2311997282 0.0353010294
25299850.0 -0.2253597899 0.0429797571 0.4894011575 0.007611302 0.4895459072 0.0076158479 -0.2258040681 0.041910948
30299820.0 -0.2202730934 0.0478387784 0.4950746566 0.0056204404 0.4950977393 0.0055111345 -0.2205057753 0.046627135
35299790.0 -0.2143199528 0.051642868 0.5000573715 0.0023612563 0.5003115096 0.0024662517 -0.2156384014 0.0515167855
40299760.0 -0.2092491277 0.0547549432 0.5053790129 -0.0017847287 0.5057512315 -0.0017785679 -0.210437441 0.0545519493
45299730.0 -0.203962503 0.0571474439 0.509965294 -0.0062182956 0.5104515682 -0.0063426444 -0.2055456046 0.0575982492
50299700.0 -0.1990253306 0.0588161772 0.514307772 -0.0116788482 0.5146410697 -0.0119273772 -0.2010649946 0.0601522426
55299670.0 -0.194776332 0.0605902888 0.5183008456 -0.0176794786 0.5184764005 -0.0176604274 -0.1974163245 0.0617232827
60299640.0 -0.1907625776 0.0617267427 0.5215563004 -0.0238001768 0.5214833438 -0.0244674099 -0.1931687687 0.0634046189
65299610.0 -0.1870543467 0.0628023284 0.5250010082 -0.0301807575 0.5247707329 -0.0303688635 -0.1897111437 0.0648468927
70299580.0 -0.18377374 0.0629295067 0.5269915762 -0.0366806293 0.5270979012 -0.0367327693 -0.187178723 0.0658999651
75299550.0 -0.1811683827 0.0640904082 0.529079413 -0.0441287078 0.5292838902 -0.0441535939 -0.183529647 0.0669060682
80299520.0 -0.1781662833 0.0645293878 0.531018895 -0.0506716896 0.5311359481 -0.0508820229 -0.1815240123 0.0681336566
85299490.0 -0.1757647829 0.0649518346 0.5322626245 -0.0575854079 0.5326185091 -0.0576031083 -0.1791030506 0.0684344396
90299460.0 -0.173520026 0.0652543545 0.5329749174 -0.0645071535 0.5330169461 -0.0642617306 -0.1767307133 0.0699615754
95299430.0 -0.1713734708 0.065652904 0.5339636419 -0.071687733 0.5343200403 -0.0717655956 -0.1750279544 0.0706984869
100299400.0 -0.1691740046 0.0661610101 0.5343778417 -0.0782809559 0.5347055696 -0.0786026432 -0.1728983461 0.0718888621
105299370.0 -0.1676357398 0.066636864 0.534891999 -0.0852820579 0.5355266048 -0.0850873699 -0.1710893608 0.0724161241
110299340.0 -0.1656566898 0.0667891832 0.5348677931 -0.0919567099 0.5355419388 -0.0918773354 -0.169762339 0.0731341105
115299310.0 -0.1645551245 0.0675798655 0.5352106642 -0.0985155949 0.5352040788 -0.0988431972 -0.167949304 0.0743877097
120299280.0 -0.1630285032 0.0682093175 0.5350570501 -0.1057752399 0.5347187146 -0.105895306 -0.1665971388 0.0747545244
125299250.0 -0.1618624894 0.0686863408 0.5344873838 -0.1125977952 0.5348430529 -0.1121200973 -0.1650210733 0.0761709464
130299220.0 -0.1608102897 0.0691527329 0.5344347393 -0.1193460704 0.5343211586 -0.1196911026 -0.1638628231 0.0771349583
135299190.0 -0.1597265128 0.0700935057 0.5337060409 -0.1257174211 0.5337982534 -0.1263054188 -0.1627276379 0.0780182152
140299160.0 -0.1585403023 0.0712234035 0.5329409401 -0.1328468338 0.532493625 -0.1324998088 -0.1620706282 0.0789089862
145299130.0 -0.1579207051 0.0715918255 0.5319301599 -0.1388998642 0.532110545 -0.1391011343 -0.1607508464 0.0801594661
150299100.0 -0.1566155159 0.0725018071 0.5304426579 -0.145844195 0.530471504 -0.145414999 -0.1599090952 0.0815524317
155299070.0 -0.1555069896 0.073445756 0.5290024498 -0.1524182579 0.5293759861 -0.1526442062 -0.1584229622 0.0823822754
160299040.0 -0.154767217 0.0747263162 0.5282059175 -0.1588551382 0.5281349812 -0.158927218 -0.1578684394 0.0836407805
165299010.0 -0.1538284052 0.0751823861 0.5266472293 -0.1649788502 0.5263082917 -0.1652881954 -0.1566895329 0.0847227948
170298980.0 -0.1531545689 0.0760621005 0.5249491966 -0.1713042667 0.5249954227 -0.1713743193 -0.1556173107 0.085889406
175298950.0 -0.1521467395 0.0773440163 0.5235818612 -0.1777257581 0.5238910103 -0.1781748142 -0.1548648141 0.0876628002
180298920.0 -0.1516441159 0.0784006706 0.5214587507 -0.1842380895 0.5215555155 -0.1842062169 -0.1539303589 0.0884483662
185298890.0 -0.1508925403 0.0794015999 0.5199948191 -0.1904734775 0.5201123072 -0.190417377 -0.1526393415 0.0896639441
190298860.0 -0.1496681672 0.0809930543 0.5173291261 -0.1969318509 0.5182445273 -0.1965896682 -0.1519603812 0.0909976637
195298830.0 -0.1490222005 0.0819843491 0.516221623 -0.202458447 0.5159674949 -0.2024774586 -0.1509969883 0.0927444422
200298800.0 -0.1483120297 0.0824939067 0.5141723761 -0.2090281361 0.5135135646 -0.2093241678 -0.1498124972 0.0936842667
205298770.0 -0.147943178 0.0839538206 0.5115232957 -0.214532416 0.5118309269 -0.2143571979 -0.149140127 0.0953045432
210298740.0 -0.1467537875 0.0855023952 0.5095814374 -0.2203758322 0.5092977081 -0.2207428888 -0.148473678 0.0964281159
215298710.0 -0.1463091138 0.086660948 0.507130488 -0.2262108251 0.5070150711 -0.2267343174 -0.1472938853 0.0976336721
220298680.0 -0.1452063104 0.0878375607 0.5043980498 -0.232699321 0.5047109257 -0.2327471537 -0.1462926745 0.099254833
225298650.0 -0.1444839413 0.088972546 0.5019890354 -0.2385101203 0.5023456478 -0.2379038417 -0.1451955246 0.1002885206
230298620.0 -0.1436272842 0.0905040359 0.4995519448 -0.2445711464 0.499680377 -0.2443115769 -0.14437805 0.1019808217
235298590.0 -0.1432556322 0.0919197703 0.4971351528 -0.2503975023 0.4971126421 -0.2498575233 -0.1433174153 0.1032308207
240298560.0 -0.1421630163 0.0931497956 0.4943692043 -0.2556683002 0.4945039053 -0.2557945626 -0.1424413514 0.104799421
245298530.0 -0.1415380769 0.0939335818 0.4913110483 -0.2614466023 0.4915030394 -0.2617160824 -0.1411490049 0.1060559745
250298500.0 -0.1409797461 0.0956000503 0.4889880048 -0.2670444314 0.4889259329 -0.2669989229 -0.1404041322 0.1077724075
255298470.0 -0.1400759847 0.0972988783 0.4866638014 -0.2723939619 0.4865571558 -0.2727859527 -0.1389567612 0.1094071124
260298440.0 -0.1389349059 0.0980218924 0.4829417905 -0.2777693724 0.4829900402 -0.2776522989 -0.1383164927 0.1102812997
265298410.0 -0.1384289958 0.0996360935 0.4799238087 -0.283726879 0.4795787469 -0.283925293 -0.1366123366 0.1118630128
270298380.0 -0.1377455866 0.1007202699 0.4766433842 -0.2889750341 0.4768418038 -0.2893893758 -0.1356903591 0.1135600047
275298350.0 -0.1365451322 0.1025545152 0.4731927467 -0.2943644201 0.4735872663 -0.2944406866 -0.1344832046 0.1152436105
280298320.0 -0.136102724 0.1035633327 0.4704348371 -0.2994344011 0.4706692642 -0.2998271954 -0.1334975962 0.116387652
285298290.0 -0.1352793122 0.1049749846 0.4670075465 -0.3048939678 0.4675508842 -0.304638438 -0.1325403813 0.1181109539
290298260.0 -0.1344273863 0.1065007959 0.4647778843 -0.3104655308 0.4642214815 -0.3106487286 -0.1310937631 0.1193235659
295298230.0 -0.1332700427 0.1075827717 0.4604402142 -0.31594236 0.4607823088 -0.3161629267 -0.1297902734 0.1206462732
300298200.0 -0.1321164836 0.1091629193 0.4573239103 -0.3210154684 0.4576176922 -0.3207788842 -0.1287784118 0.1220581617
305298170.0 -0.1314983067 0.1099514326 0.4539884063 -0.3262487152 0.4542487826 -0.3265919503 -0.1271715237 0.1232047449
310298140.0 -0.1302831498 0.1110384679 0.4504506493 -0.3311093044 0.4503227564 -0.3313372461 -0.1254974526 0.1246631335
315298110.0 -0.1295223237 0.1121015809 0.4467597472 -0.3367126032 0.446681133 -0.3365440055 -0.124524068 0.125875666
320298080.0 -0.1286639315 0.1135658449 0.4425803833 -0.341900009 0.4430929563 -0.3421554519 -0.1234635473 0.1273123771
325298050.0 -0.1280272711 0.1145226075 0.4391039139 -0.3463339714 0.4395540972 -0.3470530493 -0.1220679489 0.1284371185
330298020.0 -0.1277481018 0.1160695644 0.43497347 -0.3521502335 0.4356334294 -0.3518745609 -0.1213018211 0.1298120046
335297990.0 -0.1266245931 0.1172940188 0.4311210937 -0.3564566514 0.431288088 -0.3567149854 -0.1198863125 0.1313070643
340297960.0 -0.1258184854 0.1185852498 0.4271487036 -0.3616746925 0.4268192582 -0.3616254359 -0.1185998977 0.1328501012
345297930.0 -0.1250950229 0.1198619816 0.4233717934 -0.3665034709 0.423007479 -0.3662026501 -0.1173616191 0.1337197946
350297900.0 -0.1240800799 0.1211237863 0.4189461098 -0.3704387865 0.4193013844 -0.3709017259 -0.1159480473 0.1350889145
355297870.0 -0.1230120892 0.1224789015 0.4148215728 -0.3746413813 0.4150045381 -0.37500389 -0.1142627511 0.1369309014
360297840.0 -0.1221404602 0.1238806486 0.4100982394 -0.3798272659 0.4109072586 -0.3803026661 -0.1133227268 0.1383946218
365297810.0 -0.1212644978 0.1251628335 0.4062028036 -0.3843228356 0.4067688411 -0.3843057742 -0.1123142446 0.1393794524
370297780.0 -0.1199033031 0.1263955319 0.4016028293 -0.3891129742 0.4025255894 -0.388985735 -0.1107242463 0.1410240468
375297750.0 -0.1187865569 0.1277025951 0.3978471276 -0.3930578148 0.398126825 -0.393443248 -0.1089311069 0.1424368714
380297720.0 -0.118066637 0.1291253186 0.393822962 -0.3976396456 0.3935004489 -0.3980649964 -0.107374094 0.1438190746
385297690.0 -0.1169454727 0.1302564253 0.3890125758 -0.4019441824 0.3894767985 -0.4025362402 -0.1057494931 0.1454253694
390297660.0 -0.1157444381 0.1313055197 0.3848108305 -0.4057782108 0.3847822291 -0.4060475071 -0.1041780007 0.1459350916
395297630.0 -0.1143054126 0.1325166712 0.3805052622 -0.4096338477 0.3802031858 -0.410048252 -0.1028965379 0.1473609142
400297600.0 -0.1137609538 0.1339410452 0.376216407 -0.4146994225 0.3763251791 -0.4144239827 -0.1012317231 0.1489086114
405297570.0 -0.1123654986 0.1346852702 0.3714906119 -0.4181073982 0.3715462764 -0.4186822556 -0.0994825922 0.1505591924
410297540.0 -0.1110313135 0.1364388367 0.3666857406 -0.4228586732 0.3668828907 -0.4226084053 -0.0981370695 0.15158436
415297510.0 -0.1100095737 0.1375277675 0.361862438 -0.426334315 0.3624407281 -0.4269408924 -0.0960832218 0.1526360146
420297480.0 -0.108608255 0.1382598519 0.3576543149 -0.4306892041 0.3577914904 -0.4307357176 -0.0945922636 0.1544378599
425297450.0 -0.1070689226 0.1397658624 0.352640722 -0.4343676939 0.3526583591 -0.4347133063 -0.0927854478 0.1548211625
430297420.0 -0.106155854 0.1405976041 0.3486001932 -0.4384502546 0.3484176545 -0.4379925766 -0.0907922952 0.1562558668
435297390.0 -0.1046278325 0.1416331926 0.3427212888 -0.4425653407 0.3429912715 -0.4422446004 -0.0897932921 0.1579391033
440297360.0 -0.1032677625 0.1425855885 0.3377637235 -0.4458549368 0.3380500681 -0.4459790735 -0.087899865 0.1587800514
445297330.0 -0.1019707187 0.1436257307 0.3334829362 -0.4489491152 0.3335111458 -0.4497136893 -0.0857928494 0.1599658748
450297300.0 -0.1006476225 0.1448630485 0.3282297249 -0.4530477425 0.3286802576 -0.4530230621 -0.0838258341 0.1610962276
455297270.0 -0.0996018834 0.1460599051 0.3233720526 -0.456610485 0.3234930159 -0.4566524315 -0.0822985199 0.1620956903
460297240.0 -0.0979483042 0.1468042502 0.3185143711 -0.4606596452 0.3186198469 -0.460592812 -0.0804453276 0.1632188912
465297210.0 -0.0963582927 0.1477830942 0.3129151341 -0.4638689785 0.3130217591 -0.4639769869 -0.0782167451 0.1646045081
470297180.0 -0.0950373752 0.1487672078 0.3081146824 -0.4668922491 0.3086246281 -0.4669277914 -0.0768665183 0.1648926234
475297150.0 -0.0939603384 0.1503014437 0.303431935 -0.4702789281 0.3032351403 -0.4707067658 -0.0749547594 0.1663314397
480297120.0 -0.0919560041 0.1512553202 0.2978874155 -0.4736397153 0.2980816043 -0.4738767081 -0.0734194286 0.1673453632
485297090.0 -0.0906918934 0.1519044162 0.2925238619 -0.4771032601 0.2928014535 -0.4767934547 -0.0715005564 0.1682185203
490297060.0 -0.0887069416 0.1531757485 0.287274614 -0.4800853213 0.2875776558 -0.4800011781 -0.0696538768 0.1687620671
495297030.0 -0.0878174095 0.1537967256 0.2822407821 -0.4833189875 0.2823258169 -0.4834989809 -0.0673777537 0.1696555367
500297000.0 -0.0861125881 0.1549018885 0.2769306255 -0.4860423037 0.2769931782 -0.4867495147 -0.0655952707 0.1710974098
505296970.0 -0.0843253287 0.1558794929 0.2717747803 -0.4894201157 0.2717384886 -0.4890390143 -0.063317743 0.1713175897
510296940.0 -0.0827147782 0.156759324 0.266550572 -0.4927051436 0.2669083951 -0.4927473092 -0.0615259973 0.1726028147
515296910.0 -0.0813177193 0.1579259435 0.260823338 -0.4949073319 0.260401807 -0.4951534938 -0.0598421208 0.1729709053
520296880.0 -0.079675018 0.1588665391 0.2553953873 -0.4975424115 0.2554718533 -0.4973580541 -0.0574771372 0.1743429983
525296850.0 -0.0779563388 0.159492866 0.2496568599 -0.500175364 0.2497214266 -0.5006283508 -0.055802741 0.1750540626
530296820.0 -0.0765659401 0.1604089654 0.2441148369 -0.5029371206 0.244631605 -0.503073837 -0.0539260482 0.1753453565
535296790.0 -0.0741044947 0.1613825017 0.2387592573 -0.5056017507 0.2394084054 -0.506001079 -0.0513331514 0.1765194202
540296760.0 -0.0730664913 0.1624341737 0.2331281167 -0.5082902963 0.2333856174 -0.5083117328 -0.0498977053 0.1767848347
545296730.0 -0.0717110253 0.1632241893 0.2278674046 -0.5105436333 0.2276442306 -0.5102772534 -0.0476460209 0.1774974382
550296700.0 -0.069368479 0.1641348177 0.2222829137 -0.5132571322 0.2220901375 -0.5133468801 -0.0454908454 0.1782752788
555296670.0 -0.0680663534 0.1648676128 0.2164603772 -0.5160545724 0.2166643034 -0.5156882449 -0.043626409 0.1785141607
560296640.0 -0.0660255002 0.1654252403 0.2107666506 -0.5180202167 0.2112704203 -0.5177540593 -0.0415363508 0.1795817804
565296610.0 -0.0649112103 0.1663904421 0.2057808038 -0.519929812 0.2058842755 -0.5196244602 -0.0396588744 0.1802303525
570296580.0 -0.0631946243 0.1672882459 0.1997912404 -0.522240531 0.1998626827 -0.5224634674 -0.037630237 0.1805596832
575296550.0 -0.0613144932 0.1681260853 0.1943728791 -0.5241431749 0.1938960611 -0.5244425737 -0.0356992597 0.1811573295
580296520.0 -0.0596652823 0.1692132413 0.1886275254 -0.5264943447 0.1879979684 -0.5261901974 -0.0335099081 0.1814892892
585296490.0 -0.0574682255 0.1699069848 0.1829826444 -0.5285085081 0.182597189 -0.5281924802 -0.0311124814 0.1824094168
590296460.0 -0.0553105572 0.1704985365 0.1773303019 -0.5300064539 0.1773724859 -0.5305005198 -0.0298946237 0.1827162723
595296430.0 -0.0538649739 0.1710513212 0.1709881204 -0.5318820353 0.1703681604 -0.5323578967 -0.0272942676 0.183090752
600296400.0 -0.0523275262 0.1718151976 0.1647486635 -0.533699294 0.1651555703 -0.5339874839 -0.0252269734 0.1831892891
605296370.0 -0.0506863861 0.172853139 0.1599098065 -0.5353765082 0.1592172271 -0.5355325111 -0.0231956663 0.1841145151
610296340.0 -0.048532079 0.1737351199 0.1537185196 -0.5367674898 0.1539888116 -0.5371680287 -0.0215535926 0.1845365807
615296310.0 -0.0465094174 0.1741431731 0.1476790597 -0.53914605 0.1472971864 -0.5391911263 -0.0188473302 0.1845840069
620296280.0 -0.0454051832 0.1751949256 0.1417005874 -0.5403821827 0.1414960089 -0.5403419529 -0.0173294919 0.1853760637
625296250.0 -0.0435231248 0.1755607872 0.1360304237 -0.5422247858 0.1360505449 -0.5421175899 -0.015311128 0.1854325471
630296220.0 -0.0416428564 0.1765555303 0.1297047615 -0.5435274737 0.1298555178 -0.5434997601 -0.0129554033 0.185706511
635296190.0 -0.0401451756 0.1771893346 0.1245949952 -0.5442965981 0.1238296001 -0.5443899193 -0.0109483625 0.1856961778
640296160.0 -0.0382171801 0.177658346 0.1184252185 -0.546167655 0.1182165526 -0.5461151035 -0.0091524133 0.1863075713
645296130.0 -0.0363905699 0.1787203462 0.112420545 -0.5472674572 0.1125237013 -0.547031893 -0.0070869923 0.1862600743
650296100.0 -0.0347735099 0.1789700174 0.1066818764 -0.5483147824 0.10620564 -0.5485259767 -0.0045918453 0.1865697735
655296070.0 -0.0329311372 0.1796090348 0.1002348679 -0.5495468746 0.1004796343 -0.5493794102 -0.0030189835 0.1871960232
660296040.0 -0.0312197701 0.1805542622 0.0948397524 -0.5504687924 0.0946937985 -0.550514496 -0.001090382 0.1866821161
665296010.0 -0.0293770889 0.1810409659 0.0882610536 -0.5510855515 0.0883740233 -0.5513188183 0.0012737942 0.1869537728
670295980.0 -0.0276246527 0.1817756221 0.0823994054 -0.5526636517 0.0824364249 -0.5517235706 0.0031841885 0.1867999984
675295950.0 -0.0258992265 0.1820140629 0.0765882265 -0.5528017538 0.076835831 -0.5530825466 0.0051820233 0.1871728758
680295920.0 -0.0243847939 0.1826137719 0.0706195453 -0.553345409 0.0704873544 -0.55397813 0.0075306042 0.1872531514
685295890.0 -0.0219402589 0.1831676226 0.0642914161 -0.554788211 0.0643184547 -0.5545589377 0.0097098134 0.1876993092
690295860.0 -0.0204482053 0.1835643416 0.058560802 -0.5553719095 0.0586378846 -0.5554449516 0.0114810078 0.187417984
695295830.0 -0.018862718 0.1839106606 0.0529343555 -0.5557782142 0.0525684338 -0.5557049741 0.0135900102 0.1876432921
700295800.0 -0.0167325858 0.184680512 0.0472237725 -0.5561353163 0.0469102073 -0.5564667169 0.0156146339 0.1874902088
705295770.0 -0.015466418 0.184999192 0.0408647449 -0.5570642429 0.0406169 -0.5564636704 0.017824436 0.1877903643
710295740.0 -0.0138369174 0.1850580672 0.0349547364 -0.556912379 0.034174723 -0.5577000455 0.0200712184 0.1877912927
715295710.0 -0.0117552823 0.1858193102 0.0287106312 -0.557679041 0.0287461908 -0.5572898843 0.0220062023 0.1874101933
720295680.0 -0.0098892183 0.1859739284 0.0226955233 -0.5575143703 0.0222056602 -0.5576523413 0.0240520679 0.1872560706
725295650.0 -0.0083717473 0.1866038228 0.0168164851 -0.5576486014 0.0168774496 -0.5578209959 0.0259848137 0.1874987995
730295620.0 -0.0074039704 0.186567377 0.0111806341 -0.5576690409 0.0108121351 -0.5579601732 0.0278562715 0.187870971
735295590.0 -0.0048506904 0.1871480981 0.0046913587 -0.5582419613 0.0043815791 -0.5582313103 0.0301101355 0.1869415011
740295560.0 -0.0035026248 0.1871294058 -0.0009075102 -0.5578379132 -0.0006850571 -0.558458485 0.0317401759 0.1870401894
745295530.0 -0.0017849203 0.1877628695 -0.0068125668 -0.5574643569 -0.006547359 -0.5578408988 0.0337368692 0.1869371672
750295500.0 -0.0002410816 0.188204931 -0.0126724359 -0.5577000934 -0.0133190711 -0.5577227204 0.0359098411 0.1865478214
755295470.0 0.0017563723 0.1881977071 -0.0189128187 -0.5580752637 -0.0188953289 -0.5581349334 0.038092206 0.1866331555
760295440.0 0.00340797 0.1889099286 -0.0256628492 -0.5572948034 -0.025251005 -0.5570100215 0.0404310137 0.1856171536
765295410.0 0.0055817347 0.1884248135 -0.0314092819 -0.5566259921 -0.0307542802 -0.5571676133 0.0422077861 0.1856947536
770295380.0 0.0068430171 0.1889946632 -0.0368088238 -0.556189998 -0.0370199856 -0.556800713 0.043787417 0.1852854838
775295350.0 0.0084430698 0.1889561365 -0.0426565266 -0.55594669 -0.0431282361 -0.5561178711 0.0465774684 0.1852690853
780295320.0 0.0104446352 0.1895233171 -0.0487409466 -0.5553390336 -0.0485828495 -0.5558906458 0.0484919134 0.1846256375
785295290.0 0.0120700344 0.1892452027 -0.0550549403 -0.5551494185 -0.0545595202 -0.5552228459 0.0501361876 0.1845748132
790295260.0 0.0137410176 0.1888446751 -0.0604233181 -0.5543928464 -0.0607135724 -0.5547636459 0.0519409486 0.1847798092
795295230.0 0.0157844975 0.1894241653 -0.0667078128 -0.5538885732 -0.0667946444 -0.5538710311 0.0540338232 0.1831183286
800295200.0 0.0171800471 0.1895559496 -0.0721560808 -0.5523064518 -0.0730882382 -0.5532589651 0.0561732848 0.1832762496
805295170.0 0.0185727073 0.1895140008 -0.0782555359 -0.5519949538 -0.0786390144 -0.5522403437 0.058500461 0.1827816322
810295140.0 0.0209577448 0.1899541031 -0.0843089825 -0.5512402785 -0.0846020728 -0.5511696085 0.0606356805 0.1821068714
815295110.0 0.0224701743 0.1897930191 -0.0899645037 -0.5504132824 -0.0899373422 -0.5505740185 0.0623034762 0.1818060593
820295080.0 0.0241325878 0.1895687444 -0.0958126434 -0.5489230285 -0.0957050591 -0.5494003734 0.0635519182 0.1816476044
825295050.0 0.0256081864 0.1893214873 -0.1019628571 -0.5480951249 -0.102014347 -0.5480470195 0.0666625726 0.1811099818
830295020.0 0.0273579079 0.1895154831 -0.1077912308 -0.5469932514 -0.1079127283 -0.5471991836 0.0680951743 0.1799773408
