!Created with skrf (http://scikit-rf.org).
# Hz S RI R 50.0 
!freq ReS11 ImS11 ReS21 ImS21 ReS12 ImS12 ReS22 ImS22
300000.0 -0.7746576642 -0.141510388 -0.0002304578 -0.0008082481 0.0012182534 0.0020536508 -0.2106633387 -0.0928716411
5299970.0 -0.7855366732 -0.0072097626 -1.40194e-05 4.36192e-05 -9.7748e-05 -2.40981e-05 -0.2163318847 0.0068518576
10299940.0 -0.7878214682 -0.00432606 0.0001582592 -7.40777e-05 -0.000145044 -1.93555e-05 -0.2134689831 0.0187950006
15299910.0 -0.7933299984 -0.0016793378 -4.09108e-05 8.04129e-05 -6.41686e-05 0.0001621004 -0.2083482763 0.0278538278
20299880.0 -0.7995641257 0.0026260722 0.0002226718 -0.0001762769 -4.70975e-05 0.0001927115 -0.2033755937 0.0356269526
25299850.0 -0.8065509216 0.0082411723 6.1795e-05 -0.0001762046 4.27206e-05 0.0001148963 -0.1977405578 0.0415187408
30299820.0 -0.8118025909 0.0161902173 -5.4291e-05 0.0002962003 -3.60942e-05 5.96055e-05 -0.1919968229 0.0461683154
35299790.0 -0.8166587628 0.0253831543 0.0001736655 -0.0001129173 4.5949e-05 -9.13877e-05 -0.1862186904 0.0498288025
40299760.0 -0.8214238611 0.0339910854 -8.43367e-05 -9.44269e-05 5.76153e-05 -0.0002012349 -0.1805314706 0.0524622602
45299730.0 -0.8246436654 0.043962901 7.0039e-06 0.0001080705 -2.47768e-05 0.0001231022 -0.1757674521 0.0550855731
50299700.0 -0.826407454 0.0538231518 2.31334e-05 5.26668e-05 -0.0001160278 7.03224e-05 -0.1705581219 0.0565156055
55299670.0 -0.828897582 0.0644223246 1.52503e-05 7.7544e-06 0.0001322847 9.92146e-05 -0.1664400279 0.0577622427
60299640.0 -0.8297323755 0.0743866735 0.0001420012 9.09891e-05 6.2269e-06 0.0002332695 -0.1625693405 0.0583794336
65299610.0 -0.8313993466 0.0853722366 -0.0001577511 6.98952e-05 9.78003e-05 -1.29508e-05 -0.1587815652 0.0589678967
70299580.0 -0.8312260475 0.0946206114 0.0001902686 5.11944e-05 0.00021838 0.0002030158 -0.1555798734 0.0589886604
75299550.0 -0.8316344283 0.1047677086 -2.00936e-05 0.0001562645 -0.0001202447 0.0001577348 -0.1528777569 0.0592474213
80299520.0 -0.8312106256 0.1139759906 5.76214e-05 3.92252e-05 -0.0001242492 -0.0001216066 -0.15026358 0.0596676194
85299490.0 -0.8302954194 0.1241978362 2.22592e-05 -5.93173e-05 -0.0001001093 0.0002110613 -0.1476562 0.0597303937
90299460.0 -0.8297429212 0.1338721302 -0.0001645267 0.0002305807 -0.0001074863 0.0001229825 -0.145478209 0.0596777868
95299430.0 -0.8285428519 0.1434049086 -7.61444e-05 -0.0001777468 5.82008e-05 -2.61363e-05 -0.1432857588 0.059499591
100299400.0 -0.8277581107 0.1528252194 6.23692e-05 0.0001090203 -0.0001520802 -4.85981e-05 -0.1419231117 0.0592548051
105299370.0 -0.8266446348 0.1622359153 0.0001487346 0.0001715492 0.000136167 -6.0583e-06 -0.1400043452 0.0592767875
110299340.0 -0.8250674741 0.1709317559 5.63846e-05 1.70183e-05 0.0001277788 3.92927e-05 -0.1389613143 0.0595609496
115299310.0 -0.8236210043 0.1807761098 2.65337e-05 0.0001129884 0.0001699941 -0.0001422863 -0.1374337668 0.0591518809
120299280.0 -0.8214383853 0.1894740748 0.0002948545 -3.52528e-05 0.0001170019 0.0001825319 -0.1360635245 0.0593086786
125299250.0 -0.8205703136 0.1985400112 2.64687e-05 0.0001083548 -0.0001036312 -4.75838e-05 -0.134998091 0.0591092899
130299220.0 -0.8183626176 0.2074220167 3.93806e-05 1.9716e-05 -0.0001250811 7.90571e-05 -0.1343777683 0.0595652525
135299190.0 -0.8167378956 0.2163620382 -9.77323e-05 -3.81675e-05 -7.17814e-05 0.0002053254 -0.1332703583 0.0596466185
140299160.0 -0.8145919921 0.2257068544 9.51167e-05 0.0002886153 5.63074e-05 0.0002125225 -0.132495477 0.0597137506
145299130.0 -0.8123936978 0.2341894962 -6.72562e-05 -7.98122e-05 0.0001446443 1.69601e-05 -0.1319726099 0.0602287337
150299100.0 -0.8101542326 0.2431590539 -9.97587e-05 4.02508e-05 -1.3291e-05 8.40486e-05 -0.1308859815 0.06030182
155299070.0 -0.8073933669 0.2520273996 -0.0001368862 0.0001203481 0.0001419868 0.000246563 -0.1302750911 0.0609643478
160299040.0 -0.8050731513 0.2611572309 1.81276e-05 5.1497e-05 3.4004e-05 -0.0001500346 -0.1296703265 0.0613793705
165299010.0 -0.802150073 0.2696333446 4.60855e-05 4.04461e-05 -3.64625e-05 0.0001000017 -0.1291034005 0.0616998665
170298980.0 -0.7990577438 0.27781744 -0.0001136741 0.0002716311 9.80621e-05 5.89465e-05 -0.1284087902 0.0622460314
175298950.0 -0.7967255858 0.2869889255 2.0607e-05 0.000105308 -5.35611e-05 0.0001361695 -0.1279255832 0.0624855608
180298920.0 -0.7935860146 0.2954112103 8.58486e-05 0.000341682 6.55507e-05 0.00011546 -0.1269594338 0.0632505368
185298890.0 -0.7906431514 0.3043239915 9.49452e-05 0.0001296666 -1.80074e-05 -7.04119e-05 -0.1266260465 0.0637548821
190298860.0 -0.7870774034 0.3122039371 -3.86363e-05 0.0001493563 0.00010264 0.0002125405 -0.1258966517 0.06450771
195298830.0 -0.7836933762 0.3208988662 2.2362e-05 6.76678e-05 0.0001254257 -4.54498e-05 -0.1257671704 0.0648205682
200298800.0 -0.780936771 0.3292423789 3.08524e-05 0.0001900154 0.0001893576 0.0001292765 -0.1246989173 0.0657193285
205298770.0 -0.7774086473 0.3368707315 3.73889e-05 0.0001196845 1.13279e-05 0.00010814 -0.1247328141 0.0663866909
210298740.0 -0.7735383584 0.3459692746 0.0001205349 -9.9533e-06 -4.86781e-05 -4.7236e-06 -0.1241165679 0.0673166378
215298710.0 -0.7702251336 0.3545526879 5.30649e-05 1.77538e-05 0.0001104359 0.0002154395 -0.1239398699 0.0680967996
220298680.0 -0.7673330524 0.3623940297 0.0002519905 0.0001015085 0.0002774515 0.000159581 -0.1231478609 0.0688848197
225298650.0 -0.7625433992 0.3709675904 0.0001925926 0.0001361411 5.06989e-05 0.0001097491 -0.1229943413 0.070130632
230298620.0 -0.7587811684 0.3787786256 0.0001306042 0.0002587406 3.22801e-05 4.1109e-05 -0.1220610455 0.0704813083
235298590.0 -0.7548187456 0.3870936338 5.05869e-05 -0.0002147457 1.95727e-05 -8.08953e-05 -0.1216786636 0.0712017489
240298560.0 -0.750873025 0.3950893561 -2.17333e-05 0.0001452067 -5.15275e-05 -1.04717e-05 -0.1213842201 0.0724364048
245298530.0 -0.7464483675 0.4030876087 0.0001293431 3.25583e-05 6.01035e-05 7.9621e-05 -0.1207758143 0.0733022124
250298500.0 -0.7421822138 0.4104107146 0.0002262569 4.3815e-06 0.0001256583 7.95294e-05 -0.1198128177 0.0740430657
255298470.0 -0.73786649 0.4183984252 0.0002091024 0.0001755776 -7.5561e-06 -2.69116e-05 -0.1197049529 0.0748384526
260298440.0 -0.7339009291 0.4260487287 2.42575e-05 0.0003097945 0.000180891 0.0001657442 -0.118797908 0.0759866587
265298410.0 -0.7291967103 0.4342777464 -6.13252e-05 0.0001761539 6.52256e-05 3.4518e-05 -0.1185900067 0.0770593826
270298380.0 -0.7244023389 0.4417332635 0.0001818592 -1.54167e-05 3.32758e-05 4.3635e-05 -0.1177508644 0.0778856285
275298350.0 -0.7199273726 0.4488369351 5.2322e-05 4.90707e-05 0.0001494719 0.0001265553 -0.1171866816 0.0790335262
280298320.0 -0.7150748748 0.4569817914 0.0002210938 0.0001899757 2.47356e-05 5.5095e-05 -0.1166505781 0.0798356954
285298290.0 -0.7103959149 0.4644583331 3.14585e-05 -2.9604e-06 -1.65694e-05 8.06148e-05 -0.1161048936 0.0809906312
290298260.0 -0.7055057592 0.4719074148 0.0001609763 0.0003082328 0.0001657938 -1.34439e-05 -0.1152202814 0.08225882
295298230.0 -0.700445457 0.4789779137 0.0001351409 -0.0001049139 8.4206e-06 0.0001869398 -0.1148246053 0.0829043872
300298200.0 -0.6948297493 0.4864285922 0.0003566857 8.11503e-05 -1.46206e-05 -9.02353e-05 -0.1140917707 0.0843047553
305298170.0 -0.6900681337 0.4941787043 8.41598e-05 8.13713e-05 9.38439e-05 -0.0002064008 -0.1131872696 0.0856257973
310298140.0 -0.6847367239 0.500478805 0.0002677225 0.0001288176 0.0001502868 0.0002140982 -0.1122942265 0.0863280273
315298110.0 -0.6793897499 0.5077621761 0.000267449 0.0001408168 0.0001082876 0.0003161701 -0.1115761681 0.0874745837
320298080.0 -0.6740931514 0.515434021 0.0001342939 0.0001832672 6.78546e-05 0.0001854576 -0.1111211381 0.0883644384
325298050.0 -0.6680628965 0.5216013576 0.0001868689 0.0003262511 -0.0001434138 0.0001152209 -0.1103269475 0.0890766736
330298020.0 -0.6626788129 0.5293649571 0.0001132332 -4.9253e-06 3.36286e-05 0.0001404867 -0.1098809682 0.0902786447
335297990.0 -0.6569878959 0.5362937876 8.30026e-05 0.0001884724 -4.53832e-05 -0.0001660609 -0.1093759226 0.0912212992
340297960.0 -0.6523072283 0.5430883491 0.000103056 5.94891e-05 0.0001767454 -3.5575e-06 -0.1086360377 0.0924196429
345297930.0 -0.6465679064 0.5489753992 0.0001868143 -3.00107e-05 0.0002549047 3.19836e-05 -0.1078294029 0.09349346
350297900.0 -0.6405177001 0.5557342073 -0.0001525613 -4.20512e-05 0.0001378572 -0.000136033 -0.1072610373 0.0950186323
355297870.0 -0.6346004916 0.5627547102 0.0001436424 0.0001413268 0.0001668935 0.0001169904 -0.1065846294 0.0961526158
360297840.0 -0.6277628354 0.5690667299 0.000120406 5.2705e-05 0.000196955 -6.90573e-05 -0.1060566849 0.0973217776
365297810.0 -0.6223720751 0.5758763464 -4.36514e-05 0.0001378375 0.0003266088 -7.52439e-05 -0.1051108889 0.0984427553
370297780.0 -0.6161784529 0.5812329075 -1.7756e-06 0.0001665474 0.0001604065 8.88592e-05 -0.1045893409 0.099530783
375297750.0 -0.610319641 0.588373794 0.0001766535 6.6472e-06 -4.02584e-05 0.0002011988 -0.1035921466 0.1007122958
380297720.0 -0.6036665878 0.5949315542 0.0002162323 3.94351e-05 -9.9231e-06 0.000137791 -0.1027317637 0.1023115832
385297690.0 -0.5976904094 0.6007509008 0.0003323182 -3.72051e-05 0.0003497468 1.6175e-05 -0.1017792718 0.1033962786
390297660.0 -0.5915964565 0.6072262252 0.0001459826 -2.0687e-05 0.0003114642 5.24146e-05 -0.1012256574 0.1040426758
395297630.0 -0.585420465 0.6134814048 0.0002901659 7.81646e-05 0.0001224122 0.0001093115 -0.1001810229 0.1055751497
400297600.0 -0.5792052591 0.6192346353 0.0001124415 0.0001569626 0.000271554 8.56114e-05 -0.0996836823 0.1066694184
405297570.0 -0.5726523519 0.6255191501 2.82611e-05 -8.02311e-05 0.000127544 5.03672e-05 -0.0990622698 0.1076013779
410297540.0 -0.5655773548 0.630564889 0.0002019207 2.17684e-05 9.23173e-05 8.35188e-05 -0.097725714 0.1090141329
415297510.0 -0.5595457643 0.6365135109 0.0003036675 -5.8714e-06 0.0002070393 6.54939e-05 -0.09727374 0.1103580773
420297480.0 -0.5519194791 0.6420896029 0.0001816731 0.0001131396 0.0003474397 6.91188e-05 -0.095974878 0.1111167639
425297450.0 -0.545716821 0.6473881284 7.4338e-05 0.0001850789 0.0003191223 0.0001297608 -0.0948304161 0.1122292093
430297420.0 -0.5393683475 0.6532112095 0.0002968417 0.0001972136 9.73572e-05 -3.0304e-05 -0.0941383309 0.1135222558
435297390.0 -0.5321136594 0.6591267651 9.2392e-06 -0.0001744117 0.0002036054 0.0003489809 -0.0927232781 0.1149728845
440297360.0 -0.5254995066 0.6638814176 0.0002079986 9.46625e-05 0.0002465229 4.39542e-05 -0.0926323108 0.1155528452
445297330.0 -0.5185608561 0.6702131213 0.0001030325 -0.0001242808 0.0002225447 6.13956e-05 -0.0913871143 0.1168131865
450297300.0 -0.511073307 0.6743575226 0.0001520303 0.0001952587 0.0002368619 -1.73179e-05 -0.0905600343 0.1181588549
455297270.0 -0.5042069549 0.6800406876 0.0001913936 0.0003589833 0.0001847524 -5.0045e-06 -0.089491726 0.118926648
460297240.0 -0.4977394858 0.6852973211 0.0001138632 0.0001100924 1.06286e-05 7.70848e-05 -0.0882884756 0.1201011518
465297210.0 -0.4901532485 0.6903155704 1.05239e-05 0.0001121989 0.0001435101 -9.70092e-05 -0.087659857 0.1208365514
470297180.0 -0.4831675943 0.6947785551 0.0002600581 0.000151968 0.0001574611 5.37589e-05 -0.0868051082 0.1218053511
475297150.0 -0.4760839476 0.7003276134 7.32092e-05 0.0001524114 0.0003236145 0.0001162705 -0.0852622301 0.1230991358
480297120.0 -0.4690109105 0.7042386866 0.0001391443 0.0002534166 0.0003085295 3.23075e-05 -0.0847040808 0.1243578492
485297090.0 -0.4612964613 0.7095573594 0.0002224499 0.0001518365 0.0002633545 9.6052e-06 -0.0836240766 0.1255278648
490297060.0 -0.453888434 0.7142374123 0.0006322222 1.64889e-05 1.59251e-05 3.3759e-05 -0.0828538534 0.1261631491
495297030.0 -0.4475197823 0.7185959933 0.0001409838 9.80505e-05 9.29421e-05 -1.14483e-05 -0.0815237569 0.1270830081
500297000.0 -0.4383916299 0.7237422016 0.0002195037 4.52845e-05 0.0002301649 0.0001273837 -0.0805497918 0.1282156011
505296970.0 -0.4314751516 0.7271766806 0.0003710191 0.0002058855 6.23147e-05 0.0001184951 -0.0797655551 0.1291114152
510296940.0 -0.4239485358 0.7320107322 0.0001727358 -7.36606e-05 0.0003028997 0.0001284543 -0.0783362323 0.1303844744
515296910.0 -0.4175514786 0.7359789003 -5.31085e-05 0.0002302232 0.0003936538 0.0001917801 -0.0773812447 0.1313007823
520296880.0 -0.4086743073 0.7404285892 0.0001516336 3.4681e-05 0.0002650649 -9.1597e-06 -0.0761102969 0.1318980969
525296850.0 -0.402077162 0.744128364 0.0002327141 1.89469e-05 0.0002403638 3.40188e-05 -0.0748038554 0.1332287697
530296820.0 -0.3945958444 0.748363304 0.0003478491 6.53984e-05 0.0002527957 0.0001343131 -0.074257391 0.1340074343
535296790.0 -0.3864396006 0.752628761 5.33142e-05 -0.0001299882 0.000228694 0.0002110226 -0.0729669358 0.1346603361
540296760.0 -0.3780010191 0.7559612793 0.0001416239 0.0001538467 0.0002160241 6.58448e-05 -0.0714823014 0.1355830449
545296730.0 -0.3709559573 0.7594972685 0.0001876295 8.51792e-05 0.000319689 7.78552e-05 -0.0707153725 0.136144062
550296700.0 -0.3632645867 0.7635706819 0.0001838179 0.0001059686 0.000240942 -3.29887e-05 -0.0695667233 0.1371745695
555296670.0 -0.3547183193 0.7670844074 2.11681e-05 -6.05104e-05 0.0004492885 7.675e-05 -0.0683050695 0.1382564509
560296640.0 -0.3474225764 0.7705861661 4.37645e-05 0.0001483847 0.0002201955 4.37407e-05 -0.0672862079 0.1389389477
565296610.0 -0.3396177776 0.7737076091 0.0001232452 -4.68653e-05 0.0003826283 0.000134 -0.0659704916 0.1398294638
570296580.0 -0.3319855526 0.7771061982 0.0002527288 -0.0003902985 6.11547e-05 0.0001549732 -0.0647682263 0.1406273794
575296550.0 -0.3237795697 0.7807018312 0.0001916149 -4.49172e-05 0.0002197002 -0.0001663578 -0.0631704137 0.1418425558
580296520.0 -0.3153183106 0.7838734151 0.000276347 -0.0002877458 0.0003807717 8.652e-06 -0.0623706596 0.1426547761
585296490.0 -0.3078120825 0.7863779991 0.0001651569 3.06495e-05 0.000299193 9.3262e-05 -0.0611032327 0.142790982
590296460.0 -0.3003079268 0.7895369353 0.0001611144 -5.73141e-05 0.0001907894 0.0002513794 -0.0597827463 0.143844588
595296430.0 -0.2913774834 0.7935694891 0.0004129126 2.5978e-06 0.0002794648 1.33674e-05 -0.0585899308 0.1445176647
600296400.0 -0.2835510713 0.795271088 0.0002071716 0.0001113313 0.0002641661 0.0001672835 -0.0572516046 0.1454788308
605296370.0 -0.275664984 0.7991338776 0.0003017878 -1.72297e-05 0.0001796551 -2.23308e-05 -0.0557510087 0.1463133126
610296340.0 -0.2680527081 0.8009244584 0.0001917507 4.3712e-06 -1.82701e-05 -0.0001190851 -0.0547851569 0.146953658
615296310.0 -0.2593688104 0.8041695342 0.0002006684 -0.0001492683 0.0002136399 -9.92016e-05 -0.0531760431 0.1474666701
620296280.0 -0.2505738045 0.8063123139 0.0002921823 7.82156e-05 0.0001736301 8.4008e-06 -0.0524048867 0.148046049
625296250.0 -0.2429780109 0.8093149036 0.000109594 4.55579e-05 0.0001538483 1.30016e-05 -0.0510822379 0.1489147279
630296220.0 -0.234642697 0.8118799177 0.0003106308 2.4018e-06 0.0003358012 4.83075e-05 -0.0494897743 0.1498275163
635296190.0 -0.2264428837 0.8132147977 0.000252918 -0.0002426381 0.0003487547 0.0002104477 -0.0482726706 0.1503979929
640296160.0 -0.2181789344 0.8152278588 0.0004138787 9.70848e-05 0.0003325934 0.0002141284 -0.0470204668 0.1509319389
645296130.0 -0.2100920233 0.8179481187 0.0002572996 0.0002841571 0.0003930627 0.0001438319 -0.0457000616 0.1516310853
650296100.0 -0.2020591392 0.8199802016 0.0001771427 0.0001179842 0.0001126914 0.0001180864 -0.044494076 0.1524374143
655296070.0 -0.1930681872 0.8219075838 0.0002494863 8.7743e-06 0.0002088343 7.37745e-05 -0.0429969769 0.1530369519
660296040.0 -0.1853930406 0.8245126335 0.0003854675 0.0001839715 0.0003182601 -0.0002129652 -0.0415342433 0.1533725153
665296010.0 -0.1771439955 0.8258891923 0.0003430846 -0.0001121686 0.0002892697 7.6194e-05 -0.0402854509 0.1540872653
670295980.0 -0.1683306376 0.8271638878 0.0003770266 9.1274e-06 0.0003221461 0.0001436258 -0.0390869763 0.154527598
675295950.0 -0.1600031286 0.8289688343 0.0003690486 -0.0001996426 0.0001953651 5.01503e-05 -0.0372619206 0.1550307562
680295920.0 -0.1521474834 0.8307672044 0.0003011179 0.0002507846 0.0001955609 -4.0795e-05 -0.0358471518 0.1557650093
685295890.0 -0.1435002169 0.8320930773 0.0003200668 -0.0001224627 0.0003587406 -0.0001141086 -0.0349654384 0.1562459505
690295860.0 -0.1343854856 0.8334713804 0.0002610637 3.43587e-05 3.17225e-05 0.0001968317 -0.0329629782 0.1567976102
695295830.0 -0.1265936084 0.8343331457 0.0001330851 -0.0001783846 0.0002843656 0.000208429 -0.0318334817 0.1574579423
700295800.0 -0.1180377912 0.8353460802 0.0004035446 0.000107003 0.0001755318 8.19643e-05 -0.030331373 0.1576743962
705295770.0 -0.1095588736 0.8371946013 0.0003274973 5.40037e-05 0.0004024089 4.36102e-05 -0.0289818352 0.1584949829
710295740.0 -0.101468778 0.8382086182 0.0002759232 -8.43688e-05 -7.8466e-06 0.0001711009 -0.027802564 0.1591024063
715295710.0 -0.0933169658 0.839332169 0.0002863207 6.59301e-05 0.0001026909 -0.0001527088 -0.0262515925 0.1594087036
720295680.0 -0.0845815655 0.8398082181 0.0003304562 9.29608e-05 8.4713e-05 0.000144652 -0.0245576866 0.1598973262
725295650.0 -0.0755867368 0.8408509878 0.0002230728 4.88249e-05 0.0003268556 6.57495e-05 -0.0231397143 0.1603330322
730295620.0 -0.0674230943 0.8413744092 0.0003598486 -0.0001403297 0.0001744885 5.85395e-05 -0.0217374798 0.1607841325
735295590.0 -0.0584064821 0.8413575906 0.0001562823 -0.0001318011 0.0002300776 -0.0002665424 -0.0199748234 0.1610578086
740295560.0 -0.0505652686 0.8429720116 0.0001799347 7.36124e-05 0.0003370795 -9.3347e-05 -0.0186915151 0.1611969977
745295530.0 -0.0422544304 0.8430195319 0.0003202705 7.959e-07 0.0002098092 -0.0002566794 -0.0172577086 0.1620263743
750295500.0 -0.0338556889 0.8431610031 0.0004720255 -8.65251e-05 0.0001667457 1.65069e-05 -0.0159259409 0.1619338232
755295470.0 -0.0248160934 0.8434251031 0.0003007275 -0.0002539568 0.0002875218 2.50261e-05 -0.014580342 0.1628620468
760295440.0 -0.0163763132 0.8435188566 0.0003826391 -0.0001188434 0.000237018 -0.0001269966 -0.0131187033 0.1632429555
765295410.0 -0.0081107881 0.8439934433 0.000212786 -0.0001241205 0.0002853645 -0.0001124695 -0.0111965058 0.163459518
770295380.0 0.0005915561 0.8439737433 0.0002837415 -0.0002458404 0.000370926 -5.32606e-05 -0.0094728445 0.1636615793
775295350.0 0.0086513431 0.8440074171 9.35418e-05 0.0001161379 0.0003017955 -0.0001533422 -0.0086202698 0.1635367894
780295320.0 0.0177509457 0.8435097097 0.0003573173 -1.268e-05 0.0001982771 -0.0001130438 -0.0069008915 0.1645281556
785295290.0 0.0257750412 0.8443216288 0.0001685015 0.0002054053 0.0003593294 -0.0002035471 -0.0059143341 0.1647572725
790295260.0 0.0343600846 0.8428954546 0.0004002548 0.0001962994 0.0003879692 -0.0002544223 -0.0038620939 0.1648387857
795295230.0 0.0423714218 0.8434967973 0.0001098485 -0.0002323066 0.0003754944 7.46546e-05 -0.0020889612 0.1654545379
800295200.0 0.0515199648 0.8428250052 0.0002223518 4.57514e-05 0.0002964106 -0.0001201216 -0.0009158097 0.1650833237
805295170.0 0.0596797231 0.8419174646 0.0002352579 -2.43212e-05 0.0004587944 -0.0001272439 0.0004497524 0.1653200658
810295140.0 0.0679126004 0.8413254279 0.0002636874 -8.66319e-05 0.000372593 -2.4123e-06 0.0022766819 0.1660770497
815295110.0 0.0770500707 0.8401623874 0.0004372436 9.17337e-05 0.0003386348 7.79211e-05 0.0034053996 0.1660776354
820295080.0 0.0846276648 0.8388220746 0.0004236748 0.0001049892 0.0004000191 -0.0001997948 0.0051926782 0.1661799002
825295050.0 0.0939766714 0.8383515883 0.0004532044 -8.14722e-05 0.0002900236 8.95889e-05 0.0068676828 0.1664545573
830295020.0 0.1020163577 0.837725129 0.0001961381 6.6874e-05 0.0002577555 -0.000113832 0.0082188661 0.1663423483
835294990.0 0.1093571298 0.8368253446 0.0003529658 -7.13956e-05 0.0004428188 -0.0002041285 0.0099962482 0.1664886486
840294960.0 0.118574958 0.8353272983 0.0001706043 -4.16474e-05 0.0002251601 4.85219e-05 0.0112448244 0.167020756
845294930.0 0.1269206206 0.8342674536 0.0003368453 -0.0001230863 0.0004468791 -6.67839e-05 0.0129341141 0.1669186949
850294900.0 0.1348414229 0.8331116239 0.0002181984 -0.0001207067 0.0001495921 -3.46862e-05 0.0143831507 0.1671570246
