!Created with skrf (http://scikit-rf.org).
# Hz S RI R 50.0 
!freq ReS11 ImS11 ReS21 ImS21 ReS12 ImS12 ReS22 ImS22
300000.0 -0.3151101758 -0.1235905592 0.371147953 0.0631022039 0.3725752169 0.0646009872 -0.3155369324 -0.1321463156
5299970.0 -0.3250494867 0.0030236129 0.3783595377 0.0034374431 0.3790999434 0.0031356676 -0.3259643012 0.002076673
10299940.0 -0.3224584976 0.0145003559 0.3799707738 0.0026051357 0.3798421257 0.0029467903 -0.3234776777 0.0125288755
15299910.0 -0.3187047163 0.022270021 0.3816687892 0.0028317182 0.3824505525 0.0027665632 -0.3207458252 0.0198780401
20299880.0 -0.3153084268 0.028938161 0.3848515665 0.0016955163 0.3856199869 0.0017804907 -0.3181678882 0.0262893579
25299850.0 -0.3113914022 0.0349056679 0.3883647819 0.0005875044 0.3886332296 0.000493002 -0.3149148499 0.031223804
30299820.0 -0.3079950481 0.039336541 0.3917472078 -0.002081806 0.391987928 -0.0022223061 -0.3121192863 0.0357346035
35299790.0 -0.3043344793 0.0433018273 0.3948481735 -0.0051885515 0.3952954672 -0.0054172077 -0.3091950708 0.0398471216
40299760.0 -0.3011866122 0.0469068077 0.398268767 -0.0085860665 0.3985765683 -0.0086271553 -0.3066509308 0.0433821444
45299730.0 -0.2980256546 0.0499617441 0.401285303 -0.0125655452 0.4015739061 -0.0126694637 -0.3038926083 0.0464857868
50299700.0 -0.2948318644 0.0527908947 0.4037927442 -0.0169546074 0.4039393751 -0.0172611449 -0.3015190062 0.0496050905
55299670.0 -0.2922861006 0.0554239175 0.4058765779 -0.021525314 0.4059655172 -0.022251113 -0.2996083491 0.0525440991
60299640.0 -0.2897321996 0.0580711338 0.407865687 -0.0268008896 0.4081454139 -0.0267989847 -0.2973487569 0.0547653751
65299610.0 -0.2870932324 0.0600695969 0.4096618215 -0.0313520373 0.4097248037 -0.0317088708 -0.2951029881 0.0575288234
70299580.0 -0.2852003425 0.0618947255 0.4105432171 -0.0363547982 0.4108589962 -0.0368858421 -0.2940038849 0.0597097047
75299550.0 -0.2835645789 0.0645458657 0.4120008505 -0.0421783351 0.4117908518 -0.0422605255 -0.2917940784 0.0623442392
80299520.0 -0.2818114636 0.0668753453 0.412923677 -0.0475547282 0.4132069069 -0.04737771 -0.2904179417 0.0649266309
85299490.0 -0.2797928137 0.0686618723 0.413352382 -0.0527960453 0.4137065374 -0.0522278493 -0.2892454036 0.0667819053
90299460.0 -0.2782719282 0.0707817187 0.4136050104 -0.0576778053 0.4135414737 -0.0576608519 -0.2878744389 0.0692434203
95299430.0 -0.2770874637 0.0726319838 0.4142924445 -0.0628448021 0.4142425154 -0.0629426364 -0.2866938485 0.0719089531
100299400.0 -0.2753764011 0.0746483459 0.4136080388 -0.0681647112 0.4140775151 -0.0681651407 -0.2853604386 0.0744086925
105299370.0 -0.2743176072 0.076678867 0.4140357765 -0.073465492 0.4141849697 -0.0734596643 -0.2839421839 0.0762885617
110299340.0 -0.2727423005 0.0786625401 0.4134739717 -0.0780422502 0.4139146043 -0.0782618547 -0.283032615 0.0784956101
115299310.0 -0.27160443 0.0809912809 0.4133333284 -0.083224016 0.4136215187 -0.0835004203 -0.2823160714 0.0811619553
120299280.0 -0.2704641326 0.0832599725 0.4131290203 -0.0890346274 0.412987175 -0.0893477482 -0.2810717278 0.0834600206
125299250.0 -0.2690558072 0.0851562356 0.4124553343 -0.0938705603 0.4128216082 -0.0940718995 -0.2802162915 0.0858792933
130299220.0 -0.2684842172 0.0875253391 0.4121803007 -0.0990579183 0.4120663662 -0.0994672623 -0.2795081598 0.088113184
135299190.0 -0.267174157 0.0899463028 0.4113608318 -0.1037602627 0.411330703 -0.103983426 -0.2781914324 0.0903706457
140299160.0 -0.2662493172 0.0922367272 0.4107202682 -0.1090623362 0.4104622675 -0.1088147982 -0.2779846586 0.0929559935
145299130.0 -0.2655580326 0.0949461139 0.4094125843 -0.1141311569 0.4096624687 -0.1137772974 -0.2767479463 0.0959051863
150299100.0 -0.2642989821 0.0969683023 0.4083699643 -0.118971155 0.408413144 -0.1189217306 -0.2758236361 0.0985360395
155299070.0 -0.2632635945 0.099739008 0.4069641984 -0.1240973406 0.4077425624 -0.1241073473 -0.2744995977 0.1008487622
160299040.0 -0.2622102556 0.1021746777 0.4061012084 -0.1286934331 0.4060478045 -0.1291015981 -0.2739487042 0.1034271678
165299010.0 -0.2608984228 0.1044451496 0.404796839 -0.1334766243 0.4045306982 -0.1335950277 -0.2728140202 0.1058903277
170298980.0 -0.2602526073 0.1067739555 0.4031865593 -0.1383098986 0.4036422938 -0.1382667837 -0.2722355662 0.1083948741
175298950.0 -0.2591980627 0.1093320599 0.4024004931 -0.1430406463 0.4022418707 -0.1435204174 -0.2711878427 0.1115228732
180298920.0 -0.258316723 0.111768962 0.4006516737 -0.1480287865 0.400747114 -0.1482069836 -0.2697225153 0.1138870418
185298890.0 -0.2568022815 0.114210399 0.3992083593 -0.1525902742 0.3991306671 -0.1527254945 -0.2688677552 0.1163526188
190298860.0 -0.2558632508 0.117505478 0.3970305353 -0.1574624901 0.3975013415 -0.1573635117 -0.2678031798 0.1192044554
195298830.0 -0.2549736261 0.1198281919 0.3964257806 -0.1616226597 0.3960699686 -0.1619219714 -0.2670987433 0.1216486885
200298800.0 -0.2535563592 0.1219103986 0.3939817559 -0.1669398985 0.3941775264 -0.1669463195 -0.2655237465 0.124583296
205298770.0 -0.2526633077 0.1248017533 0.3921928349 -0.1711021329 0.392495257 -0.1709685277 -0.2647193553 0.1270664664
210298740.0 -0.2515479172 0.1276158 0.3905042246 -0.1756287539 0.3905943627 -0.1755004557 -0.2638256051 0.1297363765
215298710.0 -0.2505169679 0.1301994409 0.3884084757 -0.1798533902 0.3885101833 -0.1801768148 -0.2624441963 0.132396402
220298680.0 -0.2489850181 0.1326185263 0.386522304 -0.1849323067 0.3868288966 -0.1845110456 -0.2611009656 0.1353084902
225298650.0 -0.2477386531 0.1353490585 0.3842859472 -0.1886115541 0.3849240943 -0.1891128748 -0.2600946801 0.1379340755
230298620.0 -0.2466689466 0.1380189387 0.3827109655 -0.193472573 0.3827326217 -0.1935749427 -0.2589610695 0.1405390261
235298590.0 -0.2458280603 0.1407436765 0.3808423823 -0.1982945331 0.380772861 -0.1980315853 -0.2576473348 0.1432480299
240298560.0 -0.2441085503 0.1431807075 0.378007844 -0.202007864 0.3783332399 -0.2018568119 -0.2561252014 0.1457482473
245298530.0 -0.2426126337 0.1454619465 0.3762513222 -0.206429355 0.3762393202 -0.2064456699 -0.2549811855 0.1485191926
250298500.0 -0.2416865777 0.1484265987 0.3739396822 -0.2106525776 0.3740498252 -0.2106398251 -0.2534770202 0.1513287861
255298470.0 -0.2399137299 0.1510649351 0.3718057853 -0.2145919713 0.3721117771 -0.215028567 -0.252155765 0.1542333268
260298440.0 -0.2386654932 0.1534895524 0.3694445471 -0.2187548721 0.3694651043 -0.2190418458 -0.2508357524 0.1566162221
265298410.0 -0.237425601 0.1561867516 0.3670159056 -0.2235499829 0.366925287 -0.2235587673 -0.2486939347 0.1589207692
270298380.0 -0.2361871389 0.1585210944 0.3644272155 -0.2272674624 0.3643728554 -0.2276068261 -0.2477544219 0.1619237926
275298350.0 -0.2344684236 0.1617592716 0.3613658173 -0.2313670511 0.3616953457 -0.2316783778 -0.2457645135 0.1648916458
280298320.0 -0.2330841582 0.1640887778 0.3593313883 -0.2353954322 0.3594606015 -0.2358217175 -0.2443771588 0.1673542104
285298290.0 -0.2315091207 0.166637817 0.3567237496 -0.2395417222 0.3572399797 -0.2393239775 -0.2429425108 0.170013133
290298260.0 -0.2298180935 0.1695715312 0.354366751 -0.2435215121 0.3541273998 -0.2438858318 -0.2411130743 0.1724883652
295298230.0 -0.2283031294 0.1715293153 0.3515184235 -0.2475790065 0.3513659701 -0.2481269608 -0.2393234151 0.1753343176
300298200.0 -0.226839574 0.1742241027 0.3488145918 -0.2519792039 0.3490668416 -0.2517487895 -0.2376704311 0.1779380362
305298170.0 -0.2250983226 0.1766091328 0.3459114078 -0.2560102719 0.3464897442 -0.2557636369 -0.235854575 0.1803435251
310298140.0 -0.2230547464 0.1788289737 0.3432158323 -0.25953262 0.3438957514 -0.2593029519 -0.2340441666 0.1827583883
315298110.0 -0.2215472829 0.1812929007 0.3405814108 -0.2638662506 0.3406360919 -0.26385637 -0.2321275159 0.1856895228
320298080.0 -0.2199561583 0.1838574774 0.3368060626 -0.2677168401 0.3378148057 -0.2676244027 -0.2305391527 0.1880426587
325298050.0 -0.2187907681 0.1854539299 0.3343152984 -0.2707088464 0.3348752697 -0.2712499961 -0.2284421039 0.1901210809
330298020.0 -0.2169924795 0.1885451482 0.3310925827 -0.2749439334 0.3319321624 -0.2752802946 -0.2269770416 0.1927238179
335297990.0 -0.2150769407 0.1908766965 0.3282791922 -0.2786872863 0.3285464319 -0.2784045372 -0.2252026911 0.1953136757
340297960.0 -0.2136015672 0.1932029232 0.3246399465 -0.282534288 0.3249409223 -0.2823850528 -0.2231328763 0.1980015148
345297930.0 -0.2118300307 0.1959340667 0.3219046939 -0.2861417768 0.3219367929 -0.286006342 -0.221248102 0.200070705
350297900.0 -0.2099487498 0.1980814971 0.3187691154 -0.2892257204 0.3191413091 -0.2892925848 -0.2195141485 0.202527548
355297870.0 -0.2083661047 0.2002804916 0.3158124784 -0.2925662932 0.3155050206 -0.2927556463 -0.2171266005 0.2056589266
360297840.0 -0.2062058108 0.2026501753 0.3121282307 -0.2963515775 0.3123946692 -0.2965620963 -0.215622699 0.207839731
365297810.0 -0.2045309974 0.2052726135 0.3090416612 -0.3001746789 0.3091310169 -0.2996002471 -0.2135901551 0.2099345205
370297780.0 -0.2022614958 0.2070907154 0.3051558512 -0.3031831441 0.3056657402 -0.302983564 -0.2108864796 0.2123431549
375297750.0 -0.2007444179 0.2095405631 0.3022266967 -0.3063944635 0.3023075835 -0.3066416376 -0.2090162229 0.2150815036
380297720.0 -0.1985721411 0.2120167775 0.2991603952 -0.3101136819 0.2988845942 -0.3099906566 -0.2070312748 0.2173129605
385297690.0 -0.1966413269 0.2140856367 0.2954177987 -0.3128361723 0.2955849113 -0.3131644884 -0.2046761263 0.2200842997
390297660.0 -0.1941498002 0.2162332604 0.2917932398 -0.3161273911 0.2918418973 -0.3163180709 -0.2021870604 0.2220221806
395297630.0 -0.1918372695 0.2182888531 0.28825554 -0.3188913991 0.288325347 -0.3190563781 -0.1996148873 0.2239541838
400297600.0 -0.1899263612 0.2206910345 0.2849498045 -0.3225092183 0.2852035876 -0.3224557113 -0.1976824472 0.2264990109
405297570.0 -0.1876813602 0.2225340768 0.2814262091 -0.3255780174 0.2815529571 -0.3257264219 -0.1950910321 0.228978843
410297540.0 -0.1853695356 0.2247820506 0.2778313206 -0.329128929 0.2778938067 -0.3285209086 -0.1926911667 0.2311616377
415297510.0 -0.1834085209 0.2269454465 0.2737624977 -0.3319886332 0.2746060694 -0.3316454566 -0.1905078661 0.2332085967
420297480.0 -0.1809575917 0.2284242544 0.2703999786 -0.3347334896 0.2705254155 -0.3353061537 -0.1876319617 0.2357514288
425297450.0 -0.1784972594 0.2307502009 0.266715836 -0.337559513 0.2666154844 -0.337680582 -0.1856242527 0.2372475833
430297420.0 -0.1763223195 0.2329482458 0.263589014 -0.3407665031 0.2632418944 -0.340519471 -0.1830362154 0.2398519779
435297390.0 -0.1737211829 0.234590605 0.2591054154 -0.3438440696 0.2591722842 -0.3433122337 -0.1808520249 0.2421413515
440297360.0 -0.1715472104 0.2363878765 0.2554009403 -0.3462296368 0.2552423688 -0.3461665496 -0.1781515997 0.2440836393
445297330.0 -0.1691578141 0.2383819096 0.2519002528 -0.3487372588 0.2518126202 -0.3489789461 -0.1754203038 0.2458600678
450297300.0 -0.1666555625 0.2401984102 0.2478403183 -0.3515567003 0.2481001076 -0.3516608201 -0.1726958336 0.2480544557
455297270.0 -0.1645268238 0.242274255 0.2439650659 -0.3542953725 0.2441833297 -0.3544942553 -0.1702641907 0.2500358158
460297240.0 -0.1615005206 0.2442051475 0.2401915423 -0.357582775 0.2402281449 -0.3573726703 -0.1677082067 0.25175633
465297210.0 -0.1588300519 0.2457185083 0.2357602098 -0.3598056759 0.235827688 -0.3598314085 -0.1647338227 0.2543942988
470297180.0 -0.1562926694 0.247492871 0.2319469969 -0.3617534873 0.2323182051 -0.362212649 -0.1619537363 0.2558256053
475297150.0 -0.1540671029 0.2495408546 0.2282785789 -0.3645896817 0.2280320759 -0.3647766056 -0.1592807301 0.2577788861
480297120.0 -0.1510047931 0.2513103448 0.2238819686 -0.3672222395 0.2241797377 -0.3671223482 -0.1569466587 0.2595924794
485297090.0 -0.1486277228 0.2526104524 0.2198946368 -0.369459465 0.2198340925 -0.3695510853 -0.154047814 0.2615098638
490297060.0 -0.1452012831 0.254794844 0.2153428822 -0.3722593942 0.2158679171 -0.3721921011 -0.1513006282 0.2632111856
495297030.0 -0.1432270795 0.2562060877 0.2120630773 -0.3741520438 0.2118578569 -0.374463355 -0.1480679371 0.2650080161
500297000.0 -0.140287705 0.2580302612 0.2077230013 -0.3762535567 0.2075344708 -0.3766766889 -0.1458031771 0.2665633985
505296970.0 -0.1370349366 0.259511518 0.2034417109 -0.3788040452 0.2036284344 -0.3788160203 -0.1429278504 0.267975718
510296940.0 -0.1343648636 0.2610043225 0.1995756683 -0.3813382044 0.1994866129 -0.3811483257 -0.1395911326 0.2700606965
515296910.0 -0.1318095511 0.2627179027 0.1949187682 -0.3828618802 0.1951032102 -0.382870792 -0.1372732221 0.2713230752
520296880.0 -0.1287026714 0.2641882228 0.1907871511 -0.3848920604 0.1905159886 -0.3850927456 -0.1341528048 0.2733529961
525296850.0 -0.1261063633 0.2654840206 0.1864958073 -0.3873162996 0.1864452566 -0.3869802543 -0.1312563746 0.2745536509
530296820.0 -0.1236674345 0.2671486963 0.1822229363 -0.3893045645 0.182245434 -0.3891575583 -0.1280347321 0.2758419344
535296790.0 -0.1197823523 0.2685328585 0.1779217112 -0.3908734441 0.1780700169 -0.3910824912 -0.1255065423 0.2776973999
540296760.0 -0.1166206526 0.2703718272 0.1731436408 -0.3931027987 0.1736168966 -0.3926444476 -0.1226649531 0.278809095
545296730.0 -0.1146159133 0.2716560245 0.1696894938 -0.3945608404 0.1693656601 -0.394562172 -0.1192550357 0.2804818717
550296700.0 -0.1110288346 0.2729053664 0.1647309172 -0.3967651505 0.1648945645 -0.3969385325 -0.1166803661 0.2818608911
555296670.0 -0.108463954 0.2745308362 0.1608047843 -0.3985717076 0.1603858642 -0.3980817447 -0.1134332231 0.2825893473
560296640.0 -0.1050449639 0.2754159823 0.1564341222 -0.3999075671 0.1564628475 -0.4000313027 -0.1104602111 0.2847336133
565296610.0 -0.1024444937 0.2767696248 0.1521638461 -0.401505973 0.1518632557 -0.4014898554 -0.1073611509 0.2859362018
570296580.0 -0.0996118502 0.2783983689 0.1476336406 -0.4030304033 0.1474952354 -0.4033858635 -0.1044524926 0.2871589301
575296550.0 -0.0960630491 0.2793717977 0.1436733187 -0.4046879189 0.1431760495 -0.4047737354 -0.1013668105 0.2883114634
580296520.0 -0.0931960097 0.2804224026 0.1387588612 -0.405984716 0.1384542575 -0.406417545 -0.0985627996 0.2891426189
585296490.0 -0.0900166338 0.2816428389 0.1346693278 -0.4075188143 0.1339449581 -0.4077007969 -0.0949534463 0.2908017286
590296460.0 -0.0864957685 0.2830573516 0.1296127008 -0.4092110971 0.1300090576 -0.4094603882 -0.09249081 0.2917422271
595296430.0 -0.0836962197 0.2842927563 0.1249565932 -0.4107595036 0.1246318919 -0.4103479347 -0.0890809452 0.2927356008
600296400.0 -0.0808407408 0.2853552703 0.1205528348 -0.4116080206 0.1204479414 -0.411721458 -0.0859764029 0.2936888201
605296370.0 -0.0778013039 0.2863077116 0.1167146182 -0.4127142029 0.1161149519 -0.4131743209 -0.0830952912 0.2953391111
610296340.0 -0.0744641361 0.287609328 0.111743333 -0.4138616045 0.1123392325 -0.413945189 -0.0800237156 0.295964646
615296310.0 -0.0713247152 0.2885156328 0.107274764 -0.4155220937 0.10649625 -0.4152958867 -0.0764102032 0.2970870098
620296280.0 -0.0685974175 0.289905986 0.1027922748 -0.4165914554 0.1026147731 -0.4165488821 -0.0738971739 0.2984106979
625296250.0 -0.0655284195 0.2904515816 0.098290622 -0.4174285232 0.0981248044 -0.4176304204 -0.0708283377 0.2986149477
630296220.0 -0.0621364349 0.2916154618 0.0934600326 -0.4184742903 0.0932927074 -0.4184175059 -0.0672641942 0.2997861643
635296190.0 -0.0591579537 0.2927586702 0.0893003569 -0.419308505 0.0888152303 -0.4194560695 -0.06416901 0.300426313
640296160.0 -0.0560382089 0.2931660808 0.0846240393 -0.4204945187 0.0844513113 -0.4204672764 -0.0612809559 0.3013830722
645296130.0 -0.0527190541 0.2942743266 0.0801365533 -0.4213545067 0.0799430929 -0.4208582803 -0.0581943865 0.3018999353
650296100.0 -0.049851428 0.2947632926 0.0755729979 -0.4218845009 0.0747700212 -0.4222887956 -0.0541919872 0.3029495703
655296070.0 -0.0464340639 0.2957565892 0.0706487887 -0.4226360931 0.0705007668 -0.422551852 -0.0514796353 0.3036917761
660296040.0 -0.0434501715 0.2966562734 0.0663152905 -0.4235442359 0.0660060553 -0.4232462905 -0.0481144557 0.3040967741
665296010.0 -0.0400926793 0.2970827422 0.0610481578 -0.4236865845 0.0612787126 -0.4240238682 -0.0448917933 0.3049569732
670295980.0 -0.0373366531 0.2979374446 0.0566982342 -0.424431073 0.0565934966 -0.4242059025 -0.0422496367 0.3051619772
675295950.0 -0.0339555859 0.2986503196 0.0521337529 -0.4249194555 0.0522582421 -0.4250734733 -0.0388271261 0.3057751995
680295920.0 -0.0309694951 0.2994674606 0.0478012112 -0.4253812954 0.0475893255 -0.4253856719 -0.0355203761 0.3063268509
685295890.0 -0.0278793542 0.3000192053 0.0432735248 -0.4259073689 0.0429515833 -0.4263091364 -0.0323966463 0.3074188193
690295860.0 -0.0249404825 0.3004740325 0.0387778777 -0.4266631237 0.0383588551 -0.4265675944 -0.0291778531 0.3077407057
695295830.0 -0.0214974943 0.3006634058 0.0341249762 -0.4268557932 0.0338875794 -0.4269649651 -0.0258892974 0.3082728527
700295800.0 -0.0181995746 0.3014079975 0.0295590935 -0.4271382681 0.029056774 -0.4273875752 -0.0223822007 0.3083651781
705295770.0 -0.0155254448 0.3021076801 0.0248341656 -0.4277180384 0.0245295542 -0.4274342034 -0.0194143964 0.3092345474
710295740.0 -0.0124141446 0.3021832426 0.0199917401 -0.4274969017 0.0196119285 -0.4278848607 -0.0157798166 0.3092404528
715295710.0 -0.009344684 0.3030178064 0.015362537 -0.4281443337 0.0153743635 -0.4278667965 -0.0127065525 0.3091026227
720295680.0 -0.0057183847 0.302901139 0.0107110879 -0.4279029212 0.0106539846 -0.4279632985 -0.0096360096 0.3094016054
725295650.0 -0.003179179 0.3037841508 0.0064617626 -0.4278116867 0.006084063 -0.4282399827 -0.0065865711 0.3106925271
730295620.0 -0.0004368013 0.303697885 0.0019698803 -0.4275792195 0.0012574866 -0.4279474545 -0.0034066839 0.3108132972
735295590.0 0.0027981051 0.3043235126 -0.0028441769 -0.4281424874 -0.0031357436 -0.4279547584 -6.51022e-05 0.3103274115
740295560.0 0.0059603664 0.3040658377 -0.0074898955 -0.4276068394 -0.0074219029 -0.4282832067 0.0032394521 0.3105989431
745295530.0 0.0093446274 0.3044631413 -0.0119871609 -0.4273643367 -0.0116019046 -0.4275321827 0.0062323089 0.3107657378
750295500.0 0.011873687 0.3047623057 -0.0164963578 -0.427418486 -0.0172077079 -0.4273941608 0.0096860998 0.3109775125
755295470.0 0.0152314939 0.3045801385 -0.0213063945 -0.4275101047 -0.0217609607 -0.427513727 0.0132190567 0.3112192733
760295440.0 0.0182789325 0.3054579939 -0.026450833 -0.4273196108 -0.0261623143 -0.4268369612 0.0165577636 0.310511078
765295410.0 0.0216812504 0.3049698845 -0.0306907213 -0.4267933792 -0.0303789101 -0.4267839974 0.0196323603 0.3109480801
770295380.0 0.0245185754 0.305092944 -0.0349559421 -0.4260715125 -0.0353953799 -0.4267681634 0.0226510774 0.310647632
775295350.0 0.0275207549 0.3050202936 -0.0394591422 -0.4257378568 -0.0397050735 -0.4258593971 0.0262668317 0.3106547831
780295320.0 0.0306521569 0.3049516573 -0.0440933037 -0.4248894388 -0.0442968679 -0.4255737284 0.0293635747 0.3107640881
785295290.0 0.0336430337 0.3047800233 -0.048666717 -0.4247775748 -0.0488494977 -0.4250250361 0.03246648 0.3107059086
790295260.0 0.0367787061 0.3042442642 -0.0533356703 -0.4242726377 -0.0534130293 -0.4245940953 0.0358216504 0.3104984398
795295230.0 0.0398357571 0.3042863073 -0.0580885372 -0.4237884452 -0.0585374934 -0.4236693066 0.0390078223 0.3097339662
800295200.0 0.0428616883 0.3042766163 -0.0622489464 -0.4222561513 -0.062827005 -0.4232187519 0.0420443288 0.3094938338
805295170.0 0.0458555286 0.3042644471 -0.0668333023 -0.4222640868 -0.0671299879 -0.4224625045 0.046061411 0.3094723377
810295140.0 0.0490289169 0.3039408184 -0.0714466558 -0.4215808337 -0.0718579438 -0.4215872824 0.0492591923 0.3090493867
815295110.0 0.0516858921 0.3034149583 -0.075865839 -0.4206950757 -0.0758595961 -0.4208706297 0.0519683482 0.3085697876
820295080.0 0.0548837574 0.3031568339 -0.0802049646 -0.4194454718 -0.0804602079 -0.4200319218 0.05445027 0.3086325215
825295050.0 0.0576645078 0.302449628 -0.0846571511 -0.4188547783 -0.0853743106 -0.4192356694 0.058683408 0.3080196191
830295020.0 0.0609919157 0.3021421317 -0.0896360638 -0.4181294343 -0.0898056116 -0.4181404176 0.0615553225 0.3072028587
