!Created with skrf (http://scikit-rf.org).
# Hz S RI R 50.0 
!freq ReS11 ImS11 ReS21 ImS21 ReS12 ImS12 ReS22 ImS22
300000.0 -0.2088565101 -0.0779548269 0.0008187367 -0.0012661668 0.0009748683 0.0011041288 -0.773485841 -0.1606861929
5299970.0 -0.2141578023 0.0087983715 2.54586e-05 -5.72074e-05 0.0001941943 0.0001352173 -0.7845714397 -0.0083656462
10299940.0 -0.2103833823 0.0213367588 0.0002162311 0.0001545585 9.78271e-05 -4.70683e-05 -0.7881013285 -0.0050876156
15299910.0 -0.2055340925 0.031303174 1.24525e-05 -3.98304e-05 7.77091e-05 -0.0001561513 -0.79361424 -0.0031266865
20299880.0 -0.1995005014 0.0391387029 8.78143e-05 0.0002701761 -0.0002896927 -8.69944e-05 -0.8001951532 0.0013645779
25299850.0 -0.1929973299 0.0455136906 0.0001519123 0.0003500471 -6.57958e-05 -0.0001683687 -0.8065255521 0.0070377358
30299820.0 -0.1864912895 0.0504978556 0.0001766554 4.31649e-05 1.05523e-05 0.0001140205 -0.812569352 0.0153168156
35299790.0 -0.1799109097 0.0544637051 -0.0002677492 -7.36716e-05 -0.0001071041 -6.77595e-05 -0.8177848118 0.023938681
40299760.0 -0.1738098905 0.0570253016 9.02713e-05 0.0001234833 -7.68197e-05 0.0001278157 -0.8215291486 0.0335723501
45299730.0 -0.1686223343 0.0594787519 -4.11065e-05 -5.38491e-05 -0.0001129235 2.3909e-06 -0.8250922795 0.0422500229
50299700.0 -0.1629733514 0.0607116101 -0.0001675733 -0.0001691886 -6.08428e-05 9.86451e-05 -0.8277611239 0.052389454
55299670.0 -0.1582883478 0.0617683584 -4.73742e-05 -4.97897e-05 -8.95202e-05 0.0001556917 -0.8295530329 0.0629887959
60299640.0 -0.1540218861 0.0620967409 -1.32304e-05 9.12189e-05 5.57508e-05 3.221e-05 -0.8304952336 0.0731299962
65299610.0 -0.1497168627 0.0627074026 -4.36806e-05 0.0002444307 5.35978e-05 0.0001064955 -0.8313803294 0.0826846235
70299580.0 -0.1462797122 0.0627098815 -1.24186e-05 9.23501e-05 6.0678e-06 6.19118e-05 -0.8319813922 0.092880646
75299550.0 -0.1431147155 0.0625307871 4.25521e-05 2.97595e-05 -8.67692e-05 3.914e-05 -0.8327384815 0.1026182263
80299520.0 -0.1405073035 0.0627841385 3.797e-05 3.94727e-05 -1.58486e-05 -2.57407e-05 -0.8315838843 0.1126071294
85299490.0 -0.1376299504 0.062065092 0.0001792602 8.32166e-05 5.13144e-05 3.95573e-05 -0.8316245787 0.1218256162
90299460.0 -0.1354430943 0.062265043 8.76373e-05 8.68562e-05 -6.51596e-05 -2.1833e-05 -0.8307074589 0.1311518346
95299430.0 -0.1334255583 0.0619916107 -1.13555e-05 -2.78562e-05 6.63619e-05 1.522e-06 -0.8298915382 0.1411058627
100299400.0 -0.1316512738 0.0618547904 -0.0001928291 6.81875e-05 -4.22288e-05 0.0001465385 -0.8288303733 0.1496751817
105299370.0 -0.129746709 0.0616684102 2.08294e-05 7.69558e-05 9.3813e-06 -5.70363e-05 -0.8277480888 0.1588754705
110299340.0 -0.1283413178 0.0613522507 4.47511e-05 0.0001310734 8.09732e-05 3.35808e-05 -0.8270877888 0.1685797617
115299310.0 -0.1268078123 0.0609955469 0.000101907 5.10756e-05 0.0002288159 0.0001309292 -0.8242617861 0.1770199961
120299280.0 -0.1256766403 0.0611522373 -3.4401e-05 -4.62529e-05 -4.68402e-05 -3.7173e-05 -0.8235754336 0.1864960592
125299250.0 -0.1248104302 0.0608207593 -0.0001651016 -0.0001740989 8.88393e-05 6.84152e-05 -0.8216790525 0.1956092606
130299220.0 -0.1232622152 0.0612157863 3.88709e-05 0.0001113586 4.74645e-05 0.0001457693 -0.820196618 0.2043885884
135299190.0 -0.1222923702 0.0613685533 -0.0002209856 0.000222308 4.42878e-05 0.0001247065 -0.8179620586 0.2127057693
140299160.0 -0.1214995002 0.0613906541 0.0001109723 4.12146e-05 2.86588e-05 7.2562e-05 -0.8159749939 0.2216355879
145299130.0 -0.1207285279 0.0612940471 1.1412e-06 5.403e-06 0.0001440688 0.0002952996 -0.8138761884 0.2299881512
150299100.0 -0.120062018 0.0615342026 -4.23617e-05 0.0001593207 -3.20927e-05 -2.79056e-05 -0.8118367153 0.2383373641
155299070.0 -0.1193397413 0.0620754861 0.0001253909 8.09054e-05 0.000283118 -3.57149e-05 -0.8097218554 0.2474989348
160299040.0 -0.1187440135 0.0622457142 -4.46327e-05 0.0001845217 -0.0002034375 -5.03512e-05 -0.8073285525 0.2569523714
165299010.0 -0.1181242775 0.0626170512 8.25491e-05 -1.60973e-05 0.0003117458 6.7608e-05 -0.804012016 0.2650294176
170298980.0 -0.117657269 0.0626604014 -7.25788e-05 -7.69707e-05 -0.0001168515 6.4364e-06 -0.8022836266 0.2734010878
175298950.0 -0.1167754578 0.0635204335 -3.9686e-05 0.0001927843 5.73389e-05 0.0002619567 -0.7989489915 0.2819218186
180298920.0 -0.1163817789 0.0636946969 0.0001427611 0.0001703144 0.0002962663 0.0002754917 -0.7955308292 0.2902705834
185298890.0 -0.1159924199 0.064056924 4.23031e-05 -4.58585e-05 -5.65057e-05 0.0001574054 -0.7930994516 0.2983384669
190298860.0 -0.1151614038 0.0646925474 -5.99699e-05 1.41717e-05 -6.29132e-05 -2.1774e-05 -0.7892532642 0.3073864745
195298830.0 -0.1146462729 0.0649862754 -4.42212e-05 9.48936e-05 -4.72138e-05 3.1989e-06 -0.7869417756 0.315813492
200298800.0 -0.1142034127 0.0660571909 -9.0676e-06 1.03786e-05 0.0002234171 6.30433e-05 -0.7835584766 0.3242653107
205298770.0 -0.1138502865 0.0665489365 -8.89313e-05 0.0001775554 6.69502e-05 0.0001093673 -0.7799244045 0.3323288589
210298740.0 -0.1130935855 0.0671440987 -4.63909e-05 9.17777e-05 3.60653e-05 0.0001024194 -0.7768130711 0.3405765432
215298710.0 -0.1129936307 0.0677505111 -9.67792e-05 8.21008e-05 -2.37412e-05 0.0001321865 -0.773255304 0.3484175604
220298680.0 -0.1124790702 0.0686304771 -2.90435e-05 1.61109e-05 2.45743e-05 0.000101833 -0.7698500123 0.3568178837
225298650.0 -0.1118911216 0.0693591841 0.0002450667 5.40769e-05 4.0148e-06 0.000132593 -0.7658517711 0.3649615865
230298620.0 -0.1114950883 0.0700808002 0.0002464751 -3.33492e-05 0.0002075952 0.0002426265 -0.7615517462 0.3727402179
235298590.0 -0.1111890714 0.0705558699 0.0002459933 0.0001305459 9.19356e-05 -5.12333e-05 -0.7577620033 0.3810422825
240298560.0 -0.1107670397 0.0715301879 5.76091e-05 3.66412e-05 0.0001939274 4.34742e-05 -0.7537180606 0.3886805857
245298530.0 -0.1100951408 0.0723566279 -4.76489e-05 5.90604e-05 0.000351762 -2.72211e-05 -0.7499220612 0.3966560553
250298500.0 -0.1098101795 0.0731243301 9.66603e-05 9.13665e-05 0.0002017532 2.07281e-05 -0.7453931622 0.4044282727
255298470.0 -0.1090869277 0.0740921862 -0.0001387846 -8.138e-05 -9.332e-07 0.0002967326 -0.7414554847 0.4124925257
260298440.0 -0.1084839887 0.0748630494 0.0001976674 0.0002545199 2.68387e-05 -2.14701e-05 -0.7367939426 0.4200062713
265298410.0 -0.1080338878 0.0758419029 0.000187242 4.56974e-05 8.30007e-05 0.0001968809 -0.7326207217 0.4275008339
270298380.0 -0.1077881523 0.0767010344 -0.0001700909 0.0001006497 0.0001326096 0.0002171008 -0.7276375143 0.4353057363
275298350.0 -0.1068478649 0.0774047337 0.0001300219 0.0002888587 6.95338e-05 0.0001209368 -0.7227382046 0.4432960994
280298320.0 -0.106565632 0.0784086788 1.59356e-05 0.0002044107 2.52711e-05 4.94847e-05 -0.7181945341 0.4500681726
285298290.0 -0.1061672744 0.079503022 0.0002683799 7.56399e-05 0.0002095843 0.0001768499 -0.713663883 0.4576711964
290298260.0 -0.1053895692 0.080337372 4.114e-05 0.0001636581 3.03799e-05 6.69793e-05 -0.708859046 0.4657157853
295298230.0 -0.1048275969 0.0813424121 -4.54384e-05 -4.54581e-05 -1.89636e-05 -9.96447e-05 -0.7033150058 0.4727271137
300298200.0 -0.1043320561 0.0820015702 0.000162535 0.0001268445 0.0002826858 0.0001458006 -0.6987363021 0.4801475483
305298170.0 -0.1033493813 0.0829318162 2.13555e-05 7.46272e-05 -3.558e-06 -2.90855e-05 -0.6928743576 0.4876805603
310298140.0 -0.1026807696 0.0834794796 0.0001972441 -0.0001361113 0.0001510736 0.0002129299 -0.6889087751 0.4947142479
315298110.0 -0.1026433771 0.0844105839 0.000135414 -0.0001217787 0.0001504659 0.0001869207 -0.6831218188 0.5021945323
320298080.0 -0.1020363479 0.0854275478 0.0001940695 2.9767e-05 -0.0001641137 2.35816e-05 -0.6777046133 0.5096857774
325298050.0 -0.1013510989 0.0859514119 0.0002843659 0.0001901366 0.000188357 -2.07146e-05 -0.6723691621 0.515978185
330298020.0 -0.1009741647 0.0872104314 5.73351e-05 0.0001156539 -0.0001046029 0.0001983344 -0.6668207173 0.5232292375
335297990.0 -0.1003797456 0.0882214102 0.0001799462 0.0001583053 5.34248e-05 2.89736e-05 -0.6614318277 0.5299682052
340297960.0 -0.0997506625 0.0892481866 -8.7486e-06 9.77134e-05 1.34066e-05 -8.57843e-05 -0.6554391254 0.5372217242
345297930.0 -0.0996005107 0.0899384153 -8.14655e-05 -3.30568e-05 2.47514e-05 0.0001232302 -0.6492515289 0.543988606
350297900.0 -0.0984940724 0.0910913191 0.0001852464 0.0001631166 7.8277e-05 0.0001361505 -0.6440377843 0.551008934
355297870.0 -0.0982284995 0.0920330415 -9.31893e-05 0.0001698745 -0.0001043383 -9.39905e-05 -0.6383413808 0.5571934224
360297840.0 -0.097432689 0.0930926837 0.0001883739 0.0002880364 2.19811e-05 9.6892e-06 -0.6325624498 0.5633318557
365297810.0 -0.0966809093 0.0942470861 0.0001669705 6.77689e-05 -0.0001243137 0.0001741491 -0.6261111246 0.5700433427
370297780.0 -0.0959747138 0.0951442462 0.0001758093 0.0002419813 0.000141321 0.0001322911 -0.6208937606 0.5765682443
375297750.0 -0.0951569482 0.0963548273 0.0001574623 4.39478e-05 0.0001156847 0.0001295178 -0.6142171115 0.583258803
380297720.0 -0.0941357448 0.0973077268 0.0001599949 -0.0001223759 0.00025328 7.31133e-05 -0.607725271 0.5902698472
385297690.0 -0.0935597356 0.0982359817 -2.5954e-05 -1.58064e-05 0.0002067537 0.0002558427 -0.6015006631 0.5967935991
390297660.0 -0.0927932758 0.0993468234 -1.11291e-05 0.0002508717 5.62493e-05 0.000219466 -0.5951965693 0.6014243169
395297630.0 -0.0918820059 0.1005449003 0.0002255426 -1.0805e-06 0.000216054 0.0001096756 -0.5890901647 0.6086538417
400297600.0 -0.091157923 0.1011582587 1.73643e-05 -0.000363489 0.0002584998 0.0001868213 -0.583076118 0.6133954386
405297570.0 -0.0903795532 0.1022439911 0.0001363106 1.96393e-05 0.0002809165 7.44381e-05 -0.5766502635 0.6197820768
410297540.0 -0.0893540329 0.1032503864 0.0002954892 0.0002025735 0.000132521 5.28434e-05 -0.5700177631 0.6252655467
415297510.0 -0.0886009632 0.1040878222 0.0002122387 9.11121e-05 0.0001425931 8.25466e-05 -0.563302683 0.6320352259
420297480.0 -0.0878175193 0.1049446318 0.0002060967 -0.0001043594 0.0002576932 0.0001077168 -0.5565168821 0.636930791
425297450.0 -0.0867664609 0.1060380931 9.35505e-05 -5.57743e-05 0.0002999318 -1.47012e-05 -0.5496089726 0.6430101495
430297420.0 -0.0861818282 0.1070487162 0.0001529287 -0.0001061881 0.0001658146 -3.48791e-05 -0.5435176776 0.6486261027
435297390.0 -0.085072448 0.1080321538 0.0001410915 0.0001515866 5.53904e-05 -2.93534e-05 -0.5363567232 0.6534397299
440297360.0 -0.0844027002 0.109119348 0.0001055136 -3.75035e-05 0.0002992345 4.23974e-05 -0.5298567153 0.6587732379
445297330.0 -0.083333684 0.1100106042 2.40489e-05 2.23067e-05 8.95623e-05 0.0001867931 -0.5235253261 0.664448147
450297300.0 -0.0823809221 0.1105236069 -3.68435e-05 0.0001970035 0.0002413969 4.69267e-05 -0.5171000012 0.6699591589
455297270.0 -0.0815666462 0.1117767938 2.05642e-05 3.45192e-05 0.0001457607 0.0001671182 -0.5098409658 0.6749922825
460297240.0 -0.0805920659 0.1128016555 0.0003742022 0.0001579381 0.0002086279 1.99386e-05 -0.5026659581 0.6804275666
465297210.0 -0.0794647112 0.1138092834 0.0002605041 0.0001980042 5.2441e-05 6.63725e-05 -0.4962242978 0.6850633604
470297180.0 -0.0786715248 0.1146020159 0.0003106276 0.0002501169 0.0002022867 8.04978e-05 -0.4894938634 0.6898364007
475297150.0 -0.0775684413 0.1156290843 0.0001907247 7.47685e-05 0.0003125726 0.0001550957 -0.4817184024 0.6945617131
480297120.0 -0.0767385332 0.1161929095 0.0002059914 0.0001093275 2.33912e-05 0.0001377626 -0.4747855953 0.6997413814
485297090.0 -0.0755651767 0.1172870286 0.0001405436 5.77958e-05 5.44642e-05 6.86966e-05 -0.4672699897 0.703887318
490297060.0 -0.074448362 0.1182040733 0.0001820903 4.65461e-05 0.0001993818 8.81121e-05 -0.4610572382 0.7086243096
495297030.0 -0.073564176 0.1189776391 0.0001347635 0.0001611335 7.74154e-05 7.38112e-05 -0.4528784092 0.7130581647
500297000.0 -0.072351342 0.1196105689 0.0002673563 0.0001288552 0.0001697582 0.0001958425 -0.4465158438 0.7176189477
505296970.0 -0.0715580969 0.1206238762 0.0001774456 0.0001930008 0.00013568 0.0001699216 -0.4396388031 0.722072907
510296940.0 -0.0703850932 0.1215503321 0.0001733552 -4.6374e-05 -3.5415e-05 6.51264e-05 -0.4320382267 0.7261383101
515296910.0 -0.0695342685 0.1227910774 0.0001017309 2.23405e-05 0.0001899458 8.36777e-05 -0.4241804357 0.7310537848
520296880.0 -0.06816669 0.1234071185 0.000175935 -0.0001335738 0.0001639113 -5.31013e-05 -0.4175397933 0.7348547755
525296850.0 -0.0670168497 0.1241616123 0.0002680682 3.36501e-05 0.0002364674 -7.52879e-05 -0.4096569112 0.7399189948
530296820.0 -0.0660652352 0.1251585476 0.0001817999 3.4876e-06 0.0001472724 0.0001117364 -0.4026185727 0.7430156296
535296790.0 -0.0647960503 0.1257811662 0.0002107611 -8.84189e-05 0.000306144 9.6751e-06 -0.3954611664 0.7466731438
540296760.0 -0.0637003959 0.1262255887 0.0002336181 0.0002965857 0.0003160695 0.0001558518 -0.3879938333 0.7506641342
545296730.0 -0.0623410389 0.1275239044 0.0002999713 0.0001120626 0.0002417136 -2.37487e-05 -0.3802071514 0.7539576328
550296700.0 -0.0615653649 0.1281348808 0.0002024223 -0.0001003404 0.0002524063 -1.97922e-05 -0.3730667154 0.7582747131
555296670.0 -0.0601728598 0.1290607303 0.0001000576 -1.5213e-05 0.0002011406 0.0001568539 -0.3651360809 0.761886302
560296640.0 -0.0590991964 0.1295284063 -2.19022e-05 0.0001416361 0.0002517037 1.975e-07 -0.3572953745 0.7654902192
565296610.0 -0.0578732169 0.1306851667 0.0001113528 6.72975e-05 0.0003489713 0.0001437566 -0.3500853607 0.7685227936
570296580.0 -0.0568797595 0.131114861 0.0002903962 -4.22001e-05 0.0001829069 -8.25879e-05 -0.3426060942 0.7724731329
575296550.0 -0.0554204475 0.1316833042 0.0001427311 0.000222699 0.0001209109 1.27761e-05 -0.3343716276 0.7756030373
580296520.0 -0.0542217225 0.1325360123 0.0004000866 8.57915e-05 0.0001455789 -0.0001931002 -0.3270465253 0.7789805222
585296490.0 -0.0530975314 0.1332828706 6.30046e-05 -0.0001325142 0.0003887692 3.09247e-05 -0.3190588119 0.781792423
590296460.0 -0.0521797962 0.1338762321 0.0001420206 -6.54275e-05 0.0001231619 -2.7015e-05 -0.3116325598 0.7851437912
595296430.0 -0.0508810013 0.1347003045 0.0001041115 9.37499e-05 0.0002453959 1.80749e-05 -0.3034968362 0.7873941625
600296400.0 -0.0492445446 0.1354876735 0.0002013949 4.56757e-05 0.000275581 -7.62363e-05 -0.2959338464 0.7910319745
605296370.0 -0.0481206996 0.1358509962 0.0001771837 -0.0001864866 0.0001944636 -5.72622e-05 -0.288255534 0.7944445195
610296340.0 -0.0468089454 0.1365158812 0.0002390345 2.49429e-05 0.0001922948 -7.9276e-05 -0.28035696 0.7971301207
615296310.0 -0.0456678197 0.137411698 9.28636e-05 6.14996e-05 0.0001369779 -0.0001548637 -0.2725337589 0.7993866334
620296280.0 -0.0439857669 0.1379069985 0.0002664307 -2.08204e-05 0.000139428 0.0001004951 -0.2641906001 0.8015417053
625296250.0 -0.0429664914 0.1387065659 0.0002213177 0.0001398316 0.000248157 5.60289e-05 -0.2562017584 0.8048966354
630296220.0 -0.0418836517 0.139016179 0.0001751044 -8.11025e-05 0.0001165937 -0.0001558552 -0.2481525308 0.8074871665
635296190.0 -0.0405622551 0.1396701213 0.0002006801 0.0001480093 0.0003614661 0.0002511203 -0.2404025194 0.8091053131
640296160.0 -0.0391165538 0.1402554945 -7.9576e-05 6.65672e-05 0.0001971924 -8.1482e-06 -0.2321706083 0.8113864041
645296130.0 -0.0381557969 0.1409617314 0.0002485401 -3.667e-07 0.0003433572 -8.76309e-05 -0.2245604161 0.8136802611
650296100.0 -0.0367047102 0.1416310162 8.6245e-05 4.32773e-05 0.0002143997 -2.3092e-05 -0.2164988669 0.8164335447
655296070.0 -0.0352618231 0.1420936025 0.000341134 0.0001003252 0.0003121758 -0.0001003892 -0.207540433 0.8179551279
660296040.0 -0.0340369696 0.1426370861 0.0002738284 -8.46821e-05 0.0001208436 8.34666e-05 -0.2005020298 0.8204039718
665296010.0 -0.0325364026 0.1430089501 0.0004425213 0.0001411889 0.0002584734 8.09064e-05 -0.1925533888 0.8222414926
670295980.0 -0.0310762564 0.1433230865 0.0002034747 -5.0107e-05 0.0002137108 6.2899e-06 -0.1847658241 0.8241580491
675295950.0 -0.0296551113 0.1439250537 0.0002264247 -0.000236979 0.0001719358 -0.0001673826 -0.1758020825 0.8262877398
680295920.0 -0.0287207469 0.1447740358 0.0002119686 0.0001414278 0.0004183488 2.6207e-06 -0.1677658114 0.8275610736
685295890.0 -0.0272337467 0.1452375221 0.0002810525 -0.0001616554 0.0001253747 -8.58545e-05 -0.1591999867 0.8292759156
690295860.0 -0.0254261464 0.1454030741 2.94625e-05 -0.0001468499 0.000262717 6.1972e-06 -0.1516671865 0.8306912666
695295830.0 -0.0242363918 0.1458564366 0.0001675019 -1.47923e-05 0.0001957689 -2.59225e-05 -0.1432637038 0.8326418932
700295800.0 -0.0228930219 0.14648261 4.55016e-05 -3.1026e-06 0.0001542236 1.21904e-05 -0.1349019015 0.8333927152
705295770.0 -0.0217051602 0.1468428776 0.0002424071 3.05125e-05 0.0001359381 -2.33351e-05 -0.126922618 0.8348903272
710295740.0 -0.0200044041 0.1472790821 0.0002950485 0.0001690615 0.0002848547 -0.0001628123 -0.1187894962 0.8363605458
715295710.0 -0.0188521514 0.1478176231 0.000365575 0.0001348147 7.82187e-05 0.00012394 -0.1104059352 0.8373920033
720295680.0 -0.0175870509 0.1480674103 0.0003078187 -2.06927e-05 0.0002463776 5.5343e-06 -0.1024466393 0.8380672253
725295650.0 -0.0158083866 0.1484533503 9.41474e-05 6.85417e-05 0.0002832318 0.000194626 -0.0937044542 0.8395098928
730295620.0 -0.0146265087 0.1485156381 9.43536e-05 0.0001108339 0.000258602 6.3363e-05 -0.085635419 0.8403858396
735295590.0 -0.0127121261 0.1490307202 3.37978e-05 -4.8752e-06 0.0002091695 -0.0001076928 -0.076656882 0.84055614
740295560.0 -0.0117889891 0.1496449959 0.0004163576 1.26791e-05 0.0001081082 -9.97535e-05 -0.0685769265 0.8413628836
745295530.0 -0.0101967215 0.1498965783 0.0003008798 -8.29472e-05 0.0001582306 0.0001008925 -0.0604377524 0.8418609362
750295500.0 -0.0088338439 0.149965464 0.000189047 -4.61142e-05 0.000192859 -5.19812e-05 -0.0521308193 0.8421196388
755295470.0 -0.0071136846 0.1503022053 8.59254e-05 -4.26437e-05 0.0004185748 3.5145e-05 -0.0440605598 0.8433557187
760295440.0 -0.0059411382 0.1508229532 0.0002445314 -0.0001201841 0.0001804441 -0.0002011976 -0.0363050516 0.8437718301
765295410.0 -0.004536058 0.1508541625 0.0002661949 7.56851e-05 6.58164e-05 -0.000127737 -0.0270699004 0.8442293818
770295380.0 -0.0028596611 0.151423479 0.0002247577 3.09485e-05 0.0003079273 4.04947e-05 -0.0186432968 0.8440498065
775295350.0 -0.0015491013 0.1516131838 0.0004465141 3.88051e-05 9.30895e-05 -0.0002456417 -0.0109171453 0.8439547553
780295320.0 -0.0002222692 0.1514731937 7.64519e-05 -0.0001659018 0.0003978499 0.0001125596 -0.0020691186 0.8448175391
785295290.0 0.0015781504 0.1520445978 0.0002817753 0.0001228303 0.0001069179 0.0001848154 0.0053789262 0.844168141
790295260.0 0.0027775223 0.1518733347 0.000182886 4.06784e-05 0.0002541884 -6.88467e-05 0.0145529178 0.8442734702
795295230.0 0.0041558632 0.152604861 0.0003894168 -3.5557e-05 0.000341537 -0.0001546203 0.0226106375 0.8445164789
800295200.0 0.0058076559 0.152669577 0.0002350444 0.0002187822 0.0003874936 6.23256e-05 0.0306597214 0.8434991143
805295170.0 0.0071389425 0.1526267146 0.0003804459 -0.000217137 0.0004059057 2.38724e-05 0.0391183075 0.8429399468
810295140.0 0.0087122625 0.1529218161 0.0003137056 3.36878e-05 0.0001448007 0.0001086128 0.0473206293 0.8441695257
815295110.0 0.010196526 0.1530084708 0.0002057294 -0.0002731315 0.0002076102 7.52572e-05 0.0559817747 0.8429604186
820295080.0 0.0118125244 0.1529487235 0.0002903824 -0.000120786 0.0003665921 -3.285e-06 0.063852453 0.8416993648
825295050.0 0.0132202698 0.1528927536 0.0002330667 -9.34196e-05 0.0002588902 -0.0001257715 0.0724721057 0.8415097302
830295020.0 0.0147335603 0.1532709738 0.0003413409 -5.17808e-05 0.0003631316 -0.0001880507 0.0801189289 0.840425071
835294990.0 0.0161424263 0.1532991108 0.0001572894 0.000221246 0.0002730391 -0.0002941084 0.0888939861 0.8393738133
840294960.0 0.017578959 0.1532541848 0.0002924527 -0.0001989191 0.0002707997 -0.00010295 0.0968954344 0.8390090879
845294930.0 0.0190113164 0.1533587151 0.0002311486 -6.50703e-05 0.0002695628 6.3878e-05 0.1051886455 0.8372759632
850294900.0 0.0205839003 0.1532574308 0.0003219314 6.01322e-05 0.0002913269 -8.222e-05 0.1133094646 0.8371919823
