!Created with skrf (http://scikit-rf.org).
# Hz S RI R 50.0 
!freq ReS11 ImS11 ReS21 ImS21 ReS12 ImS12 ReS22 ImS22
300000.0 -0.047206583 -0.0577561733 -0.0005637752 0.000775452 -0.0003243688 0.000424993 -0.7703450601 -0.16310328
5299970.0 -0.0492689976 0.015743544 -0.0003033779 6.98246e-05 7.31049e-05 3.74204e-05 -0.7850082243 -0.0085733279
10299940.0 -0.0432698409 0.0333108824 -4.06898e-05 1.27032e-05 -5.221e-05 0.0001803282 -0.7883636037 -0.0049368316
15299910.0 -0.0349036569 0.0479752317 -9.5056e-06 0.0001247026 -8.06502e-05 0.0001243638 -0.7939157701 -0.0030822918
20299880.0 -0.0248898549 0.0598271772 5.99528e-05 -3.96913e-05 0.0001161403 -5.49858e-05 -0.8007565263 0.0017450135
25299850.0 -0.0134777097 0.0691021748 0.0001263019 5.83933e-05 -7.62036e-05 3.32171e-05 -0.8069097034 0.0072200355
30299820.0 -0.0014644219 0.075626829 0.0001284712 -0.0001086971 -3.5688e-06 -2.08203e-05 -0.8129113004 0.0147338115
35299790.0 0.0102823432 0.0806117796 2.95407e-05 -1.25471e-05 0.0001611934 -0.000104727 -0.8184014978 0.0236431423
40299760.0 0.0216958784 0.0832807728 7.47477e-05 -4.57043e-05 -5.72851e-05 -5.90094e-05 -0.8217472877 0.033075522
45299730.0 0.0324245473 0.0847951884 -1.76654e-05 0.0001212228 0.0001025571 -3.51927e-05 -0.8253457144 0.0425354835
50299700.0 0.0429095542 0.0842413427 4.5888e-06 -0.0001237931 -4.75904e-05 0.0001194814 -0.8280761101 0.0524316479
55299670.0 0.0521507352 0.0836388716 0.0001251816 0.0002747018 0.0001678968 -9.07041e-05 -0.8300645866 0.0629510193
60299640.0 0.0605958551 0.0813029665 -0.000277795 0.0001521038 5.52867e-05 8.57641e-05 -0.8312220159 0.0734344706
65299610.0 0.0686011309 0.0791705429 -0.0001106767 -6.10538e-05 -4.07082e-05 -0.0001550387 -0.831893287 0.0830255764
70299580.0 0.0754726542 0.075714807 -3.59288e-05 0.0001060403 -2.53665e-05 0.00013489 -0.8327470082 0.0925676815
75299550.0 0.0818856895 0.0722284746 1.15247e-05 2.93884e-05 9.91893e-05 0.0001123859 -0.8326082373 0.1022313234
80299520.0 0.0876256979 0.0690765243 4.8552e-06 -6.13593e-05 3.9796e-05 0.0001941412 -0.8318963682 0.1118711023
85299490.0 0.0927911613 0.0647147551 5.83728e-05 0.0001242651 0.0002101775 -0.0001260119 -0.8318489534 0.1217648915
90299460.0 0.0971763622 0.0606425206 8.19617e-05 -0.0001318694 6.32911e-05 -4.2647e-05 -0.8310471484 0.1310869965
95299430.0 0.1012872778 0.0568027726 7.68954e-05 0.000137011 0.000139728 -5.786e-06 -0.8302742019 0.1410620845
100299400.0 0.1047132465 0.0530206257 8.40985e-05 4.04936e-05 -5.93667e-05 7.45006e-05 -0.8289777802 0.1492268271
105299370.0 0.1081932425 0.0485574611 -6.4744e-06 -0.0001633418 -5.04905e-05 0.0002641505 -0.8279811289 0.1589592763
110299340.0 0.111036233 0.0448269591 5.54143e-05 3.70859e-05 -6.58422e-05 4.38987e-05 -0.8269228304 0.1677904555
115299310.0 0.1133390894 0.0402860824 0.0001492164 0.0001409721 -0.0001419846 -0.0001466695 -0.8251886124 0.1769426272
120299280.0 0.1154071021 0.0367969965 7.85653e-05 -7.60904e-05 2.61175e-05 7.34832e-05 -0.8239253052 0.1856595095
125299250.0 0.1173802843 0.0325251024 0.0002137446 6.42e-05 1.90661e-05 -5.82924e-05 -0.8219569608 0.1952888411
130299220.0 0.1192582306 0.0288894841 4.5599e-06 -0.0001416541 7.45522e-05 0.000101992 -0.8202317615 0.2040321258
135299190.0 0.1207501193 0.0249205838 -5.1767e-06 0.0002912401 0.0001954243 4.49832e-05 -0.8185219538 0.2126515485
140299160.0 0.1220383406 0.0214467165 -8.06236e-05 -5.03964e-05 0.0001543011 7.81961e-05 -0.8159902624 0.2216161376
145299130.0 0.1231013727 0.0177409807 -9.34146e-05 7.5099e-05 0.0001223835 1.2105e-06 -0.8142457155 0.2296879949
150299100.0 0.1238289889 0.0142973635 0.0001648533 0.0001569894 -9.88051e-05 0.0003114334 -0.8119603143 0.238233431
155299070.0 0.1245279247 0.0110271936 7.41319e-05 4.4186e-05 -2.17859e-05 2.04347e-05 -0.8095274104 0.2472803752
160299040.0 0.1250581691 0.0074197124 -1.51957e-05 -0.0001612268 0.0001384945 -0.0002039923 -0.8072796156 0.2562563954
165299010.0 0.1253455148 0.0043713594 -9.99625e-05 0.000165074 -0.000174417 0.0002158968 -0.804376308 0.265268601
170298980.0 0.1254827713 0.0011267829 2.2126e-05 -5.75493e-05 -4.68343e-05 5.40911e-05 -0.8015755702 0.2731500566
175298950.0 0.1263086921 -0.0018858788 -0.0002137536 9.39755e-05 -0.0001033227 0.0002475804 -0.7987771054 0.2820579916
180298920.0 0.1260869853 -0.0051181325 9.67025e-05 8.23977e-05 -1.15271e-05 -2.06824e-05 -0.7956035854 0.2905827875
185298890.0 0.125849064 -0.0082517515 5.13269e-05 1.56927e-05 0.0001174902 1.44553e-05 -0.793143336 0.2980007123
190298860.0 0.1261322628 -0.0110571197 2.35692e-05 -5.8468e-06 0.0001471043 -4.9481e-06 -0.7899085393 0.3071166347
195298830.0 0.126222712 -0.0143756086 -0.0001523699 -3.42072e-05 -0.000149453 0.0001529196 -0.7875062271 0.3154686433
200298800.0 0.1256421304 -0.0168606479 4.2419e-05 0.0001604532 -5.15364e-05 -4.8491e-05 -0.783631427 0.3240963192
205298770.0 0.1255438918 -0.01963893 -0.0001702992 -0.00012682 3.80478e-05 6.15185e-05 -0.7798251498 0.3321060455
210298740.0 0.1253328475 -0.0219913219 -7.71032e-05 0.0001377872 9.04419e-05 -5.60187e-05 -0.7768247545 0.340489144
215298710.0 0.124554519 -0.0248767951 3.20845e-05 -0.0001842371 0.0001925525 3.12717e-05 -0.7737285389 0.3488523379
220298680.0 0.124274955 -0.0274838979 -0.0001907085 5.13616e-05 0.0002154872 8.15503e-05 -0.7698660617 0.3570363802
225298650.0 0.1237662945 -0.0299271864 4.97951e-05 7.376e-07 0.0002109435 0.0003177734 -0.766242905 0.3647887058
230298620.0 0.1229233258 -0.0323361184 0.000271296 0.0001808946 -5.94711e-05 0.0001843341 -0.7618411782 0.372346589
235298590.0 0.1221311322 -0.0351352627 -0.0001449718 -0.0001154637 -9.36157e-05 0.0001302627 -0.7582769444 0.3805200146
240298560.0 0.1218041471 -0.037298985 -0.0001847968 -3.57776e-05 0.0002213035 0.0001927011 -0.7545196022 0.3887191896
245298530.0 0.1209379622 -0.0393871359 6.39879e-05 -8.50938e-05 0.0001822458 4.86814e-05 -0.7502536354 0.3966579588
250298500.0 0.120125138 -0.0418088521 0.0003205942 -1.6472e-05 0.0003569507 0.0002198339 -0.7460353325 0.4045284383
255298470.0 0.1195831756 -0.0440917639 3.81495e-05 7.30122e-05 5.57082e-05 -0.0001162489 -0.7418249632 0.4126169402
260298440.0 0.1187330425 -0.0461502016 0.0001330682 -9.95711e-05 2.25905e-05 0.0002465897 -0.7371384298 0.4200328582
265298410.0 0.1176946047 -0.0480820675 6.44951e-05 -0.0001944664 6.10816e-05 -5.62211e-05 -0.7329725251 0.4276241191
270298380.0 0.1169876834 -0.0501819235 7.32936e-05 -3.87607e-05 0.0001410092 0.0001315414 -0.7279474764 0.4355600421
275298350.0 0.115987757 -0.0524001848 7.51906e-05 1.36439e-05 0.000148962 9.01099e-05 -0.7232076111 0.4431986226
280298320.0 0.1150728531 -0.0541901177 0.0002601655 0.0001414727 0.0002417926 0.0001709907 -0.7189009062 0.4505026035
285298290.0 0.1141238093 -0.056273713 4.41684e-05 0.0002406399 0.0001398781 0.0002361568 -0.713682609 0.4579181468
290298260.0 0.1132908041 -0.0580713953 -6.26675e-05 -7.12372e-05 0.0001189517 0.0002020992 -0.7092415836 0.4657000896
295298230.0 0.1122666498 -0.0603254795 0.0001506935 4.80901e-05 7.56534e-05 -9.38374e-05 -0.704167592 0.4732750639
300298200.0 0.1110312829 -0.0624823388 -9.73591e-05 8.75774e-05 -2.8019e-06 0.0001193535 -0.699219082 0.4803609698
305298170.0 0.1107259243 -0.0639153611 0.0003775646 6.71531e-05 0.0001848335 0.0002091968 -0.6936275272 0.4879207529
310298140.0 0.1092734069 -0.0663749572 6.31546e-05 -7.09581e-05 3.6953e-05 -7.19593e-05 -0.6891340561 0.4955571003
315298110.0 0.1073792914 -0.0681947032 -7.0208e-05 -0.0003629056 -5.2654e-05 9.15113e-05 -0.6832992609 0.5021652809
320298080.0 0.1063085915 -0.0700243588 -8.3986e-05 -5.97454e-05 0.0001641668 9.93216e-05 -0.6781242206 0.509588005
325298050.0 0.1050048829 -0.0719108048 -0.0001113953 -0.0003211314 -0.0001311561 9.76952e-05 -0.6724870866 0.5161652218
330298020.0 0.1034513807 -0.073377291 5.5908e-06 0.0003189339 5.03745e-05 7.08335e-05 -0.6671743516 0.5231239579
335297990.0 0.1020343185 -0.0748898852 0.000191343 0.0001253941 -2.0626e-06 -0.0001709255 -0.6617231657 0.5306189825
340297960.0 0.100714615 -0.076177575 0.0001405878 -5.75288e-05 0.0001501981 9.79227e-05 -0.655871545 0.5371408529
345297930.0 0.0992494189 -0.0776791219 -3.16435e-05 0.000107545 -2.75548e-05 5.47333e-05 -0.6501258986 0.5439087722
350297900.0 0.0981300933 -0.0794158243 0.0001151125 0.0001182432 0.0001743492 -4.54138e-05 -0.6444020912 0.5511633348
355297870.0 0.0964686812 -0.0809090483 0.0003144374 0.0003204967 0.0002318558 4.61084e-05 -0.6382774241 0.5574794503
360297840.0 0.0949913147 -0.0820792944 1.98405e-05 -0.0001158719 3.0857e-06 -6.89023e-05 -0.6327261407 0.5636689767
365297810.0 0.0939687257 -0.0837187888 2.03144e-05 1.99024e-05 0.000108884 -3.03445e-05 -0.6266589679 0.5713056096
370297780.0 0.0923017683 -0.0848601195 6.5994e-05 -0.0001865162 5.9882e-06 9.71807e-05 -0.6205151267 0.5762843317
375297750.0 0.0909990065 -0.0859223583 8.27299e-05 -6.89742e-05 0.0001179762 3.09963e-05 -0.6146921332 0.5835369421
380297720.0 0.0899422651 -0.087437152 2.97374e-05 -9.30129e-05 9.22783e-05 8.6711e-06 -0.6085546706 0.5901921513
385297690.0 0.0881543361 -0.0886700904 0.0002940151 1.93706e-05 6.7737e-06 3.477e-06 -0.6020432054 0.5957117952
390297660.0 0.0868677387 -0.0898131929 -8.6725e-06 0.0001965732 1.29327e-05 0.0001869956 -0.5956397528 0.6014563807
395297630.0 0.0852723196 -0.0909271722 0.0001402947 0.0002108638 0.0001815505 -0.0001172547 -0.5896638366 0.6078905235
400297600.0 0.0840119584 -0.0920332077 -3.12425e-05 6.98859e-05 0.0002041868 -0.0002020688 -0.5830135727 0.6137585839
405297570.0 0.0822405293 -0.0932532008 9.81505e-05 -5.25486e-05 0.0001346375 0.0001283977 -0.577409431 0.6195681904
410297540.0 0.0810599241 -0.0944582279 8.52353e-05 -0.0002315078 -3.50716e-05 4.45549e-05 -0.5703704447 0.6254315809
415297510.0 0.0795047914 -0.0956388552 1.54909e-05 -2.78468e-05 0.000115305 0.0001104784 -0.5641885747 0.6318335116
420297480.0 0.077978295 -0.0967866303 1.0968e-05 0.0001560671 0.0002177333 -2.46427e-05 -0.557365205 0.63662826
425297450.0 0.0766073769 -0.097656086 0.0002244834 6.26886e-05 -2.92679e-05 6.83362e-05 -0.5504716423 0.6429941135
430297420.0 0.0748361628 -0.0987597358 7.0749e-06 0.0001291835 -0.0001222165 -5.33432e-05 -0.5441320603 0.6485016085
435297390.0 0.0735802905 -0.0996122283 6.26362e-05 0.0001992151 -2.26767e-05 2.15965e-05 -0.5375367273 0.6539308882
440297360.0 0.0722235299 -0.1006767172 0.0002102522 -5.89981e-05 5.99955e-05 3.86868e-05 -0.5305299314 0.659001706
445297330.0 0.0705197845 -0.101492993 -1.84764e-05 0.0002296082 0.0004375464 0.0001906421 -0.5242547817 0.6644079075
450297300.0 0.0687721336 -0.1024192433 -0.000198448 0.0002079195 0.0001448351 -4.58559e-05 -0.5172055158 0.6698190656
455297270.0 0.0671201924 -0.1034064359 6.42226e-05 -5.72246e-05 5.0236e-06 0.0002217978 -0.5104197794 0.6750149381
460297240.0 0.0656953681 -0.1039334552 -3.73537e-05 1.64008e-05 -1.5634e-05 9.7648e-06 -0.5031804285 0.6802302624
465297210.0 0.0643528512 -0.1050507699 9.18346e-05 7.55888e-05 9.6734e-06 -0.0001110548 -0.4964715698 0.6850297463
470297180.0 0.0625648859 -0.105714864 9.69181e-05 0.0001700536 0.0001378288 -1.21257e-05 -0.4897972903 0.6896286471
475297150.0 0.0606817244 -0.1064325202 0.0001814771 4.83627e-05 0.0001971933 -1.76925e-05 -0.4824279357 0.6944664805
480297120.0 0.0591533591 -0.107448407 0.0002185895 9.81748e-05 6.87487e-05 -8.08142e-05 -0.4757611747 0.6999880312
485297090.0 0.0577543698 -0.1079732333 0.0001511707 0.0001280272 0.0001082994 8.84521e-05 -0.4683429668 0.7043493696
490297060.0 0.0561945518 -0.1087200526 0.0001465382 5.0698e-05 0.0001879048 0.000214823 -0.4616190583 0.708677715
495297030.0 0.0544186596 -0.1094633083 4.16968e-05 -5.94558e-05 0.0001798769 0.0002652713 -0.4538143589 0.7126579845
500297000.0 0.0528722551 -0.1102849145 2.92747e-05 0.0002275002 1.15553e-05 -9.01405e-05 -0.4470288383 0.7177936689
505296970.0 0.0511460257 -0.1105761123 6.97054e-05 -0.0001084002 3.25316e-05 -0.0001733454 -0.4401611534 0.7220264424
510296940.0 0.0496369055 -0.1112925861 0.0003045295 1.97857e-05 6.70096e-05 0.0001157199 -0.432001142 0.7263854619
515296910.0 0.0476471272 -0.1117893663 0.0001735106 0.0001615549 0.000169848 -0.0001241384 -0.4252345486 0.7309146652
520296880.0 0.0463139402 -0.1124314119 6.19035e-05 -9.1935e-06 -0.0001209441 -4.3315e-06 -0.4178885334 0.7347541575
525296850.0 0.0446181475 -0.1129657715 2.66224e-05 -7.1112e-05 3.07409e-05 -1.70042e-05 -0.4103616763 0.7395695966
530296820.0 0.0429897502 -0.1134724914 1.52707e-05 -9.6531e-06 0.0001386565 -2.81876e-05 -0.4033836713 0.7429866204
535296790.0 0.041318361 -0.1139541872 0.0001342485 0.0001079377 0.0001603409 -5.43966e-05 -0.3959190534 0.7465189426
540296760.0 0.0394926594 -0.1145069511 0.0003549875 1.598e-06 0.0002017553 4.69057e-05 -0.388498153 0.7507744989
545296730.0 0.037979887 -0.1146294949 0.0002331195 -4.07097e-05 7.49236e-05 1.89044e-05 -0.3810431189 0.7542229427
550296700.0 0.0360233189 -0.1152837627 0.0002615466 -8.46436e-05 -8.14862e-05 0.0001431414 -0.3732640185 0.7581813984
555296670.0 0.0343497284 -0.1155566998 0.0003052203 0.0002930304 0.0001043665 -0.0001224554 -0.3657798213 0.7623183034
560296640.0 0.0330388805 -0.116306587 0.0001955889 6.51828e-05 1.77309e-05 9.46513e-05 -0.3581724743 0.7659236536
565296610.0 0.0311247322 -0.1161747126 -0.0001485888 9.0606e-05 0.0001504114 5.33452e-05 -0.3502797953 0.7693882406
570296580.0 0.0296089857 -0.116805689 -4.44376e-05 -4.9983e-05 0.0002199444 9.0795e-06 -0.3435644388 0.7730531454
575296550.0 0.0282016089 -0.1168381425 -4.00655e-05 -2.09629e-05 7.7955e-05 0.0001313379 -0.3350423559 0.7757181267
580296520.0 0.0263674776 -0.1169726367 0.0001639843 0.0001666722 -7.24737e-05 2.1264e-06 -0.3275319907 0.7793567595
585296490.0 0.0244699277 -0.1174647499 0.000236565 8.24871e-05 0.0002338923 -1.06501e-05 -0.3199655785 0.7818149216
590296460.0 0.0227147873 -0.1176874941 5.70985e-05 -5.87197e-05 -5.94533e-05 -0.0001203006 -0.3119026561 0.7850726874
595296430.0 0.0212850817 -0.1178377131 4.30169e-05 -5.51234e-05 4.76569e-05 3.20663e-05 -0.3040995107 0.7873261865
600296400.0 0.0194375145 -0.1180247604 0.0001672196 -2.46295e-05 0.0002402563 -1.33065e-05 -0.2963400954 0.7911255694
605296370.0 0.0178869229 -0.1181140471 0.0002745679 8.9919e-06 0.0003029267 7.04453e-05 -0.2887894622 0.7941996547
610296340.0 0.0160945386 -0.118307935 0.0001156436 -9.78757e-05 0.0002173952 0.0001612192 -0.2806462789 0.7970865787
615296310.0 0.0143853751 -0.1181313676 0.0002911671 -3.09753e-05 0.0001471062 -0.0001712898 -0.2728211249 0.7993666977
620296280.0 0.0125869435 -0.1184098276 0.0001188418 -0.0001072532 6.60483e-05 0.0002253885 -0.2652391807 0.8023262847
625296250.0 0.011134758 -0.11832985 0.0001273068 0.0001296754 0.0002619974 7.18371e-05 -0.2566627759 0.8047979268
630296220.0 0.0094263825 -0.1184748325 -4.11022e-05 0.0002862941 0.0002151941 7.21561e-05 -0.2486149525 0.8079581408
635296190.0 0.0074103923 -0.1187513177 0.0001223112 -9.62812e-05 -1.35928e-05 -4.4934e-05 -0.2409009108 0.8097412832
640296160.0 0.005959853 -0.1184367891 0.0002210041 -0.000111747 0.0001984771 -7.41172e-05 -0.2324146766 0.8117742141
645296130.0 0.0039473714 -0.1182580616 3.68729e-05 5.76178e-05 0.0002633626 0.0001645441 -0.2252292848 0.8141656116
650296100.0 0.0024177627 -0.1181377457 -0.0001465901 8.01944e-05 5.79749e-05 -4.31146e-05 -0.2170919101 0.8164690741
655296070.0 0.000896657 -0.1182349213 0.0002319785 0.0001195187 0.0001117212 7.23475e-05 -0.2088618204 0.8181736937
660296040.0 -0.0010584443 -0.1178812235 9.97501e-05 -1.43986e-05 0.0001145196 -4.1257e-05 -0.200555669 0.8202147358
665296010.0 -0.0026458035 -0.1179245039 0.0002209917 1.38804e-05 0.0001202995 -8.55462e-05 -0.1927393139 0.8224191851
670295980.0 -0.0041618899 -0.1177116107 0.0001561978 6.81829e-05 6.668e-05 -0.0001973671 -0.1856548354 0.8239275471
675295950.0 -0.0056940832 -0.1175593445 0.0002053071 -5.70512e-05 0.000184151 2.22453e-05 -0.1766313307 0.8259817637
680295920.0 -0.0076387981 -0.1171271509 -5.12386e-05 -0.0001883612 0.0002200208 1.99999e-05 -0.1679033135 0.82787887
685295890.0 -0.0093571688 -0.1170424602 8.02867e-05 6.90314e-05 0.0001985219 0.0002090426 -0.1598238432 0.8291897051
690295860.0 -0.0106270104 -0.1165473587 4.82446e-05 -2.66685e-05 0.0001612866 3.09592e-05 -0.1520071691 0.831053494
695295830.0 -0.0123208284 -0.1165509411 0.0002499628 -0.000211333 0.000120337 -4.34454e-05 -0.1436483799 0.8325095473
700295800.0 -0.0140691912 -0.116205207 9.02973e-05 -0.0001040387 5.3638e-06 1.51051e-05 -0.135581024 0.8336994704
705295770.0 -0.0156761205 -0.1159370083 0.0002368344 1.7432e-05 0.0001432983 0.0001222712 -0.12769441 0.8346897127
710295740.0 -0.0172381261 -0.1155756992 0.0003249321 -7.37159e-05 0.0001178471 3.46401e-05 -0.119425789 0.8363222652
715295710.0 -0.0191404508 -0.1151138369 0.0001328204 -0.0002839242 0.0002040638 1.0092e-06 -0.1111692973 0.8377699078
720295680.0 -0.0204696016 -0.1147369601 0.0001711095 5.61363e-05 0.0003698018 -1.31683e-05 -0.1025617641 0.8388740137
725295650.0 -0.0221200483 -0.1141844663 6.82151e-05 8.15399e-05 0.0001802875 -7.73828e-05 -0.0939210704 0.8396099963
730295620.0 -0.0239842929 -0.1142708786 0.0001084167 0.0001067349 7.78731e-05 -0.0001113 -0.0857233462 0.8405460179
735295590.0 -0.0252627678 -0.1135485233 4.38279e-05 -8.80526e-05 0.0001566402 2.0094e-06 -0.0770166965 0.8410229903
740295560.0 -0.0270583337 -0.1127664878 0.0001480871 4.3394e-05 0.0001479584 3.50065e-05 -0.0696157273 0.8414678955
745295530.0 -0.0287976592 -0.1124137498 0.0001246229 6.12889e-05 0.0001078051 -4.23022e-05 -0.0608264512 0.842548067
750295500.0 -0.0302455838 -0.1120556986 0.0002517756 -7.35625e-05 1.7838e-05 9.91015e-05 -0.0527153384 0.8424180796
755295470.0 -0.0313689737 -0.1112435812 0.0002483709 -0.0001025592 2.33471e-05 -9.31831e-05 -0.044447974 0.8440428468
760295440.0 -0.0334887497 -0.1105824916 9.56207e-05 7.7131e-06 1.7147e-06 1.8586e-06 -0.0364010737 0.8439194568
765295410.0 -0.034898582 -0.1104815296 7.82418e-05 -7.62423e-05 7.10744e-05 -4.68929e-05 -0.0274924723 0.8440371894
770295380.0 -0.0364565377 -0.1092613483 0.000214835 6.636e-07 0.0003094573 -1.98398e-05 -0.0190438213 0.8443846229
775295350.0 -0.0381448033 -0.1087616758 8.3911e-05 -7.34705e-05 0.0003111696 -3.6198e-05 -0.0114829669 0.8442012246
780295320.0 -0.0397969618 -0.1082930794 0.0001982689 -1.13161e-05 0.0002236242 9.23659e-05 -0.0031564089 0.8448860341
785295290.0 -0.0413550649 -0.1074202355 7.60632e-05 3.61585e-05 0.0003303408 8.94233e-05 0.0047090652 0.8448308469
790295260.0 -0.0428508921 -0.1068151096 0.0001603309 -0.0001370745 0.0001939488 -4.18741e-05 0.0142473136 0.8446351628
795295230.0 -0.0442031645 -0.1058894675 0.0002595622 -1.0177e-05 0.0004132541 1.10906e-05 0.0225235762 0.8451231779
800295200.0 -0.0456130071 -0.1053756603 0.000482566 -3.73829e-05 0.0001339772 0.0001697838 0.0305968701 0.8444987681
805295170.0 -0.0471561878 -0.1047043244 0.000192022 -0.0001845692 0.0002307661 -0.0001555597 0.0382513081 0.8436213249
810295140.0 -0.0485901116 -0.1037960903 0.0003513245 -4.5244e-06 0.0001999592 -1.93549e-05 0.0465824185 0.844538778
815295110.0 -0.0500794012 -0.103163194 0.0002836442 -0.0002109299 0.0002141786 -0.0001060031 0.0551776774 0.8433180442
820295080.0 -0.0513153645 -0.1024965718 4.39737e-05 -0.0001140456 4.98863e-05 7.89283e-05 0.0627257521 0.8425465422
825295050.0 -0.0529478624 -0.1015691092 0.0004705983 -0.0001637226 9.29204e-05 -0.0001735738 0.0716282951 0.8419062513
830295020.0 -0.0542357581 -0.100504142 0.0001619975 2.83141e-05 0.0002110865 -2.26287e-05 0.0792572365 0.8413858285
835294990.0 -0.0556555577 -0.0995070672 0.0004099006 -0.0001029525 0.00011058 -0.0001740763 0.0881357364 0.8401792536
840294960.0 -0.0572612358 -0.0988220791 0.0001028644 -0.0001871174 0.0001771985 0.0001286417 0.0957756306 0.8398835824
845294930.0 -0.0587998208 -0.0977930384 0.0002250647 -0.0002434735 1.90908e-05 4.14536e-05 0.104323801 0.8381732801
850294900.0 -0.0602405178 -0.0969759229 7.81155e-05 6.74629e-05 2.16624e-05 -0.0001775611 0.1122574731 0.8376005304
