!Created with skrf (http://scikit-rf.org).
# Hz S RI R 50.0 
!freq ReS11 ImS11 ReS21 ImS21 ReS12 ImS12 ReS22 ImS22
300000.0 -0.7767659218 -0.1515184566 -0.0011748561 0.0002174011 -0.0002018037 -0.0001394105 0.8602413697 -0.0020985728
5299970.0 -0.7856057721 -0.007237684 -2.49004e-05 -8.28857e-05 6.69261e-05 7.36088e-05 0.8590305257 -0.0105579641
10299940.0 -0.7876353346 -0.0041127633 5.61896e-05 0.000260189 -4.26779e-05 -0.0001942136 0.8584579604 -0.0186612482
15299910.0 -0.7932922406 -0.0016118517 2.55575e-05 0.0001699893 0.0002214531 7.09265e-05 0.8570801019 -0.0275096645
20299880.0 -0.7997617025 0.0026837662 0.0002881609 -0.000137724 -0.0001025994 3.13174e-05 0.8564641358 -0.0361980306
25299850.0 -0.8064314767 0.0082139864 0.0001923144 4.59568e-05 -7.23987e-05 3.9963e-06 0.8558115985 -0.0437508686
30299820.0 -0.8122294705 0.0164611884 1.34243e-05 0.0001186107 9.66334e-05 -8.29541e-05 0.8550757767 -0.0527871442
35299790.0 -0.8168988867 0.0253155028 -7.35278e-05 0.0001474048 7.92325e-05 -0.0001067339 0.8545185076 -0.0600813188
40299760.0 -0.8215475853 0.0341352816 -1.64053e-05 -0.0001684116 -9.79784e-05 -3.3134e-06 0.8540723819 -0.0684316
45299730.0 -0.8248487122 0.0440635405 9.3074e-06 -0.0001144506 0.00011653 -0.0001128896 0.8527587417 -0.0769852699
50299700.0 -0.8266637739 0.0539584627 3.13894e-05 -7.57297e-05 -2.54423e-05 -0.000171674 0.8517742686 -0.0852869834
55299670.0 -0.8292298931 0.0643460307 7.4799e-05 -0.0001246326 -7.5751e-06 0.000169532 0.8507080488 -0.0931552537
60299640.0 -0.829630423 0.0742838655 -0.0002238759 6.34434e-05 -6.3431e-06 -7.93768e-05 0.8494162899 -0.1019129615
65299610.0 -0.8312360279 0.0850211003 -4.92351e-05 -7.16103e-05 -3.7769e-06 3.14381e-05 0.8485260821 -0.1098618758
70299580.0 -0.8312745595 0.0947871912 -2.80729e-05 -7.87522e-05 -3.85296e-05 1.81026e-05 0.8478857066 -0.1184437128
75299550.0 -0.8315322354 0.1044995161 0.0001215747 -2.87129e-05 -8.86326e-05 -0.0001257911 0.8470971971 -0.1261982248
80299520.0 -0.8311948495 0.1145551654 6.91059e-05 -0.0001256982 -0.0002460822 -6.60598e-05 0.8450345564 -0.134628646
85299490.0 -0.8309223819 0.1242053886 -4.26847e-05 -0.0001004526 3.14657e-05 2.8614e-05 0.8436694521 -0.1431304999
90299460.0 -0.8300932984 0.1343452346 -0.0001781497 8.82132e-05 3.97976e-05 7.43058e-05 0.8419449589 -0.1510890289
95299430.0 -0.8284802424 0.1436415247 -3.28339e-05 -0.0001425066 -6.77695e-05 4.2963e-05 0.8401033397 -0.1591378364
100299400.0 -0.8283473657 0.1528060184 0.0001662546 8.89877e-05 -7.9282e-06 -8.77273e-05 0.839082333 -0.1674260497
105299370.0 -0.826203608 0.1623530816 -0.0001504051 -0.0001146618 -5.61571e-05 -5.92154e-05 0.8373374814 -0.1751737834
110299340.0 -0.8254740224 0.1708522597 6.76567e-05 -8.44347e-05 1.39807e-05 3.17168e-05 0.8353742315 -0.1834352182
115299310.0 -0.8235639631 0.1805925587 -0.0001222464 -4.5278e-05 0.0001263385 -5.89241e-05 0.8332246895 -0.1924616503
120299280.0 -0.8221170048 0.1894506674 8.39248e-05 0.0001700514 -2.94968e-05 5.59003e-05 0.8314927528 -0.1998444018
125299250.0 -0.8205458737 0.1986656917 -7.78995e-05 0.0002900054 6.0883e-06 4.00105e-05 0.829416334 -0.208443292
130299220.0 -0.8182770822 0.2075239415 -0.000142591 -0.0002241925 -0.0001169002 0.0001347825 0.8273425957 -0.2164365437
135299190.0 -0.8164777417 0.2163633695 -5.73001e-05 -3.44341e-05 2.91179e-05 -8.55518e-05 0.8254155914 -0.2244889189
140299160.0 -0.8146722442 0.2258499619 -5.57744e-05 5.9978e-06 -3.26789e-05 -0.0002365301 0.8233858107 -0.2325520319
145299130.0 -0.8124764275 0.2342940205 -0.000126796 -4.511e-05 -2.20348e-05 8.0254e-06 0.8207621366 -0.2404294117
150299100.0 -0.8098720587 0.2431906498 -0.0001223079 -7.47724e-05 -0.0001517921 -2.71822e-05 0.8179892541 -0.2485262135
155299070.0 -0.8074449952 0.2525840119 -5.57854e-05 -0.0001761087 -3.22401e-05 0.0001146931 0.8152171554 -0.2559205069
160299040.0 -0.8049470085 0.2610477432 4.69358e-05 0.0001069483 2.59618e-05 3.45224e-05 0.81303894 -0.2644871961
165299010.0 -0.8019447491 0.2695807203 -6.91979e-05 -0.0003277806 -0.0001258743 -0.0001235776 0.810782384 -0.2723197711
170298980.0 -0.7994658845 0.2781196413 -6.30393e-05 8.3758e-06 2.80201e-05 -0.0001998499 0.8081341953 -0.2800874743
175298950.0 -0.7972220739 0.2869054559 -0.0001186688 -0.0001166562 -4.72922e-05 4.67244e-05 0.8047737884 -0.2880772665
180298920.0 -0.7938042013 0.2952079451 -6.46127e-05 0.000163156 2.9037e-06 -3.05405e-05 0.8021282919 -0.2957454855
185298890.0 -0.791045754 0.3045561758 -3.70023e-05 -2.5724e-05 -6.73379e-05 2.49352e-05 0.799327212 -0.3040687223
190298860.0 -0.7872693472 0.3124687601 5.55433e-05 -9.01061e-05 4.60026e-05 0.0001477628 0.796286632 -0.3110847042
195298830.0 -0.7841446236 0.3209437095 1.13423e-05 -7.27846e-05 -5.65286e-05 -8.64636e-05 0.7931237098 -0.3189718727
200298800.0 -0.7809257024 0.3296166915 -9.6897e-06 -4.19734e-05 2.74603e-05 8.29487e-05 0.7903458807 -0.3271034307
205298770.0 -0.7772396898 0.3372055813 -5.23162e-05 0.0001112922 -4.51827e-05 -0.0002003612 0.7868848134 -0.3345431922
210298740.0 -0.7737343455 0.3457980194 9.005e-05 -6.00204e-05 8.69103e-05 -1.40087e-05 0.7836375237 -0.3423269276
215298710.0 -0.7700400955 0.3538916125 -4.04929e-05 -3.80034e-05 3.49983e-05 0.0001614871 0.7800279635 -0.3500888561
220298680.0 -0.7670490457 0.3622734331 0.0001593201 2.17894e-05 0.0001751428 0.0001185587 0.7770907606 -0.3568645767
225298650.0 -0.7629378467 0.3708016202 0.0003043034 6.41307e-05 -8.82131e-05 -5.69408e-05 0.773056698 -0.3649313658
230298620.0 -0.758826993 0.3788428636 5.09927e-05 -0.0001852352 0.0001887657 0.0001503388 0.7698456235 -0.3726022505
235298590.0 -0.7548290187 0.3866541513 -6.67571e-05 -7.28907e-05 -5.1264e-06 -0.0001041871 0.7663032637 -0.3790383841
240298560.0 -0.7515354254 0.3951269172 -0.0001616793 5.39806e-05 6.14059e-05 0.0001085817 0.7623783618 -0.3869313794
245298530.0 -0.7462165676 0.4026321133 2.41974e-05 0.0001434306 -4.47435e-05 -5.93588e-05 0.7587482276 -0.3949528896
250298500.0 -0.7425265762 0.410586461 9.75857e-05 8.07933e-05 6.80506e-05 1.20368e-05 0.7547102852 -0.4020564669
255298470.0 -0.7378705175 0.4185917469 -1.29489e-05 3.3054e-05 -5.8438e-05 -0.0001023743 0.7509230831 -0.4088321226
260298440.0 -0.7338550902 0.4261809887 -1.0966e-05 9.28959e-05 -0.000133883 0.0001913889 0.7472171993 -0.416388378
265298410.0 -0.7291234505 0.4343930069 7.6681e-06 0.0001617058 -0.0001181348 0.0001725363 0.743058147 -0.4240825697
270298380.0 -0.7242186739 0.4412449213 -9.2144e-05 -4.45791e-05 -2.19432e-05 9.76459e-05 0.7398683339 -0.4304693752
275298350.0 -0.719414458 0.4490280934 -5.10364e-05 -2.3002e-05 0.0002069036 0.00018776 0.7353553261 -0.4373541697
280298320.0 -0.7150937294 0.4559258632 0.0002017722 -0.0001760732 9.06039e-05 -3.52659e-05 0.7310619869 -0.4445971291
285298290.0 -0.710091997 0.4645749777 7.70511e-05 -2.98796e-05 2.93164e-05 1.61e-07 0.7267357856 -0.4514733587
290298260.0 -0.7055775672 0.4720913812 -0.0001221719 1.74402e-05 -3.13006e-05 0.0002061498 0.7228095414 -0.4588630006
295298230.0 -0.7004456004 0.4792186414 -7.41695e-05 -2.21754e-05 0.0001350272 0.0001470279 0.7186145997 -0.4653153639
300298200.0 -0.6948270282 0.4867169884 -2.215e-05 -4.60637e-05 -8.04027e-05 4.12548e-05 0.7142738521 -0.4728754102
305298170.0 -0.6901534021 0.4940218629 0.0001895859 -3.05754e-05 4.7094e-05 -0.0001158879 0.7101737403 -0.4797022974
310298140.0 -0.6846229224 0.5007416437 0.0002563044 -5.37669e-05 -3.01602e-05 -0.0001223213 0.705838095 -0.4864125737
315298110.0 -0.6797302094 0.5084539976 -0.0001163199 7.92696e-05 -0.0001342967 -5.91025e-05 0.7010936689 -0.4936884628
320298080.0 -0.6745961103 0.5154713506 0.0001514693 -0.0002114336 4.45418e-05 0.0001850142 0.6966881899 -0.5019073235
325298050.0 -0.6682653491 0.5218234894 0.0001841265 -8.55632e-05 8.31046e-05 0.0001162197 0.6916147543 -0.5096596383
330298020.0 -0.6627667872 0.5290509408 -0.0001301072 2.02521e-05 -2.55757e-05 0.0001019863 0.6857318118 -0.5166527982
335297990.0 -0.6570659615 0.5359061597 4.68837e-05 2.84401e-05 -5.24921e-05 0.0001185687 0.6802782584 -0.5236464379
340297960.0 -0.6523168741 0.5427564954 -5.4615e-06 2.43034e-05 -2.52095e-05 -0.0001444409 0.6743122905 -0.5293198075
345297930.0 -0.646230742 0.5489073093 -5.4368e-05 0.0001030632 0.0001932542 0.0001243316 0.6683133208 -0.5352802569
350297900.0 -0.6400797566 0.555807536 3.41354e-05 -8.89606e-05 2.78084e-05 0.0001002468 0.6636080428 -0.5415962849
355297870.0 -0.6345931035 0.5625541921 -4.89633e-05 -4.7719e-06 5.79186e-05 8.79929e-05 0.6576435624 -0.5477155708
360297840.0 -0.6286256135 0.5691620918 -9.84796e-05 5.27603e-05 6.44863e-05 1.2173e-05 0.6522486141 -0.5536085959
365297810.0 -0.6218298068 0.5756991416 1.97e-06 -0.0001932089 -0.0001365808 -3.07289e-05 0.6472843952 -0.5598100606
370297780.0 -0.6162284645 0.5822209536 4.25684e-05 -0.0001830396 -0.0001400651 0.0001002532 0.6413647439 -0.5659943615
375297750.0 -0.6100769296 0.5881222206 -7.81168e-05 -0.0001972767 1.1143e-06 0.0002999851 0.6355636267 -0.5719356832
380297720.0 -0.6040523144 0.5948299948 -0.0003054031 -7.40637e-05 -1.60083e-05 -0.0001664768 0.6304889664 -0.5770757748
385297690.0 -0.5974601062 0.600833046 0.000134785 -0.0001274976 -9.92532e-05 4.20621e-05 0.6243254677 -0.5833296217
390297660.0 -0.5915305113 0.6070813581 8.33884e-05 2.47344e-05 -0.0001854581 3.99128e-05 0.6195164136 -0.5899214197
395297630.0 -0.5852074421 0.6129047212 0.000123247 0.0001070504 2.13878e-05 9.29083e-05 0.6132789259 -0.5955212067
400297600.0 -0.5787043974 0.6190680657 2.51185e-05 0.0001049985 -0.0002043838 -8.7702e-05 0.6074033693 -0.6012859143
405297570.0 -0.5725650718 0.6249427255 -0.0001463521 -9.14249e-05 9.67354e-05 9.41335e-05 0.6017882894 -0.6069832483
410297540.0 -0.565764377 0.6307297392 0.00033778 -0.0002468295 -0.000148241 3.5323e-06 0.5956276169 -0.6121599228
415297510.0 -0.558888632 0.6368036172 0.0001038234 4.5623e-06 0.0001142689 -0.0001725201 0.5894816993 -0.6178617611
420297480.0 -0.5518877421 0.6420085317 0.0001050304 1.59104e-05 0.0003510302 0.0001256757 0.5833421306 -0.6241285139
425297450.0 -0.546115696 0.6477650687 1.28059e-05 -0.0001168036 0.0001767259 0.0001420911 0.5776124297 -0.6290618526
430297420.0 -0.539381175 0.6533709507 -4.30982e-05 -3.26337e-05 3.05539e-05 0.000138717 0.571315102 -0.6349716046
435297390.0 -0.532148208 0.6592185007 -4.66131e-05 0.0001026294 7.3456e-05 -9.4205e-06 0.5647048828 -0.6404097383
440297360.0 -0.5255636411 0.6646239449 0.0003967669 6.78013e-05 -7.81651e-05 9.30577e-05 0.558610088 -0.6457642985
445297330.0 -0.5184427122 0.6702486465 -0.0002364277 -0.0002477861 3.01894e-05 0.000188072 0.5524658898 -0.6507350855
450297300.0 -0.5114190529 0.6746191432 0.0001073775 -0.0001504656 0.0001304088 -1.54493e-05 0.5450762075 -0.6562769874
455297270.0 -0.5046981281 0.6801110598 2.65377e-05 -9.7853e-06 4.74969e-05 4.9587e-06 0.538932241 -0.6621679133
460297240.0 -0.4968247478 0.6854358797 8.67643e-05 -0.0001129061 2.5221e-05 6.68633e-05 0.5333640225 -0.6667385905
465297210.0 -0.4902164442 0.6902751008 -4.60412e-05 0.0002285761 -9.11962e-05 -0.0002043502 0.525878492 -0.6721166965
470297180.0 -0.48291199 0.6947121025 9.755e-06 4.59308e-05 -7.11714e-05 -1.5551e-06 0.5195571624 -0.6770157763
475297150.0 -0.4757569707 0.7007655656 -1.01119e-05 -3.06615e-05 -4.21698e-05 -9.9679e-06 0.5129358092 -0.6817141131
480297120.0 -0.4689471235 0.7042708697 0.0002619277 7.15599e-05 -4.52459e-05 -3.61528e-05 0.5058501373 -0.6865850038
485297090.0 -0.4615195097 0.7091602139 0.000202837 -0.0001124733 -7.3675e-05 0.0001047928 0.4990500583 -0.6919888673
490297060.0 -0.4544253087 0.7138058867 -8.6745e-06 -5.4832e-06 0.0001580983 6.51223e-05 0.4930957835 -0.6966577428
495297030.0 -0.4474842083 0.7185125793 3.39138e-05 -1.59853e-05 -3.64943e-05 3.0389e-05 0.4858076512 -0.7015619873
500297000.0 -0.438640919 0.7233046131 0.000106855 -0.0001086797 4.845e-05 -3.29514e-05 0.4780774181 -0.7061055529
505296970.0 -0.4317711644 0.7268380834 0.0001001157 0.0001105162 -7.05641e-05 -0.0001216445 0.4709177733 -0.7107592765
510296940.0 -0.4243604474 0.7317516661 0.0002387866 6.67817e-05 -0.0002464052 -0.0001744229 0.4640320281 -0.7143333835
515296910.0 -0.4172674812 0.7360528694 7.17333e-05 -0.0001490742 4.2013e-05 -7.3565e-06 0.456280513 -0.7187344413
520296880.0 -0.409379973 0.7407431521 -0.0001486366 4.902e-05 -2.84587e-05 4.68361e-05 0.4499549659 -0.7239545492
525296850.0 -0.4018716052 0.7447075015 -0.0001911484 1.97579e-05 -8.52697e-05 -9.60519e-05 0.4427637491 -0.727682368
530296820.0 -0.3943854214 0.7481112116 3.37447e-05 0.0001896448 -5.46517e-05 1.8337e-05 0.4351277296 -0.7323747901
535296790.0 -0.3859454091 0.7519953668 0.0001115874 -1.14091e-05 -9.93633e-05 -0.0002048387 0.4279049062 -0.7370726843
540296760.0 -0.3784471389 0.7561781022 1.1953e-06 -5.54831e-05 0.0001133697 -0.0002151153 0.4201858206 -0.7407100063
545296730.0 -0.3711023744 0.7598781221 0.0001171975 4.57031e-05 2.7232e-05 1.84852e-05 0.41322111 -0.7449696404
550296700.0 -0.3633510546 0.7638052683 -1.00955e-05 -9.76294e-05 0.0001664198 2.81449e-05 0.405534982 -0.7491188569
555296670.0 -0.3548900973 0.7669089997 0.0002305691 0.0001196252 -1.64654e-05 -9.52246e-05 0.397758089 -0.7528083396
560296640.0 -0.3473680356 0.7705397903 0.0001067424 -5.38657e-05 6.56689e-05 0.0001599963 0.3908171036 -0.7564623146
565296610.0 -0.3399094196 0.773516674 -0.0001063376 -1.82013e-05 -3.57299e-05 1.2385e-05 0.3827237242 -0.7598757638
570296580.0 -0.3322212636 0.7771308752 4.88874e-05 6.0008e-05 3.82635e-05 7.38784e-05 0.3747713675 -0.7633837529
575296550.0 -0.3242045583 0.7808553634 0.0001725679 3.83694e-05 -0.000111728 -2.18184e-05 0.36773466 -0.7672798333
580296520.0 -0.3158137552 0.7837785768 3.2115e-06 9.36933e-05 5.65201e-05 6.47001e-05 0.3595002427 -0.7710425838
585296490.0 -0.307685464 0.7865702797 -0.0001841397 -1.87137e-05 -0.0001840162 4.65437e-05 0.3521402252 -0.7745694167
590296460.0 -0.2998595422 0.7899746681 -1.51214e-05 -0.0001006678 -1.38785e-05 5.20242e-05 0.3442364855 -0.7774369852
595296430.0 -0.2914276458 0.7933070128 2.06171e-05 -1.99398e-05 0.0002026717 4.86432e-05 0.3360683641 -0.7809920904
600296400.0 -0.283887741 0.7959111702 -0.0001055684 -3.13321e-05 -6.76423e-05 0.0001505951 0.3287657168 -0.78348448
605296370.0 -0.2755845716 0.7988817619 -0.0001652449 -4.11009e-05 -2.6829e-05 1.94062e-05 0.3207795315 -0.7873895934
610296340.0 -0.2677029717 0.8015901683 -2.32091e-05 6.52278e-05 -2.18296e-05 4.25183e-05 0.3125161916 -0.7897044053
615296310.0 -0.259321669 0.8043703118 0.0003048498 -2.08822e-05 6.94192e-05 -0.0001707442 0.3048323137 -0.793720763
620296280.0 -0.2510112957 0.8062885325 -1.20062e-05 -2.87805e-05 -8.98464e-05 5.53777e-05 0.2973276585 -0.7964583154
625296250.0 -0.2431298321 0.8092801328 0.0001167634 7.1094e-05 0.0001687721 -0.0002220215 0.28913618 -0.7987394586
630296220.0 -0.2343901249 0.8119526467 4.70276e-05 4.1141e-05 7.2403e-06 -9.89988e-05 0.2811550184 -0.8011290566
635296190.0 -0.2265788403 0.8136860189 -8.56294e-05 -0.0001021332 4.21009e-05 -6.3188e-05 0.2733729576 -0.8036876623
640296160.0 -0.2180714596 0.8151150785 4.02889e-05 -0.0001981576 3.44319e-05 9.2664e-06 0.2648991649 -0.806775757
645296130.0 -0.2101382734 0.8176179312 9.75522e-05 -3.22908e-05 0.0001281565 -0.0001440753 0.2565686076 -0.8091082536
650296100.0 -0.2014005856 0.8205140228 4.37969e-05 0.0003733655 5.76339e-05 2.70067e-05 0.2488439817 -0.8112617834
655296070.0 -0.1933770674 0.8220126327 -0.0002513017 1.83293e-05 0.0001100666 -0.0001490539 0.2405534856 -0.8138527409
660296040.0 -0.1855634146 0.8241448365 -8.72488e-05 6.38181e-05 4.5826e-05 -0.0001548729 0.2321634295 -0.8158278024
665296010.0 -0.1774881077 0.825769443 0.0001051517 -0.000257465 8.52587e-05 4.84042e-05 0.2242832532 -0.8177691568
670295980.0 -0.1680063872 0.827513665 8.81372e-05 0.0001533156 -3.26258e-05 -0.0001548301 0.2165495545 -0.8201140672
675295950.0 -0.1601327386 0.8285319834 0.0001380315 3.68938e-05 3.90907e-05 -0.000154119 0.2078255507 -0.8221285903
680295920.0 -0.152274839 0.8306359708 5.08736e-05 -6.33631e-05 -3.73608e-05 0.0001026327 0.1996915739 -0.8238783124
685295890.0 -0.1433143339 0.8317462296 -8.09831e-05 -3.8415e-06 4.46459e-05 -0.0003219631 0.19187498 -0.8254729594
690295860.0 -0.1346533681 0.8338104352 0.0001995285 -0.0001267631 -3.84756e-05 -6.17553e-05 0.1835632872 -0.8274164759
695295830.0 -0.1261815668 0.8340114746 -3.8063e-05 2.58745e-05 0.0001600183 0.0001324567 0.1744135472 -0.8294529759
700295800.0 -0.1175969635 0.8354334944 7.48572e-05 -5.96702e-05 4.87995e-05 7.80829e-05 0.1665442733 -0.8306049423
705295770.0 -0.1089594615 0.837378912 2.68891e-05 0.0001928345 -6.32121e-05 -0.0002992815 0.1580968887 -0.8315148076
710295740.0 -0.1011640123 0.8378799862 7.33745e-05 2.08323e-05 0.0001452031 0.00019915 0.1494967909 -0.8329025124
715295710.0 -0.0934354969 0.8391989152 0.0001899585 0.0001960196 5.12653e-05 -7.56514e-05 0.1419072416 -0.8345589318
720295680.0 -0.0843052039 0.8386943049 -3.12253e-05 2.01176e-05 7.96485e-05 4.37544e-05 0.1332977558 -0.835833867
725295650.0 -0.075282119 0.8410266105 -0.0002407529 6.2175e-06 0.0002195469 -5.89865e-05 0.125182725 -0.836578097
730295620.0 -0.067227081 0.8413277568 -0.000274192 3.76917e-05 8.3705e-06 -0.0002078504 0.1164193149 -0.8384074481
735295590.0 -0.0580490796 0.8418178106 -2.59193e-05 4.24891e-05 5.94318e-05 0.0001935852 0.1085439747 -0.8389317554
740295560.0 -0.0506092094 0.8426797233 -0.0001879927 0.000117924 -6.78279e-05 -9.9278e-05 0.0999975128 -0.8403996575
745295530.0 -0.0417398712 0.8428490927 -4.88838e-05 9.39219e-05 -0.0001041826 -6.662e-05 0.0916488178 -0.8407022618
750295500.0 -0.0337390523 0.8426495816 1.22917e-05 0.0001675613 -5.77565e-05 2.0547e-05 0.0834454255 -0.8415660068
755295470.0 -0.0246050465 0.8432615743 -2.32713e-05 0.0001734994 -1.89143e-05 9.3837e-06 0.0745522791 -0.8421819383
760295440.0 -0.016165611 0.8435143971 0.000140803 0.0001342741 6.32305e-05 8.71583e-05 0.0655647813 -0.8430912037
765295410.0 -0.007928941 0.8435780955 -0.000151302 -6.70906e-05 3.6307e-06 8.36893e-05 0.0583491015 -0.8427087931
770295380.0 0.0002481504 0.8441941249 0.0001818941 1.95668e-05 9.46661e-05 9.68048e-05 0.0497490549 -0.842753489
775295350.0 0.0088726786 0.8437329477 -4.89075e-05 1.20736e-05 0.0001977262 0.0001368053 0.0412786314 -0.8444982574
780295320.0 0.01773687 0.8434860984 3.18993e-05 -0.0002860576 -1.93412e-05 -0.0001115764 0.0322490312 -0.8433488413
785295290.0 0.0259386502 0.8435967 0.0001135968 0.0001680756 4.80102e-05 9.80685e-05 0.0233977627 -0.8442258407
790295260.0 0.0342130268 0.8430949865 0.0001151623 0.0002077646 5.54758e-05 -0.0002821721 0.0161530195 -0.8445526547
795295230.0 0.042702729 0.8433273981 9.991e-07 9.21193e-05 2.22943e-05 6.11721e-05 0.007612968 -0.8444780174
800295200.0 0.0510653663 0.8424506908 -2.31359e-05 7.81995e-05 5.05924e-05 4.04336e-05 -0.0008170382 -0.8444578683
805295170.0 0.0598270866 0.8418163488 3.95175e-05 -1.44922e-05 7.01976e-05 -3.6367e-06 -0.0096365853 -0.8439146837
810295140.0 0.0678705019 0.8410589853 2.8573e-06 3.37393e-05 0.0001051628 -0.0001824218 -0.0180274624 -0.8432376874
815295110.0 0.0771273796 0.8403147228 0.0001652057 1.23011e-05 -8.90783e-05 -0.0002551979 -0.0268138902 -0.8427879801
820295080.0 0.0851304797 0.8391675186 9.9738e-06 -6.43959e-05 -0.0001386146 9.85326e-05 -0.0351953952 -0.8428180409
825295050.0 0.0936235397 0.8386808847 -0.0001027223 -0.0001680007 2.30534e-05 -9.9012e-05 -0.0435570374 -0.8418611518
830295020.0 0.1022090641 0.8377611356 -0.0001759693 0.0002296794 0.0001234529 -0.0001193673 -0.052700121 -0.8419322229
835294990.0 0.109854923 0.8368168857 0.0002662885 0.0001265947 6.12886e-05 0.0001402036 -0.0606888687 -0.8411179673
840294960.0 0.1188914902 0.8353753144 -4.99552e-05 -5.85878e-05 -2.52166e-05 0.0001006253 -0.0692193995 -0.8393022615
845294930.0 0.1271279945 0.8341572516 -4.3937e-06 -0.0001245162 4.15058e-05 2.13079e-05 -0.0772530278 -0.839219404
850294900.0 0.1349065804 0.8326759414 -1.7894e-06 -6.81172e-05 -0.0001334469 -2.0095e-06 -0.0853450186 -0.8380043728
