!Created with skrf (http://scikit-rf.org).
# Hz S RI R 50.0 
!freq ReS11 ImS11 ReS21 ImS21 ReS12 ImS12 ReS22 ImS22
300000.0 -0.7747192984 -0.081952781 -0.001031852 0.0019705167 -0.0006099 0.0002842777 -0.0453947957 -0.0564441326
5299970.0 -0.7852516425 -0.0056929975 0.0002082158 -8.6815e-05 -0.0001694288 9.94956e-05 -0.0459506097 0.0159843012
10299940.0 -0.7879032715 -0.0036475618 2.42676e-05 8.38706e-05 -0.0001714352 0.0001370549 -0.0403052364 0.0338082623
15299910.0 -0.7934859879 -0.0024194429 4.04911e-05 2.01314e-05 1.72976e-05 4.76704e-05 -0.0318553032 0.0482199398
20299880.0 -0.8001271981 0.0021222042 0.0001309529 4.53723e-05 9.84593e-05 -1.7067e-06 -0.0215847879 0.0601748381
25299850.0 -0.8061848114 0.0079759561 3.68435e-05 -8.97027e-05 8.12068e-05 -0.0001148677 -0.0102097711 0.0694083992
30299820.0 -0.8126864385 0.0152660514 -8.0033e-06 6.43841e-05 0.0002573581 1.11724e-05 0.0016405265 0.0759852201
35299790.0 -0.8171293975 0.0247725259 0.0001468068 -3.32043e-05 0.0001623638 0.0001261144 0.0132047726 0.081047949
40299760.0 -0.8212102405 0.0336241227 2.2927e-06 -8.06819e-05 0.0001070891 6.70427e-05 0.0243007372 0.0836293426
45299730.0 -0.8246078017 0.0423517948 2.99455e-05 -3.74981e-05 -1.03782e-05 0.0001001088 0.0353436069 0.085267372
50299700.0 -0.8270988716 0.0530129891 1.7431e-05 -5.86008e-05 0.0001846379 9.51724e-05 0.0453765791 0.0850810652
55299670.0 -0.8295016983 0.0624314163 -0.0001138218 0.0001145803 3.15464e-05 0.0001050097 0.0544819798 0.0841909795
60299640.0 -0.8297166455 0.073597151 -6.03524e-05 -2.52189e-05 -2.6306e-05 -7.57951e-05 0.0631556845 0.0823479697
65299610.0 -0.8311137935 0.0830253084 -0.0001705287 -0.0001328475 -0.0001273041 -4.21581e-05 0.0708024383 0.0801173623
70299580.0 -0.8315650345 0.0933137568 6.80616e-05 -3.84173e-05 -0.0001160451 8.66524e-05 0.0778049962 0.077163081
75299550.0 -0.83180303 0.1031512116 -4.02824e-05 0.0002600457 2.97767e-05 0.0001518584 0.084148324 0.0735967654
80299520.0 -0.831830632 0.113022669 0.0002516538 -5.66153e-05 -5.23888e-05 -7.83698e-05 0.0898663568 0.0705308279
85299490.0 -0.8309377143 0.12252163 2.85014e-05 0.0001870581 0.0001842658 0.0001024248 0.0949842437 0.0667491984
90299460.0 -0.8298990676 0.1320476856 0.0003450256 -7.8581e-06 0.000149305 2.74763e-05 0.0998077523 0.0627608012
95299430.0 -0.8289748227 0.1416035486 6.6574e-05 7.09219e-05 -2.09765e-05 -0.0001131257 0.1035193569 0.0590978816
100299400.0 -0.8278278204 0.1506963905 0.0002592282 -0.0001336481 0.0001337647 7.15599e-05 0.1074380962 0.0551588935
105299370.0 -0.8267818518 0.1593625194 -1.91038e-05 5.2085e-05 -1.09e-06 0.0001574226 0.1107725149 0.0511569488
110299340.0 -0.8250788536 0.1692185761 -0.0001448181 0.0001015922 -4.55078e-05 -9.5266e-06 0.1135505576 0.0473155644
115299310.0 -0.8233729918 0.1784073582 -3.9642e-06 0.0001172873 -6.83127e-05 0.0002171456 0.1159892632 0.0438351293
120299280.0 -0.8225141968 0.1869205054 -2.98522e-05 -7.7962e-05 0.0001438592 1.27172e-05 0.1183166328 0.0399368983
125299250.0 -0.8203050255 0.1957291381 -3.79363e-05 0.0001135596 -0.0001489784 0.0001170847 0.1203456477 0.0358996133
130299220.0 -0.8189187333 0.2050949513 -5.8231e-05 7.78214e-05 -3.2572e-06 9.21154e-05 0.1220875899 0.0321465741
135299190.0 -0.8170385573 0.2140616846 3.67873e-05 0.000215761 0.0001850683 5.01062e-05 0.1235144282 0.0289070049
140299160.0 -0.8143024507 0.222955016 5.04871e-05 0.0002148853 0.0001105041 0.0001505414 0.1249464765 0.0257056697
145299130.0 -0.8124481921 0.2323354644 -0.0001281399 0.000219327 7.44108e-05 0.000117946 0.1260284242 0.0219416511
150299100.0 -0.8103640884 0.2408209797 -0.0001238112 2.3347e-05 0.0001042641 0.0002149887 0.1268063117 0.0191423466
155299070.0 -0.8079292036 0.2489322221 9.83632e-05 0.0001039138 0.0001697543 6.17357e-05 0.1279242387 0.0159123679
160299040.0 -0.8053792292 0.2578881753 2.7623e-06 3.20171e-05 0.0001026045 -3.69493e-05 0.1281733501 0.0126340565
165299010.0 -0.8029522883 0.2670702638 8.978e-05 0.0002473084 2.16114e-05 5.24966e-05 0.1289190219 0.0093954066
170298980.0 -0.8000301782 0.2746707376 0.0002322356 -5.85368e-05 0.0001484593 -4.48713e-05 0.1289179876 0.0062277418
175298950.0 -0.797179146 0.2839674257 4.62781e-05 0.0001648061 0.0001007411 0.0001015995 0.1294786326 0.0034721751
180298920.0 -0.7949451382 0.2926915385 2.15478e-05 -0.000178172 0.0001977789 0.0001382286 0.1296014511 0.0005741304
185298890.0 -0.7911994953 0.3005437422 0.0001390953 5.2526e-05 -6.46948e-05 -0.0001534764 0.1300028883 -0.0023374868
190298860.0 -0.7886140818 0.3093955267 0.0001674344 2.22424e-05 2.07003e-05 0.0002147842 0.1301486715 -0.0049744374
195298830.0 -0.7852737175 0.3175731298 -0.0001400166 0.0002257057 1.78305e-05 0.0001592467 0.1302373214 -0.00769501
200298800.0 -0.7816238516 0.3256397891 3.63943e-05 0.00014937 -0.0002565409 0.0001052552 0.1298891987 -0.0106060988
205298770.0 -0.7786475282 0.3341774184 1.99705e-05 -3.34417e-05 9.67202e-05 0.0002443656 0.1297012743 -0.013235858
210298740.0 -0.7749879516 0.3420462313 4.52094e-05 0.0002286516 9.42916e-05 3.59621e-05 0.129369284 -0.0157781919
215298710.0 -0.7719900169 0.3502211171 5.94546e-05 -6.8854e-05 -0.0001558376 0.0001497869 0.1290289629 -0.0180660178
220298680.0 -0.76774819 0.3584006554 -5.71851e-05 3.53403e-05 8.65373e-05 -4.38126e-05 0.1286667456 -0.0205070289
225298650.0 -0.7640829894 0.3665672516 -7.10451e-05 0.0001724841 0.0001546215 0.0002021544 0.1278783937 -0.0230047739
230298620.0 -0.7603935965 0.3743755955 0.0001861509 0.0001637999 -0.0001020424 0.0001896328 0.1276769359 -0.0252182875
235298590.0 -0.75630616 0.3830060218 5.60501e-05 0.0003376983 -5.02639e-05 0.0001013376 0.127523163 -0.0275029531
240298560.0 -0.7525928386 0.390943922 0.0001415754 5.59545e-05 1.6455e-06 0.0002694486 0.1269151322 -0.0296789305
245298530.0 -0.7489038393 0.3979550064 0.0001988299 2.29869e-05 0.0001540491 0.0002266873 0.1261987259 -0.0320757724
250298500.0 -0.7440155407 0.4064792152 -2.36649e-05 0.0001782769 0.0003308882 6.02585e-05 0.1256453885 -0.0341620022
255298470.0 -0.7393884632 0.4135680258 -7.1701e-06 0.0001632757 0.0001998628 0.0002295496 0.1248268798 -0.0364780099
260298440.0 -0.7356405494 0.4211677334 7.85222e-05 0.0003015689 0.0001052621 2.33269e-05 0.1245842077 -0.0382881102
265298410.0 -0.7317572756 0.4291680022 -9.22374e-05 3.3027e-05 -3.2862e-05 0.0002796417 0.124161881 -0.0401344218
270298380.0 -0.7270080062 0.4366279536 -0.0001220566 0.0001311442 8.67104e-05 0.0001710526 0.1231541571 -0.0418765474
275298350.0 -0.7223615344 0.4446260437 0.0001978444 0.0002371337 0.0001082929 1.30134e-05 0.122733105 -0.043960803
280298320.0 -0.7174044463 0.4519745703 8.83604e-05 1.21418e-05 -0.0001382386 0.0001261976 0.1219311017 -0.0462878018
285298290.0 -0.7126747396 0.4595238224 -8.74538e-05 9.18872e-05 0.0001852827 0.0001532798 0.121038982 -0.0478196036
290298260.0 -0.7078753057 0.4671148731 0.0002077621 0.0002305433 0.0002987997 0.0001393275 0.1202753992 -0.0495894243
295298230.0 -0.702634126 0.4742015235 0.000218559 7.8246e-05 0.0003047473 6.66823e-05 0.1200047727 -0.0515585389
300298200.0 -0.6985718943 0.4811503219 6.81254e-05 6.48584e-05 0.0001038463 0.0002303402 0.1185558743 -0.0532047019
305298170.0 -0.6926982965 0.4882638244 1.4175e-06 0.0001236878 0.000141592 0.0002394154 0.1182617594 -0.0552885293
310298140.0 -0.6876011093 0.4960098116 7.62456e-05 5.62363e-05 0.0001103131 3.45985e-05 0.1171422969 -0.0575177583
315298110.0 -0.6827533176 0.5028291561 -2.65677e-05 9.22142e-05 4.41957e-05 -3.3749e-05 0.1160181709 -0.058976103
320298080.0 -0.6775361718 0.5101263815 -3.42995e-05 -3.92e-07 0.0003232563 0.0001226101 0.1150267528 -0.060871319
325298050.0 -0.6719032179 0.5169292162 0.0002308185 0.0001594248 -7.45877e-05 7.94581e-05 0.1137153754 -0.0626327018
330298020.0 -0.6665549468 0.5241951105 0.0001896012 0.0001412667 9.20644e-05 0.0002514648 0.112245892 -0.0640389077
335297990.0 -0.6611031428 0.5302404617 0.0001684532 0.0003159344 5.25139e-05 0.0001204339 0.1108903669 -0.0652671273
340297960.0 -0.6561090263 0.5367803225 0.0001579896 8.23951e-05 0.0002386337 7.69885e-05 0.1100698347 -0.0667245659
345297930.0 -0.6505080364 0.5441265933 0.0001957783 4.2261e-05 0.0001077023 0.0001082035 0.108425361 -0.0685738145
350297900.0 -0.6449243905 0.5507360002 0.0001763135 0.0004668591 0.000248354 -3.07944e-05 0.1073822855 -0.0694162103
355297870.0 -0.6383321952 0.557708743 0.0002001921 8.19633e-05 0.0003534721 0.0003211082 0.1063830396 -0.0712447422
360297840.0 -0.6326928395 0.5633173878 7.03502e-05 3.43323e-05 0.0002543273 0.0002310533 0.1051405674 -0.0722899964
365297810.0 -0.627406448 0.5700321272 0.0001205577 4.8659e-06 0.0001784465 -2.1044e-06 0.1039128058 -0.0735664818
370297780.0 -0.6212823154 0.5765175351 0.0001649539 0.0001854802 0.0002067588 0.0001329503 0.1030401173 -0.0749239423
375297750.0 -0.6151664228 0.5832755004 0.0001765483 0.0001172737 3.9158e-05 4.36031e-05 0.1016410961 -0.0762209995
380297720.0 -0.6088009216 0.5885006317 0.0001992251 -4.135e-06 0.0001424345 4.00011e-05 0.0997908912 -0.0774409617
385297690.0 -0.6033446754 0.5949684986 0.0001371508 -1.29555e-05 0.0002151564 5.10937e-05 0.0992108061 -0.0786160753
390297660.0 -0.596996545 0.6005399224 0.0003998251 2.6336e-05 0.0002072862 0.0002212892 0.0978623433 -0.079755267
395297630.0 -0.5899064372 0.6078473891 0.0001886943 -2.5323e-05 0.0002007272 9.69068e-05 0.0967476228 -0.0809082409
400297600.0 -0.584124582 0.613802609 0.0002527331 0.0001568456 0.0003540116 1.50195e-05 0.0957452204 -0.0818674207
405297570.0 -0.5779016651 0.6193302398 0.0001672235 1.84354e-05 0.000248495 0.0002204688 0.0945147324 -0.0833619935
410297540.0 -0.5714424451 0.6246541485 -2.97573e-05 0.0002298342 7.15202e-05 6.43768e-05 0.0933133018 -0.084266212
415297510.0 -0.5648691489 0.6306090624 0.0002694142 0.0002087774 0.0001153776 -6.73459e-05 0.0920262819 -0.0853873501
420297480.0 -0.5589462199 0.6371115213 0.0001925446 0.0002313768 0.000171939 2.02416e-05 0.0906739549 -0.0866454081
425297450.0 -0.5514575781 0.6421294175 8.58231e-05 0.0002393605 0.0003549468 5.02041e-05 0.0897329646 -0.0875518129
430297420.0 -0.5451950468 0.6479157857 0.0001129676 0.000166663 0.0003871237 -8.25803e-05 0.087792044 -0.0884854636
435297390.0 -0.5386862014 0.6528348482 0.0001432883 2.96721e-05 0.0001156254 0.0001636663 0.0871424642 -0.0896199165
440297360.0 -0.5321369425 0.6587646232 0.0002089676 0.0001102581 0.0002245081 7.6104e-06 0.0858624143 -0.0905881947
445297330.0 -0.5253744951 0.6643985074 9.1802e-06 0.0001006674 0.0002312369 0.0001042826 0.0844027431 -0.0918377761
450297300.0 -0.5179473259 0.6693144261 0.0001879227 0.0002565023 0.0001841818 -1.52625e-05 0.0829618101 -0.0926469123
455297270.0 -0.5113643695 0.6743405206 0.0001670641 8.51079e-05 0.0002436241 8.57456e-05 0.0817381036 -0.0936356486
460297240.0 -0.5054499734 0.6797508404 0.0001438138 0.0001591483 0.0002440415 0.0001654493 0.0807192431 -0.094419242
465297210.0 -0.4979464297 0.6849125313 3.86023e-05 0.0001713562 0.0001802687 0.0001432257 0.079166139 -0.0953261806
470297180.0 -0.4905376933 0.6892570015 3.98832e-05 -8.46445e-05 8.61326e-05 7.02714e-05 0.0779922082 -0.0957965056
475297150.0 -0.4836069589 0.6944784701 0.0002862722 9.17411e-05 0.000148144 1.9218e-05 0.0764106857 -0.097207533
480297120.0 -0.4769525233 0.69900654 0.0001073092 0.0002328681 0.000181086 4.8635e-06 0.0753841085 -0.0973940355
485297090.0 -0.4691398538 0.704108063 0.0003079098 8.79098e-05 0.0002711114 0.0001913824 0.0741059499 -0.0982267402
490297060.0 -0.4627540015 0.7089110911 0.0001045275 -3.4995e-06 0.0001152623 0.0002291856 0.0724126421 -0.0993460023
495297030.0 -0.4551254061 0.7126424813 0.0001712106 0.0001638963 0.000186762 0.0003315751 0.0709311108 -0.0996050211
500297000.0 -0.447645203 0.7181180271 0.0001350893 -1.98619e-05 0.0002670444 -0.0001187105 0.069713903 -0.1003957723
505296970.0 -0.4405824385 0.7226946683 0.0003445811 5.3898e-06 0.000145514 5.33349e-05 0.0680480178 -0.1013675377
510296940.0 -0.4333733033 0.7266935804 0.0002904739 3.22424e-05 0.0001446119 4.4626e-06 0.0667449052 -0.1020523629
515296910.0 -0.4250084656 0.7304400827 0.0003419848 -1.12786e-05 0.0003046298 0.0001252695 0.0653636619 -0.1027307332
520296880.0 -0.4185253927 0.7351544845 0.0002909315 3.73461e-05 0.0001458983 0.000299526 0.0636875512 -0.103371242
525296850.0 -0.4105994733 0.7382830237 0.0002575219 5.05072e-05 0.0003001516 1.98507e-05 0.0627251064 -0.1037575128
530296820.0 -0.4027839584 0.7437606991 0.0003949763 0.0002567848 0.0001899105 -4.16994e-05 0.0612877728 -0.1043128308
535296790.0 -0.3959478327 0.7468939137 0.0001255475 5.64446e-05 0.0002945292 -0.0001102803 0.0596222152 -0.1051960222
540296760.0 -0.3882426889 0.7508652965 7.67767e-05 2.91685e-05 0.0002545433 0.0002070477 0.0582817822 -0.1055970669
545296730.0 -0.3809217956 0.7548819851 0.0001099909 -0.0001084089 0.0002537547 0.0002140171 0.0565998039 -0.1062754742
550296700.0 -0.373031314 0.7592213398 0.000269145 0.0003547223 0.0003276102 8.07365e-05 0.0553728914 -0.1069377752
555296670.0 -0.3652268995 0.7616936413 9.11855e-05 -5.63005e-05 0.0002286002 7.2212e-06 0.0539314761 -0.1070038792
560296640.0 -0.3578609435 0.7661140366 0.0002589337 -9.5738e-05 0.0003407846 -3.12478e-05 0.0527364474 -0.1074481888
565296610.0 -0.349762312 0.7694271112 0.000313404 0.0001208312 0.0003119151 9.6647e-06 0.0513875554 -0.108159689
570296580.0 -0.3426215918 0.7719028533 0.0001374884 -3.67168e-05 0.0003039357 -3.59572e-05 0.0496218903 -0.1084705939
575296550.0 -0.3348150986 0.7765865299 0.0001622868 -5.45418e-05 0.0001784653 0.000219013 0.0482030688 -0.1089218604
580296520.0 -0.3265941907 0.7794106447 0.0004091398 -0.0002605524 0.0003225177 -3.90557e-05 0.0469305961 -0.1093862472
585296490.0 -0.318919831 0.7823490548 7.16005e-05 0.0001462743 0.0003986624 -2.37922e-05 0.0457021191 -0.1100297951
590296460.0 -0.3107327562 0.7853714714 7.68062e-05 -1.97347e-05 0.0003506884 0.0001446889 0.0440213427 -0.1102632279
595296430.0 -0.3029442332 0.7886580516 0.0003647293 8.45168e-05 0.0003401808 0.0002430486 0.0422462341 -0.1107877875
600296400.0 -0.2953114469 0.7914343077 0.0003783008 -9.41882e-05 0.0002584669 7.77757e-05 0.0409918045 -0.1109956377
605296370.0 -0.2878094526 0.7943042112 0.0004375344 -6.5191e-05 0.0003361559 0.0001583853 0.0398258845 -0.1108530774
610296340.0 -0.2792619349 0.7975917599 0.0001659191 0.0002042253 0.000399819 0.0002593149 0.0383721388 -0.1111533491
615296310.0 -0.2709454732 0.7996310742 0.0004409398 4.95878e-05 0.0002611982 0.0001140808 0.037193853 -0.1115836634
620296280.0 -0.2630704088 0.8017725513 0.000491291 -0.0001298545 0.0004232037 -0.0002733824 0.035477442 -0.1118572607
625296250.0 -0.2552481739 0.8053714437 0.0002356363 0.0001425852 0.0003003427 -7.43777e-05 0.0343015668 -0.1122364026
630296220.0 -0.2463637352 0.8082434794 0.0003113268 0.0001649232 0.0003732745 1.7818e-06 0.0327765483 -0.1121775451
635296190.0 -0.2391782949 0.8100810926 0.0006337103 0.0002013209 0.0002783603 -6.37355e-05 0.0312681385 -0.1124430542
640296160.0 -0.2311677093 0.8126818119 0.0001673747 0.000412592 0.000162621 0.0001393233 0.0297858221 -0.1126608293
645296130.0 -0.2226022125 0.8151557118 0.0003375656 0.0001813631 0.0003973109 2.05842e-05 0.0282211486 -0.1124633845
650296100.0 -0.2148214133 0.8168740101 0.0002076926 -1.29489e-05 0.0003102496 -8.51883e-05 0.0268212976 -0.1133401734
655296070.0 -0.2064111875 0.8194763503 0.0004346323 0.0001071118 0.0004567755 0.0003749742 0.0256922238 -0.1130724434
660296040.0 -0.1983582425 0.8207326969 0.0002966329 -7.31909e-05 0.0001948493 6.63545e-05 0.0241142753 -0.1133140041
665296010.0 -0.1896929367 0.821736107 0.0001527838 -0.0001503109 0.0003024609 -9.78575e-05 0.02223889 -0.1131947472
670295980.0 -0.1819329911 0.8247776453 0.0002762539 -7.03292e-05 0.0003551634 -3.7182e-06 0.0209976343 -0.1132290884
675295950.0 -0.173743652 0.8264673738 0.0002859882 3.21555e-05 0.0005562527 2.18162e-05 0.0192031812 -0.1131115053
680295920.0 -0.1652425579 0.8282725525 0.0002929051 0.0001928491 8.08363e-05 0.0001242861 0.0179806724 -0.113331299
685295890.0 -0.1568963661 0.829949986 0.0001620781 0.0001006046 0.0003520944 -1.45852e-05 0.0165310207 -0.1129989363
690295860.0 -0.1494940039 0.8306411308 0.0003735429 0.0001370052 0.0003302177 -1.2802e-06 0.0150178387 -0.1127174474
695295830.0 -0.1410244936 0.831453967 0.0003002659 -0.0001830333 0.00033289 0.0002061048 0.0136358961 -0.1131537853
700295800.0 -0.1323315242 0.8341279662 0.0004113824 -6.982e-07 0.000365892 0.0001698876 0.0120625762 -0.11282334
705295770.0 -0.1248475827 0.8351596965 0.0002542296 -2.73434e-05 0.0002326416 1.0846e-06 0.010571596 -0.1123793705
710295740.0 -0.1163613032 0.836148334 0.0004455652 -6.30263e-05 0.0003066726 -5.72085e-05 0.0089662517 -0.1129703847
715295710.0 -0.1075476092 0.8372100331 0.000352014 -7.5492e-06 0.0002555522 6.27092e-05 0.0076919165 -0.1127258677
720295680.0 -0.0994467003 0.8379672759 0.0003018547 0.0001395924 0.000264196 -1.5984e-05 0.0065940538 -0.1124609826
725295650.0 -0.090754341 0.8393016764 0.0001449836 0.0002748928 0.0002374592 -2.21765e-05 0.0047274472 -0.1119971974
730295620.0 -0.0832850697 0.8402022301 0.0003447308 -0.0003044581 9.81996e-05 -0.0001502681 0.0033768018 -0.112083652
735295590.0 -0.0749793016 0.8409116288 0.0003671882 -7.61283e-05 0.0003666983 -4.54679e-05 0.0017627636 -0.1124000172
740295560.0 -0.0660351769 0.8416620393 0.0003593114 6.63437e-05 0.0003875809 -0.000166543 0.0007488912 -0.1117925201
745295530.0 -0.0574690016 0.8424034379 0.0004092944 -0.0001579845 0.0002536527 5.25171e-05 -0.0008465215 -0.1117053537
750295500.0 -0.0489600343 0.8422873612 0.0003191513 -7.81358e-05 0.0004862807 -5.9876e-06 -0.0022699694 -0.1115139714
755295470.0 -0.0413350901 0.8427780493 0.0003912645 -0.0001023687 0.0003845375 0.0002859706 -0.003341069 -0.1112936591
760295440.0 -0.0324405122 0.8435491608 0.0004006695 -0.0001382454 0.0002913698 -4.94327e-05 -0.0049791933 -0.1112168153
765295410.0 -0.0245943948 0.8434006159 0.0005030994 9.42344e-05 0.000173123 2.76437e-05 -0.0063744082 -0.1107173782
770295380.0 -0.0162299467 0.8438458088 0.000471694 -0.0001154158 0.0005167614 9.1268e-06 -0.0080966471 -0.1102292227
775295350.0 -0.0080732603 0.8443033188 0.0003689622 3.674e-07 0.0003077384 -5.73302e-05 -0.0092949792 -0.1099788474
780295320.0 0.0007402306 0.8444001323 0.00046755 -0.000231982 0.0005874938 -0.00026813 -0.0107207458 -0.1097210319
785295290.0 0.0088406372 0.8431130436 0.0003840118 -2.73637e-05 0.0003654889 -6.60179e-05 -0.0115699287 -0.109243329
790295260.0 0.0177291309 0.8437200313 0.0002650673 0.0002786782 0.0004395853 -9.53134e-05 -0.0127715447 -0.1088657246
795295230.0 0.0251906794 0.8432674882 0.0002115096 -5.19296e-05 0.0004764045 -0.0001664961 -0.01439101 -0.1084243354
800295200.0 0.0335276467 0.8430359413 0.0003771437 -0.0001263563 0.0003344328 3.68238e-05 -0.0157673522 -0.1076819325
805295170.0 0.0427473474 0.8428483879 0.0003358726 -0.0001713403 0.0001901817 -0.000121148 -0.0170470448 -0.1073757273
810295140.0 0.0508936348 0.842423288 0.0004314418 -0.0001877142 0.0004140745 -7.2686e-06 -0.0180837499 -0.1070420766
815295110.0 0.0589601316 0.8418352407 0.0005627746 0.0001553423 0.0004746454 -0.000125986 -0.0197855811 -0.1065749371
820295080.0 0.0670010107 0.8410500823 9.29623e-05 -2.44396e-05 0.0004376707 -4.36335e-05 -0.0208372324 -0.10607653
825295050.0 0.0763535754 0.8404353959 0.0005611794 -0.0001364623 0.0006092931 -0.0001111048 -0.0225131463 -0.1057378816
830295020.0 0.0840000012 0.8399112748 0.0005623169 -0.0002660902 0.0001743576 0.0001264891 -0.0231360676 -0.1051960459
835294990.0 0.0915461648 0.8390812402 0.0005113554 -0.0001070071 0.0004957816 -0.0003728513 -0.0251158703 -0.1045083289
840294960.0 0.1001421276 0.8383665337 0.0003501061 -3.97199e-05 0.0004214283 -0.000160812 -0.0261974714 -0.1040476814
845294930.0 0.1084742879 0.8368943205 0.0004347695 -0.0002859884 0.0005176589 -0.000189395 -0.0276155196 -0.1034391455
850294900.0 0.116973452 0.8365171763 0.0005661545 1.96701e-05 0.0007007579 -0.0001401498 -0.0292224672 -0.102832083
