!Created with skrf (http://scikit-rf.org).
# Hz S RI R 50.0 
!freq ReS11 ImS11 ReS21 ImS21 ReS12 ImS12 ReS22 ImS22
300000.0 -0.7748042886 -0.1357898767 0.0005315328 0.0005623498 -0.0013661738 0.0009688682 -0.0476294672 -0.0683903693
5299970.0 -0.7852887631 -0.0071853599 0.0001395439 -2.52257e-05 -1.08087e-05 -0.0001506823 -0.0492282514 0.0145240222
10299940.0 -0.7879396057 -0.0042689893 -6.87884e-05 -0.0001157933 -2.39411e-05 6.62548e-05 -0.0440849099 0.0320562004
15299910.0 -0.7934619757 -0.0017289314 -2.41011e-05 -6.5472e-06 -6.13738e-05 -0.0001835844 -0.0355163175 0.0462482053
20299880.0 -0.7997874873 0.002332233 -0.0002377709 -1.10112e-05 2.49045e-05 -2.56892e-05 -0.0257440884 0.0582585259
25299850.0 -0.8065126942 0.0085459537 -2.61722e-05 0.000188283 6.504e-06 0.0001880041 -0.015286929 0.0677571465
30299820.0 -0.8120730755 0.0161211921 -0.0001826544 -9.33129e-05 9.11083e-05 4.60659e-05 -0.0040988703 0.0744437807
35299790.0 -0.8166341179 0.0252376829 0.0001290124 0.0001987671 3.745e-06 -4.72391e-05 0.0077756325 0.0794975855
40299760.0 -0.8211977955 0.0341936824 3.66539e-05 0.0001441804 0.0001028176 8.94758e-05 0.0187719247 0.082383044
45299730.0 -0.8250150692 0.0443035736 -9.47252e-05 0.0001025911 -0.0001235252 0.0001008281 0.0291269056 0.0839648272
50299700.0 -0.8269889647 0.0540335973 -7.71118e-05 -0.0001597284 7.67777e-05 0.0001779334 0.0395127118 0.0841167388
55299670.0 -0.8284370206 0.0643620188 1.41814e-05 6.74327e-05 0.000143761 0.0001006127 0.0482130097 0.0832033271
60299640.0 -0.8303025548 0.0744215099 -6.9728e-05 0.0001044193 7.04737e-05 4.01991e-05 0.0571507602 0.0815853617
65299610.0 -0.8312458933 0.0848085463 -2.88764e-05 0.0001732234 7.8261e-06 3.29261e-05 0.0646175419 0.0794062492
70299580.0 -0.8314768328 0.0948415342 -0.0001120146 0.0001214481 0.0001314511 0.0001040581 0.0719129021 0.0765321963
75299550.0 -0.8314806056 0.1045378951 3.98181e-05 -5.46214e-05 6.34304e-05 -3.97481e-05 0.0780829429 0.0735444256
80299520.0 -0.8312346171 0.1145180198 1.833e-07 -2.32863e-05 -8.14218e-05 0.0001135476 0.0834746071 0.0700696564
85299490.0 -0.8304632998 0.1239255737 -0.000192858 -3.91938e-05 -4.72503e-05 1.08953e-05 0.0887572012 0.066373392
90299460.0 -0.8298310048 0.1336247866 -1.78835e-05 0.0001490659 6.53263e-05 9.0378e-06 0.0934901404 0.062684493
95299430.0 -0.8288995694 0.1436655426 0.0001623882 0.0001971938 -0.0003445015 1.92821e-05 0.0975382045 0.0590706101
100299400.0 -0.8273944036 0.152880282 0.0002028309 -3.33138e-05 8.98311e-05 0.0001010192 0.1011719229 0.0553891517
105299370.0 -0.8264530336 0.1622993693 3.9437e-05 -4.46154e-05 1.17421e-05 8.8094e-06 0.1045407194 0.0515013677
110299340.0 -0.825056017 0.1712341427 5.98584e-05 0.0001257108 -1.34616e-05 0.0002215686 0.1071061138 0.0476715184
115299310.0 -0.8236629462 0.1804186116 0.0002404813 0.000152634 -3.53016e-05 3.73542e-05 0.1100192895 0.0433868246
120299280.0 -0.8215587385 0.1893445506 0.0002674647 -0.0002037895 -4.18704e-05 -3.90951e-05 0.112422667 0.0399569455
125299250.0 -0.8207131435 0.1987258412 1.62659e-05 -9.05603e-05 2.4056e-05 8.41152e-05 0.1142679997 0.0363278607
130299220.0 -0.8181607443 0.2079697767 -6.62959e-05 0.000127092 7.99692e-05 0.0001137729 0.1159747129 0.0325654991
135299190.0 -0.8165890088 0.2165467192 -1.37381e-05 3.67215e-05 0.0001283614 0.0001882399 0.1174149919 0.0290341525
140299160.0 -0.8147381766 0.2256780023 -0.0001330671 0.0001736126 0.0001726466 0.0001464168 0.1189907116 0.0252141274
145299130.0 -0.8121591878 0.2342912569 0.000170333 0.0001576239 -0.0001063522 -7.8516e-06 0.1195373879 0.0221891622
150299100.0 -0.8103293206 0.2428256562 4.94858e-05 0.0001539098 -5.48e-07 0.00024056 0.1208584525 0.0185436789
155299070.0 -0.8077078957 0.2525513707 0.0001218967 -0.0001272842 2.98468e-05 -1.13396e-05 0.121506799 0.0156315596
160299040.0 -0.8048303136 0.2611713617 -1.7617e-05 0.0001567319 0.0002154537 0.0002126174 0.1224927052 0.01211045
165299010.0 -0.8022469633 0.2690266209 0.0001231513 0.000226177 0.0002166814 0.0001554092 0.1231256783 0.0090571572
170298980.0 -0.7995691882 0.2780538065 3.97828e-05 -0.0002707194 0.0001594739 0.0001892044 0.1236748151 0.0061963545
175298950.0 -0.7971194939 0.2871369907 -1.92995e-05 8.35465e-05 -6.73099e-05 1.9181e-06 0.1235919439 0.0030047643
180298920.0 -0.7938503353 0.2948791327 0.0001384704 -2.08506e-05 0.000122028 -2.7862e-05 0.1243460139 -0.0002003953
185298890.0 -0.7905193733 0.3045251174 8.40725e-05 9.90191e-05 3.0609e-05 1.5546e-05 0.1239789412 -0.0030667832
190298860.0 -0.7874320567 0.3123403661 0.0001095208 2.9869e-06 0.0001350328 -1.91742e-05 0.1244101517 -0.0056062152
195298830.0 -0.7837842945 0.3207919097 -2.93398e-05 -6.59892e-05 -5.9583e-06 -5.11743e-05 0.1241003487 -0.0084568221
200298800.0 -0.780421527 0.3298385306 0.0001159989 0.0001793036 -4.3394e-05 0.0002095769 0.1248773184 -0.0114280435
205298770.0 -0.7774722304 0.337341404 -0.0002133831 3.86461e-05 -0.0001353605 1.84759e-05 0.1241555915 -0.0136313457
210298740.0 -0.7735416305 0.3454513633 5.79647e-05 0.0001136047 0.0001666168 0.0001183672 0.1240387212 -0.0164743549
215298710.0 -0.7706109465 0.3543937768 0.0001446898 1.06687e-05 0.0003148603 0.0002390299 0.1233523577 -0.0186030717
220298680.0 -0.7670092299 0.3622967449 5.23329e-05 -4.28137e-05 -9.15409e-05 0.0001963716 0.1235365896 -0.0209903256
225298650.0 -0.7624809668 0.3706891657 -0.000130918 0.0002549673 -0.0001061394 7.36115e-05 0.1228575481 -0.0230765457
230298620.0 -0.7587185527 0.3786563329 -0.0001555639 9.62417e-05 0.0002749891 0.0002461792 0.1229664943 -0.0258908444
235298590.0 -0.7546552272 0.3865658425 0.0003205592 0.0003142497 0.0001150572 0.0001375811 0.122253952 -0.027914595
240298560.0 -0.7506117694 0.3951795806 0.0001898612 0.0001100473 0.0001612537 0.0001862333 0.1218175194 -0.0298670226
245298530.0 -0.7460624116 0.402817222 6.22884e-05 -3.51738e-05 0.0002989069 9.63636e-05 0.1211698229 -0.0323646751
250298500.0 -0.7424627902 0.4105470217 6.38691e-05 0.0003001009 1.36482e-05 0.0002563734 0.1209264849 -0.0343030804
255298470.0 -0.7378071459 0.4184914438 5.21879e-05 0.0001057922 0.0003039382 0.000308949 0.1200781435 -0.0366634836
260298440.0 -0.7336688609 0.4256437133 0.0001303043 0.0002056019 0.0001652044 0.000117698 0.1195331619 -0.0384994842
265298410.0 -0.7292603204 0.4342166235 0.0002264997 9.48356e-05 -2.1236e-06 0.0001665667 0.1187905193 -0.040746037
270298380.0 -0.7242780782 0.4413073703 0.0001424429 4.90664e-05 0.0002864966 0.0001748356 0.1182803066 -0.0425847804
275298350.0 -0.7195467884 0.4489599386 2.3763e-06 0.0002399252 0.0001034528 0.0003893135 0.1178154229 -0.0442143925
280298320.0 -0.7147934174 0.4567328301 0.0001105528 0.0001638352 -7.61691e-05 0.0001628393 0.1169363742 -0.046287231
285298290.0 -0.7105036719 0.4646365339 0.0001797825 0.0001112965 0.0002235229 8.43796e-05 0.1159912676 -0.0482840306
290298260.0 -0.7051307809 0.4715822111 0.0001495826 0.0001379865 4.35214e-05 -1.20251e-05 0.1157087025 -0.04979653
295298230.0 -0.7003963019 0.4790322393 0.0002444896 -5.29861e-05 0.0002128525 0.0001530459 0.1146078302 -0.051718539
300298200.0 -0.6949530181 0.4862429829 0.0001959498 4.47781e-05 0.0003293029 7.87531e-05 0.1141172294 -0.0531133982
305298170.0 -0.6902073777 0.4939494738 0.0003287967 4.27717e-05 0.0003066268 0.0001826085 0.1137080675 -0.0550270283
310298140.0 -0.6847124673 0.5006361303 3.83524e-05 -9.83274e-05 0.000253683 0.0001258648 0.1125745693 -0.0563017413
315298110.0 -0.6796602927 0.508249875 0.0001510784 0.0001957577 0.0002095656 0.0002252793 0.1117486753 -0.0585343521
320298080.0 -0.6740643258 0.5156112574 7.1065e-05 0.000226697 0.0001650195 0.0001019842 0.111112214 -0.0603919485
325298050.0 -0.6683913324 0.5220212012 0.0001497295 0.0001766119 -1.43812e-05 0.0001107647 0.109911726 -0.0621307644
330298020.0 -0.6626223378 0.5289499481 0.0002138303 0.0002454233 0.0002702523 0.0001618483 0.1086673957 -0.0635209957
335297990.0 -0.6573005603 0.5362253751 0.000200824 9.8877e-05 0.0001851077 0.0002397933 0.1073644759 -0.0655668683
340297960.0 -0.6522355628 0.542522543 0.0002969153 0.0001602397 0.0001801994 -2.64421e-05 0.1064161551 -0.0670608392
345297930.0 -0.6465147026 0.5489850713 0.0002562911 4.00262e-05 9.51649e-05 3.0361e-05 0.1049990404 -0.0680548587
350297900.0 -0.6410264861 0.5559607627 0.000326309 0.0001032567 0.000381484 0.000121184 0.1039815683 -0.0693666544
355297870.0 -0.6345021611 0.5624018668 0.0002004628 -2.73549e-05 0.0002191745 0.0001228172 0.1026878542 -0.0705437946
360297840.0 -0.6284946093 0.568998954 0.0001841755 6.72244e-05 7.12655e-05 -1.5547e-06 0.1014115248 -0.071775071
365297810.0 -0.6224169117 0.5756431444 0.0002670818 0.0001572372 0.0001432667 0.0002863944 0.1003190049 -0.0731999544
370297780.0 -0.6158332244 0.5819836233 0.0002991349 0.0002483926 0.0001958832 0.0002313815 0.0992258079 -0.0743800917
375297750.0 -0.6104846878 0.5880228764 3.40177e-05 0.0002021124 0.0001113373 0.0001456648 0.0980492863 -0.0754673359
380297720.0 -0.6041221112 0.594741779 -7.90435e-05 -0.0001961264 0.0001336919 0.0002401501 0.0973007586 -0.0765916537
385297690.0 -0.5982068847 0.6009262722 0.0002922524 -5.8632e-06 0.0002865512 0.0002843925 0.0957178861 -0.0773079656
390297660.0 -0.5913131974 0.6072796257 0.0003163425 -0.0002444465 0.0002458385 4.58329e-05 0.0946011468 -0.0787957596
395297630.0 -0.5850359835 0.6128911747 0.0003431198 0.0003486791 0.0002822772 0.0001811696 0.0933680784 -0.079457446
400297600.0 -0.5793885391 0.6194924061 0.0002845213 0.0001352692 0.0002554676 0.0002321649 0.0920136305 -0.080672102
405297570.0 -0.5722646177 0.6252798505 0.0002452891 0.0001388638 0.0002901128 0.0001581326 0.0909380425 -0.081804082
410297540.0 -0.565689285 0.630653809 0.0001589133 0.0001450958 0.0002795966 0.0002070879 0.0891762352 -0.0824784594
415297510.0 -0.5594546197 0.6363659301 0.0002978403 0.0001873521 0.0002144671 7.78115e-05 0.0882528263 -0.0834713542
420297480.0 -0.5520400564 0.6423923183 0.0001877801 0.0001819597 0.0002094242 -0.0001334335 0.0869439945 -0.0848235791
425297450.0 -0.5455622049 0.6475429091 0.0001953597 0.0001722333 0.0001983744 0.000225724 0.086105775 -0.0857112701
430297420.0 -0.5393305632 0.6530519764 0.0003456972 0.0001944309 -0.0001061111 -7.21246e-05 0.0844133156 -0.0866334801
435297390.0 -0.5319346617 0.6589534347 0.0001796952 0.0002925208 0.0003859951 0.0001484873 0.0832803653 -0.0872763146
440297360.0 -0.5254561342 0.6641342283 0.0001365031 0.0001521346 0.0001424897 0.0002275542 0.0815654689 -0.0885204055
445297330.0 -0.5188214623 0.670195553 0.0003419691 4.69412e-05 0.0002008716 6.77909e-05 0.0805472741 -0.0891221871
450297300.0 -0.5108971685 0.6751205494 0.000217124 0.0002393789 0.0003185163 9.76484e-05 0.0789407735 -0.0899381432
455297270.0 -0.5041012879 0.680106669 0.0003581999 -1.27602e-05 0.0002192448 0.0001443507 0.0777543609 -0.0907271332
460297240.0 -0.4977494621 0.6851605337 0.0002968489 0.0002161615 0.0002566344 -6.17825e-05 0.0769456307 -0.0914465424
465297210.0 -0.4896261088 0.6905098443 0.0002423294 8.14776e-05 0.0001091663 0.0003246602 0.0748985909 -0.0921751299
470297180.0 -0.4824460344 0.69466673 0.000227846 0.0002018979 0.0002273411 0.0001669671 0.0734909397 -0.0929417992
475297150.0 -0.4761355564 0.7002483023 0.0004969677 1.83381e-05 0.0003757533 0.0001049226 0.0726930762 -0.0937643506
480297120.0 -0.4687280268 0.7046112889 0.0003598304 0.0002232514 0.0002702222 0.0001118796 0.0710822737 -0.0941850141
485297090.0 -0.4610976148 0.7092225712 0.0001685311 0.0001745427 0.0002104759 -2.80431e-05 0.0692644179 -0.0953041246
490297060.0 -0.4543312037 0.7140522949 0.0003271605 0.0002701471 0.0002196434 0.0001682692 0.0681406671 -0.0957885531
495297030.0 -0.4475380872 0.7189837973 0.0001210191 0.0001740622 0.0003774256 8.18254e-05 0.0670876067 -0.0964183938
500297000.0 -0.4388631365 0.7237507519 0.0003174599 -4.20915e-05 0.0002745137 0.0002475682 0.0651509557 -0.0970961316
505296970.0 -0.4312748668 0.7272398692 0.0002366199 2.43711e-05 0.0001479564 0.000211509 0.0636921858 -0.0975787015
510296940.0 -0.4244683227 0.7319448454 0.0002692362 -9.9064e-05 0.0002062729 -7.72839e-05 0.0625449608 -0.0982076384
515296910.0 -0.4171981848 0.7365706597 0.0001215153 0.0001633997 0.0002425377 0.0002304645 0.0609617789 -0.0983199066
520296880.0 -0.4087989761 0.7406326853 0.0002770599 7.63023e-05 0.0004156479 0.0001246101 0.0596200089 -0.0997594292
525296850.0 -0.402179124 0.7447159565 0.0003776107 -7.15109e-05 0.0003579686 9.71223e-05 0.0582626286 -0.1000867108
530296820.0 -0.3943806116 0.7481310919 1.91447e-05 0.0001518612 0.0002689329 4.09995e-05 0.0562551556 -0.1007545628
535296790.0 -0.3859181062 0.7520682226 0.0004160653 9.66445e-05 0.0002967077 0.000190594 0.0551821192 -0.1014433816
540296760.0 -0.3780146944 0.7561765345 0.0001600043 0.0001136305 0.0002947519 -6.4027e-05 0.0538337018 -0.1013571949
545296730.0 -0.3707900857 0.7597930364 0.0003753088 0.00015062 0.0003515336 4.6057e-05 0.0521348868 -0.1024392504
550296700.0 -0.3629930019 0.764089361 0.0002633012 9.96359e-05 0.0003443485 0.000146512 0.050876122 -0.102611931
555296670.0 -0.3543840815 0.7667553721 0.0002180865 3.47107e-05 0.0003002574 5.77009e-05 0.0493687942 -0.102962728
560296640.0 -0.3467428112 0.7707866503 0.0004489147 -8.55274e-05 0.0003138176 0.0002505798 0.0479736648 -0.1032425059
565296610.0 -0.3396693387 0.7736416843 0.0003307808 6.31187e-05 0.0003679303 -0.0002186156 0.0464809486 -0.1037848265
570296580.0 -0.3311928656 0.7774277621 3.83817e-05 -0.000108043 0.0002256157 0.0003068595 0.0449255686 -0.1038078785
575296550.0 -0.3236309926 0.7803186048 0.0001072042 -4.21001e-05 0.0001463198 -5.44783e-05 0.0435111162 -0.1046505673
580296520.0 -0.3160241589 0.7838415892 0.0003182518 -3.80822e-05 0.0003227198 1.16237e-05 0.0419593988 -0.1046562543
585296490.0 -0.3078326172 0.7868197029 0.0002015223 0.0001656915 0.0003916764 0.0001047584 0.0403222837 -0.1055849292
590296460.0 -0.2997503314 0.7895274646 0.0004636192 0.0001897737 0.0003413777 -0.0001109494 0.0393729997 -0.1055848115
595296430.0 -0.291696165 0.7935712633 0.0004334662 2.63611e-05 0.0001709517 0.0001481172 0.0375535992 -0.1057628687
600296400.0 -0.2835077428 0.795903955 0.0003094831 0.0001500086 0.0002996252 5.0692e-05 0.0361993734 -0.1062384696
605296370.0 -0.2750701833 0.7988050197 0.0003168879 -6.69211e-05 0.000622826 7.5373e-05 0.0347791213 -0.1061003742
610296340.0 -0.2672415183 0.801441331 0.0003279861 -0.0001144778 0.000219122 -8.2587e-05 0.0332374864 -0.1063077315
615296310.0 -0.2599382184 0.8040812953 0.0002407868 0.0001361069 0.0003284008 -6.09746e-05 0.0319315676 -0.1069487367
620296280.0 -0.2509209315 0.805865141 0.0004234 -1.01216e-05 0.0005108459 0.0001206415 0.0301993147 -0.1073346258
625296250.0 -0.2425268161 0.80952237 0.0003552224 2.42385e-05 0.0003551054 -1.2214e-06 0.0286373239 -0.1069189393
630296220.0 -0.2341083469 0.8118815575 0.0005743344 6.74644e-05 0.0003618422 0.0001410943 0.0274700975 -0.1071935956
635296190.0 -0.2264620628 0.8140582627 0.0004602497 0.0001004633 0.0003392762 0.0001315264 0.0258791915 -0.1073153421
640296160.0 -0.2178619382 0.8153786302 0.0005071521 0.0003556494 0.0003436198 0.0001079329 0.0245162027 -0.1078140655
645296130.0 -0.2099072947 0.818039476 0.0004446788 0.0001870494 0.0003795466 -6.17445e-05 0.0227909835 -0.1076300326
650296100.0 -0.2011757942 0.8199491944 0.0002866327 7.71205e-05 0.0002498931 3.0024e-06 0.0214620052 -0.1076622776
655296070.0 -0.1927841303 0.8220578605 0.0002667403 0.0002654587 0.0003823502 1.68804e-05 0.0198125724 -0.1078751851
660296040.0 -0.1851785993 0.8240907887 0.0002192322 8.60818e-05 0.0001175354 0.0002842051 0.0184520238 -0.1076474339
665296010.0 -0.1765406864 0.8259536879 0.0002610021 -7.0477e-05 0.0005831922 -0.000106669 0.017026902 -0.1075186151
670295980.0 -0.1679064444 0.827376224 0.0005406372 -0.0001568922 0.0002507171 -3.76424e-05 0.0154915718 -0.107755671
675295950.0 -0.1600790769 0.8284035151 0.0001634307 -1.0531e-05 0.0004291551 -3.69848e-05 0.0139108688 -0.1076900237
680295920.0 -0.1517442996 0.8302140125 0.0003032579 7.64649e-05 0.0005267432 5.66963e-05 0.0126385662 -0.107934492
685295890.0 -0.1431544593 0.8318867388 0.0002909657 -7.32234e-05 0.0003588296 -0.0001457687 0.0112486865 -0.1076578059
690295860.0 -0.1344560415 0.8334667053 0.0003357214 2.57372e-05 0.0004025927 -8.45003e-05 0.0099056976 -0.1076209286
695295830.0 -0.1260590152 0.833974333 0.0004014069 0.0001607325 0.0004531291 -9.64998e-05 0.0080167027 -0.1074874543
700295800.0 -0.1179686427 0.8353295419 0.0002956901 -2.60579e-05 0.0002841062 0.0001181707 0.0069524753 -0.1076528437
705295770.0 -0.1088331913 0.837185536 0.0005207435 -8.03796e-05 0.0002964256 4.15507e-05 0.005442799 -0.1073866281
710295740.0 -0.10128943 0.838015507 0.0003500107 -0.0002665105 0.0001168326 -5.94981e-05 0.0034576143 -0.1068076469
715295710.0 -0.093245526 0.8391256297 0.0005794388 -3.97776e-05 0.0003202624 -0.0001288292 0.0022489067 -0.1067358256
720295680.0 -0.0841313939 0.8398920678 0.0002248812 0.0001124576 0.0005098592 7.44382e-05 0.0011990941 -0.1065455898
725295650.0 -0.0749690851 0.841122131 0.0004717522 0.0001122607 0.0002158253 -0.0001058704 -0.0002144529 -0.1066630184
730295620.0 -0.0672583761 0.8413032837 0.00034272 -3.45928e-05 0.0004613669 1.52e-07 -0.0016301868 -0.1064020356
735295590.0 -0.0579021368 0.8417520539 0.0005380691 -0.0002420212 0.0003932362 -4.92795e-05 -0.0030960727 -0.1060745205
740295560.0 -0.0500049028 0.8427164697 0.0007647598 -6.60486e-05 0.0001220542 3.43434e-05 -0.0046126253 -0.1059256398
745295530.0 -0.0416424981 0.8421695444 0.0005480704 -8.38505e-05 0.0004941525 -0.0001084619 -0.0062810742 -0.1053330214
750295500.0 -0.0340164639 0.8428207325 0.0002309644 -0.0002307409 0.0004536942 4.64275e-05 -0.0073100804 -0.1052857727
755295470.0 -0.0244441772 0.8436664452 0.0003186078 2.88899e-05 0.0003035516 -0.0001627356 -0.0088818708 -0.1047852941
760295440.0 -0.0162428997 0.8432898704 0.0004378111 -8.40661e-05 0.0003950236 2.9846e-05 -0.0105307678 -0.1046098636
765295410.0 -0.0077641972 0.8441673283 0.0001290782 -2.58283e-05 0.0001870242 1.10378e-05 -0.0113335389 -0.1038916302
770295380.0 0.0008477205 0.8438425833 0.0005526237 -0.0002656334 0.0004715419 -0.0001586917 -0.0127153509 -0.1037501503
775295350.0 0.0086336322 0.8434776281 0.000485574 -9.16762e-05 0.0003731888 -4.5342e-06 -0.0146681925 -0.1037485514
780295320.0 0.0176214077 0.8432294341 0.0004449044 -0.0003630566 0.0004284567 -8.21073e-05 -0.0158548953 -0.1025580134
785295290.0 0.026030095 0.8435037876 0.0003458142 -0.0001070359 0.0005833022 -8.3171e-06 -0.017420815 -0.1024977426
790295260.0 0.0344826283 0.8430358352 0.0002608446 -0.0001334586 0.0004448393 -5.48464e-05 -0.0184104426 -0.1019751315
795295230.0 0.0427502076 0.8432892556 0.0002733083 -8.45395e-05 0.0002334551 6.18598e-05 -0.0200329819 -0.1014663791
800295200.0 0.0515078372 0.8425416504 0.0006124589 -0.0003350499 0.0003767904 1.09745e-05 -0.0212075607 -0.1010324976
805295170.0 0.0595347531 0.8419943913 0.0004910901 -4.35305e-05 0.0003369953 -0.0001832997 -0.0228975847 -0.100744574
810295140.0 0.0680096331 0.8408463089 0.0003217101 4.78635e-05 0.0004729135 -7.88961e-05 -0.0236064943 -0.0998451329
815295110.0 0.0769625305 0.8402208308 0.0004865278 -0.0002586609 0.0004911032 -0.0001824041 -0.0253245189 -0.0993446315
820295080.0 0.0852768071 0.8385005251 0.0001918556 -8.92703e-05 0.0003976062 -6.90342e-05 -0.0268939102 -0.0991655075
825295050.0 0.0938903089 0.8381095306 0.0002063327 -0.0001494857 0.0005559146 -8.93768e-05 -0.027533593 -0.0983949892
830295020.0 0.1021924278 0.8380042195 0.0003999521 2.63186e-05 0.0005686743 -1.26909e-05 -0.0293008222 -0.0979825142
835294990.0 0.1099630838 0.837080468 0.0004851179 6.476e-06 0.0003340047 -0.0001362275 -0.0302896403 -0.0974312345
840294960.0 0.1183726866 0.8349923593 0.0003335956 -0.0001400289 0.0004504985 -0.0001476348 -0.0317898896 -0.0962346595
845294930.0 0.1272536573 0.8339296896 0.0004831214 -0.0001443052 0.0003530572 -3.50772e-05 -0.0329781239 -0.096032551
