!Created with skrf (http://scikit-rf.org).
# Hz S RI R 50.0 
!freq ReS11 ImS11 ReS21 ImS21 ReS12 ImS12 ReS22 ImS22
300000.0 0.8603722154 -0.0017803667 -0.0006421803 -0.0004537156 0.0004062855 0.0006979321 -0.7662079685 -0.1726770144
5299970.0 0.8594574998 -0.0100617371 8.18031e-05 -7.25079e-05 1.22368e-05 5.75038e-05 -0.7844718809 -0.0083567242
10299940.0 0.858862117 -0.0190736446 5.7001e-06 -1.5821e-05 -0.0001546205 -8.7422e-06 -0.7882986062 -0.0052384162
15299910.0 0.8577752861 -0.0273901763 0.0002832718 1.52437e-05 -8.91461e-05 5.31628e-05 -0.7933466899 -0.0032095648
20299880.0 0.857242432 -0.0357999335 -0.0002177794 4.88354e-05 -0.0001510147 -2.78384e-05 -0.8001782915 0.0019517991
25299850.0 0.8569156683 -0.0437408563 9.37492e-05 5.6852e-06 -9.67686e-05 -0.0001387914 -0.8066111536 0.0075693757
30299820.0 0.855869127 -0.0521797705 -7.60353e-05 -1.96535e-05 -5.28e-06 6.27037e-05 -0.8124528939 0.0151379026
35299790.0 0.8551536563 -0.0598886912 -9.81851e-05 5.75282e-05 -7.56115e-05 0.000189367 -0.8175645667 0.0242764683
40299760.0 0.8541208599 -0.068279021 0.0002339539 4.8194e-06 0.0001420159 2.28001e-05 -0.8217635974 0.0329278452
45299730.0 0.8533993162 -0.0765906305 -3.32107e-05 -0.0001280748 -0.0001134624 3.61098e-05 -0.8249216753 0.0423458428
50299700.0 0.8525151316 -0.0852100396 0.0001894403 7.66906e-05 -3.42742e-05 -2.29463e-05 -0.8273370255 0.0524162934
55299670.0 0.8518941826 -0.0930354314 1.92266e-05 -5.6493e-05 -1.33578e-05 -3.02266e-05 -0.8294805853 0.0628700181
60299640.0 0.8508233825 -0.1012868642 -9.43853e-05 -0.0001090891 0.000100203 -0.0001769378 -0.830893678 0.0727719846
65299610.0 0.8501348951 -0.1089202943 4.1727e-05 -9.4679e-05 -3.8516e-06 -0.000231694 -0.8311907989 0.0829192736
70299580.0 0.8491880062 -0.1178017207 -0.0001135634 6.57501e-05 -3.8957e-06 -0.0001204449 -0.832236398 0.0927777661
75299550.0 0.8473491121 -0.1261785725 0.0001102605 4.18216e-05 0.0002129139 -6.49732e-05 -0.8323843099 0.102386069
80299520.0 0.8461326809 -0.1341877558 7.26969e-05 3.88952e-05 -0.0001085408 2.20205e-05 -0.831783885 0.1125247282
85299490.0 0.8449087492 -0.1426232951 0.0003640476 -7.80891e-05 -6.60768e-05 5.6278e-06 -0.831874321 0.1220884454
90299460.0 0.8430883839 -0.1502507002 -5.16396e-05 5.44575e-05 0.0001230686 -0.0001107293 -0.8308083087 0.1313437092
95299430.0 0.8416094033 -0.1587542163 0.000139847 -6.6467e-06 -6.49483e-05 -3.41574e-05 -0.8298646019 0.1412583461
100299400.0 0.8396841297 -0.1664342898 -3.14799e-05 0.0001844048 0.0001656337 -6.45238e-05 -0.8285867168 0.1499420808
105299370.0 0.8383545042 -0.1750349419 0.0001050051 -0.0001092481 -2.90526e-05 -1.81382e-05 -0.8272713916 0.1589793363
110299340.0 0.8363598425 -0.1831813816 0.0002019308 -5.3458e-05 1.26908e-05 1.51415e-05 -0.8267544957 0.1679805014
115299310.0 0.8347956756 -0.1924436186 9.14661e-05 0.0001517291 0.0001244505 -1.71624e-05 -0.8249658345 0.1770874504
120299280.0 0.8325146226 -0.1995358778 1.85768e-05 1.60306e-05 -0.0001817187 4.9708e-06 -0.8237803919 0.1862302971
125299250.0 0.8304920291 -0.2075723648 1.43509e-05 -2.96461e-05 -0.000150325 0.0001315515 -0.8220531338 0.1956124428
130299220.0 0.8288013011 -0.2158203935 0.0001794386 4.22506e-05 -4.99205e-05 -1.79623e-05 -0.8199548994 0.2038934715
135299190.0 0.826167084 -0.2232946612 -8.04764e-05 -8.89856e-05 -1.0965e-06 0.0001538981 -0.8181723082 0.2128000725
140299160.0 0.8246240408 -0.2316882457 -4.08161e-05 -2.72149e-05 1.15046e-05 6.71375e-05 -0.8159984491 0.2211280477
145299130.0 0.8218306114 -0.2395357777 -0.0001997957 -4.67738e-05 -6.36202e-05 2.37743e-05 -0.8139832581 0.2299698876
150299100.0 0.8200514161 -0.2474556385 -0.0001367595 -7.17772e-05 7.3901e-06 4.60134e-05 -0.8113388814 0.2386394742
155299070.0 0.8168549003 -0.2558070418 9.9499e-06 -7.3848e-06 -9.77947e-05 5.55822e-05 -0.8096705564 0.2477967454
160299040.0 0.8143197614 -0.2636223333 -8.11272e-05 -0.000129121 7.80404e-05 0.0001236856 -0.807054379 0.2563539504
165299010.0 0.8119772097 -0.2709871346 0.0001181907 -0.0002670087 0.0001898277 -0.0001344636 -0.8043996669 0.2648943726
170298980.0 0.8091516604 -0.2795894787 -8.80718e-05 -0.0001425504 1.15371e-05 -0.0002141279 -0.801915732 0.273706472
175298950.0 0.8063334455 -0.2865669688 -3.86813e-05 0.0001334717 1.75688e-05 -7.186e-07 -0.7989499122 0.2824673826
180298920.0 0.8037330046 -0.2948413819 7.75222e-05 0.0002000426 2.87356e-05 -2.4674e-06 -0.7958149903 0.2905069993
185298890.0 0.7999255566 -0.3028671852 6.08828e-05 -5.28448e-05 -8.15893e-05 0.0002772884 -0.7930011267 0.2985122648
190298860.0 0.7978457315 -0.3102565387 -4.39211e-05 -2.20197e-05 -0.000221491 -0.0001050776 -0.7895606882 0.3076861273
195298830.0 0.7945655234 -0.3186864146 -1.62731e-05 -0.0001442129 2.87567e-05 -1.19125e-05 -0.7865170141 0.3157120218
200298800.0 0.7907118438 -0.3263685715 -6.89594e-05 5.62639e-05 5.69426e-05 0.0001745793 -0.7832659707 0.324540407
205298770.0 0.7884565482 -0.3341055354 -4.77272e-05 -5.2076e-05 -0.0001036833 -2.6901e-06 -0.7797427184 0.3320641269
210298740.0 0.7850689063 -0.3409872688 4.37e-06 0.0001293853 0.0001654298 6.81966e-05 -0.7769444757 0.3404813789
215298710.0 0.7816785767 -0.3484663333 -8.71692e-05 -5.50166e-05 -6.38644e-05 -3.6955e-06 -0.7736709863 0.3486254399
220298680.0 0.778170583 -0.3567995427 5.26935e-05 7.37698e-05 -0.0001372476 -0.0001903719 -0.7693434494 0.3569491098
225298650.0 0.7741907989 -0.3637554265 -0.0003215016 -0.0001792813 5.84794e-05 -6.6416e-06 -0.7660550675 0.3648299209
230298620.0 0.7707523774 -0.3714150993 -5.90449e-05 2.21745e-05 -0.0001653742 -0.0002078912 -0.7617560962 0.3728383072
235298590.0 0.7671818921 -0.3790638638 0.0002160253 0.0001719472 -0.0001000183 0.0001465214 -0.7575825285 0.3805659723
240298560.0 0.7633212495 -0.387223877 0.0002505714 -0.0001647434 -2.5615e-05 2.24778e-05 -0.7542030694 0.3883556773
245298530.0 0.7596519819 -0.3937408326 -1.46577e-05 -4.4494e-05 4.22742e-05 -6.87841e-05 -0.7496794164 0.3966888254
250298500.0 0.7559406708 -0.4013853926 0.0001272542 -0.0001659932 -6.0079e-05 -1.32727e-05 -0.7458422545 0.4048460879
255298470.0 0.7518760255 -0.4086790994 0.0001220894 0.0003130221 -2.87375e-05 5.23951e-05 -0.7410113702 0.4127216736
260298440.0 0.7477166558 -0.4149359995 5.222e-06 0.0001125208 6.4344e-06 -1.03775e-05 -0.7361105365 0.4198665405
265298410.0 0.7440710108 -0.4228803747 -9.44763e-05 0.0001424977 -5.60875e-05 7.4714e-05 -0.7324880104 0.4277498218
270298380.0 0.739918468 -0.4295299461 0.000119578 -2.38622e-05 0.0001350683 -8.67981e-05 -0.7272848604 0.4352338754
275298350.0 0.7359766245 -0.437335054 5.16926e-05 0.0002341812 0.0001605609 -8.9291e-05 -0.7224181767 0.4432050568
280298320.0 0.7318270384 -0.4446917137 -8.20441e-05 0.0002323337 -3.93026e-05 -4.79648e-05 -0.7181994405 0.4500795926
285298290.0 0.7269585623 -0.4518881058 -0.0001434195 1.94567e-05 6.59824e-05 8.76943e-05 -0.7134745181 0.4574920529
290298260.0 0.723328152 -0.4586911349 -9.40441e-05 0.0001530039 -6.32914e-05 -3.42002e-05 -0.7085112801 0.4661009087
295298230.0 0.7183393269 -0.4660983422 0.0002090382 -1.40687e-05 5.79417e-05 -3.1622e-06 -0.7034873134 0.47321695
300298200.0 0.7144973372 -0.4738401397 -6.83128e-05 -1.42021e-05 0.0002519426 7.19406e-05 -0.6985958663 0.4805021858
305298170.0 0.7105364724 -0.4800050615 0.0001554335 4.995e-05 -8.208e-05 6.23158e-05 -0.6931672358 0.4880288427
310298140.0 0.7060881547 -0.4882261276 -9.20884e-05 3.17155e-05 -8.15252e-05 1.53249e-05 -0.6891053547 0.4951099746
315298110.0 0.7002431884 -0.496347485 4.28347e-05 0.00015738 -4.668e-05 -8.40958e-05 -0.6833667595 0.5016930682
320298080.0 0.6946938619 -0.5023201119 0.0001191993 0.0001129591 4.96507e-05 -0.0003590969 -0.6775389818 0.5097232662
325298050.0 0.6892756226 -0.5101583264 -5.8665e-05 -5.42875e-05 2.68385e-05 -0.0001115205 -0.6722038324 0.5160394146
330298020.0 0.6835815137 -0.5167074835 -3.26047e-05 8.13749e-05 0.0001257405 0.0002151369 -0.6665174445 0.5236586672
335297990.0 0.6777324228 -0.5231846304 -0.0001098282 7.4612e-06 -0.0001435019 -0.0001743333 -0.661035605 0.5302819547
340297960.0 0.672907245 -0.5294322591 0.0001338492 0.0001353513 -0.0002425144 -2.18245e-05 -0.6552232795 0.537660964
345297930.0 0.6666839959 -0.535701186 0.0001995083 6.50692e-05 -4.8002e-06 -0.0001346393 -0.6494680036 0.544179171
350297900.0 0.6616638125 -0.5420348048 0.000105812 -0.0002057716 0.0001049717 -8.66891e-05 -0.6442358333 0.5513785396
355297870.0 0.6558972158 -0.5485751186 -4.95007e-05 0.0001501148 4.35064e-05 -1.8049e-05 -0.6379997036 0.5572688126
360297840.0 0.6508528446 -0.5542711099 -4.29691e-05 -0.0001236087 -0.0001103775 0.0001270955 -0.6319449576 0.56406071
365297810.0 0.6454028544 -0.5607606841 4.30556e-05 -6.36917e-05 8.67205e-05 -0.0002036934 -0.6265102366 0.5706613591
370297780.0 0.6400122179 -0.5663578903 -0.0002003739 0.0001695595 -6.78487e-05 -4.06564e-05 -0.6201173942 0.5769911622
375297750.0 0.6332069318 -0.5721123865 -6.01741e-05 3.08528e-05 0.0001326708 0.0001539299 -0.614069326 0.583354921
380297720.0 0.628948771 -0.5785358208 -3.3718e-05 -9.29767e-05 2.18603e-05 1.0673e-05 -0.6074775829 0.5905263131
385297690.0 0.6222144185 -0.5845132696 8.81478e-05 4.5134e-05 0.0001030096 7.89259e-05 -0.6017996428 0.5958837778
390297660.0 0.6168234279 -0.5901189616 -5.06899e-05 8.18922e-05 0.0002489125 7.71651e-05 -0.5956549225 0.6017552396
395297630.0 0.6109574626 -0.5963169077 -0.0001032519 6.82618e-05 3.61803e-05 4.42861e-05 -0.5893364294 0.6083533883
400297600.0 0.6050794877 -0.6018426529 1.69336e-05 1.50093e-05 -2.61717e-05 0.0001485449 -0.5827702939 0.6139774841
405297570.0 0.5992328959 -0.6083099125 3.25127e-05 5.68498e-05 -0.0001872814 -0.000132487 -0.577360004 0.6200539039
410297540.0 0.5931323916 -0.6135581092 -0.000130251 0.0001128187 -9.41591e-05 0.0002213391 -0.5697493084 0.6256678958
415297510.0 0.5869964368 -0.6193346057 -0.0001630561 -0.0001376887 7.1428e-05 -3.8089e-06 -0.5633747251 0.6320948647
420297480.0 0.5803921741 -0.6253542682 3.68747e-05 8.94515e-05 6.06336e-05 2.91458e-05 -0.556702638 0.6366536511
425297450.0 0.5745594961 -0.6305500467 0.0001169214 -0.0001609032 3.78902e-05 1.97099e-05 -0.5502420759 0.6434957947
430297420.0 0.5685396756 -0.6361085793 6.3285e-06 -4.34802e-05 8.17101e-05 7.7514e-05 -0.5440706363 0.6485822952
435297390.0 0.5625004473 -0.6410065747 -2.5172e-06 -0.0001018316 -5.01317e-05 -0.0001048975 -0.5367066256 0.6542382207
440297360.0 0.5562140578 -0.6470764675 9.66775e-05 0.0001148286 0.0001367902 -1.96874e-05 -0.5299183503 0.6591175287
445297330.0 0.5497418575 -0.6520943003 3.06531e-05 1.0445e-05 5.2739e-05 -4.66425e-05 -0.5237887698 0.6644574724
450297300.0 0.5429908998 -0.6579886088 4.60171e-05 -4.07049e-05 -9.97561e-05 -1.47312e-05 -0.5172264523 0.6698511829
455297270.0 0.5362536771 -0.6623661771 2.22627e-05 -5.286e-06 0.0001056609 0.0001060484 -0.5098291084 0.6755167559
460297240.0 0.5297952637 -0.6679742763 -1.78632e-05 -3.517e-07 -0.0001407653 6.23711e-05 -0.5026292726 0.6804022829
465297210.0 0.5235559257 -0.6729560435 0.0001252871 -0.0002449279 -2.9901e-05 -0.0001329862 -0.4959811124 0.6854111027
470297180.0 0.5167126531 -0.678031208 -0.0001737707 -3.46324e-05 -0.0002171392 0.0001156556 -0.4893305336 0.6896229782
475297150.0 0.5096905286 -0.6828253877 3.75719e-05 7.14727e-05 -0.0001586395 8.80901e-05 -0.4820303692 0.6944481829
480297120.0 0.5035359315 -0.6874896115 -4.17774e-05 5.70875e-05 -0.0001047006 0.0002310417 -0.475115629 0.700160599
485297090.0 0.4961474094 -0.6923431574 -7.42689e-05 8.66621e-05 0.000196312 8.72991e-05 -0.4676351726 0.704028813
490297060.0 0.4894996428 -0.697195525 2.61675e-05 -1.1597e-05 4.27114e-05 -5.84223e-05 -0.4610352325 0.7087919383
495297030.0 0.4825528329 -0.7022855356 1.408e-05 0.0002168575 -7.48271e-05 -0.0002316143 -0.4529633923 0.7129448116
500297000.0 0.4761046058 -0.7068181107 -6.86279e-05 9.98973e-05 -4.85934e-05 -5.32277e-05 -0.4466059948 0.7179295204
505296970.0 0.4684171064 -0.7113076719 -0.0002153729 -2.63194e-05 0.0001453801 -6.93747e-05 -0.4399489394 0.7219370089
510296940.0 0.4616398268 -0.7154336289 0.0001342559 0.0001171758 -1.4246e-05 4.26495e-05 -0.4319511897 0.7264406431
515296910.0 0.4542667183 -0.7204468861 7.12788e-05 0.000114636 -8.95263e-05 -0.0001229593 -0.4245653978 0.7309010289
520296880.0 0.4476190469 -0.7242632234 -5.95539e-05 5.38568e-05 2.0603e-06 0.0002362855 -0.417167845 0.734524593
525296850.0 0.4402710129 -0.7291411891 -0.0001577178 -3.4136e-05 -8.4087e-06 -5.69408e-05 -0.4095080042 0.7391926443
530296820.0 0.4328730497 -0.7331068377 0.0001121991 7.39723e-05 1.13794e-05 0.0001294235 -0.4028125057 0.742948149
535296790.0 0.4257149399 -0.7365960688 -0.0001065609 0.0001331084 -4.45957e-05 -5.02414e-05 -0.3951511952 0.7463547692
540296760.0 0.4186371668 -0.7413302516 0.0001440825 5.07716e-05 -1.88216e-05 7.85553e-05 -0.3881015588 0.7509821196
545296730.0 0.4109312186 -0.7443859168 6.29918e-05 0.0001543747 -6.91827e-05 2.67862e-05 -0.3803597859 0.7537512872
550296700.0 0.4039516978 -0.749101046 8.75915e-05 -0.0001599654 2.34617e-05 -4.79513e-05 -0.3729124354 0.7581819509
555296670.0 0.3962511056 -0.7528849969 0.0001821783 -0.0001706439 -0.0001266881 -6.5176e-05 -0.3656297704 0.7615241595
560296640.0 0.3894280229 -0.7571734084 -0.0001270473 -0.0001811509 -6.14774e-05 -5.33963e-05 -0.3573962609 0.7653583
565296610.0 0.3817506155 -0.7605456035 -7.85757e-05 4.2541e-05 -0.0001315782 8.41004e-05 -0.349948439 0.7684757314
570296580.0 0.3739228372 -0.7642351482 0.0001302849 6.8472e-05 1.25705e-05 -0.0001624792 -0.3425931834 0.7725095474
575296550.0 0.3669542007 -0.7669460488 6.9793e-06 8.20778e-05 -2.4428e-06 0.000103116 -0.3348480451 0.775451276
580296520.0 0.3596390882 -0.7705781825 8.88177e-05 -0.0001196417 0.0002048921 1.95914e-05 -0.3271538982 0.7792624459
585296490.0 0.3508428921 -0.7742069429 0.000222272 0.000227029 -9.28249e-05 8.84233e-05 -0.3194241763 0.7814689642
590296460.0 0.3432833533 -0.7778424531 -0.0002678648 0.0002181595 0.0001000934 -8.88204e-05 -0.3111979675 0.7848718163
595296430.0 0.3358432645 -0.7803324164 -3.97781e-05 0.0001288463 -0.0003282926 -0.0001084659 -0.3036261811 0.7872329213
600296400.0 0.3281193848 -0.7836714495 3.12644e-05 -5.29461e-05 4.93427e-05 3.47145e-05 -0.2956083181 0.7911177123
605296370.0 0.3205398577 -0.7867246837 0.000192043 -7.92405e-05 -8.79586e-05 -0.0002253542 -0.2878724357 0.7940351266
610296340.0 0.3129626751 -0.7901111988 -8.31939e-05 3.4878e-06 4.5478e-06 -4.16521e-05 -0.2797567247 0.7968648425
615296310.0 0.3042937133 -0.792688663 -3.20682e-05 3.68903e-05 2.0934e-05 2.16543e-05 -0.2718170328 0.7993882659
620296280.0 0.2968038309 -0.7956942623 6.12829e-05 4.99565e-05 -6.38476e-05 0.000133843 -0.264055302 0.801799698
625296250.0 0.2895567719 -0.7984037268 -4.72689e-05 9.22163e-05 -3.11815e-05 5.27134e-05 -0.2561546567 0.8046785404
630296220.0 0.2815567073 -0.8014844552 5.49075e-05 5.39645e-05 0.0001999402 -1.64555e-05 -0.248235047 0.8072490638
635296190.0 0.273116393 -0.8045566633 0.0001097729 7.29121e-05 -3.78542e-05 8.92564e-05 -0.2405176923 0.8092406786
640296160.0 0.2657808748 -0.8057401083 2.89232e-05 -0.0001830719 0.000131884 -3.47995e-05 -0.23212004 0.8118189963
645296130.0 0.2572807074 -0.8089433753 4.4166e-05 -5.73584e-05 2.87017e-05 -5.86144e-05 -0.2244631462 0.814051484
650296100.0 0.249606513 -0.8109031629 -0.0001540826 -3.50972e-05 0.0001550015 -8.8532e-05 -0.2164297591 0.8162939959
655296070.0 0.2418581811 -0.8134229003 -0.000168483 -0.0001691163 0.000230056 0.0001279201 -0.2084072488 0.8181198914
660296040.0 0.233019375 -0.8155621825 -3.14881e-05 -0.0001056976 9.4406e-06 1.01331e-05 -0.199976633 0.8198227468
665296010.0 0.2248804551 -0.8175771398 -0.0003124724 7.39174e-05 0.0001032492 -0.000117777 -0.1920413298 0.8222583398
670295980.0 0.217581208 -0.8203991284 4.51642e-05 -8.98401e-05 0.000186571 -3.54014e-05 -0.1849351652 0.823880492
675295950.0 0.2092465886 -0.8214065442 -0.0002559783 8.83937e-05 -0.0001361717 -8.35347e-05 -0.1758398968 0.8260549609
680295920.0 0.2005348582 -0.8238614471 -0.0002025377 -0.0001646618 6.68417e-05 1.70813e-05 -0.1676436211 0.8280317235
685295890.0 0.1923472395 -0.8248818201 -0.0001631417 1.28141e-05 4.5537e-06 -8.72768e-05 -0.1592406479 0.8295663954
690295860.0 0.1851939717 -0.8272096531 -3.74634e-05 9.94188e-05 -4.01014e-05 6.44831e-05 -0.1512816285 0.830570114
695295830.0 0.1764622409 -0.8291923714 -9.72856e-05 5.50444e-05 7.57102e-05 -6.02061e-05 -0.142876878 0.8323937972
700295800.0 0.1681731492 -0.8305279683 0.0001679865 -2.6961e-05 -2.29868e-05 0.0001547434 -0.1344602175 0.8334422907
705295770.0 0.1603815474 -0.8320988651 -2.75298e-05 0.0001069459 -0.0001078027 9.8365e-06 -0.127310952 0.8353063661
710295740.0 0.1515970722 -0.8334574227 9.29867e-05 0.0001209225 8.05017e-05 3.28752e-05 -0.1188819561 0.8367316576
715295710.0 0.1434179248 -0.8345481036 0.0001218651 0.0001089624 -0.0001505816 3.13889e-05 -0.1102687746 0.8375225531
720295680.0 0.1358869796 -0.836208243 0.0001186187 -0.0001594359 7.2649e-05 6.68992e-05 -0.1020192635 0.8385832492
725295650.0 0.1275268175 -0.8368085559 6.50616e-05 -0.0001815555 0.0002289315 -6.4122e-05 -0.0939166196 0.8399554327
730295620.0 0.1190607902 -0.8387913984 3.94468e-05 -2.5661e-06 -6.07757e-05 6.50292e-05 -0.0852632243 0.8404069096
735295590.0 0.1109730749 -0.8389844316 0.0001825038 -3.43237e-05 0.0001370125 -2.13261e-05 -0.076489843 0.8411247352
740295560.0 0.1026623003 -0.8404803917 0.0001977518 9.76407e-05 3.7096e-05 1.3916e-06 -0.0686642578 0.8410301053
745295530.0 0.0945640542 -0.8414701748 -4.38479e-05 -0.0001544216 -1.62986e-05 -6.04108e-05 -0.060355298 0.842302248
750295500.0 0.0856131109 -0.8416677646 0.0001088912 -0.0001932617 -2.05132e-05 -5.36153e-05 -0.0519262892 0.8426427769
755295470.0 0.0769443817 -0.842851306 0.0001259902 -6.69662e-05 -4.29932e-05 -6.75037e-05 -0.0442985233 0.8438551142
760295440.0 0.0690428525 -0.8422254186 -6.90722e-05 -4.58371e-05 -1.98765e-05 0.0001822016 -0.0362788979 0.8436525435
765295410.0 0.0600593293 -0.8439207579 0.0001564258 -0.0001932542 -7.86349e-05 -7.95872e-05 -0.0269238761 0.8439299013
770295380.0 0.0525005339 -0.8439544108 3.67259e-05 -0.0002185205 -3.54298e-05 3.3895e-06 -0.0187487956 0.8442544326
775295350.0 0.0436295939 -0.8439429928 8.97138e-05 0.0001521643 -0.0001685164 -7.77212e-05 -0.0110062201 0.8438578577
780295320.0 0.0353846732 -0.84496197 2.00462e-05 0.0001290179 9.38163e-05 -2.6392e-06 -0.0025673234 0.8446118483
785295290.0 0.0271121153 -0.8446804843 -1.1618e-05 -0.0001551354 8.59702e-05 -0.0001319259 0.0054818854 0.8443034714
790295260.0 0.0189168127 -0.8446445037 -0.0001517935 0.000100115 5.94957e-05 -2.53553e-05 0.0142318126 0.8445348979
795295230.0 0.0104396023 -0.8443120082 -8.39911e-05 5.13758e-05 7.3361e-05 -5.04737e-05 0.0228609071 0.8444607812
800295200.0 0.0025019084 -0.8439953063 1.39518e-05 -5.59471e-05 2.04274e-05 0.0002720823 0.0306838752 0.8437960885
805295170.0 -0.0060187475 -0.8442595789 0.0002519259 -2.50466e-05 2.8536e-06 8.51703e-05 0.03853842 0.8429207599
810295140.0 -0.0144346176 -0.844441368 -3.6409e-05 0.0001161291 -0.0001253145 -0.0001124963 0.0468602284 0.8437111992
815295110.0 -0.022613625 -0.8437953114 8.36718e-05 0.0002200612 -9.18259e-05 0.000246551 0.0554701514 0.8425548569
820295080.0 -0.0315635694 -0.842965249 -8.71706e-05 -0.00018017 -0.0001272369 3.70265e-05 0.0636919539 0.8412463473
825295050.0 -0.0395381773 -0.843180825 -0.000105122 6.61428e-05 -1.28819e-05 -4.31484e-05 0.0718054913 0.8413841935
830295020.0 -0.0476849387 -0.8428054834 -1.02134e-05 -8.8228e-06 0.0002427931 6.1395e-05 0.0798826429 0.8407108803
835294990.0 -0.0556076399 -0.8418024434 -7.99701e-05 7.14954e-05 -0.0001267354 -0.0001091259 0.0885143045 0.8394511663
840294960.0 -0.0638621895 -0.8410581878 -0.0002081164 0.0001566362 0.0001006763 4.55344e-05 0.0967463961 0.8385637854
845294930.0 -0.0724969507 -0.8400993775 -0.0001873229 3.79791e-05 -6.7824e-05 -1.97386e-05 0.1048232171 0.8374272176
850294900.0 -0.0811268169 -0.839008608 5.04127e-05 -0.0001181358 0.0001568337 0.0001460702 0.1131338521 0.8366499018
