!Created with skrf (http://scikit-rf.org).
# Hz S RI R 50.0 
!freq ReS11 ImS11 ReS21 ImS21 ReS12 ImS12 ReS22 ImS22
300000.0 -0.2355672815 -0.1191035017 0.466614013 0.0782429746 0.4656797278 0.0788601744 -0.2354295009 -0.1241768093
5299970.0 -0.2451035292 0.0057122668 0.4736018181 0.0060639162 0.474355322 0.0061113065 -0.2439453489 0.0048946194
10299940.0 -0.2416877938 0.0187061475 0.4760910544 0.0069118573 0.4760723239 0.0074661335 -0.2402339918 0.0179299845
15299910.0 -0.2368710401 0.0281731772 0.4793985434 0.0085141282 0.4796422934 0.0084775413 -0.2363203929 0.0274571202
20299880.0 -0.2316655987 0.0361713231 0.4838833919 0.0084181998 0.484337058 0.0086326774 -0.2314075149 0.0352797393
25299850.0 -0.2255394392 0.0429245129 0.4896740013 0.0079155834 0.4898817114 0.0076680595 -0.226210159 0.0419684946
30299820.0 -0.220253844 0.0475674257 0.4951491791 0.0056688191 0.4953897293 0.0052477552 -0.2207349695 0.0468612243
35299790.0 -0.2145826481 0.0519962112 0.5003426788 0.002415531 0.5004351422 0.0022097672 -0.2158124653 0.0516306173
40299760.0 -0.2092018975 0.0548399195 0.5055085439 -0.0016081395 0.5058262923 -0.0017851075 -0.2106195346 0.0548047893
45299730.0 -0.2040078665 0.0570504822 0.5101231079 -0.0057028391 0.5107673696 -0.0063431256 -0.2056996933 0.0576095496
50299700.0 -0.199105858 0.0588611719 0.5146555483 -0.0117000487 0.5147905726 -0.011852024 -0.2013909862 0.0602794105
55299670.0 -0.1949301876 0.0603995884 0.5184146887 -0.0174137359 0.5183814149 -0.0177694151 -0.1975794575 0.0621227613
60299640.0 -0.1909272539 0.061965131 0.5221936388 -0.024173608 0.5220258747 -0.0240625389 -0.1938978338 0.0632607465
65299610.0 -0.1873605687 0.0625471151 0.5251709812 -0.0299649754 0.5250738261 -0.0303511985 -0.19004904 0.0646205391
70299580.0 -0.1840074664 0.0630026892 0.5271442082 -0.0365956454 0.5271879719 -0.0370799006 -0.1871596819 0.0660378627
75299550.0 -0.1812314479 0.0635928204 0.5289979451 -0.0440174274 0.5293272734 -0.043617571 -0.1842195358 0.0670016536
80299520.0 -0.1784445997 0.0642713005 0.5311049082 -0.050745945 0.5312068143 -0.0506884727 -0.181733811 0.0680634673
85299490.0 -0.1757957383 0.0646657688 0.5320134518 -0.0579492087 0.5328295816 -0.0573008831 -0.1794280879 0.0689665779
90299460.0 -0.1736782533 0.0654364354 0.5334664169 -0.0644005596 0.5333104665 -0.0647991794 -0.1767642274 0.0699513176
95299430.0 -0.1716037062 0.0659679393 0.5343793995 -0.0715537643 0.5348408448 -0.0717410844 -0.1750343098 0.0708113834
100299400.0 -0.1695006829 0.0661640822 0.5344201787 -0.0779822369 0.5348851607 -0.0782701492 -0.1731602796 0.0717291575
105299370.0 -0.1674536296 0.066545813 0.5346751038 -0.0852472156 0.5354512756 -0.0853938224 -0.1710973683 0.0720678982
110299340.0 -0.165820039 0.0666642485 0.5349467987 -0.0917541735 0.5355028599 -0.0918731835 -0.1699655139 0.0730818749
115299310.0 -0.1644618325 0.0675855422 0.5352245639 -0.0986224193 0.535126662 -0.098751244 -0.1681528078 0.0742470063
120299280.0 -0.1633374738 0.0681474537 0.5352794653 -0.1058453159 0.5349475332 -0.1060433858 -0.1668025148 0.0745934266
125299250.0 -0.1619016619 0.0687099215 0.5345724143 -0.1125691215 0.5346271439 -0.1122780543 -0.1653770589 0.0761469667
130299220.0 -0.1607314435 0.0691078131 0.5342796798 -0.1193713153 0.5340745423 -0.1198122329 -0.1639934729 0.0770639718
135299190.0 -0.1598226357 0.0702651316 0.5335191613 -0.1258561355 0.5339405576 -0.126452963 -0.162966561 0.0779032935
140299160.0 -0.1586628296 0.0710669606 0.5332666543 -0.1326379516 0.5329377971 -0.1322330112 -0.1624290267 0.0787356571
145299130.0 -0.15783359 0.0717345408 0.5318626012 -0.1393683066 0.5318241721 -0.1392014647 -0.1611179326 0.0801475199
150299100.0 -0.1568199764 0.0724093782 0.5307196944 -0.1455794855 0.5306285506 -0.145678564 -0.1598956301 0.0811874315
155299070.0 -0.1556131357 0.0734530412 0.5286143038 -0.1519468192 0.5295106634 -0.1523746561 -0.1589036656 0.0824749201
160299040.0 -0.1549606318 0.0743717056 0.5283205122 -0.1583075102 0.5282636216 -0.1588843701 -0.1579989469 0.0836488762
165299010.0 -0.1538083606 0.0752012301 0.5265343941 -0.1650511523 0.5266333401 -0.1656648366 -0.1567483383 0.0844221057
170298980.0 -0.15322015 0.0764498167 0.5248004283 -0.1715851457 0.525399299 -0.1716765567 -0.1561146006 0.0859756641
175298950.0 -0.1522927988 0.0773231703 0.5237668744 -0.177600341 0.523757506 -0.1780482272 -0.1548934462 0.0872901301
180298920.0 -0.1517091689 0.0783806617 0.5219665419 -0.1842961665 0.5219150834 -0.1842411975 -0.1541071933 0.0884275485
185298890.0 -0.1508404675 0.0794303799 0.5203067835 -0.1901018349 0.5198661551 -0.1903100332 -0.1529552795 0.0894790964
190298860.0 -0.1494891025 0.0809407039 0.5172322936 -0.1966056695 0.5179289545 -0.1963780194 -0.152111638 0.0910125679
195298830.0 -0.148928763 0.0821133716 0.5162743371 -0.2022602318 0.5162912801 -0.2024767524 -0.1515777929 0.0923236079
200298800.0 -0.1483596452 0.0828601722 0.5143224552 -0.2089070367 0.5140043286 -0.2090396772 -0.1502062189 0.0936640976
205298770.0 -0.1478787632 0.0840088199 0.5116818163 -0.2145522603 0.511955417 -0.2142534049 -0.1493245891 0.0951945293
210298740.0 -0.1466934102 0.0854500423 0.5096627902 -0.2208603493 0.5093122441 -0.2209769765 -0.1487710463 0.0962826305
215298710.0 -0.1461377551 0.0866203396 0.5070235591 -0.2263973536 0.5073333225 -0.2268910398 -0.1472373215 0.0977711316
220298680.0 -0.1452679032 0.0877500855 0.5044088334 -0.2327025332 0.5042977021 -0.2327661805 -0.1463732739 0.0990624696
225298650.0 -0.144409885 0.0891968495 0.5016807479 -0.2381866389 0.5022507322 -0.2380376264 -0.1453717334 0.1003081291
230298620.0 -0.1433787463 0.0905701738 0.4998759695 -0.2446815537 0.5000324291 -0.2444223608 -0.1447137373 0.1016748147
235298590.0 -0.1431915617 0.0918006488 0.4976078622 -0.2505956606 0.4973970129 -0.2500128321 -0.1434448465 0.10340806
240298560.0 -0.1421008616 0.0931750418 0.4945357777 -0.2553916374 0.4942921395 -0.2557883186 -0.1424625043 0.1043982271
245298530.0 -0.1412608357 0.0941031011 0.4914076824 -0.2615505816 0.4913149471 -0.2616677714 -0.1415094113 0.1060565392
250298500.0 -0.1408083795 0.095409756 0.4889186622 -0.2666560564 0.4889953364 -0.2668979135 -0.1405054329 0.107845809
255298470.0 -0.1397424177 0.097250237 0.4860281459 -0.2721872322 0.4867223383 -0.2725077543 -0.1393816531 0.1091915352
260298440.0 -0.1389323927 0.0981323491 0.4830157033 -0.2776826649 0.4829593004 -0.277889049 -0.1384041645 0.110448088
265298410.0 -0.1384058926 0.0997888832 0.4798024175 -0.2837185463 0.4800264116 -0.2840463448 -0.1367596867 0.1119867321
270298380.0 -0.1378495079 0.1008047794 0.4769888188 -0.289034593 0.4770190217 -0.289107464 -0.1358682697 0.1134291073
275298350.0 -0.1367946299 0.1026551045 0.4731090112 -0.2945613061 0.4735272487 -0.2945025901 -0.1350385474 0.1149569604
280298320.0 -0.1361796855 0.1038032806 0.4706552308 -0.2999597968 0.4709370976 -0.3000031428 -0.1337250823 0.1164790758
285298290.0 -0.1352975001 0.1051601518 0.4673844085 -0.3049551417 0.4675611425 -0.3050268911 -0.1324996203 0.1180602682
290298260.0 -0.1341753504 0.1065588098 0.4645280259 -0.3101732144 0.4643135369 -0.3101560123 -0.1311103341 0.1192550208
295298230.0 -0.1335129578 0.1074303183 0.4609125114 -0.3157200283 0.4606751343 -0.3158261758 -0.1299159304 0.1204299737
300298200.0 -0.1325276521 0.1091296408 0.4576323336 -0.3209614956 0.4574518657 -0.3209603855 -0.1286556146 0.1221766217
305298170.0 -0.1315928211 0.1099305007 0.4541655595 -0.3265465707 0.4541474153 -0.3264838912 -0.1274614785 0.1231755301
310298140.0 -0.130288721 0.1114270752 0.4502529103 -0.3314900744 0.4506048387 -0.3311092156 -0.1259310808 0.1245476409
315298110.0 -0.1294907638 0.1125226559 0.4471194531 -0.3370509031 0.4467600387 -0.3369296221 -0.1246035645 0.1261334305
320298080.0 -0.1284950883 0.1137380906 0.4424836682 -0.3421387809 0.4435834318 -0.342188905 -0.1237321668 0.1273130853
325298050.0 -0.1280136578 0.1145655655 0.4388501247 -0.3468135372 0.4395496508 -0.3470401613 -0.1223317247 0.1285240202
330298020.0 -0.1275081219 0.1161109348 0.4351307448 -0.3520862971 0.435693185 -0.352193439 -0.1211188692 0.1295859372
335297990.0 -0.1268307809 0.11759358 0.4316478093 -0.3563305378 0.4314903213 -0.3564584917 -0.1200188082 0.1309734267
340297960.0 -0.1258249602 0.1185397003 0.4266032492 -0.3615853693 0.4269114118 -0.3617727148 -0.1187307914 0.1327710622
345297930.0 -0.1252097713 0.1199544457 0.422937758 -0.3665526147 0.4230935348 -0.3659417225 -0.1176101215 0.1336874864
350297900.0 -0.1239964847 0.1210967061 0.4189933424 -0.3705109593 0.4194402445 -0.3706902745 -0.1163098744 0.134975589
355297870.0 -0.1232904115 0.1226663997 0.4148341009 -0.3751179414 0.415277893 -0.3750325701 -0.1145850972 0.136744476
360297840.0 -0.1221164694 0.1240589386 0.4105032822 -0.3799259194 0.4110333677 -0.3803316085 -0.1136529346 0.1383853999
365297810.0 -0.1214084357 0.1253308187 0.4067981233 -0.3843115583 0.4066711378 -0.3843382624 -0.112052009 0.1394267733
370297780.0 -0.1200085542 0.1265221793 0.4019442854 -0.3888945808 0.4025748122 -0.3889467979 -0.1108329046 0.1407164319
375297750.0 -0.1189951574 0.1276274746 0.3979228389 -0.3931131653 0.3981622499 -0.3933792557 -0.1088511919 0.1419716892
380297720.0 -0.1183944202 0.1293114922 0.3940905187 -0.3979779402 0.3940080564 -0.3979746284 -0.1076566289 0.1438784784
385297690.0 -0.117249615 0.1301378724 0.3891892221 -0.4019446742 0.3893871175 -0.4024181167 -0.105763033 0.1449925462
390297660.0 -0.115608934 0.131472741 0.3844565888 -0.4058632374 0.3852322897 -0.4058430904 -0.1043034827 0.1456680754
395297630.0 -0.114129225 0.1327879859 0.3805142739 -0.410078737 0.3804525704 -0.4103280325 -0.1026978334 0.1473623849
400297600.0 -0.113538455 0.1339581759 0.3755561544 -0.4147347054 0.376501345 -0.4144605238 -0.1012779221 0.148766737
405297570.0 -0.1122812217 0.1347015167 0.3714482967 -0.4185280872 0.3712686479 -0.418476707 -0.0993991504 0.1501734617
410297540.0 -0.1109811376 0.1364098479 0.3670164733 -0.4228599941 0.3670998897 -0.4226032441 -0.0982815459 0.1513614229
415297510.0 -0.1100596612 0.1375849154 0.361852442 -0.426745477 0.362478335 -0.4269592433 -0.0961473644 0.1525423025
420297480.0 -0.1088769139 0.1381341441 0.3572085322 -0.4304556878 0.3576164597 -0.4306601338 -0.0941643005 0.1542847573
425297450.0 -0.107208232 0.1394331567 0.3524093803 -0.4341033352 0.3526608252 -0.4347472083 -0.0929193179 0.1547690958
430297420.0 -0.106036938 0.1405563751 0.348144019 -0.4384419275 0.3483000284 -0.4381279706 -0.0908767185 0.1562800592
435297390.0 -0.1047137858 0.1415675574 0.3426363179 -0.4424338411 0.3432319846 -0.4418889321 -0.089967546 0.1575183754
440297360.0 -0.1033023482 0.1425078841 0.3374716641 -0.4457348781 0.3382120566 -0.4460078238 -0.0878968536 0.1586639023
445297330.0 -0.1017039286 0.1435429124 0.3334308343 -0.4489798371 0.3334019103 -0.449852473 -0.0859415211 0.1595700407
450297300.0 -0.1006248132 0.1446460743 0.3283452121 -0.4527778686 0.3287750846 -0.45289687 -0.0838783824 0.1609886289
455297270.0 -0.0996561444 0.1458345998 0.3235730227 -0.4566103251 0.3236339446 -0.4571177333 -0.0824667907 0.1620546043
460297240.0 -0.0979219071 0.1470336404 0.3185643585 -0.4607641546 0.318532265 -0.4601687012 -0.0805694345 0.1627790434
465297210.0 -0.0966591558 0.1480148888 0.3134014492 -0.4640881101 0.3131323727 -0.4639079393 -0.0786060766 0.1644175709
470297180.0 -0.0952680434 0.1487879871 0.3083734025 -0.466762677 0.308260199 -0.4670817951 -0.0766158509 0.1648397502
475297150.0 -0.0939097261 0.1500432571 0.3028795395 -0.4703471544 0.3031981336 -0.4705574941 -0.0749774123 0.1660596075
480297120.0 -0.0918764552 0.151399785 0.2980195483 -0.4737935849 0.2984926605 -0.4732584859 -0.0734795641 0.1670134161
485297090.0 -0.0906901448 0.1518136589 0.2928236095 -0.4768639425 0.2931173806 -0.4767916113 -0.071559569 0.1681413387
490297060.0 -0.088681343 0.1530070193 0.2872633633 -0.4802196399 0.2875816385 -0.480302049 -0.0695863943 0.1685491908
495297030.0 -0.0875827089 0.1536236508 0.2826224156 -0.4831449813 0.2825708887 -0.4833241576 -0.0673346709 0.1694998249
500297000.0 -0.0862381852 0.1548103311 0.2772824327 -0.485958072 0.276960771 -0.4863352492 -0.0654222813 0.1708820504
505296970.0 -0.084173338 0.1559047229 0.2716974854 -0.4897390944 0.2718018683 -0.4892322052 -0.0634377034 0.1710859283
510296940.0 -0.082674085 0.1567350628 0.2664369735 -0.4926080446 0.2665885427 -0.4922875891 -0.0612740636 0.1726174062
515296910.0 -0.0811705858 0.1579665866 0.2608921869 -0.4950508316 0.2605935899 -0.4947168938 -0.0599015223 0.17270797
520296880.0 -0.0795948072 0.1586255997 0.2556164228 -0.4975935721 0.2554274045 -0.4978293555 -0.057339108 0.1743387201
525296850.0 -0.0776846938 0.1594871604 0.2497690223 -0.5005371652 0.2496580305 -0.5005428967 -0.0555743375 0.1749433891
530296820.0 -0.0767630477 0.1601572138 0.2444548523 -0.5028333737 0.2444754341 -0.5033260262 -0.0536178581 0.1753736946
535296790.0 -0.0744041272 0.1612874467 0.2389958607 -0.5057499676 0.2394918232 -0.505939869 -0.0516398916 0.1762404133
540296760.0 -0.0726438211 0.1623286299 0.233184461 -0.5084921209 0.23352812 -0.5081718945 -0.0497118026 0.1766509512
545296730.0 -0.0718888945 0.1632279219 0.22810906 -0.5105611492 0.2277862548 -0.5104667916 -0.0475703061 0.1775587015
550296700.0 -0.0695728425 0.164032277 0.2223397646 -0.5132552811 0.2220251397 -0.5135586077 -0.0452138599 0.1782819406
555296670.0 -0.0681460549 0.1648297671 0.216914002 -0.5159929348 0.2167283679 -0.5156393044 -0.0434729697 0.1784831478
560296640.0 -0.0660366544 0.1656385527 0.2112616762 -0.5179094253 0.2114513493 -0.5178148064 -0.0416047806 0.1793266923
565296610.0 -0.0648219021 0.1664694802 0.2057797638 -0.5204478698 0.2055203364 -0.5192684961 -0.0394160872 0.1801105074
570296580.0 -0.0628780537 0.1674016204 0.1996157753 -0.5219931706 0.1998442276 -0.5224587965 -0.0376354307 0.1803286384
575296550.0 -0.0609469888 0.1682338062 0.194387533 -0.5245105273 0.1942385496 -0.5244750711 -0.035492279 0.1812747192
580296520.0 -0.0595691841 0.1691328116 0.1886513822 -0.5262759478 0.1884125447 -0.5264293828 -0.0337430452 0.1813456157
585296490.0 -0.057456869 0.1697529047 0.1832476775 -0.5285085182 0.1825591363 -0.5283588487 -0.0314037579 0.1822160071
590296460.0 -0.0552987632 0.170507783 0.1770773604 -0.5304200684 0.1767385825 -0.5305323769 -0.0293128414 0.1825231818
595296430.0 -0.0537081475 0.1712685276 0.1710162388 -0.5321462999 0.1707567163 -0.5320311324 -0.0272125843 0.1828090077
600296400.0 -0.0520742038 0.1718911353 0.1647758465 -0.5335645389 0.1654987353 -0.5340962333 -0.0254775267 0.1830708131
605296370.0 -0.0509737385 0.1727143435 0.1599249078 -0.5355797421 0.1594901715 -0.535819981 -0.0230907247 0.1838718934
610296340.0 -0.0484042016 0.1737171898 0.1534943853 -0.5369184678 0.154089592 -0.5372867167 -0.0215753563 0.1841897539
615296310.0 -0.0467365748 0.1741809865 0.1480674627 -0.5389263879 0.1473411142 -0.5390536637 -0.0189295953 0.1847026134
620296280.0 -0.045183644 0.1753967781 0.1417771536 -0.5406872528 0.1416225316 -0.5404674081 -0.0171604604 0.1852091913
625296250.0 -0.0437016781 0.1757058283 0.1363112228 -0.5423327227 0.136086917 -0.5420458159 -0.0151995393 0.1853221972
630296220.0 -0.0416632641 0.1763766895 0.1303581952 -0.5434159292 0.1301661083 -0.5436115406 -0.0129065119 0.1857446604
635296190.0 -0.0401454093 0.177177286 0.1243384568 -0.5447219509 0.1245041639 -0.5444415775 -0.0109064442 0.1858037486
640296160.0 -0.0382149475 0.1779322529 0.1181990461 -0.546608461 0.1179973571 -0.5458560444 -0.0090864946 0.1860408767
645296130.0 -0.0362843764 0.1787590673 0.1123036338 -0.5476272325 0.1125951584 -0.5470039296 -0.0070956912 0.1859459242
650296100.0 -0.0345954046 0.1790819787 0.1065567253 -0.5485810011 0.105917069 -0.5486244529 -0.0042257429 0.1865731066
655296070.0 -0.0328947928 0.1797639255 0.1004820412 -0.549335835 0.100734283 -0.5495345692 -0.0027552752 0.1868689175
660296040.0 -0.030917137 0.180244939 0.0945159042 -0.550474468 0.0948302954 -0.5504948531 -0.000822433 0.1868349925
665296010.0 -0.0290798368 0.1809390006 0.0884481701 -0.5510315227 0.0886996032 -0.5515870428 0.0016419138 0.1870912865
670295980.0 -0.0277651226 0.1814186235 0.0825233483 -0.5521912463 0.082271879 -0.55212754 0.0031275939 0.1869842315
675295950.0 -0.0255637261 0.181993368 0.0766280161 -0.5526788618 0.0768164426 -0.5531700846 0.0053996551 0.1873660282
680295920.0 -0.0245045797 0.1825575898 0.0710671807 -0.553771096 0.0704323304 -0.5534249138 0.0079242275 0.1869393051
685295890.0 -0.0223323898 0.183241316 0.0648122965 -0.5547543369 0.0646596341 -0.5547075797 0.009595956 0.1877058079
690295860.0 -0.0205596185 0.1834711846 0.0588504151 -0.5552978205 0.0585140092 -0.5550705982 0.0115651861 0.1872780063
695295830.0 -0.0187038828 0.183906743 0.0531523284 -0.5557770865 0.0525845709 -0.5557134668 0.0136702217 0.187549953
700295800.0 -0.0168067395 0.1845571551 0.047048184 -0.5561608158 0.046630732 -0.5561226108 0.0159741607 0.1876091286
705295770.0 -0.0154868003 0.1849371172 0.0406241825 -0.5568997542 0.0407298268 -0.5566242445 0.0179437626 0.1877305084
710295740.0 -0.013666107 0.185418694 0.0350395019 -0.5572345226 0.0347838116 -0.5574706563 0.0200758896 0.1876742274
715295710.0 -0.0117696552 0.1859676617 0.0289817739 -0.5574612183 0.0284820221 -0.5573306039 0.0220709071 0.1872606607
720295680.0 -0.0096425425 0.186084991 0.022561604 -0.5573370684 0.0229644077 -0.5579437081 0.0241197233 0.187092208
725295650.0 -0.0085282388 0.1865525927 0.0171883215 -0.5577943924 0.0167499468 -0.5583205932 0.0255746754 0.1875364563
730295620.0 -0.0072241548 0.1869606894 0.0106961861 -0.5578576848 0.010817856 -0.5578222875 0.0278166569 0.18765087
735295590.0 -0.0050337968 0.1873514268 0.0048823848 -0.5580547637 0.0049362929 -0.5582032272 0.0301734142 0.1868727361
740295560.0 -0.0034337964 0.1875233863 -0.0010285257 -0.5578571214 -0.0004166243 -0.5583724433 0.0319482459 0.18710037
745295530.0 -0.00163904 0.1879687322 -0.007212495 -0.5575519292 -0.0062274043 -0.5579485498 0.0337911308 0.1865135416
750295500.0 -1.7716e-05 0.1883340923 -0.012565174 -0.5578031961 -0.0132767989 -0.5578941903 0.0359689156 0.1865374397
755295470.0 0.0017225326 0.1883961502 -0.018494303 -0.5578678775 -0.0189155174 -0.5581615175 0.0382122509 0.1866237985
760295440.0 0.0035754695 0.1890885757 -0.0256001613 -0.5572647095 -0.0249702277 -0.5572502367 0.040290363 0.1854936942
765295410.0 0.0052931841 0.1886081675 -0.031081372 -0.556688811 -0.030891189 -0.5571274247 0.0423161497 0.1857216241
770295380.0 0.0068851087 0.1891728079 -0.0365689045 -0.5564580423 -0.0369692983 -0.5567368113 0.044005413 0.1853834414
775295350.0 0.008645132 0.1892767255 -0.0427531856 -0.5559114778 -0.0427103789 -0.555841793 0.0465004022 0.1852434538
780295320.0 0.0103991613 0.1893889097 -0.0485990397 -0.5553672809 -0.0487083399 -0.5555545769 0.0489351534 0.1847516373
785295290.0 0.0120249709 0.1893598478 -0.0547395559 -0.5549783468 -0.0547386624 -0.5552395587 0.0502406991 0.1847084013
790295260.0 0.0137711778 0.1893542096 -0.0602746306 -0.5541988455 -0.0603344432 -0.5546251976 0.052304551 0.1845862837
795295230.0 0.0157125893 0.1893122783 -0.0665531215 -0.5536049323 -0.0667026026 -0.554094068 0.0543278034 0.1833329667
800295200.0 0.0170984541 0.1896978417 -0.0721054239 -0.5527126119 -0.0723081303 -0.5530649811 0.0562310823 0.1830073281
805295170.0 0.0185607893 0.1897076622 -0.0782863715 -0.5520579861 -0.0783707094 -0.5524553828 0.0588317665 0.182877736
810295140.0 0.0209082457 0.18971537 -0.0843752127 -0.5510615341 -0.0845309451 -0.5513516257 0.0608539603 0.1821157915
815295110.0 0.0221214371 0.1898482093 -0.0902341469 -0.5504108153 -0.090022633 -0.5505964704 0.0624506124 0.1815349727
820295080.0 0.0240589529 0.189769651 -0.0953395621 -0.5488256296 -0.0956480471 -0.5496876554 0.0636944529 0.1818610273
825295050.0 0.0259219554 0.189370569 -0.1019752061 -0.5481558747 -0.1022268548 -0.5485502459 0.0665719187 0.1811043255
830295020.0 0.0275577721 0.1895543697 -0.1075648115 -0.546914267 -0.1076849321 -0.5470928791 0.0683343897 0.1801055026
