!Created with skrf (http://scikit-rf.org).
# Hz S RI R 50.0 
!freq ReS11 ImS11 ReS21 ImS21 ReS12 ImS12 ReS22 ImS22
300000.0 -0.212368827 -0.0617245982 -0.0006150276 0.0025563636 0.0014301317 0.0016261453 -0.7769383317 -0.1397444215
5299970.0 -0.2169471425 0.0081166957 -5.74645e-05 4.44857e-05 -7.78384e-05 0.000310729 -0.7850913765 -0.0075906989
10299940.0 -0.2131342435 0.019189019 0.0001485455 1.67375e-05 4.7822e-06 7.06803e-05 -0.7877746529 -0.0039081077
15299910.0 -0.2086993327 0.0282402131 0.0001499059 0.0001419388 -3.5969e-06 0.0002209227 -0.7931803013 -0.0013492917
20299880.0 -0.2036325232 0.0359179088 -4.86278e-05 -0.0001330196 9.03098e-05 -0.0001378991 -0.7997306764 0.0022574112
25299850.0 -0.1975625655 0.0418130178 -0.0003235422 0.0001981801 0.0001870587 -8.69007e-05 -0.8063724302 0.0083784255
30299820.0 -0.192100248 0.0465551981 7.84473e-05 -0.0001518535 -8.4727e-06 0.0001156501 -0.8119421879 0.0163751702
35299790.0 -0.1862278552 0.0506554964 -1.83926e-05 -3.5741e-06 -2.89692e-05 3.56363e-05 -0.8168043633 0.0250681639
40299760.0 -0.1807004265 0.0534013138 -0.0001372777 0.0001108495 -7.8341e-06 -0.0001988338 -0.8210131545 0.0343476023
45299730.0 -0.1755739498 0.0556250988 5.39441e-05 0.0001684378 3.6084e-05 2.95879e-05 -0.825268086 0.0437603164
50299700.0 -0.1709896462 0.0569446359 -8.2368e-06 -0.0001164753 0.0001287289 6.74669e-05 -0.8270631761 0.0538950832
55299670.0 -0.1666874926 0.0579178099 2.1861e-05 5.98744e-05 0.0001728147 8.82418e-05 -0.8299538101 0.0642262271
60299640.0 -0.1624517817 0.0589325346 0.0001123605 9.60063e-05 -0.000132966 -9.2726e-06 -0.8308250085 0.0739138996
65299610.0 -0.1587250846 0.0592484381 -4.44025e-05 -8.01289e-05 8.42612e-05 2.00966e-05 -0.8318975612 0.0843471624
70299580.0 -0.1556993631 0.0595368267 -4.68831e-05 -1.63601e-05 2.40733e-05 2.92848e-05 -0.8316602841 0.0943310898
75299550.0 -0.1527165836 0.0599375133 2.78153e-05 0.0001339009 0.0001456149 0.0001130374 -0.8321725483 0.1039426551
80299520.0 -0.1501324962 0.0599862834 0.0001289557 -8.05067e-05 -2.40016e-05 0.0002854505 -0.832058722 0.1136452617
85299490.0 -0.1475827643 0.0598225103 0.0002103624 0.0001583039 0.0002168928 2.41683e-05 -0.8317284558 0.1236063886
90299460.0 -0.1457046321 0.0598597252 3.59165e-05 -9.8123e-05 0.0003294411 -0.0001009934 -0.8306974347 0.1328235784
95299430.0 -0.1435064191 0.0597116033 -9.5538e-05 -7.6864e-05 7.16669e-05 9.88949e-05 -0.8293386642 0.142798888
100299400.0 -0.1416277042 0.0600606261 0.0001170912 4.9646e-06 0.0002192428 1.8184e-05 -0.8283167616 0.1523506436
105299370.0 -0.1402371923 0.0599273946 -0.0001288348 -9.8969e-06 0.0001790855 -2.5874e-05 -0.8269335218 0.1610254666
110299340.0 -0.1384410648 0.059893558 0.0001012837 8.49473e-05 6.94302e-05 0.0001709719 -0.8256385199 0.1704017887
115299310.0 -0.137170481 0.0600125823 -9.74136e-05 -5.99415e-05 2.14937e-05 -0.0001121936 -0.8243533817 0.1793897566
120299280.0 -0.1360636399 0.0597538432 0.0001369552 0.0001007685 1.40653e-05 8.10379e-05 -0.8223967701 0.1888641673
125299250.0 -0.1350564209 0.0598613515 0.0002508762 1.76139e-05 0.0001385943 6.96093e-05 -0.8211046751 0.1977878124
130299220.0 -0.1342762836 0.0601860845 8.1626e-06 8.09615e-05 0.0001015001 0.000207069 -0.8187079512 0.2065598354
135299190.0 -0.1330712411 0.0604909331 0.0001095405 -0.0001038195 0.0001100694 -4.19666e-05 -0.8164967696 0.2158925142
140299160.0 -0.1325148726 0.0610625671 -0.0002080974 -0.0001410064 -3.42736e-05 7.96072e-05 -0.8146041287 0.225017378
145299130.0 -0.1316785755 0.0611787865 -0.0001364573 1.83207e-05 -1.77963e-05 0.0001387268 -0.8121995839 0.2337904131
150299100.0 -0.1308477429 0.0610968542 0.0002466739 4.14526e-05 -7.67993e-05 0.0001398756 -0.8105161635 0.2429800727
155299070.0 -0.1302308335 0.0620187401 0.0001706058 0.0002296746 2.9447e-05 -7.72942e-05 -0.807712599 0.2517426517
160299040.0 -0.1297535881 0.0626413909 0.0001609753 0.0001327678 -0.0001196154 2.64025e-05 -0.8049811586 0.2605944509
165299010.0 -0.1288952664 0.0628028844 -7.59236e-05 0.0001313633 0.0002475347 -0.0001293883 -0.8027726596 0.2694090543
170298980.0 -0.1286673779 0.0635475964 0.0001460769 7.1598e-05 1.86297e-05 -0.000131896 -0.7991942953 0.2783257369
175298950.0 -0.1278734949 0.0641163679 0.0001141287 0.000267606 -8.38453e-05 0.0001529911 -0.7970883743 0.2867469216
180298920.0 -0.1273274159 0.0649000145 -2.11894e-05 6.6632e-05 1.83879e-05 9.13779e-05 -0.7936361888 0.2950463899
185298890.0 -0.1266953846 0.0651662707 4.09603e-05 0.000177005 -3.15087e-05 -4.38523e-05 -0.7901013756 0.3036169743
190298860.0 -0.1260271122 0.0660496298 -0.0001660197 7.98515e-05 2.34227e-05 -9.45457e-05 -0.7879703588 0.3120722899
195298830.0 -0.1258084707 0.0665890656 0.0001950186 2.63951e-05 0.0001345406 -3.36805e-05 -0.7849064921 0.320541348
200298800.0 -0.1251280267 0.067711351 4.32268e-05 0.000245653 -4.57878e-05 6.76661e-05 -0.7814683453 0.3285829844
205298770.0 -0.1250343462 0.0681252479 0.0001372705 -0.0001285475 3.71752e-05 -7.62983e-05 -0.7776904554 0.3375561518
210298740.0 -0.1243479982 0.0691473675 -2.31876e-05 5.02067e-05 -6.18176e-05 -3.6461e-06 -0.774404514 0.345757449
215298710.0 -0.1243244488 0.0699091777 -3.5456e-06 1.18705e-05 6.59554e-05 0.0001464486 -0.7713615353 0.3534256637
220298680.0 -0.1236989166 0.0705013051 -5.9092e-05 0.0001987946 0.0001976154 1.95075e-05 -0.7680386498 0.3617674935
225298650.0 -0.1235551513 0.0711760099 0.000198567 0.0001867372 -6.99053e-05 6.27916e-05 -0.7637591702 0.3699190775
230298620.0 -0.1228896142 0.0725171773 0.0001356271 0.0001204014 0.0001589019 0.0001613296 -0.7597232055 0.3780108261
235298590.0 -0.1220825283 0.0733457029 0.0001374944 0.0002115848 2.05076e-05 0.0001162239 -0.7555944137 0.3866243255
240298560.0 -0.1217761919 0.0738055784 0.0001140538 3.36678e-05 0.0002172098 0.0001308542 -0.7516892946 0.3951058233
245298530.0 -0.1213227131 0.0748151664 4.88642e-05 3.0688e-06 -9.87609e-05 0.0001069857 -0.7480151993 0.4020736583
250298500.0 -0.120647029 0.0759775902 2.25019e-05 0.0001059737 -5.31554e-05 -7.47927e-05 -0.7437872175 0.4097997097
255298470.0 -0.1204525495 0.0764647658 8.02043e-05 -6.20413e-05 -6.33736e-05 -8.48016e-05 -0.7388905862 0.417440014
260298440.0 -0.120133893 0.0777753952 -0.0002063781 0.0001427677 0.0002583043 0.0001841082 -0.7346694051 0.4259835072
265298410.0 -0.1195588632 0.0789646981 2.34566e-05 0.0001534728 0.000151582 0.0001174591 -0.7300944124 0.4337090528
270298380.0 -0.1189920805 0.0799704277 7.59234e-05 2.82753e-05 0.0002675017 0.0001737818 -0.7255874345 0.4408688491
275298350.0 -0.1185635388 0.0808453087 0.0001812334 0.0001965893 0.0001218679 0.0001585261 -0.7209456906 0.4485703344
280298320.0 -0.1175513829 0.0817880928 -4.72649e-05 -9.1694e-05 3.01465e-05 0.0002829267 -0.7158348824 0.4560862928
285298290.0 -0.1169530841 0.0831581202 0.0002194127 -0.000107812 9.74015e-05 9.22372e-05 -0.7110030255 0.4636962957
290298260.0 -0.1164038269 0.0839964999 0.0001070857 -6.37532e-05 0.0001619026 0.0001555535 -0.7063808824 0.4703640271
295298230.0 -0.1158765992 0.0846369261 0.0002277472 0.0001467261 0.0002589219 -0.0002603131 -0.7013230339 0.477695293
300298200.0 -0.1155809356 0.085981893 -0.0001074156 -0.0001060797 0.0001439055 8.23359e-05 -0.696218025 0.4852083519
305298170.0 -0.1145643328 0.0868311446 0.0002447207 -7.34664e-05 0.0001146253 -4.8431e-05 -0.690482895 0.4930159177
310298140.0 -0.1139725242 0.0883207326 0.0002837441 0.0002191963 0.0003484235 3.18319e-05 -0.6859388361 0.4995549592
315298110.0 -0.1133229809 0.0888517335 1.89495e-05 -0.0001901037 -1.04942e-05 9.69635e-05 -0.6801722139 0.5062288143
320298080.0 -0.1126672061 0.0895718314 -5.91624e-05 0.0001383809 8.30673e-05 0.0001970052 -0.6748859884 0.5141997776
325298050.0 -0.1121724489 0.0907616221 0.0002092047 9.31087e-05 -3.042e-07 0.0001607084 -0.669491552 0.5210241543
330298020.0 -0.1115633381 0.0913758686 0.0001274947 0.0002000902 0.0001175631 6.882e-05 -0.6637556008 0.5282291137
335297990.0 -0.1108597457 0.0927877178 3.96714e-05 0.0001396935 0.0001060822 4.1982e-06 -0.6587566224 0.5352230822
340297960.0 -0.1107273761 0.0937829855 0.0001581173 0.0002966404 0.0003227101 0.0002447781 -0.6528603317 0.542284029
345297930.0 -0.1099371919 0.094723836 9.57234e-05 0.000197647 7.09465e-05 0.0001359593 -0.6473719388 0.5485049295
350297900.0 -0.109222558 0.0959702182 6.35104e-05 0.0001731403 0.000146692 2.26458e-05 -0.6414530124 0.5550455739
355297870.0 -0.108627362 0.0971161652 0.0001417534 0.0002504513 1.37234e-05 0.0001245704 -0.6361925828 0.5619180916
360297840.0 -0.1074948918 0.0983784101 0.0001202651 8.79198e-05 0.0002666086 9.74604e-05 -0.6299828243 0.5685982824
365297810.0 -0.1073221364 0.0996421711 4.38488e-05 0.0002187991 -7.24662e-05 7.93e-07 -0.6236546599 0.5750917522
370297780.0 -0.106518934 0.1006086611 8.27709e-05 3.67292e-05 0.0002254287 0.0001021679 -0.6177125312 0.5818787383
375297750.0 -0.1053671663 0.1017018347 0.0001499366 8.59575e-05 3.08599e-05 1.36527e-05 -0.6119247009 0.5877529399
380297720.0 -0.1048625875 0.1029075502 8.86073e-05 9.86618e-05 0.0002176857 0.0002036488 -0.6060367902 0.5943453665
385297690.0 -0.1043004505 0.1037485235 5.8464e-05 -1.61805e-05 0.0002078225 9.8534e-06 -0.5993936924 0.600327615
390297660.0 -0.1033914032 0.1049852349 -5.59653e-05 0.0001003576 0.0001768094 2.06911e-05 -0.5937003872 0.6064461382
395297630.0 -0.1022009112 0.1062408097 0.0001358147 0.0001613042 0.0002949016 3.52307e-05 -0.5860086938 0.612692979
400297600.0 -0.101686473 0.1074490517 0.0002883771 1.00542e-05 0.0001407159 5.82676e-05 -0.5808691939 0.61848626
405297570.0 -0.1009463493 0.1082531455 0.0002245496 5.09047e-05 0.0002710624 0.0001267412 -0.5738817517 0.6249064711
410297540.0 -0.0999866013 0.1093686717 -0.0001307702 0.0002096563 0.0001930428 2.50293e-05 -0.5677650856 0.6303536533
415297510.0 -0.0988252025 0.11005707 4.58448e-05 0.0001933281 8.6069e-05 -5.27198e-05 -0.5612135975 0.6362499845
420297480.0 -0.0981924736 0.111730052 0.0001512791 6.7333e-05 0.0002211774 0.0001608201 -0.5544559521 0.6423103152
425297450.0 -0.0972630142 0.1125024016 0.0001844748 0.0001358834 0.0002508744 7.23618e-05 -0.5480699237 0.6475005543
430297420.0 -0.0959669684 0.1134372654 -0.0001818583 0.0002845486 5.37578e-05 6.58383e-05 -0.5413160569 0.6525733805
435297390.0 -0.0953401626 0.1147414915 -0.0001162783 0.0001982204 0.0001912209 0.000291168 -0.5344790039 0.6584444372
440297360.0 -0.0945787397 0.11563542 0.0001152084 0.0002103631 0.0001601068 6.92265e-05 -0.5278760747 0.663401238
445297330.0 -0.0934802568 0.1165081178 0.0002203643 -1.00099e-05 5.51985e-05 0.0001235589 -0.520710114 0.6681824489
450297300.0 -0.092521035 0.1174514385 0.0002546235 8.75517e-05 0.0002869916 5.53247e-05 -0.5134097501 0.673647303
455297270.0 -0.0916772836 0.11867015 0.0003012503 0.0001152409 -3.92517e-05 0.0001768192 -0.5066370762 0.6786024713
460297240.0 -0.0907047777 0.1195934938 0.0001905596 -0.0001922906 2.4816e-05 0.0001059592 -0.4999241791 0.6841758054
465297210.0 -0.0892509325 0.1206087343 1.1482e-06 5.09901e-05 3.2479e-05 0.0001610897 -0.4922153589 0.6886665665
470297180.0 -0.0883511367 0.1218001167 0.0002663256 -1.83971e-05 6.39695e-05 -0.0001226541 -0.4849905159 0.6945606556
475297150.0 -0.0876177445 0.1225355523 4.37353e-05 0.0001369008 0.0001668024 1.57345e-05 -0.4780780819 0.6989274832
480297120.0 -0.0863819048 0.1235592773 8.93074e-05 -6.92559e-05 0.0001502309 7.10928e-05 -0.4702900894 0.7035059488
485297090.0 -0.0852808943 0.1246260064 0.0003838971 0.0001414257 0.000331691 -4.0703e-06 -0.4635942684 0.7082898936
490297060.0 -0.0845099306 0.1259655357 0.0003229987 -0.0001281438 0.0002178533 5.2405e-05 -0.4562352812 0.7127369223
495297030.0 -0.0832181608 0.1266097014 -1.33277e-05 0.0001172891 0.0001297865 5.5643e-06 -0.4488736328 0.7177953736
500297000.0 -0.0820367194 0.1276195907 0.0001122426 0.0001558135 8.78452e-05 -1.80572e-05 -0.4413169484 0.7226183987
505296970.0 -0.0808147793 0.1285449333 0.0003735334 0.0002017483 0.0001386582 -8.41112e-05 -0.4341844446 0.726466027
510296940.0 -0.0797701939 0.1295404831 0.0001002448 -3.04569e-05 0.000242228 0.0001258179 -0.4263302174 0.730816342
515296910.0 -0.0784060415 0.130397442 0.0001034535 0.0002431395 0.0002067322 1.58373e-05 -0.4193013494 0.7352613772
520296880.0 -0.0776790967 0.1313821705 0.0002156476 -2.54291e-05 9.76608e-05 7.73351e-05 -0.4117829676 0.7392792209
525296850.0 -0.0762443199 0.1319245954 0.0001548208 -7.08494e-05 0.000415933 -9.46648e-05 -0.4041726002 0.7436710113
530296820.0 -0.0752775988 0.1330193875 -0.0001435957 -2.52374e-05 0.0003476363 7.59672e-05 -0.3966636033 0.7473844495
535296790.0 -0.0740928968 0.1337857405 0.0002527056 0.0001031558 0.0001436041 0.0001101771 -0.3896747727 0.7516481155
540296760.0 -0.0730442762 0.134993462 0.0002352919 -0.0001391786 0.0002103588 -7.09876e-05 -0.3811684346 0.7557379548
545296730.0 -0.0719249332 0.1357552138 0.000573672 4.50065e-05 0.0002007201 8.88966e-05 -0.3744443805 0.7592781166
550296700.0 -0.0703814642 0.1367315522 0.0004791394 0.0001475484 0.0001787768 -4.08702e-05 -0.3661963624 0.7627041366
555296670.0 -0.0695238229 0.1372637347 0.0002968033 -4.65909e-05 8.37286e-05 4.09555e-05 -0.3583525936 0.7672725027
560296640.0 -0.0678327925 0.1382744241 0.0001896062 0.0001240528 0.0001686109 -0.0001161317 -0.3503622508 0.7702393429
565296610.0 -0.0668420326 0.1389419474 0.0003576034 1.70224e-05 0.0003109542 0.0002352615 -0.342648371 0.7736243247
570296580.0 -0.0657582949 0.1400779584 0.0001144501 -1.30811e-05 9.31153e-05 0.0001584412 -0.3351507408 0.7773475639
575296550.0 -0.0643968429 0.1408704738 9.89904e-05 -9.6463e-06 0.0001807721 0.0001587347 -0.3267867111 0.7808908731
580296520.0 -0.0631420995 0.1415404332 0.0002532625 6.68298e-05 0.0003542287 -0.0002264753 -0.3185478134 0.7839123131
585296490.0 -0.0622568202 0.1424123205 1.3674e-05 1.95174e-05 0.0002112308 -3.84286e-05 -0.3106121573 0.7870480941
590296460.0 -0.060467194 0.1430953108 9.87648e-05 -7.63931e-05 0.0001868842 2.4275e-05 -0.3029677879 0.7898559759
595296430.0 -0.0593538075 0.1436049642 0.0003142293 -0.0001956716 0.0003095088 2.95066e-05 -0.2947761343 0.7925322979
600296400.0 -0.0581973203 0.1445094939 0.0002969064 0.0002410419 6.43155e-05 0.0003755751 -0.2870557657 0.7956051026
605296370.0 -0.0571587368 0.1451685251 0.0003539907 -0.0002969199 0.000172474 -4.96174e-05 -0.278562876 0.7984575051
610296340.0 -0.0555805061 0.1461013194 0.0003349511 0.0001168476 0.0003780916 2.98625e-05 -0.2704607742 0.8008679434
615296310.0 -0.0539310371 0.1466334344 0.0003814073 8.17475e-05 0.0002941534 -5.24183e-05 -0.2618757799 0.8033351028
620296280.0 -0.0530117993 0.1471547613 0.0001972359 -0.0001795956 0.0003470194 6.0459e-06 -0.2544373105 0.8063747553
625296250.0 -0.0516442803 0.1479051151 0.0003847073 0.0001160065 0.0002124626 -6.04835e-05 -0.245543707 0.8082524767
630296220.0 -0.0498579015 0.1486117713 0.0001804054 4.86576e-05 0.000344901 0.0001098505 -0.2377697258 0.8110635311
635296190.0 -0.0489274004 0.1493553398 -9.97849e-05 -5.04156e-05 0.0001226799 0.0001166306 -0.2300362729 0.812464102
640296160.0 -0.047304052 0.1499997276 0.0002596825 -2.75556e-05 0.0004659264 -0.0001172659 -0.2215267857 0.8155453883
645296130.0 -0.0461095587 0.1510619167 0.0003025109 2.19859e-05 0.0002218087 0.0001332148 -0.2136402069 0.8175247878
650296100.0 -0.0447090586 0.1513819948 -8.69079e-05 0.0002718334 0.0003035985 0.0002160517 -0.2054147338 0.8193720089
655296070.0 -0.043413258 0.1519516846 0.0001855223 6.43225e-05 0.0001239314 0.0001957829 -0.1967216764 0.820815401
660296040.0 -0.0420440623 0.1524241814 0.0003344332 4.90528e-05 0.0003037179 0.0001239588 -0.1881817192 0.8232323408
665296010.0 -0.0401902109 0.1528118154 0.0003643835 4.8376e-05 0.0002757795 -0.0001700429 -0.1796427011 0.8255670868
670295980.0 -0.0392900142 0.1538254597 0.0002037856 -3.28969e-05 0.0003388504 -6.2719e-05 -0.1721727906 0.8270255082
675295950.0 -0.0378631839 0.1541685431 0.0002217303 0.0001261908 0.0001789681 -6.78158e-05 -0.1637488312 0.8293045978
680295920.0 -0.036447869 0.1548573267 0.0002301788 -0.000110659 0.0003414763 -2.18e-05 -0.1550079739 0.8310326807
685295890.0 -0.0348763018 0.1556442816 0.0003212166 -9.8189e-06 0.000196758 -0.0002363576 -0.1464677031 0.8317420404
690295860.0 -0.0331834869 0.1560407748 0.0005517093 -7.7473e-06 0.0002960819 -0.0001286572 -0.1384150074 0.8340177352
695295830.0 -0.0322413152 0.156657297 0.0003088909 1.36322e-05 0.0004184963 9.96162e-05 -0.1298944268 0.8348535094
700295800.0 -0.0306752197 0.1566112672 0.000207111 -6.56319e-05 4.10271e-05 -1.50185e-05 -0.1228543885 0.8360618985
705295770.0 -0.0294707962 0.1577101898 0.0003250587 1.51039e-05 0.0005958938 3.36204e-05 -0.1139828137 0.8379991884
710295740.0 -0.028028875 0.1578157684 0.0001381961 4.83282e-05 0.0003334247 3.27768e-05 -0.1052574503 0.8383416321
715295710.0 -0.0265668633 0.1581250614 0.0004444185 5.64214e-05 0.0003912662 -0.0001738512 -0.096859616 0.8392119191
720295680.0 -0.0248052571 0.1588112222 0.0003820215 8.8255e-05 0.0001975318 -5.10227e-05 -0.0883082207 0.8401439044
725295650.0 -0.0232530813 0.1593130753 0.0002657779 -0.0001247096 0.0002061984 -9.4352e-06 -0.0803337662 0.8422107416
730295620.0 -0.0217029642 0.1599144368 0.0003366822 -2.3945e-06 0.0002617696 -0.0001320009 -0.072707709 0.8422845758
735295590.0 -0.0204190772 0.1604017568 7.44616e-05 -5.6124e-06 0.0002208834 -0.000181494 -0.0633193212 0.8425703943
740295560.0 -0.018838946 0.1607115955 0.0001803767 -6.75736e-05 0.0004490359 4.0238e-05 -0.0544211685 0.8431056393
745295530.0 -0.0176813439 0.1612071224 0.0002425233 -0.0001265605 0.0002455942 7.24643e-05 -0.0463869389 0.8438178142
750295500.0 -0.0157211409 0.1612284182 0.0005165337 1.14817e-05 0.0003385905 -0.0001354739 -0.0383762169 0.8444770805
755295470.0 -0.0143960742 0.1618285867 0.0002396757 6.38792e-05 0.0001825412 1.39628e-05 -0.0298930307 0.8441190958
760295440.0 -0.013320517 0.1619369362 0.0001969965 -3.11006e-05 0.0002125876 -4.58539e-05 -0.0209743251 0.8440344876
765295410.0 -0.0115057939 0.1625235776 0.0003334264 -0.0001462952 0.0002441295 0.0001287588 -0.0127126765 0.8446992634
770295380.0 -0.0099874215 0.162587451 0.0002275973 -9.24247e-05 0.0003021416 -0.0001906863 -0.0047525957 0.8446300102
775295350.0 -0.0086687862 0.1629496642 0.0001784138 -4.5697e-05 0.0003312677 -0.0001473423 0.0030466627 0.8445045952
780295320.0 -0.0073530595 0.1632617336 0.0001752941 -0.0002416353 0.0003156975 -2.30817e-05 0.0125517431 0.8447093919
785295290.0 -0.0056303393 0.1630155598 0.0001698996 0.0002042991 0.0001819423 -1.63188e-05 0.021238123 0.8437187412
790295260.0 -0.00372614 0.1638806264 0.0004250308 -9.40964e-05 0.0001768843 6.38096e-05 0.0295582493 0.844276225
795295230.0 -0.002442617 0.163932552 0.0004760388 -0.000296514 4.01362e-05 -0.0001522834 0.038277887 0.8427771216
800295200.0 -0.0010796107 0.1642776765 0.0001617239 -3.75103e-05 0.0003668484 -9.43762e-05 0.0468199903 0.8432545716
805295170.0 0.0008255176 0.1642150534 0.0002247089 -0.0001203446 0.0004301411 7.06969e-05 0.0544135374 0.843065441
810295140.0 0.002332839 0.1642686346 0.0002602796 -8.83449e-05 0.0001948299 -1.57592e-05 0.0631136112 0.8417171945
815295110.0 0.0034694924 0.1645594532 0.0004159944 -0.0002361883 0.0004850984 -6.43524e-05 0.0714129292 0.8406381627
820295080.0 0.0052087579 0.1651358825 0.0003573639 -0.0001599779 0.000234512 -0.000175689 0.0799191215 0.8403137045
825295050.0 0.007210122 0.1649268786 0.0001429952 -5.42376e-05 0.0002114572 -0.0001520193 0.0886013438 0.8401822982
830295020.0 0.0083199474 0.1649488683 0.0001525663 -0.00019688 0.0003885099 -0.0002026084 0.0975654399 0.8388597785
835294990.0 0.0099981052 0.1654528532 0.0003506045 -6.73722e-05 0.000376093 -0.0001348024 0.1046339712 0.8383441839
840294960.0 0.0113528961 0.1656620443 -3.68722e-05 -3.89035e-05 6.30042e-05 -0.0002676358 0.1132247556 0.8364425205
845294930.0 0.0131163662 0.1654940545 0.0002690845 0.0001564231 0.0002629544 -3.59532e-05 0.1211143221 0.8353485529
850294900.0 0.0146334075 0.165799389 0.0003762699 -0.0003755903 0.0001992762 4.29047e-05 0.1301030786 0.8339071723
