!Created with skrf (http://scikit-rf.org).
# Hz S RI R 50.0 
!freq ReS11 ImS11 ReS21 ImS21 ReS12 ImS12 ReS22 ImS22
300000.0 -0.2425092954 -0.0715207018 0.4724730575 0.0480863814 0.4687344386 0.0470184583 -0.2409818264 -0.0848876062
5299970.0 -0.2444472996 0.0077364923 0.4737015802 0.0047126031 0.4736934534 0.0049713193 -0.2446707696 0.0077149914
10299940.0 -0.2412109158 0.0193070793 0.475453648 0.0058376143 0.4755695197 0.0064242333 -0.2412235025 0.0203547465
15299910.0 -0.2368784029 0.0280560363 0.4794303158 0.0077503136 0.4793813291 0.0076363968 -0.2365506233 0.0297549569
20299880.0 -0.2322754528 0.0353406167 0.4840521827 0.008573846 0.4837978701 0.0084712773 -0.2313451149 0.0369320602
25299850.0 -0.2271752705 0.0419625967 0.4892176795 0.0073500822 0.4893769677 0.0073568331 -0.2252088811 0.0438332691
30299820.0 -0.2215761504 0.0469758831 0.4945666774 0.0052833673 0.4947546574 0.0052891866 -0.2194072356 0.0492119775
35299790.0 -0.2164190566 0.0515289614 0.499963856 0.0019327786 0.5000927457 0.0020580215 -0.2137468992 0.0530793502
40299760.0 -0.2115685469 0.0550496636 0.5049065786 -0.001989873 0.5053017758 -0.0015847352 -0.2084053565 0.0556165857
45299730.0 -0.206805736 0.0575595592 0.5094299067 -0.0063036663 0.5098680541 -0.0063563099 -0.2037857909 0.0584755329
50299700.0 -0.2022544257 0.0598045461 0.5142489347 -0.0118210541 0.514177776 -0.0116270036 -0.1986719055 0.0602706451
55299670.0 -0.1982004589 0.061662297 0.5184280785 -0.0183599363 0.5179842387 -0.017795584 -0.1943377564 0.0618266785
60299640.0 -0.1943588294 0.063473519 0.5215157142 -0.0240903044 0.5215553406 -0.0240358936 -0.1903776844 0.0627518714
65299610.0 -0.1912050167 0.0648831606 0.5242316653 -0.0305883484 0.5242136305 -0.0305180947 -0.1870345117 0.0640328684
70299580.0 -0.1879698557 0.0659006906 0.526782361 -0.0371256523 0.5266525359 -0.0370190497 -0.1839525632 0.0645628855
75299550.0 -0.1848623798 0.067353607 0.5285447391 -0.044163793 0.5284431667 -0.0438564866 -0.1806259519 0.0651650931
80299520.0 -0.1825742129 0.0677983332 0.5305406239 -0.0507190602 0.5307744146 -0.0509021257 -0.1782998336 0.0658160917
85299490.0 -0.1801787791 0.0689159531 0.5317549533 -0.0573332521 0.5317352894 -0.0574002573 -0.1762105068 0.0658294901
90299460.0 -0.1778358974 0.0697262341 0.5322397168 -0.0649562347 0.5331256867 -0.0645324714 -0.1737616636 0.0665704324
95299430.0 -0.1754794766 0.0702718687 0.5341300654 -0.0715299115 0.5338361413 -0.0715634096 -0.171382318 0.0674795828
100299400.0 -0.1738578947 0.0714104592 0.5337908826 -0.0781580328 0.53399856 -0.0784902051 -0.1692932481 0.0675688686
105299370.0 -0.1721291728 0.0722600946 0.5343851366 -0.0855574947 0.5348576456 -0.0853344115 -0.1675148743 0.0682283228
110299340.0 -0.1702507389 0.0733368912 0.5346147629 -0.0923859001 0.5346699335 -0.0919523067 -0.1664049313 0.0687331249
115299310.0 -0.1688009403 0.0742770754 0.534702339 -0.0993305269 0.5345408292 -0.0989881139 -0.1646349688 0.0692431279
120299280.0 -0.1673200671 0.0743738414 0.5343667328 -0.1054674944 0.5344957735 -0.1059376014 -0.1631721517 0.0697030488
125299250.0 -0.1661315251 0.0755034096 0.5339820521 -0.1123814793 0.5342457234 -0.1121305858 -0.1623250576 0.0701379348
130299220.0 -0.1650930666 0.0767105207 0.5333198955 -0.1196433251 0.5334361162 -0.1194185762 -0.1611361314 0.0705819716
135299190.0 -0.1636600926 0.077936703 0.5331363095 -0.12585739 0.532693386 -0.1257313607 -0.1599424579 0.0713453752
140299160.0 -0.1629185016 0.0791241321 0.5321644334 -0.1330964344 0.5320352863 -0.1328136842 -0.1590474029 0.0725887134
145299130.0 -0.1617142551 0.0800236446 0.5312315798 -0.1395440847 0.5311872926 -0.1390103424 -0.1582893101 0.0729757895
150299100.0 -0.1601401376 0.081264029 0.5298014002 -0.145364789 0.530075434 -0.145338206 -0.1574148592 0.0743850182
155299070.0 -0.1594985001 0.0822129076 0.5287247977 -0.1525908986 0.5284566956 -0.1522518166 -0.1561496381 0.075058796
160299040.0 -0.1582134179 0.083543955 0.5270973479 -0.1587220961 0.5271363293 -0.1586732227 -0.1559181432 0.0757834745
165299010.0 -0.157535941 0.0847096363 0.5259680786 -0.1652183295 0.5261889796 -0.1655660401 -0.154733916 0.0768819002
170298980.0 -0.1567282986 0.0857495652 0.5242520165 -0.1717101344 0.5247410873 -0.1712533203 -0.1538279469 0.0775918343
175298950.0 -0.1558340532 0.0870962216 0.5229570038 -0.1779520348 0.5226360634 -0.1773219992 -0.1534028559 0.0787286086
180298920.0 -0.1547268346 0.0883481012 0.5210774898 -0.1841635153 0.5209804558 -0.1837595712 -0.1526477803 0.079645938
185298890.0 -0.1532191245 0.0895999435 0.5193357869 -0.1904468464 0.5192697113 -0.1903801365 -0.1516045062 0.0808890155
190298860.0 -0.1528180566 0.091168225 0.5174020179 -0.1965070745 0.5179275388 -0.19622872 -0.1510310343 0.0817003359
195298830.0 -0.1518386356 0.0920319465 0.5151300895 -0.202602669 0.5153999271 -0.2023386525 -0.1504646549 0.0827745574
200298800.0 -0.1507552619 0.0933256107 0.5131684436 -0.2087793115 0.5134234964 -0.2088419603 -0.1496451133 0.0840293872
205298770.0 -0.1499786519 0.094934485 0.511172836 -0.2150735299 0.5109550062 -0.2149051367 -0.1486629473 0.0844374772
210298740.0 -0.1490458586 0.096270013 0.508862806 -0.2202689209 0.508719599 -0.2204888658 -0.1477328961 0.0864476027
215298710.0 -0.1482816568 0.0979027427 0.5067785475 -0.2266796557 0.5064661514 -0.2269995289 -0.1475121714 0.0874577702
220298680.0 -0.147191592 0.0989211906 0.5037002601 -0.2326893772 0.5041786824 -0.2323985049 -0.1470483309 0.0884298041
225298650.0 -0.1463288424 0.1003993435 0.5015136412 -0.2386149324 0.5017180101 -0.2383364436 -0.1463641515 0.0893187033
230298620.0 -0.1451359531 0.1020666465 0.4992037329 -0.2438937985 0.4995131319 -0.2443113748 -0.1453591098 0.0903853
235298590.0 -0.1441288534 0.1037467656 0.4966870317 -0.2500157519 0.4966350844 -0.2497468727 -0.1446806564 0.0918294994
240298560.0 -0.1431951925 0.105062231 0.4941308788 -0.2559126336 0.4936739408 -0.2558561017 -0.1438194799 0.0932262736
245298530.0 -0.1424074617 0.1060999878 0.4914004641 -0.261312561 0.49093234 -0.2615341417 -0.1427893144 0.0940445148
250298500.0 -0.1406994183 0.1078529043 0.4877271727 -0.2674695213 0.4876048213 -0.2666918788 -0.1421214095 0.095762339
255298470.0 -0.1398541297 0.1091271409 0.4843576627 -0.2726269934 0.485376292 -0.2722150182 -0.1415333127 0.0966330633
260298440.0 -0.1390169557 0.1104599521 0.4822465855 -0.278466173 0.48238684 -0.2779768691 -0.1401513861 0.0980081237
265298410.0 -0.1376284862 0.1123396577 0.4794277747 -0.2834556324 0.479426297 -0.2837350271 -0.1395614845 0.099794109
270298380.0 -0.1367989854 0.1136332822 0.4759566864 -0.2889517702 0.4762749636 -0.2890327704 -0.1388958565 0.1005586203
275298350.0 -0.1351367208 0.1150636324 0.4729223322 -0.29467526 0.4733046788 -0.2943200904 -0.1376713143 0.1020624922
280298320.0 -0.1340403528 0.1168594754 0.4702173148 -0.3001874831 0.4700223213 -0.2998536083 -0.1369804697 0.1032405869
285298290.0 -0.1329735346 0.1182516687 0.4665331622 -0.3052865488 0.4664941963 -0.3051908477 -0.1359802584 0.104338026
290298260.0 -0.131729149 0.1197299955 0.4631062452 -0.3104462269 0.4633436304 -0.3108863483 -0.1349987688 0.1060059957
295298230.0 -0.130330635 0.1210237392 0.4602457661 -0.3156452629 0.4598279958 -0.3156588029 -0.1335686121 0.1067876782
300298200.0 -0.1296471937 0.1222050051 0.4570582681 -0.3204298483 0.4568955017 -0.3213812784 -0.133019964 0.1083286378
305298170.0 -0.127681077 0.1235888018 0.4528097075 -0.3266714177 0.453036723 -0.3262883775 -0.1314266739 0.1093774035
310298140.0 -0.1266014293 0.1251638386 0.4492591725 -0.3315417091 0.4496503513 -0.3315460885 -0.1305375977 0.1108806241
315298110.0 -0.1254087739 0.1262828851 0.4457426618 -0.3366801784 0.4461988184 -0.3369068478 -0.1300245856 0.1119608974
320298080.0 -0.1238046451 0.1277505384 0.441436986 -0.3419742779 0.4421625262 -0.3421230719 -0.1288314659 0.1130991249
325298050.0 -0.122835225 0.1289913946 0.4380028459 -0.3472717694 0.4382034568 -0.3465998868 -0.1282524714 0.1142467938
330298020.0 -0.1213607907 0.1299701591 0.4334271288 -0.3518618096 0.4342811766 -0.3521985387 -0.1275336804 0.1156155561
335297990.0 -0.1201939614 0.131319058 0.4301943863 -0.3566016384 0.4298516048 -0.3568694244 -0.127181932 0.1172080728
340297960.0 -0.1192258286 0.1329732736 0.4258453901 -0.3610292612 0.4257915174 -0.36150649 -0.1254679347 0.1182206754
345297930.0 -0.118072271 0.1345771221 0.4218545636 -0.3664141158 0.4216409055 -0.366446977 -0.124713246 0.1191712048
350297900.0 -0.116385637 0.1358412358 0.4169467905 -0.3709492315 0.417652868 -0.3706839288 -0.1240593798 0.1210447526
355297870.0 -0.1150639046 0.1376899155 0.4128995438 -0.3755326636 0.4135739313 -0.3753778936 -0.1227721744 0.1222084919
360297840.0 -0.1137831909 0.1387573258 0.4097865446 -0.3798631916 0.4100092664 -0.3798091459 -0.1215691135 0.1237755327
365297810.0 -0.1128369323 0.1400564259 0.4049801693 -0.3844852311 0.4053378615 -0.3844140751 -0.1205751771 0.1249162036
370297780.0 -0.1107129818 0.1414365141 0.4005109355 -0.3888528124 0.4008969253 -0.3884906873 -0.1192094811 0.1261651938
375297750.0 -0.1091806647 0.1428119547 0.3964869404 -0.3933180502 0.3971022278 -0.3933108201 -0.1184915087 0.1273640537
380297720.0 -0.10761578 0.1440827953 0.3919564592 -0.3976014694 0.3925501533 -0.3971812588 -0.1170851804 0.1285377655
385297690.0 -0.1064309456 0.1452755523 0.3876362223 -0.401493138 0.3877305049 -0.4018465754 -0.1157638887 0.1297588332
390297660.0 -0.1048485199 0.1471555701 0.3835745834 -0.4062693853 0.3832084363 -0.4058087579 -0.1150163961 0.1309765343
395297630.0 -0.1032053267 0.1483091273 0.3791619637 -0.410364931 0.3790153607 -0.4104268678 -0.1133177236 0.1323666255
400297600.0 -0.1018303946 0.1497335931 0.3743368759 -0.4149846406 0.3745157232 -0.4147946191 -0.112191625 0.1336018909
405297570.0 -0.1004640856 0.150769354 0.3696289481 -0.41843894 0.3698957129 -0.4184769647 -0.1111245356 0.1348068754
410297540.0 -0.0984156771 0.1518347736 0.3654265865 -0.4226260899 0.3654430763 -0.4226033443 -0.1096726411 0.1363971206
415297510.0 -0.0965859305 0.1527779084 0.3603793942 -0.4267187346 0.3609029478 -0.4267265321 -0.1085853484 0.1374875445
420297480.0 -0.0951506535 0.1545790134 0.3554268643 -0.4306065991 0.3558266414 -0.4309391459 -0.107572503 0.1385079981
425297450.0 -0.0935312702 0.155389394 0.3514278898 -0.4343705028 0.3517909077 -0.4344639508 -0.1064229247 0.1398328415
430297420.0 -0.0921559114 0.1563671059 0.3464750059 -0.4375880713 0.3464302086 -0.437687069 -0.1051781775 0.1404880553
435297390.0 -0.0903995899 0.1577249333 0.3412999042 -0.4419072822 0.3409605729 -0.4419988806 -0.1029151234 0.1422072161
440297360.0 -0.088444316 0.1590304989 0.3366055841 -0.4458803228 0.3368169521 -0.4457435926 -0.102217492 0.1429474535
445297330.0 -0.086696692 0.1598843809 0.331757481 -0.4493387785 0.3320408424 -0.4489813899 -0.100702466 0.1437633817
450297300.0 -0.084953395 0.1610574317 0.3270621514 -0.4530739228 0.3271586201 -0.4529014953 -0.0992489558 0.1452566879
455297270.0 -0.0833514843 0.1621559642 0.3217642645 -0.4561922633 0.322092464 -0.456417627 -0.0982169518 0.1461112121
460297240.0 -0.0817263112 0.1631254528 0.3167116168 -0.4598323527 0.3169440588 -0.4598745159 -0.0966172303 0.1474922104
465297210.0 -0.0795618865 0.1645055153 0.3116941601 -0.4633148022 0.3116865027 -0.4637205485 -0.0949394688 0.1480855958
470297180.0 -0.0778358707 0.1652218419 0.3061963481 -0.4666098507 0.3066043457 -0.4666626466 -0.0937706095 0.1496781907
475297150.0 -0.0759374578 0.1660298603 0.3012572582 -0.4693468277 0.3016056987 -0.4693516478 -0.0919719572 0.1503525171
480297120.0 -0.0742902867 0.1673370732 0.2965711365 -0.4730790378 0.2962147649 -0.4737128928 -0.0906766169 0.1515205935
485297090.0 -0.0724016046 0.168156988 0.2911456428 -0.4762526745 0.2913202161 -0.4759531203 -0.0890916008 0.1524100255
490297060.0 -0.070888235 0.1692623778 0.2864192622 -0.4797212189 0.2861420608 -0.4789746783 -0.0879681884 0.1535607638
495297030.0 -0.0690557095 0.1700425633 0.2805510777 -0.482381816 0.281378095 -0.4823759489 -0.0864996197 0.1546945644
500297000.0 -0.0670590398 0.1709571893 0.275831111 -0.4850095175 0.2751868324 -0.4853877931 -0.0846711814 0.1565145611
505296970.0 -0.0647605869 0.1718604268 0.2704858733 -0.488327628 0.2701053941 -0.4886524427 -0.083546782 0.1567752757
510296940.0 -0.0631470193 0.1726647997 0.2642730029 -0.4915649773 0.2648621168 -0.4916076497 -0.0818955611 0.1579009013
515296910.0 -0.0614153623 0.1734220807 0.2592896871 -0.4936354151 0.2593873034 -0.4941055877 -0.0801777184 0.1584073786
520296880.0 -0.0593829604 0.1745205195 0.2540270656 -0.4976745109 0.2540450715 -0.4970491656 -0.0788565638 0.1593680227
525296850.0 -0.0572736024 0.1747389099 0.248265676 -0.4995528105 0.2488071663 -0.4994367836 -0.0773761445 0.1603558299
530296820.0 -0.055492055 0.1759043044 0.2428065569 -0.502555083 0.2428926324 -0.5022970691 -0.0759194088 0.1612222685
535296790.0 -0.0539496167 0.1768108692 0.2379647967 -0.5047461944 0.237658536 -0.504489001 -0.0743897843 0.1617804187
540296760.0 -0.0517557982 0.177470831 0.2320101959 -0.5078731956 0.23200939 -0.5074186841 -0.0730828026 0.1630806537
545296730.0 -0.049925883 0.1781039327 0.2264850906 -0.5100636388 0.2265448482 -0.510060514 -0.0715824212 0.1636219628
550296700.0 -0.0475570258 0.1790261221 0.2209952328 -0.5124586332 0.2210779605 -0.5126908997 -0.070160691 0.1650034092
555296670.0 -0.045906063 0.1792070315 0.2156159784 -0.5145782868 0.2155453142 -0.51472909 -0.0678988438 0.165878041
560296640.0 -0.0436251422 0.1803339313 0.2098178704 -0.5170747164 0.2100805943 -0.5169625806 -0.066539709 0.1663145562
565296610.0 -0.0421805442 0.1805886833 0.2038197263 -0.5196131559 0.2043203549 -0.5194464984 -0.0650029872 0.1669923147
570296580.0 -0.0400116669 0.1815059497 0.1987277645 -0.5220123543 0.1983394647 -0.521701903 -0.0636943382 0.1683040723
575296550.0 -0.0381686084 0.1822726552 0.1930250195 -0.5240970915 0.1926416557 -0.5238928049 -0.061680482 0.1688434443
580296520.0 -0.035929525 0.1825729254 0.1871204068 -0.5254818182 0.1868359244 -0.5252642234 -0.0599406333 0.1694159994
585296490.0 -0.0341294935 0.1825648759 0.1817811426 -0.5271006267 0.1815562915 -0.5275902504 -0.0583281562 0.1700370095
590296460.0 -0.0315882692 0.1834700286 0.1758386635 -0.5288756526 0.1761157409 -0.5292186153 -0.0571358947 0.1708056263
595296430.0 -0.0297355339 0.1841848918 0.1695027633 -0.5314703635 0.1699125474 -0.531367408 -0.0552961941 0.1712611483
600296400.0 -0.0279233069 0.1844357491 0.1641966365 -0.5333935712 0.1643157564 -0.532768249 -0.0537191101 0.172050299
605296370.0 -0.0259948794 0.1848156846 0.1588607847 -0.5348532888 0.1585349474 -0.5349743788 -0.0519518959 0.1727891598
610296340.0 -0.0238728899 0.1857708421 0.1521762566 -0.5367471367 0.1529818235 -0.5364024147 -0.0501565645 0.1734131678
615296310.0 -0.0217529983 0.1853676768 0.1470561778 -0.5378224748 0.1464425195 -0.5385163689 -0.0481350056 0.1744916731
620296280.0 -0.0195225672 0.1854242439 0.1411146629 -0.5391087185 0.1410983193 -0.5391535426 -0.0469615783 0.1748612028
625296250.0 -0.017837347 0.1858869042 0.1357172288 -0.5411359709 0.1353985086 -0.5411915774 -0.0444475828 0.1752381691
630296220.0 -0.0149982344 0.1867440017 0.1285266489 -0.5428042328 0.128731048 -0.5419074967 -0.0434126746 0.1761499602
635296190.0 -0.0139601343 0.1866639359 0.1234347522 -0.5432698173 0.123353428 -0.5434130385 -0.0414261634 0.1766857725
640296160.0 -0.0116114475 0.1871281581 0.1176279711 -0.5444754028 0.1176114074 -0.5449184036 -0.0396775367 0.1772404532
645296130.0 -0.0094536436 0.1876532673 0.1112933913 -0.5458781033 0.1117308126 -0.5462703126 -0.038234727 0.1782779605
650296100.0 -0.0069510019 0.1877483869 0.1055631594 -0.5471713459 0.1055452202 -0.5471518761 -0.0361054571 0.1778113534
655296070.0 -0.0055115274 0.1877789633 0.1000069534 -0.548360229 0.1001457786 -0.5482845047 -0.0341735062 0.1789432405
660296040.0 -0.0036358718 0.1878433854 0.0936926153 -0.5495494396 0.0941183379 -0.5494424638 -0.0325516745 0.1793093053
665296010.0 -0.0009121233 0.1881073195 0.0875089302 -0.550309868 0.0881976234 -0.5505398712 -0.0308395688 0.1803487783
670295980.0 0.0001890648 0.1885628011 0.0818794196 -0.5510376614 0.0817044843 -0.5511302603 -0.0297383637 0.1802676447
675295950.0 0.0027326401 0.1888200485 0.0763558787 -0.5517113159 0.0761726956 -0.5513040361 -0.0279183878 0.1805522923
680295920.0 0.0047892168 0.1886532954 0.0696254712 -0.552600422 0.0694287785 -0.5533897708 -0.025939515 0.181775308
685295890.0 0.0069189703 0.1889998842 0.0642898982 -0.5536591498 0.063651278 -0.5534162198 -0.024307677 0.1813428341
690295860.0 0.0094435463 0.1891891235 0.0577085623 -0.5537641662 0.0581246495 -0.5545138837 -0.0224923235 0.1828006707
695295830.0 0.0112200282 0.188633048 0.0521192997 -0.5544515794 0.0518356412 -0.5546212799 -0.0208576906 0.1826591346
700295800.0 0.0132715959 0.1886724982 0.0459240701 -0.5544686921 0.0457710189 -0.5547754279 -0.0192083226 0.183466328
705295770.0 0.0149178464 0.1894917286 0.0397682946 -0.5558156148 0.0404671 -0.5555857449 -0.0173362149 0.1836991319
710295740.0 0.0173865381 0.1890365429 0.0343361426 -0.5564423972 0.0342634614 -0.5560575596 -0.015236467 0.1833302705
715295710.0 0.0189690229 0.1886820987 0.0281472651 -0.5560023672 0.0277797671 -0.5563727105 -0.0133579014 0.1839069796
720295680.0 0.0214344959 0.1886341661 0.0217312158 -0.5564224463 0.0221945923 -0.5563503751 -0.0118401962 0.1843751751
725295650.0 0.0237071075 0.1885312556 0.0161638173 -0.5566171495 0.0162866914 -0.5567677476 -0.0105901874 0.1849745211
730295620.0 0.0259468953 0.1888700378 0.0102039892 -0.5561978426 0.010053544 -0.5569508001 -0.0086361361 0.1848236453
735295590.0 0.0276599837 0.1887137284 0.0041826206 -0.5568743435 0.003871515 -0.5566787282 -0.0069646549 0.1847547546
740295560.0 0.0293857314 0.1882958199 -0.0020693603 -0.5568430032 -0.0022378709 -0.5569064675 -0.0043448391 0.1852729828
745295530.0 0.0319045587 0.1882376623 -0.0080528852 -0.5557822758 -0.0080910372 -0.5564047077 -0.0027540455 0.1851574268
750295500.0 0.0338954105 0.1880450919 -0.0136806461 -0.5560112531 -0.0138196864 -0.5569635887 -0.0012742571 0.185722031
755295470.0 0.0359337982 0.1877569044 -0.0194332268 -0.5563325838 -0.019660479 -0.5566179292 0.0012503023 0.185336686
760295440.0 0.0379148205 0.187322185 -0.0261156921 -0.5562115511 -0.0259010751 -0.5564242675 0.0025351133 0.1857527289
765295410.0 0.0399513496 0.1870118291 -0.0321880511 -0.5554535377 -0.0320998423 -0.5559051317 0.0042984375 0.1858428425
770295380.0 0.0419120081 0.1871490806 -0.0382272464 -0.5554355062 -0.0378355471 -0.5552476581 0.0059157378 0.1858686338
775295350.0 0.0438373657 0.1860413479 -0.0443696782 -0.5542910722 -0.0437951149 -0.5546209694 0.0075581196 0.1862244429
780295320.0 0.0461581044 0.1862441407 -0.0501016247 -0.5540103502 -0.0494983007 -0.5542246129 0.0095983514 0.1859278759
785295290.0 0.0479188997 0.1850012034 -0.0564439375 -0.5529244668 -0.0558257026 -0.5536020705 0.0120627211 0.1863068596
790295260.0 0.0508013248 0.1855763715 -0.0616217675 -0.5529832081 -0.0609247108 -0.552939148 0.0134382372 0.1865172691
795295230.0 0.0523249259 0.1848241051 -0.0673592889 -0.5516742719 -0.0674886452 -0.5524780051 0.0156695268 0.1866769141
800295200.0 0.0540675317 0.1844487944 -0.073422515 -0.5510786467 -0.0736458205 -0.5512016709 0.0171696429 0.1863398999
805295170.0 0.0564583795 0.183749388 -0.0797107656 -0.5504202566 -0.0794033253 -0.5508027726 0.0190044419 0.1864287921
810295140.0 0.0581746185 0.1831774589 -0.0854552385 -0.5494694823 -0.0853399508 -0.5494604758 0.0211994558 0.1865762975
815295110.0 0.0604900404 0.1824774351 -0.0915345552 -0.5480787592 -0.0911756732 -0.5485335907 0.0226657719 0.1862809474
820295080.0 0.0620330286 0.1826111457 -0.0973034491 -0.5471626523 -0.0968341406 -0.5473248432 0.0245771319 0.1865414845
825295050.0 0.064804272 0.1818793566 -0.1029299282 -0.5463023253 -0.1031208268 -0.5464721683 0.0267939928 0.1862289249
830295020.0 0.0665019849 0.1813427914 -0.1091951697 -0.5449483497 -0.1091416085 -0.5450971644 0.0290344482 0.1861229344
