!Created with skrf (http://scikit-rf.org).
# Hz S RI R 50.0 
!freq ReS11 ImS11 ReS21 ImS21 ReS12 ImS12 ReS22 ImS22
300000.0 -0.7726130961 -0.1707662874 -0.0037010056 0.0011619717 0.0007526982 0.0013650081 -0.7695082513 -0.181337714
5299970.0 -0.7861975235 -0.0093145122 3.43868e-05 -3.96832e-05 -8.07027e-05 4.95524e-05 -0.7849947775 -0.0093497815
10299940.0 -0.7892955106 -0.0056617177 -4.93741e-05 0.0001252134 8.86224e-05 0.000168089 -0.7876389673 -0.0053853981
15299910.0 -0.7939171098 -0.0030940141 0.0001381468 -0.0001491571 5.06968e-05 -7.46048e-05 -0.7932398575 -0.0026016594
20299880.0 -0.8011484712 0.00060544 -6.30241e-05 8.67455e-05 -6.43435e-05 0.0001127164 -0.7997087549 0.0016679526
25299850.0 -0.807569671 0.0070953582 -0.0001087644 0.0002341009 -0.0001256892 -3.93576e-05 -0.8066918414 0.0076990666
30299820.0 -0.813798187 0.0139319469 0.0001113051 -6.92335e-05 -3.50108e-05 -0.0001505169 -0.8119085223 0.0158622552
35299790.0 -0.8186985282 0.0228563405 1.55065e-05 -0.000173893 -3.75096e-05 -0.0002600939 -0.8171112115 0.0249801719
40299760.0 -0.823543045 0.0319528972 -7.32848e-05 4.765e-06 -4.59445e-05 3.08512e-05 -0.8212160172 0.0338466737
45299730.0 -0.8262050976 0.0416960686 4.19148e-05 -0.0001280663 7.88013e-05 4.14839e-05 -0.8243670856 0.0434015831
50299700.0 -0.8293748557 0.0520813647 -1.8091e-05 1.13244e-05 7.59305e-05 -3.14675e-05 -0.8266668245 0.0535303136
55299670.0 -0.8313013878 0.0613892924 4.11369e-05 0.0001643531 -0.0002028957 8.20477e-05 -0.8288500603 0.0639734642
60299640.0 -0.8322773282 0.0718489656 -3.3443e-06 -3.33805e-05 -7.8969e-06 -9.07568e-05 -0.8296876868 0.0741177024
65299610.0 -0.8336889264 0.0820982955 0.0001762154 0.0001508382 -1.8067e-05 -1.62697e-05 -0.8305632 0.0839274697
70299580.0 -0.833700153 0.0913048906 -1.12974e-05 -0.0001445205 0.0001777124 -4.14853e-05 -0.8311697427 0.0935564618
75299550.0 -0.8337514122 0.1016680758 -5.17974e-05 -3.15181e-05 0.0001415425 -6.3558e-06 -0.8308790991 0.1038405518
80299520.0 -0.8334275501 0.1121638619 -0.0002352144 4.68403e-05 -0.0001849922 0.0001153522 -0.8309836922 0.1141792479
85299490.0 -0.8328510109 0.1209308107 4.35774e-05 8.18053e-05 -8.3858e-05 -0.0001159139 -0.8303351297 0.1230998342
90299460.0 -0.8322363951 0.1322550405 -0.0001251337 -4.2187e-05 -4.3167e-05 -0.0002097492 -0.8291027098 0.132702881
95299430.0 -0.8314943868 0.1405946508 0.000149112 0.0001098697 -5.94688e-05 7.04909e-05 -0.8282595503 0.1427161135
100299400.0 -0.8301266337 0.1500260239 -4.98458e-05 0.0001368681 9.54822e-05 8.97467e-05 -0.8273596295 0.1518349746
105299370.0 -0.8285178564 0.1594120993 0.000149446 -0.0001782317 0.0001718515 9.26943e-05 -0.8257839382 0.1606239681
110299340.0 -0.8276766181 0.1678423187 -7.0921e-06 -0.000148334 -4.82517e-05 -1.29373e-05 -0.8247962267 0.1697508747
115299310.0 -0.8264559097 0.177962062 0.0002198256 0.0001995856 0.0001750559 -1.92814e-05 -0.8231802627 0.1793762166
120299280.0 -0.8244568589 0.1867204659 0.000121692 3.3926e-06 -0.0002284017 -3.09193e-05 -0.8213527678 0.1882400814
125299250.0 -0.8222880586 0.1956492738 -0.0001726951 2.4507e-06 3.53034e-05 -2.56869e-05 -0.8198324501 0.1971534214
130299220.0 -0.8206283801 0.2050315277 5.95484e-05 0.0003060735 -0.0001814324 6.55047e-05 -0.817888385 0.2059460321
135299190.0 -0.8185748557 0.2141587359 -0.0001145343 -3.03879e-05 -1.79633e-05 -2.58874e-05 -0.8163500562 0.2145049328
140299160.0 -0.8170485099 0.2231707398 2.81927e-05 -7.30053e-05 6.02609e-05 0.0002026092 -0.8142134279 0.2230248797
145299130.0 -0.8152459211 0.2324328471 4.9435e-06 0.0003831484 3.58859e-05 -0.0002550998 -0.8118242314 0.2322297124
150299100.0 -0.8117169085 0.240886219 7.1784e-06 3.85597e-05 -0.0003185861 -2.18504e-05 -0.8097908178 0.2413397025
155299070.0 -0.8100592409 0.2502594758 0.000209582 0.0001043597 -0.0001306386 3.3509e-05 -0.8072865465 0.2504076513
160299040.0 -0.8074394827 0.2592229635 1.82929e-05 5.99e-05 -9.13437e-05 -0.0002125657 -0.8047816725 0.2592605222
165299010.0 -0.8044341105 0.2673693156 0.0001661826 -0.0002525889 -6.30104e-05 2.2451e-05 -0.8021464739 0.2675071387
170298980.0 -0.8018883585 0.2762447998 -0.0001302979 -0.0001291911 -5.4754e-06 -9.86543e-05 -0.799821285 0.2756694507
175298950.0 -0.7993546215 0.2845757876 6.55906e-05 0.0001079946 4.35792e-05 3.6954e-06 -0.7971075964 0.2850617701
180298920.0 -0.7958962809 0.2935966379 8.43674e-05 -3.67534e-05 0.0002547381 -4.29077e-05 -0.7935965299 0.2932395127
185298890.0 -0.7924446078 0.3020247192 2.81547e-05 -0.0001542294 0.0002249326 -5.6437e-05 -0.7903816307 0.3015787795
190298860.0 -0.7892216878 0.3109403095 -0.0001011071 -0.0001558789 3.76826e-05 0.0001075933 -0.7871313037 0.3097973009
195298830.0 -0.7864602802 0.3189114156 -2.16675e-05 2.21573e-05 -0.0003198568 4.43164e-05 -0.7840872571 0.3181704856
200298800.0 -0.7825495965 0.3273232719 -0.0001185862 8.38649e-05 2.88588e-05 -0.0001243011 -0.7810069514 0.3267408347
205298770.0 -0.7793487205 0.3365814166 6.29105e-05 7.71193e-05 1.0546e-06 -8.09382e-05 -0.7777328516 0.3354453903
210298740.0 -0.7766077323 0.3445201209 1.75075e-05 -2.34166e-05 -1.12357e-05 5.1928e-06 -0.7739450541 0.3432510321
215298710.0 -0.7719736479 0.3529210136 0.0001807172 3.46325e-05 -2.54249e-05 -0.0001455161 -0.7703050384 0.3514920055
220298680.0 -0.7688589137 0.3610263982 8.2734e-06 9.70156e-05 -0.0001845255 3.68427e-05 -0.7670578069 0.3594441751
225298650.0 -0.7647042967 0.3695581848 -8.40095e-05 -0.000250062 0.000123993 0.0001684571 -0.7630030258 0.3679399755
230298620.0 -0.7609137284 0.377914584 4.89237e-05 -0.0002271461 0.0002030713 -2.71491e-05 -0.7593015352 0.3754228513
235298590.0 -0.7572455167 0.3863180215 0.0001334165 8.153e-06 -3.37829e-05 0.0001177708 -0.7550962796 0.3833929467
240298560.0 -0.7530277836 0.3940613033 0.0001188683 8.92552e-05 0.0001453742 -0.0001515471 -0.7514504828 0.3909201575
245298530.0 -0.7492356492 0.4015671147 -6.19888e-05 -2.94567e-05 6.80016e-05 0.0001148173 -0.7475610717 0.3993744327
250298500.0 -0.7448079657 0.408958769 0.0001684548 2.40195e-05 3.14677e-05 -0.0002270285 -0.7425121166 0.4067074604
255298470.0 -0.740945781 0.4177751881 -0.0001643849 -0.0001467545 -0.0001593538 7.17707e-05 -0.7392184587 0.4143010186
260298440.0 -0.7366668821 0.4252269517 0.0001885069 7.72e-07 0.0001032177 -0.0001178478 -0.7342623697 0.4214320988
265298410.0 -0.7319670503 0.4331113468 0.000320579 0.0001098194 4.47038e-05 -0.0001904794 -0.7302128671 0.4302155161
270298380.0 -0.7274113796 0.440299528 -3.69476e-05 -3.81618e-05 0.0001372319 -7.43302e-05 -0.7252689416 0.4380339327
275298350.0 -0.7231009276 0.4483071092 0.0002366775 -0.0002363662 0.0001113087 0.0001334334 -0.7204207226 0.4448223645
280298320.0 -0.7182402719 0.4556101404 -5.0595e-06 -0.0001517338 -6.60038e-05 7.32833e-05 -0.7163022683 0.4530407622
285298290.0 -0.7133573094 0.4630927823 0.0001339861 -3.58497e-05 -0.0002457801 0.0001168145 -0.7119085824 0.4604428315
290298260.0 -0.7085845958 0.4710059165 9.66552e-05 3.97292e-05 5.60244e-05 6.18976e-05 -0.7061225021 0.4676091667
295298230.0 -0.7040433959 0.4783266929 0.0001107675 -0.0001127145 6.37252e-05 0.0001014703 -0.7012857552 0.4747154181
300298200.0 -0.6990652991 0.4852100043 -5.9925e-06 9.6348e-06 5.87759e-05 0.000215002 -0.6969975515 0.4825920336
305298170.0 -0.6940999788 0.4922626506 -8.15334e-05 -5.29381e-05 0.0001249403 3.4716e-06 -0.6912751103 0.4894551339
310298140.0 -0.6891398872 0.4998082381 -4.20491e-05 0.0002259545 -7.46582e-05 4.23334e-05 -0.6861588492 0.4970475452
315298110.0 -0.6845394811 0.5070842446 0.0001115919 0.0001105994 0.0001590597 0.0001526318 -0.6810993768 0.5036689787
320298080.0 -0.6794241676 0.5146569149 -0.0002162003 1.82939e-05 6.47894e-05 8.46473e-05 -0.67662612 0.5105973626
325298050.0 -0.6730298715 0.5205608226 -0.0001075704 4.0916e-05 -8.15097e-05 0.0001167858 -0.6702937973 0.5176800176
330298020.0 -0.6681473265 0.5278587204 -7.18829e-05 -8.11505e-05 6.64409e-05 0.000152693 -0.6653000025 0.5240384695
335297990.0 -0.6630274029 0.5346037146 3.89033e-05 0.0001450927 6.71942e-05 8.07398e-05 -0.6592032484 0.5314732244
340297960.0 -0.657778506 0.5417198571 -0.0001110248 0.0002950272 -8.28742e-05 0.0001310499 -0.6542035218 0.5389078537
345297930.0 -0.6520709696 0.5482566421 7.38893e-05 4.65359e-05 7.6385e-05 -2.60736e-05 -0.6489019424 0.544793521
350297900.0 -0.6463557708 0.5546358292 0.0001396325 0.0001161139 4.50674e-05 0.0002087159 -0.6436324306 0.5507808463
355297870.0 -0.640785449 0.5615127609 0.0001296971 7.29151e-05 -6.86187e-05 8.82086e-05 -0.6368539261 0.5588304124
360297840.0 -0.634955793 0.5675804587 -0.0001281245 5.2264e-05 -2.20965e-05 -1.80859e-05 -0.6304787551 0.5651574488
365297810.0 -0.6291917428 0.5747139044 -5.14305e-05 9.23175e-05 -7.34451e-05 -0.0001123904 -0.6257952077 0.5712837142
370297780.0 -0.6232429913 0.5801123242 0.0001881516 1.74093e-05 -1.73329e-05 0.0001110402 -0.6195585786 0.577855559
375297750.0 -0.6178342138 0.5874863049 -0.0001395443 7.08593e-05 8.61564e-05 1.29866e-05 -0.6131261459 0.5836489152
380297720.0 -0.6123657498 0.5934015197 0.0001286351 -7.05883e-05 0.0001662385 -2.19165e-05 -0.606513255 0.5901412458
385297690.0 -0.6056121373 0.5993340389 -7.73905e-05 0.0001544114 0.0001161494 -8.24901e-05 -0.6015034257 0.5965095619
390297660.0 -0.5985868466 0.6053926781 -1.66286e-05 5.25109e-05 -0.0001863783 3.82352e-05 -0.5948149943 0.6028226609
395297630.0 -0.5923197386 0.6120367162 1.66589e-05 3.80881e-05 -2.20152e-05 0.0001262756 -0.5880230113 0.6077284609
400297600.0 -0.5866101529 0.6182531184 -0.0001117324 7.39647e-05 1.11816e-05 -2.0318e-05 -0.5822681121 0.6138379888
405297570.0 -0.5808576896 0.6234434394 -6.69896e-05 -0.0001249561 2.80913e-05 -0.000105216 -0.5755650629 0.6200803889
410297540.0 -0.5734911701 0.6297161859 5.38217e-05 -4.58522e-05 -9.82945e-05 1.98e-06 -0.5695038972 0.6258126912
415297510.0 -0.5680693591 0.6353961787 1.82526e-05 -0.0001362507 -7.87177e-05 0.0001162413 -0.5627240659 0.6313508054
420297480.0 -0.5607463869 0.6406306048 5.55065e-05 -0.0001137151 2.01688e-05 0.0001750554 -0.5565199096 0.6378723987
425297450.0 -0.5546448142 0.6465576143 -4.16803e-05 7.39398e-05 7.29708e-05 0.0001438093 -0.5499884774 0.642442213
430297420.0 -0.5480297035 0.6521425921 0.000166849 0.0001466138 -1.62871e-05 0.0001337384 -0.5428356368 0.6485147196
435297390.0 -0.5404834191 0.6575866775 7.36953e-05 -1.74559e-05 -7.23379e-05 0.0001021301 -0.536760768 0.6545128382
440297360.0 -0.5335355035 0.662898643 2.40028e-05 -0.0001411683 5.99401e-05 -6.20715e-05 -0.5303408987 0.6596436694
445297330.0 -0.5270829576 0.6681248194 -6.49814e-05 -3.22616e-05 0.0001464595 -1.58964e-05 -0.5229396894 0.6650083438
450297300.0 -0.519958068 0.6738905413 -0.0002089378 -0.0001627592 -5.04584e-05 -0.0001738448 -0.5158004733 0.6693813129
455297270.0 -0.5135693558 0.6786605186 1.0273e-06 -5.19778e-05 -6.4194e-06 7.62189e-05 -0.5095419069 0.6753016401
460297240.0 -0.5056860715 0.6840401329 -0.0001313405 8.32328e-05 -6.55608e-05 -8.693e-07 -0.50280028 0.6799492176
465297210.0 -0.4991168671 0.6891072425 -8.274e-06 4.02107e-05 0.0001110346 -3.4187e-05 -0.4948513321 0.6855723281
470297180.0 -0.4915059903 0.6941488916 1.75382e-05 0.0001069848 2.93335e-05 -6.48503e-05 -0.4880855334 0.6901140758
475297150.0 -0.4850857271 0.6986137879 9.22658e-05 -7.05695e-05 9.0582e-06 0.000140878 -0.4810486425 0.6953330044
480297120.0 -0.4766658087 0.7037652417 -7.91798e-05 5.58496e-05 0.0001108814 -5.63602e-05 -0.4744331232 0.6998146346
485297090.0 -0.469764215 0.7088266309 -8.90672e-05 -0.00019698 -0.0001048866 -0.0001064489 -0.4670814711 0.704849607
490297060.0 -0.4619912873 0.7139344956 9.90631e-05 -0.000148011 -2.20321e-05 -0.0001046235 -0.4591372291 0.7088134998
495297030.0 -0.4549501969 0.7180520071 -5.44366e-05 -7.58362e-05 -1.7608e-06 0.0001809424 -0.4523630356 0.7138280144
500297000.0 -0.4474292822 0.7223227664 3.45037e-05 -5.3357e-05 -6.9956e-05 0.0002200359 -0.4449616567 0.7187182941
505296970.0 -0.4394084036 0.7271261136 -0.0001030398 -1.79204e-05 0.0001197004 -1.34614e-05 -0.4379223067 0.7225761564
510296940.0 -0.4318440704 0.7313354344 -4.48925e-05 6.91685e-05 -8.23762e-05 8.52152e-05 -0.4300924966 0.7274366995
515296910.0 -0.4241960548 0.7351752435 3.24953e-05 9.99912e-05 3.70514e-05 0.0002239344 -0.423285883 0.7311368083
520296880.0 -0.4159520822 0.7397346493 0.0002055949 -6.57663e-05 -5.58847e-05 -9.66487e-05 -0.4152759528 0.7359401048
525296850.0 -0.4085162333 0.7441255662 9.2566e-06 -0.0001063999 0.0001225985 0.0001345202 -0.408027413 0.7395034845
530296820.0 -0.4016046948 0.7478849432 0.0001457816 -5.59323e-05 0.0001044321 -0.0001582402 -0.4003355764 0.7433854777
535296790.0 -0.3927924634 0.7522434939 0.0001566774 -7.65201e-05 -8.471e-05 -5.5668e-05 -0.3931531734 0.7480917802
540296760.0 -0.3852385135 0.7563132036 -0.0001172631 -2.26819e-05 0.0001052839 -4.32788e-05 -0.3848060959 0.7512448169
545296730.0 -0.3776216251 0.7602558043 1.77849e-05 2.82254e-05 2.8448e-05 4.1478e-05 -0.3775967952 0.7553740155
550296700.0 -0.3693947371 0.7636343184 -0.0001293508 0.000257481 0.0001695073 7.22605e-05 -0.3699808429 0.7589489481
555296670.0 -0.361483024 0.7674549054 0.0001604552 2.7267e-06 -1.92412e-05 -5.00813e-05 -0.3625568778 0.7623694838
560296640.0 -0.3531153338 0.7702585367 5.51854e-05 -0.0002006183 0.0001117158 -2.48932e-05 -0.3545752081 0.7666035045
565296610.0 -0.3455131144 0.7739862444 0.0001335534 -0.0001345427 0.0001256976 -3.78446e-05 -0.3463176992 0.7699565126
570296580.0 -0.3370828993 0.7780158233 -5.54012e-05 -0.0001556684 8.6179e-06 -2.64499e-05 -0.3388444226 0.7731246042
575296550.0 -0.3288680816 0.7812595423 -3.1419e-06 -4.87078e-05 -0.0001647893 -2.57358e-05 -0.3312214416 0.77633857
580296520.0 -0.3210649847 0.7845816006 -0.0001020113 0.0001144911 7.83427e-05 -0.0001187816 -0.3235774288 0.7794565818
585296490.0 -0.3122023484 0.7878197402 8.71148e-05 0.0001642308 -0.0001164241 -6.94877e-05 -0.3154184826 0.783116118
590296460.0 -0.3033952043 0.7908787083 -4.00966e-05 -4.8364e-06 0.0001271729 -0.0001485687 -0.3076856991 0.7856229058
595296430.0 -0.296211266 0.7938750346 -2.78404e-05 -1.9149e-06 1.05575e-05 3.23373e-05 -0.299981672 0.789181325
600296400.0 -0.2883852898 0.7965658411 3.88586e-05 0.0001334119 -9.86811e-05 -0.0001681463 -0.2922078764 0.7918053863
605296370.0 -0.2798962686 0.7994303551 -3.77636e-05 9.27092e-05 0.0001141107 -9.95885e-05 -0.2839199407 0.7952020933
610296340.0 -0.2714510582 0.8027048862 -6.27649e-05 5.48112e-05 -2.30459e-05 0.0001456879 -0.2760790036 0.7979826124
615296310.0 -0.2630953971 0.8055573814 0.0001328599 2.74622e-05 4.06818e-05 8.02229e-05 -0.2673541764 0.8003540356
620296280.0 -0.2551981298 0.808297857 7.51163e-05 6.83266e-05 5.78318e-05 2.06622e-05 -0.2597054304 0.8033485983
625296250.0 -0.247414935 0.8102179476 -6.62388e-05 -0.0001594266 6.12913e-05 -3.69772e-05 -0.2518305045 0.8049446274
630296220.0 -0.2392965064 0.812968513 8.42272e-05 -4.65356e-05 0.0001410301 2.761e-07 -0.243251452 0.8077872917
635296190.0 -0.2305094688 0.8155429391 -5.3278e-05 -0.0001176435 -2.45492e-05 -0.0001907887 -0.2355914609 0.8100181439
640296160.0 -0.2216723001 0.8177293041 -0.0001168698 0.0001006693 -2.33356e-05 1.22307e-05 -0.2270617052 0.8125711566
645296130.0 -0.2142851417 0.8206976954 5.1695e-05 -0.0001364623 -4.13696e-05 7.05093e-05 -0.2193510874 0.8141667682
650296100.0 -0.2056535856 0.8216561493 -8.47044e-05 0.0001712393 -9.26133e-05 1.37729e-05 -0.2108590021 0.8164033711
655296070.0 -0.1976812914 0.8245234334 -1.30993e-05 -0.0001557921 -5.42441e-05 -4.39137e-05 -0.2029427318 0.8187901432
660296040.0 -0.1889986176 0.8264417257 0.0001071667 -1.58814e-05 8.06202e-05 5.28719e-05 -0.1943270073 0.8210770359
665296010.0 -0.1807235786 0.8284431411 0.0001121938 9.24081e-05 2.40381e-05 -0.0001458655 -0.1861343322 0.8225830961
670295980.0 -0.1725958708 0.8303159721 -6.39571e-05 2.40898e-05 7.94545e-05 0.0001557464 -0.1785069958 0.8241392519
675295950.0 -0.1638639978 0.8321292653 -4.20766e-05 -9.8671e-05 -1.77809e-05 3.24403e-05 -0.1695933108 0.8266049305
680295920.0 -0.1569001043 0.8336710195 9.11319e-05 -0.0001890828 5.04578e-05 -2.34096e-05 -0.1614558732 0.8277953208
685295890.0 -0.1474827164 0.8355345722 6.08528e-05 -0.0002231793 3.55217e-05 0.0001009695 -0.1530770055 0.8298490435
690295860.0 -0.1393599489 0.8365176518 7.17987e-05 0.0002639197 9.34432e-05 7.83414e-05 -0.1451106423 0.8309767066
695295830.0 -0.1305453501 0.8388654918 -0.0001430923 5.49979e-05 -3.2108e-06 3.77839e-05 -0.1369009086 0.8323446286
700295800.0 -0.1223866245 0.8400863789 0.0002984293 0.000132337 1.75347e-05 2.132e-07 -0.1282741477 0.8335198159
705295770.0 -0.1146037236 0.8410757636 2.79203e-05 -3.17062e-05 -3.75822e-05 0.0002024095 -0.1205554689 0.8356264032
710295740.0 -0.106768904 0.8417818784 -0.0002887573 6.75296e-05 0.0001230661 1.39147e-05 -0.1119321661 0.8364990034
715295710.0 -0.0976331044 0.8439307244 -5.40532e-05 6.95207e-05 -1.87035e-05 0.0001177198 -0.1031271302 0.8366976068
720295680.0 -0.0884647567 0.8440818896 -0.0002984492 -5.40341e-05 -1.17421e-05 -0.0001654951 -0.0951117647 0.8379244371
725295650.0 -0.0815099332 0.8460434611 -1.45208e-05 0.0001436249 -0.0001497692 0.0001552488 -0.0868330653 0.8394700203
730295620.0 -0.073591944 0.8467263649 -8.36608e-05 5.03584e-05 -1.20716e-05 -8.26059e-05 -0.0785678432 0.8400978785
735295590.0 -0.0653035513 0.8477737844 9.05525e-05 0.0001474554 8.40182e-05 -0.000158593 -0.0695357575 0.8402338068
740295560.0 -0.0577196162 0.8476094916 -1.24555e-05 5.17956e-05 1.08344e-05 9.14061e-05 -0.0612945642 0.8414291788
745295530.0 -0.0488523235 0.8487706908 -3.92623e-05 3.43183e-05 -5.76435e-05 3.117e-07 -0.0531057623 0.841625042
750295500.0 -0.0404021307 0.8491200822 8.0276e-05 -0.0002592284 -3.57136e-05 -0.0001764845 -0.0446097649 0.8423476908
755295470.0 -0.0323804449 0.8502737766 0.0001021735 -0.0001946945 0.0001006162 -3.46316e-05 -0.0370681586 0.8429324774
760295440.0 -0.0240563675 0.8513107281 0.0001451967 -0.0001699581 -4.91148e-05 -0.0001248329 -0.0281219131 0.8426660994
765295410.0 -0.0160028706 0.8506834819 -3.71382e-05 -0.000333934 1.3456e-05 0.0001070709 -0.019480594 0.8425284872
770295380.0 -0.0087145094 0.8511447165 -0.0001467793 0.0001121638 -0.0001243193 0.000277071 -0.0111754559 0.843127183
775295350.0 0.0006199267 0.8510163482 -8.8029e-05 6.00773e-05 -0.0001060862 0.0001017161 -0.0032522562 0.8435890539
780295320.0 0.0086370345 0.8516972625 3.3316e-05 -0.0001531897 -0.000120711 -1.02086e-05 0.0055082043 0.8431057998
785295290.0 0.0167922057 0.8508166274 -0.0001166013 -3.3643e-05 6.4034e-05 -0.0002201516 0.0137806051 0.8433826378
790295260.0 0.0248309892 0.8504217279 -4.97757e-05 -0.0001227637 -0.0001063273 2.66678e-05 0.0220454202 0.8432960233
795295230.0 0.0332115348 0.8509801447 -5.59757e-05 -8.56272e-05 5.91838e-05 3.5798e-05 0.0305683634 0.8430336955
800295200.0 0.0412539837 0.8505625772 -5.40194e-05 2.15625e-05 7.51219e-05 1.21726e-05 0.0387803017 0.8423190089
805295170.0 0.0494717726 0.8505834159 -2.00301e-05 7.62312e-05 -0.000100577 -4.8634e-05 0.0474736378 0.8419186523
810295140.0 0.0581558775 0.8505510515 1.31236e-05 -0.000134711 -4.1588e-05 -0.0001249669 0.0557949239 0.8415753987
815295110.0 0.0653008172 0.8496314207 7.55254e-05 -0.0001818871 9.1158e-05 -0.0001667887 0.0636715653 0.8407340363
820295080.0 0.0738199168 0.8490623611 -0.0001580163 -0.0001335644 -3.4575e-05 -3.7568e-06 0.0713935019 0.8408790612
825295050.0 0.0820198109 0.8483034783 -4.80608e-05 -1.49191e-05 -0.0001393351 2.11578e-05 0.0801841694 0.8395121932
830295020.0 0.0906140508 0.8478446504 1.68232e-05 0.0001631274 3.68982e-05 -1.27521e-05 0.0881117671 0.8382292995
835294990.0 0.0981604971 0.8464722017 -7.16723e-05 7.6259e-05 -2.65783e-05 9.73942e-05 0.096949385 0.8377958038
840294960.0 0.1067707819 0.8450446461 0.0001254322 6.60434e-05 -0.0001054442 4.25426e-05 0.1055473428 0.8370532324
845294930.0 0.1147710594 0.8443537235 0.0001876033 -0.0001935117 -4.90012e-05 0.0002221372 0.1136143049 0.8355075259
850294900.0 0.1240077179 0.8432138461 -1.5041e-05 -2.49878e-05 -0.0001460666 9.96915e-05 0.1217776386 0.8346691191
