!Created with skrf (http://scikit-rf.org).
# Hz S RI R 50.0 
!freq ReS11 ImS11 ReS21 ImS21 ReS12 ImS12 ReS22 ImS22
300000.0 -0.0968149115 -0.0827895924 0.6227458873 0.0785946815 0.6230073325 0.0817796907 -0.0948496415 -0.091418905
5299970.0 -0.1003452676 0.0129982679 0.6305863623 0.0103605387 0.6306435388 0.0110056863 -0.1021835765 0.0120893126
10299940.0 -0.0952972123 0.0297968679 0.6347020884 0.0152663107 0.6341787786 0.0163533424 -0.0969226526 0.0288879666
15299910.0 -0.0886305346 0.0431674994 0.6400899654 0.0208741444 0.6403910009 0.0209097762 -0.09031907 0.0422170524
20299880.0 -0.0794065808 0.0544452111 0.6490866939 0.0237332313 0.6485719275 0.0243253694 -0.0815370021 0.0534183927
25299850.0 -0.0696457547 0.0629299089 0.6580119528 0.0247710601 0.6579163157 0.0253630376 -0.0722916789 0.0618228449
30299820.0 -0.0596204559 0.0691844928 0.6678632275 0.0244336994 0.6670657993 0.0247090716 -0.0626114144 0.068622619
35299790.0 -0.0495327761 0.0743063614 0.6774156337 0.0215768188 0.6774403203 0.0218576158 -0.0523645635 0.0735192734
40299760.0 -0.0396155213 0.0768427921 0.6866402816 0.0179585064 0.6863234799 0.0175027467 -0.0432624063 0.0769752435
45299730.0 -0.0303463839 0.0794719059 0.6958048264 0.0114990106 0.6953649882 0.0122930804 -0.0339936074 0.0789523243
50299700.0 -0.0217776094 0.0795699971 0.7031984896 0.0048449331 0.7035540246 0.0045722983 -0.0252036788 0.0801636118
55299670.0 -0.0141830364 0.0798549625 0.7103090507 -0.0029757022 0.7108108235 -0.0028573286 -0.0177020761 0.0797409974
60299640.0 -0.0066375081 0.0788250786 0.7172461939 -0.0117841725 0.717555161 -0.0113451048 -0.0102184386 0.0796926142
65299610.0 -0.0006326769 0.0779909026 0.7238322328 -0.0195399776 0.7239872337 -0.0199461753 -0.0038584369 0.078536439
70299580.0 0.0061223648 0.0759361834 0.7288946185 -0.0295091051 0.7285025427 -0.0293238428 0.0025042524 0.0770787561
75299550.0 0.0115621489 0.0743391254 0.7326713158 -0.0386836252 0.7331141275 -0.038817577 0.0081150217 0.0758221736
80299520.0 0.0162903722 0.0719544107 0.7375061346 -0.0490448446 0.7373108949 -0.0485660208 0.0130692093 0.0729249949
85299490.0 0.0207887822 0.0696511031 0.7406350846 -0.0592427481 0.740517577 -0.0588210969 0.0175610434 0.0711797425
90299460.0 0.0248577266 0.0673996247 0.7436529116 -0.06888966 0.7437673974 -0.0687358107 0.0222307101 0.0686395274
95299430.0 0.0280032901 0.065337601 0.7461060243 -0.0794643972 0.7459350736 -0.0787637459 0.0252949981 0.0663725862
100299400.0 0.0316825918 0.0626476949 0.7471894484 -0.0892297669 0.7472330554 -0.0898349826 0.0285139975 0.0638947396
105299370.0 0.0346111756 0.0601659895 0.7487148991 -0.0989583877 0.7488027221 -0.099049038 0.0318362437 0.0616912616
110299340.0 0.0371258311 0.0576918939 0.7503305663 -0.109160575 0.7503059807 -0.1096879912 0.0346787627 0.059456009
115299310.0 0.0396791909 0.0548999624 0.7509252049 -0.1190694738 0.7510063525 -0.1194009141 0.0371778617 0.0563263237
120299280.0 0.041344794 0.052534087 0.7517449954 -0.1297149966 0.7512695543 -0.129984814 0.0389711928 0.0542702446
125299250.0 0.0431220759 0.0503413602 0.7520083902 -0.1388695892 0.7518580149 -0.1395719068 0.041263607 0.0512161724
130299220.0 0.0450660713 0.0479536549 0.7513803601 -0.1487199764 0.7518836327 -0.1492093228 0.0429773482 0.0493411074
135299190.0 0.046897918 0.0455585747 0.750993295 -0.1585874169 0.7506356477 -0.1588883503 0.0446036371 0.0473082765
140299160.0 0.0478732341 0.0441266082 0.7509167911 -0.169026406 0.7507483124 -0.168675976 0.0464911296 0.0453230095
145299130.0 0.0493283961 0.0417901359 0.7505177589 -0.1790867596 0.7501398908 -0.1782913203 0.0472424101 0.042720104
150299100.0 0.0505548143 0.0398502125 0.749306752 -0.1886024499 0.7486473934 -0.1881811185 0.048848195 0.0409277854
155299070.0 0.051152467 0.0381298172 0.7480773418 -0.198047219 0.7476379514 -0.1983182987 0.049255219 0.0388667731
160299040.0 0.0524570636 0.0359377855 0.7459934874 -0.2071890252 0.745960556 -0.2073495838 0.0504158745 0.0372655796
165299010.0 0.0528595392 0.0344060595 0.7452782848 -0.2167478387 0.744837889 -0.2168963472 0.0512370399 0.0349567925
170298980.0 0.0534512395 0.032607769 0.7420284147 -0.2261922377 0.7429864701 -0.2260450299 0.0525714618 0.0329931737
175298950.0 0.0543802557 0.0307612143 0.7417295355 -0.2354655884 0.7413018199 -0.2350452188 0.0532534865 0.031149802
180298920.0 0.0550498047 0.0289017196 0.7390324789 -0.2449109497 0.7390478424 -0.2442515577 0.0537945243 0.0297185527
185298890.0 0.0560241837 0.0274216948 0.7369647915 -0.2540973725 0.7367971172 -0.2537352945 0.0541528908 0.0275656898
190298860.0 0.0563076911 0.0257616906 0.7340680005 -0.2629703712 0.7345145222 -0.262883871 0.0555670913 0.0260881586
195298830.0 0.0562945026 0.0238927748 0.7316733851 -0.2718184885 0.7323082713 -0.2725604413 0.0557792502 0.0240285976
200298800.0 0.0571068348 0.0226608477 0.729725417 -0.2802765077 0.7288932869 -0.2808368396 0.056179078 0.0233366665
205298770.0 0.0572406817 0.0211524437 0.727065773 -0.29001777 0.7267261263 -0.2899500088 0.0564753535 0.0206720792
210298740.0 0.0572777149 0.0196353483 0.7237172125 -0.2987596457 0.7235109799 -0.2987123174 0.0568928876 0.0200130191
215298710.0 0.0578611724 0.0186948076 0.7209122626 -0.3072389328 0.7207993946 -0.3069630711 0.0569047495 0.0184588205
220298680.0 0.0582718724 0.0172969829 0.7171863198 -0.3161618506 0.7172993883 -0.3158301401 0.0573377337 0.0170927798
225298650.0 0.0583930665 0.0159744088 0.713880795 -0.3241337349 0.7139830715 -0.3241876441 0.0575004184 0.0155620957
230298620.0 0.0582323121 0.0148687146 0.7110385221 -0.3329943166 0.7110832262 -0.3325502111 0.0577719579 0.0143887016
235298590.0 0.0583560043 0.0134084215 0.7071864085 -0.3410534288 0.7072445766 -0.3420468528 0.058040658 0.0123645646
240298560.0 0.0583000857 0.0120335492 0.7038593869 -0.3495540741 0.7040972831 -0.3490978422 0.0581147335 0.0118100002
245298530.0 0.0589248911 0.0112294021 0.6995123629 -0.3578570548 0.6995880467 -0.3584061456 0.058394476 0.0106524161
250298500.0 0.0583803129 0.0097641727 0.6960663375 -0.3659424751 0.6963614261 -0.365344169 0.0586905721 0.0088857773
255298470.0 0.0581868621 0.0088429555 0.6914690634 -0.3747271189 0.6920809073 -0.3745195495 0.0587224109 0.0075878703
260298440.0 0.0583277057 0.007867454 0.6882814518 -0.3826692305 0.6884519326 -0.3830507939 0.0594504259 0.0068532562
265298410.0 0.0591078494 0.0071417121 0.6841954936 -0.3908779415 0.6838093915 -0.3909234688 0.0588468056 0.0052985342
270298380.0 0.059156837 0.0055415438 0.6791876955 -0.3985838843 0.6796064911 -0.3985800732 0.0589134654 0.0049469822
275298350.0 0.0585498729 0.0046411979 0.6751161995 -0.4068787926 0.6755968419 -0.4067116461 0.0588818819 0.0035452939
280298320.0 0.0586630639 0.0039364488 0.6710076919 -0.4141645227 0.6708895473 -0.4144898258 0.0592441057 0.0028127524
285298290.0 0.0588501224 0.0029179318 0.666820398 -0.4214323948 0.6664661862 -0.4223347753 0.0589092698 0.0015188287
290298260.0 0.0586403087 0.0016286605 0.6625340153 -0.4298735352 0.6624507923 -0.4295287682 0.0596739269 0.0007000035
295298230.0 0.0586819327 0.0005905887 0.6576816297 -0.4375076924 0.6574221032 -0.437625513 0.0597096358 -0.0005747119
300298200.0 0.0592952434 0.0001930924 0.6528608388 -0.4454309177 0.6532413745 -0.4456929752 0.0591847458 -0.0014556017
305298170.0 0.0586668914 -0.001234136 0.6482484356 -0.4528034223 0.6483883694 -0.4531408703 0.0596293312 -0.0022990197
310298140.0 0.0593467174 -0.0024354225 0.6435190206 -0.460708459 0.6433081475 -0.4614036065 0.0597887925 -0.0027985964
315298110.0 0.0587860767 -0.0034396091 0.6379718131 -0.4683089286 0.6384239852 -0.4685486611 0.0598388413 -0.0046772461
320298080.0 0.0585886197 -0.0044634085 0.6325342699 -0.4757770278 0.6330620451 -0.4760372268 0.0593724953 -0.0061329152
325298050.0 0.058145395 -0.0059391295 0.6280546158 -0.4834740016 0.6279874016 -0.4837560743 0.0590176043 -0.0069737258
330298020.0 0.0578878838 -0.0064004065 0.6216618689 -0.4906425198 0.6216186595 -0.4909467535 0.0585370755 -0.0082128173
335297990.0 0.0575357347 -0.0078167713 0.6161996473 -0.4980872644 0.6165891143 -0.4976886328 0.0580990298 -0.009135081
340297960.0 0.0567770168 -0.0081776104 0.6103704791 -0.5050574131 0.6107140793 -0.5045904512 0.0573845985 -0.0094234944
345297930.0 0.0561868599 -0.0086004256 0.6049099433 -0.5108945422 0.6041765876 -0.5112430205 0.0577626333 -0.0108404642
350297900.0 0.0564880546 -0.0093213856 0.5989182812 -0.5176577348 0.5995238985 -0.5176739542 0.056624009 -0.0108879181
355297870.0 0.0560327191 -0.010293014 0.5930241297 -0.5247896901 0.592994979 -0.524801475 0.0564166673 -0.0113319728
360297840.0 0.0558762372 -0.0108084269 0.587144702 -0.5319454653 0.5869077531 -0.5316529607 0.0565872684 -0.0118426711
365297810.0 0.0558789563 -0.0116702978 0.5815672974 -0.5380348988 0.5815641231 -0.5380457752 0.0557829412 -0.0125210566
370297780.0 0.0557590533 -0.0122420041 0.5754377549 -0.5443092823 0.5758243634 -0.5452103261 0.0559091119 -0.0129280355
375297750.0 0.0550597064 -0.0123617134 0.5702879075 -0.5513385516 0.5695835805 -0.5514591485 0.0554304192 -0.0136627967
380297720.0 0.0550265186 -0.0138542719 0.5634514856 -0.5570231883 0.5635099516 -0.5568379696 0.0551814591 -0.0141848393
385297690.0 0.0547394252 -0.0141841477 0.5569967092 -0.5629611186 0.557072037 -0.5636827796 0.0550317259 -0.0148019342
390297660.0 0.0542241448 -0.0148525338 0.5508238209 -0.5697561211 0.5511356052 -0.570656164 0.0548548005 -0.0159051769
395297630.0 0.0544810997 -0.0158106884 0.5451856128 -0.5755194732 0.5446003801 -0.5756858371 0.0541930248 -0.0160942754
400297600.0 0.0536966992 -0.0160625716 0.5382558262 -0.5820673756 0.5384873035 -0.5821074158 0.0533345292 -0.0172153266
405297570.0 0.0539089531 -0.0165374178 0.5318231365 -0.5876955692 0.532312318 -0.5881719672 0.0537393926 -0.0169452314
410297540.0 0.0537258678 -0.0174513156 0.5243709019 -0.593756792 0.5249852456 -0.5936776339 0.0534316513 -0.017970857
415297510.0 0.0530837293 -0.0173010682 0.5190638279 -0.5990082051 0.5189437169 -0.5997368593 0.052600234 -0.0181739656
420297480.0 0.052802019 -0.0188425743 0.5120585588 -0.6055456477 0.5118843329 -0.6052946856 0.052975973 -0.0193143569
425297450.0 0.0533270859 -0.0198911667 0.5058153954 -0.611221989 0.5059537775 -0.6110930786 0.0521877017 -0.0191609728
430297420.0 0.0523951725 -0.0196798167 0.4987949862 -0.6169976233 0.4987884953 -0.6170967827 0.0516635176 -0.020356359
435297390.0 0.0524226767 -0.0208626983 0.4921829261 -0.6218440574 0.4921998416 -0.6216900174 0.0511218974 -0.0200584733
440297360.0 0.0521279405 -0.0215016144 0.4849125169 -0.6280341488 0.4848692888 -0.6280466655 0.0511258606 -0.0214379553
445297330.0 0.0522303411 -0.0222285767 0.4778771225 -0.6335395365 0.477733748 -0.6333729343 0.0506900502 -0.0219069831
450297300.0 0.0518844064 -0.0224871736 0.4711518816 -0.6386379471 0.4715111105 -0.6385335238 0.0503174396 -0.0221010849
455297270.0 0.0511367757 -0.0235291246 0.4643545156 -0.6433681031 0.4646894093 -0.6433425373 0.0504245204 -0.0226151665
460297240.0 0.0504671311 -0.0238705473 0.4571291841 -0.6483217243 0.4564684249 -0.6490556316 0.0495801257 -0.0228405932
465297210.0 0.0505703704 -0.0247785582 0.4502252528 -0.653697979 0.4502509323 -0.6539105197 0.0487136332 -0.0237273067
470297180.0 0.0497583893 -0.0250986009 0.4429395292 -0.6584113442 0.4433671714 -0.6588743695 0.048252606 -0.0243614693
475297150.0 0.0493551292 -0.0265740486 0.4353023228 -0.6635670978 0.4359595283 -0.6630744589 0.0481057038 -0.0246073281
480297120.0 0.0497655627 -0.0268981702 0.4283574726 -0.6685397658 0.4288251469 -0.6680795843 0.0477459622 -0.0246493648
485297090.0 0.0491738986 -0.0271725062 0.4216362138 -0.6728259303 0.420968224 -0.6735165255 0.0468531524 -0.0258876931
490297060.0 0.0489732153 -0.0280781672 0.4135067651 -0.6778778364 0.4134260903 -0.6778040086 0.0468181698 -0.02582464
495297030.0 0.047873397 -0.028275475 0.4057958486 -0.6824267123 0.4061093398 -0.6825291042 0.0465485343 -0.0266802468
500297000.0 0.0478830082 -0.0291419798 0.3985524087 -0.6867822986 0.3981819602 -0.6869440738 0.0455293075 -0.027170236
505296970.0 0.0470195739 -0.0297177609 0.3910285929 -0.6908402207 0.3906227196 -0.6908345617 0.0449061368 -0.0272528396
510296940.0 0.0468083615 -0.0300715087 0.3837141951 -0.695190649 0.3831346414 -0.6950837374 0.0451316928 -0.0270780939
515296910.0 0.0461682316 -0.0304153109 0.3751516378 -0.6990691067 0.375869087 -0.6992129563 0.0440154096 -0.0281607034
520296880.0 0.0457962493 -0.0315595241 0.3680606111 -0.7034445703 0.368330491 -0.7034389828 0.0441910058 -0.0285474828
525296850.0 0.0452640796 -0.0323407565 0.3602217434 -0.7078835533 0.3604331435 -0.7080221035 0.0437227025 -0.0288695081
530296820.0 0.0451359763 -0.0326275322 0.352488375 -0.7112335751 0.3522930091 -0.7114294024 0.0424858136 -0.0300313613
535296790.0 0.0440395983 -0.0329472876 0.344923819 -0.7148588169 0.3449316699 -0.715270989 0.0425014268 -0.0302855418
540296760.0 0.0438735787 -0.0336772242 0.3371788507 -0.7194983212 0.3363389073 -0.7197727556 0.0415498319 -0.0299919261
545296730.0 0.0433354077 -0.0337026651 0.3283520132 -0.7223028271 0.3292056096 -0.7233905583 0.0411929637 -0.0311834104
550296700.0 0.0425607041 -0.0345432129 0.3214890608 -0.7264128334 0.321471303 -0.7269730887 0.040779731 -0.0303137441
555296670.0 0.0425408215 -0.0351745669 0.3131678406 -0.7306726906 0.3132250878 -0.7296975751 0.0401723007 -0.03141299
560296640.0 0.0418833438 -0.0357092552 0.3051286583 -0.7330084824 0.3055852545 -0.7329836808 0.0395223811 -0.0315590811
565296610.0 0.0406782123 -0.0362446819 0.297124778 -0.7366418244 0.2969212608 -0.7363608638 0.0392117558 -0.0323944617
570296580.0 0.0410678153 -0.0366196687 0.2892302384 -0.7398795109 0.2891942089 -0.7402593614 0.0385870927 -0.0318408229
575296550.0 0.040073243 -0.0362325937 0.2810366911 -0.742704169 0.2818379859 -0.7426912138 0.0383497903 -0.0326917218
580296520.0 0.0393076207 -0.0371822227 0.2732610473 -0.7455720095 0.2724856627 -0.7459174512 0.0373350514 -0.0334934917
585296490.0 0.0392709431 -0.0378982258 0.265205334 -0.7486060228 0.2646159444 -0.74883845 0.0369767697 -0.0338883215
590296460.0 0.037983768 -0.0386365942 0.2561482303 -0.7517743214 0.2561669746 -0.7517326064 0.036726091 -0.0332805217
595296430.0 0.0374702495 -0.0385030845 0.2481028772 -0.7550334436 0.2483547367 -0.7543860822 0.0362391626 -0.0339715075
600296400.0 0.0371720492 -0.0387574017 0.2401906631 -0.7571895954 0.2405012381 -0.7569800286 0.035448777 -0.0339941436
605296370.0 0.0368118482 -0.0384922864 0.2321603784 -0.760249516 0.2317091311 -0.7596482314 0.034864788 -0.0350612764
610296340.0 0.0356547184 -0.0394682914 0.2240523218 -0.7627118507 0.2239221449 -0.7622748328 0.0341641906 -0.0342874902
615296310.0 0.0354285855 -0.0394971403 0.2151065693 -0.7644138159 0.2151324741 -0.7647555763 0.0338386401 -0.0351452479
620296280.0 0.0346376352 -0.0400185868 0.2071657535 -0.7667756043 0.2069156894 -0.7670189928 0.0334985671 -0.0357545311
625296250.0 0.0342802605 -0.0404160553 0.1976999787 -0.7695279112 0.1982870717 -0.7692421326 0.0328788982 -0.035582826
630296220.0 0.033553037 -0.0406421807 0.1898458269 -0.771885569 0.1903960013 -0.7710521606 0.031746192 -0.0361159281
635296190.0 0.0332466355 -0.0410880625 0.1811329503 -0.7726914066 0.1810971877 -0.7726333288 0.0311420443 -0.0365994812
640296160.0 0.0324227024 -0.0411849532 0.1736572068 -0.7747988396 0.1732024092 -0.7749286742 0.0315139303 -0.0365340892
645296130.0 0.0317695878 -0.041240503 0.1646127301 -0.7771653337 0.164719616 -0.7772359782 0.0296067769 -0.0372165365
650296100.0 0.030889528 -0.0411550601 0.1568148372 -0.7782257096 0.1567044375 -0.7781951006 0.0297796221 -0.0375176829
655296070.0 0.0301952034 -0.0420806101 0.1480138369 -0.7802918431 0.1477949495 -0.7800810404 0.0295272938 -0.0369476322
660296040.0 0.0291074728 -0.0415749713 0.1390119536 -0.7811266778 0.1393679555 -0.7819406798 0.028405148 -0.0377856329
665296010.0 0.029032989 -0.0423539026 0.1311547484 -0.7835192061 0.13159688 -0.7832559072 0.0277095255 -0.0376288845
670295980.0 0.0292486848 -0.0421154714 0.1226119761 -0.7845083605 0.1229830934 -0.7848595301 0.0267845947 -0.038144141
675295950.0 0.0281950196 -0.0424902666 0.1137895503 -0.7861855778 0.1142194554 -0.7857601862 0.026898054 -0.0381381769
680295920.0 0.027203738 -0.0425417927 0.1050949697 -0.7868775411 0.1048189177 -0.787344757 0.0263694121 -0.0387614138
685295890.0 0.0267060039 -0.0428501846 0.0971761402 -0.7881276754 0.0959890166 -0.7888171637 0.0258091815 -0.0383489463
690295860.0 0.0264561992 -0.043072871 0.0875993277 -0.7888159021 0.0875458304 -0.7891944355 0.0256535312 -0.0381701957
695295830.0 0.0261234494 -0.0435099337 0.0781702414 -0.7901508088 0.0788774304 -0.7899549729 0.0242017751 -0.0385845837
700295800.0 0.0257103637 -0.0432920308 0.0701660081 -0.7909250349 0.0703778256 -0.791526321 0.0234687998 -0.0393593012
705295770.0 0.0248008328 -0.0433797145 0.0622089073 -0.791363152 0.0619997744 -0.791657305 0.0227675272 -0.0391770145
710295740.0 0.0239758888 -0.0433921026 0.053220384 -0.7921809815 0.0531314428 -0.7916275373 0.0214376993 -0.0391796127
715295710.0 0.0237393467 -0.0437982008 0.0448625627 -0.7927188766 0.0449116352 -0.7924586545 0.0218927559 -0.0398822517
720295680.0 0.0226158418 -0.0444363413 0.0360840037 -0.7929682807 0.0358960681 -0.7939618806 0.0212546193 -0.039224248
725295650.0 0.022546441 -0.0439838908 0.0268989536 -0.7929841416 0.0275446811 -0.7931896034 0.0209507447 -0.0393538875
730295620.0 0.0211030788 -0.0445080483 0.0187351181 -0.7939168475 0.018826497 -0.7942288181 0.0203439709 -0.0404235762
735295590.0 0.0211240712 -0.0441652474 0.0107265632 -0.7939951143 0.0104730437 -0.7943293906 0.0193453965 -0.0396890117
740295560.0 0.020357792 -0.0441727968 0.0014136234 -0.7935794839 0.0013780793 -0.7938635299 0.0196406167 -0.0399364462
745295530.0 0.019758884 -0.0447581196 -0.0065677393 -0.793815534 -0.0072714287 -0.7939883779 0.0179668961 -0.0398072632
750295500.0 0.0192371861 -0.0446140633 -0.015301033 -0.7931046184 -0.0152276464 -0.7935938145 0.0183280385 -0.0405757415
755295470.0 0.0189916808 -0.0444632116 -0.0243164976 -0.7932999452 -0.0240328001 -0.7936929126 0.0165909008 -0.0403791214
760295440.0 0.0179687198 -0.0444966416 -0.0332343477 -0.7932346702 -0.0329430254 -0.7933723656 0.015559899 -0.0406021148
765295410.0 0.0169946431 -0.0452257382 -0.0411025112 -0.7923883563 -0.0409433864 -0.792574708 0.0166445696 -0.0400689073
770295380.0 0.0170694599 -0.0448549119 -0.0503941742 -0.7914323114 -0.0501076315 -0.7920006646 0.0158357758 -0.0397697321
775295350.0 0.0160615866 -0.0445866444 -0.0585975469 -0.7913902248 -0.0586292517 -0.7916810738 0.0144525198 -0.0411863356
780295320.0 0.015801443 -0.0448665591 -0.0666527083 -0.7910173454 -0.0669214959 -0.7910539088 0.0142828809 -0.0400913159
785295290.0 0.0144437858 -0.044701085 -0.0755942538 -0.7893611944 -0.075984374 -0.7904960968 0.0131698435 -0.0404334428
790295260.0 0.0140615641 -0.0444714235 -0.0841134872 -0.7893646308 -0.0845829962 -0.7896443336 0.0132111255 -0.0403304631
795295230.0 0.0133006145 -0.0447898629 -0.0924069416 -0.7878472973 -0.0927777959 -0.7884568164 0.0124083154 -0.0395238001
800295200.0 0.0129131011 -0.0445259282 -0.1021272677 -0.7872727197 -0.1019742636 -0.7873891647 0.0118070569 -0.0401905734
805295170.0 0.0117547669 -0.044679798 -0.1099056463 -0.7855286542 -0.110062958 -0.7860481533 0.010877238 -0.0405235254
810295140.0 0.011469216 -0.0446737631 -0.118091613 -0.7847983857 -0.1182542646 -0.7853201617 0.0105017343 -0.039863317
815295110.0 0.0107133476 -0.0443395079 -0.1275218948 -0.7830553368 -0.1277059628 -0.7834603656 0.0096123246 -0.0407149167
820295080.0 0.0102152578 -0.0447830711 -0.1354100859 -0.7818796348 -0.1360286978 -0.7821092278 0.0091113626 -0.0400133378
825295050.0 0.0094706637 -0.0448339272 -0.1442265639 -0.7804411193 -0.144142389 -0.7799392604 0.0086459091 -0.0396000614
830295020.0 0.0086255052 -0.0442976504 -0.1525308586 -0.7786530855 -0.1532553334 -0.7791016229 0.0079187745 -0.0403383211
