!Created with skrf (http://scikit-rf.org).
# Hz S RI R 50.0 
!freq ReS11 ImS11 ReS21 ImS21 ReS12 ImS12 ReS22 ImS22
300000.0 -0.1004310303 -0.0650367122 0.6304634474 0.0627534713 0.6242046306 0.0627209247 -0.1005012755 -0.074303033
5299970.0 -0.1020810618 0.0133753323 0.6303150987 0.0095106461 0.6307020909 0.0103717193 -0.1003768129 0.013085136
10299940.0 -0.0971965301 0.0293614739 0.6338591354 0.0152528987 0.6341481384 0.015751819 -0.0956756125 0.0303001184
15299910.0 -0.0899721774 0.0427312856 0.6403743648 0.0205098304 0.6407645965 0.0202655972 -0.0885535437 0.0435392722
20299880.0 -0.0816210834 0.0532052068 0.6486011347 0.0242108127 0.6484311213 0.0239293507 -0.0796585284 0.0546731007
25299850.0 -0.0723654372 0.0622478077 0.6577385325 0.0249578898 0.6578427691 0.025361146 -0.0698735537 0.0631188112
30299820.0 -0.0624958875 0.0688181341 0.6673684526 0.0242184342 0.6669976833 0.0245661682 -0.059956667 0.069932813
35299790.0 -0.0525220878 0.073720844 0.6773946558 0.0212191548 0.6769979877 0.0210645668 -0.0497611069 0.0746875282
40299760.0 -0.0433294015 0.0771946734 0.686473275 0.0170424856 0.6867738197 0.0176816213 -0.0403458175 0.0776818192
45299730.0 -0.0338408352 0.0792455392 0.6949080371 0.0114975298 0.6953004418 0.0117432004 -0.0311940359 0.079836304
50299700.0 -0.0257274464 0.080301278 0.7036765665 0.0045764302 0.7034344575 0.0052969636 -0.0227035398 0.0805838482
55299670.0 -0.0177434356 0.0804009703 0.7111021477 -0.003285851 0.7107372171 -0.0026211071 -0.0148298202 0.0805027549
60299640.0 -0.0098485831 0.0801906821 0.7173608507 -0.0110274692 0.7175982909 -0.0112820267 -0.0078946627 0.0796970633
65299610.0 -0.0037600611 0.078755772 0.7233712515 -0.020007591 0.7231510417 -0.0198271627 -0.0012338496 0.078319906
70299580.0 0.0026271341 0.0776000428 0.7288171562 -0.0293643333 0.7287469984 -0.0294678384 0.0049928053 0.0769348084
75299550.0 0.0082843846 0.0756905912 0.7325288385 -0.0390152825 0.7324143642 -0.0392256325 0.0101086286 0.0745547636
80299520.0 0.0130847026 0.073453366 0.7366845229 -0.0492399946 0.7374799263 -0.0490885065 0.0148593783 0.0725605237
85299490.0 0.0176602599 0.0714036694 0.7399827668 -0.0584905735 0.7399864566 -0.0584241096 0.0195835597 0.0700299576
90299460.0 0.0216581273 0.0689642117 0.7427141129 -0.0690536178 0.7432993251 -0.0688198362 0.0234632489 0.0680903749
95299430.0 0.0256330532 0.0667116459 0.7454248546 -0.0794803911 0.7455792875 -0.0789418417 0.0271506693 0.0654392715
100299400.0 0.0287726593 0.0647518007 0.7469830789 -0.0891804121 0.7470691531 -0.089567838 0.03111363 0.0625944658
105299370.0 0.0323243947 0.0619068272 0.7485552508 -0.1001560885 0.7490584707 -0.0997785646 0.0341897068 0.0607661801
110299340.0 0.0349060705 0.0596909752 0.7501934771 -0.1087984456 0.7498237507 -0.109265126 0.0360215191 0.0577623242
115299310.0 0.0376924791 0.0572489289 0.7503442173 -0.119649683 0.7511815042 -0.1194056523 0.0388410429 0.0552662522
120299280.0 0.0397982029 0.0545840601 0.7511188293 -0.1294163232 0.7511621667 -0.129695855 0.0412965428 0.0531499537
125299250.0 0.0418893371 0.0521054997 0.7517501638 -0.1392689989 0.7516790446 -0.1391593413 0.0428420775 0.0502322662
130299220.0 0.0434614309 0.0502722581 0.7511723541 -0.1495489231 0.7510957435 -0.149576534 0.0450647969 0.0481765021
135299190.0 0.0452772708 0.048224242 0.7513796474 -0.1592176742 0.7509153782 -0.1586558072 0.046672772 0.0459404546
140299160.0 0.0467743551 0.0462574144 0.7506413556 -0.1689594432 0.7505949253 -0.1689910709 0.0477089817 0.0442545686
145299130.0 0.0482920227 0.0437287353 0.7500506175 -0.1787369391 0.7494389585 -0.1785495676 0.0492459901 0.0419949886
150299100.0 0.0496253347 0.0420897367 0.7491503236 -0.1875226988 0.7490584956 -0.1879108511 0.0508538463 0.0400144653
155299070.0 0.0503014983 0.0398422182 0.748137049 -0.1987297536 0.7476363194 -0.197996164 0.051863803 0.0384522366
160299040.0 0.0518712417 0.0380085236 0.7466387442 -0.2072730817 0.7457474034 -0.2078093572 0.0521793673 0.035937572
165299010.0 0.0524843111 0.0361370213 0.7444714485 -0.217339135 0.7446306498 -0.2170632266 0.0535634393 0.0349539086
170298980.0 0.0535243413 0.0338669403 0.7425536424 -0.2261602972 0.7430801066 -0.2262602027 0.0544324801 0.0327369807
175298950.0 0.053681215 0.0321068226 0.7409827519 -0.2353018899 0.740756173 -0.2356381238 0.0547838334 0.0313420812
180298920.0 0.0543785356 0.0304950417 0.7390719222 -0.2448136016 0.7388092719 -0.2446704446 0.0554756354 0.0298938392
185298890.0 0.0554971849 0.028573566 0.7363108739 -0.2536600021 0.7361671032 -0.2539027003 0.0558548656 0.0284721587
190298860.0 0.0554310309 0.027228753 0.7339823184 -0.2632072684 0.7345966123 -0.263222488 0.0563119283 0.0262634155
195298830.0 0.0558756197 0.0253151542 0.731749321 -0.2718702859 0.7321544293 -0.2719586929 0.0570925448 0.0250320296
200298800.0 0.0561759814 0.0240104952 0.7286037718 -0.2811400885 0.7287585507 -0.2816236193 0.0569405154 0.0235005126
205298770.0 0.0568798172 0.0227374144 0.7255346664 -0.2905907273 0.7262551954 -0.290048647 0.0573251626 0.0215689801
210298740.0 0.0572496588 0.0208615614 0.723009939 -0.298286526 0.723122707 -0.2978447494 0.0578300437 0.0213463964
215298710.0 0.0569236361 0.0196260696 0.7206092165 -0.3077884701 0.7197920435 -0.3080885855 0.0576808592 0.0196739545
220298680.0 0.0575739954 0.0176649412 0.7167149011 -0.3159129029 0.7163707415 -0.3160622156 0.0576499 0.017965064
225298650.0 0.0575302244 0.0166793543 0.7135804035 -0.3248056559 0.7136299369 -0.3245954622 0.0573681732 0.0164728719
230298620.0 0.0578305587 0.0155693875 0.7105931365 -0.3333140981 0.7105465735 -0.3335089923 0.0574847882 0.0149088424
235298590.0 0.0578450333 0.0144528681 0.7067408749 -0.3414118007 0.7066487743 -0.3409686955 0.0576865007 0.0137873332
240298560.0 0.0579842277 0.0132223374 0.7036521868 -0.3502556765 0.7028605239 -0.3501147636 0.0574270659 0.0131285218
245298530.0 0.0580362798 0.011676618 0.6998094042 -0.3581554522 0.6995252855 -0.3587473873 0.0584619408 0.0114334951
250298500.0 0.0582976259 0.0108159784 0.6944387384 -0.3664621322 0.694493306 -0.3662214062 0.0577348239 0.0103553204
255298470.0 0.0581824666 0.0093394479 0.6916955236 -0.3741728172 0.6917162267 -0.3741711961 0.058336356 0.009036887
260298440.0 0.0580246005 0.0081623463 0.6875126109 -0.3834922544 0.6875049567 -0.3825199968 0.0585960433 0.0080067784
265298410.0 0.0587813 0.0076899198 0.6835009779 -0.3909818124 0.6836253447 -0.3905817949 0.0582352122 0.0067563594
270298380.0 0.058456465 0.0059628999 0.679927574 -0.3986275817 0.6794241727 -0.3990106065 0.0578136536 0.0059045999
275298350.0 0.0587400745 0.0050383276 0.6752518498 -0.4072262453 0.6756778368 -0.4073252684 0.0581454376 0.0042373644
280298320.0 0.0588146441 0.0043240061 0.6710901241 -0.4147539016 0.6708916452 -0.4142907817 0.0583135299 0.0034623425
285298290.0 0.058502004 0.0031828243 0.6665107425 -0.4224909122 0.665964608 -0.4227341207 0.0584824982 0.0021147563
290298260.0 0.0588052585 0.0019992762 0.6617169167 -0.4294118552 0.6619789916 -0.4302950416 0.0583413855 0.0017400816
295298230.0 0.0588403147 0.0010057886 0.6573360611 -0.4376916396 0.6571697334 -0.4380207106 0.0592250954 0.0001850162
300298200.0 0.0582258063 -0.000585771 0.6524670489 -0.445154356 0.6527527666 -0.4459981183 0.0588379694 -0.000901965
305298170.0 0.0587476033 -0.0015167087 0.6474128702 -0.4538631605 0.6473912538 -0.4530163088 0.0593393577 -0.0022270325
310298140.0 0.0581216987 -0.0024947557 0.6428914121 -0.4604941288 0.6432599689 -0.4607957295 0.0594028546 -0.0029724235
315298110.0 0.058409835 -0.0041722433 0.6381886917 -0.4686122306 0.6379091116 -0.4686232071 0.0586739768 -0.0044788095
320298080.0 0.0585588427 -0.0048130428 0.6317735065 -0.4764777766 0.6323782976 -0.4761426653 0.0586031095 -0.0054467248
325298050.0 0.0576104509 -0.0063718095 0.6270045911 -0.4840277852 0.6273906255 -0.4832154608 0.0581135641 -0.0062546092
330298020.0 0.0573295717 -0.0074781022 0.6215717435 -0.4906891785 0.621450441 -0.4910059695 0.0571902145 -0.0075775959
335297990.0 0.0571721579 -0.0087418148 0.6159631434 -0.4979396486 0.6150726603 -0.4984225195 0.0565464505 -0.0078473439
340297960.0 0.0560524634 -0.0090978551 0.6095597386 -0.5048761335 0.6092505147 -0.5054016927 0.056986068 -0.0089479304
345297930.0 0.0557722142 -0.0092250514 0.6040463864 -0.5120070178 0.6035013987 -0.5122285202 0.0562818945 -0.0099551253
350297900.0 0.0551757102 -0.0109731309 0.597576993 -0.5187649023 0.5974975379 -0.5186235429 0.0553355319 -0.0098028977
355297870.0 0.0550131375 -0.0106865694 0.5921035616 -0.5253823086 0.5924061276 -0.5257666474 0.0552670336 -0.0106298872
360297840.0 0.0544554764 -0.0115414322 0.5873097391 -0.5319759236 0.5874705946 -0.5317870748 0.054712133 -0.0110986103
365297810.0 0.0539143772 -0.012270395 0.5804328078 -0.5386972763 0.5809614998 -0.5385326172 0.0546606466 -0.0116992037
370297780.0 0.054187824 -0.0133464501 0.5741556295 -0.5444396515 0.5747250842 -0.5444049867 0.0542417967 -0.0121420559
375297750.0 0.0537817618 -0.014019027 0.5682929275 -0.5512142658 0.5695243231 -0.5510781638 0.0543410047 -0.0129539178
380297720.0 0.0533534306 -0.0144970532 0.5626754235 -0.5576835853 0.5624770363 -0.5573501826 0.0533633188 -0.0139010138
385297690.0 0.0526924111 -0.015167643 0.5558938895 -0.5635238948 0.5559922342 -0.5638440728 0.0531622138 -0.0142021269
390297660.0 0.0527710445 -0.0154910988 0.5503035975 -0.5705383262 0.5499243949 -0.5697140796 0.0523193182 -0.0152049647
395297630.0 0.0520161055 -0.0162226151 0.5434525751 -0.5763613741 0.5437773962 -0.5763249805 0.0527953758 -0.0156221939
400297600.0 0.0517657604 -0.0168377265 0.5367565259 -0.5831491389 0.5371335024 -0.5824393059 0.0521681308 -0.0161771064
405297570.0 0.0511317001 -0.0174107138 0.5307846559 -0.5881592157 0.5307076941 -0.588247836 0.0514663257 -0.0165429157
410297540.0 0.0512719203 -0.0182111429 0.5247481431 -0.5944503595 0.5249484037 -0.5944588017 0.0512036915 -0.017006361
415297510.0 0.0511816939 -0.0186768488 0.5177590246 -0.6001397507 0.5184798397 -0.6001644396 0.0509222398 -0.0178087337
420297480.0 0.0509086454 -0.0191253583 0.5112944731 -0.6057262297 0.5109763707 -0.6061725558 0.0504907187 -0.0189620998
425297450.0 0.0502308904 -0.0205478337 0.5046211983 -0.6114834948 0.5048323497 -0.6115831084 0.0493479858 -0.0186442048
430297420.0 0.0497442825 -0.0209139808 0.4980839145 -0.6164206477 0.4975895954 -0.6165044879 0.0491796384 -0.0198806812
435297390.0 0.0495497483 -0.0213944988 0.4906134124 -0.6231080949 0.4904294422 -0.6225990824 0.0500721406 -0.0204514698
440297360.0 0.0491945553 -0.0219203354 0.4840258315 -0.6278738621 0.4841694048 -0.6281685638 0.0485442492 -0.0216775475
445297330.0 0.0485953256 -0.0230383537 0.4778533975 -0.633516132 0.4773103907 -0.6326285264 0.0487097695 -0.0225279299
450297300.0 0.0484551999 -0.0233220679 0.4704910346 -0.6386032086 0.4697770297 -0.6390901089 0.0482653359 -0.0230348044
455297270.0 0.0479480489 -0.0239575748 0.4631559428 -0.6437111514 0.4632383954 -0.644199272 0.047750508 -0.0232773563
460297240.0 0.0477038802 -0.024285848 0.4555836142 -0.6486981224 0.4560251935 -0.6488614813 0.0476174745 -0.0237687966
465297210.0 0.0475305543 -0.0250142255 0.4490311818 -0.6538447462 0.4490148745 -0.6545225818 0.0472456732 -0.0250473079
470297180.0 0.0467647775 -0.0259977489 0.4408099944 -0.6587582794 0.4415333823 -0.6589222245 0.0471150473 -0.024785719
475297150.0 0.046227646 -0.0263721763 0.433945162 -0.6632414512 0.4341933563 -0.6636013116 0.0471584489 -0.0260915885
480297120.0 0.0458003215 -0.0262059143 0.4269659642 -0.6689775097 0.4267020748 -0.6688923757 0.0467439081 -0.0261414549
485297090.0 0.0453877554 -0.0269878344 0.4197262611 -0.6731278531 0.4196968911 -0.672700767 0.0462796672 -0.0269470694
490297060.0 0.0443577024 -0.0278457191 0.4127050763 -0.6783570954 0.4126755617 -0.6775266079 0.0458411691 -0.026818393
495297030.0 0.0445747607 -0.028000066 0.4049772891 -0.6823798801 0.4051771776 -0.6820866111 0.044803242 -0.0277158646
500297000.0 0.0441402578 -0.0290257285 0.3970557076 -0.6860227709 0.3965445871 -0.6864472065 0.0449616026 -0.0276380599
505296970.0 0.0439651194 -0.0294870976 0.3900852088 -0.6907645978 0.3897000131 -0.6910485458 0.0442485165 -0.028449179
510296940.0 0.0430291781 -0.0298404621 0.3822220315 -0.6952413427 0.3817306115 -0.6953701448 0.0442566931 -0.0283916329
515296910.0 0.0423390808 -0.0299895077 0.3743917632 -0.6995541846 0.374113664 -0.6992171861 0.043959378 -0.0289872879
520296880.0 0.0421121632 -0.0305118054 0.3668910443 -0.7039901701 0.3664588686 -0.703172822 0.0431888108 -0.0296272171
525296850.0 0.0416484641 -0.0316590972 0.3586073606 -0.7073851644 0.359288459 -0.707620112 0.0426797033 -0.029672937
530296820.0 0.0412567347 -0.031476517 0.3513793238 -0.711463994 0.3509310908 -0.7115310446 0.0421806877 -0.0304373233
535296790.0 0.0403424185 -0.0316711217 0.344346855 -0.7152119793 0.3439852082 -0.7149084598 0.0418633116 -0.0310044061
540296760.0 0.0398966666 -0.0318729233 0.3356755519 -0.7192643974 0.3355388716 -0.7188744314 0.0406954228 -0.0304659484
545296730.0 0.0395184009 -0.0327914447 0.3274809852 -0.7224991845 0.3276910944 -0.7230809254 0.0405566753 -0.0311211652
550296700.0 0.0398055181 -0.0328901216 0.3197611766 -0.7261877791 0.3198567258 -0.7265170108 0.0396049386 -0.0313778848
555296670.0 0.0385700431 -0.0331283161 0.3119626034 -0.7295212829 0.31188802 -0.7296944848 0.0392622414 -0.0318952115
560296640.0 0.0383788052 -0.0330681491 0.3033565941 -0.7331385843 0.303983611 -0.7331939415 0.0387926423 -0.0323650942
565296610.0 0.037242876 -0.0343260484 0.2952875838 -0.7365612657 0.2953020087 -0.7358972605 0.0378770072 -0.0331654272
570296580.0 0.0369221199 -0.0341951346 0.2872639833 -0.7401271883 0.28683378 -0.7394715587 0.037508697 -0.0326071487
575296550.0 0.0361292533 -0.0341830379 0.280042942 -0.7432758717 0.2793304544 -0.7427957469 0.0375667396 -0.0332403367
580296520.0 0.0359000318 -0.0349127794 0.2709976403 -0.7461399118 0.2718270846 -0.7458265698 0.0364367296 -0.0342520818
585296490.0 0.0353371165 -0.0357604626 0.2636195293 -0.7483071358 0.2633752832 -0.748775698 0.0360127259 -0.0341763277
590296460.0 0.0353241158 -0.0357514491 0.2553649758 -0.7508023573 0.2550151475 -0.7512641966 0.0349424124 -0.0343093637
595296430.0 0.034999435 -0.0356635161 0.2464353635 -0.7544752746 0.2464183268 -0.7542190633 0.0348343082 -0.035221833
600296400.0 0.0336414622 -0.0363932262 0.2385009942 -0.7570783563 0.2386513616 -0.7566677598 0.0339717562 -0.0354520759
605296370.0 0.0334721456 -0.0368159938 0.2302154436 -0.7596687387 0.2299300321 -0.7593799546 0.0335604435 -0.0356318997
610296340.0 0.0328964518 -0.0369435336 0.2216318419 -0.7622053491 0.2219956006 -0.7618682073 0.0335673159 -0.0361848995
615296310.0 0.0327328387 -0.0376885539 0.213592955 -0.7639290853 0.213094495 -0.7648697242 0.0328067048 -0.0363380894
620296280.0 0.0319573053 -0.0378923663 0.2056293102 -0.7662193044 0.2051163151 -0.7662844692 0.0320452115 -0.0367588514
625296250.0 0.0310307337 -0.0388060297 0.1979525427 -0.7692256436 0.1967962982 -0.7690908272 0.0322131067 -0.0368517239
630296220.0 0.0316598462 -0.0383283715 0.1884105151 -0.7705978527 0.1877415455 -0.7710149061 0.0315673303 -0.0370247234
635296190.0 0.0296689397 -0.0391751146 0.180070285 -0.7726864528 0.1798183804 -0.7729165008 0.0311036589 -0.0375076839
640296160.0 0.02927454 -0.0391018924 0.1710475819 -0.7743834757 0.1714827615 -0.7744934408 0.0303752438 -0.0377080362
645296130.0 0.0288906221 -0.0391523754 0.1629456552 -0.7763834376 0.1631377612 -0.7765896532 0.0298008469 -0.0380605339
650296100.0 0.0285211912 -0.0397392593 0.154686399 -0.7782143157 0.1546030509 -0.7784332978 0.0300727904 -0.0392922157
655296070.0 0.027405373 -0.0400358886 0.1463670932 -0.780032501 0.1466430157 -0.7798274023 0.0292179918 -0.0385426808
660296040.0 0.0262466691 -0.0406898378 0.1372360482 -0.781442915 0.1378368952 -0.7820401396 0.0286186765 -0.0389590363
665296010.0 0.0267045166 -0.0406298092 0.1283384194 -0.7829868855 0.1289012421 -0.7828208042 0.0282149775 -0.038454393
670295980.0 0.0248408167 -0.0406395512 0.1205704753 -0.7846527486 0.1206497952 -0.7838617522 0.0271866342 -0.0391046608
675295950.0 0.0246706178 -0.0404491621 0.112349712 -0.7853490354 0.1121196115 -0.7845479292 0.0264321431 -0.0392205316
680295920.0 0.0236601861 -0.0412382516 0.1031903941 -0.7863090411 0.1027565883 -0.7869004462 0.0262357112 -0.0384966879
685295890.0 0.0237263339 -0.0405601417 0.0946866933 -0.7874647941 0.0941504732 -0.7879681212 0.0252605795 -0.0393396615
690295860.0 0.0235313926 -0.0408074042 0.0858155338 -0.78804974 0.0860384491 -0.7888021676 0.0248145244 -0.0383799162
695295830.0 0.0228061352 -0.0413653514 0.0781119376 -0.7893887936 0.0774947134 -0.7896027038 0.0241858214 -0.0390640093
700295800.0 0.0221518201 -0.041813955 0.0685412935 -0.7902242847 0.0686103606 -0.7894869885 0.0235124768 -0.0382974516
705295770.0 0.0211246739 -0.0407578001 0.0600298615 -0.7907796347 0.0605174754 -0.7912874969 0.0230153746 -0.0390904351
710295740.0 0.0209895749 -0.0413420383 0.0515592991 -0.7927612915 0.0522620262 -0.7921750886 0.0227202474 -0.03947443
715295710.0 0.0195689392 -0.0416145192 0.0434229598 -0.7922683306 0.0428149789 -0.7915442454 0.0223765979 -0.0395386098
720295680.0 0.0196329974 -0.0418457474 0.0347516643 -0.7929003004 0.0347908919 -0.7924901663 0.0213997304 -0.0388445594
725295650.0 0.0192521345 -0.0417883511 0.0254304189 -0.7929891066 0.0260695205 -0.7927497819 0.0198944288 -0.0391226059
730295620.0 0.0187896577 -0.041366805 0.017215683 -0.7924951909 0.0171528649 -0.7930356683 0.0195668281 -0.0398030771
735295590.0 0.0180174513 -0.0415152586 0.0089137011 -0.7938622048 0.0086231206 -0.7928645578 0.0188971094 -0.0400000308
740295560.0 0.0168621504 -0.0415398029 -0.0002657667 -0.7929987624 -0.0004303723 -0.7931036315 0.0193118085 -0.039454482
745295530.0 0.0164489672 -0.0416230147 -0.0087647776 -0.793197073 -0.0089829539 -0.7926882094 0.0182295311 -0.0402869837
750295500.0 0.0158977486 -0.041922257 -0.0169783937 -0.7931560806 -0.0168212739 -0.7930071014 0.0173593776 -0.0401008602
755295470.0 0.0155684732 -0.0421792029 -0.025374678 -0.7923696777 -0.0260386653 -0.79310817 0.0173366348 -0.0403848673
760295440.0 0.0146345495 -0.0420754021 -0.0344973536 -0.792852645 -0.0344613132 -0.7927680143 0.0163571535 -0.0403811069
765295410.0 0.0140795858 -0.0421839633 -0.0433135562 -0.7921195174 -0.0436776024 -0.7922847099 0.0160096367 -0.0399332712
770295380.0 0.0131622572 -0.0422976223 -0.0520433576 -0.7915802828 -0.052049365 -0.7914039941 0.0150025217 -0.0407912793
775295350.0 0.0124180644 -0.0428312509 -0.0607798893 -0.7902540936 -0.0600537678 -0.7905257832 0.0134673887 -0.0400741622
780295320.0 0.0123385435 -0.0422635339 -0.0690005695 -0.7897797425 -0.0685223337 -0.7900111511 0.0132850115 -0.0412611139
785295290.0 0.0112762575 -0.0430843867 -0.0776061555 -0.7887220358 -0.0772962026 -0.7889576003 0.0136141252 -0.0404088641
790295260.0 0.0110755959 -0.0418435713 -0.0855344507 -0.7879243534 -0.0851407433 -0.7882127979 0.0125795303 -0.0410552158
795295230.0 0.0106334954 -0.0427423751 -0.0940476241 -0.786674177 -0.0938717053 -0.7872455018 0.0124454922 -0.0402343332
800295200.0 0.0093639214 -0.0421804776 -0.1032954589 -0.7856538198 -0.103462549 -0.7860444741 0.0116203503 -0.0409953344
805295170.0 0.0090511849 -0.0423999034 -0.1118898045 -0.7849461753 -0.1118778822 -0.7850010608 0.0110844584 -0.0404879997
810295140.0 0.0079942091 -0.0428606225 -0.1200858589 -0.783549321 -0.1205118662 -0.7838419375 0.0109142627 -0.0403516036
815295110.0 0.0077135853 -0.0428483228 -0.12881785 -0.7819059593 -0.1283709346 -0.7820045423 0.0098309434 -0.0402968494
820295080.0 0.0065538494 -0.041786153 -0.1373766925 -0.7804212491 -0.1369792062 -0.7801469206 0.0093797095 -0.0402648948
825295050.0 0.006876123 -0.0421011446 -0.1448845208 -0.7783072843 -0.1454060767 -0.7790307337 0.0092673645 -0.040456006
830295020.0 0.0057503259 -0.041658442 -0.1542313971 -0.7769539334 -0.1543473985 -0.7764483174 0.0091738784 -0.0400649046
