!Created with skrf (http://scikit-rf.org).
# Hz S RI R 50.0 
!freq ReS11 ImS11 ReS21 ImS21 ReS12 ImS12 ReS22 ImS22
300000.0 -0.7791856367 -0.0933088637 -0.0009175989 6.61443e-05 0.0009713208 0.0010808072 -0.2133170912 -0.0778488676
5299970.0 -0.7856172297 -0.0055562366 7.20955e-05 -0.0002864455 7.95685e-05 4.34141e-05 -0.2150767761 0.0084469613
10299940.0 -0.7879058445 -0.0042122413 -9.82312e-05 0.0001184999 2.87007e-05 -3.03344e-05 -0.2116880082 0.0215242756
15299910.0 -0.793631425 -0.002503967 -3.1572e-05 -0.0001350623 8.8797e-05 4.28924e-05 -0.2063469154 0.0312049304
20299880.0 -0.8001655612 0.0020380457 -8.98006e-05 0.0001999024 -9.52062e-05 4.50973e-05 -0.200438909 0.0388798136
25299850.0 -0.8065895813 0.0077116956 5.77381e-05 3.48164e-05 6.03766e-05 0.0001716086 -0.1940184013 0.045523731
30299820.0 -0.8125803605 0.014778468 -7.7663e-06 -3.53982e-05 -0.0001886361 -7.2192e-06 -0.1873058813 0.050537769
35299790.0 -0.8176759341 0.0242973494 2.19196e-05 -6.376e-06 4.86992e-05 -0.0001608611 -0.1813280593 0.0545841621
40299760.0 -0.8211900665 0.0335801028 4.55015e-05 -0.0001560061 -0.0001921191 -0.0001100379 -0.1750417164 0.057200958
45299730.0 -0.8247780793 0.0426121304 -7.26258e-05 1.12546e-05 7.9247e-06 8.00676e-05 -0.1696487718 0.0595664083
50299700.0 -0.8271520591 0.0529048468 -0.000121983 0.0001787674 -3.70162e-05 0.0002241435 -0.164219502 0.0606146077
55299670.0 -0.8295684817 0.062947846 -0.0003717418 7.00311e-05 2.23763e-05 -7.95884e-05 -0.1597074159 0.0616472845
60299640.0 -0.8300686611 0.0729713767 3.02842e-05 9.08757e-05 0.0001024353 0.0002291296 -0.1547774663 0.0619559272
65299610.0 -0.8311571204 0.0832183454 6.59976e-05 -3.98098e-05 4.55144e-05 8.24027e-05 -0.1511202569 0.0621697076
70299580.0 -0.8315563124 0.0932642194 -0.0001232262 0.0001178221 -0.0001236701 -0.000170324 -0.1478832325 0.0628771617
75299550.0 -0.8323789386 0.1033758891 1.34902e-05 8.98044e-05 -2.93603e-05 7.60491e-05 -0.1443703721 0.0623762139
80299520.0 -0.8318927534 0.1131346483 0.00014629 5.5433e-05 7.47162e-05 -1.80031e-05 -0.1419980749 0.0627489402
85299490.0 -0.8310020191 0.1221466498 -4.87827e-05 0.0001207146 -0.0001188357 6.85746e-05 -0.1393611547 0.0623787636
90299460.0 -0.8300155697 0.1322698977 -3.19865e-05 0.000100057 -2.1216e-05 0.0001399409 -0.1368091226 0.0622786913
95299430.0 -0.8295938163 0.141764948 -9.26141e-05 -0.000201031 0.0001990585 -4.37935e-05 -0.1346616362 0.0622109272
100299400.0 -0.8283292551 0.150350971 0.0004279501 5.66256e-05 -7.5023e-05 7.80542e-05 -0.1326712701 0.0618350842
105299370.0 -0.8268431759 0.1597253664 4.00328e-05 0.0001419721 -5.36204e-05 0.0001037373 -0.1305990037 0.0614866101
110299340.0 -0.8255097565 0.1687524217 2.81438e-05 -0.0001965003 5.17608e-05 0.0001475063 -0.1293054636 0.0618808906
115299310.0 -0.824120339 0.1779987793 -1.19897e-05 0.0002436793 -5.0402e-06 8.5889e-05 -0.1280823706 0.0614677315
120299280.0 -0.8224562278 0.1871067695 0.0001602693 0.0001554179 6.47968e-05 9.04241e-05 -0.1268890896 0.0614725692
125299250.0 -0.8200029557 0.1956016661 -3.1396e-06 -0.000139839 -0.0001168932 7.75435e-05 -0.1255100829 0.0611807919
130299220.0 -0.8187539103 0.2053284506 0.0001787171 0.0001529856 0.0002476377 0.0001149185 -0.1244393483 0.0610936901
135299190.0 -0.817048346 0.2138421439 0.0002273068 0.0001286237 0.0001619085 9.48206e-05 -0.1238056972 0.0611902766
140299160.0 -0.8150337444 0.2230320368 -1.95e-06 -1.31652e-05 6.66842e-05 8.56537e-05 -0.1225495487 0.0615750734
145299130.0 -0.8131210156 0.2315367511 4.54654e-05 4.56388e-05 4.54531e-05 4.48173e-05 -0.1219280174 0.0615838948
150299100.0 -0.8103883833 0.240525001 -9.75818e-05 6.34159e-05 0.0001611487 -6.78298e-05 -0.1212359704 0.0621479686
155299070.0 -0.807850457 0.2494005201 7.81555e-05 0.0002156133 -0.0001826739 -9.52087e-05 -0.1201262209 0.062402
160299040.0 -0.8053205856 0.2576629437 1.52861e-05 8.82176e-05 -6.49437e-05 1.83714e-05 -0.1200788976 0.0630309205
165299010.0 -0.8030259486 0.2666528154 0.000256039 8.4673e-05 1.14641e-05 4.2583e-06 -0.1189944925 0.063270755
170298980.0 -0.8001022551 0.2749174138 8.84464e-05 0.0002078579 2.50472e-05 -2.77879e-05 -0.1184223028 0.0634207004
175298950.0 -0.7976578108 0.2837643234 0.00011565 7.68621e-05 0.0002509107 -9.7209e-06 -0.117948974 0.0638128344
180298920.0 -0.794259986 0.2928499001 -9.5008e-06 0.0001878063 -0.0001953737 -7.88941e-05 -0.1175865995 0.0645040618
185298890.0 -0.7909282444 0.3003273553 -4.37134e-05 0.0001071071 0.0001815382 1.67004e-05 -0.1167541449 0.0651505781
190298860.0 -0.7886642043 0.3090978289 -0.0001850403 0.0002251347 -8.75338e-05 -0.000211192 -0.1162624426 0.0653958815
195298830.0 -0.7859427003 0.3175347557 6.667e-07 0.0002997995 0.0001651075 0.0001141127 -0.1159496906 0.0661203711
200298800.0 -0.7815807456 0.3258971579 5.57181e-05 6.33269e-05 -0.000127546 -8.20355e-05 -0.1155794495 0.0665248126
205298770.0 -0.7788292523 0.3340376563 9.93154e-05 5.49839e-05 0.0002354774 0.0001074294 -0.1150022723 0.0671885585
210298740.0 -0.7749774813 0.3417070366 0.0002032352 5.57195e-05 7.6405e-05 0.0001594024 -0.1145638438 0.0678455514
215298710.0 -0.7720649267 0.3506010917 -4.21564e-05 5.25697e-05 4.99557e-05 7.09184e-05 -0.1141490602 0.0681422427
220298680.0 -0.7675526193 0.3579103208 0.0003031564 0.0001320112 0.0002186552 9.78473e-05 -0.1138176063 0.0688247439
225298650.0 -0.7646003924 0.3665720084 0.0001028328 4.48512e-05 -7.10698e-05 0.0002598957 -0.1133238644 0.0698684812
230298620.0 -0.7606426228 0.3737489467 0.0001227844 -6.2304e-05 3.35086e-05 0.0001816153 -0.1130025042 0.0703977076
235298590.0 -0.7563442895 0.3828046019 0.00017094 9.96626e-05 0.0001171206 -2.4383e-06 -0.112338332 0.0712388796
240298560.0 -0.7525287749 0.3902720075 -5.8692e-05 0.0002035938 8.71456e-05 0.0002676611 -0.1120890502 0.0725611989
245298530.0 -0.7491703967 0.3984698429 -0.0001072179 3.13264e-05 0.0001806082 4.32839e-05 -0.1114786082 0.0727232273
250298500.0 -0.7443964983 0.4061402583 0.0001054888 -4.4333e-05 8.38397e-05 -7.63623e-05 -0.1111580149 0.0739614073
255298470.0 -0.7399207177 0.4137792124 0.0001923705 -0.0001940208 -9.2565e-05 -3.18946e-05 -0.110461872 0.0743220892
260298440.0 -0.7353846359 0.4210975828 -0.0001994221 0.0001178874 0.0001548837 -2.72045e-05 -0.1099303027 0.0757258528
265298410.0 -0.7318363925 0.429597363 -2.08893e-05 1.3574e-06 6.37769e-05 -9.857e-06 -0.1093420376 0.0763907051
270298380.0 -0.7268647868 0.4370089999 1.9497e-06 -3.65349e-05 0.0002201964 9.95469e-05 -0.1088952059 0.0770963084
275298350.0 -0.72259506 0.4441316035 0.0001867094 -1.3595e-06 0.0001788642 -5.14997e-05 -0.1081905788 0.0783302498
280298320.0 -0.7175452957 0.451965689 -0.0001024826 0.0002437367 3.50152e-05 0.0001232223 -0.1075402457 0.0790706758
285298290.0 -0.7128014503 0.4599476009 0.0001353203 0.0004166678 0.000266998 2.24461e-05 -0.1070196889 0.0798340528
290298260.0 -0.7080017794 0.4669739241 2.63263e-05 0.0001117181 7.75791e-05 0.0001061914 -0.1065521385 0.081161346
295298230.0 -0.7025249192 0.4740420002 0.0002549988 -7.9561e-05 3.25182e-05 -3.61144e-05 -0.1058433581 0.0817068358
300298200.0 -0.6978396777 0.4814734093 2.85289e-05 0.0001278178 4.9944e-06 7.207e-07 -0.1053481295 0.0825976915
305298170.0 -0.6931031834 0.4885161065 0.0002208088 2.20407e-05 -6.27565e-05 9.47853e-05 -0.1042317101 0.0836199049
310298140.0 -0.6880522372 0.4960544104 -5.11687e-05 -3.8257e-06 -8.33431e-05 0.0002563471 -0.1042258297 0.0842359205
315298110.0 -0.6827881252 0.5028369542 -6.89408e-05 -7.06646e-05 0.0002319777 -1.99251e-05 -0.1034313586 0.085203113
320298080.0 -0.67706938 0.5098852027 -0.0001355116 8.87664e-05 0.0001484646 9.04645e-05 -0.103022209 0.0862149482
325298050.0 -0.6718618265 0.5172884992 0.0001145903 5.98331e-05 -0.0001205792 6.76348e-05 -0.1027796925 0.0868278136
330298020.0 -0.6670086883 0.5238124311 6.3369e-05 3.96213e-05 0.0001574789 -7.22846e-05 -0.1023949235 0.0878537846
335297990.0 -0.6610890269 0.530194657 -0.0001621426 0.0002152218 0.000118134 0.0002127437 -0.1016630849 0.0893930313
340297960.0 -0.6559948275 0.5370804957 3.11184e-05 0.0002927119 0.0003798025 0.0001204402 -0.100841285 0.0905322517
345297930.0 -0.6502552103 0.544398669 0.0001432606 0.0001787792 5.70336e-05 7.8328e-06 -0.1004918938 0.091328543
350297900.0 -0.6448815678 0.5506770916 -0.000178258 5.53136e-05 4.01094e-05 6.41006e-05 -0.1003076067 0.0926026559
355297870.0 -0.6386072762 0.5579291274 8.28391e-05 0.000125968 5.83871e-05 -2.9753e-05 -0.0996065335 0.0933453079
360297840.0 -0.6329335416 0.5639083647 0.0001144717 0.0001327621 8.20704e-05 0.0001738973 -0.0985845002 0.094628752
365297810.0 -0.6274963665 0.5705353616 6.19615e-05 -9.67286e-05 3.66552e-05 7.24209e-05 -0.0977711033 0.0953358559
370297780.0 -0.6212803156 0.5761266373 -0.0002913757 0.0003378443 0.0002991968 2.82629e-05 -0.0968854509 0.0964028011
375297750.0 -0.6151580696 0.5832486885 4.58817e-05 -4.21e-07 9.87901e-05 -1.65833e-05 -0.0966334591 0.0970233903
380297720.0 -0.6086459213 0.5889903024 -4.26371e-05 -0.0001087726 0.0002944535 7.7559e-05 -0.0955892633 0.0984356489
385297690.0 -0.6036532982 0.594986137 -5.98918e-05 0.00025608 0.0001649652 -2.86185e-05 -0.0950592609 0.099451881
390297660.0 -0.5975482869 0.6011587339 1.50122e-05 -5.13679e-05 0.0002227947 6.7402e-06 -0.0945357841 0.1005664405
395297630.0 -0.5902959613 0.6076663916 8.14409e-05 0.0001080666 0.0001955056 5.29906e-05 -0.0931769975 0.1015754508
400297600.0 -0.5844042687 0.6136852551 0.0002414723 7.47656e-05 -0.0001015931 0.0003330534 -0.0924758702 0.1026107805
405297570.0 -0.5782475321 0.619577313 0.000288263 2.88472e-05 9.45438e-05 2.37392e-05 -0.0916722651 0.103303508
410297540.0 -0.571835642 0.6253457144 0.0001483921 6.05159e-05 0.0002788745 0.0001331408 -0.0905271975 0.1042796699
415297510.0 -0.5646382405 0.630653677 -8.20382e-05 -1.91036e-05 0.0001118989 0.0001331433 -0.0901067048 0.1055134507
420297480.0 -0.5594308653 0.6365503689 0.000113247 9.49823e-05 0.0001339365 -9.36263e-05 -0.0891876338 0.1063177773
425297450.0 -0.5521814088 0.6416860798 0.0001173051 -6.64588e-05 5.50582e-05 0.0001695804 -0.0885786577 0.107169893
430297420.0 -0.5461604832 0.6483480392 4.28169e-05 -4.02416e-05 0.0001111969 5.99056e-05 -0.0876825207 0.1084519726
435297390.0 -0.5392018085 0.6532022798 -0.0001896053 1.19012e-05 0.0001047755 6.0163e-05 -0.0866236919 0.1090572109
440297360.0 -0.5326881746 0.6585719052 -3.9335e-06 -3.692e-06 0.000239016 0.0001293926 -0.0856940174 0.1104072261
445297330.0 -0.5254295562 0.664176 0.000140694 9.29785e-05 0.0001371282 -0.0001344358 -0.0846846562 0.1108629467
450297300.0 -0.519291946 0.6693000475 1.22866e-05 -0.0001002589 0.0001954902 -6.5952e-06 -0.0838248421 0.1121316457
455297270.0 -0.5118558363 0.6742984083 5.44605e-05 -9.68226e-05 -3.91763e-05 9.08923e-05 -0.0829003871 0.1127606955
460297240.0 -0.5051303248 0.6797019344 0.0001107337 0.0001770769 0.0001981774 -4.99598e-05 -0.0818927863 0.114210482
465297210.0 -0.4984003331 0.684598674 0.0002140203 0.0002706198 3.24184e-05 8.38884e-05 -0.0810771651 0.1147328439
470297180.0 -0.4906128157 0.6894557765 8.16078e-05 8.35294e-05 0.0002800223 -0.0001212987 -0.0799895583 0.1161922511
475297150.0 -0.4841268596 0.6945646105 0.0003123872 9.19989e-05 0.0001273039 0.0001913733 -0.0788387693 0.1165044566
480297120.0 -0.4768597298 0.6994692455 0.000192422 1.45471e-05 0.0001989295 0.0002114917 -0.077813426 0.1176973555
485297090.0 -0.4695298173 0.7038459746 0.000129446 0.0001615067 0.0001229878 0.0001922305 -0.0767548681 0.1189089944
490297060.0 -0.4625906758 0.7084645249 0.000120583 -0.0001520106 5.28053e-05 0.0001946259 -0.0757414476 0.1193001761
495297030.0 -0.4554156077 0.7128625125 7.60659e-05 6.9842e-06 0.0002069734 8.95532e-05 -0.0746521134 0.1207325294
500297000.0 -0.4478073883 0.7175691817 0.0001076002 4.17416e-05 1.0537e-05 -6.0424e-05 -0.0738022134 0.1214127004
505296970.0 -0.4402658228 0.7220207675 -9.15942e-05 5.84107e-05 0.000124059 0.0001513502 -0.0728973722 0.1223813558
510296940.0 -0.4336285557 0.7263190923 0.0003614079 0.0001716774 6.60511e-05 5.48313e-05 -0.0718307623 0.1230133312
515296910.0 -0.4255483911 0.730996428 8.88325e-05 4.34358e-05 0.0003030895 9.99388e-05 -0.0705828192 0.1239472321
520296880.0 -0.4188053021 0.7354226837 8.6171e-06 -2.82828e-05 0.0003519676 -6.78925e-05 -0.0696185044 0.1249199985
525296850.0 -0.4108640001 0.7386835546 0.0001174668 0.0001336106 0.000162378 0.0002923785 -0.0685289524 0.1260038744
530296820.0 -0.4030051069 0.7436138176 0.0002553416 6.92793e-05 0.0002002732 7.34997e-05 -0.0672113835 0.1263106839
535296790.0 -0.3962490071 0.7472706751 0.0001414856 0.0001854211 0.0001466285 6.16231e-05 -0.0664866743 0.1270716992
540296760.0 -0.3884771256 0.7510661441 0.0001918173 0.0001742 0.0001389348 -6.79486e-05 -0.065426504 0.128010395
545296730.0 -0.3811030137 0.7550388566 -7.3827e-06 -4.80307e-05 -5.03571e-05 -7.70955e-05 -0.064355023 0.128717677
550296700.0 -0.3735312574 0.7586630515 0.0002620451 0.0001129495 0.0001449086 2.11303e-05 -0.0628411063 0.1294929876
555296670.0 -0.3655234714 0.7619042279 0.0004288984 2.77253e-05 0.0002749633 0.0001157591 -0.061645919 0.1306708737
560296640.0 -0.3576680064 0.7656308498 0.0001119558 -0.0001307082 6.9884e-06 0.0002172662 -0.0604342099 0.1314210083
565296610.0 -0.349756496 0.7695996745 5.40597e-05 1.86287e-05 0.0001586669 0.0002258812 -0.0592895963 0.1318823024
570296580.0 -0.3427670423 0.7723042333 0.0002618279 0.0001452079 0.0001202 3.54928e-05 -0.0584923701 0.1329570237
575296550.0 -0.3350088732 0.7769908768 0.0002830425 -1.12507e-05 -2.02857e-05 1.57656e-05 -0.0570588113 0.1334691061
580296520.0 -0.326868104 0.7795586443 0.000202184 9.14401e-05 0.0005023673 0.0001145464 -0.0556950198 0.1341652332
585296490.0 -0.3194456057 0.7824766352 0.0002826455 -8.39517e-05 0.0003248868 0.0002052574 -0.0545354315 0.1349870627
590296460.0 -0.3108244533 0.7854797047 0.0002379479 1.12519e-05 0.0001466457 6.25462e-05 -0.0535999061 0.1357144676
595296430.0 -0.3035092141 0.7884576373 0.0002360624 5.68974e-05 0.0003212785 -5.90114e-05 -0.052152485 0.1359864531
600296400.0 -0.2954309853 0.7921101367 1.64269e-05 4.70802e-05 0.0003389403 0.0001108378 -0.0513629879 0.1367519008
605296370.0 -0.2881668772 0.794652044 0.0002074431 2.54647e-05 0.000112459 0.0001990043 -0.0495377088 0.1375891686
610296340.0 -0.279396889 0.7973560213 0.0003067451 2.2086e-06 0.0002572336 -6.55436e-05 -0.048303628 0.1385066905
615296310.0 -0.2706855618 0.7999465455 0.0002220387 -0.000170108 0.0002717599 -0.000118179 -0.0470259403 0.1389121933
620296280.0 -0.2633261761 0.8019215597 0.0004262225 0.0001644975 0.0001205967 -0.0001622257 -0.045722305 0.1395403212
625296250.0 -0.2554578663 0.8054264353 0.0002347089 0.0001376018 0.000292713 0.0001930003 -0.0444284447 0.1402834104
630296220.0 -0.2464468325 0.8082406001 -0.0001334825 0.0002854981 0.0002747922 0.0001612476 -0.0432934414 0.1410756027
635296190.0 -0.2393050097 0.8103662674 0.0003388869 -0.0001842545 0.000168884 -7.33002e-05 -0.0417204068 0.1416296427
640296160.0 -0.2314931876 0.8124306317 0.0002919325 2.65736e-05 0.0003597219 0.0001510136 -0.0406459736 0.1421388753
645296130.0 -0.2230638834 0.815378693 0.000367581 -3.54715e-05 0.0002497986 3.53479e-05 -0.0393890581 0.1430536546
650296100.0 -0.2147140192 0.8167057304 0.0002422282 -5.46757e-05 2.12214e-05 -0.000149907 -0.0376835857 0.1431417029
655296070.0 -0.2066531192 0.81921945 0.0002975414 3.92652e-05 0.0003153595 -9.03082e-05 -0.0367119144 0.1439849761
660296040.0 -0.1982858112 0.8207362259 0.0002419337 0.0001228537 0.0004172051 -8.06762e-05 -0.0348919886 0.1443998133
665296010.0 -0.1902635337 0.8222839091 4.62449e-05 2.24567e-05 0.0001381307 -0.0001207219 -0.0338558334 0.1450009111
670295980.0 -0.1824779438 0.8241815701 0.0001961978 3.0055e-05 5.45431e-05 -6.23175e-05 -0.0331639759 0.1455100346
675295950.0 -0.1739767072 0.8261976558 0.0003751004 7.34241e-05 0.0002036265 -3.5853e-06 -0.0316576248 0.1460766992
680295920.0 -0.1652163238 0.8282184821 0.000257378 -1.41298e-05 0.0001114046 9.25941e-05 -0.0299047572 0.1468800763
685295890.0 -0.1570436557 0.830306524 7.8569e-05 1.97989e-05 0.0001486423 -0.0001711435 -0.0284099644 0.1469965197
690295860.0 -0.1495167606 0.8310702545 0.0002726553 -0.0001428989 0.0001152865 0.0001098905 -0.027391478 0.1479661011
695295830.0 -0.1412011991 0.8320826003 0.0002194116 -0.0001202182 0.0001193499 -7.16146e-05 -0.0257216384 0.1480270572
700295800.0 -0.1322880898 0.8338040948 0.0002740123 -1.87404e-05 0.0001358235 9.27579e-05 -0.0249221068 0.1487345501
705295770.0 -0.124531968 0.8355754349 0.0001621328 0.0001344878 0.0002198931 7.4687e-06 -0.0230788185 0.1495725128
710295740.0 -0.116120137 0.8364556145 9.29352e-05 1.60951e-05 0.0001445233 -0.0001005068 -0.0218819141 0.1493481359
715295710.0 -0.1079640406 0.8374080591 0.0002251945 4.12973e-05 0.0001822982 2.6043e-05 -0.02054436 0.1498551877
720295680.0 -0.0993680426 0.8383440244 -7.752e-05 -0.0002100619 0.0001493133 -0.0001306429 -0.0190375126 0.1503571988
725295650.0 -0.0912267583 0.8395183162 0.0001751541 3.65103e-05 0.0001803165 -6.526e-06 -0.0177945203 0.1508901795
730295620.0 -0.0825480391 0.840061143 0.0003639831 0.0001521642 0.0002718984 -0.0001061586 -0.0165929791 0.1515238897
735295590.0 -0.0746516988 0.8411369591 0.000301581 6.20641e-05 0.000197979 -3.39329e-05 -0.0151580523 0.15117838
740295560.0 -0.0666570801 0.842251608 0.0002458923 -0.0001228413 5.46099e-05 0.0001193057 -0.0130884897 0.1520838913
745295530.0 -0.0580810654 0.8424938641 0.0002929908 -3.31498e-05 0.0004013023 -7.78989e-05 -0.0118608496 0.1518803816
750295500.0 -0.0498524682 0.8429011628 0.000446597 0.0001403204 0.0002442162 2.24488e-05 -0.010554794 0.1523040296
755295470.0 -0.0410257695 0.8433073798 0.0003715702 4.46416e-05 0.0002321629 8.69815e-05 -0.0089380957 0.1521030414
760295440.0 -0.0331011819 0.8436657018 0.0001322101 -0.0001576424 0.0002594905 -0.0001134291 -0.0075810693 0.1525344148
765295410.0 -0.0244955687 0.8440706493 0.0001775754 -8.4641e-06 0.00040867 -2.87021e-05 -0.0058620631 0.153363872
770295380.0 -0.0165261681 0.8443230639 0.0003118885 4.14995e-05 0.000113908 -4.25949e-05 -0.0049474989 0.1533454277
775295350.0 -0.0081342012 0.8439530472 0.0003069695 0.000124703 0.0003376681 -6.4198e-06 -0.0034996069 0.1541244184
780295320.0 0.000570368 0.8444785344 0.0001366812 -0.0002060122 0.0002628777 -7.09307e-05 -0.0017192591 0.1536315393
785295290.0 0.0086594024 0.8439463029 0.0001447435 -0.0001031641 0.0002266279 3.67457e-05 -0.0003174821 0.1540820946
790295260.0 0.0173604918 0.8434892741 0.000208598 -9.38291e-05 0.0002958442 -6.3332e-05 0.001292836 0.1546012971
795295230.0 0.0252122173 0.8438263914 0.0002449472 -0.0001795975 0.0003124607 3.362e-06 0.0029180122 0.154713274
800295200.0 0.0336972642 0.8433778586 0.0002081367 -5.36815e-05 0.0002343941 -0.0001485164 0.0044295444 0.154645938
805295170.0 0.0423374341 0.8435424221 8.34841e-05 -0.0001965758 0.0002198276 -0.0001024093 0.0057240722 0.1551457727
810295140.0 0.0505227773 0.8425653163 0.000181626 -6.34008e-05 0.0003869212 0.0001651367 0.0075887416 0.1552952646
815295110.0 0.0588813171 0.8423835864 0.0002002701 -0.0002241321 0.0002962901 -5.4711e-05 0.0086444442 0.1551861929
820295080.0 0.0668899187 0.8416084684 0.0003405607 -8.3421e-05 0.000172185 -0.0001119906 0.0103370806 0.1553716325
825295050.0 0.0759924502 0.8403264658 0.0002135558 -0.0003158528 0.000197636 -6.84372e-05 0.0120190971 0.1559462616
830295020.0 0.0837708653 0.8401339946 0.0001436312 4.5479e-05 0.0002661183 -4.092e-07 0.0133553517 0.155801338
835294990.0 0.0916713646 0.839041812 0.0004055568 -0.0001749885 0.0004012781 -0.000121271 0.0144777055 0.1560527283
840294960.0 0.1001308551 0.8386432727 0.000125296 -6.37073e-05 0.000237427 -0.0003139256 0.0162878759 0.1559339253
845294930.0 0.1083494955 0.8370817232 0.0001962727 -6.9136e-06 0.0002423328 -7.34904e-05 0.0173537148 0.1558998811
850294900.0 0.1160933355 0.8365870285 -3.72503e-05 2.07429e-05 0.0003009239 3.55293e-05 0.018764146 0.1561609175
