!Created with skrf (http://scikit-rf.org).
# Hz S RI R 50.0 
!freq ReS11 ImS11 ReS21 ImS21 ReS12 ImS12 ReS22 ImS22
300000.0 -0.7706774549 -0.1450774883 0.0005147228 -0.0005461254 0.000183875 0.000123341 -0.0486743495 -0.0693147588
5299970.0 -0.7851043049 -0.0070574858 0.0001530462 6.90977e-05 -8.7357e-06 0.00011387 -0.0495614612 0.0148897253
10299940.0 -0.7877033455 -0.0040373633 2.59778e-05 5.84686e-05 5.5959e-05 -0.0001512261 -0.0440387988 0.0322326063
15299910.0 -0.7934456484 -0.0016308026 8.00532e-05 -0.0001512987 -0.0001652953 0.0001184472 -0.0356684111 0.0467813612
20299880.0 -0.7998317378 0.0024325395 0.0001517944 0.0001210822 3.55767e-05 -5.4659e-05 -0.0259803846 0.058376852
25299850.0 -0.8062512737 0.0081861821 9.21398e-05 -4.54093e-05 -0.0001043943 4.72201e-05 -0.0147330254 0.0675991166
30299820.0 -0.8119894569 0.0164657587 -5.43813e-05 -4.20981e-05 -5.8318e-05 5.45052e-05 -0.0039567992 0.0746411801
35299790.0 -0.8169171168 0.0249543136 -0.0002163506 7.92978e-05 4.85252e-05 -8.2331e-05 0.0075583029 0.0791310288
40299760.0 -0.8214364591 0.0342281117 -7.9869e-06 0.0001334813 -3.2834e-05 4.71205e-05 0.0187772119 0.0825450454
45299730.0 -0.8246556219 0.0442290145 -0.0001248897 3.68752e-05 3.96849e-05 7.0778e-05 0.0291527154 0.08396888
50299700.0 -0.8270949242 0.0539559493 -2.27027e-05 0.0001515658 0.0002118154 0.0002246582 0.0396670048 0.08416872
55299670.0 -0.8285568713 0.0643336229 -9.5473e-05 -7.48972e-05 0.0001735852 -0.0001682004 0.0484605597 0.0832825811
60299640.0 -0.8294135284 0.074821764 1.65903e-05 2.85051e-05 0.0001613181 0.0002282356 0.0570781849 0.0814891385
65299610.0 -0.8310270885 0.0849025834 8.56247e-05 4.68731e-05 4.34756e-05 -7.80073e-05 0.0648079369 0.0795093094
70299580.0 -0.8310835311 0.0947722482 -0.0001429207 0.0001975797 3.34103e-05 -5.42158e-05 0.0719464368 0.0763236639
75299550.0 -0.8313446189 0.1046026874 4.1449e-06 0.0002399159 8.28158e-05 0.0001263629 0.0781329761 0.0739357722
80299520.0 -0.8312328853 0.1143079133 -6.6309e-06 0.0001557652 0.0001173702 -0.0001137614 0.0833028896 0.0702914741
85299490.0 -0.8306453916 0.1237302006 0.0001892363 1.65595e-05 4.05759e-05 0.0001205308 0.0887343943 0.0665310394
90299460.0 -0.8295218523 0.1337374178 -2.4756e-05 0.0002210272 -0.0001499414 4.01284e-05 0.0935097161 0.0628567
95299430.0 -0.8289260271 0.14355898 -1.83522e-05 0.0002001992 -1.80642e-05 -3.49611e-05 0.0976763557 0.059031158
100299400.0 -0.8276827667 0.1524520381 9.1424e-06 9.44223e-05 8.6099e-06 0.0001268636 0.1011134631 0.0552394562
105299370.0 -0.8261926787 0.1623772874 -6.39236e-05 7.63783e-05 -0.0001404694 6.0279e-06 0.1046619505 0.0513429529
110299340.0 -0.825197352 0.1708233261 0.0001337518 0.0001316167 9.66099e-05 0.0001303616 0.1070736937 0.047685226
115299310.0 -0.8233793068 0.1802858785 -4.07965e-05 6.02475e-05 9.34748e-05 0.0002269134 0.1099690025 0.0437499021
120299280.0 -0.8220382545 0.1893251801 2.01435e-05 0.0001430919 5.83224e-05 -5.0208e-06 0.1123241521 0.0402158885
125299250.0 -0.820515282 0.1983940081 0.0001173705 0.0001782909 3.07772e-05 0.0002332031 0.1145267526 0.0362145442
130299220.0 -0.8179150615 0.2076772963 0.0002267143 0.0001482362 -3.86024e-05 -1.18634e-05 0.1159287524 0.0326536554
135299190.0 -0.8165858141 0.2163305817 0.0001491492 0.0001727685 -6.06382e-05 5.6802e-05 0.1173828384 0.0288837838
140299160.0 -0.8144227494 0.2254851167 -1.16991e-05 -1.52847e-05 -0.0001922543 0.0001290909 0.1191314596 0.0253529003
145299130.0 -0.8121513125 0.233918001 0.0002079565 0.0001084086 0.0001707315 0.0001857341 0.1198565989 0.0221128626
150299100.0 -0.8098625255 0.2427642212 -5.2863e-06 0.0002364835 6.28486e-05 0.0001400753 0.1207347207 0.0186179879
155299070.0 -0.8076868182 0.2521687971 0.000161551 -2.84575e-05 -0.0001157783 9.57093e-05 0.1218710595 0.0154959725
160299040.0 -0.8046750272 0.2608968005 4.16458e-05 2.966e-07 4.5734e-06 -3.5138e-05 0.1225407805 0.012076627
165299010.0 -0.8022471133 0.2691370013 -6.39383e-05 0.0001431627 1.38984e-05 2.82894e-05 0.1230519025 0.0088728251
170298980.0 -0.7995395725 0.2779825446 4.68465e-05 -6.08364e-05 0.0002138857 0.0001672097 0.1236484819 0.0060981387
175298950.0 -0.7967507056 0.2862792025 -3.18629e-05 7.70686e-05 9.2582e-05 0.0003427077 0.1238902965 0.0030444454
180298920.0 -0.7936193306 0.2945597085 -3.11554e-05 -3.93868e-05 7.5166e-06 1.56285e-05 0.1243790339 2.73901e-05
185298890.0 -0.7908385618 0.3043782047 0.0001549792 0.0002743467 8.19181e-05 0.0002852679 0.1238106359 -0.0030281916
190298860.0 -0.7877727601 0.3122247962 -0.0001407032 0.0001143532 0.0001696573 2.85108e-05 0.1246592783 -0.0053803106
195298830.0 -0.7838341324 0.3207006365 4.8529e-05 0.0001022853 6.73477e-05 -1.36975e-05 0.1244947922 -0.0085258054
200298800.0 -0.7803563973 0.3291659011 0.0001928915 0.0001847118 4.7936e-05 8.74136e-05 0.124648284 -0.0111155498
205298770.0 -0.7774131478 0.3372814693 0.0003674056 0.0001300301 -0.0001232847 4.40295e-05 0.1243544338 -0.0134622663
210298740.0 -0.7739444977 0.34560133 9.66031e-05 9.70994e-05 0.0001898455 0.0001115936 0.1241764288 -0.0162084234
215298710.0 -0.7701720343 0.3538507777 0.0001436497 5.77895e-05 -7.3172e-06 0.0001569217 0.1237354197 -0.0185066702
220298680.0 -0.7668961755 0.3624125714 4.62158e-05 0.0002129831 -9.30424e-05 0.0002250516 0.1238992169 -0.0209834846
225298650.0 -0.7628641847 0.3706969208 0.0003219921 0.0001036504 1.37793e-05 1.22472e-05 0.1229274421 -0.0232041191
230298620.0 -0.7588496737 0.378453327 -0.0001293959 0.0001531501 0.000143059 5.20234e-05 0.1228111723 -0.0255197015
235298590.0 -0.7549332921 0.3876377084 0.0001697017 -2.57127e-05 8.90871e-05 -2.66261e-05 0.1222688367 -0.0278987215
240298560.0 -0.7507461992 0.3947126002 6.68041e-05 0.0001174587 0.0002726374 9.97956e-05 0.1218953808 -0.0300490081
245298530.0 -0.7462627007 0.4028051741 -0.0001588316 -6.811e-07 -5.17401e-05 0.0002040575 0.1211726406 -0.0320266115
250298500.0 -0.7425725988 0.4098404456 0.000107127 6.0969e-05 -3.31028e-05 0.0001750751 0.1209104612 -0.0343222224
255298470.0 -0.7379848139 0.418784445 0.0002180935 0.0001429589 0.0001900136 0.0001452431 0.1198759431 -0.036375955
260298440.0 -0.7338733447 0.425349122 6.67797e-05 0.0002361232 0.000152509 0.0001503046 0.1194403902 -0.0384438626
265298410.0 -0.7293314981 0.434084813 2.022e-05 0.0001178625 0.0001646689 -3.44592e-05 0.1189093179 -0.0405519167
270298380.0 -0.724250439 0.4413196443 -6.94504e-05 3.62189e-05 0.0001210139 2.43793e-05 0.118523437 -0.0425110132
275298350.0 -0.7195504851 0.4492607578 0.0001182071 6.58781e-05 0.0001767536 9.17068e-05 0.1178739582 -0.0443119801
280298320.0 -0.7157070647 0.4568859503 6.38541e-05 6.96621e-05 0.0001068944 5.23657e-05 0.1171383827 -0.0461758765
285298290.0 -0.7101428616 0.464292836 0.0001977236 0.0001990837 3.473e-05 -1.74713e-05 0.1158733196 -0.0480988072
290298260.0 -0.7055577049 0.4716464089 6.50388e-05 0.0001163304 0.0001407859 0.000130535 0.1154706136 -0.0497220674
295298230.0 -0.7006299031 0.4793822417 0.0002299247 5.03028e-05 1.6525e-05 0.0002085399 0.1148035926 -0.0514626036
300298200.0 -0.6946500185 0.4861736623 0.0001378609 0.0001643479 3.81185e-05 0.0002553969 0.1139927291 -0.0530667131
305298170.0 -0.6900829812 0.4943338205 9.47325e-05 0.0001381686 0.0001004444 -2.00128e-05 0.1136644092 -0.0547156527
310298140.0 -0.6844893349 0.5004149337 0.0001099643 8.55797e-05 0.0001430952 4.76771e-05 0.1128016679 -0.0565770972
315298110.0 -0.6794521789 0.5081524652 0.0003095566 0.0001920934 7.12473e-05 0.0001485372 0.111782482 -0.0584734073
320298080.0 -0.6744811222 0.5155634339 0.0002358658 0.0001499325 0.0002015255 0.0001590018 0.1108055751 -0.0601705898
325298050.0 -0.6683881122 0.5222071629 0.0001703226 0.0001500142 1.92675e-05 0.0001499417 0.1097782762 -0.0620109865
330298020.0 -0.6629155149 0.528982821 0.0001169468 1.74714e-05 8.20883e-05 0.0001986128 0.1087232677 -0.0636867177
335297990.0 -0.6570627874 0.5358446645 0.0001591399 8.35538e-05 0.0002611464 9.1787e-05 0.1073292272 -0.0651001556
340297960.0 -0.652211297 0.54275645 0.0004395433 -0.0001030569 0.0003400491 0.0001349699 0.1064128649 -0.0668796903
345297930.0 -0.6462389677 0.548659568 0.0002071105 4.53623e-05 0.0002347405 -1.70394e-05 0.1046785305 -0.0677496473
350297900.0 -0.640162286 0.5558682762 0.0003600676 0.0001353252 0.0002485975 6.55765e-05 0.1039910883 -0.0692356013
355297870.0 -0.6343130987 0.5624819204 0.0001384245 0.0001662958 0.0002584651 0.0001142136 0.1024396134 -0.0703335213
360297840.0 -0.6286172732 0.5687241046 0.0001326294 0.0001307739 5.02636e-05 0.0004314026 0.1014798407 -0.0715936636
365297810.0 -0.6221376338 0.5755256586 7.72795e-05 0.0001745166 0.0003569705 0.0001987949 0.100236329 -0.073024118
370297780.0 -0.6165191783 0.581727567 0.0001985737 0.0002654504 0.0002260103 0.0001757049 0.0992931424 -0.0739872249
375297750.0 -0.6102653655 0.5880829927 0.000311195 2.82871e-05 0.0003014377 7.26557e-05 0.098112191 -0.0751699551
380297720.0 -0.6043722599 0.5949768355 0.0003918833 0.000302254 0.0001557116 5.53305e-05 0.0970808042 -0.0762057816
385297690.0 -0.597481486 0.600684957 0.0003144465 6.36322e-05 0.0002770807 8.74255e-05 0.0955821143 -0.0768503242
390297660.0 -0.5914148295 0.6071353659 0.0001851412 8.61018e-05 0.0001289644 0.0001139279 0.0945892882 -0.0785807538
395297630.0 -0.5855182379 0.6133840279 0.0001779548 5.30737e-05 0.0003134008 0.0001271633 0.0933978413 -0.0797258034
400297600.0 -0.5791731403 0.6190456075 1.74852e-05 0.0002294602 0.0002324377 -1.69484e-05 0.0921023871 -0.0806489261
405297570.0 -0.5727784535 0.6248597856 0.0002052868 3.80139e-05 0.0002823276 0.0001390283 0.0910202101 -0.0815482678
410297540.0 -0.5655416165 0.6306426258 6.38876e-05 0.0001761745 0.00024248 0.0001500377 0.0896371242 -0.0823274655
415297510.0 -0.5591919589 0.6364094534 0.000302142 0.0003270347 0.0002144133 0.0001504437 0.0882906446 -0.0831838398
420297480.0 -0.5519032736 0.6417409396 0.0004371491 0.0002355475 0.0002579882 9.91955e-05 0.0870904546 -0.0847536022
425297450.0 -0.5456396199 0.6476739294 -7.35386e-05 -0.0001712679 0.0002906676 8.92209e-05 0.0862852725 -0.0853968759
430297420.0 -0.539593577 0.6529610077 0.0002361559 0.0001677502 0.0002333595 4.27416e-05 0.0847041451 -0.0864697522
435297390.0 -0.5320724961 0.6592857015 0.0001976833 -0.0001657741 0.0002578325 0.0001439585 0.0834485904 -0.0869385019
440297360.0 -0.5257189101 0.6649251943 0.0003034482 1.28015e-05 0.0001705368 0.0002745369 0.0818689782 -0.0883623266
445297330.0 -0.5185635728 0.6699781277 0.0002343284 0.000267376 0.0002636074 0.0001048087 0.080643965 -0.0890669078
450297300.0 -0.5111416505 0.674207409 0.0001962871 0.0001067733 0.0003065391 0.0002614544 0.0791958786 -0.0898299062
455297270.0 -0.504116962 0.6797359515 0.000211911 9.64957e-05 0.0002546999 -1.05371e-05 0.0779119971 -0.0905024524
460297240.0 -0.4978147968 0.6850488225 0.0001364082 -8.9916e-06 0.0002458615 0.0001912443 0.0768916621 -0.0912516573
465297210.0 -0.4904042217 0.6905014268 0.0003062742 0.0002451785 8.92108e-05 9.39739e-05 0.0750965415 -0.0918543684
470297180.0 -0.4830154887 0.6947424183 0.0003120445 0.0001533524 0.0002041214 0.0003115557 0.0735481002 -0.0929049973
475297150.0 -0.4754735854 0.6997845878 -2.56214e-05 -2.95908e-05 0.0002404556 0.0003852421 0.0729110841 -0.093546235
480297120.0 -0.4686348195 0.7047035763 0.0001305122 0.0004235561 0.0002008935 0.0001230306 0.0712795289 -0.094010014
485297090.0 -0.4612117109 0.7092520587 0.0003364292 8.81567e-05 0.0003137654 0.0001366635 0.0695626464 -0.0950085454
490297060.0 -0.4541706496 0.7136507483 0.0002309726 6.93646e-05 0.0001771513 0.0003254774 0.0684728668 -0.0955234134
495297030.0 -0.4474014743 0.7186905634 0.0004055904 -0.0001372436 0.0003635418 -3.42975e-05 0.0667786535 -0.0964338337
500297000.0 -0.4388396723 0.7232855471 0.000336308 -0.0002164839 0.0002639333 0.0002252336 0.0656613088 -0.0969866229
505296970.0 -0.4314372871 0.7269182531 0.0001241417 0.0003643012 0.000230493 8.81386e-05 0.0638356117 -0.0976516104
510296940.0 -0.424677968 0.7318553908 0.0004039542 5.35443e-05 0.0001820239 0.0001022331 0.0628324718 -0.0981215571
515296910.0 -0.417306318 0.7358508947 0.0005854363 -5.6651e-05 0.0003196023 0.0001351274 0.0612844573 -0.0984046902
520296880.0 -0.4090403396 0.7403771037 0.0002867349 0.0001322255 0.0002986889 0.0003126855 0.0600138923 -0.0994991457
525296850.0 -0.4020161186 0.7446002298 0.0003679469 8.27762e-05 0.0001103059 -1.7126e-05 0.0585064134 -0.0999289898
530296820.0 -0.3940848102 0.7485279514 0.0003703657 8.25207e-05 0.000217694 0.0001696588 0.0567546476 -0.1001845152
535296790.0 -0.3864996426 0.7522298937 0.0003287125 0.0001015997 0.000303833 0.0001119251 0.0555186394 -0.1012075062
540296760.0 -0.3783543628 0.7557185655 0.0003127575 0.0002245245 0.0003547298 0.0001848025 0.0535647222 -0.1014291027
545296730.0 -0.3708145483 0.7591804112 0.0002878406 0.0002543201 0.0002424 0.0001398418 0.0522055125 -0.1020034431
550296700.0 -0.3637505714 0.7632126161 0.000129043 0.0003316096 0.0001808212 0.0001021045 0.0509744982 -0.102218932
555296670.0 -0.354535519 0.7665263016 0.000345244 6.3107e-05 0.0003274365 3.77975e-05 0.0492638992 -0.1025957659
560296640.0 -0.3468698563 0.7708347365 0.0002969102 4.88198e-05 0.00039109 0.0001692449 0.0482745389 -0.1032910385
565296610.0 -0.339858696 0.7730292299 3.73471e-05 0.000150069 0.0004998922 9.94113e-05 0.046524093 -0.1034534573
570296580.0 -0.3315760989 0.7772161909 0.0002680647 -9.86623e-05 0.00015444 0.0001272081 0.0452189839 -0.1037868677
575296550.0 -0.32434589 0.7805511067 0.0002807322 0.0001036557 0.0004616792 0.0001752636 0.0435518391 -0.1043176544
580296520.0 -0.3159745053 0.7843167839 0.0003567164 -8.34169e-05 0.0003909259 7.29465e-05 0.0421242086 -0.1048021627
585296490.0 -0.3080126507 0.7869804407 5.44983e-05 2.42282e-05 0.0003460291 0.0001348037 0.0406922475 -0.1056458532
590296460.0 -0.299989422 0.7899139838 0.0002109128 0.000197936 0.0003652657 6.15219e-05 0.0394559621 -0.105581588
595296430.0 -0.2919542278 0.793226361 0.0002011941 0.0002956486 0.0003566052 3.1759e-05 0.0376610106 -0.1059385766
600296400.0 -0.2840376866 0.7959091342 0.0004752074 0.0002467761 0.0004224351 6.43489e-05 0.0361292139 -0.1059428372
605296370.0 -0.2757444122 0.7989916406 8.81046e-05 -0.0001248518 0.0004075033 0.0002306853 0.0349005727 -0.1063267925
610296340.0 -0.2673891211 0.8010734724 0.0003255023 -0.0001577901 0.0004809871 8.72761e-05 0.0333764059 -0.1062568632
615296310.0 -0.258966707 0.8037512886 0.0003716496 -0.000231506 0.0004205344 -8.07999e-05 0.0319359405 -0.106832808
620296280.0 -0.2508021975 0.8062399161 0.0005675504 0.0002850871 0.0004187481 -0.0002244711 0.0301672023 -0.107279722
625296250.0 -0.2431657023 0.8091342517 0.0004165465 -6.8547e-05 0.0002179383 0.0001532114 0.0288548623 -0.1069904897
630296220.0 -0.2341766736 0.8114143573 0.0003795243 0.0002466508 0.0004759518 -6.13871e-05 0.0273072975 -0.1071127754
635296190.0 -0.226615268 0.8138712441 0.0003089617 -1.8636e-06 0.0004118894 7.5776e-05 0.0258929121 -0.1072363873
640296160.0 -0.2179547639 0.8159721084 0.0003564289 -3.25828e-05 0.000174841 -0.0001157103 0.0244802456 -0.1075552842
645296130.0 -0.2102157926 0.8177751296 0.000398825 7.17501e-05 0.0004202044 -4.9716e-05 0.0229658023 -0.1075814212
650296100.0 -0.2018723509 0.8205010209 0.0002683015 3.16758e-05 0.0003354432 1.71331e-05 0.0212488645 -0.1074874927
655296070.0 -0.1930418463 0.8220644465 0.0004869014 0.0001330314 0.0002130632 -6.03152e-05 0.0199852891 -0.1074693587
660296040.0 -0.185542871 0.8241952671 0.0004867714 7.82028e-05 0.0005077521 2.829e-06 0.0185185541 -0.1077709592
665296010.0 -0.1772510895 0.8259472785 0.0004402256 0.0001192067 0.0004409881 -5.15353e-05 0.0170185544 -0.1075879192
670295980.0 -0.1682195967 0.8272842376 0.0004930632 2.98155e-05 0.0002563529 -0.0001105231 0.0156008132 -0.1076605086
675295950.0 -0.1603141492 0.8287824607 0.0004179995 0.0001872085 0.0004695107 -0.0001797737 0.0143071552 -0.1074691993
680295920.0 -0.1524318392 0.8307355531 0.0002416824 -0.0001307096 0.0001647976 -9.58681e-05 0.0127584852 -0.1075435491
685295890.0 -0.1433085777 0.8317092024 0.0002615519 -0.0001676452 0.0004494791 6.02668e-05 0.0115402853 -0.1076992729
690295860.0 -0.1346256114 0.8336042218 0.0004175308 -0.0001933607 0.0003561657 -0.0001277246 0.0099741373 -0.1073962638
695295830.0 -0.1265990851 0.8340502768 0.0005116157 -0.000178762 0.0002761027 -5.60656e-05 0.0085463194 -0.1074763649
700295800.0 -0.1182288317 0.8354997141 0.0004213045 -4.8448e-06 0.0003281138 -0.0001043118 0.00715172 -0.1073645149
705295770.0 -0.1087649319 0.8371921135 0.0002109391 8.55339e-05 0.0004301552 -4.01855e-05 0.0057903765 -0.1070335431
710295740.0 -0.1012964181 0.8379720263 0.000451839 4.18211e-05 0.0005205705 4.9177e-05 0.0040051293 -0.1068849158
715295710.0 -0.0933509043 0.8396549559 0.0005682961 -0.0001221131 0.0006927831 -0.0002433618 0.0023582337 -0.1067509893
720295680.0 -0.0850056775 0.8390994403 0.0004034161 0.000134793 0.000451678 -0.0001537116 0.0013548528 -0.1065629055
725295650.0 -0.0753506118 0.8409913086 0.0002419258 -5.13086e-05 0.0003592255 6.51918e-05 -0.0002855236 -0.1066951863
730295620.0 -0.0679477846 0.8414182103 0.0005415261 -8.55241e-05 0.0004932597 -1.18636e-05 -0.0014117025 -0.1062968605
735295590.0 -0.0586935668 0.8410022196 0.0004168005 0.0001872702 0.0003856493 -0.0001560553 -0.0030809634 -0.1060094092
740295560.0 -0.0499661946 0.8424608153 0.0003271602 2.92853e-05 0.0005892982 1.11012e-05 -0.0044208707 -0.1058455813
745295530.0 -0.0422394628 0.8424666714 0.0004551501 -7.89939e-05 0.000350216 -3.57943e-05 -0.0060513069 -0.1050589816
750295500.0 -0.0341929757 0.8429927875 0.0004734065 -7.78268e-05 0.0003668683 -0.0001094658 -0.0071776956 -0.1054093672
755295470.0 -0.0245556507 0.8437441669 0.0004571062 1.8176e-06 0.0005678783 -9.87597e-05 -0.0089349368 -0.1046648246
760295440.0 -0.0165312481 0.843422494 0.0003308612 -0.0002392177 0.0003178652 2.54e-08 -0.0100817885 -0.1042020894
765295410.0 -0.0081295659 0.8435166223 0.0002958196 6.00854e-05 0.0004252839 1.62326e-05 -0.0113169958 -0.1037435427
770295380.0 0.0001182467 0.8446003622 0.0002863748 8.31561e-05 0.0003576725 -4.95575e-05 -0.0124421208 -0.1036616039
775295350.0 0.0088087948 0.8438232878 0.0006289623 -9.71448e-05 0.0004327684 -0.0001701872 -0.0145594095 -0.1035903851
780295320.0 0.0174108389 0.843291697 0.0003425105 0.0002112375 0.0003230591 -6.32904e-05 -0.0156921278 -0.1026917431
785295290.0 0.0254059862 0.8439734826 0.0003966581 9.29966e-05 0.0005701642 -0.0001896633 -0.0170958531 -0.1023702321
790295260.0 0.0339641979 0.8428527269 0.0005337755 -0.0002202095 0.0005621203 -0.0001757297 -0.0181921582 -0.1021873395
795295230.0 0.0425495048 0.8433484559 0.0005003421 7.66714e-05 0.0005652409 -0.0002513002 -0.019174497 -0.1013207331
800295200.0 0.051374978 0.8427622334 0.0006244895 -6.88725e-05 0.0003217686 -2.04127e-05 -0.0211967783 -0.1011173519
805295170.0 0.0594563568 0.842235028 0.0003816018 -7.90565e-05 0.0005383098 -0.0001283221 -0.0224771567 -0.1002979286
810295140.0 0.0677599179 0.8408706181 0.0006297562 -2.26697e-05 0.0004964082 -8.53678e-05 -0.0236059746 -0.0996712393
815295110.0 0.0767382607 0.8406258158 0.00039657 -0.0002010367 0.0003702168 -0.0001046539 -0.0250755222 -0.0991758105
820295080.0 0.0849238354 0.8389237891 0.0002388965 -0.000273159 0.000590384 -5.80512e-05 -0.026364979 -0.098841886
825295050.0 0.0932960135 0.8380498715 0.000368378 -2.70432e-05 0.0002884117 -0.0002190475 -0.0274721985 -0.09833483
830295020.0 0.1022144696 0.8371541608 0.0002210659 -6.11343e-05 0.0003893662 -5.78464e-05 -0.0295005695 -0.0977102132
835294990.0 0.1100119212 0.8369189946 0.0005554887 1.1545e-06 0.0004650405 4.23558e-05 -0.0300065444 -0.0971412042
840294960.0 0.11841994 0.8355081823 0.0004009182 -4.78596e-05 0.0002654449 -0.0001691718 -0.031568244 -0.0959626805
845294930.0 0.1266376232 0.8339477029 0.0003706969 -0.0002070764 0.0004932992 -0.0002287545 -0.03287174 -0.0956542731
850294900.0 0.1349206434 0.8325370166 0.0002447455 -0.0002132926 0.0004649392 -0.0002416627 -0.0341350599 -0.0950164812
