!Created with skrf (http://scikit-rf.org).
# Hz S RI R 50.0 
!freq ReS11 ImS11 ReS21 ImS21 ReS12 ImS12 ReS22 ImS22
300000.0 -0.7757469766 -0.1481196905 -0.0029458666 0.0012125949 0.0012223777 0.00208289 -0.7689275466 -0.166628595
5299970.0 -0.7849636543 -0.0075132193 -0.0001487417 6.38948e-05 5.0257e-05 0.0003020562 -0.7843469946 -0.0089469811
10299940.0 -0.7877933912 -0.004245666 -2.9702e-06 -5.77129e-05 7.53028e-05 -4.09948e-05 -0.7877439018 -0.0049587412
15299910.0 -0.7930159762 -0.0018168722 -9.9944e-05 5.23345e-05 -0.0001311523 0.0001279422 -0.7929489791 -0.0035037731
20299880.0 -0.7994604982 0.002541491 -6.80256e-05 -0.0001144246 -0.0001425225 -0.0002176392 -0.8001131873 0.0016122518
25299850.0 -0.8065385449 0.0084033665 0.0004403029 8.44807e-05 -1.33027e-05 -9.25996e-05 -0.8060812985 0.0074091346
30299820.0 -0.8119120876 0.0160889142 0.0001637033 -1.2558e-05 -0.0002113999 0.0001243509 -0.812282447 0.0151683273
35299790.0 -0.8170121624 0.0253485033 4.61544e-05 -9.96789e-05 8.34454e-05 -0.0001821496 -0.8173413007 0.0243575639
40299760.0 -0.8212219899 0.0342428601 0.0001775581 -0.000139613 1.93206e-05 0.0001364202 -0.8211433682 0.0333593671
45299730.0 -0.8247240597 0.0440880504 0.0002078518 -3.30548e-05 -9.00047e-05 5.78015e-05 -0.8254419511 0.0418789019
50299700.0 -0.8269817625 0.0542143551 0.000281113 -1.05004e-05 3.35557e-05 -0.0001197537 -0.8275563627 0.0524262124
55299670.0 -0.8286528453 0.0642541471 -0.0002181384 -9.78232e-05 1.24924e-05 5.99427e-05 -0.8297082674 0.0630584183
60299640.0 -0.8300723821 0.0743889752 3.33895e-05 0.0001400573 4.4496e-06 -8.13148e-05 -0.8303406743 0.0731045501
65299610.0 -0.8306483296 0.0848175221 0.0002102987 -0.000197827 -4.89981e-05 -0.0001147479 -0.8310029647 0.0831232856
70299580.0 -0.8313142843 0.094628148 3.18467e-05 -5.78964e-05 0.0001699985 -9.82559e-05 -0.8318476623 0.0930001881
75299550.0 -0.8316433882 0.1044920134 -0.0002108604 0.0001120074 0.0001095935 -8.39482e-05 -0.8321208671 0.1031112113
80299520.0 -0.8314983805 0.114659628 1.87587e-05 5.66139e-05 0.0002382505 -0.0002150333 -0.8317098588 0.1123844466
85299490.0 -0.8302598518 0.1242936056 -4.94923e-05 -3.93391e-05 8.71341e-05 0.0001229101 -0.832199212 0.1219245738
90299460.0 -0.8297837699 0.1339668956 0.0001137979 -7.24107e-05 -4.29738e-05 -6.06394e-05 -0.8305763042 0.1315954579
95299430.0 -0.8286530563 0.1439341782 -2.44987e-05 -5.2751e-05 8.25131e-05 0.0001476587 -0.8296260385 0.1414173363
100299400.0 -0.8275521885 0.1531471206 -3.65366e-05 -2.10991e-05 2.28502e-05 0.0001243962 -0.8286142364 0.1494986703
105299370.0 -0.8264191699 0.1621635546 7.95476e-05 -9.71077e-05 0.0001135053 0.0001010498 -0.8278431227 0.1590015489
110299340.0 -0.8254492874 0.1716632701 -0.0001522052 -4.97106e-05 -2.7869e-05 -4.26368e-05 -0.8270019463 0.1682205944
115299310.0 -0.8237959499 0.1808933498 0.0001077738 0.0001506825 -2.29268e-05 -7.52223e-05 -0.8247816919 0.1767465578
120299280.0 -0.8219138213 0.1895828467 0.000149014 5.1114e-05 8.44673e-05 -0.0001181142 -0.8237068038 0.1861060904
125299250.0 -0.8205802008 0.1985275086 -0.0003775923 0.0001459754 0.0001043793 0.0001661081 -0.8220534759 0.1950933109
130299220.0 -0.8183211582 0.2075626666 -0.0001433927 0.0001515178 3.96631e-05 -2.54828e-05 -0.8200088044 0.2042801977
135299190.0 -0.8164193359 0.2170097171 0.0002373856 -4.58484e-05 4.83915e-05 -1.64844e-05 -0.8182462141 0.2123624058
140299160.0 -0.8145683109 0.2254098467 -8.58027e-05 0.0001846239 -0.0001133867 0.0001529571 -0.8156903125 0.221764315
145299130.0 -0.8123923941 0.2341770822 -6.70635e-05 -3.17367e-05 -8.83069e-05 3.74426e-05 -0.8136970104 0.2298031944
150299100.0 -0.8097859387 0.24307039 5.11759e-05 3.17615e-05 -7.3432e-06 -6.36678e-05 -0.8116970069 0.2386988123
155299070.0 -0.8076296161 0.2523253596 0.0001776189 4.41412e-05 0.0001180311 6.28095e-05 -0.8095666521 0.2477025463
160299040.0 -0.8044632874 0.261163866 -5.90344e-05 -7.64514e-05 -7.39355e-05 1.2724e-05 -0.8078496435 0.2564941957
165299010.0 -0.8019817577 0.269410784 -5.79682e-05 9.79161e-05 0.0001395803 9.51673e-05 -0.8040402124 0.2646911447
170298980.0 -0.7994230112 0.277694017 1.82974e-05 -8.9028e-06 -0.0001013281 -1.91242e-05 -0.8017346072 0.2732928271
175298950.0 -0.7968584505 0.2869112341 0.0001473677 1.07211e-05 5.26613e-05 4.8395e-06 -0.7988858398 0.2820139094
180298920.0 -0.7941390059 0.2948038514 -9.9823e-06 3.5481e-06 8.6518e-06 -0.0001311253 -0.7954347065 0.2904402937
185298890.0 -0.7907152972 0.3042251859 0.000184652 2.85047e-05 0.0001092903 5.53379e-05 -0.7931592394 0.2984308981
190298860.0 -0.7868949914 0.312157761 2.53062e-05 -0.0002020258 8.00721e-05 -0.0001096109 -0.7896063424 0.3075211386
195298830.0 -0.7840970765 0.3209732034 6.8122e-05 0.0001791627 3.87249e-05 0.0001021408 -0.7870407127 0.3153671643
200298800.0 -0.7804125218 0.3294017763 -0.0002483642 -6.48274e-05 0.0001010757 8.6617e-06 -0.7830023781 0.3237743602
205298770.0 -0.7775203409 0.3376547363 -1.08963e-05 -0.0001079033 0.0001086045 -7.4561e-06 -0.7799819295 0.3321231809
210298740.0 -0.7734454543 0.3458903664 0.0002474651 -0.0001628783 7.36586e-05 -0.000100052 -0.7767778422 0.340449695
215298710.0 -0.7704400051 0.3543377658 1.87431e-05 -5.78869e-05 0.0002340606 -0.000121797 -0.7733179523 0.3479882899
220298680.0 -0.7669242307 0.3624151534 -2.94071e-05 1.79873e-05 -2.33623e-05 0.0001444636 -0.769346489 0.3571231158
225298650.0 -0.7629886382 0.3711908624 -4.71462e-05 0.0001191394 -8.2773e-06 -0.0001808002 -0.7660119288 0.3646041573
230298620.0 -0.7582764526 0.3787024751 0.0001192604 0.0002174136 0.0001441661 0.0001011137 -0.761393457 0.3727449194
235298590.0 -0.7544353973 0.3869157397 7.50086e-05 0.0001625661 2.40429e-05 5.25863e-05 -0.7575893714 0.3803214606
240298560.0 -0.7511331286 0.3949164702 -0.0002924589 -0.0001943478 -0.0002319602 8.27593e-05 -0.7538128309 0.3882228083
245298530.0 -0.7460849453 0.4026444272 -0.0002704222 8.34233e-05 -6.02603e-05 6.77499e-05 -0.7501262699 0.3962878526
250298500.0 -0.7420366625 0.4110127686 4.58139e-05 -0.0001203583 6.4907e-05 -7.44241e-05 -0.745869737 0.4041806453
255298470.0 -0.7375331665 0.4190612427 5.8816e-06 0.000109878 1.07884e-05 6.963e-05 -0.7408918968 0.4123677343
260298440.0 -0.7336382104 0.4261826762 -7.55974e-05 -6.65912e-05 -0.000237929 1.9947e-05 -0.736600347 0.4195224467
265298410.0 -0.7289374756 0.4341294767 -0.0001004066 -0.0001859454 4.42626e-05 -7.8493e-06 -0.7319976892 0.4275169179
270298380.0 -0.7245857033 0.4420774466 -7.12167e-05 -7.55861e-05 -0.0001438787 0.0001621976 -0.7272378681 0.4352101794
275298350.0 -0.7192056643 0.4490183954 -0.00014797 7.40587e-05 0.0002325379 6.6808e-06 -0.7223342774 0.4429327703
280298320.0 -0.7153454373 0.4567702729 -0.0002969151 8.45071e-05 -5.77797e-05 -8.13568e-05 -0.718548068 0.4501334658
285298290.0 -0.7102237616 0.4644279808 0.0002706904 0.000130625 0.0001710703 -1.563e-05 -0.7132926223 0.4578081355
290298260.0 -0.7057090276 0.4718693374 -0.0001162987 -0.0002099139 -5.22108e-05 -5.10031e-05 -0.7086948224 0.4655607266
295298230.0 -0.7009267991 0.4792332201 0.000213464 -0.000268962 -0.0001884323 0.0001456945 -0.7033352514 0.4726395385
300298200.0 -0.6946075392 0.4864702115 -6.34714e-05 -7.52312e-05 2.3216e-05 -5.97471e-05 -0.6986676283 0.4800026356
305298170.0 -0.6900298994 0.4949394584 0.0001395961 0.0001766027 4.78354e-05 1.90851e-05 -0.6931657952 0.4873569529
310298140.0 -0.6846531561 0.5011367975 9.8049e-06 -0.000127017 2.1222e-05 -5.1346e-06 -0.6888223864 0.4950141395
315298110.0 -0.679911287 0.5080909833 -8.26452e-05 -5.06656e-05 0.0002243423 -0.0001746771 -0.6833497066 0.5017866477
320298080.0 -0.674121372 0.5158415607 3.566e-06 -3.3699e-05 4.30728e-05 -7.5945e-05 -0.6776390933 0.5094720157
325298050.0 -0.6685424155 0.5223485812 -7.68229e-05 -0.0001151536 4.37635e-05 3.17183e-05 -0.6722030492 0.5157956541
330298020.0 -0.662879516 0.5296419106 4.42397e-05 5.00127e-05 -6.21893e-05 -5.18283e-05 -0.666739879 0.523165829
335297990.0 -0.6570001839 0.5364096119 -1.2342e-06 -6.52258e-05 -4.61568e-05 0.00015611 -0.6610319114 0.5304667323
340297960.0 -0.6524737024 0.5427085272 0.000286193 -6.7398e-06 -0.0001941439 -7.96843e-05 -0.6553946805 0.5373287402
345297930.0 -0.6464756141 0.549078257 0.0001805351 -1.7546e-06 0.0001624672 -0.0001284122 -0.6491923016 0.5436546694
350297900.0 -0.6404956701 0.55609613 -0.0001003391 -1.31189e-05 -7.1512e-05 0.0001973176 -0.643638487 0.5515460018
355297870.0 -0.634163707 0.5627183633 4.82043e-05 -0.0001028668 6.45973e-05 1.90607e-05 -0.6382831114 0.5572041821
360297840.0 -0.6285300652 0.5689791141 -8.36853e-05 -9.1826e-06 8.05364e-05 7.23683e-05 -0.632085981 0.5637518605
365297810.0 -0.621768839 0.5759268611 -1.15787e-05 0.0001303434 7.57802e-05 -0.0002136111 -0.6261804991 0.5706491489
370297780.0 -0.6164747379 0.581495629 0.0003111164 -0.0002368386 -0.0001435835 -2.30012e-05 -0.6202194651 0.5763331123
375297750.0 -0.6102664292 0.5884168067 -0.0001758236 -1.5737e-06 2.71313e-05 6.98515e-05 -0.6138331279 0.5828373004
380297720.0 -0.603890296 0.5943645813 -0.0002446582 0.0001623752 -7.64045e-05 6.76998e-05 -0.6081429023 0.5904237469
385297690.0 -0.5981497596 0.6009120891 0.0001568323 -0.0002975863 0.000144273 -0.0001853004 -0.6019014884 0.5960517859
390297660.0 -0.5915342624 0.6069256033 0.0001153081 -3.6921e-05 -3.79614e-05 9.50692e-05 -0.5952256353 0.6016269621
395297630.0 -0.5853348585 0.6134140456 4.36801e-05 -6.87775e-05 0.000120643 4.42137e-05 -0.5892900068 0.6081595519
400297600.0 -0.5788781381 0.6194456729 8.14136e-05 4.61189e-05 -0.000100799 0.0001530156 -0.5828451158 0.6137873515
405297570.0 -0.5727816089 0.6254572051 -0.000190222 1.16203e-05 4.63656e-05 0.0002270985 -0.5772610468 0.6199556762
410297540.0 -0.5655634467 0.6307558156 -8.30553e-05 1.84487e-05 -0.0001186912 5.549e-07 -0.5693915496 0.6257555921
415297510.0 -0.5590692508 0.6365734498 1.04282e-05 0.0001670369 2.15175e-05 4.38207e-05 -0.5634996435 0.6318458997
420297480.0 -0.5512641877 0.6424185343 -3.16649e-05 8.38441e-05 -8.14423e-05 -0.0001432613 -0.5572079153 0.6368807751
425297450.0 -0.5456540935 0.6478685319 -7.54404e-05 0.0001483818 -0.0002047735 8.60544e-05 -0.5504927124 0.6435795114
430297420.0 -0.5395742964 0.6538327491 -8.96788e-05 -0.0001626969 0.0001877333 -2.119e-07 -0.5438313221 0.6485137604
435297390.0 -0.5320675362 0.6593403748 5.51748e-05 0.0001037375 -3.22794e-05 -0.0001322673 -0.5369973856 0.6535136258
440297360.0 -0.5251388347 0.6647991556 -1.07649e-05 -6.71971e-05 -0.0002094216 -5.46867e-05 -0.5308108046 0.6593008828
445297330.0 -0.5184315021 0.6699387068 2.26782e-05 0.0001373818 -0.0001420729 -7.99328e-05 -0.5237897167 0.664238355
450297300.0 -0.5112673991 0.6749177389 0.0001106906 2.36489e-05 1.40451e-05 -0.0001068942 -0.5172868039 0.6697672557
455297270.0 -0.5039553488 0.6805254023 9.73235e-05 1.01781e-05 -0.0001530227 2.15344e-05 -0.5098210628 0.675157654
460297240.0 -0.4978941269 0.6847665431 -3.25135e-05 -2.7343e-06 -5.1276e-06 0.000128535 -0.5028516646 0.6802417821
465297210.0 -0.4900123572 0.6902960414 -0.0002060879 0.0001206078 0.0001033013 -5.32051e-05 -0.4961251035 0.6847767622
470297180.0 -0.483077792 0.6952569254 1.38143e-05 -3.1238e-06 -0.0001138732 0.0001527953 -0.4894390422 0.6895397395
475297150.0 -0.4757209402 0.7000395912 0.0001430699 0.0001575783 -0.0001306283 -0.0001563058 -0.4816821289 0.6947369343
480297120.0 -0.4689010272 0.7049376842 -0.000255816 6.46399e-05 -5.2433e-05 5.36261e-05 -0.4747909093 0.6996497734
485297090.0 -0.4613510328 0.709465215 3.1786e-06 -2.97927e-05 -0.0001897895 -3.14247e-05 -0.468093597 0.7036442003
490297060.0 -0.4540333573 0.7141486806 0.0001702466 -6.741e-06 -4.85377e-05 -0.0001131318 -0.4612534842 0.7086495746
495297030.0 -0.4475009531 0.7191412802 -3.65017e-05 -0.000118429 5.48449e-05 -0.0002008264 -0.4537040268 0.7127164282
500297000.0 -0.4388135916 0.7237006676 -7.58583e-05 -3.68547e-05 -6.37041e-05 1.90561e-05 -0.4463328923 0.7174408559
505296970.0 -0.4318083459 0.7268680656 8.1864e-06 3.29477e-05 4.19992e-05 -0.0001343617 -0.4400584521 0.7218749534
510296940.0 -0.4247349927 0.7318522367 -0.0001592019 0.0001854677 -7.86585e-05 0.000147729 -0.4319259123 0.7263212092
515296910.0 -0.4174370702 0.7363689513 -0.0001012596 -0.0001148261 -4.13076e-05 0.0001469851 -0.4247133738 0.7305813578
520296880.0 -0.4094173378 0.7407460028 -3.29746e-05 0.0001186866 0.0001807758 -6.55862e-05 -0.41733553 0.7346950087
525296850.0 -0.4018985802 0.744699667 -9.7128e-06 0.0002191069 8.73573e-05 -8.37335e-05 -0.4100472123 0.7387604156
530296820.0 -0.3939024077 0.7483570705 -0.0001318095 -8.90619e-05 -5.01883e-05 7.93641e-05 -0.402372819 0.7426146713
535296790.0 -0.3860426385 0.7522644091 -0.0001402273 -6.4814e-05 6.80526e-05 -0.0002218779 -0.3953738032 0.7460108616
540296760.0 -0.3784915833 0.7560053214 0.0001132871 -0.0001524264 -0.0002445632 -4.17351e-05 -0.3878376579 0.750409468
545296730.0 -0.3709603867 0.7595548883 -0.000108646 1.13104e-05 -3.72605e-05 3.36169e-05 -0.3808608466 0.7534846077
550296700.0 -0.3635245526 0.7635205906 0.0002522944 0.0002098872 -6.23102e-05 0.0002323908 -0.3729842813 0.7576664804
555296670.0 -0.3544735578 0.7673850474 -0.0001208023 0.0001107266 -0.0002059588 6.52059e-05 -0.3654765182 0.7614046626
560296640.0 -0.3473921855 0.7709048679 -0.000172012 9.10526e-05 -9.11218e-05 -3.6264e-06 -0.3574043482 0.7652692002
565296610.0 -0.3397862189 0.7739719037 1.46025e-05 -0.000110706 0.000301575 0.0002142922 -0.3502160689 0.768805852
570296580.0 -0.3315599346 0.7773628824 -0.0003178042 -5.05288e-05 9.2207e-06 4.68443e-05 -0.3431742705 0.7721680086
575296550.0 -0.3241866892 0.7806808977 -0.0001638804 3.59611e-05 -0.0002357221 -9.40609e-05 -0.3346594139 0.7753403535
580296520.0 -0.315738019 0.7844484097 8.3752e-05 0.0001140524 -4.66731e-05 5.43758e-05 -0.3271495299 0.7787358639
585296490.0 -0.3077275 0.7869390884 0.0002516223 0.0001313609 -2.82023e-05 5.11048e-05 -0.3193238153 0.7817515038
590296460.0 -0.2994434274 0.7896692734 0.0001913939 0.0003982373 5.93761e-05 -0.000123111 -0.3114338617 0.7847382635
595296430.0 -0.291242435 0.7936852171 5.41477e-05 0.0001925711 -1.17687e-05 0.0001344096 -0.303301045 0.7870973512
600296400.0 -0.2836279372 0.7959326723 -2.5406e-06 -5.9044e-06 0.0002588388 -2.5487e-06 -0.2959712057 0.7909550025
605296370.0 -0.2756386804 0.7989905627 0.0002623051 -1.5208e-05 -4.12367e-05 9.2803e-05 -0.2884161634 0.7940738297
610296340.0 -0.2675899632 0.801251744 3.44028e-05 0.0001526475 -4.83475e-05 -0.0001005657 -0.2800464618 0.7968686569
615296310.0 -0.2585080309 0.8041496663 -5.9052e-05 -0.000255002 1.47521e-05 -0.0001136347 -0.2725747665 0.7989849095
620296280.0 -0.2510683255 0.8061451341 -6.34821e-05 0.0002767213 8.87507e-05 -0.0001076585 -0.2643538552 0.8014574089
625296250.0 -0.2426560593 0.8092187682 2.79064e-05 7.9098e-05 6.47167e-05 -3.16447e-05 -0.2569293799 0.8046464312
630296220.0 -0.2341965174 0.8119032845 9.99201e-05 4.8301e-06 8.79533e-05 -0.0001935889 -0.2483463058 0.8074296123
635296190.0 -0.2266624121 0.8142051681 -6.59615e-05 -3.63961e-05 7.14377e-05 -5.13673e-05 -0.2406755469 0.8089506683
640296160.0 -0.2177607649 0.8150570807 -2.59157e-05 0.000109466 8.71755e-05 -1.24268e-05 -0.2321041801 0.8112818972
645296130.0 -0.2096807711 0.8180741837 -3.35064e-05 2.13771e-05 3.05761e-05 7.82774e-05 -0.2248611283 0.8139903945
650296100.0 -0.2014355621 0.8205195018 8.93554e-05 -7.0806e-06 9.51151e-05 -8.37119e-05 -0.2164800766 0.8160316083
655296070.0 -0.1931183412 0.8216258463 -0.0001016475 0.0002839922 4.7547e-06 7.01255e-05 -0.2083528662 0.81803044
660296040.0 -0.1853121632 0.8244919776 -0.0001824579 -1.79501e-05 0.0002978035 -2.8348e-05 -0.2006624959 0.8200872186
665296010.0 -0.1771329336 0.8260920101 0.0001827398 -1.33164e-05 -7.00562e-05 0.0001595886 -0.1924917233 0.8224064867
670295980.0 -0.1678178153 0.8276815511 -1.74849e-05 9.00034e-05 0.0001538324 4.15606e-05 -0.1845690452 0.8242116834
675295950.0 -0.1598820544 0.8287245837 0.000222873 -0.0001548421 7.98471e-05 0.0002724643 -0.1762741503 0.8261694811
680295920.0 -0.1516372244 0.8311013842 -0.0001432833 0.0001022015 -6.42097e-05 -0.0001325422 -0.1679021169 0.8279348373
685295890.0 -0.1428090718 0.832346131 4.71288e-05 0.0001401999 -0.0001242026 0.0001419978 -0.1600300323 0.829322814
690295860.0 -0.1345433556 0.83369832 0.0001517516 -2.40908e-05 0.0001134759 -0.0001309525 -0.1518592354 0.830488378
695295830.0 -0.1265768794 0.8343661287 -5.00378e-05 -0.0001536523 -5.08557e-05 -8.66511e-05 -0.143602163 0.8328363139
700295800.0 -0.117413432 0.8358699848 7.04647e-05 0.0001318865 3.82025e-05 0.0001923883 -0.1347426337 0.8333971551
705295770.0 -0.108489618 0.8370781001 4.31905e-05 -2.6661e-06 -0.0001703392 0.0001844558 -0.1274573646 0.835117635
710295740.0 -0.101063544 0.8379840815 -7.65863e-05 -0.0001383181 0.0003108403 5.7101e-06 -0.1195735404 0.8368128036
715295710.0 -0.0926454518 0.8390139485 0.000186951 -1.94275e-05 -0.0001315791 1.02745e-05 -0.1107881501 0.837538516
720295680.0 -0.08408555 0.8393959669 5.45298e-05 -7.17894e-05 3.48856e-05 -1.54261e-05 -0.1020036272 0.8384944245
725295650.0 -0.0751589832 0.8414675407 -0.0002096633 -3.033e-06 0.000184193 -8.58792e-05 -0.094045361 0.8395111808
730295620.0 -0.0675291009 0.8412868299 -0.0001251866 -5.24778e-05 2.63504e-05 -7.02217e-05 -0.0854036675 0.840892681
735295590.0 -0.0579925449 0.842201795 -3.60696e-05 0.0002067793 -6.61389e-05 0.000133387 -0.0768512249 0.8404716385
740295560.0 -0.0499082121 0.842847294 3.48286e-05 -4.27652e-05 0.0001455021 -0.0001081724 -0.0692718704 0.8412940393
745295530.0 -0.0415030011 0.8427152887 0.000194699 2.47544e-05 -8.41001e-05 1.93795e-05 -0.0608511688 0.8421299642
750295500.0 -0.0337788292 0.8430651306 2.11456e-05 -1.58217e-05 -1.64922e-05 -6.72985e-05 -0.0523953121 0.8426308496
755295470.0 -0.0242881255 0.8438786712 -0.0001242146 0.0002893812 -0.000100644 0.0002246086 -0.04488749 0.8431675296
760295440.0 -0.0165725528 0.8435482983 -0.0002367331 3.67433e-05 -6.25641e-05 -1.81133e-05 -0.0366896472 0.8435723924
765295410.0 -0.007701779 0.8436531703 0.0001149029 -6.5208e-06 7.14191e-05 -0.0001686714 -0.0269737698 0.8442342932
770295380.0 0.0004699289 0.8443714785 -7.60589e-05 0.0001440903 1.03303e-05 0.0001557799 -0.0190578948 0.8438882995
775295350.0 0.0092081836 0.8440171221 -0.0001364999 -9.19143e-05 -3.31546e-05 -2.91672e-05 -0.0114751403 0.844392762
780295320.0 0.0181802139 0.8433730612 0.0002171737 3.9504e-06 -1.6637e-05 2.24976e-05 -0.0026378098 0.8443520924
785295290.0 0.0262498381 0.8435288059 -0.0002885566 7.87137e-05 -0.0001779551 9.65836e-05 0.0050561019 0.84445304
790295260.0 0.0342172006 0.8428574302 5.85328e-05 -9.46279e-05 -4.89283e-05 -0.0001516733 0.0140603808 0.8441555373
795295230.0 0.0431401172 0.8435397588 0.0001947484 5.53406e-05 -9.30325e-05 7.14588e-05 0.0226736525 0.8443197389
800295200.0 0.0508686913 0.8425858142 0.0001555658 -9.72e-05 -0.0001244687 7.16566e-05 0.0306966077 0.843180069
805295170.0 0.0598142811 0.8426705469 0.0001411163 6.03839e-05 -1.8768e-05 0.0001580506 0.0386899679 0.8428520669
810295140.0 0.0680736931 0.8414429507 0.000198908 3.71884e-05 -0.0001645044 3.51467e-05 0.0466728465 0.8436660251
815295110.0 0.0770120098 0.8401562605 0.0001485214 -3.52905e-05 -4.61112e-05 -0.0002152342 0.0554352053 0.8426790916
820295080.0 0.0850243836 0.8390647627 5.95456e-05 -6.70772e-05 0.000147802 -2.48172e-05 0.0633371125 0.8416715684
825295050.0 0.0936976296 0.8382545209 -8.08043e-05 -7.52469e-05 8.68832e-05 -4.86357e-05 0.0713801143 0.8413325954
830295020.0 0.1021349754 0.8377624571 0.0001341497 -2.94197e-05 3.70623e-05 5.05602e-05 0.0797812677 0.8404929709
835294990.0 0.1103594877 0.8368491943 0.0001074495 -0.0001513596 -7.85505e-05 3.61235e-05 0.0879286598 0.8399324779
840294960.0 0.1185516857 0.8354501075 -3.18361e-05 3.79709e-05 -2.63188e-05 7.33811e-05 0.0960831264 0.8386108599
845294930.0 0.1271232878 0.8343003464 0.0001466496 0.0001390245 0.000161468 8.45354e-05 0.1045039049 0.837521827
850294900.0 0.134849266 0.8324407927 -0.0001596011 -6.96139e-05 -0.0001055996 0.0001171033 0.1126166889 0.8370188165
