!Created with skrf (http://scikit-rf.org).
# Hz S RI R 50.0 
!freq ReS11 ImS11 ReS21 ImS21 ReS12 ImS12 ReS22 ImS22
300000.0 -0.0954274021 -0.0992235434 0.6231983177 0.0916105124 0.6208719642 0.0921655255 -0.0951278446 -0.1050102686
5299970.0 -0.1013569568 0.0116510852 0.6304467852 0.0115783173 0.6307852665 0.0112515892 -0.1018776439 0.0113328323
10299940.0 -0.0970518606 0.0285220517 0.634916573 0.015978784 0.6343970798 0.0165847691 -0.0964993416 0.0285810266
15299910.0 -0.0891885348 0.0422864598 0.6407960571 0.0213956003 0.6407890601 0.0213332 -0.0897393519 0.0418397965
20299880.0 -0.0807092953 0.0534290494 0.6491357886 0.0242787989 0.6491034336 0.0245547561 -0.0809364237 0.0529237559
25299850.0 -0.0704008072 0.0625639987 0.6582026258 0.0259670672 0.65873672 0.0255486847 -0.0717986474 0.0619033867
30299820.0 -0.0608341451 0.068795873 0.6682045073 0.0242430767 0.667792265 0.0245563288 -0.0618261689 0.0684418961
35299790.0 -0.050731597 0.0734070952 0.6774904299 0.0220018445 0.6774670392 0.0220557572 -0.0523066051 0.0735834901
40299760.0 -0.0411435247 0.0762142239 0.686642281 0.017411513 0.6872571686 0.0174748967 -0.0427703679 0.0768992759
45299730.0 -0.0318865819 0.0784413256 0.6957456788 0.0129007728 0.6964212531 0.0118927921 -0.0331421088 0.0792316985
50299700.0 -0.0229043608 0.0790854507 0.703847231 0.0052450009 0.7036053338 0.0047822777 -0.0246219318 0.08021695
55299670.0 -0.0152721629 0.078982084 0.7112891777 -0.0023999833 0.7111360384 -0.0024609344 -0.0174091929 0.0806428161
60299640.0 -0.0076901351 0.0786867026 0.7179301974 -0.0109563935 0.7177528872 -0.0111991475 -0.009654406 0.0796015983
65299610.0 -0.0011706559 0.0771810065 0.7243446715 -0.0195949357 0.7239733979 -0.0204445337 -0.0024536451 0.0785724524
70299580.0 0.0052268707 0.0753237847 0.7290455378 -0.0286199013 0.7295676315 -0.0291874857 0.0028372515 0.0771031976
75299550.0 0.010544766 0.0734803978 0.7334341212 -0.0392816109 0.7335337215 -0.0390803286 0.008513839 0.0751995833
80299520.0 0.0153302252 0.0715125899 0.7379546476 -0.0486638837 0.7379892105 -0.0488726604 0.0136929058 0.0732849234
85299490.0 0.0200376917 0.0692552832 0.7416191289 -0.0588391378 0.7408407422 -0.0583804167 0.0179384615 0.0709253985
90299460.0 0.0240201047 0.0664328434 0.7429966014 -0.0686554767 0.7434117938 -0.0681314968 0.0225596513 0.0694065582
95299430.0 0.0279752333 0.0640913663 0.7465004567 -0.0790179964 0.7465506672 -0.0789232532 0.0257360746 0.0663943582
100299400.0 0.0313498454 0.0615164177 0.7477147424 -0.0888261661 0.7477406158 -0.0890214778 0.0290253367 0.0645104014
105299370.0 0.0343047027 0.0590175221 0.7494046233 -0.0991435892 0.7493647999 -0.0990767319 0.0326139852 0.0616769722
110299340.0 0.0374877547 0.0562561064 0.7506050037 -0.1082870199 0.750802209 -0.1086610539 0.0347171339 0.0593583519
115299310.0 0.0393380468 0.0544254409 0.7513502064 -0.1188292414 0.7509924464 -0.1186368761 0.0371819337 0.0575469136
120299280.0 0.0415666311 0.0519923399 0.7521270008 -0.1292857873 0.7517283792 -0.1294694587 0.0398406663 0.054623346
125299250.0 0.0437069729 0.0497029633 0.7517183495 -0.1389609699 0.751953466 -0.1386184747 0.0422429794 0.0528080184
130299220.0 0.0457959812 0.0471845986 0.7523223473 -0.1491386932 0.7516926691 -0.1495421668 0.0438155569 0.05063937
135299190.0 0.0468403084 0.0453973978 0.7520931628 -0.1584647343 0.7522081964 -0.1587129239 0.0451796643 0.0480648815
140299160.0 0.0489962201 0.043074863 0.7518078123 -0.1683429071 0.7510104187 -0.168410223 0.0463017438 0.0455284953
145299130.0 0.0492473202 0.0412531652 0.7505911281 -0.1785062265 0.7506746567 -0.1781500101 0.0481634647 0.0437670395
150299100.0 0.0511440264 0.0392284626 0.7494928674 -0.1877901151 0.7489903026 -0.188091316 0.049153848 0.0421205849
155299070.0 0.0526054771 0.0371135683 0.7476676666 -0.1971275004 0.748423008 -0.1977033666 0.0504775187 0.0394102832
160299040.0 0.0533224826 0.0354489121 0.7470354419 -0.2069551381 0.7467895209 -0.2072840911 0.050816641 0.0380823648
165299010.0 0.0542730509 0.0333209547 0.7456525789 -0.2163704582 0.7449618383 -0.2164795427 0.0522281706 0.0358630648
170298980.0 0.0551861234 0.0320069366 0.7433758018 -0.2259185699 0.7432925101 -0.2261801551 0.0525153662 0.0338827392
175298950.0 0.0558419073 0.0302732839 0.7417044293 -0.2352387318 0.7419892599 -0.2355190109 0.0537126717 0.0326626321
180298920.0 0.0563458147 0.0288792186 0.7395733853 -0.2448183974 0.7395576442 -0.244809892 0.0541708083 0.0307509039
185298890.0 0.0567569701 0.0269447979 0.7379898319 -0.2538303041 0.7371136649 -0.2532617641 0.0548207426 0.0290653537
190298860.0 0.0579282349 0.0256580319 0.7345417601 -0.2631131739 0.7350318522 -0.2624688651 0.0551968099 0.0274512005
195298830.0 0.0577397823 0.0243063115 0.7325407162 -0.2718696609 0.7326788947 -0.2720120091 0.0556841154 0.0258171999
200298800.0 0.0584581256 0.0222284839 0.7298460004 -0.2814679521 0.7299559941 -0.2811672278 0.0561108653 0.023842329
205298770.0 0.0581472349 0.0208803165 0.7270568461 -0.2896157488 0.7273432268 -0.2892495256 0.0570159812 0.022703737
210298740.0 0.0588465759 0.0199345168 0.7244405464 -0.298408781 0.7237280503 -0.29838649 0.0567729761 0.0209555044
215298710.0 0.059470305 0.0185941821 0.7210532914 -0.3069066702 0.7209115011 -0.30681311 0.0570727623 0.0197746934
220298680.0 0.0596387523 0.0178021097 0.7175426051 -0.3151971365 0.7176051483 -0.3158790312 0.0572927514 0.0182208631
225298650.0 0.0594817202 0.0160409817 0.7142505435 -0.3241324043 0.7147853271 -0.3233334683 0.0574947093 0.016681912
230298620.0 0.0601421035 0.0150506068 0.7116403599 -0.3332775029 0.7113425233 -0.3326805502 0.0569623164 0.0152305893
235298590.0 0.0598030954 0.0137440751 0.7079618783 -0.3419618228 0.7078004593 -0.3413679439 0.0579819871 0.0141717334
240298560.0 0.0603858874 0.0129794259 0.7046147305 -0.3495612161 0.7041661778 -0.3494715856 0.0575444396 0.0127667534
245298530.0 0.060369564 0.0113481199 0.7008194188 -0.3584147959 0.7002146136 -0.3581210929 0.0576297488 0.0117281139
250298500.0 0.0600764164 0.0102723571 0.6968267623 -0.3662765239 0.6965787448 -0.3659201732 0.0578578459 0.0106117388
255298470.0 0.0604617464 0.0095775747 0.6930400075 -0.3740539056 0.6932420099 -0.3740221069 0.0579133178 0.0099320776
260298440.0 0.060681267 0.0082389568 0.689508572 -0.381993555 0.6890279091 -0.3822766011 0.0577812125 0.0076948626
265298410.0 0.060017342 0.0074598525 0.6848049188 -0.3906089524 0.6844631914 -0.3908080348 0.0586917558 0.0065399556
270298380.0 0.0598872531 0.0060476164 0.6803242558 -0.3982265522 0.6803381358 -0.3983099444 0.0582292411 0.0061364193
275298350.0 0.0606329586 0.0055752644 0.6757702411 -0.4064235796 0.6754280213 -0.4059570578 0.0578864838 0.0049757376
280298320.0 0.0597104802 0.0047730291 0.6723550042 -0.4136451514 0.6724260566 -0.4136999362 0.0581757486 0.00405744
285298290.0 0.0599093768 0.0037120453 0.6671185238 -0.421601816 0.6677243365 -0.4213492605 0.0583436055 0.0027387556
290298260.0 0.0597094442 0.002865682 0.6635919704 -0.4295922865 0.663402617 -0.4295296402 0.0579363408 0.0017679862
295298230.0 0.0599027065 0.0015450398 0.6585991963 -0.4378872091 0.6583599697 -0.437615377 0.0579245266 0.0005166888
300298200.0 0.0600534554 0.0010800196 0.6542816957 -0.4452677082 0.6537230612 -0.4448251732 0.0575026683 -0.000710074
305298170.0 0.0602958158 -0.0007540337 0.6491590405 -0.4534447754 0.6492154037 -0.4531417963 0.0577930865 -0.0022477693
310298140.0 0.060103418 -0.0017063829 0.6444659597 -0.4607870736 0.6447581506 -0.4602540445 0.0579605034 -0.0037441115
315298110.0 0.0600548676 -0.003124648 0.6397438245 -0.4689728024 0.6393268879 -0.4687306571 0.0575872204 -0.00440028
320298080.0 0.059598133 -0.0037567085 0.6333686516 -0.4756966575 0.6345257882 -0.4760236911 0.05728933 -0.0058581231
325298050.0 0.0586574129 -0.0054562596 0.6286232888 -0.4829108741 0.628911902 -0.4829990456 0.0569753024 -0.0067835337
330298020.0 0.0575463479 -0.005804357 0.6226062805 -0.490778591 0.6232407241 -0.4908056095 0.0558639277 -0.0078820297
335297990.0 0.057473731 -0.0065454821 0.6173948398 -0.4973443153 0.617471505 -0.4976431117 0.0554110271 -0.0088360221
340297960.0 0.0568846672 -0.0076246269 0.6113462478 -0.5047806087 0.6107318152 -0.5049914924 0.0550775195 -0.0092846277
345297930.0 0.0565297448 -0.008229244 0.6058502139 -0.5115972386 0.6054688801 -0.5116172531 0.0551597509 -0.0102573187
350297900.0 0.0558058339 -0.0089691138 0.6003955301 -0.517944758 0.6007522497 -0.5180750697 0.0547964826 -0.011710252
355297870.0 0.0555955438 -0.009677154 0.5944280465 -0.5243735515 0.5947382813 -0.5245540381 0.0547447234 -0.0118317074
360297840.0 0.0552102277 -0.0102759094 0.5882292808 -0.5314597481 0.5885334106 -0.5322407829 0.0534676784 -0.0122166361
365297810.0 0.0548059292 -0.0110512211 0.5824059024 -0.5376599448 0.5820515592 -0.5384566178 0.0530427081 -0.0132780188
370297780.0 0.0548497533 -0.0113120038 0.5766397955 -0.5447540553 0.5768892549 -0.5443406456 0.0528050058 -0.0140578654
375297750.0 0.054212192 -0.0123301443 0.5703463756 -0.5507290156 0.5704494902 -0.5512527392 0.0528097138 -0.0146979661
380297720.0 0.0534989767 -0.0128199531 0.56460017 -0.5583261517 0.5641541266 -0.5575691377 0.0523083957 -0.0149505322
385297690.0 0.0532878756 -0.013699154 0.5580471345 -0.5637085001 0.5588110501 -0.564079172 0.0521028226 -0.0155779167
390297660.0 0.0528412537 -0.0146901242 0.5516909683 -0.5694572702 0.5523480732 -0.570071416 0.0521832998 -0.016821954
395297630.0 0.0531672238 -0.0148122563 0.5461560809 -0.5745127617 0.5459065072 -0.5755627239 0.0515580837 -0.0171344669
400297600.0 0.0523085438 -0.0157877946 0.5396439864 -0.5823214421 0.5401237712 -0.5818521601 0.051265116 -0.0174162161
405297570.0 0.0519338575 -0.0166286075 0.5332464411 -0.5882179589 0.5334409089 -0.5878345631 0.0508403249 -0.0180389124
410297540.0 0.051429753 -0.0167175894 0.5262730988 -0.5937901916 0.526923845 -0.5937182797 0.0505348137 -0.0187796149
415297510.0 0.050891311 -0.0174066779 0.520114976 -0.5995211792 0.5208344742 -0.5999296405 0.0506258299 -0.0192201537
420297480.0 0.0506652465 -0.018542473 0.5128738543 -0.6055827444 0.5136079479 -0.6055487722 0.0503865838 -0.0197862098
425297450.0 0.0508181029 -0.0190816946 0.5072928731 -0.6105847258 0.5067321396 -0.6112883105 0.0499124884 -0.0207651952
430297420.0 0.0500269487 -0.019480112 0.500566701 -0.6167541995 0.500486342 -0.6159856566 0.0499280206 -0.0212322701
435297390.0 0.0498033409 -0.0203668002 0.4931533619 -0.6231001323 0.4931407284 -0.6223355804 0.0489419661 -0.021325656
440297360.0 0.049645221 -0.0209055629 0.4863792311 -0.6278443465 0.4864233676 -0.6276739586 0.0485466704 -0.0221398832
445297330.0 0.0492726605 -0.0217235405 0.4796370079 -0.6324814305 0.4796409575 -0.6332494613 0.0483461803 -0.0221897683
450297300.0 0.0489112938 -0.0222923609 0.4726593846 -0.6378363033 0.4731303218 -0.6381748822 0.048246696 -0.0227865596
455297270.0 0.04798963 -0.0226940026 0.4658726679 -0.6439466221 0.4656364109 -0.6439263123 0.0477819328 -0.0234720697
460297240.0 0.0482678257 -0.0232848152 0.4589332706 -0.6496517054 0.4584542568 -0.6489370592 0.0474421472 -0.0243184267
465297210.0 0.0476028001 -0.0239996612 0.450662318 -0.6539351438 0.4507041877 -0.6538068133 0.0476295448 -0.0238565373
470297180.0 0.0470460156 -0.025017001 0.4438381552 -0.6585143369 0.4444824501 -0.6586425385 0.0469172702 -0.0252602351
475297150.0 0.0464306365 -0.0249646904 0.436529348 -0.6637741932 0.4370865912 -0.664250636 0.0465558926 -0.0256924209
480297120.0 0.0468465938 -0.0248412398 0.4295689615 -0.6684581592 0.4300409806 -0.6681499379 0.0462715239 -0.0261985057
485297090.0 0.0461997595 -0.0269084332 0.4221598128 -0.6738217437 0.4223961024 -0.6731886984 0.0455033603 -0.0266382692
490297060.0 0.0462526145 -0.026654261 0.4147106824 -0.6782121848 0.4147481414 -0.677950515 0.0453193967 -0.027151552
495297030.0 0.0451730169 -0.0277680748 0.4075122189 -0.6828319301 0.4073889959 -0.6825698496 0.0452710402 -0.0279949417
500297000.0 0.0447258196 -0.0275584494 0.4000460276 -0.6869275346 0.3998122579 -0.6869936675 0.0447950669 -0.0277527467
505296970.0 0.0448816974 -0.0281448606 0.3928187485 -0.6911477637 0.3924736729 -0.6912150689 0.0439737569 -0.0291058374
510296940.0 0.0442711105 -0.0292383442 0.3847583997 -0.6971200049 0.3853809261 -0.6965278361 0.0444583755 -0.0289475114
515296910.0 0.0437049004 -0.0289974739 0.376809562 -0.6999032213 0.3768297761 -0.6999991663 0.043527298 -0.0303446424
520296880.0 0.0434207335 -0.029422313 0.3693982064 -0.7039583921 0.3691685268 -0.7038500108 0.0438883729 -0.0298248772
525296850.0 0.0430847529 -0.0302730661 0.3619171348 -0.7081116397 0.3615359462 -0.7078801439 0.0435071615 -0.030724644
530296820.0 0.0426262865 -0.0311611687 0.3536595267 -0.7120355783 0.354233866 -0.7119840336 0.0429086362 -0.0317618171
535296790.0 0.0428127254 -0.0310471582 0.3460579135 -0.7156481413 0.3463833868 -0.7154171316 0.0431544117 -0.0313148023
540296760.0 0.0420358059 -0.0311691443 0.3378706833 -0.719844303 0.3382759023 -0.7190639575 0.042366237 -0.0325823169
545296730.0 0.0407210139 -0.0316154097 0.329990919 -0.7228475213 0.3305555253 -0.722793181 0.042039273 -0.0325071738
550296700.0 0.0415614463 -0.0321295072 0.322427476 -0.7263665328 0.3223850638 -0.7269784504 0.0415132679 -0.0330980073
555296670.0 0.0406786727 -0.0325613911 0.3142900554 -0.7307460328 0.3144903379 -0.7306425266 0.040872872 -0.0341639614
560296640.0 0.0411883424 -0.0331332463 0.3057681045 -0.733352194 0.3069987547 -0.7335633353 0.0404205044 -0.0336756741
565296610.0 0.0396500327 -0.0336195401 0.2987169532 -0.7375933762 0.2984698853 -0.7363016782 0.0401903275 -0.0343117168
570296580.0 0.0393204309 -0.0336693407 0.2902498308 -0.7404308792 0.290432579 -0.7406568298 0.0395273607 -0.0350875876
575296550.0 0.0389595143 -0.0341789417 0.2829604995 -0.7434315064 0.2819684662 -0.7437096558 0.0393084818 -0.0351715565
580296520.0 0.0385958093 -0.03430436 0.274345973 -0.7464644517 0.2734720346 -0.7468266241 0.0384560579 -0.0356258161
585296490.0 0.0384635072 -0.034625773 0.2664700465 -0.7489061784 0.2659757718 -0.7491089093 0.0386262967 -0.0357910628
590296460.0 0.038712172 -0.0350288801 0.258002133 -0.7519001091 0.2580802716 -0.7528025888 0.0375207572 -0.036060892
595296430.0 0.0375780228 -0.0352949178 0.2485190275 -0.755327739 0.2492237924 -0.755315197 0.037347449 -0.0370642709
600296400.0 0.0375712711 -0.0354850664 0.2404516246 -0.7576341025 0.241179664 -0.7577908085 0.0369386349 -0.0374592664
605296370.0 0.0359596032 -0.0360492469 0.2329373171 -0.760052606 0.2326674035 -0.7604650139 0.0363194709 -0.0376653747
610296340.0 0.0363805297 -0.0355315337 0.2248834959 -0.7621149633 0.224822591 -0.7626102519 0.0352995123 -0.0379183522
615296310.0 0.0362452055 -0.0361448533 0.2157058317 -0.765681575 0.2155951834 -0.7650427151 0.0353777813 -0.0379693826
620296280.0 0.0350160791 -0.0359718169 0.2071831568 -0.7677974129 0.2075387099 -0.7674169205 0.0343703489 -0.0381506456
625296250.0 0.0344388462 -0.0365622167 0.1993468278 -0.7702216956 0.1995780375 -0.7702025225 0.0335620992 -0.0389691029
630296220.0 0.0342381887 -0.0368100456 0.1901567644 -0.7718916381 0.190988549 -0.7714744375 0.0335074741 -0.0389793801
635296190.0 0.0333590452 -0.0366066653 0.182513834 -0.7742888549 0.1827922079 -0.7738564575 0.0331180139 -0.0392458675
640296160.0 0.032947065 -0.0369286786 0.1736144981 -0.7759373202 0.1739061135 -0.776211877 0.031978643 -0.0399855626
645296130.0 0.0327726128 -0.0367392497 0.1653632908 -0.7774960086 0.1659129492 -0.7773337156 0.0313550904 -0.040484977
650296100.0 0.0320545821 -0.0372640201 0.1571866622 -0.7796816914 0.1569133068 -0.7797850544 0.031929033 -0.0405381777
655296070.0 0.0316721693 -0.0374268437 0.1481634605 -0.7815174997 0.1484989289 -0.780713936 0.0304126926 -0.0405116395
660296040.0 0.030871038 -0.037359178 0.1399223497 -0.7832357616 0.139997015 -0.7827583876 0.0298520324 -0.0413368958
665296010.0 0.0307048898 -0.0377869118 0.1304717679 -0.7838409872 0.1313264847 -0.783724011 0.0295844007 -0.0411841935
670295980.0 0.0300526311 -0.0377958145 0.1220131524 -0.7858878655 0.122687031 -0.7849252593 0.0284912701 -0.0417529919
675295950.0 0.0294037194 -0.0379648679 0.1136089591 -0.7866484441 0.1146308876 -0.7866337666 0.0277733887 -0.0414445939
680295920.0 0.0286984033 -0.0379797602 0.1056081904 -0.7881449389 0.105976866 -0.7877893807 0.0276539005 -0.0421455017
685295890.0 0.0285383534 -0.0377788605 0.0968555727 -0.7893868299 0.0972481175 -0.7891076863 0.0273541129 -0.0417272544
690295860.0 0.0273183539 -0.037791018 0.0882563729 -0.7899642761 0.088169661 -0.7902554286 0.0262117062 -0.0424065904
695295830.0 0.0272005884 -0.0383660819 0.0797892902 -0.7917090504 0.0796793483 -0.7908167231 0.0257972439 -0.0423714336
700295800.0 0.026712138 -0.0380053279 0.0713312196 -0.792075488 0.071327386 -0.7917061981 0.0248442202 -0.042227745
705295770.0 0.0255185166 -0.0383538839 0.0629143288 -0.7933936435 0.0626644147 -0.7925196991 0.0242444395 -0.0423970465
710295740.0 0.0256187877 -0.0383851887 0.0538623295 -0.7934516301 0.0541799643 -0.7931352969 0.0240394383 -0.0423817034
715295710.0 0.0249482959 -0.0380349151 0.0454811729 -0.7940063467 0.0453061762 -0.7938355083 0.0229546965 -0.0431368569
720295680.0 0.0247903358 -0.0385004165 0.0367994039 -0.7938911954 0.0371008444 -0.794502282 0.0225973441 -0.0429623211
725295650.0 0.0233372571 -0.0379530258 0.0280725897 -0.7944026008 0.0280147394 -0.7943621174 0.021551092 -0.0426247781
730295620.0 0.0223547905 -0.0385064316 0.0192557178 -0.7947139872 0.0193082542 -0.7934977957 0.0210617985 -0.042108662
735295590.0 0.022557615 -0.0385712598 0.0112863 -0.795434716 0.0108153667 -0.7947038239 0.0200698287 -0.0432158624
740295560.0 0.0215620691 -0.0386384622 0.0021778619 -0.7954043931 0.0024987854 -0.7949837142 0.0192475444 -0.0425176743
745295530.0 0.0208235771 -0.0386563915 -0.0063973848 -0.794232219 -0.0057659532 -0.7948645411 0.0183274583 -0.0431365091
750295500.0 0.0200143582 -0.0384688933 -0.0143395349 -0.7945252888 -0.0150570624 -0.7947312416 0.0180393275 -0.0428467927
755295470.0 0.0192423219 -0.0382324016 -0.023335957 -0.7949521281 -0.0227850569 -0.7950075444 0.0176177106 -0.0422539539
760295440.0 0.0187914547 -0.0379213087 -0.0329655401 -0.7943963284 -0.0323506448 -0.7937855303 0.0166734006 -0.0438749087
765295410.0 0.0189628405 -0.0385336281 -0.040980974 -0.793456067 -0.0403178966 -0.7932682655 0.0162212345 -0.0431034761
770295380.0 0.017916704 -0.0378404349 -0.0496581078 -0.792890857 -0.0491450507 -0.7934656279 0.0150561717 -0.0429871915
775295350.0 0.0173068419 -0.0382791849 -0.0575714558 -0.7932105514 -0.0575542587 -0.7919378818 0.0151485548 -0.0428922218
780295320.0 0.0164327647 -0.037785711 -0.0659496225 -0.7914252342 -0.0659101672 -0.7918462596 0.0147277414 -0.0428678592
785295290.0 0.0158349904 -0.0381523701 -0.075016628 -0.7913114352 -0.0749799004 -0.7910528687 0.0129617853 -0.0422943307
790295260.0 0.0152888958 -0.0381876311 -0.083367442 -0.7904650899 -0.0835056127 -0.7906895475 0.0122794331 -0.0421203896
795295230.0 0.014873921 -0.0382870041 -0.092171393 -0.7894694752 -0.091909927 -0.7895663416 0.0120550166 -0.0432072696
800295200.0 0.0135252956 -0.0375892572 -0.0998782814 -0.7876568854 -0.1007313077 -0.7883081109 0.0113101547 -0.0423588132
805295170.0 0.012729104 -0.0383193937 -0.1090035735 -0.7873596649 -0.108805212 -0.78737247 0.0116089663 -0.0422977481
810295140.0 0.013028884 -0.037718433 -0.1173783761 -0.7855714532 -0.1172992601 -0.7859645829 0.0102521335 -0.0426038517
815295110.0 0.0119817675 -0.0374877462 -0.1261038871 -0.7842368408 -0.1255709882 -0.7845351034 0.0096861421 -0.0423796969
820295080.0 0.0114259214 -0.037715508 -0.1337756896 -0.7826020298 -0.1343013158 -0.7827272889 0.0081324182 -0.0412936235
825295050.0 0.0107121102 -0.0377663183 -0.1432932403 -0.7811600617 -0.1431356134 -0.781380287 0.0087879974 -0.0412348761
830295020.0 0.0100974837 -0.0376664097 -0.1518060381 -0.7799090737 -0.1515041153 -0.7801771878 0.0078013976 -0.0419141936
