!Created with skrf (http://scikit-rf.org).
# Hz S RI R 50.0 
!freq ReS11 ImS11 ReS21 ImS21 ReS12 ImS12 ReS22 ImS22
300000.0 0.8610669083 -0.0022642311 -0.0007647301 0.0001310331 -0.0003456273 -0.0007779608 -0.7677844292 -0.1722840395
5299970.0 0.8598073893 -0.0103639253 8.85046e-05 -0.0002172982 -0.00016111 -2.67076e-05 -0.7846417661 -0.0093398541
10299940.0 0.8589920686 -0.0191868398 8.48713e-05 2.683e-07 6.96655e-05 -0.000127277 -0.7881401775 -0.0051754758
15299910.0 0.8576585345 -0.0270080809 5.90921e-05 -2.05596e-05 1.78402e-05 0.0001188565 -0.7937374981 -0.0028585042
20299880.0 0.8577872669 -0.0362716116 -5.93258e-05 -0.000120712 -0.0001288011 0.0003027536 -0.8000150954 0.0017264374
25299850.0 0.8566837741 -0.0437590936 0.0002979626 -2.76287e-05 -9.20728e-05 -9.59263e-05 -0.8066866877 0.0072095443
30299820.0 0.8556993739 -0.0523008851 0.0001177474 -5.70744e-05 6.02039e-05 0.0001313112 -0.8123263146 0.014813097
35299790.0 0.8555276248 -0.0603963991 -0.0002437171 0.0002692225 -7.34374e-05 4.57249e-05 -0.8175107118 0.0237249697
40299760.0 0.8541520547 -0.0685125954 -0.0001150471 -1.46527e-05 -2.42988e-05 2.5803e-06 -0.8215544502 0.0334557899
45299730.0 0.8540508066 -0.0766596474 0.0001218661 -3.06594e-05 -2.20911e-05 -0.0001872944 -0.8250517363 0.0427609668
50299700.0 0.8523379755 -0.0846819146 1.7283e-05 6.63128e-05 6.9114e-05 -0.0002444987 -0.827542043 0.0525504678
55299670.0 0.8518144455 -0.0926930362 -0.0001290119 0.0001498955 7.7355e-06 5.03376e-05 -0.8299276168 0.0634430355
60299640.0 0.8505142778 -0.1009001513 -0.0001306153 -0.0001009355 -3.17e-08 3.12284e-05 -0.8311284185 0.0734544187
65299610.0 0.8501263069 -0.1094123155 2.66415e-05 -8.4699e-06 -0.0001679718 3.46851e-05 -0.8314950208 0.0828613042
70299580.0 0.8491003401 -0.1177847483 2.7589e-06 -5.73226e-05 -5.62336e-05 -0.0001331492 -0.8321062789 0.0928283019
75299550.0 0.8473101834 -0.1265738836 -0.0001009147 -9.8291e-06 -0.0001096195 -1.11253e-05 -0.8328379816 0.1022064604
80299520.0 0.8460069939 -0.1348445725 -0.0001827548 -0.0001898713 -0.0002053063 -5.07325e-05 -0.8315511856 0.1124087542
85299490.0 0.8445078988 -0.1430612547 -6.824e-05 0.0002028046 -0.0001547546 0.0002215577 -0.8316278728 0.1218577696
90299460.0 0.8429733543 -0.1502707848 -0.0001004939 0.0001176736 -2.23979e-05 0.0001224948 -0.8304221105 0.1311228152
95299430.0 0.8413080917 -0.1585502852 1.94781e-05 0.0001860731 8.7112e-06 -9.47472e-05 -0.8300503523 0.1407838823
100299400.0 0.8395191173 -0.1661272721 -3.91209e-05 -8.0089e-06 3.0425e-05 5.50915e-05 -0.8285495059 0.1497239366
105299370.0 0.8384250451 -0.1753883743 -0.0001701602 0.0001558734 9.0951e-06 9.71412e-05 -0.8275752162 0.1591097632
110299340.0 0.8366704019 -0.1834575592 9.959e-07 -0.0002085328 -5.56592e-05 0.0001977414 -0.8268919416 0.1684426219
115299310.0 0.8346811582 -0.1921156499 2.81752e-05 -0.0001267449 2.90314e-05 -0.0001739132 -0.8246406847 0.1768211332
120299280.0 0.8323428445 -0.1994664286 -7.21894e-05 -5.3219e-05 1.97959e-05 4.77815e-05 -0.8234593594 0.1864110224
125299250.0 0.8308953784 -0.2076366891 -9.12925e-05 0.0001093783 5.57932e-05 -0.0002101021 -0.8215428609 0.1954180648
130299220.0 0.8283602376 -0.2158008482 -5.2969e-06 2.00211e-05 -0.0001092212 -2.56509e-05 -0.8200023943 0.2042960883
135299190.0 0.8265462385 -0.2238672846 5.33916e-05 -1.14336e-05 -4.31606e-05 -0.0001494855 -0.8177597063 0.2125089997
140299160.0 0.8244904815 -0.2318249135 -8.0744e-06 1.55538e-05 7.35355e-05 -0.0001000999 -0.8158800599 0.2214101247
145299130.0 0.8220248664 -0.239818384 -0.0001055392 -0.0001579943 -7.70511e-05 8.74192e-05 -0.8136107815 0.229788816
150299100.0 0.8196290269 -0.247333104 -2.49637e-05 0.0001456326 -2.15218e-05 -8.76169e-05 -0.8115140585 0.2386604099
155299070.0 0.8167266182 -0.2555782501 -0.0001416034 0.0002276475 0.0001306658 -4.45359e-05 -0.8095024664 0.2473267359
160299040.0 0.8145310373 -0.2635327542 4.41537e-05 6.7531e-06 -0.000163366 -4.496e-07 -0.8070302535 0.2564970192
165299010.0 0.8115457409 -0.2709454043 6.67727e-05 -5.18553e-05 0.0001193366 3.96347e-05 -0.8042972998 0.2649520935
170298980.0 0.8089873202 -0.2793439829 1.07109e-05 -0.0001759481 2.37648e-05 -0.0001550435 -0.8023407347 0.2733165981
175298950.0 0.8067420017 -0.287052022 -8.51643e-05 6.72744e-05 0.0001178537 -2.97494e-05 -0.7992151209 0.2822430845
180298920.0 0.8034880615 -0.2946510005 -9.93247e-05 -0.0004163768 -8.09657e-05 -6.82189e-05 -0.7957440695 0.290261121
185298890.0 0.8005731357 -0.3028678395 -7.84626e-05 -1.4013e-06 -0.0001827816 6.1712e-06 -0.7930584598 0.2981282562
190298860.0 0.7976320087 -0.3109498629 0.0001435982 5.84011e-05 -0.0001875422 -0.0001350768 -0.7895177482 0.3073084377
195298830.0 0.7938737432 -0.3178422963 3.79835e-05 -0.000133927 -6.0747e-05 -0.0002297281 -0.7870182573 0.3154773643
200298800.0 0.7912659859 -0.3260095703 3.2863e-06 -0.000161602 9.01308e-05 1.23396e-05 -0.7831990961 0.324368824
205298770.0 0.7883087871 -0.3338058048 -9.64592e-05 6.5183e-05 7.18e-08 -0.0001249093 -0.7799367638 0.331979123
210298740.0 0.7851558924 -0.3411918308 0.0001060393 -7.25336e-05 4.98443e-05 8.91416e-05 -0.7768037474 0.3406790685
215298710.0 0.7816308657 -0.3488295646 -7.91172e-05 6.19327e-05 -6.50822e-05 4.33975e-05 -0.7733399619 0.3483679464
220298680.0 0.7785120037 -0.3567988995 -6.15188e-05 -0.0001016226 -9.94727e-05 0.0001734509 -0.7696915814 0.3566005689
225298650.0 0.7739656685 -0.3637918403 -2.39699e-05 -5.11415e-05 0.0002085534 0.0001701784 -0.7659145845 0.3648595443
230298620.0 0.7707077219 -0.371738059 -4.81224e-05 -3.63097e-05 -0.0001837672 6.46415e-05 -0.7619062981 0.3725610988
235298590.0 0.7672776349 -0.3788786446 -0.0001437645 0.0002701626 4.33948e-05 7.52146e-05 -0.7576981618 0.380396755
240298560.0 0.7631954619 -0.387008591 2.35153e-05 0.0001193056 -7.648e-06 -5.3614e-05 -0.7538725824 0.3888284381
245298530.0 0.7593911023 -0.3936112516 -1.54648e-05 0.0003482165 2.77797e-05 -1.48425e-05 -0.7500682582 0.396646704
250298500.0 0.755675474 -0.4012563719 -2.27109e-05 0.000232739 -2.46793e-05 8.24121e-05 -0.746023728 0.4044104121
255298470.0 0.7520553612 -0.4082394091 -0.0001428143 0.0001008645 0.0001561178 1.30662e-05 -0.7412033347 0.4123857899
260298440.0 0.7474861974 -0.4152434448 0.0001132466 -6.77675e-05 6.99611e-05 -0.0002058888 -0.7365257065 0.4198709293
265298410.0 0.743504866 -0.4230173073 6.04309e-05 -0.0002889696 0.0001101935 2.45849e-05 -0.7322076473 0.4274694882
270298380.0 0.7398876888 -0.4297037027 7.30212e-05 0.0001202162 -3.40892e-05 -0.0001739491 -0.7275032796 0.4354133748
275298350.0 0.7359718307 -0.4370930106 6.06008e-05 -0.0001160256 5.09705e-05 -6.42285e-05 -0.7228370065 0.4432406802
280298320.0 0.7319010388 -0.4440070634 7.78148e-05 -0.0001892692 0.0001197666 -6.01067e-05 -0.7187183725 0.4500495541
285298290.0 0.7267753369 -0.4510712042 -0.0001319939 6.46612e-05 0.0002073576 2.4352e-06 -0.7138584639 0.4581393506
290298260.0 0.7231891809 -0.4584955825 8.81738e-05 -0.0002282121 6.71237e-05 -0.0001452693 -0.7084666143 0.4656158483
295298230.0 0.7186257726 -0.4663481051 -9.18818e-05 0.0001128177 -6.51727e-05 -7.6725e-06 -0.7037014897 0.4731740704
300298200.0 0.7148372036 -0.4738461031 -8.36542e-05 2.85e-08 -1.50902e-05 0.000118652 -0.6985065532 0.480318567
305298170.0 0.7107700802 -0.4797069161 -0.0001468564 0.0001832805 -5.51822e-05 0.0001125608 -0.6930440903 0.4877822383
310298140.0 0.705920972 -0.4881709292 5.99986e-05 0.0001522481 0.0001213213 0.0001731703 -0.6885756588 0.4949352508
315298110.0 0.7003295852 -0.4955622055 1.3647e-06 -4.31482e-05 7.95204e-05 8.32841e-05 -0.6832399623 0.5022785525
320298080.0 0.6948000675 -0.5028824123 -4.85988e-05 0.000147205 -1.1069e-06 -0.0001484503 -0.677512991 0.508941146
325298050.0 0.6896022404 -0.5104073978 -4.81691e-05 0.0001510067 -5.81099e-05 0.000102729 -0.6722656765 0.5164949667
330298020.0 0.6835723935 -0.5166301639 0.0001855082 -1.43825e-05 -0.0001647508 -3.26653e-05 -0.6668587792 0.5233443097
335297990.0 0.6778970003 -0.5228453843 -4.22655e-05 -5.54919e-05 -9.3617e-06 -0.0002366046 -0.6612075571 0.529727369
340297960.0 0.672621255 -0.5291766787 -8.62719e-05 -1.71683e-05 -9.18716e-05 0.0002434401 -0.6549683005 0.5370991821
345297930.0 0.6670212813 -0.5356300014 -6.0499e-05 5.04436e-05 -3.9292e-05 -1.12579e-05 -0.6499078493 0.543917289
350297900.0 0.6615561418 -0.5422110082 -1.60682e-05 -7.62668e-05 7.45942e-05 -0.0001498473 -0.6438634915 0.5513295508
355297870.0 0.6563811048 -0.5479801587 -0.0002971881 7.92897e-05 7.05264e-05 3.57762e-05 -0.6386121134 0.556979682
360297840.0 0.6504275495 -0.5548740287 -9.51941e-05 5.21829e-05 0.0001787972 0.0001023346 -0.6321123357 0.5638533603
365297810.0 0.6452306558 -0.5610048084 0.0001461468 2.97913e-05 5.02808e-05 -1.98891e-05 -0.6260826809 0.5704794641
370297780.0 0.6397726983 -0.5662643914 -1.29475e-05 0.000320601 -1.89584e-05 -0.0001170416 -0.6205274823 0.5761538138
375297750.0 0.6336267787 -0.5722775466 8.35151e-05 1.19909e-05 0.0002048073 6.6014e-06 -0.6141198726 0.5828077795
380297720.0 0.6292684414 -0.5781290719 0.0001763196 -7.78541e-05 2.0856e-06 -5.0559e-05 -0.6076989212 0.5903903667
385297690.0 0.6224120069 -0.5843214345 -1.59982e-05 -9.10527e-05 8.14754e-05 3.44319e-05 -0.6018807776 0.5962059941
390297660.0 0.6172993711 -0.5898444018 1.30353e-05 4.5284e-06 -0.0001132785 -0.0001294255 -0.5949768098 0.6019298946
395297630.0 0.6109435355 -0.5970846296 4.1542e-06 -3.09964e-05 -7.6105e-05 0.000154079 -0.5890545002 0.6079940912
400297600.0 0.604480016 -0.601773628 0.0001211126 -3.8441e-06 -1.45161e-05 7.4238e-06 -0.5831676244 0.6139960699
405297570.0 0.5990060922 -0.6081337729 -9.43918e-05 -5.43592e-05 -0.0001782137 0.000114447 -0.5767192448 0.6196113827
410297540.0 0.5926843173 -0.6137099065 0.0001567495 5.97915e-05 -0.0001184732 0.0001386865 -0.569288414 0.6256493126
415297510.0 0.5873572018 -0.6190762974 -1.48663e-05 -5.34396e-05 0.0001158787 -8.98042e-05 -0.563341651 0.6320632113
420297480.0 0.5808926301 -0.6254113473 8.4593e-06 3.42142e-05 -0.0001153625 0.000160458 -0.557105947 0.6364477602
425297450.0 0.5746983858 -0.6303472461 -1.29007e-05 5.55491e-05 -7.72945e-05 0.0001364158 -0.5502122581 0.6433420631
430297420.0 0.5682020539 -0.6359431363 -5.67703e-05 0.0001262678 1.21045e-05 3.81063e-05 -0.5437287832 0.6488824731
435297390.0 0.5623667132 -0.6414728114 -4.40935e-05 -6.94569e-05 -5.534e-06 0.0001529107 -0.5367597032 0.6538204089
440297360.0 0.5555812345 -0.6472604677 -0.0001304898 -0.0001145975 -0.0001579855 -0.0001375399 -0.529851213 0.6590536287
445297330.0 0.5494096626 -0.652213673 -5.52158e-05 0.0002065554 0.0001972745 -6.42915e-05 -0.5236184217 0.6641528215
450297300.0 0.5430389429 -0.6574202146 -0.0001181898 -2.07993e-05 -0.0001584629 -4.09438e-05 -0.5168260422 0.669630935
455297270.0 0.5365243217 -0.6622840306 -3.56947e-05 -3.00859e-05 5.17062e-05 4.59571e-05 -0.5095832672 0.6750006983
460297240.0 0.5300740025 -0.6673762756 -0.0001140359 -7.24886e-05 5.26156e-05 -7.72315e-05 -0.5025533276 0.6804273525
465297210.0 0.5234746529 -0.672813271 -6.1295e-05 4.05758e-05 0.0001059539 5.65257e-05 -0.4966595026 0.6846732714
470297180.0 0.5166586389 -0.6781107841 -2.84668e-05 3.88558e-05 -7.04214e-05 0.0001025401 -0.48963547 0.6897488032
475297150.0 0.5101158351 -0.6828977149 -3.49368e-05 -8.00456e-05 -3.34558e-05 -2.60036e-05 -0.4817276739 0.6947636474
480297120.0 0.5035764317 -0.6880204218 -0.0001276922 4.07223e-05 -0.000152209 -2.138e-07 -0.4753244781 0.7002018023
485297090.0 0.4967094096 -0.6921072536 1.2414e-05 -5.19366e-05 -0.0001297639 -5.4321e-06 -0.4678896625 0.7041698956
490297060.0 0.4898365616 -0.6973459251 -0.0001148012 0.0001079141 -7.19733e-05 1.0002e-06 -0.4607850988 0.7086006081
495297030.0 0.4825655594 -0.7021008288 7.20452e-05 -0.0002011044 6.46819e-05 0.0001363701 -0.4529355506 0.7126383439
500297000.0 0.4766165965 -0.7063022673 -5.72335e-05 0.0003215692 1.19382e-05 0.0001469724 -0.446324564 0.7177945938
505296970.0 0.4681656489 -0.7113118661 0.0002452137 8.35602e-05 -4.45829e-05 6.35198e-05 -0.4399435639 0.7218609667
510296940.0 0.4616465866 -0.7153350755 7.09677e-05 -1.33835e-05 -0.0002444835 -3.96401e-05 -0.4317728344 0.7262502108
515296910.0 0.4544705335 -0.7198681857 -0.000189085 8.53113e-05 7.76902e-05 5.64329e-05 -0.4247849336 0.7307518954
520296880.0 0.447880953 -0.7243182989 -0.0001221161 -4.18866e-05 6.5831e-06 0.0002474285 -0.417475289 0.7345644321
525296850.0 0.4404760309 -0.728476487 -0.0001221724 -3.54946e-05 7.4256e-05 -3.4853e-05 -0.4098252734 0.7392641745
530296820.0 0.4330915125 -0.7327787626 -0.0001034324 -3.96873e-05 1.9122e-06 -0.0003321895 -0.4032115964 0.7427276033
535296790.0 0.4261718429 -0.7363255086 0.0003093459 -3.16853e-05 -9.87524e-05 6.61274e-05 -0.395654651 0.7466408993
540296760.0 0.4185612442 -0.7412884196 4.1128e-06 -0.0002057712 -6.26544e-05 -0.0001243265 -0.3880444166 0.7507668395
545296730.0 0.4109356 -0.7443594387 -0.0001001125 0.0001506658 5.195e-06 -3.2535e-06 -0.3810627584 0.754264609
550296700.0 0.4038103668 -0.7488208877 -4.72573e-05 -6.50041e-05 -2.68467e-05 -6.27722e-05 -0.3732902983 0.7579555796
555296670.0 0.3966600706 -0.7527222353 0.0002314743 -0.0001137002 -0.0001198574 2.12364e-05 -0.3655746712 0.7615848071
560296640.0 0.3895017959 -0.756484677 0.0002340604 8.56124e-05 -0.0002760471 -0.0001020164 -0.3576046845 0.7653923383
565296610.0 0.3817590386 -0.760555807 -0.0001802436 -4.12696e-05 -2.5443e-05 -0.0001327566 -0.3498620558 0.768488596
570296580.0 0.3745649756 -0.7639370858 0.0001273273 0.0002094572 0.0001049323 -0.0002836145 -0.343183161 0.7719821085
575296550.0 0.3668198152 -0.7669042838 0.0003047399 -0.0001225444 7.62005e-05 4.23355e-05 -0.3347017443 0.7753225622
580296520.0 0.3595631331 -0.7702269096 0.0001135724 0.0003109045 -9.63983e-05 5.00603e-05 -0.3269456714 0.7789763499
585296490.0 0.3506760118 -0.7741197081 -3.11842e-05 -0.0002249119 -0.000110257 -3.6465e-05 -0.3193275204 0.781759627
590296460.0 0.3432964744 -0.7776542678 9.83852e-05 -1.30124e-05 1.58706e-05 0.0001429348 -0.3115859495 0.7849959775
595296430.0 0.3358118967 -0.7804748559 -2.36843e-05 -1.33978e-05 -0.00010857 3.39943e-05 -0.3038346442 0.7876644167
600296400.0 0.328047629 -0.7837036311 -0.0001445443 1.8021e-06 -5.13948e-05 3.3518e-06 -0.2958547702 0.7913589354
605296370.0 0.320762493 -0.7862953913 0.0001088388 -7.57247e-05 -2.29528e-05 -0.0001510599 -0.2883412394 0.7942162397
610296340.0 0.312993106 -0.7902990604 -4.83148e-05 -6.12443e-05 6.48923e-05 -4.59118e-05 -0.2802904289 0.797277407
615296310.0 0.3049993339 -0.7920538012 -4.79449e-05 -2.20356e-05 -0.0001770457 -1.46577e-05 -0.2725100682 0.7993509907
620296280.0 0.29699023 -0.7956588709 -1.65113e-05 -4.64078e-05 2.35779e-05 -0.0001955885 -0.2645779024 0.8019464307
625296250.0 0.2892760493 -0.7985016612 -0.0001043381 -0.0002009469 9.8987e-06 0.0001010028 -0.2569067147 0.804713275
630296220.0 0.2815578994 -0.8010643343 0.0001526375 -5.961e-07 -8.85782e-05 -8.87013e-05 -0.2486080803 0.8074622957
635296190.0 0.2736593012 -0.8044121154 -6.84855e-05 -9.42564e-05 -6.8486e-06 -6.29318e-05 -0.24106223 0.8092216007
640296160.0 0.2654644926 -0.8061060726 0.0001060627 -0.0001180394 9.7453e-05 -3.02425e-05 -0.2322287357 0.8122479319
645296130.0 0.2578020808 -0.8085277699 -6.7446e-06 -0.0001711669 -6.96717e-05 0.0001171749 -0.2249465568 0.8139428366
650296100.0 0.2489822293 -0.8106150782 3.8669e-06 -7.4841e-06 2.86289e-05 5.965e-05 -0.2163467727 0.8163380096
655296070.0 0.2416132997 -0.813202574 -0.0001820342 -0.0003283747 2.10796e-05 3.57891e-05 -0.2084709295 0.8178095966
660296040.0 0.2327181494 -0.8153764755 2.0105e-06 5.79674e-05 8.4046e-05 -0.0001056385 -0.2002886391 0.8201758912
665296010.0 0.225523075 -0.8176371779 0.0002427735 1.07757e-05 0.0001811147 -7.20406e-05 -0.1923240892 0.8223494467
670295980.0 0.2176276575 -0.8199690615 0.0001314181 0.0001151955 7.4805e-05 0.0001885627 -0.1847581156 0.8239577119
675295950.0 0.2095801744 -0.8211786491 9.39227e-05 -2.69006e-05 -0.000182002 -9.85283e-05 -0.1758931891 0.8260952873
680295920.0 0.20049925 -0.8235807355 -3.5361e-05 2.5448e-06 -0.0001752552 -0.0001058087 -0.1680843607 0.8272854414
685295890.0 0.192731477 -0.8250577058 -9.78101e-05 1.64077e-05 0.0001058168 5.06028e-05 -0.1598764442 0.8289047644
690295860.0 0.1848849421 -0.8271876586 -0.000359814 -9.09772e-05 -0.0001553445 6.9007e-05 -0.1516015896 0.830743633
695295830.0 0.1767580222 -0.8285166449 1.93365e-05 0.0001663451 -8.69998e-05 6.21739e-05 -0.143028274 0.8320312709
700295800.0 0.1687784146 -0.8306781659 -6.63241e-05 0.0001013696 0.0002567315 6.38371e-05 -0.1345535601 0.8332276224
705295770.0 0.1606574745 -0.8320625797 8.186e-07 5.96274e-05 2.98283e-05 2.47611e-05 -0.127570632 0.8352560625
710295740.0 0.1516658394 -0.8331527343 -0.0001897759 -0.0001686024 2.31757e-05 0.0003390329 -0.1189493255 0.837093281
715295710.0 0.1441004348 -0.8344725055 -6.81963e-05 9.08389e-05 -4.94955e-05 -0.0001389536 -0.1103958416 0.8377095467
720295680.0 0.1355016885 -0.8357316088 -5.31235e-05 8.0499e-06 2.74748e-05 0.0002570342 -0.1024968537 0.8381129218
725295650.0 0.1274394644 -0.8364845044 4.62894e-05 -1.66805e-05 7.77656e-05 3.22869e-05 -0.0938743087 0.8396306455
730295620.0 0.1193395636 -0.8384271028 -9.88525e-05 0.0001747874 6.78796e-05 -4.74751e-05 -0.085854975 0.8404626718
735295590.0 0.1112398037 -0.838849602 -4.32134e-05 -0.0001192755 -0.0001481304 -5.92456e-05 -0.0765916215 0.8410561673
740295560.0 0.1020305203 -0.8400717382 -4.885e-05 -7.53249e-05 -0.0002310945 0.0001074955 -0.0692730804 0.8412366532
745295530.0 0.0941899641 -0.8412052744 4.08953e-05 7.18687e-05 -3.59659e-05 0.0002025549 -0.0606445909 0.842463111
750295500.0 0.0856584543 -0.8414488492 0.0002886911 -6.9421e-05 -0.0001035566 1.32761e-05 -0.0522243044 0.8422684882
755295470.0 0.0775631058 -0.8426896525 4.24301e-05 0.0002948548 7.1948e-05 -7.87055e-05 -0.0442336873 0.8432543367
760295440.0 0.0691401058 -0.8427535224 6.125e-05 2.06454e-05 1.87527e-05 -0.0002108256 -0.0360313377 0.843288615
765295410.0 0.0607269085 -0.84355366 0.0001160044 -4.45337e-05 -9.07644e-05 -6.42027e-05 -0.0272052822 0.8444672836
770295380.0 0.052235545 -0.8436986118 -0.0002969018 -0.0001020256 4.83434e-05 -4.99696e-05 -0.0187459494 0.8440395861
775295350.0 0.0437298112 -0.8441342796 -9.54827e-05 -0.0003232454 4.67804e-05 -1.12913e-05 -0.0114180718 0.8435932518
780295320.0 0.0347563616 -0.845048754 3.06784e-05 -1.18024e-05 2.87297e-05 -2.06676e-05 -0.0027705352 0.844527138
785295290.0 0.0268961421 -0.844509106 -9.64132e-05 -4.83831e-05 -0.00017947 8.38268e-05 0.005065177 0.8441438122
790295260.0 0.0191108513 -0.8441957393 -8.40746e-05 -2.90922e-05 0.0001399914 0.0001780836 0.0148213003 0.8439376562
795295230.0 0.0107399171 -0.8443468925 -2.96839e-05 9.08943e-05 -1.30735e-05 3.02275e-05 0.022315277 0.8444568546
800295200.0 0.0028207941 -0.8444808484 -0.0001029597 0.0002796485 0.000205191 -0.0002360917 0.0307824236 0.8437283953
805295170.0 -0.0056693425 -0.8443643835 6.75271e-05 0.0001367751 0.0001194282 -0.0001581943 0.0386821113 0.8428377903
810295140.0 -0.0141402101 -0.8441506352 -0.0001040419 -7.64786e-05 -2.1212e-06 0.0002164771 0.047309271 0.8438764764
815295110.0 -0.0227887086 -0.8438547987 0.0001820216 0.0001265197 0.0001731216 -3.5017e-05 0.0553875337 0.8427147295
820295080.0 -0.0312959744 -0.8434960077 -7.66349e-05 7.22336e-05 -4.24714e-05 9.93883e-05 0.0634768118 0.8417141667
825295050.0 -0.0396945111 -0.8431989969 7.17903e-05 2.31623e-05 -4.29097e-05 0.0001009494 0.072034501 0.841169439
830295020.0 -0.0475161281 -0.8423474224 0.0001545873 0.0002779316 -1.60388e-05 2.67131e-05 0.0794246676 0.8401177371
835294990.0 -0.055849682 -0.8413879978 0.0001699701 0.000284294 -6.35178e-05 -5.5879e-06 0.088555104 0.8394976928
840294960.0 -0.0638854078 -0.8411999533 4.1996e-05 -0.0001312654 1.3629e-05 -0.0001463955 0.0958789789 0.8389598215
845294930.0 -0.072299403 -0.8403725419 -0.000326001 0.0001848906 1.44077e-05 -8.6655e-06 0.1044908713 0.8378621884
850294900.0 -0.0802134973 -0.8390018365 0.0002425984 0.0001580457 -6.22142e-05 0.0001007515 0.1126925598 0.8370261313
