!Created with skrf (http://scikit-rf.org).
# Hz S RI R 50.0 
!freq ReS11 ImS11 ReS21 ImS21 ReS12 ImS12 ReS22 ImS22
300000.0 -0.239125751 -0.0825279731 0.4717031567 0.0562506969 0.4679178295 0.053117853 -0.2420067229 -0.0946153445
5299970.0 -0.2442799905 0.0071747039 0.4736379579 0.0047171184 0.4740802741 0.0052623386 -0.2442020962 0.007274783
10299940.0 -0.2410594311 0.0187545009 0.475697547 0.0062420159 0.4756899175 0.0064077731 -0.2408115221 0.0202026055
15299910.0 -0.2367820945 0.0278138848 0.4790497689 0.0076319592 0.4793630951 0.0077236147 -0.235984445 0.0296025036
20299880.0 -0.2321438316 0.0352880571 0.4838290791 0.0084540918 0.4836933106 0.0085783368 -0.231083198 0.037180083
25299850.0 -0.2271275521 0.0421802383 0.4894297119 0.0074262078 0.4891045528 0.007756677 -0.2249133065 0.0437629693
30299820.0 -0.2214602155 0.0469663733 0.4945078047 0.0055276647 0.4946178359 0.0056093478 -0.2192989935 0.0489016661
35299790.0 -0.2162640813 0.0513852366 0.5001700632 0.0021036382 0.5001332609 0.0022693111 -0.213648473 0.0533827272
40299760.0 -0.2116052812 0.0548321215 0.5051916879 -0.0018133741 0.5050765171 -0.0017034446 -0.208210758 0.0560537496
45299730.0 -0.2067905527 0.0575022622 0.5094881366 -0.0061807172 0.5099357562 -0.0063657468 -0.2033688156 0.0587802424
50299700.0 -0.2024679592 0.0598299135 0.5143113697 -0.0120006933 0.5144566423 -0.011517219 -0.198683489 0.0607694007
55299670.0 -0.1981731129 0.0616831412 0.5176158148 -0.0185370321 0.5177532349 -0.0178338283 -0.1943858288 0.062236682
60299640.0 -0.1942747772 0.0634167449 0.5213439243 -0.0244385145 0.5214882835 -0.024029175 -0.1903783725 0.0628830594
65299610.0 -0.191063419 0.0649099893 0.5243363742 -0.0306756624 0.5243895214 -0.030635115 -0.1872163679 0.064258243
70299580.0 -0.1878664786 0.0663474391 0.5266637935 -0.0372670736 0.5267235978 -0.0370383831 -0.1838089536 0.0648544709
75299550.0 -0.1850145763 0.0672534525 0.5282003047 -0.0437622646 0.5285099651 -0.0440015276 -0.1809908685 0.0652853755
80299520.0 -0.1824552736 0.0682098929 0.530067694 -0.0511584228 0.5305724559 -0.0512125317 -0.1783671931 0.065935136
85299490.0 -0.1801115325 0.0687928426 0.5314265599 -0.0574978207 0.5316204731 -0.0574083345 -0.1760422567 0.066242808
90299460.0 -0.177913715 0.0697503627 0.5326832221 -0.0648224297 0.532935371 -0.064565201 -0.1736567761 0.066841763
95299430.0 -0.1754634025 0.0705994236 0.5339674227 -0.0720819065 0.5336971745 -0.0716368552 -0.1714650709 0.0672223561
100299400.0 -0.1738841948 0.0714598279 0.5335602805 -0.0784039227 0.5338485398 -0.0787779496 -0.1695104933 0.0672785397
105299370.0 -0.1722050449 0.0721983614 0.5340322849 -0.0855503182 0.5348826426 -0.0854275939 -0.1676231655 0.0681548181
110299340.0 -0.170525291 0.073438408 0.5349245134 -0.0922199811 0.534579444 -0.0918103221 -0.1662803519 0.0683268743
115299310.0 -0.1686813012 0.0739925284 0.534641006 -0.0990801249 0.5344395304 -0.0989055436 -0.1647374963 0.0689153331
120299280.0 -0.1675198269 0.0746956209 0.534344414 -0.1060501674 0.5342294854 -0.1061903328 -0.1633458051 0.0697125281
125299250.0 -0.166224825 0.0754202273 0.5339911477 -0.1121261451 0.5342354988 -0.1125311854 -0.1624199206 0.0697149077
130299220.0 -0.1647211133 0.0769339654 0.5330581921 -0.1192679438 0.5332243822 -0.1191369499 -0.1610300218 0.0702670519
135299190.0 -0.1636702229 0.0778993451 0.5328845839 -0.1258925116 0.5326854964 -0.1257481164 -0.1599700038 0.0711003753
140299160.0 -0.1626731422 0.079043039 0.5319745124 -0.1327243136 0.5319769236 -0.1327858986 -0.1587076616 0.0721436678
145299130.0 -0.1616108364 0.0798959441 0.5317457871 -0.1392490617 0.530842697 -0.1390732634 -0.1576877672 0.0728773089
150299100.0 -0.1601002833 0.0812115503 0.5297289616 -0.1452181505 0.5299157248 -0.1452328613 -0.1568689034 0.0739865808
155299070.0 -0.1596209995 0.0821945298 0.5286360158 -0.1527776561 0.5287307067 -0.1521624318 -0.1559763365 0.0748103251
160299040.0 -0.1582614509 0.083572927 0.5273020509 -0.1586013701 0.5271877543 -0.1590811263 -0.1555719518 0.0755068304
165299010.0 -0.1573517864 0.0847557227 0.5257423603 -0.1652553515 0.5260481749 -0.1654925048 -0.1543062129 0.0766057369
170298980.0 -0.1565073018 0.0857919309 0.5241058908 -0.1716803248 0.5243522284 -0.1715325586 -0.1535159198 0.0775891315
175298950.0 -0.1555117606 0.0871627646 0.5231574277 -0.1783392335 0.5223591681 -0.1780514422 -0.1527882236 0.0786828272
180298920.0 -0.1547372863 0.0883149035 0.520969571 -0.1842484295 0.5210982628 -0.1836552759 -0.1521136577 0.0797264739
185298890.0 -0.153230045 0.0894540533 0.5188931429 -0.1905467957 0.5189771558 -0.1899495574 -0.1517600153 0.0810736389
190298860.0 -0.1526456795 0.0910817507 0.5170477263 -0.1966455254 0.5175805459 -0.1961913714 -0.1505744747 0.0818045662
195298830.0 -0.1518587045 0.092137498 0.5150094186 -0.2026093112 0.5154890389 -0.2024560833 -0.149479111 0.0829739661
200298800.0 -0.1505680604 0.0935281814 0.5131683674 -0.2088716573 0.5133132756 -0.2089249825 -0.1495798315 0.0841202207
205298770.0 -0.1497375051 0.0951027814 0.5104681262 -0.2150128086 0.5108301518 -0.2147571379 -0.1485327782 0.0847316875
210298740.0 -0.1486467098 0.0964078759 0.5080992043 -0.2205710408 0.5087467338 -0.220450846 -0.1476988084 0.0866939838
215298710.0 -0.1483947209 0.0977482932 0.506336314 -0.2269122878 0.5060376549 -0.2267561702 -0.147691157 0.0876618493
220298680.0 -0.1470257633 0.0988274281 0.5039033911 -0.2325459954 0.5038595914 -0.232733064 -0.1465474985 0.0888217405
225298650.0 -0.1464906936 0.100423374 0.5013603274 -0.2383977812 0.5015005083 -0.2383908106 -0.1461442369 0.0894384498
230298620.0 -0.1450864675 0.1021438829 0.499011483 -0.2440569011 0.4993148697 -0.2443114087 -0.1452907496 0.0911556878
235298590.0 -0.1439876985 0.1036405603 0.4962360886 -0.2497758119 0.496396955 -0.249497822 -0.144485832 0.0921553768
240298560.0 -0.1431958071 0.1049710651 0.4939689967 -0.2558538976 0.4936547687 -0.2557549967 -0.1437370719 0.093591014
245298530.0 -0.1424061622 0.106338427 0.4911343578 -0.2618043035 0.491292206 -0.2618323259 -0.1430524765 0.0940741232
250298500.0 -0.1407569808 0.1081319969 0.4874225549 -0.267186969 0.4876156512 -0.2669595787 -0.1424912419 0.0958347046
255298470.0 -0.1398346148 0.1089756999 0.4843590596 -0.2722971609 0.4851348752 -0.2726662258 -0.1413732797 0.0965967058
260298440.0 -0.1390449176 0.1105419133 0.4820102944 -0.2784688773 0.48221091 -0.2781999574 -0.1405404012 0.098323001
265298410.0 -0.137392994 0.1127060795 0.4784142276 -0.2841349793 0.479453878 -0.283741507 -0.13981697 0.0995865976
270298380.0 -0.1365768771 0.1135447439 0.4761034654 -0.2888344355 0.4763151531 -0.2891118093 -0.138971829 0.1008105273
275298350.0 -0.1353120049 0.1152257436 0.4728901495 -0.2952118574 0.4729848399 -0.2947891267 -0.1377491408 0.101721589
280298320.0 -0.1339699582 0.116870764 0.4696997047 -0.3001739582 0.4697067092 -0.2999439374 -0.1367180708 0.1030657186
285298290.0 -0.1327970279 0.1185802021 0.4664648125 -0.3055100558 0.4664647863 -0.3052739285 -0.1361059528 0.104185518
290298260.0 -0.1315234499 0.1197741754 0.4629822933 -0.310452871 0.4631713866 -0.3103938145 -0.1346280012 0.1059469918
295298230.0 -0.130266646 0.1210476583 0.4598579341 -0.3161144579 0.4598721234 -0.31560652 -0.1334290551 0.1065363821
300298200.0 -0.1294423103 0.1226629132 0.4565085732 -0.3209006019 0.4568080084 -0.3212068515 -0.1328758362 0.1079500738
305298170.0 -0.1277980341 0.1234736801 0.4524585363 -0.3265352832 0.4530016504 -0.325991726 -0.1311682683 0.1091978289
310298140.0 -0.1268371398 0.1251737704 0.449425535 -0.3317046511 0.4493066454 -0.331242431 -0.1305388037 0.110545206
315298110.0 -0.1255330078 0.1261896706 0.4455873298 -0.3366627899 0.4460872112 -0.3367893512 -0.1296038494 0.1114808391
320298080.0 -0.1238393962 0.1275631779 0.4415029171 -0.3417671723 0.4420847189 -0.3417261364 -0.1285780003 0.1130435198
325298050.0 -0.1225865588 0.128973235 0.4379475724 -0.3470870105 0.4380077616 -0.3466589026 -0.1280010134 0.1141083297
330298020.0 -0.121465055 0.1298757872 0.4335106379 -0.3517185969 0.4340157832 -0.351766117 -0.1271667707 0.1151116319
335297990.0 -0.1198761281 0.1311435782 0.4297289395 -0.3564128253 0.4295334414 -0.3566068365 -0.1265431504 0.1170545915
340297960.0 -0.1191592311 0.1330101259 0.4257472976 -0.3613654967 0.4255113748 -0.361334603 -0.1250686915 0.1180606643
345297930.0 -0.1179179921 0.134794242 0.4216961063 -0.3667598838 0.4214965374 -0.3662896237 -0.1243053328 0.1189347191
350297900.0 -0.1165724128 0.1356412527 0.4171040245 -0.3707230937 0.4176804562 -0.3710403013 -0.1236429231 0.1211670689
355297870.0 -0.1151363472 0.1374575714 0.4129356011 -0.3755324728 0.4135222391 -0.3752205804 -0.1227025783 0.1220001377
360297840.0 -0.1136697315 0.1388425376 0.4098917586 -0.3795687264 0.4096692558 -0.3794555108 -0.1217282157 0.1235730982
365297810.0 -0.112479894 0.14049684 0.4053936751 -0.3844819662 0.4054829319 -0.3847227516 -0.1201155566 0.1251530744
370297780.0 -0.1105974633 0.1415922007 0.4007096572 -0.3887400009 0.4009183628 -0.3881986326 -0.1193190761 0.1262001987
375297750.0 -0.1091509421 0.1430198989 0.3962750728 -0.3932258386 0.3967237287 -0.3930421755 -0.117852215 0.1274220993
380297720.0 -0.1077217247 0.1440841628 0.3919059743 -0.3978896544 0.3921338408 -0.3969105707 -0.1172470562 0.1286131536
385297690.0 -0.1065380137 0.1457623606 0.3876583011 -0.4018387958 0.3874787361 -0.4017734744 -0.1157496733 0.1302417474
390297660.0 -0.1047392168 0.1472211861 0.3832210097 -0.4063860783 0.3833716297 -0.4058099787 -0.1149237739 0.1313402252
395297630.0 -0.1030369611 0.1484201051 0.3784915008 -0.410516788 0.3789783604 -0.4102963931 -0.1132195831 0.1324790116
400297600.0 -0.1017879899 0.1498169734 0.3737319987 -0.4148126629 0.3746255827 -0.4141849624 -0.1123268898 0.133699643
405297570.0 -0.1005698138 0.1508547834 0.3697670071 -0.418248296 0.3698003164 -0.4182293806 -0.1112920876 0.1347578184
410297540.0 -0.0984520211 0.1520095205 0.3653324894 -0.4226694465 0.3656395149 -0.4228127264 -0.1098823264 0.1365931157
415297510.0 -0.096777889 0.153293537 0.3602435835 -0.4267366118 0.3604648471 -0.4266569677 -0.1086967504 0.137280125
420297480.0 -0.0949789541 0.1547667456 0.3555017777 -0.4305490879 0.3558746053 -0.4306767113 -0.1075205011 0.1383679716
425297450.0 -0.0934618803 0.1553107293 0.3514458985 -0.4341172193 0.3515288708 -0.4344340363 -0.1066498507 0.1399730276
430297420.0 -0.0917904214 0.1567613912 0.3463862375 -0.4379179271 0.3464029844 -0.4376697576 -0.1055121566 0.1405987005
435297390.0 -0.0902834398 0.1579462155 0.3412455044 -0.4417813399 0.3411210108 -0.4420165464 -0.1034967556 0.1419350519
440297360.0 -0.0882712494 0.1591520196 0.3364763275 -0.4453427169 0.3370520625 -0.445485668 -0.1023990007 0.1427479072
445297330.0 -0.0867966113 0.159851203 0.3319607238 -0.449205406 0.3317624461 -0.4488487703 -0.1009877232 0.1437823557
450297300.0 -0.0847891615 0.1609491904 0.3267374135 -0.4529383867 0.3269464957 -0.4529029206 -0.0993542165 0.1447537157
455297270.0 -0.0833493302 0.1621855936 0.3215521587 -0.4562131931 0.3217744878 -0.4565549249 -0.0980864009 0.1459664156
460297240.0 -0.0815663069 0.1631473131 0.3167033732 -0.459695998 0.3169768699 -0.4596212538 -0.0968817483 0.1472048136
465297210.0 -0.0795827428 0.1642893443 0.3119541608 -0.4631275392 0.3119044073 -0.4635444897 -0.095086145 0.147980525
470297180.0 -0.0775482731 0.1652676964 0.3062506507 -0.4669156061 0.306819875 -0.4665139566 -0.0934810968 0.1494314782
475297150.0 -0.0761047436 0.1657318895 0.3013661518 -0.4695763923 0.3018541213 -0.4694898181 -0.09198341 0.149997912
480297120.0 -0.0740328634 0.167585023 0.2964240743 -0.4732971179 0.2966013863 -0.4734874054 -0.0905316225 0.1513972938
485297090.0 -0.0725728968 0.1682153704 0.2913192964 -0.4760226439 0.2912182285 -0.4760911869 -0.0888978654 0.1523471661
490297060.0 -0.0708738057 0.1692236982 0.2861000426 -0.4796308932 0.286478919 -0.479100825 -0.0873776393 0.1535278903
495297030.0 -0.0689168368 0.170060497 0.2802846215 -0.482624615 0.2810710551 -0.4822734695 -0.0862731663 0.1542809031
500297000.0 -0.0666719454 0.1709238919 0.275349676 -0.4852848282 0.2750984353 -0.4849778322 -0.0844969138 0.1558783153
505296970.0 -0.064881896 0.1716149562 0.2696911093 -0.4882137129 0.2694502524 -0.4886216857 -0.0832227005 0.1563490323
510296940.0 -0.0628732273 0.1726932128 0.2644324951 -0.4911513003 0.2643804559 -0.4915580098 -0.0812878265 0.1576848839
515296910.0 -0.0610194603 0.1734484855 0.2590201749 -0.4942579335 0.259590289 -0.4936614078 -0.0803273724 0.1583904414
520296880.0 -0.0593444353 0.1742408853 0.254021298 -0.4973294626 0.2539586173 -0.4965804981 -0.078840012 0.1595126191
525296850.0 -0.0572128776 0.1746604219 0.248332357 -0.4996584144 0.2489277717 -0.4993577024 -0.0774792536 0.1604046018
530296820.0 -0.0550775301 0.1758571798 0.2426829223 -0.5026235795 0.2432575968 -0.5020501136 -0.0758706638 0.1614033267
535296790.0 -0.0539038727 0.1767583355 0.2378760181 -0.5049161305 0.2376597177 -0.5044833797 -0.0742960432 0.1619780206
540296760.0 -0.0517922626 0.1774462315 0.2317561427 -0.5081156866 0.2320366958 -0.5077387799 -0.0730284491 0.1637914472
545296730.0 -0.0498280878 0.1781279255 0.22638031 -0.50974353 0.2267028041 -0.5098597179 -0.0715820722 0.1638478636
550296700.0 -0.0474128129 0.1789029504 0.2205552287 -0.5120856684 0.2209212065 -0.5124905182 -0.0697449781 0.1652701946
555296670.0 -0.0459154074 0.1792393987 0.2154550159 -0.5146481535 0.215760944 -0.5142742283 -0.0683297909 0.1658318098
560296640.0 -0.0435966053 0.1804921887 0.2096047192 -0.5172992762 0.2100434759 -0.5168753938 -0.0663571027 0.1666982669
565296610.0 -0.0420684198 0.1808497129 0.2039002833 -0.5196381056 0.2045201251 -0.5193746283 -0.0652690313 0.1671351159
570296580.0 -0.0401465845 0.1813901565 0.1986143733 -0.5223084721 0.1981250753 -0.5213348298 -0.0635138392 0.1684406256
575296550.0 -0.0380799836 0.1820976146 0.1929513048 -0.523714854 0.1927656198 -0.5236988624 -0.0617798814 0.168833501
580296520.0 -0.0358229209 0.1826227358 0.1869189724 -0.5253263726 0.1873093167 -0.5255915615 -0.0601929143 0.1696795161
585296490.0 -0.0340974956 0.1828878673 0.1817565148 -0.5271964579 0.1818714018 -0.5277406757 -0.0584792908 0.1700518645
590296460.0 -0.0316430666 0.1835727062 0.1760191359 -0.5290499585 0.1757942445 -0.5296568595 -0.0574896889 0.1710847218
595296430.0 -0.0295511329 0.1841196543 0.1695487879 -0.5313480655 0.1697707679 -0.5311988533 -0.0553698483 0.1712763171
600296400.0 -0.0281781011 0.184795069 0.1642411733 -0.5334469311 0.1645254783 -0.5323230419 -0.0541443456 0.1720807733
605296370.0 -0.0259732294 0.1848532051 0.1582343683 -0.5345205215 0.1586408464 -0.5347203266 -0.0520218811 0.17293229
610296340.0 -0.0237581926 0.1851880025 0.1520209369 -0.536249701 0.1527024087 -0.5363214848 -0.0502314031 0.1735263307
615296310.0 -0.0213035349 0.1854410033 0.1463750254 -0.5374308689 0.146371153 -0.5383598409 -0.0485012923 0.1739787528
620296280.0 -0.0195395294 0.1857251532 0.1408778726 -0.5394290546 0.1409523134 -0.5390344234 -0.0472826043 0.1744036903
625296250.0 -0.0178213335 0.1860477606 0.1354507783 -0.5410761239 0.1351548458 -0.5411571744 -0.0445212845 0.175025561
630296220.0 -0.0150501163 0.1867215298 0.1283333316 -0.5424791865 0.1288044013 -0.5420080577 -0.0434544915 0.1757739088
635296190.0 -0.0138757382 0.1867217645 0.1236703155 -0.5435317681 0.1234703639 -0.543396415 -0.0414310019 0.1764877208
640296160.0 -0.0117196267 0.1868876953 0.1176668268 -0.5446856433 0.1179653204 -0.544650358 -0.0397721105 0.17700609
645296130.0 -0.0094174555 0.1874858498 0.1110598301 -0.5456985625 0.1120296789 -0.5460147635 -0.0382384416 0.1776844419
650296100.0 -0.0070886389 0.1877497735 0.1053242356 -0.5474915278 0.105429783 -0.5475534571 -0.0357746678 0.1776794823
655296070.0 -0.0052844166 0.1877277656 0.099222633 -0.5479434947 0.0999880272 -0.5483357016 -0.0342444681 0.1784170581
660296040.0 -0.0039426887 0.1880755759 0.0939493141 -0.5491430025 0.0938854493 -0.5495992963 -0.0324048531 0.1792298763
665296010.0 -0.0011170084 0.1879761414 0.0873929565 -0.5498374507 0.0878301834 -0.5500025238 -0.0304219096 0.1798497155
670295980.0 0.0003584343 0.1884265215 0.0819024562 -0.5508681304 0.0817889651 -0.5507591321 -0.0293401608 0.1798282153
675295950.0 0.0026520054 0.1886021734 0.0763187571 -0.5516379928 0.0764188376 -0.5515770172 -0.0277438124 0.1807073646
680295920.0 0.0047793719 0.1883068635 0.06969552 -0.5522447187 0.0695307176 -0.5527668647 -0.0258318926 0.181326229
685295890.0 0.0067602762 0.1891177806 0.0639118637 -0.5528865509 0.0635387995 -0.5532255739 -0.0236453429 0.1815474733
690295860.0 0.0091663939 0.1889494593 0.0580580235 -0.5536119393 0.0574357939 -0.5540155699 -0.0221856976 0.1823704256
695295830.0 0.0110798396 0.1888022449 0.0526649576 -0.5542610258 0.0519092321 -0.5541625657 -0.0204593562 0.1824832104
700295800.0 0.0129138603 0.1886621734 0.0460753257 -0.5546762417 0.0459303219 -0.554725511 -0.0190027181 0.1833446779
705295770.0 0.0151561699 0.1892152988 0.0399079524 -0.5552222993 0.0403214384 -0.5551940433 -0.0172502398 0.1834880476
710295740.0 0.0175049527 0.1891251142 0.0341953203 -0.5563309597 0.0344473506 -0.5562373339 -0.0154826013 0.1830884928
715295710.0 0.0191670824 0.1887709111 0.0285426545 -0.5561886729 0.027970894 -0.5559405834 -0.013344926 0.1839107521
720295680.0 0.0215230894 0.1887727384 0.0216514954 -0.5560540926 0.0220810936 -0.5565563201 -0.0115039839 0.1847242782
725295650.0 0.0236109376 0.1887624244 0.0160329239 -0.5567788676 0.0163210562 -0.5567201526 -0.0100429446 0.185029942
730295620.0 0.026053441 0.1888246136 0.0099810873 -0.5564345308 0.0099501326 -0.5568806262 -0.008638698 0.1849357672
735295590.0 0.0274572792 0.188582678 0.0040912535 -0.556827356 0.004026849 -0.5568588371 -0.007137416 0.1850324457
740295560.0 0.0294618682 0.1885984986 -0.0019285294 -0.5565559558 -0.0019444888 -0.5568719134 -0.0045576755 0.1857975209
745295530.0 0.0318788828 0.1882316729 -0.008081947 -0.5558195935 -0.0080386234 -0.5566253037 -0.0031223798 0.1852365327
750295500.0 0.0341320142 0.1879823169 -0.0142951369 -0.5561617942 -0.0139986048 -0.556414958 -0.0010565831 0.1854013276
755295470.0 0.0358747462 0.187544722 -0.0200233173 -0.5558401662 -0.019918238 -0.5565233596 0.0008700768 0.18548532
760295440.0 0.0379182294 0.1875941192 -0.02596103 -0.5558793378 -0.0261132942 -0.5563863671 0.0024536496 0.1855099492
765295410.0 0.0399155608 0.1871348595 -0.0319939487 -0.5554075674 -0.0323239947 -0.5559155325 0.0042091551 0.185800456
770295380.0 0.0418283799 0.1870376817 -0.038139561 -0.5556306339 -0.0381061832 -0.5548231622 0.006032883 0.1855498499
775295350.0 0.0440253377 0.1859926113 -0.0441881044 -0.5540804704 -0.043608496 -0.5545871977 0.0071643693 0.1862269775
780295320.0 0.0463191414 0.1861852383 -0.0503197391 -0.5536280973 -0.0496070053 -0.5542788893 0.0094370927 0.1855232278
785295290.0 0.0481617376 0.1852902773 -0.0560878403 -0.5536097945 -0.0555797415 -0.5533896927 0.011636543 0.185994085
790295260.0 0.0507253293 0.1854036166 -0.0617526094 -0.5524365798 -0.0607414213 -0.5527596678 0.0132867304 0.1860253521
795295230.0 0.0523524597 0.1848285229 -0.0676798857 -0.5518020339 -0.0671660843 -0.5520617734 0.0154946871 0.1861998012
800295200.0 0.0539122757 0.1845128373 -0.0743466989 -0.550880616 -0.0736780396 -0.5512045753 0.0171533007 0.1858107766
805295170.0 0.0565105629 0.1836553422 -0.0796523222 -0.5502555621 -0.079781531 -0.5506120916 0.0188327916 0.1861029789
810295140.0 0.0579690549 0.1831390311 -0.0850558565 -0.5490745044 -0.0852322709 -0.5496023287 0.0212868768 0.1862624779
815295110.0 0.0605032222 0.182487699 -0.0913519129 -0.5483023003 -0.0912236609 -0.5483352003 0.0227502142 0.1861190915
820295080.0 0.0618136886 0.1824818143 -0.0970851195 -0.5471254896 -0.0969271818 -0.5472975303 0.0245160154 0.1861663552
825295050.0 0.0648339799 0.1816812011 -0.1028973585 -0.5462456652 -0.1028500371 -0.5464177213 0.0266035315 0.1862236118
830295020.0 0.0661184228 0.1812075624 -0.1089587675 -0.5450003923 -0.1090266783 -0.545074823 0.0292882097 0.1858765582
