!Created with skrf (http://scikit-rf.org).
# Hz S RI R 50.0 
!freq ReS11 ImS11 ReS21 ImS21 ReS12 ImS12 ReS22 ImS22
300000.0 -0.0489665125 -0.0406657094 0.0010793894 0.0007280491 0.0004476507 0.0004447455 -0.7771742118 -0.1265592434
5299970.0 -0.0498085864 0.0162017711 -1.80576e-05 0.0002715997 0.0001703372 -3.41709e-05 -0.7836541741 -0.0066809031
10299940.0 -0.0443199642 0.0326633175 -1.44246e-05 8.51207e-05 -0.0001300317 9.76916e-05 -0.7871041864 -0.0035133915
15299910.0 -0.0359059302 0.046870426 0.0001625046 -0.0001318188 0.0001208262 3.85208e-05 -0.7922522687 -0.0012358113
20299880.0 -0.0258766561 0.0590090292 -0.0002619646 8.38879e-05 0.0001746313 4.9525e-06 -0.7996629302 0.0021031679
25299850.0 -0.0152883076 0.0682386966 -4.669e-05 2.73498e-05 -3.29655e-05 -5.67e-07 -0.8059716496 0.0083680834
30299820.0 -0.0041851183 0.0748175403 -0.0002206318 -9.21795e-05 -3.64508e-05 5.23328e-05 -0.8118728824 0.0168324214
35299790.0 0.007429405 0.0797422722 -2.80846e-05 -5.8145e-06 5.18321e-05 -0.0001110749 -0.8172087867 0.0250658585
40299760.0 0.0187284045 0.0828214822 -0.0001870604 6.18697e-05 -0.000177429 -1.0385e-05 -0.8212285167 0.0346219304
45299730.0 0.029398195 0.0842583637 1.17973e-05 -2.90012e-05 7.85023e-05 0.0003336023 -0.8252334148 0.0442587605
50299700.0 0.0392341168 0.0843426361 1.9322e-05 0.0002121401 0.0001243351 0.0001398513 -0.8273427436 0.054381335
55299670.0 0.0485675502 0.083260438 9.79929e-05 6.34327e-05 2.32908e-05 -0.0001013775 -0.8297614983 0.0644532621
60299640.0 0.0569895932 0.0817831065 -0.0001952169 -1.16541e-05 -9.47251e-05 2.49324e-05 -0.83064724 0.0740326288
65299610.0 0.064763901 0.0796882911 2.3384e-05 -1.08749e-05 -4.08088e-05 -5.67575e-05 -0.8319422444 0.0836595671
70299580.0 0.0716987755 0.0767961669 -0.0001347356 5.16528e-05 -0.0002287535 5.31886e-05 -0.8321011028 0.094725538
75299550.0 0.0780438215 0.0739923608 0.0001668312 0.0001334126 2.09776e-05 0.0001010172 -0.8323616614 0.1044349405
80299520.0 0.083800348 0.0705087665 -0.0001224832 0.0001832664 2.5334e-06 8.37768e-05 -0.8323166861 0.1139203273
85299490.0 0.0887899557 0.0666336329 9.8127e-05 0.0002258937 -0.0001386341 -0.0001021219 -0.8322155277 0.1239737393
90299460.0 0.0933063424 0.0631758707 -7.9042e-06 7.86311e-05 -6.07504e-05 0.0002124659 -0.831387532 0.1330821237
95299430.0 0.0977752651 0.0588971579 -5.52737e-05 7.57099e-05 0.0001576137 2.718e-07 -0.8294094909 0.1431289468
100299400.0 0.1010617542 0.0556129741 -0.0001215778 0.0001123048 0.0003017078 9.26476e-05 -0.8285692102 0.1524677583
105299370.0 0.1045798439 0.0518607655 -1.31321e-05 0.0002532661 -0.0001353307 0.0001448722 -0.8272708526 0.1611124517
110299340.0 0.1076373883 0.0477716675 7.12816e-05 -1.09225e-05 0.0001587048 4.7238e-05 -0.8256786941 0.1711506484
115299310.0 0.1101559232 0.0440753579 0.0001726843 0.0002115013 -2.71079e-05 -2.18441e-05 -0.8239636088 0.1806502806
120299280.0 0.1124175523 0.0400996133 0.0001795612 2.23244e-05 3.79842e-05 2.93079e-05 -0.822474014 0.1896764
125299250.0 0.1143986151 0.0364435272 -0.0001597155 -4.19677e-05 -2.18917e-05 7.69404e-05 -0.8209966995 0.1984205898
130299220.0 0.1159153645 0.0328878728 -2.61532e-05 5.20986e-05 0.0001293917 0.0001415771 -0.8186715398 0.2070457319
135299190.0 0.1176014086 0.0296673711 0.0002083427 2.51632e-05 8.29595e-05 0.0001537422 -0.8165703536 0.216419689
140299160.0 0.1187636621 0.0258474571 0.0001184049 9.39363e-05 0.0001244824 6.75989e-05 -0.8142829865 0.2250383617
145299130.0 0.1199448087 0.0226115658 0.0003080595 -0.0001359815 3.95804e-05 5.13365e-05 -0.8119880181 0.2343308883
150299100.0 0.120915386 0.019115137 4.00995e-05 2.97746e-05 -6.17944e-05 1.16584e-05 -0.8101882824 0.2433758971
155299070.0 0.1216787827 0.0161012643 -0.0002482123 -5.42154e-05 0.0002651349 0.0001066902 -0.807220138 0.2521918899
160299040.0 0.1221114119 0.0130020066 0.0001449309 2.01291e-05 -5.94232e-05 0.0001129112 -0.8050613533 0.2607955145
165299010.0 0.1231127451 0.00952623 7.13655e-05 0.0001131101 0.0001420966 -7.24169e-05 -0.8022016799 0.2694050479
170298980.0 0.1229662294 0.006937563 -3.59552e-05 2.62683e-05 0.0001196519 0.0001608264 -0.7991049295 0.2782271535
175298950.0 0.12364006 0.0038480656 0.0002308734 -1.41132e-05 7.85505e-05 0.0001005228 -0.7965021791 0.2872128552
180298920.0 0.1240346295 0.0010250306 9.50053e-05 6.54888e-05 0.0002651861 1.89835e-05 -0.793249065 0.2954100726
185298890.0 0.1240149984 -0.0020931299 0.0001078804 3.66636e-05 -2.30437e-05 0.0001115876 -0.7903423817 0.3041997004
190298860.0 0.1245050456 -0.0045833587 0.0003419956 0.0002490569 6.5481e-05 0.0001629768 -0.7879731374 0.3128789755
195298830.0 0.1239680337 -0.0073854715 6.87476e-05 0.0002224333 4.21238e-05 4.5736e-05 -0.7845961497 0.3215526048
200298800.0 0.1241419863 -0.0098908406 0.0003091775 8.02399e-05 1.37852e-05 0.0001775412 -0.7815275369 0.3293670086
205298770.0 0.1235004787 -0.0125673876 -7.4404e-05 4.19814e-05 1.39032e-05 2.5384e-05 -0.7773655663 0.3376074918
210298740.0 0.1235208419 -0.0149563829 4.00262e-05 9.10161e-05 5.34994e-05 -0.0001453385 -0.7737839981 0.3463174382
215298710.0 0.1231919507 -0.0174268508 0.0004014461 3.22604e-05 0.0002455431 9.8911e-06 -0.770739717 0.3546662992
220298680.0 0.122707927 -0.0200018807 7.23642e-05 -4.71545e-05 0.0001417656 -2.49898e-05 -0.7679429805 0.3626059007
225298650.0 0.1221234256 -0.0223543858 0.0001442739 0.0003423609 0.0002586723 0.0001970202 -0.7640693874 0.3704857065
230298620.0 0.1217780787 -0.0245456302 3.0997e-05 0.0002027746 0.0001580972 -0.0001068875 -0.7596870753 0.3788224542
235298590.0 0.1216333467 -0.0266512661 -3.50317e-05 0.0002041111 0.0001874169 0.0002152425 -0.7562319569 0.3869126094
240298560.0 0.1209229433 -0.0292386971 0.0001026446 0.0001566513 2.98618e-05 -8.33209e-05 -0.7517971049 0.3959742579
245298530.0 0.1201276567 -0.0311375378 3.8468e-06 -5.07191e-05 0.0001268388 0.0001268908 -0.7478276106 0.4026391071
250298500.0 0.1197125033 -0.0332104594 5.83445e-05 0.0002058759 -1.67736e-05 7.74815e-05 -0.7437630063 0.410065331
255298470.0 0.1185218233 -0.0356686198 0.0001430616 -2.7064e-06 -2.28713e-05 0.0001701772 -0.7386488964 0.4182427312
260298440.0 0.1182742911 -0.0373141726 0.0002650243 4.419e-07 0.0002387026 -6.2174e-06 -0.7347356719 0.4268908281
265298410.0 0.1176930857 -0.0391395097 0.0002431473 8.64411e-05 0.0001497549 -3.57939e-05 -0.7302605538 0.433996346
270298380.0 0.1164484386 -0.0412517071 0.0001221491 0.0001507734 2.77876e-05 3.6371e-05 -0.7258111993 0.4413578905
275298350.0 0.1159172428 -0.0433354113 0.0002561882 0.0002019069 5.38021e-05 5.5568e-06 -0.7209458984 0.4486364929
280298320.0 0.1153393746 -0.0453233383 3.20354e-05 4.98509e-05 0.0002267481 0.0002102386 -0.7158843642 0.456106073
285298290.0 0.1147910583 -0.0468704521 0.0004225826 2.37427e-05 0.0001270536 -1.51213e-05 -0.7109928127 0.463971086
290298260.0 0.113810635 -0.048754865 0.0003756888 4.69705e-05 0.0001030994 0.0001381972 -0.7060483186 0.4712943043
295298230.0 0.1128542073 -0.050785823 7.97846e-05 0.0003191546 0.000145668 4.14842e-05 -0.7009631322 0.4784309973
300298200.0 0.1121838443 -0.052242522 0.0002538106 7.46301e-05 0.0002048183 4.29483e-05 -0.6955792058 0.4853671982
305298170.0 0.1112311753 -0.0542318895 0.000175213 1.1107e-05 9.86003e-05 -8.1524e-06 -0.6901684717 0.4934736329
310298140.0 0.1104618273 -0.0557473817 -5.23741e-05 0.0001043985 0.000225331 -4.11874e-05 -0.6857319126 0.5000493268
315298110.0 0.110019632 -0.0577681249 -2.97611e-05 0.0002445549 0.00011722 2.09033e-05 -0.6796783413 0.5068906702
320298080.0 0.1087832254 -0.0595735109 0.0001130498 0.0002540773 0.0001323713 0.0002531806 -0.6744246988 0.514470998
325298050.0 0.107523918 -0.0613718905 2.6913e-05 0.0001813879 0.0002725747 0.0001159507 -0.6686591457 0.5213098728
330298020.0 0.1064887262 -0.0634068473 0.0001223839 0.0002037849 0.0002555147 7.75215e-05 -0.6632170525 0.5287777437
335297990.0 0.1049393976 -0.0647396603 -9.49838e-05 0.0001472754 -7.83787e-05 0.0003198849 -0.658139603 0.5356028569
340297960.0 0.10348553 -0.0663033836 6.26572e-05 0.0003096 0.0002460548 2.00881e-05 -0.6523309794 0.5423741369
345297930.0 0.1022364781 -0.0675205742 0.0003342672 1.25616e-05 0.0001811818 0.0002261541 -0.6465994486 0.5487326158
350297900.0 0.1012541982 -0.0688713684 5.69992e-05 -1.37368e-05 0.0001278187 0.0002766444 -0.6410440675 0.5558015816
355297870.0 0.1000467587 -0.0700892979 3.44313e-05 0.0001673908 0.0002672995 1.69598e-05 -0.6356594194 0.5619567
360297840.0 0.0987011214 -0.0712899997 -3.05153e-05 0.0002137039 0.0001335961 8.8896e-05 -0.6294036594 0.5690971018
365297810.0 0.0974351164 -0.0724922588 1.52547e-05 0.0002510678 0.0001799322 0.0001187915 -0.6227835125 0.5759189937
370297780.0 0.0965518181 -0.0737126988 0.0003024434 3.3763e-05 0.000317734 7.18738e-05 -0.6172737831 0.5821708693
375297750.0 0.0952653807 -0.0750722969 5.87912e-05 -0.0001388439 0.0002491801 -5.93522e-05 -0.611491213 0.5879949187
380297720.0 0.0940234672 -0.0765219679 0.0002393453 -1.2679e-06 0.0002820926 0.0001479691 -0.6059006206 0.5949456451
385297690.0 0.0926348595 -0.077036587 0.0002153944 3.13549e-05 0.000177457 -3.63105e-05 -0.5989590368 0.6010434963
390297660.0 0.0912228745 -0.078212312 0.0004051506 6.79123e-05 0.0001360635 7.23671e-05 -0.5934055891 0.6070300814
395297630.0 0.0904988387 -0.0794586985 6.78607e-05 5.7255e-05 0.0001268172 9.07043e-05 -0.5862186326 0.6133843791
400297600.0 0.0891684809 -0.0807190655 0.0001130223 0.0001562906 0.0002006336 0.0001811428 -0.5808906517 0.6192363613
405297570.0 0.0875915461 -0.0816797289 0.0003925866 1.42611e-05 0.0002368966 9.76399e-05 -0.5740009327 0.6250977884
410297540.0 0.0863292441 -0.0827453708 0.0003120517 0.0001968249 7.81593e-05 6.69182e-05 -0.5675738878 0.631401264
415297510.0 0.0853107286 -0.0843220749 0.0002837315 0.0003354107 4.50499e-05 0.0001798335 -0.5606153172 0.6367300376
420297480.0 0.083847481 -0.0847855941 6.04627e-05 4.15486e-05 0.0002021105 0.000208893 -0.5541465257 0.6428976549
425297450.0 0.0827400613 -0.0860190883 7.43953e-05 -0.0001661981 0.0002083106 0.0002781643 -0.5477696646 0.6486243042
430297420.0 0.0815965008 -0.086905927 0.0001117434 0.0001400508 0.0002394167 0.0001914862 -0.5411466738 0.6533239123
435297390.0 0.079875881 -0.0877433438 0.000208357 8.86928e-05 0.0002752799 -4.87568e-05 -0.5337436289 0.6593138383
440297360.0 0.0785946916 -0.088964913 0.0002062152 -8.2519e-06 3.09495e-05 0.0001321559 -0.5271039064 0.6636694669
445297330.0 0.0773285454 -0.0897771542 0.0002945082 0.0003000513 0.0002863141 0.0001746334 -0.5204361634 0.6688608058
450297300.0 0.0762337852 -0.0908105748 0.000247492 0.0002954053 0.0002834804 9.65999e-05 -0.5129887666 0.6741649639
455297270.0 0.0745768066 -0.0915202538 0.0002830849 4.70691e-05 0.0003028639 0.0004241035 -0.5060479323 0.6789444979
460297240.0 0.0733918879 -0.0925670304 0.0002940343 2.47162e-05 0.0003456736 5.25899e-05 -0.4996559877 0.6843324676
465297210.0 0.0721435215 -0.093097044 0.0001210337 0.0001089135 0.0001386066 0.0001059618 -0.4918784225 0.6891720812
470297180.0 0.0706508828 -0.0938853792 0.0002679149 -0.0001465531 0.0004237224 5.83084e-05 -0.4845443331 0.6939328667
475297150.0 0.0691749268 -0.0950135195 0.0001890886 -0.000110116 0.0001821501 0.0001638849 -0.4766812375 0.6984623963
480297120.0 0.0680280383 -0.0956508623 0.0003837411 0.0001680734 0.0003098178 0.0002148634 -0.4698825038 0.7034584418
485297090.0 0.0667206238 -0.0963660581 0.0002900666 0.0003530992 0.0002119982 0.0002956585 -0.4629388422 0.7082315875
490297060.0 0.0650161355 -0.0967042703 0.0002909227 8.4344e-05 0.0002544507 6.761e-06 -0.4554692709 0.712353284
495297030.0 0.0636759079 -0.097689266 5.44838e-05 0.0001584674 0.0003112051 6.94686e-05 -0.4480877226 0.7178080907
500297000.0 0.0625893061 -0.098391025 0.0001669104 -6.94835e-05 0.00022109 0.0001785284 -0.4401128023 0.7223940989
505296970.0 0.0610477346 -0.0989739253 0.000138503 0.0002563644 2.30897e-05 0.0002114337 -0.4330462719 0.7264812298
510296940.0 0.0596228076 -0.0998012916 0.0004334741 0.0002016718 0.0004179031 0.0001284793 -0.4261836444 0.730948555
515296910.0 0.0583734475 -0.1002461225 0.0001215117 0.0002808232 0.0001563696 -2.69799e-05 -0.4181469068 0.7351834773
520296880.0 0.0568868908 -0.1008278222 0.0002582122 6.7986e-06 0.0001477348 0.000218066 -0.4105957235 0.7394954066
525296850.0 0.0554346893 -0.1016222577 0.000351149 8.21064e-05 0.0004059393 7.92233e-05 -0.4038424551 0.7438751922
530296820.0 0.0540503689 -0.101910006 0.0003274744 0.000258738 0.0003278282 3.65035e-05 -0.3957629384 0.7475304216
535296790.0 0.052663937 -0.1022824729 0.0001980269 0.0001593505 0.0003388034 4.71088e-05 -0.388498195 0.7517460984
540296760.0 0.0510424611 -0.1026831617 0.0005406285 -5.27759e-05 0.0002889855 2.88482e-05 -0.3804791426 0.7557558071
545296730.0 0.0496077665 -0.103238109 0.0003676364 9.42974e-05 0.0002664982 0.000129459 -0.3729517514 0.7598189146
550296700.0 0.0486552623 -0.1037290491 0.000281221 0.0003039428 0.0001675027 -1.54527e-05 -0.365359521 0.7632113182
555296670.0 0.0468988648 -0.1044563558 0.0001636817 0.000136032 0.0002466402 4.04331e-05 -0.3574728694 0.7674745168
560296640.0 0.0455691218 -0.1046404488 0.0003163362 0.0003149835 0.0003231174 8.44194e-05 -0.349409294 0.7707899387
565296610.0 0.0440223521 -0.1049234962 0.0003570679 0.0002535059 0.0003560778 -4.78149e-05 -0.3419085356 0.7742375159
570296580.0 0.0423107006 -0.1054456022 0.0003182374 -3.35626e-05 1.92598e-05 -1.756e-05 -0.3345639452 0.7779166612
575296550.0 0.0410818281 -0.1057495118 0.0005195263 0.0002566457 0.0004246828 7.04278e-05 -0.3262443526 0.7808637314
580296520.0 0.0397436459 -0.1063627609 0.0003620441 0.0001572985 0.0002918211 -0.0002405781 -0.3176843514 0.7845172571
585296490.0 0.0380420679 -0.1067767289 0.0001611963 7.32228e-05 0.00038716 5.49532e-05 -0.3100209154 0.7874674442
590296460.0 0.036811069 -0.1068017988 0.0002150772 4.12218e-05 0.000479858 0.0001602504 -0.3024742882 0.7900690037
595296430.0 0.0353713753 -0.1069504441 0.0003938321 0.0001804499 0.0003766787 2.86858e-05 -0.2939775529 0.7928563852
600296400.0 0.0336919437 -0.1072853719 0.0003434422 0.0001392577 0.0003562809 0.0001430646 -0.2862106887 0.7957605703
605296370.0 0.032377917 -0.1075877351 0.0003178949 -0.0001027393 0.0004134413 0.0001092273 -0.2776741656 0.7984857715
610296340.0 0.0304868354 -0.1076678065 7.25919e-05 0.0002570978 0.0004179131 2.2516e-06 -0.2700969247 0.8008142885
615296310.0 0.0293772734 -0.108156215 0.0002707046 0.0002453126 0.0003533056 2.98745e-05 -0.2617450407 0.8034650787
620296280.0 0.0276519169 -0.1084293504 1.61187e-05 3.74568e-05 0.0001837832 0.0002933951 -0.2538936553 0.806315971
625296250.0 0.0265265707 -0.1085323749 0.0004339086 -7.2137e-06 0.0004633161 -0.0001278873 -0.2446885371 0.8084643957
630296220.0 0.0252076484 -0.108741069 0.000436114 0.0001167942 0.0001732847 -6.0703e-06 -0.2371432933 0.8107403469
635296190.0 0.0234710587 -0.1087994085 9.90164e-05 6.62749e-05 0.0003372884 -1.04193e-05 -0.2293197223 0.8127878729
640296160.0 0.0221041596 -0.1087469825 0.0002496064 -7.18548e-05 0.0003091929 -9.67115e-05 -0.2209969535 0.8153847935
645296130.0 0.0207072487 -0.1085275745 0.0002655121 -3.63112e-05 0.0001326855 0.0001362663 -0.2124594863 0.8174510102
650296100.0 0.0191116152 -0.1089503353 0.0003058608 3.35871e-05 0.0002691268 -0.0001558614 -0.2046362962 0.8183932768
655296070.0 0.0178176256 -0.1090374915 0.0005365573 -3.97908e-05 0.0001531998 0.0002830809 -0.1958923025 0.8207220412
660296040.0 0.016274708 -0.1089885586 0.0004727887 2.18638e-05 0.0002308032 0.00014482 -0.187015189 0.8232556038
665296010.0 0.0148929131 -0.1092671769 0.0002342523 3.31254e-05 0.0006011663 5.66461e-05 -0.1789665957 0.8254700049
670295980.0 0.0131659865 -0.1089123607 0.0002273914 -0.0001417929 0.0004629419 -1.18758e-05 -0.1713460311 0.8264107734
675295950.0 0.0118435893 -0.1088579817 0.0003474459 3.50354e-05 0.0003558657 -9.5303e-06 -0.163388531 0.8289188962
680295920.0 0.0106038799 -0.108659527 0.0003837336 0.0001360558 0.0003435942 -1.39274e-05 -0.1538372774 0.8311722873
685295890.0 0.0091201371 -0.1085447352 0.0004568328 -0.0002572504 0.0004354188 0.0001787253 -0.1451981504 0.8320102372
690295860.0 0.0080155932 -0.108639962 0.0004536894 0.0001152717 0.0004989528 -1.92945e-05 -0.137681866 0.8333995277
695295830.0 0.0062183143 -0.1084310731 0.0003066184 4.24601e-05 0.0003731961 -0.0001395103 -0.1288884997 0.8351894572
700295800.0 0.0049357305 -0.1085682792 0.0002850661 -3.12913e-05 0.0005867921 -0.0001964277 -0.1213958707 0.8361548601
705295770.0 0.0033251181 -0.1082517331 0.0003489642 7.50188e-05 0.0003258507 -6.48982e-05 -0.1134029194 0.837785257
710295740.0 0.0019029032 -0.1080910789 0.0003801709 5.88629e-05 0.0006295865 -0.0001167053 -0.1039456091 0.8384774092
715295710.0 0.0003520429 -0.1078738778 0.0003207467 -0.0002263732 0.0003707142 2.6806e-06 -0.0952991052 0.8397549634
720295680.0 -0.0010038737 -0.107734359 0.0005278739 -0.0001620964 0.0005773246 -5.12485e-05 -0.0871923096 0.8412819165
725295650.0 -0.0021650338 -0.1075082043 0.0004334164 5.5812e-05 0.0004019289 -0.0001420768 -0.0787789811 0.8420669965
730295620.0 -0.0037848432 -0.1070387344 0.0003972745 -7.69301e-05 0.0005723594 2.44994e-05 -0.0712040682 0.8424582603
735295590.0 -0.0052228891 -0.1068471639 0.0006426655 -0.0001016073 0.0003966077 2.47458e-05 -0.0624817653 0.8424188644
740295560.0 -0.0067521297 -0.1065787222 0.0004436482 5.91608e-05 0.0003087472 -0.0001219014 -0.0538027061 0.8438866401
745295530.0 -0.0083102279 -0.1061259589 0.0004818712 -0.0001908606 0.000372505 1.75717e-05 -0.0448961985 0.8438431844
750295500.0 -0.0091998871 -0.1059423828 0.0003585017 -0.0002241856 0.0004792764 -9.4818e-05 -0.0375766155 0.8444141
755295470.0 -0.0110057175 -0.1055980906 0.0002942265 -0.0002749037 0.0004879093 0.0001083068 -0.0284830639 0.8442372507
760295440.0 -0.0123023415 -0.1053956036 4.30897e-05 -0.0001482191 0.0003360919 -0.0001659984 -0.0204881267 0.8446710016
765295410.0 -0.0136368194 -0.1049460113 0.0004130479 3.85235e-05 0.0004934803 -2.40838e-05 -0.0117611404 0.8446651213
770295380.0 -0.0150952648 -0.1045501485 0.0002563501 0.0001145936 0.000536736 -7.0939e-05 -0.0035430786 0.8446199787
775295350.0 -0.0165933262 -0.1043231498 0.0006142134 -0.0003041303 0.0003428672 -0.0001494968 0.0046801592 0.8444792272
780295320.0 -0.0177442075 -0.1034794398 0.0002552801 -0.0002621733 0.0003406383 -8.38608e-05 0.0131255658 0.8438890625
785295290.0 -0.019388751 -0.1035001642 0.0003539407 -0.0001938485 0.0002661281 6.8748e-06 0.0219540252 0.8437684368
790295260.0 -0.020434118 -0.1030220642 0.0002344437 -2.291e-05 0.000503983 -0.0002048641 0.0303480412 0.8437087133
795295230.0 -0.0220560359 -0.1023121481 0.0003093762 -0.0001194057 0.000461364 -0.0002193172 0.0392644829 0.8428195886
800295200.0 -0.0231932956 -0.1018068193 0.0004223693 -5.01785e-05 0.0002996334 -7.93692e-05 0.0476318482 0.8422100299
805295170.0 -0.0243175891 -0.1017580322 0.0002128225 -0.0001184368 0.0003321097 -4.51346e-05 0.0552735201 0.8420562529
810295140.0 -0.0258982758 -0.1012913296 0.0004345287 1.78107e-05 0.0003296836 -0.0003843676 0.0642097237 0.8412142607
815295110.0 -0.0271011546 -0.1006496769 0.0005263579 -0.000152749 0.0003251045 -0.0001120104 0.0725674526 0.8406328089
820295080.0 -0.0283827106 -0.0997144202 0.0005421603 -3.21173e-05 0.0003491324 6.481e-06 0.0810206092 0.8400261686
825295050.0 -0.0296428734 -0.0992714628 0.0004550225 9.36654e-05 0.0003136636 -0.0001055862 0.088978408 0.8397424778
830295020.0 -0.0309061552 -0.0984746992 0.0005734831 -0.0002192385 0.0003152338 -0.0002416986 0.0986487503 0.8377300023
835294990.0 -0.0325936545 -0.0980745238 0.0003115341 0.0001236509 0.0005867711 -3.69997e-05 0.1053787795 0.8378178894
840294960.0 -0.0336967673 -0.0975459333 0.0003671298 -2.26117e-05 0.0004832764 -0.0004416477 0.1143618857 0.8367492504
845294930.0 -0.0349075205 -0.0966944818 0.0004894214 -0.0002005501 0.0004576507 -0.000296895 0.1223285851 0.8346788705
850294900.0 -0.0359618345 -0.0959376113 0.000344245 -0.0003177639 0.0003915205 -0.0002406654 0.1304309476 0.8336719142
