!Created with skrf (http://scikit-rf.org).
# Hz S RI R 50.0 
!freq ReS11 ImS11 ReS21 ImS21 ReS12 ImS12 ReS22 ImS22
300000.0 -0.3177196221 -0.1069127907 0.3718473258 0.0530708818 0.3746419389 0.0576351979 -0.3193708556 -0.1164613442
5299970.0 -0.3237630888 0.0050142125 0.3788297867 0.0028026058 0.3784087422 0.0034080661 -0.3258893615 0.0030272173
10299940.0 -0.3210662597 0.0153491503 0.380011569 0.002289281 0.3796778265 0.0023889325 -0.3240563569 0.012703872
15299910.0 -0.318032126 0.0235039275 0.3817379996 0.0022464856 0.3820287974 0.0025121399 -0.321158409 0.0199723039
20299880.0 -0.3144688777 0.0300417439 0.3851120974 0.0015755961 0.3850773289 0.001532086 -0.3184770732 0.0259367543
25299850.0 -0.3106149213 0.0355476298 0.3884609009 -9.39483e-05 0.3883667229 -0.0001504038 -0.3155529618 0.0313114569
30299820.0 -0.3068005101 0.040234468 0.3920378807 -0.0019559258 0.3915333144 -0.002178212 -0.3127006714 0.0356444077
35299790.0 -0.3029646005 0.0446933054 0.3952359065 -0.0054423412 0.3953115945 -0.0051891034 -0.3096876484 0.0393757625
40299760.0 -0.2995528245 0.0479912673 0.3985121659 -0.0086387571 0.3983896784 -0.0088211109 -0.3071314241 0.0431485087
45299730.0 -0.2965296539 0.0515277943 0.4012062914 -0.0129274283 0.4013552509 -0.0124565 -0.3047286747 0.0463009383
50299700.0 -0.2932800037 0.0542831203 0.4035418614 -0.0173691396 0.4036079979 -0.0171031561 -0.3020711201 0.0493812815
55299670.0 -0.290988388 0.0569250845 0.4056673155 -0.0219584351 0.4056859475 -0.0216754712 -0.3002682158 0.0517398601
60299640.0 -0.2880937499 0.0590236586 0.4074304253 -0.0269830106 0.407844685 -0.0268950414 -0.2982649354 0.054619952
65299610.0 -0.2862785081 0.0616863467 0.4092478003 -0.0318406882 0.409347179 -0.0318450172 -0.2960728659 0.0570549971
70299580.0 -0.2836928735 0.063575719 0.4102036851 -0.0369302594 0.4107036662 -0.0371702452 -0.2946250403 0.0600042532
75299550.0 -0.2818850313 0.0659120709 0.4116596456 -0.042370087 0.4116826458 -0.0424364324 -0.2931093261 0.0620110569
80299520.0 -0.2803999378 0.0680745575 0.4128044658 -0.0473810457 0.4124479071 -0.0474106053 -0.2915150233 0.0643832719
85299490.0 -0.2787499953 0.0700202757 0.4132713596 -0.0525318619 0.4131076859 -0.0527508 -0.2902688887 0.0663843663
90299460.0 -0.2771147335 0.0720912112 0.4136886198 -0.0578162181 0.4136461946 -0.0579588387 -0.2886436468 0.0689417023
95299430.0 -0.2754924112 0.0739617174 0.4140899421 -0.0632883856 0.4136973356 -0.0630960959 -0.2876480821 0.0711395887
100299400.0 -0.2743761051 0.0764342491 0.4136128755 -0.0683452616 0.4137098801 -0.0684944853 -0.2864039871 0.0736266874
105299370.0 -0.2729400699 0.0784485831 0.4134855091 -0.0733177276 0.4137096811 -0.0738687741 -0.2851043396 0.0756116075
110299340.0 -0.2718780077 0.080389179 0.4131921168 -0.0783459554 0.4134071676 -0.0789214814 -0.284212049 0.0780633941
115299310.0 -0.2702901351 0.0823722513 0.4127078869 -0.0835340135 0.413443589 -0.0836077609 -0.28301192 0.0801312731
120299280.0 -0.2698316923 0.0847156891 0.4128412523 -0.0889145745 0.4131262019 -0.0890042118 -0.2823963793 0.0824707745
125299250.0 -0.2689143115 0.0866981819 0.4122515437 -0.0938748593 0.4124507663 -0.0941477544 -0.2810267272 0.0849068105
130299220.0 -0.2678198761 0.0891560609 0.4116425924 -0.0984995448 0.4115086254 -0.099262667 -0.2804926584 0.0876290847
135299190.0 -0.2666381783 0.0911187168 0.4109064337 -0.1036639585 0.4105423794 -0.1041127883 -0.2795817431 0.0899830093
140299160.0 -0.265947818 0.0940331715 0.4100779471 -0.1091426711 0.4102939214 -0.1091335269 -0.2786763949 0.0921606394
145299130.0 -0.2646587324 0.0959592203 0.4092741382 -0.1140603383 0.4090650064 -0.1137686966 -0.2777937951 0.0944311084
150299100.0 -0.2637578296 0.0981252425 0.408298456 -0.1192274466 0.4082431619 -0.1189428148 -0.2769632044 0.0967801256
155299070.0 -0.2629334134 0.1009343605 0.4069887569 -0.1242791032 0.4070125189 -0.1241724022 -0.2759669875 0.0995951025
160299040.0 -0.2615785304 0.1029625478 0.4054116808 -0.1285031897 0.405896739 -0.1289182834 -0.2752199619 0.1022718622
165299010.0 -0.2610670004 0.1053615295 0.4048408514 -0.1337497154 0.4047257877 -0.1338266877 -0.274301314 0.1046624069
170298980.0 -0.2602300125 0.1077725193 0.4027779561 -0.1386081793 0.4031796365 -0.138546592 -0.2733143577 0.1071110489
175298950.0 -0.2589328616 0.1106692963 0.4024569056 -0.1433051541 0.4021343578 -0.1433612698 -0.2722495604 0.1097451782
180298920.0 -0.2579139146 0.1129442674 0.4004155984 -0.1484407781 0.4006788287 -0.14809987 -0.2709332897 0.1127676628
185298890.0 -0.2571138127 0.1154929334 0.3985077176 -0.1528178813 0.398896712 -0.1528012056 -0.2703336734 0.114977259
190298860.0 -0.2559250902 0.1179470674 0.397334436 -0.1577151153 0.3973007055 -0.1573971328 -0.2690505469 0.1175536648
195298830.0 -0.2545939504 0.1199363427 0.3955398239 -0.1616526982 0.3957023774 -0.1621671827 -0.2680773232 0.1198653922
200298800.0 -0.2538999686 0.1228653456 0.3941090303 -0.1662505673 0.3938125295 -0.166324845 -0.2667726712 0.1228740307
205298770.0 -0.2527818851 0.1250646775 0.3923558698 -0.1709707364 0.3920522009 -0.1710305234 -0.2656304846 0.1253156168
210298740.0 -0.2515147826 0.1277784618 0.3904228601 -0.1760107709 0.3905447299 -0.1758719817 -0.264539861 0.1279571987
215298710.0 -0.2500033145 0.1305485619 0.3885460138 -0.1800812559 0.3884137267 -0.180323423 -0.2636522706 0.1307888851
220298680.0 -0.2493450473 0.1330728021 0.3864423459 -0.1851299195 0.3862769068 -0.1847636104 -0.262015379 0.1336872202
225298650.0 -0.2476631176 0.1359202724 0.3842267971 -0.1890765657 0.3841412784 -0.1891432151 -0.2610635405 0.1361621891
230298620.0 -0.2464999528 0.1378832981 0.382581272 -0.1933062471 0.3826429502 -0.1934625608 -0.2596045465 0.1386990942
235298590.0 -0.2456689929 0.1405554815 0.3804037399 -0.1979944268 0.3800182347 -0.1981763118 -0.2580656486 0.141248094
240298560.0 -0.2442798249 0.143395103 0.3783557141 -0.2019313615 0.3784315711 -0.2018735196 -0.2568501654 0.1445325804
245298530.0 -0.2424014866 0.1457601584 0.3754433375 -0.2065098372 0.375935837 -0.2068967759 -0.2556567279 0.1472717291
250298500.0 -0.241369066 0.1482319135 0.3735138048 -0.2103839495 0.3740052282 -0.2106153628 -0.254026084 0.1496488922
255298470.0 -0.2398326556 0.150923166 0.3712554413 -0.2150468131 0.3713133622 -0.2149506749 -0.2525816457 0.1524236308
260298440.0 -0.2388682374 0.1533862581 0.3695102037 -0.2192010634 0.3691175362 -0.219311835 -0.2507176645 0.1550176898
265298410.0 -0.237039535 0.1562328219 0.366497456 -0.2238705656 0.366343122 -0.2236068095 -0.2497713114 0.157621271
270298380.0 -0.2354760467 0.1586802676 0.3637378129 -0.2274812883 0.3639582738 -0.2276981436 -0.2476897487 0.1603135332
275298350.0 -0.2340908621 0.1612328543 0.3617659211 -0.2322212462 0.3618025073 -0.23203172 -0.2462410524 0.1633053287
280298320.0 -0.2325620842 0.1639729192 0.3589165823 -0.2356177306 0.3587765024 -0.2362455624 -0.2445147775 0.1659824043
285298290.0 -0.2310351633 0.1666746171 0.3565724719 -0.2398113753 0.3565343373 -0.2397976164 -0.2431930687 0.1684021921
290298260.0 -0.2292619649 0.1689724919 0.3540231761 -0.2439570948 0.353617359 -0.2440820372 -0.2410179366 0.1711872879
295298230.0 -0.227485732 0.1714101246 0.3512630142 -0.2479644548 0.3509335384 -0.2482009257 -0.2394223281 0.1735087494
300298200.0 -0.2256767084 0.1735917756 0.3482822016 -0.2518850851 0.3483424484 -0.251929119 -0.237504442 0.1764412828
305298170.0 -0.2237780691 0.1762544802 0.34579364 -0.2560110855 0.3460854157 -0.2559717256 -0.2355835456 0.179262815
310298140.0 -0.2220512474 0.1782270371 0.3429416843 -0.2599488655 0.3428518303 -0.2600475707 -0.2339194781 0.1819927881
315298110.0 -0.2206287178 0.1808477316 0.3400079453 -0.2638789791 0.3400233767 -0.2640020475 -0.2317533623 0.1841685139
320298080.0 -0.2187329631 0.1835264921 0.3371219066 -0.267807638 0.3371336843 -0.2677178444 -0.2302436832 0.1867507492
325298050.0 -0.2167681216 0.1856343331 0.3340857368 -0.2717057916 0.334351916 -0.2719144811 -0.2281204484 0.189451942
330298020.0 -0.2153314492 0.1881129756 0.3302083513 -0.275576854 0.330505545 -0.2752892087 -0.2261713577 0.1918256061
335297990.0 -0.2131593882 0.1904747289 0.3274761329 -0.2790724166 0.327927413 -0.2790974365 -0.2246921571 0.1945752577
340297960.0 -0.2117839122 0.1929163795 0.3242387637 -0.2827181878 0.3247013663 -0.282654237 -0.2228738209 0.1970530953
345297930.0 -0.210043575 0.1954390004 0.3211697716 -0.2860161309 0.3211452955 -0.2859267392 -0.2208097889 0.1992776368
350297900.0 -0.2076146148 0.19756476 0.3176073314 -0.2891663885 0.3180720244 -0.2895887814 -0.2188489831 0.2021172319
355297870.0 -0.2059210957 0.1997954857 0.3147692099 -0.292954052 0.3147086194 -0.2936568551 -0.216702654 0.2052091716
360297840.0 -0.2038509392 0.2021125824 0.3110808192 -0.2966156415 0.311239421 -0.2969416543 -0.2144494044 0.2075175337
365297810.0 -0.2019377344 0.2043618091 0.3078045432 -0.2999441878 0.3080078696 -0.3000346877 -0.2121165187 0.209773426
370297780.0 -0.1996466132 0.2067843377 0.3049718485 -0.3035061416 0.304844507 -0.3036178597 -0.2101964963 0.2122064535
375297750.0 -0.1976798456 0.2093907223 0.3017202724 -0.3069171481 0.3014791112 -0.3071275629 -0.2080530332 0.2149648629
380297720.0 -0.1952614809 0.2113631553 0.2977747944 -0.3101410123 0.298057764 -0.3099745541 -0.2058750884 0.2172738915
385297690.0 -0.1933221005 0.2139354875 0.2942897977 -0.3128516231 0.2944767135 -0.313379216 -0.2036823195 0.2198003203
390297660.0 -0.1908609736 0.215789808 0.2905951027 -0.3166071736 0.2908503796 -0.3171716033 -0.2013300102 0.2221577597
395297630.0 -0.1885285659 0.2181665106 0.2876332823 -0.3196133479 0.2875552511 -0.3196220214 -0.1994401303 0.2245977464
400297600.0 -0.1865905965 0.2202271506 0.2838770469 -0.3227278136 0.2840396557 -0.3229623159 -0.1971549759 0.2266502072
405297570.0 -0.1840703176 0.2227620899 0.2802155848 -0.3260488805 0.2805475235 -0.3263934053 -0.1948650081 0.2292034807
410297540.0 -0.1814812364 0.2244936227 0.2760985106 -0.3288595484 0.2768521086 -0.32894181 -0.1922287655 0.2315272843
415297510.0 -0.1796269929 0.226680532 0.273160617 -0.33213888 0.273252516 -0.332112489 -0.1903566898 0.2340469042
420297480.0 -0.1769443813 0.2285187461 0.2692246064 -0.3352228898 0.2690941375 -0.3347641054 -0.1871858797 0.2359097808
425297450.0 -0.1745825843 0.2304789585 0.2656367167 -0.3380496267 0.2657744883 -0.3379910047 -0.1849098647 0.2384884227
430297420.0 -0.1725332893 0.2325759355 0.2621063123 -0.3411663405 0.2618987778 -0.3407663864 -0.1825471071 0.2402195384
435297390.0 -0.1700428562 0.2344337886 0.2584561128 -0.3432037112 0.2583711023 -0.3433576181 -0.179899269 0.2426157383
440297360.0 -0.1672584828 0.236700376 0.2540469716 -0.3465342525 0.2539275159 -0.3460808619 -0.1776046034 0.2443866595
445297330.0 -0.164822547 0.2387527371 0.2501829489 -0.3495049738 0.2504181173 -0.3488595229 -0.1751010487 0.2465554039
450297300.0 -0.1620915884 0.2401536293 0.2465550674 -0.3517201882 0.2466677661 -0.3518306286 -0.1728892447 0.2487205598
455297270.0 -0.1597850017 0.2421767754 0.2426950485 -0.3543310288 0.2430285473 -0.3542481739 -0.1700121917 0.2508319419
460297240.0 -0.1577508473 0.2441289099 0.2390267683 -0.3570104847 0.2383566464 -0.3572559104 -0.1672473236 0.2531295561
465297210.0 -0.1546979039 0.2459581838 0.2348646341 -0.3595109557 0.235005553 -0.3596547314 -0.1649829784 0.2545797294
470297180.0 -0.152369491 0.2477514691 0.2309661329 -0.3621303227 0.2311675517 -0.3619685543 -0.1624356596 0.2566501564
475297150.0 -0.1494322475 0.2492567745 0.2264336549 -0.3641415792 0.226985503 -0.3639707178 -0.1595351312 0.2584157467
480297120.0 -0.1469584704 0.2508849844 0.2227461852 -0.3667345636 0.2229958855 -0.3670029551 -0.1571747249 0.2606320607
485297090.0 -0.1441990631 0.2528084839 0.2189350965 -0.3693796363 0.2189081922 -0.3692329383 -0.1544631255 0.2621790754
490297060.0 -0.1417472812 0.2542814657 0.2148315615 -0.3717912211 0.2146163945 -0.3716513773 -0.1515479147 0.2642684123
495297030.0 -0.1391755648 0.2560594233 0.2106907899 -0.3735589416 0.2102074336 -0.3740041491 -0.1489178109 0.2655377541
500297000.0 -0.1361442086 0.2573722054 0.2062707558 -0.3762612202 0.2064293185 -0.3758714688 -0.146636898 0.2676930276
505296970.0 -0.13376882 0.2591690322 0.2021031307 -0.3781216788 0.2021469247 -0.3784482203 -0.1441019854 0.2694682465
510296940.0 -0.1309519783 0.2608679804 0.1982633082 -0.380671166 0.1981490692 -0.3805955107 -0.1408741496 0.2713447439
515296910.0 -0.1283826043 0.2624339424 0.1937595027 -0.3822784916 0.1943244338 -0.3827524341 -0.1380368046 0.2725839646
520296880.0 -0.1250980252 0.2639699407 0.1896863627 -0.3847029391 0.1898360363 -0.3844252001 -0.1353814788 0.2742831371
525296850.0 -0.1224144723 0.265116911 0.185356107 -0.3864954677 0.185727362 -0.3870567532 -0.1320042876 0.2758252392
530296820.0 -0.1198450613 0.266721176 0.1815199639 -0.3880017916 0.1813151947 -0.3885126952 -0.1296619397 0.2772606479
535296790.0 -0.1166337433 0.2679933634 0.1768676562 -0.390022399 0.1772508912 -0.3899361823 -0.1266376558 0.2785627213
540296760.0 -0.1143246754 0.2690920354 0.1727267949 -0.3921677085 0.17256113 -0.3925070148 -0.1241216402 0.2806561352
545296730.0 -0.1115185543 0.270679066 0.1682857727 -0.393777251 0.1682362665 -0.3946546151 -0.1211125255 0.2819392977
550296700.0 -0.1085480011 0.2721516104 0.1643177654 -0.3957983724 0.1643501017 -0.3964984505 -0.1182218281 0.283546817
555296670.0 -0.1051244938 0.273270753 0.159732208 -0.3976438302 0.1599213253 -0.3977207473 -0.1153337756 0.2850120546
560296640.0 -0.1028537696 0.2745698388 0.1556346206 -0.3992061854 0.1559638196 -0.3991369584 -0.1123478735 0.2861101783
565296610.0 -0.0998554654 0.2759868171 0.1510748866 -0.4009451095 0.1512109755 -0.4009523251 -0.1093597077 0.2873748545
570296580.0 -0.0970341873 0.2770278641 0.1465380446 -0.4023318856 0.1466679187 -0.4026853896 -0.106328676 0.2889757614
575296550.0 -0.0940280414 0.2780597201 0.1421695948 -0.4036824218 0.1426859386 -0.4039675258 -0.1033826003 0.2903110034
580296520.0 -0.0911410371 0.2794586058 0.1383191322 -0.4054517645 0.1379771109 -0.4057021313 -0.1006836239 0.2913506126
585296490.0 -0.0879201046 0.2803426825 0.1337194714 -0.4069586975 0.1336347553 -0.4068604301 -0.097736568 0.2922754379
590296460.0 -0.0854530106 0.2813117442 0.1287600364 -0.4082308676 0.129289248 -0.4086061262 -0.0943974573 0.293579638
595296430.0 -0.0823324416 0.2826286188 0.1249644237 -0.409438881 0.1247159399 -0.4094555845 -0.0913460507 0.2946572159
600296400.0 -0.0794355047 0.2835724596 0.1207206626 -0.4110710052 0.1204953878 -0.4108894173 -0.088398026 0.295982789
605296370.0 -0.0761436914 0.2845208911 0.115922654 -0.4120788273 0.1159942511 -0.4121484917 -0.0854006409 0.2971328774
610296340.0 -0.0735477863 0.2856417547 0.1116759604 -0.413182844 0.1114115144 -0.4136551076 -0.0820358138 0.2985486465
615296310.0 -0.0701442947 0.2867106927 0.1068656159 -0.4142902174 0.1070799984 -0.4146771267 -0.0790024878 0.2990814367
620296280.0 -0.0671331348 0.287102304 0.1025520724 -0.4154279863 0.1024592978 -0.4158341941 -0.0759644136 0.2998913937
625296250.0 -0.0642236328 0.2882158765 0.0978297494 -0.4169479441 0.0975624163 -0.4170416268 -0.0729483137 0.3013257142
630296220.0 -0.0607212884 0.2890834681 0.0927301537 -0.4177689531 0.0934114309 -0.4175603251 -0.0700117645 0.3018254483
635296190.0 -0.0579943364 0.2897856976 0.0886445014 -0.4183591228 0.0887068276 -0.4182508577 -0.0669121842 0.302600125
640296160.0 -0.0550855597 0.2903237891 0.0844009287 -0.4193850193 0.0840130236 -0.4192657778 -0.0632783489 0.3031740213
645296130.0 -0.0521613188 0.2913690777 0.0795602886 -0.4203442829 0.0796005054 -0.4203591878 -0.0609728835 0.3043010484
650296100.0 -0.0489772446 0.2922109076 0.0753089642 -0.4211044602 0.0752519416 -0.420938569 -0.0575556483 0.3051132577
655296070.0 -0.045671779 0.2924276264 0.0704830267 -0.4217477788 0.0704785453 -0.4218850051 -0.0541724981 0.3060020392
660296040.0 -0.0429744302 0.2934971538 0.0660451983 -0.4222777105 0.0660266414 -0.4223874751 -0.0510579899 0.3068302541
665296010.0 -0.039519647 0.2939176863 0.0613412133 -0.4233016851 0.0619392295 -0.4231264214 -0.0481903203 0.3076382386
670295980.0 -0.0361068601 0.29455357 0.0570553194 -0.4236020425 0.0571229251 -0.4239093036 -0.0451284945 0.3080540339
675295950.0 -0.0333703743 0.2949725277 0.0520528745 -0.4242916269 0.0523008294 -0.4247209476 -0.0412779174 0.3088482997
680295920.0 -0.0302564286 0.2957861267 0.0474659467 -0.4246596388 0.04739427 -0.4249690777 -0.0381195288 0.3089450051
685295890.0 -0.026897068 0.295825437 0.0431056214 -0.4250994519 0.0427661977 -0.4257623076 -0.0348934738 0.3099695713
690295860.0 -0.0236646567 0.2963816669 0.0380688174 -0.4253394644 0.0378129175 -0.4254245744 -0.0318127003 0.3105114723
695295830.0 -0.0203715375 0.2965744262 0.03314028 -0.42576264 0.0335775698 -0.4261029474 -0.0290048424 0.3110108601
700295800.0 -0.0171220314 0.2971826889 0.0285314628 -0.4261830511 0.0291698487 -0.426854963 -0.0257825943 0.3114111575
705295770.0 -0.0143501694 0.2977366357 0.0243775394 -0.4265790981 0.024768395 -0.4267615565 -0.0224545606 0.3117527089
710295740.0 -0.0114584158 0.2979999605 0.0198502368 -0.4267841375 0.0196822638 -0.4264951553 -0.0198265682 0.3121169096
715295710.0 -0.0083190882 0.2981362201 0.0152456979 -0.4270193192 0.0154247209 -0.4270988968 -0.0159412064 0.3121573666
720295680.0 -0.0050966542 0.2981072403 0.01035243 -0.4269035478 0.0108098584 -0.4274859711 -0.0126379472 0.312673463
725295650.0 -0.0015259905 0.2986118291 0.0058943452 -0.4268604036 0.006122013 -0.4271511732 -0.0095077072 0.3127283241
730295620.0 0.0012514973 0.2986014096 0.001151884 -0.4270579921 0.0010520633 -0.4269238149 -0.0063840758 0.3129630953
735295590.0 0.0047384992 0.298581979 -0.0028087413 -0.4271755097 -0.0030731709 -0.4270885087 -0.0029241635 0.3131499605
740295560.0 0.0074750459 0.2991119835 -0.0080832512 -0.4270637356 -0.0081023926 -0.4269178382 8.97483e-05 0.3133328267
745295530.0 0.0109188538 0.2989432487 -0.0124752491 -0.4264148996 -0.0127066284 -0.4271080189 0.0032757164 0.3137856344
750295500.0 0.0137594969 0.2988789582 -0.0170643731 -0.4264389031 -0.017194036 -0.4266611873 0.0069547095 0.3132905218
755295470.0 0.0177294012 0.2991016137 -0.0214202209 -0.4261626218 -0.0215524374 -0.4262730954 0.0097354846 0.3135845528
760295440.0 0.0205971105 0.2991471261 -0.0266389692 -0.4259589177 -0.0262412957 -0.4258395704 0.0128507584 0.3136302471
765295410.0 0.0235455056 0.2984359193 -0.0306282115 -0.425255433 -0.0308571232 -0.426012349 0.0169273164 0.3140051886
770295380.0 0.0269711168 0.2988963578 -0.0359149119 -0.4251086253 -0.0356162465 -0.4255844397 0.0200095159 0.3137057941
775295350.0 0.0297962849 0.2986631203 -0.0402389918 -0.4248452952 -0.0401852605 -0.4249197145 0.0227682772 0.3133468236
780295320.0 0.0330765062 0.2984420058 -0.0445839002 -0.4241818395 -0.044464605 -0.4244581278 0.0263386559 0.313533714
785295290.0 0.0365503233 0.2984886528 -0.0494573061 -0.423320657 -0.0492187983 -0.4238019674 0.0290697812 0.3133341016
790295260.0 0.0393472662 0.2977949182 -0.0536647184 -0.4231006599 -0.0538541379 -0.423227639 0.032823915 0.3128853475
795295230.0 0.0426912478 0.2982710532 -0.0582992885 -0.422453569 -0.05828584 -0.4226942332 0.0358556676 0.3132500766
800295200.0 0.0458479465 0.2978230652 -0.0631347674 -0.4221633514 -0.0632446048 -0.4217064196 0.039264347 0.3126235811
805295170.0 0.0488991809 0.2973559121 -0.0671072982 -0.4207548521 -0.0676985482 -0.4209150895 0.042084568 0.3121892571
810295140.0 0.0522586169 0.2968851404 -0.0719280039 -0.4203571428 -0.0718653655 -0.4206794293 0.0457025137 0.3122405559
815295110.0 0.0551685668 0.2963193832 -0.0767045598 -0.4192815126 -0.0767574205 -0.41945561 0.0487633694 0.3119915383
820295080.0 0.0584287097 0.2956622484 -0.0811389848 -0.4184577913 -0.0810369877 -0.4187341984 0.0518788614 0.3115524633
825295050.0 0.0614931443 0.2954122602 -0.0853535834 -0.4170232086 -0.0856078286 -0.4175406627 0.0553590388 0.3109237703
830295020.0 0.0648078317 0.29510441 -0.0899145511 -0.4164916734 -0.0902208317 -0.4167707738 0.058399369 0.310486684
