!Created with skrf (http://scikit-rf.org).
# Hz S RI R 50.0 
!freq ReS11 ImS11 ReS21 ImS21 ReS12 ImS12 ReS22 ImS22
300000.0 -0.0943663187 -0.1067215464 0.6231343231 0.0973857514 0.6207295596 0.0984356227 -0.0943021738 -0.1095014888
5299970.0 -0.1014948736 0.0111373419 0.6303885874 0.0112434084 0.6311145626 0.0114090659 -0.1016388092 0.0111041672
10299940.0 -0.0969676379 0.0285297628 0.6344799043 0.0162183755 0.6346842472 0.0163447723 -0.0963784251 0.0284953112
15299910.0 -0.0892788485 0.0424589104 0.640334478 0.0215400515 0.64075991 0.0210479496 -0.089516963 0.0418572091
20299880.0 -0.0803634191 0.0535103164 0.6487665605 0.024181697 0.648886025 0.0245966818 -0.0807780238 0.0529559896
25299850.0 -0.0701978747 0.0621562055 0.6582798345 0.0262665598 0.6584068268 0.0257613129 -0.0715251946 0.0617612679
30299820.0 -0.060620997 0.0688938478 0.6679424343 0.024504702 0.6677031485 0.024634064 -0.0616829897 0.0682918094
35299790.0 -0.0504028736 0.0734106478 0.6770103295 0.0219574297 0.6774476884 0.0217341203 -0.0522066315 0.0736601358
40299760.0 -0.0411265815 0.0762934315 0.6869720732 0.0179747533 0.6873508917 0.0176877697 -0.042462042 0.0768330227
45299730.0 -0.0319753543 0.078404979 0.6956094401 0.0127086493 0.6958900528 0.0123748444 -0.0330711364 0.0792294832
50299700.0 -0.0228371994 0.0789139216 0.7039006965 0.0050714477 0.703827763 0.00496246 -0.0245022646 0.0803918256
55299670.0 -0.0152325445 0.0787366876 0.7111628156 -0.0022068812 0.7112020107 -0.0023554358 -0.0173044637 0.0803028675
60299640.0 -0.0075967784 0.0785629781 0.7180024659 -0.0110244861 0.7179335672 -0.0108761997 -0.0095180674 0.079573752
65299610.0 -0.0011615405 0.076925158 0.7243481158 -0.0197296317 0.7241288997 -0.019900798 -0.0023221169 0.0787755794
70299580.0 0.005402583 0.0750824741 0.729339998 -0.0286699493 0.7289292639 -0.0294282158 0.0030913629 0.0769643468
75299550.0 0.0105493411 0.0733101898 0.7336540069 -0.0392375397 0.7333532336 -0.0389228747 0.0087009557 0.075213314
80299520.0 0.0156229594 0.0714334867 0.737341367 -0.0485387538 0.7380497993 -0.0489588516 0.0139227323 0.073297266
85299490.0 0.0201448557 0.0690173374 0.7412084761 -0.0586051321 0.7409850615 -0.058549264 0.0179969282 0.0709222252
90299460.0 0.0241521995 0.0665906854 0.7432223102 -0.0686875803 0.7433673065 -0.0682792948 0.0225830288 0.0693374606
95299430.0 0.0280197749 0.0641504085 0.7461231736 -0.0786673578 0.7461369449 -0.078661887 0.0257571188 0.0667387446
100299400.0 0.0315250143 0.0615380472 0.747508975 -0.0888323001 0.747881155 -0.0890228489 0.0292984161 0.0646864385
105299370.0 0.0343096143 0.0591122953 0.7490812677 -0.0987981452 0.7498349833 -0.0990041968 0.0326533519 0.0618924511
110299340.0 0.0375296797 0.056439624 0.7502731517 -0.1088424311 0.7509888125 -0.1085829816 0.0349057981 0.059290239
115299310.0 0.0396063038 0.0544776613 0.7515760164 -0.1184900527 0.7513708308 -0.1185476158 0.0377390003 0.0576433517
120299280.0 0.0417967235 0.0519699584 0.7521142273 -0.1295764003 0.752021587 -0.1291156145 0.0397535141 0.054605175
125299250.0 0.0437995754 0.0497205353 0.7521633954 -0.1385929889 0.7525267412 -0.1385196225 0.0421183686 0.0528841567
130299220.0 0.0459477793 0.0469678187 0.7523237038 -0.1492839695 0.7520132338 -0.1495757513 0.0438554326 0.0511537823
135299190.0 0.0470293324 0.0452417241 0.7519567541 -0.1584164931 0.7523016415 -0.1587354775 0.0457168767 0.0477880129
140299160.0 0.049073899 0.0431424807 0.7515197752 -0.1690801794 0.751219621 -0.1684417118 0.0464339192 0.0455873722
145299130.0 0.04927487 0.0411414986 0.7504900977 -0.1782126175 0.7502642296 -0.1778418946 0.0480216735 0.0439285148
150299100.0 0.0508783603 0.0390981805 0.7490784664 -0.1879721637 0.7494283569 -0.1875096924 0.0490600115 0.042113237
155299070.0 0.0525610167 0.0370380529 0.7480358447 -0.1977960361 0.7487951692 -0.1979108188 0.0507311322 0.0396310392
160299040.0 0.0533441439 0.0355660317 0.7469784742 -0.2065458907 0.7465853265 -0.2069096003 0.0510784225 0.0380982951
165299010.0 0.0544583613 0.0333645729 0.745344246 -0.2162999179 0.7452349836 -0.2166824548 0.0523735468 0.0358780718
170298980.0 0.0551047187 0.031896655 0.7432442128 -0.2258597661 0.7435963142 -0.2259814056 0.0527604659 0.034145967
175298950.0 0.055978486 0.0303044005 0.7417425923 -0.2352753313 0.7419977448 -0.2356591145 0.0536499598 0.0326111054
180298920.0 0.0563758082 0.028900096 0.7398009669 -0.2449252065 0.7394281327 -0.2449309896 0.0542144918 0.030856537
185298890.0 0.056827677 0.0271882267 0.7379385125 -0.2537024199 0.7374877669 -0.2533349697 0.0550742282 0.0293244986
190298860.0 0.0578018326 0.02569342 0.7343307651 -0.262810505 0.7350977237 -0.2621251608 0.055207526 0.0272809052
195298830.0 0.0577490497 0.0242489478 0.7324329434 -0.271403389 0.7330847451 -0.2715875466 0.055608177 0.0263024339
200298800.0 0.0586297428 0.0223072844 0.7301197233 -0.281425941 0.7298444771 -0.2809806568 0.0564072581 0.0240964135
205298770.0 0.0584161593 0.0207630665 0.7267130887 -0.2894594881 0.7269749027 -0.2889518418 0.056872234 0.0229178022
210298740.0 0.0590378519 0.0199061537 0.7243342245 -0.2978058698 0.7237989608 -0.2984422286 0.0568464598 0.020859123
215298710.0 0.0593984878 0.0187297235 0.7207333845 -0.3069290918 0.7205781087 -0.3069401861 0.0572179836 0.0200311881
220298680.0 0.0597509112 0.0176933791 0.7174309381 -0.3156508159 0.7175810409 -0.3156505381 0.0576217921 0.018281764
225298650.0 0.0597558405 0.0161484092 0.7140403905 -0.3239105038 0.714248777 -0.3238390011 0.0574874797 0.0164369518
230298620.0 0.0602869538 0.0149637508 0.7116233828 -0.3330165922 0.7116393269 -0.3329514569 0.0575070657 0.0152502796
235298590.0 0.0599048977 0.0138514792 0.7079020493 -0.3420042572 0.7079083324 -0.3415209544 0.0577208784 0.0142273094
240298560.0 0.0605458991 0.0126627075 0.7039145573 -0.3490404556 0.7038142406 -0.3492572222 0.0578634876 0.0129878576
245298530.0 0.0603650361 0.011493083 0.7005154285 -0.3580643741 0.7000024177 -0.3577891887 0.0579374467 0.0116718415
250298500.0 0.0600664774 0.0101678479 0.6968244901 -0.3660591329 0.6966253916 -0.3659547325 0.0580037367 0.0107566424
255298470.0 0.0604428073 0.0096050305 0.693172225 -0.3742623511 0.6936360302 -0.3742142793 0.0579548867 0.0099699575
260298440.0 0.0608438218 0.0083157493 0.6892299055 -0.3819011411 0.6889688889 -0.3821675729 0.0579553513 0.0079297553
265298410.0 0.0602352998 0.0074803238 0.6845941969 -0.3908669235 0.6845998388 -0.3909588886 0.0589385201 0.0068988531
270298380.0 0.0600855216 0.0061191635 0.6808898233 -0.3982002778 0.6804431816 -0.3978347331 0.0582510528 0.0061892155
275298350.0 0.0604581959 0.0056230288 0.6756099829 -0.4060445899 0.6756101195 -0.4058981062 0.0580304431 0.005032519
280298320.0 0.0597525736 0.0043689935 0.6717220297 -0.4137624321 0.6721304295 -0.4144450533 0.0585638283 0.0040410544
285298290.0 0.0600804102 0.0032567353 0.6675199998 -0.4223763234 0.6678189829 -0.4219038988 0.0581009189 0.0028728889
290298260.0 0.0598519596 0.0025318507 0.6632277023 -0.4295903671 0.663134112 -0.4294184265 0.0582009038 0.0017121152
295298230.0 0.0599380373 0.0010955025 0.6585042195 -0.4376096655 0.6588348857 -0.4378010998 0.0579508726 0.0004697114
300298200.0 0.0602009542 0.0008763417 0.6540197547 -0.4450631121 0.6540229701 -0.4449637685 0.057787391 -0.0006114682
305298170.0 0.0602253142 -0.00086999 0.6491228645 -0.4529697659 0.6494573114 -0.4532963233 0.0581965849 -0.0022155655
310298140.0 0.0603002814 -0.0013235509 0.6445282292 -0.4609477394 0.6442430943 -0.459920761 0.0581156588 -0.003415362
315298110.0 0.0597214459 -0.0028522718 0.6396213964 -0.4683382793 0.6389881673 -0.4684818181 0.0577915305 -0.0043717103
320298080.0 0.0595220614 -0.0039557285 0.633162287 -0.4764224962 0.6339227997 -0.4756609444 0.0571167933 -0.005612624
325298050.0 0.0585748682 -0.0053726322 0.6280198641 -0.4830768979 0.6288146265 -0.4831703954 0.0571278503 -0.0065673764
330298020.0 0.0575128833 -0.0058596887 0.6224549756 -0.4908502262 0.6235243262 -0.4907574903 0.0561506672 -0.0079596476
335297990.0 0.0576954271 -0.0066166657 0.617204196 -0.4974781359 0.6173464437 -0.4975059605 0.0556681601 -0.0087200311
340297960.0 0.0569333528 -0.0075323281 0.6113094576 -0.5049228621 0.6106676613 -0.5048347721 0.0553906476 -0.009055302
345297930.0 0.0564178789 -0.0085422854 0.6057554523 -0.5115846016 0.6051937171 -0.5116061112 0.0553511848 -0.0104274953
350297900.0 0.0557228625 -0.0091493735 0.6003413185 -0.5178435774 0.6001878387 -0.5182372354 0.0546980721 -0.0112632774
355297870.0 0.0557666923 -0.0098519675 0.594244804 -0.5245659715 0.5945669113 -0.5246425258 0.0546235887 -0.0117071627
360297840.0 0.0552350375 -0.0102850446 0.5879708455 -0.5314809398 0.5883053342 -0.5314039094 0.0533305272 -0.012268868
365297810.0 0.0544634722 -0.0110192019 0.5821011699 -0.5378923967 0.5821807066 -0.5383165829 0.053144911 -0.0132960359
370297780.0 0.0548657008 -0.0114123129 0.5763020909 -0.5446593456 0.5766741558 -0.5446106542 0.052785767 -0.013853479
375297750.0 0.0543709346 -0.0123361472 0.5704494405 -0.5507499539 0.5704842568 -0.5509745569 0.052784345 -0.0147624521
380297720.0 0.053382354 -0.0127442131 0.5652922088 -0.5580255517 0.5642820829 -0.5574323273 0.0523689791 -0.0146852222
385297690.0 0.0529655826 -0.0137388863 0.5577604284 -0.5632306718 0.5582204539 -0.564032358 0.0522784355 -0.0155400845
390297660.0 0.0530899621 -0.0143655997 0.5514829943 -0.5687988461 0.5526358249 -0.5698428367 0.0519002417 -0.0163789381
395297630.0 0.0530369903 -0.0148682593 0.5455581125 -0.575641741 0.5454497693 -0.5754392953 0.0514173259 -0.0169940637
400297600.0 0.0521825865 -0.0159053127 0.5391697992 -0.5820804755 0.540119561 -0.5816713052 0.0514190447 -0.0170662742
405297570.0 0.0520165685 -0.016609691 0.5334864212 -0.5877661382 0.5334344715 -0.5878706729 0.0508878117 -0.01782372
410297540.0 0.0515400714 -0.0165480245 0.5264277247 -0.5940426155 0.5266908519 -0.5938860409 0.0506197693 -0.0187677193
415297510.0 0.0510550966 -0.0174321967 0.52009077 -0.5997704093 0.5206324235 -0.5996702191 0.0504690512 -0.0190590646
420297480.0 0.0506111628 -0.0185156523 0.5138092486 -0.6050478766 0.5140271508 -0.6054777019 0.0502391526 -0.0193666797
425297450.0 0.0508621676 -0.0189938623 0.5071770853 -0.610914837 0.5068219417 -0.6110241919 0.0498762965 -0.0205216591
430297420.0 0.0498212931 -0.0192949012 0.5006009903 -0.6170865698 0.5009118554 -0.6162679037 0.0499245064 -0.0209010089
435297390.0 0.0499227047 -0.0202677338 0.4931662509 -0.6231770397 0.4934083002 -0.6224111749 0.0487758242 -0.0208992878
440297360.0 0.0495813313 -0.0211019221 0.4862604314 -0.6278459826 0.486367356 -0.6277568289 0.0485839475 -0.0218273646
445297330.0 0.0492858803 -0.0220163419 0.4796623216 -0.632694664 0.4794782594 -0.6332285208 0.0481333639 -0.021936819
450297300.0 0.04887142 -0.022067119 0.4729414606 -0.6382655456 0.4728562293 -0.6379589245 0.048109463 -0.0224240987
455297270.0 0.0479973262 -0.023004489 0.465911742 -0.6433354704 0.4659900722 -0.6437756854 0.0477388403 -0.0232283356
460297240.0 0.0480605402 -0.0232911731 0.4591777003 -0.6494006521 0.4583350245 -0.6486997368 0.0472923582 -0.0240608486
465297210.0 0.0476495118 -0.0239871507 0.4509557757 -0.6537132045 0.4508698633 -0.6540016889 0.0473414043 -0.0238389427
470297180.0 0.0471013175 -0.0248485863 0.4440246468 -0.6586019328 0.4448645121 -0.6584579616 0.0470790513 -0.0252382724
475297150.0 0.0465062333 -0.0250200737 0.4368128604 -0.6635688831 0.4371387521 -0.6641715085 0.0466525762 -0.0255533363
480297120.0 0.0467322834 -0.0250737461 0.4295374724 -0.6679793639 0.4298347873 -0.6681303478 0.0459908274 -0.0259996888
485297090.0 0.0461308946 -0.0268221113 0.4217235891 -0.6735325316 0.4222735802 -0.6728344056 0.045725128 -0.0262130561
490297060.0 0.0464212938 -0.0268723 0.4142493469 -0.6777751432 0.4151993687 -0.6781346342 0.0451619168 -0.0269432907
495297030.0 0.0452214757 -0.0278941293 0.4077150355 -0.6826825144 0.4073261544 -0.682307503 0.0455936269 -0.0276159226
500297000.0 0.0445880507 -0.0279080066 0.4002942934 -0.6863416223 0.3998463411 -0.6869386697 0.044807156 -0.0274923797
505296970.0 0.0449641315 -0.0283859042 0.3927640389 -0.6916222747 0.3927077077 -0.6911763464 0.0445353871 -0.0289100076
510296940.0 0.0443355358 -0.0292287429 0.3850022315 -0.6965343711 0.3852405047 -0.6964373616 0.0442134834 -0.0288617075
515296910.0 0.0437301879 -0.0290193915 0.3764889137 -0.7001160368 0.3765968277 -0.6995744566 0.0436601225 -0.0303593661
520296880.0 0.043387327 -0.0295174274 0.3692661428 -0.7038902762 0.3693111931 -0.7036322718 0.0435766963 -0.029673975
525296850.0 0.0431973892 -0.0305133396 0.3615593075 -0.7081445432 0.3613795144 -0.7080248611 0.0435456656 -0.0303503943
530296820.0 0.0425560149 -0.0309983464 0.3538341699 -0.7118831611 0.3540402521 -0.7119735125 0.0433255725 -0.0313293492
535296790.0 0.0428080878 -0.0312848548 0.3460891757 -0.7151928333 0.3461032978 -0.715667741 0.0430685975 -0.0312595123
540296760.0 0.0420734557 -0.0313393034 0.3378512443 -0.7193494059 0.3378811479 -0.7193323025 0.0421711135 -0.0324278619
545296730.0 0.0408266188 -0.0319575336 0.3299813671 -0.72301672 0.3302392895 -0.723293884 0.0420713783 -0.0325501074
550296700.0 0.0417568135 -0.0323478569 0.3225613541 -0.7270636059 0.3222745693 -0.7271140634 0.0416720938 -0.0329348289
555296670.0 0.0407029952 -0.0329239855 0.3142897984 -0.7304077304 0.314960324 -0.7307039801 0.0408959733 -0.033756965
560296640.0 0.0412447024 -0.0332796308 0.3068715253 -0.7337294928 0.3067956218 -0.7338253311 0.0404402986 -0.0336783807
565296610.0 0.0397346585 -0.0335322085 0.2989315131 -0.7373023067 0.2990136278 -0.7365589981 0.0404192481 -0.0342248264
570296580.0 0.0393974717 -0.0334626291 0.2901192638 -0.7404772727 0.2904115683 -0.7403643054 0.0397799719 -0.0348386394
575296550.0 0.0390982515 -0.0343350927 0.2824994364 -0.7433225851 0.2825238822 -0.7435614328 0.0391263621 -0.0352765928
580296520.0 0.0388981878 -0.0341339831 0.2744984545 -0.74651351 0.2739764284 -0.7463008396 0.0386291537 -0.0357745506
585296490.0 0.0383790261 -0.0346867846 0.2665457643 -0.7498644626 0.2661038556 -0.7489638136 0.0385763014 -0.0358512251
590296460.0 0.0386758965 -0.0349560498 0.2582215304 -0.7524869593 0.257863767 -0.7527945652 0.0377301567 -0.0362886904
595296430.0 0.0377707978 -0.0354517958 0.2486350529 -0.7555847278 0.2492005898 -0.7552581365 0.0372820861 -0.0368249881
600296400.0 0.0377364924 -0.0355715303 0.2407981855 -0.7578719196 0.2410981164 -0.7578734166 0.0369722919 -0.0370466203
605296370.0 0.0362231451 -0.0359284792 0.2335014922 -0.7601535035 0.2327299601 -0.7605529316 0.0364336542 -0.0374276628
610296340.0 0.0366067095 -0.0358436832 0.2240215452 -0.7620516499 0.2249225058 -0.7624832502 0.0357159219 -0.0377241141
615296310.0 0.0361781349 -0.0362988492 0.2165617055 -0.7654478749 0.2159551792 -0.7655334216 0.0354000717 -0.0376716539
620296280.0 0.0351579586 -0.03610952 0.2076160103 -0.7675887668 0.207570595 -0.7673904146 0.0341855654 -0.0379573346
625296250.0 0.0346128493 -0.0367226262 0.199584741 -0.7700727554 0.199604279 -0.7701067752 0.0335251767 -0.038889196
630296220.0 0.0343251733 -0.0367776135 0.1907202696 -0.772109759 0.1911284719 -0.771883413 0.0336258017 -0.038915169
635296190.0 0.033451669 -0.0366551131 0.1824499076 -0.7737997279 0.1825536391 -0.7735200803 0.0330359774 -0.0390997009
640296160.0 0.0329687633 -0.0371349575 0.1735935527 -0.7762646355 0.1741711732 -0.775826316 0.0318785488 -0.0396842562
645296130.0 0.0330489902 -0.0369049739 0.1652866913 -0.7775279294 0.1654811943 -0.7780236127 0.031486506 -0.0402919324
650296100.0 0.0323276184 -0.037215947 0.1574326298 -0.7791232079 0.1570729918 -0.7795945826 0.0319965745 -0.0403466693
655296070.0 0.0317246159 -0.0376200806 0.1481415808 -0.7814284485 0.1488174338 -0.7808443584 0.0304722611 -0.0403697136
660296040.0 0.0311748631 -0.0374443765 0.1402730739 -0.7825742467 0.1401244832 -0.7831276565 0.0297019419 -0.0412120336
665296010.0 0.0306824358 -0.037741849 0.1308536703 -0.7838484706 0.1312837755 -0.7841116268 0.0295890477 -0.0410610625
670295980.0 0.030319124 -0.0377269125 0.122982093 -0.7855617168 0.1228266869 -0.7848293517 0.028408179 -0.0415465458
675295950.0 0.0295774933 -0.0381843627 0.1140921649 -0.7864549565 0.1145231669 -0.7869858937 0.0278086769 -0.0412322849
680295920.0 0.0287270209 -0.0379534668 0.1054425079 -0.7874625065 0.1059305977 -0.787687431 0.0278404028 -0.0420396417
685295890.0 0.0287389158 -0.0378569322 0.0967672307 -0.7893472279 0.0974341067 -0.789137533 0.0271633887 -0.0416483102
690295860.0 0.027776706 -0.0383729846 0.0883527388 -0.7899422026 0.0882210008 -0.7901838315 0.0262773565 -0.0423758781
695295830.0 0.0273875425 -0.0382711213 0.0801389854 -0.7914965541 0.0803570791 -0.7909447411 0.0254498536 -0.0423418033
700295800.0 0.0270683941 -0.0380987585 0.0717149987 -0.791489263 0.0712734744 -0.7917907384 0.0249484337 -0.0422706219
705295770.0 0.0259337541 -0.0383320466 0.0626151717 -0.7933008256 0.0628711065 -0.7922627581 0.0244302982 -0.042447279
710295740.0 0.02574015 -0.0386509831 0.0541412034 -0.7938063801 0.0540053106 -0.7934870466 0.0241397755 -0.0423544618
715295710.0 0.0247713014 -0.0383271016 0.0454906259 -0.7939385004 0.0457178435 -0.7941616133 0.0231507688 -0.0428511025
720295680.0 0.0248364762 -0.0384001498 0.03667511 -0.7936371165 0.0366700662 -0.7946462627 0.0224095523 -0.0427064583
725295650.0 0.0231976356 -0.0381318423 0.0285087309 -0.7941244157 0.028171158 -0.7945822151 0.0215814864 -0.0421620464
730295620.0 0.0223536015 -0.038792183 0.0194006734 -0.7944121934 0.0199975616 -0.793726055 0.0210346063 -0.0421395038
735295590.0 0.0228076106 -0.0384811216 0.0106220837 -0.7951476121 0.0113078866 -0.7945093388 0.0201387692 -0.0430660298
740295560.0 0.0218412547 -0.0386245391 0.0023087268 -0.7949533634 0.002229662 -0.7954597684 0.01911583 -0.0426482497
745295530.0 0.0208314883 -0.0385030501 -0.0057783191 -0.7936586279 -0.0054200616 -0.7945840789 0.0178089933 -0.0429326945
750295500.0 0.020166467 -0.0383194667 -0.0144221237 -0.7945752304 -0.0153531396 -0.7944162502 0.0177396882 -0.0425865952
755295470.0 0.019473796 -0.0388063643 -0.023166555 -0.7948082481 -0.0228659235 -0.7948138992 0.0177675433 -0.0422329352
760295440.0 0.0187898407 -0.0377429933 -0.0329041904 -0.7937232291 -0.0318044615 -0.7937138969 0.0169700663 -0.0438177931
765295410.0 0.0189876875 -0.0386494996 -0.0413435323 -0.7938367917 -0.0400438116 -0.7936980412 0.0162809589 -0.0429289958
770295380.0 0.0180863117 -0.0381093059 -0.048846821 -0.7928980953 -0.0489415574 -0.7936282869 0.0151278894 -0.0427702715
775295350.0 0.0171768703 -0.0385531358 -0.0578420741 -0.793020145 -0.0572852285 -0.7919502559 0.0151429583 -0.0425174554
780295320.0 0.0163390177 -0.0380237226 -0.0667996293 -0.7913224096 -0.0659901747 -0.7918377993 0.0147926465 -0.0427088633
785295290.0 0.0155864361 -0.038352586 -0.0750498422 -0.7911455822 -0.0748313867 -0.7912309902 0.0130363468 -0.0420910935
790295260.0 0.0155066601 -0.0386317492 -0.0830222575 -0.7907788181 -0.0829046117 -0.7901192389 0.0125201132 -0.041742835
795295230.0 0.0147340896 -0.0386931832 -0.0917463925 -0.790110029 -0.0919175837 -0.7894303657 0.0121574082 -0.0431460353
800295200.0 0.0133644312 -0.0379149983 -0.0997319237 -0.7877097049 -0.1007365962 -0.788230553 0.0112614148 -0.0420132284
805295170.0 0.0128605331 -0.0382624349 -0.1090495349 -0.7866685769 -0.1084406846 -0.7869140308 0.0114069371 -0.0422132923
810295140.0 0.01268707 -0.0381485194 -0.1178940892 -0.7853829944 -0.1178441554 -0.7853540146 0.010419677 -0.0421026805
815295110.0 0.0118993015 -0.0376613815 -0.1263513527 -0.7845551178 -0.1257187656 -0.784562151 0.009601543 -0.0420632874
820295080.0 0.01147732 -0.0377018333 -0.1337709438 -0.7825956083 -0.1340633972 -0.7831875312 0.0079635475 -0.0412341705
825295050.0 0.0104331626 -0.0378333801 -0.142901615 -0.7813767576 -0.1429386606 -0.7810983259 0.0088158533 -0.0412439003
830295020.0 0.0097666838 -0.0378445487 -0.1513362978 -0.7797422613 -0.1514580775 -0.7797425552 0.0078361298 -0.0417198919
