!Created with skrf (http://scikit-rf.org).
# Hz S RI R 50.0 
!freq ReS11 ImS11 ReS21 ImS21 ReS12 ImS12 ReS22 ImS22
300000.0 -0.0474980849 -0.0722655663 -0.0002837173 -0.0007379633 -0.0003147004 -0.0007252706 -0.7662633629 -0.1868253709
5299970.0 -0.0501653097 0.0140397325 6.87032e-05 -0.0003304419 6.22511e-05 -3.3859e-06 -0.7850518339 -0.0091805991
10299940.0 -0.044538223 0.0327134635 6.57747e-05 -7.5338e-06 -3.009e-05 9.82749e-05 -0.7877863958 -0.0056373717
15299910.0 -0.0357426398 0.0474569963 0.0001222422 2.91079e-05 0.0001422702 4.48138e-05 -0.792951003 -0.0027513215
20299880.0 -0.0258834297 0.0592625645 -1.86325e-05 5.84327e-05 -5.96135e-05 4.65104e-05 -0.799917435 0.001833389
25299850.0 -0.0142859184 0.0686035551 7.03143e-05 0.0001748916 0.0001027728 9.42554e-05 -0.806313054 0.0079138287
30299820.0 -0.0030169381 0.075500247 -0.0001576421 0.0001900945 0.0001881304 -3.73916e-05 -0.8121783479 0.015940441
35299790.0 0.0090169448 0.0799785316 -1.38409e-05 -6.3028e-06 0.0001453833 -1.09459e-05 -0.8169437055 0.0247510836
40299760.0 0.0206810322 0.0827027277 -2.82684e-05 0.000136245 -0.0001005494 -2.45751e-05 -0.8213080662 0.0340734617
45299730.0 0.0312033027 0.0837997391 5.28112e-05 3.85222e-05 -0.00016479 0.000133407 -0.8238920963 0.043821779
50299700.0 0.0415770712 0.083711441 6.43273e-05 0.0002872077 0.0001308011 4.62627e-05 -0.8268158668 0.0535634961
55299670.0 0.0510850675 0.0826779422 0.0001173045 -8.51202e-05 -0.0001918961 -4.27553e-05 -0.8288642632 0.0636611149
60299640.0 0.0596409525 0.0807148906 -4.96363e-05 -3.277e-07 -8.35909e-05 0.0001456484 -0.8299756189 0.074076598
65299610.0 0.0678347927 0.0784151419 -0.0001005941 0.0001145531 0.0001916856 -0.0001436227 -0.8309604353 0.0837886869
70299580.0 0.0742822885 0.0748634949 8.7008e-05 9.30464e-05 0.0001674495 -1.7471e-06 -0.8311367028 0.0933798609
75299550.0 0.0811496716 0.0717499735 -7.22464e-05 -5.59996e-05 9.8995e-06 0.0001544981 -0.8309915077 0.1039864208
80299520.0 0.086627626 0.0678606617 7.52483e-05 0.0003092885 4.88995e-05 8.95761e-05 -0.8311907476 0.1137761568
85299490.0 0.0918050748 0.0638736568 -0.0001097638 -2.97338e-05 4.94125e-05 -0.0001682427 -0.8302282193 0.1233396532
90299460.0 0.0970271214 0.0599302975 0.0001152805 0.0002145945 3.9991e-06 -0.0001631781 -0.8289475287 0.1326259828
95299430.0 0.1007416812 0.0561340111 -0.0001460133 -1.18279e-05 -4.2964e-05 0.0001166045 -0.828224205 0.1423033879
100299400.0 0.1044612177 0.0519880859 4.1911e-05 0.0001986536 0.0002003384 2.64982e-05 -0.8271993618 0.1519002443
105299370.0 0.1080176594 0.0478132842 6.71011e-05 -0.000170116 -6.6848e-06 5.45009e-05 -0.8259489237 0.1608626735
110299340.0 0.1108503507 0.0437304819 -7.49e-08 -0.0001736798 -3.8396e-06 3.0609e-06 -0.8248458831 0.1697689461
115299310.0 0.1131046449 0.0399773309 9.1351e-06 0.0001519786 -4.89239e-05 -1.5189e-05 -0.8236867174 0.1793051647
120299280.0 0.115632381 0.0360371287 0.0003111237 0.000140745 -0.0001230601 0.0002709452 -0.8208356639 0.1876293615
125299250.0 0.1175706982 0.0316475609 0.0001624546 -0.0001168999 -6.24434e-05 6.86779e-05 -0.8195255883 0.1972417847
130299220.0 0.1192621333 0.0281256779 0.0001042072 0.0001415038 4.70424e-05 0.0001318418 -0.8179640016 0.2056652232
135299190.0 0.1208499356 0.0245642831 -4.80299e-05 0.0001536173 -8.4504e-06 0.0001284487 -0.8161256894 0.2151994618
140299160.0 0.1223080984 0.0208942142 0.0001272508 -0.000104829 2.00787e-05 -9.58927e-05 -0.8141194786 0.2233804061
145299130.0 0.1233952074 0.0173926258 -1.56714e-05 -1.74024e-05 -6.19482e-05 6.34481e-05 -0.8119742844 0.2322552167
150299100.0 0.1242990085 0.0137903626 4.47847e-05 9.6686e-06 1.29691e-05 4.67154e-05 -0.8100722356 0.2413352474
155299070.0 0.1248679533 0.0107822773 -7.99667e-05 0.0001401452 7.3179e-05 -0.0001243264 -0.8072129024 0.2505602876
160299040.0 0.1255319848 0.0069985874 -0.0003166034 0.0001238769 5.4278e-06 -0.0001317748 -0.8047817308 0.2589420204
165299010.0 0.1262045212 0.0040413814 -3.86028e-05 0.0001020634 -0.0001668829 -0.0002020362 -0.8017828916 0.2673929763
170298980.0 0.1266715773 0.0005743083 9.05125e-05 0.0001309659 -3.38079e-05 9.87489e-05 -0.7999209473 0.2755333566
175298950.0 0.1266634173 -0.0023932206 -8.93162e-05 6.43141e-05 5.62332e-05 -2.95505e-05 -0.79646496 0.28498645
180298920.0 0.1269570446 -0.0053539059 0.0001667594 8.40928e-05 2.83408e-05 4.92785e-05 -0.7934570596 0.2933186549
185298890.0 0.1268838237 -0.0082079983 -0.0001023798 0.0001744345 4.51356e-05 0.0001009734 -0.7905774164 0.3016460156
190298860.0 0.1271120817 -0.0110505711 0.0001323252 0.0001411764 -0.0001517668 -3.50658e-05 -0.7873470393 0.3099408901
195298830.0 0.1270262863 -0.0137147314 -6.19786e-05 -0.0001081963 0.0001018272 2.09678e-05 -0.7842138916 0.3182869318
200298800.0 0.1271020561 -0.0166231152 -8.268e-05 -1.41063e-05 3.78123e-05 4.17795e-05 -0.7808379286 0.3265164318
205298770.0 0.1260788333 -0.0192961637 -1.1822e-06 0.0001252171 2.21425e-05 2.7462e-06 -0.77811205 0.3351510527
210298740.0 0.1260515106 -0.0217163062 -0.0001057348 0.000107319 0.00011593 -2.61875e-05 -0.7741656665 0.3429047801
215298710.0 0.1254522824 -0.024282386 7.97482e-05 0.0001796597 0.0001084551 -2.17144e-05 -0.7706214761 0.3515779668
220298680.0 0.1255022155 -0.0267462046 0.0002572066 -2.26358e-05 0.0001517965 -0.0001678246 -0.7671778987 0.3595474835
225298650.0 0.1246645466 -0.0293637817 0.0001747972 -0.0002091786 4.2849e-06 -8.0362e-05 -0.7630594181 0.3678571005
230298620.0 0.1241591379 -0.0313940515 -4.31269e-05 4.18557e-05 0.0002189272 -2.3141e-06 -0.7588705765 0.3752748819
235298590.0 0.1235861709 -0.033850547 9.18638e-05 -2.91169e-05 0.0003311251 -6.24826e-05 -0.7550933979 0.3834496918
240298560.0 0.1225732306 -0.0363144726 0.0001108976 -0.0001323054 -7.52784e-05 0.0001660756 -0.7512812448 0.3908352603
245298530.0 0.121944692 -0.0384394809 2.96475e-05 0.0002329363 -2.28902e-05 -0.000230194 -0.7476088917 0.3989510073
250298500.0 0.1213377578 -0.0405396904 -0.0001321911 9.01142e-05 -0.0001816969 -4.97456e-05 -0.7432052218 0.4071260098
255298470.0 0.1202911412 -0.0425134179 5.55565e-05 -4.49835e-05 -7.2817e-05 -4.84762e-05 -0.7391993189 0.4148264697
260298440.0 0.1196046033 -0.0451028999 0.000142667 -1.8863e-06 6.44096e-05 6.893e-07 -0.734214156 0.4218226619
265298410.0 0.1187517819 -0.0469352874 -7.69873e-05 2.1644e-05 3.23739e-05 0.0001095371 -0.730324592 0.4301029311
270298380.0 0.1179144609 -0.0488891428 9.35033e-05 -1.14153e-05 3.71813e-05 -0.0002312744 -0.7253954554 0.4379427258
275298350.0 0.1170755632 -0.050681575 -7.71113e-05 9.5328e-06 0.0001933844 0.0002523922 -0.7205961807 0.4455910186
280298320.0 0.1160556694 -0.0527821274 -1.80107e-05 2.42738e-05 0.0001220174 -9.32764e-05 -0.7165509858 0.452395277
285298290.0 0.1150565656 -0.0544644629 -0.0001016136 1.42927e-05 6.43824e-05 -1.4442e-06 -0.7119074457 0.4603938618
290298260.0 0.1137649245 -0.0563742302 -1.26481e-05 0.000126728 3.54427e-05 -8.00312e-05 -0.7066466144 0.4674317595
295298230.0 0.1130243488 -0.0587486619 -8.61114e-05 2.55226e-05 0.0001324004 0.0001501151 -0.7018749787 0.4748745545
300298200.0 0.111800156 -0.0601780044 7.13257e-05 -1.42889e-05 -9.61607e-05 1.05228e-05 -0.6966495134 0.4821871
305298170.0 0.1109051929 -0.0624020077 6.29348e-05 6.17402e-05 0.0003661374 -0.0001250349 -0.6916147085 0.4889783833
310298140.0 0.109756922 -0.0646864709 7.77853e-05 0.0001042999 0.0001020635 6.85089e-05 -0.6869763268 0.4968711556
315298110.0 0.1083944863 -0.0664902651 0.0001021836 6.31722e-05 0.0002372781 7.28472e-05 -0.6813434405 0.5039233138
320298080.0 0.1069217949 -0.0683626547 0.0001876453 0.000210153 6.99538e-05 -7.53031e-05 -0.6767579533 0.5105261354
325298050.0 0.1054102586 -0.0704475842 7.45545e-05 0.0002614989 0.0001650263 2.79892e-05 -0.6700205241 0.5177908873
330298020.0 0.1036768017 -0.0713247354 0.0002321162 7.74807e-05 -4.3094e-06 -3.1555e-06 -0.6652600198 0.5239891343
335297990.0 0.1024664301 -0.0729531447 9.9518e-06 3.5108e-06 1.46287e-05 -3.2976e-06 -0.6596638527 0.5317634427
340297960.0 0.1006856772 -0.0744739294 0.0001811416 5.74212e-05 6.5709e-05 3.04192e-05 -0.6540162946 0.5382878329
345297930.0 0.099589893 -0.0758508044 -9.087e-07 8.47518e-05 0.0001342335 -8.19256e-05 -0.6487685095 0.544955028
350297900.0 0.098016514 -0.0773589917 -3.7469e-05 0.0001954539 0.0001989272 5.4642e-06 -0.6430743381 0.5513545607
355297870.0 0.0968012271 -0.0787343801 -1.84601e-05 -0.0001137718 0.0001256247 -0.0001303356 -0.6368710758 0.5589590263
360297840.0 0.0953115868 -0.0801246875 0.0002175564 0.0001659651 5.03729e-05 8.73742e-05 -0.6306287977 0.5654890127
365297810.0 0.0941433716 -0.0814363535 0.0001257984 -1.1925e-06 4.6159e-05 0.0002399514 -0.6258324261 0.5710654586
370297780.0 0.0926250994 -0.0826877269 0.0001097563 0.0002184903 7.7363e-05 -0.000152007 -0.6190635466 0.5777310164
375297750.0 0.0910650433 -0.0841926493 8.36825e-05 7.12583e-05 0.0001005894 -7.25903e-05 -0.6132399461 0.5839047586
380297720.0 0.0896680959 -0.0851216454 0.0002342605 -9.82225e-05 0.0002283915 0.0001424521 -0.607185651 0.5899144959
385297690.0 0.0882872142 -0.0868186555 0.0002494811 -1.01723e-05 0.0002108711 -8.17104e-05 -0.6014562533 0.5960566691
390297660.0 0.0869893363 -0.0882400598 8.32471e-05 4.29277e-05 0.000166987 9.94634e-05 -0.5945410815 0.6021267643
395297630.0 0.0855287574 -0.0893532401 -0.0001480681 9.71218e-05 0.000165632 0.0001372366 -0.5882316767 0.6078317743
400297600.0 0.0837019594 -0.0904204087 8.19086e-05 6.0632e-06 0.0001630026 9.50427e-05 -0.5820761194 0.6142005941
405297570.0 0.0819777997 -0.0920581935 0.0001395427 0.0001729805 6.21587e-05 -2.76414e-05 -0.5753592772 0.6201189449
410297540.0 0.0813092481 -0.0928477117 0.0001339326 -2.86128e-05 -1.93461e-05 8.90083e-05 -0.5695747064 0.6263279547
415297510.0 0.0792617554 -0.0940551093 0.0001741094 -0.0001705563 6.30336e-05 7.33173e-05 -0.5625448878 0.6313618074
420297480.0 0.0778256275 -0.0955215123 4.68537e-05 0.000149059 0.0001346325 2.017e-07 -0.5564398283 0.638023408
425297450.0 0.0765440973 -0.0964178391 6.2367e-06 3.69865e-05 0.0001904883 4.2753e-06 -0.5496914583 0.6425767243
430297420.0 0.0749619503 -0.0975363271 0.0001475986 3.86433e-05 1.2587e-06 9.72495e-05 -0.5431021165 0.6483195363
435297390.0 0.0732904147 -0.098507503 9.06418e-05 -4.8052e-05 0.0001726221 -6.8585e-06 -0.5367980794 0.6544734311
440297360.0 0.0717549368 -0.0994071435 0.0001749245 0.0001368049 -0.0001874762 -6.43845e-05 -0.5303308799 0.6595192259
445297330.0 0.0704846104 -0.1008329561 0.0002213286 -6.8821e-05 0.0001284245 6.48464e-05 -0.5231502505 0.665224329
450297300.0 0.0689134825 -0.1017544247 0.0001139451 2.47105e-05 -4.79034e-05 5.78773e-05 -0.5155566353 0.6698464095
455297270.0 0.067173188 -0.102390816 0.0001005836 2.14029e-05 0.0001302411 -0.0001142347 -0.5091217931 0.6753042781
460297240.0 0.0660249351 -0.1035607679 0.0002130683 -2.56879e-05 -3.48143e-05 6.10394e-05 -0.502682434 0.6798537816
465297210.0 0.0642215585 -0.1042320214 5.1088e-05 0.0001393879 9.39369e-05 -4.86098e-05 -0.4948533076 0.6855876954
470297180.0 0.0626435625 -0.1050148704 -5.56062e-05 -0.0001215327 -1.6752e-06 0.0001279315 -0.4880671762 0.6901327838
475297150.0 0.0609874106 -0.1058720984 1.90887e-05 -0.000223902 0.0001546382 -6.94449e-05 -0.4812505001 0.6958400248
480297120.0 0.0597340306 -0.1068314866 0.0002016853 0.0002977323 4.72848e-05 0.000122021 -0.4742096047 0.6997135008
485297090.0 0.0580344708 -0.107655722 4.2758e-06 8.0722e-05 6.48161e-05 -0.000156331 -0.4674630744 0.7051885244
490297060.0 0.0570714213 -0.1086768657 7.71339e-05 0.0001572221 3.01538e-05 0.0002335462 -0.4595520685 0.7093712447
495297030.0 0.0550072716 -0.1092189232 0.0002708121 9.94357e-05 0.0001937725 -0.0001507871 -0.4526808597 0.7135344998
500297000.0 0.0533765638 -0.1097280091 0.0001219791 -0.0001487503 0.000137758 -2.26205e-05 -0.4451760714 0.7185816192
505296970.0 0.0520286941 -0.1106553938 0.0002192955 -5.35101e-05 0.0001850107 -7.56355e-05 -0.4376502279 0.7223444843
510296940.0 0.0503966476 -0.1110761647 0.0001776085 -4.76777e-05 0.0001592652 4.17885e-05 -0.4298900727 0.7275003017
515296910.0 0.0488668815 -0.111425996 4.0315e-06 3.4411e-05 -3.63368e-05 -0.0001048752 -0.4233251551 0.7309239553
520296880.0 0.0473721236 -0.112505677 0.0002350466 -0.0001960672 0.0002263355 2.59696e-05 -0.4154290885 0.7358712208
525296850.0 0.0456347036 -0.1131802582 -0.0001333961 -3.02177e-05 0.0001454588 0.000113515 -0.4082285453 0.7396546874
530296820.0 0.0440045424 -0.1136374851 -2.12173e-05 0.0001134104 -7.7286e-06 -4.9593e-06 -0.4003415154 0.7435168509
535296790.0 0.04271569 -0.1139825875 -8.5018e-06 -5.67552e-05 7.23959e-05 7.05029e-05 -0.3932701833 0.7479393627
540296760.0 0.0412690779 -0.1143266769 0.0001391129 2.03776e-05 0.0002499733 1.62414e-05 -0.385072878 0.7511205903
545296730.0 0.0394048455 -0.1146176872 2.28334e-05 3.16794e-05 0.0002475054 6.24421e-05 -0.3778181057 0.7554475018
550296700.0 0.0377318751 -0.1153799831 0.0001549164 -4.17175e-05 0.000147326 -7.35501e-05 -0.3698480064 0.7591184906
555296670.0 0.0362944775 -0.1154768084 0.0002101292 0.000212813 0.0001027154 0.0001152377 -0.3625388776 0.7622692024
560296640.0 0.0348772211 -0.1158887263 -6.28839e-05 -4.58035e-05 0.0002501079 -5.75674e-05 -0.3546628005 0.7661791404
565296610.0 0.0329458489 -0.1163086615 0.0001494092 -8.04747e-05 5.21669e-05 8.42839e-05 -0.3469360173 0.7696656956
570296580.0 0.0312572659 -0.1162621344 1.55555e-05 2.63339e-05 -4.9525e-06 0.000124684 -0.3390799157 0.7727419248
575296550.0 0.0297839811 -0.1170244616 8.33704e-05 6.38806e-05 8.96405e-05 2.79817e-05 -0.3309841998 0.7761962665
580296520.0 0.0282508829 -0.1166296606 0.0001778184 0.0001064736 0.0001474501 6.17816e-05 -0.3237341378 0.7799089081
585296490.0 0.0266856253 -0.1172299403 0.0001592738 0.0001375796 0.0002791323 1.15687e-05 -0.3150624182 0.7831229814
590296460.0 0.025205839 -0.1171089669 5.06986e-05 0.0001725761 0.0001063526 -4.51003e-05 -0.307673869 0.7860955093
595296430.0 0.0235103225 -0.1175501828 0.0002006253 0.000114043 9.32153e-05 0.000200694 -0.3000490885 0.7894054225
600296400.0 0.0217146535 -0.1176488544 0.0001628538 6.24823e-05 2.98482e-05 8.82777e-05 -0.292189787 0.7918521509
605296370.0 0.0199217387 -0.1173804406 -8.55717e-05 6.03248e-05 0.0001030295 9.7845e-05 -0.2839520384 0.795124678
610296340.0 0.0185777621 -0.1176534465 3.63757e-05 -6.28941e-05 9.94253e-05 -5.0781e-06 -0.2761792676 0.7976509093
615296310.0 0.0169307672 -0.1177932173 0.0001031696 7.43731e-05 6.26896e-05 -0.0001729084 -0.2677284863 0.8007198756
620296280.0 0.0153219541 -0.1173021656 0.0001454818 -7.64725e-05 0.0001177357 4.50963e-05 -0.260088087 0.8034415311
625296250.0 0.0134925792 -0.1176954773 0.0004061563 -0.0001234452 0.0001704004 2.50217e-05 -0.2516615863 0.8047864897
630296220.0 0.0120464514 -0.1173631613 0.0001620153 0.0001352872 0.0001774836 -1.91985e-05 -0.2435330484 0.8079622653
635296190.0 0.0102272228 -0.117288897 0.0001434971 -0.0001598093 0.000203901 6.45802e-05 -0.23554898 0.8101707075
640296160.0 0.0085578933 -0.1173215744 -3.81875e-05 1.79853e-05 0.0002426693 -0.0001153123 -0.2271880796 0.8126765205
645296130.0 0.0072943044 -0.1169718177 0.0001979868 0.0001779373 0.000353186 1.615e-07 -0.2196625837 0.8143856392
650296100.0 0.0055336224 -0.1170341472 0.0003319444 -4.79749e-05 0.0001621548 -8.60689e-05 -0.2111153613 0.816565875
655296070.0 0.0038863842 -0.1166699944 0.0002587343 0.0001113355 0.0001914653 1.26563e-05 -0.2033699333 0.8192087746
660296040.0 0.0020185187 -0.1163987673 0.0001266681 1.51522e-05 0.0003507838 8.3739e-05 -0.1942450819 0.8213355816
665296010.0 0.0004095227 -0.116092725 3.05868e-05 -3.9891e-05 -2.59148e-05 2.09101e-05 -0.1862474732 0.8222381163
670295980.0 -0.0013547592 -0.1160314293 0.0002770882 8.09616e-05 0.0001078878 0.000169837 -0.1784492255 0.8240774629
675295950.0 -0.0029659183 -0.1157417922 9.08694e-05 -7.0019e-05 1.09382e-05 5.4606e-05 -0.1695229623 0.8260464464
680295920.0 -0.0049620527 -0.1154270071 0.0001160472 -1.68444e-05 0.0003344216 6.60418e-05 -0.1610423074 0.8281504134
685295890.0 -0.0065109103 -0.1148331966 0.0002696169 -0.0003083589 6.63594e-05 -8.83616e-05 -0.1532262724 0.8293975171
690295860.0 -0.0079830162 -0.1145572112 -6.32458e-05 -0.0002377521 0.0002457222 -6.5087e-06 -0.145224238 0.8311927559
695295830.0 -0.0099781603 -0.1145006193 -6.8299e-06 -1.86382e-05 0.0001197672 -2.12262e-05 -0.1368206712 0.8334448428
700295800.0 -0.0113750348 -0.113697468 -6.18021e-05 -3.23679e-05 0.0002733958 0.0001195666 -0.1284667774 0.8335793377
705295770.0 -0.0131752411 -0.1132077633 0.0002327845 7.13789e-05 0.0001380879 -0.0001056297 -0.1204370225 0.8354144208
710295740.0 -0.0148975644 -0.1127833977 0.000166906 -2.20887e-05 0.0001013486 0.0001398099 -0.1120085225 0.8362715742
715295710.0 -0.0163324154 -0.1125763267 -6.37715e-05 -7.42978e-05 0.0001977148 -6.67589e-05 -0.1032414031 0.8368185433
720295680.0 -0.0179636084 -0.1122983219 7.7441e-05 -0.0001171766 -3.36597e-05 -0.0002159871 -0.0947424186 0.8379261585
725295650.0 -0.0196279735 -0.1114398975 0.0001679242 -2.05971e-05 0.0001498311 0.0001796389 -0.0870588208 0.8394129809
730295620.0 -0.0217808442 -0.1112264537 -3.64508e-05 6.2154e-05 0.0002864809 5.6682e-06 -0.0786125368 0.8399052851
735295590.0 -0.0229504119 -0.1104492581 0.000236906 -0.0002809113 0.0002540901 -4.23881e-05 -0.070270494 0.8406983579
740295560.0 -0.0249608361 -0.1101227791 3.39322e-05 -4.82285e-05 8.55864e-05 -5.65143e-05 -0.061383719 0.8416328094
745295530.0 -0.0265222492 -0.1094934504 0.0003740094 -8.14524e-05 0.0001053688 8.60794e-05 -0.0535895644 0.8418351243
750295500.0 -0.0283531264 -0.1086477115 8.67358e-05 -8.9116e-05 0.0002501569 5.13813e-05 -0.0444347815 0.8419585601
755295470.0 -0.0299878276 -0.1081215439 0.000355775 -3.26077e-05 0.0002774451 0.0001155247 -0.0370807246 0.8431457216
760295440.0 -0.0315700678 -0.1071964436 8.65808e-05 -8.60551e-05 0.0001412225 8.30074e-05 -0.0283996375 0.8430440159
765295410.0 -0.0332327847 -0.1070222615 0.0003285206 -0.0001134458 1.18336e-05 -6.08091e-05 -0.0194370906 0.8431495446
770295380.0 -0.0348839901 -0.1059000817 -9.51613e-05 0.0001162217 0.0001552917 -1.79858e-05 -0.0112607217 0.8431167281
775295350.0 -0.0365569431 -0.1055471009 0.0001201514 -3.62704e-05 0.000168579 -7.27294e-05 -0.0031592928 0.8431284697
780295320.0 -0.0378761183 -0.1048209159 -7.10539e-05 -0.0001079857 0.0002243187 8.37635e-05 0.0053408692 0.843282192
785295290.0 -0.0398156447 -0.1041499937 0.0001620846 -0.0001070489 0.0001683566 -8.71375e-05 0.0134760491 0.8436023971
790295260.0 -0.0414519358 -0.1035149452 0.000173517 5.76623e-05 0.0001579268 4.27483e-05 0.0220391326 0.843297703
795295230.0 -0.0427637285 -0.1026569061 8.05798e-05 -0.0001185562 0.0002279573 7.09e-06 0.0302431315 0.8422324194
800295200.0 -0.0445659039 -0.1019282182 2.81091e-05 4.07516e-05 0.0001630112 -0.0001431835 0.0383699156 0.8424229976
805295170.0 -0.0460628064 -0.1010492905 0.0003040339 -2.9983e-06 0.0002256198 -7.44241e-05 0.0474152554 0.8417522227
810295140.0 -0.0476452821 -0.1002669385 0.0003475319 0.0001163519 6.60598e-05 0.0001140358 0.0558664907 0.8413501035
815295110.0 -0.0493656184 -0.0996415214 0.0001760623 -9.11459e-05 0.0002137936 -2.46026e-05 0.0631861098 0.8411245476
820295080.0 -0.0509304574 -0.0990441169 0.0002189003 -6.7245e-05 0.0001204764 4.00036e-05 0.0713214086 0.8404101968
825295050.0 -0.0526735329 -0.0981546068 0.000290761 5.43825e-05 0.00017824 -3.53618e-05 0.0800071666 0.8390990924
830295020.0 -0.0541020999 -0.0971764163 0.0002690576 -8.44035e-05 0.000199326 0.0001445696 0.0884233034 0.8383086132
835294990.0 -0.0554597428 -0.0965810819 0.0002423927 -0.0001498497 -2.32059e-05 2.37485e-05 0.096849465 0.8380084329
840294960.0 -0.0567527656 -0.0955543334 0.0001450533 0.00014046 -2.50345e-05 -0.0002670739 0.1055732202 0.8367671319
845294930.0 -0.0585234832 -0.0945422781 -0.0001038498 0.0001241748 0.0001809238 -4.74517e-05 0.1137499036 0.8353873208
850294900.0 -0.0594949196 -0.0937914523 0.000299215 -0.0001097118 0.0003091669 2.36821e-05 0.1214017845 0.8349052721
