!Created with skrf (http://scikit-rf.org).
# Hz S RI R 50.0 
!freq ReS11 ImS11 ReS21 ImS21 ReS12 ImS12 ReS22 ImS22
300000.0 -0.3213004265 -0.0807428057 0.375524146 0.0438966698 0.3736299914 0.0412843699 -0.3197672312 -0.0983890544
5299970.0 -0.3266311803 0.0041105334 0.3784967733 0.0026535074 0.3783426657 0.0027380523 -0.324017213 0.0048784729
10299940.0 -0.3241038302 0.0132686155 0.3794320034 0.0019402829 0.3795528106 0.0021740686 -0.3217655724 0.0158086746
15299910.0 -0.3216845985 0.0202465464 0.3818284293 0.0022831258 0.3817483565 0.002327447 -0.3183462415 0.0235672015
20299880.0 -0.31859963 0.0262277501 0.3846451187 0.0020413686 0.38465052 0.0016917512 -0.3147932252 0.0301836969
25299850.0 -0.3155625387 0.0314832497 0.388342124 -0.0001734858 0.3879381183 0.0003393329 -0.3109151178 0.0357770698
30299820.0 -0.3127454698 0.0357776512 0.3917091434 -0.0022095033 0.3911746296 -0.0021706803 -0.3070263587 0.040879758
35299790.0 -0.3098987065 0.040033745 0.3948701072 -0.0055973256 0.3948772275 -0.0051151141 -0.3035676519 0.0454149773
40299760.0 -0.3071610431 0.0437521578 0.3979375934 -0.0087856586 0.3981473917 -0.0086513133 -0.3004717489 0.0481648878
45299730.0 -0.3047017838 0.0466341834 0.4008346073 -0.0127420322 0.4010150201 -0.0124876894 -0.2971172308 0.0515966711
50299700.0 -0.3025410043 0.0493178909 0.4033693617 -0.0173577639 0.4035474343 -0.017057704 -0.2942165231 0.0545516105
55299670.0 -0.3001598715 0.0520302254 0.4057168009 -0.0224591072 0.4055088913 -0.0219979742 -0.2917245519 0.0572144822
60299640.0 -0.2978360314 0.0549107553 0.407560334 -0.0269731705 0.4076312087 -0.026697997 -0.2889330848 0.0593776648
65299610.0 -0.2964075967 0.0573501913 0.409195115 -0.0318557091 0.4091079521 -0.0317901334 -0.2871520107 0.0617493228
70299580.0 -0.2945522334 0.0600945009 0.4106699828 -0.0371504247 0.4103598234 -0.0367436951 -0.2851359922 0.0638954293
75299550.0 -0.2927803859 0.0625789091 0.4111323272 -0.0421037452 0.411244419 -0.0419587904 -0.283225283 0.0656463628
80299520.0 -0.2915506696 0.0651783621 0.4121194078 -0.0474620154 0.412672138 -0.0471206159 -0.281804051 0.0678792176
85299490.0 -0.2902035971 0.0669969372 0.4124840022 -0.0522407377 0.4130426055 -0.0522937749 -0.2802230408 0.0701737252
90299460.0 -0.2887760366 0.0693429323 0.4127123659 -0.0582221287 0.4134844958 -0.057857657 -0.2783706208 0.0721348495
95299430.0 -0.2876930455 0.0716133613 0.4135656295 -0.0633634048 0.4135940601 -0.0628186551 -0.2767246385 0.0741698058
100299400.0 -0.2863353752 0.0742531375 0.4129888482 -0.0682361778 0.4133016727 -0.0679488726 -0.2753833399 0.0760545911
105299370.0 -0.2852951963 0.0762934726 0.4135077639 -0.0734751488 0.4135208651 -0.0737238299 -0.2737704835 0.0783740692
110299340.0 -0.2840498983 0.0789863398 0.4131233422 -0.0784086898 0.4128873542 -0.0784240867 -0.2727990694 0.0801289248
115299310.0 -0.2829119094 0.0809507336 0.413152249 -0.0838542658 0.4131629052 -0.0834606536 -0.2716758243 0.0826183745
120299280.0 -0.2818197771 0.083107571 0.4124017361 -0.0889234861 0.4126468647 -0.0885225588 -0.2704957198 0.08447969
125299250.0 -0.2811079459 0.0855398779 0.4117077271 -0.0939760288 0.4120613282 -0.0939880427 -0.2694082559 0.086217486
130299220.0 -0.2803294993 0.088090426 0.4112227837 -0.0993105695 0.4109426884 -0.0991234108 -0.2681827596 0.0885494127
135299190.0 -0.2792833127 0.0907636964 0.410558245 -0.1041388821 0.4106707253 -0.1038666803 -0.2670718177 0.0910119709
140299160.0 -0.27862164 0.09304051 0.4099151443 -0.1093032162 0.4098727775 -0.1090612296 -0.2660888945 0.09369429
145299130.0 -0.2774519869 0.0958246778 0.4091241223 -0.1141882017 0.4086572028 -0.1138287772 -0.2654311264 0.0956320688
150299100.0 -0.2762745625 0.0982770776 0.4078596023 -0.1188285649 0.4079330602 -0.1183192908 -0.2643835302 0.0985260531
155299070.0 -0.2755340019 0.1007399241 0.4070614786 -0.1239879729 0.4064291378 -0.1237203117 -0.26312604 0.1003227647
160299040.0 -0.2744331531 0.1034003605 0.4051693499 -0.129010647 0.4049115585 -0.1284920779 -0.2626663608 0.1029199887
165299010.0 -0.273696238 0.1060366953 0.4042529883 -0.1338111236 0.4042794459 -0.1336924871 -0.2613912246 0.1058395722
170298980.0 -0.2729626261 0.1086154297 0.4026194725 -0.1383022212 0.40303077 -0.1383200534 -0.2601627299 0.1083070866
175298950.0 -0.2719309324 0.1112715869 0.4018085819 -0.1430287593 0.401334839 -0.1430087439 -0.2596973527 0.111071207
180298920.0 -0.2710598429 0.1140388611 0.4002051771 -0.1478200309 0.3997813839 -0.1475737527 -0.2582344469 0.1133168607
185298890.0 -0.2695794102 0.1163547068 0.3983425187 -0.1523894356 0.3980887348 -0.152453397 -0.2573179772 0.1158305024
190298860.0 -0.2689481635 0.1193002769 0.3971703361 -0.1570648391 0.3970651223 -0.15695252 -0.2563178522 0.1181810539
195298830.0 -0.2677758265 0.1217036411 0.3953863713 -0.1621002189 0.3952300925 -0.1615900187 -0.2551988862 0.1208244179
200298800.0 -0.2666955302 0.124572882 0.3936636791 -0.1665732022 0.3938752287 -0.1664223404 -0.2545336661 0.1234057683
205298770.0 -0.2652753027 0.1273907713 0.3914280543 -0.171434503 0.3916253473 -0.1710243117 -0.2532943632 0.1253764281
210298740.0 -0.2644391998 0.1297566678 0.3896051165 -0.175425456 0.3898681298 -0.1754329505 -0.2517943932 0.1287743856
215298710.0 -0.2635562623 0.1325748019 0.3882339952 -0.1801312771 0.3878057514 -0.1804334526 -0.2510925329 0.1307605972
220298680.0 -0.262186689 0.1351641855 0.3858332909 -0.184371317 0.3857911743 -0.1844529896 -0.2500805982 0.1334279846
225298650.0 -0.2608624116 0.1381078204 0.3841485526 -0.189324091 0.3842671481 -0.1889128062 -0.2490750156 0.1357132713
230298620.0 -0.2593170778 0.1405898924 0.3816712005 -0.1932673958 0.382593317 -0.1935243901 -0.2478947935 0.1386424863
235298590.0 -0.2584024976 0.1438224775 0.3796892062 -0.1977891786 0.3802022002 -0.1973902354 -0.2466358433 0.141041312
240298560.0 -0.2567903035 0.1462882662 0.3774010507 -0.202246406 0.3775846743 -0.2022577678 -0.2451434619 0.1441154715
245298530.0 -0.2556358339 0.1488102805 0.375582965 -0.2063522892 0.3755390456 -0.206635035 -0.2440248285 0.1460478361
250298500.0 -0.2540476372 0.151956775 0.372786225 -0.2108294077 0.3729566369 -0.2104027213 -0.2428159233 0.148364812
255298470.0 -0.2530492566 0.1540487062 0.3705024781 -0.214824869 0.3707745251 -0.2146281179 -0.241190896 0.1507213842
260298440.0 -0.2516379779 0.1567727919 0.3681228062 -0.2195786837 0.3686734054 -0.2190983207 -0.2397328958 0.1537117854
265298410.0 -0.2501435801 0.1598797241 0.3661356897 -0.2233954258 0.3661830529 -0.2232725861 -0.2383564973 0.1561401911
270298380.0 -0.2486682525 0.1624996801 0.3637195479 -0.2275189234 0.3637384531 -0.2275883796 -0.2366653097 0.1588153452
275298350.0 -0.2468905644 0.1650781604 0.3609444348 -0.2318584336 0.3613559294 -0.2316140366 -0.2352269424 0.1610413078
280298320.0 -0.2448869385 0.1678817045 0.3585562512 -0.2358134077 0.3586368774 -0.2357050737 -0.2333426697 0.1635568641
285298290.0 -0.2437158478 0.1707443001 0.3562531752 -0.2395437394 0.3560151961 -0.2399102311 -0.2318295668 0.1659055592
290298260.0 -0.241783953 0.1732751845 0.3532139487 -0.2435878873 0.3534937395 -0.2438002972 -0.2302353014 0.1686312371
295298230.0 -0.2400311646 0.175832585 0.3506418795 -0.2476472202 0.3506996149 -0.2478057611 -0.2282453029 0.1709756247
300298200.0 -0.2386571871 0.1783713026 0.3482656053 -0.2513995947 0.3482250176 -0.2517225422 -0.2266774908 0.1732736954
305298170.0 -0.2364901437 0.1809185139 0.3448990501 -0.2557668509 0.3450288456 -0.2557509423 -0.2245220795 0.1757510414
310298140.0 -0.235046636 0.1835553477 0.3423106523 -0.2600469907 0.3425745043 -0.2596768216 -0.2231690535 0.1782580442
315298110.0 -0.2331485462 0.185771446 0.3396472158 -0.2634542036 0.3398990293 -0.2632891784 -0.2212517256 0.1805386423
320298080.0 -0.231075161 0.1881644657 0.3357529573 -0.2675378425 0.3365405822 -0.2670522892 -0.2194086402 0.1832201378
325298050.0 -0.2292460226 0.1906818441 0.3334540307 -0.2712731696 0.3335681814 -0.2710344051 -0.2180732007 0.1855780855
330298020.0 -0.2276562123 0.1930371021 0.3302260739 -0.2750709482 0.3306169852 -0.2749593941 -0.215975221 0.1877823983
335297990.0 -0.2257796127 0.1954033246 0.327254167 -0.2783885978 0.3272741174 -0.2785367951 -0.2148130726 0.1904868817
340297960.0 -0.22436014 0.1982754414 0.3237241084 -0.2820173867 0.3238829613 -0.2822819658 -0.2123044754 0.193153977
345297930.0 -0.222080489 0.2009826938 0.3208462131 -0.2857613329 0.3206106961 -0.2857745127 -0.2107927056 0.1952024389
350297900.0 -0.2201346957 0.2033749082 0.3171441993 -0.2895246471 0.3173564049 -0.2890692783 -0.208950894 0.1977835619
355297870.0 -0.21822696 0.205856041 0.314165986 -0.2927903673 0.3143470101 -0.2925485908 -0.2069575968 0.2000618716
360297840.0 -0.2158681378 0.2084212764 0.3112895614 -0.296049663 0.3113299617 -0.2958916671 -0.2049537503 0.2027634916
365297810.0 -0.2144632172 0.2109016557 0.3077045996 -0.2995444205 0.3081968092 -0.2995235494 -0.202960169 0.2051196683
370297780.0 -0.2118440913 0.2132604025 0.3039158074 -0.3027649971 0.3046318265 -0.3029166496 -0.2009351998 0.2075364202
375297750.0 -0.2096779964 0.2154808209 0.3008362186 -0.306410508 0.3012876855 -0.3065179468 -0.1986529552 0.2094687085
380297720.0 -0.2075147131 0.217935803 0.2974948217 -0.3094715901 0.2978491489 -0.3090562559 -0.1969989958 0.2112874938
385297690.0 -0.2057332624 0.2202581298 0.2940320566 -0.3128140499 0.2940341977 -0.3126422534 -0.1947340217 0.2141579031
390297660.0 -0.2034756606 0.2229631752 0.2908286851 -0.3160064709 0.2909476992 -0.3158864014 -0.1927654072 0.2164015698
395297630.0 -0.2006775779 0.225078703 0.2871437721 -0.3192781787 0.2871073765 -0.3193426321 -0.1901574497 0.2188778853
400297600.0 -0.1986017727 0.2276240428 0.2833989505 -0.3227007599 0.2838036452 -0.3224075309 -0.1882583289 0.2207705245
405297570.0 -0.1964589286 0.2296352078 0.2801285726 -0.3254306851 0.2802631072 -0.3252740275 -0.1862721053 0.2231171477
410297540.0 -0.1938445952 0.2318220485 0.2765069784 -0.3286179449 0.2768020082 -0.3284896466 -0.184055702 0.2251607406
415297510.0 -0.1910542539 0.2335468749 0.2725047215 -0.3316826683 0.2731004746 -0.3316013228 -0.1813874928 0.2269905068
420297480.0 -0.1892605635 0.236468798 0.2690318441 -0.3345144107 0.2690062513 -0.3347121981 -0.1792718924 0.2291281126
425297450.0 -0.1867456204 0.2379213755 0.2656043341 -0.3372979488 0.2656470649 -0.3376234507 -0.177215605 0.231659122
430297420.0 -0.1842659779 0.2403218253 0.261910975 -0.339976518 0.2615952905 -0.3397155869 -0.1746525029 0.2327800252
435297390.0 -0.1816904844 0.2423886284 0.2577322018 -0.3430682966 0.2574833817 -0.3433309857 -0.1719454635 0.2352589082
440297360.0 -0.1791458807 0.2446451336 0.2537321039 -0.3458837103 0.2542715674 -0.3457000891 -0.1696617374 0.2368460515
445297330.0 -0.1767841697 0.2466204572 0.2506329517 -0.3485258177 0.2502176486 -0.3483204532 -0.1669018817 0.238553656
450297300.0 -0.1742444771 0.2484226316 0.2465449803 -0.3512078097 0.2463818068 -0.3512188531 -0.1646062578 0.2403298649
455297270.0 -0.1715448504 0.2503951362 0.2424495963 -0.3537434895 0.2426730592 -0.3537824493 -0.1620784558 0.2421610906
460297240.0 -0.1688673969 0.2524047325 0.2381663565 -0.3567842516 0.2387248133 -0.3564197618 -0.1598027314 0.2445947022
465297210.0 -0.1662781759 0.2543431535 0.2345089162 -0.35904074 0.2346270142 -0.359632602 -0.1568197965 0.2461943049
470297180.0 -0.1635111776 0.2561918362 0.2305825058 -0.361510606 0.2308695422 -0.3614569519 -0.1542013797 0.2481472884
475297150.0 -0.1610352212 0.2578998625 0.2265017678 -0.3636205734 0.2267444268 -0.3635361685 -0.1514718679 0.2494671234
480297120.0 -0.1583646769 0.2600959039 0.2226414693 -0.3667355796 0.2225002146 -0.3669186139 -0.14868563 0.2514914109
485297090.0 -0.1557865718 0.2618489658 0.219016233 -0.3688855297 0.2189341858 -0.3684354915 -0.1461708598 0.2533198324
490297060.0 -0.1531435798 0.2638803508 0.2147830769 -0.370822728 0.2147706394 -0.3709388872 -0.1435288974 0.2550552914
495297030.0 -0.1502517951 0.265532354 0.2101397229 -0.3731799193 0.2113654411 -0.373505208 -0.1410720274 0.2568465044
500297000.0 -0.1473032611 0.267085046 0.2063785418 -0.3756442311 0.2062684129 -0.3756192838 -0.1380579374 0.2589450293
505296970.0 -0.1443625027 0.2688423688 0.2025357416 -0.3776373318 0.2021698132 -0.3778946288 -0.1354933454 0.2600072729
510296940.0 -0.1417460124 0.2704379379 0.1983474313 -0.3804761764 0.1980309783 -0.3804284882 -0.1324149464 0.2617353136
515296910.0 -0.1387746321 0.2718712221 0.1939133865 -0.3821388471 0.1938350169 -0.3821280522 -0.1299141325 0.2635687563
520296880.0 -0.1362262004 0.2737850554 0.1896219844 -0.3845796643 0.1899388164 -0.3841036986 -0.1272795182 0.2648278743
525296850.0 -0.1331733885 0.2747895361 0.1853912589 -0.3861630232 0.1858323125 -0.3860164552 -0.1248291145 0.2663798243
530296820.0 -0.1301678921 0.2769028939 0.1812618152 -0.3883484259 0.1815477869 -0.3882528362 -0.1220080368 0.2680502385
535296790.0 -0.1275264692 0.2781368339 0.1773435603 -0.3897181209 0.1771557567 -0.3898680844 -0.1190929638 0.2691770873
540296760.0 -0.1245466936 0.2799393281 0.1729649823 -0.3923819433 0.1727957228 -0.3921910393 -0.116340246 0.2712710791
545296730.0 -0.1216190961 0.2814839191 0.1680742177 -0.3939845374 0.1686311545 -0.3940432832 -0.1137497893 0.2723002927
550296700.0 -0.1184507889 0.2827118712 0.1636647123 -0.3957956725 0.164038938 -0.3957976429 -0.1111157217 0.2737074256
555296670.0 -0.1158289443 0.2839650487 0.1597445753 -0.3973747548 0.1600538232 -0.3972822501 -0.1078278484 0.2751724257
560296640.0 -0.1123683258 0.2856702689 0.155374815 -0.3993945957 0.1555007418 -0.398813844 -0.1050970108 0.2761793489
565296610.0 -0.1098408252 0.286962189 0.1509259357 -0.4007937571 0.1514600358 -0.400548049 -0.1025238383 0.2775778577
570296580.0 -0.1072006643 0.288205427 0.14667036 -0.4024813188 0.1463616291 -0.402453991 -0.0996795071 0.2790743123
575296550.0 -0.103823589 0.2895469845 0.14242682 -0.404080745 0.1422928217 -0.4040543229 -0.0963858926 0.2799893756
580296520.0 -0.1007480811 0.2906244451 0.1380174858 -0.4055521818 0.1379893644 -0.4055414063 -0.09331986 0.2811254281
585296490.0 -0.097968187 0.2917121796 0.1336208677 -0.4066812783 0.1337817973 -0.4069519683 -0.0906526937 0.2822620536
590296460.0 -0.0945873671 0.2928653096 0.1290314507 -0.4076783629 0.1291538936 -0.4079506175 -0.0878171217 0.2835391843
595296430.0 -0.0914555835 0.2940234591 0.124419061 -0.4097310434 0.1243735366 -0.4096288562 -0.0847200558 0.2839343575
600296400.0 -0.0887040574 0.2952975474 0.1202207528 -0.4111771267 0.1202197889 -0.4104492195 -0.0820354712 0.2851370482
605296370.0 -0.0853864803 0.2963137936 0.1155508344 -0.4118927576 0.1158110119 -0.4123329187 -0.0787452589 0.2865454659
610296340.0 -0.0824018233 0.2970496799 0.1112186284 -0.4130832459 0.1111002667 -0.4133348732 -0.075734303 0.2871386893
615296310.0 -0.0792421195 0.2981424566 0.1063353473 -0.4141374265 0.106476187 -0.4145501648 -0.0721668115 0.2879994797
620296280.0 -0.0762307861 0.2985207289 0.1021024352 -0.4151404252 0.1020331843 -0.4152916233 -0.0697498317 0.289171031
625296250.0 -0.0733794533 0.2998921731 0.0979314308 -0.4166749667 0.0975689577 -0.416834043 -0.0660669487 0.2895559792
630296220.0 -0.0694995648 0.3008402283 0.092496319 -0.417725 0.0928664218 -0.4173474623 -0.0633824949 0.2906268282
635296190.0 -0.0667858257 0.301696765 0.0884603862 -0.4182196207 0.0886422284 -0.4185588883 -0.0602317822 0.2915247079
640296160.0 -0.0639390252 0.3025665401 0.0840101533 -0.4193008873 0.08436618 -0.4194341518 -0.0570692341 0.2922516201
645296130.0 -0.0605505803 0.3036259655 0.0790705605 -0.4198733244 0.0795370716 -0.420096319 -0.0540829414 0.2931216255
650296100.0 -0.0570261534 0.3042024994 0.0746611785 -0.4210927509 0.0748193706 -0.420812794 -0.0507336335 0.2936012753
655296070.0 -0.0542780778 0.3052267952 0.0706872904 -0.4215718921 0.0703044226 -0.4219452027 -0.0477105938 0.2943315517
660296040.0 -0.051455693 0.305125152 0.0658210589 -0.4219320278 0.0660337939 -0.4224234956 -0.044463319 0.2951632574
665296010.0 -0.0472962787 0.3059883623 0.0607891919 -0.4225306796 0.060925736 -0.4229443279 -0.0412496969 0.2960859426
670295980.0 -0.0449004813 0.3069662637 0.0566605777 -0.4235383473 0.0566681155 -0.4232005274 -0.0385816983 0.2963665761
675295950.0 -0.0414854681 0.3076902769 0.051956343 -0.4240572802 0.0521702417 -0.4237347139 -0.0355865318 0.2973770943
680295920.0 -0.0382404628 0.3079770943 0.0472841582 -0.4244618373 0.0470976448 -0.4249696371 -0.0320554562 0.2979390323
685295890.0 -0.0349254811 0.3089366532 0.0424673964 -0.4252064605 0.0424761826 -0.4250514426 -0.0290517325 0.2981087497
690295860.0 -0.0316141445 0.3091262496 0.0380324321 -0.4252891552 0.0380321495 -0.426065675 -0.0257281351 0.2992967625
695295830.0 -0.028436983 0.3094231773 0.0336043216 -0.4257228409 0.0332490699 -0.4257086002 -0.0228682831 0.299495108
700295800.0 -0.0252091375 0.3099012567 0.0286646631 -0.4256592028 0.02878872 -0.4257605004 -0.0198788155 0.2999706416
705295770.0 -0.022036903 0.3107605618 0.0241754961 -0.4264718233 0.0244409514 -0.4262177973 -0.016663354 0.3003866572
710295740.0 -0.0186112527 0.3109810047 0.0192514704 -0.4268719657 0.0199413125 -0.4268152615 -0.0133537717 0.3003567427
715295710.0 -0.0157783908 0.311079027 0.0154233058 -0.4268535644 0.0148610511 -0.4267493265 -0.0101113412 0.3008258359
720295680.0 -0.0122670896 0.3115550207 0.0104931874 -0.4270116267 0.0107397466 -0.427146103 -0.0072244736 0.3012144822
725295650.0 -0.0090508703 0.3119202363 0.0058752858 -0.4270127337 0.0056060588 -0.427181725 -0.0043139238 0.3020219227
730295620.0 -0.0053514582 0.3122022788 0.0007042317 -0.4265548345 0.0012748287 -0.4270175024 -0.0012186559 0.3017244383
735295590.0 -0.0025226743 0.3122951239 -0.0029657917 -0.4271694583 -0.0036324396 -0.4268896777 0.0017499805 0.3014424696
740295560.0 0.0002318191 0.312715355 -0.0076682041 -0.4267406754 -0.0080637227 -0.4269528865 0.0056687669 0.3017851405
745295530.0 0.0036982625 0.3128497302 -0.0123397274 -0.4264254322 -0.0127297598 -0.4265332284 0.0085361293 0.3012345363
750295500.0 0.0075159128 0.3127899694 -0.0174335643 -0.4261565407 -0.0171904772 -0.4266720344 0.0114149118 0.3017911392
755295470.0 0.0104012652 0.3125855584 -0.0217349578 -0.4260973364 -0.0217075536 -0.4262112436 0.014927938 0.3017210114
760295440.0 0.0135447412 0.3127395995 -0.0263265603 -0.4261500036 -0.0266235546 -0.4259990199 0.018026635 0.3012306788
765295410.0 0.0170689515 0.3127571437 -0.0310327464 -0.425263435 -0.0310606149 -0.4254885037 0.0211540702 0.3017368124
770295380.0 0.0201428385 0.3126638218 -0.0357348776 -0.4251108013 -0.0357930782 -0.4249946422 0.0238533673 0.3012937108
775295350.0 0.0234376947 0.3123178314 -0.0407400954 -0.4241995991 -0.0400138653 -0.4246128911 0.0268891322 0.3015028274
780295320.0 0.026477727 0.3122901923 -0.0450463118 -0.4239660943 -0.0442124281 -0.4240840825 0.02999681 0.3007358088
785295290.0 0.0296998501 0.3115022994 -0.0497022197 -0.4228507457 -0.0494189291 -0.4235080298 0.0338902808 0.3009078607
790295260.0 0.0335749823 0.3120584546 -0.054011678 -0.4231099519 -0.0531620878 -0.4227639801 0.0368733824 0.300842704
795295230.0 0.0365019882 0.311423188 -0.0585288605 -0.4220716313 -0.0580450334 -0.4224761428 0.0403945742 0.3002644445
800295200.0 0.0397640682 0.3113528704 -0.0635387945 -0.4214033747 -0.0630313558 -0.4213042722 0.0434730424 0.299917645
805295170.0 0.0429800834 0.3109995357 -0.0679610149 -0.4209023282 -0.0676442494 -0.421087484 0.0465556836 0.2998210689
810295140.0 0.0460428121 0.3105439457 -0.072190585 -0.4198278337 -0.0720935141 -0.420146722 0.0497925254 0.2995312734
815295110.0 0.0495628099 0.3100119855 -0.0768030661 -0.4188317098 -0.0764979703 -0.4194097271 0.0531116823 0.2992176382
820295080.0 0.0523726964 0.3100159153 -0.0811267697 -0.418220284 -0.0807873672 -0.4183996768 0.0561034413 0.298745847
825295050.0 0.0564578217 0.3093406666 -0.0854547722 -0.4170911835 -0.0857590049 -0.417563816 0.05958773 0.2983125384
830295020.0 0.0590054284 0.3093185261 -0.0901661233 -0.4164317222 -0.0901066788 -0.4161724296 0.0631152811 0.2978066576
