!Created with skrf (http://scikit-rf.org).
# Hz S RI R 50.0 
!freq ReS11 ImS11 ReS21 ImS21 ReS12 ImS12 ReS22 ImS22
300000.0 -0.241868616 -0.1019524235 0.4687717544 0.0649645292 0.4689622797 0.0704487731 -0.2361759004 -0.1095465069
5299970.0 -0.2438368082 0.0071330213 0.4738510896 0.0053266242 0.473781555 0.0058852282 -0.2441305141 0.0059861164
10299940.0 -0.2402983743 0.0198547389 0.4761260819 0.0067048983 0.475761839 0.0068058446 -0.2408064992 0.0183642914
15299910.0 -0.2359046379 0.0294273259 0.479132636 0.0075042508 0.4795087318 0.0079181516 -0.2366613375 0.0278308017
20299880.0 -0.230482965 0.0373437263 0.4840830896 0.0081764195 0.4840519711 0.0083603156 -0.2317458224 0.0357166888
25299850.0 -0.2247512765 0.0437636749 0.4893352369 0.0069652089 0.4895665939 0.0073634224 -0.2268041961 0.0417002415
30299820.0 -0.2187584674 0.0485008607 0.4952426249 0.0056565189 0.4945607916 0.0050661498 -0.2214068097 0.0466746044
35299790.0 -0.2129526286 0.0529689009 0.5001676827 0.0021209407 0.5004139801 0.0019742734 -0.2159556923 0.0511170407
40299760.0 -0.2074675596 0.0558781384 0.505265383 -0.0017491672 0.5056879537 -0.001719991 -0.2114635267 0.0548539434
45299730.0 -0.2024089144 0.0585684789 0.5100381987 -0.0069738545 0.5101983386 -0.0066685522 -0.2065688455 0.0572213664
50299700.0 -0.1977184054 0.0601020373 0.5142194986 -0.0120718948 0.5143108004 -0.0122734884 -0.2019901868 0.0596903046
55299670.0 -0.19353027 0.0617109999 0.5178422715 -0.0181325273 0.5181277231 -0.0182123246 -0.198444447 0.0614691018
60299640.0 -0.1895294519 0.0626759281 0.5212969344 -0.024498213 0.5214349172 -0.0243264164 -0.1941349707 0.0633425872
65299610.0 -0.1860985527 0.0639251356 0.5243615391 -0.0302092035 0.5245936081 -0.0307499966 -0.1908552674 0.0646262423
70299580.0 -0.182609989 0.0642913166 0.5266174966 -0.036939212 0.526685582 -0.0373661126 -0.1877178411 0.0659026909
75299550.0 -0.1796260002 0.0651563632 0.5286796021 -0.0440141788 0.5287731021 -0.043777092 -0.1852484316 0.0668253118
80299520.0 -0.177270112 0.0657547948 0.5308954371 -0.0508047433 0.5306462298 -0.0511400947 -0.1823574183 0.0673016317
85299490.0 -0.174648283 0.0658706691 0.5323713817 -0.0577122393 0.531606591 -0.0577071618 -0.1803410622 0.0682063914
90299460.0 -0.1724993351 0.0663620148 0.5330517447 -0.0647603333 0.5333094638 -0.0647121494 -0.1776324623 0.0692396192
95299430.0 -0.1706166539 0.0670749052 0.5341664379 -0.071876384 0.5343689119 -0.0715078885 -0.1756410113 0.0701369913
100299400.0 -0.1687774582 0.0675030379 0.5342292859 -0.0782012722 0.5342722444 -0.0786476067 -0.1741058458 0.0708296556
105299370.0 -0.1668931817 0.068137632 0.5346234828 -0.0855802503 0.5346508584 -0.0856594069 -0.1720320622 0.0717460522
110299340.0 -0.1657399663 0.0684693574 0.5346264042 -0.0920543283 0.5347291203 -0.092624002 -0.1707733165 0.0726073452
115299310.0 -0.1639057586 0.0685190472 0.5346526577 -0.0988014316 0.5350337799 -0.0987072701 -0.1690216177 0.0729592581
120299280.0 -0.1627623946 0.0693484924 0.5348212632 -0.1060116832 0.5347302074 -0.1062850268 -0.168142822 0.0742967793
125299250.0 -0.1620021094 0.0698125754 0.5340836015 -0.1125576288 0.5342380244 -0.1127455169 -0.1663586707 0.0746473196
130299220.0 -0.1605676783 0.0705674827 0.5335935625 -0.1189578223 0.5336188689 -0.1192120706 -0.1655100085 0.0758155371
135299190.0 -0.1591661184 0.0711251514 0.5332667874 -0.1257925743 0.5328272043 -0.1259855126 -0.1643788364 0.0769379273
140299160.0 -0.1586375276 0.0720828061 0.5324757884 -0.1328512168 0.5324445399 -0.1328640555 -0.163034198 0.0780817344
145299130.0 -0.157632794 0.0728806618 0.531833198 -0.1393394214 0.5313270191 -0.1393172405 -0.1621805468 0.0790170287
150299100.0 -0.1565182761 0.0733875155 0.530420773 -0.1453234506 0.5304772306 -0.1459347823 -0.1607648496 0.080219399
155299070.0 -0.1559097417 0.0747455535 0.5289925693 -0.1528593937 0.5290265446 -0.1527723738 -0.1601017187 0.0808379346
160299040.0 -0.1548484643 0.0753814175 0.5272475753 -0.1584531027 0.527895968 -0.158547845 -0.1589304227 0.0824268645
165299010.0 -0.1539873171 0.0761426726 0.5264503121 -0.1655908583 0.5263766917 -0.1651536972 -0.1579469091 0.0830718859
170298980.0 -0.1535179793 0.077216966 0.52396048 -0.1714283285 0.5245034473 -0.171930481 -0.156778585 0.0845623692
175298950.0 -0.1527101296 0.0783827032 0.5235603683 -0.1778079655 0.5232843958 -0.1778620832 -0.1559719584 0.085716056
180298920.0 -0.1518104311 0.0790582133 0.5213263505 -0.1844060623 0.5213394529 -0.1838877935 -0.1550034686 0.0870264601
185298890.0 -0.150917606 0.0803426444 0.5193376803 -0.190606902 0.5196364385 -0.1903395244 -0.1543284101 0.0879259687
190298860.0 -0.1504182585 0.0814245615 0.5173753588 -0.197094383 0.5175290671 -0.1967189593 -0.1525877143 0.0894106376
195298830.0 -0.1496721689 0.081884796 0.5154720921 -0.2025243875 0.5156992902 -0.2026443465 -0.1521872343 0.090330486
200298800.0 -0.1486483446 0.0837152767 0.5136219035 -0.2082582326 0.51345318 -0.2086597306 -0.1508521537 0.092079819
205298770.0 -0.1480248672 0.0846050576 0.5117206366 -0.2146432459 0.5115073435 -0.2147599298 -0.1499380266 0.0928881951
210298740.0 -0.1476763584 0.085429171 0.5094008037 -0.2210591052 0.5093055946 -0.2208307092 -0.1490856297 0.0947125143
215298710.0 -0.1468449779 0.0869136804 0.5068639293 -0.2266062523 0.5067704801 -0.2266259563 -0.1484454278 0.0959668044
220298680.0 -0.1458859202 0.0880022772 0.5044275848 -0.2330119078 0.5046487967 -0.2326666029 -0.1469266297 0.097614914
225298650.0 -0.1448561741 0.0894157257 0.5019221555 -0.2382825752 0.5015865195 -0.2380827175 -0.1461667853 0.0990562375
230298620.0 -0.1446775506 0.090562344 0.4996370806 -0.2440257128 0.4995829963 -0.2447052577 -0.1449837761 0.1004118571
235298590.0 -0.1434824255 0.0913156372 0.4968111457 -0.2501882511 0.4968056439 -0.2504113248 -0.1440490444 0.1015355832
240298560.0 -0.1430821809 0.0928042637 0.4941725181 -0.2556634957 0.4940747387 -0.2555581297 -0.1428929923 0.1033358265
245298530.0 -0.1418045468 0.0941556371 0.4907907647 -0.2615733497 0.4912240914 -0.2616450008 -0.1420447057 0.1046650578
250298500.0 -0.1414931214 0.0953840179 0.4884589006 -0.2668806186 0.4885922098 -0.2667752954 -0.1401941635 0.106037219
255298470.0 -0.1405997386 0.0968706069 0.4853351082 -0.2727774892 0.4853549269 -0.2727909886 -0.1397057262 0.1073366423
260298440.0 -0.1397307067 0.0982161753 0.4828797867 -0.2783941788 0.4827990622 -0.2783236961 -0.1380751362 0.1088068958
265298410.0 -0.1387469664 0.099565853 0.4796035594 -0.2841135661 0.4791670187 -0.2839650491 -0.1372794119 0.1101812458
270298380.0 -0.1376808033 0.100759354 0.4762143602 -0.2892410039 0.4765995202 -0.2896593265 -0.1359828669 0.1120006005
275298350.0 -0.1369951111 0.1018280335 0.47301407 -0.2950334896 0.4736450049 -0.2950793906 -0.1346725894 0.1132283287
280298320.0 -0.1361504782 0.1032131113 0.4697991556 -0.2997101098 0.4701422717 -0.300411892 -0.1333562056 0.1147485527
285298290.0 -0.1352761501 0.1046772131 0.4668754777 -0.3052333287 0.4668089429 -0.3054893239 -0.1323536658 0.1162157538
290298260.0 -0.1344757762 0.1057272371 0.4636628986 -0.3105666355 0.4637035242 -0.3107256851 -0.1306728744 0.1179606537
295298230.0 -0.1331134009 0.1069057508 0.4603095715 -0.3160810109 0.4599056173 -0.3162396386 -0.1295204155 0.1192907887
300298200.0 -0.131929774 0.1083356527 0.4565804446 -0.3212101913 0.456524385 -0.3215140745 -0.1284033568 0.120829994
305298170.0 -0.1310691155 0.1094728258 0.4534432488 -0.3266138665 0.4532297586 -0.326805032 -0.1268091243 0.1223111679
310298140.0 -0.1296338963 0.1107334387 0.4497284362 -0.33197522 0.4499789542 -0.3324096897 -0.1252311662 0.1240035286
315298110.0 -0.1294034785 0.1117751786 0.4459722177 -0.3370700689 0.4464960198 -0.3371533234 -0.1237423506 0.1249179209
320298080.0 -0.1280459982 0.112997215 0.4423146483 -0.3423563416 0.4422646023 -0.3420132156 -0.1228892856 0.1260429434
325298050.0 -0.1273235801 0.1142919846 0.4388181702 -0.347381882 0.4386686256 -0.3475088501 -0.121421825 0.1274604896
330298020.0 -0.1262847384 0.1153734275 0.4338674498 -0.3519769929 0.4342247859 -0.3522315509 -0.120306097 0.1287545392
335297990.0 -0.1253096815 0.1164918112 0.4302678786 -0.3573118057 0.4304355776 -0.3571291008 -0.1191052103 0.1301348414
340297960.0 -0.1248415682 0.1182170236 0.4261341365 -0.3623158232 0.4265498985 -0.3619722305 -0.1177473705 0.1316993895
345297930.0 -0.1239741806 0.1195050823 0.4222596918 -0.3663704123 0.4216714847 -0.3663160202 -0.1163298028 0.1332065094
350297900.0 -0.122475852 0.1208602085 0.4177477206 -0.3707235754 0.4183138131 -0.3712259465 -0.1150442874 0.1351819111
355297870.0 -0.1216244286 0.1220258928 0.413943101 -0.3755127553 0.4137994629 -0.3759881739 -0.1137504184 0.1364603946
360297840.0 -0.1203649739 0.1233139388 0.4097190195 -0.3805243032 0.4094406158 -0.3802389619 -0.1122107304 0.1379018903
365297810.0 -0.1190697234 0.124815021 0.4052618872 -0.384895533 0.4054090268 -0.3847659815 -0.1106133979 0.1395370792
370297780.0 -0.1177662811 0.125892774 0.400839111 -0.3890973034 0.4013275632 -0.3895398542 -0.1091945344 0.140523306
375297750.0 -0.1167767959 0.1276200878 0.3973127915 -0.3934752998 0.3969215241 -0.3938914276 -0.1074272853 0.1423393865
380297720.0 -0.1156119983 0.1283696197 0.3926678668 -0.3974921912 0.3925053565 -0.3979185291 -0.1058643729 0.1439516001
385297690.0 -0.114471267 0.129880884 0.3877795097 -0.4019058018 0.3880233643 -0.4023302909 -0.1045992496 0.1452602465
390297660.0 -0.113457354 0.1307944339 0.3836405587 -0.4065678348 0.3833329339 -0.4066761025 -0.1028726331 0.1459719191
395297630.0 -0.1115518571 0.1321855194 0.3793096742 -0.4105885029 0.3789835687 -0.4105768466 -0.1014086354 0.1479492776
400297600.0 -0.1108502072 0.1335341274 0.3747258037 -0.414708231 0.3751080933 -0.4150895099 -0.1005501249 0.1489630112
405297570.0 -0.1093699243 0.1349586481 0.3699135215 -0.4192788199 0.3700233219 -0.41920536 -0.098541152 0.1505640926
410297540.0 -0.1078370057 0.1358022936 0.36495302 -0.4231864554 0.3652045762 -0.4227382372 -0.0968484898 0.1518937091
415297510.0 -0.1064769084 0.1371911722 0.3605073125 -0.4267235143 0.3605971066 -0.4271263257 -0.0954233249 0.1535625632
420297480.0 -0.1052206287 0.1378940648 0.3558345986 -0.4309426268 0.3556959538 -0.4307592195 -0.0931850031 0.1541104377
425297450.0 -0.1037362713 0.1391221503 0.3514309097 -0.4345586824 0.3518705152 -0.4347825943 -0.0918581596 0.1557139372
430297420.0 -0.102683545 0.1404780271 0.3465069954 -0.4389692208 0.3466724582 -0.4384545575 -0.0902266047 0.156573339
435297390.0 -0.1013400422 0.141465193 0.3417478039 -0.4421115223 0.3416093138 -0.4422029928 -0.0885640332 0.158221453
440297360.0 -0.0996460886 0.1425309714 0.3363594533 -0.445901717 0.3366348719 -0.4461688981 -0.0868994993 0.1588473048
445297330.0 -0.0982917814 0.1437268187 0.3315212912 -0.4499841252 0.3314607298 -0.4497832139 -0.0847957882 0.1602085258
450297300.0 -0.0969840481 0.1446026063 0.32712822 -0.4534616701 0.3269892049 -0.4534842415 -0.0836187675 0.1614798156
455297270.0 -0.0956744436 0.1457393333 0.3223111488 -0.4569375644 0.3220441844 -0.456820133 -0.0814768064 0.1625245086
460297240.0 -0.0943566717 0.1468376922 0.3169434476 -0.4600396313 0.3166190692 -0.4604232344 -0.079552483 0.163975054
465297210.0 -0.0926476582 0.1478904005 0.3119199543 -0.4641279273 0.3119970845 -0.4638085041 -0.0783564299 0.1647081296
470297180.0 -0.09140024 0.1488375974 0.3070396779 -0.4670733689 0.3071031387 -0.4668433637 -0.076750949 0.1659650358
475297150.0 -0.0902601263 0.1497096801 0.301549034 -0.4699193202 0.3018173582 -0.4700245591 -0.0743218722 0.1668370619
480297120.0 -0.0881306144 0.1507013167 0.296274943 -0.4734178122 0.2967437959 -0.4733116296 -0.0726868902 0.1682140561
485297090.0 -0.0867117045 0.1515567492 0.2915139534 -0.4766849142 0.2914606406 -0.4766236529 -0.0712817533 0.1687956757
490297060.0 -0.0854036638 0.1526555257 0.2862448461 -0.480014949 0.2861306941 -0.479797123 -0.0694118112 0.1698096934
495297030.0 -0.0840975496 0.1536429143 0.2807305336 -0.4824827631 0.2807244073 -0.4828721199 -0.0676543448 0.1705382038
500297000.0 -0.082520115 0.1541164218 0.2757769097 -0.4861273101 0.2752188441 -0.4855963143 -0.065785867 0.1717622791
505296970.0 -0.0812205429 0.1552304483 0.2702602494 -0.4885162138 0.2700309166 -0.4886370463 -0.064424722 0.1727646308
510296940.0 -0.0796651882 0.1565755843 0.2648228155 -0.4921178036 0.2649311393 -0.4921259541 -0.0618003193 0.1740615683
515296910.0 -0.0783819782 0.1574555486 0.2594625703 -0.4943211633 0.2595325348 -0.4945178071 -0.0604004116 0.1747629516
520296880.0 -0.0766281929 0.1580963023 0.2538751511 -0.497269107 0.2544431068 -0.4970544257 -0.0581109553 0.175358572
525296850.0 -0.0750531591 0.158841068 0.2484100717 -0.5000790421 0.2490256085 -0.5003503192 -0.0559968902 0.1761063724
530296820.0 -0.0733188232 0.1593885706 0.2433140397 -0.5019454583 0.2433002503 -0.5023977033 -0.0548147005 0.1769203077
535296790.0 -0.0720896037 0.1604342274 0.2373094348 -0.5047456646 0.2381517989 -0.5049152691 -0.0527893367 0.1772805786
540296760.0 -0.0704699852 0.1608134326 0.2322724667 -0.5075602838 0.2320289931 -0.5079960989 -0.0510737602 0.1785535472
545296730.0 -0.0689267139 0.1623142271 0.2268914097 -0.5100725056 0.2266637825 -0.5102593702 -0.0490423114 0.1788794402
550296700.0 -0.0675276971 0.1629092674 0.2210306838 -0.5125240698 0.2215377837 -0.5128248523 -0.047131068 0.1802460456
555296670.0 -0.0655994229 0.1636443268 0.2155435726 -0.5149625501 0.2157664022 -0.5150564373 -0.0450658287 0.180961907
560296640.0 -0.0640935288 0.1645691194 0.210009145 -0.517475899 0.2102135343 -0.5170304146 -0.0431313622 0.1813187696
565296610.0 -0.0626862402 0.1650106099 0.2044645783 -0.5195286222 0.2037892333 -0.5192613205 -0.0412391195 0.1818979305
570296580.0 -0.0608468335 0.1656361043 0.1987618086 -0.5211084834 0.1989902408 -0.5218140166 -0.0391283796 0.1829330164
575296550.0 -0.0592211804 0.1668485737 0.1932335238 -0.5233171878 0.193240028 -0.523420157 -0.0370969358 0.1832187378
580296520.0 -0.0576428275 0.1671455875 0.1875606152 -0.52525858 0.1874930919 -0.5260531989 -0.0354324058 0.1835756655
585296490.0 -0.0558622766 0.167423317 0.1816945929 -0.5275333702 0.1816088743 -0.527512434 -0.0335565646 0.1841005258
590296460.0 -0.0548219546 0.1684393194 0.1759173293 -0.5291662646 0.175838768 -0.5295094954 -0.0311334394 0.1847308606
595296430.0 -0.0528622219 0.1694498043 0.1703682958 -0.5313480765 0.1699699585 -0.5316923153 -0.0291518608 0.1850358993
600296400.0 -0.0509300533 0.1702699606 0.1643407845 -0.5333746009 0.1646454429 -0.5333683321 -0.027149444 0.1858093737
605296370.0 -0.0492649192 0.1708496994 0.1586041459 -0.5350136854 0.1587421413 -0.5347750777 -0.025226188 0.186275696
610296340.0 -0.0477591614 0.171300115 0.1530765423 -0.5363688208 0.1531943956 -0.5365436986 -0.0232052822 0.1871860833
615296310.0 -0.046306712 0.172074941 0.1471065138 -0.538396197 0.1470399661 -0.5382482243 -0.0212719947 0.1872552871
620296280.0 -0.0445180683 0.172337152 0.1416572675 -0.5395960174 0.1414011028 -0.5396317401 -0.0192435615 0.1872691391
625296250.0 -0.0427591765 0.1730406918 0.1349967994 -0.5410260072 0.1351487739 -0.541651252 -0.0168552831 0.1878331946
630296220.0 -0.0411396307 0.1735163111 0.129695591 -0.5423803427 0.1299055928 -0.5426811831 -0.0156144999 0.1884822936
635296190.0 -0.0394702027 0.1741995986 0.1235984971 -0.5436445001 0.1232617707 -0.5433974058 -0.0130797109 0.1883641496
640296160.0 -0.0378725589 0.1744532597 0.1180619684 -0.5448451437 0.117904453 -0.5452548141 -0.0108834098 0.1884371503
645296130.0 -0.0361021665 0.1754442001 0.1115911355 -0.546699195 0.1121774576 -0.546209214 -0.0096240921 0.1886622398
650296100.0 -0.0345916724 0.1762553508 0.1059668075 -0.5474262463 0.1063182202 -0.5474093885 -0.0074264168 0.18934549
655296070.0 -0.0329512484 0.1760827046 0.1002123621 -0.5482305081 0.0998284967 -0.5484866367 -0.0045153497 0.189709845
660296040.0 -0.031502747 0.1769301331 0.0943619185 -0.5492714968 0.0941735126 -0.5493029211 -0.0030586276 0.1896185574
665296010.0 -0.0293176448 0.1771100284 0.0885693734 -0.5500945678 0.0887919931 -0.5506087149 -0.0011472442 0.1902718108
670295980.0 -0.0273780373 0.17796227 0.0823292358 -0.5516175649 0.0830420817 -0.5512234855 0.000491665 0.1899879811
675295950.0 -0.0255268744 0.1780602875 0.0764941572 -0.5524451087 0.0766740827 -0.5525558281 0.003254943 0.1904008946
680295920.0 -0.0241217829 0.1786925761 0.0701476521 -0.5529480189 0.0699398186 -0.5530058498 0.0054964877 0.1900615156
685295890.0 -0.0224680948 0.1790508883 0.0643996596 -0.5539424185 0.0641116409 -0.5539403021 0.0074124062 0.1906844302
690295860.0 -0.0203637101 0.1793409733 0.058402948 -0.5542394958 0.0582395093 -0.5539659529 0.009655784 0.1907026086
695295830.0 -0.0184352384 0.1793269525 0.0518406531 -0.5545632657 0.0519015823 -0.5550170642 0.0113156806 0.1910949758
700295800.0 -0.0166805375 0.18000288 0.0459857911 -0.555251798 0.0462486805 -0.5552890053 0.0134057111 0.1902604354
705295770.0 -0.0149918851 0.1802666812 0.0404261085 -0.5555212944 0.0406376234 -0.5557787716 0.0150549748 0.1906322813
710295740.0 -0.0135776893 0.180907075 0.0344218838 -0.5559920582 0.0343287281 -0.5559158658 0.0170809232 0.1908769378
715295710.0 -0.0117134864 0.1810178198 0.028411161 -0.5564993874 0.0286323504 -0.5564612895 0.019384262 0.1901259227
720295680.0 -0.0099341404 0.1809636643 0.0221783138 -0.5563579979 0.0226429594 -0.557020416 0.0217875858 0.1906556912
725295650.0 -0.0078166989 0.1813222034 0.0161820814 -0.5567042972 0.0164119157 -0.5568967038 0.0235998155 0.1905336569
730295620.0 -0.0061489101 0.1812712782 0.0101720966 -0.5569204691 0.0100602737 -0.5570088958 0.0260637507 0.1898230584
735295590.0 -0.0040648697 0.1819424841 0.004448073 -0.5565316073 0.0045683323 -0.5572901326 0.0280514854 0.1900815135
740295560.0 -0.0028088421 0.1823026349 -0.0019297834 -0.5564731844 -0.001863189 -0.5570312705 0.0300545371 0.1899584881
745295530.0 -0.0008800788 0.1818465437 -0.0075726606 -0.5569655789 -0.0075700462 -0.5568197729 0.0320198193 0.189560715
750295500.0 0.0010541683 0.1823998781 -0.0136822846 -0.556530377 -0.0136843927 -0.5567635184 0.0342704421 0.1888780503
755295470.0 0.0031858265 0.1825275381 -0.0197465311 -0.5563880696 -0.0193890381 -0.5568294485 0.0357147557 0.1891423224
760295440.0 0.0044252173 0.1831054176 -0.026000563 -0.5565651184 -0.0255265652 -0.5560644651 0.0377654133 0.1888713319
765295410.0 0.006169483 0.1824003521 -0.0311448061 -0.5555454809 -0.0316363492 -0.5559105051 0.0407140995 0.1889223104
770295380.0 0.0082497404 0.1826916864 -0.037562548 -0.5554107039 -0.0375716581 -0.5556853771 0.0425974181 0.1884013694
775295350.0 0.0099981827 0.1831429883 -0.0437523801 -0.5546730487 -0.043775364 -0.5547633815 0.0444401803 0.1875342778
780295320.0 0.01179562 0.1829204341 -0.0491078771 -0.5545292448 -0.0494526249 -0.5544882562 0.0464575581 0.1878173652
785295290.0 0.0133751191 0.1833236291 -0.0553718789 -0.5532062524 -0.0553184389 -0.5538738594 0.0480922693 0.1872427972
790295260.0 0.0152854052 0.1830511226 -0.061138934 -0.5532611752 -0.06140893 -0.5535461401 0.0506311337 0.1869404468
795295230.0 0.0171279224 0.1831604852 -0.0670146756 -0.551918002 -0.0671976957 -0.5523901221 0.0525505113 0.1870023294
800295200.0 0.0191278553 0.1833384825 -0.0733996183 -0.551661117 -0.0737114806 -0.5521534729 0.0546668829 0.1862263102
805295170.0 0.0204183597 0.1832461489 -0.0787461596 -0.5502904344 -0.0792837304 -0.5505718658 0.0560990968 0.1856994272
810295140.0 0.0226128922 0.1828730624 -0.0848583558 -0.5496584398 -0.0853763178 -0.5504588815 0.0585889108 0.1855190886
815295110.0 0.0245848863 0.1831275086 -0.0912148158 -0.5486939235 -0.0914224118 -0.549090574 0.0605079246 0.1844774954
820295080.0 0.0262807109 0.1825896813 -0.0971483279 -0.5478230781 -0.0970992622 -0.548211854 0.0623784142 0.1840163384
825295050.0 0.0281019921 0.1827159586 -0.1031699047 -0.5464920844 -0.1029088527 -0.5469859772 0.0647273149 0.1838279952
830295020.0 0.0299341304 0.1827670946 -0.1090441329 -0.5453139094 -0.1089085882 -0.5456288493 0.0664787475 0.1829156777
