!Created with skrf (http://scikit-rf.org).
# Hz S RI R 50.0 
!freq ReS11 ImS11 ReS21 ImS21 ReS12 ImS12 ReS22 ImS22
300000.0 -0.7734437565 -0.1745358647 0.0013456193 0.0001280687 -0.00040922 0.0014921105 -0.2091859665 -0.1070248647
5299970.0 -0.7861959742 -0.0095544959 0.0002721112 -0.0001008735 -3.29918e-05 -5.28053e-05 -0.2161355765 0.0060789821
10299940.0 -0.7898399035 -0.006186004 0.0001040241 8.6758e-06 -5.83006e-05 3.41459e-05 -0.2122526432 0.0186858847
15299910.0 -0.7943382962 -0.0034247475 0.0001659554 -0.0002677081 0.0001520797 -2.66919e-05 -0.207566286 0.0281198353
20299880.0 -0.8007788111 0.0003571647 9.0998e-05 0.0001945001 -4.65729e-05 4.4027e-06 -0.2023608974 0.0358109481
25299850.0 -0.8079229344 0.006535077 6.52609e-05 6.76963e-05 -4.76127e-05 5.4474e-05 -0.1968745211 0.0419771504
30299820.0 -0.8139349693 0.0137574489 -7.90139e-05 0.0001241223 -3.30724e-05 0.0001138645 -0.1906279629 0.0466952287
35299790.0 -0.8183822464 0.0230389349 -4.13693e-05 1.80303e-05 6.63857e-05 -7.28072e-05 -0.1852091073 0.0508976596
40299760.0 -0.8236720231 0.0319094924 -2.2405e-05 0.0001480817 0.000180942 -1.1687e-05 -0.1799339293 0.0529509349
45299730.0 -0.82627637 0.0420200978 -4.25438e-05 -9.57381e-05 -2.98813e-05 1.07897e-05 -0.1745659589 0.0552441986
50299700.0 -0.8290907404 0.0519647623 -8.36767e-05 -8.53954e-05 6.55682e-05 -2.02181e-05 -0.1693962251 0.0571033081
55299670.0 -0.8316837593 0.061153596 -9.63234e-05 2.49744e-05 -3.15701e-05 6.10117e-05 -0.1658172769 0.0581493548
60299640.0 -0.8322708044 0.0717599192 -6.57935e-05 3.02009e-05 5.94473e-05 -3.14845e-05 -0.1613492136 0.0587687461
65299610.0 -0.8337380815 0.0819432228 -5.94312e-05 -9.17494e-05 -9.24094e-05 -1.37003e-05 -0.1578830075 0.0593325019
70299580.0 -0.8336037096 0.091482398 -7.47487e-05 5.42007e-05 -0.0001894898 5.39708e-05 -0.1546863295 0.0596429962
75299550.0 -0.8341220494 0.1015871282 7.51468e-05 -8.28967e-05 8.89399e-05 0.0002435141 -0.1515273576 0.059787633
80299520.0 -0.8342386243 0.1118233888 2.0391e-05 0.0001270244 -2.67228e-05 -1.7037e-06 -0.1489666373 0.0598357881
85299490.0 -0.8330317239 0.1210227902 0.0002397465 0.000119378 1.8836e-05 0.0001411852 -0.1464127497 0.0596243098
90299460.0 -0.8322558229 0.1314289085 9.68635e-05 1.64803e-05 -0.0001154349 1.28238e-05 -0.1442581985 0.0600242535
95299430.0 -0.8313582595 0.1406005054 -2.13802e-05 0.000129833 9.96745e-05 -8.33276e-05 -0.1421874937 0.0600335807
100299400.0 -0.8305332799 0.1498155744 -0.0001771461 0.0001251192 0.0001845491 -0.0001162673 -0.1405787579 0.0601351079
105299370.0 -0.8291441827 0.1589670327 9.42785e-05 9.66933e-05 -2.83045e-05 3.377e-05 -0.13874855 0.0598069919
110299340.0 -0.8272820227 0.168718568 0.0001929869 9.22181e-05 7.27683e-05 2.34632e-05 -0.1374450404 0.0596611931
115299310.0 -0.8260615549 0.1772634839 0.0001724968 -8.05669e-05 -0.0001279624 7.107e-05 -0.1362767263 0.0597711052
120299280.0 -0.8246555328 0.1863125976 0.0001730914 -0.0001512775 1.53467e-05 -2.92812e-05 -0.1349483681 0.0597311751
125299250.0 -0.8226222304 0.1949563839 -3.73466e-05 9.55033e-05 -0.0001646506 9.77647e-05 -0.1338045724 0.0600335803
130299220.0 -0.8208219005 0.2048861344 0.000164023 -1.4491e-05 -6.28774e-05 2.08734e-05 -0.1328611882 0.0600301567
135299190.0 -0.8184510683 0.2142462211 -1.56e-08 -0.0001254558 2.79295e-05 8.014e-07 -0.13185118 0.0601102505
140299160.0 -0.817179805 0.223677127 -0.0001570823 0.0001285643 -6.76041e-05 0.0002278688 -0.1312560134 0.060574519
145299130.0 -0.8152908664 0.2322507898 0.0002404102 -9.82715e-05 -1.95366e-05 0.0001735181 -0.1302626274 0.0610702944
150299100.0 -0.8118519064 0.2409017215 -4.8587e-05 0.000161395 0.0001320406 -9.5422e-06 -0.1298309325 0.061081556
155299070.0 -0.8104829494 0.2501089478 -4.28114e-05 -0.000104525 0.0001054224 0.0001730732 -0.1291090337 0.0619105262
160299040.0 -0.8070623093 0.2590511797 0.0001447819 0.0002981354 -5.098e-05 5.4557e-06 -0.1284856134 0.0622897805
165299010.0 -0.804735417 0.2675860026 0.0001056944 0.0002758934 2.7347e-06 0.0001792219 -0.1278076341 0.062728176
170298980.0 -0.8011969287 0.2763141315 9.90539e-05 -8.26312e-05 0.0002584357 0.0001531178 -0.1273087898 0.0633320038
175298950.0 -0.7989638359 0.2843060686 -0.0001299275 0.0002359904 0.0001582994 3.39374e-05 -0.126801054 0.0641009343
180298920.0 -0.7958844747 0.2936775066 0.0002066195 0.00028656 0.0001200739 5.01091e-05 -0.1262365841 0.0644214203
185298890.0 -0.7927906907 0.3019292475 0.0002287928 9.86275e-05 -3.436e-07 0.0001613132 -0.1256334446 0.0647484966
190298860.0 -0.7896667302 0.3112651086 5.27436e-05 0.0001299629 0.0001027279 -0.0001095828 -0.125398621 0.06571685
195298830.0 -0.7861739674 0.3187060345 8.32529e-05 -1.04379e-05 0.000165837 8.86961e-05 -0.1246607476 0.0661959641
200298800.0 -0.7827237563 0.3278179922 0.0002893619 0.0002710073 0.0002814571 -0.0001170079 -0.1242287922 0.0670777507
205298770.0 -0.7789847636 0.3369075552 -2.64546e-05 5.68036e-05 0.0002549239 0.0002016051 -0.1239645672 0.0680374406
210298740.0 -0.7766096259 0.3445886254 4.33782e-05 0.000157357 9.26786e-05 8.21328e-05 -0.123467514 0.0685956029
215298710.0 -0.7720524445 0.3535334021 0.0001679719 9.14478e-05 0.000150244 8.42025e-05 -0.1229189323 0.0692689583
220298680.0 -0.7690621506 0.3608712767 4.16991e-05 0.0001081121 0.0001620984 -0.0001064635 -0.1224198827 0.0702332088
225298650.0 -0.764695373 0.369836888 -1.28694e-05 0.000110706 -3.20084e-05 5.4046e-05 -0.1219120231 0.0710057072
230298620.0 -0.7613023305 0.3776493022 0.0002188306 0.0001086665 3.05346e-05 -7.24053e-05 -0.1215720388 0.0716692499
235298590.0 -0.7573698123 0.3860569352 6.89798e-05 0.0001468633 0.0001093519 0.000111246 -0.1210031074 0.0729152342
240298560.0 -0.7530526544 0.3934702596 0.0001958022 -6.34032e-05 1.15487e-05 4.57238e-05 -0.1207541677 0.0733793598
245298530.0 -0.7490025738 0.4015263779 -7.22129e-05 -2.94946e-05 9.07619e-05 0.0003003764 -0.1201408274 0.0744674577
250298500.0 -0.7443695128 0.4096490405 -4.06503e-05 -5.14857e-05 0.0001058248 -4.86446e-05 -0.1194483904 0.0753680679
255298470.0 -0.7410787514 0.4174533047 0.0002329679 8.2847e-05 0.0001835923 6.08928e-05 -0.1192985908 0.0762904413
260298440.0 -0.736324965 0.4251899855 -3.26707e-05 8.03389e-05 -0.0001559164 0.0001157203 -0.1189063871 0.0774295829
265298410.0 -0.7322009332 0.4326410457 -4.19225e-05 -0.0001949162 5.09971e-05 6.61279e-05 -0.1180289181 0.0782163569
270298380.0 -0.7274111082 0.4407572378 -9.86718e-05 0.0002339194 0.0001646864 -4.48688e-05 -0.1174724879 0.0791846585
275298350.0 -0.7235712243 0.4483338115 0.0001216567 3.95791e-05 -1.06482e-05 -5.54703e-05 -0.1168352629 0.0803907431
280298320.0 -0.7188644021 0.4556820679 0.0001936433 0.0001020025 0.000178263 -2.96091e-05 -0.1166722438 0.0808869014
285298290.0 -0.7133913356 0.4628767518 0.0001224364 9.39503e-05 3.4215e-06 0.0001499216 -0.1159407808 0.0824025662
290298260.0 -0.7091836447 0.4706688339 0.0002176547 8.35338e-05 0.0004089699 0.0001473168 -0.115411655 0.0833230446
295298230.0 -0.703871971 0.4786011903 0.0001198431 7.28076e-05 0.0002385159 0.0001774212 -0.1148896858 0.084161413
300298200.0 -0.6991594325 0.485500089 0.0002537433 6.98022e-05 1.9528e-06 0.0002345738 -0.1139699529 0.0855198221
305298170.0 -0.6947613451 0.4925255474 -4.22627e-05 2.30325e-05 0.0001071461 1.24802e-05 -0.1133432909 0.086506795
310298140.0 -0.688566728 0.4994456324 2.45729e-05 0.0001516737 0.00012949 -1.64903e-05 -0.1127689093 0.0875108153
315298110.0 -0.6844869958 0.5068108574 0.0001133553 0.0004151496 0.0002438144 9.45415e-05 -0.1119455123 0.0884759193
320298080.0 -0.6790062969 0.5140548998 0.0001782147 0.0002039233 0.0001420592 -2.16772e-05 -0.1116587041 0.0892683385
325298050.0 -0.6736139861 0.5209876858 8.83125e-05 0.0003001028 0.0001703843 6.69976e-05 -0.1105626718 0.090397691
330298020.0 -0.6683107802 0.5277122385 9.50309e-05 0.0002142433 6.72067e-05 6.61708e-05 -0.1104882128 0.0911704949
335297990.0 -0.6627214044 0.534915726 0.0001671475 -3.79133e-05 1.85232e-05 0.0001720247 -0.1096592187 0.0919801401
340297960.0 -0.6578907234 0.541870775 0.0002317444 1.411e-06 0.0001957301 0.0002062479 -0.1090388751 0.0932850126
345297930.0 -0.6519497699 0.5484649044 0.0002329185 0.0001075552 0.0001601271 -5.78934e-05 -0.1085450998 0.0942227872
350297900.0 -0.6466239871 0.5547435004 0.0001553136 -6.46775e-05 2.04012e-05 0.000167193 -0.1082698666 0.0953978287
355297870.0 -0.6409103292 0.5615122332 0.0002306637 0.0002943216 0.000120484 0.0001004645 -0.107288338 0.096573737
360297840.0 -0.6348993144 0.5684774351 4.13832e-05 -3.66305e-05 0.0002173304 0.0002383903 -0.1065216141 0.0977088519
365297810.0 -0.6296900876 0.5749856529 6.39901e-05 9.60389e-05 0.0002430102 0.0003613665 -0.1059426819 0.0987846849
370297780.0 -0.6232633116 0.5806081591 0.0003185473 -1.7783e-06 0.0001222915 0.0002116244 -0.1053751536 0.0998241355
375297750.0 -0.6179429201 0.5873662803 0.0002973435 0.0001035266 -0.0001117305 0.0002580923 -0.1045520137 0.1010056369
380297720.0 -0.6118785977 0.59357648 5.13347e-05 0.0002531336 2.11731e-05 0.0001248531 -0.1033381892 0.1018763853
385297690.0 -0.6063842558 0.5999419108 0.0003197212 0.0003066458 0.0002374801 0.0001111884 -0.1029630412 0.103107854
390297660.0 -0.5986131938 0.6051650939 0.0001758822 0.0002704598 0.0001757353 -5.63268e-05 -0.1020778319 0.1039757294
395297630.0 -0.5929153293 0.6124279876 0.000109842 0.0001403811 5.065e-05 -4.1782e-06 -0.1011509645 0.1049930114
400297600.0 -0.5865372666 0.6183512652 5.5625e-05 1.68347e-05 0.0001745882 0.0002529153 -0.1002319122 0.106151935
405297570.0 -0.5805554106 0.6228674619 0.0001498994 -0.0001393836 3.78628e-05 0.0001317403 -0.0991224652 0.1074262333
410297540.0 -0.5734451369 0.6300028798 2.46281e-05 0.0001675907 0.0002407768 0.0001029206 -0.0987383451 0.1089467338
415297510.0 -0.5677447752 0.6354584638 0.0001355967 -0.0001023424 0.0001217772 1.1037e-06 -0.0976814734 0.109358292
420297480.0 -0.5602945802 0.6412229343 6.99053e-05 0.0001172198 0.0001955753 0.0001299621 -0.0963200431 0.1109724432
425297450.0 -0.5543585109 0.6462890778 0.0001598678 0.0001222989 0.0002087974 0.0002727906 -0.0959593858 0.1113358159
430297420.0 -0.5481052242 0.6520124269 9.13696e-05 0.0001767966 0.0002944174 2.42637e-05 -0.0950479783 0.1126982881
435297390.0 -0.541108165 0.6571714002 0.0002281077 0.0001272353 0.0001999671 0.000105947 -0.0940151594 0.1141545097
440297360.0 -0.5339626926 0.6636855433 0.0002018836 -4.91705e-05 0.0001427314 1.01961e-05 -0.0931602846 0.1151244561
445297330.0 -0.5272645636 0.6677776472 0.0002104618 0.000197845 0.000144084 8.41118e-05 -0.0918573791 0.1157913508
450297300.0 -0.5204611644 0.6736059022 0.000186921 -4.45741e-05 0.0002492793 0.0002098832 -0.0908897412 0.1166386049
455297270.0 -0.5137780265 0.6786504811 0.0003236208 0.0001944637 0.0002505214 -8.47516e-05 -0.0902320841 0.1180217109
460297240.0 -0.5057943816 0.6841207823 0.0002485534 -1.99218e-05 3.02478e-05 3.8389e-05 -0.0891399183 0.1190580455
465297210.0 -0.4993277225 0.6891392488 0.000287077 -7.44099e-05 0.0001097645 0.0002658615 -0.0879916019 0.1203744085
470297180.0 -0.4922579596 0.6939509485 0.0001353502 0.0001090855 0.0002723292 0.0002654035 -0.087002877 0.1210208276
475297150.0 -0.4850054786 0.6988836086 0.0002442287 -7.25501e-05 8.12765e-05 -6.13352e-05 -0.0857572519 0.1218411797
480297120.0 -0.4761880522 0.7039978583 0.00011271 1.25583e-05 0.0001641754 0.0002480429 -0.0852077064 0.1227741539
485297090.0 -0.4704983655 0.7085763319 0.0001470646 0.0001844035 0.0001624004 0.0002474745 -0.0839002893 0.1238656556
490297060.0 -0.4620626084 0.7139559218 0.0003671362 0.0002373536 9.08342e-05 0.000124783 -0.0829006597 0.1245849002
495297030.0 -0.4548155871 0.7180593794 5.28271e-05 -0.000135612 0.0002642147 8.26572e-05 -0.0814750978 0.125529295
500297000.0 -0.4474513901 0.7221747046 0.0002900144 -5.5765e-06 0.000176164 9.0842e-05 -0.080568411 0.1265492954
505296970.0 -0.4395900104 0.7270594206 0.0001244763 -5.70408e-05 -1.42341e-05 -1.7461e-06 -0.0793592696 0.1273138856
510296940.0 -0.431894888 0.7313534174 0.0002713745 -7.14588e-05 0.0002192025 -7.67241e-05 -0.0782334494 0.1286529129
515296910.0 -0.424221205 0.7360763628 0.000188627 7.62751e-05 0.0002507954 9.767e-06 -0.0774249929 0.1294357928
520296880.0 -0.4163245538 0.7399837947 9.21958e-05 -0.0001803077 0.0001753368 0.0001183833 -0.0759460577 0.1304197467
525296850.0 -0.4088014806 0.7439569092 6.56171e-05 0.0001080124 9.29637e-05 4.94903e-05 -0.0746778553 0.1310884697
530296820.0 -0.4014184071 0.7475603481 0.0002081874 4.35352e-05 0.0003291587 0.0001869532 -0.0737262454 0.1320513222
535296790.0 -0.3923845581 0.751724603 1.02019e-05 3.37844e-05 -1.00921e-05 1.36073e-05 -0.0725865546 0.1330092424
540296760.0 -0.3852543049 0.756510365 0.0002198082 0.0003153476 0.0001716211 -0.0001409992 -0.0715126691 0.1338503696
545296730.0 -0.3771308659 0.7601477001 8.32038e-05 0.0002999676 0.000137459 -2.63569e-05 -0.0700734188 0.1346810873
550296700.0 -0.3692307034 0.7638224635 0.0001852774 8.879e-05 2.63373e-05 4.73819e-05 -0.068869481 0.1355434681
555296670.0 -0.361474861 0.7671570393 0.0001594171 0.0002148108 0.0002144534 4.63821e-05 -0.0680721804 0.136014348
560296640.0 -0.3536153963 0.7702334009 0.0003095449 -3.181e-07 0.0001952693 -0.0001090973 -0.0666311982 0.1371292826
565296610.0 -0.3459355983 0.7744975191 0.0003109797 7.35427e-05 0.0001326121 -2.64345e-05 -0.0652874223 0.1381383331
570296580.0 -0.3369039117 0.7782503852 0.0003290706 -0.0001615789 0.000108491 2.00138e-05 -0.0642576078 0.1385436909
575296550.0 -0.3281895728 0.7813362598 0.0001321654 -0.000114872 0.0001738135 -0.0002075333 -0.0627128299 0.1395129675
580296520.0 -0.3210017765 0.7848472186 0.0002937992 0.000338492 0.0005191405 -4.52749e-05 -0.0617615292 0.1402621022
585296490.0 -0.3124639032 0.7876049462 0.0002357129 0.0001470942 0.0002350931 -2.6137e-06 -0.060135668 0.141244606
590296460.0 -0.3040924728 0.7908199783 0.0003928332 0.0002188206 0.0002688948 2.00084e-05 -0.0590082642 0.1416478835
595296430.0 -0.2963503453 0.7938138752 0.0003242678 8.20264e-05 0.0002539555 -1.59719e-05 -0.0579785318 0.1425070789
600296400.0 -0.2885226419 0.7969753949 9.09243e-05 0.0001940807 0.0002809803 -6.07844e-05 -0.056229657 0.1431110445
605296370.0 -0.2794843767 0.7995283087 0.0001930019 -0.0001282607 0.0002164466 0.0001391984 -0.0551062436 0.143928051
610296340.0 -0.2711782819 0.8026424159 0.0001953392 -7.29259e-05 0.000245399 0.0002984898 -0.0537956504 0.1445510203
615296310.0 -0.2632572465 0.8054621399 0.0002063784 6.28991e-05 0.0003944506 -0.0001242362 -0.052436733 0.1451865944
620296280.0 -0.2552195609 0.8087009868 0.0004161036 -0.0001681028 0.0002080767 7.23419e-05 -0.0513647561 0.1462750032
625296250.0 -0.2476444999 0.8099260118 -1.88676e-05 0.0001473614 0.0002783946 -5.89916e-05 -0.0499499421 0.1465910153
630296220.0 -0.2391014781 0.8133246453 0.000320995 0.0001247144 7.80901e-05 0.0001093094 -0.0485843819 0.1472306164
635296190.0 -0.2303804167 0.8156290849 0.0002131317 -0.0002178649 0.0002195425 -6.55008e-05 -0.0472817765 0.1480105612
640296160.0 -0.2217333716 0.817574942 8.64685e-05 -0.0001774469 0.0004414266 -6.65626e-05 -0.0457423552 0.1488802092
645296130.0 -0.2132177395 0.820407655 0.0002669875 -0.0003476405 0.0002495028 2.83193e-05 -0.0443872291 0.149350474
650296100.0 -0.2054775831 0.8222960205 0.0001190857 -8.00594e-05 0.0001293022 -8.33351e-05 -0.0430683849 0.1500632143
655296070.0 -0.1971747559 0.8246079695 0.0002908113 -3.42351e-05 0.0002911733 0.0001850134 -0.0417987756 0.1506591811
660296040.0 -0.1888208602 0.8258168648 0.0003785947 0.0001424127 0.0001802639 -1.26082e-05 -0.0401093514 0.1512587699
665296010.0 -0.1808764085 0.8291111938 0.000112475 9.14423e-05 0.0004226167 9.93054e-05 -0.0387740219 0.1518702504
670295980.0 -0.1727643981 0.8306154706 0.0003389934 2.94529e-05 0.0003429826 -0.0001954692 -0.037598488 0.1522696938
675295950.0 -0.1635897512 0.8320242711 0.0003400616 0.0001743725 0.0002823389 0.0001734501 -0.0359662079 0.1527375001
680295920.0 -0.156797758 0.8340803159 0.0001965884 -6.68548e-05 0.0004419532 5.56226e-05 -0.0346867495 0.1532871904
685295890.0 -0.147920466 0.8358627063 0.0004747447 8.81963e-05 0.0001916406 -0.0002220949 -0.033355446 0.1538618229
690295860.0 -0.1395011273 0.8366612743 4.54006e-05 3.8116e-06 0.0001872322 3.67528e-05 -0.031765175 0.1546004512
695295830.0 -0.1306267335 0.8389549026 0.0004458135 0.0001335733 0.000174838 7.56541e-05 -0.0304695143 0.1551786874
700295800.0 -0.1227107588 0.8397723936 0.0002028814 2.57788e-05 0.0002282159 0.0001409541 -0.0288567931 0.1555818209
705295770.0 -0.1144564545 0.841065719 0.0001910469 -5.8465e-05 0.0002799927 -0.0002755729 -0.0274984185 0.156147456
710295740.0 -0.1069597916 0.8423796025 0.0002461419 -1.26065e-05 0.0003393461 -5.07052e-05 -0.0260684625 0.1564893171
715295710.0 -0.0977669575 0.843586284 0.0002222056 3.95038e-05 0.0003393358 -1.98125e-05 -0.024323272 0.1567282688
720295680.0 -0.0894705249 0.8440508439 0.0002789939 0.000163434 0.0002251919 -0.0001046115 -0.0229407309 0.1571650823
725295650.0 -0.0814023449 0.8459379489 0.0004050474 -7.57172e-05 0.0002085925 -6.46921e-05 -0.0216845614 0.157661366
730295620.0 -0.0733573039 0.8469289502 0.0002966125 -3.3377e-06 0.0001050141 -0.0001018816 -0.0202695592 0.1583266588
735295590.0 -0.0659615405 0.8472576913 0.0003508037 -0.0001305682 0.0003347668 -7.19854e-05 -0.018508131 0.1584191949
740295560.0 -0.0577935501 0.8474113341 0.0002095694 -0.0001643783 0.0002361505 -0.0002274644 -0.0170542263 0.1590312002
745295530.0 -0.049006773 0.848908266 0.0003810101 -3.2599e-06 0.0002291332 -9.45156e-05 -0.0156270931 0.1591563552
750295500.0 -0.04124956 0.8486806052 9.54643e-05 -8.95856e-05 0.0001434035 -8.10025e-05 -0.0141759888 0.1597304174
755295470.0 -0.032226423 0.8499784567 6.10053e-05 -0.0002558476 0.0002692545 6.34483e-05 -0.0126511513 0.1604586611
760295440.0 -0.0240019651 0.8516704545 -4.72271e-05 5.37973e-05 0.0003305689 -3.211e-06 -0.0111112592 0.1601762708
765295410.0 -0.0158397496 0.8503235844 0.0003686904 -5.29563e-05 0.0004947823 4.32273e-05 -0.0097643942 0.1607006003
770295380.0 -0.0083937738 0.8514393794 0.0003834485 1.35667e-05 0.0004640731 0.0001531953 -0.0082436719 0.1610752962
775295350.0 1.38844e-05 0.8514256009 0.0003537148 5.13602e-05 0.0003803695 -4.15512e-05 -0.0066980111 0.161024041
780295320.0 0.0090051813 0.8513268198 0.0001203525 4.45262e-05 0.0002846689 0.0001694254 -0.0049597785 0.1617165993
785295290.0 0.0169169981 0.8511113664 0.000232851 4.63668e-05 0.000292561 -3.85965e-05 -0.0038606132 0.161890153
790295260.0 0.0252672203 0.8513376686 0.0004734313 6.70171e-05 0.0003723057 4.15194e-05 -0.0021672221 0.1621578549
795295230.0 0.032857595 0.850478576 0.0002475947 -0.0001469146 0.0002912502 -1.21049e-05 -0.0008339453 0.1618189892
800295200.0 0.0411710543 0.8508262696 0.0004744675 -4.65584e-05 0.0002142231 -2.08895e-05 0.0003603888 0.162386876
805295170.0 0.0491990696 0.8506856316 0.00024321 -8.42531e-05 0.0003690061 -8.91838e-05 0.002687056 0.1622549373
810295140.0 0.0579352969 0.8510320191 0.0002813366 -0.0002545662 0.0003082579 1.60246e-05 0.0041834799 0.162786995
815295110.0 0.0653175207 0.8497478977 0.0004954946 -0.0002712794 0.0002087838 -0.0001597291 0.0053124683 0.1627241058
820295080.0 0.0735783883 0.8486066648 0.0003604267 -0.0001195711 0.0002161671 -6.64144e-05 0.0065045076 0.1632457304
825295050.0 0.0819978473 0.8482435807 0.0004357643 -5.15206e-05 0.0002930283 -0.0001269308 0.008692111 0.1630564619
830295020.0 0.0904642111 0.8477413817 0.0001689475 -8.66889e-05 0.0002823016 -0.0001252229 0.0099528868 0.1630048188
835294990.0 0.0981352401 0.8465175841 0.000219667 -0.0001312445 0.0003872246 -0.0002677509 0.0117227974 0.1636760023
840294960.0 0.1069417947 0.8456206087 0.0002996473 0.0001821478 0.0002079034 2.5643e-06 0.0131780448 0.1635552747
845294930.0 0.1146867447 0.8446258516 0.0003674504 -5.52599e-05 0.0002693616 -0.0001962244 0.0149569323 0.1637213069
850294900.0 0.1241802942 0.843214096 0.0003022224 -0.000144771 0.000369786 -0.0002125437 0.0160736644 0.163746527
