!Created with skrf (http://scikit-rf.org).
# Hz S RI R 50.0 
!freq ReS11 ImS11 ReS21 ImS21 ReS12 ImS12 ReS22 ImS22
300000.0 -0.0436429905 -0.0688249075 -0.0010047015 -0.0011402717 0.000468674 0.0009470736 -0.7643021538 -0.1899771743
5299970.0 -0.0460782356 0.0148779064 0.0001265666 0.000210327 0.0001341471 0.0001016685 -0.784874013 -0.0094764749
10299940.0 -0.0404425786 0.0330420124 -5.5933e-05 8.51342e-05 5.7315e-05 -4.79086e-05 -0.7877440761 -0.005491578
15299910.0 -0.0317631272 0.0475338148 -6.38468e-05 -0.0001940723 4.89436e-05 5.47472e-05 -0.7935132984 -0.0029353495
20299880.0 -0.0215340356 0.059422487 -0.0001112173 -2.98877e-05 -9.36015e-05 0.0002686848 -0.7998203168 0.0014493331
25299850.0 -0.010294464 0.0688268349 7.76888e-05 0.0001469882 4.7443e-06 0.0001139216 -0.8059008287 0.0080157644
30299820.0 0.0011206254 0.0756041267 -0.0001883663 -0.0001158947 5.5079e-06 4.31384e-05 -0.8121023725 0.0158573716
35299790.0 0.013376721 0.0803003964 -0.0001381653 1.7428e-05 0.000201453 -5.28671e-05 -0.8172152531 0.0246401447
40299760.0 0.0247833487 0.0829158227 3.73992e-05 -2.12785e-05 7.8891e-06 -2.63549e-05 -0.8208622982 0.0337857867
45299730.0 0.0352181515 0.0842293326 1.12953e-05 0.000213829 -1.07073e-05 1.42674e-05 -0.824204523 0.0434917261
50299700.0 0.0454808878 0.0842284107 9.89649e-05 -0.0002160296 -2.01413e-05 8.1003e-05 -0.8263291502 0.0535065696
55299670.0 0.0546698269 0.0836154936 7.55863e-05 -0.000126641 -7.67353e-05 8.31501e-05 -0.8287945281 0.0638995877
60299640.0 0.0633181669 0.0814932319 -5.08665e-05 -0.0001428858 0.0001356279 0.0002769595 -0.8299273771 0.0744185951
65299610.0 0.0715987224 0.0791457076 -0.0001313965 0.0003389234 0.0001713176 0.000120501 -0.8301718646 0.083725012
70299580.0 0.0779082392 0.0760264861 0.0002522036 1.97898e-05 -5.88121e-05 9.2742e-05 -0.830997244 0.0941057222
75299550.0 0.0846122627 0.0728852747 0.000248753 -0.0002004958 -0.0001904386 -5.61215e-05 -0.8310701557 0.1038562072
80299520.0 0.0901984849 0.069472592 -0.0001200973 -8.1255e-05 -9.86194e-05 9.48814e-05 -0.8311216149 0.1138987054
85299490.0 0.0955006673 0.0656486936 0.0001720647 0.0001839264 -3.95855e-05 -5.1283e-05 -0.8303575456 0.1228828377
90299460.0 0.1003451625 0.0617181439 -4.6842e-05 -7.77471e-05 -1.55328e-05 0.0001005055 -0.8290161774 0.1326190721
95299430.0 0.1046269901 0.0579813993 3.65679e-05 0.0001190303 0.0001004977 3.9376e-05 -0.8280976147 0.1426483551
100299400.0 0.1082339457 0.0542915759 -8.46856e-05 0.0001133829 6.18388e-05 0.0001160372 -0.8273915005 0.15182133
105299370.0 0.111509601 0.050156605 5.0642e-06 0.000165974 -4.8407e-05 -2.55062e-05 -0.8261992573 0.1612154735
110299340.0 0.1145909488 0.0463615076 -3.197e-06 -5.83163e-05 -0.0001026128 6.4416e-05 -0.8244931305 0.1697178433
115299310.0 0.1169746501 0.042615835 -0.0001462113 5.3242e-05 0.0002278672 0.0001625984 -0.8232841686 0.1793474635
120299280.0 0.1194942401 0.0390550805 -0.0001356445 -3.29869e-05 7.30136e-05 -0.0001985447 -0.8211755439 0.1880150991
125299250.0 0.1212265993 0.0348490768 0.0001160947 -0.0001167135 -0.0001053827 -8.68468e-05 -0.8195338481 0.196763471
130299220.0 0.1230178313 0.0312851964 -1.50945e-05 7.15429e-05 -0.000152851 6.8246e-05 -0.8177299572 0.2060990317
135299190.0 0.1247010146 0.0278472085 -3.38765e-05 6.43983e-05 0.0001381221 5.30577e-05 -0.8162567974 0.2149544529
140299160.0 0.1260885527 0.0242639098 5.04481e-05 -0.0001256146 -0.0002915537 7.25559e-05 -0.8139432971 0.2237430986
145299130.0 0.1272861443 0.0212210222 -0.0001039569 0.0002277188 9.44279e-05 -2.02634e-05 -0.8120283728 0.2326282889
150299100.0 0.1282402912 0.0176572836 0.0001350185 2.2168e-06 -5.48974e-05 0.000134326 -0.8093132518 0.2415617758
155299070.0 0.1290901508 0.0146468627 -8.51633e-05 7.73808e-05 -4.02924e-05 9.78199e-05 -0.8072344822 0.2505296571
160299040.0 0.1298267814 0.0115201889 0.0001662143 -9.41017e-05 0.0001664808 -9.62119e-05 -0.8047661127 0.258863817
165299010.0 0.1305798822 0.0084833636 8.89167e-05 0.000332901 4.73217e-05 -8.34472e-05 -0.8019599337 0.2670488809
170298980.0 0.1309763388 0.0050886734 0.0001939862 0.0001366894 -1.86509e-05 8.50258e-05 -0.7993366196 0.275837854
175298950.0 0.1314446346 0.0025683286 0.000264117 2.27239e-05 4.25445e-05 5.15306e-05 -0.7962883676 0.2849938949
180298920.0 0.1315375883 -0.0002955668 1.35765e-05 -0.0001495789 5.73943e-05 -3.11378e-05 -0.793580771 0.2931310351
185298890.0 0.1316590323 -0.0033753979 -0.0001454143 0.0001108348 3.3515e-05 -3.33818e-05 -0.7905608751 0.3014008751
190298860.0 0.131908567 -0.0058275177 5.90525e-05 0.0001144146 9.0196e-06 4.75418e-05 -0.7872407352 0.3103476301
195298830.0 0.1318984506 -0.0082527925 0.0002142787 0.0002049016 0.0001595249 0.0001387509 -0.7841424442 0.3180303488
200298800.0 0.1320997163 -0.011096236 2.0403e-05 0.0001965903 -0.0001510817 -5.1892e-06 -0.7807873126 0.3264219512
205298770.0 0.1314593048 -0.0136759608 0.0001282672 6.40811e-05 0.0001991448 0.0001069154 -0.7781407399 0.3351535051
210298740.0 0.1316342679 -0.0161478767 0.0001948089 0.0001324035 0.0003165477 8.08999e-05 -0.7745250883 0.3434712592
215298710.0 0.131286539 -0.0185076639 4.90075e-05 0.0001254628 0.0001703292 -0.0001064565 -0.7700641821 0.3514091565
220298680.0 0.1310581384 -0.0209042795 2.34918e-05 6.79653e-05 3.79276e-05 0.000226702 -0.7662773866 0.35951216
225298650.0 0.1307480273 -0.0233213989 0.0001511933 0.000309076 -4.55636e-05 0.0001696354 -0.7630545473 0.3673916409
230298620.0 0.1298939083 -0.0254449413 -5.47908e-05 0.0003089255 5.05373e-05 0.0001180152 -0.7590663682 0.3753570058
235298590.0 0.1294612939 -0.0275546991 5.6702e-05 0.0001601221 8.26617e-05 0.0001110412 -0.7553404752 0.3833062373
240298560.0 0.1288874059 -0.0296969315 0.0002359332 0.0002749995 -0.0001011749 -3.68e-07 -0.7511529357 0.3909940172
245298530.0 0.1284195735 -0.0317947992 8.65268e-05 0.0002857351 0.0001190125 0.0002435456 -0.7470979095 0.3989821937
250298500.0 0.1278519693 -0.0338916641 6.31913e-05 0.000219915 -2.15184e-05 1.86454e-05 -0.7429703711 0.4072746823
255298470.0 0.1273138562 -0.0356086903 0.000310858 -1.4796e-06 0.0001438633 0.0001127811 -0.738850441 0.4146518789
260298440.0 0.1265501986 -0.0380106286 7.04763e-05 9.177e-05 3.7171e-06 -2.45105e-05 -0.7336951586 0.4220395994
265298410.0 0.1260154059 -0.039811404 0.0001389179 8.26576e-05 7.46574e-05 0.0001961237 -0.7298126164 0.4300774048
270298380.0 0.1251583751 -0.041940014 0.0003318542 0.0002031961 7.93113e-05 0.0003134169 -0.7250216645 0.4379619154
275298350.0 0.1243927211 -0.0435181479 7.55492e-05 -0.0002252783 3.80314e-05 4.63125e-05 -0.7200343444 0.4452108404
280298320.0 0.1234629374 -0.0454575903 0.0002180942 2.00464e-05 0.0001015871 7.33969e-05 -0.7161009756 0.4527495209
285298290.0 0.1228323988 -0.0472333131 6.63843e-05 0.0002978786 0.0002441263 -2.76987e-05 -0.7114234932 0.4607795285
290298260.0 0.1218693641 -0.0489942991 0.0001012674 -0.0001387978 0.0002323324 8.74296e-05 -0.7070054558 0.4674055659
295298230.0 0.1210291669 -0.0511010112 -1.16313e-05 -2.62254e-05 0.0001618415 7.38311e-05 -0.7015027616 0.4749699066
300298200.0 0.1204335196 -0.052560822 0.0002050735 7.1824e-06 0.0002797535 0.0001202302 -0.6967919345 0.4819634385
305298170.0 0.1193268154 -0.0543997185 -0.000181598 0.0001140148 6.99419e-05 0.0002148544 -0.6911590956 0.4894903565
310298140.0 0.118517176 -0.0567003692 0.0001404144 4.54067e-05 8.08463e-05 0.0001130428 -0.6862476505 0.4970666826
315298110.0 0.117459351 -0.0584281372 5.64775e-05 -4.92377e-05 1.17198e-05 0.0002249031 -0.6813894352 0.5037139744
320298080.0 0.1162950017 -0.0600396915 0.000143819 0.0003138385 4.4588e-06 0.0002973235 -0.6762721826 0.5109128481
325298050.0 0.1146096903 -0.0622760801 0.0002033163 9.38642e-05 0.0001624421 0.0001806352 -0.6701685913 0.5178490618
330298020.0 0.1135567801 -0.0633901762 8.8006e-06 6.2314e-05 0.0003683212 0.000243696 -0.6653951343 0.5245926748
335297990.0 0.1121490191 -0.064858449 0.0001394613 0.0001033766 0.0001521427 4.50092e-05 -0.6593933046 0.531775183
340297960.0 0.110929043 -0.0661885007 0.0001747337 0.0002579031 0.000169391 -8.91652e-05 -0.65425733 0.5381665032
345297930.0 0.1096779095 -0.0674513819 0.0001918098 0.0002254118 0.0001986845 5.3261e-06 -0.6486949351 0.5447970655
350297900.0 0.1086239419 -0.0690255292 0.0001302988 0.0001294607 2.41147e-05 0.0001772072 -0.6434025449 0.5513635326
355297870.0 0.1071409671 -0.0703650473 0.0003146959 7.89599e-05 0.0001035107 7.53745e-05 -0.6367083033 0.5586057725
360297840.0 0.1060944694 -0.0718634211 0.0002105298 0.0001092792 0.000100202 0.0002618253 -0.6303581911 0.5650315347
365297810.0 0.1049878436 -0.0728002512 0.0001585944 9.16515e-05 0.0001149416 7.9684e-05 -0.6256323309 0.5712892397
370297780.0 0.1036996248 -0.074325724 -1.217e-07 0.0001582268 0.000131634 0.000204141 -0.6191262531 0.5772695106
375297750.0 0.1027921439 -0.0756304433 0.0002073322 4.03649e-05 0.0003272289 -1.43869e-05 -0.6134836075 0.5837917073
380297720.0 0.1014657629 -0.076582899 0.0002104 0.0002158335 0.0001946117 0.0001287038 -0.6070937127 0.5899826286
385297690.0 0.100211139 -0.0780617866 0.0002424502 0.0001268467 -6.69108e-05 0.0002098885 -0.6012217844 0.5964986663
390297660.0 0.0990040575 -0.0796615231 0.0002146951 0.0001423775 0.0002309489 0.0002544203 -0.594389253 0.6021952295
395297630.0 0.0977767424 -0.0805664619 0.0001897424 1.7081e-05 0.0001164168 -2.3832e-06 -0.5881835819 0.6078764779
400297600.0 0.0961523251 -0.0818920386 0.0001902411 0.0002092634 8.37068e-05 9.66703e-05 -0.5828957975 0.6144994821
405297570.0 0.0950336825 -0.0831053566 0.0004197744 0.0003292586 0.0001998276 5.19049e-05 -0.5753898076 0.6201302172
410297540.0 0.0942477065 -0.084353514 0.0002830939 2.5636e-06 4.87782e-05 5.74076e-05 -0.5689374108 0.6256595301
415297510.0 0.092686911 -0.0853005572 0.000137553 -4.61133e-05 0.0002171239 0.0002260766 -0.5630657506 0.6313091629
420297480.0 0.0914256328 -0.0869022588 0.0002386884 0.000254229 0.0002922849 0.0003884994 -0.5569666217 0.6379533573
425297450.0 0.090473131 -0.0875110595 0.0001487497 -2.43809e-05 0.0001462642 0.0001522554 -0.5494078158 0.6424639742
430297420.0 0.0889874026 -0.0890638316 0.0001428457 -1.97097e-05 0.0002144638 9.65958e-05 -0.5435037621 0.6483271452
435297390.0 0.0877032732 -0.0898282388 0.0001855209 0.000397434 0.0002803754 2.88996e-05 -0.5365981007 0.6542712891
440297360.0 0.0863538775 -0.0908014491 0.0001470856 -0.0001556859 0.0002154316 8.16599e-05 -0.5302231553 0.659365737
445297330.0 0.0852345726 -0.0921923783 0.0002168579 1.03373e-05 0.0002530564 0.000282025 -0.5228840064 0.6646356202
450297300.0 0.0840079001 -0.0931201799 0.0002314774 0.0001862723 0.0001919642 0.0002162494 -0.5157206981 0.6698504494
455297270.0 0.0824273568 -0.094050937 0.0001956773 0.0001063009 0.0001723664 4.9591e-05 -0.5089247835 0.6747217367
460297240.0 0.0814631724 -0.0950229942 0.0002431492 0.0003623653 0.0001035488 0.0001113912 -0.5021862538 0.6798934511
465297210.0 0.0803457879 -0.0959696722 0.0002499311 0.0001385425 0.0003164279 -0.0001513746 -0.4951684554 0.6855317164
470297180.0 0.0790579272 -0.0968795521 0.0003001984 0.0003010885 0.0002599407 0.0001490804 -0.487970077 0.6900517421
475297150.0 0.077164733 -0.0975939015 0.0002091091 2.56278e-05 0.0002350895 2.41355e-05 -0.480991939 0.6954975308
480297120.0 0.0762585511 -0.098764427 0.0001853661 2.57162e-05 0.0003854662 0.0002205042 -0.4742940068 0.7000217033
485297090.0 0.0747284074 -0.0993720907 0.0003370408 4.33695e-05 0.0001442329 4.13591e-05 -0.4670080618 0.70500712
490297060.0 0.0739146852 -0.1001858662 0.0001585754 0.000117167 0.0002061417 -4.41977e-05 -0.4597649735 0.7086180754
495297030.0 0.0723667157 -0.101194478 0.0003312667 -2.06359e-05 0.0001048548 7.10079e-05 -0.452433292 0.7134962071
500297000.0 0.0709762409 -0.1016890662 0.0002035842 -3.8713e-05 0.0002167912 6.81561e-05 -0.4453158356 0.7181824323
505296970.0 0.0697655072 -0.1027891864 3.15874e-05 0.0001272919 0.0001826041 0.0003047559 -0.437641908 0.7227371866
510296940.0 0.0685968314 -0.1033724283 0.0004680328 0.0002421305 0.0001936226 5.03552e-05 -0.4301122201 0.7275562432
515296910.0 0.0669508819 -0.1038262901 0.0003768975 8.57873e-05 0.0003598171 -0.0001085728 -0.4230731273 0.7308762456
520296880.0 0.065998788 -0.1048930347 1.88651e-05 -7.8989e-06 0.0003224279 7.03071e-05 -0.4153652336 0.7359292049
525296850.0 0.0643795332 -0.1058213751 -9.92053e-05 8.70499e-05 0.0001751546 7.831e-05 -0.4082387347 0.7393209058
530296820.0 0.0630798504 -0.1061711644 7.23335e-05 5.3142e-06 0.00031912 0.0001031866 -0.4007781494 0.7437191387
535296790.0 0.0621055369 -0.1066947231 0.0003132145 5.28412e-05 0.0002455068 -4.40324e-05 -0.3932010586 0.748190276
540296760.0 0.0607942853 -0.1074063178 0.000261313 -8.43299e-05 0.0004532716 3.23495e-05 -0.3848743445 0.7511589839
545296730.0 0.0591106341 -0.1077068499 0.000186548 0.0002650195 0.0003923757 -6.50754e-05 -0.3776680019 0.755112577
550296700.0 0.0579921065 -0.1082152448 0.0001204169 0.000324181 0.0001379475 0.0001009969 -0.3696907989 0.7591039985
555296670.0 0.0563433786 -0.1086569411 0.0003557376 0.0001659787 0.0001172368 -8.97046e-05 -0.3625826926 0.7625881125
560296640.0 0.0552585367 -0.1092712708 0.0001758081 0.0002577473 0.0002395088 0.0001199183 -0.3545362606 0.7666598022
565296610.0 0.0538202064 -0.1096574215 0.0002433534 0.0001566965 0.0003231404 9.75107e-05 -0.3467932111 0.7695934321
570296580.0 0.0522483758 -0.110021489 1.39936e-05 9.87895e-05 0.0002468232 -1.8407e-05 -0.3387718325 0.7733275816
575296550.0 0.051132785 -0.1106035172 0.0004376745 9.61999e-05 0.0002994987 -1.02386e-05 -0.3312959328 0.776136379
580296520.0 0.0499484141 -0.1106542149 0.0001539037 0.0001762105 8.58413e-05 -0.0001908579 -0.3236707442 0.779596136
585296490.0 0.0483915904 -0.1110594052 0.0003868524 6.74063e-05 0.0002617696 -4.76311e-05 -0.3152324987 0.7830768907
590296460.0 0.0471953867 -0.1112531358 0.0002914017 0.0001046792 0.0002668466 7.37972e-05 -0.3076908377 0.7858558547
595296430.0 0.0456315644 -0.1117158079 0.0004289164 0.000258427 0.0003758246 6.51802e-05 -0.3000331074 0.789353049
600296400.0 0.0443830783 -0.1120504119 0.0001292796 -5.58152e-05 0.0002956485 3.8572e-05 -0.2923402243 0.7920052896
605296370.0 0.0426236166 -0.1120991343 0.0001376962 -3.04058e-05 0.0002436034 0.0001891077 -0.28384514 0.7948966933
610296340.0 0.0416221339 -0.1127217358 0.0003401131 2.53125e-05 0.0003698713 -4.7819e-06 -0.2758568319 0.7975475233
615296310.0 0.0403441284 -0.1126589922 0.0003759667 -0.0002499266 0.000370034 1.25746e-05 -0.2674075206 0.8007237691
620296280.0 0.0387664405 -0.1127213802 0.0002560868 0.0001192184 0.0002773444 -5.15481e-05 -0.2603729014 0.8033647511
625296250.0 0.037300716 -0.1129558945 0.0005069851 1.90469e-05 0.0002840387 -7.80003e-05 -0.2516490407 0.8052975185
630296220.0 0.035882695 -0.1128776636 1.96206e-05 -4.28945e-05 0.0002571051 6.29565e-05 -0.2433871447 0.8077236939
635296190.0 0.0343750263 -0.1130615243 0.0003273613 0.000120303 0.0004358766 4.53467e-05 -0.2355855194 0.8097795402
640296160.0 0.0329641212 -0.1131799265 8.69613e-05 0.0001589299 0.0002257235 0.0001112747 -0.2270275465 0.8123642732
645296130.0 0.0318223531 -0.1132293017 0.0002279476 -9.60015e-05 0.0003725064 -0.0001073511 -0.2194814856 0.8143922523
650296100.0 0.0302258381 -0.1131824804 0.0002432431 -3.32353e-05 0.0004213109 0.0001076439 -0.2108300955 0.8169041911
655296070.0 0.0288414752 -0.113215125 0.0004377041 -1.43297e-05 0.0004980531 -5.93611e-05 -0.2034014747 0.8189948187
660296040.0 0.0271845997 -0.1132063228 0.0002331065 -0.0001731751 0.0003159174 -1.12007e-05 -0.1937316972 0.8209613874
665296010.0 0.0257543144 -0.1131541254 0.000333994 -8.34411e-05 0.0003705179 -4.87416e-05 -0.1861769553 0.8222140554
670295980.0 0.0243531242 -0.1131135974 0.0004018655 -0.0001002832 0.0005819928 6.99554e-05 -0.1780092118 0.8245345899
675295950.0 0.0229728525 -0.1133114903 0.0002427078 -3.26832e-05 0.0003618474 -1.58826e-05 -0.1694636697 0.8268250295
680295920.0 0.0213173055 -0.1130267267 0.0004204389 2.37847e-05 0.0004030974 4.6006e-05 -0.1614345663 0.8281040782
685295890.0 0.0198533558 -0.1128464789 0.0004418154 -5.89554e-05 0.0003208464 -3.93373e-05 -0.1530843185 0.8297838615
690295860.0 0.0184883678 -0.1126065256 0.000360165 2.2526e-05 0.0003188077 -3.81301e-05 -0.1451725523 0.8311858967
695295830.0 0.0167603556 -0.1128280634 0.0004553821 -4.10063e-05 0.0002633997 -0.0001342262 -0.1368106307 0.8332944607
700295800.0 0.0154876661 -0.1125045144 0.0002104444 -4.83821e-05 0.0002696772 -0.0001207153 -0.1280042762 0.8332496587
705295770.0 0.0140787456 -0.1123145214 0.0005338637 5.9677e-06 0.0005389945 1.31467e-05 -0.1203640496 0.8352381569
710295740.0 0.0125259531 -0.1122190235 0.0002614236 -9.63581e-05 0.0001587316 3.0948e-06 -0.1119338679 0.8360234798
715295710.0 0.0115031369 -0.1119395686 0.0003050515 -8.74785e-05 0.000412399 -0.0002053121 -0.1029813707 0.8363815996
720295680.0 0.0098941325 -0.1116879386 0.000428577 6.31187e-05 0.0002778542 -0.0001384536 -0.0949788424 0.8374440732
725295650.0 0.0081460388 -0.1112354659 0.0002245754 -9.61443e-05 0.0002672186 -0.000165042 -0.0867234691 0.8390202731
730295620.0 0.0064678599 -0.111320102 0.0002905866 0.0001008093 0.0003918362 -7.58105e-05 -0.0791139179 0.8402986101
735295590.0 0.0051046966 -0.1109869755 0.0001909468 -9.49268e-05 0.0003783112 0.0001380361 -0.0697326663 0.8405572341
740295560.0 0.0035445101 -0.1107506908 0.000517541 -0.0002369581 0.0002852501 0.0001228862 -0.0614885233 0.8415019321
745295530.0 0.0021930096 -0.1106283215 3.4316e-06 8.98432e-05 0.0003449284 -3.34263e-05 -0.0532089044 0.8416643729
750295500.0 0.0008090839 -0.1100400213 0.0004120182 -0.0001680054 0.0004430926 9.12998e-05 -0.0448671849 0.8420524073
755295470.0 -0.001024551 -0.1101086589 0.000325338 -4.11004e-05 0.0003570099 -0.0001129847 -0.0365005261 0.8428465712
760295440.0 -0.0022930936 -0.1091591298 0.0003416427 6.66277e-05 0.0006637778 -6.47354e-05 -0.0276919545 0.8427005841
765295410.0 -0.0038024936 -0.1091775282 0.0004313349 4.3575e-05 0.000423092 -8.4922e-06 -0.0195589777 0.843208556
770295380.0 -0.0051369179 -0.1085054579 0.0003147266 0.0001206176 0.000378325 -4.12752e-05 -0.0111882274 0.843039774
775295350.0 -0.0067001564 -0.108334275 0.0001493843 -2.48265e-05 0.0003680422 -0.0002132697 -0.002710581 0.8426902766
780295320.0 -0.0080938037 -0.1078503641 0.0005909296 -0.0003679639 0.0002573369 -0.0001175214 0.0054225894 0.8438550519
785295290.0 -0.0096038539 -0.1076095816 0.0002270414 0.0001321195 0.0002337265 2.853e-06 0.0134271686 0.8436240963
790295260.0 -0.0111910872 -0.1073460141 0.0003211592 -0.0001773768 0.0003965008 -7.46247e-05 0.0221227042 0.8434950454
795295230.0 -0.0126446225 -0.1068980154 0.0004535592 -0.0001860053 0.0001861382 -0.0001076965 0.0303280106 0.842330231
800295200.0 -0.0139976407 -0.1066044592 0.0003147883 -0.0001057489 0.0004474282 2.40356e-05 0.0385632912 0.8424154395
805295170.0 -0.0154383517 -0.1059962733 0.0003323864 -0.0001767426 0.0002875493 -0.0001804202 0.0474878883 0.8417125734
810295140.0 -0.0166751021 -0.105238739 0.0001711918 -6.93576e-05 0.000424578 -3.41278e-05 0.0558577705 0.8409260107
815295110.0 -0.018248907 -0.1047228274 0.0001639515 -0.0001274421 0.0003996357 -0.0001099371 0.0634776489 0.8410160578
820295080.0 -0.0199924027 -0.1046724717 0.0004546982 -0.0001074892 0.0003590763 -2.39933e-05 0.071650803 0.8405638168
825295050.0 -0.0215832125 -0.104134579 0.0002205634 -9.9075e-05 0.0004388926 -0.0001063354 0.080315892 0.839376045
830295020.0 -0.0227424539 -0.1036385283 0.0004681129 -9.20186e-05 0.0003765765 -9.27382e-05 0.0881861606 0.8382296752
835294990.0 -0.023954924 -0.1031312382 0.0005592566 -5.04056e-05 0.0003624818 -0.0001108613 0.0969298483 0.8376726297
840294960.0 -0.0254556544 -0.1027196691 0.0005100832 3.94811e-05 0.0004711741 -0.0001613294 0.1057143911 0.8369069966
845294930.0 -0.0269190617 -0.1018659865 0.0003352385 -0.0002183736 0.0003206856 -0.0001120387 0.1139006412 0.8354063795
850294900.0 -0.0277217164 -0.1016279191 0.0002643944 -0.0001114722 0.0003509441 -0.0002606671 0.1214350861 0.834821337
