!Created with skrf (http://scikit-rf.org).
# Hz S RI R 50.0 
!freq ReS11 ImS11 ReS21 ImS21 ReS12 ImS12 ReS22 ImS22
300000.0 -0.7798870158 -0.1252196703 -0.0011691505 -4.61759e-05 0.0003172484 0.0007749864 0.859362171 -0.0028425313
5299970.0 -0.7851632024 -0.0068187888 0.0001141628 8.29711e-05 -0.0001576785 -4.86602e-05 0.8597803983 -0.0106266565
10299940.0 -0.7876903997 -0.0039673325 -2.78582e-05 9.082e-05 0.0001175532 -0.0001013977 0.8588719946 -0.0189003576
15299910.0 -0.7935018361 -0.0019768465 6.47615e-05 -3.64892e-05 -0.0001773557 3.62352e-05 0.8577670909 -0.0272543849
20299880.0 -0.8001247021 0.0020317363 -0.0001110594 -5.99703e-05 0.0001384227 1.822e-06 0.8566970936 -0.035692698
25299850.0 -0.8062673955 0.0071929896 -0.0001090683 -4.3635e-06 5.29164e-05 -0.0002962302 0.8563031244 -0.0434888449
30299820.0 -0.8125096682 0.0152362456 -8.4234e-06 0.0001940118 3.68209e-05 0.0001487699 0.8552368005 -0.0519490755
35299790.0 -0.8172237798 0.0245932627 -2.31644e-05 0.0001140862 -6.15886e-05 -9.68036e-05 0.854422681 -0.0600398754
40299760.0 -0.8216610326 0.0340739564 -3.23455e-05 -9.46355e-05 1.67615e-05 2.26043e-05 0.8536237549 -0.0677090875
45299730.0 -0.8245911735 0.0432525681 0.0001176585 -0.0003653911 0.0001276029 -0.0001403527 0.8523800303 -0.076319629
50299700.0 -0.8273044351 0.0531933015 -0.0001023947 0.0001689685 0.0001569879 -1.18078e-05 0.8513639192 -0.0843392968
55299670.0 -0.8294440022 0.0632117128 3.96917e-05 0.0001815585 0.0002885346 2.06752e-05 0.8504230141 -0.0926266894
60299640.0 -0.8305263476 0.0737198389 -1.56247e-05 0.0002081086 -0.0001784419 -6.0411e-06 0.8489924582 -0.1008084631
65299610.0 -0.8313053272 0.0837697843 -3.43857e-05 -0.0001473922 -7.13589e-05 2.39975e-05 0.8485796592 -0.1093127385
70299580.0 -0.8320136447 0.093998575 5.06126e-05 -7.7017e-05 -5.67176e-05 6.29875e-05 0.8464422179 -0.117225399
75299550.0 -0.8317969327 0.1037809983 -3.9636e-05 -5.57875e-05 9.27101e-05 -0.0001104012 0.8457763146 -0.1252737682
80299520.0 -0.8319189445 0.1136979301 -3.99348e-05 -3.00393e-05 5.22784e-05 3.60083e-05 0.8440804526 -0.1340603372
85299490.0 -0.8310547845 0.1233397508 -0.0001674973 4.74498e-05 0.0001740227 -0.0001556952 0.8428488777 -0.1422190911
90299460.0 -0.8295644233 0.1328633366 9.46603e-05 -0.0001497841 9.18607e-05 -3.58001e-05 0.8414061218 -0.1503434152
95299430.0 -0.8293741153 0.1422042069 3.35857e-05 4.02409e-05 6.93999e-05 -3.41665e-05 0.8398897041 -0.1584150399
100299400.0 -0.8283223095 0.1509021946 -0.0001384136 -2.36679e-05 -0.0001678987 0.0001698467 0.838409406 -0.1669262725
105299370.0 -0.8268750501 0.1607817262 0.0001567824 -0.0001931354 -0.0001760936 0.0001320178 0.8369247675 -0.1746260421
110299340.0 -0.8254459128 0.1695855807 -0.0001888012 4.45717e-05 -0.0001286469 -0.0002537386 0.8352655689 -0.1830182792
115299310.0 -0.8240886343 0.1784315142 -2.13092e-05 1.9572e-06 0.0001403426 8.90944e-05 0.8333389133 -0.1912153891
120299280.0 -0.8217882776 0.187396235 -2.69551e-05 -5.91056e-05 6.22702e-05 5.0238e-06 0.8321730558 -0.199635573
125299250.0 -0.8201095922 0.1962077224 -3.72871e-05 -0.0001163373 -0.000222564 -0.0001832038 0.8302514123 -0.2073906158
130299220.0 -0.8190416901 0.2056300816 0.000176656 -6.12556e-05 2.43971e-05 -0.0001675745 0.8284723883 -0.2155937286
135299190.0 -0.816734934 0.2140973845 5.76406e-05 0.0001957087 -0.0001297457 -9.57754e-05 0.8267308716 -0.2227004905
140299160.0 -0.8146479596 0.2236415942 1.45276e-05 0.000140151 2.59584e-05 1.72394e-05 0.8236038725 -0.2310074363
145299130.0 -0.8128283961 0.2326529688 -2.74278e-05 4.26304e-05 4.9635e-06 -0.0001805341 0.8218397009 -0.2393934508
150299100.0 -0.8098720386 0.2406236226 -7.80175e-05 -0.0001523881 -0.0001747394 4.23026e-05 0.8195506046 -0.247242057
155299070.0 -0.8076563585 0.2496154035 0.0001377 6.91172e-05 1.54242e-05 -9.81116e-05 0.8172728127 -0.2551941927
160299040.0 -0.8051380813 0.2585032315 1.1235e-06 -2.03666e-05 -0.0001755993 0.0002880328 0.8145842332 -0.2629528511
165299010.0 -0.8024877455 0.2671535427 5.78725e-05 7.27206e-05 7.92883e-05 -5.45933e-05 0.8118724343 -0.2706183291
170298980.0 -0.7995290163 0.2752146527 1.25155e-05 -9.27137e-05 5.42006e-05 4.85679e-05 0.8084892332 -0.278348342
175298950.0 -0.7975306736 0.2845020488 -0.000126965 -6.28039e-05 -0.0001087803 -7.14749e-05 0.8067486113 -0.2863257807
180298920.0 -0.7946078568 0.2928966729 0.0001066855 -0.0001868625 7.39719e-05 -0.0001263817 0.8037525269 -0.294173538
185298890.0 -0.7913287575 0.3006886361 -0.0002882847 0.0001897784 -9.84487e-05 -0.0001175485 0.8005859161 -0.3017073606
190298860.0 -0.7883862365 0.3097385191 -0.0001367117 5.53629e-05 -0.0001034284 2.18498e-05 0.7977385218 -0.3091419462
195298830.0 -0.785176358 0.3179630003 -0.0002835096 2.96288e-05 0.000137046 0.0001904435 0.7940514107 -0.3166884651
200298800.0 -0.7813628328 0.3260394173 -0.0001474292 -3.54424e-05 -8.99914e-05 -8.12001e-05 0.7911656971 -0.3247644929
205298770.0 -0.77844541 0.3344281416 6.4935e-05 -1.49584e-05 -8.61035e-05 -1.69864e-05 0.787804618 -0.3322274043
210298740.0 -0.7744780734 0.3426273847 7.01898e-05 -0.000106111 -0.000123919 2.10049e-05 0.7841825356 -0.3395407504
215298710.0 -0.7713168107 0.3508334608 -7.37873e-05 0.0001447211 7.01071e-05 9.337e-07 0.7807478823 -0.3471022846
220298680.0 -0.7674564674 0.3592274362 0.0002605953 3.85716e-05 -4.05584e-05 -0.0001106725 0.777213063 -0.3545376639
225298650.0 -0.76423877 0.3670983832 -0.0001794242 -2.09742e-05 0.0002802011 -0.000204015 0.7733686388 -0.3618338521
230298620.0 -0.7602847448 0.3748474168 6.13918e-05 -5.5985e-06 2.7151e-05 -9.56406e-05 0.7700674871 -0.3694480934
235298590.0 -0.7563346465 0.3835928076 -0.0001228663 -0.0002446884 -0.0002467873 5.62748e-05 0.7659815399 -0.377237295
240298560.0 -0.7521979205 0.3916991634 -0.0001315086 2.5394e-05 0.0001220738 -9.18532e-05 0.7621972665 -0.3845204023
245298530.0 -0.7490393918 0.398935564 -0.0001928588 3.68162e-05 -9.0434e-06 0.0001307576 0.7585565043 -0.391817841
250298500.0 -0.7439678557 0.4072136052 4.01865e-05 0.0003666635 7.288e-07 -0.0001221135 0.7541505952 -0.399120944
255298470.0 -0.7399743031 0.4137026627 7.12711e-05 -0.0001945067 6.56925e-05 -0.0003027939 0.7515943842 -0.4068877916
260298440.0 -0.735628771 0.4215303726 0.0001272369 0.000249902 -0.0002468385 -0.0001065172 0.7469180525 -0.4136592982
265298410.0 -0.7315698996 0.4298316143 -4.57912e-05 -4.40019e-05 -0.000207776 0.0001051622 0.7434759399 -0.420715082
270298380.0 -0.7266888547 0.4375499405 0.0002063092 9.6388e-06 -8.54109e-05 3.63357e-05 0.7395987855 -0.4280285122
275298350.0 -0.7217913929 0.4453841488 -0.0001864741 0.000184456 1.0527e-06 4.83296e-05 0.735509742 -0.4353322885
280298320.0 -0.7172605612 0.4524781769 0.0001083199 -2.67196e-05 9.96415e-05 -4.81562e-05 0.7315993078 -0.4429481362
285298290.0 -0.7127207896 0.4601633126 0.0002861196 -0.0001632034 0.0001618629 7.61685e-05 0.7269781935 -0.4498386679
290298260.0 -0.7077391792 0.467420678 -6.74741e-05 2.88412e-05 -1.48497e-05 -4.76459e-05 0.7229408551 -0.4570652995
295298230.0 -0.7023792118 0.4744942297 -7.90301e-05 -0.0001843419 0.0001275404 -0.0001430133 0.7196141007 -0.4646629094
300298200.0 -0.6980870688 0.4818221126 8.42558e-05 3.6442e-06 9.9304e-06 -7.43464e-05 0.7150737362 -0.4718100597
305298170.0 -0.6924211855 0.4884330264 -0.000221774 -8.76536e-05 0.0001082825 -8.75661e-05 0.7106381179 -0.4793801166
310298140.0 -0.6874258247 0.4963858309 1.37906e-05 -9.23149e-05 4.24984e-05 2.8776e-05 0.7056865824 -0.4870949142
315298110.0 -0.6825617764 0.503145673 0.0001001555 -2.03863e-05 0.0002479688 -0.0001435138 0.7006656681 -0.4941192503
320298080.0 -0.6774700771 0.5100549056 0.0001518112 3.43595e-05 -5.58318e-05 -1.64323e-05 0.6954736313 -0.5022774835
325298050.0 -0.671624596 0.5175324473 0.0001050761 -7.54165e-05 8.59343e-05 -5.75677e-05 0.690011356 -0.5092825817
330298020.0 -0.6661691605 0.5239073296 -4.53832e-05 -0.0001438082 -3.64148e-05 -0.0001549754 0.6837559936 -0.5153773372
335297990.0 -0.6607554182 0.530759196 0.0001285357 -3.67299e-05 6.0309e-06 -7.14033e-05 0.6786532176 -0.5214896701
340297960.0 -0.6553674225 0.5376486673 -0.0002569398 9.16222e-05 -5.44638e-05 9.81288e-05 0.6731729441 -0.5273169094
345297930.0 -0.6499055734 0.544001922 7.69613e-05 9.33758e-05 -8.68792e-05 -6.54795e-05 0.6674499135 -0.5348654966
350297900.0 -0.6442525133 0.5512184726 8.13024e-05 0.0001093276 -0.0002303776 0.0001145363 0.6617447439 -0.539486456
355297870.0 -0.6382646279 0.5579923009 -1.2848e-05 0.0002065866 0.000109341 -2.13241e-05 0.6565308201 -0.5459944699
360297840.0 -0.632328363 0.5641230458 -0.0001008231 -6.20935e-05 -0.0001725846 2.43093e-05 0.6509471043 -0.5529061633
365297810.0 -0.6269626054 0.5709776068 7.03365e-05 0.0002367894 -0.0001331572 7.66793e-05 0.6456317966 -0.5588092965
370297780.0 -0.6203737115 0.5772626455 0.0001819704 0.0001523849 -1.56104e-05 -0.0002119821 0.6402992128 -0.5642613498
375297750.0 -0.6144717553 0.5840265552 2.24656e-05 0.0003395817 0.0001010173 9.20027e-05 0.6342819161 -0.5703895955
380297720.0 -0.6086455508 0.5892135659 0.0001481797 -3.63038e-05 -0.000109773 5.38915e-05 0.6278934719 -0.5765460131
385297690.0 -0.6034925182 0.5955734135 -7.53328e-05 -0.0001449771 0.0001191538 -0.0001455854 0.6219655862 -0.5823389215
390297660.0 -0.59680947 0.6016654589 5.90496e-05 0.0002486128 4.86849e-05 -7.68995e-05 0.6163780862 -0.5881322239
395297630.0 -0.5896050468 0.6080727222 -6.52829e-05 -1.67074e-05 -8.12937e-05 -5.03119e-05 0.6104499789 -0.5939357611
400297600.0 -0.5839006479 0.6144711668 0.0001048438 5.6187e-05 -2.7638e-05 -0.0001704917 0.6047941597 -0.599367703
405297570.0 -0.577766623 0.6199825158 6.00525e-05 0.0001309108 0.0001645239 0.0001117995 0.5991562175 -0.6058586273
410297540.0 -0.5707935624 0.6256201175 2.25276e-05 -0.0001805356 -0.0001565985 -0.0001664696 0.5927093552 -0.6114452243
415297510.0 -0.5644261366 0.6315648104 4.95106e-05 0.0001469686 5.4721e-06 0.0001804553 0.5862207086 -0.6172742361
420297480.0 -0.5585882961 0.6378602167 -0.0002146087 -1.61023e-05 9.4878e-05 -0.0001139942 0.5812530711 -0.6220466905
425297450.0 -0.5514137491 0.6431362442 -4.96115e-05 -5.10795e-05 5.50942e-05 -7.15915e-05 0.574583634 -0.6287794328
430297420.0 -0.545154248 0.6483918108 -3.3108e-06 0.000150662 2.55724e-05 -5.80357e-05 0.5681374447 -0.6347310701
435297390.0 -0.538362022 0.6538558919 -4.35973e-05 5.8182e-05 0.0001033062 -0.0002890706 0.5618954254 -0.6397166737
440297360.0 -0.5315653397 0.6587709769 2.2612e-05 -0.0002492381 -6.56609e-05 2.34792e-05 0.5558246948 -0.6447398372
445297330.0 -0.5244557983 0.6644719678 4.38806e-05 -9.9355e-06 0.0001659786 0.0002367976 0.5500696325 -0.6514644456
450297300.0 -0.5179869201 0.6696092656 3.15698e-05 -0.0001594859 1.83841e-05 3.98597e-05 0.5432220137 -0.6555906427
455297270.0 -0.5116416386 0.674545063 -0.0001166545 5.13659e-05 3.97405e-05 -9.34587e-05 0.5369414886 -0.6612559828
460297240.0 -0.5046997502 0.6799599002 1.7134e-05 -8.75797e-05 7.2234e-05 -7.3316e-05 0.5304945592 -0.6665317128
465297210.0 -0.4972440022 0.6850958214 -7.05482e-05 -0.0001335452 -8.14345e-05 5.5705e-05 0.5236656924 -0.6710719285
470297180.0 -0.4900215174 0.6897297613 -2.30516e-05 -0.0001996788 -0.0001243416 -0.0001120805 0.5168522168 -0.6764870486
475297150.0 -0.4829756562 0.6940622692 6.77289e-05 -0.0001382751 -3.73101e-05 6.7647e-05 0.5102603277 -0.6818621647
480297120.0 -0.476171785 0.6997883737 -0.000101637 -9.2136e-06 -0.0001284196 6.64203e-05 0.5043600826 -0.6863122942
485297090.0 -0.4690900638 0.7039190118 0.0001778212 -0.0001162045 -3.07864e-05 -7.16236e-05 0.4981952028 -0.6909866592
490297060.0 -0.461902461 0.7087304795 0.000235025 -0.0001720185 4.8817e-06 4.16765e-05 0.4904077855 -0.6963385621
495297030.0 -0.4546860444 0.7132840303 0.0001281521 -9.70014e-05 -5.37251e-05 -0.0001117315 0.4834775885 -0.7005925423
500297000.0 -0.4471659316 0.7181920254 -0.0001001537 -0.0002317336 -7.17924e-05 -0.0001424867 0.4768632557 -0.7054464593
505296970.0 -0.439942738 0.7228397333 0.0001034638 2.92191e-05 0.0001719116 0.000105151 0.4693649368 -0.7102287883
510296940.0 -0.4324239446 0.7264347887 -4.3748e-06 -3.31445e-05 -8.61e-07 0.0001926343 0.4621174396 -0.7143011926
515296910.0 -0.4241016515 0.7304176683 -0.0001704415 -2.85096e-05 4.50771e-05 -6.61121e-05 0.4557318011 -0.7181632576
520296880.0 -0.4178481332 0.7355267061 -8.77228e-05 -0.0002441998 2.84913e-05 -0.0001259996 0.4485233309 -0.7230013701
525296850.0 -0.4102358549 0.7390111067 2.77119e-05 -8.40254e-05 3.89476e-05 4.14187e-05 0.4414291397 -0.7261953795
530296820.0 -0.4022527882 0.7432202833 7.60198e-05 -0.000226978 -5.70489e-05 -0.0001878878 0.4348700694 -0.7306510692
535296790.0 -0.3954147208 0.7467417925 -0.0001580599 6.8235e-05 -0.0002823873 -3.26006e-05 0.4263768506 -0.7352115568
540296760.0 -0.38771324 0.7509684535 -0.0001329467 0.0001280827 3.04359e-05 -3.56525e-05 0.4194082486 -0.7390259987
545296730.0 -0.380046648 0.7554747028 -2.08445e-05 2.24436e-05 -1.74917e-05 1.88561e-05 0.4118778017 -0.7431478649
550296700.0 -0.3728616577 0.7592121222 -0.0003042548 -0.0002831536 6.03386e-05 -1.08407e-05 0.4049085845 -0.747472979
555296670.0 -0.3646204246 0.7618932356 6.44305e-05 -3.56595e-05 -0.0001275089 3.83393e-05 0.3970940057 -0.7506355896
560296640.0 -0.3568023204 0.7665293363 -3.49573e-05 0.0001131512 -0.0002408448 -0.0002257773 0.3892595779 -0.7535955046
565296610.0 -0.3492626439 0.7696053408 -0.0001283419 0.0003054065 -9.14892e-05 -0.0002421023 0.3819717062 -0.7575466822
570296580.0 -0.341914437 0.7729788551 3.3075e-06 4.13205e-05 -0.0002276519 -3.28001e-05 0.3738355233 -0.7612185301
575296550.0 -0.3343190951 0.7769234704 -0.0002403851 -0.0001266704 9.0758e-06 0.0001475013 0.3666326619 -0.7646837344
580296520.0 -0.3259723057 0.7791914842 0.0001253581 -0.0001448898 0.0002115112 6.82876e-05 0.359562841 -0.7691786367
585296490.0 -0.3187893133 0.7832092371 -0.0002151346 -0.0001418474 -3.09685e-05 1.10845e-05 0.3523668584 -0.7722125266
590296460.0 -0.3101884647 0.7857986285 6.17257e-05 -1.35406e-05 -0.0001983542 0.0001226305 0.3439020343 -0.7749361893
595296430.0 -0.3020962021 0.7884995051 -6.67411e-05 0.0002479279 3.17101e-05 -0.0001436946 0.3362553875 -0.7783250064
600296400.0 -0.2941937126 0.7922254652 5.1464e-06 7.81781e-05 0.0001224765 -0.0001224879 0.3288289161 -0.7824579376
605296370.0 -0.2874650399 0.7951055826 0.0002749293 -5.20122e-05 0.0001377049 -0.0001746651 0.3208193951 -0.7851837324
610296340.0 -0.2783543602 0.7973576153 -1.63254e-05 2.01227e-05 -2.8854e-05 -2.75874e-05 0.3133432321 -0.7879808038
615296310.0 -0.2696412564 0.8002536279 4.33836e-05 2.0014e-06 0.0001839951 -1.1097e-06 0.305622268 -0.7911428727
620296280.0 -0.262235211 0.8023497726 5.03382e-05 0.0001298511 0.000287278 -9.6983e-05 0.2980551078 -0.7944117743
625296250.0 -0.2543473812 0.8056256127 -0.0001352443 -4.87423e-05 6.53973e-05 0.0001054662 0.2901019384 -0.7974702889
630296220.0 -0.2455694266 0.8076236474 0.0001191605 -3.73637e-05 -9.01267e-05 -4.60257e-05 0.2818414328 -0.8002171338
635296190.0 -0.2383525646 0.8101030002 0.0001521222 -6.73936e-05 -0.0002383552 -0.0001060021 0.2746954294 -0.8025870347
640296160.0 -0.2310020559 0.8123936518 -1.52221e-05 4.876e-05 5.62591e-05 6.5675e-06 0.2657937109 -0.8053449624
645296130.0 -0.2226040941 0.8149655736 -1.75702e-05 -6.92661e-05 0.0002062764 0.0001806857 0.2584719731 -0.8080099486
650296100.0 -0.2139000913 0.816648344 0.000157538 0.0001123436 7.86753e-05 9.25886e-05 0.2506174415 -0.8111559975
655296070.0 -0.205703004 0.8190005038 -4.12523e-05 4.01942e-05 5.79751e-05 -5.95311e-05 0.2435025308 -0.8120484675
660296040.0 -0.1970762903 0.8205728626 -0.0002461142 5.71943e-05 -9.54331e-05 0.0001041494 0.2352086877 -0.8150849763
665296010.0 -0.1892102193 0.8221038662 0.0002657477 -9.63937e-05 7.43217e-05 -0.0001208458 0.2269928746 -0.8168224132
670295980.0 -0.1811770459 0.8244138005 5.373e-05 0.0002864981 2.80479e-05 0.0002206864 0.2182550278 -0.8191620139
675295950.0 -0.1730739387 0.8258075315 -8.57579e-05 4.01221e-05 -5.56216e-05 -6.61583e-05 0.210319795 -0.8202155534
680295920.0 -0.1646209621 0.8283917861 0.0002233523 0.0001630034 0.0002999059 -7.64281e-05 0.2023970635 -0.8220558322
685295890.0 -0.1558226779 0.8301785264 6.68557e-05 9.16726e-05 -1.41414e-05 8.70657e-05 0.1942111411 -0.8239885037
690295860.0 -0.1482337399 0.8307616614 0.0001723963 0.0001008624 9.2212e-06 -9.70677e-05 0.1860091391 -0.8251894327
695295830.0 -0.1399463976 0.8319889722 -9.00994e-05 2.21195e-05 -6.18649e-05 -6.94931e-05 0.1780327057 -0.827281392
700295800.0 -0.1310689813 0.8338220182 0.0001457767 0.0002986366 7.87772e-05 0.0001697745 0.1697833561 -0.8292270141
705295770.0 -0.1239531167 0.8350766603 -2.89952e-05 -1.10536e-05 0.0001035315 0.0001280561 0.1610685635 -0.8294134515
710295740.0 -0.1148801569 0.8363755525 -3.33861e-05 0.0001067179 -0.0001032185 0.0001247884 0.1526166856 -0.8310938246
715295710.0 -0.1069135576 0.8367273894 -6.28249e-05 0.0001530862 -8.8329e-06 1.84583e-05 0.1449512804 -0.8322660859
720295680.0 -0.0983184836 0.8382702392 0.0001117621 9.36077e-05 -2.9761e-06 8.00749e-05 0.1368355394 -0.8335288857
725295650.0 -0.0900877928 0.8395655805 -0.000102875 -0.0002498949 2.41819e-05 4.8534e-05 0.128124143 -0.834462136
730295620.0 -0.0815369884 0.839974289 0.0001180885 0.0001428769 6.72373e-05 -0.0001174981 0.1189654192 -0.8360942227
735295590.0 -0.0738366812 0.8411341128 6.8743e-05 -6.67948e-05 7.3045e-06 -9.99665e-05 0.1114104087 -0.8371480805
740295560.0 -0.0653162082 0.8422697249 -0.0001572532 -0.0001169729 2.4445e-06 -5.96529e-05 0.1028526261 -0.8373814772
745295530.0 -0.0570278944 0.8421201159 0.0001134142 -0.0001816708 1.26191e-05 -3.3811e-05 0.0947527956 -0.8386056976
750295500.0 -0.0481508769 0.8428121667 -0.0001267834 -8.78992e-05 4.39652e-05 -9.17433e-05 0.0862266702 -0.8390886334
755295470.0 -0.040241908 0.8434607709 -2.29384e-05 0.000100661 -9.87535e-05 -3.72028e-05 0.0785899251 -0.8408663923
760295440.0 -0.0319727809 0.8438606475 -8.96769e-05 -0.0001803845 -0.000162077 -8.7723e-06 0.0697814082 -0.8410494651
765295410.0 -0.023596582 0.8437551982 8.3274e-06 -3.70623e-05 -2.48344e-05 0.000137167 0.0615722928 -0.841695227
770295380.0 -0.0159242758 0.8438341415 1.29531e-05 0.0001264276 4.02032e-05 8.4084e-05 0.0529762114 -0.8424631944
775295350.0 -0.0072252281 0.843887391 8.47386e-05 0.000128214 -7.89442e-05 -4.4142e-05 0.0440778558 -0.8427013178
780295320.0 0.00153876 0.8443000528 -7.48644e-05 5.29641e-05 0.000177269 -3.88411e-05 0.0363354341 -0.8429249935
785295290.0 0.009629133 0.8434333311 4.98644e-05 -9.57197e-05 2.52984e-05 -2.75727e-05 0.0286262393 -0.8432779658
790295260.0 0.0187896148 0.8438989447 -0.0001899904 0.0001258874 7.80349e-05 -0.000103989 0.0205301746 -0.8437496327
795295230.0 0.0261379808 0.8434541503 -3.64466e-05 0.0001697414 0.0002516582 -2.13838e-05 0.0117374779 -0.8442769001
800295200.0 0.0348498711 0.8426392294 -0.0001805547 -0.000203255 -2.31059e-05 1.15158e-05 0.0029588959 -0.8435482924
805295170.0 0.0434711279 0.8428127897 -0.0001121139 0.0001343619 -6.54772e-05 -6.2629e-05 -0.0056086305 -0.8431687123
810295140.0 0.0513849959 0.8420180762 2.80949e-05 -0.0001525213 0.0001652868 0.0002115648 -0.012627501 -0.8443580273
815295110.0 0.0596824802 0.8416036999 7.23696e-05 0.0001170624 6.86697e-05 3.60223e-05 -0.0218800608 -0.8430104559
820295080.0 0.0676498239 0.8410139086 1.13376e-05 9.98724e-05 4.41859e-05 4.22257e-05 -0.0306447589 -0.8426563488
825295050.0 0.0769887587 0.8402565178 6.40797e-05 0.0001269815 1.21064e-05 -0.000122249 -0.0377781658 -0.8425929515
830295020.0 0.084484331 0.8393776215 8.28373e-05 -4.2467e-05 -4.14139e-05 2.66261e-05 -0.04616812 -0.8415722641
835294990.0 0.0925479285 0.8388493886 -0.0002617895 -7.03374e-05 -9.83464e-05 0.0001298806 -0.0550836588 -0.8412029829
840294960.0 0.1008125945 0.8382458776 -0.0001911908 0.000184744 4.04322e-05 -7.15615e-05 -0.0627811359 -0.8403003285
845294930.0 0.1094020721 0.8363061599 6.8182e-06 2.69963e-05 7.86506e-05 -5.26663e-05 -0.0711387075 -0.8393512915
