!Created with skrf (http://scikit-rf.org).
# Hz S RI R 50.0 
!freq ReS11 ImS11 ReS21 ImS21 ReS12 ImS12 ReS22 ImS22
300000.0 -0.3211586747 -0.080180803 0.3762419687 0.0423624991 0.3747297077 0.0418086344 -0.3212958554 -0.0975228006
5299970.0 -0.3266543872 0.0046798043 0.3782123598 0.0022098556 0.3782322769 0.0023263815 -0.3239493598 0.0051940892
10299940.0 -0.3240512531 0.0133666415 0.3794901862 0.0021331441 0.3793494894 0.0021326244 -0.3215343199 0.0158709834
15299910.0 -0.3215545886 0.0204188834 0.3818613619 0.0021207884 0.3820130021 0.0017766521 -0.3180889897 0.0235293345
20299880.0 -0.3187185532 0.0263235411 0.3847647332 0.0017689761 0.3847680936 0.0014286081 -0.3146592815 0.0301345092
25299850.0 -0.3157289418 0.0316720378 0.3881664987 0.0001761725 0.3877919236 0.000316665 -0.3105802999 0.0361775089
30299820.0 -0.3127679504 0.0358516603 0.3913770329 -0.0022959753 0.3916953823 -0.0020968814 -0.3071246124 0.0410162883
35299790.0 -0.309913958 0.0399929543 0.3947304296 -0.0057266458 0.3948953417 -0.005418124 -0.3035426232 0.0451577736
40299760.0 -0.3072692969 0.043578142 0.3982714991 -0.0086908571 0.3980753563 -0.0089493033 -0.3002704536 0.0484123256
45299730.0 -0.3044221688 0.0465833478 0.4003897408 -0.0126546677 0.4010491746 -0.0128358839 -0.2973328939 0.0519707649
50299700.0 -0.3023968809 0.049632727 0.4033982713 -0.0172714612 0.4034719897 -0.0171503036 -0.2942096648 0.054322519
55299670.0 -0.300309017 0.0521284664 0.4055968388 -0.0223965521 0.4055750429 -0.0221254905 -0.2919588259 0.0571291776
60299640.0 -0.2980640997 0.0550234013 0.407456566 -0.0269590928 0.4076247373 -0.0267247265 -0.2889937483 0.059105498
65299610.0 -0.2963526581 0.0573009342 0.409070194 -0.0318336075 0.4090245231 -0.0322210042 -0.2871618343 0.0615242812
70299580.0 -0.294747143 0.0602040056 0.4106483185 -0.0372988874 0.4103546403 -0.0371289426 -0.2846753007 0.0642209196
75299550.0 -0.293009756 0.0627376632 0.4111741042 -0.0421374183 0.4113013408 -0.0423195114 -0.28328111 0.0659379444
80299520.0 -0.2915635579 0.0649142394 0.412183997 -0.0477656332 0.4123493264 -0.0476046164 -0.2815303011 0.0681009525
85299490.0 -0.2904849505 0.0667480506 0.4130177685 -0.0526665355 0.4129769893 -0.052596553 -0.2800168082 0.07002318
90299460.0 -0.2886921831 0.0694132588 0.4128753914 -0.0581947234 0.4133698044 -0.0579040341 -0.2782932098 0.071955891
95299430.0 -0.287374024 0.0715690941 0.4135409765 -0.0630210465 0.4134772931 -0.0632579396 -0.2766427654 0.0743796322
100299400.0 -0.2865767258 0.0741028219 0.4132275673 -0.0685028384 0.4132940609 -0.0682338587 -0.2751855385 0.0763716366
105299370.0 -0.2850282075 0.0765018985 0.4130899932 -0.0738051992 0.413713697 -0.0735860227 -0.2738688229 0.078155072
110299340.0 -0.2840252639 0.0785537179 0.4132270445 -0.0784949051 0.4131458447 -0.0783764487 -0.2728299158 0.0802947228
115299310.0 -0.282956782 0.0813242258 0.4130117814 -0.0838503009 0.4129052309 -0.084025734 -0.2717197405 0.0822857205
120299280.0 -0.2819581931 0.0831098236 0.4123172204 -0.0888990714 0.4122686787 -0.0888025309 -0.2701475211 0.0842596741
125299250.0 -0.2811475044 0.0855252798 0.4120654501 -0.0938956154 0.4122364601 -0.0937440201 -0.2696941941 0.0863049121
130299220.0 -0.2805827974 0.0881291272 0.4114314725 -0.0989213056 0.4108142236 -0.0990920418 -0.268304147 0.0887112561
135299190.0 -0.2791005405 0.0907134662 0.4103447727 -0.1043232208 0.4105213669 -0.1040433756 -0.2671083506 0.0908296096
140299160.0 -0.2783062398 0.0932384745 0.4095841821 -0.1091664519 0.4097795704 -0.1094357309 -0.2662554163 0.0933518197
145299130.0 -0.2772978304 0.095678276 0.4087252824 -0.1142709616 0.4084671995 -0.1139504362 -0.2654608449 0.0956842461
150299100.0 -0.2759429615 0.0981335419 0.4076534209 -0.1188422236 0.4074393634 -0.1183864677 -0.2642549477 0.0985652999
155299070.0 -0.2756549084 0.1007959562 0.4067464965 -0.1242218573 0.4062996874 -0.1239270187 -0.2632212484 0.1008424021
160299040.0 -0.274609524 0.1033657405 0.4055617675 -0.128872335 0.405267564 -0.1287057583 -0.2624798502 0.1033128062
165299010.0 -0.2737742429 0.1057337053 0.4040518983 -0.1338623382 0.4040319498 -0.1340286207 -0.2609089905 0.1057416968
170298980.0 -0.2730562265 0.1084730915 0.4027232404 -0.1385168566 0.4028381663 -0.1385453315 -0.2601995282 0.1080509355
175298950.0 -0.2718751695 0.1112317815 0.4014258939 -0.143031267 0.4011957074 -0.1432827609 -0.2594821924 0.1108496127
180298920.0 -0.2711029587 0.1139573712 0.4001526058 -0.1481468683 0.4001070146 -0.1480380009 -0.2586409674 0.1132810473
185298890.0 -0.2695460384 0.1163944402 0.3985635854 -0.1526582714 0.3984364043 -0.1526752762 -0.2575006977 0.1159489811
190298860.0 -0.268785556 0.1191974534 0.3972203907 -0.1574000527 0.3971558596 -0.1573458956 -0.2563383235 0.1180577398
195298830.0 -0.267752804 0.1217043504 0.3951028447 -0.1619478081 0.3952548163 -0.1620777541 -0.2551435598 0.1207340293
200298800.0 -0.2664879992 0.1246925654 0.3934772953 -0.1665269626 0.3935156464 -0.1668332779 -0.254555746 0.1232795706
205298770.0 -0.2652978025 0.1271215819 0.3916116039 -0.1714955944 0.3916433882 -0.1711126861 -0.2530364755 0.1254995538
210298740.0 -0.2644512587 0.1298238475 0.389922064 -0.1756040179 0.3897187933 -0.1757368365 -0.2518630111 0.1286328756
215298710.0 -0.2636888586 0.1327898252 0.388004635 -0.1802141596 0.3876675867 -0.1804919166 -0.2511809948 0.1310254616
220298680.0 -0.2619554519 0.1350167844 0.3857914111 -0.1846554799 0.3860003164 -0.1844805532 -0.2501438725 0.133210261
225298650.0 -0.260994719 0.1379547196 0.383776085 -0.1892534356 0.3839278905 -0.1889702786 -0.2491724768 0.1358331912
230298620.0 -0.2595005034 0.1409047397 0.3818435766 -0.1933667977 0.3821226723 -0.1935051993 -0.2477780936 0.1389090453
235298590.0 -0.2583163902 0.1438273628 0.3798996067 -0.1977724671 0.3800188292 -0.1975183463 -0.2464449096 0.1410358785
240298560.0 -0.2573881488 0.1464978611 0.3777012795 -0.202448224 0.3777208417 -0.2023367542 -0.2452789603 0.1436324724
245298530.0 -0.2558106599 0.1490485257 0.3757570585 -0.2072328898 0.375393941 -0.2068437253 -0.2437132859 0.145987921
250298500.0 -0.2542167868 0.1519046791 0.3727021151 -0.2109731651 0.3726999734 -0.2106020723 -0.2426736526 0.1488150638
255298470.0 -0.2528662585 0.1541924508 0.3704343251 -0.2149630767 0.3708026809 -0.2148783809 -0.2415114862 0.1511678748
260298440.0 -0.2515492061 0.1568627473 0.3683160177 -0.2197275225 0.3682454464 -0.2193054905 -0.239409367 0.1536731974
265298410.0 -0.2499750646 0.1600433228 0.3658181722 -0.2236860379 0.3664188296 -0.2234380902 -0.2384312462 0.15626552
270298380.0 -0.2486429463 0.1625352803 0.3636384086 -0.2276331061 0.3635577297 -0.2277908168 -0.2367427663 0.1588012721
275298350.0 -0.2468092491 0.1650594086 0.3605986086 -0.2318094522 0.3611690196 -0.2315692952 -0.235162838 0.1610168
280298320.0 -0.2450841293 0.1681193588 0.3586411567 -0.2360851031 0.3583989289 -0.2357695391 -0.2334465871 0.1637333933
285298290.0 -0.2435422962 0.1710476138 0.3557632766 -0.239934032 0.3560874873 -0.2397928588 -0.2317046727 0.1656835189
290298260.0 -0.241675339 0.1732370914 0.3531839474 -0.2438959657 0.3530609458 -0.2439969146 -0.2301987266 0.1689201116
295298230.0 -0.239968765 0.1754171268 0.3505782526 -0.2475248068 0.3504915657 -0.2478392239 -0.2283894401 0.1710572904
300298200.0 -0.2386915786 0.1785203128 0.3484562054 -0.2515794966 0.3480020884 -0.2520064992 -0.2268490943 0.173446928
305298170.0 -0.2366439186 0.1805608244 0.3448546443 -0.2559074064 0.344950459 -0.2558597162 -0.224449949 0.1758648588
310298140.0 -0.2347982548 0.183391977 0.3423022231 -0.2599832033 0.3420892208 -0.2593812213 -0.2230877519 0.1781897029
315298110.0 -0.232909793 0.1857393203 0.3394599424 -0.263468094 0.3394460141 -0.2635820099 -0.2214957658 0.1806270485
320298080.0 -0.2310333771 0.1882241581 0.3359131607 -0.2675727824 0.3363884971 -0.267479891 -0.2194848953 0.1830375991
325298050.0 -0.2292401037 0.1908615085 0.333588739 -0.2716461507 0.3333747601 -0.271179075 -0.2179816952 0.1853306489
330298020.0 -0.2275779214 0.1931019947 0.3299256607 -0.2753680826 0.3301226598 -0.275090492 -0.2163552793 0.1879782491
335297990.0 -0.2256377395 0.1955493798 0.3268606885 -0.2788013038 0.3270269499 -0.2787518721 -0.214791507 0.1905517683
340297960.0 -0.224080328 0.1981158623 0.3238774159 -0.2820920747 0.3234717718 -0.2822690324 -0.2120333134 0.1930858407
345297930.0 -0.2221106597 0.200670582 0.3204283243 -0.2859005956 0.3204330484 -0.2859810577 -0.2106587614 0.1950431876
350297900.0 -0.220202443 0.2032243637 0.3174047989 -0.2895071833 0.3172029732 -0.2894719036 -0.2087642988 0.1978577833
355297870.0 -0.2180532592 0.205978916 0.3142639436 -0.2930586733 0.3141345447 -0.2928255897 -0.2067981242 0.2001563021
360297840.0 -0.2161205571 0.2084013624 0.3111570917 -0.296173906 0.3113456218 -0.296330378 -0.2047708013 0.2027828796
365297810.0 -0.2139188374 0.2109249778 0.3074706074 -0.3000578377 0.3078402796 -0.3001451275 -0.2025489037 0.2049838825
370297780.0 -0.2118283799 0.2129896457 0.3041511444 -0.3028155331 0.3044439477 -0.3026113862 -0.2007652762 0.2074704007
375297750.0 -0.2095866207 0.2154919248 0.3010425655 -0.3061268368 0.3011613135 -0.3065723844 -0.1987526644 0.2094631404
380297720.0 -0.2074658194 0.2177834427 0.2971555773 -0.3098535059 0.2974526795 -0.3095668996 -0.1969392754 0.2120209192
385297690.0 -0.2052693116 0.2203264608 0.2938203486 -0.3127701668 0.293912367 -0.3130164151 -0.1947428966 0.2141271547
390297660.0 -0.20310939 0.2226932975 0.2907698097 -0.3162184159 0.290301129 -0.3158160455 -0.1926570221 0.2163744513
395297630.0 -0.2010724907 0.2252175203 0.2872332859 -0.3191609781 0.2871549839 -0.3195488986 -0.1899411114 0.218616604
400297600.0 -0.1986153155 0.2274781616 0.2831714984 -0.3228012981 0.2835177599 -0.3226952446 -0.1882194478 0.2208834845
405297570.0 -0.1965830241 0.2293732839 0.280071375 -0.3253102218 0.2800197245 -0.3251359154 -0.186207187 0.2227127191
410297540.0 -0.1937318716 0.2316678532 0.2763598302 -0.3286373467 0.2768396133 -0.3286858225 -0.1839657828 0.2253807923
415297510.0 -0.1912261043 0.2338230468 0.2723882583 -0.3318361487 0.2728539497 -0.3319826467 -0.1814503248 0.2275584702
420297480.0 -0.1892406634 0.2362018081 0.2690104418 -0.3347933827 0.2687134139 -0.3348028447 -0.1790535167 0.2292855189
425297450.0 -0.1863919838 0.2380358775 0.2655190119 -0.3373270155 0.2655900304 -0.3377062301 -0.1771796686 0.2314255607
430297420.0 -0.1842343046 0.2405271057 0.2614727134 -0.340294666 0.261673736 -0.3398675104 -0.1747523415 0.2330525946
435297390.0 -0.1818852824 0.2422295233 0.2576682149 -0.3429848312 0.2574754349 -0.3432423945 -0.1716730862 0.2350556082
440297360.0 -0.1793214155 0.2447811266 0.2539517346 -0.3459562311 0.2540027029 -0.346111993 -0.1695443896 0.236983982
445297330.0 -0.1766618808 0.2464672156 0.250168294 -0.3487710058 0.250117825 -0.3483764569 -0.1671367465 0.2382634296
450297300.0 -0.1742927243 0.2482763654 0.2462139018 -0.3510143867 0.2462724367 -0.3514832623 -0.1646441296 0.2404620211
455297270.0 -0.1713307444 0.250388158 0.2422538434 -0.3539206253 0.242377839 -0.3540357286 -0.1620638428 0.242493057
460297240.0 -0.1690702619 0.252496045 0.238293288 -0.3567575487 0.2384566352 -0.3568434462 -0.1597236386 0.2446384042
465297210.0 -0.1661773959 0.254403635 0.2347081209 -0.3590424747 0.2342582342 -0.3595216716 -0.1567648216 0.2458685547
470297180.0 -0.1635322389 0.2562099544 0.2302110575 -0.3616407655 0.2304571165 -0.3619588417 -0.1542625403 0.2480574338
475297150.0 -0.1609658708 0.2577887707 0.2262854954 -0.3637450341 0.2266729334 -0.3640222916 -0.1515015371 0.2493848077
480297120.0 -0.15837198 0.2600940589 0.2223674177 -0.3667574212 0.2225139025 -0.3668549946 -0.1487038001 0.2514933699
485297090.0 -0.1554183973 0.2616999083 0.2183134363 -0.3687537172 0.2187092369 -0.3685865051 -0.1463213534 0.2529822423
490297060.0 -0.1529506951 0.2636133446 0.2145143466 -0.37137152 0.2145517113 -0.3713406673 -0.143306134 0.2550098261
495297030.0 -0.1502276327 0.2652316983 0.2101247388 -0.3735473041 0.210921052 -0.3734147209 -0.1409637609 0.2565231992
500297000.0 -0.1470958563 0.2671208139 0.2063511948 -0.3756318082 0.2062168875 -0.3753183951 -0.1381342702 0.2588032398
505296970.0 -0.1445414373 0.2686997123 0.2023043908 -0.3776665649 0.2019163614 -0.3779459217 -0.1356866101 0.2602196904
510296940.0 -0.1420122478 0.2702340758 0.1977568621 -0.3801748752 0.1977449296 -0.3802591837 -0.1326568295 0.2615673912
515296910.0 -0.1387385359 0.2720842508 0.1936904961 -0.382413475 0.1935556946 -0.3823175327 -0.1298144138 0.2631467846
520296880.0 -0.1361329403 0.2738414952 0.18985947 -0.3845562036 0.189571058 -0.3844344884 -0.1272661557 0.2647273573
525296850.0 -0.1330096389 0.2747477823 0.1849516415 -0.386442099 0.1853441432 -0.3864160783 -0.1245071651 0.2664691816
530296820.0 -0.1301203409 0.2768593698 0.1812091604 -0.388716082 0.1810160135 -0.3884301755 -0.1213970266 0.2677968762
535296790.0 -0.1275686149 0.2782260338 0.1767041641 -0.3899506139 0.1769925693 -0.3901030305 -0.1192076999 0.2693234189
540296760.0 -0.1248743492 0.279848094 0.1729429792 -0.3923591834 0.172429685 -0.392160201 -0.1161640344 0.2709440625
545296730.0 -0.121703766 0.281192966 0.1682207099 -0.3939118041 0.1681237937 -0.3940594098 -0.1134997165 0.2719056037
550296700.0 -0.1184376693 0.2826848309 0.1635338625 -0.3957407703 0.1640022783 -0.3958918011 -0.1108769802 0.2735798681
555296670.0 -0.1157772344 0.2838544865 0.1599822598 -0.3976235836 0.1596871243 -0.3973522745 -0.1080431231 0.2754110933
560296640.0 -0.1125477431 0.2856205092 0.1552240722 -0.3992122618 0.1552142819 -0.3991660276 -0.1048237262 0.2763394137
565296610.0 -0.1097767717 0.2865928336 0.1507798481 -0.4009858043 0.1510501337 -0.4010519191 -0.1023870854 0.2774045234
570296580.0 -0.1068223468 0.2879404255 0.1468570813 -0.4027969575 0.1460149689 -0.4024541678 -0.0995530306 0.2788166688
575296550.0 -0.1038962253 0.2894932949 0.1422137534 -0.4040949431 0.1416399941 -0.4040838614 -0.0963069251 0.2801773487
580296520.0 -0.1006116435 0.290535219 0.1376022506 -0.4055259106 0.1376909918 -0.4056681079 -0.0933290078 0.2813186563
585296490.0 -0.0980253417 0.2913932443 0.1336159302 -0.4065559305 0.1336468388 -0.4071846076 -0.0906687795 0.2823489884
590296460.0 -0.0945295309 0.292576749 0.1287486367 -0.4080517767 0.1289881803 -0.4081075971 -0.0880976479 0.2835141301
595296430.0 -0.0914980215 0.2937733677 0.1243255048 -0.4096454838 0.1241187205 -0.4098749447 -0.0845728396 0.2843023127
600296400.0 -0.0885219643 0.2951812586 0.1197830637 -0.4109536136 0.1200500443 -0.4108485003 -0.0820721577 0.2851617629
605296370.0 -0.0857182471 0.2959531965 0.1155476108 -0.4122284046 0.1157145097 -0.412163533 -0.079048882 0.286272288
610296340.0 -0.0821813902 0.2968874195 0.1103922859 -0.413037294 0.1109343731 -0.4130119319 -0.0754235527 0.2870919901
615296310.0 -0.0790457864 0.2977236943 0.1061516224 -0.4141460024 0.1063515593 -0.4146828531 -0.0723284002 0.2880216372
620296280.0 -0.0758620544 0.2986935855 0.1018534012 -0.4154661968 0.1018250266 -0.4152389686 -0.0697599011 0.2890737306
625296250.0 -0.0731538357 0.299571631 0.0977114272 -0.4163337043 0.0974312684 -0.4170319834 -0.0661890911 0.2898686101
630296220.0 -0.069501458 0.3005811199 0.0926387238 -0.4177390787 0.0925662033 -0.417430889 -0.0634093066 0.2908104907
635296190.0 -0.066797962 0.3014653547 0.088285114 -0.4184031967 0.0882124274 -0.4187208712 -0.0601856008 0.2913857865
640296160.0 -0.0635376652 0.3026388149 0.0834375288 -0.4192205445 0.0837535011 -0.4193382904 -0.0571064996 0.2920071279
645296130.0 -0.0601864813 0.3033658992 0.078850081 -0.4199973651 0.0790790781 -0.419904796 -0.0541090906 0.2930517621
650296100.0 -0.0569383872 0.3038405994 0.0742419869 -0.4209807278 0.0747147681 -0.420530833 -0.0507239523 0.2930086291
655296070.0 -0.0538597136 0.3046912828 0.069774874 -0.4220350839 0.070078033 -0.4219961621 -0.0473342736 0.2942283776
660296040.0 -0.0512296519 0.3052483144 0.065913582 -0.4225315502 0.0654499316 -0.4224092365 -0.0441573916 0.294832741
665296010.0 -0.0473955458 0.3056963121 0.0606029165 -0.4233655253 0.0608775219 -0.4233001086 -0.0411254015 0.2960688095
670295980.0 -0.0450867757 0.3068725141 0.0560503303 -0.4237333215 0.056300069 -0.4235007162 -0.0385184658 0.2962220721
675295950.0 -0.0414190307 0.3073424147 0.0512942947 -0.4238738426 0.0515668231 -0.4236037207 -0.0355177464 0.2968313721
680295920.0 -0.0380155432 0.3080516425 0.0468256613 -0.4247575704 0.0463019962 -0.4248802747 -0.0316931598 0.2977565792
685295890.0 -0.0346243516 0.3085642829 0.0421101196 -0.4250573474 0.0419699434 -0.4250545281 -0.0284764938 0.2977161199
690295860.0 -0.0317018403 0.3088060248 0.0378605132 -0.4249734055 0.0376743548 -0.425508419 -0.0256855487 0.2988751718
695295830.0 -0.028428191 0.3091355447 0.0335391854 -0.4252932978 0.0330563384 -0.4258381824 -0.022547695 0.2993269112
700295800.0 -0.0249483378 0.3097362834 0.0283405098 -0.4259651146 0.028360057 -0.4260006476 -0.0199500153 0.2998884726
705295770.0 -0.0221549614 0.3104275674 0.0238496766 -0.4267752609 0.0241207336 -0.4264570703 -0.0166241677 0.3004297313
710295740.0 -0.0185625351 0.3109109976 0.0193340426 -0.4270222704 0.0193602664 -0.4269314181 -0.0135972358 0.300383073
715295710.0 -0.0156017537 0.3111511685 0.0150300752 -0.4265654545 0.0144511468 -0.4265213891 -0.0097655563 0.3006998899
720295680.0 -0.0120630523 0.3112397097 0.0099220179 -0.426865819 0.0100259182 -0.4270158756 -0.0069654683 0.3011298372
725295650.0 -0.0086955583 0.3117027723 0.0053844638 -0.4268779617 0.0057072681 -0.4270730053 -0.0043885919 0.3018773044
730295620.0 -0.00541372 0.3118778778 0.0006548873 -0.4267833103 0.0010211042 -0.4269067515 -0.0010815548 0.3017451303
735295590.0 -0.0022192715 0.3120165583 -0.0038528721 -0.4271366152 -0.0039609346 -0.4265341507 0.0018182656 0.3013172067
740295560.0 0.0008229538 0.3121063754 -0.0083842802 -0.4267988678 -0.008551727 -0.4266131647 0.0054464157 0.3021047533
745295530.0 0.0041138838 0.3125900386 -0.0133699888 -0.4262476391 -0.0130430847 -0.4264518848 0.0084152221 0.3016518971
750295500.0 0.0075864954 0.3124294827 -0.0177379202 -0.4261815972 -0.0179090037 -0.4263258315 0.0116293232 0.3018608548
755295470.0 0.0107722621 0.3120893657 -0.0219127027 -0.4257656365 -0.0220728789 -0.4264319164 0.0145716255 0.3012468499
760295440.0 0.0136733588 0.3120834895 -0.026727268 -0.4256244498 -0.0271377595 -0.4260354163 0.0182256368 0.3011946091
765295410.0 0.017048772 0.3127312927 -0.0315539057 -0.4250578098 -0.0317497426 -0.425793156 0.0209096539 0.3017383756
770295380.0 0.0202813769 0.3121525639 -0.0362875962 -0.4249355446 -0.0363793972 -0.4249627383 0.0242485794 0.3012644397
775295350.0 0.0232160668 0.3121351276 -0.0408842703 -0.4244016903 -0.0403232353 -0.4245143174 0.0269866364 0.3013356407
780295320.0 0.0268045958 0.3119732524 -0.0452491693 -0.423956425 -0.0449492722 -0.4240433221 0.0300569673 0.3010239116
785295290.0 0.0298795236 0.3114899702 -0.0503718083 -0.4230860169 -0.0498536239 -0.4232569887 0.0340522531 0.3007611227
790295260.0 0.0338415594 0.3118816302 -0.0542081587 -0.4230344939 -0.0538311875 -0.4227144999 0.0369767581 0.3007893226
795295230.0 0.0368057188 0.3111611825 -0.0591318101 -0.4221712902 -0.0588155147 -0.4221341833 0.0405725083 0.3003065019
800295200.0 0.0396110648 0.3111498393 -0.0637040394 -0.4211945067 -0.0636989098 -0.4211222299 0.0436742281 0.299942377
805295170.0 0.0432852107 0.3105512895 -0.0683130679 -0.4203749 -0.0680914072 -0.4208245031 0.0464964846 0.2995867178
810295140.0 0.0464666588 0.3101407518 -0.0724415602 -0.419780339 -0.0727486742 -0.4199175045 0.0500185995 0.2995364721
815295110.0 0.0494563657 0.3099312677 -0.0769335835 -0.4187773524 -0.0768077982 -0.4191250322 0.0532157307 0.2988074025
820295080.0 0.0524773786 0.3098581668 -0.0814791005 -0.417937569 -0.0813712559 -0.4179646876 0.0563390986 0.2982636248
825295050.0 0.0562928542 0.3090832325 -0.085750772 -0.4171158969 -0.0858676133 -0.4171634862 0.0593658847 0.2981999193
830295020.0 0.0593699475 0.3087282721 -0.0908557984 -0.4160355254 -0.0904557032 -0.4163677558 0.063160828 0.2973874391
