!Created with skrf (http://scikit-rf.org).
# Hz S RI R 50.0 
!freq ReS11 ImS11 ReS21 ImS21 ReS12 ImS12 ReS22 ImS22
300000.0 -0.2425708308 -0.0706154926 0.4739797068 0.0485118989 0.4703840548 0.0464887929 -0.2446531387 -0.0853599811
5299970.0 -0.244207429 0.0077348266 0.4734288358 0.0045498178 0.473981899 0.0049819856 -0.2444049304 0.0077331145
10299940.0 -0.2412488185 0.0188493701 0.4760667589 0.0060819712 0.475625593 0.0064902321 -0.2413826318 0.0203336889
15299910.0 -0.2366458441 0.0279734042 0.4792743044 0.0076993271 0.4795728548 0.0078079184 -0.2367629597 0.0293370339
20299880.0 -0.232197116 0.0354404376 0.4840150781 0.0084936245 0.4839863186 0.008589922 -0.231377496 0.0371989389
25299850.0 -0.2269600594 0.0421016819 0.4892060149 0.0072022017 0.4889132983 0.0076299209 -0.2252854052 0.0437531794
30299820.0 -0.2216320939 0.0472666895 0.4946388921 0.0053167474 0.494551735 0.005234229 -0.2196140585 0.0490349707
35299790.0 -0.2166513393 0.0512071983 0.500069154 0.0020591376 0.500054226 0.0023205582 -0.2141451917 0.053168177
40299760.0 -0.2114695214 0.05509822 0.5049065733 -0.0017944336 0.5051978075 -0.0017189347 -0.2084041225 0.0557419053
45299730.0 -0.2065428989 0.0577581235 0.5094823746 -0.006535755 0.509879638 -0.0067541526 -0.2033422868 0.058557636
50299700.0 -0.2024517323 0.0599444079 0.514045374 -0.0119486091 0.5142026136 -0.0117330693 -0.1988335704 0.0601825704
55299670.0 -0.1982968899 0.0615748626 0.5179352045 -0.0184622219 0.518012008 -0.0178667135 -0.1944987612 0.0618731302
60299640.0 -0.1943023914 0.0634182768 0.5214512931 -0.0244050149 0.5216806058 -0.0240366003 -0.1905110336 0.0627569612
65299610.0 -0.1910369815 0.0646531852 0.5242031985 -0.030850695 0.5243899049 -0.0308183341 -0.1870105154 0.0639479304
70299580.0 -0.187778752 0.0658344254 0.5266328037 -0.0372326179 0.5266240947 -0.0368935328 -0.1836902234 0.0644598057
75299550.0 -0.1850729499 0.0669161092 0.5284232959 -0.0436428203 0.5284572709 -0.043832782 -0.1806198291 0.0650158412
80299520.0 -0.1825790877 0.0679335837 0.5308955657 -0.0509026931 0.5305760518 -0.050764384 -0.1781353188 0.0658730791
85299490.0 -0.1801305891 0.0686323503 0.5316702451 -0.0574420379 0.5317771506 -0.0571777507 -0.1758289562 0.0659430073
90299460.0 -0.1776849758 0.0694497024 0.5324600465 -0.0647793302 0.5330096357 -0.064760258 -0.1737443433 0.0668252516
95299430.0 -0.1755752883 0.0702439703 0.5337722277 -0.0713884634 0.5336598345 -0.0719757167 -0.1712130874 0.0672041459
100299400.0 -0.1735946846 0.0715556477 0.5334175078 -0.0782736646 0.5341019432 -0.0783139591 -0.1692497172 0.067605213
105299370.0 -0.1720589581 0.0722389733 0.5343712866 -0.0856756449 0.5348011468 -0.0855041085 -0.1674984927 0.0683093709
110299340.0 -0.1702781873 0.0731220443 0.5344956572 -0.0921964519 0.5346859064 -0.0919386443 -0.1666873808 0.0685325952
115299310.0 -0.1686256918 0.0739275993 0.5345148828 -0.0987616256 0.5347125499 -0.0987581913 -0.1647814297 0.0691426342
120299280.0 -0.1673938429 0.0744406824 0.5345465042 -0.1056645844 0.5343392849 -0.1057944276 -0.1632166052 0.0695584838
125299250.0 -0.1659719256 0.075329546 0.5339906896 -0.1122468342 0.534478067 -0.1119461712 -0.1624602618 0.0697118243
130299220.0 -0.164958838 0.07656447 0.5332829926 -0.1191726375 0.5335442228 -0.1191312313 -0.1612394886 0.0703773849
135299190.0 -0.1641687094 0.0780234692 0.5330857235 -0.1260092676 0.5328603882 -0.1257564206 -0.1601651476 0.0712932014
140299160.0 -0.162786061 0.0788129489 0.5318250664 -0.1325710888 0.5322020663 -0.1323038372 -0.1592429912 0.0724923989
145299130.0 -0.1614001588 0.0798678075 0.5312640455 -0.1392496834 0.5309617949 -0.1391875828 -0.1582857077 0.0732953192
150299100.0 -0.1602397182 0.0812163369 0.5300927723 -0.1454371824 0.5296091771 -0.1450422001 -0.1571872052 0.0741665428
155299070.0 -0.1595727869 0.0821795005 0.5291745245 -0.152778481 0.5288391282 -0.152104204 -0.1563078534 0.074808077
160299040.0 -0.1583177976 0.0833671199 0.5275813085 -0.158732766 0.5272747019 -0.158616704 -0.1560589784 0.0756481055
165299010.0 -0.1573234312 0.0846660555 0.525702087 -0.1654891079 0.5259631454 -0.1652988008 -0.1547530049 0.0767092812
170298980.0 -0.1566181672 0.0857323578 0.5243320955 -0.1714029321 0.5246625879 -0.1715978322 -0.1539744787 0.0776447905
175298950.0 -0.1558501544 0.0871590554 0.5231257491 -0.177715817 0.522516669 -0.1777231596 -0.1533302325 0.0785842582
180298920.0 -0.154825051 0.0883747217 0.5212264948 -0.1837110712 0.5209448179 -0.1838847011 -0.1525253553 0.0797589726
185298890.0 -0.1536335621 0.0893870598 0.5195548783 -0.1902562504 0.5189318339 -0.1901348018 -0.1516525643 0.0807840363
190298860.0 -0.1526924025 0.0911293809 0.5173115757 -0.1965154001 0.5179476743 -0.1966267387 -0.1511292557 0.0817271258
195298830.0 -0.152021268 0.0919244794 0.515573434 -0.2024101668 0.5158760605 -0.2023419987 -0.1500999655 0.0829692574
200298800.0 -0.150716986 0.0937019162 0.5134314428 -0.2088785976 0.5133403445 -0.2091463037 -0.149778265 0.0838391892
205298770.0 -0.1496593354 0.0950266443 0.510618525 -0.215139613 0.5108271003 -0.2146720496 -0.148796747 0.0842651987
210298740.0 -0.148832763 0.0963127379 0.5087471482 -0.2205815775 0.5088692313 -0.2204793912 -0.147844598 0.0863825966
215298710.0 -0.1484564916 0.0977503702 0.506697242 -0.2268026838 0.5065781158 -0.2267948695 -0.147509254 0.087001962
220298680.0 -0.1472086349 0.0989900795 0.5036649924 -0.2326558967 0.5039964426 -0.2324146997 -0.1468211846 0.0882993219
225298650.0 -0.146141596 0.1003733489 0.5015352884 -0.2384596806 0.5019529482 -0.2384958989 -0.1460332029 0.0895919302
230298620.0 -0.1453098555 0.1018734025 0.4992183471 -0.2438448135 0.4994425052 -0.2445558196 -0.1454329918 0.0906585981
235298590.0 -0.1441814172 0.1036130835 0.4965880347 -0.2502338366 0.496511344 -0.2497433496 -0.1444566646 0.0920907746
240298560.0 -0.1430328526 0.104988612 0.4940077694 -0.2559157331 0.493671736 -0.2557450815 -0.1436265625 0.0935051638
245298530.0 -0.1421026257 0.106621895 0.4912487464 -0.2616830581 0.4910326275 -0.2615729197 -0.1427020163 0.094068406
250298500.0 -0.1409259121 0.1077453599 0.4879714706 -0.2672398399 0.4875275559 -0.266840168 -0.1419390022 0.0956924002
255298470.0 -0.1401966888 0.1089672841 0.4848571931 -0.2724323213 0.4851642293 -0.2724624579 -0.1411884068 0.0968094081
260298440.0 -0.1391792994 0.1107179734 0.4819345712 -0.2787340986 0.4824487752 -0.2781834621 -0.1400230407 0.0981507248
265298410.0 -0.1373587633 0.1124223474 0.4788519893 -0.2836763212 0.4793759754 -0.2834187249 -0.1394825662 0.0997028449
270298380.0 -0.1367376875 0.1136826351 0.476455922 -0.2889304864 0.4763257771 -0.2890875449 -0.1387530179 0.1009593275
275298350.0 -0.1351011517 0.1150397765 0.4725857003 -0.2943611606 0.4732253087 -0.2945830238 -0.1377066486 0.1018432426
280298320.0 -0.1339514099 0.1166442832 0.4701786652 -0.3004482486 0.4701386997 -0.299648791 -0.1367880014 0.1031626636
285298290.0 -0.1327162087 0.1181387968 0.4666547488 -0.3055164208 0.4661587614 -0.3054104298 -0.1359526006 0.1045548309
290298260.0 -0.1316805235 0.1195787786 0.4630727977 -0.3101335794 0.4637317691 -0.31048926 -0.1350616853 0.1059442171
295298230.0 -0.1304240944 0.1210092045 0.4598091384 -0.3162013726 0.4600162526 -0.3157939922 -0.1337598194 0.1069563365
300298200.0 -0.129468849 0.1222854554 0.4570029116 -0.3208792475 0.4567000247 -0.3215375862 -0.1328105461 0.1084152716
305298170.0 -0.1277749813 0.1235649768 0.4525976335 -0.3270695908 0.4529932811 -0.3263388555 -0.1314428341 0.1095362962
310298140.0 -0.1265458579 0.1253047163 0.4493533192 -0.3315434118 0.4496331574 -0.3314810459 -0.1307799697 0.1109311711
315298110.0 -0.1252536637 0.1261444916 0.4457737725 -0.3366434506 0.4461479283 -0.3368440223 -0.129979018 0.111744184
320298080.0 -0.123775616 0.1276336335 0.4412893205 -0.3421596678 0.4422634159 -0.3419491639 -0.128931839 0.1130407738
325298050.0 -0.1226683177 0.1289806147 0.4378965203 -0.3471832312 0.4378529132 -0.346785556 -0.1281128754 0.1141014709
330298020.0 -0.1216306035 0.1300140446 0.4337571686 -0.3518137806 0.4342909187 -0.3521989707 -0.1274267585 0.1155050016
335297990.0 -0.1201985675 0.1312876554 0.4295041849 -0.3568024043 0.4299191317 -0.3568486445 -0.1268014195 0.1170993503
340297960.0 -0.1193238428 0.133295065 0.4258469533 -0.3615704443 0.4257433928 -0.361519488 -0.125589091 0.1184631821
345297930.0 -0.1178136786 0.1347394879 0.4220477712 -0.3663154068 0.4215074827 -0.3663381345 -0.124461233 0.1192768841
350297900.0 -0.1167343777 0.1355210342 0.4168172123 -0.3709801247 0.4175022252 -0.3706287362 -0.1239620747 0.1210891314
355297870.0 -0.1151399615 0.1377721761 0.4130002816 -0.3756416745 0.41353295 -0.3752423821 -0.122859215 0.1219077497
360297840.0 -0.1136222315 0.1391248322 0.4100684032 -0.3800075807 0.4098163267 -0.3798696994 -0.1219454564 0.1236070452
365297810.0 -0.112585959 0.14066043 0.4051421076 -0.3845692584 0.4055169514 -0.3842131125 -0.120510401 0.1247832446
370297780.0 -0.1106507965 0.1416079948 0.4006422788 -0.3886931101 0.4016055173 -0.3886414222 -0.1194256296 0.1263394523
375297750.0 -0.1089449562 0.1427463713 0.3968298877 -0.3932744133 0.3968744837 -0.3934059998 -0.118054617 0.1271892497
380297720.0 -0.1079125623 0.1441239237 0.3919706521 -0.3975092035 0.392557817 -0.3974303675 -0.1172801582 0.1285354101
385297690.0 -0.1065355444 0.1456427029 0.387974362 -0.4025275483 0.3877700854 -0.4018164052 -0.1157548067 0.1299858301
390297660.0 -0.1048238268 0.1469793228 0.3835123785 -0.4061970905 0.3832137618 -0.4058906757 -0.1148345193 0.1312865082
395297630.0 -0.1031930316 0.1480404408 0.3785181381 -0.41027215 0.3792113164 -0.4105903204 -0.1131661529 0.1327481383
400297600.0 -0.1017885098 0.149589255 0.3738032499 -0.4147244251 0.3743006809 -0.4145482533 -0.1122990805 0.1336176976
405297570.0 -0.1003385488 0.1506847228 0.369620876 -0.4181216677 0.3701002046 -0.4183807953 -0.1113520336 0.1349577378
410297540.0 -0.098397162 0.1519644253 0.365506317 -0.4226227779 0.365522607 -0.422765806 -0.1099134601 0.1365440436
415297510.0 -0.0965276421 0.1528726175 0.3602178179 -0.4265676043 0.3608126807 -0.4267403362 -0.1086846896 0.1374156725
420297480.0 -0.0952096427 0.1544885792 0.3558742728 -0.4302580473 0.3558588076 -0.4309760437 -0.107581707 0.1381375669
425297450.0 -0.0935982453 0.15546802 0.3514244777 -0.4346350971 0.3515418721 -0.4344801248 -0.1062813304 0.139913611
430297420.0 -0.0920422372 0.1564763693 0.3467602894 -0.437830585 0.3463864112 -0.4374300289 -0.105258567 0.1407389196
435297390.0 -0.0906763509 0.1577084509 0.341177382 -0.441905544 0.3410455564 -0.4420605245 -0.1033300649 0.1419975377
440297360.0 -0.0883857585 0.1588917871 0.3365197318 -0.4457304272 0.3370920345 -0.4457876101 -0.1022741 0.1429496441
445297330.0 -0.0868720792 0.1598185723 0.3319896598 -0.4492716273 0.3319275671 -0.4489123067 -0.1005696136 0.1437614259
450297300.0 -0.0849788182 0.1609110578 0.3264754482 -0.4526739218 0.3271634504 -0.4532062642 -0.0996054426 0.145004361
455297270.0 -0.083322547 0.1620938702 0.3213285885 -0.4560678344 0.3220937659 -0.4565971395 -0.098015117 0.1461158009
460297240.0 -0.0818316098 0.1631403385 0.3166220043 -0.4596857167 0.3166791576 -0.460031032 -0.0967336908 0.1476313619
465297210.0 -0.0797306175 0.1642844281 0.3120600303 -0.4631024566 0.31196116 -0.4635857423 -0.0949520989 0.1481754188
470297180.0 -0.0778340437 0.1650588755 0.3065146762 -0.4664037505 0.3066915274 -0.4667257195 -0.0937152524 0.1497805133
475297150.0 -0.076165999 0.1659422005 0.3016420995 -0.4691630728 0.3017129516 -0.4696895779 -0.0919557858 0.1502324718
480297120.0 -0.0741298805 0.1675319664 0.2966183004 -0.4736726771 0.2959718147 -0.4733962927 -0.0903454788 0.1515517942
485297090.0 -0.0724703923 0.1681963147 0.291571121 -0.4760204065 0.2915267354 -0.4761057163 -0.0892170543 0.1524719511
490297060.0 -0.0710186294 0.1690882198 0.2858651228 -0.4794005014 0.2861295373 -0.4793528814 -0.0878417608 0.1537161517
495297030.0 -0.0689422547 0.1701426846 0.2803126647 -0.4824941408 0.2810275258 -0.482574382 -0.0863570725 0.1547402342
500297000.0 -0.0668512977 0.1710675707 0.2752058295 -0.4853343136 0.2754119454 -0.4854431222 -0.0848052026 0.1562668242
505296970.0 -0.0650297463 0.1717394119 0.270459252 -0.4883831475 0.2698088938 -0.4885721927 -0.0835724314 0.1568511593
510296940.0 -0.0630801207 0.1725570208 0.2647753433 -0.4916829689 0.2647712555 -0.4911807137 -0.0819964768 0.1577511772
515296910.0 -0.0611461637 0.173301419 0.2592551721 -0.4942056325 0.2592673921 -0.4942094588 -0.0802697328 0.1586319964
520296880.0 -0.0594448125 0.1744543827 0.2539776503 -0.4975744847 0.254106931 -0.4967328503 -0.0789119688 0.1595252192
525296850.0 -0.0571816191 0.1746266039 0.2483480334 -0.4995362524 0.2490500409 -0.4995346837 -0.0776288021 0.1605206759
530296820.0 -0.0552105791 0.1759904919 0.2426565435 -0.5025121862 0.2433999612 -0.5027202049 -0.0757904892 0.1613587236
535296790.0 -0.0537508454 0.1765969165 0.237812335 -0.504655699 0.237984342 -0.5045127898 -0.0746377768 0.1618514855
540296760.0 -0.0517409776 0.1776445331 0.232041336 -0.5077393629 0.2322994495 -0.507219442 -0.073156509 0.1630613314
545296730.0 -0.0499734039 0.1778377225 0.2264728158 -0.5096097529 0.226530877 -0.5097208592 -0.0715739619 0.1637786489
550296700.0 -0.0474635249 0.1787628287 0.220701541 -0.5122041814 0.2209116413 -0.5127375162 -0.0697325291 0.1646982289
555296670.0 -0.0457502652 0.1793364148 0.2155847827 -0.5146971374 0.215930492 -0.5146809679 -0.0683859462 0.1657633727
560296640.0 -0.0437937072 0.1805246424 0.2098891966 -0.5172611573 0.2100130164 -0.5168422567 -0.0667776314 0.1665516975
565296610.0 -0.0422267967 0.1806732277 0.2042532882 -0.5192099982 0.2046500198 -0.5189675319 -0.0652456399 0.1668569054
570296580.0 -0.0402227687 0.1812958104 0.198701452 -0.52191201 0.1986289123 -0.5213128956 -0.0636768009 0.1680429986
575296550.0 -0.0382205264 0.182298004 0.1928699459 -0.5239825361 0.1930932669 -0.5234856168 -0.0617990934 0.1686416147
580296520.0 -0.0360821851 0.1825923221 0.1871379619 -0.5257449481 0.1870942566 -0.5254300877 -0.0599738082 0.1696542198
585296490.0 -0.0342738802 0.1827304906 0.1818904695 -0.5272531631 0.1819092269 -0.5276703376 -0.0584988617 0.1703580701
590296460.0 -0.0320099462 0.183386527 0.1761360643 -0.5293405377 0.1761602181 -0.5293925521 -0.0573818415 0.1711270974
595296430.0 -0.0295515421 0.1840485122 0.1696626536 -0.5314338901 0.17003535 -0.5310431695 -0.0553370972 0.1711529808
600296400.0 -0.0281166587 0.1843967935 0.1639956498 -0.5331171306 0.1643149293 -0.5328564313 -0.0538666645 0.1723598591
605296370.0 -0.0261923955 0.1850229452 0.1586026686 -0.5350561083 0.1589191065 -0.5349032729 -0.0519113522 0.1729858418
610296340.0 -0.0238459887 0.1851895375 0.1523741761 -0.5362262027 0.1528562267 -0.5359764498 -0.0500182013 0.1737957778
615296310.0 -0.0213722992 0.1857650647 0.146587556 -0.5378238006 0.1465104231 -0.5385206076 -0.0483231569 0.1742601523
620296280.0 -0.0196407229 0.1858198649 0.1409574553 -0.5391532823 0.1408635419 -0.5391969349 -0.0470530718 0.1748340675
625296250.0 -0.0179646303 0.1859022003 0.1357907658 -0.5407483905 0.1353705405 -0.5407226096 -0.0447490295 0.1753651247
630296220.0 -0.0148912787 0.1864005205 0.1291199646 -0.5423296407 0.1290715425 -0.5422737585 -0.0432312845 0.1761128973
635296190.0 -0.0137376866 0.1868130389 0.1231774447 -0.543409156 0.1230409857 -0.5435662171 -0.0414615548 0.1769601
640296160.0 -0.0114990959 0.1873841999 0.1173953232 -0.5443659126 0.1176999391 -0.5449477457 -0.0397638839 0.177252452
645296130.0 -0.0093813472 0.1880314486 0.1112735786 -0.5460116116 0.1119309289 -0.5462497197 -0.0382018659 0.1779798397
650296100.0 -0.0073185662 0.1877022676 0.105774633 -0.5473533452 0.1057229652 -0.5471500069 -0.0361799094 0.1778802484
655296070.0 -0.0056240451 0.1877780932 0.0992930965 -0.5481244162 0.0999717089 -0.54858591 -0.0343765229 0.1786951166
660296040.0 -0.0035550734 0.1877679201 0.0938721063 -0.548930672 0.0935087376 -0.5493189551 -0.0324720048 0.1789807492
665296010.0 -0.0010819446 0.1879844416 0.0875711054 -0.5499726037 0.0880596243 -0.5501427417 -0.0308118937 0.1802551604
670295980.0 0.0001911559 0.188492257 0.0820374352 -0.5508475401 0.0818090786 -0.5510434899 -0.0297700156 0.1800877828
675295950.0 0.0028059483 0.1885111214 0.0761667725 -0.551847345 0.0761821338 -0.5514382541 -0.028148768 0.1807780766
680295920.0 0.0044956746 0.1886942282 0.0701028132 -0.5527238538 0.0697016284 -0.5531989622 -0.0258912213 0.1820628127
685295890.0 0.0068786976 0.1891347049 0.0639640786 -0.5534936576 0.0637791559 -0.5533939534 -0.0243794672 0.1817837377
690295860.0 0.0091948273 0.1888452224 0.0581453135 -0.5535960891 0.0583062292 -0.5544877332 -0.0223671806 0.1829952553
695295830.0 0.0111582756 0.1887670683 0.0521748656 -0.5545184413 0.0519929872 -0.5547320562 -0.0204776105 0.1823837449
700295800.0 0.0134502331 0.1885550222 0.0459116107 -0.5548548279 0.0459110208 -0.5550386796 -0.0192764129 0.1834235121
705295770.0 0.0151112575 0.1891406135 0.0399925646 -0.555394779 0.0404048728 -0.5554660009 -0.0176196494 0.183701505
710295740.0 0.0176303512 0.188968507 0.0343167319 -0.5563805627 0.0341601741 -0.5562948463 -0.015689428 0.1833170707
715295710.0 0.0190850765 0.1887935302 0.028580529 -0.5561046117 0.0279404701 -0.5560611566 -0.0135382539 0.1837746515
720295680.0 0.0213678131 0.188698948 0.0222192157 -0.5565738986 0.0225331556 -0.5565100947 -0.0117839524 0.1846125369
725295650.0 0.0238172299 0.1887138086 0.0157341112 -0.5567220873 0.016185261 -0.5566037146 -0.0104519751 0.1847780227
730295620.0 0.0257624038 0.188911618 0.0099089116 -0.5564078171 0.0103339443 -0.5568304839 -0.0087452856 0.1843798975
735295590.0 0.0274649965 0.1885294509 0.0043054939 -0.5563210572 0.0041911078 -0.5565537668 -0.0067625165 0.1847171382
740295560.0 0.0294220113 0.1883527115 -0.0017019329 -0.5569502461 -0.0017912861 -0.5569151143 -0.0046120724 0.1851984611
745295530.0 0.031795867 0.1882183237 -0.0080293183 -0.5566563659 -0.0080754402 -0.5565519459 -0.0029160629 0.1850560605
750295500.0 0.0342118886 0.1880395874 -0.0137259881 -0.556164808 -0.0137079497 -0.5563261351 -0.000988239 0.1853642615
755295470.0 0.0358988538 0.1875814827 -0.0196881585 -0.5561776097 -0.0199807444 -0.5562955325 0.0011402142 0.1851724454
760295440.0 0.0379215176 0.1872700725 -0.0258331701 -0.5561756316 -0.0260187288 -0.5562466027 0.0025539176 0.1856203187
765295410.0 0.0397423948 0.1872100072 -0.0323619604 -0.5557210094 -0.0322837526 -0.556118738 0.0046545816 0.1861110737
770295380.0 0.0418199323 0.1866257298 -0.0382627919 -0.5554576198 -0.0378621968 -0.5554509751 0.0060385699 0.1857171325
775295350.0 0.0436660702 0.1860239778 -0.0439604037 -0.5542685695 -0.0434055755 -0.5544667732 0.0073488897 0.1862212502
780295320.0 0.0461756652 0.1860206123 -0.0497879836 -0.5538787412 -0.049285111 -0.5541708275 0.0094575592 0.1857951228
785295290.0 0.0479520876 0.1850479148 -0.0557535522 -0.5533373575 -0.0554901778 -0.5536558213 0.0118377998 0.1861025445
790295260.0 0.0505994255 0.1855462032 -0.0613728523 -0.552671747 -0.0607607963 -0.5528154375 0.0136361403 0.1862294394
795295230.0 0.0521573206 0.1846602361 -0.0680149925 -0.5519165283 -0.0674232972 -0.5522941095 0.0155514465 0.1864896265
800295200.0 0.0542014882 0.1847701959 -0.073834673 -0.5511861442 -0.073633245 -0.5515549841 0.0173724542 0.1863548027
805295170.0 0.0564997352 0.1838362321 -0.0796541195 -0.5503943817 -0.0799139532 -0.5509168153 0.019240458 0.1861829724
810295140.0 0.0580564889 0.1828871516 -0.0850690534 -0.5491652798 -0.0857282968 -0.5496619641 0.0213415871 0.1865400718
815295110.0 0.0604136626 0.1828685854 -0.0914765522 -0.5480169448 -0.0909642044 -0.5486273226 0.0228886155 0.1865149213
820295080.0 0.0620546231 0.182784495 -0.0972916217 -0.5472091507 -0.0965809454 -0.5474716211 0.0243800723 0.1864480804
825295050.0 0.0646439287 0.1818729218 -0.1031386698 -0.5458242424 -0.103036783 -0.546583074 0.0267335346 0.1862414841
830295020.0 0.0662086952 0.1813778544 -0.1091282174 -0.545027217 -0.1086352044 -0.5452476163 0.0289394667 0.1861913886
