!Created with skrf (http://scikit-rf.org).
# Hz S RI R 50.0 
!freq ReS11 ImS11 ReS21 ImS21 ReS12 ImS12 ReS22 ImS22
300000.0 -0.2328679919 -0.1124244629 0.4652849099 0.0747233868 0.4709297489 0.0754214368 -0.2378752492 -0.115188322
5299970.0 -0.2406129321 0.0069323319 0.4749362057 0.005456856 0.4750099605 0.0057217045 -0.2445914502 0.0053092736
10299940.0 -0.2371051892 0.0198723151 0.4772330856 0.006485287 0.4770132834 0.0065420468 -0.2416583074 0.0175486376
15299910.0 -0.2328616137 0.0297987172 0.4806327675 0.0072420688 0.480505204 0.0076149168 -0.2370536493 0.026539053
20299880.0 -0.2274108219 0.0378979912 0.4851973264 0.0080970225 0.4856555451 0.0081539306 -0.2327595024 0.0340794684
25299850.0 -0.2215510099 0.0442597286 0.4905021011 0.0068926824 0.4906135346 0.007126824 -0.2277991207 0.0397684981
30299820.0 -0.2155899463 0.0493587908 0.4962906737 0.0052112251 0.4954551148 0.0050719927 -0.2223926127 0.0449439991
35299790.0 -0.2099422843 0.0541331852 0.5014956167 0.0014798675 0.5011318047 0.0016070058 -0.2171449459 0.0487536904
40299760.0 -0.20447049 0.0569605611 0.5062104635 -0.0017964169 0.5063626969 -0.0022065042 -0.2126641887 0.0519233597
45299730.0 -0.1996999099 0.0601570145 0.5114162263 -0.0072383621 0.5108150279 -0.0070035855 -0.2079476687 0.0546206834
50299700.0 -0.1945963171 0.0619947375 0.5146768556 -0.0123667693 0.5151013977 -0.0130020897 -0.2033612735 0.0569089714
55299670.0 -0.1906129598 0.0638599727 0.5186136119 -0.0186628309 0.5191085714 -0.0186552878 -0.1998895014 0.0582683697
60299640.0 -0.1866313658 0.0648700067 0.521559795 -0.0249875686 0.5220576932 -0.0248451707 -0.1959973275 0.0596366475
65299610.0 -0.1830472228 0.0664675781 0.5247528267 -0.0307171881 0.5250930448 -0.0310392383 -0.1928282259 0.060844936
70299580.0 -0.1795859214 0.0671438866 0.5271420872 -0.0376432442 0.527287697 -0.0377625392 -0.1898530626 0.0618694435
75299550.0 -0.1764432365 0.0680822921 0.5287556189 -0.0444754265 0.5290581108 -0.0449149858 -0.186876266 0.0626281429
80299520.0 -0.1740371858 0.0687336586 0.5312156753 -0.0515683299 0.5313242619 -0.0512743336 -0.1848955579 0.0631333855
85299490.0 -0.171420916 0.0692668072 0.5327834225 -0.0585456046 0.5324166886 -0.0585865718 -0.1824925125 0.0636154378
90299460.0 -0.1692899521 0.0700837192 0.5335613917 -0.0649838561 0.5335585863 -0.0655320582 -0.1801077224 0.0641889612
95299430.0 -0.1670882985 0.0711215447 0.5344459397 -0.0724107448 0.5344581652 -0.0722796938 -0.1787205589 0.0649338726
100299400.0 -0.1655247956 0.071818147 0.5349716863 -0.0788800373 0.5349754285 -0.0790366972 -0.1769245235 0.0657146085
105299370.0 -0.1633914641 0.0724689047 0.5348500192 -0.0859510532 0.5349044377 -0.0859446015 -0.1747557577 0.0661075282
110299340.0 -0.1618458925 0.0730985363 0.5350117562 -0.0926048402 0.5353387969 -0.0931958991 -0.1736145762 0.0670254867
115299310.0 -0.1602628281 0.0735992411 0.5348454349 -0.0993358981 0.5351383941 -0.0994864221 -0.1721512733 0.0672694007
120299280.0 -0.1592065255 0.0745649037 0.5351806257 -0.1065397603 0.5351848415 -0.1065247018 -0.1713121805 0.0682039459
125299250.0 -0.15811732 0.0750184602 0.5347313527 -0.1126708468 0.5347586225 -0.1134101725 -0.1699492687 0.0686561287
130299220.0 -0.156596173 0.0759494974 0.5337642281 -0.1192179723 0.5339937695 -0.1197354888 -0.1692174659 0.069484158
135299190.0 -0.1552011874 0.0767108049 0.5336607073 -0.1261988426 0.5328090216 -0.1263731994 -0.1679152585 0.0701692466
140299160.0 -0.1543522986 0.0782521393 0.5323232479 -0.1330304853 0.532775347 -0.1330375898 -0.1667205947 0.0711101828
145299130.0 -0.1530698173 0.0788615167 0.5317755997 -0.1396026847 0.5315569811 -0.1394708276 -0.1663707114 0.0718801663
150299100.0 -0.1520307755 0.079851805 0.5304433404 -0.1463810713 0.5302249335 -0.1458123855 -0.1651113986 0.0723811254
155299070.0 -0.1512156113 0.0813071258 0.5291445911 -0.1530335811 0.5290041528 -0.1526434326 -0.1645651419 0.072948391
160299040.0 -0.1500392484 0.0818318064 0.5273570314 -0.1586135766 0.5277622268 -0.1590770218 -0.1634820562 0.0745547131
165299010.0 -0.1495713319 0.0830253017 0.5266279951 -0.1656264291 0.5262078848 -0.1657965952 -0.1627159226 0.0754485521
170298980.0 -0.1485843056 0.0842360625 0.5240607758 -0.1720859479 0.5247154726 -0.1720113125 -0.1616587354 0.0764027103
175298950.0 -0.1475459482 0.0857999949 0.5234415788 -0.1783795046 0.5236907421 -0.1783174256 -0.16121672 0.0775268243
180298920.0 -0.14645087 0.0864984268 0.5218815868 -0.1847645914 0.5214072538 -0.1845564529 -0.1602547246 0.0788193907
185298890.0 -0.1451728157 0.0880999809 0.5192020628 -0.1910987411 0.5195971041 -0.1906747057 -0.1598594742 0.0793891382
190298860.0 -0.1444444923 0.0890781134 0.5173361339 -0.1969944581 0.5180592658 -0.1974348375 -0.1584401555 0.0808348634
195298830.0 -0.1435704092 0.0900943336 0.5156312731 -0.2025709541 0.5158992887 -0.2035083519 -0.1580784951 0.0817642721
200298800.0 -0.1425929143 0.0917092444 0.5139693649 -0.2084140937 0.5136145479 -0.2085895945 -0.1569837273 0.0834253884
205298770.0 -0.1415233507 0.0930842171 0.5118273877 -0.2150070184 0.5113117292 -0.2151109211 -0.1565544969 0.083798063
210298740.0 -0.140800282 0.0941832264 0.509375955 -0.2212048372 0.5093230673 -0.2213185502 -0.155664073 0.0854702523
215298710.0 -0.1398178982 0.0956323427 0.5070900056 -0.2270939135 0.5070338668 -0.226748079 -0.1552402076 0.0865791921
220298680.0 -0.1386713186 0.097234287 0.5046529487 -0.2330506204 0.5044732947 -0.232853546 -0.154065094 0.0879474235
225298650.0 -0.1375160783 0.0985171097 0.5018231029 -0.2382983361 0.5019189395 -0.2387319891 -0.153440489 0.0890942485
230298620.0 -0.1369953001 0.1000028422 0.4996204416 -0.2446319019 0.4993817006 -0.2443355533 -0.1521953651 0.0905274568
235298590.0 -0.1358633115 0.1008989947 0.4966011729 -0.2503147628 0.4970933797 -0.250378746 -0.1518338301 0.0913652405
240298560.0 -0.1350235512 0.1025242047 0.4943428293 -0.2557912799 0.49431427 -0.2554981851 -0.1508648102 0.0929051525
245298530.0 -0.1337744306 0.1038241063 0.4908963141 -0.2614939266 0.4911092684 -0.2617236715 -0.1500413189 0.0945478701
250298500.0 -0.1328414776 0.1052009562 0.4883796611 -0.2667001583 0.488653574 -0.2667562611 -0.1489236456 0.0955943449
255298470.0 -0.1319048156 0.1066829516 0.4852498183 -0.2730450895 0.4855253427 -0.2725730809 -0.148308141 0.0968744773
260298440.0 -0.1306655155 0.1081311643 0.4830457189 -0.2780161694 0.4827567835 -0.2784318565 -0.1468227893 0.0981234361
265298410.0 -0.1292921138 0.1098365339 0.4794894778 -0.2847858816 0.479559786 -0.283682415 -0.1462923776 0.0992401563
270298380.0 -0.128334987 0.1109348198 0.4764808704 -0.2891581703 0.4768948108 -0.2891633116 -0.1452471711 0.1009149954
275298350.0 -0.1273642209 0.1124589277 0.4730214908 -0.294971728 0.4737210164 -0.2950328037 -0.1442548614 0.1023356354
280298320.0 -0.1262283601 0.114164629 0.470016235 -0.299848748 0.4697936224 -0.3000758565 -0.1434170174 0.1035889894
285298290.0 -0.1250794536 0.1154442723 0.4672640746 -0.3051165221 0.4668455965 -0.3055844569 -0.1427433051 0.1050027593
290298260.0 -0.1234129912 0.1167401818 0.4636270275 -0.3106586346 0.4636556972 -0.3108686639 -0.1411444035 0.1066871037
295298230.0 -0.1223968244 0.1178878213 0.4600426336 -0.3156728052 0.4600446864 -0.3159962679 -0.1401761847 0.1079337337
300298200.0 -0.1208606883 0.1192962031 0.456908998 -0.3213129391 0.4567813076 -0.3213418558 -0.1393688504 0.1093246192
305298170.0 -0.1195463274 0.1204764897 0.4534082889 -0.3264167053 0.4534811036 -0.3266586615 -0.137808784 0.1111982388
310298140.0 -0.1181331494 0.1216573836 0.4499220723 -0.3317748968 0.4499120118 -0.3318142952 -0.1368627581 0.1123170982
315298110.0 -0.1172117061 0.1231193177 0.4461800644 -0.3367150317 0.4461210934 -0.337096752 -0.1352516088 0.1135023861
320298080.0 -0.1158345119 0.1244607932 0.442494783 -0.3420061539 0.4427601106 -0.3419958226 -0.1348291692 0.1147225892
325298050.0 -0.114787589 0.1254338715 0.4393246412 -0.3470991069 0.4387057151 -0.3472962025 -0.1336153629 0.1159050077
330298020.0 -0.1133470929 0.1270230192 0.4343517323 -0.3524856361 0.4346540321 -0.3521598 -0.1332707322 0.1168372209
335297990.0 -0.1123493092 0.1281184952 0.4303070513 -0.3571587136 0.4302669109 -0.3572375389 -0.1317820247 0.1183674842
340297960.0 -0.1114241257 0.1296007478 0.4263761597 -0.3619531154 0.426686638 -0.3618640742 -0.131162389 0.1198890755
345297930.0 -0.1102538904 0.1310653765 0.4225314292 -0.3660776065 0.4220450813 -0.3660429398 -0.1298824071 0.1211113155
350297900.0 -0.1082175511 0.1323770913 0.418051021 -0.370357846 0.4184583439 -0.3713845263 -0.1286780966 0.1228818888
355297870.0 -0.1071968062 0.1335970161 0.4143247896 -0.3755424565 0.4140416431 -0.3757141339 -0.1277305179 0.12429233
360297840.0 -0.1056687815 0.1351781812 0.4097566915 -0.3806022167 0.4099988517 -0.3803275378 -0.1267864509 0.1259802183
365297810.0 -0.1044056131 0.1365096487 0.4057494615 -0.384518175 0.4058412382 -0.3846478223 -0.1255392166 0.1275184718
370297780.0 -0.1026222017 0.1375386785 0.4011637352 -0.3890425822 0.4015268887 -0.3897149607 -0.1242204793 0.1286897059
375297750.0 -0.101103754 0.1392067018 0.3974516229 -0.3935310964 0.3972113303 -0.3937836151 -0.1230144618 0.1304566705
380297720.0 -0.0995950011 0.1400639378 0.3926372162 -0.3974838633 0.3932392914 -0.3978034561 -0.1215039129 0.131897897
385297690.0 -0.0981387406 0.1418858354 0.3884457155 -0.401920809 0.3881476289 -0.4020972976 -0.120501395 0.1331065344
390297660.0 -0.0966539225 0.142957213 0.3843486759 -0.406754268 0.3837083571 -0.4066115023 -0.1192129968 0.1342960394
395297630.0 -0.0948419995 0.1441131721 0.3798415483 -0.4102195004 0.3794765973 -0.4104612259 -0.1180579939 0.136024096
400297600.0 -0.0933591835 0.1454438362 0.3747549339 -0.4146254839 0.3752736993 -0.4149985046 -0.1173516327 0.1370897363
405297570.0 -0.0913894095 0.1466142059 0.370346393 -0.4187549155 0.3707846181 -0.4193006312 -0.1159386197 0.1390065815
410297540.0 -0.0900001173 0.1475581657 0.3652310048 -0.4228428516 0.36570487 -0.4229858771 -0.1143532011 0.1397545496
415297510.0 -0.0885260748 0.1489235607 0.3612745723 -0.4267070352 0.3611942838 -0.4268954474 -0.1131546035 0.1415274762
420297480.0 -0.0867523739 0.1494377975 0.3564343164 -0.4308483401 0.3562768969 -0.4308009119 -0.1117048257 0.1422395071
425297450.0 -0.0850283234 0.1506294098 0.3513705778 -0.4346961743 0.3520657885 -0.4343408124 -0.1103970861 0.143916127
430297420.0 -0.0834997355 0.1522011761 0.3472786865 -0.4387710894 0.3467010065 -0.4383227417 -0.1093020239 0.1449807161
435297390.0 -0.0815249818 0.1530995687 0.3421707569 -0.441632546 0.3420701654 -0.4421773431 -0.1077311745 0.146731589
440297360.0 -0.0796491462 0.1539313657 0.336885344 -0.4457569846 0.3370474416 -0.4457502411 -0.1064587736 0.1471807903
445297330.0 -0.0778581042 0.1550301087 0.3321834305 -0.4497536942 0.3322708812 -0.4494524539 -0.1050901752 0.1484288894
450297300.0 -0.0763076745 0.1561423723 0.3270013977 -0.4529213552 0.327196968 -0.4529052004 -0.1036680061 0.1498878075
455297270.0 -0.0749021413 0.1572366048 0.322336574 -0.4567981335 0.3227522136 -0.4567761088 -0.1019145018 0.1512402311
460297240.0 -0.0733050731 0.1581461651 0.3171240451 -0.4597851886 0.3169750561 -0.4604640965 -0.1005826696 0.1527090576
465297210.0 -0.0712161932 0.1588235881 0.312647597 -0.4634732082 0.3125512643 -0.4635799511 -0.0995330063 0.1534660668
470297180.0 -0.0696021072 0.1597674093 0.3075192952 -0.4663884368 0.3076814799 -0.4670774279 -0.0984765485 0.154766202
475297150.0 -0.0680495748 0.1603355015 0.302257946 -0.4697706436 0.3020493367 -0.469733975 -0.0966087638 0.1556779616
480297120.0 -0.0658859408 0.1611469103 0.2969210845 -0.4728702502 0.2973556479 -0.47340613 -0.0951788985 0.157428964
485297090.0 -0.0639018491 0.1622672658 0.291887657 -0.4767131923 0.2916535593 -0.4766120534 -0.0936126964 0.1578999924
490297060.0 -0.0619919693 0.1630463847 0.286608543 -0.4795475748 0.2869984884 -0.4797966572 -0.0921847154 0.1591184783
495297030.0 -0.0604024598 0.1641581433 0.2811878569 -0.4828551145 0.2809356168 -0.482812589 -0.0902839967 0.1598680757
500297000.0 -0.0582830196 0.1645508831 0.2758506561 -0.4862299075 0.2759685478 -0.4856373019 -0.0893327721 0.161025609
505296970.0 -0.0568244316 0.1651682942 0.2703002924 -0.4882041284 0.2705264441 -0.4884360275 -0.0882136306 0.1624421433
510296940.0 -0.0550911589 0.1662439759 0.2653684142 -0.4917624947 0.2655876554 -0.4916372093 -0.0862755504 0.1633756402
515296910.0 -0.0532899414 0.1672009117 0.2596349038 -0.494487456 0.2597588957 -0.4944982218 -0.0846531638 0.1643807733
520296880.0 -0.0511991948 0.1675067871 0.2544255132 -0.4969735535 0.2547982397 -0.4970238125 -0.0830662478 0.1651827252
525296850.0 -0.0494570954 0.1682815337 0.2491070503 -0.499907607 0.2492750068 -0.4998288319 -0.0814561393 0.1662235363
530296820.0 -0.0472602799 0.1690343031 0.2439783898 -0.5018171277 0.2435501619 -0.5024248454 -0.080323497 0.1670415432
535296790.0 -0.0456717423 0.1697258679 0.2381306048 -0.5046320463 0.238687173 -0.504746905 -0.0784839449 0.1678318479
540296760.0 -0.0436683268 0.1700178835 0.2326645039 -0.5078753914 0.2326694905 -0.5075644173 -0.0770622498 0.1692708124
545296730.0 -0.0418407711 0.1711996449 0.2269581004 -0.5095965063 0.2272869734 -0.5100107391 -0.075429746 0.1697463369
550296700.0 -0.0401979097 0.1714285022 0.2218083118 -0.5123882254 0.2224037057 -0.51290445 -0.0739808266 0.1711173306
555296670.0 -0.0377237563 0.1718855989 0.216181513 -0.5147406611 0.2161604051 -0.5147350435 -0.0723662435 0.1719207069
560296640.0 -0.0362164128 0.1724150346 0.2105415377 -0.5171355307 0.2105078403 -0.5166291495 -0.0703194525 0.1729434293
565296610.0 -0.0344214232 0.1730527253 0.2047277669 -0.5193574046 0.2046897036 -0.5192220373 -0.0690535403 0.173273661
570296580.0 -0.0321523715 0.1733833471 0.1990163083 -0.5210890516 0.199291946 -0.5215409482 -0.0672746974 0.174824656
575296550.0 -0.0303322986 0.1745347881 0.1936920882 -0.5234019379 0.1941197638 -0.5235983797 -0.0656854027 0.1751596515
580296520.0 -0.0284983491 0.1747349343 0.1882651936 -0.5255322336 0.1876797457 -0.5256787071 -0.0638713907 0.1758399139
585296490.0 -0.0265517004 0.1748739916 0.182635375 -0.5271671823 0.1823572169 -0.5275557449 -0.0623432235 0.1762857656
590296460.0 -0.0248220707 0.1752599569 0.1767389616 -0.529547017 0.1768452926 -0.5298536026 -0.0605088673 0.1777777293
595296430.0 -0.0226687757 0.1758828872 0.1709268565 -0.5314035613 0.1710278785 -0.5315171016 -0.0589543698 0.178177059
600296400.0 -0.0207820923 0.1764442577 0.1655132302 -0.5330655995 0.1653580958 -0.5332969291 -0.0570460055 0.1791002286
605296370.0 -0.0185555771 0.1768775255 0.1591643138 -0.5352015168 0.1594542098 -0.534754626 -0.0556754505 0.179706719
610296340.0 -0.0168343331 0.1772514138 0.1538530759 -0.5366407986 0.1538991643 -0.5366614069 -0.0538726198 0.1805340215
615296310.0 -0.0147022092 0.1775793592 0.1471525998 -0.5378233702 0.147889053 -0.5380509491 -0.0520946715 0.181151372
620296280.0 -0.0128840609 0.1775136964 0.142325716 -0.5392638713 0.141909587 -0.5397029423 -0.0503400892 0.1817710894
625296250.0 -0.0106798324 0.1778499866 0.1354707047 -0.5412297361 0.1358089651 -0.5414284607 -0.0485246832 0.1822188288
630296220.0 -0.008924917 0.1784607005 0.1302183911 -0.5427593217 0.1304782257 -0.5425985631 -0.0472410518 0.1830148042
635296190.0 -0.0068596685 0.1783798832 0.1245805765 -0.5429336204 0.124041208 -0.5434644343 -0.0452501379 0.1834553954
640296160.0 -0.0048729344 0.1788292575 0.1185779604 -0.5449849149 0.1184097101 -0.5453092648 -0.043033695 0.1843115269
645296130.0 -0.0029193049 0.1788500195 0.1121562608 -0.5466403795 0.1128851198 -0.5462761798 -0.0422786025 0.1844817428
650296100.0 -0.0012091598 0.1796566317 0.1074494988 -0.5475613243 0.1067652151 -0.5474302341 -0.0400194633 0.185224876
655296070.0 0.0008974744 0.1794026805 0.1008815865 -0.5484658638 0.1005463605 -0.548320997 -0.0381257489 0.1859588844
660296040.0 0.002445104 0.1796498293 0.0950120936 -0.5491445649 0.0946668845 -0.5494211713 -0.0362483485 0.1862408801
665296010.0 0.0050148808 0.1794656885 0.0890262476 -0.5504306216 0.0896814367 -0.550138239 -0.0348965866 0.1868467881
670295980.0 0.0072344574 0.1795945781 0.0831394832 -0.5510856444 0.0833680974 -0.5513331144 -0.0337609297 0.1869778533
675295950.0 0.0091751759 0.1799578714 0.0769838137 -0.552342167 0.0774853658 -0.5527090142 -0.0313078064 0.1879579671
680295920.0 0.0108770506 0.1799622056 0.0711513822 -0.5531135607 0.0710131778 -0.5529799036 -0.0293857393 0.1881920078
685295890.0 0.0130102994 0.1799319188 0.065385176 -0.5536338834 0.0650545455 -0.5540233903 -0.0278965482 0.1888271133
690295860.0 0.015524276 0.1801488347 0.0592667245 -0.5539065268 0.05890297 -0.5539410673 -0.025911219 0.1891931754
695295830.0 0.0177748893 0.1795577569 0.051969232 -0.5546873568 0.0529160669 -0.555176331 -0.0242177879 0.1899071539
700295800.0 0.0195443709 0.1799220768 0.0470377946 -0.555437226 0.0471781967 -0.5556192393 -0.0221626581 0.1894550927
705295770.0 0.021512484 0.1797563567 0.0410743575 -0.5558867122 0.0412025677 -0.5559457598 -0.0206133515 0.1902706775
710295740.0 0.0234260254 0.1800725144 0.0351977389 -0.5565821632 0.0353288237 -0.5558398981 -0.0195191665 0.1906663068
715295710.0 0.0253332653 0.1796363244 0.0291550761 -0.5566004065 0.0292523716 -0.5562826746 -0.0167645143 0.1906065792
720295680.0 0.027077213 0.179379509 0.0230953828 -0.5565795545 0.0232557954 -0.5570855227 -0.0149832668 0.1912829744
725295650.0 0.0295431517 0.1792769373 0.0165208645 -0.5568164886 0.0169363572 -0.5571439162 -0.013107762 0.1918607985
730295620.0 0.0311110927 0.1788573621 0.0109301847 -0.5568722982 0.0109226048 -0.5569378211 -0.011230964 0.1914234343
735295590.0 0.0336824899 0.178856461 0.0054029563 -0.5573612976 0.0054463026 -0.5572926445 -0.0098659436 0.1922347461
740295560.0 0.0353045426 0.1787793256 -0.000818174 -0.5567798434 -0.000701669 -0.5570918614 -0.007428025 0.1921607394
745295530.0 0.0375076463 0.1781705442 -0.0069211709 -0.5568392617 -0.0067620937 -0.5575044299 -0.0060629067 0.1923302064
750295500.0 0.0395572503 0.178153293 -0.0131276963 -0.5565877934 -0.013081436 -0.556590714 -0.0038544666 0.1923741991
755295470.0 0.041815533 0.1780728039 -0.0188455591 -0.5567151383 -0.0187477044 -0.5569927694 -0.0026448131 0.1929182058
760295440.0 0.043542729 0.1776760263 -0.0252887909 -0.5564125629 -0.0247114741 -0.5564392759 -0.0007505473 0.192828738
765295410.0 0.0455019496 0.1768954595 -0.0307478657 -0.5557336491 -0.030446585 -0.5563270957 0.0019138358 0.1933304454
770295380.0 0.0475845567 0.1770239048 -0.0368348289 -0.5555674862 -0.0368719631 -0.5561206655 0.0036852654 0.1933074179
775295350.0 0.0493962673 0.1767112163 -0.0425130738 -0.5551468983 -0.0426453633 -0.555258084 0.0051987879 0.1927487766
780295320.0 0.0516453272 0.1759644445 -0.0485202066 -0.5550802578 -0.0484805995 -0.5548163142 0.0071588294 0.1939065578
785295290.0 0.0535883685 0.1760953004 -0.0550165585 -0.5535888447 -0.0545517401 -0.5543274789 0.008534354 0.1937531468
790295260.0 0.0555164866 0.1752980014 -0.0605103085 -0.5536092813 -0.0604529743 -0.5537836436 0.0108557485 0.1937539677
795295230.0 0.0571920842 0.1751093367 -0.0659665628 -0.5523111308 -0.0662877866 -0.5528294647 0.012677848 0.1940115192
800295200.0 0.0594018805 0.174483638 -0.0729213516 -0.5519159469 -0.0729824139 -0.5521520682 0.0145010012 0.193726806
805295170.0 0.0612046101 0.1740806191 -0.078001188 -0.5509324886 -0.0786228013 -0.5508969186 0.0159844672 0.1934148508
810295140.0 0.0632717163 0.1733887828 -0.0839441892 -0.5502372519 -0.0843478402 -0.5507656778 0.018275335 0.1940107451
815295110.0 0.0651979376 0.1730462729 -0.0905988068 -0.5488787262 -0.0905647082 -0.5492048652 0.0200634775 0.193412507
820295080.0 0.0669930639 0.1721111566 -0.096114617 -0.5482716811 -0.0962218686 -0.5484713763 0.0216617875 0.1935105885
825295050.0 0.0693231446 0.1716272926 -0.1015831491 -0.5469520436 -0.1019059648 -0.5470464103 0.0241666458 0.1936639338
830295020.0 0.0711020244 0.1712762104 -0.1083406185 -0.545948905 -0.1084733187 -0.5464883303 0.0255514758 0.1934356047
