!Created with skrf (http://scikit-rf.org).
# Hz S RI R 50.0 
!freq ReS11 ImS11 ReS21 ImS21 ReS12 ImS12 ReS22 ImS22
300000.0 -0.7714986007 -0.1825759053 -0.0010875352 0.0001167188 0.0002001589 5.91122e-05 0.8597593926 -0.0026247792
5299970.0 -0.7857612734 -0.0096544154 7.72647e-05 -0.0001249053 -4.61935e-05 8.58301e-05 0.8592685161 -0.0099282371
10299940.0 -0.7892511848 -0.0057201703 -2.42849e-05 -3.1448e-06 -2.96963e-05 -0.0001011356 0.8580416929 -0.0190094091
15299910.0 -0.7942962101 -0.0037192411 1.9767e-05 -0.0001622802 6.86215e-05 -2.97739e-05 0.8573722808 -0.0275261649
20299880.0 -0.8009771162 0.0004302908 -0.0001202694 5.12779e-05 7.0598e-06 0.0001029808 0.8562470699 -0.035877337
25299850.0 -0.8079346309 0.006827417 -0.0001429459 -1.4169e-05 8.36054e-05 -2.03426e-05 0.8553340734 -0.0437765574
30299820.0 -0.8139027134 0.0140782113 1.62813e-05 6.11726e-05 -2.817e-05 -5.4465e-05 0.8550537475 -0.0526742839
35299790.0 -0.8182942551 0.0231672472 -7.02681e-05 2.86876e-05 -0.0001026379 -8.32219e-05 0.8540513625 -0.0610996862
40299760.0 -0.823653248 0.0319828658 7.59512e-05 1.31021e-05 -0.000205481 -9.08281e-05 0.8540357864 -0.0686762087
45299730.0 -0.8263267603 0.041937969 3.7409e-06 -0.0001011711 0.0001277896 -2.8913e-05 0.8525886019 -0.0773117325
50299700.0 -0.8290488056 0.0517952476 -0.0001079623 -5.27834e-05 -8.21961e-05 9.06551e-05 0.8522897947 -0.0855462181
55299670.0 -0.8315796042 0.0611544857 -3.89761e-05 0.0001296427 -7.23203e-05 1.12841e-05 0.8511279294 -0.0937436821
60299640.0 -0.8322927625 0.0717125645 -0.0003697953 0.0003425552 -7.9417e-06 -1.71777e-05 0.8497153223 -0.1021439387
65299610.0 -0.8337254663 0.0815232867 4.87526e-05 -3.46487e-05 7.73037e-05 -2.85833e-05 0.8492774226 -0.1103384274
70299580.0 -0.8339106181 0.0918500639 0.0002763676 -3.75108e-05 0.0001533311 0.0001474481 0.8475828795 -0.1186144345
75299550.0 -0.8341168714 0.1017915857 -3.3778e-05 0.0001536564 -2.49659e-05 0.0001620668 0.8460609385 -0.1265199453
80299520.0 -0.8339699355 0.1119467279 -0.0001119607 7.37196e-05 5.30112e-05 0.0001805847 0.8447246047 -0.1355026842
85299490.0 -0.8325438284 0.1210293918 0.0001552384 -0.0001004081 3.33037e-05 0.0001167896 0.8433476615 -0.143607789
90299460.0 -0.8323488522 0.1313684336 -2.75248e-05 -1.3258e-06 0.0002055828 -8.59562e-05 0.8421556672 -0.1517307476
95299430.0 -0.8310993044 0.1407162462 0.0001104708 7.10894e-05 2.94079e-05 -3.26695e-05 0.8408232722 -0.16019397
100299400.0 -0.8306356502 0.1495072536 -0.0001493013 -4.11797e-05 -4.65408e-05 9.50545e-05 0.8387008046 -0.1683938467
105299370.0 -0.8289195104 0.159546309 8.43955e-05 -5.12819e-05 -6.89673e-05 0.0001081126 0.8372978689 -0.176572305
110299340.0 -0.827734214 0.1682062879 0.0001748921 1.30049e-05 -7.18e-08 -5.26045e-05 0.8355112088 -0.1848612194
115299310.0 -0.8258493741 0.1775477123 -4.42152e-05 6.51609e-05 8.45777e-05 0.0001518847 0.8335446475 -0.1924301736
120299280.0 -0.8245096621 0.1862339307 -1.10805e-05 7.37876e-05 0.0001869951 1.73171e-05 0.8320675615 -0.2010268185
125299250.0 -0.822812051 0.1957601583 -9.4619e-05 -4.20196e-05 -2.10617e-05 -0.0001040146 0.8296152773 -0.2085711639
130299220.0 -0.8212566445 0.2047201543 7.88265e-05 -8.27058e-05 5.7734e-05 1.71799e-05 0.8275643327 -0.2163746066
135299190.0 -0.8188334587 0.2136594487 3.692e-06 4.09594e-05 0.0001456139 9.18971e-05 0.8254230829 -0.2251038656
140299160.0 -0.8172417408 0.2231635705 -6.7483e-06 0.0001005878 8.7041e-06 -4.17025e-05 0.8227108939 -0.2335241739
145299130.0 -0.8151559068 0.2327533079 5.92749e-05 -5.8269e-06 0.0001086003 -4.48787e-05 0.8203172164 -0.2411715863
150299100.0 -0.8127263014 0.2410143263 2.95891e-05 4.79824e-05 -4.25e-08 3.55815e-05 0.8182345422 -0.2489997562
155299070.0 -0.8096797926 0.2501617272 4.90075e-05 5.56993e-05 0.0001075285 -0.0001622806 0.8156378661 -0.2578773342
160299040.0 -0.8076465755 0.259068984 4.276e-05 -0.000103149 0.0001997817 4.64862e-05 0.812793841 -0.265332941
165299010.0 -0.8046307902 0.2678019995 8.27275e-05 0.0001010271 0.0001091755 0.0001315544 0.8105505895 -0.2736550748
170298980.0 -0.8018892824 0.2768973354 0.0001198109 9.83988e-05 -6.60438e-05 0.0001640787 0.8073268507 -0.2811801214
175298950.0 -0.7993063975 0.2847043848 1.97444e-05 -1.66367e-05 1.90895e-05 -0.000128423 0.8048370733 -0.2890025013
180298920.0 -0.7961946023 0.2935183406 0.0001335188 -2.92641e-05 4.75967e-05 -5.48897e-05 0.8020684925 -0.2970589953
185298890.0 -0.7925069826 0.3022989348 0.0001373955 -5.22544e-05 -4.72822e-05 -0.0001048844 0.7989806665 -0.3045999139
190298860.0 -0.7893693062 0.3110716991 0.000143332 0.0001058845 4.91098e-05 3.57535e-05 0.7958902832 -0.3128877391
195298830.0 -0.7865236981 0.3191730322 3.3201e-05 -9.8838e-05 8.23101e-05 7.17049e-05 0.7923778431 -0.3206555119
200298800.0 -0.7833297886 0.3282079548 0.0002117952 -4.83053e-05 -6.18094e-05 -4.85306e-05 0.7891553919 -0.3281055255
205298770.0 -0.7793310963 0.3362578046 3.56475e-05 -4.19384e-05 -0.000148816 7.36982e-05 0.786607552 -0.336431789
210298740.0 -0.7758526285 0.3449541107 0.0001895616 4.3443e-05 -9.19592e-05 0.0001895553 0.7834498467 -0.3438875078
215298710.0 -0.7722929925 0.3533585808 5.3744e-05 -0.0001020947 3.28083e-05 0.0001468242 0.778974948 -0.3517195933
220298680.0 -0.7691503023 0.3608685785 -0.0001454873 -1.993e-05 -9.41078e-05 -6.57169e-05 0.7753007085 -0.3581361818
225298650.0 -0.7645884962 0.3696588267 9.14873e-05 4.76809e-05 -0.0001424596 -7.10912e-05 0.7719234678 -0.3661469942
230298620.0 -0.7607534439 0.3777182686 0.0001796953 7.62244e-05 7.4883e-06 -0.0001727913 0.7685408512 -0.373928928
235298590.0 -0.7569918099 0.3862341494 0.0001868053 7.98007e-05 5.183e-07 0.0001515438 0.7647139232 -0.381299483
240298560.0 -0.7529254976 0.3938308377 9.563e-06 -4.27494e-05 -8.26232e-05 -0.0001401641 0.7615972678 -0.3884764736
245298530.0 -0.7489070183 0.4018496953 1.45727e-05 -0.0001200791 -3.0572e-06 0.0001253681 0.7570311114 -0.3960597167
250298500.0 -0.7448997269 0.4091351999 0.0001209065 -6.12564e-05 1.419e-06 -0.0001225899 0.7533673257 -0.4028387265
255298470.0 -0.7406424998 0.4174023973 -0.0001189982 -0.0001315186 -4.1338e-05 0.0001211975 0.7495633916 -0.4107717233
260298440.0 -0.7364243338 0.4249729963 5.80155e-05 2.95491e-05 8.0713e-05 5.57772e-05 0.7451113986 -0.4184589268
265298410.0 -0.7319755746 0.4329174793 0.0002332347 0.000120545 0.0001549613 0.0001535957 0.7414533593 -0.4253131525
270298380.0 -0.7271006563 0.4406175489 1.81827e-05 0.0001260911 -2.97233e-05 -8.6034e-05 0.737606946 -0.432760669
275298350.0 -0.7233370612 0.4485471904 8.3579e-06 7.06555e-05 -5.61728e-05 8.5154e-05 0.7327884164 -0.4401226856
280298320.0 -0.7182528323 0.4555132585 7.96479e-05 -8.53386e-05 0.0001430181 -0.0001854232 0.7284965649 -0.4466200751
285298290.0 -0.7132307757 0.4633678882 -1.92909e-05 0.0001919627 0.00013056 -4.4002e-06 0.7243961933 -0.4541961607
290298260.0 -0.7083478762 0.4707817482 7.81764e-05 -5.53948e-05 9.82224e-05 2.4025e-05 0.720313493 -0.4607064922
295298230.0 -0.7043523877 0.4780461792 0.0001307773 -6.17999e-05 -0.0002770957 -0.0002658062 0.7152327455 -0.4680160175
300298200.0 -0.6993918183 0.4857324652 -0.0001358133 0.0001428892 -1.61219e-05 -0.0001164853 0.711191419 -0.4751263935
305298170.0 -0.6946573743 0.4929798927 -0.0001632716 7.12497e-05 0.0001064562 6.42564e-05 0.7060924441 -0.482293911
310298140.0 -0.6887443694 0.4999807075 2.7275e-06 -9.08687e-05 2.89639e-05 5.0588e-05 0.7023784299 -0.4894461609
315298110.0 -0.6845628542 0.5069153165 0.0001026648 -0.0001103869 -2.60123e-05 -2.51224e-05 0.697538501 -0.4965245802
320298080.0 -0.6788597436 0.5146390472 -0.0003085364 0.0001463418 -0.0001191336 0.0001000553 0.6925444177 -0.5047640128
325298050.0 -0.6734761437 0.5209281934 0.0001863152 0.000192423 -2.9793e-06 -0.0001624089 0.6876377263 -0.5120776644
330298020.0 -0.6679668941 0.5278535461 9.9801e-05 -0.0001067846 -2.70931e-05 0.0001608674 0.6819268917 -0.5195540079
335297990.0 -0.6629020441 0.5350286915 0.0001248844 0.0002176504 -2.10318e-05 6.45925e-05 0.6759296256 -0.5260242872
340297960.0 -0.6576808074 0.5418634398 -0.0003629343 5.31403e-05 0.0001137581 -0.0001624233 0.6697966094 -0.532465025
345297930.0 -0.6515998339 0.5483827199 8.98976e-05 -6.4888e-05 -0.0001406535 -0.0001002232 0.6641145359 -0.5388481872
350297900.0 -0.6461897927 0.5548431638 1.44231e-05 -0.0001077189 8.37676e-05 0.0001166742 0.6582793795 -0.5452777225
355297870.0 -0.6409112952 0.5609701421 -3.06934e-05 -4.89183e-05 -0.0001484091 1.31609e-05 0.6526130994 -0.551617109
360297840.0 -0.6347841247 0.5684174983 4.03878e-05 -0.0001997534 -0.0001992819 -0.0001361083 0.6471614043 -0.5574236592
365297810.0 -0.6294993203 0.5748553759 -0.0001992589 7.08757e-05 -0.0001445883 -0.0003265321 0.6412420124 -0.5642883497
370297780.0 -0.6237477143 0.5807303358 -0.0001494377 0.0001112373 3.142e-06 -9.38787e-05 0.6354350422 -0.5695383168
375297750.0 -0.6176300796 0.5873846304 -0.0002115709 -0.0001654564 0.0002284245 -6.60555e-05 0.6300744805 -0.5758124373
380297720.0 -0.6116037072 0.59340718 -1.21892e-05 6.41225e-05 -7.12837e-05 -0.0001068342 0.6242252537 -0.5816186947
385297690.0 -0.6057662543 0.599102737 9.532e-06 -2.24727e-05 1.33435e-05 8.11074e-05 0.6181208099 -0.5874340699
390297660.0 -0.5984133879 0.6052277876 2.56538e-05 -0.0001143096 -5.61217e-05 -3.76135e-05 0.6119441226 -0.593644779
395297630.0 -0.5929723057 0.6120099221 2.1287e-05 -9.58327e-05 -6.36232e-05 0.0001567998 0.606387674 -0.599681961
400297600.0 -0.5864566584 0.6181187123 5.17502e-05 0.0001261275 7.70415e-05 -0.0001836553 0.5999720134 -0.6049655244
405297570.0 -0.5805584609 0.6237175885 5.23964e-05 -0.0001526285 -1.96175e-05 6.42188e-05 0.5940780685 -0.6112987508
410297540.0 -0.5734132257 0.6296911521 -6.52141e-05 -3.92059e-05 1.87711e-05 -0.0001406726 0.5881726695 -0.6168444904
415297510.0 -0.5679720999 0.6352387407 -0.0001792387 0.0003661513 9.79809e-05 2.39449e-05 0.5819773812 -0.6223532395
420297480.0 -0.5606451727 0.6410043062 -5.54621e-05 0.0001141616 6.27648e-05 -8.05162e-05 0.576167599 -0.6274871955
425297450.0 -0.5546279092 0.6469164168 0.0001686904 -0.000120007 9.21294e-05 -8.6417e-06 0.5696804421 -0.6339236004
430297420.0 -0.5474672527 0.6521674352 -0.0002326471 0.0001683156 -7.3569e-05 -3.63863e-05 0.5633557846 -0.6395385123
435297390.0 -0.5410859482 0.6572532692 -4.93617e-05 0.000285933 -6.40551e-05 6.82692e-05 0.5563466668 -0.6448996531
440297360.0 -0.5338798294 0.663586351 8.92765e-05 -0.0002276124 -4.49328e-05 -9.86801e-05 0.5505300492 -0.6498649397
445297330.0 -0.5268989275 0.668194934 -2.84984e-05 4.06617e-05 -6.18439e-05 6.86703e-05 0.5435865364 -0.6546994138
450297300.0 -0.5201339356 0.674082291 -2.27216e-05 0.0001071797 0.0001147719 -0.0001595693 0.5372124005 -0.660000088
455297270.0 -0.5136561955 0.6784056556 -0.0001578328 -4.1237e-06 -4.44399e-05 -3.8276e-06 0.5306272199 -0.6653251482
460297240.0 -0.5059847675 0.6841789294 0.0001160091 -4.21543e-05 0.0001188782 -3.96661e-05 0.5239115375 -0.6710951805
465297210.0 -0.4989135754 0.6888902381 0.0001317615 9.90828e-05 -8.38302e-05 -0.0001357809 0.5173580622 -0.6750448475
470297180.0 -0.4914049041 0.6936648379 0.000171157 -0.0001375917 -9.81291e-05 5.53459e-05 0.5111894075 -0.6804541636
475297150.0 -0.4847062165 0.6994092301 6.7914e-06 -7.7897e-06 -0.0002494429 -8.35834e-05 0.5044421727 -0.6853805082
480297120.0 -0.4767014558 0.7041141241 -0.0001797358 8.1885e-06 -1.81103e-05 0.0001358638 0.4971450645 -0.6902236688
485297090.0 -0.4700191931 0.7088092028 0.0001027636 -3.1388e-05 -5.54385e-05 8.16852e-05 0.4906150969 -0.6953079467
490297060.0 -0.4619603702 0.7142364 0.0001094846 -9.42266e-05 -0.0001535788 0.0001326553 0.4834213107 -0.7002394854
495297030.0 -0.4548979865 0.7183594111 1.56493e-05 5.6779e-06 -5.0701e-05 4.78766e-05 0.4762161771 -0.70479717
500297000.0 -0.4470640162 0.7223187765 -7.39844e-05 -6.61762e-05 5.28943e-05 -0.0001053125 0.4697549576 -0.7089111444
505296970.0 -0.4392376553 0.7269636092 0.000364273 -0.0002210073 -8.70936e-05 -0.0001802243 0.462137248 -0.7135909048
510296940.0 -0.4322698308 0.731259167 9.06238e-05 -5.54696e-05 0.0001590519 0.0001318854 0.4544731309 -0.7175270947
515296910.0 -0.4243417937 0.7353217954 -0.0001109341 0.0001799647 3.86879e-05 -0.0001600121 0.4479538019 -0.7225356247
520296880.0 -0.4163963029 0.7398151345 9.69616e-05 -6.021e-07 6.4148e-05 -1.54331e-05 0.4408821082 -0.7265567302
525296850.0 -0.4088081573 0.743610855 -2.77212e-05 -9.68183e-05 -6.787e-06 -0.0001021856 0.4335098871 -0.7307976274
530296820.0 -0.4011300034 0.7481476174 1.15322e-05 -5.51455e-05 4.56682e-05 4.30826e-05 0.4266856199 -0.7353022615
535296790.0 -0.3923004932 0.7518452144 9.84454e-05 -0.0003675767 3.28615e-05 1.15235e-05 0.419839894 -0.7387313128
540296760.0 -0.3848770636 0.7558456374 6.74621e-05 0.000267625 -4.98086e-05 -6.51834e-05 0.4118424841 -0.7431179033
545296730.0 -0.3775736766 0.7601954352 2.9442e-05 -0.0003200787 -4.50653e-05 4.28526e-05 0.4048007762 -0.7469126617
550296700.0 -0.3692765958 0.7638033329 -4.49653e-05 0.0001616915 -0.0003301799 2.62054e-05 0.3965974687 -0.7510516795
555296670.0 -0.3616614547 0.7671733544 1.245e-05 0.0002490602 0.0001181015 6.739e-06 0.3893490379 -0.7552618942
560296640.0 -0.3534035081 0.7706690284 -4.72289e-05 3.3122e-06 -0.000169211 -4.36621e-05 0.3815900551 -0.7585311515
565296610.0 -0.3454680993 0.7740500078 -4.07988e-05 0.0001279335 -4.0665e-05 5.89496e-05 0.3744162988 -0.7619045493
570296580.0 -0.3372719884 0.7780214188 -1.43791e-05 -4.44468e-05 -5.42064e-05 -8.50915e-05 0.3660801473 -0.765814134
575296550.0 -0.3280570241 0.7811771239 1.32441e-05 -7.08272e-05 0.0001335046 -2.43768e-05 0.3593097077 -0.769134415
580296520.0 -0.3209295775 0.7842951385 -4.54764e-05 -2.6005e-05 -5.9937e-06 -0.0001778785 0.3507874236 -0.7728245913
585296490.0 -0.3123523081 0.7873498043 0.0001032001 1.77599e-05 -1.52475e-05 -0.0001183347 0.3436708631 -0.7752210591
590296460.0 -0.3039217183 0.7913523143 4.11113e-05 -1.36802e-05 0.0001355817 4.25885e-05 0.3355576517 -0.7792993191
595296430.0 -0.2963069872 0.794102219 2.38108e-05 0.0001200434 4.60876e-05 1.87699e-05 0.3278707306 -0.7822543207
600296400.0 -0.2885620211 0.7970827001 7.78139e-05 0.0001883268 -6.8319e-05 4.59088e-05 0.3205168343 -0.7848728998
605296370.0 -0.279484631 0.7992046513 4.14453e-05 -0.0001817867 0.0001190354 -3.47219e-05 0.3126182904 -0.7879139074
610296340.0 -0.2711212259 0.8028940977 -0.0001235605 -5.922e-07 2.28095e-05 -0.0002710572 0.3035564274 -0.7911624758
615296310.0 -0.2628077803 0.8056172488 -0.0001050324 -2.4208e-05 -7.8503e-05 -8.56245e-05 0.2963413702 -0.7939476679
620296280.0 -0.2550449156 0.8080705531 -2.2273e-05 8.76107e-05 -1.24153e-05 -2.10689e-05 0.2884167539 -0.796871051
625296250.0 -0.2475852039 0.8103960951 9.51476e-05 -3.03611e-05 -0.0001672439 -2.24894e-05 0.2801844197 -0.7997825187
630296220.0 -0.2388782833 0.81313529 -2.70046e-05 -0.0001492147 -6.07624e-05 -0.000172119 0.272796133 -0.8018607645
635296190.0 -0.2301892466 0.8152356584 -0.0002034693 0.0001136074 6.00012e-05 0.0001657758 0.2644267645 -0.804643907
640296160.0 -0.2218484583 0.8178337787 1.21494e-05 9.65312e-05 6.36741e-05 -6.47397e-05 0.2560304044 -0.8071164508
645296130.0 -0.2137284541 0.8202167232 4.72201e-05 -0.000126111 7.30559e-05 -9.39929e-05 0.2480991861 -0.8095809733
650296100.0 -0.2054661133 0.8216019012 -7.84369e-05 7.02061e-05 -0.0002012572 5.13757e-05 0.2400077641 -0.8120637223
655296070.0 -0.1974327776 0.8240473965 0.0001750322 0.0001973125 9.45689e-05 0.0001391955 0.2321014674 -0.8140337703
660296040.0 -0.1890679871 0.8262091981 0.000172967 2.95251e-05 5.2297e-05 -0.0002060723 0.2245947045 -0.8163774454
665296010.0 -0.18059255 0.8281971533 0.0001173829 -0.0001585139 0.000223454 -2.09007e-05 0.2165675454 -0.8183142697
670295980.0 -0.1729225915 0.8303513912 -7.09909e-05 7.22616e-05 2.01359e-05 0.0001723248 0.2075951978 -0.8199785245
675295950.0 -0.1635618311 0.8322483731 -6.54166e-05 -2.4783e-06 1.54056e-05 0.0001198127 0.199121245 -0.8223438125
680295920.0 -0.1559013976 0.833783959 -2.55895e-05 0.000447415 -0.0001216309 -2.25897e-05 0.191392562 -0.8240645042
685295890.0 -0.1477051832 0.8356650199 7.4046e-05 2.6535e-05 4.06699e-05 2.67278e-05 0.1832890114 -0.8256978197
690295860.0 -0.1391626948 0.836781167 -9.82953e-05 -8.44598e-05 -0.0001037558 -7.24189e-05 0.1746391214 -0.8277669805
695295830.0 -0.1306349988 0.8384610576 3.19997e-05 -4.52086e-05 -0.0001963519 -0.0001812335 0.1670190916 -0.8289132073
700295800.0 -0.1223793758 0.8397482332 -0.0001239464 -2.1736e-05 -0.000293009 5.67072e-05 0.1587853335 -0.8303549033
705295770.0 -0.1143976613 0.8414262926 -5.89734e-05 1.85529e-05 0.0001966241 2.9367e-05 0.1496299074 -0.8316463105
710295740.0 -0.1065914475 0.8417673158 -2.1648e-05 -0.0001321556 -0.0001428376 9.72877e-05 0.1421106891 -0.8328488323
715295710.0 -0.0976863275 0.8435490591 -6.76585e-05 0.0001937554 0.0001285097 0.0001657384 0.1337421473 -0.8345825559
720295680.0 -0.0887939481 0.8443525027 -0.0002414426 -0.0001118464 -0.0001289107 8.41189e-05 0.1257300563 -0.8358289683
725295650.0 -0.0816108975 0.8457933794 -3.32331e-05 -0.0001846849 5.74338e-05 8.99374e-05 0.116517969 -0.8359563515
730295620.0 -0.0736182955 0.8469441386 4.51204e-05 -0.000122466 0.000201265 9.5154e-05 0.1082776028 -0.8375474032
735295590.0 -0.065126003 0.8476109114 7.00906e-05 -0.0001057573 -3.97799e-05 0.0001479562 0.1007990545 -0.8377139819
740295560.0 -0.0573473611 0.8476967132 0.000110408 6.76969e-05 -1.57019e-05 3.7225e-06 0.0917353393 -0.8393086974
745295530.0 -0.0490714382 0.8491022559 4.76445e-05 0.0001379105 0.0001165476 -7.11673e-05 0.0832003912 -0.839525564
750295500.0 -0.0406602468 0.8490913525 0.0001703035 -6.26658e-05 2.66582e-05 -0.0003155372 0.0747933164 -0.8404590675
755295470.0 -0.031768523 0.8497204421 -4.44374e-05 -1.7522e-05 -1.69786e-05 5.6909e-05 0.0669983835 -0.8405784694
760295440.0 -0.023817554 0.8504203288 -7.50583e-05 -0.0001011749 0.0001227858 4.96859e-05 0.0587244694 -0.8412273501
765295410.0 -0.0158819071 0.8504983498 8.51566e-05 -9.05047e-05 0.0002049536 2.29892e-05 0.0495968771 -0.8414357586
770295380.0 -0.0087130996 0.8507939122 -9.18718e-05 8.2451e-06 -4.41744e-05 5.529e-05 0.0419518836 -0.8422011895
775295350.0 0.0001629876 0.8509779227 -7.88822e-05 9.80503e-05 -5.46417e-05 0.0001161674 0.0332998222 -0.8425000204
780295320.0 0.0090869366 0.8516205454 0.0001213717 -8.31985e-05 -3.55455e-05 -1.45404e-05 0.0251342755 -0.8427237596
785295290.0 0.017150279 0.8511904432 -0.0001501305 -1.16063e-05 0.0002503603 -0.0001534382 0.0162073103 -0.8425671154
790295260.0 0.0252087302 0.8508649558 -0.000136982 -0.0001278334 0.0002271423 2.51818e-05 0.0082371517 -0.8418075983
795295230.0 0.0331201642 0.8504791193 9.24242e-05 8.28485e-05 2.55751e-05 0.0002986379 -0.0010526572 -0.8431624453
800295200.0 0.0413519153 0.8507062409 0.0002669037 6.10052e-05 3.19915e-05 -5.1742e-05 -0.0089552718 -0.8424365017
805295170.0 0.0492598248 0.8504675924 -7.61849e-05 -0.000214437 0.0001746993 0.0003581094 -0.0167727394 -0.8423715744
810295140.0 0.0581632695 0.8504953673 4.14371e-05 1.81587e-05 3.8971e-05 0.0001206291 -0.0256619704 -0.8414899167
815295110.0 0.0653580633 0.8497951382 6.32484e-05 0.0002572445 2.61141e-05 1.43597e-05 -0.0345172736 -0.8416302352
820295080.0 0.0734811161 0.8492921068 2.72662e-05 -0.0002330384 0.0002254947 0.0002234236 -0.0430848613 -0.8397058464
825295050.0 0.0821915339 0.8479109639 -2.274e-05 8.86108e-05 0.0002431207 2.97106e-05 -0.0504730121 -0.8393645233
830295020.0 0.0911936829 0.8474062581 -4.15262e-05 5.90564e-05 9.84136e-05 0.0001361234 -0.0593123547 -0.8390813266
835294990.0 0.0979562297 0.8468923255 5.9309e-06 3.12018e-05 0.000104317 -5.75432e-05 -0.067332851 -0.8379020874
840294960.0 0.1068495335 0.8451107991 -0.0002211089 0.0002257974 -8.96963e-05 5.40371e-05 -0.0757805236 -0.8375194566
845294930.0 0.1152016884 0.8443449882 -0.0001450736 -0.0001013161 0.0001582345 -0.0001622813 -0.0840618643 -0.8361602568
850294900.0 0.1243301776 0.8429961123 -0.0001973446 -1.73791e-05 -7.61323e-05 -0.0001601145 -0.0923199042 -0.8358403743
