!Created with skrf (http://scikit-rf.org).
# Hz S RI R 50.0 
!freq ReS11 ImS11 ReS21 ImS21 ReS12 ImS12 ReS22 ImS22
300000.0 -0.2407014553 -0.0861238176 0.4712620832 0.0586416921 0.4706079067 0.0549635748 -0.23850095 -0.0935743614
5299970.0 -0.2450976691 0.0067201452 0.475081462 0.0051452131 0.4750749523 0.0048069104 -0.2413396831 0.0079006615
10299940.0 -0.2418507591 0.0181557892 0.4768239284 0.0057954681 0.4767789215 0.0062309403 -0.2380035637 0.0205586497
15299910.0 -0.2377046762 0.0270142142 0.4804828863 0.0074460635 0.4806163266 0.0075662992 -0.2334769996 0.0298940285
20299880.0 -0.2329100364 0.0340315814 0.4851517453 0.0083364228 0.4850568813 0.0081608788 -0.2281983178 0.0379346003
25299850.0 -0.2278274103 0.0402406065 0.490125188 0.0072040964 0.4903616686 0.0072003399 -0.2221957024 0.0447955488
30299820.0 -0.222489066 0.0452718765 0.4955534721 0.0049830319 0.4956175211 0.0049557018 -0.2165397799 0.0500904716
35299790.0 -0.2175903114 0.048888079 0.5011903018 0.0012523226 0.5010962975 0.0018302779 -0.2109247358 0.0544968705
40299760.0 -0.2126660555 0.0525025328 0.5057169022 -0.0025433785 0.5060187999 -0.0025849101 -0.2053762816 0.0572366279
45299730.0 -0.2080203864 0.0547045479 0.5102635518 -0.0071972222 0.5105284717 -0.0071476828 -0.2004107101 0.0602407624
50299700.0 -0.2038363002 0.0568633867 0.5150059584 -0.0122001806 0.5148602162 -0.0122406843 -0.1954855826 0.062128352
55299670.0 -0.1999657476 0.0585521239 0.5190974673 -0.0185520644 0.5190411455 -0.0186502196 -0.1913678117 0.06406182
60299640.0 -0.1958940748 0.059927137 0.5217371392 -0.024864022 0.5219430172 -0.0246291016 -0.1874075355 0.0649970498
65299610.0 -0.1929567624 0.0609701918 0.5246495906 -0.0309854358 0.5247050323 -0.0312198746 -0.1838674755 0.066583731
70299580.0 -0.1898253348 0.0620238242 0.5268601532 -0.0377970088 0.5269954501 -0.0376825706 -0.1806633942 0.0674126427
75299550.0 -0.1871022301 0.0630002326 0.5290043512 -0.044671062 0.528607507 -0.0444464912 -0.1773969564 0.0682359641
80299520.0 -0.1847663632 0.0635176822 0.5310796185 -0.0512394187 0.5309359924 -0.0513924566 -0.1751280201 0.0691956165
85299490.0 -0.1825708072 0.0642182116 0.5320342274 -0.0578020741 0.5321394551 -0.0578848527 -0.172641157 0.0695693196
90299460.0 -0.1805551847 0.0648068945 0.5329364221 -0.06548781 0.53340521 -0.0653177886 -0.1702604894 0.0705220105
95299430.0 -0.1782257747 0.0652749741 0.5341152739 -0.0719216771 0.5341257119 -0.0721974796 -0.1679225419 0.0710223326
100299400.0 -0.1765585794 0.0662572089 0.5339428399 -0.0787883879 0.5339708269 -0.0791190378 -0.1656578901 0.0714551407
105299370.0 -0.174713155 0.0667120566 0.5345859112 -0.0859885349 0.5351162647 -0.0858634075 -0.1639975922 0.0726752865
110299340.0 -0.1730277759 0.0672819711 0.535102806 -0.0922392451 0.5349669153 -0.0922742303 -0.1628119609 0.0730408214
115299310.0 -0.1718644467 0.0681161361 0.5348195098 -0.0996435821 0.5345974516 -0.0994201732 -0.1610154982 0.0737847946
120299280.0 -0.1708159645 0.0684390946 0.5347022055 -0.1063559777 0.5347042073 -0.106497547 -0.1594672823 0.0747845658
125299250.0 -0.1695706571 0.0690306251 0.5341585655 -0.1130024046 0.53456286 -0.1125886985 -0.1587505224 0.0749647613
130299220.0 -0.1687672039 0.0702779759 0.5330791054 -0.1199260706 0.533485168 -0.1195995746 -0.1573101372 0.0757791517
135299190.0 -0.1673889629 0.0712747451 0.5332881924 -0.1263055149 0.533076662 -0.1259804796 -0.1557062405 0.077212588
140299160.0 -0.1667058817 0.0718825476 0.5319934379 -0.1330721192 0.5324099317 -0.1331433359 -0.1546381134 0.0783204788
145299130.0 -0.165721769 0.0726783513 0.5314343866 -0.1396294598 0.5312062516 -0.1395812511 -0.1536010409 0.0790597335
150299100.0 -0.1645911855 0.0736682211 0.5299532081 -0.1456458858 0.5302978048 -0.1456198413 -0.1524504955 0.0804545647
155299070.0 -0.163916549 0.0746368121 0.5291063235 -0.1532176422 0.5287328408 -0.1522329277 -0.1514047619 0.0813412902
160299040.0 -0.1629544437 0.075767778 0.5273611162 -0.1588388946 0.5271730039 -0.1591823927 -0.1510847545 0.0822329897
165299010.0 -0.1621069587 0.0768439559 0.5260974945 -0.1657522749 0.5262045354 -0.1658096832 -0.1498035774 0.083807435
170298980.0 -0.1615869232 0.0777621543 0.5243265241 -0.1719037069 0.5244969911 -0.171793586 -0.148478948 0.0849065122
175298950.0 -0.160855492 0.0786712476 0.5235290844 -0.1779050542 0.5224534656 -0.1781348801 -0.1479527207 0.0860231594
180298920.0 -0.1600895116 0.0800452632 0.5208725159 -0.1845117231 0.520882102 -0.1844601191 -0.1468177072 0.0872830194
185298890.0 -0.1590499289 0.0811097595 0.5191953152 -0.1903441015 0.5190266592 -0.190259164 -0.1458588385 0.0886556099
190298860.0 -0.1584573749 0.0823354642 0.5173842913 -0.1971334325 0.517788957 -0.1963984597 -0.1449555781 0.0896118103
195298830.0 -0.1577950614 0.0835131413 0.5152301202 -0.202772732 0.5154720405 -0.2028626489 -0.143936781 0.0909897941
200298800.0 -0.1570232043 0.0846528583 0.5132421425 -0.2091387755 0.5134321172 -0.2087854406 -0.1433038003 0.0923402093
205298770.0 -0.156217703 0.0860013763 0.5108287503 -0.2152034941 0.5108322194 -0.2146462154 -0.1423010398 0.0930232659
210298740.0 -0.1555577246 0.0869686375 0.5086338946 -0.2204406908 0.5087845403 -0.2206308137 -0.141086621 0.0950021138
215298710.0 -0.1552470139 0.088383313 0.5065104181 -0.2271773961 0.5064873826 -0.2271296876 -0.1404015576 0.0963454476
220298680.0 -0.1539284021 0.0893200777 0.5038747682 -0.2328835945 0.5039088638 -0.2326696609 -0.1397032035 0.0972593045
225298650.0 -0.153328396 0.0905399728 0.5013165582 -0.2385572052 0.5017145819 -0.2385280556 -0.1390109866 0.0986429572
230298620.0 -0.1526494499 0.0921650905 0.4990958503 -0.2439129895 0.4994890121 -0.2443447632 -0.1377814966 0.099856571
235298590.0 -0.1519172631 0.0937832965 0.4965679021 -0.2504424261 0.4963926916 -0.2495970516 -0.1370461719 0.1014159631
240298560.0 -0.1506823784 0.0947466959 0.4940225739 -0.2559592549 0.4935424276 -0.2558908599 -0.1357129545 0.1029421528
245298530.0 -0.1503573907 0.0960930731 0.4914936263 -0.2615177382 0.4913672319 -0.2616971107 -0.1344910833 0.1037025392
250298500.0 -0.1491594561 0.0975884422 0.4878973764 -0.2674092377 0.4878040089 -0.2670614683 -0.1341036312 0.1052569322
255298470.0 -0.1486219214 0.09856325 0.484637256 -0.2723840138 0.4851633219 -0.2724145048 -0.1325145022 0.1065880425
260298440.0 -0.1480404763 0.0998168026 0.4822010433 -0.2786519175 0.4823262861 -0.2781774751 -0.13130292 0.1084269396
265298410.0 -0.1467463998 0.1016861213 0.4787939009 -0.2839444326 0.4794512559 -0.2834988093 -0.1304042024 0.1096375602
270298380.0 -0.1460716681 0.1027601809 0.4765347201 -0.2887160303 0.4764731239 -0.2889776114 -0.12952302 0.1113319897
275298350.0 -0.144659303 0.1043692874 0.4728551028 -0.2946780001 0.4734036467 -0.2944454375 -0.1279474789 0.1122838437
280298320.0 -0.1439326568 0.1058128504 0.4700381511 -0.3001385328 0.4699127803 -0.2996289788 -0.1266845802 0.1136800405
285298290.0 -0.1430600539 0.1072456687 0.4669749225 -0.3053853807 0.4667636042 -0.3052340139 -0.1256353544 0.1154714716
290298260.0 -0.1419682492 0.1084001316 0.4632507092 -0.3104292563 0.4634911629 -0.310313402 -0.1242025741 0.1166855238
295298230.0 -0.1409348387 0.1095326583 0.4600064292 -0.3159521369 0.4600547589 -0.315378577 -0.1227306989 0.1177523717
300298200.0 -0.1404195318 0.1109184643 0.4568800089 -0.3205167968 0.4569350425 -0.3213369531 -0.1217652115 0.1194721228
305298170.0 -0.1391473975 0.1121980016 0.4528901713 -0.3264412685 0.453033941 -0.3260853573 -0.1200795151 0.1203427418
310298140.0 -0.1382107805 0.113548976 0.4495413803 -0.3312045164 0.4497542903 -0.3314499118 -0.1194391792 0.1218970993
315298110.0 -0.1371866947 0.1145660255 0.4457568144 -0.3366883622 0.445747153 -0.3364503876 -0.1178278388 0.1229973993
320298080.0 -0.1360323295 0.1158954052 0.4415077736 -0.342146876 0.4421066407 -0.3419434255 -0.1167951576 0.1242821761
325298050.0 -0.1350704241 0.1171679186 0.4382377168 -0.3471355325 0.4385242565 -0.346587264 -0.1157269112 0.1257325337
330298020.0 -0.1342364619 0.1183193303 0.4340492878 -0.3520802577 0.4343295394 -0.3519922591 -0.1146167048 0.1265548824
335297990.0 -0.1331256537 0.119444154 0.4304274124 -0.3565605596 0.4301460395 -0.3568189356 -0.113616606 0.1287216373
340297960.0 -0.1325594597 0.1209560489 0.4253865229 -0.3612002603 0.4257373358 -0.3614816354 -0.1117648971 0.1298801664
345297930.0 -0.1316671726 0.1228350424 0.4220746715 -0.3664443728 0.4217364024 -0.3660049493 -0.1111387176 0.1309223531
350297900.0 -0.1305340581 0.1238127644 0.4173859575 -0.3709420198 0.4173917967 -0.3707501207 -0.1097610452 0.1329908234
355297870.0 -0.1292723904 0.1254434927 0.4135429866 -0.37527874 0.4142211729 -0.3748162651 -0.1085478834 0.1336375406
360297840.0 -0.1281348814 0.1267839363 0.4099980967 -0.3796731821 0.4099185094 -0.3798862385 -0.1068747984 0.1354248877
365297810.0 -0.1273062635 0.1283200429 0.4054094083 -0.3844485128 0.4054426056 -0.3846071329 -0.1054716302 0.1365714331
370297780.0 -0.1257826498 0.1294669528 0.4007091738 -0.3888441109 0.4013835161 -0.3884139167 -0.1040986406 0.1379060678
375297750.0 -0.124584939 0.130736742 0.3967311235 -0.3930204375 0.397408971 -0.393272838 -0.1024547076 0.1388564209
380297720.0 -0.1234833241 0.132044871 0.3922596948 -0.397209434 0.3926941993 -0.3967102042 -0.1015819592 0.13987284
385297690.0 -0.1225736833 0.1333067037 0.3880076759 -0.4017180576 0.3879667119 -0.401377748 -0.0995549127 0.1416107644
390297660.0 -0.1211290205 0.1349499893 0.3836206875 -0.4061685371 0.3836430914 -0.4055715053 -0.0983506628 0.1427910085
395297630.0 -0.1198460833 0.1364804955 0.3792572404 -0.4101060727 0.3793524038 -0.4099838708 -0.0963979777 0.1442961602
400297600.0 -0.1187336539 0.1375277487 0.3743342186 -0.4147448012 0.3748058062 -0.414277618 -0.0952775257 0.1454118051
405297570.0 -0.1175913249 0.1386701354 0.3700310424 -0.4184846676 0.370028298 -0.4181961699 -0.093756582 0.1465319383
410297540.0 -0.1160660026 0.1397690744 0.3658589859 -0.4223267254 0.3657285804 -0.4227370236 -0.0921405035 0.1481097015
415297510.0 -0.1146394878 0.140830179 0.3607581237 -0.4263820863 0.36079211 -0.4264995868 -0.0902159681 0.1491446461
420297480.0 -0.1134476457 0.142634765 0.3563739307 -0.4304342966 0.3560534328 -0.4302578091 -0.088894203 0.1501383856
425297450.0 -0.1120780021 0.1436540428 0.3516242015 -0.434385056 0.3520467237 -0.4344271399 -0.0876222829 0.151386665
430297420.0 -0.1107446745 0.144753054 0.3464042092 -0.4376827314 0.3465227148 -0.4375763069 -0.0858210093 0.1523877019
435297390.0 -0.1093825612 0.1462364006 0.3415691578 -0.4415616651 0.3415377709 -0.4417323663 -0.0836661243 0.1534778624
440297360.0 -0.1078067385 0.1475454294 0.3366107814 -0.4455366244 0.3372334849 -0.4453162075 -0.0825219268 0.154412623
445297330.0 -0.1066140673 0.1482302761 0.3320643984 -0.4490186526 0.332152022 -0.4487860776 -0.0804589503 0.155342195
450297300.0 -0.1053146165 0.1493255272 0.3272235206 -0.4523517756 0.3273851919 -0.4530301172 -0.0792825386 0.1562440679
455297270.0 -0.1037525825 0.1507268057 0.3219007049 -0.4559753365 0.3221991297 -0.4564601345 -0.0771721846 0.1574008902
460297240.0 -0.1023525948 0.1520007966 0.3167338341 -0.4593953863 0.3173024672 -0.4596671272 -0.075481201 0.1588666067
465297210.0 -0.1008565945 0.1530294115 0.3127453582 -0.4631190188 0.3120639318 -0.463644587 -0.073566731 0.1593751521
470297180.0 -0.0994223319 0.1541838093 0.3068529641 -0.4668910705 0.3073817489 -0.4663757816 -0.0718228392 0.1606983016
475297150.0 -0.0977814464 0.1548191262 0.3019403076 -0.4692655285 0.3021904791 -0.4693566839 -0.0698319753 0.1611534934
480297120.0 -0.0965046528 0.1562812624 0.2964639573 -0.4728044535 0.2967958097 -0.4735497173 -0.0678021306 0.1622261977
485297090.0 -0.0952412775 0.1573329364 0.2916287177 -0.4759344336 0.2917655707 -0.4760301709 -0.0662496343 0.1630169625
490297060.0 -0.093734253 0.1584200047 0.2869811614 -0.4794545657 0.2866674555 -0.4794093572 -0.0645240555 0.1642991929
495297030.0 -0.0919200752 0.1593975754 0.2811796404 -0.4823981288 0.2814186114 -0.4818011047 -0.0630414847 0.1651529236
500297000.0 -0.0905454284 0.1601358945 0.2756101643 -0.4849606091 0.2757595144 -0.4854076459 -0.0608707681 0.1664006415
505296970.0 -0.0886459362 0.1611934279 0.2703178229 -0.4878932329 0.2706337717 -0.4880789296 -0.0593069725 0.1668510885
510296940.0 -0.0874600733 0.162415069 0.2652917791 -0.4910160404 0.2649929665 -0.491197826 -0.0572865848 0.1676502943
515296910.0 -0.0857710447 0.1635548597 0.2596165737 -0.4942055067 0.2599831443 -0.4937268793 -0.0554977811 0.1683139309
520296880.0 -0.0843508189 0.1643274832 0.254673264 -0.4973035727 0.2546739312 -0.4968254101 -0.0535386399 0.168833774
525296850.0 -0.0824503477 0.1647815955 0.2485578265 -0.4993895339 0.2490745225 -0.499441916 -0.0521592842 0.1698039623
530296820.0 -0.0807009826 0.1662735773 0.2432180771 -0.5025083749 0.2436259475 -0.5020493025 -0.050002436 0.1708131233
535296790.0 -0.0797228237 0.167161052 0.2384394229 -0.5048502311 0.2387849161 -0.5044305404 -0.0482983858 0.1712107559
540296760.0 -0.0780442296 0.1680356725 0.2324454767 -0.5076227537 0.2327691099 -0.5073942521 -0.046571147 0.1721746086
545296730.0 -0.0763336982 0.1688665539 0.2268970863 -0.5096261761 0.2271780608 -0.5100866703 -0.0447133366 0.172959684
550296700.0 -0.0745222583 0.1698981984 0.222067188 -0.5123122834 0.2219774468 -0.512566318 -0.0428030602 0.1734350874
555296670.0 -0.0729599961 0.1704487787 0.2158617023 -0.5149185564 0.2161501662 -0.5146505548 -0.0405332143 0.1741745236
560296640.0 -0.07106219 0.1718363109 0.2101560628 -0.5169179592 0.2103436095 -0.5166694553 -0.0386409992 0.1744845381
565296610.0 -0.0696661903 0.1722831976 0.2045125407 -0.5190210769 0.2048366502 -0.5188877873 -0.0369768775 0.1750670944
570296580.0 -0.0683062505 0.1733137917 0.1991555386 -0.5214587173 0.1988194004 -0.5212347625 -0.0349773247 0.1760542327
575296550.0 -0.0665634229 0.1742732279 0.1934884032 -0.523332919 0.1932485694 -0.5231223234 -0.0326263373 0.1761046949
580296520.0 -0.0642888921 0.1749940277 0.1879996522 -0.5260111495 0.1878429201 -0.5256543629 -0.0311579218 0.1767335759
585296490.0 -0.0634249375 0.1752627524 0.1823015326 -0.5272821361 0.1821806736 -0.5276831093 -0.0287738003 0.177220461
590296460.0 -0.0610868079 0.1761512101 0.1764509831 -0.5286416508 0.1765050549 -0.5292183542 -0.0274895289 0.1779718643
595296430.0 -0.0594116872 0.1771734242 0.1704052458 -0.5315709191 0.1704838145 -0.5311358975 -0.0251165238 0.17795087
600296400.0 -0.0576756114 0.1776792238 0.1646211689 -0.533178562 0.1648790215 -0.5327436025 -0.0235047731 0.1785229528
605296370.0 -0.0564420753 0.1785672318 0.1587130911 -0.5349241427 0.1591429442 -0.534393067 -0.0210564837 0.1789389064
610296340.0 -0.0546201082 0.1790887231 0.1528160038 -0.5361492928 0.1532583141 -0.5361877013 -0.0192675159 0.1792644237
615296310.0 -0.0523955999 0.1795486041 0.1471696796 -0.5375983295 0.1472618442 -0.538444793 -0.0168493567 0.1799234316
620296280.0 -0.0509786809 0.1799447869 0.1415833197 -0.5392178779 0.14177954 -0.5388518784 -0.0150114029 0.1800093249
625296250.0 -0.04919599 0.1805359242 0.1360914183 -0.5410204507 0.1360313958 -0.5413594386 -0.0126781919 0.1801932169
630296220.0 -0.0466247874 0.1816060783 0.1292251053 -0.542168144 0.1296743494 -0.5420127775 -0.0109567326 0.1808874955
635296190.0 -0.0459870154 0.182076708 0.1240019367 -0.543532599 0.1239734799 -0.5435082727 -0.0089186368 0.1809377948
640296160.0 -0.0439638797 0.1826632185 0.1181063554 -0.5443937057 0.1182375326 -0.5446425704 -0.0070628043 0.181099865
645296130.0 -0.0420768842 0.1834735583 0.1118010477 -0.5459074176 0.1126626154 -0.5460825292 -0.0047834239 0.1816667453
650296100.0 -0.0401543532 0.1836244415 0.1060392897 -0.5467850725 0.1065479394 -0.5471451982 -0.0025783262 0.1813935239
655296070.0 -0.0385206636 0.1841178275 0.1002266005 -0.5481658209 0.1008073699 -0.548228704 -0.0006861907 0.1820394563
660296040.0 -0.0373340863 0.1844858618 0.094763527 -0.549419406 0.0947734419 -0.549223087 0.0016532828 0.1820474428
665296010.0 -0.0349907095 0.1849897535 0.0884172849 -0.5499928376 0.0885464972 -0.5504400762 0.0037047172 0.1824148473
670295980.0 -0.0338055174 0.1858847644 0.0827270775 -0.5510689223 0.0826406274 -0.5511415908 0.0051831547 0.1825960937
675295950.0 -0.0318360993 0.1863451837 0.0767266647 -0.5523548717 0.0768058277 -0.5513350163 0.0069331322 0.182461069
680295920.0 -0.0301222555 0.1864918019 0.0700498175 -0.5523153287 0.0701312011 -0.5530335631 0.009437244 0.182852208
685295890.0 -0.0279740264 0.1875449695 0.0647058116 -0.5532742728 0.0645695876 -0.5532282399 0.0112315521 0.1825405011
690295860.0 -0.0258645151 0.1877011327 0.058509142 -0.5538289619 0.0589686384 -0.5544001114 0.0131527683 0.1833113975
695295830.0 -0.0243509664 0.1878276568 0.0527900349 -0.5545389547 0.0524537935 -0.5543220313 0.0154522625 0.1827914328
700295800.0 -0.0222680485 0.1882224957 0.0465383939 -0.5548497762 0.0464556539 -0.5548377105 0.0169018659 0.1833479918
705295770.0 -0.021121887 0.1889107744 0.0406848138 -0.5555829058 0.0411870567 -0.5556087357 0.0191115764 0.1833574392
710295740.0 -0.0185949477 0.1891072054 0.0347475611 -0.5563510988 0.0349831697 -0.5561295973 0.0210584844 0.1827343557
715295710.0 -0.0174683612 0.1891466436 0.0292275322 -0.5562443321 0.0286859412 -0.5563701155 0.0234523258 0.1825121917
720295680.0 -0.0153367489 0.1895761475 0.0228692177 -0.5566839689 0.0232056603 -0.5563569564 0.0252538719 0.1829123554
725295650.0 -0.013335817 0.1901482415 0.0167292346 -0.5570333005 0.017036802 -0.5567462609 0.0271485646 0.1828124447
730295620.0 -0.0112656963 0.1905987764 0.0109337774 -0.5569015257 0.0107929571 -0.5566105464 0.0290536114 0.1825223911
735295590.0 -0.0095933224 0.1907921211 0.0046973833 -0.5572862165 0.004710467 -0.5566896565 0.0309861839 0.1821150414
740295560.0 -0.0079846582 0.1911636033 -0.0014341599 -0.5567811357 -0.0011123872 -0.5571358434 0.033661181 0.1825459911
745295530.0 -0.0061604004 0.1913023736 -0.0072581463 -0.556477942 -0.0072935513 -0.556700383 0.0355073166 0.181471928
750295500.0 -0.0040731731 0.1914741673 -0.0130629509 -0.5563897544 -0.0129429263 -0.5564964296 0.0372686602 0.1816923284
755295470.0 -0.0023141523 0.1914463525 -0.018769252 -0.5562291034 -0.0190267985 -0.556723669 0.0396778497 0.1807908589
760295440.0 -0.0004476399 0.1913706063 -0.0250502498 -0.5560029578 -0.0250726889 -0.5565781432 0.0415948463 0.1808960838
765295410.0 0.0010976774 0.1920376449 -0.0309100115 -0.5558076461 -0.0316326041 -0.5562853592 0.0436322929 0.1804767678
770295380.0 0.0028288743 0.1918854224 -0.0372611997 -0.5552407784 -0.0371978881 -0.5550918209 0.0454864539 0.1799991231
775295350.0 0.0047959057 0.1916690242 -0.0431844015 -0.5546861018 -0.0424554056 -0.5548475436 0.0467979612 0.1799394279
780295320.0 0.0070624711 0.1917720898 -0.0493839482 -0.5536716445 -0.0483681753 -0.5540613677 0.0490501661 0.1793074151
785295290.0 0.008603955 0.191611144 -0.0552489087 -0.5531737559 -0.0546354743 -0.5536334674 0.0515834618 0.1788691304
790295260.0 0.0109605285 0.1924767869 -0.0605742471 -0.5530317193 -0.0607245284 -0.5530437808 0.0536498374 0.1786608753
795295230.0 0.0128085668 0.1919836799 -0.0670054853 -0.5521964174 -0.0663532513 -0.5524405116 0.0555059872 0.178342312
800295200.0 0.0141889428 0.1923296009 -0.0733656113 -0.5512734776 -0.072805597 -0.5512629549 0.0576542019 0.1777867053
805295170.0 0.0162742191 0.1920572157 -0.0789056262 -0.5505730172 -0.0785673591 -0.5508092954 0.0594602622 0.1775437171
810295140.0 0.0179796097 0.191624244 -0.0844796913 -0.5496754799 -0.0846469678 -0.5499321172 0.0616463806 0.1769572199
815295110.0 0.0200427513 0.1914494543 -0.0907373076 -0.5484938343 -0.0900842436 -0.5489151775 0.0632427778 0.1761926538
820295080.0 0.0214116514 0.1920380879 -0.0965400488 -0.5474714822 -0.0961217428 -0.5479768434 0.0654273157 0.175895013
825295050.0 0.0238741429 0.1918387408 -0.1018640098 -0.5465664259 -0.1021386824 -0.5468651541 0.0676264205 0.175409389
830295020.0 0.025498686 0.1920804281 -0.108256865 -0.5452754586 -0.1080784677 -0.5454815189 0.0702516263 0.1749828943
