!Created with skrf (http://scikit-rf.org).
# Hz S RI R 50.0 
!freq ReS11 ImS11 ReS21 ImS21 ReS12 ImS12 ReS22 ImS22
300000.0 -0.2383490393 -0.096812131 0.4646199947 0.0637666074 0.4683031471 0.0685148695 -0.2351496032 -0.1076374333
5299970.0 -0.244127391 0.0073010924 0.4741152989 0.0050282025 0.4738801445 0.0058616003 -0.2442913185 0.0058056214
10299940.0 -0.2400089796 0.0198756387 0.4758189344 0.00636069 0.4756623725 0.0067649698 -0.2411103639 0.0183296296
15299910.0 -0.2361635963 0.0292434261 0.4793322253 0.0079328163 0.4795209912 0.0079433551 -0.2368475801 0.0274861248
20299880.0 -0.2305008655 0.0373550354 0.4840811791 0.0084003902 0.4843748945 0.008373755 -0.2318379338 0.035377137
25299850.0 -0.224942908 0.0434684739 0.4892366684 0.0075710142 0.4896443029 0.0074500378 -0.2267758539 0.0414936484
30299820.0 -0.2187934322 0.0484172567 0.4950135183 0.0054669984 0.4945687467 0.0054091822 -0.2215705311 0.0471121499
35299790.0 -0.2131611989 0.0528114269 0.500179373 0.0024305637 0.5004798098 0.0024362175 -0.2162639335 0.0509538642
40299760.0 -0.2075686711 0.055482388 0.5055334192 -0.0011632939 0.505416723 -0.0019263993 -0.2115849119 0.0545654275
45299730.0 -0.2026296968 0.058501952 0.5106835721 -0.0064721987 0.5102417488 -0.0063683116 -0.2067670949 0.0572950835
50299700.0 -0.197441143 0.0600373178 0.513800141 -0.012233752 0.5145919837 -0.0123050115 -0.2021430735 0.0598899994
55299670.0 -0.1936267397 0.0615871019 0.5179334628 -0.0180737504 0.5182578768 -0.0177307494 -0.1983789465 0.0614828749
60299640.0 -0.1894410809 0.0627285919 0.5209797554 -0.02412491 0.5212650861 -0.0243819141 -0.1943275359 0.0630766148
65299610.0 -0.1860612672 0.0639193011 0.5245361367 -0.0301482199 0.5244552066 -0.0305880303 -0.1910208415 0.0643564347
70299580.0 -0.1826188919 0.0641922433 0.5266605382 -0.0368824916 0.5267379839 -0.0373432451 -0.1878391714 0.0656824617
75299550.0 -0.1794938865 0.0651632829 0.5285528645 -0.0440215333 0.5290473366 -0.0441350715 -0.1852879644 0.0670626926
80299520.0 -0.1771594751 0.0657252532 0.5310662909 -0.0508193877 0.5308323333 -0.0509011355 -0.1825053332 0.0672861106
85299490.0 -0.1746789028 0.0659156967 0.5319649297 -0.0579042175 0.532140333 -0.0581293167 -0.1803803449 0.0684598077
90299460.0 -0.1723564888 0.0665175322 0.5328594847 -0.0646254439 0.5332849743 -0.0645105529 -0.1775008816 0.0693210297
95299430.0 -0.1706065551 0.0671480262 0.5339935184 -0.0718895564 0.5340007675 -0.0716138783 -0.1756772824 0.0701074026
100299400.0 -0.1688418277 0.0678252623 0.5342919929 -0.0787619293 0.5341737899 -0.0785116335 -0.1741706296 0.0707541487
105299370.0 -0.1670766252 0.0681653907 0.5345089215 -0.0854982118 0.5344517341 -0.0856219673 -0.172115294 0.0714805868
110299340.0 -0.1656162828 0.0684178895 0.5346769491 -0.0922722814 0.5348323652 -0.0923578637 -0.1707437773 0.0727485988
115299310.0 -0.1639223039 0.068571623 0.5348066162 -0.09862832 0.5351801922 -0.0987421603 -0.169100213 0.0727804665
120299280.0 -0.1627484542 0.0692961702 0.5346461409 -0.1059834095 0.5351076502 -0.1061993499 -0.1681071176 0.0739728682
125299250.0 -0.1616884675 0.0697561169 0.5340734975 -0.1123916384 0.5344648429 -0.1130778168 -0.1665077413 0.0747582613
130299220.0 -0.1606036472 0.0706046057 0.5337277093 -0.1189219625 0.5335805348 -0.1197666921 -0.1651624222 0.0758747184
135299190.0 -0.1592551789 0.0710249732 0.5330264346 -0.1256924252 0.5326568336 -0.1261367699 -0.1640608857 0.0772180299
140299160.0 -0.1586184111 0.0721548285 0.5319569048 -0.1326190063 0.53232231 -0.1328059629 -0.1628145791 0.0777990925
145299130.0 -0.1574601936 0.0728015795 0.5316929362 -0.1394258452 0.5309854492 -0.1391369874 -0.1619906841 0.0787698236
150299100.0 -0.15644827 0.0734351475 0.5302950785 -0.1458612747 0.530398663 -0.1457433612 -0.160868566 0.0796745463
155299070.0 -0.1559433661 0.0748528772 0.529276393 -0.1528024203 0.5290619177 -0.152908641 -0.1599084906 0.0812075523
160299040.0 -0.1550582445 0.0751724167 0.5275401459 -0.1584031615 0.5279001688 -0.1591621018 -0.1590073077 0.0825205959
165299010.0 -0.1543181829 0.07611785 0.5261970322 -0.1652025101 0.5261759165 -0.1652969408 -0.1577100775 0.0834282234
170298980.0 -0.1537777669 0.0771874638 0.5238283364 -0.1714170382 0.5244913651 -0.1716582768 -0.1568402308 0.0843426808
175298950.0 -0.1527208319 0.078243725 0.5235467134 -0.1778268242 0.5232314487 -0.1776640149 -0.1558226217 0.0855833119
180298920.0 -0.1515521462 0.0790856352 0.5210726637 -0.1843707491 0.5213425722 -0.1842283499 -0.1548660634 0.0873250884
185298890.0 -0.151038206 0.080106481 0.5190749894 -0.1910278034 0.519475946 -0.190327319 -0.154265137 0.0878922909
190298860.0 -0.1502323504 0.0811694434 0.517410227 -0.1966126158 0.5179733305 -0.1966974638 -0.152634302 0.0895024155
195298830.0 -0.1494396921 0.082248513 0.5157753064 -0.2027486748 0.5157571769 -0.2031271101 -0.1519312734 0.0906613671
200298800.0 -0.1486898599 0.0833811032 0.5134104191 -0.2080645797 0.513429571 -0.2085828997 -0.1507455193 0.0922493935
205298770.0 -0.1484163362 0.0846486078 0.5117073694 -0.2146752953 0.5113223417 -0.2149340097 -0.1501034966 0.0933495086
210298740.0 -0.1475751897 0.0856562357 0.5092260194 -0.2213090229 0.509334149 -0.2212397007 -0.1488221313 0.0948572057
215298710.0 -0.1467385601 0.0866927996 0.5068153638 -0.2267340858 0.5068977265 -0.2267080394 -0.1485387087 0.0961992213
220298680.0 -0.1458351148 0.0879039861 0.5042837947 -0.2326770487 0.5045085074 -0.2327447266 -0.1470336312 0.0976702839
225298650.0 -0.1450107027 0.0893439244 0.5018560065 -0.2382639159 0.5019725415 -0.2385793236 -0.1463615479 0.0990710261
230298620.0 -0.1445017944 0.0907337141 0.4995745448 -0.2445621533 0.4996838768 -0.2444765383 -0.1450277195 0.1004725205
235298590.0 -0.1437827607 0.0916188609 0.4969353795 -0.2501279698 0.4967253612 -0.2506455333 -0.144200402 0.1016015434
240298560.0 -0.142941593 0.093059726 0.4939772583 -0.2555226248 0.4944826456 -0.2555033319 -0.1430521791 0.1030023496
245298530.0 -0.141892118 0.0940422585 0.4906838541 -0.2616325384 0.4912066496 -0.2617385787 -0.1418658014 0.1048560769
250298500.0 -0.1414961173 0.0950807603 0.4885827009 -0.2668531694 0.4886160375 -0.2665321303 -0.1405127985 0.1060404359
255298470.0 -0.1405768955 0.0965725871 0.4853438169 -0.2725044716 0.4856751341 -0.2727357647 -0.1394553393 0.1071896262
260298440.0 -0.1398727073 0.097840527 0.4828506331 -0.2778845644 0.482607812 -0.2783210188 -0.1380346865 0.1088056992
265298410.0 -0.1387980745 0.0996475856 0.4794377037 -0.2842296929 0.479219615 -0.2839356421 -0.1376250685 0.1099267558
270298380.0 -0.1379127067 0.1006350455 0.4761090183 -0.2893083886 0.4766013088 -0.2894523965 -0.1363318031 0.1121046332
275298350.0 -0.1372556034 0.1020492189 0.4732809053 -0.2945961921 0.4735204782 -0.2949532083 -0.1347724322 0.1134265872
280298320.0 -0.1362972809 0.1033116835 0.4699903416 -0.2997386114 0.4696689709 -0.3001487644 -0.1333662918 0.1148394009
285298290.0 -0.1350948663 0.1049210579 0.4666793818 -0.3051876399 0.4666774575 -0.3054383752 -0.1327351538 0.1162451153
290298260.0 -0.1342412363 0.1057714207 0.464005076 -0.3104171957 0.4634357509 -0.3107973525 -0.1306300496 0.1179500196
295298230.0 -0.1332782669 0.1072307062 0.46033816 -0.3163518013 0.459977441 -0.315882096 -0.1297135216 0.119362338
300298200.0 -0.1321357385 0.1083097259 0.4568982592 -0.3215312778 0.4568349854 -0.3215170695 -0.1286389747 0.1209103871
305298170.0 -0.1310606511 0.1095618879 0.4535912406 -0.3265152492 0.4532617032 -0.3268619902 -0.1267000689 0.122316288
310298140.0 -0.1298205043 0.110532204 0.4500949548 -0.3319787899 0.4497258578 -0.3322795478 -0.1253121872 0.1238797882
315298110.0 -0.1288724902 0.1118815366 0.4459005687 -0.3368650589 0.4462569836 -0.337252398 -0.1237368362 0.124970078
320298080.0 -0.1282107206 0.1131423086 0.4423267282 -0.3421259169 0.4423131513 -0.3421336152 -0.1226929922 0.1261476662
325298050.0 -0.1272279805 0.1139590306 0.4388268626 -0.3470822483 0.4386985051 -0.3475095182 -0.1215870685 0.1275686113
330298020.0 -0.1263704669 0.1154233466 0.4340419403 -0.3521474545 0.434366122 -0.3525785487 -0.1205929413 0.1288098256
335297990.0 -0.1253404429 0.1168016176 0.4305881265 -0.3573250993 0.4306628663 -0.3571775189 -0.1187594681 0.1298763156
340297960.0 -0.124655987 0.1180737625 0.4259706956 -0.362223748 0.4264538903 -0.3618887971 -0.1178444715 0.1318889
345297930.0 -0.1237421366 0.1194024557 0.4218885475 -0.3660697769 0.4218328228 -0.3660945582 -0.116224262 0.1331430834
350297900.0 -0.1222948833 0.1208387959 0.4181298124 -0.3710520644 0.4181669795 -0.3709555911 -0.1151530908 0.1347671009
355297870.0 -0.1215264058 0.1219673342 0.4134862786 -0.3756137121 0.4135999986 -0.3757766685 -0.113675313 0.1363399555
360297840.0 -0.1202058339 0.1233607155 0.4097616982 -0.3803421538 0.4097363778 -0.3800804633 -0.1121411314 0.1377756414
365297810.0 -0.1189867464 0.1246194784 0.4055820269 -0.3848451606 0.4054271969 -0.3847340998 -0.1107469873 0.1395389621
370297780.0 -0.1177907585 0.1257226326 0.4007487931 -0.3890495463 0.4012443862 -0.3891911222 -0.1092229152 0.1406208396
375297750.0 -0.1170510285 0.1272990705 0.3972054188 -0.3937988704 0.396816293 -0.3940146625 -0.1074372813 0.1423691325
380297720.0 -0.115332696 0.1283608346 0.3924486596 -0.3978901788 0.3923495249 -0.3979075376 -0.1058161854 0.1437736948
385297690.0 -0.1142313197 0.1297793457 0.3878147299 -0.4020085087 0.3881212803 -0.402015695 -0.104506114 0.1451870593
390297660.0 -0.1132792606 0.1311930643 0.3838022049 -0.4067492723 0.3836307597 -0.4068306493 -0.1031209084 0.1463003718
395297630.0 -0.1119077261 0.13214994 0.3795861586 -0.4103240729 0.3791093781 -0.4108215581 -0.1013970052 0.1479334721
400297600.0 -0.1107031898 0.1336436654 0.374415598 -0.4149373167 0.3751124689 -0.4151219308 -0.1004572743 0.1488387131
405297570.0 -0.1092584407 0.1348376857 0.3701510187 -0.4190288738 0.3703759293 -0.4192944124 -0.0985180073 0.1505094165
410297540.0 -0.1078054578 0.1357943435 0.3648910402 -0.4230671387 0.3651589394 -0.4229221017 -0.0969626639 0.1517772599
415297510.0 -0.1068381922 0.1372585441 0.3606608753 -0.4269439586 0.3608284381 -0.4270405008 -0.0954000516 0.1532548772
420297480.0 -0.1055610787 0.1380905346 0.3559109878 -0.4314569799 0.3560532547 -0.4309933768 -0.0933924015 0.1541608014
425297450.0 -0.1036670087 0.1390605596 0.3511845101 -0.4347591155 0.3514728904 -0.4348278479 -0.0916215149 0.1560302114
430297420.0 -0.1027976858 0.1404266814 0.34666349 -0.4387934193 0.3466600057 -0.4386546071 -0.090452122 0.1567671058
435297390.0 -0.1013041053 0.1414022205 0.3418816715 -0.4419636944 0.3414541592 -0.442449524 -0.0882590951 0.1583806232
440297360.0 -0.0997920625 0.1423012845 0.3364046694 -0.445716718 0.3361755411 -0.4459690113 -0.0869072027 0.1587929976
445297330.0 -0.0984279674 0.1434749029 0.3313376863 -0.4499059777 0.331753509 -0.4497673514 -0.0850206647 0.1601616201
450297300.0 -0.0968054688 0.144641677 0.3268483121 -0.4532803561 0.326933907 -0.4535783857 -0.0836978463 0.1617261887
455297270.0 -0.0958044753 0.1457537675 0.3221304036 -0.4571162016 0.3222979899 -0.4565220124 -0.0812125303 0.1626440751
460297240.0 -0.0944216146 0.1467490607 0.3168929145 -0.4601366267 0.3165762795 -0.4605129055 -0.0796876789 0.1640954909
465297210.0 -0.092687204 0.1477412141 0.3117057263 -0.4636945408 0.312034489 -0.4637079476 -0.0782519172 0.1649578537
470297180.0 -0.0914228423 0.1489001213 0.3069715066 -0.4669433215 0.307267996 -0.4672142423 -0.0767261014 0.1658343522
475297150.0 -0.0903495511 0.1496193743 0.3017273726 -0.4702669832 0.30180524 -0.4696663208 -0.0744246559 0.1669582154
480297120.0 -0.0881206263 0.1503389024 0.2961965511 -0.4730241781 0.2968289538 -0.4732271074 -0.0728644797 0.168319616
485297090.0 -0.0868740087 0.1516329834 0.2916443499 -0.4764751216 0.2914889573 -0.4767761879 -0.0713387832 0.1691291552
490297060.0 -0.085469143 0.1525623685 0.2863957264 -0.4799775183 0.2862213977 -0.4797119705 -0.0691818831 0.1699861216
495297030.0 -0.0841258977 0.1536050228 0.2804976866 -0.4828808156 0.280535789 -0.4829659633 -0.0673429288 0.1704970987
500297000.0 -0.0825347732 0.1541902234 0.2753272995 -0.4858326266 0.2758417302 -0.4859372997 -0.0656012879 0.1718125756
505296970.0 -0.0812984246 0.1551508972 0.270108851 -0.4885429827 0.2698341637 -0.4886822058 -0.0642760612 0.1729207001
510296940.0 -0.079562311 0.1563571786 0.2649818966 -0.4918700046 0.2649394904 -0.4916144866 -0.0619445175 0.1739169536
515296910.0 -0.078478058 0.157272033 0.2595922864 -0.4940474674 0.2594618775 -0.4944332932 -0.0602058882 0.1746376004
520296880.0 -0.0766354456 0.1579829467 0.2537293366 -0.4974446085 0.254250583 -0.497312504 -0.0582139146 0.1754474287
525296850.0 -0.0748141056 0.1586078386 0.2485104448 -0.4998350512 0.2487908712 -0.5004494666 -0.0562783782 0.1763544203
530296820.0 -0.0733715411 0.1597046746 0.2434162203 -0.5023251149 0.2432576081 -0.5021235839 -0.0545684717 0.1764331332
535296790.0 -0.0719451675 0.1604106021 0.237322031 -0.5047777618 0.2380660035 -0.5048604275 -0.0526511346 0.1773121978
540296760.0 -0.0705176455 0.1609599367 0.2321965368 -0.5077597518 0.2319534744 -0.5076064566 -0.0511409873 0.1784998996
545296730.0 -0.068971298 0.1623492938 0.2263060913 -0.5101815482 0.2268529259 -0.5104365732 -0.0491516398 0.1791817482
550296700.0 -0.0675109394 0.1629992834 0.2211858115 -0.5124552204 0.2215776724 -0.5129343941 -0.0470812893 0.1802108158
555296670.0 -0.0655739248 0.1635225403 0.2155649689 -0.5147832182 0.2158143872 -0.5148752904 -0.0452880481 0.1807135315
560296640.0 -0.0642808804 0.1645673861 0.2098996472 -0.5171836738 0.2102018907 -0.5170373093 -0.043199143 0.1812180428
565296610.0 -0.0629825929 0.1650480745 0.2044050018 -0.518982003 0.2042456468 -0.5195153562 -0.0412095006 0.1818871511
570296580.0 -0.0607218195 0.1658586177 0.1985411112 -0.5214244453 0.1991406244 -0.521540701 -0.039228008 0.1831869007
575296550.0 -0.0593322108 0.1669842756 0.1930249607 -0.5232359177 0.1935677692 -0.5232577139 -0.0370736776 0.1830805449
580296520.0 -0.0578128966 0.1673805173 0.1876733848 -0.5256415512 0.187331812 -0.525695929 -0.0352179779 0.1836812875
585296490.0 -0.0561250548 0.1677260676 0.1820480388 -0.5275074821 0.181408877 -0.5273959089 -0.0334348229 0.1837620339
590296460.0 -0.0547831662 0.1685055221 0.1757539846 -0.5296842286 0.1757389758 -0.5298995198 -0.0312591831 0.1850672527
595296430.0 -0.0529677558 0.1695896039 0.1706260509 -0.5317760539 0.169988434 -0.5315660258 -0.0293938227 0.1851103655
600296400.0 -0.0512631521 0.1698347259 0.164328691 -0.5330834008 0.1651752072 -0.533453525 -0.0274989096 0.1860318399
605296370.0 -0.04940112 0.170902929 0.1588421278 -0.5349994417 0.1589519424 -0.5346634197 -0.0252049137 0.1863819761
610296340.0 -0.0479499761 0.1715556514 0.152944481 -0.5364688192 0.1532612156 -0.5368264603 -0.0234215878 0.186883537
615296310.0 -0.0461497945 0.1721142024 0.1471257283 -0.5378012703 0.1469038852 -0.5382189976 -0.0212257666 0.1872710095
620296280.0 -0.0446320588 0.1722772087 0.1412258513 -0.5392289798 0.1414337389 -0.5394400328 -0.0194501273 0.1872070883
625296250.0 -0.0427918029 0.173064773 0.1351365849 -0.5414080619 0.1350078697 -0.5415136428 -0.0171637015 0.1879104495
630296220.0 -0.0409095209 0.1735960224 0.1292701429 -0.5423516424 0.130108197 -0.5424771368 -0.015190163 0.1882018847
635296190.0 -0.0396493167 0.1744391904 0.1238776688 -0.5440842983 0.1236220734 -0.5435000415 -0.0131715555 0.1885474731
640296160.0 -0.0378286925 0.1745313214 0.1179677123 -0.5449420046 0.1178209548 -0.5451265357 -0.0107396961 0.1887389816
645296130.0 -0.0361549378 0.1755019771 0.1117372934 -0.5467959319 0.1121873851 -0.5459782074 -0.0097294609 0.1887533051
650296100.0 -0.0347001711 0.1759727699 0.1062804531 -0.5472745517 0.1062413988 -0.5472284022 -0.0074240672 0.1889948209
655296070.0 -0.0327870673 0.1760266766 0.0996540183 -0.548109701 0.1001193243 -0.5485744681 -0.0049189273 0.1898328501
660296040.0 -0.0314676491 0.1768297475 0.0943044386 -0.5491483702 0.0941234013 -0.549175948 -0.0030303466 0.189355024
665296010.0 -0.0292787768 0.1768896048 0.0886620224 -0.5500006618 0.0890566444 -0.5506176511 -0.0011668135 0.1900357718
670295980.0 -0.0272040046 0.1776041651 0.0823993918 -0.5510755506 0.0823898513 -0.5512607421 0.0008294351 0.1899534226
675295950.0 -0.025785496 0.1780755886 0.0764534454 -0.5523658252 0.0767094652 -0.5523829606 0.003105832 0.1903153768
680295920.0 -0.0238906557 0.1786991239 0.0702481051 -0.5531616613 0.0703649898 -0.5531860284 0.0053637576 0.1901860447
685295890.0 -0.0223806142 0.1788090087 0.0647034606 -0.5533865544 0.0642465936 -0.5537310197 0.0070559391 0.1904477012
690295860.0 -0.0204380946 0.1794921447 0.058556256 -0.5542376894 0.0585976663 -0.5541760834 0.0093502798 0.1905000038
695295830.0 -0.0183475687 0.1794577607 0.0515668552 -0.5549653419 0.0521921611 -0.5549610977 0.0112917501 0.1904499104
700295800.0 -0.0168050215 0.1800838851 0.0460462522 -0.5551201755 0.0465069977 -0.5552735492 0.0131951464 0.1900607562
705295770.0 -0.0150895346 0.1804685002 0.040497885 -0.555742891 0.0406876464 -0.5558161183 0.0153167132 0.1904823202
710295740.0 -0.0135329149 0.1807854192 0.0345848506 -0.5562008357 0.0341350691 -0.556289023 0.0168256451 0.1908582841
715295710.0 -0.0115598815 0.1807211693 0.0283898178 -0.5560977135 0.0286777523 -0.5563019217 0.0194199163 0.1901686324
720295680.0 -0.0099174486 0.1809512459 0.0219477432 -0.5565582797 0.0225773216 -0.5569844233 0.0219364641 0.1903027678
725295650.0 -0.0079436845 0.1813168354 0.0161228023 -0.5564213897 0.0162867241 -0.55658375 0.0238143711 0.1904503039
730295620.0 -0.0065442756 0.1815469591 0.0103002708 -0.5567503585 0.0102615348 -0.5571237132 0.0261932913 0.1897632914
735295590.0 -0.0043804361 0.1818209085 0.0045640565 -0.5571145896 0.0047033115 -0.5572582029 0.0279987049 0.1900891905
740295560.0 -0.0026938213 0.1820228518 -0.001330717 -0.5564664114 -0.0015992651 -0.5565221334 0.0302161522 0.1897807571
745295530.0 -0.0008900549 0.1821976146 -0.007715056 -0.5569480225 -0.0074133799 -0.5571875411 0.0318709856 0.1896959346
750295500.0 0.0008974038 0.1823173613 -0.0132176279 -0.5566050344 -0.0136015023 -0.5569901485 0.0341878384 0.1890708777
755295470.0 0.0032832244 0.1825540037 -0.0195992431 -0.5563972431 -0.0193647314 -0.5567953373 0.0358599542 0.1892661776
760295440.0 0.0044547885 0.1825744277 -0.0256560862 -0.5560856425 -0.0256796048 -0.5562579003 0.037729184 0.1889066891
765295410.0 0.0061942776 0.182848565 -0.0310193723 -0.5555932647 -0.0313588424 -0.5560141492 0.0404436334 0.1888351068
770295380.0 0.008168464 0.1828301374 -0.0376306341 -0.5552313593 -0.0375290122 -0.5557204099 0.0426003078 0.1884054996
775295350.0 0.0100827071 0.1831920838 -0.043716075 -0.5548396051 -0.0433951745 -0.5550015672 0.0440486487 0.1873201213
780295320.0 0.0119643452 0.183019829 -0.0493276225 -0.5543609399 -0.0491162589 -0.5546346509 0.0466095055 0.1878509658
785295290.0 0.0135805439 0.18348025 -0.0553898808 -0.553724805 -0.0554455532 -0.55382752 0.0480151455 0.1871758299
790295260.0 0.0152230239 0.1830306612 -0.0612976945 -0.5532893388 -0.0610882587 -0.5535115281 0.0506423051 0.1869341487
795295230.0 0.0172265746 0.1832268807 -0.0669340507 -0.552280095 -0.0670570295 -0.55272812 0.0526585779 0.1869465256
800295200.0 0.0189556793 0.1832193279 -0.0737349513 -0.551715502 -0.0738112771 -0.5523255415 0.0546214491 0.1861875575
805295170.0 0.0206172555 0.1830923607 -0.0791128727 -0.550591628 -0.0794914836 -0.5507636779 0.0562874699 0.1856588512
810295140.0 0.0228206002 0.1832512115 -0.085036185 -0.5499125908 -0.0853204653 -0.5507240512 0.0586901374 0.1853329625
815295110.0 0.0242809063 0.1829090519 -0.0913527878 -0.5487921029 -0.0910035423 -0.5489366705 0.0605679445 0.1844503695
820295080.0 0.0260592144 0.1824981188 -0.0967207584 -0.5480581196 -0.0967792327 -0.548231163 0.0622219847 0.1839523563
825295050.0 0.0281710886 0.1825494612 -0.1029911376 -0.5464443794 -0.1028522992 -0.546578 0.0649040446 0.183950864
830295020.0 0.0297201206 0.1829126688 -0.1087606919 -0.5456339676 -0.1090358806 -0.5456471013 0.0664324666 0.1831793205
