!Created with skrf (http://scikit-rf.org).
# Hz S RI R 50.0 
!freq ReS11 ImS11 ReS21 ImS21 ReS12 ImS12 ReS22 ImS22
300000.0 -0.0961200629 -0.0955836959 0.6246396612 0.0881239818 0.6212457328 0.0895879165 -0.0964047677 -0.0996020835
5299970.0 -0.1014884801 0.0115695517 0.6302142785 0.0112591584 0.6309307105 0.0112024099 -0.101843975 0.0112241552
10299940.0 -0.0972156289 0.0286872765 0.6346537619 0.0160135691 0.6345025933 0.0166379619 -0.0964963786 0.0286847991
15299910.0 -0.0894033914 0.0426007227 0.6407243412 0.0210759072 0.6410287773 0.0212506837 -0.089906753 0.0422057483
20299880.0 -0.0806122207 0.0534810127 0.6488918633 0.0243148794 0.6490633574 0.0248676129 -0.0813569451 0.0530391572
25299850.0 -0.0701891642 0.0624752779 0.6581189474 0.0255055652 0.658404995 0.0254955361 -0.0719297442 0.062037288
30299820.0 -0.0607813106 0.0688240557 0.6681657768 0.0246352746 0.6680771881 0.0245699554 -0.0621238672 0.0686125093
35299790.0 -0.0506717232 0.0734344917 0.6768947073 0.0222065461 0.6773999234 0.0219101011 -0.0526442727 0.0738363047
40299760.0 -0.0411762245 0.0761451824 0.6865196224 0.01769021 0.6873213463 0.0175086946 -0.0427635188 0.077199816
45299730.0 -0.0319012503 0.0781904253 0.6957336793 0.012536009 0.6963619026 0.0121385886 -0.0334172649 0.0790364606
50299700.0 -0.0230087684 0.0789437499 0.7039669969 0.005262411 0.703657268 0.0047815364 -0.0246524682 0.0803272
55299670.0 -0.0153092978 0.0791294755 0.7117743799 -0.0024487222 0.7107893118 -0.0026498036 -0.0171479556 0.0803751356
60299640.0 -0.0078854502 0.0786988792 0.718203909 -0.0110015117 0.7180506996 -0.0111698346 -0.0097943877 0.079579904
65299610.0 -0.0015505204 0.0772381176 0.724380699 -0.0194119567 0.7242987913 -0.0199023411 -0.0027591332 0.0784460167
70299580.0 0.0052091353 0.0753040162 0.7296046574 -0.028779909 0.7293316264 -0.0288894603 0.0029944367 0.077249329
75299550.0 0.0105688153 0.0730605185 0.7335800104 -0.0395617207 0.7336208321 -0.0388647981 0.0083570648 0.0754727755
80299520.0 0.0154651586 0.0713192814 0.7377943526 -0.0486590951 0.7379205928 -0.0486519819 0.0135034833 0.0736191449
85299490.0 0.0199180582 0.069222203 0.7411880689 -0.058864849 0.7409421299 -0.0584207532 0.0178331604 0.0706488385
90299460.0 0.0237858003 0.0666027714 0.7433124652 -0.0687994226 0.7435894249 -0.0684359668 0.0222341265 0.0693040483
95299430.0 0.0278817536 0.064291644 0.7461899733 -0.0788016756 0.7469300664 -0.0789799181 0.0258707077 0.0665573535
100299400.0 0.0310237592 0.061605376 0.748054457 -0.0881481026 0.7479313409 -0.0890566139 0.028967134 0.0643786042
105299370.0 0.0342771367 0.0589706462 0.7492248736 -0.0987865068 0.7496349937 -0.0986495122 0.0324081183 0.0617875908
110299340.0 0.0372818379 0.0564185829 0.7501765041 -0.1083196458 0.7505814261 -0.1083923191 0.0347796015 0.059170217
115299310.0 0.0394171911 0.0542519568 0.7517075235 -0.1186979192 0.751307585 -0.1184214199 0.0373538556 0.0577585067
120299280.0 0.0416033489 0.0522183601 0.7520638063 -0.1295950919 0.7517276155 -0.129110426 0.0396064238 0.0542798438
125299250.0 0.0438030786 0.049757628 0.7521992141 -0.1386888888 0.7522963705 -0.1383725315 0.0418133218 0.0529767965
130299220.0 0.0457063564 0.0470589918 0.7524768814 -0.149442278 0.7520849758 -0.1491534494 0.0436340557 0.0506607863
135299190.0 0.0468905426 0.045291164 0.7520151923 -0.1583532824 0.7520281706 -0.1589185092 0.0453049993 0.0481160039
140299160.0 0.048668679 0.0433152026 0.7523375426 -0.1684575965 0.7512657826 -0.1681946713 0.0460836456 0.0455762805
145299130.0 0.0493842044 0.0411190274 0.7501011889 -0.1783440636 0.7506697144 -0.1781005691 0.0478757464 0.0436986409
150299100.0 0.0506854843 0.0391915546 0.749191084 -0.1881122255 0.7492586658 -0.187986126 0.049230716 0.041953705
155299070.0 0.0524850756 0.0371254045 0.7479006496 -0.1975980646 0.7486987414 -0.1977030686 0.0504670311 0.0395799399
160299040.0 0.053422636 0.0354767486 0.7468133187 -0.2068979698 0.7464474822 -0.2077444103 0.0507807056 0.0380001083
165299010.0 0.0542791671 0.0335279521 0.7458837159 -0.2163448717 0.7452858059 -0.2169880285 0.052311403 0.0357298183
170298980.0 0.0549956635 0.0319255732 0.7432173395 -0.2259057447 0.7431222767 -0.2259062689 0.0521810128 0.0338278124
175298950.0 0.0557885155 0.0303294073 0.742015329 -0.2350350193 0.7417175188 -0.2353713321 0.0530519216 0.0325327555
180298920.0 0.0563249281 0.0289177467 0.7396319375 -0.2448094385 0.7391971185 -0.2448328655 0.0538746688 0.0307967027
185298890.0 0.0567028759 0.0273018781 0.7379422816 -0.2536954888 0.7372993742 -0.2533970016 0.055031517 0.028856109
190298860.0 0.0577003292 0.0256111825 0.7343179917 -0.2627313348 0.7351345024 -0.2623341871 0.0548630641 0.0271275569
195298830.0 0.0577446192 0.024193938 0.732730088 -0.2719656926 0.7328043806 -0.2716838019 0.0554805823 0.0259039109
200298800.0 0.0584425056 0.0224869936 0.7300560272 -0.2814014206 0.7297893124 -0.2809159209 0.0561543093 0.0238102064
205298770.0 0.0581233074 0.0207683383 0.7265272133 -0.2895560586 0.7270718409 -0.289099275 0.0565895596 0.0225783328
210298740.0 0.0589554655 0.0199338824 0.7241525141 -0.2983426865 0.7232124243 -0.2983945985 0.0565575289 0.0205712745
215298710.0 0.0594732833 0.0186110685 0.7210139591 -0.3069909356 0.7208130184 -0.3073051811 0.0569229659 0.0197374878
220298680.0 0.0597896838 0.0175834933 0.7176934033 -0.3155598885 0.7176114635 -0.3159005899 0.0571309817 0.0180693614
225298650.0 0.0597484664 0.0161236713 0.7141664146 -0.324247053 0.7146648195 -0.3237341102 0.0573535692 0.0164597913
230298620.0 0.0602876245 0.0151520238 0.7111852212 -0.332184415 0.7114162156 -0.3330593915 0.0573172039 0.0151177481
235298590.0 0.0598473323 0.013930099 0.7081752364 -0.3417410289 0.7078171294 -0.3413181849 0.0577026579 0.0138760317
240298560.0 0.0603278563 0.0129994759 0.7040417252 -0.349480243 0.7041629858 -0.3495902697 0.0576772568 0.0127377245
245298530.0 0.0601063209 0.0115847688 0.7004591429 -0.3578643046 0.700227144 -0.3577975898 0.0577067456 0.01151614
250298500.0 0.0601676576 0.0103005515 0.6972878953 -0.3660559335 0.6968810736 -0.3662389763 0.0578408566 0.0106172525
255298470.0 0.0604490121 0.0095688074 0.6934558153 -0.3739938294 0.6930129445 -0.374203456 0.0576469656 0.0096314907
260298440.0 0.060527985 0.008562783 0.6889287216 -0.381627788 0.688830273 -0.38187251 0.0572068542 0.0076280752
265298410.0 0.0599846656 0.0074431715 0.6846070743 -0.390693624 0.6844774236 -0.3907415504 0.0585233831 0.0066318084
270298380.0 0.0599921661 0.0062744463 0.68097013 -0.3986775551 0.6806093314 -0.3985081524 0.0581452024 0.0057168395
275298350.0 0.060351283 0.0058424144 0.6755532621 -0.4056037857 0.675632485 -0.406558138 0.0577102121 0.0048217331
280298320.0 0.059507828 0.0044658936 0.6718080982 -0.4136234643 0.6725703556 -0.4144591067 0.0584382945 0.0037131093
285298290.0 0.0600622992 0.0035011342 0.6678910785 -0.4219405141 0.6677501412 -0.421314576 0.0581010671 0.0027090516
290298260.0 0.0600284103 0.0027142925 0.663527619 -0.4296549745 0.6631235751 -0.4298769214 0.0580140475 0.0016334658
295298230.0 0.0599244214 0.0013358063 0.6588009306 -0.4380018961 0.6583297799 -0.4375709995 0.0577391263 0.0002562569
300298200.0 0.0601885618 0.0009891587 0.6539145167 -0.4456123965 0.6536732058 -0.4449252245 0.0576072148 -0.0010141215
305298170.0 0.059976507 -0.0006514751 0.6490634981 -0.453114493 0.6491105545 -0.4532993088 0.0576317279 -0.0027438728
310298140.0 0.0602664143 -0.0017571298 0.6444742141 -0.4602239567 0.6444784987 -0.4601176101 0.057982433 -0.0036743272
315298110.0 0.0596807529 -0.0030172641 0.6394637744 -0.4689913187 0.6392833609 -0.4684284345 0.0576983238 -0.0045196007
320298080.0 0.0597116774 -0.0036979293 0.6333928334 -0.4755595804 0.6343548975 -0.476175138 0.0570559781 -0.0059289746
325298050.0 0.0588242802 -0.0051580905 0.6287968986 -0.4825266928 0.6287571982 -0.4829838879 0.056839375 -0.0069314502
330298020.0 0.0573753622 -0.0057977934 0.6228838544 -0.4909475722 0.6231912215 -0.491008495 0.0562614439 -0.0081115803
335297990.0 0.0574708979 -0.0065047417 0.6174327386 -0.4974751275 0.6173731916 -0.4977737248 0.0555599618 -0.0087911903
340297960.0 0.0568027826 -0.0076092019 0.6109175473 -0.505448581 0.6108697388 -0.5043846968 0.0552599265 -0.0090773112
345297930.0 0.0563232159 -0.0083006595 0.6056862956 -0.5121260191 0.605482973 -0.5115568153 0.0551953867 -0.0105108717
350297900.0 0.0557519991 -0.0091029504 0.6006235449 -0.5180891516 0.6004492677 -0.5187018676 0.0547048853 -0.0115531433
355297870.0 0.055643668 -0.0097470776 0.5939440587 -0.5244539172 0.5943212349 -0.5239690224 0.0542434463 -0.0120549362
360297840.0 0.0550400609 -0.0103372199 0.5882214453 -0.5313255428 0.5883113297 -0.5316888788 0.0535159235 -0.0122237778
365297810.0 0.0545563312 -0.0108910531 0.582213587 -0.5381919527 0.5820562462 -0.5380088828 0.0527696587 -0.0133873577
370297780.0 0.0547250372 -0.011292644 0.5763536617 -0.5443237252 0.5764933544 -0.5444069597 0.0528513967 -0.014202423
375297750.0 0.0542086248 -0.0123736689 0.5707227299 -0.5509760227 0.5706590736 -0.551231255 0.0527993779 -0.0147160266
380297720.0 0.0535661707 -0.0126564974 0.5649119575 -0.5577223942 0.5644913867 -0.5575784236 0.0522460969 -0.0153599185
385297690.0 0.0531570069 -0.0137224056 0.5582048913 -0.5639864044 0.5584203526 -0.5641928872 0.052216771 -0.0157894793
390297660.0 0.0529515919 -0.0144416339 0.5520436882 -0.5695479089 0.5524631443 -0.5701445613 0.0521103242 -0.0170408947
395297630.0 0.05308953 -0.0148926949 0.5462806554 -0.5753765914 0.5458017613 -0.5757785092 0.0512975705 -0.017307036
400297600.0 0.0521856849 -0.0157421158 0.5394402844 -0.5819631885 0.5397697642 -0.5822117153 0.0513124134 -0.017490954
405297570.0 0.0519064665 -0.0166972307 0.5330356612 -0.5877772255 0.5333187281 -0.5875954615 0.0507251216 -0.0178614653
410297540.0 0.0514906855 -0.0165775152 0.5267936664 -0.5937503638 0.5270145466 -0.5940069011 0.0503654809 -0.0189682293
415297510.0 0.0510472608 -0.0174637181 0.5199705736 -0.5996556788 0.520626986 -0.5999037712 0.0504519416 -0.0192737397
420297480.0 0.0506464416 -0.0185608912 0.5133057208 -0.6057564413 0.5138784164 -0.6055308275 0.0503813459 -0.0198253789
425297450.0 0.0509378554 -0.0189765057 0.5072034283 -0.6106458653 0.5066414186 -0.6109634996 0.0498045361 -0.0208418306
430297420.0 0.0499612183 -0.0193177582 0.5004145711 -0.6167665946 0.5008000126 -0.6164101655 0.0500441484 -0.0210906777
435297390.0 0.0498429356 -0.0202683327 0.4931574125 -0.6231552572 0.4934029538 -0.6223541251 0.0485198785 -0.0216579855
440297360.0 0.0496359508 -0.0208719819 0.4860094667 -0.6276231626 0.4864784769 -0.627513492 0.0485343538 -0.0219413276
445297330.0 0.0491895202 -0.0217207722 0.4799669987 -0.6325696179 0.4795884038 -0.6330294568 0.0483422824 -0.022376935
450297300.0 0.0487318186 -0.0220636458 0.4727046555 -0.6376255377 0.473309968 -0.6381708763 0.0479538197 -0.0228101125
455297270.0 0.0478465307 -0.0226217633 0.4662035078 -0.6431279721 0.4661432089 -0.643770068 0.0477281332 -0.0238283338
460297240.0 0.0480611222 -0.0233306289 0.4588762843 -0.6491653117 0.4586840261 -0.6488585457 0.047306642 -0.0244219658
465297210.0 0.0476022661 -0.0242287251 0.451061972 -0.6541049172 0.450661535 -0.654212699 0.0475839854 -0.0239966164
470297180.0 0.0473211192 -0.0250477592 0.4441731684 -0.6584368991 0.4446173095 -0.6590123384 0.0467484582 -0.0252962655
475297150.0 0.0463496946 -0.024921705 0.4368428173 -0.6636258119 0.4370420682 -0.6639329939 0.0468842679 -0.0256757462
480297120.0 0.0468592319 -0.0249713694 0.4295792547 -0.6683608525 0.4297907811 -0.6682414008 0.0458673206 -0.0265390378
485297090.0 0.0463026726 -0.0267335915 0.4223265283 -0.67374016 0.422297392 -0.6731214715 0.0457668225 -0.0267548777
490297060.0 0.0464517857 -0.0265880459 0.4145172751 -0.6778572233 0.4145383961 -0.6781416161 0.0453163715 -0.0273497514
495297030.0 0.045097639 -0.0276511635 0.4076357515 -0.6822182339 0.407801372 -0.6824497366 0.0453277322 -0.0282531889
500297000.0 0.0447640782 -0.0275267091 0.4000513046 -0.6869064749 0.3995112248 -0.6870649516 0.0447761312 -0.0277454218
505296970.0 0.0448531186 -0.0282161046 0.3923335524 -0.6916520608 0.3926528458 -0.6912317051 0.0441586461 -0.0296485638
510296940.0 0.0441575132 -0.0292402238 0.3846006973 -0.6966130205 0.3852695916 -0.6962510329 0.0444715139 -0.0291323295
515296910.0 0.0436574465 -0.0291163345 0.3767473992 -0.6998812011 0.3766288324 -0.6999221575 0.0437699411 -0.0304244881
520296880.0 0.0434845337 -0.0295808575 0.3691534726 -0.7039488777 0.3697159823 -0.7037423164 0.0436948337 -0.0298103302
525296850.0 0.043146428 -0.0301278899 0.3617954512 -0.7078196772 0.3614821761 -0.7077667471 0.0437229895 -0.0307934822
530296820.0 0.0424613143 -0.0309549636 0.3539332512 -0.7119792928 0.3540142479 -0.7116844197 0.0431174729 -0.031873474
535296790.0 0.0429369816 -0.0309183819 0.3461517388 -0.7153023871 0.3464886792 -0.7157825442 0.042973885 -0.031536919
540296760.0 0.0420482257 -0.0312849577 0.3376955378 -0.7198915851 0.3385116159 -0.719264271 0.042115228 -0.0326759118
545296730.0 0.0407102114 -0.0319265111 0.3298524505 -0.7231599258 0.3302529776 -0.7227141305 0.0420545364 -0.0327076695
550296700.0 0.0414792807 -0.0320797155 0.3227715115 -0.7266480336 0.3223642912 -0.7274443518 0.041514287 -0.0331631419
555296670.0 0.040509676 -0.0325332016 0.3140931556 -0.7307250083 0.3142662649 -0.7306242014 0.0410130823 -0.0341787936
560296640.0 0.0408889174 -0.0329655014 0.3060569507 -0.7336855307 0.3067001466 -0.7337320276 0.0407618059 -0.0340504222
565296610.0 0.0395777042 -0.0331897988 0.2985540457 -0.7372159035 0.298620699 -0.7364715934 0.0403310431 -0.0343694742
570296580.0 0.0392135211 -0.0334824355 0.2900053951 -0.739949351 0.2904046796 -0.7405196413 0.039585883 -0.0352029619
575296550.0 0.0391250633 -0.034141219 0.2828333312 -0.7433691376 0.2824104901 -0.7434206626 0.0391207464 -0.0353820336
580296520.0 0.0387281702 -0.0341886979 0.274077202 -0.746407108 0.2741302784 -0.7468921884 0.0382158108 -0.0358506194
585296490.0 0.0382967876 -0.0343453833 0.2664063157 -0.7494562185 0.2654929598 -0.7493252208 0.0391027317 -0.0356832192
590296460.0 0.038423072 -0.0349337387 0.2579520754 -0.7524605497 0.2577129417 -0.7521075848 0.0374485659 -0.0363335193
595296430.0 0.0375825743 -0.0352066154 0.2486748064 -0.7549319145 0.2486688606 -0.7552542208 0.0376560624 -0.0372027035
600296400.0 0.037681911 -0.0354474258 0.2408816188 -0.7576052203 0.2410401591 -0.7577817709 0.0370533225 -0.037554188
605296370.0 0.0363608996 -0.0357154125 0.2331412053 -0.7599311833 0.2324673156 -0.7601719073 0.0363927505 -0.0375968105
610296340.0 0.0365156144 -0.0354652859 0.2242165431 -0.7617045803 0.2247058565 -0.7624276852 0.0355913665 -0.03799919
615296310.0 0.0360476449 -0.0364048013 0.2165221253 -0.7657838533 0.2159019696 -0.7652004552 0.0354706865 -0.0381176775
620296280.0 0.0349557608 -0.0362470214 0.2074096423 -0.7676889589 0.2074023773 -0.7676453032 0.0345054028 -0.0382498204
625296250.0 0.0345938013 -0.0367102261 0.1993851622 -0.7699886855 0.1994382623 -0.7701319407 0.0335961481 -0.0388513576
630296220.0 0.0343959511 -0.0367780012 0.1905895852 -0.7726161361 0.1906821442 -0.771508987 0.0338828229 -0.0391308699
635296190.0 0.0331442717 -0.0367085243 0.1819506512 -0.7740021918 0.1825104175 -0.7736761043 0.0333876838 -0.0395521007
640296160.0 0.0327267909 -0.0369312966 0.1737892969 -0.7764410185 0.1739463744 -0.7764485614 0.0318593144 -0.0398479087
645296130.0 0.0328590334 -0.0367245893 0.1655660271 -0.7777030175 0.1655990654 -0.7778169053 0.0317909308 -0.0408275448
650296100.0 0.0320345173 -0.0372585389 0.157188779 -0.7798782917 0.1568265944 -0.7797827045 0.0321822841 -0.0405491905
655296070.0 0.0313471041 -0.0373152902 0.1478861843 -0.7813089948 0.1482727368 -0.7812468527 0.0305262062 -0.0406057648
660296040.0 0.0309444654 -0.0372910777 0.1394647915 -0.7829289028 0.139673321 -0.7831231416 0.0298561102 -0.0413986919
665296010.0 0.0307045942 -0.0376488341 0.1308957282 -0.7835802828 0.1312965401 -0.7838461686 0.0295231015 -0.0411839623
670295980.0 0.030079762 -0.0376395503 0.1226346945 -0.7858005659 0.122284792 -0.7851895053 0.0285877271 -0.0419376932
675295950.0 0.0293178495 -0.0379353742 0.1143432211 -0.7867984316 0.1142147603 -0.7868205797 0.0280426787 -0.0416021977
680295920.0 0.0289460665 -0.0379943305 0.1055861261 -0.7877906721 0.1058676647 -0.7877594814 0.0277618465 -0.042443014
685295890.0 0.0285334902 -0.0377603857 0.0968014787 -0.78936759 0.0973710782 -0.7887601685 0.0272596693 -0.0418429021
690295860.0 0.0274678338 -0.0380069878 0.0882678316 -0.7898925027 0.0879316794 -0.7905029397 0.0263650291 -0.042255175
695295830.0 0.0273661114 -0.0385043987 0.0798500897 -0.79145061 0.0800362688 -0.7909705139 0.0260237664 -0.0425647455
700295800.0 0.0267029448 -0.0379481286 0.0714910668 -0.7916443967 0.0715228179 -0.7916261224 0.0250742658 -0.042517599
705295770.0 0.0257949915 -0.0380506192 0.0624468186 -0.7930973833 0.0627131153 -0.7924112541 0.0243328912 -0.0424298669
710295740.0 0.0254723028 -0.0384781938 0.0536010855 -0.7938312287 0.0541585196 -0.793612635 0.0241028547 -0.0424024259
715295710.0 0.0248624015 -0.0381315164 0.0456195824 -0.7939162649 0.0455607242 -0.7942834227 0.0231801194 -0.042775565
720295680.0 0.0248260987 -0.0380801309 0.0366874171 -0.7941339418 0.0365039106 -0.7948524156 0.0225676976 -0.0429352698
725295650.0 0.0231381074 -0.0378479718 0.0283709655 -0.7948534109 0.027973244 -0.7944825641 0.0213723676 -0.0427254804
730295620.0 0.0221150184 -0.0383470583 0.0192486807 -0.7946319554 0.0190892535 -0.7938366423 0.0209770744 -0.0422423779
735295590.0 0.0225222806 -0.0385343436 0.0107676539 -0.7953536725 0.0108298127 -0.7948023316 0.0202893307 -0.0431297953
740295560.0 0.0216979558 -0.0383666005 0.0021749707 -0.7949991259 0.0028385376 -0.7951306314 0.0192212453 -0.0427023804
745295530.0 0.0210659316 -0.0383154438 -0.0063418901 -0.7942278421 -0.0054859198 -0.794632161 0.0181310441 -0.0430162795
750295500.0 0.0199833226 -0.0381596376 -0.0145428841 -0.7943933827 -0.0150189816 -0.7944360831 0.017970017 -0.0431723992
755295470.0 0.0192370797 -0.0379680023 -0.0235546742 -0.795014995 -0.0233642057 -0.795007702 0.0177401126 -0.0424985834
760295440.0 0.0187886872 -0.0378746271 -0.0331282711 -0.7937662589 -0.0321721042 -0.7936986463 0.0169091626 -0.0439740878
765295410.0 0.0189190826 -0.0385168123 -0.0413111927 -0.7933309756 -0.0403898542 -0.7936835465 0.0162445897 -0.0432861943
770295380.0 0.0178014577 -0.0379152321 -0.0493074358 -0.7926827358 -0.0491841208 -0.7936330506 0.0151648639 -0.0429760671
775295350.0 0.0171893285 -0.0383014531 -0.057836411 -0.7922707689 -0.0579118774 -0.7917303868 0.0153549806 -0.0427990743
780295320.0 0.0163331288 -0.0378319608 -0.0660211048 -0.7912408127 -0.0659299787 -0.79133339 0.0147951447 -0.0430949035
785295290.0 0.0156755947 -0.0379997529 -0.0752187607 -0.7909993146 -0.0747838433 -0.7912381347 0.0129232755 -0.0423587345
790295260.0 0.0156025612 -0.0380827547 -0.0833279588 -0.7902144976 -0.0835396111 -0.7904410828 0.0126662948 -0.0420238424
795295230.0 0.0146871241 -0.0383475618 -0.0922297052 -0.789788777 -0.0919819081 -0.7893845253 0.0123748929 -0.0432059285
800295200.0 0.0135353834 -0.0377119558 -0.1007740424 -0.7878333561 -0.1006588722 -0.7880515974 0.0113181037 -0.042598761
805295170.0 0.0128667495 -0.0378122885 -0.1091155297 -0.7872696672 -0.1092724105 -0.7872335254 0.0112948392 -0.0423755909
810295140.0 0.0129017631 -0.0374107887 -0.1180719103 -0.7857813983 -0.1177433131 -0.7860313376 0.0105536632 -0.0425154081
815295110.0 0.0119992377 -0.0373900596 -0.1263021954 -0.7842387895 -0.1255637592 -0.7845241616 0.0097295084 -0.0422368915
820295080.0 0.0115489906 -0.0376332869 -0.1338976136 -0.7824908547 -0.1340770103 -0.783192582 0.0082449827 -0.0411725408
825295050.0 0.0105544688 -0.0376408027 -0.1430690314 -0.7813270137 -0.143014061 -0.7813413141 0.0087528387 -0.0410381802
830295020.0 0.0097059075 -0.0374011544 -0.1511085297 -0.7798657155 -0.1514497621 -0.7802406851 0.0076867766 -0.0419583609
