!Created with skrf (http://scikit-rf.org).
# Hz S RI R 50.0 
!freq ReS11 ImS11 ReS21 ImS21 ReS12 ImS12 ReS22 ImS22
300000.0 -0.3219121225 -0.086639189 0.3762570333 0.04616197 0.3730396663 0.0430388174 -0.320125274 -0.0988729889
5299970.0 -0.3264174871 0.0040188871 0.3785298374 0.0025387575 0.3784457932 0.0026804159 -0.3241079673 0.004650597
10299940.0 -0.3241135288 0.0132092669 0.3792241215 0.0021881589 0.379431996 0.0023305568 -0.3214186918 0.0159770994
15299910.0 -0.3215984771 0.0200313172 0.3815495317 0.0021927276 0.3819863551 0.0021877096 -0.3182403394 0.0236151785
20299880.0 -0.3187044196 0.0259663689 0.384631327 0.0018685949 0.3846888765 0.0016452015 -0.3147803451 0.0302797376
25299850.0 -0.3158974753 0.0315432956 0.3882183061 0.0002540179 0.3880192928 0.0001892872 -0.3108616056 0.0360632045
30299820.0 -0.3129054231 0.0358491445 0.3913845712 -0.002164177 0.3915262011 -0.0019758404 -0.3072942554 0.0409775021
35299790.0 -0.3097572378 0.0398882658 0.3945143422 -0.0055727196 0.3949726774 -0.0053077455 -0.303805631 0.0454058513
40299760.0 -0.3072757734 0.0437767737 0.3976743448 -0.008845964 0.3978555676 -0.0089299376 -0.2999060645 0.0486779801
45299730.0 -0.3049054466 0.0468485474 0.4007689996 -0.012831578 0.4009655783 -0.0125184162 -0.2974609418 0.0519486433
50299700.0 -0.3025625552 0.0494022607 0.4036683211 -0.0172936116 0.4035357785 -0.017261806 -0.2942798034 0.0544105786
55299670.0 -0.3003710214 0.0521568251 0.4056325184 -0.0222480769 0.4056651982 -0.0221700439 -0.2915725123 0.0573458332
60299640.0 -0.2982262251 0.0551577516 0.4073158332 -0.0269519915 0.4077164441 -0.0268119702 -0.2890640481 0.05909116
65299610.0 -0.2964825097 0.0576163393 0.4095673817 -0.031706276 0.4091454034 -0.031987047 -0.287280345 0.0616819469
70299580.0 -0.2948619135 0.0599610985 0.4103637243 -0.0368112941 0.410453995 -0.0368106665 -0.2848605023 0.0638565122
75299550.0 -0.2931780743 0.0625381675 0.4111118366 -0.0424070117 0.4112438695 -0.0424440637 -0.2832431608 0.0659116996
80299520.0 -0.2914121615 0.0648014711 0.4122921128 -0.0476422829 0.4123928431 -0.0473784423 -0.2817731057 0.0683064084
85299490.0 -0.290273858 0.0668579338 0.4125976891 -0.0524293936 0.4127847987 -0.0523883013 -0.2798317624 0.0699634627
90299460.0 -0.2888133993 0.0693623746 0.4127250848 -0.0579728634 0.4135390943 -0.0579619063 -0.2786323583 0.0719812408
95299430.0 -0.2873948935 0.0716556376 0.4137466456 -0.0633378234 0.4134635305 -0.0631828177 -0.2768653093 0.0742248912
100299400.0 -0.2863433099 0.0741847118 0.4135472199 -0.0684144294 0.4132283827 -0.0682899779 -0.2754445221 0.0760319029
105299370.0 -0.285084646 0.0764372156 0.4134029541 -0.0737749255 0.4137651721 -0.0738584258 -0.2737606845 0.0782316555
110299340.0 -0.2838633364 0.0788375167 0.4132292266 -0.0785735645 0.4130233256 -0.078482712 -0.2730427761 0.0801364787
115299310.0 -0.2828943799 0.0810734451 0.4130021255 -0.083619591 0.4127783335 -0.083784338 -0.2716325989 0.0826316317
120299280.0 -0.2819201207 0.0829704171 0.4124453195 -0.0889176694 0.4123937826 -0.0887453193 -0.2704375736 0.0845336178
125299250.0 -0.2809696777 0.0856356253 0.4119320835 -0.0941126599 0.4122470044 -0.0937615724 -0.2694376349 0.0861327913
130299220.0 -0.2803048053 0.0881047035 0.4112177851 -0.09888853 0.4110637378 -0.0989442776 -0.2682876377 0.0883946919
135299190.0 -0.2793115004 0.090361175 0.4109203089 -0.1040424146 0.4103713699 -0.1038807353 -0.2671396394 0.0909357774
140299160.0 -0.2784389008 0.0929599104 0.4096906276 -0.1089244148 0.4097110287 -0.1092322572 -0.2664353139 0.093486374
145299130.0 -0.2775095643 0.0957256871 0.4090192583 -0.1144065065 0.4084618696 -0.1136869933 -0.2652098683 0.0957382101
150299100.0 -0.2763306195 0.0983406843 0.4076871511 -0.1186255468 0.4078610182 -0.1188098146 -0.2643548663 0.0986513457
155299070.0 -0.275717347 0.1005521618 0.4069358123 -0.1243022729 0.406628991 -0.1238717587 -0.2630328997 0.1008898432
160299040.0 -0.2743766129 0.1032407134 0.4054043612 -0.128924739 0.4050148922 -0.1286772136 -0.2627322527 0.1031969702
165299010.0 -0.2736243094 0.1060884788 0.4039835392 -0.1338219275 0.4043368937 -0.1336248421 -0.261295223 0.1056481948
170298980.0 -0.2727932485 0.1087499718 0.4029530383 -0.1386980646 0.4030646567 -0.1381681075 -0.2601805196 0.1079844006
175298950.0 -0.2716067172 0.1111037225 0.4017220554 -0.143222977 0.4013321397 -0.1430568378 -0.2596107564 0.1108697635
180298920.0 -0.2709843142 0.1140995119 0.4002439962 -0.1479690951 0.4000164125 -0.1477964295 -0.2583829464 0.1135440984
185298890.0 -0.2695150166 0.1164246518 0.3985398798 -0.1525742876 0.39829307 -0.1522772528 -0.2572655706 0.1158974016
190298860.0 -0.2686994027 0.1192261583 0.3968977687 -0.1571618458 0.3972401848 -0.1572329958 -0.2559350389 0.1183315624
195298830.0 -0.2676607621 0.1219246774 0.3951760637 -0.1620262802 0.3953036094 -0.1616767024 -0.2550113291 0.120829392
200298800.0 -0.2661674773 0.1246436152 0.3931917261 -0.1667311811 0.3938103355 -0.1665423759 -0.2540981535 0.123515939
205298770.0 -0.2654400111 0.1271912406 0.3912661744 -0.1715222495 0.3915770847 -0.1708754662 -0.2532575449 0.1255730173
210298740.0 -0.2642716823 0.1299118542 0.3899376484 -0.1754722115 0.3897800711 -0.1752524366 -0.2518958038 0.1285634188
215298710.0 -0.2634778518 0.1329590199 0.3880186709 -0.1803151861 0.3880019804 -0.1804323245 -0.2510169341 0.1313339249
220298680.0 -0.2620128952 0.1353071699 0.3853253523 -0.1842793554 0.3858436116 -0.184671148 -0.2500362434 0.1336168943
225298650.0 -0.2610163401 0.1380089409 0.3838919607 -0.1893032664 0.3842590877 -0.1891429181 -0.2492507471 0.1359708293
230298620.0 -0.2600547283 0.1407957236 0.3820199178 -0.1932084648 0.3824139711 -0.1933316213 -0.2478054028 0.1385960406
235298590.0 -0.257867427 0.1440975253 0.3797537582 -0.1977600608 0.3799543013 -0.1974128315 -0.2464907384 0.1411840975
240298560.0 -0.2572924947 0.146439244 0.3778961734 -0.2026277978 0.3778250906 -0.2024514316 -0.2452642565 0.1440690141
245298530.0 -0.2557702918 0.1489214349 0.3757320645 -0.2064498361 0.3755458165 -0.2065768 -0.2441912228 0.1461460091
250298500.0 -0.2543341289 0.1518207343 0.3727795237 -0.210831861 0.3727029458 -0.210568319 -0.2428064002 0.1485203249
255298470.0 -0.2528269456 0.154099131 0.3702738424 -0.2148164639 0.3709694115 -0.2147006763 -0.2408485501 0.150811952
260298440.0 -0.2517436771 0.156729022 0.3684846161 -0.2192107758 0.3685309647 -0.2193009731 -0.2395794522 0.1536626487
265298410.0 -0.2499387297 0.1599648738 0.3661317223 -0.2237502405 0.3664728773 -0.2233484171 -0.2383832266 0.1563367512
270298380.0 -0.2486922843 0.1625463912 0.3638141213 -0.2272642536 0.3635450937 -0.2276072917 -0.2369429145 0.1586124677
275298350.0 -0.2467199721 0.1652146831 0.3607153462 -0.2319062479 0.3612778003 -0.2313828022 -0.2350578878 0.1608239218
280298320.0 -0.2448005849 0.1679217975 0.3583686826 -0.2359390221 0.3583377568 -0.2356321054 -0.23347165 0.1634257878
285298290.0 -0.2439112047 0.1706837689 0.3564871455 -0.2397256192 0.3558122153 -0.2398681806 -0.2316569923 0.1660585105
290298260.0 -0.2414716593 0.1734077684 0.3531713341 -0.2437041679 0.3534475634 -0.2435686735 -0.2301934135 0.1687703006
295298230.0 -0.2398878865 0.1755012779 0.350794568 -0.2475315469 0.3508292284 -0.2479235923 -0.2284016485 0.1708546497
300298200.0 -0.2386712278 0.1782042135 0.3482440952 -0.2516160861 0.3480369455 -0.2519167025 -0.2267356763 0.1732015942
305298170.0 -0.2363775248 0.1807365775 0.3447865313 -0.2559378359 0.3450575135 -0.2556576814 -0.2246253395 0.1758396472
310298140.0 -0.2348046741 0.1834436459 0.3423205496 -0.2595710521 0.3426528324 -0.2594605824 -0.2232795654 0.1778884885
315298110.0 -0.233147401 0.1858112218 0.3396038749 -0.2633605609 0.3392883659 -0.2634102545 -0.2208841808 0.1804057724
320298080.0 -0.2310240789 0.1883304807 0.3360887075 -0.2676405834 0.3366707578 -0.2674833097 -0.2193652661 0.1828987512
325298050.0 -0.2294128521 0.190764425 0.3333747073 -0.2714555132 0.3336445219 -0.2711918413 -0.2178730228 0.1852434517
330298020.0 -0.2275270808 0.1933976733 0.330255152 -0.2748837525 0.3302604739 -0.2747914624 -0.2159457912 0.1877598789
335297990.0 -0.2256738948 0.1955256189 0.3271850569 -0.2782186009 0.3272074913 -0.2786192108 -0.2146738786 0.1905932732
340297960.0 -0.2244096259 0.1984113293 0.3238483372 -0.2823076794 0.3235054647 -0.2824337859 -0.212274486 0.1928961866
345297930.0 -0.2220484962 0.2009724258 0.3206709734 -0.2863028506 0.3205934751 -0.2859857218 -0.2106082085 0.1952517392
350297900.0 -0.2202524766 0.2030875361 0.3171150825 -0.2893173819 0.3175579627 -0.2890016251 -0.2089259964 0.1980188161
355297870.0 -0.2177178283 0.2060019929 0.3138214887 -0.292642052 0.3143084937 -0.2928625876 -0.2070088376 0.2002795404
360297840.0 -0.2161014025 0.2083134208 0.3113669983 -0.2963260082 0.3111134272 -0.2960596454 -0.204917525 0.2028001903
365297810.0 -0.2139560292 0.211167403 0.3076976049 -0.3000346347 0.3079438364 -0.2998281578 -0.2027386907 0.2049102551
370297780.0 -0.2117882784 0.2131579149 0.304195856 -0.302889105 0.3047183222 -0.3026507283 -0.2008479761 0.207614533
375297750.0 -0.2093727482 0.2153781572 0.3011001979 -0.3063973326 0.301130717 -0.3064858543 -0.1986200165 0.2095184218
380297720.0 -0.2075106265 0.2177409153 0.2974736847 -0.3094467298 0.2976787883 -0.3091016251 -0.1970094534 0.2116424673
385297690.0 -0.2054912495 0.2200027776 0.293889286 -0.312911301 0.2938932823 -0.3127388817 -0.1946673463 0.2142049448
390297660.0 -0.2032105165 0.2228000421 0.2905629541 -0.3162463279 0.2906344881 -0.315700577 -0.1929843195 0.216574
395297630.0 -0.2009320733 0.2251552639 0.2873778629 -0.3192855263 0.2871056572 -0.3194157571 -0.1899854639 0.2185558804
400297600.0 -0.1985256608 0.2275687582 0.2836493333 -0.3224319784 0.2837788422 -0.3225121872 -0.1881654191 0.2208077678
405297570.0 -0.1968227638 0.2296409599 0.28000261 -0.3252905594 0.2799714303 -0.3252973041 -0.1857839979 0.2229329538
410297540.0 -0.1936518231 0.2317350486 0.2765783414 -0.3284385971 0.2769394776 -0.32880308 -0.1838075768 0.2252076905
415297510.0 -0.1911647888 0.2337684141 0.2728010923 -0.3317910871 0.2728496075 -0.3317186725 -0.1812553276 0.2272680027
420297480.0 -0.1892886218 0.2365261287 0.2688168502 -0.33445803 0.2693519808 -0.334641299 -0.1793956034 0.228895016
425297450.0 -0.186539922 0.2383862584 0.2656013848 -0.3373041738 0.2655453233 -0.3375661345 -0.1772004786 0.2313907587
430297420.0 -0.1843087715 0.2402400819 0.2619272111 -0.3398867181 0.2616677831 -0.3401999833 -0.174651904 0.2329243872
435297390.0 -0.1817236121 0.2425503089 0.2577406229 -0.34305647 0.2576323629 -0.3430612946 -0.1719234254 0.2350833785
440297360.0 -0.1790483125 0.244840145 0.2537111213 -0.345976786 0.2541427334 -0.3459996853 -0.1695347252 0.2367629342
445297330.0 -0.1767975428 0.2464685113 0.2502212071 -0.3485948783 0.2502641852 -0.3485975068 -0.16726838 0.238434941
450297300.0 -0.1740956246 0.2481821621 0.2465270216 -0.3512854906 0.2463180328 -0.3516286796 -0.164660382 0.2404393538
455297270.0 -0.1714826204 0.2502946434 0.2422934757 -0.3538810395 0.2424397327 -0.3541018236 -0.1619355049 0.2423699892
460297240.0 -0.1690968825 0.2524160185 0.2387128596 -0.3564210066 0.2387734607 -0.3566350227 -0.1595606827 0.2446766004
465297210.0 -0.1663202057 0.2544173288 0.2345390638 -0.3591611366 0.2344839191 -0.3592248402 -0.1568269483 0.2458137186
470297180.0 -0.1636093641 0.2561593621 0.2306204952 -0.3615229656 0.2306752004 -0.3620830952 -0.1545839174 0.248331259
475297150.0 -0.1608736876 0.2581358681 0.2263778519 -0.3638293175 0.2267233302 -0.3638229498 -0.1512206022 0.2493625634
480297120.0 -0.1582128416 0.2600640269 0.2226843274 -0.366714045 0.2225667748 -0.366833133 -0.1489746238 0.2514985646
485297090.0 -0.1556141783 0.2619202121 0.2187671314 -0.3687130235 0.2186996905 -0.3686909583 -0.1460173583 0.2530605467
490297060.0 -0.1529044109 0.2637341359 0.2147218872 -0.3715161181 0.2148571904 -0.371047444 -0.1433964391 0.2549027479
495297030.0 -0.15030277 0.2653803093 0.2104334659 -0.3734755541 0.2108803897 -0.3734934668 -0.1411176964 0.2567154612
500297000.0 -0.1472772963 0.2671352742 0.2061217765 -0.3753548942 0.2062987881 -0.3754447521 -0.1382304813 0.2586033222
505296970.0 -0.1444767768 0.2686893552 0.202391032 -0.377593596 0.2020140454 -0.37774486 -0.1356075509 0.2599803967
510296940.0 -0.1417364618 0.2706193054 0.1981359284 -0.3804309834 0.1980561754 -0.3800696974 -0.1326870174 0.2616623193
515296910.0 -0.1386705344 0.2719521024 0.1938380263 -0.3822807782 0.1939990376 -0.3822613173 -0.1300655473 0.2631725729
520296880.0 -0.1361825484 0.2735717259 0.1897669975 -0.3843739009 0.1897989094 -0.3842116995 -0.1273370219 0.264731237
525296850.0 -0.1330915562 0.2751161459 0.1849325813 -0.3863019556 0.1855198752 -0.3861973314 -0.1245556539 0.266405608
530296820.0 -0.130184019 0.2769704589 0.1810812508 -0.3886140431 0.181106618 -0.3881667989 -0.1217715524 0.2683019221
535296790.0 -0.1277135929 0.2781439191 0.1771055956 -0.390246775 0.1775304414 -0.3898142051 -0.1194955578 0.2693244701
540296760.0 -0.1246748836 0.2797444428 0.1725776011 -0.3923187136 0.172767254 -0.3920911075 -0.1163973718 0.2710646775
545296730.0 -0.1213844015 0.281281493 0.167777545 -0.3937580766 0.1684056774 -0.393848019 -0.1138468614 0.2721271222
550296700.0 -0.1182787989 0.2827413117 0.1637461502 -0.3954842643 0.1643403803 -0.3960329682 -0.1108743317 0.2739348274
555296670.0 -0.1158759674 0.2838292206 0.1596746769 -0.3974524648 0.1599461316 -0.3971504754 -0.107733639 0.275385869
560296640.0 -0.1124447325 0.2853984257 0.1553754709 -0.3990210955 0.1554385409 -0.3993618991 -0.1049995372 0.2761064106
565296610.0 -0.1098472981 0.2869675062 0.1507166419 -0.4008107941 0.1510467095 -0.4003496166 -0.1022364198 0.2773519801
570296580.0 -0.1071490261 0.2880990741 0.1466721291 -0.4026967785 0.1465851316 -0.4024372333 -0.0997604931 0.2789704267
575296550.0 -0.1040244234 0.2896158985 0.1424480356 -0.4040893825 0.1421592964 -0.4039626452 -0.0965479106 0.2802329954
580296520.0 -0.1006857961 0.2905827956 0.1381299697 -0.4059804439 0.1379159555 -0.4053626233 -0.0935978991 0.2808525888
585296490.0 -0.098047365 0.2918881651 0.1334710239 -0.4065893676 0.133602646 -0.406857246 -0.090558411 0.2824490314
590296460.0 -0.0946090667 0.2929678499 0.1293032163 -0.4077456237 0.1291593714 -0.4084407502 -0.0879627987 0.2833265244
595296430.0 -0.0915030679 0.2940229179 0.1243077186 -0.4096747994 0.1244821869 -0.4095982998 -0.0849749712 0.2838923328
600296400.0 -0.0889180491 0.2953160193 0.12002391 -0.4110271332 0.120195011 -0.4105010917 -0.0822084324 0.2851675391
605296370.0 -0.0855207698 0.2962156607 0.1155833405 -0.4117976863 0.1157026342 -0.4122327541 -0.0785660331 0.2861556497
610296340.0 -0.0826159271 0.2969887825 0.1110244684 -0.4129812289 0.1112717549 -0.4131437691 -0.0758036912 0.2870963778
615296310.0 -0.0791238229 0.2981596184 0.1063231877 -0.4142850521 0.1063100995 -0.4145248361 -0.0723494173 0.2877513231
620296280.0 -0.0761575358 0.2990709001 0.1016571666 -0.4153461278 0.1022351933 -0.4153876544 -0.0699517087 0.2887967905
625296250.0 -0.0734100023 0.2999288729 0.0978707524 -0.4163967878 0.09753635 -0.4166400788 -0.0660651493 0.2896409309
630296220.0 -0.069439017 0.3008308963 0.0927378017 -0.4175898416 0.0927489656 -0.4170999802 -0.0635631437 0.2908057162
635296190.0 -0.0669109017 0.3017308923 0.0885151165 -0.4183320228 0.0883263849 -0.4185764622 -0.059999072 0.2911440293
640296160.0 -0.0638223336 0.3024613045 0.0839844698 -0.4190389492 0.084290246 -0.4194267094 -0.0571459375 0.2919458615
645296130.0 -0.0606111839 0.3036088787 0.0791154225 -0.4198680416 0.0797020482 -0.4200646739 -0.0538872511 0.2929880619
650296100.0 -0.0574618673 0.3040202922 0.0746540836 -0.4208079335 0.0747401179 -0.4208740126 -0.0507833314 0.2932558069
655296070.0 -0.05397966 0.3050764034 0.0703220238 -0.42162022 0.0703499237 -0.4216568934 -0.047394168 0.2941680945
660296040.0 -0.0510524688 0.3053748599 0.0657601449 -0.4223009571 0.0655477147 -0.4224986371 -0.0443959783 0.2947323924
665296010.0 -0.0473317262 0.3057084921 0.0606461778 -0.4228406876 0.0610425702 -0.4228552287 -0.0414246775 0.2959704637
670295980.0 -0.0449347309 0.3067207635 0.0564586153 -0.423144 0.0567052568 -0.4235490631 -0.0384961549 0.2962406469
675295950.0 -0.0416052281 0.307334297 0.0518389872 -0.4240860086 0.0518567233 -0.4236988953 -0.0352142301 0.2972211991
680295920.0 -0.0381703792 0.3079406937 0.0472996738 -0.4245168597 0.0469159551 -0.4247599587 -0.032346292 0.2978315469
685295890.0 -0.0347356787 0.3088157631 0.0426152825 -0.4249580176 0.0420765939 -0.4252114057 -0.0286669981 0.2978700883
690295860.0 -0.0315127891 0.3091585654 0.0379240455 -0.4249747322 0.0378726575 -0.4257206539 -0.025842709 0.298880598
695295830.0 -0.0288378463 0.3093022099 0.0336805776 -0.4257242818 0.0329990912 -0.4254800816 -0.0224190716 0.2990802063
700295800.0 -0.025239745 0.3098832702 0.0286593171 -0.4257258194 0.0284267571 -0.4262063212 -0.0196756155 0.3002337697
705295770.0 -0.0223076855 0.310706426 0.024029487 -0.4260989076 0.0244106715 -0.4266088864 -0.0166614417 0.3004012433
710295740.0 -0.0185280324 0.3105011182 0.0194854931 -0.4267715739 0.019699356 -0.4270053746 -0.0134263409 0.3005804704
715295710.0 -0.0159682325 0.3112301542 0.0153531696 -0.4265752081 0.0149880098 -0.4267871819 -0.0101640596 0.3005853772
720295680.0 -0.0122611765 0.3117904703 0.0104025685 -0.4273800043 0.0104571823 -0.4269572667 -0.0070830843 0.3015830916
725295650.0 -0.008741346 0.3115854469 0.0055891365 -0.4266519593 0.005826368 -0.4268221902 -0.0044970972 0.3015072847
730295620.0 -0.0056574609 0.3123773234 0.000803778 -0.4264571589 0.0011998259 -0.4269642794 -0.0012780237 0.301512313
735295590.0 -0.0025650237 0.3120992153 -0.003497632 -0.4268438835 -0.0035107035 -0.4270791204 0.0016874121 0.3015626196
740295560.0 0.0008851643 0.3125576685 -0.0079172148 -0.4266005754 -0.0081851692 -0.426545853 0.0055876101 0.3017936403
745295530.0 0.0038242218 0.3125867479 -0.0128673698 -0.4263639241 -0.013003506 -0.4263408258 0.0083035084 0.301401725
750295500.0 0.0071552472 0.3126510006 -0.0174364125 -0.4261306494 -0.0171703678 -0.426522321 0.0114216305 0.3020861858
755295470.0 0.0106182762 0.3125891769 -0.0219525291 -0.4260625775 -0.0220279202 -0.4262541587 0.0148649441 0.3015207967
760295440.0 0.013698522 0.3126792817 -0.0268022146 -0.4258713603 -0.0266400904 -0.4261041058 0.0177570887 0.3014689938
765295410.0 0.0169511903 0.3125911549 -0.0312198615 -0.4252347909 -0.0313825723 -0.4256202023 0.0211033616 0.3017618339
770295380.0 0.0202891562 0.3126904962 -0.0362997256 -0.4253157807 -0.036119299 -0.4248502359 0.0240446212 0.3014901742
775295350.0 0.0233665533 0.3121706233 -0.0408550771 -0.4240297244 -0.039918231 -0.4248438187 0.0268151605 0.3011676466
780295320.0 0.0267949043 0.3121352714 -0.0451694345 -0.4236106181 -0.0447693813 -0.423765691 0.0302946828 0.3008538487
785295290.0 0.0297728002 0.311547737 -0.0500822028 -0.4229889276 -0.0497055464 -0.4234670592 0.0340334939 0.3009326263
790295260.0 0.0337571168 0.3121067838 -0.054164481 -0.4227123108 -0.0536591584 -0.4225361668 0.0370059797 0.3007915754
795295230.0 0.0366755997 0.3113731649 -0.058906561 -0.4219794321 -0.0584410461 -0.4221898633 0.0404257982 0.3002470766
800295200.0 0.0396403452 0.3113434854 -0.0635214045 -0.4213677094 -0.063309219 -0.4214370709 0.0435968254 0.2999740899
805295170.0 0.0430922542 0.3109124077 -0.0678963848 -0.4207610648 -0.0680188933 -0.4207318667 0.0463055303 0.2995891383
810295140.0 0.046127743 0.3103839218 -0.0719938218 -0.4196872874 -0.0725318424 -0.4201382797 0.0499850827 0.299146394
815295110.0 0.0494773498 0.3101562516 -0.0767847834 -0.4188421494 -0.0765736315 -0.4191893835 0.0529038537 0.299036553
820295080.0 0.0525886838 0.3100713111 -0.0815264958 -0.4181350462 -0.0808486446 -0.4180850521 0.0562467019 0.298714648
825295050.0 0.0564070463 0.3091830718 -0.0856922842 -0.4169891652 -0.0859764164 -0.4172173958 0.0595306919 0.2984023391
830295020.0 0.0590993628 0.3093516996 -0.0904136165 -0.4162983832 -0.0903726685 -0.4162409617 0.0630198846 0.2975106549
