!Created with skrf (http://scikit-rf.org).
# Hz S RI R 50.0 
!freq ReS11 ImS11 ReS21 ImS21 ReS12 ImS12 ReS22 ImS22
300000.0 -0.234915149 -0.1316929227 0.4679969288 0.0845152276 0.4688273944 0.0833614218 -0.2380211512 -0.127043575
5299970.0 -0.2418734067 0.0049688769 0.4747103606 0.0061476239 0.4754297977 0.0059874048 -0.2441667299 0.0049196816
10299940.0 -0.2387916603 0.0187005816 0.4772729148 0.0068357308 0.4773145638 0.0069876598 -0.2409650046 0.0172140203
15299910.0 -0.2337450989 0.028889654 0.4807161164 0.0078939649 0.4811242878 0.0082481891 -0.2370533847 0.0265765551
20299880.0 -0.228414148 0.0367877265 0.4854051041 0.0081839043 0.4858309413 0.0081955135 -0.2320738907 0.0340789674
25299850.0 -0.2226431425 0.0434316825 0.4908657625 0.0076326216 0.490901905 0.0072147189 -0.2269722056 0.0402305185
30299820.0 -0.2172532523 0.0485319884 0.4962458672 0.0052137779 0.4961035341 0.0050575412 -0.2218307871 0.0448246166
35299790.0 -0.2113552785 0.0528810012 0.5008367323 0.002134101 0.5014690532 0.0020891648 -0.2169178316 0.0491719123
40299760.0 -0.2063793082 0.0561376539 0.5068307237 -0.0019054764 0.5065981811 -0.0020049713 -0.2121059916 0.0521559458
45299730.0 -0.2011943168 0.0587334454 0.5113407498 -0.0065885104 0.5116789865 -0.0067987158 -0.20700907 0.0546779091
50299700.0 -0.1962405737 0.0605988473 0.5154985119 -0.0123842629 0.5154540355 -0.0124647275 -0.2028527789 0.0572691481
55299670.0 -0.1920042979 0.0624323429 0.5187946811 -0.0179519044 0.5189612555 -0.0180686634 -0.1992341509 0.0586647047
60299640.0 -0.1879113958 0.0640683184 0.5230570694 -0.0245426581 0.5224503682 -0.0247382999 -0.1954524005 0.059927933
65299610.0 -0.1845524297 0.0651931062 0.5257091682 -0.0304962207 0.5256042559 -0.0311578528 -0.1917398717 0.0611181178
70299580.0 -0.1809508809 0.0656883308 0.527506505 -0.0373073342 0.5278069305 -0.0375263415 -0.1891056026 0.0621411144
75299550.0 -0.1781380897 0.0666504285 0.5293741848 -0.0445089465 0.5297892963 -0.044496392 -0.1862459841 0.0628128064
80299520.0 -0.1752697418 0.0678271027 0.5315023714 -0.0511155815 0.5318673467 -0.0516160436 -0.1841480063 0.0635449893
85299490.0 -0.1725764809 0.0682995287 0.5327282862 -0.0579925591 0.5331619279 -0.0581514808 -0.1818734416 0.0640663802
90299460.0 -0.1702324132 0.0690924765 0.5336573981 -0.0651029998 0.5339023762 -0.0651181315 -0.179434548 0.0652072573
95299430.0 -0.1680597666 0.0695651746 0.5345281177 -0.0717716943 0.5350380198 -0.0724511264 -0.1776320308 0.0657969085
100299400.0 -0.1659644839 0.0701128018 0.534752705 -0.0785814973 0.5349134628 -0.0788711594 -0.1759430749 0.0663368288
105299370.0 -0.1639773588 0.0707852109 0.5350610167 -0.0855290107 0.5356151886 -0.085483588 -0.1740956344 0.0667330114
110299340.0 -0.1623660559 0.0712333019 0.5354436152 -0.0921498567 0.5359918169 -0.0920246973 -0.1730971021 0.0675494755
115299310.0 -0.1609633621 0.0724137708 0.5359276327 -0.0989215744 0.5355901708 -0.0992648057 -0.1717800251 0.0685577198
120299280.0 -0.1594378256 0.0732892865 0.5350983659 -0.1061434793 0.5352469473 -0.1064576963 -0.1700636004 0.0685337029
125299250.0 -0.1577689242 0.0738955128 0.5345718803 -0.1125135106 0.5348229041 -0.11284978 -0.1688224355 0.0697019079
130299220.0 -0.1566959413 0.0746303568 0.5342150514 -0.119865159 0.5344463682 -0.1200699298 -0.1676299503 0.0704490765
135299190.0 -0.1552859576 0.0759099432 0.5338663869 -0.1261397554 0.5342936895 -0.1267711579 -0.1668229512 0.0709661659
140299160.0 -0.1544492381 0.076694123 0.5328923934 -0.1328583919 0.5331452506 -0.1325864676 -0.1661403509 0.0719410288
145299130.0 -0.1535645723 0.0779273798 0.5319656861 -0.1391630124 0.5320800674 -0.1395673274 -0.1646931347 0.0729256678
150299100.0 -0.1520190616 0.0788895677 0.5305086377 -0.146163519 0.5310291261 -0.1460441762 -0.1640920206 0.0740153609
155299070.0 -0.1508395511 0.080095034 0.5291790945 -0.1524215825 0.5296143911 -0.152701116 -0.1632856441 0.0747076362
160299040.0 -0.1499649787 0.0812499683 0.528060519 -0.1588728951 0.5282271699 -0.1591319418 -0.1626178496 0.0759565641
165299010.0 -0.1487211636 0.0824214268 0.5269877589 -0.1651833907 0.5269717754 -0.1652503484 -0.1617976191 0.0768891931
170298980.0 -0.1479322544 0.0834164254 0.5249357842 -0.1717169836 0.5252116455 -0.1718324336 -0.1612034074 0.0775154274
175298950.0 -0.1468110761 0.0847059703 0.5237623267 -0.1778864368 0.524273455 -0.1783658931 -0.1603967431 0.0795154073
180298920.0 -0.1460074745 0.0859702966 0.522035895 -0.184324145 0.5220598551 -0.1846300531 -0.1595037143 0.0801724493
185298890.0 -0.1451560196 0.0874569355 0.5203262315 -0.191074604 0.5201713235 -0.1905909496 -0.1585905643 0.0812188507
190298860.0 -0.1437831145 0.0888653991 0.5174382786 -0.1967413673 0.5183575541 -0.1965905866 -0.1578890355 0.0825832262
195298830.0 -0.1431744767 0.0901181846 0.5162123678 -0.2024424386 0.5164394291 -0.2028608257 -0.1571293902 0.0836854549
200298800.0 -0.1418705234 0.0910798976 0.5139435612 -0.2091046888 0.5143139783 -0.2093746544 -0.1563374007 0.0847019766
205298770.0 -0.1413938569 0.0925205608 0.5116116452 -0.2148165159 0.5123688151 -0.2149547215 -0.1556596082 0.0859778133
210298740.0 -0.1404369531 0.0940841367 0.5096316791 -0.2206565905 0.509234669 -0.2208234629 -0.1551591702 0.0871286673
215298710.0 -0.1390498187 0.0956603031 0.5068365447 -0.2265689607 0.5074777569 -0.2268261153 -0.1542039844 0.0883737602
220298680.0 -0.1382109305 0.0970865821 0.5047751443 -0.2328133623 0.5048146665 -0.2327381859 -0.1533939674 0.0896263471
225298650.0 -0.1373392613 0.0984628092 0.5020662483 -0.2385942515 0.5024301066 -0.2380778895 -0.1527717722 0.0907126594
230298620.0 -0.1361891489 0.0998934772 0.4996842136 -0.2442662205 0.4999197798 -0.2443145908 -0.1523038377 0.0920938757
235298590.0 -0.1354301582 0.1014571871 0.4970893385 -0.2504670985 0.4975801282 -0.250257654 -0.1511809761 0.0933665135
240298560.0 -0.1341338735 0.1028717882 0.4943641202 -0.2554283613 0.494838375 -0.2556337077 -0.1505575142 0.0945545586
245298530.0 -0.1331768752 0.1040193913 0.4915198307 -0.2615485669 0.4918040502 -0.2614260396 -0.1497314467 0.0960412857
250298500.0 -0.1324249654 0.1053810665 0.4891682115 -0.2669515839 0.4891762983 -0.2666721642 -0.1489927578 0.0975144237
255298470.0 -0.1313341873 0.1074344907 0.4865566073 -0.272535614 0.486713233 -0.2728529639 -0.1479511713 0.0988854753
260298440.0 -0.1301081167 0.1085595564 0.4832783921 -0.2774988004 0.483385696 -0.2780585954 -0.147547701 0.0999248086
265298410.0 -0.1292784742 0.1101423664 0.4801482913 -0.2838801732 0.4800484274 -0.2839647297 -0.1458311579 0.1011124869
270298380.0 -0.1283824856 0.1112772241 0.4772264294 -0.2887949232 0.4771398057 -0.2889299126 -0.1453047892 0.1026602936
275298350.0 -0.126874883 0.1131071929 0.4734102885 -0.2940621545 0.4737792444 -0.2944094534 -0.1446799917 0.1041907643
280298320.0 -0.1261164736 0.1144313272 0.4707233597 -0.2994167798 0.4708675858 -0.2999032877 -0.1431910162 0.1056278847
285298290.0 -0.1248384609 0.1158583868 0.4674374565 -0.3052749157 0.4677850915 -0.3047703227 -0.1428295708 0.1068252829
290298260.0 -0.123659484 0.1173715493 0.4647495113 -0.3103995536 0.4644647354 -0.3102442586 -0.1416607954 0.1079509619
295298230.0 -0.1225141986 0.1185011636 0.4608928946 -0.3159625584 0.4616300427 -0.3159810332 -0.1409132055 0.1094981871
300298200.0 -0.1213174063 0.1203441998 0.4578952108 -0.3209741229 0.4575367846 -0.3208611347 -0.1396174429 0.1107530648
305298170.0 -0.1200282786 0.1212102757 0.4541004043 -0.3262692409 0.4547245106 -0.3264234533 -0.1388297727 0.1115713188
310298140.0 -0.1185340637 0.1226329857 0.4506608619 -0.3315226864 0.4507051001 -0.3309452215 -0.1373628234 0.1130253934
315298110.0 -0.117667973 0.1236407994 0.4472070613 -0.3369858956 0.4472980266 -0.3367020095 -0.1365961138 0.1144795455
320298080.0 -0.1165007695 0.1251150032 0.4429458921 -0.3415538207 0.4432675826 -0.3419042897 -0.1358101142 0.115225369
325298050.0 -0.1155682889 0.125926824 0.4390360294 -0.3466244831 0.4398664668 -0.3467395942 -0.1346379277 0.1167324286
330298020.0 -0.1149868945 0.1277259909 0.4355233517 -0.3516943403 0.4358707024 -0.3518095741 -0.1341460596 0.117928887
335297990.0 -0.1135201947 0.1291032591 0.4315202383 -0.3561011546 0.4316282894 -0.3566717216 -0.1332888347 0.1192058093
340297960.0 -0.1123770933 0.1302589964 0.4269440138 -0.3615248463 0.4273384024 -0.3616484424 -0.1321541165 0.1209993675
345297930.0 -0.1111385214 0.131683705 0.4232838011 -0.3661414107 0.4231060715 -0.3663941256 -0.1308071593 0.1219868333
350297900.0 -0.1100643626 0.1331580879 0.4194538741 -0.3704613537 0.4197229719 -0.3706728279 -0.1300531286 0.1231298514
355297870.0 -0.1089359761 0.1343878774 0.4154200966 -0.3747489141 0.4151885312 -0.3750449275 -0.1288723245 0.1246793953
360297840.0 -0.1074532239 0.1359839874 0.4110320548 -0.3800745357 0.4112418511 -0.3799517697 -0.1276700784 0.1264420903
365297810.0 -0.1062325711 0.1370989289 0.4064195623 -0.3840961139 0.4070863802 -0.3845718914 -0.1270810172 0.1275891543
370297780.0 -0.1047865992 0.1383293311 0.4023118703 -0.388922595 0.4027785439 -0.3885512535 -0.1257590662 0.1285968954
375297750.0 -0.103719973 0.1397426971 0.3981536057 -0.3928875333 0.398649624 -0.3930001013 -0.1247185447 0.1303707072
380297720.0 -0.1019956433 0.1413155651 0.3940871958 -0.3978654135 0.3940837524 -0.3977217942 -0.1232296888 0.1319085525
385297690.0 -0.1008483733 0.1420047901 0.3894168626 -0.401659702 0.3896220067 -0.4022699814 -0.1220925017 0.1329419981
390297660.0 -0.0989021642 0.1432916467 0.3849438401 -0.4055900106 0.3856152028 -0.4060231961 -0.1207222601 0.1340588704
395297630.0 -0.0974017823 0.1445267044 0.3809191424 -0.4098211901 0.3809593911 -0.4098692502 -0.1194940518 0.1353504971
400297600.0 -0.0965621658 0.1457525268 0.3765145026 -0.4144691838 0.3766866042 -0.414054627 -0.1182560381 0.1368573662
405297570.0 -0.0947453198 0.1464944247 0.3716495083 -0.4180433758 0.3717968974 -0.4184075954 -0.1167830125 0.1382779408
410297540.0 -0.0930962711 0.1481175454 0.3672326019 -0.4225938062 0.3672170715 -0.4226826083 -0.115829819 0.1396940809
415297510.0 -0.0918775827 0.1494033451 0.3625538487 -0.4264109365 0.3632586641 -0.4265559444 -0.1140504633 0.1408731789
420297480.0 -0.0901387984 0.1500334136 0.3577152945 -0.4303672158 0.3581609995 -0.4307916612 -0.112696198 0.1422623439
425297450.0 -0.0883022762 0.1512645464 0.3532928386 -0.4342729788 0.3535436036 -0.4341674229 -0.1115831981 0.1428997059
430297420.0 -0.0867041868 0.15238007 0.3488118555 -0.4380358631 0.3488633632 -0.4379856621 -0.1097902886 0.1445381384
435297390.0 -0.0853604953 0.1535491051 0.3433041968 -0.4424549959 0.3435570382 -0.4416967329 -0.1091032889 0.1459851801
440297360.0 -0.0835204693 0.1543148423 0.3384977167 -0.4459373681 0.3384320557 -0.4458150784 -0.1074050594 0.1471566137
445297330.0 -0.0820941874 0.1550458359 0.3341842872 -0.4489805214 0.3338961934 -0.4496905656 -0.1059531095 0.1483260245
450297300.0 -0.0802448871 0.1564245106 0.3290000989 -0.4526960628 0.3292836471 -0.4530319027 -0.1044354644 0.1495573097
455297270.0 -0.0789663764 0.1573772193 0.3243288049 -0.4564549878 0.3240250603 -0.4566052112 -0.1026480729 0.1506350166
460297240.0 -0.0767653615 0.1583199843 0.3194431259 -0.4606905959 0.318958249 -0.4604549486 -0.1012829304 0.151858228
465297210.0 -0.0747200961 0.1589580402 0.3136813346 -0.4633999579 0.3136280657 -0.4636885018 -0.0997752942 0.1531711147
470297180.0 -0.0733765024 0.1597781641 0.3088088383 -0.4666170394 0.3090179908 -0.4668041456 -0.0982547458 0.1537561935
475297150.0 -0.0716365968 0.1610232072 0.3034388023 -0.4705056864 0.3042711763 -0.4702597591 -0.0969323054 0.15500739
480297120.0 -0.0692557751 0.1624749998 0.2986013986 -0.4735417469 0.2988418382 -0.4731083531 -0.0955056998 0.1561619914
485297090.0 -0.0675459857 0.1625240287 0.2932421032 -0.4767957931 0.2935298351 -0.4762390958 -0.0943424647 0.1573965965
490297060.0 -0.0650952413 0.1639108347 0.2875485749 -0.4799729203 0.2882686035 -0.4801485447 -0.0924314133 0.1581862159
495297030.0 -0.0641122545 0.1643285514 0.2833799796 -0.4830025006 0.2831958671 -0.4827670385 -0.0904856086 0.1593229211
500297000.0 -0.0620961754 0.1655699525 0.2779296763 -0.4856235242 0.2775123289 -0.4860307299 -0.0889404143 0.1603941886
505296970.0 -0.0597227998 0.1662493706 0.2723889829 -0.4893635685 0.2725448788 -0.4887982214 -0.0874206305 0.1611148981
510296940.0 -0.0582654073 0.1668099457 0.2674652591 -0.4921177126 0.2673213375 -0.4921639019 -0.0855815797 0.1624047459
515296910.0 -0.0561315163 0.1679248038 0.2611123817 -0.4951120526 0.2612330783 -0.4948463612 -0.0843938767 0.1628201552
520296880.0 -0.0542046058 0.1685693622 0.2561935221 -0.49730837 0.25616193 -0.497299451 -0.0823844437 0.1643172152
525296850.0 -0.0523897369 0.1690287474 0.2506478967 -0.4999403235 0.2506393515 -0.5000843649 -0.0808639325 0.1650150285
530296820.0 -0.0507170501 0.1700530834 0.2451998684 -0.5030693704 0.2454617713 -0.5027411798 -0.0794776827 0.1656504628
535296790.0 -0.0478586429 0.1706502363 0.2399784801 -0.5059692145 0.2397838364 -0.5056007923 -0.077404909 0.1671479518
540296760.0 -0.0462331797 0.1715627932 0.2340004819 -0.5080493139 0.2339055718 -0.5079363938 -0.0759016246 0.167634488
545296730.0 -0.0449787082 0.172321765 0.2290120696 -0.5104597641 0.2286060395 -0.5101348505 -0.0741505096 0.1684900109
550296700.0 -0.0422276915 0.1726335731 0.2231327424 -0.5131617827 0.2229726138 -0.5133784269 -0.072306311 0.1693314862
555296670.0 -0.0401887471 0.1733077219 0.2170350667 -0.5154300187 0.2176373668 -0.5155126013 -0.0707963934 0.1698349244
560296640.0 -0.0378628419 0.1737455154 0.2116364461 -0.517567625 0.2119858171 -0.5177523672 -0.068931245 0.1710590731
565296610.0 -0.0367222314 0.1747659188 0.2064679141 -0.5200763517 0.2064753981 -0.5194524586 -0.0673839088 0.1720404446
570296580.0 -0.0344422113 0.1754323211 0.2003401965 -0.5219810837 0.2006962271 -0.5222439994 -0.0659977117 0.1724791452
575296550.0 -0.0321730874 0.1758599581 0.1948143511 -0.5243981274 0.1950963112 -0.5246506883 -0.0639852725 0.1736135159
580296520.0 -0.030198593 0.176621217 0.1894159049 -0.5266376889 0.1892974933 -0.5262895127 -0.0626806011 0.1739613069
585296490.0 -0.028139359 0.1770507181 0.1837011156 -0.5283266253 0.1835299127 -0.5285391624 -0.0603359165 0.1753839728
590296460.0 -0.0253393336 0.1773122219 0.1778125456 -0.5300281234 0.1776347586 -0.5305084603 -0.0591798799 0.1759639812
595296430.0 -0.023801584 0.1780894778 0.1714662418 -0.532133245 0.1717882196 -0.5321537663 -0.0568403361 0.176243427
600296400.0 -0.0214443913 0.1784664196 0.165628196 -0.5337399229 0.1658535143 -0.5334246893 -0.0551741301 0.176305822
605296370.0 -0.0198980656 0.1789456359 0.1606309062 -0.5352998524 0.1600844333 -0.535812727 -0.0533758553 0.177863227
610296340.0 -0.017357097 0.1798285812 0.1545561474 -0.5365836423 0.1548199868 -0.5371238007 -0.0520000217 0.1785708268
615296310.0 -0.0152352603 0.1798082251 0.1488035946 -0.5389052965 0.1485001052 -0.5389218156 -0.0500647614 0.1790858319
620296280.0 -0.0135362188 0.1807456828 0.1428305022 -0.540320745 0.1425487326 -0.5404388069 -0.0486397012 0.1797949454
625296250.0 -0.0116359432 0.1808501016 0.1369211341 -0.5420818418 0.1368088503 -0.5421860472 -0.0468879966 0.1800608949
630296220.0 -0.0093889836 0.1815018296 0.1309664085 -0.543632631 0.1308076482 -0.5433475003 -0.0448823643 0.1808253309
635296190.0 -0.0075124224 0.1816838784 0.125378015 -0.5446087632 0.1254082503 -0.5445170494 -0.043257757 0.1812798422
640296160.0 -0.0056240511 0.1822570488 0.1193605063 -0.5462186817 0.1191320555 -0.5462835005 -0.0415866129 0.1818870624
645296130.0 -0.0029918891 0.1826120762 0.1133382657 -0.5469117293 0.1134779195 -0.5467529103 -0.0399172517 0.1820557159
650296100.0 -0.0009354892 0.1826762258 0.107489708 -0.548617513 0.1070577843 -0.5486038722 -0.037369912 0.1828779828
655296070.0 0.0009777506 0.1827451562 0.1013357472 -0.5494963154 0.101164361 -0.5492951979 -0.0361578585 0.1834513232
660296040.0 0.0028902618 0.1833549658 0.0956391553 -0.5504702641 0.0956105423 -0.5508761833 -0.0343127571 0.1834547486
665296010.0 0.0050893296 0.1834631045 0.089399938 -0.5508531333 0.0891697003 -0.5512367662 -0.0323510277 0.1843061691
670295980.0 0.007400405 0.1837289147 0.0834106037 -0.5523637199 0.0833555738 -0.5516345118 -0.0310000126 0.1844978505
675295950.0 0.00906757 0.1839209416 0.0776122418 -0.5531251809 0.0776661883 -0.5529685778 -0.0288919537 0.1851072603
680295920.0 0.0110515309 0.184318792 0.0718743722 -0.5533212296 0.0717863883 -0.5535961974 -0.0269669408 0.1851700237
685295890.0 0.0132868501 0.1845375397 0.0653147783 -0.5546886378 0.0656196956 -0.5547562385 -0.0250405505 0.1862225211
690295860.0 0.014917533 0.184270166 0.0597214639 -0.5552287133 0.0592019632 -0.5551544058 -0.023427651 0.1863240407
695295830.0 0.0172845904 0.1844349416 0.0541316077 -0.556013595 0.053856012 -0.5557475557 -0.0216508098 0.1874463117
700295800.0 0.0196492749 0.1846388754 0.0479706623 -0.5561622248 0.0480134288 -0.5562618635 -0.0198696715 0.187216247
705295770.0 0.0209926727 0.1846929494 0.0423695612 -0.5569216668 0.0418744137 -0.556664113 -0.0181332115 0.1880754466
710295740.0 0.0232083973 0.1846475141 0.0356279338 -0.557255449 0.0357559761 -0.5574281908 -0.016254825 0.1878192321
715295710.0 0.0251488594 0.1850581889 0.0298863641 -0.5578206134 0.0297203815 -0.5578244751 -0.0144686147 0.1882740431
720295680.0 0.0277576156 0.1846921604 0.0237226332 -0.5575815355 0.0233003538 -0.5579569554 -0.0125364175 0.1884033217
725295650.0 0.0287986224 0.1850545543 0.0184531277 -0.5578839644 0.0178996029 -0.5581802568 -0.0110895573 0.1891255249
730295620.0 0.0304423904 0.1846945055 0.0120791937 -0.5575522544 0.0117409253 -0.5579832345 -0.0093626394 0.1897047691
735295590.0 0.0329822765 0.1845963436 0.0062105828 -0.5583606191 0.0059603159 -0.5583460684 -0.0069055376 0.1893016531
740295560.0 0.0347758755 0.1843235349 -0.0001533592 -0.5583442258 0.0001684923 -0.5587977226 -0.005772567 0.1898300783
745295530.0 0.036884705 0.1841793719 -0.0055434865 -0.557391852 -0.0055900177 -0.5579314108 -0.0039160121 0.1897676759
750295500.0 0.0387414977 0.1843925774 -0.011292746 -0.5580473437 -0.0121198956 -0.5582589617 -0.002051376 0.190085418
755295470.0 0.0407361011 0.1841070832 -0.0180008682 -0.5579167921 -0.0177407553 -0.5583443105 5.68489e-05 0.1906903704
760295440.0 0.0424689301 0.1843191805 -0.0244584881 -0.557273011 -0.0241503182 -0.5573149655 0.0020319402 0.1899523706
765295410.0 0.0446891367 0.1835534698 -0.0299116017 -0.5571614757 -0.029978336 -0.5573479186 0.003822435 0.1906202585
770295380.0 0.0464629563 0.1836650257 -0.0357719388 -0.5566230856 -0.0357348751 -0.5574931862 0.0053225912 0.1907107863
775295350.0 0.0483322303 0.1831787778 -0.042049927 -0.556527819 -0.0417143665 -0.5560145733 0.0073725608 0.1912744809
780295320.0 0.0504129129 0.1829583221 -0.0476137211 -0.5558615608 -0.0478764515 -0.5560245907 0.0095219934 0.1909679899
785295290.0 0.0522722322 0.1825543377 -0.0539809163 -0.5552533914 -0.0538505484 -0.555637689 0.01072886 0.1912678378
790295260.0 0.0540653399 0.1818464566 -0.0597204882 -0.5548601733 -0.059482013 -0.555315137 0.0127590504 0.1916094809
795295230.0 0.055982981 0.1816468705 -0.0654272401 -0.5541647466 -0.0659064842 -0.5541411039 0.0147686249 0.1907497083
800295200.0 0.057637485 0.181303811 -0.0711241276 -0.5528599019 -0.07154 -0.5535873945 0.0162075012 0.1912058331
805295170.0 0.0593609412 0.1810519478 -0.0773288668 -0.5525333503 -0.0771779375 -0.552962007 0.0186150366 0.1913087549
810295140.0 0.0617830471 0.1804495939 -0.0833409796 -0.5511522175 -0.0836586778 -0.5517418841 0.0204458684 0.1913614661
815295110.0 0.0636626349 0.1800382347 -0.0893413485 -0.5506228672 -0.0889465689 -0.5507885409 0.0218910707 0.1912625037
820295080.0 0.0654024218 0.1796346204 -0.094359176 -0.5496854717 -0.0948859299 -0.5501916615 0.0231387641 0.1916703737
825295050.0 0.0670374358 0.1787724068 -0.1009341609 -0.548908154 -0.100876986 -0.5487431525 0.0261804508 0.1914136049
830295020.0 0.0687399489 0.1780566148 -0.1064874273 -0.547513898 -0.1062711644 -0.5477075824 0.0277747765 0.1907121519
