!Created with skrf (http://scikit-rf.org).
# Hz S RI R 50.0 
!freq ReS11 ImS11 ReS21 ImS21 ReS12 ImS12 ReS22 ImS22
300000.0 -0.2392844173 -0.0841941726 0.4707463434 0.0579637516 0.4690424367 0.0552964959 -0.2382121548 -0.0960766135
5299970.0 -0.2450047389 0.0068337182 0.4748180818 0.0052419339 0.4749518955 0.0047501278 -0.2408636744 0.0075086227
10299940.0 -0.2416991257 0.0182832268 0.476939023 0.0060922628 0.4767445304 0.0060789279 -0.2376121395 0.0206353432
15299910.0 -0.2373834898 0.0270191695 0.4805159767 0.0073661329 0.4807330436 0.0070775964 -0.233036067 0.0301919632
20299880.0 -0.2328657259 0.0340057111 0.4849299464 0.0081365497 0.4850865927 0.007879927 -0.2274374328 0.0380740943
25299850.0 -0.2279117591 0.0404328395 0.4902898989 0.0070728436 0.4901228587 0.0068336992 -0.2217756086 0.0446654686
30299820.0 -0.2223573513 0.0449933182 0.4955101168 0.0049769208 0.495271007 0.0049816391 -0.2160142934 0.0501821124
35299790.0 -0.2175116913 0.0490530475 0.5008660933 0.0016668347 0.5008921681 0.0014545774 -0.2108122609 0.0544407335
40299760.0 -0.212615526 0.0526142681 0.5059134074 -0.0022944928 0.5061636015 -0.0026323087 -0.2050701935 0.057535818
45299730.0 -0.2080485799 0.0548139245 0.5103850715 -0.0069442361 0.5109013435 -0.007137523 -0.2002497727 0.0604177537
50299700.0 -0.2039449279 0.0567293374 0.5151326664 -0.0126570151 0.5148677296 -0.0125257335 -0.1954709617 0.062587819
55299670.0 -0.1999720449 0.0584931074 0.5189082043 -0.0192442486 0.5183834023 -0.0188522526 -0.1910922648 0.0645348096
60299640.0 -0.1960040953 0.0599149078 0.5216982574 -0.0250638494 0.5220452497 -0.0246840935 -0.1874789672 0.0656095941
65299610.0 -0.1931614283 0.0610866741 0.5247389071 -0.0313846355 0.5249561389 -0.0314702441 -0.1838986595 0.0668462521
70299580.0 -0.190092176 0.0620466348 0.5273693413 -0.0380964131 0.5273550541 -0.03788108 -0.1808153632 0.0679100249
75299550.0 -0.1871814888 0.0629451434 0.5288407832 -0.0444693719 0.5291149628 -0.0446662719 -0.1779137947 0.068588143
80299520.0 -0.1846619915 0.0638600906 0.5309423422 -0.0518157327 0.5310402616 -0.0515728802 -0.1753646167 0.0689727797
85299490.0 -0.1824755681 0.0641565391 0.5319243583 -0.0581668986 0.5323420317 -0.0581688402 -0.1730394531 0.0695685532
90299460.0 -0.180302583 0.064754261 0.5327364974 -0.0654583355 0.5332224708 -0.0653008471 -0.1705033002 0.07038746
95299430.0 -0.1782104929 0.065362109 0.5338693182 -0.0722840994 0.5337789849 -0.0725599046 -0.1684054643 0.0711442837
100299400.0 -0.1767251044 0.0662636478 0.5339664995 -0.0790459107 0.5341888226 -0.0791602509 -0.1661408766 0.0716336682
105299370.0 -0.1748523731 0.0668894331 0.5343225797 -0.0860448326 0.5350672526 -0.0860650274 -0.1640473054 0.0725123944
110299340.0 -0.1735064869 0.0675954387 0.5350578633 -0.0928595085 0.5348704997 -0.0928646263 -0.1628664631 0.0727645786
115299310.0 -0.1718340667 0.068220005 0.5349958151 -0.0992016102 0.5348639126 -0.0997175973 -0.1612513892 0.0737550604
120299280.0 -0.1707383666 0.0683341994 0.5343201814 -0.1064457659 0.5343590724 -0.1064312263 -0.1597906785 0.0744192317
125299250.0 -0.1696198173 0.0692036431 0.5341526365 -0.1132985635 0.5340469227 -0.113086777 -0.1585953085 0.074823735
130299220.0 -0.1687272995 0.0703677784 0.5333953332 -0.120031937 0.5331444598 -0.1197791675 -0.1571268595 0.0756723632
135299190.0 -0.1675815563 0.0713940349 0.5330239372 -0.1266602944 0.5324211484 -0.12617984 -0.155811953 0.0766271898
140299160.0 -0.1664767055 0.071965335 0.5320672395 -0.1332352671 0.5320697218 -0.1330837715 -0.1544792116 0.0779673535
145299130.0 -0.1654434567 0.0727151043 0.5312744763 -0.1397090916 0.530848812 -0.1398355301 -0.1534323063 0.0789479793
150299100.0 -0.1643954574 0.0738061816 0.5296370984 -0.1459329946 0.5300797542 -0.1458646578 -0.1521546635 0.0799078697
155299070.0 -0.1637633423 0.074794959 0.5290321091 -0.1531656993 0.5286535138 -0.1526926897 -0.1513380618 0.0812773665
160299040.0 -0.1627545663 0.0759375492 0.5275415219 -0.1590708032 0.5267951165 -0.159422568 -0.1507356638 0.0821193622
165299010.0 -0.1620314707 0.0767431297 0.5259782028 -0.1658836262 0.5261390439 -0.1658858388 -0.1491346001 0.0836172698
170298980.0 -0.1614950126 0.0776280728 0.5240029467 -0.171755685 0.5243301155 -0.1720830807 -0.1482272925 0.084930267
175298950.0 -0.1608293418 0.0787221191 0.5229962658 -0.1781044316 0.5225701057 -0.1785022127 -0.147396827 0.086006091
180298920.0 -0.1600614188 0.0800540117 0.5211821537 -0.1846867335 0.5209286218 -0.1841640663 -0.1464878509 0.0874378474
185298890.0 -0.158906161 0.0809211855 0.5193553016 -0.1907169054 0.5188465238 -0.1904530129 -0.1452955109 0.0883841574
190298860.0 -0.1583543242 0.0823292707 0.5172713959 -0.1969326471 0.5175483968 -0.1968019123 -0.1447233705 0.089741719
195298830.0 -0.1578552857 0.0832024105 0.5151555515 -0.2031576776 0.515871895 -0.2027637206 -0.1439177866 0.0914982866
200298800.0 -0.1568046758 0.0844946601 0.5128190866 -0.2092252324 0.5132930588 -0.2094766914 -0.1432462193 0.0928199933
205298770.0 -0.1561873778 0.0859123616 0.5103914247 -0.2158164692 0.5107980311 -0.2151150209 -0.1418310791 0.0933923874
210298740.0 -0.1554143964 0.0866829006 0.5084094299 -0.2209285991 0.5085014702 -0.220864557 -0.1409342076 0.0952087779
215298710.0 -0.1550885971 0.0885151575 0.5065685904 -0.2274278496 0.5064372537 -0.2273283842 -0.1402806627 0.0966098126
220298680.0 -0.1540180683 0.0890500098 0.5036583306 -0.232493043 0.5035226598 -0.2327462315 -0.1395768765 0.0977117103
225298650.0 -0.1534894315 0.0906609705 0.5013933568 -0.2389316837 0.5015092908 -0.2389246778 -0.1388366684 0.0988379212
230298620.0 -0.1527329444 0.0921412811 0.4988890533 -0.2444139825 0.4994601918 -0.2446891842 -0.1379325509 0.1001933437
235298590.0 -0.1517942866 0.0938857346 0.4962691717 -0.250699108 0.4962357802 -0.2503778732 -0.1371844255 0.1016272342
240298560.0 -0.1509758188 0.0950565856 0.4937130105 -0.2561998522 0.493614777 -0.2561056624 -0.1361908495 0.1033062262
245298530.0 -0.1503593097 0.096077625 0.4912826682 -0.2618784352 0.4909724479 -0.2617711622 -0.1347009313 0.104133061
250298500.0 -0.1492407223 0.0975930515 0.4873111372 -0.267336686 0.4872575355 -0.267288499 -0.1341555223 0.1056221378
255298470.0 -0.1487609037 0.0988840753 0.4844414463 -0.2728960694 0.4846169102 -0.2726925503 -0.132513267 0.1071025437
260298440.0 -0.1479053337 0.0998161709 0.481909212 -0.2786353041 0.4823737495 -0.278535103 -0.1315341278 0.1082913609
265298410.0 -0.1466919021 0.1017779074 0.4787025672 -0.2844225782 0.4792953027 -0.2839896869 -0.1307871741 0.1097666148
270298380.0 -0.1459161563 0.1028282804 0.4760589004 -0.2892493823 0.4762518882 -0.2894190081 -0.1296955407 0.1111211715
275298350.0 -0.1450726173 0.1044942222 0.472821734 -0.2952725881 0.472680956 -0.2949851539 -0.1282777513 0.1120890304
280298320.0 -0.14386449 0.1057381638 0.4699633644 -0.3001015819 0.4698958103 -0.300342049 -0.1270716894 0.113791241
285298290.0 -0.1428953578 0.1072162793 0.4663632722 -0.3052970073 0.4666669593 -0.3054629136 -0.1258461686 0.1148261608
290298260.0 -0.1419218525 0.1085012374 0.4628666257 -0.3106022564 0.4628782134 -0.3108578069 -0.1242512376 0.116736912
295298230.0 -0.1409068621 0.1094870944 0.4597915503 -0.315863303 0.4595689697 -0.3162205343 -0.1229120547 0.117565532
300298200.0 -0.1402759137 0.1110068646 0.4564833057 -0.3208612852 0.4563986725 -0.3213440541 -0.1219685034 0.1191019251
305298170.0 -0.1389671568 0.1121794781 0.4522079466 -0.326827772 0.4524542432 -0.3266766987 -0.1199056942 0.1200740481
310298140.0 -0.1379138808 0.1137377347 0.4488796352 -0.3315060821 0.4491567791 -0.331440282 -0.1189707005 0.1214168972
315298110.0 -0.1368953894 0.1144559196 0.4453483696 -0.3367948306 0.4456175126 -0.3368443697 -0.117549627 0.1227829668
320298080.0 -0.1358526098 0.1158051972 0.441424697 -0.3422074174 0.4419002261 -0.3423240102 -0.1163171625 0.1239121993
325298050.0 -0.1351693822 0.1171628291 0.4381589605 -0.3473899675 0.4375630508 -0.3472322034 -0.1155538569 0.1253267278
330298020.0 -0.134095293 0.1181805822 0.4335857949 -0.3519548794 0.4340383461 -0.3520912879 -0.1142281925 0.1264081168
335297990.0 -0.1330495268 0.1194830552 0.4301022642 -0.3569207519 0.4296756954 -0.356818512 -0.113256172 0.1283815334
340297960.0 -0.1325781362 0.1210431666 0.4258306427 -0.3614035896 0.4254508438 -0.361936916 -0.1116699753 0.129459134
345297930.0 -0.1314494835 0.1227354696 0.4214178992 -0.3663932249 0.4216572345 -0.366746718 -0.1105350848 0.1307508783
350297900.0 -0.130408744 0.1236217636 0.416911487 -0.3708777552 0.4169803853 -0.3709392302 -0.1095449639 0.1326872524
355297870.0 -0.1290717771 0.1255798614 0.4130900083 -0.3758329576 0.4137702428 -0.3753071161 -0.1081677969 0.1340095508
360297840.0 -0.1282599946 0.1268464594 0.4095749786 -0.3798218395 0.4095065391 -0.3798969936 -0.1064174705 0.1354929424
365297810.0 -0.1271428086 0.12813814 0.4053392035 -0.3843480231 0.4049789705 -0.3846879027 -0.1049494762 0.1368230362
370297780.0 -0.1258372555 0.1290568317 0.4005195096 -0.3889328149 0.4007259253 -0.3884756234 -0.1038301979 0.1378791946
375297750.0 -0.1241991162 0.1306575908 0.3962351985 -0.393411225 0.3969518252 -0.3937458827 -0.1022034659 0.1392795179
380297720.0 -0.1237020941 0.1321039092 0.3924255298 -0.397596142 0.3923232434 -0.397009961 -0.1014617887 0.1404376742
385297690.0 -0.1223526658 0.1332860389 0.3875151298 -0.4021122962 0.3873069299 -0.401904819 -0.0993458866 0.1418287042
390297660.0 -0.1211719739 0.134899412 0.3834311949 -0.4065138198 0.3835569084 -0.4056865368 -0.0985439189 0.143226735
395297630.0 -0.1196774299 0.136560203 0.378984387 -0.4103932528 0.37883873 -0.4104631626 -0.0964072883 0.1445776874
400297600.0 -0.1186555889 0.1376393965 0.3741491497 -0.4147577764 0.3743186342 -0.4146738925 -0.0949887226 0.145646298
405297570.0 -0.117461776 0.1386149276 0.36954765 -0.4184620122 0.3700959759 -0.4183572276 -0.093857359 0.1469237532
410297540.0 -0.1159915169 0.1401240865 0.3654097737 -0.422540403 0.365188252 -0.4226724896 -0.0922094303 0.1485146855
415297510.0 -0.1142600913 0.1411872425 0.3603104521 -0.4267908776 0.3605673412 -0.4270823539 -0.0905213208 0.1493158039
420297480.0 -0.113506002 0.1427978569 0.3554545504 -0.4306543145 0.3557150184 -0.4308093539 -0.0895027713 0.1502696524
425297450.0 -0.1119382063 0.1434108285 0.3511605654 -0.4344741917 0.3512923655 -0.4346302979 -0.0875413621 0.151604045
430297420.0 -0.1107313879 0.1447691998 0.3462887838 -0.4376216399 0.3467259769 -0.437878032 -0.0863471836 0.152637178
435297390.0 -0.1092522275 0.1460423962 0.3411943473 -0.4417217347 0.3412227343 -0.4418006689 -0.0838333408 0.1535185838
440297360.0 -0.107658087 0.1474004886 0.3359630023 -0.445520797 0.3367607451 -0.4456680388 -0.082752128 0.1543608321
445297330.0 -0.1065157927 0.1482709681 0.3318360794 -0.4490626086 0.3315013392 -0.4490145852 -0.0807452465 0.1548989097
450297300.0 -0.1050343886 0.1494782234 0.3269388511 -0.45275696 0.3268022477 -0.4530089372 -0.0789298781 0.1561541597
455297270.0 -0.1036929253 0.1506809657 0.3216346796 -0.4564303759 0.3219369235 -0.4562106091 -0.077375545 0.1572463912
460297240.0 -0.1024617027 0.151858094 0.316441195 -0.4596236099 0.3168940548 -0.4596633682 -0.0758600621 0.1582102327
465297210.0 -0.1005511923 0.1530911302 0.3115798989 -0.4632885733 0.3116313225 -0.4637761114 -0.0736538736 0.1589259953
470297180.0 -0.0993304333 0.1539953138 0.3063423065 -0.4669099473 0.3067243518 -0.4667299109 -0.0720003554 0.160257693
475297150.0 -0.0978371759 0.1547182252 0.3015479815 -0.4695466708 0.3011655667 -0.4695538735 -0.0699751784 0.1605686529
480297120.0 -0.09632482 0.1562271026 0.2962976545 -0.4732097948 0.2960829747 -0.4735645728 -0.0677740605 0.1616732604
485297090.0 -0.0950019898 0.1573794905 0.291502806 -0.4765539767 0.2913405383 -0.4761005777 -0.0662310152 0.1629121534
490297060.0 -0.0937708235 0.1582899484 0.2866169108 -0.4794221854 0.2859690872 -0.4791499058 -0.0642670418 0.1638078895
495297030.0 -0.0918145443 0.1591477049 0.2804815536 -0.4827093268 0.2808558786 -0.4823856705 -0.062843497 0.1646053576
500297000.0 -0.090701849 0.1602961874 0.2751279254 -0.4849807645 0.2752949884 -0.4849557965 -0.0608764537 0.1660534422
505296970.0 -0.0887256565 0.1613739736 0.2703822073 -0.4883433314 0.2699361219 -0.4885305403 -0.0588660006 0.166579079
510296940.0 -0.0872444241 0.1623418322 0.2646275028 -0.4913950718 0.2646952296 -0.4912958544 -0.0569545089 0.1677868575
515296910.0 -0.0856248359 0.1632689024 0.2593727628 -0.4940461432 0.259172718 -0.4939041818 -0.0550964027 0.168048892
520296880.0 -0.0842228666 0.1639161771 0.2544334605 -0.4971203711 0.253872982 -0.4970118942 -0.0531431674 0.1689491869
525296850.0 -0.0824201088 0.164496745 0.2478357798 -0.499722812 0.2488236436 -0.4993332451 -0.0515906222 0.1700946941
530296820.0 -0.081034111 0.1662225675 0.2431697219 -0.5026471793 0.2432056175 -0.5023183034 -0.0495506081 0.170937682
535296790.0 -0.0796373294 0.1671967117 0.2376086571 -0.5049337861 0.237700356 -0.5044581458 -0.0480558264 0.171081982
540296760.0 -0.0780123221 0.167786889 0.2322121593 -0.5075487571 0.231960181 -0.5077964621 -0.0460983518 0.1725370693
545296730.0 -0.0765737572 0.1688516232 0.2262853219 -0.5097334798 0.2266053458 -0.5099838638 -0.0443588128 0.1729639889
550296700.0 -0.0742534749 0.1700750817 0.2209421131 -0.5122969815 0.2212488654 -0.5124847172 -0.0423458102 0.1736491629
555296670.0 -0.0727841468 0.170400024 0.2155184579 -0.5148029865 0.2156238445 -0.5144565279 -0.0406225325 0.1743465312
560296640.0 -0.0711667864 0.1716224788 0.2101887631 -0.5173872086 0.2102389255 -0.5170174216 -0.0387833528 0.1747958899
565296610.0 -0.069731025 0.1723087743 0.2042070717 -0.5195311204 0.2043265425 -0.5191238196 -0.0370613775 0.1752924813
570296580.0 -0.0683222468 0.1731567673 0.1990014562 -0.521470936 0.1981322974 -0.5211914886 -0.0349953409 0.1763207619
575296550.0 -0.0664486518 0.1741513512 0.1931094818 -0.523792071 0.192814613 -0.5233821054 -0.0329828239 0.1764158931
580296520.0 -0.0646437655 0.1748744205 0.1872142285 -0.5258963947 0.1872714768 -0.5256121593 -0.0310006599 0.176907798
585296490.0 -0.063003903 0.175188365 0.1817897386 -0.527434149 0.1817675995 -0.5277455317 -0.0293424723 0.1777327142
590296460.0 -0.0608930942 0.1762394941 0.176052081 -0.5287485001 0.1755772926 -0.5295960603 -0.0277089555 0.1779306087
595296430.0 -0.0593852246 0.1769595635 0.1696645491 -0.5311035824 0.1697121655 -0.5311226447 -0.0253098015 0.1779597448
600296400.0 -0.0579196837 0.1774525983 0.1644978825 -0.5330236072 0.1643299678 -0.5326251426 -0.0238790438 0.1785821218
605296370.0 -0.0563611827 0.1781382718 0.1587064079 -0.534342746 0.1587392856 -0.5347769532 -0.0213243763 0.1791488549
610296340.0 -0.05442595 0.1792366871 0.1523960761 -0.536390954 0.152586276 -0.5363203133 -0.019281536 0.1790868675
615296310.0 -0.0522869839 0.1794111781 0.1466375417 -0.5375866256 0.1463375489 -0.537891946 -0.0169050738 0.1795213635
620296280.0 -0.0508133918 0.1799593632 0.1409102552 -0.5394284907 0.1410451628 -0.5390281589 -0.0157639985 0.1796752052
625296250.0 -0.0491477781 0.1805452121 0.1356115649 -0.5412991295 0.1350979445 -0.541117168 -0.0127137829 0.180064
630296220.0 -0.0469093478 0.1815526265 0.1290591937 -0.5425649415 0.1291619623 -0.542315569 -0.0111240757 0.1807206937
635296190.0 -0.0460511175 0.1817174193 0.1237201466 -0.5435494709 0.1232806248 -0.543576969 -0.0089230851 0.1803597224
640296160.0 -0.0439607433 0.1823970314 0.1174510361 -0.5445576763 0.1175584501 -0.5446874202 -0.0069083645 0.1804848436
645296130.0 -0.0419780049 0.1831614004 0.1115065164 -0.546226268 0.1120272398 -0.5463605871 -0.0049399497 0.1811195493
650296100.0 -0.0401366095 0.183530585 0.105484977 -0.5468892812 0.1060355923 -0.547037002 -0.0025304562 0.1810305461
655296070.0 -0.0386567561 0.1839572054 0.0995416705 -0.548548781 0.0999995969 -0.5484652349 -0.0005787406 0.1815041711
660296040.0 -0.0372293782 0.1843375208 0.0941014308 -0.5494881305 0.0941299902 -0.5493958293 0.0017635134 0.1817645132
665296010.0 -0.0351038725 0.1846182908 0.0880567873 -0.5498639185 0.0880355016 -0.5499715087 0.0037336037 0.1821938382
670295980.0 -0.0338990867 0.1856872666 0.0824451055 -0.5509037499 0.0819471745 -0.5510305566 0.0054944266 0.1819778
675295950.0 -0.0317176541 0.1862522651 0.0760419928 -0.5516000471 0.076184489 -0.5514313529 0.0073601703 0.182227201
680295920.0 -0.0301513274 0.1863560295 0.069928471 -0.552542606 0.0694966998 -0.5528303919 0.0094291559 0.182697544
685295890.0 -0.0282834796 0.1873035448 0.0639897909 -0.5533866937 0.0640813983 -0.5532788397 0.011269757 0.1821667119
690295860.0 -0.0260184809 0.1875031437 0.0578681572 -0.5538286761 0.0581019896 -0.5541829128 0.0133775974 0.1831541406
695295830.0 -0.0240975147 0.1874985511 0.0522431027 -0.5543703521 0.0520979497 -0.5544214023 0.0155335107 0.182823932
700295800.0 -0.022326534 0.1877531303 0.0459705576 -0.5550113588 0.0456341856 -0.5546355811 0.0173739058 0.1832836001
705295770.0 -0.0207812622 0.1889930127 0.0399155729 -0.5555053748 0.0402971466 -0.5559341844 0.0193383006 0.1836011375
710295740.0 -0.0186406947 0.1888449198 0.0346336462 -0.5565905125 0.0345371704 -0.5564194513 0.0215482348 0.1829909694
715295710.0 -0.0172356933 0.1892103493 0.0285851146 -0.5562535172 0.0279600926 -0.556449096 0.0238109467 0.1827864836
720295680.0 -0.0152411216 0.1893132263 0.0220974585 -0.5567351311 0.0223668083 -0.5563105165 0.0256491457 0.1831177252
725295650.0 -0.0132821979 0.189891581 0.0164894765 -0.556657732 0.0161413053 -0.5567624481 0.0272337755 0.1831534576
730295620.0 -0.0112328545 0.1899914113 0.0101179923 -0.5566552336 0.010323039 -0.5570359703 0.0291090688 0.1827282493
735295590.0 -0.0092935781 0.1904299939 0.0044234661 -0.5570803085 0.0039680911 -0.5566732108 0.0309799072 0.1822905969
740295560.0 -0.0079287942 0.1908201582 -0.0019338307 -0.5566335853 -0.0019924257 -0.5565879636 0.0337873617 0.1825666132
745295530.0 -0.0059845587 0.1910824121 -0.007965522 -0.5560189884 -0.0082832373 -0.5567911586 0.0354244286 0.1819150089
750295500.0 -0.0039238017 0.1911935021 -0.0133705449 -0.5562603328 -0.013892227 -0.5565712983 0.0372143418 0.1817236319
755295470.0 -0.0020073269 0.1911363015 -0.0195885602 -0.556500531 -0.0198600527 -0.5563891666 0.0396408935 0.1809959329
760295440.0 -0.0005448605 0.1913876948 -0.0258743109 -0.5564483729 -0.0256580231 -0.5562864396 0.0414585361 0.1810016464
765295410.0 0.0013874573 0.1916647211 -0.031673984 -0.5559760859 -0.0323607561 -0.5559583299 0.0433523102 0.1807160441
770295380.0 0.0029411272 0.191629088 -0.0379191499 -0.5553871598 -0.0377052655 -0.5550450918 0.0452507619 0.1799360653
775295350.0 0.0049151948 0.191250948 -0.0438629675 -0.5542807983 -0.0435984501 -0.5544676921 0.0464472857 0.1798547521
780295320.0 0.0070056743 0.1917131202 -0.049869921 -0.5540440381 -0.0493333282 -0.5539506915 0.0491638482 0.1790959617
785295290.0 0.0084496132 0.1912777148 -0.0559033467 -0.5531784959 -0.055694785 -0.553231863 0.0516325437 0.1788321579
790295260.0 0.0111470739 0.1919926994 -0.0611172359 -0.5529094862 -0.0609106433 -0.5529118218 0.0534409381 0.178317459
795295230.0 0.0127203544 0.191760182 -0.0671405852 -0.5521557689 -0.0670372678 -0.5522009814 0.0553403237 0.17806995
800295200.0 0.0142375118 0.1920547641 -0.0742484482 -0.5509748761 -0.0732212597 -0.5514858895 0.0577341004 0.1771585476
805295170.0 0.016268446 0.1916001254 -0.079633198 -0.5501707301 -0.0792982137 -0.5504228263 0.0593312582 0.1768116275
810295140.0 0.0178762292 0.1915303995 -0.0849707033 -0.5493551722 -0.0852146428 -0.5497488059 0.0618728232 0.1767234659
815295110.0 0.0200236304 0.1914146189 -0.0910110536 -0.5482969212 -0.0912496146 -0.5482979778 0.0633190888 0.1761149466
820295080.0 0.021555588 0.1918312048 -0.0971834247 -0.5474386677 -0.0966650615 -0.5473242898 0.0656150434 0.1754152774
825295050.0 0.0239222499 0.1915594496 -0.1026855402 -0.5460127256 -0.102966241 -0.5466489685 0.0677224167 0.1749427354
830295020.0 0.0255478342 0.1914736966 -0.1085387537 -0.5452310842 -0.10879346 -0.544951135 0.0704530964 0.1741173965
