!Created with skrf (http://scikit-rf.org).
# Hz S RI R 50.0 
!freq ReS11 ImS11 ReS21 ImS21 ReS12 ImS12 ReS22 ImS22
300000.0 -0.2369511362 -0.0994894896 0.4640972953 0.0661688398 0.4675032962 0.0704293355 -0.2362607188 -0.1108300507
5299970.0 -0.2436569356 0.0069684425 0.4737864941 0.0053612738 0.4736579646 0.005806856 -0.2439403707 0.0060301835
10299940.0 -0.2403147755 0.0198477045 0.4761572827 0.0065619229 0.4757399638 0.0066843734 -0.2410025751 0.0183859903
15299910.0 -0.235967319 0.029229449 0.4793441308 0.0077252015 0.4792413635 0.0081198868 -0.2368355 0.0276624652
20299880.0 -0.2306122606 0.0372679456 0.4844350343 0.0085973846 0.4841342486 0.0082523456 -0.2319695863 0.0353103479
25299850.0 -0.224820852 0.0435994196 0.489364148 0.0070997803 0.4894037143 0.0073815442 -0.2267817372 0.0416844837
30299820.0 -0.2188450694 0.0484776123 0.4953203735 0.0058204015 0.4946298436 0.0052996426 -0.2217143653 0.0466768548
35299790.0 -0.2128933078 0.0528569213 0.5000903209 0.0023857747 0.5002638148 0.0023314253 -0.2161485153 0.050895009
40299760.0 -0.2076015153 0.0555865889 0.5055334011 -0.0015625461 0.5054274569 -0.001479991 -0.211673354 0.0543222231
45299730.0 -0.2024565121 0.0586960148 0.5103024758 -0.0067918561 0.510362234 -0.0065709742 -0.2064861226 0.0574555153
50299700.0 -0.1976613749 0.0602938183 0.514208381 -0.0120160571 0.5145677707 -0.0120951931 -0.2020292102 0.0599137039
55299670.0 -0.193600392 0.0617355977 0.5176105353 -0.0182220417 0.5183219658 -0.0178598046 -0.1983762207 0.0617113343
60299640.0 -0.189476721 0.0628389296 0.5211648335 -0.0244522648 0.5212400364 -0.0242533215 -0.1945242186 0.0631504405
65299610.0 -0.186077982 0.0640238405 0.524839914 -0.0303275505 0.5245075512 -0.0303467254 -0.1910013399 0.0645658773
70299580.0 -0.1826530305 0.0642931623 0.5264004478 -0.0369382795 0.5269228946 -0.0371510805 -0.1879773961 0.0659271835
75299550.0 -0.1795674354 0.0651222829 0.5282158892 -0.0436365359 0.5289600161 -0.0441949143 -0.1851776775 0.067110571
80299520.0 -0.1772327771 0.0659402031 0.5310392299 -0.0509208356 0.5308918437 -0.0510566991 -0.1826741063 0.0674296033
85299490.0 -0.174816429 0.0658360972 0.5319577293 -0.0577890594 0.531891032 -0.0578480754 -0.1804543951 0.0681582711
90299460.0 -0.1727523256 0.0666154825 0.5335036771 -0.0644193956 0.5330904105 -0.0648655572 -0.1774888593 0.0692371941
95299430.0 -0.1705022243 0.0672833305 0.5340713425 -0.0719504649 0.5341831902 -0.0717050822 -0.1758311429 0.0702237148
100299400.0 -0.1686908791 0.0678793997 0.5341518233 -0.078677972 0.5343871185 -0.0785980826 -0.1742555304 0.0709517929
105299370.0 -0.1667561368 0.0680019063 0.5342581792 -0.0852028781 0.5348297314 -0.0850236151 -0.1724068154 0.0716696869
110299340.0 -0.1656099714 0.0685681815 0.53487109 -0.0920562469 0.5347044195 -0.09239325 -0.170639182 0.0726703144
115299310.0 -0.1638751758 0.0688534133 0.5347482048 -0.0988200679 0.5349135538 -0.09911102 -0.1689549599 0.0733272251
120299280.0 -0.1628588896 0.0694820427 0.5349733027 -0.1060971926 0.5348434184 -0.106175297 -0.1679522636 0.0741127783
125299250.0 -0.1619771827 0.0698354727 0.5346247847 -0.112292854 0.5343197399 -0.1126751515 -0.1664652782 0.0746238184
130299220.0 -0.1604988581 0.0704341663 0.5336969887 -0.1187098184 0.5336468543 -0.1196551866 -0.1650161818 0.0759918817
135299190.0 -0.1592996996 0.0708769144 0.5329246157 -0.1255905735 0.5325562089 -0.1260751024 -0.1643438371 0.0771723175
140299160.0 -0.1586043351 0.0721175451 0.5320514992 -0.132381395 0.5323097126 -0.1327913132 -0.1628687187 0.0781565904
145299130.0 -0.157423688 0.0728178341 0.5316981426 -0.1391869957 0.5314053379 -0.1389500434 -0.1620975933 0.0789078021
150299100.0 -0.1565313176 0.0736206868 0.5302011566 -0.1461401831 0.5304030998 -0.1457961409 -0.1609645703 0.0800228131
155299070.0 -0.1559524654 0.0746427866 0.5292633737 -0.1525517333 0.5293660276 -0.1525720331 -0.1602016502 0.0809056369
160299040.0 -0.1549751394 0.0752483974 0.5273385349 -0.1584671823 0.5277493156 -0.1588144811 -0.1590767589 0.0825612973
165299010.0 -0.1542091841 0.0763780577 0.5264125626 -0.1655075301 0.5262444863 -0.1651400079 -0.1578700422 0.0832404734
170298980.0 -0.1534095678 0.0771775394 0.5240963514 -0.1717345484 0.5246843212 -0.1715406523 -0.156824645 0.0844278261
175298950.0 -0.1524313058 0.0783593022 0.5232487933 -0.1774838063 0.5233788269 -0.1777882641 -0.1560900813 0.0856625278
180298920.0 -0.1517034556 0.0791494396 0.5210897789 -0.1843175881 0.5214123776 -0.1841014185 -0.1547812207 0.087182401
185298890.0 -0.1509474136 0.080309344 0.5193071226 -0.1905267971 0.5196298011 -0.190252528 -0.1541399223 0.0881122191
190298860.0 -0.1501520419 0.0812037256 0.5174779495 -0.1969778925 0.5183068669 -0.1967134582 -0.1529208079 0.0896816292
195298830.0 -0.1495565854 0.082230856 0.515464772 -0.202378993 0.5157044681 -0.2029340878 -0.1520616486 0.0906582609
200298800.0 -0.148754765 0.0835688595 0.5138418325 -0.2086539573 0.5137004344 -0.2088569716 -0.150673444 0.0925725325
205298770.0 -0.1480611507 0.0844904148 0.5115708119 -0.2145377998 0.5115339871 -0.2147657034 -0.1501013732 0.0931257683
210298740.0 -0.1474558818 0.085409555 0.5095486652 -0.2207777701 0.509242712 -0.2209221346 -0.1488355976 0.09483273
215298710.0 -0.1465665694 0.0869418184 0.5071016334 -0.2267158375 0.5067947716 -0.2265464251 -0.148395632 0.0962836719
220298680.0 -0.1458188667 0.0880172337 0.5043024111 -0.2326723776 0.504624459 -0.2326672831 -0.1470900527 0.0976336076
225298650.0 -0.1446249977 0.0894444624 0.5015527811 -0.2382452487 0.5018311055 -0.2382472575 -0.1464348183 0.0988906081
230298620.0 -0.1444109606 0.0905660998 0.4997729606 -0.2443741505 0.4997779652 -0.2447473391 -0.145193959 0.1003729376
235298590.0 -0.1432459709 0.0916869164 0.4966619272 -0.2500864558 0.4968453506 -0.2500600928 -0.143934972 0.1016547711
240298560.0 -0.1430371913 0.0929624854 0.4944533311 -0.2554076826 0.4941007749 -0.2555036855 -0.1430157589 0.1032932491
245298530.0 -0.1419889887 0.0943671128 0.4909662806 -0.2615820462 0.4910244565 -0.2616185061 -0.1417333718 0.1050569033
250298500.0 -0.1417417964 0.0951310625 0.4884832337 -0.266628081 0.4891119477 -0.2666423397 -0.1405498548 0.106019177
255298470.0 -0.1405797351 0.0967092605 0.4848725182 -0.2729156261 0.4854135086 -0.2723501427 -0.139430037 0.1073023639
260298440.0 -0.1398351464 0.0981146183 0.4827448713 -0.2782830112 0.4829384197 -0.2780847206 -0.1380751962 0.1090852786
265298410.0 -0.1386230271 0.0995022785 0.4796191903 -0.2839655986 0.4798043454 -0.2839229636 -0.1372935704 0.1105287794
270298380.0 -0.13764776 0.1005068946 0.4761084282 -0.2890354588 0.4765602397 -0.2893172146 -0.1360664879 0.1121921023
275298350.0 -0.1373674098 0.1019537838 0.4738833016 -0.2946053076 0.4739177124 -0.2946654071 -0.13481964 0.1133607323
280298320.0 -0.1361424839 0.1033820967 0.4700271818 -0.2995546022 0.4700069723 -0.3002320788 -0.1337402251 0.1148602806
285298290.0 -0.1351613312 0.1049163576 0.4672120957 -0.3053369513 0.4667295807 -0.3054999219 -0.1326066097 0.1163413301
290298260.0 -0.1341018515 0.1060903316 0.463665186 -0.3108203272 0.4635148514 -0.3107458147 -0.1306091862 0.1180847555
295298230.0 -0.1332482104 0.1073578146 0.4607595689 -0.3161516983 0.4601409221 -0.3162168644 -0.1294324938 0.1195574902
300298200.0 -0.1320988621 0.1084570839 0.4565292399 -0.3212769164 0.4572387371 -0.3212548275 -0.1284684076 0.1206732257
305298170.0 -0.1310089425 0.1096457052 0.4533152271 -0.3263694521 0.4535862125 -0.3265779996 -0.1267465075 0.122464571
310298140.0 -0.1298808087 0.1106444886 0.4500364613 -0.3317945241 0.4499470705 -0.3320663138 -0.1252686469 0.1240255483
315298110.0 -0.129104616 0.1119594475 0.4460486414 -0.3367305124 0.4462017762 -0.337164347 -0.1241110929 0.1251236516
320298080.0 -0.128056411 0.1131073334 0.4423232436 -0.3417794311 0.4426211835 -0.3420895374 -0.122833701 0.1263314572
325298050.0 -0.1270088628 0.114133758 0.4389734611 -0.3472604281 0.4389510745 -0.3474673129 -0.1213649657 0.1280058579
330298020.0 -0.1263913118 0.115520178 0.4340225862 -0.3522341032 0.4343604089 -0.3522727889 -0.1204839433 0.1290058416
335297990.0 -0.1252356926 0.116518011 0.4300674618 -0.3568550808 0.4303809639 -0.3571816292 -0.1188887152 0.1302315912
340297960.0 -0.1247546404 0.1180463265 0.4260103887 -0.361838528 0.4269140857 -0.3617322261 -0.1178116738 0.131886781
345297930.0 -0.1237454772 0.1194448895 0.4221645371 -0.3663049126 0.4218848479 -0.3662470291 -0.1161828445 0.1331171945
350297900.0 -0.1222696661 0.120879409 0.4181639878 -0.37082398 0.4184904139 -0.371086334 -0.1151634289 0.1349363413
355297870.0 -0.1213192781 0.1219373877 0.4138606669 -0.3753069266 0.4141990802 -0.3758686769 -0.1137155782 0.1364674631
360297840.0 -0.1199354175 0.1235213841 0.4096606242 -0.3805996255 0.4095392789 -0.380408461 -0.111999969 0.1379660514
365297810.0 -0.1191805843 0.1246271886 0.4057953136 -0.3846904037 0.4054772638 -0.3847308961 -0.1107480892 0.1393765505
370297780.0 -0.1177077545 0.1257913863 0.4010220076 -0.38922351 0.401416405 -0.3894745986 -0.1091405247 0.1408833811
375297750.0 -0.1166610029 0.1275145547 0.3972736674 -0.3935948242 0.3970307611 -0.393669398 -0.1077870155 0.1424357122
380297720.0 -0.1153750616 0.1283117422 0.3926591157 -0.3978615725 0.392690236 -0.3979334058 -0.1058999437 0.1437969208
385297690.0 -0.1143215659 0.1299284006 0.3879441351 -0.4018618174 0.3885629925 -0.4019259844 -0.1047752117 0.1452695713
390297660.0 -0.1130758203 0.1310326564 0.3837362357 -0.406766472 0.383990357 -0.4064437346 -0.1027835477 0.1460913765
395297630.0 -0.1117387749 0.1320182516 0.3793755015 -0.4102679319 0.3792992564 -0.4106462216 -0.101547443 0.1481289119
400297600.0 -0.1107545206 0.133622119 0.3748286643 -0.4147056678 0.3751837038 -0.4148314274 -0.1002101859 0.1488430719
405297570.0 -0.1092763828 0.134974451 0.3703392644 -0.4190464244 0.3701327662 -0.419008419 -0.0984931058 0.1508069097
410297540.0 -0.107765212 0.1356910905 0.36495735 -0.4223630488 0.3654258384 -0.4228285798 -0.0966737108 0.1519425187
415297510.0 -0.1067225363 0.1372713405 0.3608603508 -0.4268417694 0.3609990986 -0.4268871078 -0.0951875322 0.153425125
420297480.0 -0.1051215104 0.1381202131 0.3559010762 -0.431062311 0.3562901407 -0.4308330599 -0.0932337602 0.1542144219
425297450.0 -0.103776672 0.1390471212 0.3512965214 -0.4345417799 0.3518761687 -0.4347465684 -0.0919112723 0.1559395494
430297420.0 -0.1028010919 0.1403193754 0.3469673982 -0.4385826969 0.3469007945 -0.438575229 -0.090206491 0.1566505164
435297390.0 -0.1010470448 0.1415969848 0.3418793144 -0.4421808131 0.3419117952 -0.4421175503 -0.0886188106 0.1584070227
440297360.0 -0.0995445177 0.1424242374 0.3366406158 -0.4455902337 0.3366120249 -0.4457813169 -0.0866792046 0.1587321273
445297330.0 -0.0982263888 0.1435943162 0.3315319218 -0.4496608637 0.3322709316 -0.4496066141 -0.0850040514 0.160194114
450297300.0 -0.0970057479 0.144768199 0.3270388743 -0.4533420557 0.3271209086 -0.4532716303 -0.0832612689 0.161414659
455297270.0 -0.0956021451 0.1458259939 0.3222845777 -0.4566430585 0.3227895829 -0.4564314384 -0.0815912554 0.1626411332
460297240.0 -0.0943214736 0.1468016835 0.3170778507 -0.4598824672 0.316856703 -0.4601912042 -0.079689091 0.164310368
465297210.0 -0.092689718 0.1478563925 0.3121593241 -0.4637134902 0.3125029596 -0.4634667115 -0.0783107688 0.1647979202
470297180.0 -0.0914452321 0.1490171099 0.3070690618 -0.4667429386 0.3072152628 -0.46671458 -0.0768884478 0.1661699942
475297150.0 -0.0900877283 0.1495143575 0.3016009714 -0.4700560252 0.3021579655 -0.469608586 -0.0746215915 0.1670981401
480297120.0 -0.0882831574 0.1504976046 0.2964232892 -0.4734410894 0.2967664483 -0.4734353623 -0.0729822237 0.1686130916
485297090.0 -0.0868001218 0.1517123614 0.2915896653 -0.4765783895 0.2916436639 -0.4768525145 -0.0713667303 0.1690356651
490297060.0 -0.0850818118 0.1526695596 0.2862726445 -0.4798160384 0.2864409383 -0.4794938512 -0.0691520039 0.1701676101
495297030.0 -0.0843142035 0.1536591735 0.2812076767 -0.4826279772 0.2807251459 -0.4825793242 -0.0673656217 0.1707590576
500297000.0 -0.0824328276 0.1543397688 0.2755500648 -0.4857623297 0.2759313009 -0.4859086269 -0.0661058192 0.1718221287
505296970.0 -0.0811826008 0.1550732779 0.2697229305 -0.4882667613 0.270440603 -0.4885931573 -0.0644091948 0.1729879381
510296940.0 -0.0795729159 0.1563904035 0.2652255621 -0.4920003082 0.2654922535 -0.4918437473 -0.0620090174 0.1738519144
515296910.0 -0.078181178 0.1574497019 0.2596823516 -0.4940917552 0.2599143724 -0.4943572528 -0.0601781924 0.1746823349
520296880.0 -0.0767471956 0.1581732755 0.2543504007 -0.4974774336 0.2544402723 -0.4969390561 -0.0582046907 0.1753521628
525296850.0 -0.0751918043 0.15877599 0.2490805503 -0.4997254382 0.2490285297 -0.5000995574 -0.0560050789 0.1765283643
530296820.0 -0.0734374953 0.1598433402 0.2433955547 -0.5020724422 0.2433375769 -0.5024042238 -0.0549220837 0.1770190801
535296790.0 -0.0719937783 0.1604498611 0.2376011588 -0.5043244534 0.2384301429 -0.5048069235 -0.0527561462 0.1775732814
540296760.0 -0.0704349307 0.1613271156 0.2325172288 -0.5079113965 0.2322993013 -0.5077865073 -0.0510513464 0.1785205219
545296730.0 -0.0687320717 0.162327543 0.2267619856 -0.509493376 0.2269803119 -0.5104644235 -0.0490072098 0.1791591999
550296700.0 -0.0673854693 0.1628736844 0.2213782361 -0.5126066542 0.2218817133 -0.5125656274 -0.0473193714 0.1806433066
555296670.0 -0.0656144298 0.1636998135 0.2160649238 -0.5150676509 0.2159113668 -0.515007751 -0.0453594623 0.1806954216
560296640.0 -0.0640994022 0.1641697843 0.2102742319 -0.516675791 0.2105656741 -0.5169546167 -0.0430782439 0.1814217465
565296610.0 -0.0629740238 0.1651176552 0.2041642249 -0.5191053627 0.2041333973 -0.5191268409 -0.041329404 0.1818285589
570296580.0 -0.0608457697 0.1657924863 0.1985148774 -0.5207946498 0.1991576348 -0.5217921354 -0.0391987177 0.1829783073
575296550.0 -0.0591729157 0.1668062376 0.1930990179 -0.5230401152 0.1937861032 -0.5233332453 -0.0370405256 0.1834757584
580296520.0 -0.0576503159 0.1674022143 0.1879389283 -0.5253782095 0.1879524157 -0.525749293 -0.0353188735 0.1839861701
585296490.0 -0.0557951334 0.1677738445 0.1821589202 -0.5274082397 0.1816033459 -0.5272459723 -0.0336084073 0.1838998845
590296460.0 -0.0544673437 0.1685866576 0.1760187841 -0.5291596769 0.1764054409 -0.5296123162 -0.0313176602 0.1851368484
595296430.0 -0.0529276654 0.1695203409 0.1707914422 -0.5314402715 0.170307815 -0.5315387631 -0.0293572406 0.1851358079
600296400.0 -0.0515024102 0.1700689965 0.1649526917 -0.533010823 0.1653028352 -0.5335102865 -0.0273073489 0.1859996744
605296370.0 -0.0495870784 0.170853384 0.1590922507 -0.5348223526 0.1591330621 -0.5350100619 -0.0254112294 0.1861649209
610296340.0 -0.0481716007 0.1714396938 0.1535848728 -0.5366485675 0.1537197977 -0.5365854957 -0.0233800685 0.1871349887
615296310.0 -0.0463371539 0.1723059485 0.1471587114 -0.538177126 0.1472399807 -0.5381641753 -0.0213480959 0.1871138991
620296280.0 -0.0447688679 0.172260683 0.1415137562 -0.5392042597 0.1416822033 -0.5398811728 -0.0197307012 0.1874043024
625296250.0 -0.0427516787 0.1726968076 0.1352896151 -0.5410630742 0.135554386 -0.5413054285 -0.017174989 0.1877459509
630296220.0 -0.0410462379 0.1739407879 0.1294226048 -0.542681756 0.1304839155 -0.5424043356 -0.0156384698 0.1884089601
635296190.0 -0.0396573165 0.1743644104 0.1239072906 -0.5432423788 0.1237698673 -0.5435480079 -0.0133554205 0.1886211343
640296160.0 -0.0378871932 0.1743334443 0.1183592085 -0.5444956071 0.1178623964 -0.5448649754 -0.0109543847 0.1886771533
645296130.0 -0.0363713961 0.1753723342 0.1123103726 -0.5464160836 0.112001193 -0.5462318777 -0.0096964154 0.1888206119
650296100.0 -0.0345730292 0.1763081976 0.1066023566 -0.5472543228 0.1065853823 -0.5473724154 -0.0070998608 0.1897308403
655296070.0 -0.0326554254 0.1760638021 0.1002917719 -0.5479850991 0.1002126974 -0.5485176893 -0.0049339637 0.1896983692
660296040.0 -0.031553934 0.1771470438 0.0945413415 -0.5492720965 0.0945787553 -0.5491057782 -0.0032496429 0.1898476603
665296010.0 -0.029531199 0.1770266481 0.088891774 -0.5501681737 0.0892163518 -0.5504232876 -0.0011894416 0.1899707609
670295980.0 -0.0271845342 0.1777152196 0.0824256199 -0.5509910491 0.0830507607 -0.5512531944 0.0005847041 0.1901464993
675295950.0 -0.0257187702 0.1779539739 0.0767612512 -0.5519126496 0.0769706819 -0.5525754133 0.0032339763 0.1903235066
680295920.0 -0.0242700444 0.1788200411 0.0706657323 -0.5528806323 0.0707451243 -0.5529467703 0.0051356937 0.1902435933
685295890.0 -0.0223380943 0.1788196784 0.0646797042 -0.5531199973 0.0647203511 -0.5539036588 0.0073700219 0.1906726786
690295860.0 -0.0203526411 0.179398707 0.0588120824 -0.5540882374 0.0580754659 -0.5543486819 0.0094965384 0.1907193747
695295830.0 -0.0184816992 0.1791795119 0.0521253721 -0.5549174775 0.0523594746 -0.5550576548 0.0114054865 0.1908803852
700295800.0 -0.0166584061 0.1798824486 0.0466824994 -0.5555460105 0.0467703383 -0.5556842995 0.0135359828 0.1905238605
705295770.0 -0.0148140112 0.1804168359 0.0405671934 -0.5557161464 0.0409923083 -0.5557137445 0.0152449595 0.1909043037
710295740.0 -0.0133474908 0.1807857616 0.0347761776 -0.5559920539 0.0348730215 -0.5561714916 0.0170509851 0.1911106261
715295710.0 -0.0118999509 0.1811773167 0.0288291658 -0.5565812721 0.0292765162 -0.5565080694 0.0193188647 0.1903418601
720295680.0 -0.0097740146 0.1809791669 0.0224505339 -0.5563150427 0.0229905624 -0.5569681345 0.0215597812 0.1905829707
725295650.0 -0.0076124651 0.1816678627 0.0163621487 -0.5567265071 0.0166196496 -0.556828955 0.0235363336 0.1905379344
730295620.0 -0.0064668911 0.1813934615 0.0104153205 -0.5565831749 0.0104276453 -0.5568538153 0.0260598691 0.1898850268
735295590.0 -0.0040449149 0.1819533242 0.0048169211 -0.5570666568 0.0049307976 -0.5572955715 0.0280270403 0.1901887121
740295560.0 -0.0026385547 0.182157743 -0.0013753912 -0.5569135258 -0.0012358495 -0.5568770924 0.0301694234 0.1896082217
745295530.0 -0.0007574275 0.1820518397 -0.0073893488 -0.5566328239 -0.0071566242 -0.5572055595 0.0319127103 0.1898144558
750295500.0 0.0007262143 0.1822777174 -0.0132954837 -0.5562322819 -0.0131795158 -0.5564854318 0.0342050889 0.1891402333
755295470.0 0.0033199462 0.1826678389 -0.0196356335 -0.5563739942 -0.0191277283 -0.5565307857 0.0359309256 0.1895267167
760295440.0 0.004502868 0.182841668 -0.0253113915 -0.5562289037 -0.0255559038 -0.5563786261 0.0376357183 0.1890646265
765295410.0 0.0064256799 0.1823773547 -0.0312252398 -0.5557892773 -0.0308418229 -0.5562275339 0.040672179 0.1892225692
770295380.0 0.0083313499 0.1827092105 -0.0372686306 -0.5550766788 -0.037202968 -0.5554337054 0.0427275452 0.1885531179
775295350.0 0.0099569544 0.1831212418 -0.0431185139 -0.5548875096 -0.0432275807 -0.5553320966 0.0443005637 0.1876924572
780295320.0 0.0118276132 0.1829334625 -0.0487815036 -0.5544852089 -0.0490071239 -0.5549680974 0.046434574 0.1881986012
785295290.0 0.0137682857 0.183164541 -0.0551075748 -0.5529487825 -0.0547881364 -0.5539263007 0.0478451136 0.1874300026
790295260.0 0.0154388467 0.1831122964 -0.0608938541 -0.5532369838 -0.0609644636 -0.5534602353 0.0504687785 0.1870095275
795295230.0 0.0169868444 0.1830539945 -0.0666630677 -0.552113585 -0.0667844661 -0.552523471 0.0525530255 0.187104534
800295200.0 0.0191104557 0.1834237289 -0.0728493462 -0.5519605507 -0.073357284 -0.5521127703 0.054486427 0.1864512016
805295170.0 0.0205828551 0.1833152128 -0.0787757019 -0.5507205386 -0.0786146544 -0.5508372799 0.0563580655 0.1857621118
810295140.0 0.0223897224 0.1830175469 -0.0847907025 -0.5497833977 -0.0847636361 -0.5507604684 0.0587008989 0.1857222705
815295110.0 0.0243412756 0.1830364014 -0.090814198 -0.5487241299 -0.0907056024 -0.5489243349 0.0607079118 0.1850794928
820295080.0 0.0261322136 0.1825335654 -0.0966077791 -0.5477562545 -0.0966775804 -0.5482439684 0.0622437184 0.1844708856
825295050.0 0.0280327804 0.1826155243 -0.1024822997 -0.5462094091 -0.1024595733 -0.5469755334 0.0645209298 0.1840170642
830295020.0 0.0299167507 0.1828209506 -0.1084024245 -0.5453882491 -0.1087356068 -0.5458207721 0.0662428025 0.1831763481
