!Created with skrf (http://scikit-rf.org).
# Hz S RI R 50.0 
!freq ReS11 ImS11 ReS21 ImS21 ReS12 ImS12 ReS22 ImS22
300000.0 -0.093019915 -0.1080552414 0.6230721924 0.0982001201 0.6201533821 0.0989876948 -0.0940275647 -0.1093565781
5299970.0 -0.1014491141 0.0110993513 0.6305128262 0.0111996995 0.6308520709 0.0111555731 -0.1012421642 0.0106946619
10299940.0 -0.0968570492 0.0285296056 0.6348865864 0.0164628095 0.6341186625 0.0167561306 -0.0962087877 0.0282942669
15299910.0 -0.0889712217 0.0421635833 0.6404233977 0.0213890357 0.6406293696 0.0213770706 -0.0893113812 0.0414967549
20299880.0 -0.0801821069 0.0533932397 0.6484501975 0.024129297 0.6492704269 0.0243547183 -0.0807069734 0.0528704553
25299850.0 -0.0703955025 0.0623625456 0.6584199165 0.0256255932 0.6579262154 0.025661848 -0.0714847613 0.0617705701
30299820.0 -0.0606739712 0.0687920346 0.6678812934 0.0246531427 0.6679076689 0.0243522979 -0.0615099277 0.0682846061
35299790.0 -0.0506824903 0.0737481524 0.6772759777 0.0219186642 0.6777106542 0.0219548069 -0.0521427974 0.0735216531
40299760.0 -0.0412103821 0.0763463786 0.6869982346 0.0180083731 0.686684635 0.0177032854 -0.0423766441 0.0768843183
45299730.0 -0.0319103519 0.0784579717 0.6960152968 0.0127741352 0.6962440041 0.0119319236 -0.0329715249 0.0791368057
50299700.0 -0.0228599508 0.0789204941 0.7042409158 0.0054362955 0.7040203229 0.005077663 -0.0242184976 0.0804595313
55299670.0 -0.0151647392 0.0789805461 0.7111314207 -0.0026193961 0.7111389724 -0.0024163712 -0.0171054501 0.0803535023
60299640.0 -0.0077723906 0.078768284 0.7182468921 -0.0111707961 0.7178911412 -0.0113234105 -0.0093059785 0.0797971606
65299610.0 -0.0011855447 0.0773245691 0.7243231871 -0.0194609533 0.7241115065 -0.0199226787 -0.0023873919 0.0784649209
70299580.0 0.005517921 0.0751882111 0.7289363332 -0.0290677685 0.7291500937 -0.0290897019 0.003277207 0.0770386073
75299550.0 0.0104153821 0.0732264803 0.73314767 -0.0391269564 0.7334924501 -0.0392280198 0.0086122359 0.0753961189
80299520.0 0.0157819406 0.0715894292 0.7378237075 -0.0487056246 0.7375578696 -0.0492772872 0.0139603282 0.0734154851
85299490.0 0.0200626501 0.0691194083 0.7410243671 -0.058875924 0.7412435763 -0.058514164 0.0184212631 0.0711057792
90299460.0 0.024051255 0.066481126 0.7435270003 -0.0689253114 0.7430425746 -0.0684193436 0.0227394951 0.0692171986
95299430.0 0.0281298827 0.0641317911 0.7461101881 -0.0788516135 0.7462130688 -0.0791132665 0.0260910248 0.0666575168
100299400.0 0.0312916763 0.0615407524 0.7476907422 -0.0887837034 0.7478096154 -0.0885258325 0.0291256878 0.0648096248
105299370.0 0.0343583477 0.0589591003 0.748971399 -0.0990045308 0.7498369023 -0.098980609 0.0329560937 0.0616971282
110299340.0 0.0375420576 0.0563849904 0.7506884474 -0.108778013 0.7506776383 -0.108489409 0.0349296256 0.059434247
115299310.0 0.0397816081 0.054444484 0.7515099943 -0.1189283185 0.7510846195 -0.1187496562 0.0377195784 0.0577541403
120299280.0 0.0417270753 0.0520396276 0.7522682736 -0.1297323241 0.7517943693 -0.1294748426 0.0397294894 0.0545233387
125299250.0 0.04377165 0.0495842517 0.7520831466 -0.1389240946 0.7521369117 -0.138958521 0.0422209191 0.0528272855
130299220.0 0.0455778901 0.047008878 0.7520791258 -0.1491660202 0.752011187 -0.1492396604 0.0438980619 0.050790807
135299190.0 0.0469784614 0.0452948615 0.7522207109 -0.1582509376 0.7519194086 -0.1587401953 0.0454316693 0.0480155266
140299160.0 0.0488812823 0.0431155801 0.7514158157 -0.1684283709 0.7510897794 -0.1686514381 0.0463959528 0.0456680709
145299130.0 0.0494608591 0.0410966297 0.750287515 -0.1779699462 0.7505139174 -0.1783320588 0.0483622405 0.0439243506
150299100.0 0.050921028 0.039132627 0.7489753719 -0.1880202554 0.7490712878 -0.1878678964 0.049258203 0.0423419257
155299070.0 0.0526495911 0.0371276695 0.7479328407 -0.1977101475 0.7486192872 -0.1976408828 0.0507003528 0.0397899255
160299040.0 0.053440456 0.0354449856 0.7464940759 -0.2071634536 0.7464625628 -0.2072374057 0.0513059044 0.0380937362
165299010.0 0.0546182653 0.0334974387 0.7453359929 -0.2164653758 0.7448905183 -0.2166812114 0.0524847913 0.0359250069
170298980.0 0.0553042168 0.0318211419 0.7428829298 -0.2261317969 0.7433949733 -0.2259442339 0.0528158744 0.0339599667
175298950.0 0.0557739955 0.0303722409 0.741861096 -0.235163571 0.7422202999 -0.2356465459 0.0536310469 0.0327481577
180298920.0 0.056419864 0.0285805445 0.7391476852 -0.2444910726 0.7389265244 -0.2448740379 0.0542434209 0.0309967865
185298890.0 0.0567756241 0.0269934591 0.7382122657 -0.2535701754 0.7371844761 -0.2534333367 0.0554141649 0.0290904251
190298860.0 0.0578087086 0.0256968383 0.7342644639 -0.2628927737 0.7352281029 -0.2623700062 0.0552841105 0.0276584835
195298830.0 0.0577324015 0.0242702646 0.7326065483 -0.2716408991 0.7327679154 -0.2715024004 0.0558280729 0.0261195899
200298800.0 0.0584069325 0.022497911 0.7298601233 -0.2810629691 0.729395131 -0.2809484067 0.0563792284 0.0243299219
205298770.0 0.0583203487 0.0205376227 0.7265641739 -0.2896645981 0.7266954563 -0.2887891542 0.0569743645 0.0228037379
210298740.0 0.0590480962 0.0199567243 0.7241071007 -0.2980812953 0.7234765883 -0.2984884643 0.0569377565 0.021100324
215298710.0 0.0594122913 0.0184673786 0.721018812 -0.3061501035 0.7210031664 -0.307215674 0.0574052777 0.0199246428
220298680.0 0.05983024 0.0173839448 0.717677321 -0.3157490488 0.717622066 -0.3160253412 0.0576454712 0.0184223799
225298650.0 0.0596662819 0.0157999161 0.7140355823 -0.3242195138 0.7144244833 -0.3240126067 0.0577071142 0.0165462074
230298620.0 0.0602268751 0.0150590492 0.7111608492 -0.3330814468 0.7116537803 -0.3331139533 0.0575919863 0.0155205305
235298590.0 0.0598509572 0.0137758386 0.7078037297 -0.3419615504 0.7078884207 -0.341646358 0.0581657495 0.0139388398
240298560.0 0.0602489059 0.0126547937 0.7041987943 -0.3489014592 0.7039451478 -0.3493431165 0.0577884275 0.0128670257
245298530.0 0.0602677126 0.0108841396 0.7000936455 -0.3579737221 0.700387963 -0.3585261414 0.0579846114 0.0120473423
250298500.0 0.0601885818 0.0101333865 0.6965852609 -0.3661894725 0.6965451153 -0.3662206181 0.0581366833 0.0108668267
255298470.0 0.06048942 0.0096379116 0.6931918519 -0.3740860739 0.6932984581 -0.3743405905 0.0580356148 0.0100793603
260298440.0 0.0608318983 0.0080315011 0.6889206311 -0.381748925 0.6889641314 -0.3824568511 0.0579277869 0.0078914206
265298410.0 0.0599210409 0.0073956443 0.6844740629 -0.3907004249 0.6844070314 -0.3910250693 0.0586487487 0.0065833182
270298380.0 0.0601505585 0.0061353302 0.6808487274 -0.3982273815 0.6807648424 -0.3981504194 0.0583979806 0.0060410066
275298350.0 0.0603618278 0.0055197856 0.6754641701 -0.4059882304 0.6755640995 -0.4059076722 0.0577313634 0.004968328
280298320.0 0.0597754561 0.0042204628 0.6719293372 -0.4138635395 0.6719707256 -0.4141797472 0.0584598223 0.0041513306
285298290.0 0.0600087628 0.0032544915 0.6672245458 -0.4221232614 0.667584161 -0.4216633684 0.0583601253 0.0027618279
290298260.0 0.0597358949 0.0025057149 0.6636926513 -0.4296681509 0.6631529481 -0.4297172748 0.0583276628 0.0019974204
295298230.0 0.0597962241 0.0011303861 0.6586047518 -0.4380648483 0.6584071147 -0.437714574 0.057945732 0.0007107975
300298200.0 0.0601726898 0.0008170571 0.6537917797 -0.4454474091 0.6538158063 -0.4449757468 0.0577194025 -0.0005912043
305298170.0 0.0601433618 -0.0009422103 0.6492764673 -0.4528912404 0.6491383051 -0.4534888551 0.0578019496 -0.002112888
310298140.0 0.0603694518 -0.001836399 0.6444385874 -0.4603048825 0.644209511 -0.4603232544 0.0581920857 -0.0035282216
315298110.0 0.0597151394 -0.0030608869 0.6393558121 -0.4686321041 0.638875368 -0.4687018124 0.0578411061 -0.0041829375
320298080.0 0.0597826414 -0.0038610903 0.6335746265 -0.4758342736 0.6344813525 -0.475961227 0.0575142499 -0.0055822305
325298050.0 0.0587294944 -0.0056064317 0.6283338209 -0.4827015868 0.6288267618 -0.4830977585 0.0570389102 -0.0068225825
330298020.0 0.0574987737 -0.0057148435 0.6227222522 -0.490592462 0.6238092247 -0.4908617655 0.0561527418 -0.0075659181
335297990.0 0.0577541049 -0.0067571551 0.6172584712 -0.4976114424 0.617268132 -0.4978861566 0.0554780513 -0.0086057402
340297960.0 0.0569549347 -0.0076499703 0.6113522028 -0.5051510315 0.6111213721 -0.5047225758 0.0553993464 -0.009101844
345297930.0 0.0563869358 -0.0087494733 0.6059623752 -0.5123077186 0.6055385575 -0.5116429957 0.0552305219 -0.0100948224
350297900.0 0.0559443306 -0.0093219849 0.6003141138 -0.5180198653 0.60013398 -0.5183343923 0.0547883361 -0.0110867411
355297870.0 0.0555174836 -0.0099190945 0.5941680321 -0.5242760587 0.5941610462 -0.5246547668 0.0546954324 -0.0120051102
360297840.0 0.0554031893 -0.0102102763 0.5881155967 -0.5311000096 0.5885369109 -0.5320708998 0.0536060692 -0.0121062038
365297810.0 0.0545357138 -0.0110415372 0.5822757093 -0.5376911789 0.5819974998 -0.5379688489 0.0532193891 -0.0128857886
370297780.0 0.054656745 -0.0113182351 0.5761295089 -0.5445800457 0.5761249889 -0.5443266368 0.0529852451 -0.0137226344
375297750.0 0.0544806806 -0.0122006521 0.5706907664 -0.5508300086 0.5707552657 -0.5514937053 0.0531997518 -0.0144631764
380297720.0 0.053569251 -0.0125961593 0.5647635197 -0.5575903642 0.5646155839 -0.5576549474 0.052236613 -0.0147175561
385297690.0 0.0531893867 -0.0136497403 0.5580589116 -0.5637268184 0.5580993299 -0.5639588603 0.0523369518 -0.0156057506
390297660.0 0.0530553017 -0.0144518719 0.5518881287 -0.5688926087 0.552272912 -0.5701171052 0.0521856608 -0.0166115195
395297630.0 0.0529409941 -0.0151492396 0.546221872 -0.5755566278 0.5456134925 -0.5755132294 0.0517015647 -0.0169180277
400297600.0 0.0520628205 -0.015874702 0.5400860635 -0.5820633521 0.5398756943 -0.581999335 0.0513989396 -0.0172262225
405297570.0 0.0519783283 -0.0168154756 0.5333553442 -0.5880311785 0.5330970448 -0.5878848793 0.0509570186 -0.0177519767
410297540.0 0.0513761611 -0.0166390592 0.5268241216 -0.5939889958 0.5272651521 -0.5936411464 0.0504723481 -0.018361346
415297510.0 0.0510370023 -0.0173977913 0.5198240871 -0.5993789849 0.5210657589 -0.5997028194 0.0504629667 -0.0189401395
420297480.0 0.0505892035 -0.0182922222 0.5136446907 -0.6056625536 0.5141550843 -0.6052680515 0.05054182 -0.0193923857
425297450.0 0.050876634 -0.0188737888 0.5068044682 -0.6103603742 0.506795761 -0.6115234422 0.050086661 -0.020314672
430297420.0 0.0498626173 -0.0195025261 0.5008024553 -0.6170067207 0.5004456913 -0.6161985231 0.0498677086 -0.0208507799
435297390.0 0.0498345964 -0.0204675753 0.4929766266 -0.6230365204 0.4931197025 -0.6221346305 0.0488801037 -0.0213205454
440297360.0 0.0496454442 -0.0212170199 0.4863851807 -0.627404389 0.4858379435 -0.6275389772 0.0486677021 -0.0214707809
445297330.0 0.0494938972 -0.0218431571 0.479860516 -0.6325318556 0.479542299 -0.633308678 0.0485823026 -0.022113686
450297300.0 0.0488838136 -0.0222009073 0.4728756768 -0.6383304682 0.4729751555 -0.6378703906 0.048069489 -0.0224847939
455297270.0 0.0480168443 -0.0228907964 0.4657782401 -0.643437311 0.4654143187 -0.6438911891 0.0479614569 -0.0232574526
460297240.0 0.0480976961 -0.0233643307 0.4586568695 -0.6494591103 0.4585144195 -0.6491651643 0.0472700721 -0.0236753173
465297210.0 0.0475285816 -0.0239286884 0.4511335102 -0.6535974774 0.4508739201 -0.6540579065 0.0474461684 -0.0236156374
470297180.0 0.0472033388 -0.0251398109 0.4442402717 -0.6586495674 0.4449211513 -0.6587534404 0.0471191888 -0.0250217922
475297150.0 0.0466007781 -0.0250051589 0.4368315001 -0.6635070577 0.4369735738 -0.663505612 0.0465527227 -0.0253791548
480297120.0 0.0467612494 -0.0248788258 0.4294755299 -0.6686651493 0.4299293902 -0.668452751 0.0459566801 -0.0262241555
485297090.0 0.0461083869 -0.0268046244 0.4222272445 -0.6735667278 0.4222351532 -0.6728089159 0.0455458451 -0.0262655883
490297060.0 0.0462879905 -0.026456533 0.4144651872 -0.6776778518 0.414765725 -0.6779116031 0.0453257737 -0.0271538925
495297030.0 0.0449966898 -0.0277969536 0.4078704891 -0.6826818702 0.4073460592 -0.6827474716 0.0453064706 -0.0275777641
500297000.0 0.0446764702 -0.0277046721 0.4004908957 -0.6862147195 0.4000874503 -0.6870447816 0.0447761134 -0.0278404884
505296970.0 0.0450792598 -0.0283001269 0.3926902779 -0.6912018442 0.3924347371 -0.6910883835 0.0441503311 -0.0288387421
510296940.0 0.0444524963 -0.0291025934 0.3847321662 -0.6960117747 0.3854534131 -0.6960877734 0.044335406 -0.028793859
515296910.0 0.0438051152 -0.029294724 0.3766864324 -0.6998337877 0.3769087393 -0.6996287282 0.0437329395 -0.0300129439
520296880.0 0.0436380084 -0.0298326128 0.3697312914 -0.7036941019 0.3690300725 -0.7036063211 0.0438353018 -0.0294126182
525296850.0 0.0433763092 -0.0304372523 0.3621004577 -0.7073952082 0.3613627983 -0.7077204985 0.0436544953 -0.0301889714
530296820.0 0.0424527315 -0.0312441088 0.3533724834 -0.7120629553 0.3541350231 -0.7116982394 0.0429688599 -0.0311204702
535296790.0 0.0430218387 -0.0311255377 0.3458158321 -0.7155292854 0.3462287442 -0.7161457317 0.0429809902 -0.0310505504
540296760.0 0.0422184425 -0.0312936442 0.3379984505 -0.7195435311 0.3380774988 -0.7193072929 0.0422548785 -0.0323120234
545296730.0 0.0408109441 -0.0319040634 0.3303601524 -0.7228341821 0.3297372733 -0.7226444966 0.0417810622 -0.032495944
550296700.0 0.0415234267 -0.032128103 0.3225522396 -0.7266236438 0.3222134169 -0.7267133831 0.0418877482 -0.0328411539
555296670.0 0.0406810673 -0.0328778667 0.3144137885 -0.7309667905 0.3144420941 -0.7305489541 0.0411052812 -0.0341027644
560296640.0 0.041015788 -0.0331073078 0.3058984369 -0.7335872346 0.307023866 -0.7337148666 0.0402386134 -0.0334419657
565296610.0 0.0399034462 -0.0333087708 0.2983654123 -0.7370129802 0.2986231824 -0.7363094868 0.0403632039 -0.0339740879
570296580.0 0.039254372 -0.0336233302 0.2898866461 -0.7398105181 0.2903623511 -0.7405264455 0.0397137551 -0.0350321055
575296550.0 0.0392055464 -0.0343983948 0.2818156658 -0.7434379878 0.2820945607 -0.7434548375 0.0389377429 -0.0349998954
580296520.0 0.0388181768 -0.0343492466 0.2740263704 -0.7461152332 0.2738922653 -0.7466746917 0.0385870845 -0.0355626722
585296490.0 0.0382987108 -0.0345205844 0.2662031792 -0.7487638214 0.2657624703 -0.7489152362 0.0387103734 -0.0354299567
590296460.0 0.0385547242 -0.0350123473 0.2577986535 -0.7520214773 0.2583970498 -0.7525678646 0.0372076111 -0.0359518837
595296430.0 0.0379004122 -0.0353641574 0.2489413062 -0.7552208383 0.2492792714 -0.7548596069 0.0375171847 -0.0369554757
600296400.0 0.0377046852 -0.0356665578 0.2412458993 -0.7574717778 0.2405905094 -0.7580736292 0.0367461033 -0.0372071745
605296370.0 0.0363541916 -0.0360599889 0.2331440453 -0.7601591338 0.2324695597 -0.7606502264 0.0362489222 -0.0372466963
610296340.0 0.0367106132 -0.0358182278 0.2242208606 -0.762456308 0.2247479082 -0.7624430431 0.0355586146 -0.0375866491
615296310.0 0.0361776561 -0.0365067639 0.2164581243 -0.7655390875 0.2155787321 -0.7654010873 0.0353002473 -0.0375350065
620296280.0 0.0351842675 -0.0360570079 0.2074704778 -0.7672135938 0.2073859281 -0.7671964964 0.0345559593 -0.038007528
625296250.0 0.0346125559 -0.0364764617 0.1994057701 -0.7696750266 0.1991880299 -0.7701287434 0.0335930491 -0.0384262666
630296220.0 0.0342266561 -0.0368908305 0.1903711387 -0.7715148002 0.1906761948 -0.7717577819 0.033633292 -0.0388431002
635296190.0 0.0335271374 -0.0367993757 0.1821500066 -0.7737962825 0.1827908213 -0.7735707284 0.0328933239 -0.0391412927
640296160.0 0.0328868007 -0.0370523328 0.1741537897 -0.7760659231 0.1735045689 -0.776348815 0.0318862211 -0.0395422142
645296130.0 0.0329866536 -0.0368502915 0.1652227246 -0.777483734 0.1657510878 -0.7774142235 0.031446287 -0.0399904037
650296100.0 0.032372611 -0.0373764421 0.157210413 -0.7797762711 0.1571248041 -0.7800992626 0.031641986 -0.0402981282
655296070.0 0.0316216037 -0.0375004578 0.1476256653 -0.7813934751 0.1486952713 -0.7808831552 0.0302012775 -0.0402680489
660296040.0 0.03124278 -0.0376350955 0.1403359634 -0.7830901549 0.1401810485 -0.7828296217 0.0296736044 -0.0410822367
665296010.0 0.0308266117 -0.0380631202 0.1303395252 -0.7839122201 0.1314029056 -0.7838287424 0.0293230975 -0.0408818305
670295980.0 0.0302107325 -0.03784586 0.1225214459 -0.7857663972 0.1224729796 -0.784974855 0.0282133148 -0.0414533956
675295950.0 0.0293153505 -0.0382331625 0.1140069461 -0.7866682161 0.1140723126 -0.7870145762 0.0277694059 -0.041201507
680295920.0 0.0288507194 -0.0382363772 0.1060405738 -0.7881020977 0.1065889909 -0.7876862196 0.0275681071 -0.0423677273
685295890.0 0.0286459847 -0.0381804775 0.0968777585 -0.7893372356 0.0971021366 -0.7893186208 0.0273110655 -0.0413445294
690295860.0 0.0274649095 -0.0382518605 0.0884324796 -0.7900408196 0.087962692 -0.7902695731 0.0260414459 -0.0421646043
695295830.0 0.0273675998 -0.0382712642 0.0805611172 -0.7910427435 0.0801316957 -0.7908484389 0.0254955167 -0.0421387227
700295800.0 0.0271209243 -0.0383508115 0.0715663168 -0.7918770591 0.0713463663 -0.7914826833 0.0250663413 -0.042135682
705295770.0 0.025728983 -0.0386083243 0.0623560203 -0.7932127096 0.0626778182 -0.7926217703 0.0242880992 -0.0422210251
710295740.0 0.0255452218 -0.0386453156 0.0540048812 -0.7933310261 0.0541438179 -0.7931994109 0.0239580924 -0.0421797407
715295710.0 0.0247475883 -0.0382262071 0.0456488124 -0.7938643549 0.0456438465 -0.7938129486 0.0228748769 -0.0426296924
720295680.0 0.0247264929 -0.0383880739 0.0368620418 -0.7938966411 0.0368394252 -0.7946474112 0.0222738829 -0.0427189885
725295650.0 0.0231293879 -0.0383536552 0.0287043202 -0.7944384983 0.0283763763 -0.7941480128 0.0214878027 -0.0422932733
730295620.0 0.0222528458 -0.0387245101 0.0196074544 -0.7945541709 0.019156952 -0.7938465776 0.0206646276 -0.0421200031
735295590.0 0.0225671952 -0.0385830616 0.0108526901 -0.7948875132 0.0109082398 -0.79458652 0.0199585172 -0.0429456071
740295560.0 0.021867204 -0.0388430141 0.0024517392 -0.7949084732 0.0024975541 -0.7949710726 0.0191244253 -0.0423823811
745295530.0 0.0207907273 -0.0385178955 -0.0061130495 -0.793703713 -0.0054299988 -0.7945446247 0.0177487189 -0.0429443411
750295500.0 0.0201633227 -0.0385304957 -0.0149169618 -0.7950045581 -0.0149793453 -0.7947264667 0.0177219601 -0.0426093254
755295470.0 0.0192080939 -0.0383888122 -0.0235924806 -0.7948496576 -0.0234420963 -0.7947339617 0.0173876243 -0.0423421355
760295440.0 0.0187079014 -0.0377717604 -0.032819025 -0.7943543889 -0.0322966847 -0.7940362398 0.0167932965 -0.0433242139
765295410.0 0.0188100247 -0.0384644535 -0.0408734586 -0.7938248593 -0.0402887846 -0.7933649989 0.0162574394 -0.0430474675
770295380.0 0.0179603984 -0.0382647238 -0.0495266888 -0.7927675633 -0.0488813991 -0.7935898274 0.015041148 -0.0427590963
775295350.0 0.0171999066 -0.0382891313 -0.0581140031 -0.7929898349 -0.057792963 -0.7921860375 0.0150647341 -0.0425664829
780295320.0 0.0162603473 -0.0381240866 -0.0666979274 -0.7914754221 -0.0657072265 -0.7920775012 0.0144716025 -0.0429362045
785295290.0 0.0156658665 -0.0384751361 -0.0750640191 -0.7913625041 -0.0749033368 -0.7910510964 0.0130598418 -0.0421820755
790295260.0 0.0154335407 -0.0386342307 -0.0833243981 -0.7901833012 -0.0835275166 -0.7900709883 0.0125186566 -0.041642429
795295230.0 0.0146995048 -0.0386495419 -0.0921274744 -0.7892997108 -0.0922587632 -0.7895019306 0.0121826048 -0.0428296483
800295200.0 0.0134999724 -0.0379260104 -0.0997974051 -0.787459256 -0.1004530906 -0.7882511528 0.011030305 -0.0424751263
805295170.0 0.0129492423 -0.0383993088 -0.1089892653 -0.7869969595 -0.1085538481 -0.7874231223 0.0114396102 -0.0422172561
810295140.0 0.0128529573 -0.0382208512 -0.1171053056 -0.7856902787 -0.1178037032 -0.7857055322 0.0102003832 -0.0422176911
815295110.0 0.0119912723 -0.0379677452 -0.1260135686 -0.7843126708 -0.1255855318 -0.7843144909 0.0097280841 -0.0420984574
820295080.0 0.0115996614 -0.0378139635 -0.1337461924 -0.7828526915 -0.1343431344 -0.7832243397 0.0079770161 -0.0411374263
825295050.0 0.0104227693 -0.038073209 -0.1430020192 -0.7817637084 -0.1428875971 -0.7810362809 0.0087516091 -0.0409688901
830295020.0 0.00956251 -0.0379471852 -0.1516068055 -0.7797050652 -0.1513032011 -0.7799655804 0.0075894995 -0.0417852115
