!Created with skrf (http://scikit-rf.org).
# Hz S RI R 50.0 
!freq ReS11 ImS11 ReS21 ImS21 ReS12 ImS12 ReS22 ImS22
300000.0 -0.7759222939 -0.1771035375 0.0012648576 0.0004796672 0.0007124688 0.0007256507 -0.0461395396 -0.0764419932
5299970.0 -0.786190767 -0.009263383 3.89079e-05 -5.57645e-05 -7.89199e-05 0.0001032528 -0.0476956122 0.013995714
10299940.0 -0.7892825173 -0.0058249684 -7.21932e-05 6.45406e-05 -0.0001498099 8.68965e-05 -0.0418877082 0.0316109253
15299910.0 -0.7945206829 -0.0033171513 6.61712e-05 0.0001005148 -0.0001380094 -6.7835e-05 -0.0338018607 0.0458234585
20299880.0 -0.8009240135 0.0009741737 -0.0001421781 -1.20855e-05 5.50463e-05 1.15156e-05 -0.0244230354 0.0572847985
25299850.0 -0.8077826297 0.0068419022 0.0001553082 3.6212e-06 -0.0001087979 0.0001586865 -0.0135653191 0.0662808679
30299820.0 -0.8138638357 0.0137720231 -5.25022e-05 0.0001203946 -3.38698e-05 -0.0002126159 -0.0019262733 0.0728928515
35299790.0 -0.8187502739 0.0228255981 -8.14337e-05 -3.67676e-05 -3.8399e-05 -1.85564e-05 0.0090717127 0.0773883049
40299760.0 -0.8236415258 0.0323397408 0.0001682304 -7.98118e-05 1.82771e-05 -2.71964e-05 0.0201096679 0.0800210658
45299730.0 -0.8268195442 0.0423763019 -0.0001051618 2.13651e-05 1.92232e-05 -0.0001369794 0.0305531996 0.0815801119
50299700.0 -0.8294755905 0.0520740387 8.28254e-05 5.59739e-05 0.0001633121 5.75395e-05 0.0403649284 0.0813228879
55299670.0 -0.8310768877 0.0614846034 4.3661e-05 -0.0001357528 -9.83337e-05 -0.0001284108 0.0493951199 0.080375462
60299640.0 -0.832340211 0.0720627714 7.6869e-05 9.84359e-05 7.47475e-05 -5.19377e-05 0.0578207909 0.0782154468
65299610.0 -0.8331421697 0.0819337666 2.5766e-06 0.0001068214 3.79817e-05 3.51627e-05 0.0653309858 0.0760545922
70299580.0 -0.8335156852 0.0916746535 9.48393e-05 7.4517e-06 0.0001242252 -0.0002251835 0.0720254765 0.0731193187
75299550.0 -0.8335889435 0.1016705419 -5.07499e-05 2.16992e-05 0.0001301914 3.89502e-05 0.0788396049 0.0698952961
80299520.0 -0.8338364013 0.1116568756 0.0001705309 0.0002326396 0.0001405232 -1.09223e-05 0.0839992706 0.0662075436
85299490.0 -0.8326706725 0.1211910453 8.86125e-05 -6.63712e-05 1.47778e-05 -0.0002596187 0.0888959 0.0623843153
90299460.0 -0.8320724818 0.1316416355 6.75941e-05 -0.0001325637 -1.39492e-05 7.85295e-05 0.093195565 0.0586232161
95299430.0 -0.8317229752 0.1404679827 8.7844e-05 -0.0001064322 1.73056e-05 3.2775e-05 0.0972134908 0.054700343
100299400.0 -0.8303648799 0.1496646258 7.0922e-05 0.0001685785 -0.0001056032 0.0001768617 0.1011754139 0.0513094886
105299370.0 -0.8288299758 0.1593725628 0.0002225743 3.33361e-05 8.83816e-05 7.08865e-05 0.1044094108 0.0471398577
110299340.0 -0.8272745888 0.1685093473 -0.0001001141 -8.58313e-05 -8.77895e-05 2.0292e-05 0.1067945682 0.0427202847
115299310.0 -0.826524731 0.1771197681 -2.51585e-05 5.26861e-05 4.69599e-05 -0.0001409409 0.1093926764 0.0389763
120299280.0 -0.8244476774 0.186635827 4.3327e-06 -8.65332e-05 0.0001804179 0.0001028808 0.1111807662 0.0350269899
125299250.0 -0.8223257121 0.1958783367 0.0001277411 3.87356e-05 0.0001498756 5.11881e-05 0.1132657729 0.0312341301
130299220.0 -0.8208636432 0.2054553868 0.0001564438 -8.30801e-05 9.05299e-05 0.0001440339 0.115096557 0.0278084169
135299190.0 -0.8188771306 0.2138030018 4.44627e-05 0.0001376893 -4.91816e-05 2.35827e-05 0.1165527171 0.0238282221
140299160.0 -0.817631055 0.2231868333 -4.07752e-05 5.4598e-06 0.0001334845 0.0001171692 0.1171893502 0.0201442197
145299130.0 -0.8148063508 0.2323285915 -0.0001124988 0.0001370842 -0.0001133259 5.91936e-05 0.11865101 0.0168294693
150299100.0 -0.8119192694 0.2414194948 0.0001235343 0.0001350783 4.07904e-05 2.24422e-05 0.1190277905 0.0134275627
155299070.0 -0.8099972016 0.2496946625 4.24087e-05 -2.2911e-06 -3.38283e-05 3.59348e-05 0.1199057217 0.0100209121
160299040.0 -0.807492077 0.2585531252 0.0001053457 1.92137e-05 0.0002095436 0.0001866392 0.1204499257 0.0067453699
165299010.0 -0.8046675557 0.2675848504 0.0001223518 -0.000102778 1.66536e-05 -3.13669e-05 0.1210051986 0.0035241365
170298980.0 -0.8015972394 0.2760575001 0.0001604177 -5.15344e-05 -6.24606e-05 -8.76987e-05 0.1209487636 0.0005480116
175298950.0 -0.7989806624 0.284505029 0.0001608876 -0.000239966 0.0001830617 3.42661e-05 0.1213793977 -0.0025194546
180298920.0 -0.7958725414 0.2936756158 -1.4304e-05 0.0002636196 5.59573e-05 0.0002373049 0.1216491184 -0.0058935901
185298890.0 -0.7930788829 0.3021610497 -1.70793e-05 0.0001835926 6.36845e-05 1.88371e-05 0.1216219946 -0.0088628239
190298860.0 -0.7891824996 0.3112500588 6.65845e-05 5.52394e-05 5.36025e-05 -0.0001116004 0.1213431882 -0.0115032932
195298830.0 -0.7869463933 0.3192330499 3.09601e-05 -2.56248e-05 4.45981e-05 0.0002113705 0.1208578363 -0.0142371874
200298800.0 -0.7829147318 0.3281535467 0.0001276877 0.0001104591 -5.44701e-05 -1.14224e-05 0.1208168862 -0.0171849955
205298770.0 -0.7794197116 0.3359507741 -0.0001587456 0.0001419261 8.41452e-05 0.0002323139 0.1206819769 -0.019942701
210298740.0 -0.7764843876 0.3445935707 1.9716e-06 1.4797e-06 -9.64765e-05 -3.26397e-05 0.1200598956 -0.0224209266
215298710.0 -0.7725163346 0.3533567632 6.43692e-05 0.0001147279 0.000166743 -0.0001370311 0.1196079939 -0.0251849581
220298680.0 -0.7683576573 0.3610649448 7.676e-05 6.47992e-05 -1.36296e-05 9.47849e-05 0.1192681096 -0.0274291497
225298650.0 -0.7649751753 0.3699130234 2.09393e-05 0.0001265994 -7.1496e-06 -5.6501e-06 0.118693036 -0.0299161907
230298620.0 -0.7610331289 0.3780882465 4.55061e-05 7.87141e-05 6.71483e-05 0.0001226289 0.1179858445 -0.0325556575
235298590.0 -0.7570649515 0.3860918813 0.0001427078 1.87235e-05 5.8835e-05 3.4409e-05 0.1176336272 -0.0347422507
240298560.0 -0.7532533691 0.3937884994 -0.0001457526 0.0002308854 8.15106e-05 -6.01562e-05 0.117016644 -0.0369697874
245298530.0 -0.7486494315 0.4014355224 8.02915e-05 -4.0615e-06 8.05176e-05 -4.4259e-05 0.1157414359 -0.0392001017
250298500.0 -0.7450443101 0.4093641547 -0.0001318088 0.000122209 0.0002424425 3.49902e-05 0.1150169879 -0.0411618317
255298470.0 -0.7406003616 0.417369309 6.13307e-05 0.0001815175 -0.0001316108 -0.0001126663 0.1144518684 -0.0438439353
260298440.0 -0.7365423638 0.4253862759 0.0003495729 2.5168e-05 9.0467e-05 8.05288e-05 0.1131959981 -0.0458753556
265298410.0 -0.7316178836 0.4327391737 -6.05599e-05 -4.1555e-06 7.8909e-06 -4.88984e-05 0.112867206 -0.0476838121
270298380.0 -0.7276655312 0.4403507276 -8.34964e-05 1.31757e-05 0.0001031873 0.000238981 0.1119300978 -0.0501511191
275298350.0 -0.72348214 0.4481746527 0.000214186 9.5213e-06 -3.50563e-05 8.61798e-05 0.1110800478 -0.0518442004
280298320.0 -0.7187015566 0.4554699761 0.0002414746 0.0001040296 0.0002179232 1.8035e-06 0.1098232514 -0.0538259911
285298290.0 -0.7139904566 0.4631240154 -4.01578e-05 -1.98185e-05 0.0001026489 7.95114e-05 0.108755475 -0.0555235175
290298260.0 -0.7087685064 0.4710274489 0.0001030605 3.73988e-05 -7.05332e-05 8.3811e-05 0.1077040574 -0.0574274811
295298230.0 -0.7039465313 0.4782499073 0.0002045902 9.7084e-05 8.16047e-05 0.0001446011 0.1071041516 -0.0591048325
300298200.0 -0.6996553476 0.4856753752 0.0002163211 -0.0002057969 6.56432e-05 9.64419e-05 0.1060658114 -0.0608914402
305298170.0 -0.6948215069 0.4924498837 -0.0001151525 3.28221e-05 0.0001014784 6.59931e-05 0.1049803357 -0.0632101728
310298140.0 -0.6890136174 0.4997276783 3.96791e-05 0.0001257327 0.0001705368 0.0001285123 0.1040546249 -0.0648712491
315298110.0 -0.6848156218 0.5074094152 2.73545e-05 1.15483e-05 0.0002087807 1.5776e-06 0.1029756456 -0.0665873296
320298080.0 -0.6792745539 0.5141104193 0.0001892472 9.48355e-05 0.0001301865 -5.14092e-05 0.1017210211 -0.0686513127
325298050.0 -0.6733815225 0.5209214467 0.0002213581 0.0001236174 0.0002006665 0.0002469313 0.100586764 -0.070498687
330298020.0 -0.668284627 0.5277364008 0.0001171341 0.0001177088 0.0001309548 -0.0002210065 0.0992094314 -0.0724858272
335297990.0 -0.6630036017 0.5351336198 0.0001276199 -6.21294e-05 0.0002332317 -2.16306e-05 0.097696564 -0.0738802127
340297960.0 -0.657842189 0.5413839878 -4.63864e-05 0.0002263025 -5.32119e-05 0.0001955481 0.0964361511 -0.075408622
345297930.0 -0.6521815436 0.5477083571 -9.57544e-05 1.12882e-05 -0.0001225312 -5.4345e-05 0.094723409 -0.0767633285
350297900.0 -0.6462451825 0.5551191044 0.0001457327 1.77544e-05 4.19363e-05 4.33223e-05 0.0931037249 -0.0784238816
355297870.0 -0.6409323924 0.5615359542 0.0002187913 2.71433e-05 0.0001150129 -8.97103e-05 0.091667443 -0.0795566764
360297840.0 -0.6350002401 0.5682561034 -3.47227e-05 1.63353e-05 9.14032e-05 3.65701e-05 0.0902371866 -0.0810546299
365297810.0 -0.6297287084 0.5744591535 0.0002214915 2.1201e-05 7.0755e-05 0.0001232046 0.0891448903 -0.0823950794
370297780.0 -0.6238229478 0.5805948498 1.54375e-05 -0.0001166215 0.0001540409 0.0001230605 0.0873021147 -0.0834031799
375297750.0 -0.6179193952 0.5870610508 0.0001991403 1.36167e-05 -1.40195e-05 0.0001245947 0.0863270089 -0.084811311
380297720.0 -0.6122026349 0.5935452344 7.3105e-06 9.90446e-05 -2.2863e-06 4.45451e-05 0.0847173715 -0.0860728969
385297690.0 -0.6060436266 0.59966429 9.61253e-05 0.0001126176 0.0002095114 -3.35846e-05 0.0834193528 -0.0873366088
390297660.0 -0.5987122663 0.6049291051 0.000275749 -4.07414e-05 0.000178177 0.0001311449 0.0820463211 -0.0881665424
395297630.0 -0.5928345083 0.6122461546 0.0001806514 5.37542e-05 0.0003514418 0.0001456638 0.0802657217 -0.0895861976
400297600.0 -0.5865719938 0.6183516002 1.47009e-05 1.50278e-05 7.94231e-05 0.0002006105 0.0791446438 -0.0905094311
405297570.0 -0.5803112831 0.6234499217 3.90583e-05 -6.83563e-05 -1.76957e-05 0.0001531718 0.0778409065 -0.0916106426
410297540.0 -0.5737942455 0.6297309461 0.0003644175 -6.68441e-05 -0.0001685923 -0.0002112823 0.0759114068 -0.0925075901
415297510.0 -0.567895399 0.6354738174 1.8795e-06 4.96052e-05 0.0002328612 -6.68275e-05 0.0746257221 -0.0937328624
420297480.0 -0.5608998155 0.6407484505 0.0002011398 9.98125e-05 5.97537e-05 2.3271e-06 0.0732555376 -0.0945084478
425297450.0 -0.5543588575 0.6466779986 0.0002935263 -3.37994e-05 2.1863e-05 6.51104e-05 0.07149727 -0.0958643801
430297420.0 -0.5475374132 0.651776457 1.98584e-05 0.0001569139 -5.17717e-05 -8.9179e-06 0.0702463375 -0.0967834291
435297390.0 -0.5410123221 0.6574974346 0.0001127674 7.37666e-05 0.000112594 -9.73746e-05 0.0684833453 -0.097432505
440297360.0 -0.5339660764 0.663005318 -7.27059e-05 0.000102488 -1.16176e-05 -8.95448e-05 0.0670388452 -0.0986719745
445297330.0 -0.5269642095 0.668577627 0.0001129315 0.000130627 0.0001822788 5.35418e-05 0.0655718808 -0.0993114551
450297300.0 -0.5203902523 0.6734505197 0.0003529605 -0.0002597561 3.17121e-05 5.53885e-05 0.0642506425 -0.1002745065
455297270.0 -0.5133480495 0.6787502127 5.18934e-05 0.0001475706 7.09423e-05 4.05416e-05 0.0626575788 -0.1010514064
460297240.0 -0.5058164443 0.6842060059 -8.83833e-05 -3.8308e-06 4.69708e-05 -3.18224e-05 0.0605877926 -0.1022244242
465297210.0 -0.4992177327 0.6890222663 0.0001879887 1.58088e-05 0.0001366819 5.53374e-05 0.0594308585 -0.1027208662
470297180.0 -0.4923356904 0.6937722259 -7.1033e-06 -0.0001747919 1.57768e-05 -0.0001120882 0.0576456878 -0.1034013114
475297150.0 -0.4848837089 0.6987220476 0.0001351989 1.71958e-05 0.000296212 9.81349e-05 0.0565246879 -0.1042522041
480297120.0 -0.4768391006 0.7038517758 0.0003838105 -6.65192e-05 -0.0002026338 2.73244e-05 0.0546823198 -0.1050553376
485297090.0 -0.4699978327 0.7088444948 0.0002385546 -9.825e-05 0.0002295612 9.64833e-05 0.0526264085 -0.1055709917
490297060.0 -0.4615948761 0.7136855663 0.0002669282 0.0001285903 -6.73443e-05 -0.0001083625 0.0514724887 -0.1063722778
495297030.0 -0.4552261358 0.7176458461 1.89622e-05 -9.11281e-05 -0.0001161763 -0.0002194475 0.0499002372 -0.1072607222
500297000.0 -0.446797554 0.7224553773 0.0001701596 0.0001343032 0.0001002437 8.53759e-05 0.0480850866 -0.1075663248
505296970.0 -0.43941385 0.7271221587 0.0002055737 1.4325e-06 -6.0028e-05 -0.0002376385 0.0465169435 -0.1083753411
510296940.0 -0.4321275717 0.7312186294 0.0001242306 5.59916e-05 0.0002320555 -2.29615e-05 0.0449576506 -0.1085506313
515296910.0 -0.4244441504 0.7359384154 0.000235055 3.9033e-05 0.0002207934 0.0002345626 0.0431329472 -0.1091713418
520296880.0 -0.4158282568 0.7400270805 5.51142e-05 -0.0001590808 9.69447e-05 3.90515e-05 0.0420637753 -0.1096392784
525296850.0 -0.4087881896 0.7439245416 0.0001559856 1.41077e-05 0.0001112825 -1.19465e-05 0.0399867973 -0.1102643227
530296820.0 -0.4014190469 0.7477246873 0.0002149269 8.1902e-06 0.0004028735 2.55917e-05 0.0384158254 -0.1109655592
535296790.0 -0.3929494374 0.7516591048 0.0002641521 -3.05259e-05 9.37871e-05 0.0001160181 0.0370936223 -0.1114076581
540296760.0 -0.3848695394 0.7559154738 6.53498e-05 -9.74444e-05 0.0001523274 3.69415e-05 0.035106023 -0.1116816187
545296730.0 -0.377339314 0.7603947005 0.00022933 0.0001161708 4.60841e-05 -7.42014e-05 0.0337333882 -0.1121748022
550296700.0 -0.3689930659 0.7638912813 0.0003211106 -3.85645e-05 0.0002229566 0.0001361902 0.0316638804 -0.1123369177
555296670.0 -0.3613807874 0.7672631235 0.0002038641 -6.76189e-05 0.0001144944 7.54114e-05 0.0297139932 -0.1132108826
560296640.0 -0.3530543515 0.770275918 0.0002081785 0.0001097889 3.18558e-05 0.0003368581 0.0283851893 -0.1133006271
565296610.0 -0.3455895813 0.7745277843 0.0003277976 3.62125e-05 0.0002040208 -2.15845e-05 0.0268337234 -0.1134877085
570296580.0 -0.3370305179 0.778405379 0.0001026782 -7.75984e-05 2.45878e-05 -0.0001399075 0.0251594365 -0.1137585416
575296550.0 -0.3281349094 0.7812191024 0.0001802931 0.0001021246 -1.41923e-05 -3.46718e-05 0.0234811602 -0.1139083036
580296520.0 -0.3215003676 0.7841763894 0.0001559719 -7.50227e-05 6.83404e-05 0.0001867203 0.0217544205 -0.1143864809
585296490.0 -0.3128434879 0.7874585823 0.0002555384 1.616e-05 0.0001345656 0.0001473499 0.0201644326 -0.1142670574
590296460.0 -0.3040275228 0.7906320187 0.0001138766 -0.0001028588 0.0002701247 8.51311e-05 0.0181019355 -0.1147117486
595296430.0 -0.2963851913 0.793631331 0.0002126266 5.66567e-05 0.0002319853 0.0001505385 0.0164933735 -0.1147659619
600296400.0 -0.2882805288 0.7964173489 0.0003471239 -3.29416e-05 0.0002076963 1.2932e-05 0.0153294586 -0.1148178712
605296370.0 -0.2798886012 0.7994086733 1.33241e-05 -0.0001810474 9.10947e-05 0.0001128084 0.0136600593 -0.1150367418
610296340.0 -0.2712673475 0.8029151403 9.42683e-05 -8.75388e-05 0.0001895239 -4.85233e-05 0.0112942014 -0.1151430526
615296310.0 -0.2626764867 0.8053380605 2.06498e-05 3.74695e-05 0.0002035197 -0.0001602517 0.0100830738 -0.1149066339
620296280.0 -0.2550513051 0.8083190534 0.000173599 0.0002805976 9.75257e-05 5.11257e-05 0.0081715333 -0.1149985639
625296250.0 -0.2472448184 0.8104336726 0.0003139409 7.74212e-05 0.0002370788 0.0001074989 0.0064897666 -0.1152526791
630296220.0 -0.2383645104 0.8133726075 0.0001503124 -2.22488e-05 9.6053e-06 3.74743e-05 0.004723037 -0.1150470571
635296190.0 -0.2300997401 0.8156809542 0.0001977452 0.0001944141 0.0002884643 -9.74543e-05 0.0029096926 -0.1149829688
640296160.0 -0.2213994681 0.81769208 0.000113872 0.0001505503 -0.0001196865 -7.09601e-05 0.0015511126 -0.1151518784
645296130.0 -0.2138659883 0.8202120314 0.0001913235 -4.40989e-05 0.0001129049 -9.71527e-05 -0.0001297272 -0.1150342602
650296100.0 -0.2057789767 0.8222570018 -0.0001151313 7.70745e-05 -2.0588e-06 -7.99593e-05 -0.0017828226 -0.1149780613
655296070.0 -0.1973409759 0.8244903545 0.0003127446 -6.7187e-06 -1.25785e-05 -5.21648e-05 -0.0034883883 -0.1147853592
660296040.0 -0.1889661063 0.826019557 0.0001904537 -0.0001832754 -7.7794e-05 -1.39717e-05 -0.0050715869 -0.1150927889
665296010.0 -0.1811038302 0.8281441357 0.0002883166 5.56709e-05 -0.0001077176 0.0001978553 -0.0067583446 -0.1143114395
670295980.0 -0.1726366604 0.8307606531 0.0001932112 1.74166e-05 0.0003095473 -2.6737e-06 -0.0087578041 -0.1142670175
675295950.0 -0.1638619687 0.8323031429 0.0002499733 0.000125749 0.0001488853 -4.94367e-05 -0.0103005759 -0.1141129741
680295920.0 -0.157286608 0.8334086011 6.73e-05 -0.0002732537 0.0001873572 0.0001214984 -0.0116219502 -0.1137906531
685295890.0 -0.1475882528 0.8360561083 -4.00799e-05 -9.71975e-05 0.0002913604 7.11057e-05 -0.0137480906 -0.1136881756
690295860.0 -0.1394197065 0.8368012007 0.000213987 9.75146e-05 7.06497e-05 -0.000171386 -0.0149827369 -0.1135331004
695295830.0 -0.1308657136 0.8384355074 0.0003588682 -3.34544e-05 3.22163e-05 -1.02026e-05 -0.0169052051 -0.1129791011
700295800.0 -0.1225233044 0.8400392375 0.0002748947 -0.0003212255 0.0002501004 2.77251e-05 -0.0184318497 -0.1126132049
705295770.0 -0.1150908087 0.8412645213 0.0002653236 -0.0001467998 1.36775e-05 -0.000140537 -0.0204485695 -0.1122369029
710295740.0 -0.1067119855 0.842097988 2.74863e-05 -0.0001605691 0.0002837687 -3.12407e-05 -0.0214060211 -0.1116737684
715295710.0 -0.0974148665 0.8436838468 0.0001258843 -0.0002004678 -1.8598e-06 -0.0003003164 -0.0230465351 -0.1118064347
720295680.0 -0.0886328935 0.844371262 8.11137e-05 0.0001245697 -1.9557e-06 3.63136e-05 -0.0248847294 -0.1111493102
725295650.0 -0.0813598689 0.84548016 0.0002481196 8.09861e-05 -1.4032e-06 -0.0001396569 -0.0264437023 -0.1106477873
730295620.0 -0.0732170809 0.8466828525 7.23266e-05 0.0001559444 0.0002395571 -3.07843e-05 -0.0282873028 -0.1098950441
735295590.0 -0.065489698 0.8476084295 2.00545e-05 -7.55236e-05 0.000269542 -0.0001009258 -0.0297222884 -0.1096761844
740295560.0 -0.0575437412 0.8480168421 0.000385986 0.0001747657 6.2864e-05 9.42307e-05 -0.0314320536 -0.1091828195
745295530.0 -0.0490760284 0.8488913225 9.9715e-06 -9.5322e-05 0.000208952 -0.0001511659 -0.0329572865 -0.1084835835
750295500.0 -0.0410124414 0.8490855849 0.0002392707 7.551e-07 0.0001236197 2.96782e-05 -0.0348031003 -0.1080024445
755295470.0 -0.0323564125 0.8500129922 0.000203325 -9.35914e-05 7.55019e-05 -9.41347e-05 -0.0358305388 -0.1072503873
760295440.0 -0.0240985597 0.8506878497 0.0001136767 -0.0001736109 0.0003068319 -0.0001262859 -0.0375335418 -0.1071430183
765295410.0 -0.0163412674 0.8500037028 8.9097e-05 -0.0001207078 0.0001684636 3.77598e-05 -0.0392324377 -0.1062754495
770295380.0 -0.0082699872 0.851155414 0.0001399334 -7.0823e-05 0.0002481247 9.7111e-06 -0.0408639004 -0.1057748521
775295350.0 0.0005083947 0.8514172593 0.0001202578 4.07449e-05 -2.443e-05 -8.79827e-05 -0.0419366161 -0.1053469558
780295320.0 0.0089395774 0.8509118467 0.0001370602 -2.80497e-05 4.74672e-05 3.92611e-05 -0.0437334085 -0.1042294673
785295290.0 0.0167299347 0.8510434396 0.0002524561 4.83991e-05 -6.3388e-06 8.47938e-05 -0.0454383393 -0.1031457315
790295260.0 0.0251561321 0.8509329296 0.0001205048 -1.59731e-05 0.0002905489 -0.0001259484 -0.0466581994 -0.1026227941
795295230.0 0.0333319618 0.8507880152 1.6257e-05 2.36575e-05 0.000171266 -0.000193645 -0.0485347955 -0.1023671332
800295200.0 0.0413104546 0.8504625633 0.0001495082 6.25787e-05 0.0001827602 -8.69213e-05 -0.0499480479 -0.1013214811
805295170.0 0.0494147153 0.8510751994 0.0001020243 -0.0002012959 0.000186545 2.19712e-05 -0.0510812879 -0.1006120018
810295140.0 0.0579086123 0.8505100796 0.0001498172 -5.97117e-05 0.0002657568 -0.0001064738 -0.0528731578 -0.0996114398
815295110.0 0.0654819918 0.8493852229 0.0002862368 -0.0001206631 1.33904e-05 -2.09087e-05 -0.0544619605 -0.0990108496
820295080.0 0.0738498027 0.8493223687 0.0003545601 -2.85536e-05 0.0002188334 -0.0002319653 -0.0562941677 -0.097884262
825295050.0 0.0821417003 0.8483438062 0.000241205 -1.25532e-05 0.0001601648 7.4892e-06 -0.0572093169 -0.0969286295
830295020.0 0.0907451001 0.8473060462 0.0001584517 -0.0001638229 0.0003288791 -5.0689e-05 -0.0591468103 -0.0964770242
835294990.0 0.0984273276 0.8465341421 0.0002939982 -0.0002375477 -5.063e-05 6.79633e-05 -0.0600899904 -0.0950831829
840294960.0 0.1069462604 0.8454374748 -0.0001024496 6.306e-07 4.55414e-05 -2.28347e-05 -0.0613296296 -0.0944790005
845294930.0 0.1144314154 0.8445119362 0.0003030524 7.86915e-05 0.0002164037 -3.62544e-05 -0.0632850084 -0.093393422
850294900.0 0.1240837246 0.8433829099 8.15662e-05 -0.0001624914 2.54529e-05 -0.0002251555 -0.0642258401 -0.092738824
