!Created with skrf (http://scikit-rf.org).
# Hz S RI R 50.0 
!freq ReS11 ImS11 ReS21 ImS21 ReS12 ImS12 ReS22 ImS22
300000.0 -0.2353273106 -0.1076653117 0.467166827 0.0713309198 0.4712079553 0.0732678403 -0.2401917963 -0.1130315206
5299970.0 -0.2409012612 0.0068940837 0.4754013197 0.0053772599 0.4753526044 0.0057392352 -0.2448046943 0.0055260363
10299940.0 -0.2372111014 0.0200790806 0.4772630071 0.0063727826 0.4769259938 0.0065407965 -0.2415696803 0.0173386498
15299910.0 -0.2330905195 0.02987596 0.4807058209 0.0073414649 0.4805530457 0.0077673321 -0.2373581933 0.0264515408
20299880.0 -0.2272450781 0.0380196972 0.485102958 0.007844654 0.4853230501 0.0078630846 -0.2328364407 0.0339593893
25299850.0 -0.221613763 0.0443983782 0.4903413377 0.0065946572 0.4908031874 0.0069769026 -0.2277960156 0.040187873
30299820.0 -0.215678617 0.0494905401 0.4961440557 0.0049727163 0.495763789 0.0052050241 -0.2229277807 0.0446299542
35299790.0 -0.209910032 0.0541069623 0.5013578709 0.0017758748 0.501277887 0.0019642002 -0.2174777828 0.0486530369
40299760.0 -0.204619581 0.0568958469 0.5063575839 -0.0020732002 0.5064469564 -0.0021146061 -0.2128565445 0.0518840294
45299730.0 -0.1996049639 0.0599405436 0.5112515572 -0.006852681 0.5111533282 -0.0068672608 -0.2080658126 0.0543698491
50299700.0 -0.1944856459 0.0621792851 0.5151673262 -0.0128011435 0.515177965 -0.0130414095 -0.2035930572 0.0564944242
55299670.0 -0.190638519 0.06376005 0.5185123089 -0.0186071572 0.5190231292 -0.0187679723 -0.2000063039 0.0582547662
60299640.0 -0.1864258701 0.0649086244 0.5218856144 -0.0251961153 0.5220446965 -0.0247880654 -0.1963375409 0.0597580892
65299610.0 -0.183132529 0.0665095332 0.5251691199 -0.0304899798 0.5251046715 -0.0312115148 -0.1928854201 0.0605719796
70299580.0 -0.1795760594 0.0672857162 0.5274624905 -0.0378337174 0.527142042 -0.037801075 -0.1900883492 0.0613261863
75299550.0 -0.1765175576 0.0680244185 0.5293680552 -0.0445235053 0.5292980939 -0.0445636523 -0.1872420592 0.0626717607
80299520.0 -0.1741075077 0.0690456135 0.531639033 -0.0513237042 0.5309869116 -0.0513953605 -0.1846734903 0.0626419926
85299490.0 -0.1713481131 0.0694819551 0.5323075719 -0.058545128 0.5325657442 -0.0581419234 -0.1826425621 0.0632793225
90299460.0 -0.169456946 0.0702247054 0.5337562502 -0.0647511012 0.5338441452 -0.0652506903 -0.1803977724 0.0645093493
95299430.0 -0.1672142866 0.0711618542 0.5349782719 -0.0724777858 0.534427595 -0.0720902653 -0.1785347307 0.0649935358
100299400.0 -0.165310519 0.0718369581 0.5348267131 -0.0790294961 0.5345556149 -0.0790616049 -0.1770588711 0.0654433318
105299370.0 -0.1636175135 0.0724766711 0.5350347242 -0.0855102518 0.5348370855 -0.0864195765 -0.1747547617 0.0661227303
110299340.0 -0.1618193794 0.0731191941 0.5348711958 -0.0924418648 0.5349835012 -0.0928693116 -0.1737394685 0.0670851611
115299310.0 -0.160194629 0.0735354719 0.5349388196 -0.0990808182 0.5354274841 -0.0990924326 -0.1723331064 0.0670345406
120299280.0 -0.1591316739 0.0744591257 0.5348254894 -0.1064150818 0.5348213639 -0.1066103741 -0.171119888 0.0679080478
125299250.0 -0.1579638729 0.0750804442 0.5347786157 -0.1130295301 0.5347916222 -0.1134156735 -0.1697469072 0.0684745546
130299220.0 -0.1564322339 0.0760254464 0.5337920976 -0.1197846344 0.5340281134 -0.1198251502 -0.1688279871 0.069306621
135299190.0 -0.1552606497 0.0766391713 0.5334363213 -0.1261717138 0.5329188627 -0.1263262722 -0.1679109856 0.0701507668
140299160.0 -0.1543492578 0.0781882766 0.5326306783 -0.1331764869 0.5326382843 -0.1332467637 -0.1668292413 0.0713514769
145299130.0 -0.1528493065 0.0788805515 0.531901398 -0.1394485862 0.5313570996 -0.1392700387 -0.1663590864 0.0715062536
150299100.0 -0.1518767808 0.0797742792 0.5306841158 -0.1464046156 0.5301330197 -0.1456915732 -0.1651382534 0.0725182775
155299070.0 -0.1511647681 0.081284243 0.5295965109 -0.1531826033 0.5291012893 -0.1527917787 -0.1647425551 0.073566105
160299040.0 -0.149953419 0.0819973707 0.5280335126 -0.1588077685 0.5280707214 -0.1589914964 -0.1633476345 0.0747992068
165299010.0 -0.149139639 0.0831608304 0.5266869661 -0.1657578356 0.5268339347 -0.1658251951 -0.1627052875 0.0754224327
170298980.0 -0.1486279647 0.0843255892 0.5242047531 -0.1719737652 0.5248052262 -0.1718973073 -0.1617377056 0.0764491861
175298950.0 -0.1471789524 0.0856324714 0.5234672213 -0.1776869789 0.5234602791 -0.1779077977 -0.1612469138 0.0774069956
180298920.0 -0.1461884918 0.0865002279 0.5213732101 -0.184287857 0.5219513804 -0.1842259032 -0.1604061265 0.0788844339
185298890.0 -0.1451155878 0.0878242533 0.5193357683 -0.1906610602 0.5196992211 -0.190439758 -0.1596086801 0.0795643282
190298860.0 -0.1443000677 0.0887832157 0.5175565296 -0.196877456 0.5180122366 -0.1968036259 -0.1584741533 0.0808508726
195298830.0 -0.1435473532 0.090118149 0.5156720167 -0.202695336 0.5157156973 -0.2033127769 -0.1581011707 0.0818510276
200298800.0 -0.1426167422 0.0918916425 0.5143375718 -0.2083732924 0.5136742862 -0.2086039982 -0.1569104261 0.0831933262
205298770.0 -0.1416772343 0.0930694526 0.511589579 -0.2148543203 0.5115990594 -0.214737465 -0.1563240174 0.083989069
210298740.0 -0.140950892 0.0940457092 0.5093711857 -0.2214262809 0.5093039723 -0.221105968 -0.1555250261 0.0855156878
215298710.0 -0.1398427359 0.0958048814 0.5073504057 -0.2268741594 0.5069641745 -0.2266931449 -0.1549900137 0.0866193956
220298680.0 -0.1390255086 0.0969869596 0.5047272172 -0.2329066687 0.504743921 -0.2329516816 -0.1541019251 0.0882687782
225298650.0 -0.1372758394 0.0985874005 0.5019788108 -0.2384298331 0.5021637608 -0.2387295698 -0.1533778509 0.0892598378
230298620.0 -0.1368942088 0.099923648 0.4997789838 -0.2443282356 0.4998217831 -0.2448059239 -0.1525644596 0.0902963755
235298590.0 -0.1357733371 0.1010874811 0.4968923637 -0.2498520782 0.496717951 -0.2506583555 -0.1516104969 0.09159673
240298560.0 -0.1350888036 0.1024293724 0.4943940632 -0.2554906008 0.494470665 -0.2553391342 -0.1510034587 0.0932719991
245298530.0 -0.1337107888 0.103754596 0.4908883744 -0.2616071883 0.4915615357 -0.2615458503 -0.1501235029 0.0947710284
250298500.0 -0.1330331099 0.1051989984 0.488322924 -0.2668247965 0.4888750025 -0.2665506494 -0.1489164544 0.0957142581
255298470.0 -0.1318226839 0.1070155397 0.4856281773 -0.2732053218 0.4855780053 -0.2727077835 -0.1480882598 0.0969602898
260298440.0 -0.1309241274 0.1083259081 0.4827740273 -0.278134677 0.4826499565 -0.278377011 -0.1470009152 0.0984834129
265298410.0 -0.1293358696 0.1098299608 0.4799264302 -0.2839975605 0.4799978316 -0.2838311457 -0.1466125647 0.0995312275
270298380.0 -0.1284144897 0.1110232182 0.4765172323 -0.2893195194 0.4768288759 -0.2893131509 -0.1455659189 0.1012447272
275298350.0 -0.1272716531 0.1124005746 0.4731195494 -0.2950613028 0.4739042729 -0.2951933887 -0.1443927942 0.102577121
280298320.0 -0.1262900091 0.1140509384 0.4701090581 -0.2995982532 0.4700553742 -0.300359004 -0.1433469955 0.1039592423
285298290.0 -0.1249017978 0.1155539288 0.4673835713 -0.3053160897 0.4670927037 -0.3054054804 -0.142759407 0.1052663922
290298260.0 -0.123817631 0.1165251473 0.46383877 -0.3105155697 0.4639634082 -0.3106871682 -0.14107601 0.1067846041
295298230.0 -0.1225383161 0.1180469872 0.4607696516 -0.3157812427 0.4601474067 -0.3158125668 -0.1405859459 0.1081926316
300298200.0 -0.1208471795 0.1195251696 0.4565435166 -0.3211884278 0.457175243 -0.3213227314 -0.1394550667 0.10934927
305298170.0 -0.1194183099 0.1207068941 0.4535119755 -0.3267505906 0.4536797846 -0.3265048599 -0.1377723197 0.110671477
310298140.0 -0.1179821104 0.1218086624 0.4497042128 -0.3320667594 0.4500462356 -0.3321041363 -0.1370518957 0.1123537741
315298110.0 -0.1172486539 0.123165787 0.4460913662 -0.3367146244 0.4466301702 -0.3368576433 -0.1358331756 0.1135000115
320298080.0 -0.1158903156 0.1246774635 0.4426620666 -0.3419432373 0.442946979 -0.341626829 -0.1350294799 0.1145978266
325298050.0 -0.1144682497 0.1255560359 0.4390352206 -0.3472086185 0.4391561758 -0.3473257065 -0.133879439 0.1160592023
330298020.0 -0.1133369689 0.1272062291 0.4342659035 -0.3517929097 0.4348146928 -0.3519770527 -0.1331606247 0.1168822489
335297990.0 -0.1120513527 0.1280238233 0.4305381048 -0.3572287774 0.4307180112 -0.3570064355 -0.1322421246 0.1184571632
340297960.0 -0.1111555817 0.1297304961 0.4263050484 -0.3618152033 0.4265613468 -0.3616117285 -0.1310946226 0.119899745
345297930.0 -0.1101612898 0.1310940324 0.4227483 -0.3660268246 0.422288748 -0.3660552046 -0.1298065885 0.1207837673
350297900.0 -0.1083687453 0.1323960861 0.4183667631 -0.3705150603 0.4186558186 -0.3707629586 -0.1290547094 0.1229911391
355297870.0 -0.1073984331 0.1338021416 0.4145469371 -0.375602996 0.41417571 -0.3756894755 -0.1277953923 0.1243940161
360297840.0 -0.1055849148 0.1352228577 0.4098277089 -0.3799446763 0.4101929138 -0.3800435661 -0.1267156715 0.1258554082
365297810.0 -0.1041030311 0.1365313898 0.405484168 -0.3844061412 0.4059309508 -0.3848976707 -0.1257311589 0.1273206292
370297780.0 -0.1026700664 0.1378242203 0.4016203672 -0.3889539996 0.4015344334 -0.3893978671 -0.1244526443 0.1290231978
375297750.0 -0.1013474017 0.1394214522 0.3976356265 -0.3939257949 0.3974175931 -0.3938056198 -0.1229710104 0.1302506007
380297720.0 -0.0994625252 0.1401735637 0.3930828714 -0.3975946277 0.3931390364 -0.3976849065 -0.1219447974 0.1316353746
385297690.0 -0.0979999947 0.1416947487 0.3886307004 -0.4013529781 0.3884277038 -0.4022157673 -0.1206933277 0.1329711657
390297660.0 -0.0965704117 0.1427351085 0.38347666 -0.4061627921 0.3840562918 -0.4067536472 -0.1191358765 0.1341085871
395297630.0 -0.0947474831 0.1436623631 0.3799892179 -0.410043929 0.3793623275 -0.4105542886 -0.1180408368 0.1357401662
400297600.0 -0.0936511282 0.1454709309 0.3747628088 -0.4146710065 0.3753612827 -0.4148277738 -0.1174257661 0.1366914426
405297570.0 -0.0917698868 0.1466894776 0.3705539417 -0.4189762421 0.3707534441 -0.4189786414 -0.115696198 0.1384014799
410297540.0 -0.08995878 0.1476120033 0.3654719242 -0.4228856651 0.3657475936 -0.4226159657 -0.1143995782 0.1399085957
415297510.0 -0.0886162232 0.1491362505 0.3613190885 -0.426569875 0.3615351115 -0.4264443699 -0.1131371375 0.1414326601
420297480.0 -0.0869264 0.1497166738 0.3567296041 -0.4309172933 0.356172973 -0.4307227882 -0.1112005662 0.1423076255
425297450.0 -0.0848104831 0.1503526293 0.3518562545 -0.4345707853 0.3521891645 -0.4344020957 -0.1104741979 0.1439422982
430297420.0 -0.0835100613 0.1521167998 0.3472512234 -0.4385935993 0.3473001192 -0.4388684964 -0.1094439547 0.1453015287
435297390.0 -0.0816729983 0.153053404 0.342458166 -0.4419497686 0.3420830797 -0.4419013147 -0.1075599463 0.1464919909
440297360.0 -0.0799577107 0.1540600605 0.3370528599 -0.4459044468 0.3370232323 -0.4457643278 -0.106292748 0.1472275934
445297330.0 -0.0781705623 0.1552787388 0.332197267 -0.4499406858 0.3322307308 -0.4493810233 -0.1048683127 0.1483696713
450297300.0 -0.0762086644 0.1559606772 0.3272991967 -0.4531182327 0.3275613466 -0.4532407736 -0.1036257129 0.1500452616
455297270.0 -0.0747236747 0.1571250677 0.3226870279 -0.4568753126 0.3230018293 -0.4565389151 -0.1018125559 0.1512342869
460297240.0 -0.073396554 0.1581042827 0.3173234245 -0.4598080331 0.3171585722 -0.4602612451 -0.1007448857 0.1527224968
465297210.0 -0.0710980454 0.1588700902 0.312158534 -0.4634873152 0.3126457379 -0.4634194182 -0.0995097423 0.1532908492
470297180.0 -0.0695700156 0.1597007675 0.3074977911 -0.4667467074 0.3079983514 -0.4667363244 -0.0984789114 0.1547304157
475297150.0 -0.0680378248 0.1604641684 0.3025109861 -0.4698672957 0.3025433217 -0.4699770102 -0.0964672468 0.1558908027
480297120.0 -0.0658077734 0.1609242706 0.2970806143 -0.4731609723 0.2974256304 -0.4730916146 -0.0952699525 0.1571718304
485297090.0 -0.0641940101 0.1622043578 0.2918802354 -0.4765385028 0.2920834234 -0.4764288034 -0.0938254397 0.1577575916
490297060.0 -0.062097865 0.1628626935 0.2868767587 -0.4794480696 0.2871271912 -0.4798036297 -0.0921719244 0.1591610596
495297030.0 -0.0606503128 0.1641177117 0.2814607561 -0.4824178187 0.2812956008 -0.4828626573 -0.0904064771 0.1599984689
500297000.0 -0.0583482049 0.1645401278 0.2762712118 -0.4857553092 0.2765104647 -0.4857792092 -0.0894916772 0.1611378569
505296970.0 -0.0570867755 0.1652846941 0.2708480725 -0.4882900153 0.2708807455 -0.4882381836 -0.088099815 0.1623780119
510296940.0 -0.0550734397 0.166332424 0.2657177978 -0.4918297674 0.2654528511 -0.491448506 -0.0860399538 0.1637825647
515296910.0 -0.0532173323 0.1674051383 0.2597392872 -0.4943321603 0.2603983046 -0.4944131052 -0.0849396002 0.1646014589
520296880.0 -0.0512850317 0.1678148259 0.2544914135 -0.4969994558 0.2550589258 -0.4968758633 -0.0829749296 0.1655774976
525296850.0 -0.0497515363 0.1683137878 0.249611308 -0.499529478 0.2493542956 -0.5002367285 -0.0812821894 0.1665274403
530296820.0 -0.0475657974 0.1690892249 0.2443486552 -0.501984952 0.2435983178 -0.502444919 -0.0803708945 0.1672427437
535296790.0 -0.0456220704 0.1696253137 0.2382269172 -0.5048081499 0.2389071762 -0.5046211217 -0.0786470509 0.1680274309
540296760.0 -0.0439186013 0.1700453995 0.233164551 -0.5075575538 0.2327688579 -0.5075637648 -0.0771838889 0.1693385618
545296730.0 -0.0419806466 0.1710703023 0.22742952 -0.5096714569 0.2275195352 -0.5101908847 -0.0756268358 0.1698799278
550296700.0 -0.0404272994 0.1715077996 0.2220763421 -0.5122092059 0.2226590509 -0.5126127729 -0.0742146399 0.1711675296
555296670.0 -0.0378336066 0.1719443863 0.2164989723 -0.5150547149 0.2164738511 -0.5147745075 -0.0727484816 0.1722312496
560296640.0 -0.0363440055 0.1725177985 0.211117388 -0.5167133869 0.2112009691 -0.516976902 -0.0707689329 0.1729381811
565296610.0 -0.0346560699 0.1730991336 0.2051642418 -0.5194184205 0.2047721745 -0.5191317816 -0.0693901665 0.1733542168
570296580.0 -0.0321194305 0.1731084571 0.1991594998 -0.5214078493 0.1998656242 -0.5215823405 -0.0674569352 0.1748706456
575296550.0 -0.0304309955 0.1745415362 0.1940599379 -0.5232334041 0.194001151 -0.5233474286 -0.0653273983 0.1751526366
580296520.0 -0.0283805616 0.1746255654 0.1882830283 -0.525440248 0.1881504667 -0.5255145106 -0.06411336 0.1759638536
585296490.0 -0.0262657131 0.1749296975 0.1824917329 -0.5274646022 0.1824014664 -0.5274955297 -0.0627941992 0.1763618599
590296460.0 -0.0245739386 0.1750873974 0.1764286406 -0.5293971689 0.1764951112 -0.5299033497 -0.0606871347 0.1778218697
595296430.0 -0.0226647618 0.1758231725 0.1714705027 -0.5310595105 0.1712522068 -0.5315940411 -0.0590395383 0.1783084719
600296400.0 -0.0207993448 0.1761914267 0.1653705663 -0.5329698768 0.1657171461 -0.5331527826 -0.0575033616 0.179081546
605296370.0 -0.0187366671 0.1767084118 0.1595994009 -0.5345499563 0.1594241268 -0.5350398682 -0.0559250452 0.179740445
610296340.0 -0.0169420929 0.176993404 0.1540221771 -0.5364561578 0.154140514 -0.5369340054 -0.0540387603 0.1807114906
615296310.0 -0.0145825013 0.1772644643 0.1478747363 -0.5374800954 0.1476451836 -0.5383087308 -0.0522831191 0.1812574254
620296280.0 -0.0130094522 0.1776422758 0.1423327149 -0.5392964718 0.1420835255 -0.5396870784 -0.050357653 0.1813884445
625296250.0 -0.0107351765 0.1781560823 0.1360240752 -0.5415951144 0.1362435218 -0.5413503565 -0.0484685765 0.1825084281
630296220.0 -0.0087259188 0.1782473897 0.1301608045 -0.5425956945 0.1309032174 -0.5425356062 -0.0473392407 0.1833786313
635296190.0 -0.0068072624 0.1784643438 0.1243632581 -0.5432516091 0.1244698331 -0.5434055446 -0.0456033806 0.1833544302
640296160.0 -0.0048676889 0.1786186672 0.1187270457 -0.544805093 0.1186721168 -0.5450361967 -0.0431593928 0.1840711407
645296130.0 -0.0028349391 0.1792580781 0.1125599997 -0.5463734542 0.1130905761 -0.5461667799 -0.0426393634 0.1845618795
650296100.0 -0.0011461542 0.1794281122 0.1075616321 -0.5473496176 0.1071119296 -0.547335544 -0.0402858792 0.1852116113
655296070.0 0.0011834577 0.1790831192 0.1013086945 -0.5482117949 0.1006829811 -0.5485817163 -0.0379928703 0.186179954
660296040.0 0.0024448 0.1798227803 0.0952641335 -0.549075056 0.095525932 -0.5489974716 -0.0366249072 0.1859561512
665296010.0 0.005017157 0.1793195164 0.0892400469 -0.5502431838 0.0894182664 -0.5504512207 -0.0350459191 0.1870641144
670295980.0 0.0075620555 0.1796821538 0.0829386114 -0.5515126507 0.0835481946 -0.5513735489 -0.0334689968 0.1873908984
675295950.0 0.0091460838 0.1796147149 0.0773311747 -0.5525242962 0.0773699368 -0.5529124688 -0.0312816416 0.1879528088
680295920.0 0.0110457913 0.180021475 0.0712181576 -0.5529820788 0.0714209553 -0.5532310924 -0.0295080006 0.1882547836
685295890.0 0.0129893314 0.1800366246 0.0655570093 -0.5535678923 0.0653019844 -0.5541723446 -0.0278810445 0.1890234347
690295860.0 0.015190941 0.1798713887 0.0592786652 -0.5539824584 0.0591911171 -0.5539430897 -0.0258382243 0.1892351383
695295830.0 0.0174757564 0.1796902253 0.0526119148 -0.5548295287 0.0531180232 -0.555242727 -0.0244244905 0.1894995715
700295800.0 0.0195554375 0.180006346 0.0471263927 -0.5554286003 0.0474903024 -0.5555753333 -0.0226686466 0.1894223803
705295770.0 0.0213618367 0.1796524475 0.041434235 -0.5556882646 0.0416962647 -0.5560940581 -0.0209504184 0.1903296024
710295740.0 0.0234766063 0.1801477998 0.0353850498 -0.5559615084 0.0353234023 -0.5560299912 -0.0194057406 0.1906067657
715295710.0 0.0253948588 0.1795950889 0.0290776952 -0.5567482552 0.0295958079 -0.5564887172 -0.017055666 0.1907032562
720295680.0 0.0272791256 0.179204736 0.0232557934 -0.5565598342 0.0233708986 -0.557421919 -0.0150046816 0.1913930898
725295650.0 0.0297009909 0.1794007402 0.0169261024 -0.5566046934 0.0174014415 -0.5568355303 -0.0133297294 0.1915582706
730295620.0 0.031132751 0.179003533 0.0113069121 -0.5568762591 0.0112142704 -0.5567645953 -0.0112893395 0.1912988957
735295590.0 0.033643137 0.1789765639 0.0054658365 -0.557318798 0.0054985721 -0.5572115334 -0.0095267395 0.1919965675
740295560.0 0.0354094003 0.1789245582 -0.0008468321 -0.5567265042 -0.0005267386 -0.5572567269 -0.0074902774 0.192229765
745295530.0 0.0375033172 0.1782809107 -0.0067445775 -0.5570576478 -0.0063677274 -0.5572047289 -0.0060408627 0.1926683157
750295500.0 0.0393834734 0.1781307348 -0.012626895 -0.5567182672 -0.0124312964 -0.5567469259 -0.0037944714 0.1920730594
755295470.0 0.0419257865 0.178006633 -0.0183503124 -0.5568858896 -0.0184033639 -0.5569484035 -0.0021839321 0.1930454036
760295440.0 0.0435901197 0.1777042992 -0.0248658147 -0.5563785979 -0.0245560811 -0.5565453515 -0.0007465381 0.192973577
765295410.0 0.0452008426 0.1771487545 -0.0301631743 -0.5561283484 -0.030337933 -0.5568196182 0.0017343654 0.1937832707
770295380.0 0.0477059437 0.1770441647 -0.0368415054 -0.5554167952 -0.0364497189 -0.5560255047 0.0039225256 0.1933538774
775295350.0 0.0495720288 0.1767659662 -0.0427500278 -0.5551446862 -0.042141397 -0.5550260992 0.0048930315 0.1931239578
780295320.0 0.0515940556 0.1760486558 -0.0480976739 -0.5549491237 -0.0480570016 -0.5547161258 0.0071946487 0.1935361648
785295290.0 0.0535455702 0.1762933393 -0.0544954188 -0.5538182063 -0.0540971327 -0.5541684272 0.0087212825 0.1939348111
790295260.0 0.055158467 0.1754967747 -0.060123364 -0.5534448789 -0.0603563612 -0.5537900489 0.0110252202 0.193838776
795295230.0 0.0572017692 0.1752243166 -0.065844008 -0.5523408965 -0.066362859 -0.5530326999 0.0128822908 0.194331856
800295200.0 0.059662136 0.174653407 -0.072595826 -0.5523616172 -0.0726529474 -0.5523662142 0.0144859953 0.1941019373
805295170.0 0.0609459344 0.1741098089 -0.0781140678 -0.5507256583 -0.078132638 -0.5510119538 0.0162637683 0.1936421962
810295140.0 0.0631808762 0.1736264279 -0.0836910082 -0.5504537134 -0.0834816197 -0.5507232957 0.0183966355 0.1941222925
815295110.0 0.065104263 0.1730937389 -0.0899671716 -0.5491369449 -0.0899001049 -0.5493083659 0.0200511014 0.1937886062
820295080.0 0.0669695361 0.1720334161 -0.09585884 -0.5481092705 -0.0956518996 -0.5484601698 0.0214269124 0.1938917316
825295050.0 0.0690922679 0.1715501829 -0.1018823992 -0.5465523455 -0.1015332949 -0.5471199709 0.0239354977 0.194115755
830295020.0 0.0711651995 0.1713856158 -0.1079325376 -0.5460593554 -0.1079847826 -0.5462454923 0.0255824476 0.1935829455
