!Created with skrf (http://scikit-rf.org).
# Hz S RI R 50.0 
!freq ReS11 ImS11 ReS21 ImS21 ReS12 ImS12 ReS22 ImS22
300000.0 -0.2418814099 -0.0834978213 0.4733242975 0.0547902541 0.4706839408 0.0519780198 -0.2398269208 -0.089121376
5299970.0 -0.244956233 0.006743035 0.4750271628 0.0050883014 0.4747044923 0.0047701828 -0.2416177415 0.0079698419
10299940.0 -0.2418549502 0.0179481695 0.4765746808 0.0060078419 0.4770059355 0.0063935715 -0.2381471193 0.0206151286
15299910.0 -0.2376768871 0.0267914743 0.4808472261 0.0072396958 0.4809611695 0.007446467 -0.2334888021 0.0300022362
20299880.0 -0.2330506902 0.0340767599 0.4850685258 0.0080338328 0.485264023 0.0080150123 -0.2283953458 0.0377631927
25299850.0 -0.2278100866 0.0402961594 0.4902284993 0.0070696128 0.4902352482 0.006960066 -0.2221409919 0.0444293103
30299820.0 -0.2226622596 0.0452201218 0.4956921055 0.004769882 0.4955411554 0.0051384043 -0.2163900121 0.0497030955
35299790.0 -0.2174614396 0.0490975223 0.5011364129 0.0013358101 0.5011081495 0.0015315819 -0.2108042047 0.0543539288
40299760.0 -0.2128192075 0.0525155346 0.5059673157 -0.0024400687 0.5062779936 -0.0023760255 -0.2054272476 0.0571766719
45299730.0 -0.2077669663 0.0547841356 0.5103628402 -0.0070566371 0.51105099 -0.0068314283 -0.200674613 0.0602914787
50299700.0 -0.203767429 0.0567787306 0.5149711035 -0.0124596218 0.51500022 -0.0122765082 -0.1957600497 0.0622480554
55299670.0 -0.2002022455 0.0583846196 0.5188488039 -0.0186480572 0.5185993144 -0.0183750634 -0.1912321012 0.0638451064
60299640.0 -0.1958246025 0.0599869365 0.5216231017 -0.0249068974 0.5223122565 -0.0243809663 -0.1875960519 0.0650642342
65299610.0 -0.1929545863 0.0609859388 0.5249488762 -0.0311158517 0.525188649 -0.0312662511 -0.1841843355 0.0664559665
70299580.0 -0.1899496402 0.0619955381 0.5273496082 -0.0376274091 0.5270777243 -0.0376936586 -0.1805396926 0.0672565424
75299550.0 -0.1870869157 0.0628858836 0.5290876743 -0.0444257294 0.5290170071 -0.0442921412 -0.1776038787 0.0680445829
80299520.0 -0.1844651532 0.0635645119 0.5310891161 -0.0511912553 0.5311323291 -0.0514342427 -0.1749334279 0.0689601763
85299490.0 -0.1826288771 0.0640029998 0.531793973 -0.0578261306 0.5318926243 -0.0579480442 -0.1725692397 0.0693992434
90299460.0 -0.1803010922 0.0647432693 0.5328476511 -0.0655730048 0.53358815 -0.0652994479 -0.1702478742 0.0704222042
95299430.0 -0.1780245364 0.0651235897 0.5343159441 -0.0721051428 0.5345178338 -0.071945932 -0.1679759087 0.0710651796
100299400.0 -0.1764771255 0.0662467279 0.5339496143 -0.0789966523 0.5344245302 -0.0785861528 -0.165984324 0.0714276357
105299370.0 -0.1745173819 0.0668206314 0.5342859029 -0.0861158578 0.5350910164 -0.0858147642 -0.1637919072 0.0727358826
110299340.0 -0.1733683191 0.0673108233 0.5354825526 -0.0929051478 0.5346682814 -0.0925644802 -0.1630028311 0.0731820905
115299310.0 -0.1719458488 0.0681359946 0.5350516862 -0.0992181035 0.5349875807 -0.0993114542 -0.1612950961 0.0740476285
120299280.0 -0.1705459805 0.0685259696 0.5346661711 -0.1065000619 0.5346460387 -0.1061535464 -0.1595267381 0.0748781594
125299250.0 -0.1696741012 0.0690808345 0.5343689058 -0.1124453954 0.5344692601 -0.1128125763 -0.1587312189 0.0753075418
130299220.0 -0.1685728205 0.0701407849 0.5332966712 -0.1193933877 0.5338467644 -0.1194690005 -0.1571464055 0.0761498508
135299190.0 -0.1675397089 0.0712229177 0.5328869948 -0.1264454643 0.5331734335 -0.1262002931 -0.1558819807 0.0770437809
140299160.0 -0.1666366211 0.0721135009 0.5322336986 -0.1328186728 0.5322701118 -0.1331226856 -0.1548110459 0.0784376621
145299130.0 -0.1655128862 0.0727928225 0.5317901578 -0.1391705589 0.5309450339 -0.1396920032 -0.153885935 0.0793574092
150299100.0 -0.1647189922 0.0737978215 0.5299698671 -0.1456398478 0.5303165513 -0.1456909559 -0.1526323052 0.0807522767
155299070.0 -0.1639802217 0.0745083107 0.5293880114 -0.1528956265 0.5288881367 -0.1524784529 -0.1517195662 0.0815643
160299040.0 -0.1629499848 0.0756330815 0.5275246486 -0.1586270224 0.5271429314 -0.159086012 -0.1513045707 0.0826973015
165299010.0 -0.162341445 0.0769968277 0.5263609211 -0.165934409 0.526120903 -0.1655937533 -0.1497778029 0.0838132666
170298980.0 -0.1616400586 0.0776765421 0.5245680445 -0.1719556392 0.5248539131 -0.1718505708 -0.1489287727 0.0850043499
175298950.0 -0.1611595088 0.0790078529 0.5237331268 -0.1782245803 0.5228983164 -0.1781216074 -0.1482084442 0.0862150527
180298920.0 -0.1602773319 0.0803106496 0.5216042764 -0.1847374704 0.5214721032 -0.1839816953 -0.1471928966 0.0873715125
185298890.0 -0.1590186584 0.0811210781 0.5191945169 -0.1905862847 0.5192706711 -0.1903048803 -0.1460405498 0.0886876665
190298860.0 -0.158695239 0.0823136845 0.5174078378 -0.1964179763 0.5176843111 -0.1964568287 -0.1452738015 0.0894337382
195298830.0 -0.1578515064 0.0831677075 0.5150782536 -0.2022322434 0.5156910059 -0.2024607734 -0.1439931131 0.0907935504
200298800.0 -0.1568424036 0.0846582614 0.5131457914 -0.2090111056 0.5134676384 -0.209399084 -0.1435757003 0.0921232198
205298770.0 -0.1561359814 0.085852291 0.5108349604 -0.2150868559 0.5111067421 -0.2146630601 -0.1420879762 0.093063963
210298740.0 -0.1554568075 0.0870607572 0.5087902051 -0.2205033803 0.5088521048 -0.22026901 -0.1410497575 0.094972574
215298710.0 -0.1550525 0.0883157415 0.5069273759 -0.2264506337 0.5063849622 -0.2268750585 -0.1403863256 0.096087248
220298680.0 -0.1541807175 0.0892243131 0.5035539905 -0.232444072 0.5039809098 -0.232594222 -0.1398108125 0.0970828272
225298650.0 -0.1533917534 0.0906084271 0.5017222877 -0.2385901162 0.502042944 -0.2384447123 -0.1391587305 0.0986074588
230298620.0 -0.1526648241 0.0921903915 0.4993301768 -0.2439935111 0.499572075 -0.2440936357 -0.1378605257 0.0998354448
235298590.0 -0.1518448045 0.0937166656 0.4969555368 -0.2502872171 0.496664085 -0.2496982184 -0.1366448474 0.1012462673
240298560.0 -0.1511787705 0.0950506851 0.4941193312 -0.255698892 0.493818542 -0.2555484819 -0.1358627255 0.1029164578
245298530.0 -0.1503257882 0.0963010206 0.4913872997 -0.2615215552 0.4912329853 -0.2616989048 -0.1344836287 0.1037704266
250298500.0 -0.14918132 0.0977719002 0.4877736699 -0.2671805774 0.4877758204 -0.2667615985 -0.1337685061 0.1054262611
255298470.0 -0.1486819366 0.0983526557 0.4846101838 -0.2721476565 0.4852799765 -0.2723705847 -0.1324248043 0.1065496612
260298440.0 -0.1479192552 0.0997139023 0.4824193597 -0.2783440848 0.4829162822 -0.2777793804 -0.1312500253 0.1081676117
265298410.0 -0.1466641553 0.1016955419 0.479245606 -0.2838895705 0.479569925 -0.2836041171 -0.1302106529 0.1097337391
270298380.0 -0.1460567057 0.1029867041 0.4762130156 -0.2888853515 0.4763412013 -0.2891316376 -0.1294142226 0.1113854524
275298350.0 -0.1450501514 0.1041680796 0.4729407722 -0.2944562766 0.4734513706 -0.2944760864 -0.1277742387 0.1123752296
280298320.0 -0.1440416111 0.1058414453 0.4703631655 -0.299720108 0.4702281434 -0.3000991844 -0.1267475659 0.1138321645
285298290.0 -0.1432151125 0.1069897192 0.4672743277 -0.3047881134 0.4666445303 -0.3051083397 -0.1257391741 0.1151660445
290298260.0 -0.1420352791 0.1087726477 0.462833782 -0.3105805932 0.4636303608 -0.3104977338 -0.1243155337 0.116946197
295298230.0 -0.141116889 0.1094915011 0.4603040735 -0.3159150928 0.4601099292 -0.3155357924 -0.1229136745 0.1181294409
300298200.0 -0.1403503624 0.1109864081 0.4570071114 -0.320817875 0.4569985073 -0.3208992272 -0.1222634054 0.1193965312
305298170.0 -0.1389380606 0.1120780255 0.4526064391 -0.326632109 0.4532928458 -0.3264104317 -0.1204044658 0.1206763104
310298140.0 -0.1382000968 0.1137594405 0.4497316924 -0.3317276126 0.4497551016 -0.3314114607 -0.1192137334 0.1219733063
315298110.0 -0.1371407318 0.1146492579 0.446194596 -0.3365631279 0.4462749577 -0.3368103364 -0.1179037367 0.1233488442
320298080.0 -0.1358676682 0.1161296023 0.4416041056 -0.3421170042 0.4422914635 -0.3416938406 -0.1165886489 0.1245671963
325298050.0 -0.1353288986 0.117197917 0.4380573586 -0.3471827031 0.438507061 -0.3467795401 -0.1158667716 0.1257645798
330298020.0 -0.1341259211 0.1183616165 0.4340345889 -0.3515263727 0.4344143775 -0.3519094667 -0.114910422 0.1271153994
335297990.0 -0.1332478999 0.1193441251 0.430019169 -0.3563861449 0.4298378844 -0.3567636035 -0.1138165968 0.1286961882
340297960.0 -0.132580523 0.1213213147 0.4255862488 -0.3612982509 0.4259379009 -0.3615120776 -0.1121788301 0.1299960521
345297930.0 -0.1316498941 0.1227677925 0.4221244717 -0.3660078786 0.4219854686 -0.3661101339 -0.1112399114 0.1309848054
350297900.0 -0.1306639477 0.1239402797 0.4175983953 -0.3706963756 0.4178165189 -0.370865136 -0.1097793138 0.1324124441
355297870.0 -0.1291139877 0.1257531197 0.4135096319 -0.3752537369 0.4141702646 -0.3749104696 -0.1085314368 0.1336760935
360297840.0 -0.1285155607 0.126744541 0.4100974325 -0.3797797717 0.4101079804 -0.3798514054 -0.1070641714 0.1353857211
365297810.0 -0.1273320601 0.1284158792 0.405384565 -0.3842633706 0.4055662488 -0.3843127813 -0.1055557306 0.136668248
370297780.0 -0.1257414096 0.1294205337 0.400938705 -0.3883663873 0.4017610219 -0.3882417247 -0.1044764405 0.1378426748
375297750.0 -0.1244591522 0.1309839053 0.3969890459 -0.3931942187 0.3975998551 -0.3929036966 -0.1025783465 0.1388828135
380297720.0 -0.1234997796 0.1322516802 0.3924314646 -0.3975086959 0.3928971225 -0.3967218312 -0.1015788179 0.1402657934
385297690.0 -0.1225911622 0.1334387383 0.3884706592 -0.4018653323 0.3876792504 -0.4018699111 -0.0996808058 0.1416354834
390297660.0 -0.1211071319 0.1348936758 0.3837873661 -0.4058487364 0.3838182793 -0.4057145894 -0.098648751 0.1430184463
395297630.0 -0.1200168315 0.1361946139 0.3795312385 -0.4100815622 0.3796707738 -0.4100880005 -0.0963621014 0.1440751304
400297600.0 -0.1186699706 0.1375501916 0.374228661 -0.4146676924 0.3745981499 -0.4142993296 -0.0947953558 0.1455156763
405297570.0 -0.1175547978 0.1389089084 0.3703267853 -0.4182640142 0.3704729229 -0.4180544513 -0.0936067845 0.1465068664
410297540.0 -0.1158943289 0.139779373 0.3656285714 -0.4225211874 0.3661069919 -0.4226040702 -0.0919171524 0.148067489
415297510.0 -0.1144854523 0.1411742525 0.3606330307 -0.4267448974 0.3612739184 -0.4266759995 -0.0906716309 0.1493138388
420297480.0 -0.1137066879 0.1425516704 0.3563119326 -0.4303098141 0.3562633167 -0.4304576506 -0.089091888 0.1498930602
425297450.0 -0.1122408151 0.1436319999 0.3518234161 -0.4341526167 0.3517628278 -0.4342462526 -0.0873368064 0.1516890902
430297420.0 -0.110749492 0.1447050455 0.3469332617 -0.4378481726 0.346855285 -0.4378220501 -0.0857184088 0.1524641909
435297390.0 -0.1095116922 0.1461079451 0.3416164974 -0.4415499352 0.3419046148 -0.4417897039 -0.0834753851 0.1534070806
440297360.0 -0.1080369291 0.1473050632 0.3368794427 -0.4454505512 0.337145094 -0.4455027769 -0.082378955 0.1546208579
445297330.0 -0.1066019581 0.1482717297 0.332620024 -0.4494922369 0.3326886967 -0.4488128588 -0.0806992118 0.1553409178
450297300.0 -0.1052917476 0.1492417115 0.3275064772 -0.452246303 0.3273344787 -0.4526709461 -0.0787214601 0.1562837063
455297270.0 -0.103791461 0.1507952146 0.3220078215 -0.4562237888 0.3227236444 -0.456415996 -0.0770989447 0.1576783078
460297240.0 -0.1025560264 0.1515996182 0.3172358592 -0.4594616414 0.3175860634 -0.4595838215 -0.0756376523 0.1592078724
465297210.0 -0.1009347564 0.1529940966 0.3126963952 -0.4632266463 0.3125988951 -0.4635769635 -0.0737134187 0.1597367739
470297180.0 -0.0994677045 0.1539199076 0.30713812 -0.4661833703 0.3074836703 -0.4664947993 -0.0719155957 0.1609096745
475297150.0 -0.097830259 0.1548640252 0.3021663399 -0.4693057659 0.3022498621 -0.4695151984 -0.0696873611 0.1614835863
480297120.0 -0.0962705552 0.1565164449 0.2969714213 -0.4734951142 0.2969796137 -0.4734001777 -0.0681253666 0.1625041876
485297090.0 -0.094886584 0.1573876755 0.2919386616 -0.4756919565 0.2920626156 -0.4756750133 -0.0664700747 0.1632062891
490297060.0 -0.0936194356 0.1587081793 0.2865069807 -0.4798045594 0.286784565 -0.4790609053 -0.0647721154 0.1643375985
495297030.0 -0.0920553069 0.1596502773 0.2808019779 -0.4824447364 0.2817730804 -0.4824770196 -0.0631822969 0.1650425581
500297000.0 -0.0904428192 0.1604868002 0.2759400972 -0.4853525866 0.2756876431 -0.4850112787 -0.0610972576 0.1664744501
505296970.0 -0.0887723678 0.1613969982 0.2709575546 -0.4880574963 0.2703874246 -0.4884617179 -0.0593380134 0.1670460872
510296940.0 -0.0874547982 0.1624838982 0.2654000232 -0.4910419243 0.2653322874 -0.4915699957 -0.0573098041 0.1680186831
515296910.0 -0.0856900168 0.1636717917 0.2597852285 -0.4942829886 0.2602061381 -0.4936799036 -0.0555721117 0.1685415671
520296880.0 -0.0844249545 0.1644865884 0.2548881205 -0.4969124764 0.2551048463 -0.4968415486 -0.0540016364 0.1693287444
525296850.0 -0.0824398163 0.1649119144 0.2488300881 -0.4992708774 0.2495610573 -0.4993232317 -0.0519049245 0.1699883856
530296820.0 -0.080696622 0.1661263197 0.243694914 -0.5024502261 0.2437675655 -0.5021352588 -0.0499896428 0.1706297579
535296790.0 -0.0795929 0.167199481 0.2388641939 -0.5045992599 0.2387121076 -0.5040933458 -0.0485817597 0.1710566393
540296760.0 -0.0779090966 0.1681647945 0.2329200978 -0.507326073 0.232849015 -0.5078178621 -0.0464630967 0.1723823721
545296730.0 -0.0764472778 0.1687950794 0.2269706865 -0.5095730329 0.2272860047 -0.5096247108 -0.0446607875 0.1724338955
550296700.0 -0.0745230807 0.1699104455 0.2217453841 -0.5119301212 0.2218882655 -0.5121477895 -0.0428369533 0.17320458
555296670.0 -0.072900592 0.1703349052 0.2161967515 -0.5145037232 0.2165235267 -0.5144644913 -0.0406016238 0.1741751792
560296640.0 -0.0710953035 0.1718065355 0.2102916934 -0.5172537786 0.2108226398 -0.5170726739 -0.0387568081 0.1746295764
565296610.0 -0.0698870605 0.1725706263 0.2047933798 -0.5190585474 0.2049502617 -0.5188081687 -0.0369231658 0.1750052668
570296580.0 -0.0683188525 0.1731511197 0.1990445798 -0.5215943172 0.1991723239 -0.5214116543 -0.03487113 0.1760064257
575296550.0 -0.0666752554 0.1743756823 0.193665849 -0.5237320397 0.1938769572 -0.5234888515 -0.0327701078 0.176114347
580296520.0 -0.0645977641 0.175127639 0.1879537459 -0.5253284663 0.1879296795 -0.5253677921 -0.0307628896 0.1767344447
585296490.0 -0.0631341969 0.1754906994 0.1821797516 -0.5273141319 0.1825608946 -0.5274378455 -0.0289613963 0.1772273639
590296460.0 -0.0609909368 0.1761262195 0.1766639552 -0.528909938 0.1769065874 -0.5294888503 -0.0274039067 0.1775215702
595296430.0 -0.059572075 0.1771137778 0.1703998863 -0.5316712621 0.1706424307 -0.5312274087 -0.0250048746 0.1781251578
600296400.0 -0.0580866695 0.1779833125 0.1649102149 -0.5331981691 0.1651168767 -0.5326725993 -0.0235418844 0.1785973056
605296370.0 -0.0563984143 0.1784986308 0.1590831119 -0.5347221265 0.1595098032 -0.5346665973 -0.0210233465 0.1791346526
610296340.0 -0.0545590211 0.1790969878 0.153167909 -0.5361018438 0.1537071179 -0.536465711 -0.0188990656 0.179595892
615296310.0 -0.0524914076 0.179767453 0.1473795865 -0.5374760108 0.1474282142 -0.5379740542 -0.0166974777 0.1796857376
620296280.0 -0.0510074642 0.1802221868 0.1414755205 -0.5392964427 0.1417133533 -0.5393536846 -0.0153094827 0.1800873248
625296250.0 -0.0492558603 0.1807618749 0.1364664454 -0.5412163957 0.1361133543 -0.541147852 -0.0124364078 0.1805887727
630296220.0 -0.0468411148 0.1814757456 0.1294509453 -0.5422980742 0.1295190236 -0.5423226906 -0.0110072804 0.1811061076
635296190.0 -0.0460661286 0.1821185965 0.1244827553 -0.5436918188 0.1241353774 -0.5435404844 -0.0089103393 0.1812927181
640296160.0 -0.0438728286 0.1828966144 0.1180913684 -0.5446303414 0.1185539529 -0.5450498771 -0.0070356636 0.1814865339
645296130.0 -0.0420945594 0.183571266 0.1120552689 -0.5460263335 0.1125981569 -0.5463712428 -0.0048894035 0.1819273669
650296100.0 -0.0403483238 0.1838050449 0.1064039768 -0.5470012988 0.1063074551 -0.5472648324 -0.0028119109 0.1815536403
655296070.0 -0.0388459264 0.1843859215 0.100740296 -0.5485121502 0.1010312085 -0.548258125 -0.0007831865 0.181916011
660296040.0 -0.0374412113 0.1844188792 0.0946913581 -0.5493267375 0.0950965124 -0.5496088997 0.0012264987 0.1824428196
665296010.0 -0.034867827 0.1852328534 0.0881867318 -0.5498323052 0.0890896517 -0.550297112 0.0036944586 0.1827913662
670295980.0 -0.0339027705 0.1860412074 0.0823742798 -0.551362449 0.0830116965 -0.5508247665 0.0049773526 0.1824272895
675295950.0 -0.0316331172 0.1865082876 0.0766568105 -0.551916428 0.0772625439 -0.551413056 0.0068604259 0.1826804492
680295920.0 -0.0298845461 0.1865382666 0.0707337097 -0.55226798 0.0703575833 -0.5531262519 0.0090669899 0.183213923
685295890.0 -0.0277000375 0.1875533086 0.0649435675 -0.5536824948 0.0648182059 -0.5537223252 0.010973584 0.1830023204
690295860.0 -0.0258105727 0.1878650419 0.0584112967 -0.5538116757 0.0591615707 -0.5543527743 0.0130195474 0.1834162131
695295830.0 -0.024338753 0.1878746424 0.0531065433 -0.5541545994 0.0528258402 -0.5548194899 0.0147793575 0.1831091466
700295800.0 -0.0224312105 0.188017604 0.0467796889 -0.5547757634 0.0467091993 -0.5547737369 0.0170409306 0.183601264
705295770.0 -0.0209857674 0.1889608072 0.0407163334 -0.5553160197 0.0411752063 -0.555851994 0.0192188067 0.1830878836
710295740.0 -0.0188625592 0.1891381559 0.0350963409 -0.556053553 0.0354575052 -0.5561477337 0.0211410584 0.1825948997
715295710.0 -0.0176696302 0.1895249126 0.0293148082 -0.5562199192 0.0287847034 -0.5562463537 0.0235435109 0.1826439155
720295680.0 -0.0154892687 0.1894961976 0.0232133497 -0.5563835901 0.0231054802 -0.5567154335 0.0252880936 0.1830127274
725295650.0 -0.0135947138 0.1899756035 0.0170754845 -0.5567598159 0.0170374657 -0.5571560876 0.0271494765 0.1829145667
730295620.0 -0.0112879525 0.1905742019 0.0104243928 -0.5567581685 0.0112791431 -0.5569553959 0.0289983157 0.182185736
735295590.0 -0.0098658976 0.1907013769 0.0053580594 -0.5569166501 0.0051068284 -0.5569935508 0.0309918045 0.1820341438
740295560.0 -0.0080499081 0.1910274925 -0.000919021 -0.5567316528 -0.0011141788 -0.556985901 0.0335847876 0.1822459771
745295530.0 -0.0059985024 0.1916399385 -0.0068005613 -0.5565634231 -0.0069194117 -0.5568835363 0.035320724 0.1815534755
750295500.0 -0.0040922201 0.1914535475 -0.0134285371 -0.5563996746 -0.0126017322 -0.5567853602 0.037318546 0.1815588133
755295470.0 -0.0022538447 0.1915282056 -0.0185349621 -0.5562843121 -0.0186854784 -0.5565603001 0.0400653081 0.1809637991
760295440.0 -0.0005477429 0.1919897734 -0.0251545745 -0.5568573014 -0.0247361304 -0.5564761761 0.0415165907 0.1806502205
765295410.0 0.0011723592 0.1920843672 -0.0308402209 -0.5558453974 -0.0311602657 -0.5563488811 0.0438372015 0.1809124591
770295380.0 0.0030915383 0.1917373392 -0.0369129696 -0.555422823 -0.0370408639 -0.5552144813 0.0455442809 0.180152871
775295350.0 0.0045897868 0.1914737402 -0.0432864822 -0.5550064102 -0.0426801461 -0.5551068815 0.0469017544 0.180153771
780295320.0 0.0067844498 0.1919695422 -0.0489774782 -0.554191376 -0.0481689823 -0.5542976916 0.0490570917 0.1791790354
785295290.0 0.0082839195 0.1917175651 -0.0550726874 -0.5534219169 -0.0545069756 -0.5542638385 0.0520715689 0.1794630564
790295260.0 0.0111629096 0.192384686 -0.0606188011 -0.5531005514 -0.0602640971 -0.5531879291 0.0537270471 0.1788056497
795295230.0 0.0123980996 0.1919132805 -0.0667581521 -0.552206998 -0.0664717102 -0.5527953917 0.0557640505 0.1785757984
800295200.0 0.0142905823 0.1922957257 -0.0728042065 -0.5515888826 -0.0726286337 -0.5518528973 0.0578465138 0.1780401598
805295170.0 0.0161802989 0.1920617319 -0.0785584511 -0.5507266615 -0.0784717791 -0.5509295831 0.0596947957 0.1776867958
810295140.0 0.0180020155 0.1917866351 -0.0840933558 -0.5499935394 -0.0843179525 -0.5503579579 0.0620565991 0.1769752618
815295110.0 0.0201065662 0.191785109 -0.0903414979 -0.5488488238 -0.0901443429 -0.5487321375 0.063456162 0.1766158045
820295080.0 0.0216063664 0.1923233648 -0.0962295511 -0.5476077541 -0.095884108 -0.5480097753 0.0656572136 0.1760287466
825295050.0 0.0242682144 0.1916868135 -0.1017672326 -0.5466857825 -0.1021034565 -0.5469789526 0.0675712634 0.1756225581
830295020.0 0.0256480718 0.191935218 -0.1083652103 -0.5453493652 -0.1078107727 -0.5456199517 0.0702472963 0.1748421842
