!Created with skrf (http://scikit-rf.org).
# Hz S RI R 50.0 
!freq ReS11 ImS11 ReS21 ImS21 ReS12 ImS12 ReS22 ImS22
300000.0 -0.7764028288 -0.1454573838 -0.0024662536 -0.0008002147 0.0003246299 -0.0003134339 -0.2115473861 -0.0930732576
5299970.0 -0.7854834753 -0.0071205572 9.39171e-05 0.0001612706 -0.0001268847 -8.07111e-05 -0.2163991619 0.0067575653
10299940.0 -0.7874418682 -0.0040646523 0.0001492278 0.0001391039 -0.0001778273 0.0001959968 -0.2131179269 0.0186083149
15299910.0 -0.7933588608 -0.0014654728 3.18891e-05 -0.0002918043 -2.03668e-05 -7.7618e-06 -0.2083631918 0.0278730656
20299880.0 -0.7997535989 0.0028392696 -3.72958e-05 -1.12292e-05 -3.32392e-05 -1.87649e-05 -0.2031221481 0.0357622504
25299850.0 -0.8062857726 0.0081891939 -0.0001177061 -4.35284e-05 3.90537e-05 -9.66441e-05 -0.197546676 0.0416122603
30299820.0 -0.8118812554 0.016236227 -4.71647e-05 -0.0001224392 -9.92811e-05 -2.56103e-05 -0.1920458956 0.0463079775
35299790.0 -0.8172372228 0.0251250823 -0.0001001506 8.61643e-05 4.05224e-05 -5.79762e-05 -0.18608074 0.0500446238
40299760.0 -0.8218591691 0.0344101592 7.69457e-05 0.0001483849 -4.36478e-05 -7.3092e-06 -0.1806876049 0.0529396481
45299730.0 -0.8248307945 0.0442779329 0.0001419928 -5.17181e-05 -2.53095e-05 7.34878e-05 -0.1755147995 0.0552482737
50299700.0 -0.8269235994 0.054032078 5.8375e-06 9.07791e-05 -0.0002753965 7.72135e-05 -0.1705290547 0.0566955029
55299670.0 -0.8286953152 0.0645896362 -1.21113e-05 -3.16324e-05 0.000143348 0.0001473272 -0.1664509555 0.0572536974
60299640.0 -0.8301967884 0.0745615196 -3.06267e-05 0.0002771998 -8.13986e-05 3.4076e-05 -0.1623361838 0.0585992993
65299610.0 -0.8311537215 0.0847173691 -0.0001163502 -5.1812e-05 -5.71231e-05 -2.6621e-06 -0.1588588509 0.0590443225
70299580.0 -0.8311840305 0.0944728636 7.742e-05 -6.7356e-05 1.97662e-05 0.0001336692 -0.1556968708 0.0591911825
75299550.0 -0.8315320869 0.1047911511 1.66082e-05 6.72684e-05 0.0001778542 3.46563e-05 -0.1526072584 0.0594555634
80299520.0 -0.8311661365 0.1143515905 -3.75179e-05 0.0001512849 -0.0001254714 6.66289e-05 -0.1502138454 0.0593091572
85299490.0 -0.830326895 0.1239532931 0.0001675056 5.1294e-06 -7.48394e-05 5.20785e-05 -0.1480004317 0.0592194796
90299460.0 -0.8296641601 0.1341984121 -3.57252e-05 1.18064e-05 8.78305e-05 0.0001872966 -0.1452345259 0.0594105055
95299430.0 -0.828590561 0.1437306115 1.97583e-05 0.0001408531 -4.6352e-05 -5.83746e-05 -0.1433611281 0.0596695168
100299400.0 -0.8279000685 0.1526039354 7.5665e-05 -4.76134e-05 -4.38716e-05 0.0003840754 -0.1417325962 0.0592869792
105299370.0 -0.8265904054 0.1621649277 0.000166274 0.000182694 0.0001211417 4.36711e-05 -0.1399945878 0.0594917993
110299340.0 -0.8256226512 0.1708632812 -0.0002499636 0.000136333 3.10143e-05 5.89829e-05 -0.1388825773 0.0592786453
115299310.0 -0.8239620702 0.1805512178 2.69899e-05 -0.0001646865 6.5572e-06 0.000252274 -0.1372872488 0.05924204
120299280.0 -0.8221035344 0.1898295644 1.85587e-05 -5.11685e-05 -1.20841e-05 5.10629e-05 -0.1361061786 0.05946384
125299250.0 -0.8201682697 0.1984919855 2.35694e-05 -4.60942e-05 -1.40077e-05 4.59185e-05 -0.1346573998 0.0590279552
130299220.0 -0.8181400528 0.2079879975 -8.91323e-05 9.02684e-05 0.0001245459 0.0001703379 -0.1342666962 0.0597052077
135299190.0 -0.8168207335 0.2164196126 -5.49777e-05 -7.06604e-05 6.43277e-05 0.000163783 -0.1333796233 0.0598149974
140299160.0 -0.8147600407 0.2256471409 8.8027e-05 0.0001207192 0.000135134 0.0001389309 -0.1320273294 0.0596764752
145299130.0 -0.8122966757 0.2336921283 0.0001690744 0.0001730117 -2.65025e-05 8.79012e-05 -0.1317892614 0.0604762608
150299100.0 -0.8104099198 0.2427796411 3.39717e-05 0.0001269171 -4.32074e-05 9.06973e-05 -0.1308292558 0.0602221962
155299070.0 -0.8075798945 0.2525882251 5.14615e-05 7.94791e-05 0.0002211195 -7.85103e-05 -0.130485652 0.0608767021
160299040.0 -0.8051443447 0.2612416519 -6.17476e-05 0.0001360545 -1.46674e-05 1.35822e-05 -0.1295536147 0.0612832899
165299010.0 -0.8021509786 0.2693695564 -8.44812e-05 0.0001743272 0.0001279009 7.13877e-05 -0.1287314985 0.0618105622
170298980.0 -0.7996251837 0.2781521468 -0.0001059809 9.09338e-05 4.34983e-05 -9.3067e-06 -0.1284780911 0.0622645808
175298950.0 -0.7971577054 0.2867284864 3.7936e-06 0.000283843 0.0002394054 -1.76452e-05 -0.1278447761 0.0626703277
180298920.0 -0.7941569035 0.2954901705 0.000302445 0.0001196576 -9.88972e-05 0.0001876614 -0.1272019986 0.0631742826
185298890.0 -0.7907691021 0.3043574147 -7.91204e-05 2.65354e-05 0.0001746543 2.23588e-05 -0.1267367717 0.0635236496
190298860.0 -0.7875929942 0.3123889954 0.0001391216 -0.0002953663 2.49539e-05 0.0001792353 -0.1258888501 0.0644812905
195298830.0 -0.7838364199 0.3205836542 -0.0001341686 0.0003698718 0.0002114236 5.41732e-05 -0.1257830785 0.0648388337
200298800.0 -0.7810053709 0.3291167668 5.3133e-05 -5.24608e-05 -1.92954e-05 -0.0001039835 -0.1248411788 0.0657628103
205298770.0 -0.7773917025 0.3375341926 0.0001912412 0.0001837675 7.66194e-05 0.0002301362 -0.1244052348 0.0664932859
210298740.0 -0.7739159511 0.3459175671 -0.0001297705 5.35528e-05 9.29952e-05 0.0001544091 -0.1241466621 0.0671894345
215298710.0 -0.7702943567 0.3540536221 0.0002025304 0.0001966499 1.20689e-05 -0.0001400927 -0.1240700062 0.0682532987
220298680.0 -0.7671280228 0.3626202741 1.02261e-05 5.2717e-05 0.0001084984 0.0002609324 -0.1231646764 0.0686103928
225298650.0 -0.762957201 0.3708337856 0.0002682017 -6.11717e-05 0.0001168072 0.000130385 -0.1230077053 0.0699300729
230298620.0 -0.7591477315 0.378743041 6.16245e-05 6.786e-07 0.0001118336 7.59796e-05 -0.1219139297 0.0703657021
235298590.0 -0.7546315613 0.3870074346 6.8925e-06 1.68435e-05 6.57785e-05 0.0003735019 -0.1215488362 0.0711943607
240298560.0 -0.7509576384 0.3950750926 4.20552e-05 0.0001883885 9.36673e-05 -5.9141e-06 -0.1212185096 0.0721856568
245298530.0 -0.7465333258 0.4028785478 -1.35928e-05 6.65844e-05 9.9259e-06 0.0001296412 -0.1205566916 0.0730780874
250298500.0 -0.7425760515 0.4106406688 0.0001347371 0.0001022486 -4.95054e-05 -8.36629e-05 -0.1198308169 0.074355766
255298470.0 -0.7377488402 0.4186714919 0.0001378784 0.0001147153 -0.0001078428 0.0002359654 -0.1197898016 0.0750317161
260298440.0 -0.7337921694 0.4259884069 0.0001084643 0.0001697944 2.76979e-05 0.0001287624 -0.1190961967 0.075901989
265298410.0 -0.7284947018 0.4343507217 -7.20763e-05 4.74051e-05 0.0001487187 7.8619e-06 -0.1185016688 0.0768767164
270298380.0 -0.7242667721 0.4419722291 7.68442e-05 -0.0001328426 0.0001940154 8.66189e-05 -0.1176686019 0.0777330017
275298350.0 -0.7194281174 0.4490827729 0.0001176197 0.0002273469 5.50267e-05 1.66073e-05 -0.1171158067 0.0789368692
280298320.0 -0.7149676338 0.4567775699 0.0001022279 -4.93466e-05 5.35601e-05 2.74517e-05 -0.116675255 0.0799693042
285298290.0 -0.7101035399 0.4647452813 0.0001550391 0.0001232492 -2.39015e-05 1.43411e-05 -0.1161160846 0.0808493318
290298260.0 -0.7052688581 0.4716770121 -0.0002136963 4.60948e-05 0.0001928459 0.0001132677 -0.115369172 0.0818437604
295298230.0 -0.7005489709 0.4792454676 7.7019e-06 3.77394e-05 0.0002266324 -2.46935e-05 -0.1150051821 0.0831519323
300298200.0 -0.694849071 0.4863992916 -0.0001125294 0.00014544 -8.684e-07 2.83567e-05 -0.1139004322 0.0841360204
305298170.0 -0.689802845 0.4940879389 0.0001906641 0.000237149 0.0001801559 0.0001109299 -0.1131434707 0.0852976834
310298140.0 -0.6845020165 0.5007133635 3.86156e-05 0.0001409678 8.33133e-05 0.0002107864 -0.1125700336 0.086527595
315298110.0 -0.6799526665 0.5080925314 0.0001661539 0.0003393327 0.0001715304 3.6088e-06 -0.1115952555 0.0872687735
320298080.0 -0.6738757754 0.5159863254 0.0001304278 0.0001618481 0.0002155107 7.15945e-05 -0.111161985 0.0882648902
325298050.0 -0.6682260154 0.5223451663 0.0001198082 4.19338e-05 3.39916e-05 0.000163927 -0.1105208262 0.0892467009
330298020.0 -0.6630021619 0.5290445447 0.0002819051 4.33373e-05 -0.0001058875 -0.0001648158 -0.1101044619 0.0900677672
335297990.0 -0.656553125 0.5360672815 8.87309e-05 0.0002750849 0.0001880518 4.205e-05 -0.1094111808 0.0912154571
340297960.0 -0.6523118411 0.5428395009 -0.0001076202 8.94969e-05 2.47172e-05 0.000278927 -0.1084069759 0.0921874133
345297930.0 -0.6461938527 0.5486609806 0.0001165658 3.23888e-05 0.0001179208 -0.0001525725 -0.1079560338 0.0934783311
350297900.0 -0.6404537616 0.5562351412 -9.59613e-05 9.09191e-05 9.27166e-05 0.0001712268 -0.107105695 0.0945680789
355297870.0 -0.6348030485 0.562630068 0.0001992696 3.05282e-05 -7.83547e-05 -5.6149e-05 -0.1067658143 0.0958522373
360297840.0 -0.6289148375 0.5688899392 0.0003123972 -6.79202e-05 0.0001132333 0.0001450065 -0.1057549939 0.0972112607
365297810.0 -0.6222174191 0.5757278173 0.0001183974 0.0001403396 3.9934e-05 -2.4377e-05 -0.1050632638 0.0982718108
370297780.0 -0.6161855303 0.5814110618 0.0001468984 0.0003631687 0.0001736669 7.22704e-05 -0.1044756282 0.0994197265
375297750.0 -0.6101546435 0.5883331212 0.0002479958 0.0002053655 -4.97665e-05 5.05434e-05 -0.1037395729 0.1006871525
380297720.0 -0.6036147639 0.5945444651 9.26898e-05 9.23465e-05 3.05644e-05 6.42448e-05 -0.102546958 0.1019668366
385297690.0 -0.5977958952 0.6004187358 -0.0002227491 9.069e-06 0.000315226 0.000101319 -0.1022584133 0.1032473314
390297660.0 -0.5912945863 0.6072102054 0.0001483181 -0.0001179329 6.57928e-05 4.26267e-05 -0.1009496195 0.1039510855
395297630.0 -0.5854243127 0.6130583697 0.0003708915 -4.2089e-05 4.96261e-05 -6.3034e-05 -0.1004603529 0.1053777
400297600.0 -0.5792270989 0.6192173941 4.43579e-05 -2.0797e-05 0.0001716146 0.000101776 -0.0996012484 0.1062604403
405297570.0 -0.5723996427 0.6251503621 0.0002520767 -0.0001559329 0.0002820063 -3.21161e-05 -0.0990139192 0.1076061359
410297540.0 -0.5658485925 0.6307411601 0.0002101942 6.18031e-05 -2.02005e-05 -4.35359e-05 -0.0977994631 0.1089745128
415297510.0 -0.5587085081 0.6360895029 0.0001122567 0.0002114592 0.0001884203 0.0002165921 -0.0968485037 0.1103944888
420297480.0 -0.5519566822 0.6421448057 0.0002819465 0.0001700094 0.0001368791 0.0002062878 -0.0960826606 0.1109692511
425297450.0 -0.545656447 0.6483097087 0.0002185013 8.34625e-05 0.0001431195 0.0002306915 -0.0947730672 0.1121536177
430297420.0 -0.5391534593 0.6532243125 0.0001516691 -8.82424e-05 0.0002722579 -7.76795e-05 -0.0943530103 0.1135120097
435297390.0 -0.5320132907 0.65939966 1.78357e-05 -9.62492e-05 9.48251e-05 0.0001318847 -0.0927656706 0.1143832296
440297360.0 -0.5253816181 0.6645209941 0.0001322627 0.0002344379 0.0002042279 0.000145866 -0.0922512734 0.1154550647
445297330.0 -0.5181453059 0.6700322223 3.95309e-05 0.0001218563 6.66498e-05 0.0001787078 -0.0913512957 0.1165268045
450297300.0 -0.5112940224 0.67410764 0.0004073912 0.0001061756 0.0002569894 8.18922e-05 -0.0907031006 0.1177965887
455297270.0 -0.504246616 0.6801491218 3.21105e-05 8.06144e-05 0.0002295631 -1.41869e-05 -0.0893407152 0.1186978779
460297240.0 -0.4975901783 0.6851381357 0.0001544512 0.0001625834 5.05527e-05 -1.83272e-05 -0.0882465953 0.1200588801
465297210.0 -0.4899816745 0.690234553 0.0003519404 5.21349e-05 0.0001019847 0.0001907421 -0.0876116038 0.1208085089
470297180.0 -0.4827139549 0.6947408483 0.0001240711 0.0001434178 -5.83079e-05 8.61956e-05 -0.0867477445 0.1223812649
475297150.0 -0.4759274535 0.7005661206 0.0001413941 0.0001497849 0.0001827693 3.16951e-05 -0.0855564288 0.1230510887
480297120.0 -0.4686190367 0.7044781472 0.0002515875 0.0001087036 0.0002082592 0.0001752157 -0.0842798502 0.124315677
485297090.0 -0.4610589701 0.7091517823 0.0002303468 8.749e-06 8.55345e-05 -8.27813e-05 -0.0835620723 0.1251374211
490297060.0 -0.454239134 0.7140326684 0.0001535764 -5.29108e-05 0.0001700566 0.0001129932 -0.082627726 0.12606906
495297030.0 -0.447218585 0.7188974893 0.0002269585 0.0001694679 0.0001776517 7.42323e-05 -0.0814106688 0.1269780585
500297000.0 -0.4385357072 0.7235949683 0.0003322786 0.000111893 0.0003051349 -9.46689e-05 -0.0804188611 0.1282139457
505296970.0 -0.4313628247 0.7269819524 0.0001737723 0.0001124028 0.0001119959 -8.01203e-05 -0.0796242272 0.1292384886
510296940.0 -0.4242953185 0.7318247567 0.0002453085 6.4296e-06 0.0002446469 0.0002497706 -0.0783466143 0.1297509343
515296910.0 -0.41695115 0.7365193961 0.0001178345 -4.93229e-05 0.0002169115 0.0002737856 -0.0771082504 0.131147586
520296880.0 -0.408597304 0.7406427387 0.0002170352 0.0001881027 0.0001461078 9.20602e-05 -0.075825925 0.1320295546
525296850.0 -0.4023313694 0.7447305363 0.0001549023 0.0002539638 0.0003555976 3.93642e-05 -0.0747287792 0.1327752756
530296820.0 -0.3939791428 0.7478710746 0.0003114662 5.98746e-05 6.71111e-05 -5.40359e-05 -0.0741036307 0.1337247823
535296790.0 -0.3858635155 0.7522584438 0.0002543246 -0.0002015061 0.0004643735 -2.30998e-05 -0.0730455646 0.1345386391
540296760.0 -0.3781442854 0.7561726327 0.0002933572 -0.0001779764 0.0002885618 -0.0001060648 -0.0716133308 0.1356569775
545296730.0 -0.371151928 0.7598388141 0.0002700869 0.000233196 0.0001628395 -6.8619e-05 -0.070666646 0.136274987
550296700.0 -0.3636863757 0.7639251743 0.0006005571 -0.0001163651 0.0001609896 -7.4337e-06 -0.0693657799 0.1372977494
555296670.0 -0.3547130079 0.7673688252 0.0003514828 7.54574e-05 0.000208193 -8.99888e-05 -0.0685629077 0.1382494211
560296640.0 -0.3472278392 0.7706064561 0.000115077 0.0001095461 0.0004143233 0.0001303236 -0.0668473358 0.139038745
565296610.0 -0.3398046096 0.773496007 0.0002524203 -0.0001503976 0.0004551156 -8.30926e-05 -0.0658973762 0.1399741449
570296580.0 -0.3321977208 0.7770894276 0.0002819429 -7.20584e-05 0.0002561357 5.35757e-05 -0.0647010975 0.1410860861
575296550.0 -0.3238612638 0.7808184967 8.68134e-05 0.0001798255 0.0002845701 -1.2228e-05 -0.0632554505 0.1413333967
580296520.0 -0.3153892344 0.7844503357 0.0001953684 7.12263e-05 0.0002051158 6.25472e-05 -0.062332589 0.1422592394
585296490.0 -0.3076154225 0.786479114 0.0001499403 5.67982e-05 0.0002913366 7.29182e-05 -0.0611837816 0.1426279043
590296460.0 -0.2996748238 0.7896976577 7.57601e-05 6.29677e-05 0.0002431797 -4.78912e-05 -0.0593828908 0.1437320464
595296430.0 -0.2915549232 0.7934248689 0.0002857725 0.0001106464 0.0001549706 0.0003317611 -0.0586816256 0.1444410996
600296400.0 -0.2832518464 0.7957358427 0.0003179334 -4.11058e-05 0.000125662 -5.05483e-05 -0.0570759221 0.1455468511
605296370.0 -0.2758649601 0.799090396 0.0002236466 0.0001940925 1.77889e-05 -1.0836e-06 -0.0559540525 0.1463452366
610296340.0 -0.2674551049 0.8011677379 4.13911e-05 1.38527e-05 4.82621e-05 -7.79826e-05 -0.0547615143 0.1468206781
615296310.0 -0.2591070171 0.8044680945 0.0002599925 7.58913e-05 0.0001828526 6.94187e-05 -0.0533861625 0.1475157996
620296280.0 -0.2506669065 0.8058369338 3.0404e-05 -0.0001005344 0.0001650137 5.90752e-05 -0.0522847639 0.1478030829
625296250.0 -0.242649917 0.8091031762 0.0003553603 0.0001040573 0.000172397 -2.22536e-05 -0.050934231 0.1488941299
630296220.0 -0.2344776757 0.8115575582 0.0003092655 -8.17759e-05 0.0002209803 0.0002274218 -0.0494060754 0.149878675
635296190.0 -0.2265612947 0.8139065598 0.0002368665 0.0002467368 6.6212e-06 -5.30926e-05 -0.0481492522 0.150065446
640296160.0 -0.218051986 0.8154696742 3.37277e-05 7.70823e-05 0.0001770978 3.7332e-06 -0.0465701518 0.1505815932
645296130.0 -0.2098179875 0.817645903 0.0002652423 -0.0001949652 0.0002126314 -0.000137668 -0.0458486621 0.151361241
650296100.0 -0.2020324908 0.8200773532 5.78747e-05 2.44594e-05 0.0002024293 -1.11026e-05 -0.0447251806 0.1523209283
655296070.0 -0.1935453357 0.8222806586 0.0001180044 -2.9886e-05 0.0003430229 -0.000102607 -0.0427686585 0.1530016323
660296040.0 -0.1853832283 0.8243201243 7.73405e-05 2.65506e-05 0.0003409488 -0.0001556493 -0.041533023 0.1531579693
665296010.0 -0.1771073975 0.8260814719 0.000420002 0.000102164 8.42702e-05 -0.0001171282 -0.0403530834 0.1539065957
670295980.0 -0.1678438551 0.8274339941 0.0002498417 -7.62661e-05 0.0001834846 -2.14053e-05 -0.0390225921 0.154458501
675295950.0 -0.1596698244 0.828418903 -9.94421e-05 0.0002280797 0.0001001282 -2.523e-05 -0.0374263755 0.15512484
680295920.0 -0.151532124 0.8306047583 0.0003362576 -4.51015e-05 0.0003595625 -4.2075e-05 -0.0357186898 0.1556515317
685295890.0 -0.1430704367 0.8318772339 0.0001060192 0.000191498 0.0002718087 -0.0002310822 -0.0345114345 0.156056234
690295860.0 -0.1346503775 0.8343503182 0.0002317908 -3.29306e-05 0.0002842703 -0.0002305285 -0.0331879285 0.1567597667
695295830.0 -0.1258805735 0.8342186994 0.0001567179 -6.30956e-05 0.0002985789 -0.000140843 -0.0319510335 0.15723394
700295800.0 -0.1179534693 0.8355543803 -2.05105e-05 0.0001131489 0.0003447618 2.20984e-05 -0.0301179795 0.1577042978
705295770.0 -0.1087876685 0.837300695 0.0002523866 6.338e-07 0.0002825258 -8.82908e-05 -0.0289453364 0.1585795152
710295740.0 -0.1012082793 0.8380141582 0.0003275169 -0.0001126421 0.0002105551 7.4027e-06 -0.0279394634 0.1589560628
715295710.0 -0.0933859575 0.8389671295 0.000158248 9.43438e-05 0.0002070416 6.9777e-06 -0.0263433195 0.1591783795
720295680.0 -0.0844800734 0.8397534438 0.0003457706 -0.0002259549 0.0004767663 -1.39274e-05 -0.024560132 0.1597108779
725295650.0 -0.0748652184 0.841299707 0.0001470094 4.17839e-05 5.92393e-05 7.62599e-05 -0.0230682653 0.160290746
730295620.0 -0.0677023141 0.8413619597 0.0002506397 -5.88808e-05 0.0001356992 -2.09421e-05 -0.0219126387 0.1604319977
735295590.0 -0.0580057452 0.841832496 0.0003821922 1.05307e-05 0.0004530042 6.3442e-06 -0.0201765978 0.1609436542
740295560.0 -0.0500801638 0.842489257 0.0002785156 -1.5633e-06 0.0003198875 7.1537e-06 -0.0188283035 0.1613883062
745295530.0 -0.0417006368 0.8427573848 0.0002707788 0.0001735877 0.0002984329 2.4362e-05 -0.0173036906 0.1618696989
750295500.0 -0.0338006835 0.8427941183 0.0004368966 -0.0001333088 0.0002786085 -8.62358e-05 -0.0158799064 0.161787356
755295470.0 -0.0246968304 0.8432784865 0.0003485911 -3.45325e-05 0.0002734897 -0.0001060637 -0.0145259267 0.1626059479
760295440.0 -0.0161267612 0.8432960479 0.0004174181 -0.0001262483 0.0003451281 -0.0001529182 -0.0132202049 0.1625883225
765295410.0 -0.007830568 0.843873781 0.0004650266 -0.0001592392 0.0002998581 -0.0002326948 -0.011231384 0.1632022757
770295380.0 0.0008366929 0.8440280947 0.0004231123 -0.0001167388 0.0002557327 -0.0001968499 -0.0096071798 0.1636118315
775295350.0 0.0087292662 0.843939597 0.0003555333 -0.0002306981 0.0004083212 -0.0001045299 -0.0087191162 0.1634138372
780295320.0 0.0174038141 0.8437749969 0.0001310262 -0.0002180755 0.0003596641 -0.0002498726 -0.0070603486 0.1643782961
785295290.0 0.026464338 0.8440978569 0.0001907033 8.21431e-05 0.0001446764 4.41918e-05 -0.0056575056 0.1645834988
790295260.0 0.0343000094 0.8431956325 0.0003343836 -8.05374e-05 0.0004438672 -8.15878e-05 -0.0040368068 0.1645072648
795295230.0 0.0428124823 0.8431223527 0.0002044672 -0.0001350481 0.0002693943 9.17097e-05 -0.0022661487 0.1649771969
800295200.0 0.0513929852 0.8426232571 0.0002171154 -0.0001130131 0.0003096941 5.88185e-05 -0.0009777247 0.1650367769
805295170.0 0.0595890642 0.8423671992 0.0003419414 -0.00025075 0.0002941299 -9.40218e-05 0.0004910584 0.1653175498
810295140.0 0.0681064722 0.8411385988 0.0003489571 0.0002476534 0.0005407766 -2.08046e-05 0.0021536731 0.1661180772
815295110.0 0.076934899 0.8402542441 0.0003471529 8.68619e-05 0.0002488337 0.0001146441 0.0037691226 0.165978591
820295080.0 0.0855844309 0.8391809714 0.0003312752 4.89441e-05 0.0004403817 -5.24561e-05 0.0051435113 0.1660084772
825295050.0 0.0935552461 0.8382374296 0.0002097887 6.64981e-05 0.0002002572 -0.0002346806 0.0066287268 0.165818453
830295020.0 0.102250697 0.8376870527 0.0003530594 -0.0001256532 0.0004097312 -0.0003910744 0.0082325343 0.1662958578
835294990.0 0.1101961381 0.8365142759 0.0003286961 1.4815e-05 0.0002159446 -3.21462e-05 0.0101412042 0.1662679552
840294960.0 0.1182879077 0.8349142062 0.0001139481 3.61671e-05 0.0002721528 -3.16853e-05 0.0111428731 0.1667971824
845294930.0 0.1267606371 0.8344706281 0.0003249531 -0.0003825807 0.0002476514 -4.90817e-05 0.012781298 0.1669170295
850294900.0 0.134869361 0.8325551512 0.0004640749 -0.0001972921 0.0003518996 -0.0003598595 0.0142911233 0.1669904683
