!Created with skrf (http://scikit-rf.org).
# Hz S RI R 50.0 
!freq ReS11 ImS11 ReS21 ImS21 ReS12 ImS12 ReS22 ImS22
300000.0 -0.2369657818 -0.1253973644 0.4668648412 0.0814023013 0.4647412234 0.0814279595 -0.2338140758 -0.1250668968
5299970.0 -0.2448101128 0.005658668 0.4734829494 0.0057571547 0.4741968887 0.0059717629 -0.243546244 0.0049400533
10299940.0 -0.2418581412 0.0183840214 0.4760672184 0.0070241351 0.4760624007 0.0074594885 -0.2401342806 0.0178281483
15299910.0 -0.2370002004 0.0281885123 0.4793923649 0.0083570039 0.4796518233 0.0083891859 -0.2360732765 0.027387774
20299880.0 -0.2317750318 0.0362201758 0.4842453876 0.0083604602 0.4844775466 0.0086162033 -0.2310946695 0.0351615564
25299850.0 -0.2257611917 0.0428173158 0.4895625439 0.0077828152 0.4901104981 0.007705421 -0.2262735461 0.0416881896
30299820.0 -0.2203164575 0.0476665701 0.4948136263 0.0051889155 0.4952904805 0.0054453279 -0.2207181653 0.0471480259
35299790.0 -0.2144380071 0.051595969 0.5002157853 0.0024451677 0.5006236205 0.0024317467 -0.2156962372 0.0515375292
40299760.0 -0.209308395 0.0546585077 0.5055503806 -0.0013019332 0.5057804752 -0.0017101131 -0.2106861959 0.054885265
45299730.0 -0.2042829353 0.0569706088 0.510388441 -0.0058950205 0.5107107568 -0.0065875977 -0.2058087314 0.0576185773
50299700.0 -0.1991540628 0.0590033219 0.5146626167 -0.0118000219 0.5145523138 -0.0122319186 -0.2012235637 0.0600463247
55299670.0 -0.194926427 0.060558476 0.5183573186 -0.0172506233 0.5181791753 -0.0178178371 -0.197638948 0.0619547263
60299640.0 -0.1909784677 0.0617565714 0.5216188898 -0.0237409287 0.5219788725 -0.0241099715 -0.1935794599 0.0635038506
65299610.0 -0.1872840042 0.0626687029 0.5248972607 -0.0300885111 0.5249222078 -0.0301796558 -0.189938539 0.0646297446
70299580.0 -0.1839725907 0.0632431644 0.5270857832 -0.0366889928 0.5274901299 -0.0369194393 -0.1872403568 0.0658265128
75299550.0 -0.1811398281 0.0636690204 0.5285996518 -0.0440223091 0.5291736563 -0.0439403289 -0.1839414053 0.066872731
80299520.0 -0.1782180122 0.0643617452 0.5310969962 -0.0508005561 0.5314231587 -0.0510125882 -0.1816629403 0.0682416478
85299490.0 -0.1756562472 0.0648477488 0.5323980247 -0.0578249954 0.5327125988 -0.0574814783 -0.1792880463 0.0685576308
90299460.0 -0.1735720738 0.065347702 0.5331687986 -0.0646697901 0.5334070223 -0.0647597108 -0.176728747 0.0699742201
95299430.0 -0.1713794398 0.065609385 0.5341329014 -0.0717484135 0.5346772129 -0.0717726555 -0.1748978556 0.0706792017
100299400.0 -0.1694702118 0.0661891614 0.5343099814 -0.0783062181 0.53448656 -0.0783033482 -0.1731287727 0.0720067018
105299370.0 -0.1675862235 0.0666943112 0.5348372414 -0.0854666063 0.5352379451 -0.0852845099 -0.1710786139 0.0721885901
110299340.0 -0.1657512906 0.0670483554 0.5348301392 -0.0916743077 0.5356623931 -0.091830492 -0.1696822124 0.0730700404
115299310.0 -0.164671606 0.067584259 0.5353638779 -0.0987928281 0.5352143592 -0.098831332 -0.1683983339 0.0743313406
120299280.0 -0.1631817183 0.0681076993 0.5352528464 -0.1056352616 0.5350804353 -0.1055825619 -0.1667290457 0.0746137515
125299250.0 -0.1620440405 0.0686985731 0.5349152097 -0.1125583202 0.5347021507 -0.1124963435 -0.1651569204 0.0759846727
130299220.0 -0.1608128872 0.0691439993 0.5344447866 -0.1190974132 0.5341127929 -0.119533142 -0.1638667776 0.0769111061
135299190.0 -0.1598034845 0.0701062738 0.5336973114 -0.1256736217 0.5335438538 -0.1262081792 -0.1627372035 0.0776738945
140299160.0 -0.158651271 0.0710306149 0.5330106986 -0.1327299514 0.532923493 -0.1324251712 -0.1621609814 0.0787777861
145299130.0 -0.1578544566 0.0716590029 0.5316823238 -0.1392449797 0.532174599 -0.1391102745 -0.1608557308 0.0800129555
150299100.0 -0.1568724791 0.0723041564 0.5308426295 -0.1458293446 0.5306523518 -0.1458031891 -0.1598560073 0.0813909427
155299070.0 -0.1555636567 0.0732148991 0.5290303761 -0.1520780771 0.5294296686 -0.1525511443 -0.1586834309 0.0822180969
160299040.0 -0.1548343764 0.074227214 0.528066707 -0.1589305539 0.5278175753 -0.1588394799 -0.1579493855 0.083828457
165299010.0 -0.1537392872 0.0751215937 0.526563774 -0.1650572909 0.5268654336 -0.1651299126 -0.1566395724 0.0845907803
170298980.0 -0.1530539143 0.0759959496 0.5244010114 -0.1714123492 0.5249762862 -0.1715189252 -0.1560630725 0.0858381069
175298950.0 -0.1522037992 0.0774171462 0.5235612063 -0.1772186006 0.523953283 -0.1781980713 -0.1548977812 0.0872948543
180298920.0 -0.1516601663 0.0785205148 0.5219348602 -0.1843983656 0.5215653058 -0.184200038 -0.1538101095 0.0883646107
185298890.0 -0.1507455066 0.0795435609 0.5201792968 -0.1901934088 0.52002937 -0.1902630712 -0.1529855666 0.0895720379
190298860.0 -0.1493569785 0.0807255987 0.5175014525 -0.1964122115 0.5187077814 -0.196623652 -0.1522534728 0.0913679249
195298830.0 -0.149153587 0.0820252628 0.5163870884 -0.20262689 0.5162455801 -0.2026703711 -0.1509910607 0.0923758625
200298800.0 -0.148060363 0.0827528798 0.5138954538 -0.2088002093 0.5141636414 -0.2088184467 -0.150104829 0.0937401447
205298770.0 -0.1478677879 0.0840092894 0.5115870291 -0.2145299119 0.5120011021 -0.2148657205 -0.1489020071 0.0954005034
210298740.0 -0.1469332215 0.0854737177 0.5097156064 -0.2209627638 0.5094609299 -0.2210107662 -0.1485943825 0.0962952733
215298710.0 -0.1461620763 0.086604746 0.5069009801 -0.2263844371 0.5071511786 -0.2267531029 -0.1474264421 0.0977626568
220298680.0 -0.1452177209 0.0878328884 0.5042871129 -0.2326389551 0.5045986383 -0.2325813562 -0.1464008224 0.0991725457
225298650.0 -0.1443419841 0.0891214787 0.5016649982 -0.2382798491 0.502358487 -0.2379458765 -0.1455091783 0.1003700473
230298620.0 -0.1435920035 0.0907475476 0.5000645339 -0.2442865682 0.5000411483 -0.2445368861 -0.1444307204 0.1017028512
235298590.0 -0.1432952136 0.0920253558 0.4971884887 -0.2503703915 0.4975648965 -0.2503432912 -0.1433663718 0.1034801401
240298560.0 -0.1421535041 0.0934763773 0.4942217815 -0.255723665 0.4945230232 -0.2558196354 -0.1426129644 0.1045412442
245298530.0 -0.141306592 0.0940835876 0.4913510837 -0.2613933923 0.4916352101 -0.2616720374 -0.1411791953 0.1062394349
250298500.0 -0.1407204461 0.0954873753 0.4887396894 -0.2666176343 0.4891539932 -0.2668514033 -0.140454665 0.1079920847
255298470.0 -0.139790695 0.0972557278 0.4860962718 -0.2724521398 0.486595415 -0.2730153822 -0.1392908351 0.1096620619
260298440.0 -0.1391118233 0.0981239525 0.4832920442 -0.2775366891 0.4832947882 -0.2781692859 -0.1382843009 0.1103211969
265298410.0 -0.1383804817 0.0996397575 0.4796052549 -0.2837513349 0.479521156 -0.2843670104 -0.1366167423 0.1117469666
270298380.0 -0.13776479 0.100974567 0.4768422528 -0.2889089957 0.4769447909 -0.2890522412 -0.1354737953 0.1134932883
275298350.0 -0.1367812769 0.1026370192 0.4735565628 -0.2942696322 0.4734922052 -0.2945605146 -0.134725842 0.1151989803
280298320.0 -0.1360701441 0.1037214901 0.4707028814 -0.299358202 0.471120105 -0.2998853949 -0.1335442836 0.1166139781
285298290.0 -0.1352254535 0.1051372636 0.4670105541 -0.304902177 0.4677662305 -0.3047642151 -0.1324402465 0.1181305427
290298260.0 -0.1343563924 0.1064462691 0.4647968102 -0.3105631885 0.464528739 -0.3105529174 -0.1310811478 0.1194815795
295298230.0 -0.1334720531 0.107504779 0.4603443274 -0.3160180228 0.4610912955 -0.3162274369 -0.1300463725 0.1209159489
300298200.0 -0.1323829859 0.1090791071 0.4573890233 -0.3212568299 0.4574994335 -0.3210381165 -0.12880956 0.1220388186
305298170.0 -0.1315077082 0.1101265098 0.4542696339 -0.3261548278 0.4541035086 -0.3264152093 -0.1272360356 0.1231327994
310298140.0 -0.130094352 0.1114049916 0.4502325095 -0.3312705223 0.4506691696 -0.3312392392 -0.1257905897 0.1246504091
315298110.0 -0.1298242985 0.1120764016 0.4470119327 -0.3369987351 0.4468903203 -0.3369027455 -0.1246648489 0.1259699967
320298080.0 -0.1287353747 0.1137450564 0.4425962908 -0.3418096471 0.4434285437 -0.3418942525 -0.1235875059 0.1272109065
325298050.0 -0.1282723017 0.1145524966 0.4389470411 -0.3468218137 0.4395316797 -0.3469629412 -0.1221985487 0.128576297
330298020.0 -0.1277623264 0.1160999258 0.4351586249 -0.351665407 0.4357996411 -0.3520469804 -0.1214466351 0.1295633068
335297990.0 -0.1265304617 0.1173882255 0.4313230108 -0.3565578746 0.4315268414 -0.3571044111 -0.1199620718 0.1312211627
340297960.0 -0.1259406746 0.1187234355 0.427017845 -0.3618828812 0.4270425216 -0.361647161 -0.1187828235 0.1326893161
345297930.0 -0.1250664867 0.1200917642 0.4232254612 -0.3661335665 0.4231251112 -0.366467759 -0.1171906727 0.1340943753
350297900.0 -0.1242397551 0.1209457647 0.4191507626 -0.3704217322 0.4195648597 -0.3707470563 -0.1164357334 0.1351645146
355297870.0 -0.1230536011 0.1226686961 0.4148220394 -0.3750414771 0.414917408 -0.375150118 -0.1146221016 0.1366254023
360297840.0 -0.1220731028 0.1239445161 0.410334612 -0.3798919121 0.4108710311 -0.3805105443 -0.1131629347 0.138278775
365297810.0 -0.1212114337 0.1254059448 0.4061511165 -0.3842158672 0.406468925 -0.3844114165 -0.1122300908 0.1395955845
370297780.0 -0.1199689244 0.1265387508 0.4016942122 -0.3888697609 0.4024753796 -0.3887343465 -0.1103288158 0.1410418494
375297750.0 -0.1189055844 0.1279778196 0.3981254541 -0.392983586 0.3983064944 -0.393114775 -0.1090496327 0.1421987813
380297720.0 -0.1182329019 0.1291936129 0.3937059241 -0.3980075579 0.3932695577 -0.3978001489 -0.1072129041 0.1438618074
385297690.0 -0.1169903528 0.1301372167 0.3891477769 -0.4017259388 0.389309264 -0.4021450469 -0.1061707307 0.1454975519
390297660.0 -0.115528692 0.1315064154 0.3845675252 -0.4060828115 0.3850562929 -0.4064007932 -0.1040446531 0.1461974396
395297630.0 -0.1144808135 0.132830127 0.3805151419 -0.4097552969 0.3803494954 -0.4099810026 -0.1027716285 0.1474917284
400297600.0 -0.1136001317 0.1338120761 0.3758347231 -0.4144685177 0.3763927056 -0.4143528674 -0.1011518929 0.1488996172
405297570.0 -0.1125999221 0.1346173208 0.3715971668 -0.4179720442 0.371638633 -0.4187644434 -0.0995779403 0.150460784
410297540.0 -0.1109972278 0.1365534287 0.3668708466 -0.4231101744 0.3670363936 -0.4226779356 -0.0980348124 0.1514244855
415297510.0 -0.1101595715 0.1374372942 0.3622572337 -0.4262580152 0.3622059994 -0.4269822118 -0.095936481 0.1528699526
420297480.0 -0.1089323416 0.1383545093 0.3572582795 -0.4306737948 0.3576942389 -0.4310626075 -0.0942812768 0.1544072474
425297450.0 -0.1069776563 0.1393723618 0.3528589835 -0.4344729897 0.3525823669 -0.4343161972 -0.0928353507 0.1548978938
430297420.0 -0.1060462197 0.1406941613 0.3480989975 -0.4383750226 0.3481922739 -0.4379076425 -0.0909342236 0.1561954566
435297390.0 -0.1048111257 0.1418253845 0.3432272463 -0.4428902565 0.3432061925 -0.4425147972 -0.0897074805 0.1578391679
440297360.0 -0.103221065 0.1426147178 0.3381801983 -0.4459272777 0.338529314 -0.4459253494 -0.0880029139 0.1588139728
445297330.0 -0.1019606464 0.1437860192 0.3335171302 -0.4492283283 0.3333557666 -0.4494886257 -0.085987244 0.1597461286
450297300.0 -0.100557315 0.1449469829 0.3285908155 -0.4528169926 0.3285963485 -0.4529238369 -0.0840831637 0.1610023636
455297270.0 -0.0995595743 0.1458589299 0.3235718892 -0.4565662799 0.3235603063 -0.4569926054 -0.0823895742 0.1621788376
460297240.0 -0.0978216489 0.1469440669 0.3187120815 -0.4610505648 0.3185163179 -0.4607335055 -0.0803801128 0.1630414799
465297210.0 -0.0967122456 0.1477539467 0.3132705236 -0.4636162312 0.3130562919 -0.4641385792 -0.0783432238 0.1644691157
470297180.0 -0.0950694401 0.1487008427 0.308482586 -0.4665860632 0.3084545405 -0.4671876243 -0.0765641046 0.1651868295
475297150.0 -0.0938939252 0.150193341 0.3030700333 -0.4702172088 0.3033310136 -0.4706311801 -0.0748003575 0.1663202973
480297120.0 -0.0918012536 0.151211532 0.2979429046 -0.4738621969 0.2981170895 -0.4738893773 -0.0732454651 0.1673021997
485297090.0 -0.0905518255 0.1517147154 0.2925878962 -0.477311274 0.2929618656 -0.4767904499 -0.0717464588 0.1682623994
490297060.0 -0.0883820078 0.1529464515 0.2869748797 -0.4803265002 0.2876581985 -0.4802658244 -0.069597706 0.1691847833
495297030.0 -0.0875902968 0.1536234936 0.2826677777 -0.4833338428 0.2822569762 -0.4833035685 -0.067163875 0.1697695099
500297000.0 -0.0858626993 0.1550121323 0.2772579302 -0.4860602416 0.2770963232 -0.4863096198 -0.0655041036 0.1709016267
505296970.0 -0.0842395548 0.1558734239 0.2718419599 -0.4892601079 0.2719610455 -0.4890004491 -0.063688009 0.1715710864
510296940.0 -0.0827779692 0.1569192946 0.2665285494 -0.4926757885 0.2669843259 -0.4926108634 -0.0615911872 0.1728773204
515296910.0 -0.0810698109 0.1579902028 0.260586832 -0.4950927066 0.2605016366 -0.4948769193 -0.0597396262 0.173048557
520296880.0 -0.0795181958 0.15877024 0.2553184491 -0.4975263726 0.255422203 -0.4975912279 -0.0574844149 0.174235036
525296850.0 -0.0780339572 0.1593836917 0.2497345831 -0.500340873 0.2500226534 -0.5003297909 -0.0556700114 0.1747900124
530296820.0 -0.0767453526 0.1602005508 0.2446152313 -0.5030670703 0.244542973 -0.5032962566 -0.0536322342 0.1754315234
535296790.0 -0.074331613 0.1610282294 0.239276476 -0.5055696914 0.2390800733 -0.5058207288 -0.0512919355 0.1766539278
540296760.0 -0.0728018833 0.1623057671 0.233496472 -0.5082564463 0.2333804268 -0.5084049329 -0.0499386545 0.1769247157
545296730.0 -0.0717444163 0.1633081994 0.2282906756 -0.5107428708 0.2278420253 -0.5106781231 -0.047466126 0.1777526334
550296700.0 -0.0692297082 0.1639106364 0.2222274566 -0.5130690315 0.2221400421 -0.5134295912 -0.0455221166 0.1782325431
555296670.0 -0.0678668121 0.1645922233 0.2168069379 -0.5157785864 0.2168410265 -0.5155208868 -0.0438585777 0.1786352781
560296640.0 -0.065982491 0.1655122134 0.2109519236 -0.5178791895 0.2111581083 -0.5177851007 -0.0415644362 0.1797848726
565296610.0 -0.0647216892 0.1665045732 0.2056989977 -0.5203475024 0.2056044499 -0.5196979994 -0.0394658798 0.1800704107
570296580.0 -0.0631280769 0.1674402821 0.200035457 -0.5222391424 0.1998723441 -0.5220871699 -0.037544911 0.1804322523
575296550.0 -0.061047622 0.1677237084 0.194448462 -0.5241092589 0.1944561243 -0.5244873985 -0.0358017263 0.1813583025
580296520.0 -0.0595665279 0.1691531462 0.1887941186 -0.5263567135 0.1885466035 -0.5266850074 -0.033862873 0.1816981248
585296490.0 -0.0573631235 0.1696918505 0.182926543 -0.5282536694 0.1825464533 -0.5282521458 -0.0310150236 0.1822846754
590296460.0 -0.0555033275 0.1705624954 0.1770349785 -0.5302660592 0.1770977684 -0.5307554936 -0.0296917712 0.1828277915
595296430.0 -0.0536016632 0.1711179296 0.170547715 -0.5324350331 0.1706283325 -0.5319913366 -0.02737172 0.1830105859
600296400.0 -0.0520077274 0.1717970691 0.1652809594 -0.533914755 0.1653528028 -0.5340962513 -0.025379159 0.1833681155
605296370.0 -0.050747099 0.1727117891 0.1600320006 -0.535323578 0.1589458517 -0.5357962523 -0.0233813894 0.1840880251
610296340.0 -0.048664413 0.1738618647 0.1537165904 -0.5369167447 0.1543292004 -0.5372271704 -0.021428933 0.1844188069
615296310.0 -0.0466807801 0.1742196517 0.1479969951 -0.5393485757 0.1473941805 -0.539347147 -0.018755135 0.1849843001
620296280.0 -0.0451598247 0.1751536607 0.1415914322 -0.5405074716 0.1418523287 -0.5406433111 -0.0174992071 0.1853336061
625296250.0 -0.0438677051 0.1757542268 0.1361743677 -0.5423106462 0.1358525699 -0.5423458236 -0.0152951969 0.1855950877
630296220.0 -0.0417838777 0.1764743222 0.1298763756 -0.5435766824 0.1300404344 -0.5433798328 -0.0129139507 0.1857535274
635296190.0 -0.0400851141 0.1773377234 0.1244560507 -0.544684629 0.1243724682 -0.544798869 -0.0111287037 0.1863896313
640296160.0 -0.0382554103 0.1776366385 0.1184077812 -0.5460803799 0.118254507 -0.5462536984 -0.0091334473 0.1860600863
645296130.0 -0.036054526 0.1787923144 0.1125172394 -0.5472006356 0.112812198 -0.5473391309 -0.0073904369 0.1861395509
650296100.0 -0.0345781557 0.1788731885 0.1066005941 -0.548622274 0.1062249747 -0.5485719979 -0.0042059646 0.1864649553
655296070.0 -0.0328747013 0.1797763938 0.1003791876 -0.5495198829 0.1006129401 -0.5491382203 -0.0030713763 0.1868130887
660296040.0 -0.0311633225 0.1804885771 0.0946239219 -0.5504612895 0.0945252419 -0.550643351 -0.0005982817 0.1868716974
665296010.0 -0.0291740928 0.1809163581 0.0881542741 -0.5511713683 0.0883875556 -0.5511690523 0.0014358468 0.1870975201
670295980.0 -0.0277230951 0.1816652642 0.0827705961 -0.5525015615 0.0823957435 -0.5515732282 0.0033305856 0.1870479998
675295950.0 -0.0258133407 0.1821326352 0.0767291645 -0.5526141701 0.076529027 -0.5532573435 0.0052532151 0.187566188
680295920.0 -0.0242385203 0.1827234877 0.0707615185 -0.5537644706 0.0708067987 -0.5537329277 0.0076525592 0.1870321781
685295890.0 -0.0220896324 0.1832635243 0.0646058862 -0.5549290595 0.0646375973 -0.5547116584 0.0098044789 0.1875856416
690295860.0 -0.0207922317 0.1836041671 0.0588529138 -0.5550839546 0.0584197038 -0.5554681899 0.0116384982 0.1874850447
695295830.0 -0.0189075826 0.1839383914 0.0530060418 -0.5560292836 0.0527836136 -0.5558435259 0.0137029522 0.1876243746
700295800.0 -0.0166933996 0.1845842199 0.0472210579 -0.5563535262 0.0469516767 -0.5562542045 0.015786919 0.18751876
705295770.0 -0.0154965864 0.1848236429 0.041098215 -0.5569987966 0.0406993149 -0.5564775764 0.017737873 0.1877232826
710295740.0 -0.013577101 0.1853578928 0.0352084088 -0.5570985402 0.0347695965 -0.5577792082 0.0200159083 0.1879766655
715295710.0 -0.0118684583 0.1859476838 0.0293268339 -0.557727773 0.0287950309 -0.5578485562 0.0221218359 0.1875022975
720295680.0 -0.0097425584 0.1861462751 0.0229106206 -0.5575025348 0.0225185691 -0.558136695 0.0240873541 0.1871684142
725295650.0 -0.0084897086 0.1867937677 0.0171324397 -0.5581082561 0.0164937598 -0.5583579696 0.025837005 0.1877090753
730295620.0 -0.0071278545 0.1867036942 0.0110080191 -0.5574402665 0.0109944531 -0.5573807384 0.0278562125 0.1879713143
735295590.0 -0.0050651269 0.1873294089 0.0045698319 -0.558421087 0.0049391108 -0.5582087866 0.0301834801 0.1868426465
740295560.0 -0.0032865908 0.1872360205 -0.0008505207 -0.5579141779 -0.0009643514 -0.5580029341 0.032068867 0.18704301
745295530.0 -0.0015643086 0.1878955487 -0.0068514175 -0.5572564686 -0.0064333758 -0.5579480244 0.0336837174 0.1869411609
750295500.0 -0.0002028774 0.1882411854 -0.0127324276 -0.5584015539 -0.0133485359 -0.5581160695 0.036097101 0.1866960988
755295470.0 0.0016814978 0.1882019399 -0.0185329778 -0.5579653102 -0.018960511 -0.5581443567 0.0380231445 0.1867187596
760295440.0 0.0034819782 0.1889565733 -0.0252449247 -0.5572042725 -0.0250695909 -0.5569846021 0.0401471046 0.1855751718
765295410.0 0.0055832351 0.18861607 -0.0310924582 -0.556437739 -0.0307348117 -0.5570047471 0.0422441025 0.1855411687
770295380.0 0.0069556121 0.1893803545 -0.0363651279 -0.5564757929 -0.0367752138 -0.5569445847 0.0440049375 0.1856066266
775295350.0 0.0088265593 0.1891054113 -0.0431607048 -0.5562540412 -0.042470476 -0.5556950289 0.0464462086 0.1852340987
780295320.0 0.0105346988 0.1895509165 -0.0486998347 -0.5552762437 -0.0487152555 -0.5554865787 0.0488641605 0.184836907
785295290.0 0.0120096903 0.1892572051 -0.0549527629 -0.5551933933 -0.0548129124 -0.555412048 0.0501247721 0.1848485056
790295260.0 0.0139460038 0.1892933477 -0.0604030917 -0.5542482636 -0.0604541984 -0.5549365383 0.0519370372 0.1845266902
795295230.0 0.0154222179 0.18930782 -0.0666801389 -0.5537897475 -0.0668143228 -0.5537237805 0.0543735554 0.1832518365
800295200.0 0.0172569991 0.1894153496 -0.0720025192 -0.5523423593 -0.0726037183 -0.5529043884 0.0561669864 0.1833253401
805295170.0 0.0187904565 0.1897041953 -0.0783963504 -0.5522330639 -0.0783603643 -0.5525818102 0.0586452366 0.1829083311
810295140.0 0.0207076293 0.1898435251 -0.0840350138 -0.5514872689 -0.0843445808 -0.5513545587 0.0605157888 0.1822209424
815295110.0 0.0223408545 0.1899854303 -0.0899383845 -0.5504085968 -0.0898306403 -0.550529466 0.0620429124 0.1818837749
820295080.0 0.0239749195 0.1894606027 -0.0955891138 -0.5489761454 -0.0956140574 -0.5497957243 0.063667843 0.1818961467
825295050.0 0.0259576049 0.189472141 -0.1019548308 -0.5485411565 -0.1017577791 -0.5483256884 0.066537085 0.181215224
830295020.0 0.0276805561 0.1892433421 -0.1078166413 -0.5471394974 -0.1076839418 -0.5474375545 0.0682917598 0.1799713681
