!Created with skrf (http://scikit-rf.org).
# Hz S RI R 50.0 
!freq ReS11 ImS11 ReS21 ImS21 ReS12 ImS12 ReS22 ImS22
300000.0 -0.316281328 -0.1243766189 0.3726024813 0.0644177359 0.3715967186 0.0632363727 -0.316618055 -0.128242406
5299970.0 -0.3249124842 0.0029918138 0.3783164413 0.0034007262 0.3788761291 0.0031735231 -0.3258905771 0.0020714848
10299940.0 -0.3223313297 0.0141362302 0.3798997535 0.0027038717 0.3797737628 0.0029822693 -0.3231583084 0.0123828046
15299910.0 -0.3186463601 0.0223707556 0.3816895678 0.0027750164 0.3822159895 0.0025796081 -0.3207901607 0.0197802375
20299880.0 -0.3154719308 0.0289753298 0.3849488635 0.0017398165 0.3852776516 0.00201132 -0.3179348163 0.0259498825
25299850.0 -0.3113191908 0.03492813 0.3882576456 0.000503169 0.388774301 0.0003229989 -0.3151014796 0.0312147368
30299820.0 -0.3078789241 0.039547869 0.3922130241 -0.0021681819 0.3921708408 -0.0020107769 -0.3120265109 0.0357612963
35299790.0 -0.3046203109 0.0433870264 0.3951392227 -0.0051081328 0.395238365 -0.0050790215 -0.3091566182 0.0397671367
40299760.0 -0.3011074414 0.0469331303 0.398322207 -0.0085350679 0.3984911808 -0.0086227502 -0.3064339858 0.0432959857
45299730.0 -0.2979829167 0.0500080593 0.4011016729 -0.0124581799 0.4015322413 -0.0129605173 -0.3036905123 0.0465882543
50299700.0 -0.294706067 0.0529360406 0.4036880636 -0.0173115758 0.4037444642 -0.0173211132 -0.3012957083 0.049739827
55299670.0 -0.292105602 0.0555582716 0.4058708849 -0.0217333355 0.4060256069 -0.0219377316 -0.2995601755 0.0524709789
60299640.0 -0.2899680754 0.0580486656 0.4081462076 -0.0268965734 0.4080143125 -0.0268748263 -0.2972114558 0.0548740142
65299610.0 -0.2871969423 0.0601411797 0.4097053919 -0.03153827 0.4099361054 -0.0316235891 -0.2952054834 0.0573652965
70299580.0 -0.2855123286 0.0620312725 0.4109089624 -0.0363152182 0.4108069409 -0.0370580984 -0.2938686623 0.0599217794
75299550.0 -0.2836950913 0.0642529802 0.4118178634 -0.041786001 0.4121142507 -0.0419797197 -0.2920303172 0.0624591894
80299520.0 -0.2817714727 0.0663357089 0.4129358894 -0.0472098619 0.4130809859 -0.0473726949 -0.2905310585 0.0648266266
85299490.0 -0.2799754562 0.0684585082 0.4137083791 -0.052795029 0.4134424158 -0.0524537823 -0.2889978733 0.0668748013
90299460.0 -0.2781095517 0.0708683928 0.4134562004 -0.0575758042 0.4136856195 -0.0578136155 -0.2877146463 0.0696096699
95299430.0 -0.2768370923 0.0724676067 0.4140473918 -0.062943243 0.4143840153 -0.0632954067 -0.2865588129 0.0719030569
100299400.0 -0.2753279478 0.0746130452 0.4141000717 -0.0679897465 0.4141810661 -0.0684008878 -0.2855328246 0.0744470046
105299370.0 -0.2738672115 0.0766870405 0.4139935337 -0.0730674497 0.4142744022 -0.0735940326 -0.2842804695 0.0763461907
110299340.0 -0.2724048242 0.0784884836 0.4134390273 -0.0782275862 0.4139194327 -0.0782155696 -0.2831002515 0.0785655831
115299310.0 -0.2714822092 0.0814818243 0.4133554894 -0.083808755 0.4136850815 -0.083789268 -0.2822607717 0.0814126408
120299280.0 -0.2704259115 0.0834388093 0.4134126587 -0.0888834351 0.4132925607 -0.0890792546 -0.2811701318 0.0831791813
125299250.0 -0.2692684997 0.0852214395 0.4124345733 -0.0939532473 0.412302071 -0.093866369 -0.2800809806 0.0858331326
130299220.0 -0.2681768095 0.0877382521 0.4117656547 -0.0991707059 0.4120810847 -0.0991218948 -0.279259824 0.0883450396
135299190.0 -0.2673584481 0.0898471996 0.4113578503 -0.1037124719 0.4114261285 -0.1044237384 -0.2784069463 0.0905674846
140299160.0 -0.266188449 0.0919973247 0.4103000773 -0.1090859887 0.4106617188 -0.1084988522 -0.277676747 0.0928695549
145299130.0 -0.2651889262 0.094829156 0.4093221059 -0.1137383544 0.4096494222 -0.1141292968 -0.2767625934 0.0955920288
150299100.0 -0.2639132124 0.0969816534 0.4084130778 -0.11905028 0.4087435776 -0.1190827134 -0.2758169639 0.0983485316
155299070.0 -0.2631179644 0.0993757295 0.4069785893 -0.1236960857 0.4074017604 -0.1238866333 -0.2747633887 0.1012456569
160299040.0 -0.2623665807 0.1019995762 0.4060064172 -0.1288624153 0.4061421726 -0.1288823963 -0.2739133816 0.1034907725
165299010.0 -0.261180756 0.1044208225 0.4049180415 -0.1334135002 0.4048199426 -0.1337008248 -0.2728557857 0.1059166621
170298980.0 -0.2601847598 0.1068405724 0.4033179755 -0.1380591812 0.4037850705 -0.1385010595 -0.272271958 0.1084009425
175298950.0 -0.2590801666 0.10924421 0.4021833232 -0.1430451221 0.4024551005 -0.1433958457 -0.271203241 0.1113601167
180298920.0 -0.2580484749 0.1117571633 0.4006178426 -0.1479740076 0.4007218609 -0.1480447946 -0.2700160956 0.1139542651
185298890.0 -0.2569680355 0.1144281155 0.3997295611 -0.1525234366 0.3991954754 -0.1526345659 -0.2689809278 0.1165897836
190298860.0 -0.2559619663 0.1172096495 0.3972587625 -0.1571060869 0.3978043002 -0.1571684825 -0.2677476815 0.1192361323
195298830.0 -0.2548441069 0.1194325949 0.3960024954 -0.1615448172 0.3964249318 -0.1619924921 -0.266822198 0.1220154684
200298800.0 -0.2533700802 0.1220867354 0.3942504159 -0.1669175114 0.394298489 -0.1666947043 -0.2656204079 0.1245478083
205298770.0 -0.2527276698 0.1247648137 0.3923301527 -0.1709820813 0.3927350597 -0.1707277086 -0.2648370742 0.1272446218
210298740.0 -0.2514600247 0.1273331577 0.3904465596 -0.1756410206 0.3904318603 -0.1758366757 -0.2637764885 0.129655413
215298710.0 -0.2503378419 0.1299907891 0.388834492 -0.1802621876 0.3887383181 -0.1806128088 -0.2625973738 0.1326147754
220298680.0 -0.2490072464 0.1326298296 0.3865023333 -0.1847930844 0.3867509297 -0.1848041504 -0.2611988039 0.1352981017
225298650.0 -0.2474798498 0.1353665707 0.3843344774 -0.1891480352 0.3847964743 -0.1887697806 -0.2599683543 0.1377563957
230298620.0 -0.2462298039 0.1383720472 0.3823034344 -0.1939600669 0.3828796316 -0.1935997667 -0.258804814 0.14046823
235298590.0 -0.2454375583 0.140742869 0.3806121489 -0.1981319539 0.38037247 -0.1978898331 -0.2573844096 0.1432367796
240298560.0 -0.2440544843 0.1435966111 0.3779882707 -0.2022817526 0.3785023028 -0.2024954922 -0.2560396508 0.1460017886
245298530.0 -0.2427403381 0.1456828143 0.3761197559 -0.2065401504 0.3762629449 -0.2066385925 -0.2546938425 0.1485695915
250298500.0 -0.2416654858 0.1482843232 0.3742591577 -0.2105819277 0.3738131484 -0.2106400981 -0.2535146438 0.1514891974
255298470.0 -0.2399939983 0.1511015166 0.3716835596 -0.2147996025 0.3719813584 -0.2153338708 -0.2522311259 0.1540114068
260298440.0 -0.2388845876 0.1537239205 0.3694697868 -0.2189056683 0.3693223001 -0.2190468223 -0.2508961338 0.1564498476
265298410.0 -0.2372992621 0.1563515855 0.3667750077 -0.223748852 0.3670049919 -0.2238389028 -0.2488845825 0.1592384905
270298380.0 -0.2358735015 0.1587895644 0.3641946587 -0.2277407038 0.3647028972 -0.2275723997 -0.2475696189 0.1619354584
275298350.0 -0.2346378194 0.1617471335 0.3613678072 -0.2315355237 0.3617664577 -0.2316421533 -0.2455693695 0.1650071193
280298320.0 -0.2333285989 0.1639751926 0.3597882998 -0.2355085629 0.3596112077 -0.2357667142 -0.244411875 0.167352238
285298290.0 -0.2315998438 0.1667193412 0.3567321111 -0.2395960244 0.3568166913 -0.2396460591 -0.2429332068 0.1703419887
290298260.0 -0.2300712571 0.1692958402 0.3543044515 -0.2436499387 0.3543414274 -0.2438905372 -0.241334894 0.1729797006
295298230.0 -0.2284878476 0.1718732221 0.3514429075 -0.2479475501 0.3513823702 -0.248040269 -0.2390739818 0.1752285369
300298200.0 -0.2267496912 0.1741784818 0.3488594365 -0.2512742023 0.3489454437 -0.2515809703 -0.2376642271 0.1778214147
305298170.0 -0.2248274825 0.176739343 0.3462294149 -0.2558352332 0.3465507214 -0.2557655074 -0.2358856266 0.180260461
310298140.0 -0.2233872222 0.1789977698 0.3435294356 -0.2596173442 0.3433939793 -0.2595174724 -0.2338696068 0.1828150407
315298110.0 -0.221817548 0.1810527411 0.3404127896 -0.2639238193 0.3405813218 -0.2638151435 -0.2320875682 0.1854847647
320298080.0 -0.2201193446 0.1840646449 0.3373524117 -0.2675598833 0.3379748615 -0.2674093671 -0.2305960248 0.1877455743
325298050.0 -0.2185034196 0.1860118613 0.3343339043 -0.2711159884 0.3348127698 -0.271416479 -0.2283573896 0.1902747481
330298020.0 -0.2172066887 0.188369036 0.3315916458 -0.2750121671 0.3319103096 -0.2751031743 -0.2271403034 0.1929138343
335297990.0 -0.2153330808 0.1907081235 0.3280794227 -0.2784979475 0.3285183087 -0.2788247537 -0.2251299219 0.1953456624
340297960.0 -0.2137534547 0.1934784268 0.3246629429 -0.2826306558 0.3248841942 -0.2823697916 -0.2230283491 0.1979707851
345297930.0 -0.2118265237 0.1957981759 0.3217253072 -0.2863253673 0.3221068236 -0.2861191042 -0.2212543283 0.200259879
350297900.0 -0.2103089973 0.1980151248 0.3188863209 -0.2893325046 0.3190450595 -0.2893450385 -0.2193603992 0.2023767847
355297870.0 -0.2084099379 0.2002894768 0.3158408487 -0.2923745603 0.3156261467 -0.2923571913 -0.2168785385 0.2052248672
360297840.0 -0.2064114833 0.2030088383 0.3121740035 -0.2961952637 0.3125146074 -0.2965159798 -0.215167019 0.2078352388
365297810.0 -0.2044060528 0.2050746729 0.3087601724 -0.2997836931 0.3091383097 -0.2995983881 -0.2133408462 0.2101228202
370297780.0 -0.2025188542 0.2073329387 0.3054579986 -0.3030600971 0.3057426852 -0.3032948519 -0.2110738058 0.2126071422
375297750.0 -0.2004680269 0.2096747473 0.3022562791 -0.3063579665 0.3024060269 -0.3066563606 -0.2090246847 0.2152083984
380297720.0 -0.198632154 0.2120550602 0.2991025508 -0.309782032 0.2989466978 -0.3099644415 -0.2068905632 0.2175106037
385297690.0 -0.1965461901 0.2142400366 0.2953316582 -0.3127641329 0.2956921633 -0.3132510436 -0.2045561609 0.2196852194
390297660.0 -0.1941287364 0.2162268217 0.2918132921 -0.3157339965 0.2920590718 -0.3163353298 -0.2020216692 0.2217425793
395297630.0 -0.1919624371 0.2185199251 0.2883141466 -0.3190873139 0.288387498 -0.3193762328 -0.2000453544 0.2242115963
400297600.0 -0.1900999946 0.2208618637 0.2849068057 -0.3228608905 0.2852645661 -0.3226609306 -0.1972790687 0.2265555545
405297570.0 -0.1880340566 0.222287011 0.2815214422 -0.3256373349 0.2814785673 -0.3256733531 -0.1947747548 0.2287226453
410297540.0 -0.1857250662 0.2246809923 0.2783858456 -0.3288103299 0.2778705129 -0.328815698 -0.1930747157 0.2314435419
415297510.0 -0.1831279784 0.226882874 0.2741022802 -0.3320170839 0.274385065 -0.3317828134 -0.1901415063 0.2330656558
420297480.0 -0.1813122361 0.2288007227 0.2702027154 -0.3350772316 0.2707734522 -0.3351008846 -0.1875671564 0.2357696078
425297450.0 -0.1784148074 0.230517559 0.2668499839 -0.3373672894 0.2667558876 -0.3373755557 -0.1856480876 0.2372062399
430297420.0 -0.1765192105 0.2327929833 0.2634072304 -0.3405214119 0.2634943293 -0.3402807895 -0.1828258848 0.2398642268
435297390.0 -0.1739677242 0.2347701133 0.2591688703 -0.3439245419 0.2596139185 -0.3434656991 -0.1810241385 0.2423856289
440297360.0 -0.1713072828 0.2364719343 0.2549739344 -0.346241702 0.255457527 -0.3464660534 -0.1780804924 0.243919371
445297330.0 -0.1689810245 0.238267837 0.2516283248 -0.3487596306 0.2520030979 -0.3491237767 -0.1753153743 0.2461771699
450297300.0 -0.1666126355 0.240468832 0.2480547263 -0.351660296 0.2480545203 -0.3514622694 -0.1725711514 0.2482513149
455297270.0 -0.1644904998 0.242106676 0.243875661 -0.3541317598 0.244102321 -0.3547538644 -0.1697579602 0.2502295195
460297240.0 -0.1614779572 0.2440899341 0.2399674096 -0.3573118346 0.2402514561 -0.3573076685 -0.167649752 0.2519381652
465297210.0 -0.1591054177 0.2459015969 0.2359100761 -0.3596572804 0.2356782657 -0.3600643549 -0.1645705131 0.2545604804
470297180.0 -0.1565701444 0.2476094509 0.232073831 -0.3620923852 0.232435291 -0.3621866953 -0.1623990348 0.255976569
475297150.0 -0.1538683485 0.2495246372 0.2277581847 -0.3647355867 0.228488498 -0.3646762354 -0.1597916208 0.2576723966
480297120.0 -0.1511400466 0.2514964869 0.2240425935 -0.3671147002 0.224078406 -0.3669837624 -0.156956617 0.2595449868
485297090.0 -0.1482821738 0.2527775968 0.2196581179 -0.3696264383 0.2200228198 -0.3694495863 -0.1542854228 0.2617186016
490297060.0 -0.1453658606 0.2547160336 0.2153961942 -0.3721019433 0.2157325911 -0.3718686124 -0.151172898 0.2628118539
495297030.0 -0.1430997329 0.2562339527 0.2120705998 -0.3744204298 0.2117165155 -0.3742971272 -0.1484228065 0.2649301188
500297000.0 -0.1401595377 0.257765416 0.2078356624 -0.3765813881 0.2076924222 -0.376665478 -0.1460049721 0.2668659522
505296970.0 -0.1372813146 0.2596429763 0.2039148353 -0.3791398908 0.20347572 -0.3784836001 -0.1427539827 0.2679255928
510296940.0 -0.1343177036 0.2609383998 0.1994120588 -0.3811415623 0.1997010538 -0.381299974 -0.1399112568 0.270186833
515296910.0 -0.1315801869 0.2628371562 0.1950532507 -0.3831131866 0.1948586364 -0.3831774505 -0.1371129267 0.2715626328
520296880.0 -0.1288063587 0.2642319928 0.190800074 -0.3850041677 0.190846488 -0.3850874592 -0.1341195212 0.2733352832
525296850.0 -0.1260383973 0.2657263873 0.1863822263 -0.387338017 0.1864279461 -0.3870221843 -0.131330779 0.2745300529
530296820.0 -0.1233135523 0.2670480644 0.1822896451 -0.3891656005 0.1823906032 -0.3889974186 -0.1284846711 0.2760688837
535296790.0 -0.1198409551 0.2685512032 0.1778599239 -0.3909294288 0.1781949884 -0.3912505272 -0.1252749486 0.277884829
540296760.0 -0.1168905159 0.2700016009 0.1735748806 -0.3928989766 0.1736429725 -0.3931350576 -0.1222821633 0.279186911
545296730.0 -0.1145092845 0.2715988521 0.1695204505 -0.3946186092 0.1692980408 -0.3944369638 -0.1194125319 0.2804226891
550296700.0 -0.1113958076 0.2728347277 0.164963012 -0.396623523 0.164717193 -0.3968064128 -0.1165240015 0.281866451
555296670.0 -0.1083977695 0.2741939777 0.1608603901 -0.3984921011 0.1609546728 -0.3982504413 -0.1138343954 0.2828718935
560296640.0 -0.1050020843 0.2754592626 0.1564764399 -0.4000015034 0.1563523954 -0.4000460446 -0.1106031267 0.2847764063
565296610.0 -0.1026098875 0.2769369136 0.1522761523 -0.4015267138 0.1520747059 -0.4013663933 -0.1075385182 0.2859047579
570296580.0 -0.0992436069 0.2782372993 0.1475856143 -0.4032538589 0.1473173457 -0.4033313122 -0.1044990222 0.2871626205
575296550.0 -0.0960414335 0.2794042602 0.1434967286 -0.404831236 0.1429938154 -0.4045807711 -0.1014342735 0.2879706974
580296520.0 -0.0932284159 0.2807298355 0.1387943081 -0.4062628482 0.1384992457 -0.4063243429 -0.0985911906 0.2894565496
585296490.0 -0.090108337 0.2818564324 0.1345689243 -0.4077143753 0.1340057564 -0.4074515732 -0.0950342746 0.2907929522
590296460.0 -0.0866020068 0.2829137155 0.130141509 -0.4092459367 0.1299366468 -0.4092431264 -0.0925484396 0.2919394522
595296430.0 -0.0835840285 0.2841021381 0.1252230892 -0.4101976021 0.125034636 -0.4104656794 -0.0891058803 0.2930189783
600296400.0 -0.0805290194 0.2853017401 0.1209042315 -0.4117498283 0.1208040525 -0.411724427 -0.0862935585 0.2938135911
605296370.0 -0.0779197858 0.2864071922 0.1170633155 -0.4128733577 0.1159276593 -0.4134992555 -0.0829688879 0.2954515862
610296340.0 -0.0741202094 0.2875344317 0.1117552535 -0.4136314156 0.1120128391 -0.4143207902 -0.0800474923 0.296304128
615296310.0 -0.0711155382 0.2884626159 0.1072660566 -0.4157955207 0.1069442038 -0.4156069096 -0.0765515748 0.2973005839
620296280.0 -0.0686074887 0.2897841342 0.1027386411 -0.4165384793 0.1026354131 -0.4161710338 -0.0739588382 0.2980225231
625296250.0 -0.0655536535 0.2904899714 0.098246318 -0.4177919352 0.0980677509 -0.417692861 -0.0705691091 0.2987666901
630296220.0 -0.0621328957 0.2914551189 0.0935236287 -0.4185484612 0.0933638845 -0.4184943746 -0.0671707832 0.2996129521
635296190.0 -0.0593679352 0.2926878445 0.0889169788 -0.4194037234 0.0891066267 -0.4190394468 -0.0642047099 0.3006079288
640296160.0 -0.0558930227 0.2935925419 0.0845386787 -0.4209093911 0.08422935 -0.4204504078 -0.0610760744 0.3014728663
645296130.0 -0.0525905983 0.2943826913 0.0801842485 -0.4210582514 0.0797318202 -0.4209294999 -0.0580809603 0.3019339515
650296100.0 -0.0497542249 0.2949420614 0.075685276 -0.4220318759 0.0748131263 -0.4221591989 -0.054292864 0.3029489004
655296070.0 -0.0467080366 0.2958104665 0.0705669746 -0.4226064816 0.0705751682 -0.4227503884 -0.0519649165 0.3037087679
660296040.0 -0.0432147352 0.2965677553 0.066046914 -0.4234221419 0.0659423848 -0.4235387338 -0.0482471206 0.3042130817
665296010.0 -0.040398235 0.2975018622 0.0612054191 -0.4238565269 0.0613736964 -0.4238786898 -0.0450339001 0.3048115795
670295980.0 -0.037328007 0.2978407385 0.0567799757 -0.4245169398 0.0567395484 -0.4242618213 -0.0419456155 0.3052351867
675295950.0 -0.0340829127 0.2985073757 0.0523292483 -0.4251558975 0.0519597951 -0.4254862063 -0.0388361519 0.30650555
680295920.0 -0.0314138386 0.2997061184 0.0478705011 -0.4256693625 0.0473751748 -0.4256054796 -0.0351549097 0.3064716364
685295890.0 -0.0275489778 0.3002491865 0.0429651017 -0.4263757642 0.0427943462 -0.4263252767 -0.0321400323 0.3072584046
690295860.0 -0.0248428254 0.3002647491 0.0387915352 -0.426550065 0.0381650085 -0.4265070996 -0.0290636421 0.3076862187
695295830.0 -0.0217523596 0.3011700004 0.0341289086 -0.4273217962 0.03357541 -0.4268231502 -0.025832972 0.3082804094
700295800.0 -0.0182621785 0.3018546037 0.0294485537 -0.4273248685 0.0292634776 -0.4272897215 -0.022499537 0.3086231734
705295770.0 -0.0150863252 0.3023170431 0.0248279035 -0.4276584714 0.0244356435 -0.4274318447 -0.0194128691 0.3090183628
710295740.0 -0.011975208 0.3024655487 0.0198582225 -0.4275782232 0.0199919663 -0.4282461274 -0.0158974921 0.3092664554
715295710.0 -0.0089689008 0.303095998 0.0157308964 -0.4279052605 0.0153108827 -0.4279298286 -0.0127175877 0.3092607053
720295680.0 -0.0056866982 0.3033397414 0.0104866474 -0.4279018712 0.0104052309 -0.4281883922 -0.0093590858 0.3094733079
725295650.0 -0.0030582682 0.3039955364 0.0063966654 -0.4279783553 0.0060173434 -0.4280295775 -0.0063791508 0.3100719594
730295620.0 -0.0002467251 0.3040717493 0.0017764661 -0.4280069527 0.0015111094 -0.4276154004 -0.0034324024 0.3106914139
735295590.0 0.0030686167 0.3042838804 -0.0026944086 -0.4278537185 -0.0029482153 -0.4283329323 6.967e-06 0.3102371736
740295560.0 0.0060852596 0.3043617828 -0.0074579935 -0.4280488294 -0.0075735021 -0.4282840617 0.0031283294 0.3111195299
745295530.0 0.0092367061 0.3046049365 -0.0118455068 -0.4270168959 -0.01176166 -0.4277261572 0.0062778489 0.3108281842
750295500.0 0.0121446133 0.3050213899 -0.0165623184 -0.4274522703 -0.0171224514 -0.427694138 0.0098105282 0.3110479601
755295470.0 0.0151768326 0.3050953852 -0.0213091151 -0.4274795665 -0.0215864261 -0.4277222681 0.013057053 0.3115986785
760295440.0 0.0182638991 0.3052983601 -0.0262232916 -0.4269931808 -0.0263054204 -0.4264549279 0.016369074 0.3106615466
765295410.0 0.0215878254 0.3049416705 -0.0305888918 -0.4267212624 -0.0303552262 -0.4265547663 0.0195999067 0.3109373823
770295380.0 0.0244231041 0.3051811496 -0.0350728984 -0.4261775972 -0.0353795456 -0.4265587951 0.0225904799 0.3107703334
775295350.0 0.027640695 0.3050739358 -0.0398588805 -0.4258585757 -0.0397216849 -0.4259182519 0.0260856578 0.3108676166
780295320.0 0.0308952489 0.3052352503 -0.0442615134 -0.4250329413 -0.0442389971 -0.4252635504 0.0295022994 0.3102722416
785295290.0 0.0339070019 0.3046884491 -0.0487328638 -0.4248828261 -0.0488047144 -0.4249961844 0.0321768635 0.3106308395
790295260.0 0.0367336235 0.3044756968 -0.0536568004 -0.4242378258 -0.0535372 -0.4245751773 0.0357488583 0.3103180751
795295230.0 0.0397855122 0.304384219 -0.0580022539 -0.4235338917 -0.0579348913 -0.4239947958 0.0387964596 0.3096497262
800295200.0 0.0429371274 0.3042772505 -0.0621631206 -0.4228833396 -0.0624725389 -0.4232015454 0.0418426311 0.3097242067
805295170.0 0.0455564643 0.3038875054 -0.0667691911 -0.4221445217 -0.0673602122 -0.4225170846 0.0458324028 0.309386967
810295140.0 0.0490229369 0.3042805349 -0.0714262308 -0.4214968473 -0.0719045311 -0.4216725754 0.0490074463 0.3089720413
815295110.0 0.0517797211 0.3036857341 -0.0760351332 -0.420927398 -0.0760482183 -0.4209923711 0.0518855825 0.3086961641
820295080.0 0.0549238751 0.3031625791 -0.0804611312 -0.4197422953 -0.0802151195 -0.4201382238 0.054490221 0.3086629812
825295050.0 0.0576349872 0.3026050332 -0.0852715466 -0.4189470739 -0.0850817287 -0.4188993129 0.0582965695 0.3082941627
830295020.0 0.0609261775 0.302303801 -0.0897444659 -0.417948729 -0.0897459263 -0.417962911 0.061247982 0.3073635631
