!Created with skrf (http://scikit-rf.org).
# Hz S RI R 50.0 
!freq ReS11 ImS11 ReS21 ImS21 ReS12 ImS12 ReS22 ImS22
300000.0 -0.7745076889 -0.1377883361 -0.0013298869 -0.0009996882 0.000960363 0.0005745282 -0.7722607639 -0.1702216546
5299970.0 -0.7852453023 -0.0071713768 -0.0002999485 -0.0001100613 -0.0001420754 -4.6247e-05 -0.7845503629 -0.0088514381
10299940.0 -0.7874770309 -0.0040176625 -0.0003052074 -0.0001853044 1.41989e-05 2.51298e-05 -0.7882272093 -0.0051117821
15299910.0 -0.7929991399 -0.0012344529 4.16378e-05 7.18652e-05 0.0001369081 0.0001383454 -0.7935269465 -0.0032381191
20299880.0 -0.799648372 0.0024683232 -9.99982e-05 0.0001702103 3.04175e-05 -4.98158e-05 -0.8004484396 0.0013595252
25299850.0 -0.8061638369 0.0087246323 8.11282e-05 4.16833e-05 5.1132e-06 5.4824e-06 -0.8061003282 0.0070811264
30299820.0 -0.8118223546 0.0164253678 -3.9602e-05 -1.3339e-05 -6.71962e-05 -2.60432e-05 -0.8121499622 0.0147275655
35299790.0 -0.8167631345 0.0250987689 1.36558e-05 -2.62304e-05 -0.0001615006 -0.0001005211 -0.8177575135 0.0241455833
40299760.0 -0.8210919461 0.0342898585 -0.0001022968 -3.28698e-05 -3.62996e-05 -0.0002235792 -0.8212891292 0.0331342492
45299730.0 -0.8250082605 0.0441313961 -0.000193131 -0.0001309604 -7.11445e-05 -7.43516e-05 -0.8253845524 0.0425913958
50299700.0 -0.8269759456 0.0540138196 -0.0002262884 -2.19048e-05 -0.0001196905 1.9148e-05 -0.827563747 0.0525396071
55299670.0 -0.8288487146 0.0643589725 -3.95065e-05 8.1235e-06 7.28482e-05 2.80982e-05 -0.8296697149 0.0629924558
60299640.0 -0.8298480828 0.074649599 2.22317e-05 -0.000198335 1.39493e-05 -0.0001003414 -0.8308412194 0.0733690102
65299610.0 -0.8309235487 0.0848922211 9.75115e-05 7.08e-05 -0.0001343815 -0.0001520461 -0.8309848941 0.0831123115
70299580.0 -0.8312128697 0.0944820115 2.82396e-05 0.000138238 1.7432e-05 -9.5768e-06 -0.8326522803 0.0925374072
75299550.0 -0.831711834 0.105115602 9.55617e-05 0.0001440974 7.81e-06 -7.48641e-05 -0.8324883893 0.102791714
80299520.0 -0.8312587793 0.114893783 -0.0001338075 -7.27474e-05 0.0001546631 0.0001547254 -0.8321164987 0.1120555352
85299490.0 -0.8305380129 0.1240088323 -2.01659e-05 -0.0001651662 0.0001970472 0.0001619807 -0.8317842984 0.1214041925
90299460.0 -0.8296021477 0.1341462516 -8.91649e-05 -7.41012e-05 -2.7358e-06 -9.58759e-05 -0.8304965873 0.1310816351
95299430.0 -0.8284253752 0.1436077317 -2.79936e-05 6.26972e-05 -0.0002790134 7.3727e-06 -0.8298696997 0.1413822505
100299400.0 -0.8277098411 0.153113384 -0.0001569669 0.0001283809 2.2233e-06 8.7353e-05 -0.8287531474 0.1499447941
105299370.0 -0.8263479344 0.1622085364 -6.53289e-05 5.3472e-06 -3.57049e-05 -3.34216e-05 -0.827394632 0.1592414437
110299340.0 -0.8252523936 0.1711662243 -0.0001259664 -4.35441e-05 0.0001158918 4.22004e-05 -0.8263642851 0.1683157388
115299310.0 -0.8236888244 0.180413011 -2.44206e-05 5.11905e-05 -6.81884e-05 0.0001019218 -0.8245059637 0.1771028214
120299280.0 -0.821903501 0.1895731626 -5.10166e-05 -5.16878e-05 0.0001844056 -7.80774e-05 -0.823695472 0.1860256554
125299250.0 -0.8203955133 0.1986972933 -0.0001236424 0.0001095565 -9.7658e-06 1.67722e-05 -0.8220325137 0.1957679771
130299220.0 -0.8183113671 0.2073360318 5.18404e-05 7.46705e-05 0.0001129747 -0.0001065022 -0.8200361533 0.2041239045
135299190.0 -0.8167528203 0.2166267861 -9.60679e-05 -1.13721e-05 9.3874e-06 0.0001606619 -0.8177405008 0.2128023474
140299160.0 -0.8146681858 0.2261117292 -2.1827e-06 8.0374e-06 -0.0001946637 -0.0001211028 -0.8156063373 0.2211956982
145299130.0 -0.8122732593 0.2345913457 0.0001369164 -0.0001727641 0.0002412731 -0.0001026674 -0.8140520797 0.230007604
150299100.0 -0.8098862601 0.2429860199 -0.0001158509 5.0988e-05 6.12747e-05 -7.35495e-05 -0.8113709789 0.2382019248
155299070.0 -0.8076328449 0.2528718364 0.0002196508 3.31826e-05 -5.52996e-05 0.0001040731 -0.8092372801 0.2473325256
160299040.0 -0.8051654706 0.2606208161 0.0001903019 0.0001594673 -0.0002343443 -4.58759e-05 -0.8078037544 0.2567007352
165299010.0 -0.8020783899 0.2691102263 -0.000110154 -0.0002738721 7.1874e-05 3.6398e-05 -0.8043816019 0.2651438712
170298980.0 -0.7996990541 0.2781477865 5.48407e-05 0.0001993144 -0.0001088024 -4.4838e-06 -0.8023457434 0.2735557378
175298950.0 -0.7966838364 0.2869522781 -6.74871e-05 0.0001512559 -3.07208e-05 0.0001275923 -0.7991512763 0.2817892042
180298920.0 -0.7936897289 0.2950414161 -4.49957e-05 1.10907e-05 0.0002264018 -2.90415e-05 -0.7954774849 0.2903492613
185298890.0 -0.7907368481 0.3042469761 4.4743e-05 3.63804e-05 4.54693e-05 2.01271e-05 -0.7927116976 0.2981245221
190298860.0 -0.7871597754 0.3127444725 -1.75137e-05 0.0001654599 -0.0001425663 -0.0001656716 -0.7894683532 0.3078913
195298830.0 -0.784188589 0.3210839078 2.5251e-05 2.33358e-05 1.46492e-05 1.46592e-05 -0.7871939666 0.3152800351
200298800.0 -0.7808273593 0.3293940304 0.0001330032 4.64375e-05 -5.23888e-05 -8.00352e-05 -0.7830657902 0.324177884
205298770.0 -0.7770397438 0.337735289 -5.73195e-05 -0.0001115072 -1.36109e-05 0.0001378786 -0.7794172931 0.3318325066
210298740.0 -0.7735321727 0.3457594393 -9.76668e-05 2.60001e-05 -5.5485e-05 0.0001191115 -0.7766272874 0.3407112112
215298710.0 -0.7705312263 0.3541110685 0.0002377141 9.77841e-05 -3.41279e-05 -7.92217e-05 -0.7731806119 0.3482998832
220298680.0 -0.7673260281 0.3622984655 7.964e-07 -4.5503e-06 6.3495e-06 0.0001025305 -0.7693463475 0.3567397989
225298650.0 -0.7630231929 0.3705536275 -4.23623e-05 2.76429e-05 -2.02161e-05 0.0001205944 -0.7661392864 0.3652483659
230298620.0 -0.7588022528 0.3789357214 -0.0002692885 -0.0001206801 -5.63796e-05 -3.51815e-05 -0.7620180232 0.3724062424
235298590.0 -0.754258725 0.3874568828 -5.10876e-05 0.0001574883 -7.8616e-06 0.0001980488 -0.7579435864 0.3803120024
240298560.0 -0.7508670588 0.3951868361 -1.85029e-05 0.0001806466 -7.15798e-05 1.19851e-05 -0.7541467302 0.3883519077
245298530.0 -0.746765395 0.4030279661 6.3968e-06 -0.0001259123 6.03048e-05 9.67983e-05 -0.7499900336 0.3963873197
250298500.0 -0.7423712161 0.4106583187 -1.9997e-05 0.0001835822 2.52005e-05 -0.0003665664 -0.7457340092 0.4046289125
255298470.0 -0.7378030422 0.4187531025 -8.40024e-05 -5.35513e-05 0.0001339071 0.0002623559 -0.7409965453 0.4127177299
260298440.0 -0.7338624043 0.4258134465 1.33622e-05 -4.76521e-05 -4.96152e-05 -1.24588e-05 -0.736481699 0.4199368289
265298410.0 -0.7289743317 0.4343634947 0.0002473374 8.34435e-05 0.0002168901 0.0001252302 -0.7321261932 0.4272792473
270298380.0 -0.7246268438 0.4418227441 -5.47228e-05 -1.20121e-05 -3.53393e-05 1.09142e-05 -0.7271794303 0.4353295513
275298350.0 -0.719384192 0.4493444762 -0.0001286011 0.0001393783 0.0001033057 -2.12238e-05 -0.7226368255 0.4432600962
280298320.0 -0.7151519828 0.4567085251 -9.05806e-05 4.7489e-05 -3.78047e-05 1.30029e-05 -0.7182604622 0.450416252
285298290.0 -0.7103916387 0.4644687341 4.20687e-05 3.88501e-05 -0.0002157287 -0.0001341165 -0.7130173355 0.4575991006
290298260.0 -0.7054678607 0.4717801306 -7.74635e-05 -0.0001010774 0.0002246142 0.0002528225 -0.7081355184 0.4656341193
295298230.0 -0.7002849246 0.4793197649 -3.09264e-05 -0.000140972 5.8616e-06 2.96809e-05 -0.7035219708 0.4724453359
300298200.0 -0.6951883863 0.4864863501 0.0001155456 -3.21343e-05 -2.2954e-06 0.0002881726 -0.6982561518 0.4802842483
305298170.0 -0.6901234182 0.4940886819 -0.0001112054 -9.48378e-05 3.76913e-05 0.0001833775 -0.6931207485 0.4874194907
310298140.0 -0.6846745306 0.5010216135 -0.0001243665 0.0003015954 -1.02035e-05 0.0001083484 -0.6886718706 0.4951614851
315298110.0 -0.6793482597 0.5084420521 7.27848e-05 -0.0001072284 -0.000177511 4.55224e-05 -0.6827257625 0.5016506582
320298080.0 -0.6740676855 0.5157928181 0.0001535164 -0.0002036611 -0.0001141808 -0.0001110335 -0.6774225611 0.5091850529
325298050.0 -0.6686965407 0.5221468019 -0.0001448847 -0.0001168354 0.000151955 1.2073e-06 -0.6719393663 0.5161848186
330298020.0 -0.6633375214 0.5291275345 -6.44516e-05 0.0002128906 9.15081e-05 6.16115e-05 -0.6663630241 0.5233448124
335297990.0 -0.6569447493 0.536333311 0.0002007688 9.52194e-05 -0.0002037227 5.37683e-05 -0.6611669432 0.530042509
340297960.0 -0.6523968545 0.542463038 -0.0002637977 -0.0002100675 -2.65626e-05 0.000129467 -0.6553615133 0.5367042496
345297930.0 -0.6464235897 0.5485053402 -8.07015e-05 7.55191e-05 -0.0002303445 9.12606e-05 -0.6498436362 0.5439184961
350297900.0 -0.6405109895 0.5560694952 -4.9035e-05 2.83962e-05 0.000111942 -0.0001779859 -0.6440673109 0.551091345
355297870.0 -0.6343827149 0.5620051782 9.52341e-05 4.4957e-06 3.50611e-05 -6.91283e-05 -0.6382950367 0.5576342388
360297840.0 -0.6285809639 0.5692426594 -0.0001178752 -0.0001223177 -4.97787e-05 -2.27256e-05 -0.6318521423 0.5635415713
365297810.0 -0.6221775894 0.5757397557 0.000131288 0.000115169 -4.5926e-06 0.0001287007 -0.6263015702 0.5707065477
370297780.0 -0.6159079776 0.5817400646 -0.0001786787 0.000135465 -0.0001539262 0.0001146488 -0.6208069114 0.5766422971
375297750.0 -0.6104106018 0.5882155569 4.09038e-05 -3.3863e-05 5.9071e-06 -8.64618e-05 -0.6143515518 0.5833343857
380297720.0 -0.6034633921 0.594885684 -0.0001477156 -0.0002528791 -7.4013e-06 -0.0001570358 -0.6077514752 0.5900985477
385297690.0 -0.5976749847 0.6006279799 -8.17426e-05 0.0001217351 4.78313e-05 -2.71198e-05 -0.6018541307 0.5963383982
390297660.0 -0.5911536354 0.606834527 0.0001688496 8.52184e-05 5.50954e-05 -7.36361e-05 -0.595636172 0.601652219
395297630.0 -0.5847598373 0.61315201 -0.0001610358 -1.11827e-05 -0.0001499215 -0.000130962 -0.5887972219 0.6081681545
400297600.0 -0.5790482126 0.618950273 -0.0001445768 -3.5346e-05 0.000198523 -5.10069e-05 -0.5827033574 0.6141810232
405297570.0 -0.5726105557 0.6251392097 -0.0001349992 0.000107736 4.14269e-05 -0.0001074483 -0.5772681346 0.6202953157
410297540.0 -0.5657749851 0.630981522 0.0001356852 -9.28852e-05 -0.000142587 1.92841e-05 -0.5700642382 0.6258099301
415297510.0 -0.5586998356 0.6361876058 1.81826e-05 -7.80032e-05 1.77649e-05 2.57454e-05 -0.5637213952 0.6322108668
420297480.0 -0.5519351763 0.6422897126 0.0001569574 1.00958e-05 -7.96666e-05 0.0002356682 -0.5571519903 0.6370641283
425297450.0 -0.5453250314 0.647750865 3.63606e-05 -6.00891e-05 9.12283e-05 0.0002167694 -0.5499862834 0.6431680711
430297420.0 -0.539888888 0.6533714968 -1.53927e-05 9.95213e-05 -2.66428e-05 -4.28941e-05 -0.5438700749 0.6488037797
435297390.0 -0.5320725914 0.6588074051 -5.25953e-05 -8.38859e-05 0.0002609541 0.0001690587 -0.5368849647 0.6537402143
440297360.0 -0.5256292232 0.6643768246 -0.0002127893 5.48907e-05 4.28452e-05 8.45538e-05 -0.5301843221 0.6590689401
445297330.0 -0.5185639634 0.6697158833 3.2809e-06 -1.61557e-05 -5.27392e-05 -0.0001556969 -0.5238338911 0.6644312886
450297300.0 -0.5106303426 0.6744353958 0.0001220169 0.0001252091 -4.61215e-05 1.32628e-05 -0.5169920424 0.6701180952
455297270.0 -0.5039509335 0.679861982 -0.0001676546 -2.7815e-06 6.33955e-05 5.65173e-05 -0.5101860103 0.675079124
460297240.0 -0.4973319882 0.6855002243 -0.0001173664 4.44704e-05 5.36996e-05 -4.4948e-06 -0.5027545409 0.6805625374
465297210.0 -0.4897865906 0.6903973575 -0.0001504418 -5.17861e-05 -0.0002123034 -6.95134e-05 -0.4961763305 0.6848521725
470297180.0 -0.4831857536 0.6948781689 2.86461e-05 3.0037e-05 0.0001427272 -9.44292e-05 -0.4895696801 0.6895551523
475297150.0 -0.4757034236 0.70001369 -1.21692e-05 -0.0001181142 0.0001709536 0.0001166252 -0.4817707363 0.6947853783
480297120.0 -0.4686727515 0.7047640962 -1.93462e-05 -5.7607e-05 1.37616e-05 0.0001995438 -0.4755731535 0.6996814531
485297090.0 -0.4610036286 0.7093819254 2.55834e-05 8.33462e-05 -5.64739e-05 3.41986e-05 -0.4680279802 0.70407283
490297060.0 -0.4537390321 0.71419736 5.14718e-05 0.0001334779 -0.0001942346 2.56903e-05 -0.4607062664 0.7084071078
495297030.0 -0.4469670587 0.7187576472 -0.0001213321 -0.000160368 -1.89604e-05 2.45987e-05 -0.4533709647 0.7128208087
500297000.0 -0.4387140917 0.7237557999 -2.56553e-05 -5.64281e-05 -1.34171e-05 -5.28421e-05 -0.446981862 0.7176415337
505296970.0 -0.4311922786 0.7273656371 -9.72561e-05 -6.05077e-05 0.0001210109 -7.74641e-05 -0.4400794409 0.7215948191
510296940.0 -0.4244054128 0.7318316059 0.0001187425 4.8953e-05 7.997e-07 -4.6453e-06 -0.4317104534 0.7260358713
515296910.0 -0.4172340976 0.7358552301 -9.18129e-05 -4.73484e-05 7.37949e-05 -1.21799e-05 -0.4248095097 0.73052192
520296880.0 -0.4086108451 0.7407248994 -0.0001519858 -0.0001341083 -7.46112e-05 -1.23575e-05 -0.4176120772 0.7343970322
525296850.0 -0.4015243373 0.7446072074 -0.0001023311 6.55322e-05 0.0001016658 0.0001507835 -0.4095207682 0.7390124161
530296820.0 -0.3944372268 0.7479205458 5.58927e-05 -0.0002360619 -9.98188e-05 5.1887e-05 -0.4028407428 0.742392708
535296790.0 -0.3857790546 0.7526724862 8.7468e-05 8.96792e-05 7.0322e-06 1.30124e-05 -0.3954766288 0.7463038346
540296760.0 -0.3786584331 0.7561993463 0.0002576771 -0.0001951098 -5.25038e-05 8.39125e-05 -0.3876286172 0.7506505084
545296730.0 -0.3709724792 0.7601664131 2.02719e-05 0.0001855707 -8.19654e-05 2.32004e-05 -0.3806990953 0.7540951308
550296700.0 -0.3637213948 0.7640777019 -0.0003086155 5.23688e-05 1.55832e-05 -0.0001221312 -0.3731743251 0.7577692058
555296670.0 -0.3546209265 0.7673714193 0.0001402603 0.0001176328 7.14303e-05 -3.81394e-05 -0.3653124043 0.7611807555
560296640.0 -0.3466811671 0.7709580775 -9.63267e-05 7.20791e-05 -0.0003442794 3.71306e-05 -0.357506163 0.7650470615
565296610.0 -0.3395282764 0.7739678471 -3.13195e-05 -0.0002244182 -9.38058e-05 4.69457e-05 -0.3502332268 0.7683298167
570296580.0 -0.3318662612 0.7775083519 -0.0001485355 7.7801e-06 2.41232e-05 -0.000101033 -0.3430068102 0.7720343961
575296550.0 -0.3238510849 0.7810534188 0.0001707822 -1.85764e-05 -3.24577e-05 8.2064e-05 -0.3346454858 0.7754287705
580296520.0 -0.3158080497 0.7843562905 -8.68439e-05 -5.40057e-05 0.0002287304 -4.17463e-05 -0.3271650058 0.7787414447
585296490.0 -0.3074507138 0.7864970927 -6.09975e-05 3.44228e-05 5.84128e-05 0.0001331514 -0.3195227641 0.7812110775
590296460.0 -0.2996849977 0.7898422555 9.658e-06 -0.0002998223 -4.71937e-05 0.0002354624 -0.3112942901 0.7847261571
595296430.0 -0.2913543724 0.7936432287 7.469e-05 0.0001345613 8.45699e-05 0.0001249624 -0.303540739 0.787046671
600296400.0 -0.2837551648 0.7954676884 0.0001779021 0.0001041855 -0.0001772946 -5.63417e-05 -0.2956679755 0.7910169913
605296370.0 -0.2755073806 0.7988309436 1.9895e-06 -0.0002475056 -0.0002037916 -0.0002557799 -0.2886216461 0.7941393118
610296340.0 -0.2676466651 0.8012266636 0.0001498661 7.73372e-05 -0.000125207 -1.3135e-05 -0.2802011763 0.796928421
615296310.0 -0.2590707874 0.8044010563 0.0001390505 0.0001585033 -0.0001209675 9.38135e-05 -0.2723459761 0.7993634594
620296280.0 -0.2508326806 0.8063742089 -2.5271e-05 -0.00016464 1.28108e-05 -7.00652e-05 -0.2646811161 0.8016051505
625296250.0 -0.2426106202 0.8093174729 4.5333e-05 8.86624e-05 -6.5077e-06 -0.0001351334 -0.2567699114 0.8043252505
630296220.0 -0.2337638319 0.8116025281 -7.58095e-05 -6.51266e-05 7.5176e-06 2.54844e-05 -0.2487714503 0.8075018189
635296190.0 -0.2261028998 0.8141748564 -5.37476e-05 -8.68428e-05 7.7418e-05 -2.20407e-05 -0.2406394743 0.8089531229
640296160.0 -0.2176278823 0.8156127364 -0.00015657 2.62225e-05 -8.9768e-05 0.0001681642 -0.2321622829 0.8122991972
645296130.0 -0.2100136131 0.8181276246 -7.46858e-05 -3.55034e-05 0.0001113725 -5.20412e-05 -0.2248330166 0.813668623
650296100.0 -0.201667864 0.8202494769 0.0001440798 -6.74495e-05 7.29897e-05 -3.00233e-05 -0.2163667463 0.8164799643
655296070.0 -0.1928113088 0.8220650056 -3.6322e-05 -3.23927e-05 0.0001459526 4.57167e-05 -0.2083439484 0.8177299368
660296040.0 -0.185499705 0.8239157889 -0.0002455094 -0.0001631675 0.0001520708 7.2984e-06 -0.2006568597 0.8202237233
665296010.0 -0.1762745791 0.8256943556 -0.0001241462 8.01675e-05 5.50032e-05 -5.15953e-05 -0.1930317331 0.8225176358
670295980.0 -0.1677534148 0.8273482195 0.0001601697 -1.58351e-05 -0.0001486186 5.17254e-05 -0.1849014942 0.8241893393
675295950.0 -0.159726078 0.8288474079 -8.22641e-05 0.0001465742 -6.79363e-05 -5.63863e-05 -0.1759921393 0.8259246069
680295920.0 -0.1519809137 0.8308426888 0.0001489261 -2.11842e-05 -4.47007e-05 0.0001434565 -0.1676295477 0.8272541282
685295890.0 -0.1427264958 0.8320064522 -5.40997e-05 6.13327e-05 8.90377e-05 -0.000115878 -0.1598602669 0.8290745393
690295860.0 -0.1341886405 0.8333782873 6.97062e-05 -9.16093e-05 4.88763e-05 -0.000196712 -0.1515794834 0.8304240801
695295830.0 -0.1259846535 0.8338098613 -0.0001289182 3.07895e-05 4.10348e-05 -0.0001180175 -0.1432514332 0.8320326199
700295800.0 -0.1177588586 0.8357387576 0.0001018708 3.90161e-05 -0.0001106388 -2.8815e-05 -0.1352088945 0.8334795927
705295770.0 -0.1089634316 0.8372986817 -0.0001192717 -0.0001831976 -4.38082e-05 -2.12917e-05 -0.1276522111 0.8352249448
710295740.0 -0.1013901069 0.8378540837 -7.22337e-05 2.91959e-05 4.7163e-05 6.19719e-05 -0.1190317455 0.8366908448
715295710.0 -0.0932129174 0.8388665811 6.5556e-06 2.29219e-05 7.53354e-05 0.000124918 -0.1106264166 0.8375151031
720295680.0 -0.0845174237 0.8391315119 -1.41169e-05 0.000250594 -8.92674e-05 8.09758e-05 -0.1023643511 0.838580606
725295650.0 -0.0746840472 0.840953139 -0.0001915113 0.0001108869 -3.4565e-06 6.33127e-05 -0.0939179286 0.8389267521
730295620.0 -0.0671928384 0.8411097372 -9.65291e-05 4.60943e-05 -3.09905e-05 0.0001007939 -0.0853729769 0.8400376822
735295590.0 -0.0578917515 0.8415580663 0.000144466 -0.0002062758 -1.5246e-05 -8.12805e-05 -0.076354746 0.8407982935
740295560.0 -0.0502940389 0.8429336674 5.22965e-05 -6.24001e-05 3.71464e-05 -2.3311e-05 -0.0690138473 0.8410899997
745295530.0 -0.0419189859 0.8429740709 -2.41182e-05 0.0001309486 -0.0002235664 -5.34369e-05 -0.0607663054 0.8421153514
750295500.0 -0.0336049122 0.843424091 0.0001119635 0.0001022248 6.07591e-05 1.50144e-05 -0.0523526372 0.8421925942
755295470.0 -0.0243738469 0.8435508128 0.0001532628 5.0977e-06 -6.111e-07 0.0002044486 -0.044332622 0.8432558276
760295440.0 -0.0164492901 0.8438457781 -6.5984e-06 -1.42105e-05 -7.83725e-05 0.0002663489 -0.0361977266 0.8435800359
765295410.0 -0.0078444777 0.8436873483 -6.74837e-05 -0.0002601264 0.0001672761 -9.27738e-05 -0.0270453639 0.8439991986
770295380.0 0.0006924084 0.8440272733 -5.44357e-05 0.0001310365 0.0001079533 -1.34822e-05 -0.0189609418 0.8438824758
775295350.0 0.0090500357 0.8438074207 -3.26217e-05 -4.00689e-05 0.0001638592 -3.21558e-05 -0.011307148 0.8441996442
780295320.0 0.0177652985 0.8433788999 0.0002096704 0.0001788149 -0.0001480143 -0.0001910727 -0.0029024282 0.844753287
785295290.0 0.0262337099 0.8434472369 -2.51954e-05 0.0001598242 7.08013e-05 -0.0001318401 0.0052393542 0.8445128608
790295260.0 0.0344899809 0.8428152618 -0.0001458608 8.12776e-05 0.0001547618 5.45681e-05 0.0144177045 0.8442627742
795295230.0 0.0428319894 0.8432397104 1.98863e-05 -0.0001638845 -2.25027e-05 -0.0001926254 0.0223511301 0.8441227428
800295200.0 0.0511378714 0.8429007313 0.0001513258 -0.0003110636 0.0001213418 -0.0001079543 0.0306984134 0.843528131
805295170.0 0.059860422 0.8419610525 6.1412e-05 -0.0001228911 0.000119222 3.28915e-05 0.0384553003 0.8426713586
810295140.0 0.0680160908 0.8416757945 0.0002275929 4.84399e-05 -7.34664e-05 6.9878e-05 0.046995982 0.8437758974
815295110.0 0.0771335505 0.840506265 9.84355e-05 -1.58185e-05 -0.0002696769 -2.57772e-05 0.0552244098 0.8427905482
820295080.0 0.0847134419 0.8389257321 -0.0002742936 -8.63323e-05 -5.14436e-05 -6.3359e-06 0.0633966316 0.8415194183
825295050.0 0.0945859568 0.8381863277 -0.0002193491 -2.80281e-05 -7.32004e-05 0.0002077922 0.0717033465 0.8417427593
830295020.0 0.102354376 0.8375529285 0.0002080056 -3.56813e-05 -7.294e-07 -8.69096e-05 0.0795596853 0.8402046479
835294990.0 0.109728543 0.8369956819 4.21028e-05 -5.87258e-05 -7.8437e-05 0.0001609048 0.0881398353 0.8395313526
840294960.0 0.1185961886 0.8353188744 -8.42711e-05 -0.0001413131 -7.88502e-05 -5.3022e-06 0.0959436988 0.8386801118
845294930.0 0.127050082 0.8340358251 7.5745e-05 -0.0001526586 -0.0002356022 -1.25137e-05 0.1045654691 0.8376502318
850294900.0 0.1353860045 0.8326044113 2.09647e-05 -5.0395e-06 0.0001510841 0.0001742617 0.1125364228 0.837035367
