!Created with skrf (http://scikit-rf.org).
# Hz S RI R 50.0 
!freq ReS11 ImS11 ReS21 ImS21 ReS12 ImS12 ReS22 ImS22
300000.0 -0.2393042662 -0.0951991023 0.466061155 0.063602408 0.4693345386 0.0675246358 -0.2368812406 -0.1073668203
5299970.0 -0.2437158705 0.0074410111 0.4738090109 0.0049365624 0.4734699047 0.0058671196 -0.2439072766 0.0060462239
10299940.0 -0.240324259 0.0200162465 0.4761357435 0.0060402756 0.4757095444 0.006332002 -0.2411329928 0.018541297
15299910.0 -0.235947601 0.0294838964 0.4792887908 0.0074589615 0.4793948138 0.0078739608 -0.2365008171 0.0277049252
20299880.0 -0.2304611926 0.0375500698 0.4838491737 0.0080043215 0.4840620115 0.008339812 -0.2320952266 0.0357240338
25299850.0 -0.224857064 0.0434244666 0.4893384723 0.0071206592 0.4894401401 0.0073053629 -0.2268825108 0.041828486
30299820.0 -0.2188617945 0.0485847882 0.4952331634 0.0056908581 0.4948618087 0.0052896269 -0.2217143915 0.0468783559
35299790.0 -0.2130034953 0.0529943517 0.5006556606 0.0025251972 0.5002630841 0.0022525548 -0.2161020018 0.0511054685
40299760.0 -0.2075889748 0.0556377313 0.5055968361 -0.0012513303 0.505322239 -0.0017749631 -0.2114235836 0.0548774128
45299730.0 -0.2024742694 0.0588164376 0.5100829608 -0.0070115555 0.5103208872 -0.0066684854 -0.2067362828 0.0575850961
50299700.0 -0.197547639 0.0603852191 0.514016635 -0.0123489472 0.5143795154 -0.0121658648 -0.2021643429 0.0596766174
55299670.0 -0.1937659015 0.061749711 0.5180899887 -0.0181301671 0.5182718665 -0.0180272211 -0.1983517319 0.0613358492
60299640.0 -0.1897253678 0.0625805854 0.5210722877 -0.0243030362 0.521336796 -0.024153144 -0.194287033 0.0631734479
65299610.0 -0.1861854475 0.0638012007 0.5242513248 -0.0301410071 0.5240813028 -0.0306411041 -0.1910953796 0.0642886611
70299580.0 -0.1826882746 0.0643672587 0.5267220482 -0.0368927885 0.5266704464 -0.0372725651 -0.1878075877 0.0656619507
75299550.0 -0.179488426 0.0651447379 0.5284360794 -0.0438601376 0.5287501707 -0.0441102403 -0.1849817166 0.0668839365
80299520.0 -0.1771775234 0.066020345 0.5306655482 -0.050932109 0.5306337922 -0.0508772076 -0.1823432712 0.0673477795
85299490.0 -0.1746750631 0.0658211541 0.5321215745 -0.0574590799 0.5320131462 -0.0577383032 -0.1801860429 0.068565587
90299460.0 -0.1726101681 0.0664296695 0.5331710902 -0.064333135 0.5332113316 -0.0648555602 -0.1776418879 0.0692261098
95299430.0 -0.1705775968 0.0672952666 0.5343242241 -0.0717504337 0.5338640464 -0.0720144591 -0.1757132334 0.0703569092
100299400.0 -0.1689136042 0.0675727651 0.5342257247 -0.0786067717 0.5342777147 -0.0787597958 -0.1739880448 0.0710111848
105299370.0 -0.1667971152 0.0680678785 0.534400092 -0.0853798549 0.5345772355 -0.0858401732 -0.1719377623 0.0717880746
110299340.0 -0.1655896811 0.0684677786 0.5344623225 -0.0923802316 0.5347681708 -0.0926960622 -0.1706892825 0.0725997626
115299310.0 -0.1638828811 0.0687245078 0.5346109063 -0.098686674 0.5347715593 -0.0991648558 -0.1689898227 0.0729963374
120299280.0 -0.1627953659 0.0695115825 0.5348080579 -0.1058772686 0.5346083534 -0.1061458755 -0.167969735 0.0742313773
125299250.0 -0.1617349735 0.0697571628 0.534290883 -0.1124149447 0.5345416172 -0.1128876256 -0.1663282924 0.074714149
130299220.0 -0.1605484271 0.0704909158 0.5338782966 -0.1190047774 0.533361116 -0.1196561266 -0.1652095457 0.0762321949
135299190.0 -0.1592261826 0.0710787159 0.5326765451 -0.1258155714 0.532572357 -0.126152369 -0.1641808397 0.0770749233
140299160.0 -0.1585809405 0.0722883876 0.5320314026 -0.1331629692 0.5324676852 -0.1327329037 -0.1627829452 0.0781471844
145299130.0 -0.1574962868 0.0726152636 0.5311762614 -0.1394441214 0.5313464031 -0.139136277 -0.161869858 0.0789460709
150299100.0 -0.1565460029 0.0735474723 0.5300419143 -0.1460107822 0.530100695 -0.1459826288 -0.1608601498 0.0797835774
155299070.0 -0.1557401416 0.0746971193 0.5288787558 -0.1527634185 0.5290091421 -0.1528155903 -0.1600828075 0.0809447964
160299040.0 -0.154825777 0.0753424887 0.527510246 -0.1587171669 0.5279517563 -0.1586573141 -0.1585592872 0.082382248
165299010.0 -0.1544870917 0.0763806194 0.526441309 -0.1655555221 0.5265524534 -0.1654189005 -0.1581913281 0.0833369253
170298980.0 -0.1535052746 0.0772513759 0.5240326634 -0.1714739282 0.5243985151 -0.1716639783 -0.1566140089 0.0846299349
175298950.0 -0.1526526222 0.0779989294 0.5235520904 -0.1779799759 0.523433719 -0.1779837389 -0.1558155299 0.0858014382
180298920.0 -0.1516107565 0.0791241637 0.5215274764 -0.1841463909 0.5215479481 -0.1843398813 -0.1551521278 0.0871929317
185298890.0 -0.1508005476 0.0799736207 0.5191777619 -0.1902546816 0.5193914779 -0.1905586488 -0.1541038418 0.0881660937
190298860.0 -0.1503749166 0.0813352474 0.5171277129 -0.1966889184 0.5178900037 -0.1968809161 -0.1527579182 0.0894374893
195298830.0 -0.14942073 0.081918813 0.5153639938 -0.2027928105 0.5156746976 -0.2033701834 -0.1521620926 0.09058254
200298800.0 -0.1489254572 0.08339076 0.5138242101 -0.2085580783 0.5130022701 -0.2088300977 -0.1507554653 0.0922222373
205298770.0 -0.1483471444 0.0844503831 0.5116474424 -0.2147473717 0.5112387185 -0.2146639856 -0.1498211055 0.0932942742
210298740.0 -0.147426012 0.0854166183 0.509425242 -0.2212122493 0.5091780688 -0.2212473418 -0.1491210554 0.0948220559
215298710.0 -0.1467914064 0.0870266273 0.5070610624 -0.2265520716 0.5066624804 -0.2270074309 -0.1483827471 0.0960637541
220298680.0 -0.1460668959 0.0880351376 0.5041581389 -0.2328243893 0.5043387369 -0.2324756732 -0.1470131037 0.0977633836
225298650.0 -0.1447799964 0.0893837174 0.501739762 -0.2387281343 0.5019378482 -0.238684603 -0.1462888607 0.0992767682
230298620.0 -0.1444290149 0.090672243 0.4994771302 -0.244438544 0.4997243196 -0.2443268305 -0.1451597834 0.1001987696
235298590.0 -0.143362144 0.0916293242 0.4964500728 -0.2504084427 0.496862216 -0.2504976488 -0.1440939453 0.1014316372
240298560.0 -0.1431583513 0.0929916085 0.4944653286 -0.255579377 0.4940891848 -0.2555638569 -0.1429874618 0.1032313108
245298530.0 -0.1420137182 0.0940679235 0.4905870772 -0.2613167285 0.4911477681 -0.2616017777 -0.1418494808 0.1049158878
250298500.0 -0.1413094372 0.0953122882 0.4881431997 -0.2666998388 0.4886069601 -0.2666478534 -0.1405305837 0.1060706417
255298470.0 -0.1406373995 0.0965414217 0.4854190927 -0.2730778037 0.4854383733 -0.2727556292 -0.1395776012 0.1074159848
260298440.0 -0.1398436395 0.0980351273 0.4826268557 -0.2782039526 0.4826855798 -0.2786390137 -0.1381320936 0.1091424336
265298410.0 -0.1388242069 0.0993809791 0.4797602516 -0.284021935 0.4791821145 -0.2839584826 -0.1374318652 0.1101653487
270298380.0 -0.1375822996 0.1004103516 0.4757470554 -0.2892394377 0.4764803726 -0.2897622873 -0.136030187 0.1121211445
275298350.0 -0.1371901742 0.101835803 0.47332403 -0.2950153831 0.4736149785 -0.2951875817 -0.135032473 0.1133770463
280298320.0 -0.1363451119 0.1035054097 0.4702051725 -0.2996547866 0.4698586951 -0.3000968055 -0.1336261801 0.1150214226
285298290.0 -0.1351301805 0.1046760331 0.4666588484 -0.3053333303 0.4664756475 -0.3054995491 -0.1325671886 0.116133193
290298260.0 -0.1342655543 0.1058217733 0.4637445139 -0.3106376539 0.4634566614 -0.3108469797 -0.1307865543 0.1177105939
295298230.0 -0.1332994924 0.1070970902 0.4600031037 -0.3159836729 0.4601566562 -0.3161149373 -0.1294765987 0.1191121561
300298200.0 -0.1320199976 0.1082290584 0.456603585 -0.3212513327 0.4568361592 -0.3213197739 -0.1286729724 0.1206799527
305298170.0 -0.1309317228 0.1095159955 0.4531642595 -0.3266037773 0.4534102494 -0.3268181456 -0.1266670377 0.1220435453
310298140.0 -0.1299274022 0.1104801327 0.4498370041 -0.331796381 0.4497851117 -0.332122507 -0.1253706522 0.1240074757
315298110.0 -0.129166636 0.1117727451 0.4458679636 -0.3370358527 0.4460985116 -0.3372473526 -0.1238434406 0.1249062721
320298080.0 -0.1278853334 0.1132313427 0.4421057939 -0.3422264569 0.442689401 -0.3419798118 -0.1227379637 0.1260634422
325298050.0 -0.1272261018 0.1140116901 0.43879024 -0.3478006578 0.4386448861 -0.3475538494 -0.1216234983 0.1274785103
330298020.0 -0.1262789539 0.1153688316 0.4337663339 -0.3525589731 0.4341594413 -0.3525162461 -0.1205554113 0.1285233361
335297990.0 -0.1253958363 0.1166606009 0.4305095378 -0.3572544232 0.4304724238 -0.3571637156 -0.1192153274 0.1302610587
340297960.0 -0.1250037027 0.1180142308 0.4261730667 -0.3618463967 0.4264714468 -0.3617304587 -0.1181523954 0.1316211295
345297930.0 -0.1239965135 0.1193284878 0.4221779448 -0.3661322268 0.421584577 -0.3665502805 -0.1163155643 0.1332481404
350297900.0 -0.1223997286 0.1208499923 0.4177727782 -0.3708372967 0.4183575568 -0.3711244784 -0.1150848052 0.1347173785
355297870.0 -0.1214957193 0.1219876398 0.4136367585 -0.3757982218 0.4139283986 -0.3761113496 -0.1140332914 0.1361647875
360297840.0 -0.1201677061 0.1234240003 0.4094191066 -0.3804528504 0.4094737443 -0.3804027823 -0.1121089098 0.1376741952
365297810.0 -0.1190659592 0.1244961032 0.4052233973 -0.3845664183 0.4052808378 -0.3845335681 -0.1107484436 0.1394198566
370297780.0 -0.1178019933 0.1257606804 0.400927837 -0.3891137277 0.4008961216 -0.3895488402 -0.1090447759 0.1406765985
375297750.0 -0.1170415943 0.1273964624 0.3972486789 -0.3936501052 0.3969544963 -0.3940422103 -0.107680274 0.1423253587
380297720.0 -0.1156465578 0.1284250432 0.3928259141 -0.3980821823 0.3925690529 -0.3977773923 -0.1058459804 0.1436091413
385297690.0 -0.1144007604 0.1296046403 0.388220959 -0.401907285 0.3879095304 -0.4023499935 -0.104637135 0.1451814053
390297660.0 -0.1130348933 0.130919031 0.3834256354 -0.4065529759 0.3833780477 -0.4070448029 -0.1027481917 0.1460727625
395297630.0 -0.1117139502 0.1319573457 0.379187983 -0.4104884473 0.3791867141 -0.4105584128 -0.1015745146 0.1478374491
400297600.0 -0.1109034255 0.1335136848 0.3747217104 -0.415036552 0.3748580333 -0.4152545979 -0.100353426 0.1487629731
405297570.0 -0.1092785344 0.1347192757 0.3702723648 -0.4186840536 0.3700761772 -0.4193211524 -0.0983291644 0.1506820376
410297540.0 -0.1079353234 0.1358922086 0.3650665775 -0.4230780092 0.365212949 -0.4230165821 -0.0967025449 0.1514429943
415297510.0 -0.1067146976 0.137149472 0.3607031889 -0.4266158105 0.3606326832 -0.4272025654 -0.0950428045 0.1532992998
420297480.0 -0.1055028479 0.1379016193 0.3559234956 -0.4310186215 0.3560737446 -0.4312426586 -0.093175381 0.153888812
425297450.0 -0.1037363048 0.1390525341 0.3512685934 -0.4347644346 0.3513978655 -0.4348304392 -0.0917359928 0.1558922221
430297420.0 -0.1028507707 0.1405465274 0.3465492799 -0.4391984997 0.3463600651 -0.4386031527 -0.090064267 0.1565231685
435297390.0 -0.1012662253 0.1414336898 0.3416982577 -0.442284511 0.3417834659 -0.4420223358 -0.0884770193 0.1581159185
440297360.0 -0.0998605683 0.1425286735 0.3366317837 -0.4464088309 0.3360133738 -0.4462252864 -0.0866389706 0.1589708497
445297330.0 -0.0982038606 0.1436195662 0.3313934345 -0.4501781433 0.3314166712 -0.4498942492 -0.0848630812 0.1600184449
450297300.0 -0.0969661427 0.1447652681 0.3268168094 -0.4533674631 0.3270604185 -0.4535789058 -0.0832240276 0.1615611615
455297270.0 -0.0956030905 0.14589751 0.321966305 -0.457135638 0.3222596857 -0.4569949583 -0.0814070514 0.1624487464
460297240.0 -0.0945672415 0.1468533298 0.3166881609 -0.460127311 0.3165402505 -0.4604828218 -0.0795889177 0.163879439
465297210.0 -0.0927560127 0.1477915174 0.311793311 -0.463972741 0.3121879535 -0.4635936617 -0.0783214163 0.164583241
470297180.0 -0.0913991899 0.1487129008 0.3072063341 -0.4669047165 0.3072048725 -0.4673396627 -0.076796129 0.1658403813
475297150.0 -0.0901512738 0.1495690555 0.3012142359 -0.4700804656 0.3015500619 -0.4701154062 -0.0744028357 0.1670440072
480297120.0 -0.088468882 0.1503855319 0.2964970349 -0.4734325911 0.296181757 -0.4736531073 -0.0727283094 0.1686549329
485297090.0 -0.0870304893 0.1515463974 0.2914034295 -0.4766762245 0.2913059331 -0.4767349689 -0.0708502858 0.1687853861
490297060.0 -0.0853165391 0.1522422474 0.2861950409 -0.479893607 0.2859717537 -0.4797842399 -0.0691784165 0.1700388071
495297030.0 -0.0842282363 0.1538462145 0.2805631466 -0.4833179186 0.2803023381 -0.4832081797 -0.0673301716 0.1708476954
500297000.0 -0.0822695851 0.1542115887 0.2753587585 -0.4859889846 0.2755959005 -0.4860813758 -0.0660359213 0.1718761681
505296970.0 -0.0813028011 0.1553617041 0.2700078498 -0.4885150904 0.2700506693 -0.4884710631 -0.0639788221 0.1726649619
510296940.0 -0.0797142808 0.1564696749 0.2646025753 -0.4919941238 0.2648143148 -0.4919498732 -0.0614808425 0.1739562002
515296910.0 -0.0783167862 0.1571619368 0.2590961591 -0.4943976547 0.2594791238 -0.4944239479 -0.0601484952 0.1745038616
520296880.0 -0.0763405917 0.1579623885 0.2536332788 -0.4969805234 0.2538277613 -0.4970230516 -0.0580474432 0.1753398898
525296850.0 -0.0752280765 0.1587237745 0.2485041723 -0.4998065614 0.2485957706 -0.5004100599 -0.0559971965 0.1765149617
530296820.0 -0.0734701574 0.1595900066 0.2432863953 -0.5020218661 0.2429686224 -0.5025169145 -0.0546022046 0.1768218631
535296790.0 -0.071921323 0.1605648275 0.2372921907 -0.505193117 0.2380025972 -0.5048835614 -0.0525412005 0.1773267691
540296760.0 -0.070258403 0.1610956918 0.2320050182 -0.5078995319 0.2320937273 -0.5080384076 -0.0510188245 0.1786737646
545296730.0 -0.0690038968 0.1622995717 0.2264510583 -0.5098567003 0.2268162989 -0.5103845144 -0.0488996842 0.1788686933
550296700.0 -0.0674077942 0.1628301878 0.2212648335 -0.5124743349 0.2214970958 -0.5129507961 -0.0469859076 0.1802439544
555296670.0 -0.0655712932 0.1634324811 0.2158342206 -0.5147961603 0.215361622 -0.5150647339 -0.0450446494 0.1808974688
560296640.0 -0.0642966772 0.1642786873 0.2098838077 -0.5174904234 0.2100989986 -0.517098482 -0.0432278356 0.1814421201
565296610.0 -0.0627484748 0.1650047815 0.2038908192 -0.5192833626 0.204224569 -0.519546922 -0.0412518719 0.1819077508
570296580.0 -0.0608617277 0.1657165429 0.1985241032 -0.5213031407 0.1987808684 -0.5212688008 -0.0391932754 0.1828206832
575296550.0 -0.0593400972 0.1669891768 0.192728409 -0.5236199571 0.1935226716 -0.5235523223 -0.0369908304 0.1833450873
580296520.0 -0.0577891192 0.1673363414 0.1874781127 -0.5253375641 0.1872320606 -0.5259295052 -0.0352954447 0.1838471423
585296490.0 -0.0559379798 0.1675877132 0.181304074 -0.5275902167 0.1814911078 -0.5271240215 -0.03344531 0.1840773487
590296460.0 -0.0546213769 0.1684308852 0.1757993376 -0.5297943278 0.1756313486 -0.5293887825 -0.0315025757 0.184985444
595296430.0 -0.0529810316 0.1692805645 0.1700179966 -0.5315602075 0.1700150885 -0.5319584772 -0.0291658798 0.185284119
600296400.0 -0.0512168226 0.1699914725 0.1640343782 -0.5330781976 0.1645462687 -0.533089768 -0.0273127503 0.1859806064
605296370.0 -0.049590517 0.1705867666 0.1587021929 -0.5349245795 0.1588370826 -0.5349590194 -0.0252962399 0.186242046
610296340.0 -0.0480536185 0.1710753843 0.1531792803 -0.5365141848 0.1530326751 -0.5364664921 -0.0232392595 0.1872618252
615296310.0 -0.0463282319 0.171940632 0.1468362966 -0.5377723327 0.1468653506 -0.5381187299 -0.0212917908 0.1872488062
620296280.0 -0.0445943685 0.1721850542 0.1415523418 -0.5392158059 0.1412849674 -0.5395070853 -0.0192845558 0.1872300676
625296250.0 -0.0426552885 0.1730994602 0.1348235949 -0.54132229 0.1352909895 -0.5412146973 -0.0174629787 0.1878725438
630296220.0 -0.0412000062 0.1736149855 0.1294767067 -0.542815037 0.1296465612 -0.5424934388 -0.0153433237 0.188226872
635296190.0 -0.0395596947 0.1740268686 0.1235170486 -0.54340499 0.1232374401 -0.5434656458 -0.013410477 0.1883557608
640296160.0 -0.0379048114 0.1744541219 0.1178536371 -0.5447018564 0.1174937652 -0.5451598047 -0.0109643143 0.1885438861
645296130.0 -0.0364189198 0.1752958558 0.1120177618 -0.5463982204 0.1120373932 -0.5463035697 -0.0097872549 0.1886844529
650296100.0 -0.0346396571 0.1761444147 0.1064326833 -0.5469581328 0.1061381332 -0.5476746652 -0.0072536816 0.1892639704
655296070.0 -0.0329837111 0.1759932375 0.0997641844 -0.5483179309 0.0999437748 -0.548397732 -0.0047733821 0.1897683893
660296040.0 -0.0315440329 0.1769830254 0.0942082705 -0.5489763624 0.0942156591 -0.5490794989 -0.0032450277 0.1893838663
665296010.0 -0.0292824308 0.177029278 0.0885544976 -0.55033701 0.0889713153 -0.5505722284 -0.0013562776 0.1902287688
670295980.0 -0.0273407868 0.1775297016 0.0823581056 -0.5512045372 0.0824334681 -0.5512059928 0.0007405156 0.1898392827
675295950.0 -0.0257805776 0.1779450301 0.0759962871 -0.5519926347 0.0765211347 -0.5525557355 0.0032462567 0.1904061063
680295920.0 -0.0242093585 0.1787166309 0.0701516272 -0.5530167842 0.0700153364 -0.5527386682 0.0052809017 0.1898873946
685295890.0 -0.0223609331 0.1787258869 0.0645813917 -0.5538825811 0.0640917362 -0.553755871 0.0071903106 0.1903028231
690295860.0 -0.0206174585 0.1793179402 0.058592033 -0.5537044733 0.0578808318 -0.5540073355 0.0094152188 0.1904683407
695295830.0 -0.0185603385 0.1793660494 0.0515584794 -0.5544843697 0.0521462297 -0.5546280191 0.0110522785 0.1904113381
700295800.0 -0.016738342 0.1797666121 0.046167958 -0.5552652495 0.0461183116 -0.555709094 0.0133281466 0.1901784652
705295770.0 -0.014956231 0.1802983801 0.0402706294 -0.5557921212 0.0402425095 -0.5559911669 0.0152488616 0.1905789819
710295740.0 -0.0134095533 0.1806802003 0.0340967484 -0.5561622333 0.0341757255 -0.5560172351 0.0167510327 0.1906778462
715295710.0 -0.0116279142 0.1809127038 0.0281933684 -0.5561003832 0.0284103974 -0.5563089634 0.0197485617 0.190152291
720295680.0 -0.0100411737 0.1811049562 0.0221825255 -0.5565001097 0.0222635708 -0.5569972573 0.0217356874 0.1905269877
725295650.0 -0.0080618084 0.1813090228 0.0158235596 -0.5566679762 0.0159551766 -0.5568694792 0.0239898133 0.1904264827
730295620.0 -0.0067035162 0.1814865119 0.0101746417 -0.5567487026 0.0100872664 -0.5571468709 0.0258751465 0.1896216067
735295590.0 -0.0037968056 0.1819207675 0.0043595475 -0.5568487306 0.0046253238 -0.5570017325 0.0281594189 0.1896868977
740295560.0 -0.0026614897 0.1822967687 -0.0019859181 -0.5566991929 -0.0023056699 -0.5567141583 0.0303008818 0.1894847835
745295530.0 -0.0009889978 0.1819713179 -0.0078577802 -0.5568833645 -0.0076335036 -0.5571016838 0.0319991977 0.1893709617
750295500.0 0.0008063593 0.1824556261 -0.0135989714 -0.5565101981 -0.0140070239 -0.5566639332 0.0340334514 0.1888516266
755295470.0 0.0031061991 0.1827208203 -0.0196231196 -0.5564685688 -0.0198053976 -0.5565700541 0.0360362238 0.1890011352
760295440.0 0.0047535146 0.1827186081 -0.0258246297 -0.5560972401 -0.0257993811 -0.5562945169 0.0376572859 0.1888211309
765295410.0 0.006044245 0.1826892199 -0.0313050738 -0.5556431999 -0.0316288398 -0.5562399074 0.0405904361 0.1886442809
770295380.0 0.0083677273 0.1829215662 -0.037808679 -0.5553435846 -0.0378815762 -0.5556914604 0.0425991268 0.1882963238
775295350.0 0.0102000418 0.1828683474 -0.0436906249 -0.5547775492 -0.0437392095 -0.5545746466 0.0442668271 0.1874348758
780295320.0 0.0118631479 0.1828295101 -0.0493844848 -0.5543973626 -0.0496870748 -0.5548160905 0.0466565169 0.1876398259
785295290.0 0.013457081 0.183458043 -0.0555396199 -0.553110925 -0.055557556 -0.5538581306 0.048083711 0.1869517954
790295260.0 0.0152891226 0.1831034721 -0.0615565166 -0.5534163829 -0.0614973623 -0.553340258 0.0504741249 0.1864845168
795295230.0 0.0169629067 0.1831727792 -0.0671031426 -0.5521567961 -0.0670823324 -0.5524092322 0.0527010514 0.1867773477
800295200.0 0.0191652051 0.1832587205 -0.0737979653 -0.5518526719 -0.0738228773 -0.5519071653 0.0548070519 0.1858511197
805295170.0 0.0207287884 0.1829480417 -0.0791949566 -0.5504563456 -0.0791721086 -0.5508363146 0.0565245685 0.185239155
810295140.0 0.0224444117 0.1830886373 -0.0851708857 -0.5498251045 -0.0855715488 -0.5502937628 0.058966151 0.1851526199
815295110.0 0.024398491 0.1831977779 -0.0909993763 -0.548772027 -0.0914220071 -0.5490419553 0.0605553172 0.1845302571
820295080.0 0.0260464907 0.1824579913 -0.0967422604 -0.547825234 -0.0970426672 -0.5480477604 0.0624666765 0.184022921
825295050.0 0.0279827136 0.1823554399 -0.1027228648 -0.5461082667 -0.1027898892 -0.546778288 0.0648753051 0.1836985808
830295020.0 0.0297506497 0.1828503533 -0.1091148134 -0.5453328588 -0.1093299364 -0.5457301363 0.0667434668 0.1827398452
