!Created with skrf (http://scikit-rf.org).
# Hz S RI R 50.0 
!freq ReS11 ImS11 ReS21 ImS21 ReS12 ImS12 ReS22 ImS22
300000.0 -0.2407707819 -0.0972426857 0.4675125027 0.064571002 0.4699311387 0.0692580029 -0.2372861415 -0.109387687
5299970.0 -0.2436994842 0.0072719311 0.473607151 0.0048766435 0.4739045795 0.0056430715 -0.2439390441 0.0057686131
10299940.0 -0.2405292786 0.0197861031 0.4764530315 0.0067385635 0.4758754801 0.0066134352 -0.2412319365 0.0182205582
15299910.0 -0.2360586578 0.0294579114 0.4793342636 0.0078410108 0.4792788949 0.0078984113 -0.2370645446 0.0275715625
20299880.0 -0.2306634784 0.0372012734 0.484313098 0.008664728 0.484501658 0.0080972828 -0.2322950861 0.0356297161
25299850.0 -0.2248647676 0.0436189677 0.4894214928 0.0071412871 0.4896766301 0.0075441162 -0.2270370243 0.0414767161
30299820.0 -0.2189359714 0.0485777051 0.4953977108 0.0055314906 0.4947386021 0.0053658505 -0.2217931661 0.0468198535
35299790.0 -0.212956991 0.0526734129 0.5000069876 0.0022139772 0.5006885915 0.0022669615 -0.2163574577 0.0510282559
40299760.0 -0.2076235095 0.055572094 0.5053787221 -0.001470065 0.5057641599 -0.0015473123 -0.2117893759 0.0548565532
45299730.0 -0.2026231194 0.0585500335 0.5103182995 -0.0067029497 0.5106646928 -0.0068753653 -0.206778833 0.057181849
50299700.0 -0.1976401904 0.0601621871 0.5142772064 -0.0120111805 0.5142789335 -0.0124916463 -0.2023216887 0.0594559854
55299670.0 -0.1938147905 0.0618864856 0.5178931735 -0.0183232481 0.5181194103 -0.0180665417 -0.1987030348 0.0613656808
60299640.0 -0.1893763559 0.0626052662 0.5210910808 -0.0243558654 0.5212509562 -0.0245605582 -0.1945402511 0.0631015438
65299610.0 -0.1862106594 0.0639341164 0.5246355061 -0.0301724249 0.5246978323 -0.0304362853 -0.1912267584 0.0643608812
70299580.0 -0.1829233729 0.0640970966 0.5269698472 -0.0365178876 0.5266914284 -0.0372099825 -0.1880769817 0.0655013479
75299550.0 -0.1795506804 0.065300186 0.5284617673 -0.0438870421 0.5288107289 -0.0444159992 -0.1853402467 0.0667250451
80299520.0 -0.1772392366 0.0657510724 0.5307769332 -0.0510581082 0.5309026704 -0.0510051916 -0.182718187 0.0671234732
85299490.0 -0.1747751321 0.0661207622 0.5324609959 -0.0579021033 0.5319878045 -0.057946458 -0.180162601 0.0683390417
90299460.0 -0.1725496642 0.0667117307 0.5326134012 -0.064434097 0.5334131462 -0.0647940725 -0.1776957941 0.0691023357
95299430.0 -0.1705978017 0.0672598477 0.5338329229 -0.0720275891 0.5342407997 -0.0718941678 -0.1757395459 0.069903347
100299400.0 -0.1687332312 0.0677077506 0.5340596525 -0.0785144242 0.5346875936 -0.0785165697 -0.1742833387 0.0706276912
105299370.0 -0.1670079301 0.0680034749 0.5344324066 -0.0853938492 0.5349810212 -0.0854719441 -0.1722343724 0.0713965024
110299340.0 -0.1655530202 0.0685659046 0.5344853162 -0.0921835716 0.5347562894 -0.0926299677 -0.170655854 0.0722028003
115299310.0 -0.164034435 0.0688459033 0.5346425917 -0.0987454466 0.5351077174 -0.098816944 -0.1689724336 0.0728738132
120299280.0 -0.1629453709 0.0692998121 0.5345269562 -0.1059923849 0.534930245 -0.1059575153 -0.167881653 0.0741358102
125299250.0 -0.1618665973 0.0697673246 0.5343783443 -0.112522973 0.5347099996 -0.1127258379 -0.1660439342 0.0747040754
130299220.0 -0.1605580328 0.0705991054 0.5336355932 -0.1189365453 0.5337766051 -0.1193631113 -0.1652567317 0.0759811515
135299190.0 -0.1592745917 0.0708432797 0.5329521975 -0.1256424071 0.5327775407 -0.126054028 -0.1641040423 0.0770499607
140299160.0 -0.1587107958 0.0723747675 0.5326437778 -0.132502022 0.5324465682 -0.1327681684 -0.1627739283 0.0779357933
145299130.0 -0.1575398067 0.0728358103 0.5313948718 -0.139059541 0.5314238312 -0.1389636306 -0.1621112783 0.0788473027
150299100.0 -0.1565464435 0.0735121045 0.5302611661 -0.1456323252 0.5303922791 -0.1457506302 -0.1608718628 0.0798534191
155299070.0 -0.1558891542 0.0747331763 0.5291057089 -0.1526169298 0.5291206112 -0.1524736611 -0.16017893 0.0808686861
160299040.0 -0.1549525761 0.0753304841 0.5272968419 -0.1583298757 0.527830794 -0.1589826987 -0.1589459223 0.0824397165
165299010.0 -0.1543087759 0.0764792725 0.5266760545 -0.165546288 0.5264584442 -0.1654786404 -0.1578154693 0.0833286375
170298980.0 -0.1536361129 0.0772046935 0.5241711973 -0.1715445866 0.5247961105 -0.1715507673 -0.1568867577 0.0842190404
175298950.0 -0.1524585024 0.0782603157 0.5232598255 -0.177882071 0.5236535714 -0.1778135299 -0.1560397429 0.0854794407
180298920.0 -0.1520062629 0.0791086217 0.5214582501 -0.1840144289 0.5217318115 -0.183783611 -0.1548436936 0.0868993247
185298890.0 -0.1508611121 0.0800885038 0.5193752551 -0.1905869185 0.5197342428 -0.1902110755 -0.1542538131 0.0880093677
190298860.0 -0.1503853721 0.0812589011 0.5174851806 -0.196437828 0.5179205655 -0.1967443981 -0.1527529702 0.0896066863
195298830.0 -0.1495254012 0.0819252913 0.5157038441 -0.2023253234 0.5161130407 -0.2029771027 -0.1519485938 0.0905976995
200298800.0 -0.1487946308 0.0833094203 0.5134859706 -0.2081015133 0.5137280437 -0.2086168622 -0.1507973237 0.0922782642
205298770.0 -0.1481657787 0.084460702 0.5115778752 -0.2144707194 0.5117277004 -0.214691121 -0.150127199 0.0932913045
210298740.0 -0.1476933469 0.0854203527 0.5094435981 -0.2211578687 0.5094373543 -0.2211130889 -0.1491760111 0.0948583588
215298710.0 -0.1465176247 0.0868900287 0.5070437747 -0.2266996304 0.5071759663 -0.22668883 -0.1485099893 0.0961886654
220298680.0 -0.145958016 0.0879600477 0.5044914823 -0.2327186069 0.5048615209 -0.2329825745 -0.147052234 0.09779832
225298650.0 -0.1448577487 0.0893464673 0.5016701172 -0.2382977577 0.5021934403 -0.2383753414 -0.1464341162 0.0992044488
230298620.0 -0.1444205258 0.0906779407 0.4999688208 -0.2441661198 0.4997417148 -0.2443635205 -0.1448561845 0.1004290609
235298590.0 -0.143760914 0.0917117948 0.4967031984 -0.2495874205 0.4969438581 -0.2504277863 -0.1440969312 0.1016158957
240298560.0 -0.1430363788 0.0928734549 0.4944853963 -0.2556223574 0.4941563073 -0.2555273854 -0.143086932 0.1032409617
245298530.0 -0.1421464576 0.0942889744 0.490977701 -0.2613630693 0.4914830357 -0.2617058566 -0.1420070794 0.1048981007
250298500.0 -0.1415796603 0.0955829463 0.4887503389 -0.2667445875 0.4888504708 -0.2668223928 -0.1406808492 0.1060393274
255298470.0 -0.1409324545 0.0968453295 0.4856051433 -0.2729602609 0.4857929698 -0.2728379208 -0.1394891188 0.1073802076
260298440.0 -0.1398190855 0.0979088914 0.4825854308 -0.2779041387 0.4830069728 -0.2781325247 -0.1382760433 0.1090602356
265298410.0 -0.1385250676 0.0996147316 0.479383147 -0.2841232963 0.4791431814 -0.2835796761 -0.1375817681 0.1104007526
270298380.0 -0.1377774956 0.1006050817 0.4761843187 -0.2892254703 0.4765519662 -0.2893528368 -0.1360779685 0.1119658848
275298350.0 -0.1373336031 0.1019634154 0.4733028313 -0.2946882503 0.4738714176 -0.2947448195 -0.1346829316 0.1135656808
280298320.0 -0.1364349628 0.1032557989 0.4704494056 -0.2995139825 0.4700942618 -0.3000993046 -0.133777114 0.1149946595
285298290.0 -0.135223787 0.104701495 0.4668020611 -0.3051221067 0.4670745034 -0.3054269858 -0.1326933576 0.1165275162
290298260.0 -0.1343364891 0.105893851 0.4635604676 -0.3104567214 0.4637787104 -0.3105417756 -0.1309719549 0.1179398529
295298230.0 -0.1333622167 0.1073333558 0.4604529696 -0.3158133374 0.4601040489 -0.316134422 -0.1294363954 0.1193354278
300298200.0 -0.1319933844 0.108240709 0.4569501881 -0.3214897332 0.4570565087 -0.3214901642 -0.1285356575 0.1210125577
305298170.0 -0.1310953018 0.1096787536 0.4534232098 -0.3267306954 0.4539288139 -0.3268551256 -0.1267098383 0.1226371547
310298140.0 -0.1296506479 0.1107364657 0.4499265943 -0.3321754723 0.4499436004 -0.3323445679 -0.1255440896 0.1242413313
315298110.0 -0.1291121217 0.11201472 0.4461432472 -0.3371028425 0.4465493536 -0.3373223859 -0.1238993764 0.1251010594
320298080.0 -0.1281017534 0.1133998302 0.4427699176 -0.3423809144 0.4425986492 -0.3422351666 -0.1230547158 0.12628768
325298050.0 -0.1273334793 0.1141340451 0.4389660235 -0.3471306569 0.4390277206 -0.3472809873 -0.1214698116 0.1277592988
330298020.0 -0.1262884839 0.1156786969 0.434208984 -0.3522837142 0.4345149641 -0.3522937805 -0.120404198 0.1289005438
335297990.0 -0.1251341131 0.1167446511 0.4303726018 -0.3571449621 0.4305550455 -0.3573430809 -0.1192959156 0.1302800052
340297960.0 -0.1248157048 0.1181913863 0.4263695287 -0.3617439876 0.4266571365 -0.3616194457 -0.1180427287 0.1316225072
345297930.0 -0.1239585179 0.119428628 0.4222910293 -0.3657990537 0.4220223198 -0.366152417 -0.1163969464 0.1332992592
350297900.0 -0.1224858894 0.1211269734 0.4180995716 -0.370852122 0.4184241757 -0.370999402 -0.1152570711 0.1354527376
355297870.0 -0.1215335969 0.1221358063 0.4138008751 -0.3755726158 0.4140706199 -0.3759191837 -0.1139480266 0.136549203
360297840.0 -0.1201747308 0.1234041765 0.4096798175 -0.3806143475 0.4097149453 -0.3800946973 -0.1121420569 0.1381209707
365297810.0 -0.1189450577 0.1244896658 0.4054153067 -0.3845816073 0.4055748893 -0.3849621906 -0.1109088069 0.1396869337
370297780.0 -0.1176881482 0.1257515012 0.400755835 -0.3886966507 0.4014309082 -0.3891841149 -0.1088878224 0.140585446
375297750.0 -0.1169428654 0.1274459031 0.3974429238 -0.3934424838 0.3970144176 -0.3939524935 -0.1079256433 0.1421578955
380297720.0 -0.1155527768 0.128546712 0.3928296 -0.3976611182 0.3928912818 -0.3979737131 -0.1062266531 0.1442124282
385297690.0 -0.1143229257 0.12971216 0.3883689038 -0.4016466369 0.3878707687 -0.402520802 -0.1046725715 0.1452375777
390297660.0 -0.1129627154 0.130970514 0.3835370816 -0.4067041499 0.3839814184 -0.4072620802 -0.1030385031 0.1464620171
395297630.0 -0.1117381227 0.1321279653 0.3792551868 -0.4105453062 0.3796282986 -0.4106271427 -0.1016827005 0.1480109787
400297600.0 -0.1106316049 0.1333798891 0.3747056665 -0.4145352296 0.375455773 -0.4151312467 -0.1004949674 0.148875411
405297570.0 -0.109145277 0.1349255554 0.3704156214 -0.419202361 0.3705879604 -0.4189594902 -0.0986668445 0.1507350914
410297540.0 -0.1080781762 0.1357721893 0.3650016332 -0.4228431676 0.3657909506 -0.4226562401 -0.097053256 0.1516709864
415297510.0 -0.1066422914 0.1373228102 0.3606058433 -0.426441421 0.3612258776 -0.4267685307 -0.0955109003 0.1534589348
420297480.0 -0.1053623343 0.1381289977 0.3561829367 -0.4308057263 0.3563351956 -0.4306681271 -0.093476383 0.153971664
425297450.0 -0.103742841 0.1390551427 0.3514231351 -0.4343469567 0.3521584177 -0.4347547341 -0.0916912957 0.156009999
430297420.0 -0.1029171181 0.1406361503 0.3469542889 -0.438992616 0.3471126274 -0.4385341561 -0.0902939925 0.1565406821
435297390.0 -0.1012721783 0.1416013637 0.3421687476 -0.4421569116 0.3419219036 -0.4423535434 -0.0884972255 0.1584588467
440297360.0 -0.09986888 0.1425336109 0.336649035 -0.4458100908 0.3364664329 -0.4458690235 -0.0867327333 0.1585358755
445297330.0 -0.0983164969 0.1437452353 0.3316154738 -0.4501259763 0.3319912915 -0.4497476713 -0.0850545357 0.1602892895
450297300.0 -0.0968245502 0.1444175479 0.3269450645 -0.452978112 0.3272916286 -0.4535170468 -0.0835941992 0.1616435691
455297270.0 -0.0956929813 0.1458888123 0.3224381062 -0.4568285288 0.3226076236 -0.4565597138 -0.0817307767 0.1627752013
460297240.0 -0.0946115469 0.146799032 0.3169922034 -0.4599388841 0.3168237007 -0.4603886413 -0.0795832094 0.1641164352
465297210.0 -0.0925676696 0.147941147 0.3119574595 -0.4636532359 0.3123760327 -0.4636391979 -0.0784989324 0.1647480957
470297180.0 -0.0915059301 0.1489383576 0.307419526 -0.4666057269 0.3076072189 -0.4669337758 -0.0770326401 0.1661233678
475297150.0 -0.0903329497 0.1497268216 0.3019316258 -0.4704312814 0.3018485296 -0.470262395 -0.074564598 0.1671667791
480297120.0 -0.0883860527 0.1505416463 0.2968471289 -0.4731789177 0.2971023511 -0.4732082062 -0.0728901409 0.1687736394
485297090.0 -0.0867452167 0.1515922591 0.2919150117 -0.4764670449 0.2917192189 -0.4766004505 -0.0712396512 0.1689678179
490297060.0 -0.085238616 0.1522930772 0.2863684869 -0.4796587947 0.2866508445 -0.4794608603 -0.0689679657 0.1700552077
495297030.0 -0.0842735763 0.1536130211 0.2812544191 -0.4823842705 0.2809650726 -0.4828404633 -0.0672654874 0.1708628194
500297000.0 -0.0824565886 0.1543137175 0.2755923167 -0.4857519029 0.2758155918 -0.4858439304 -0.0658719358 0.1719377212
505296970.0 -0.0811936675 0.1553114147 0.270147163 -0.4886497485 0.2705353509 -0.4885890253 -0.0642914921 0.1730840962
510296940.0 -0.0796853003 0.1566052673 0.2649005271 -0.4917075174 0.2651224209 -0.4918572279 -0.0617380852 0.1740070296
515296910.0 -0.0783724236 0.1573443898 0.2595451714 -0.494349181 0.2599839533 -0.4946147667 -0.0603847859 0.1748454936
520296880.0 -0.0764105142 0.1580087937 0.2541424324 -0.496997986 0.2543460081 -0.497260568 -0.0581525567 0.1755347825
525296850.0 -0.0752072634 0.1588407467 0.2491334105 -0.4996636818 0.2490260574 -0.5004174357 -0.0560673999 0.176483851
530296820.0 -0.073508341 0.1599318832 0.2434227582 -0.5019412138 0.2433421659 -0.5024922783 -0.0548528644 0.1768364183
535296790.0 -0.0721256149 0.1603819408 0.2383588604 -0.5046547179 0.2383833031 -0.5052065485 -0.0526266959 0.177612922
540296760.0 -0.0704945322 0.1612096201 0.2325765197 -0.5080598421 0.2322659523 -0.5081542213 -0.0509757685 0.1787791773
545296730.0 -0.0687290996 0.1622226331 0.2268813073 -0.5099205209 0.2271682233 -0.5101396794 -0.0492011213 0.1792881771
550296700.0 -0.0673923344 0.1628009058 0.2212501876 -0.5124630163 0.2218580964 -0.5125785043 -0.0471794585 0.1803166885
555296670.0 -0.065395752 0.1636491665 0.2159001159 -0.5151672008 0.2157749549 -0.5149592709 -0.0452340438 0.1809299988
560296640.0 -0.0642308882 0.164459664 0.2101145344 -0.5170915767 0.2105585811 -0.5168281753 -0.043058644 0.1815181412
565296610.0 -0.0629267326 0.1652788059 0.2048286248 -0.5194216954 0.2048453343 -0.5192886101 -0.0412946074 0.1823410056
570296580.0 -0.0608955189 0.1658345451 0.1989923998 -0.5210807085 0.1991297041 -0.5214185007 -0.0393049451 0.1829741063
575296550.0 -0.0594458523 0.1669748573 0.1933073564 -0.5232182993 0.1935642276 -0.5233136177 -0.0369772931 0.1830946281
580296520.0 -0.0578249791 0.1675658145 0.1877052725 -0.5257663083 0.1876532603 -0.5257111886 -0.0357172704 0.1838216187
585296490.0 -0.0560107902 0.1676951869 0.1821004778 -0.5273018907 0.1820015152 -0.5273851279 -0.03373809 0.1841667158
590296460.0 -0.0546432118 0.1683817014 0.1762787399 -0.5292824707 0.176218367 -0.5297753707 -0.0314311266 0.1856227706
595296430.0 -0.0530421262 0.1694873022 0.1707499607 -0.5313171334 0.1704391835 -0.5316337946 -0.0294671953 0.1852784293
600296400.0 -0.0512357018 0.169999102 0.1648476867 -0.5335090953 0.1651887152 -0.5333809257 -0.0273636265 0.1861020875
605296370.0 -0.0492197915 0.1707432178 0.1589223838 -0.5349954508 0.1591269731 -0.5345409494 -0.0255815543 0.1861600123
610296340.0 -0.0478757208 0.1712418745 0.1534918144 -0.5365199697 0.1535442294 -0.5370535366 -0.0234437526 0.1873298052
615296310.0 -0.046310831 0.1720849184 0.1473238859 -0.5379545076 0.1473663911 -0.5379650339 -0.0213597096 0.1873964262
620296280.0 -0.0447687666 0.1725403541 0.1418154178 -0.5395839519 0.1414799764 -0.5395418955 -0.0192680314 0.1872351046
625296250.0 -0.0426656973 0.1730822249 0.1352252994 -0.5413031734 0.1355795651 -0.5414101216 -0.0173621634 0.1884301835
630296220.0 -0.0409861747 0.1738548704 0.1294262172 -0.5427210691 0.1301348055 -0.5424307893 -0.0157725429 0.1882861939
635296190.0 -0.039442896 0.174290817 0.1235788922 -0.5437963021 0.1238179319 -0.54358886 -0.0133244645 0.1883110799
640296160.0 -0.0376904315 0.1746443224 0.1181202897 -0.5452692276 0.1177805502 -0.5452566881 -0.01116283 0.1890278751
645296130.0 -0.036115596 0.1754238772 0.1118086064 -0.5465665142 0.11235502 -0.5464753578 -0.0097428689 0.1886978607
650296100.0 -0.0343624494 0.1762468893 0.1066936468 -0.5473845249 0.1061873208 -0.5469619085 -0.0070093643 0.1890999013
655296070.0 -0.0328233231 0.17624691 0.1004797978 -0.5485117367 0.1000588574 -0.5487090162 -0.0045946359 0.1898493215
660296040.0 -0.0313043904 0.1769036446 0.0943449805 -0.549030124 0.0945732903 -0.5493041135 -0.0030567545 0.1895877593
665296010.0 -0.0293707352 0.1772422465 0.0888113952 -0.5504998211 0.0892461144 -0.5504265202 -0.0011310211 0.1901164476
670295980.0 -0.0272542894 0.1777834173 0.0824685216 -0.5512025541 0.0830638353 -0.5511647681 0.0007670766 0.1897312241
675295950.0 -0.025759529 0.1780961019 0.0767661482 -0.5519899052 0.0770543751 -0.5530031682 0.0032522903 0.1905520772
680295920.0 -0.0241201822 0.1787184714 0.0704092594 -0.5530431618 0.0705789699 -0.5532111315 0.0051106556 0.1902260007
685295890.0 -0.0224771765 0.1790699522 0.0649943617 -0.5538658575 0.0644427881 -0.553947713 0.0073068379 0.1906481888
690295860.0 -0.0202079377 0.1794670551 0.0587477417 -0.5540697011 0.058376334 -0.5541406817 0.009374157 0.1908699285
695295830.0 -0.0184522433 0.1793606011 0.0518386189 -0.5550482768 0.0525429168 -0.555056487 0.0111563247 0.1910314557
700295800.0 -0.0168176146 0.1798512719 0.046297997 -0.5552098622 0.0466621785 -0.5555169502 0.0133888214 0.1903924614
705295770.0 -0.0150511357 0.1802206087 0.0403972037 -0.5555501295 0.0410778262 -0.5558444661 0.0152891518 0.1905551604
710295740.0 -0.0135695101 0.1808700722 0.0344657301 -0.5560559695 0.0347116123 -0.5562025412 0.0169981193 0.1908081063
715295710.0 -0.0115278668 0.1811565049 0.0287254172 -0.5564584965 0.0289429799 -0.5563690836 0.0194040767 0.1905805106
720295680.0 -0.0100566809 0.1807668327 0.0227176266 -0.5564009999 0.0226646458 -0.5573737577 0.0216732857 0.1905386677
725295650.0 -0.0077854759 0.1814708333 0.0163051242 -0.5565344976 0.0165459464 -0.5566975051 0.0237680618 0.1906818397
730295620.0 -0.0063812733 0.1816611135 0.0107611693 -0.5571465915 0.010616125 -0.5569691717 0.0259484495 0.1898097988
735295590.0 -0.003897856 0.1818130147 0.0050577027 -0.5572057449 0.0049737282 -0.5575617023 0.0280706609 0.1901835467
740295560.0 -0.0026332355 0.1820590307 -0.0014464374 -0.5565050976 -0.0015965506 -0.556920937 0.0302087571 0.1899214014
745295530.0 -0.0007335603 0.1820523209 -0.0070791438 -0.5569392333 -0.0071514501 -0.5570042336 0.0323519597 0.1897226913
750295500.0 0.000916537 0.1824290868 -0.0131285505 -0.5565175909 -0.0133276583 -0.5569159089 0.0341657495 0.189248201
755295470.0 0.003028122 0.182572789 -0.0192455983 -0.5565296887 -0.0189030386 -0.5567479673 0.0360255399 0.1895013289
760295440.0 0.0046657308 0.1829301166 -0.025686881 -0.5562882386 -0.0252618606 -0.5561532857 0.0379136881 0.188760833
765295410.0 0.0060080291 0.1826127671 -0.030731039 -0.5559337989 -0.0311301141 -0.5564012774 0.040703988 0.1892772086
770295380.0 0.0081449095 0.1829083796 -0.0372437057 -0.5554142896 -0.0369465457 -0.555904419 0.04277557 0.1887250327
775295350.0 0.0098830558 0.1830653674 -0.0431681292 -0.5549307774 -0.0430742016 -0.5549869754 0.0442462774 0.1880028061
780295320.0 0.0117717333 0.1829027006 -0.0486811126 -0.5547300527 -0.048665129 -0.5547764048 0.0463074465 0.1882176973
785295290.0 0.0135679094 0.1833406683 -0.0553080848 -0.5531252915 -0.0551186942 -0.554137611 0.0481143477 0.1874603848
790295260.0 0.0153811642 0.1831216444 -0.0609333339 -0.5531115544 -0.0608687401 -0.5538623051 0.0509392833 0.1870287158
795295230.0 0.0170633233 0.1832109223 -0.0668235953 -0.5521424273 -0.0666447852 -0.552466206 0.0525761983 0.1872603266
800295200.0 0.0190195123 0.1833992914 -0.0734181542 -0.5522212045 -0.0732316828 -0.5521000779 0.0547568975 0.1866530713
805295170.0 0.0203769221 0.1829846455 -0.0789178009 -0.5504796267 -0.0787534383 -0.5508028705 0.0564631004 0.1857020209
810295140.0 0.0225624544 0.1829372586 -0.0848762978 -0.5498629991 -0.0845346239 -0.5506434757 0.0587224909 0.1859153183
815295110.0 0.024433952 0.1831189595 -0.0905896865 -0.5488039161 -0.0909393432 -0.5491748955 0.0606071963 0.184970831
820295080.0 0.0262410631 0.1826816507 -0.0963930362 -0.5479915702 -0.0965537569 -0.5484619386 0.0624868705 0.1846117159
825295050.0 0.0282602587 0.1827629534 -0.1025023738 -0.5464850753 -0.1023739523 -0.5469368805 0.0646337014 0.1842044115
830295020.0 0.0298822116 0.1829737888 -0.1084986807 -0.5456561136 -0.1089355593 -0.5460491709 0.0664545744 0.1833771203
