!Created with skrf (http://scikit-rf.org).
# Hz S RI R 50.0 
!freq ReS11 ImS11 ReS21 ImS21 ReS12 ImS12 ReS22 ImS22
300000.0 -0.0468257244 -0.0400778742 -0.0009115708 4.05333e-05 0.0001022839 0.001413898 -0.7793269802 -0.1199267425
5299970.0 -0.0489034052 0.0156724856 1.83071e-05 -8.0642e-05 0.000156312 5.5617e-05 -0.7854198044 -0.0070749818
10299940.0 -0.0433303596 0.0322377276 6.10535e-05 0.0001639855 -8.29984e-05 2.32401e-05 -0.7885781381 -0.0037872062
15299910.0 -0.0351486923 0.0460111336 0.0003294307 0.0001142124 1.09811e-05 -0.0001162581 -0.7941752848 -0.0016500491
20299880.0 -0.0253331009 0.0573687508 -8.55564e-05 -4.6618e-05 0.0002523178 -6.75405e-05 -0.80049843 0.0021234587
25299850.0 -0.0146215947 0.0667358594 -7.56254e-05 -0.0001818179 -8.93874e-05 5.67641e-05 -0.8068502853 0.0082390836
30299820.0 -0.0035984252 0.0731362643 1.82822e-05 -0.0002120039 0.0002183269 9.7757e-06 -0.8125550267 0.0164231493
35299790.0 0.0075864688 0.0773845665 -2.85556e-05 9.444e-05 4.9704e-06 7.94156e-05 -0.8175750109 0.0248515396
40299760.0 0.0188715681 0.0803386982 5.81533e-05 5.64745e-05 -8.42775e-05 -9.2284e-06 -0.8217257751 0.0343630078
45299730.0 0.0298082055 0.0813886765 1.16823e-05 4.4772e-06 6.09155e-05 8.48055e-05 -0.8254616293 0.0434368275
50299700.0 0.0391926378 0.0815178503 -2.47246e-05 7.79225e-05 -2.67353e-05 -0.0001124861 -0.8273297135 0.0534759836
55299670.0 0.048129191 0.0802299238 8.15982e-05 -8.525e-07 -6.18641e-05 -3.83122e-05 -0.8296745453 0.0640803684
60299640.0 0.0566677988 0.0786497681 -3.32441e-05 0.000122139 -5.68589e-05 -0.0001989448 -0.8303628762 0.0733779121
65299610.0 0.0642903288 0.0759857265 0.0001552719 4.3128e-06 -0.0001862393 -0.0002002038 -0.8314864717 0.0837585282
70299580.0 0.0708386341 0.0734519137 8.21018e-05 -3.25659e-05 0.0001423416 0.0001073343 -0.8316376118 0.0947817797
75299550.0 0.0773424532 0.0702370219 0.0001310923 2.54735e-05 3.3753e-05 0.000250233 -0.8320275189 0.1035576501
80299520.0 0.0829795158 0.0666596645 -2.9796e-05 4.06272e-05 5.13645e-05 4.40438e-05 -0.8318372332 0.1139518091
85299490.0 0.0876152636 0.0627344716 0.0001316007 5.92894e-05 -2.408e-06 0.0001996617 -0.8316379288 0.123511479
90299460.0 0.0923055371 0.0590840218 -0.0001242407 6.2991e-06 -8.70057e-05 -0.0002474025 -0.8304551597 0.1331692892
95299430.0 0.0963718617 0.054863393 -3.18774e-05 -0.0001925163 -7.57789e-05 0.0002666295 -0.8290638642 0.1429030274
100299400.0 0.099686535 0.0511227205 6.30892e-05 -7.84033e-05 0.0001737325 1.06383e-05 -0.8279924774 0.1520906826
105299370.0 0.1031569835 0.0475185668 0.0001594841 5.66353e-05 -5.24857e-05 9.02829e-05 -0.8268176276 0.1608128941
110299340.0 0.1060455726 0.0433583599 -0.0001088149 0.0001227498 8.57883e-05 -1.26339e-05 -0.8256181713 0.1706037513
115299310.0 0.1085654619 0.0394219141 6.70878e-05 0.0001584225 0.0001496803 -8.74825e-05 -0.8243791 0.1800634563
120299280.0 0.1103919694 0.0352548566 -0.0001156803 4.46913e-05 0.0001361454 -1.5091e-06 -0.8225920588 0.1889042906
125299250.0 0.1121453794 0.031493855 -4.71183e-05 3.71543e-05 0.0001320557 3.99255e-05 -0.8216292217 0.1975887763
130299220.0 0.1137208609 0.0280712037 5.1543e-05 -0.0001632055 8.33625e-05 0.0001630297 -0.8193779127 0.2066682452
135299190.0 0.1150945835 0.0245562843 -7.91131e-05 3.74761e-05 4.32571e-05 -0.0001375938 -0.8171867793 0.2160087988
140299160.0 0.1160488035 0.0206986881 -2.4918e-05 0.0001145854 -0.0001033013 0.0001865251 -0.8151855766 0.2246661725
145299130.0 0.117588167 0.0173088722 9.53188e-05 0.0001449579 -8.02654e-05 0.0003058356 -0.8128864679 0.2342929631
150299100.0 0.1184234404 0.0138022418 -0.0001948971 3.26533e-05 -0.0001806377 3.126e-07 -0.8112819787 0.2430829863
155299070.0 0.1187026308 0.0103129304 -1.12615e-05 -3.8295e-06 9.4155e-06 -4.4903e-05 -0.807881724 0.2519474838
160299040.0 0.1194227468 0.0073013926 -2.85657e-05 0.0002922856 1.9645e-06 -2.47321e-05 -0.8059504205 0.2607906412
165299010.0 0.1197080101 0.0040347571 0.0001779539 -4.29514e-05 6.88079e-05 -2.16381e-05 -0.8034223041 0.2696468934
170298980.0 0.1198043976 0.000936636 -0.0001325817 1.64884e-05 0.0001698961 0.0001598234 -0.8003885081 0.2778727635
175298950.0 0.1201633295 -0.0021757486 8.26367e-05 7.00359e-05 6.63548e-05 0.0001335575 -0.7980125672 0.2865074075
180298920.0 0.1205339863 -0.0050187674 9.34574e-05 0.0001753529 1.84684e-05 -9.9969e-05 -0.7949944115 0.2946852082
185298890.0 0.1203960268 -0.0083216334 -1.0146e-05 -0.0001623363 1.79313e-05 0.0001671012 -0.7912846233 0.3033624825
190298860.0 0.1206331831 -0.0110734348 4.32946e-05 0.0001653276 -3.89397e-05 8.9956e-05 -0.7887671353 0.3118313939
195298830.0 0.1202048065 -0.013799956 0.0001384908 -2.88375e-05 2.92257e-05 -0.0001445265 -0.7853773935 0.3208131689
200298800.0 0.1199928123 -0.0163913205 0.0001757512 0.0002267764 2.09403e-05 -2.08588e-05 -0.7823044551 0.3286937954
205298770.0 0.1196744914 -0.018916078 2.63393e-05 -6.8546e-05 6.0619e-06 2.58058e-05 -0.777888475 0.3370557783
210298740.0 0.1192431929 -0.0215713667 5.00522e-05 -0.0001004243 0.0002205844 -7.25866e-05 -0.7750335878 0.3454597945
215298710.0 0.1186075437 -0.0241846177 0.0001381363 5.32467e-05 5.48828e-05 0.0001929834 -0.7716696099 0.353806729
220298680.0 0.1182277243 -0.027198185 -9.85798e-05 9.32114e-05 -4.38487e-05 -5.80118e-05 -0.7672935527 0.3613443424
225298650.0 0.1174433859 -0.0290721527 -1.68259e-05 -0.0002478364 -3.389e-06 0.0001555455 -0.7638120235 0.3698352413
230298620.0 0.1169266581 -0.0316754613 -9.02283e-05 5.57142e-05 -9.83224e-05 6.71883e-05 -0.7598666459 0.3781308783
235298590.0 0.1164408382 -0.033862927 3.77279e-05 9.89581e-05 -0.0001768634 0.0002541366 -0.7557747103 0.3867471698
240298560.0 0.1158248367 -0.0362144919 -4.7875e-06 0.0001005664 0.0002548703 1.34645e-05 -0.7515655351 0.3946151482
245298530.0 0.1151813895 -0.0387196256 -5.72914e-05 0.0001901656 0.0001592674 8.78766e-05 -0.7480599375 0.4015010735
250298500.0 0.1143008614 -0.0406997436 0.000197009 0.0001344583 -1.0529e-05 0.0001691925 -0.7437745001 0.4095479667
255298470.0 0.1131276175 -0.0432537018 -8.8011e-06 -5.6188e-05 9.5122e-06 4.09143e-05 -0.739131735 0.4173411263
260298440.0 0.1123579361 -0.044992219 8.06023e-05 6.4852e-06 -5.92566e-05 -8.32491e-05 -0.7344560107 0.4261039015
265298410.0 0.1118381209 -0.0469207158 0.000138967 -0.0001003323 -2.72741e-05 -0.0001349686 -0.7304160503 0.433621242
270298380.0 0.1108297524 -0.0488936166 -9.48089e-05 0.0002391485 0.0001232173 1.915e-07 -0.7258080277 0.4402231188
275298350.0 0.1098640035 -0.0508350441 -0.0001871364 0.0002999846 0.0001558966 -9.2927e-06 -0.7211551371 0.4485689592
280298320.0 0.1089929796 -0.0528284679 0.0001242037 7.3299e-06 8.51235e-05 6.50495e-05 -0.7158088434 0.4553274255
285298290.0 0.1080603562 -0.0545848899 0.0001202493 6.57699e-05 0.0001879626 0.0001015732 -0.7112941558 0.4637059661
290298260.0 0.1072765206 -0.0567675707 2.0798e-05 5.33966e-05 0.0001421416 0.0001821009 -0.7066936152 0.4707834844
295298230.0 0.1061073382 -0.0586038085 0.000144766 -0.0001576051 9.7195e-06 -0.0003590447 -0.7014613647 0.4782952838
300298200.0 0.1052380862 -0.0602108924 0.0001940156 7.649e-07 0.0001428009 1.97413e-05 -0.6964047187 0.485829366
305298170.0 0.1042671111 -0.0619013693 -6.05168e-05 0.0001449219 0.0001736527 0.0001131678 -0.6911831824 0.4933509314
310298140.0 0.1031430027 -0.0640064269 0.0002476947 -4.4811e-05 6.4662e-05 -8.66617e-05 -0.6866792361 0.500061381
315298110.0 0.1020513567 -0.0658424776 1.1815e-06 0.0001095798 0.0001534949 -5.85704e-05 -0.6806433345 0.5070313856
320298080.0 0.1007120876 -0.0679604474 -3.88562e-05 0.0002255923 9.18506e-05 -8.68745e-05 -0.6753612645 0.5145289799
325298050.0 0.099512432 -0.0697119481 6.38096e-05 4.98925e-05 2.07615e-05 4.75032e-05 -0.6699059914 0.5218009628
330298020.0 0.0981491899 -0.0711047974 0.0001026205 0.0003389951 0.0001186415 0.0001746587 -0.6643930914 0.5282786873
335297990.0 0.0963108623 -0.0728779095 9.55221e-05 -4.17281e-05 7.67217e-05 4.03117e-05 -0.6596382638 0.5354594219
340297960.0 0.0950894453 -0.074251016 -2.56651e-05 -0.0003088101 0.000251478 7.69288e-05 -0.6535368848 0.5423079123
345297930.0 0.0937483055 -0.0756976181 9.98447e-05 7.72959e-05 -5.67599e-05 -6.5103e-05 -0.6478750599 0.5483870525
350297900.0 0.0924572724 -0.0768583413 0.0001188264 0.0001942997 -0.0001194512 0.0002533289 -0.6422796983 0.5554603931
355297870.0 0.0910658192 -0.078580696 -7.37225e-05 8.19099e-05 0.0001475953 -0.0001633972 -0.6363801098 0.5617651299
360297840.0 0.0893195071 -0.0796020162 0.0001556413 0.0001764367 -9.25898e-05 1.1993e-05 -0.6308395272 0.5686742598
365297810.0 0.087923903 -0.0809179523 0.0001480271 0.0002418177 0.0001415092 8.23461e-05 -0.6243283851 0.5752879271
370297780.0 0.0869025791 -0.0822463375 9.90972e-05 -6.42761e-05 -2.43326e-05 -1.98291e-05 -0.6182492986 0.5813098765
375297750.0 0.0855685577 -0.0836879619 0.0001597112 -0.0001141478 -2.42752e-05 9.22516e-05 -0.6123409042 0.5873963931
380297720.0 0.0838749295 -0.0849826276 -3.90534e-05 0.0001100638 0.0002062552 2.12618e-05 -0.6065820643 0.5938792731
385297690.0 0.0823685719 -0.0857173326 0.0001878255 7.60964e-05 -6.9156e-05 1.57071e-05 -0.5996781907 0.6002515463
390297660.0 0.081015399 -0.0870074202 1.77256e-05 -7.94039e-05 1.74304e-05 0.0001259855 -0.5938460217 0.6063175069
395297630.0 0.0798261834 -0.088329184 0.0001597831 2.16022e-05 1.40745e-05 -0.0001558215 -0.5867789045 0.6126179151
400297600.0 0.0780740959 -0.089144127 -1.47191e-05 0.0001454274 7.27969e-05 4.94173e-05 -0.5811872783 0.6184899444
405297570.0 0.0767238909 -0.0903359162 2.87584e-05 8.63887e-05 3.91876e-05 0.0001116745 -0.574591259 0.6242707521
410297540.0 0.0752143536 -0.0916696237 0.0002869466 0.0003133196 0.0001059185 4.31468e-05 -0.5674478546 0.6306290843
415297510.0 0.0738170115 -0.0927717509 0.0002031389 7.9776e-06 8.10217e-05 -4.1731e-06 -0.5614540597 0.6362046922
420297480.0 0.0722410517 -0.093502604 -0.0001405161 0.0001469533 0.0001734317 -0.0001483056 -0.5547091224 0.6418881347
425297450.0 0.0707150128 -0.094347944 0.0001989197 1.07308e-05 0.0001883111 6.0327e-05 -0.5480059577 0.6472880624
430297420.0 0.0694462834 -0.0957787528 6.30315e-05 0.0002426205 -5.4449e-06 8.9638e-05 -0.5416879755 0.6525383101
435297390.0 0.0676779066 -0.0964025222 0.00030759 -5.6488e-05 0.0002350362 -7.0589e-06 -0.534437503 0.6584434992
440297360.0 0.0661737715 -0.0975304558 5.312e-05 -2.27591e-05 0.0002372305 0.0001135448 -0.528086878 0.6638395853
445297330.0 0.0646791599 -0.0985627701 0.0001118439 -2.61759e-05 -0.0001011152 -0.0001950391 -0.5211631996 0.6685634871
450297300.0 0.0630703762 -0.0993333641 -5.58193e-05 -3.73181e-05 -7.1077e-05 -1.76749e-05 -0.5138800336 0.6741760705
455297270.0 0.0614123566 -0.1000684212 0.0002615557 1.70398e-05 0.0001558168 9.25267e-05 -0.5071060992 0.6789750239
460297240.0 0.0599855622 -0.1008811 8.62469e-05 -5.28589e-05 0.000129912 -0.0001935414 -0.5004441821 0.6845001085
465297210.0 0.0585326879 -0.1018621528 0.0001533662 0.0002389017 0.0001456581 -0.00011068 -0.4930980021 0.6894393568
470297180.0 0.05678736 -0.1021722382 0.0002385842 4.91241e-05 -3.04268e-05 8.57895e-05 -0.4855678517 0.6947067072
475297150.0 0.0551651038 -0.1034154015 0.0003648735 0.0001673452 1.06432e-05 3.97173e-05 -0.4782384289 0.6990823394
480297120.0 0.0537551736 -0.1037508534 0.0001414731 -3.54882e-05 -6.2353e-05 8.53654e-05 -0.4711394701 0.703796812
485297090.0 0.0521939054 -0.1045599803 7.98139e-05 -8.15476e-05 0.0001279476 2.3583e-05 -0.464136542 0.7090099726
490297060.0 0.0503846151 -0.1049055119 8.34769e-05 -0.0001504261 3.67824e-05 4.76462e-05 -0.4565962769 0.7135246588
495297030.0 0.0488753975 -0.1057109456 0.0001198271 0.000230009 -2.82128e-05 -8.92837e-05 -0.4495209647 0.7182926342
500297000.0 0.0472907137 -0.1062835 1.73207e-05 -7.84325e-05 0.0001114628 8.88456e-05 -0.4418422777 0.7229688199
505296970.0 0.0457498558 -0.1069847119 0.0002836502 -0.000184923 6.39314e-05 4.46213e-05 -0.4344652699 0.727178783
510296940.0 0.0441450922 -0.1075182466 -5.44859e-05 -0.0001741221 5.30312e-05 -0.0001091359 -0.4268648467 0.7308578567
515296910.0 0.0427029072 -0.1079768383 0.0003213878 0.0003469239 0.0001872293 -0.0001011529 -0.4197008788 0.7359005901
520296880.0 0.0405813876 -0.1086533182 0.0002244619 -4.52942e-05 0.0003755276 0.0003771525 -0.4119571515 0.7397400281
525296850.0 0.0392465335 -0.1093122405 0.0001744195 0.0001910723 0.0003030436 -0.00013315 -0.4047541609 0.7436430167
530296820.0 0.0373453119 -0.1097892334 4.4495e-05 0.0001138598 0.0001656415 5.44458e-05 -0.3967579381 0.7481901349
535296790.0 0.035977132 -0.1098644733 0.000174623 -0.0001383402 -5.11519e-05 -9.89235e-05 -0.3898592061 0.7518963068
540296760.0 0.0342989222 -0.1104166532 0.000219156 0.0001155689 4.51082e-05 -7.13851e-05 -0.3818898288 0.755641147
545296730.0 0.0324775093 -0.1106685384 0.0002046348 -8.31496e-05 0.0002064097 -7.5919e-06 -0.3743231034 0.7587769177
550296700.0 0.0311667443 -0.1113167604 0.0002218325 -0.0001298256 0.000250345 -4.99741e-05 -0.3661426816 0.7626624605
555296670.0 0.0291384444 -0.1116050515 0.0001862183 0.0001492528 0.0002062115 9.56086e-05 -0.3585724558 0.7673120145
560296640.0 0.0277410286 -0.1117667774 0.0002317671 1.67413e-05 0.0001544132 -0.0002647946 -0.3506857322 0.7705142679
565296610.0 0.0259432713 -0.1121071096 0.0001259255 -5.70216e-05 0.0001024278 3.1323e-06 -0.3430055973 0.7731869908
570296580.0 0.0240657222 -0.1122530752 6.86126e-05 0.0001335725 2.2644e-05 -3.8727e-06 -0.3356256416 0.7774253866
575296550.0 0.0225082645 -0.112400992 0.0003325427 7.54168e-05 0.0002462018 3.13877e-05 -0.3276382156 0.7805442991
580296520.0 0.0212229921 -0.1128339248 0.0001285527 0.0002343418 0.0002732882 1.77433e-05 -0.3189067641 0.7834150349
585296490.0 0.0190734018 -0.1132790651 -1.04936e-05 -7.00766e-05 2.25566e-05 -9.09697e-05 -0.3113506638 0.7872214794
590296460.0 0.0175760637 -0.1129227436 0.0003183484 -4.06439e-05 -7.73422e-05 0.0001385413 -0.3031667823 0.7900566471
595296430.0 0.0158212776 -0.1133144965 0.0001069865 0.0001093695 0.0001846545 0.0002086914 -0.2951303543 0.7926057461
600296400.0 0.0139745614 -0.1136365787 0.000184248 -0.0002142809 4.15612e-05 -1.0678e-06 -0.287376899 0.7958053909
605296370.0 0.0123141954 -0.1136297699 0.000325062 -0.0001072698 -6.0673e-06 -1.92848e-05 -0.2789374677 0.7986420188
610296340.0 0.010585837 -0.1136188944 -2.53805e-05 8.70685e-05 1.34056e-05 -4.26767e-05 -0.2703803152 0.8013714767
615296310.0 0.009168183 -0.1137415368 7.28665e-05 -4.63841e-05 9.31883e-05 0.000133378 -0.2623952465 0.8037406481
620296280.0 0.0074654096 -0.1140139013 0.0002472222 -0.0001555717 0.0002239986 9.19613e-05 -0.2546251273 0.8068671143
625296250.0 0.0059624402 -0.1138445218 4.72222e-05 5.2144e-06 -0.0001513277 -6.80074e-05 -0.2457788847 0.8091067401
630296220.0 0.0043731413 -0.1142057517 0.0001541424 2.9238e-06 0.0001256001 -0.0001677955 -0.2382120927 0.8116066458
635296190.0 0.0023264215 -0.1138480138 0.0002062141 -0.0001012637 5.09093e-05 1.64869e-05 -0.230036868 0.8135677315
640296160.0 0.0007954346 -0.1137731158 0.0001203968 -0.0001083611 0.0003222153 0.0002886385 -0.2217559256 0.8162202719
645296130.0 -0.0011846992 -0.1134352487 0.0001677979 1.79297e-05 0.0002429243 0.0001291667 -0.2136964212 0.8181381669
650296100.0 -0.0024836285 -0.1134570673 0.000244769 -0.0001022425 9.9192e-06 0.0001433605 -0.205611044 0.8197253716
655296070.0 -0.004353168 -0.1132516338 0.00013722 -0.000246161 0.0001905718 4.89143e-05 -0.1967831007 0.821686207
660296040.0 -0.0061231615 -0.1131818486 8.34113e-05 2.756e-07 4.50658e-05 0.0001167826 -0.1881325353 0.823937765
665296010.0 -0.007521165 -0.1132055247 0.0001448481 0.0001796616 0.0004310939 -7.69833e-05 -0.1801621695 0.8256366125
670295980.0 -0.0093488135 -0.1126369627 5.1052e-05 -3.5335e-05 -2.23712e-05 -0.0001178618 -0.1724477527 0.8270890773
675295950.0 -0.0109317953 -0.1126299561 3.00347e-05 0.0001764156 0.0001993366 8.58931e-05 -0.1646743771 0.8296171811
680295920.0 -0.012678082 -0.1123418038 0.0003204117 -1.9626e-05 0.0001797033 -4.53832e-05 -0.1558277558 0.8312232784
685295890.0 -0.0139718809 -0.1119883235 0.0001032417 -0.0001054043 9.00317e-05 6.55726e-05 -0.1468857722 0.8319230518
690295860.0 -0.0159301836 -0.1118049464 0.0001637525 0.000335949 -1.81164e-05 -4.22231e-05 -0.1388319229 0.8338444491
695295830.0 -0.0175843398 -0.1113090823 6.50888e-05 -0.0001044978 -0.0001662667 1.0145e-05 -0.1299120957 0.8349864177
700295800.0 -0.0189793928 -0.1112349287 8.50024e-05 0.0001125319 -0.0001551668 -0.000125694 -0.1224698418 0.8361709507
705295770.0 -0.0209690555 -0.1107843347 4.8794e-06 0.0001557595 4.16008e-05 -0.0001808421 -0.1146862882 0.8384737356
710295740.0 -0.0223511217 -0.110327856 5.12879e-05 -3.91986e-05 0.0003360275 -0.0001204104 -0.1055876976 0.8385979582
715295710.0 -0.0241478929 -0.1100647372 6.54523e-05 -0.000248321 0.0002666012 0.0001913836 -0.0969305862 0.8391161697
720295680.0 -0.0257625007 -0.109571585 0.0002280064 0.0003653701 6.66516e-05 3.86791e-05 -0.0882847759 0.840725271
725295650.0 -0.0274131738 -0.1088121358 0.0001263452 7.78082e-05 9.57284e-05 8.72748e-05 -0.0807100101 0.8418999971
730295620.0 -0.0288889586 -0.1085233786 0.0001853232 -9.3578e-05 -2.618e-07 -0.0001033263 -0.0722516148 0.8420930462
735295590.0 -0.0302846588 -0.1079537871 0.0001824126 0.000156304 0.0001109779 0.0001465181 -0.0640350862 0.8424609006
740295560.0 -0.0320892995 -0.1075339686 0.0002164212 -0.0001692701 0.0001330882 4.52749e-05 -0.0547123697 0.8438470869
745295530.0 -0.0338685309 -0.1069477957 1.02535e-05 -5.93429e-05 0.0001049025 -2.551e-06 -0.046279744 0.8436252787
750295500.0 -0.0352544997 -0.1064376886 0.000257663 1.69842e-05 0.0003444879 -3.72949e-05 -0.0385257329 0.8443237521
755295470.0 -0.0370398825 -0.1058364851 0.0004069574 -6.37074e-05 5.42757e-05 -0.0001976386 -0.0295177037 0.8439481292
760295440.0 -0.0385827924 -0.1053451013 0.0002740225 5.14011e-05 0.0003649234 -0.0002247634 -0.0214991972 0.8442121097
765295410.0 -0.0401618569 -0.1045036004 0.0002231336 -0.0002233663 0.0001951782 6.3948e-06 -0.0128962419 0.8453121566
770295380.0 -0.0417184012 -0.1040572513 4.41325e-05 0.0002044358 0.0002735301 0.0001568137 -0.0046301299 0.8448461087
775295350.0 -0.0433425624 -0.1035268667 1.27973e-05 -8.9081e-06 -1.765e-06 0.0001015978 0.0031235364 0.8448076894
780295320.0 -0.0449865742 -0.1026717732 0.0001519584 0.0002032851 8.69175e-05 -0.0002477339 0.011661608 0.8447498693
785295290.0 -0.0464726787 -0.1022127321 7.4084e-05 -5.96312e-05 0.0002170588 7.46451e-05 0.0204648016 0.8442439721
790295260.0 -0.0476095276 -0.1010913972 0.0002997368 -5.4098e-06 0.0001282506 0.0003291067 0.0294621397 0.8446778564
795295230.0 -0.049014004 -0.1003979406 0.0002352327 -0.0001525842 0.000137074 8.37217e-05 0.0379883062 0.8438315053
800295200.0 -0.0508777803 -0.0996110402 0.0001926609 -0.0001002147 -1.99585e-05 3.05583e-05 0.0464578396 0.8437490924
805295170.0 -0.0520845857 -0.09909589 0.0002793292 -1.67694e-05 0.0001374991 -0.000182638 0.0540950411 0.8434477967
810295140.0 -0.053449083 -0.0982794596 2.55939e-05 -0.0001778576 0.0001788903 -4.617e-05 0.0627075556 0.8428793608
815295110.0 -0.0551938175 -0.097322605 -7.0383e-06 -0.0001444232 0.0003478493 -0.0001757104 0.0714824248 0.8419435715
820295080.0 -0.0566807548 -0.0961699864 5.52152e-05 -2.6831e-05 0.000349944 6.16713e-05 0.0797887002 0.8416106305
825295050.0 -0.0577538985 -0.0956326008 0.0002229972 -4.13223e-05 0.0002816154 -1.35982e-05 0.087735923 0.8406568337
830295020.0 -0.059489414 -0.0946115856 0.0001891173 -0.0002263682 0.0003282583 6.72821e-05 0.0970366282 0.839229245
835294990.0 -0.0607538501 -0.0934957521 0.0001699523 5.41048e-05 0.000373112 -0.0001404884 0.1047253352 0.8385122418
840294960.0 -0.0623233131 -0.0927290762 0.0001411902 -6.22508e-05 7.5222e-06 -0.0001247858 0.1133578026 0.837185135
845294930.0 -0.0636804116 -0.0915358141 6.52614e-05 0.0001208685 3.36287e-05 -3.26783e-05 0.1209625136 0.8360344451
850294900.0 -0.0645624277 -0.0904283682 0.0002193009 -5.27523e-05 0.0002641523 -3.2527e-05 0.129214764 0.8347223622
