!Created with skrf (http://scikit-rf.org).
# Hz S RI R 50.0 
!freq ReS11 ImS11 ReS21 ImS21 ReS12 ImS12 ReS22 ImS22
300000.0 0.8582938178 -0.0033128538 -0.0004368217 -0.0008142788 0.0008067062 0.0003631829 -0.7748052688 -0.1423504507
5299970.0 0.8591211095 -0.0099807653 -0.0003212703 3.94876e-05 0.0001511145 -4.38887e-05 -0.784164148 -0.0074785517
10299940.0 0.8581423227 -0.0186521485 5.09547e-05 -0.0002580192 -0.0001026193 -9.4426e-06 -0.7873892359 -0.0038134586
15299910.0 0.8573473617 -0.0267739022 -4.76355e-05 -3.07363e-05 -0.0001515815 -0.0001459534 -0.7928203161 -0.0016928819
20299880.0 0.8564443362 -0.035535714 1.7172e-06 0.0004254805 -4.24973e-05 7.91638e-05 -0.7997393101 0.0021675553
25299850.0 0.8558077398 -0.0437718824 -3.00989e-05 -0.0001819403 4.42917e-05 -1.9951e-06 -0.8056303348 0.0085416767
30299820.0 0.8544428634 -0.0521970685 -0.0001826317 0.0001359165 -5.90715e-05 -1.57185e-05 -0.8120577242 0.0166923698
35299790.0 0.8540161456 -0.0603481462 -2.36363e-05 -7.7048e-06 -0.0001078417 -0.0001020238 -0.8170987143 0.025138518
40299760.0 0.8529516667 -0.0692942859 1.02182e-05 0.0001248999 -6.79684e-05 -7.9422e-05 -0.8212810641 0.0343927201
45299730.0 0.8527366227 -0.0770404384 -3.50701e-05 -4.05069e-05 -0.000282111 -1.79141e-05 -0.8252756136 0.0437960179
50299700.0 0.8524816911 -0.0854003877 -7.9817e-06 0.0001619586 0.0001104143 8.7456e-06 -0.8275096766 0.0541289264
55299670.0 0.8508011237 -0.093567002 5.20891e-05 0.0001122751 -0.0001152943 3.65753e-05 -0.8291330901 0.0643560239
60299640.0 0.8495610741 -0.1012633454 2.25066e-05 9.50261e-05 -4.41054e-05 0.000181225 -0.8303395689 0.073743161
65299610.0 0.8479816696 -0.1101521576 -0.0001160257 8.22997e-05 1.26536e-05 -0.0001358761 -0.8321758526 0.0841646976
70299580.0 0.847537812 -0.118860617 -2.27475e-05 9.0311e-06 -3.70196e-05 -0.0001487831 -0.831633339 0.0944102291
75299550.0 0.8462178279 -0.1268926496 -5.27953e-05 2.78125e-05 0.0001137102 0.0001049132 -0.8323346195 0.1037884096
80299520.0 0.8443768229 -0.1350619238 2.86909e-05 -7.0005e-06 -6.63415e-05 -4.41407e-05 -0.8323204812 0.1143227596
85299490.0 0.8432069755 -0.1427493816 -8.85936e-05 5.47991e-05 -2.86558e-05 -3.47296e-05 -0.8320590611 0.123737918
90299460.0 0.8417796935 -0.1511357585 -0.0001456505 6.0609e-06 -0.0001094473 7.96563e-05 -0.8306975693 0.1333399307
95299430.0 0.8400928 -0.1597766582 -4.94305e-05 0.0003689013 -5.25308e-05 9.94925e-05 -0.8292293262 0.1427178508
100299400.0 0.8383218887 -0.1676828252 7.8449e-05 -0.0002043265 -0.0001298305 -4.3851e-05 -0.8284909894 0.152311891
105299370.0 0.8376521758 -0.1759540726 8.51087e-05 1.22526e-05 -7.29305e-05 -0.0002001412 -0.8272205758 0.1609724809
110299340.0 0.8355585757 -0.1838100925 -0.000229315 -0.0001527293 6.62812e-05 -3.06776e-05 -0.8256677408 0.1710644737
115299310.0 0.8331933675 -0.1921994143 0.0001213766 -2.81975e-05 0.0001319188 -0.0001920553 -0.8248019352 0.1798981967
120299280.0 0.8315622453 -0.2002694478 3.53759e-05 -1.85384e-05 -9.17593e-05 9.84623e-05 -0.8223345916 0.1888881263
125299250.0 0.8297032296 -0.2086929167 0.000245502 -4.96616e-05 0.0001705194 0.0001962865 -0.8205981261 0.1975782184
130299220.0 0.8275028463 -0.2166771294 -0.0001560484 -0.0001581968 0.0002371604 0.0001109269 -0.8188785369 0.2067065159
135299190.0 0.8251985042 -0.2242116125 -8.81383e-05 -5.43594e-05 -0.0001840146 6.06972e-05 -0.8163761616 0.216057374
140299160.0 0.8228724776 -0.2324108133 -8.12539e-05 0.0001481799 -3.046e-06 0.0002451494 -0.8139306242 0.2251352673
145299130.0 0.8203831411 -0.2409025014 -0.000166188 0.0001718798 -6.61686e-05 -1.84991e-05 -0.8121049659 0.2342257581
150299100.0 0.8182092134 -0.2483523725 -2.7964e-05 -3.80644e-05 -2.02434e-05 -4.4146e-06 -0.8103428501 0.2431415187
155299070.0 0.8158170236 -0.2567893752 -6.0798e-06 -0.0001156222 5.59675e-05 -0.0001019414 -0.8068859518 0.2516696594
160299040.0 0.8129169922 -0.2645455622 0.0001743549 -0.0002238274 -8.64131e-05 1.12525e-05 -0.8049491563 0.2604912755
165299010.0 0.8106779709 -0.2725119667 3.33564e-05 0.0002781347 -7.92097e-05 -0.0001821771 -0.8027056159 0.2693164416
170298980.0 0.807687444 -0.2801225084 -0.0001619452 0.0001644682 -5.95935e-05 2.81387e-05 -0.7992882264 0.2779288683
175298950.0 0.8047581 -0.2886195933 -0.0001194622 2.70872e-05 -4.29918e-05 7.88104e-05 -0.796561707 0.28667732
180298920.0 0.8021053296 -0.2958030271 0.0001778576 3.45932e-05 0.0001300989 -0.0001332545 -0.7934393346 0.2952437043
185298890.0 0.7986403304 -0.3039018453 2.50809e-05 0.0001772909 -9.19961e-05 -8.8511e-06 -0.7899766401 0.3038266817
190298860.0 0.7961487162 -0.3115775849 -3.42505e-05 0.0001015087 -0.0001693517 4.2789e-06 -0.7879679652 0.3122883134
195298830.0 0.7928512748 -0.3190470664 -0.0001024695 0.0001985841 6.83929e-05 3.55426e-05 -0.7843364894 0.3211875387
200298800.0 0.7894512097 -0.3259824208 9.78506e-05 -0.0001556268 -4.07466e-05 -0.000174108 -0.7811244334 0.3289768453
205298770.0 0.7864337518 -0.3346060082 -0.0001173559 -7.28135e-05 -2.98834e-05 -8.80012e-05 -0.7775137022 0.3375824605
210298740.0 0.782551049 -0.3421623257 1.11884e-05 -0.0002473604 -1.48499e-05 -0.0001003223 -0.7744065134 0.3460359164
215298710.0 0.7787177238 -0.3508143113 2.29053e-05 3.7907e-05 0.0002300192 -2.0982e-05 -0.7705251368 0.3545374641
220298680.0 0.7756726829 -0.3580256876 0.0001023995 6.37856e-05 0.0001455911 0.0001507931 -0.7674821486 0.3620551509
225298650.0 0.7721796265 -0.3658235661 2.10044e-05 9.46256e-05 -6.84933e-05 -0.0001174725 -0.7640705779 0.3703185641
230298620.0 0.7683797532 -0.3728155398 3.90612e-05 -3.48588e-05 9.8836e-06 0.0001842208 -0.7595535279 0.378661165
235298590.0 0.7649648395 -0.3797604578 9.34986e-05 0.000177014 -9.7361e-05 -0.0001332193 -0.7559606106 0.3866114556
240298560.0 0.7616321705 -0.3877007037 8.45605e-05 7.23423e-05 0.0001482275 -0.0001024805 -0.7515448008 0.395210744
245298530.0 0.7568296006 -0.3952233859 4.81491e-05 3.03985e-05 -0.0001453219 -0.0001154672 -0.7480515633 0.40250554
250298500.0 0.753137348 -0.4028737195 -4.91977e-05 -5.7468e-05 0.0002618982 -7.87431e-05 -0.743860884 0.4100215707
255298470.0 0.7488018902 -0.410410343 -0.0001801281 -1.81758e-05 0.0001006577 -3.40175e-05 -0.7385880139 0.4179557335
260298440.0 0.7448101935 -0.4173264696 -0.0001338232 -3.145e-07 1.1804e-06 5.19202e-05 -0.7346873295 0.4261181818
265298410.0 0.7413443947 -0.4245808322 -0.0001671336 -0.0001559796 -0.00017075 0.0001897391 -0.7303619601 0.433216734
270298380.0 0.7364332167 -0.4313018287 -0.0001023921 -2.8508e-06 0.0001257576 0.0001559801 -0.724984256 0.4413029069
275298350.0 0.7327360494 -0.438689873 -3.2423e-05 0.0001068996 0.0001510176 2.60733e-05 -0.7205292794 0.4486732437
280298320.0 0.7281069958 -0.4452900209 0.0002280967 -0.0001390371 -4.53051e-05 -9.86343e-05 -0.7162069105 0.4559049543
285298290.0 0.7239347831 -0.4532823144 0.0001087742 6.03466e-05 0.0001691514 -0.0001001114 -0.7104604153 0.4634434055
290298260.0 0.7197510174 -0.4600821289 0.0002020441 0.0003195895 -5.25426e-05 -0.0001315992 -0.7060891728 0.4708163568
295298230.0 0.7155960863 -0.4671846745 0.0001102905 5.02415e-05 -4.17033e-05 1.63883e-05 -0.7013047403 0.4776354978
300298200.0 0.7112601429 -0.4746368874 -4.31036e-05 -6.18416e-05 4.59394e-05 -2.56509e-05 -0.6957320924 0.4850418271
305298170.0 0.7065219471 -0.480784274 -1.60782e-05 -1.51081e-05 -7.7553e-06 0.0001167217 -0.6902500326 0.4926558257
310298140.0 0.7023732368 -0.4885981846 0.0001849525 -1.10858e-05 5.25673e-05 6.1469e-05 -0.6857597035 0.4996741919
315298110.0 0.6980694598 -0.4961309305 -0.0003801245 5.30017e-05 0.000133219 -1.13203e-05 -0.6800967744 0.5071778676
320298080.0 0.693532593 -0.5036683229 -1.80239e-05 0.0001706144 8.83743e-05 2.54079e-05 -0.6745805593 0.5143949722
325298050.0 0.6878341699 -0.5109840093 2.52611e-05 -0.0001151126 -6.48291e-05 5.31506e-05 -0.6688951394 0.5213120895
330298020.0 0.6816162744 -0.5187062085 -3.45072e-05 6.82595e-05 -6.06411e-05 5.98379e-05 -0.6633466349 0.5279033085
335297990.0 0.6755531758 -0.5252965622 -0.0001317954 2.91246e-05 -6.68359e-05 -0.0002619985 -0.6582997493 0.5356332663
340297960.0 0.6695137361 -0.5318230443 5.14006e-05 0.0002614077 -1.237e-06 -2.31834e-05 -0.6528592973 0.5420730177
345297930.0 0.6639385539 -0.5383980537 1.74429e-05 6.50272e-05 3.84913e-05 -6.84385e-05 -0.6467533651 0.5486416986
350297900.0 0.6583078088 -0.5437219863 -5.5742e-05 0.000130234 -0.0001137605 0.0001064071 -0.6413752899 0.5554678795
355297870.0 0.6524908533 -0.5498815349 -6.20033e-05 3.36113e-05 -3.04909e-05 -0.0001184115 -0.6356017809 0.5619853207
360297840.0 0.6468786677 -0.5564081361 0.0002321023 -2.76418e-05 0.0001352659 -9.31063e-05 -0.6297138953 0.5690540569
365297810.0 0.6403889619 -0.5624453255 1.336e-06 -1.08617e-05 -0.0002055701 0.0001618581 -0.6230094632 0.5749326681
370297780.0 0.6356204268 -0.5686666607 -2.41302e-05 3.1659e-05 0.0001866984 7.0918e-05 -0.6177491607 0.5819385452
375297750.0 0.6293777702 -0.574643763 -5.91644e-05 -4.6577e-05 -0.0001883979 1.5912e-05 -0.6115575496 0.5878878698
380297720.0 0.6242404995 -0.5807932777 0.0001359076 -9.7335e-06 -8.01254e-05 4.6992e-05 -0.6054558899 0.5942033946
385297690.0 0.617920977 -0.5870586953 4.90231e-05 -5.51405e-05 4.23601e-05 -4.33957e-05 -0.5990903351 0.6008885496
390297660.0 0.6120617807 -0.5922003209 -0.0002038681 0.0001400597 8.96479e-05 0.000100342 -0.5931245248 0.6072577485
395297630.0 0.6064215075 -0.5979062919 0.0001043055 9.97441e-05 -0.0001161401 2.39547e-05 -0.5864221592 0.6129260183
400297600.0 0.6007304641 -0.6037364773 -3.2164e-05 4.76486e-05 -4.37737e-05 -0.0001496198 -0.5804279055 0.6190460364
405297570.0 0.5943824983 -0.6096417649 -0.0001522916 0.000150804 2.78078e-05 0.000128414 -0.5740811892 0.6248177887
410297540.0 0.5874809369 -0.6157877611 -9.1497e-06 -4.72198e-05 3.2267e-06 -9.03788e-05 -0.567614588 0.6308780815
415297510.0 0.5822785816 -0.6218832746 7.2285e-05 0.0002899001 1.70328e-05 2.01121e-05 -0.5616082604 0.6367910329
420297480.0 0.5760061797 -0.6262522769 3.79214e-05 -5.84094e-05 -6.93953e-05 -0.0001968615 -0.5544092182 0.6422674788
425297450.0 0.5695022785 -0.6323790057 0.0001443353 -6.79701e-05 1.03752e-05 9.2406e-06 -0.547432743 0.6478977039
430297420.0 0.5635104625 -0.6375991339 -6.11823e-05 -5.14307e-05 3.66464e-05 0.0001565035 -0.5408976179 0.6527299941
435297390.0 0.5571014757 -0.6435812767 -4.29106e-05 7.97718e-05 0.0002412435 8.96625e-05 -0.5339684729 0.6588928896
440297360.0 0.5505641864 -0.6494073133 -1.30712e-05 -6.5712e-06 -5.9404e-05 0.0001223285 -0.5274031423 0.6635621113
445297330.0 0.5439025682 -0.6545509432 0.0002107183 7.83971e-05 1.76937e-05 -0.0001661975 -0.520059087 0.6687511036
450297300.0 0.5376963784 -0.6592383435 -9.38e-05 -6.30475e-05 -4.04915e-05 -0.0001345963 -0.5132616625 0.6740287426
455297270.0 0.5307615356 -0.6651253249 -3.96707e-05 -5.6043e-06 6.05318e-05 -9.32192e-05 -0.5067157968 0.6787810824
460297240.0 0.5243848969 -0.6700436466 -0.0001046572 2.91017e-05 0.0001257511 0.0001648647 -0.4993999285 0.6842228148
465297210.0 0.5176282987 -0.6746693127 0.0001562241 -0.0002195403 -6.022e-07 9.3258e-06 -0.4918480368 0.6888822247
470297180.0 0.5108740704 -0.6791188379 0.0003071846 -9.208e-05 -4.75579e-05 7.17671e-05 -0.4845995461 0.6943051644
475297150.0 0.5040084627 -0.6843291057 3.51823e-05 -8.62995e-05 -7.81406e-05 -1.39126e-05 -0.4773696271 0.6986029164
480297120.0 0.4971993365 -0.6898193938 5.0007e-05 0.0001415094 0.0002853646 -0.0001584521 -0.4700694964 0.7036528341
485297090.0 0.4900052923 -0.6942384493 -7.192e-07 -0.0001014246 -3.63021e-05 8.0142e-06 -0.4626813643 0.7079246659
490297060.0 0.483075514 -0.6988570067 -0.0002466091 8.36548e-05 -3.12617e-05 -5.50456e-05 -0.4557904122 0.7125703025
495297030.0 0.4764054184 -0.7034958847 -0.0002462032 -2.50669e-05 1.84529e-05 -0.0001926028 -0.4486534273 0.7178618093
500297000.0 0.4691523536 -0.707734954 -3.551e-07 0.0002922219 6.27077e-05 -0.0001099986 -0.4405923154 0.7223748837
505296970.0 0.4622776533 -0.7130637674 -0.0001178402 -4.2139e-05 5.28008e-05 7.67506e-05 -0.4336579382 0.7267398359
510296940.0 0.4545397219 -0.7176937158 0.0001764449 0.0001428499 6.27917e-05 3.84615e-05 -0.4260841817 0.7305641397
515296910.0 0.4482356744 -0.7213280347 6.6489e-05 -0.0003160099 9.17693e-05 0.0002540065 -0.4185772541 0.7352012388
520296880.0 0.4404318791 -0.7260512922 5.13505e-05 0.000185578 -0.0002695106 -0.0001562018 -0.4111119965 0.7393757059
525296850.0 0.4335505192 -0.7301992797 3.50308e-05 0.0001451677 2.7607e-06 0.0002165304 -0.4040354874 0.7438744472
530296820.0 0.4262889502 -0.7341999415 4.711e-07 -2.04357e-05 -1.9133e-05 1.9268e-05 -0.3958517751 0.7477774294
535296790.0 0.4192432575 -0.7385582566 -2.11756e-05 2.9011e-05 -2.96432e-05 -0.000102326 -0.3889616373 0.7511083224
540296760.0 0.4120216772 -0.742219355 0.0001545683 0.0001041499 0.0001024314 0.0002645959 -0.3807469967 0.7560562709
545296730.0 0.4039589686 -0.7461821867 0.0001042256 -5.25352e-05 8.837e-06 0.000168565 -0.3733617119 0.759500635
550296700.0 0.3972478444 -0.7496745808 -4.73148e-05 0.0001896122 0.0001341083 -0.0001164055 -0.3655960557 0.7631988575
555296670.0 0.389429937 -0.7534267088 0.0002815774 2.48378e-05 -0.000143579 0.0001045372 -0.3576703182 0.7673260545
560296640.0 0.3819073949 -0.756956617 -8.47492e-05 -9.92191e-05 7.60891e-05 -8.28991e-05 -0.3496034869 0.7708777421
565296610.0 0.3741749444 -0.7607736196 4.55782e-05 5.81874e-05 2.53435e-05 1.44303e-05 -0.3420161947 0.7740465265
570296580.0 0.3668551437 -0.7642735512 2.57772e-05 -0.0001218106 -5.59674e-05 5.70749e-05 -0.3344899685 0.7777940935
575296550.0 0.3589351843 -0.767761929 -6.75995e-05 -1.9255e-05 -0.000224364 -5.13204e-05 -0.3267095772 0.7810495296
580296520.0 0.35160652 -0.7714183714 0.0001218374 0.0002082834 -0.0001889924 0.0001293358 -0.3182467935 0.7842210911
585296490.0 0.3430842106 -0.7750153428 5.29441e-05 -7.15311e-05 -1.69628e-05 7.91407e-05 -0.3102462366 0.7871845578
590296460.0 0.33614243 -0.7774338234 -0.0001051257 -0.0001283803 1.49086e-05 0.0001568866 -0.3028934668 0.7903416807
595296430.0 0.3278264325 -0.7813146743 -6.9587e-06 -8.52347e-05 1.34906e-05 7.39656e-05 -0.2947934719 0.7924895161
600296400.0 0.3200665984 -0.7842126053 4.1396e-05 -3.2589e-05 -0.0001390388 -3.59832e-05 -0.2868859104 0.7955635844
605296370.0 0.3124053036 -0.7869742587 0.0001204324 0.0001448001 0.0001167087 0.0001749374 -0.2778511518 0.7984801281
610296340.0 0.3044442838 -0.7906199522 8.56963e-05 8.69662e-05 -8.17408e-05 -8.239e-07 -0.2700381874 0.8010674891
615296310.0 0.2971774254 -0.7930412415 5.48515e-05 -7.86157e-05 -5.53777e-05 -8.21149e-05 -0.2617868081 0.8033860308
620296280.0 0.288397589 -0.7958800206 -0.0001183877 -8.18438e-05 -3.69103e-05 -4.88144e-05 -0.2541961158 0.8062073839
625296250.0 0.280691376 -0.7988667922 0.0001313256 8.29504e-05 -0.0002548799 -4.75078e-05 -0.2453846804 0.8081472333
630296220.0 0.273043374 -0.8013039581 -0.0001308631 -3.5951e-05 -2.35695e-05 1.9413e-05 -0.2371095009 0.8110465243
635296190.0 0.2650586822 -0.8041646603 -0.0001040474 0.0001484882 -0.0002957283 5.8123e-05 -0.2295568038 0.812664001
640296160.0 0.256793367 -0.8066371193 7.68311e-05 3.59459e-05 -0.0001134534 -4.46537e-05 -0.2210683232 0.8154787601
645296130.0 0.2487785989 -0.8086544825 -8.52598e-05 0.0002172942 1.29882e-05 3.376e-07 -0.2127795981 0.8174293732
650296100.0 0.2402416899 -0.8107904152 6.75748e-05 0.0002703356 9.90501e-05 9.21901e-05 -0.2048392179 0.818899283
655296070.0 0.2322002415 -0.813717342 0.000121767 -0.0002779217 1.27455e-05 0.0001751549 -0.195953637 0.8208178083
660296040.0 0.2243157608 -0.8153118297 -6.65004e-05 0.0001172752 -0.0001918927 3.85134e-05 -0.1876748652 0.8228548525
665296010.0 0.216608189 -0.8177390893 -7.03423e-05 0.0002121608 -8.08663e-05 -7.65212e-05 -0.1794704236 0.8251437808
670295980.0 0.2083561295 -0.8200522098 -2.49392e-05 1.36179e-05 5.64851e-05 8.20196e-05 -0.1712835305 0.8265321772
675295950.0 0.2003202323 -0.8214083779 9.2411e-06 2.57094e-05 -4.2057e-06 -3.5202e-06 -0.1633215334 0.8284842756
680295920.0 0.1919053961 -0.8228172254 0.0002486147 7.57043e-05 8.71645e-05 0.0001017554 -0.1548661869 0.830918877
685295890.0 0.1833274299 -0.8243055389 -0.0001088796 -7.57267e-05 6.094e-06 1.71e-05 -0.1458693609 0.8317543115
690295860.0 0.1752000921 -0.8265719985 6.05902e-05 0.000173244 -0.0001011055 9.32716e-05 -0.1384750836 0.833925069
695295830.0 0.1673565449 -0.8281353795 4.46347e-05 4.79565e-05 -9.39101e-05 2.77762e-05 -0.1293277606 0.8349995825
700295800.0 0.1594305054 -0.8294793884 -7.05937e-05 0.0001039896 -6.11843e-05 2.0938e-06 -0.1219015324 0.8363717994
705295770.0 0.1502410667 -0.8309329394 -0.0001956116 -1.17949e-05 -4.17796e-05 0.0001400208 -0.1137828023 0.8382351095
710295740.0 0.1415086714 -0.8319744534 7.2985e-05 -5.95382e-05 5.46868e-05 1.97417e-05 -0.1051132285 0.8383825427
715295710.0 0.1333114951 -0.8334201236 -0.0001531435 6.47551e-05 -0.0001260828 6.61807e-05 -0.0964664265 0.8396429525
720295680.0 0.1257353235 -0.8347530748 -9.13008e-05 -0.0001273658 0.0001300417 -1.32729e-05 -0.0875677227 0.8406635348
725295650.0 0.1172606378 -0.8349819569 -1.74262e-05 -3.08171e-05 -2.65095e-05 -0.0001688814 -0.0799844765 0.8419524142
730295620.0 0.1085156107 -0.8361247906 0.0001924086 5.24319e-05 -7.52804e-05 -0.0002069668 -0.0717457371 0.842297855
735295590.0 0.1004146365 -0.8368593016 -3.39089e-05 -1.58172e-05 0.0002187339 -5.3425e-06 -0.0631142006 0.8422451867
740295560.0 0.0915939146 -0.8377048477 -4.44527e-05 8.06179e-05 -0.000206849 3.0538e-06 -0.0541310307 0.8435769542
745295530.0 0.0835396128 -0.8386225004 -4.95541e-05 0.0001443413 -0.0001287294 -5.59573e-05 -0.0454566733 0.8441026707
750295500.0 0.0751365142 -0.8394370102 7.97099e-05 0.0001600755 -0.0001258419 4.72351e-05 -0.0374412395 0.8441455657
755295470.0 0.0664649549 -0.8403366876 -6.93384e-05 -5.82714e-05 8.08841e-05 -7.80466e-05 -0.0285500296 0.8438716873
760295440.0 0.058155999 -0.8399236197 8.32636e-05 0.0001012581 -0.0001847966 4.04572e-05 -0.0203827391 0.8443479039
765295410.0 0.050255864 -0.8409050708 9.22005e-05 -1.09457e-05 -0.0001458571 3.72368e-05 -0.0125154886 0.8449912946
770295380.0 0.0409325296 -0.8409315121 0.0001656836 0.0001721093 3.766e-05 0.000186564 -0.0039517596 0.8448609954
775295350.0 0.0327442862 -0.8412679933 3.07435e-05 0.0001301427 0.0001937962 0.0001695265 0.0037938094 0.8440270211
780295320.0 0.0242134741 -0.841419141 -8.3087e-06 5.62732e-05 2.58085e-05 -0.0003186145 0.0126773817 0.8440338644
785295290.0 0.0165311346 -0.8420992244 -2.12276e-05 0.0002731421 -0.0001634562 -2.89608e-05 0.0214013318 0.84394545
790295260.0 0.0079135236 -0.8418808749 0.0001034542 -0.0001123375 -1.91238e-05 6.60654e-05 0.0304971595 0.8440232226
795295230.0 -0.000634075 -0.8413701644 -1.3438e-06 -0.0001715204 4.79951e-05 3.64013e-05 0.0387460352 0.8426218736
800295200.0 -0.0092474218 -0.8410118673 -0.0001220719 -0.000137696 -3.58661e-05 2.83819e-05 0.0470952704 0.8430336851
805295170.0 -0.0177972422 -0.8414113279 0.0001301192 -8.32235e-05 7.62334e-05 0.0001213434 0.0552269987 0.8425609032
810295140.0 -0.0257355916 -0.8408027296 -3.899e-07 0.0001312638 0.0001108272 -9.45663e-05 0.063594611 0.8415068672
815295110.0 -0.0340968338 -0.8406400031 0.0001020105 -6.7927e-05 -2.88625e-05 0.0001575699 0.0719926146 0.8410744237
820295080.0 -0.0424181099 -0.8397123169 -2.43234e-05 0.0005405339 -4.90541e-05 0.0001784836 0.0806220991 0.8405584208
825295050.0 -0.0507509454 -0.8392530545 -0.0001374472 -9.98101e-05 -3.72442e-05 -9.24834e-05 0.0886943381 0.8392928872
830295020.0 -0.0593288862 -0.8386052889 -0.0001080749 -0.0001023896 -0.0001427744 0.0001071297 0.0977888733 0.8384812195
835294990.0 -0.0678043378 -0.8373366454 0.0001680628 0.0001390265 6.41719e-05 -0.0001052981 0.1053776312 0.8378721526
840294960.0 -0.0756288543 -0.8365859023 -1.03887e-05 5.40943e-05 0.0001490131 0.0001096854 0.1143542801 0.8361063222
845294930.0 -0.084502978 -0.8358398398 0.0001763946 -3.68136e-05 0.0001647983 -0.000133701 0.1218792104 0.8346940929
