!Created with skrf (http://scikit-rf.org).
# Hz S RI R 50.0 
!freq ReS11 ImS11 ReS21 ImS21 ReS12 ImS12 ReS22 ImS22
300000.0 -0.0450060125 -0.0602970562 -0.0004962337 0.0010978893 -0.0004852223 0.000890588 -0.7678974046 -0.1684985214
5299970.0 -0.0448455474 0.0157912382 -3.14639e-05 0.0001248971 1.6207e-06 -0.000120698 -0.7843954029 -0.0086122341
10299940.0 -0.039000653 0.0333412651 0.000260945 -0.0001079135 0.0001444836 -0.0001732991 -0.7877691534 -0.0046849262
15299910.0 -0.0306189815 0.0480648026 2.65938e-05 0.0003770728 -6.73184e-05 9.44954e-05 -0.7932545784 -0.0032068725
20299880.0 -0.0204689016 0.0600362925 3.4824e-05 6.206e-05 -5.75961e-05 1.3414e-06 -0.7999601527 0.0013170211
25299850.0 -0.0092900785 0.0692751957 -6.22447e-05 -8.44775e-05 0.0001135815 0.0001795507 -0.8064821117 0.0073439504
30299820.0 0.0028699888 0.0759606983 -0.000129603 -8.51887e-05 0.0001479209 7.07295e-05 -0.812445085 0.0149793272
35299790.0 0.0144439862 0.0809806282 -2.98188e-05 -0.0002306012 -4.9974e-06 2.36013e-05 -0.8172273665 0.0235186307
40299760.0 0.0257907243 0.0836540023 -7.40964e-05 0.0001336423 -4.60313e-05 6.17637e-05 -0.8217282555 0.0330986799
45299730.0 0.0364759081 0.085177851 -2.66279e-05 -0.0001665742 -0.0002153606 -0.0001013897 -0.8250025366 0.0421842774
50299700.0 0.0465606641 0.084896021 -5.7268e-06 0.0001946983 0.0001513774 0.0001139662 -0.8276479432 0.0527908028
55299670.0 0.0556861006 0.0840479127 1.78621e-05 -7.72644e-05 -0.0001773821 9.17159e-05 -0.8295493866 0.0633744503
60299640.0 0.0645104994 0.0824337841 0.000114665 0.0001758739 -7.52393e-05 1.89116e-05 -0.8313563104 0.0735009738
65299610.0 0.0722080121 0.0799131677 0.000117085 0.0002064158 0.0002167395 -5.33547e-05 -0.8311921286 0.0827732566
70299580.0 0.0793964982 0.0768857053 0.0002157285 -0.00012665 9.34155e-05 1.454e-05 -0.832318189 0.092607389
75299550.0 0.08567615 0.0736224343 0.0001858607 -2.48893e-05 -6.6796e-05 -4.23607e-05 -0.832406735 0.1023289559
80299520.0 0.0911145467 0.0701616974 0.0001956206 2.87422e-05 -9.3248e-06 0.0002847397 -0.8314998351 0.1121891854
85299490.0 0.0966369149 0.0662242828 7.55018e-05 0.0002177094 3.44712e-05 3.09031e-05 -0.831609251 0.1215968342
90299460.0 0.100762054 0.0627453686 1.941e-06 -3.6105e-05 2.59872e-05 -0.0002338624 -0.8303057758 0.1310301305
95299430.0 0.1048613652 0.0585033767 0.0001846305 0.0001344215 -7.06081e-05 -8.8707e-06 -0.829837608 0.1414690922
100299400.0 0.1083295851 0.0551825004 -6.5189e-06 0.0002749503 0.0001255713 0.0002287737 -0.8287894144 0.1493497808
105299370.0 0.1120889162 0.0511164425 -1.02666e-05 2.94861e-05 8.39801e-05 0.0002457992 -0.8269190614 0.1591260173
110299340.0 0.114513382 0.0472818983 -8.3961e-05 -5.6288e-05 4.14033e-05 3.80851e-05 -0.8266178472 0.1684813441
115299310.0 0.1173077838 0.0430881619 8.18516e-05 8.09689e-05 0.0003209922 0.0002382138 -0.8243089372 0.1769157379
120299280.0 0.1194197142 0.0396437574 -7.21915e-05 -0.0001308164 0.0002248568 0.0002324792 -0.8242052002 0.1865270853
125299250.0 0.1211004592 0.0354497617 -3.56802e-05 6.71123e-05 3.20778e-05 -4.54785e-05 -0.8221328808 0.1955333509
130299220.0 0.1230178785 0.0323598994 0.0001460936 3.27504e-05 0.0002158718 7.44501e-05 -0.820169717 0.2042311045
135299190.0 0.1244696422 0.0284188428 9.61277e-05 -3.21769e-05 4.05851e-05 0.000113732 -0.818084602 0.2128659025
140299160.0 0.125962354 0.0251177487 5.76687e-05 0.0001148423 -4.84458e-05 0.0001692315 -0.8160335696 0.2216329304
145299130.0 0.1270763806 0.0216276244 0.0001337044 -5.20466e-05 0.0001552018 6.52518e-05 -0.8138032961 0.2302774722
150299100.0 0.1279633958 0.0180646868 -5.14151e-05 0.0001659649 6.43971e-05 0.0002465184 -0.8119182883 0.2386468721
155299070.0 0.1287470942 0.0150870856 9.70731e-05 6.9424e-06 -0.0001230998 2.71002e-05 -0.8097692648 0.2474276094
160299040.0 0.1295039878 0.0115122076 3.03595e-05 -6.76558e-05 -8.90308e-05 9.66059e-05 -0.8076565787 0.2568030914
165299010.0 0.1297339564 0.0085172589 0.0002349519 -6.63212e-05 -2.44162e-05 -1.89821e-05 -0.80410028 0.2651729368
170298980.0 0.1300571962 0.0053172535 8.54054e-05 2.77665e-05 0.0001208635 -3.868e-06 -0.8020634914 0.2734748914
175298950.0 0.1308549371 0.0029288568 0.0002632743 0.0001212288 6.25956e-05 3.78438e-05 -0.7989738676 0.282294655
180298920.0 0.1307672704 -0.0005249597 9.46902e-05 8.85589e-05 -3.57671e-05 -6.21906e-05 -0.7959044494 0.2903130823
185298890.0 0.1308218575 -0.003037491 0.0003722052 3.513e-05 4.63644e-05 0.00020202 -0.7933347811 0.2982754932
190298860.0 0.1310112163 -0.0060926553 6.2559e-05 -3.71844e-05 1.04738e-05 5.26525e-05 -0.7899724666 0.3074939719
195298830.0 0.1312887765 -0.0089156204 0.0002053296 8.44453e-05 0.0002034526 0.0001954417 -0.7865855361 0.3155102798
200298800.0 0.1306337581 -0.0116737704 9.08349e-05 0.0001651835 -9.8474e-06 4.53833e-05 -0.7830571432 0.3242653799
205298770.0 0.1307047075 -0.0142288761 -9.54389e-05 8.30773e-05 7.57544e-05 0.0001353153 -0.7799700139 0.3323717355
210298740.0 0.130639413 -0.0164342541 0.0001064013 8.092e-06 6.11965e-05 0.0001436689 -0.77676819 0.340368482
215298710.0 0.1299782886 -0.0193192127 -1.34062e-05 -8.332e-06 -2.302e-06 0.0002085426 -0.7732342357 0.3486825914
220298680.0 0.1299065968 -0.0215623598 0.0003099179 2.81956e-05 0.0001301901 0.0001723707 -0.7696342733 0.3565840735
225298650.0 0.129444116 -0.0239765218 4.23167e-05 6.4379e-05 -0.000114105 0.0001876487 -0.7656246859 0.3649841182
230298620.0 0.1291310495 -0.0262254054 5.68795e-05 8.76482e-05 9.63382e-05 2.13621e-05 -0.7617069567 0.3727154842
235298590.0 0.1284730735 -0.0287838758 -9.97877e-05 0.0001527945 1.571e-07 0.0002474454 -0.7574428878 0.3804345817
240298560.0 0.1278529621 -0.0309992126 -0.0001123308 0.0002731945 -0.0001191133 0.0002996491 -0.7540908957 0.3880930836
245298530.0 0.1274595479 -0.0331291631 0.0001316199 0.0002583851 0.0001920135 0.000158211 -0.7497581745 0.3968301621
250298500.0 0.1268665725 -0.0351433581 0.0001136112 5.69728e-05 3.45043e-05 -8.562e-06 -0.7455860909 0.4045139808
255298470.0 0.125899788 -0.037188086 0.0001235405 0.0002397502 0.000106118 0.0002059563 -0.7409531376 0.4122816061
260298440.0 0.1258570007 -0.0391411032 -6.12739e-05 3.71943e-05 0.0001330996 0.0002717811 -0.7361585845 0.41959116
265298410.0 0.1249269729 -0.0410908181 3.76333e-05 5.72316e-05 3.96994e-05 -7.298e-05 -0.7327681684 0.4270422333
270298380.0 0.1241842653 -0.0428887202 2.24384e-05 0.000185095 5.04209e-05 0.0002134197 -0.7272540824 0.4356339362
275298350.0 0.1233658384 -0.0448338716 0.0001313967 0.0001665749 0.0001482203 0.0002257518 -0.7225788316 0.4431985097
280298320.0 0.122766258 -0.0467416765 8.16417e-05 0.000228193 0.000191615 0.0001707894 -0.718424582 0.4502422095
285298290.0 0.1217414578 -0.0487001982 0.000156492 0.0001316334 0.0003075516 0.000110025 -0.7130960912 0.4575064171
290298260.0 0.1212946358 -0.0505508901 0.0001814553 0.0001614918 0.0001357047 7.22707e-05 -0.7085756481 0.4656152779
295298230.0 0.1203218141 -0.0524938354 7.17155e-05 0.0001762043 4.22387e-05 6.49153e-05 -0.7033397049 0.4730099767
300298200.0 0.1196227465 -0.0547401997 8.06204e-05 2.1452e-06 0.0001598291 0.0001022256 -0.6989482196 0.4801710937
305298170.0 0.1190698982 -0.056388499 6.80713e-05 -0.000159899 0.0002442618 0.0002392095 -0.6928596848 0.4876244015
310298140.0 0.1182420311 -0.0587057965 0.0001656123 1.0484e-05 0.0003910628 0.000209317 -0.6885600161 0.4947944437
315298110.0 0.1167606107 -0.0602634767 0.0001978411 0.0001052825 7.40566e-05 7.67492e-05 -0.6832848145 0.5024721034
320298080.0 0.115565742 -0.0620377099 -5.40326e-05 0.000170296 0.0002604769 7.5397e-06 -0.6777802294 0.5092454262
325298050.0 0.1143673245 -0.063902866 0.0001510659 -0.0001181702 -5.4256e-05 -4.24936e-05 -0.6718036154 0.5162537552
330298020.0 0.1133001162 -0.0654381109 0.0001656578 -7.1007e-06 5.06143e-05 -0.0002598081 -0.6659863107 0.5231073183
335297990.0 0.1120601776 -0.0670180972 -2.26818e-05 0.0003221761 0.0002078556 0.0002617687 -0.6607964565 0.5302348496
340297960.0 0.1107145492 -0.0681080535 0.0001609062 0.0001026546 0.0004127498 8.58115e-05 -0.6556610888 0.5368101247
345297930.0 0.1094283044 -0.0696682964 0.0002702073 -3.20815e-05 0.0002605794 0.0002327467 -0.6492655699 0.5440638074
350297900.0 0.1085378569 -0.0708533281 0.0003362969 0.0001518848 0.00011698 -5.76927e-05 -0.6440110073 0.5512685845
355297870.0 0.1069992332 -0.0725053489 0.0001131014 0.0004414018 0.0003056483 -0.0001236988 -0.6379310611 0.5577572511
360297840.0 0.1059270819 -0.073873049 -0.0001362857 0.0001639614 6.56572e-05 0.0002123105 -0.6316854198 0.5635350242
365297810.0 0.1047801063 -0.0751484844 6.63385e-05 9.3259e-06 9.77482e-05 -0.0001180808 -0.6262886171 0.5702881833
370297780.0 0.1036342044 -0.0764252578 0.0002906939 0.0002323775 0.0003087879 0.0003831909 -0.6204136295 0.5764687907
375297750.0 0.102653048 -0.0775128522 2.47988e-05 6.53796e-05 6.03548e-05 3.11858e-05 -0.6142304248 0.5833925435
380297720.0 0.1017015691 -0.0789481223 0.0002588638 0.0001665459 9.064e-05 6.05486e-05 -0.6076339592 0.5908760045
385297690.0 0.1002942492 -0.0800121838 6.64048e-05 0.0002676264 0.0002284453 0.0002825593 -0.6018933988 0.5960975941
390297660.0 0.0990834192 -0.0813499278 0.0002361667 0.0001019621 0.0002966031 7.33557e-05 -0.5952016422 0.6018420088
395297630.0 0.0979400251 -0.0824281923 0.0002528219 -0.0001426175 0.0001214999 0.0001391602 -0.5891430147 0.6081780425
400297600.0 0.0965579688 -0.083560898 0.0003267351 -7.7426e-06 0.0003206152 7.15318e-05 -0.5829250097 0.6139610021
405297570.0 0.095454304 -0.0845780951 0.0001306844 0.0001582153 0.0002844271 0.0002438466 -0.5767628153 0.6201495455
410297540.0 0.0941478559 -0.0859505468 0.0002637675 0.0002809192 0.0002291504 0.0001111445 -0.569502136 0.6258010269
415297510.0 0.0931840049 -0.0871104915 0.0001926983 0.0002019992 0.0002054501 6.75499e-05 -0.5636777157 0.632252763
420297480.0 0.091392775 -0.0880933507 0.0002137243 3.65436e-05 0.000172172 6.00115e-05 -0.556574468 0.636754063
425297450.0 0.0903677288 -0.0890945938 0.0001918227 0.0001283875 0.0004816863 2.94245e-05 -0.5503745401 0.6427846824
430297420.0 0.0890630288 -0.0902841326 0.0001975533 4.8911e-05 0.0003140089 5.47866e-05 -0.5437269654 0.6488321113
435297390.0 0.0879123557 -0.0911120135 0.0003616047 4.04259e-05 0.0001168952 -6.20607e-05 -0.5366888302 0.6536006963
440297360.0 0.0865412074 -0.0924075247 6.85111e-05 0.000186228 9.24918e-05 -0.0001055836 -0.5300906015 0.6592792595
445297330.0 0.0853789393 -0.0931072822 0.0002509894 4.8266e-05 0.0003450014 -5.90987e-05 -0.5237493958 0.6640514318
450297300.0 0.0838707795 -0.0942012513 0.0002571353 0.000129246 0.0001630534 3.1485e-05 -0.5170028247 0.6700430718
455297270.0 0.0825150631 -0.0952716552 0.0001190013 -0.0001773457 0.0001204789 4.79315e-05 -0.5100562433 0.6748949744
460297240.0 0.0812021021 -0.0956980291 0.0001335332 9.61037e-05 0.0002271661 -7.25757e-05 -0.502709575 0.6805101639
465297210.0 0.0801412161 -0.0967709776 0.0003076736 -2.241e-07 3.53308e-05 0.000163196 -0.4965431013 0.6851193998
470297180.0 0.0786420182 -0.0975533613 0.0002139306 0.0001430717 0.0002900551 0.0001082572 -0.4894137056 0.6899170485
475297150.0 0.0770990286 -0.0983166052 0.0002779313 8.18316e-05 0.0002605921 0.0001437428 -0.4820810592 0.6947490455
480297120.0 0.0757644632 -0.0996473986 0.0003492133 2.91744e-05 0.0001547597 0.0001047757 -0.4749180228 0.699972269
485297090.0 0.074632853 -0.0999684843 0.0001322281 -4.11809e-05 0.0002396486 0.0002643257 -0.467543956 0.7040372559
490297060.0 0.0732580964 -0.1008604306 0.0002947643 -4.35404e-05 0.000219575 -9.01537e-05 -0.4606942427 0.7085131525
495297030.0 0.0718884401 -0.1015617448 0.0001965625 -0.0001077347 0.0003270202 0.0002772166 -0.453463757 0.712869702
500297000.0 0.0706821786 -0.1025067514 0.000274299 0.000120557 0.0002864597 -4.2551e-06 -0.4466642628 0.7177925272
505296970.0 0.0687195964 -0.1031121869 0.0001889219 0.0002668218 0.0002759645 0.0001749675 -0.440275428 0.7219214057
510296940.0 0.0675898815 -0.1037864796 0.0002917808 0.000114286 0.0002041212 -4.16398e-05 -0.4317824317 0.7265005647
515296910.0 0.0659281225 -0.104181069 0.0003198235 -3.42336e-05 0.0004173397 0.0001015898 -0.4245729053 0.7308399496
520296880.0 0.064726685 -0.1051004228 0.0001936875 -3.50622e-05 0.0001344547 -2.52807e-05 -0.4172266799 0.7348548415
525296850.0 0.0634398837 -0.1058660907 0.0001565569 8.91383e-05 0.0004338498 0.0001850948 -0.4098951571 0.7390040502
530296820.0 0.0620181399 -0.1063455434 0.0003080725 0.0002488782 0.0002457491 0.0001312915 -0.4032673585 0.7427795164
535296790.0 0.060711385 -0.1068454472 0.0001954807 0.0001743675 0.0002651246 -5.14422e-05 -0.3952007965 0.7460492509
540296760.0 0.0589745638 -0.1076730107 0.0002404988 0.0003924553 0.0001632909 3.98778e-05 -0.3877425354 0.7510207994
545296730.0 0.0576895436 -0.1078054091 0.0003304295 9.32531e-05 0.0001200986 4.3422e-05 -0.3802038959 0.7539298455
550296700.0 0.0560198654 -0.1084714222 0.0005765436 4.02905e-05 0.000497352 1.64939e-05 -0.3730038358 0.7578590318
555296670.0 0.0549556581 -0.1091034792 0.000508028 -0.0001784054 0.000157727 2.3189e-05 -0.3650863834 0.7615111202
560296640.0 0.0533809022 -0.1097975984 0.0002535214 -7.86883e-05 0.0002927704 3.47203e-05 -0.3572910208 0.7656397524
565296610.0 0.0520062284 -0.1100359015 0.0001189761 -1.73565e-05 0.0003271291 -0.0001587778 -0.350040698 0.7687743913
570296580.0 0.0503510627 -0.1105541441 0.0003166341 -6.55827e-05 0.0003223571 -2.87712e-05 -0.3428846585 0.7725576612
575296550.0 0.0492841076 -0.1109072193 0.0003343204 -2.22532e-05 0.0003951543 0.0001181054 -0.3342409329 0.7754093779
580296520.0 0.0479322241 -0.111408594 0.0001237972 0.0003598769 0.0001397729 1.67564e-05 -0.3270702397 0.7787542128
585296490.0 0.0461984123 -0.111605767 0.0002141263 -0.0001956667 0.00011106 0.0001549225 -0.3188269412 0.7816092521
590296460.0 0.044707599 -0.1123261582 0.0003696493 5.31085e-05 0.0005918904 0.0002140746 -0.3114324396 0.7848634745
595296430.0 0.0433758432 -0.1123920816 0.0003908316 0.0001204365 0.0003641025 6.9455e-06 -0.3034816928 0.7874540708
600296400.0 0.0417502482 -0.1127088344 0.0001570538 6.52519e-05 0.0001855493 9.29602e-05 -0.2957773006 0.7910613665
605296370.0 0.0405419195 -0.1130100406 0.0001993595 0.0001880284 0.0002606099 7.0404e-06 -0.2884247317 0.7942164375
610296340.0 0.0390362463 -0.1134847482 0.0004162684 1.47073e-05 0.0001852945 5.08258e-05 -0.2798262598 0.7968605945
615296310.0 0.0374191899 -0.1134772557 0.0002306875 -6.59282e-05 0.0002927469 0.0001488642 -0.272461982 0.799371462
620296280.0 0.0361287674 -0.1137046076 0.0003751279 0.0001172472 0.0001376699 5.02002e-05 -0.2644443543 0.8018167471
625296250.0 0.0346325212 -0.1140917041 0.0003717596 0.0001224122 3.88134e-05 -5.59622e-05 -0.2563662391 0.8047371311
630296220.0 0.0330393392 -0.1143359266 0.000503889 9.2996e-05 0.0003080663 0.0001072466 -0.2486412055 0.8072708501
635296190.0 0.0314988344 -0.1145595787 0.0003009284 0.000143784 0.0002071071 0.0001101606 -0.2409536382 0.809443985
640296160.0 0.0305187689 -0.1146631007 0.0003969982 5.05886e-05 0.0002191653 1.90839e-05 -0.2321732535 0.8115995567
645296130.0 0.0285931831 -0.1145537804 0.0002446469 0.000119865 0.0002685885 6.46049e-05 -0.2248869535 0.8132519473
650296100.0 0.0273176632 -0.1146925536 0.000310357 -0.0001708194 0.0002552282 1.44242e-05 -0.2160496383 0.8165552878
655296070.0 0.0258262077 -0.1152426028 0.0004702269 -0.0002294488 0.0002279148 5.7692e-06 -0.2085367859 0.8179044448
660296040.0 0.0241675362 -0.1148396325 0.0002433033 -8.50312e-05 0.000213105 4.43732e-05 -0.2002878448 0.8201100766
665296010.0 0.0230257094 -0.1152737538 0.0004357475 0.0001017542 0.0004609478 -7.84684e-05 -0.1925781303 0.8220996598
670295980.0 0.0215835864 -0.1155075432 0.0004970818 -0.0001103204 0.0001934037 -2.46833e-05 -0.1852107823 0.8241201739
675295950.0 0.0200885354 -0.1153687865 0.000420388 -9.60621e-05 0.000292486 0.0001767903 -0.1760578993 0.8260287071
680295920.0 0.0184103564 -0.1152153505 0.0004276385 4.1449e-06 0.0003882113 0.0002175726 -0.1679439573 0.8279169749
685295890.0 0.0171613252 -0.1152162223 0.0001594676 2.01445e-05 0.0002691942 4.68141e-05 -0.1593804639 0.8293980853
690295860.0 0.0156947136 -0.1152935921 0.0002652573 -9.17738e-05 0.000404142 2.1472e-05 -0.1514963441 0.8307844934
695295830.0 0.0141713848 -0.1152867739 0.0003160491 8.697e-05 0.0006150143 6.08597e-05 -0.1434126199 0.8326054652
700295800.0 0.0128181367 -0.1151605187 0.0004188202 8.90108e-05 0.0003657258 -1.40672e-05 -0.1346122445 0.8334885613
705295770.0 0.0114763715 -0.1152615686 0.0002800526 0.0001720457 0.000350264 -1.6064e-05 -0.1268830942 0.8357219959
710295740.0 0.0100360643 -0.11480198 0.0004641125 0.000252063 0.0003719301 -8.9609e-06 -0.1189796673 0.8369448792
715295710.0 0.0084221908 -0.1148229045 0.0006119809 -3.13581e-05 0.0004645315 0.000110559 -0.1108128985 0.837558398
720295680.0 0.0069549452 -0.1148645368 0.0003388322 6.36967e-05 0.0004179017 -1.35099e-05 -0.1024609817 0.8384318921
725295650.0 0.0055445304 -0.114607442 0.0004482662 -0.0001506495 0.0002738093 3.76264e-05 -0.0941616883 0.8397141213
730295620.0 0.0042471582 -0.1145213567 0.000377319 -0.0002145628 0.0004156719 0.0001849958 -0.0856640513 0.8402209989
735295590.0 0.0030721192 -0.1144358002 4.35947e-05 -0.0001642067 0.0004294495 -4.91384e-05 -0.0771676684 0.8412508903
740295560.0 0.0012281081 -0.1138234311 0.0003396874 2.52897e-05 0.0002354835 -0.0002012653 -0.0688643832 0.8411506495
745295530.0 -5.11235e-05 -0.1139717308 0.0004769271 -0.0001237098 0.0003380459 -2.47381e-05 -0.0603514662 0.8421285457
750295500.0 -0.0015923055 -0.1137009208 0.0002981602 -1.07188e-05 0.0004311301 -5.008e-05 -0.0519766561 0.8427647899
755295470.0 -0.0028089454 -0.11337829 0.0004075465 -0.0001094676 0.0004210774 -0.0003072709 -0.0439341812 0.8430391932
760295440.0 -0.0045575609 -0.1130650992 0.0002442112 -1.75167e-05 0.0002412984 -0.000159743 -0.0365036362 0.8436276824
765295410.0 -0.0057920129 -0.1131628303 0.0002756399 -2.50331e-05 0.0002924654 -4.04652e-05 -0.0269450564 0.8440847978
770295380.0 -0.0068682239 -0.1126056127 0.0004330225 -8.91538e-05 0.0004179823 6.68101e-05 -0.0186744394 0.843909085
775295350.0 -0.0086170294 -0.1121047888 0.0004490332 3.47835e-05 0.000431522 1.5091e-05 -0.011109917 0.8442456486
780295320.0 -0.0100554943 -0.1119660823 0.0003280753 2.23194e-05 0.0003204575 -0.0001399298 -0.0026378355 0.8442763602
785295290.0 -0.0112670122 -0.1115659174 0.0002345784 4.05315e-05 0.000395196 7.8346e-06 0.0051871016 0.8442023179
790295260.0 -0.0127715586 -0.1111885142 0.0004804184 -0.0003977031 0.0005862458 -0.0001369078 0.0145648232 0.8441104761
795295230.0 -0.0140418251 -0.1105757783 0.0002914035 1.02766e-05 0.0002835209 5.8594e-06 0.0222818904 0.8443309177
800295200.0 -0.015378442 -0.1101000327 0.000543839 -3.3972e-06 0.000365623 3.94908e-05 0.0304763304 0.8437989922
805295170.0 -0.0166569074 -0.109917494 0.0004229249 6.7162e-06 0.0003237677 -4.16255e-05 0.038847528 0.8431203024
810295140.0 -0.0179581346 -0.1095276913 0.0002730681 -8.27057e-05 0.000477508 -8.83446e-05 0.0471064438 0.8435825246
815295110.0 -0.0193628805 -0.1089470186 0.0004852002 -7.60144e-05 0.0003432568 -0.0001101043 0.0555931015 0.8429836858
820295080.0 -0.0206667326 -0.1084823793 0.0004152315 -0.0002017036 0.00050918 1.19436e-05 0.0634614192 0.8419377734
825295050.0 -0.0219057406 -0.1079502131 0.000620815 -0.0001012131 0.0004717098 -0.0001113117 0.0718756619 0.8413231367
830295020.0 -0.023153325 -0.1072375161 0.0003831255 9.82e-05 0.000513973 -0.000103558 0.0797014957 0.8404901178
835294990.0 -0.0246005829 -0.1067110674 0.0006575577 -8.77864e-05 0.0004161922 -0.000176635 0.08859066 0.8392859538
840294960.0 -0.0260620969 -0.1065143364 0.0005084997 -0.0002777487 0.0004195966 -4.52242e-05 0.0965152374 0.8390029496
845294930.0 -0.0274427961 -0.1057455657 0.0003611255 -0.0005801277 0.0004070691 -0.0001959556 0.1049283719 0.8377196184
850294900.0 -0.0285922283 -0.1051071113 0.0004670577 -3.42127e-05 0.0003702845 -0.0001318373 0.1126729584 0.8371946979
