!Created with skrf (http://scikit-rf.org).
# Hz S RI R 50.0 
!freq ReS11 ImS11 ReS21 ImS21 ReS12 ImS12 ReS22 ImS22
300000.0 -0.7705272133 -0.1774391935 7.40784e-05 -0.0010054202 -0.0002056705 0.0004967485 0.8595737147 -0.0024228774
5299970.0 -0.7860204747 -0.0094597544 3.6186e-06 -4.106e-07 -0.0001847242 -0.0001309693 0.8591524999 -0.0101494983
10299940.0 -0.7894431169 -0.0063012065 0.0001470384 -0.0002173074 -9.83898e-05 -1.95146e-05 0.8582160085 -0.0191238363
15299910.0 -0.7945828187 -0.0032473601 0.0001514416 -1.08651e-05 -2.4562e-05 -0.0001342661 0.856949447 -0.0273182882
20299880.0 -0.8011295384 0.0007217444 -0.0001527199 0.0001230867 5.39967e-05 -3.4571e-05 0.8564576011 -0.0354541353
25299850.0 -0.8076619709 0.0063240939 9.78611e-05 8.9093e-05 -0.0001680481 9.22785e-05 0.8558007027 -0.0441311626
30299820.0 -0.8137616112 0.0134959007 -0.0001573513 -2.09923e-05 -0.0002780398 5.77711e-05 0.855098497 -0.0526299949
35299790.0 -0.8186261446 0.0232928624 -2.1846e-05 6.07586e-05 -3.9767e-06 1.08717e-05 0.8543904897 -0.0610980311
40299760.0 -0.8235833158 0.0320346659 -7.24035e-05 1.93895e-05 -4.80419e-05 0.0001185319 0.8544593756 -0.0686796877
45299730.0 -0.8265543342 0.0417243648 2.33017e-05 -3.75256e-05 -0.0001513315 -6.46719e-05 0.8523459713 -0.0771324993
50299700.0 -0.8295175883 0.0518782223 -0.0001790785 2.32728e-05 -0.0001007098 0.0002576398 0.851961278 -0.085717905
55299670.0 -0.8312902656 0.0611756543 0.0001082754 -1.00163e-05 1.00649e-05 -2.50847e-05 0.851049709 -0.0933978028
60299640.0 -0.8326595332 0.0718718251 -4.82263e-05 0.0001086561 -0.0001998682 0.0001267772 0.8498978563 -0.1024717544
65299610.0 -0.8334117807 0.0821177295 6.01018e-05 -0.0001405094 -4.02147e-05 0.0001591605 0.8490316044 -0.1104812291
70299580.0 -0.8332500171 0.0914776253 5.03215e-05 0.0001575443 -7.4694e-06 -0.0001141443 0.847015494 -0.1185929787
75299550.0 -0.8337834804 0.1017751199 0.0001311421 -4.80512e-05 2.64936e-05 8.80623e-05 0.845930152 -0.1267843882
80299520.0 -0.8339337927 0.1121480114 8.90585e-05 -0.0001440106 -7.4704e-06 0.0001717113 0.8456608162 -0.1355321711
85299490.0 -0.8328898048 0.1214311477 -9.11264e-05 -0.000191157 -6.48107e-05 -0.0001217016 0.8439871254 -0.1431963576
90299460.0 -0.8323443627 0.1316479644 -7.46792e-05 0.0001149025 -0.000205561 -2.73365e-05 0.8425530321 -0.1512657693
95299430.0 -0.8310233715 0.140245272 1.80253e-05 -2.8966e-05 0.0001237329 -6.05158e-05 0.840673168 -0.1595373245
100299400.0 -0.8303337074 0.1502181483 0.0001045305 1.04368e-05 4.02659e-05 2.34415e-05 0.838984292 -0.1682504619
105299370.0 -0.8287005344 0.1590094046 -7.03069e-05 3.47941e-05 -6.59544e-05 -6.95081e-05 0.8375733365 -0.1758887002
110299340.0 -0.8282045082 0.1680796899 1.19989e-05 -7.5873e-05 -0.000176442 -9.16013e-05 0.8354053981 -0.1844196137
115299310.0 -0.8262284503 0.1776295008 7.64664e-05 -7.524e-06 0.0001961766 0.0001334584 0.8334276615 -0.1926032226
120299280.0 -0.8243066786 0.1868690995 -6.0819e-06 0.0002049276 -5.6253e-05 1.63288e-05 0.8318918151 -0.2009255439
125299250.0 -0.8225595487 0.1957756302 -6.64915e-05 8.57876e-05 -0.0002231351 -8.16766e-05 0.8294238979 -0.2091627874
130299220.0 -0.8202599778 0.205217799 -3.49018e-05 -0.0001167439 8.48997e-05 -9.65135e-05 0.8271942282 -0.2159070663
135299190.0 -0.818664694 0.2139559413 0.0001460208 9.86474e-05 3.71742e-05 -5.41835e-05 0.8256138262 -0.2249553336
140299160.0 -0.8169905761 0.2235240894 5.13225e-05 9.43564e-05 3.26664e-05 2.99191e-05 0.8228759882 -0.2330467935
145299130.0 -0.8150823151 0.2323000147 -5.38155e-05 -0.0001073317 -5.66061e-05 -0.0001063941 0.8207011495 -0.2414276741
150299100.0 -0.8123335297 0.2406160755 -0.0002240655 -4.18874e-05 0.0001012192 1.39318e-05 0.8182634126 -0.249011327
155299070.0 -0.8099198161 0.2499090656 -0.0002058736 -5.44362e-05 -1.61453e-05 7.75028e-05 0.8157749409 -0.2576058786
160299040.0 -0.8074935987 0.2588942039 6.55812e-05 4.3235e-06 -4.98515e-05 4.59886e-05 0.8130953128 -0.2647593029
165299010.0 -0.8045498472 0.2675314566 0.0002458974 -0.0001225064 -0.0001029205 6.61234e-05 0.8108140249 -0.273257793
170298980.0 -0.8016389828 0.2765352658 -0.0001972661 -5.83099e-05 -8.94824e-05 0.0001260407 0.8073794543 -0.2815753008
175298950.0 -0.7990466092 0.2842043425 -0.0001538982 -6.63391e-05 -0.0001215125 -7.9214e-06 0.8050715505 -0.2886994009
180298920.0 -0.7961392597 0.2935250629 -0.0001460197 0.0002853716 8.65856e-05 4.93451e-05 0.8019476498 -0.2967094635
185298890.0 -0.7922609594 0.3019854337 -6.16663e-05 8.17411e-05 1.29478e-05 2.4281e-06 0.7991292461 -0.3042167612
190298860.0 -0.789587222 0.311593406 -1.28926e-05 3.26576e-05 -0.0003086416 -0.000103859 0.7960028632 -0.3122419025
195298830.0 -0.7863456119 0.3188300349 -3.69234e-05 0.0001892963 -0.0001557989 -8.40454e-05 0.7930331687 -0.3202691013
200298800.0 -0.7828774373 0.3277248775 -0.0001804752 -9.82294e-05 7.90063e-05 -0.0001443421 0.7891753738 -0.3278075591
205298770.0 -0.779346316 0.3367869022 6.28223e-05 -2.07692e-05 -7.54394e-05 -8.25292e-05 0.7867253865 -0.3355664904
210298740.0 -0.7766440913 0.3445086524 -4.89456e-05 3.04285e-05 4.40179e-05 9.9041e-06 0.7834739836 -0.3432021374
215298710.0 -0.7719653463 0.3529750249 0.0001560899 0.0001125757 7.36648e-05 -7.0285e-05 0.7793764956 -0.3511969549
220298680.0 -0.7686771755 0.3606687287 8.23893e-05 -6.99128e-05 0.0001080331 -5.17909e-05 0.7760636855 -0.3582033939
225298650.0 -0.7646568672 0.3695188476 -7.11699e-05 -0.0001552423 6.12717e-05 -1.87824e-05 0.7720411454 -0.3661134529
230298620.0 -0.7611210263 0.3775807972 4.91192e-05 -8.39806e-05 1.73734e-05 6.2999e-05 0.7688537147 -0.3733738402
235298590.0 -0.7575009297 0.3860229013 0.0001615044 -0.0001014768 1.70677e-05 0.0001126149 0.764708568 -0.3809437995
240298560.0 -0.752579223 0.3934202439 1.68805e-05 -1.98917e-05 0.0001264028 1.05506e-05 0.7615288652 -0.388638131
245298530.0 -0.7486839756 0.401884096 -0.0001598304 0.0001692451 -0.0001387714 4.73071e-05 0.7571372641 -0.3955448849
250298500.0 -0.7445598291 0.4092386303 -4.19853e-05 -2.73202e-05 0.0001743743 -5.62957e-05 0.7535813887 -0.4024147775
255298470.0 -0.7406232532 0.4177105755 4.1629e-06 4.72106e-05 0.0001272197 2.83318e-05 0.7494444861 -0.4107435738
260298440.0 -0.7365150761 0.4248645558 -0.0001964429 -2.15108e-05 1.73465e-05 0.0001485274 0.7456622617 -0.4183868092
265298410.0 -0.7321451991 0.4331460354 5.84372e-05 -1.19722e-05 0.000113447 -1.2367e-06 0.7415141715 -0.4249020869
270298380.0 -0.727527488 0.4401914665 6.22479e-05 1.11751e-05 -0.0001039121 4.2393e-06 0.7372460524 -0.4323242539
275298350.0 -0.7230367347 0.4482093825 7.17994e-05 -6.42801e-05 -0.0001074662 4.3275e-06 0.7324824134 -0.4396138102
280298320.0 -0.7186680312 0.4553227763 0.0001004986 2.1251e-05 0.0001025859 6.2884e-06 0.7288399425 -0.4464148362
285298290.0 -0.7134417432 0.4629239583 -0.0001199774 0.0001249348 2.55382e-05 6.89192e-05 0.7247013191 -0.4539856172
290298260.0 -0.7088428255 0.4707020631 -0.000203003 -5.73017e-05 -2.28603e-05 4.40239e-05 0.7202749462 -0.4604801666
295298230.0 -0.7037041526 0.4782705362 4.40727e-05 0.0001280183 0.0002635956 8.29423e-05 0.7159603923 -0.4673650698
300298200.0 -0.6994095254 0.4853904249 9.15841e-05 -0.0002498978 -0.0001030779 -0.0003726747 0.7117155537 -0.4750347049
305298170.0 -0.6942750229 0.492468297 6.166e-07 7.66793e-05 2.2124e-06 4.03764e-05 0.706939793 -0.4820408248
310298140.0 -0.6890751589 0.4990747352 -0.0001233593 0.0001926572 4.35911e-05 0.0001278748 0.7025583356 -0.4893066915
315298110.0 -0.6846713184 0.5069386023 0.000133127 0.0001716919 5.41319e-05 -6.8887e-06 0.6976687853 -0.4967282624
320298080.0 -0.6790241403 0.5141804454 8.85767e-05 -0.0001148153 -0.0001071461 -0.0001928758 0.6926874382 -0.5041009343
325298050.0 -0.6732406102 0.520626039 0.0001740358 -2.61854e-05 9.8379e-05 3.45771e-05 0.6878758258 -0.5119073774
330298020.0 -0.668132392 0.5282481444 6.4105e-06 -0.0001418776 6.57004e-05 -3.3123e-05 0.6824990279 -0.5191574449
335297990.0 -0.6631491099 0.5345501496 3.4936e-06 -9.3099e-06 0.0001632279 -4.02767e-05 0.6762179315 -0.5255854245
340297960.0 -0.6576533014 0.541269269 0.0001966933 2.56846e-05 -5.34543e-05 0.0001425855 0.6701161751 -0.531973789
345297930.0 -0.6520238268 0.5474652339 -9.58213e-05 8.07851e-05 -0.0001061638 0.0001104458 0.6644457477 -0.5385666723
350297900.0 -0.6467729397 0.55458182 -0.0001561941 -3.51663e-05 6.79645e-05 1.3432e-06 0.6585631299 -0.5449204784
355297870.0 -0.6406310873 0.5611582174 -0.0001557143 -4.18255e-05 4.93464e-05 9.401e-07 0.6532205304 -0.5508094529
360297840.0 -0.6347022898 0.5683782862 4.75993e-05 -1.20111e-05 -6.2927e-05 -5.79405e-05 0.6473210579 -0.5572235902
365297810.0 -0.6292521481 0.5743052454 -5.6992e-06 0.0001073368 0.000108603 6.84228e-05 0.6418378776 -0.5633989593
370297780.0 -0.6234649568 0.580210849 5.13071e-05 0.0002465807 -0.0001814725 2.32031e-05 0.6357853913 -0.5690735676
375297750.0 -0.6180112094 0.5865356054 -7.71773e-05 -6.57251e-05 -5.13407e-05 -0.0001677545 0.6305667609 -0.5756754032
380297720.0 -0.6125834251 0.5930438008 6.57233e-05 4.1824e-05 -0.0001990155 -0.0001456172 0.6244076835 -0.5810242781
385297690.0 -0.6062817374 0.5995355715 -3.24853e-05 -0.0001308242 -3.55131e-05 -3.24722e-05 0.6183128794 -0.5874350668
390297660.0 -0.598776886 0.6048547959 -0.0001670314 -0.0001163102 8.3716e-05 -3.38429e-05 0.6125221211 -0.5929724428
395297630.0 -0.5932864299 0.6120884721 0.0002095092 0.000195377 -0.0001181291 -0.0001102831 0.6069877336 -0.5992598784
400297600.0 -0.5869349327 0.6177103847 -1.26829e-05 -4.91846e-05 -6.00886e-05 0.000113545 0.6007901304 -0.6048567196
405297570.0 -0.5808334234 0.6230142976 -6.58784e-05 -0.0001592106 -0.0001499639 3.2793e-06 0.5944962282 -0.6106465888
410297540.0 -0.5739890394 0.6296699192 1.17481e-05 -0.0002276342 5.91377e-05 0.0001608007 0.5885800751 -0.6166082816
415297510.0 -0.5678049448 0.6359253446 -0.0002109441 -0.0001067927 -0.0001346622 -0.000110727 0.5824330404 -0.6221642798
420297480.0 -0.5614234781 0.6410894489 -0.0001902295 6.37137e-05 0.0001048203 6.94958e-05 0.5763052722 -0.6273670267
425297450.0 -0.5541529631 0.6463682145 4.71055e-05 -9.27056e-05 -0.000178071 0.0001594827 0.5704444781 -0.6339036593
430297420.0 -0.5480345846 0.6516378051 0.0001611176 -5.63355e-05 -7.83457e-05 0.0001908715 0.5633380067 -0.6389253414
435297390.0 -0.5413710437 0.6571127901 -9.09975e-05 4.60881e-05 -0.0001519705 9.69934e-05 0.5572887957 -0.6447230605
440297360.0 -0.5338749786 0.6629634402 9.8645e-06 0.0001145419 0.0002439108 -5.0823e-05 0.5509209165 -0.6494503754
445297330.0 -0.5274669198 0.668189735 0.0002394532 -5.0265e-05 -2.12173e-05 -5.29127e-05 0.5444888105 -0.6540616621
450297300.0 -0.5205072272 0.6731491243 -6.71133e-05 0.0001335535 -0.0001463788 8.20574e-05 0.5380239428 -0.6597534727
455297270.0 -0.5137527547 0.6786732115 -0.000204148 9.14957e-05 6.28673e-05 4.16288e-05 0.5313559199 -0.6651067657
460297240.0 -0.5059766297 0.6841572785 -9.14129e-05 -0.0001114628 -0.0001903236 0.0001382446 0.5249656469 -0.6704805249
465297210.0 -0.499198819 0.6890876413 0.0001109791 -5.70244e-05 3.03679e-05 -6.34364e-05 0.5184456932 -0.674810208
470297180.0 -0.4923487075 0.6941595218 -0.0001663758 7.72082e-05 -0.0001035011 -8.7305e-05 0.5118531521 -0.6799328739
475297150.0 -0.4851697857 0.6988084954 -6.29805e-05 6.86278e-05 0.0001993803 -0.0002722305 0.5052932139 -0.6850430313
480297120.0 -0.4772608586 0.7042717772 -1.76272e-05 0.000137334 -7.75152e-05 -0.0001641207 0.497683657 -0.6899936911
485297090.0 -0.4700001619 0.708790634 2.38811e-05 -4.2436e-06 -1.34343e-05 -6.96628e-05 0.4908826693 -0.6950693816
490297060.0 -0.4622154688 0.7134919773 0.0001053073 -0.0001188841 -5.56545e-05 -5.37681e-05 0.4837309461 -0.6993723295
495297030.0 -0.4549984845 0.7178707519 0.000122962 6.47047e-05 -0.0002138692 9.5247e-06 0.476755131 -0.7044111159
500297000.0 -0.4475321653 0.7219628471 -3.73908e-05 -7.47066e-05 2.54455e-05 -0.0001382139 0.4702139759 -0.7086936828
505296970.0 -0.4397111288 0.7271068872 -0.0003329616 -0.0001382422 0.0002484537 -0.0002186998 0.4628517232 -0.713203995
510296940.0 -0.432407043 0.731493318 2.64748e-05 -9.48905e-05 2.22744e-05 7.85178e-05 0.455279761 -0.7175735661
515296910.0 -0.4243487166 0.7357358207 -0.000124502 2.75322e-05 -9.47446e-05 -2.02633e-05 0.4483685173 -0.72241316
520296880.0 -0.4165727595 0.7395008358 6.63757e-05 -0.0001704346 0.0001074103 -9.3206e-06 0.4416557416 -0.726580664
525296850.0 -0.4088533123 0.7441751352 0.0001339124 0.0002355341 4.18833e-05 -0.0001277702 0.4343376584 -0.7305069124
530296820.0 -0.4016885158 0.7481845119 0.0001771931 -0.0001356692 7.3213e-06 -6.96391e-05 0.4273408025 -0.7347655966
535296790.0 -0.3933259392 0.7515812487 9.20295e-05 -0.0001854425 -3.33431e-05 9.26198e-05 0.4201935228 -0.7384326283
540296760.0 -0.3850127738 0.756247994 1.29681e-05 -7.13546e-05 -6.80624e-05 8.81139e-05 0.4125500814 -0.7421273603
545296730.0 -0.3778208082 0.7604351115 0.0001687255 0.0001661072 8.5629e-05 7.91042e-05 0.405006775 -0.7468265397
550296700.0 -0.3690070362 0.7634532906 0.0001119078 0.0001740518 -2.36696e-05 -0.0001146258 0.3974547045 -0.750658483
555296670.0 -0.3618139212 0.7673546857 0.0002072921 -9.55801e-05 1.2766e-06 -0.0002293628 0.3900413452 -0.7547091421
560296640.0 -0.3532781759 0.7707242709 -3.5038e-06 1.439e-05 -1.54011e-05 0.0001579838 0.3818394622 -0.7586881282
565296610.0 -0.3454499767 0.7741640931 2.02016e-05 -0.0001086408 0.0002653904 9.84762e-05 0.3750408612 -0.761920837
570296580.0 -0.3375522565 0.7777534662 -8.85017e-05 0.0001807734 -0.0001639588 2.04663e-05 0.36721774 -0.7662098312
575296550.0 -0.328114318 0.7812611975 -0.0001525651 -8.81512e-05 0.0001332641 6.52417e-05 0.359846156 -0.7692528612
580296520.0 -0.3212591758 0.785121583 -0.0002017442 0.0001547755 -0.000100681 0.0001304311 0.3519107551 -0.7723706243
585296490.0 -0.3129665778 0.7873126571 0.0002396708 8.30849e-05 -0.0002415611 -0.0001764083 0.3438817118 -0.77542087
590296460.0 -0.3038399179 0.7909002259 4.75337e-05 -4.7634e-05 -0.0001075925 -6.5019e-06 0.3364854273 -0.7788404644
595296430.0 -0.2964206275 0.7938805754 3.15001e-05 2.82882e-05 2.78397e-05 0.0001601677 0.328649185 -0.7822424705
600296400.0 -0.2884144544 0.7969102853 -3.15736e-05 3.71583e-05 -0.0002677359 -3.93623e-05 0.3211525491 -0.7852403456
605296370.0 -0.2798943182 0.7993894388 4.52273e-05 0.0001415736 0.0001390295 -0.0001716451 0.3132146235 -0.7881111811
610296340.0 -0.2713909413 0.8026814916 -6.78041e-05 -0.0001553524 0.0001216217 0.0001277585 0.304903486 -0.7914082601
615296310.0 -0.262496974 0.8056809381 -0.0001019554 0.0001288071 -4.05583e-05 0.0001457456 0.2971370083 -0.7936690017
620296280.0 -0.2553146658 0.8083417439 6.65554e-05 7.40926e-05 4.10913e-05 -0.000134429 0.289569633 -0.796405438
625296250.0 -0.2478204327 0.8100856372 3.23404e-05 -5.65771e-05 -6.81053e-05 -0.0001029302 0.2813675181 -0.7997950984
630296220.0 -0.2386611543 0.8128166283 3.8606e-05 -6.43973e-05 -0.000115731 -0.0001215392 0.2740307923 -0.8022278409
635296190.0 -0.2311126333 0.8159118288 6.3216e-06 6.7779e-06 -0.0002290389 5.576e-05 0.2652785528 -0.8039149704
640296160.0 -0.2216473071 0.8180698243 2.45477e-05 -0.0001058306 -8.1061e-06 0.0001351614 0.2566962232 -0.8070607037
645296130.0 -0.2136309989 0.8202592718 0.0002384616 -0.0003072708 -5.00262e-05 7.00729e-05 0.2487164415 -0.8093199377
650296100.0 -0.2052514051 0.82165678 6.8614e-06 2.35488e-05 -2.1069e-06 7.66512e-05 0.2406162072 -0.8112972872
655296070.0 -0.197335592 0.8241712975 -5.45587e-05 3.18816e-05 -3.2638e-06 0.0001157566 0.232849604 -0.8148503657
660296040.0 -0.1893798172 0.8259178259 9.74341e-05 0.0003580937 7.81957e-05 -1.62085e-05 0.2253861497 -0.8164607719
665296010.0 -0.1810524466 0.8283048915 6.55e-05 0.0003445538 -0.0001435841 -0.000121927 0.2174557358 -0.8181557429
670295980.0 -0.1726467866 0.8303076259 9.93176e-05 -0.0001692291 0.0001149 -3.25452e-05 0.2084328619 -0.8204556877
675295950.0 -0.1639897479 0.8319077107 -0.000114883 3.24026e-05 -0.0002072433 0.0001422355 0.2000152993 -0.8224836049
680295920.0 -0.1563599073 0.8340583105 7.9032e-06 0.0001600875 -5.38944e-05 -5.52358e-05 0.1925330518 -0.8238528751
685295890.0 -0.1476451043 0.8355449667 0.0001700036 -1.6493e-06 -0.0001028465 -8.101e-06 0.1842769552 -0.8255468188
690295860.0 -0.139318666 0.8365538077 3.599e-07 6.68326e-05 0.0001389034 -3.14644e-05 0.1762143356 -0.8275746808
695295830.0 -0.1310723771 0.8386875219 -0.0001297633 -9.0206e-05 3.02674e-05 5.79141e-05 0.167703942 -0.8289497273
700295800.0 -0.1222917733 0.8402971981 -0.0003188222 2.5477e-06 6.7929e-05 -9.52192e-05 0.1596282817 -0.8301811908
705295770.0 -0.1145340582 0.8413586008 -8.71465e-05 3.55435e-05 0.0001103979 -3.82513e-05 0.1508919322 -0.8315596517
710295740.0 -0.1069623893 0.8419837279 0.000283049 0.0001051868 -0.0001207949 -2.03779e-05 0.1433486915 -0.8327885179
715295710.0 -0.097830171 0.8433420151 1.12549e-05 -0.0002556896 -9.05218e-05 -1.05225e-05 0.1348650534 -0.8349977738
720295680.0 -0.0889619547 0.8439901498 0.0001000204 8.1353e-06 7.31607e-05 -0.0001445894 0.126469068 -0.8359045898
725295650.0 -0.081401809 0.8458303401 1.4046e-05 0.0001448134 -0.0003578055 -2.79492e-05 0.1175560283 -0.8360454103
730295620.0 -0.0742393376 0.846723816 3.78153e-05 -5.20608e-05 4.30685e-05 0.0001428242 0.1095048335 -0.8372509038
735295590.0 -0.0655003914 0.8474042187 8.84638e-05 2.84522e-05 -6.28961e-05 -5.2824e-05 0.1013557326 -0.837809471
740295560.0 -0.0578213834 0.8477885356 -0.0001323291 -7.70091e-05 5.10372e-05 -0.0001077909 0.0929333228 -0.8393654611
745295530.0 -0.0484950774 0.848701537 0.0001074036 0.0002289618 -0.0001421141 -0.0001725985 0.0837400276 -0.8398401083
750295500.0 -0.0413038463 0.8492844115 -0.0001434032 3.0971e-05 0.0001206712 -0.0001351732 0.0760687423 -0.8405584986
755295470.0 -0.0322888195 0.8499238717 0.0001534107 -5.925e-07 2.80943e-05 0.0002035234 0.0676594233 -0.8407097523
760295440.0 -0.0240345287 0.8507709134 0.0001006986 -7.57347e-05 -8.29333e-05 0.000180831 0.0594616835 -0.8413195327
765295410.0 -0.0164335265 0.8504786349 2.34102e-05 0.0001347853 -7.06854e-05 -9.6166e-06 0.0505214786 -0.8416807895
770295380.0 -0.0082485437 0.8515850541 -2.40789e-05 -0.0001083429 3.49016e-05 0.0001008306 0.0422284385 -0.8420390672
775295350.0 -0.0003007475 0.8514326283 0.0001001249 8.42094e-05 5.98366e-05 -9.48187e-05 0.0348352145 -0.8428267719
780295320.0 0.0084020976 0.8511370968 7.88112e-05 3.91634e-05 0.0001302752 -0.0002278982 0.0259074272 -0.842204753
785295290.0 0.0167913221 0.8507340529 -0.0002958418 0.0001039998 -0.0001050315 -0.0001244306 0.0167885623 -0.8423339545
790295260.0 0.0248302995 0.8510670241 -5.37416e-05 9.09791e-05 -7.67655e-05 2.07547e-05 0.0092236717 -0.8424616444
795295230.0 0.0328107126 0.8509705383 -0.0001544463 3.47238e-05 4.66178e-05 2.8579e-06 -3.75309e-05 -0.8432565236
800295200.0 0.0407335245 0.8506774747 -0.0002249603 -8.30151e-05 -0.0001373182 0.0002608064 -0.0077739083 -0.8423247671
805295170.0 0.048992847 0.8505922179 0.0001574738 0.0001481425 -2.67191e-05 -1.09224e-05 -0.0155997662 -0.8422152928
810295140.0 0.0578074339 0.8503278207 1.6895e-06 -0.0001179362 -0.00015324 -0.0001075123 -0.024688433 -0.8418772138
815295110.0 0.0648885959 0.8501795308 -6.16993e-05 4.32392e-05 8.02308e-05 0.000136294 -0.0334916954 -0.8411220885
820295080.0 0.073471887 0.8489942874 2.52082e-05 -2.36968e-05 -5.80595e-05 7.65251e-05 -0.0419162136 -0.8399192266
825295050.0 0.0820446398 0.8475125264 8.24943e-05 5.04498e-05 -8.1807e-06 5.19772e-05 -0.0499009379 -0.8393841701
830295020.0 0.0903652477 0.8477083982 -8.19579e-05 -0.0001015301 0.0002056572 -0.0001288527 -0.0584890614 -0.8396668699
835294990.0 0.0980790034 0.8466489064 0.0001345895 0.0001959941 -3.34509e-05 0.0002820637 -0.0668475715 -0.8386793858
840294960.0 0.1064005918 0.8452578001 1.47082e-05 -2.21145e-05 0.0001737035 -0.0001534669 -0.0750851884 -0.8374796201
845294930.0 0.1145146107 0.8447148229 9.07714e-05 -1.25706e-05 4.75563e-05 -5.09954e-05 -0.0832662585 -0.8365714775
