!Created with skrf (http://scikit-rf.org).
# Hz S RI R 50.0 
!freq ReS11 ImS11 ReS21 ImS21 ReS12 ImS12 ReS22 ImS22
300000.0 -0.0967242738 -0.0831116509 0.6223732131 0.0786883625 0.6253260916 0.0823898333 -0.0975409718 -0.0924619542
5299970.0 -0.1004078157 0.0127232161 0.6304131751 0.0105749797 0.6306639244 0.0109511673 -0.1022286924 0.0118698935
10299940.0 -0.0952592177 0.0298005185 0.6344447975 0.0154115476 0.6346570668 0.0159142745 -0.0970002286 0.0289735893
15299910.0 -0.0884542436 0.0429668742 0.6404256415 0.0209961014 0.6405124057 0.0212603154 -0.0903464422 0.0419357245
20299880.0 -0.0793104016 0.0541557172 0.6485633435 0.0245034855 0.6488990559 0.0242129851 -0.0819953585 0.0532062186
25299850.0 -0.06977569 0.0628282427 0.6584111662 0.0247931142 0.6581961 0.0256586357 -0.0727084249 0.061848828
30299820.0 -0.0596766558 0.0693850422 0.6679979151 0.0248761041 0.6672949737 0.0244805214 -0.062534246 0.068484676
35299790.0 -0.0496967977 0.0744250234 0.6770094731 0.0216154464 0.6774074792 0.0220474039 -0.0526704635 0.0733392727
40299760.0 -0.0396619062 0.0771909178 0.6867655942 0.0176700973 0.6870959225 0.017627709 -0.0435328662 0.0772390846
45299730.0 -0.0304548449 0.0795848004 0.6957832696 0.0120011661 0.6956572322 0.0120208913 -0.0341847348 0.0788992858
50299700.0 -0.0218561912 0.0799638334 0.7035222323 0.004548062 0.7037999228 0.0048202914 -0.0256630269 0.079975849
55299670.0 -0.0142891598 0.0797315261 0.7101482237 -0.0029521886 0.7108580758 -0.0024718831 -0.0179063936 0.0799183466
60299640.0 -0.0067134117 0.0788476001 0.7174228212 -0.0112969355 0.7176502031 -0.0107851555 -0.0103942563 0.0799075909
65299610.0 -0.0007031792 0.0781315882 0.7236558246 -0.0199266443 0.724065133 -0.0194990978 -0.0036442973 0.0785303933
70299580.0 0.0060180846 0.0760052253 0.7288231528 -0.0290807967 0.7288370108 -0.0289653149 0.0021983113 0.0771297099
75299550.0 0.0116537872 0.0743209972 0.7323595771 -0.0386783011 0.7333935675 -0.0391757961 0.008227178 0.0758509103
80299520.0 0.0161442714 0.0723565206 0.7378552341 -0.0489097026 0.7376991989 -0.0485254109 0.0131275746 0.0727598142
85299490.0 0.0207242389 0.0695254231 0.7404685823 -0.0585348091 0.7406885131 -0.0587478085 0.0175224814 0.0707656632
90299460.0 0.0245123897 0.0673877393 0.7435823481 -0.0682587345 0.7435729684 -0.0686328294 0.0220876288 0.0684660927
95299430.0 0.0283086605 0.0653555377 0.7460797672 -0.0794354228 0.7461093051 -0.0791398495 0.0253666181 0.0663553849
100299400.0 0.0314415492 0.0626954287 0.7474605965 -0.0894330031 0.7474020921 -0.0893626939 0.0286138461 0.063799184
105299370.0 0.0347807313 0.0599305021 0.7484770642 -0.0991927248 0.74898256 -0.0992242709 0.0318979847 0.0618695328
110299340.0 0.0370759105 0.0578131939 0.7496366152 -0.1088692628 0.7503315975 -0.1097350262 0.0347516394 0.0592931386
115299310.0 0.0397601207 0.0550711281 0.7509465246 -0.1184393344 0.7512681586 -0.1190403638 0.0373260786 0.0562520031
120299280.0 0.041415023 0.0525957335 0.7516364908 -0.1297172564 0.7515294232 -0.1296067133 0.0389580186 0.0541359817
125299250.0 0.043187064 0.0504485964 0.7517855053 -0.1391808814 0.7519763827 -0.1392330325 0.0413721749 0.0512561468
130299220.0 0.0451318057 0.0479674315 0.7514475229 -0.1487878382 0.7515921482 -0.1493181788 0.0435098711 0.0493969448
135299190.0 0.0466745616 0.0454033567 0.751403424 -0.1587626219 0.7507740634 -0.1590139432 0.0444377371 0.0474537348
140299160.0 0.0476686617 0.0443035216 0.7506570772 -0.1686046442 0.750744355 -0.1686437629 0.0463412121 0.0450864804
145299130.0 0.0493191622 0.0420796477 0.7507141383 -0.1787404014 0.7497868768 -0.1784780963 0.0475998087 0.0427650205
150299100.0 0.0506360764 0.0398782858 0.7493255749 -0.1883482259 0.7491003878 -0.1882801477 0.0488456461 0.0407615102
155299070.0 0.0510459953 0.0382319364 0.7478924791 -0.1984193888 0.7477818222 -0.1979111899 0.0495303269 0.0388135072
160299040.0 0.0522748734 0.0359090788 0.746339894 -0.2068795658 0.7465253089 -0.2071887866 0.0509574784 0.037375596
165299010.0 0.0527730215 0.0341248132 0.7452128923 -0.2169792171 0.7447560598 -0.2168893467 0.0515437063 0.0348837376
170298980.0 0.0533751696 0.0325308416 0.7421486035 -0.226025895 0.7429820711 -0.2263924518 0.0527349939 0.0330362102
175298950.0 0.0543559206 0.0304589239 0.7415048691 -0.2355951436 0.741440292 -0.2351202231 0.0534700571 0.0309343024
180298920.0 0.0554975351 0.0291728146 0.7389852924 -0.2451551462 0.7392727125 -0.2444603623 0.0537208151 0.0298276312
185298890.0 0.0559882119 0.0272333638 0.7367426684 -0.2540004462 0.7370325851 -0.2536554522 0.0543935202 0.0278374819
190298860.0 0.0563421044 0.0258387647 0.7349418762 -0.26323227 0.7350242516 -0.2630352199 0.0556147724 0.0262398721
195298830.0 0.056358365 0.0239815783 0.7317675823 -0.2714062999 0.7321210435 -0.2720286618 0.0564072068 0.0242147947
200298800.0 0.0569670952 0.022624323 0.7299882798 -0.2802058228 0.7290442154 -0.2806912623 0.0563685496 0.0232101795
205298770.0 0.0571964918 0.0213966994 0.7265460404 -0.2894487417 0.7269068211 -0.2898024343 0.0565879355 0.0209406042
210298740.0 0.0568908564 0.0196995585 0.7237457034 -0.2989042748 0.7235209384 -0.2985381984 0.0573388969 0.0199315653
215298710.0 0.0576725693 0.0186080384 0.7206425717 -0.3073792567 0.7212255693 -0.3071053281 0.0571995091 0.0182273846
220298680.0 0.0581054139 0.0173644195 0.7175536374 -0.3157719425 0.7175858798 -0.3156790416 0.0575925672 0.0175565313
225298650.0 0.0587192646 0.0161624691 0.7139432405 -0.3239452922 0.7138214174 -0.3244317298 0.0576935445 0.0158631054
230298620.0 0.0580027666 0.0150794402 0.7111367477 -0.3328592969 0.7107129886 -0.3329771609 0.0575990815 0.0143622118
235298590.0 0.0584395132 0.0131361977 0.7076073024 -0.3412213326 0.7076959298 -0.3415828836 0.0583007718 0.0128521649
240298560.0 0.0582667693 0.0119620022 0.7039575228 -0.3493498414 0.7039841751 -0.3490813767 0.0583130206 0.0121608298
245298530.0 0.0587038359 0.0110732858 0.6992551573 -0.357413197 0.6999857646 -0.3579715085 0.0583730053 0.0110132672
250298500.0 0.058304208 0.009825566 0.6957750842 -0.3653904302 0.6964936014 -0.3650025176 0.0586708139 0.0092372776
255298470.0 0.0581530084 0.0089823015 0.6922851892 -0.3745415711 0.6925365496 -0.3743659934 0.0588869222 0.0078283026
260298440.0 0.0582511116 0.0077921072 0.688223067 -0.3820387893 0.6886855939 -0.3825758073 0.05947977 0.0071564737
265298410.0 0.0589918696 0.0070900133 0.6843320293 -0.3908331188 0.6840036858 -0.3906250992 0.0587506831 0.0054997313
270298380.0 0.0590566566 0.0057263273 0.6798357886 -0.3983974071 0.6800192497 -0.3980303905 0.0589991462 0.0051647283
275298350.0 0.0584437519 0.0046960084 0.6755277776 -0.406556206 0.6756282786 -0.4067579028 0.0588198769 0.0036950206
280298320.0 0.0586169001 0.0040493089 0.6713066726 -0.4132967829 0.6710765491 -0.4143297799 0.0595214601 0.0030145374
285298290.0 0.058760096 0.0033195902 0.6664668547 -0.4218781984 0.6664781696 -0.422121086 0.0586915391 0.0018472267
290298260.0 0.0586032762 0.0017970762 0.6624121727 -0.4293147359 0.6620523147 -0.4295870052 0.0596055759 0.0006891163
295298230.0 0.0586526398 0.000607503 0.6579701242 -0.43701474 0.6576071992 -0.437093757 0.0596404211 -0.0002349745
300298200.0 0.0590376083 3.70198e-05 0.6532541323 -0.4450764637 0.6534162357 -0.4451463963 0.0592539041 -0.0012952176
305298170.0 0.0589462663 -0.0013271286 0.6483261695 -0.4531484004 0.6487559611 -0.4527963082 0.0594933212 -0.0023278376
310298140.0 0.0595140601 -0.0026498815 0.6435759994 -0.4605693193 0.643642909 -0.46081505 0.0594411792 -0.0028022303
315298110.0 0.05873749 -0.0032643528 0.6382526461 -0.4680227854 0.6389070848 -0.468444858 0.0598877009 -0.0043767126
320298080.0 0.0586302848 -0.0041292898 0.6330740245 -0.475981548 0.6337599025 -0.4757362233 0.0594563191 -0.0058552752
325298050.0 0.0582787109 -0.005720192 0.6282327091 -0.4833875265 0.6286876104 -0.4836972111 0.0592057221 -0.0068878911
330298020.0 0.0580610592 -0.0065805559 0.6216098728 -0.4909704413 0.6221320307 -0.490711796 0.0583221533 -0.0081531255
335297990.0 0.057655856 -0.0076870035 0.6164602156 -0.4974074643 0.6167331618 -0.4978247948 0.0580437303 -0.008895917
340297960.0 0.0565772325 -0.0079499892 0.6103226234 -0.5045034629 0.6112656674 -0.5046994736 0.0575040405 -0.0092633689
345297930.0 0.0562076142 -0.0083508522 0.605018055 -0.5108328866 0.6045765536 -0.5111478848 0.0578285004 -0.0107260683
350297900.0 0.0564460748 -0.0094872565 0.5989623555 -0.5174802496 0.599533862 -0.5179488694 0.0568394207 -0.0106586618
355297870.0 0.0559726445 -0.0101909349 0.5931894844 -0.5247532321 0.5932522147 -0.5250289512 0.0564090958 -0.0113901195
360297840.0 0.0560684361 -0.0106827136 0.5876484161 -0.5313345399 0.5875268533 -0.5313290201 0.0563919245 -0.0119311187
365297810.0 0.056036786 -0.0114413511 0.5814676854 -0.5380300484 0.5817368049 -0.538135089 0.0558759238 -0.0123251445
370297780.0 0.0556098113 -0.0123181387 0.5757132965 -0.5439651096 0.57605459 -0.5444752762 0.0561694177 -0.013000726
375297750.0 0.0551590085 -0.0123716449 0.5702755012 -0.5507412692 0.5699976151 -0.5510866209 0.0557312527 -0.013449719
380297720.0 0.0551620731 -0.0138518645 0.5637603874 -0.5568481386 0.5636094261 -0.5570582046 0.0555384698 -0.0144672307
385297690.0 0.0549399741 -0.0139140457 0.5575984131 -0.5626814407 0.5573973992 -0.5633580916 0.055155761 -0.0147033301
390297660.0 0.0543548922 -0.0146451123 0.551319034 -0.5698424254 0.5514257484 -0.5703082723 0.0549632937 -0.0157443588
395297630.0 0.0547846673 -0.0157030695 0.5456306522 -0.5752492603 0.5452370775 -0.5757148084 0.0543627999 -0.0159887529
400297600.0 0.0536429607 -0.0160161805 0.5383273762 -0.582171702 0.53865072 -0.5823917047 0.0535268552 -0.0168712509
405297570.0 0.0539107492 -0.0165332359 0.5319631724 -0.5878895456 0.5323353397 -0.5882578217 0.0537151001 -0.0168026077
410297540.0 0.0536829539 -0.0171929713 0.5254930388 -0.5932736157 0.5253117106 -0.5941138388 0.0530542265 -0.0180810373
415297510.0 0.0532865527 -0.0173547044 0.5190208618 -0.5989629632 0.5191134256 -0.5998531068 0.0528053984 -0.0180553646
420297480.0 0.0530940981 -0.0188795296 0.5123032476 -0.6056998535 0.512874942 -0.6053948438 0.0530791821 -0.0191676827
425297450.0 0.0532791131 -0.0195538628 0.5056731799 -0.610839855 0.5064937835 -0.6108750395 0.052325319 -0.0189628278
430297420.0 0.0524410954 -0.0195185691 0.4990500375 -0.6170849637 0.499408133 -0.6166172182 0.0517103096 -0.0205042176
435297390.0 0.0525496364 -0.0206430218 0.4924666417 -0.6220882976 0.4920416878 -0.621967945 0.0513320594 -0.0200089167
440297360.0 0.0521813002 -0.0214833798 0.4855427147 -0.6277847378 0.4849511139 -0.6279897715 0.0511523179 -0.0215969055
445297330.0 0.0521791909 -0.0222979735 0.4781629768 -0.6334013146 0.4785724088 -0.6332535201 0.0506362437 -0.0218915333
450297300.0 0.0518544207 -0.0225825181 0.4716906056 -0.6386256751 0.4715066218 -0.6386632913 0.0502634741 -0.0220182874
455297270.0 0.0508715334 -0.0233426544 0.4645255328 -0.6435999644 0.4648663704 -0.6435444166 0.0500521863 -0.0225695323
460297240.0 0.0504537345 -0.0239507941 0.4571740844 -0.6481492365 0.4570391085 -0.6489282662 0.0496828766 -0.0224718697
465297210.0 0.050595268 -0.0248417568 0.4499581474 -0.6538412469 0.4507296059 -0.65377622 0.0491164691 -0.0237933624
470297180.0 0.0498884341 -0.0252716285 0.4431122638 -0.658709642 0.4437595449 -0.6588460351 0.048077801 -0.0244433333
475297150.0 0.0492684661 -0.026346106 0.4351425735 -0.6634860329 0.4360769837 -0.663403442 0.0483069762 -0.0248671051
480297120.0 0.0498479286 -0.0269190251 0.4288841023 -0.6680179143 0.4288705423 -0.6683377467 0.0477260213 -0.0244777347
485297090.0 0.0494205308 -0.0273303442 0.4217459895 -0.673043079 0.4211325664 -0.6731198849 0.0469835913 -0.0256492382
490297060.0 0.0489776915 -0.0281598789 0.4138521696 -0.6778059803 0.4141519497 -0.6777408282 0.0469840081 -0.0256110666
495297030.0 0.0477444049 -0.0281946835 0.4062850396 -0.6822578378 0.406302925 -0.6826024024 0.0467239587 -0.0266272326
500297000.0 0.0479408288 -0.0292076562 0.3993211883 -0.68689647 0.3988732943 -0.6867643578 0.0453767666 -0.0267304859
505296970.0 0.0467881588 -0.0295716301 0.391112292 -0.6903298208 0.3908721169 -0.6911356456 0.044789884 -0.0274216252
510296940.0 0.0469863138 -0.0300529616 0.3834795752 -0.6957047736 0.3841353152 -0.6953989852 0.0455011729 -0.026964981
515296910.0 0.0460353976 -0.0302973292 0.3759497781 -0.6990883411 0.3761139579 -0.6993108077 0.0441490454 -0.0279953992
520296880.0 0.0458308978 -0.0312432649 0.367909139 -0.703541074 0.3686656367 -0.7035537814 0.0439933077 -0.0284281462
525296850.0 0.0453032587 -0.0320024666 0.3606586564 -0.7077566459 0.3610464669 -0.7082589227 0.0439561717 -0.0287870516
530296820.0 0.0450407838 -0.032263173 0.3528872243 -0.7106031314 0.3526840996 -0.711902006 0.0428910836 -0.0297119335
535296790.0 0.0440066963 -0.0330974074 0.3444217995 -0.7143520053 0.345782677 -0.7153194369 0.0425699634 -0.0300197843
540296760.0 0.0437920479 -0.0335880837 0.3373865962 -0.719392373 0.3369790029 -0.719421975 0.0415731533 -0.0300614634
545296730.0 0.0435158051 -0.033518912 0.3290304551 -0.72236154 0.3290567331 -0.7231507708 0.0412972984 -0.0309948297
550296700.0 0.0425371787 -0.0344359748 0.3217081143 -0.7261483855 0.3223458198 -0.7264813715 0.04077209 -0.0304817333
555296670.0 0.0425085311 -0.0350741134 0.3137477284 -0.7299551403 0.3137587374 -0.7300164913 0.040626891 -0.0308743338
560296640.0 0.0419629237 -0.0354850791 0.3056463047 -0.7331208493 0.3056834641 -0.7329362746 0.0398684071 -0.0313506499
565296610.0 0.0407266751 -0.0361669783 0.2971411398 -0.7366750864 0.2973984004 -0.7364675012 0.039172791 -0.0324197591
570296580.0 0.0410234359 -0.0363142182 0.2895211044 -0.7400144771 0.2897652953 -0.740263872 0.0388640123 -0.0315785347
575296550.0 0.0403536807 -0.0362162149 0.2812048788 -0.7420903873 0.28198459 -0.7424554535 0.0385813913 -0.03272733
580296520.0 0.0395283829 -0.0369881873 0.273559858 -0.745875969 0.2728550695 -0.7461930887 0.0374146908 -0.0334495325
585296490.0 0.0391755815 -0.0379490987 0.2652123354 -0.749524079 0.2651718618 -0.74833466 0.0369225941 -0.0336720391
590296460.0 0.0381440637 -0.0387266203 0.2567706806 -0.752067906 0.2563856455 -0.7520434587 0.0369084246 -0.0333444668
595296430.0 0.0379028032 -0.0383539077 0.2487373964 -0.7547123861 0.2485162005 -0.7549754702 0.0361323398 -0.0342119458
600296400.0 0.0373220119 -0.0385489312 0.2409545653 -0.7572383637 0.2407512284 -0.7574759918 0.035660229 -0.034100501
605296370.0 0.0368295815 -0.038399033 0.2326913227 -0.7600182256 0.2324905119 -0.7598829955 0.0352117305 -0.0350720255
610296340.0 0.0358567642 -0.0394086255 0.2241356436 -0.7625855448 0.2239289248 -0.7624353456 0.0342408606 -0.0343821726
615296310.0 0.0354686144 -0.0396307542 0.2152823634 -0.7647394776 0.2155782559 -0.7650446175 0.0342317688 -0.0351582432
620296280.0 0.0346173895 -0.0399718081 0.2072945933 -0.7663049163 0.2075115386 -0.7670431167 0.0335120946 -0.0359256333
625296250.0 0.0346030504 -0.0403944318 0.1981445398 -0.7693927426 0.1985400833 -0.7692778882 0.0329690904 -0.0356559761
630296220.0 0.0337211699 -0.0405626462 0.1900978385 -0.7716715216 0.1908387355 -0.7716103926 0.0318531275 -0.035905999
635296190.0 0.0332589675 -0.0408870476 0.1818326077 -0.7726990849 0.1817200201 -0.7729305846 0.0315683503 -0.036492445
640296160.0 0.0324252176 -0.0410148765 0.1738832458 -0.7750562339 0.1735928703 -0.7752023695 0.0316659364 -0.0368712604
645296130.0 0.0319172402 -0.0412636999 0.1650541108 -0.7775799593 0.1651277396 -0.7769652786 0.0297458307 -0.0375943069
650296100.0 0.0311889303 -0.0410130123 0.1568421414 -0.7783311984 0.157055174 -0.7787352463 0.029719002 -0.0372844803
655296070.0 0.0304001037 -0.0418714975 0.1481849717 -0.780272252 0.1481118782 -0.7801095391 0.0299326025 -0.0371226049
660296040.0 0.0292688648 -0.0417714157 0.1397482081 -0.7811532174 0.1392314511 -0.7816431711 0.0286891642 -0.0381450551
665296010.0 0.0295311618 -0.0425589264 0.1316744365 -0.7835611793 0.1315817557 -0.7832372452 0.0276330437 -0.0376082863
670295980.0 0.0292498427 -0.0424486531 0.1232899863 -0.784594252 0.1228455294 -0.7851447955 0.0270788849 -0.038165732
675295950.0 0.0286521626 -0.0425682929 0.113709498 -0.7856562247 0.1146035081 -0.7864197397 0.0271818308 -0.0383262824
680295920.0 0.0275357763 -0.0424406108 0.105042308 -0.7874872394 0.1053436169 -0.7873527092 0.0266551213 -0.0383914314
685295890.0 0.0267125969 -0.0429468947 0.096893844 -0.7882535226 0.0967935276 -0.7888887713 0.0259919971 -0.0382123104
690295860.0 0.0265738063 -0.0433300274 0.088219793 -0.7889027442 0.0879932004 -0.7887210482 0.0258972622 -0.0381441835
695295830.0 0.0264887455 -0.0433067407 0.0792509397 -0.7898648466 0.0792759015 -0.7903295552 0.024509866 -0.0386410565
700295800.0 0.0258232032 -0.0437925071 0.0710276694 -0.7907756797 0.0711977719 -0.7915313789 0.0237219257 -0.0394593217
705295770.0 0.0248820077 -0.0436853852 0.0626067502 -0.7914877853 0.0625581163 -0.7919304817 0.0230604657 -0.0388947737
710295740.0 0.0240827385 -0.0437690072 0.0538196302 -0.7921078038 0.0533808785 -0.7921484506 0.0219635321 -0.03880969
715295710.0 0.0234312811 -0.0438000111 0.0451776741 -0.7932888476 0.0451930766 -0.7931467091 0.02215473 -0.0400233316
720295680.0 0.0228555506 -0.0442926769 0.0365000451 -0.7928929815 0.036748975 -0.7937896228 0.0217939206 -0.0392206955
725295650.0 0.0223092316 -0.0442196342 0.0272466114 -0.7932902628 0.0277064315 -0.7934941318 0.0208957795 -0.0392567174
730295620.0 0.0212174619 -0.0447772715 0.0190625526 -0.7941091694 0.0191065192 -0.7939386241 0.0206565006 -0.0403590779
735295590.0 0.0213527053 -0.0442874366 0.011506987 -0.7940276985 0.0109121341 -0.7942045508 0.0197569002 -0.0395099649
740295560.0 0.0201528118 -0.0443323171 0.0016139483 -0.7931328784 0.0020615117 -0.7933983354 0.0199401542 -0.0399352131
745295530.0 0.0199135687 -0.0448228964 -0.006464491 -0.794148233 -0.0064087377 -0.7940813178 0.0184443166 -0.0398982656
750295500.0 0.0192029544 -0.0446875542 -0.0150308885 -0.7928557924 -0.0152569348 -0.7935572282 0.0184244477 -0.0403834006
755295470.0 0.019178808 -0.0442373186 -0.0237242514 -0.7934269816 -0.0237393951 -0.7935091767 0.0167162649 -0.0400782681
760295440.0 0.0180312551 -0.0445879899 -0.0326534161 -0.7934214799 -0.0326883503 -0.7930528931 0.0162851816 -0.0402621871
765295410.0 0.0166660638 -0.0450779472 -0.0408687161 -0.7926269751 -0.040767088 -0.7931838836 0.0166187101 -0.0395676069
770295380.0 0.0170264127 -0.0448466861 -0.0498047611 -0.7923741412 -0.0496310413 -0.7926212512 0.0159906018 -0.0396931517
775295350.0 0.0159774322 -0.0446245125 -0.0582107437 -0.7915499779 -0.057866089 -0.792257347 0.0145372586 -0.0410104731
780295320.0 0.0155267994 -0.044891404 -0.0666831229 -0.7909963883 -0.0664106782 -0.7909374084 0.0145367585 -0.0399617954
785295290.0 0.0146519124 -0.0444909754 -0.0759963469 -0.7892168818 -0.0756190017 -0.7903003126 0.0132492513 -0.0404380868
790295260.0 0.0140743441 -0.0447257249 -0.0841457085 -0.7894472376 -0.0841356389 -0.7898851406 0.0131176409 -0.0400119292
795295230.0 0.0133862206 -0.0445508818 -0.0923630826 -0.7879320053 -0.0922629172 -0.7883391415 0.0124065224 -0.0392026577
800295200.0 0.0126634277 -0.0444448866 -0.1013543691 -0.787529914 -0.1015154848 -0.7878475541 0.0119844844 -0.040002364
805295170.0 0.0120059268 -0.0447920752 -0.1093528142 -0.7856153795 -0.1099078604 -0.7860959741 0.0108997726 -0.0400966602
810295140.0 0.0115778931 -0.0446163809 -0.1179608133 -0.7849586358 -0.1180370454 -0.7852299027 0.0106277933 -0.0394445131
815295110.0 0.0107292361 -0.0444614891 -0.1273396133 -0.7837478027 -0.1272127781 -0.7840572956 0.0095167375 -0.0402571583
820295080.0 0.0103018268 -0.0449727875 -0.1352891163 -0.7821229112 -0.1351389117 -0.7827720248 0.0092821064 -0.0398324492
825295050.0 0.0094511147 -0.0447540853 -0.1439316323 -0.7803907983 -0.1435267967 -0.7802786294 0.0092134749 -0.0392588002
830295020.0 0.0087969068 -0.0444054119 -0.1525425885 -0.7786531614 -0.1527837391 -0.7791774151 0.0081778872 -0.0399242796
