!Created with skrf (http://scikit-rf.org).
# Hz S RI R 50.0 
!freq ReS11 ImS11 ReS21 ImS21 ReS12 ImS12 ReS22 ImS22
300000.0 -0.7723860273 -0.143855862 -0.0002395573 0.0007180276 0.0002559327 -4.229e-05 -0.0481047311 -0.0701623226
5299970.0 -0.7852704206 -0.0075982999 3.98761e-05 0.0001488363 0.0001038236 3.77912e-05 -0.0486238138 0.0143312251
10299940.0 -0.7873919492 -0.0035633727 -0.0001057953 -1.48119e-05 0.0001688664 -0.0001441582 -0.0430801158 0.031345484
15299910.0 -0.7934580584 -0.001493814 -6.58744e-05 6.133e-06 -5.7816e-05 -8.85133e-05 -0.0346770653 0.0456700169
20299880.0 -0.7992129514 0.0023422675 -5.61905e-05 1.02039e-05 -0.0001183145 -2.96471e-05 -0.0248842869 0.056912837
25299850.0 -0.8063170563 0.0080314951 0.0001474278 -0.0001067423 -0.000122195 3.59197e-05 -0.0145236579 0.0661195976
30299820.0 -0.811919074 0.0160363546 -0.0001000525 1.77907e-05 -3.05432e-05 -2.10187e-05 -0.0031753055 0.0724247078
35299790.0 -0.8166779211 0.0250509895 3.36281e-05 -0.0001991222 0.0001525824 1.23172e-05 0.008404541 0.0771693587
40299760.0 -0.8210588123 0.0346049727 3.3172e-05 -2.46961e-05 -4.66553e-05 -0.0002602393 0.019181339 0.0799105079
45299730.0 -0.8248999304 0.0442781331 -7.6546e-05 0.0002109595 0.0002240309 -0.0001498246 0.0295648341 0.0812717918
50299700.0 -0.8267246067 0.0539362892 3.10936e-05 -3.2307e-05 7.02166e-05 0.0001032826 0.0395134687 0.0813540584
55299670.0 -0.8287367505 0.0643701028 1.50268e-05 -2.13857e-05 -2.97678e-05 8.90807e-05 0.0485339115 0.0802125684
60299640.0 -0.8296790686 0.0746128672 -4.17408e-05 8.36457e-05 7.02881e-05 0.0001116777 0.0567661891 0.0784446292
65299610.0 -0.8307253107 0.0847644981 0.0001140547 -4.88704e-05 2.93208e-05 2.47047e-05 0.0642869973 0.0758878409
70299580.0 -0.8309925884 0.0948346402 8.05955e-05 4.5503e-05 7.73801e-05 3.28897e-05 0.0712978639 0.0727023683
75299550.0 -0.8312361727 0.1044320337 -5.01417e-05 3.77904e-05 6.11526e-05 2.25757e-05 0.0774815813 0.0699152934
80299520.0 -0.8311886654 0.1144901984 7.17141e-05 -3.82161e-05 1.28464e-05 7.39992e-05 0.0826217732 0.0662231652
85299490.0 -0.8308255762 0.1240572394 0.0001496169 9.61424e-05 0.000100861 -7.73327e-05 0.0877786134 0.0625112557
90299460.0 -0.8297923775 0.1338433755 -7.90437e-05 -0.0001146904 -2.4001e-05 0.0003104852 0.0923939821 0.0588088189
95299430.0 -0.8288455068 0.1439422861 -5.54269e-05 0.0002994929 0.0001776132 0.0001552332 0.0963447944 0.054865834
100299400.0 -0.8280800088 0.1529804155 -1.64412e-05 0.0001558768 -8.19188e-05 -6.3178e-05 0.0998242777 0.0507618041
105299370.0 -0.8266381981 0.1622700933 -0.0002735428 6.21883e-05 -4.00006e-05 -8.34119e-05 0.1032329159 0.0468449618
110299340.0 -0.8253709164 0.1710221806 -3.17001e-05 -0.0003657187 0.0001192022 4.06148e-05 0.1055371848 0.0430462781
115299310.0 -0.8239756213 0.1804982483 2.75957e-05 0.0001499472 0.0001558029 4.35555e-05 0.1080216727 0.0389119116
120299280.0 -0.82215957 0.1896653468 4.01152e-05 -8.44411e-05 -5.2155e-05 -0.0001432675 0.1103748232 0.0350281625
125299250.0 -0.8201394398 0.1982808941 -7.40207e-05 1.04039e-05 0.0001530803 6.04602e-05 0.1125106746 0.0307855251
130299220.0 -0.8185553085 0.2078713742 0.0001155868 8.08916e-05 -0.00010323 -0.0001532504 0.1138438471 0.0273844017
135299190.0 -0.8166274818 0.2169010904 0.0001936336 -1.66133e-05 -6.75809e-05 -5.46968e-05 0.1153859734 0.0234800362
140299160.0 -0.8147121216 0.2255223815 -0.0001517353 8.44477e-05 3.10376e-05 1.87803e-05 0.1165732724 0.0197561658
145299130.0 -0.8127003661 0.2345116744 1.17046e-05 -0.0001259857 0.00018539 0.000164236 0.1173276851 0.0166603343
150299100.0 -0.8102232629 0.2434577032 4.80609e-05 -4.73909e-05 -0.0001081213 0.000116675 0.1183713783 0.0128759752
155299070.0 -0.807825313 0.2522971081 -1.94592e-05 6.78442e-05 -1.41916e-05 0.0001225286 0.1188683348 0.0095231445
160299040.0 -0.8051328193 0.2611175369 0.0001440191 0.000209384 0.0001228862 -0.0001324814 0.11954577 0.0064158815
165299010.0 -0.8020280593 0.2692230888 8.80894e-05 -6.13583e-05 0.0001705495 -5.89202e-05 0.1198381512 0.0028246135
170298980.0 -0.7996397259 0.2779404916 5.95723e-05 0.0001970526 0.0001875941 3.83596e-05 0.1204883313 -0.0001079511
175298950.0 -0.7971345671 0.2873174397 0.0001031965 0.0001763879 -8.79045e-05 8.374e-07 0.1203813868 -0.0035425404
180298920.0 -0.7934634932 0.2950531177 -5.386e-05 -1.67182e-05 -0.0002277789 8.63333e-05 0.1206148203 -0.0062963272
185298890.0 -0.7906941507 0.3043022413 0.0001188477 3.12891e-05 0.0001670103 8.4325e-06 0.1205203665 -0.0094367083
190298860.0 -0.7873914779 0.3123824262 -3.26535e-05 3.16689e-05 0.0001309654 7.05592e-05 0.1206336675 -0.0120681032
195298830.0 -0.7838187949 0.3211153187 -6.81802e-05 -8.7321e-06 0.0001438597 2.71293e-05 0.1206421008 -0.0148766712
200298800.0 -0.7807930375 0.3298248149 4.5661e-05 0.0001341395 -3.90123e-05 0.000105947 0.1206779421 -0.0177664467
205298770.0 -0.7776050612 0.3371939762 -0.0001156936 -6.51004e-05 -0.0001059261 -2.03505e-05 0.1202896541 -0.0206169971
210298740.0 -0.7733617872 0.3457444662 0.0001348577 -8.23906e-05 -4.79604e-05 0.0001112291 0.1198623628 -0.0231826345
215298710.0 -0.7701293426 0.3542132761 -8.841e-07 1.40455e-05 3.58208e-05 9.66245e-05 0.1191010191 -0.0257320662
220298680.0 -0.7675122364 0.3624995406 0.000181529 -2.09595e-05 0.0002740041 0.0003040482 0.1191663629 -0.0281308205
225298650.0 -0.7631541777 0.3712039736 3.87218e-05 4.729e-06 0.0001026642 3.08379e-05 0.1182131984 -0.0303982925
230298620.0 -0.758831442 0.3787035297 -5.5506e-05 0.0001146142 0.0003135849 -3.72374e-05 0.1179224242 -0.0332821918
235298590.0 -0.7547328946 0.3871081994 0.0002399359 0.0001331314 -3.11271e-05 4.88748e-05 0.1172872821 -0.0355815982
240298560.0 -0.7512746317 0.39511063 0.0001516625 7.90277e-05 9.6598e-06 6.97142e-05 0.1167361828 -0.037541992
245298530.0 -0.7463183663 0.4029291618 0.0003835905 0.0001488832 3.44574e-05 -7.77479e-05 0.1156528302 -0.0398775469
250298500.0 -0.7424395884 0.410993664 4.42148e-05 -0.0001771871 9.08382e-05 -7.66445e-05 0.1153680119 -0.0419195959
255298470.0 -0.7377691341 0.4184876055 6.23038e-05 -0.0003060034 9.9468e-05 4.49829e-05 0.1146500745 -0.0444609475
260298440.0 -0.7342237301 0.4263488972 -1.403e-06 0.0001918124 0.0001548317 -0.0001125163 0.1137688523 -0.0465206076
265298410.0 -0.7292047786 0.4338258202 0.00023612 -3.46266e-05 8.72958e-05 0.0002046242 0.1127423077 -0.0483621878
270298380.0 -0.7249959228 0.4416099972 0.0002265086 -9.62855e-05 4.22231e-05 2.1063e-05 0.1122404928 -0.0507147593
275298350.0 -0.7196994915 0.4492774353 -6.60577e-05 0.0001917268 1.18557e-05 0.0001790875 0.1114557036 -0.0522870815
280298320.0 -0.7148517 0.456452096 -0.0001335623 1.72521e-05 5.40667e-05 0.0001935165 0.1105968665 -0.0544019002
285298290.0 -0.7104669981 0.4644252033 0.0002548207 -9.67017e-05 1.38587e-05 9.66959e-05 0.1094973107 -0.0561822865
290298260.0 -0.7055779162 0.4717520867 6.69872e-05 9.94566e-05 -4.31189e-05 -1.9162e-05 0.1090141756 -0.0582184512
295298230.0 -0.700881911 0.47961262 -0.0001512584 7.84164e-05 0.0001090635 2.08256e-05 0.1075002988 -0.0598825571
300298200.0 -0.6949880619 0.4862689205 0.00012933 -4.05045e-05 -5.02387e-05 9.60934e-05 0.1069445477 -0.0617100132
305298170.0 -0.6900688454 0.4941626654 0.0001576714 4.22816e-05 4.95146e-05 -1.61015e-05 0.1060170847 -0.0633455356
310298140.0 -0.6848075649 0.5009920625 0.000139828 -0.0001838679 -7.66685e-05 0.0002179645 0.1052737816 -0.0649681526
315298110.0 -0.6794535768 0.5078594236 0.0001872651 -5.87272e-05 0.0001600638 4.27668e-05 0.1040584347 -0.0669419736
320298080.0 -0.6745202331 0.5159927793 0.0003253882 -1.98227e-05 8.62375e-05 8.21508e-05 0.1029317612 -0.0688724623
325298050.0 -0.668564887 0.5219551254 0.0001037184 -0.0001713214 0.0002223376 -2.54635e-05 0.1016980935 -0.070730534
330298020.0 -0.6624962302 0.5289539059 -3.18786e-05 -6.81274e-05 0.0001686466 0.0001129367 0.1003693996 -0.0723527452
335297990.0 -0.6572412135 0.5359658579 -5.0208e-06 7.33938e-05 8.77386e-05 -7.3223e-06 0.0988900939 -0.0740443156
340297960.0 -0.6523668955 0.5430857507 3.77751e-05 6.44815e-05 6.38908e-05 0.000240551 0.0976396276 -0.0757499757
345297930.0 -0.6461170133 0.5494493397 -0.0001735207 0.0001564131 7.33541e-05 5.915e-07 0.0961664205 -0.0766930018
350297900.0 -0.6397846356 0.5563193076 6.72515e-05 -5.97143e-05 0.0001702095 -4.19274e-05 0.0949522149 -0.0781009968
355297870.0 -0.6342158317 0.562904846 0.000198415 0.0002021302 -0.0002598086 9.88219e-05 0.093614019 -0.0794332718
360297840.0 -0.6282537098 0.5688868945 -4.12237e-05 -8.68657e-05 5.69574e-05 0.0001354628 0.0921245138 -0.080482764
365297810.0 -0.6223363071 0.576079297 4.83231e-05 3.71712e-05 0.0001205772 5.22269e-05 0.0907401799 -0.0819277689
370297780.0 -0.6159193047 0.5814573929 0.0001730576 6.76193e-05 3.32417e-05 2.57795e-05 0.0891974361 -0.083240821
375297750.0 -0.6102190601 0.5885815475 6.3276e-05 0.0001331738 0.0001661405 -4.8088e-06 0.0879213759 -0.0841766672
380297720.0 -0.6042561277 0.5949692765 -0.0001732258 9.631e-06 0.000118919 1.35558e-05 0.0869165151 -0.0854797088
385297690.0 -0.5974177091 0.6011926854 0.0001919973 -1.47528e-05 0.0001243367 0.000211026 0.0852860355 -0.0860863705
390297660.0 -0.5915651563 0.6074594297 5.76221e-05 0.0001245864 0.0001763544 -8.82596e-05 0.0838369122 -0.0879901506
395297630.0 -0.5849085362 0.6132434443 2.32366e-05 0.0001887081 1.50271e-05 -6.60541e-05 0.0824808901 -0.0885730975
400297600.0 -0.5785512638 0.6191503822 0.0001033653 0.000104659 0.0001561614 2.13218e-05 0.0809333299 -0.0897561038
405297570.0 -0.5725778167 0.6250367581 -4.82888e-05 3.62153e-05 0.000119564 -9.52337e-05 0.0796067042 -0.0908239963
410297540.0 -0.5662930561 0.6306568067 4.6561e-05 0.0001100445 0.0001403926 0.0001024935 0.0781089327 -0.0916617665
415297510.0 -0.559330894 0.6365829909 1.86032e-05 5.31212e-05 0.0003046233 7.54832e-05 0.0764197871 -0.0925152218
420297480.0 -0.5518522118 0.6421486084 0.0003640787 8.719e-06 2.31956e-05 7.52703e-05 0.0750470758 -0.0936462
425297450.0 -0.545628649 0.6480951779 0.0001185391 3.88196e-05 -4.01981e-05 -5.19007e-05 0.0736288638 -0.0946259057
430297420.0 -0.5394249928 0.6534208133 0.0001213812 -9.32381e-05 8.49325e-05 -1.86517e-05 0.0725011937 -0.0953866323
435297390.0 -0.5323537906 0.6590861982 0.0001781462 5.34443e-05 0.0001456558 3.40378e-05 0.0708632462 -0.0959669263
440297360.0 -0.5253480207 0.6639578456 -0.0001815026 0.0001049165 0.0001970596 -0.0001366711 0.0690402445 -0.0973404904
445297330.0 -0.5179700437 0.6700700727 0.0003145518 -1.83815e-05 0.0001316917 0.0003392662 0.0675006518 -0.0984158368
450297300.0 -0.5112802769 0.674765879 0.0001059355 3.30789e-05 -5.18304e-05 0.0001653489 0.0659146353 -0.0988595207
455297270.0 -0.5040645999 0.6803926575 0.0001370911 -2.0184e-05 0.0001337662 1.96491e-05 0.0647743833 -0.0999210462
460297240.0 -0.4972046011 0.6854758663 -6.88365e-05 7.53264e-05 -8.68002e-05 -0.0001680658 0.062973277 -0.1003266314
465297210.0 -0.4898125988 0.6903103875 0.0001105485 6.6338e-05 5.54819e-05 -0.0001580281 0.061099298 -0.1013794889
470297180.0 -0.4827226807 0.6950973493 1.93764e-05 -4.68683e-05 6.28737e-05 5.45449e-05 0.0593507987 -0.1018072649
475297150.0 -0.476037456 0.7001870333 1.3005e-06 -0.0001787593 5.5431e-05 -0.0001001744 0.0582675158 -0.1024452656
480297120.0 -0.4690382866 0.7042938653 3.40136e-05 0.0001343585 9.7309e-06 -0.0002946782 0.0566088962 -0.1032713493
485297090.0 -0.4612234559 0.7090927362 4.97675e-05 -0.0001129056 7.50071e-05 -2.73615e-05 0.0544746681 -0.1039499267
490297060.0 -0.4543914007 0.7142030109 1.59257e-05 0.00019557 0.0002126724 -4.59963e-05 0.0529906608 -0.1043750719
495297030.0 -0.4470938932 0.7191526542 0.0002688793 2.48526e-05 0.0001042653 0.0002957843 0.0515485899 -0.105407089
500297000.0 -0.438329882 0.7233430998 -4.41082e-05 -7.29947e-05 4.83711e-05 2.59634e-05 0.0499799797 -0.1057267108
505296970.0 -0.4314553303 0.7273226154 0.0002114659 -7.77552e-05 -0.00012671 0.0001257365 0.0479996248 -0.1059685166
510296940.0 -0.4244096894 0.7321072701 0.0003039112 -6.71833e-05 0.0001170689 -6.0014e-06 0.0466672884 -0.1064857599
515296910.0 -0.4168912875 0.7362851795 -6.27019e-05 -0.000269139 1.78869e-05 3.45596e-05 0.0448332243 -0.107251863
520296880.0 -0.4086006966 0.7403708288 -0.0001065949 -0.0002300347 4.22581e-05 0.0001049256 0.0433735203 -0.1079287151
525296850.0 -0.4019277561 0.7447940062 -2.70867e-05 -3.91138e-05 4.33615e-05 -5.79757e-05 0.0415789633 -0.107901949
530296820.0 -0.3939742301 0.7480049496 0.0002551708 0.0001124233 0.0001375399 6.35271e-05 0.0396630891 -0.1085928343
535296790.0 -0.3866874066 0.7523619802 0.0002638013 5.74007e-05 0.0001249819 -1.6827e-05 0.0382102949 -0.1094937704
540296760.0 -0.3783520159 0.7559466365 -0.0001756689 2.16199e-05 0.0002221752 5.6759e-06 0.0362667673 -0.1093402279
545296730.0 -0.3712172151 0.7598722202 0.0001483148 -5.27901e-05 2.02455e-05 -7.36313e-05 0.0345906941 -0.109854302
550296700.0 -0.3636439322 0.7635326416 0.0002438412 7.31914e-05 0.0003036573 -9.2409e-05 0.0331110119 -0.110253954
555296670.0 -0.3549133463 0.7668172811 0.000151361 -0.0001883541 7.45117e-05 -0.0001610077 0.0311514245 -0.1107454533
560296640.0 -0.3470845308 0.7708380931 0.0001624593 -0.0001844287 0.0001487439 0.0001151734 0.0296260036 -0.1110099421
565296610.0 -0.3397366984 0.7737124404 0.0001845087 0.0002805825 0.0002625977 -3.44933e-05 0.02784743 -0.1112148731
570296580.0 -0.3317873543 0.7772683536 -1.7162e-05 9.727e-07 0.0001145692 -1.6227e-06 0.026462278 -0.1112565409
575296550.0 -0.3238214774 0.7804020218 0.0002533014 -6.85664e-05 0.0001157874 -1.15065e-05 0.0244309132 -0.1119624436
580296520.0 -0.315855775 0.7839907672 0.0001796092 0.0001275614 -6.9254e-05 -0.0001045069 0.022760889 -0.1116627523
585296490.0 -0.307304419 0.7866430299 -0.0002022257 0.000135151 0.0003620863 2.3555e-06 0.0212069235 -0.1126657467
590296460.0 -0.2993216701 0.7898275832 -0.0001150495 0.0002082802 0.0001869595 -0.0001245387 0.0195397497 -0.1124806368
595296430.0 -0.2913852073 0.793458766 7.64342e-05 3.959e-07 9.03626e-05 2.93653e-05 0.017713398 -0.1126373734
600296400.0 -0.283607435 0.7958011343 -8.45147e-05 4.53449e-05 1.44875e-05 8.46005e-05 0.015860359 -0.1128484103
605296370.0 -0.2753101362 0.7988123503 -6.28228e-05 -0.0001095685 1.8134e-05 3.98011e-05 0.0144163299 -0.1129164938
610296340.0 -0.267427048 0.8013829928 0.0001300278 -0.0001401427 3.65065e-05 -1.16225e-05 0.0126002507 -0.112660254
615296310.0 -0.259605037 0.8046671173 0.0002209411 0.0001189317 0.0002811048 -9.18262e-05 0.0111433373 -0.1131612818
620296280.0 -0.250655644 0.8058407429 0.0001072825 -4.17331e-05 0.0001066556 -9.66325e-05 0.0093115245 -0.1133774313
625296250.0 -0.2426601345 0.8089295783 0.0002948469 -8.3751e-05 -8.43428e-05 1.72048e-05 0.0075762202 -0.1129134381
630296220.0 -0.2345318045 0.8122428619 0.0003005614 8.15898e-05 0.0001797364 6.62849e-05 0.005921122 -0.1130751338
635296190.0 -0.2263020518 0.8141008904 6.72534e-05 6.3106e-05 0.0003277392 2.23022e-05 0.0041781385 -0.1129263305
640296160.0 -0.2179122056 0.8154810219 4.28839e-05 -0.000100986 2.58248e-05 5.65101e-05 0.002540623 -0.1131304921
645296130.0 -0.210208959 0.8178509975 0.0001462184 -3.45954e-05 0.0001354793 -0.0002313235 0.0004433974 -0.1132739658
650296100.0 -0.2016879769 0.8206646165 0.0002280369 -9.9612e-05 0.0001902115 3.8381e-06 -0.0012069357 -0.1128407217
655296070.0 -0.1930343412 0.8217360903 7.32178e-05 -3.62543e-05 0.0001097201 -6.43136e-05 -0.0027674825 -0.1125262647
660296040.0 -0.1852453518 0.824630293 0.0002476734 -6.71433e-05 0.000250439 -9.78975e-05 -0.0044461509 -0.1123408656
665296010.0 -0.1770693914 0.8255421267 0.0001180159 2.09885e-05 0.0001169059 4.54668e-05 -0.0059983782 -0.1122227555
670295980.0 -0.1675835914 0.8272637236 9.16695e-05 -0.0001166886 -0.0001078946 -8.5533e-06 -0.0075907169 -0.111791907
675295950.0 -0.1600054078 0.829186519 0.0001358433 0.0001043819 0.0002404401 8.71179e-05 -0.0089942385 -0.1118305795
680295920.0 -0.1516799981 0.83043674 0.0003470383 5.03765e-05 6.74959e-05 6.92e-06 -0.0109636823 -0.1116525871
685295890.0 -0.1426614001 0.8322515488 8.73313e-05 5.1377e-06 0.0002551941 9.38909e-05 -0.012584566 -0.1115017301
690295860.0 -0.1343071876 0.8339496724 6.43558e-05 0.0001801706 0.0001130301 0.0002073874 -0.0141769885 -0.1111480953
695295830.0 -0.1260062602 0.8343806472 0.0001804422 -0.0001849949 0.0002150151 -0.0001955206 -0.0164257532 -0.1109367833
700295800.0 -0.117970407 0.835517257 9.04383e-05 -0.0001265974 0.0001721713 -8.79316e-05 -0.0177048443 -0.1104440472
705295770.0 -0.1088854458 0.8376802859 0.0001649037 6.68491e-05 5.45707e-05 -2.71076e-05 -0.0193934372 -0.1099832236
710295740.0 -0.101173609 0.8381938982 0.0002452551 6.93704e-05 0.0001975553 -0.0002100299 -0.0212673494 -0.1094342868
715295710.0 -0.0929725181 0.8390478296 9.4801e-06 0.0001628131 0.0002474181 -0.0001315024 -0.0225234983 -0.1094182469
720295680.0 -0.0843142629 0.8398277023 -4.3908e-06 0.0001056972 -5.61052e-05 -6.07131e-05 -0.0242288056 -0.1086913985
725295650.0 -0.0749143551 0.8409286958 0.0001027221 7.59667e-05 0.0001306107 -2.11494e-05 -0.0260656947 -0.108487554
730295620.0 -0.0672851081 0.8410797824 0.0002090774 -0.0001071305 7.01621e-05 -1.62242e-05 -0.0273459451 -0.1080126838
735295590.0 -0.0579624775 0.8418863129 7.46869e-05 -0.0001524795 0.0001369695 -6.72734e-05 -0.0288917204 -0.1073113571
740295560.0 -0.050645476 0.8429892645 7.53035e-05 -3.43654e-05 0.00034528 -0.0002152336 -0.0306303982 -0.107244649
745295530.0 -0.0418597984 0.8426918797 8.96789e-05 -8.9042e-06 3.16816e-05 -4.19978e-05 -0.0325742664 -0.106375111
750295500.0 -0.0338145712 0.8433575164 0.0001704009 4.9988e-05 0.0002113487 -0.0001192708 -0.0340439187 -0.1059925953
755295470.0 -0.0244493376 0.8433191156 0.0001841366 2.1132e-06 -0.0001537299 -0.0001596429 -0.0356406673 -0.1053894102
760295440.0 -0.0161014314 0.8434807182 0.0001037877 4.52726e-05 7.78095e-05 9.2941e-06 -0.0372945542 -0.1048009537
765295410.0 -0.0076819347 0.8439605003 0.0003341164 -1.36839e-05 0.0001917042 2.56554e-05 -0.0387154002 -0.1039282907
770295380.0 0.0006277083 0.8445859213 0.0003100207 5.43631e-05 0.0002306934 -0.0002093673 -0.0399262821 -0.1035794748
775295350.0 0.0090239388 0.8437542583 7.45773e-05 -0.0001150165 8.643e-06 -0.0001314839 -0.0419917283 -0.1031122403
780295320.0 0.0179614467 0.8429699213 2.61931e-05 -7.4777e-05 6.00889e-05 2.10738e-05 -0.0433958962 -0.1021711069
785295290.0 0.0258980671 0.8435406044 0.0001265937 0.0001113284 6.11795e-05 -7.47896e-05 -0.0451088686 -0.1013784372
790295260.0 0.0346427375 0.8425615555 0.0001300555 3.18788e-05 0.0003130316 0.0001062446 -0.0461617732 -0.1009306848
795295230.0 0.0423227071 0.843529035 0.0001074036 6.30249e-05 0.000154262 -0.0002798819 -0.0479959094 -0.0999687402
800295200.0 0.0514510024 0.842435643 -8.2028e-06 -0.0001087867 0.0001862215 9.24487e-05 -0.0493082549 -0.099324284
805295170.0 0.059737008 0.8418490924 0.0002052325 0.0001255505 0.0001824543 -5.39004e-05 -0.051219417 -0.0983399777
810295140.0 0.0683718477 0.8410132782 2.05858e-05 4.91723e-05 9.79199e-05 0.000120642 -0.0524443023 -0.0975732121
815295110.0 0.0768343472 0.8398310122 5.95276e-05 1.02553e-05 0.0001076873 4.95634e-05 -0.0541260757 -0.0966100662
820295080.0 0.085085163 0.8393509836 -2.10803e-05 0.0001334322 -2.2266e-06 5.88733e-05 -0.0555157472 -0.0959978584
825295050.0 0.0941253773 0.838237035 0.0002245044 -6.45813e-05 0.0002526214 -0.000143487 -0.0568041613 -0.0949022977
830295020.0 0.1025029783 0.8373214052 0.0001842748 -8.6888e-05 0.0003096822 4.09378e-05 -0.058533204 -0.0941065418
835294990.0 0.1101223533 0.8370022964 0.0002028933 5.87491e-05 0.0001208061 -8.52877e-05 -0.0596962926 -0.0936386977
840294960.0 0.1190682877 0.835095722 6.64661e-05 -0.0001069631 0.0003362412 -8.23449e-05 -0.061292265 -0.0922292523
845294930.0 0.1267845324 0.8338407223 0.0001834656 -0.0003510475 0.0002072418 -0.0001318192 -0.0624593479 -0.0913808631
850294900.0 0.1349769452 0.8328967962 0.0002347327 -0.0002928848 0.0002132236 7.22845e-05 -0.0637970083 -0.0905339041
