!Created with skrf (http://scikit-rf.org).
# Hz S RI R 50.0 
!freq ReS11 ImS11 ReS21 ImS21 ReS12 ImS12 ReS22 ImS22
300000.0 -0.095976186 -0.0866911734 0.621513612 0.0816870184 0.6229118404 0.0852893958 -0.0950744156 -0.0956039764
5299970.0 -0.1004297603 0.0122415117 0.6303400304 0.0109967491 0.6306099657 0.011268463 -0.1019180201 0.0116406987
10299940.0 -0.0953647524 0.0296285071 0.6349366221 0.0157684094 0.6342280407 0.0164865853 -0.0970783601 0.0288334313
15299910.0 -0.0883615206 0.0430869405 0.6404441281 0.0203712084 0.6404002066 0.020899127 -0.089936689 0.041923144
20299880.0 -0.0793178189 0.0542792591 0.6486574658 0.023793678 0.6484093913 0.0245476925 -0.081648728 0.0532122588
25299850.0 -0.0696817482 0.0629492492 0.6578319432 0.0248217572 0.657964076 0.0252244747 -0.0723086191 0.0620736624
30299820.0 -0.0596622278 0.0691787575 0.6681425858 0.02474263 0.6672906342 0.0245230686 -0.0622398722 0.0687634094
35299790.0 -0.0493307807 0.0741415544 0.6773116637 0.0217176765 0.6774935266 0.0215260908 -0.0522199433 0.0735770722
40299760.0 -0.0395837871 0.0770253188 0.6866232278 0.0183028887 0.6866444127 0.0176682207 -0.0436285963 0.0771285246
45299730.0 -0.0302708248 0.0793617667 0.6955692287 0.0117834796 0.6961036994 0.0123726217 -0.0339119445 0.0791464441
50299700.0 -0.0216531521 0.0798839925 0.7031233371 0.0048765131 0.7034214555 0.00460445 -0.0254633327 0.0804377831
55299670.0 -0.0141327423 0.0798169023 0.7105384304 -0.0025986149 0.7109125423 -0.0026505845 -0.0177096883 0.0798544734
60299640.0 -0.006539561 0.0788441562 0.7170994402 -0.0114935456 0.717452273 -0.0113258193 -0.010202483 0.0797824577
65299610.0 -0.0002063265 0.0780091009 0.7235090504 -0.0193467132 0.7236356495 -0.0198424775 -0.00365706 0.0787081807
70299580.0 0.0060643419 0.0759703451 0.7285680023 -0.0294774738 0.7286770964 -0.0292809222 0.0026318265 0.0770309975
75299550.0 0.0117916297 0.0742972078 0.7330362746 -0.0392023153 0.7331750132 -0.0388614858 0.0081833479 0.0759557572
80299520.0 0.016151934 0.0721516224 0.7375696271 -0.0487002576 0.7374562748 -0.0488807109 0.0132391132 0.0729485578
85299490.0 0.0209367882 0.0693432655 0.7406185293 -0.0589863187 0.7406324579 -0.0590073055 0.0176854365 0.0710482897
90299460.0 0.0246840461 0.0673798256 0.7431988942 -0.0686323681 0.7437973276 -0.0690821554 0.022226075 0.0688486592
95299430.0 0.0281728987 0.0652511623 0.7458149357 -0.0791728372 0.7460936025 -0.0791072703 0.0252830985 0.0664906927
100299400.0 0.0313472098 0.0625958484 0.7472981624 -0.0891130569 0.7474005101 -0.0888979333 0.0284627798 0.064028337
105299370.0 0.0346348221 0.0601249149 0.7485091358 -0.0991306094 0.7488188734 -0.0991450588 0.0318298751 0.062001172
110299340.0 0.0370642273 0.0577899769 0.7501365563 -0.1087160139 0.7499972596 -0.1098294077 0.0347769076 0.0592456599
115299310.0 0.0396281574 0.054784099 0.7511286478 -0.1191692861 0.7509811051 -0.119467867 0.0372391179 0.0563739543
120299280.0 0.0413064361 0.0524901179 0.7515354181 -0.1296805906 0.7515414001 -0.1293169551 0.0389166269 0.0544242631
125299250.0 0.0432096149 0.0503707636 0.7519055818 -0.1394310333 0.7516381444 -0.1397568366 0.0412270302 0.0514467837
130299220.0 0.0449521882 0.0478466485 0.7518275269 -0.1490005384 0.7519145852 -0.1494968091 0.043302717 0.0496763063
135299190.0 0.0470658043 0.0453451672 0.7516231549 -0.1591325438 0.7508837136 -0.1589499839 0.044464281 0.0474588138
140299160.0 0.0477306629 0.0442496851 0.7508112051 -0.1683992227 0.750717875 -0.168361146 0.0461565948 0.0452956517
145299130.0 0.049212974 0.0419533231 0.7506249614 -0.1790233678 0.7498761835 -0.1783970585 0.0472062434 0.0426999017
150299100.0 0.0504711645 0.0398796959 0.7490234498 -0.1885832603 0.7491401351 -0.1879019082 0.0486037688 0.0409723832
155299070.0 0.0511417409 0.0381879402 0.7475964734 -0.1981077484 0.7477129443 -0.1986315082 0.0490203219 0.0389887072
160299040.0 0.0524346561 0.0358886795 0.7459158963 -0.2066660084 0.7460507106 -0.2070959682 0.0505914439 0.0371661713
165299010.0 0.0531691124 0.0343041195 0.7450904302 -0.216971252 0.7451536704 -0.2169103106 0.0514629435 0.0348536729
170298980.0 0.053456939 0.0326629537 0.7422899874 -0.2262157565 0.7425664167 -0.2265188868 0.052642438 0.0327164614
175298950.0 0.0542901414 0.030617895 0.7416633645 -0.2351874739 0.7413145957 -0.2354544614 0.0532270919 0.0311009294
180298920.0 0.0554191308 0.0292401537 0.7389743416 -0.2444514638 0.7390032029 -0.2440412331 0.053663507 0.0297272086
185298890.0 0.0561589883 0.0273242912 0.7366531053 -0.2540998217 0.7368583008 -0.2537368021 0.0543347082 0.0276482582
190298860.0 0.0563496804 0.02626258 0.7339997907 -0.2628537581 0.7346748799 -0.2633034884 0.0554017132 0.0261018528
195298830.0 0.0561907346 0.0241762579 0.7318396824 -0.2713528394 0.732184501 -0.2724745058 0.0558426251 0.024200692
200298800.0 0.0569505983 0.022892222 0.7297457811 -0.280141063 0.7293326288 -0.2802190543 0.0558070923 0.0230841228
205298770.0 0.0571841581 0.0214777423 0.7269523003 -0.2895160044 0.7264355315 -0.2896761246 0.0561118565 0.020697557
210298740.0 0.0568338329 0.0195948728 0.723604197 -0.2987965143 0.7236129806 -0.2988556046 0.0566562874 0.019846928
215298710.0 0.0580467057 0.0188026293 0.720671307 -0.3072671879 0.7204787824 -0.3067277249 0.0569609497 0.0183353169
220298680.0 0.0581375988 0.0172183298 0.7171429764 -0.3160279708 0.7172028904 -0.3156120363 0.0573282853 0.0171992676
225298650.0 0.0585501799 0.0163688785 0.7138598175 -0.3237801181 0.7140115159 -0.3244081737 0.0574321409 0.0154983496
230298620.0 0.0581677143 0.0149821613 0.7112329151 -0.3328993181 0.7109721527 -0.3328723246 0.0577799684 0.013989037
235298590.0 0.0586166405 0.0133621865 0.7074544526 -0.340874241 0.707206814 -0.341899167 0.0579022631 0.0125312491
240298560.0 0.0583873576 0.0122131736 0.7036197347 -0.3491303326 0.7040361984 -0.3492235048 0.0581046409 0.0117136163
245298530.0 0.0587050945 0.0113301692 0.6989563863 -0.3578371182 0.6999145695 -0.3582389019 0.0585894061 0.0105779785
250298500.0 0.0584267051 0.009720579 0.695948844 -0.3657773224 0.6962439048 -0.3658215127 0.0587226709 0.0087713306
255298470.0 0.0583755529 0.0090246789 0.6915702939 -0.3744024682 0.6923859679 -0.3741914669 0.0587542147 0.0073519627
260298440.0 0.0581938215 0.0077099866 0.6880126328 -0.3819046664 0.6883961959 -0.3826252848 0.059406058 0.0069075195
265298410.0 0.0591123363 0.0071545788 0.6837261105 -0.3909185244 0.6838291593 -0.390557386 0.0591469393 0.0051957836
270298380.0 0.0594725917 0.0055029051 0.6796108136 -0.3984306166 0.6801423079 -0.3982260737 0.0591302785 0.0050800537
275298350.0 0.058833923 0.0047645238 0.6755162291 -0.4073058054 0.6759301572 -0.406723127 0.0590099457 0.0036246165
280298320.0 0.0587767666 0.0038250468 0.6713386501 -0.4135126571 0.6711092847 -0.4143066264 0.0595107475 0.0025142578
285298290.0 0.0588775355 0.0029294827 0.6664524944 -0.4219101 0.6662506973 -0.4222029932 0.0587852669 0.001490568
290298260.0 0.0590611123 0.0016672484 0.662015485 -0.4294397402 0.6621363448 -0.4294316521 0.0594473989 0.0006506605
295298230.0 0.0588388748 0.0006492323 0.657801867 -0.4375473786 0.6573229921 -0.4371399002 0.0597411478 -0.0003212918
300298200.0 0.0594984547 -0.0001226267 0.6527772249 -0.445001291 0.6528972972 -0.4454124237 0.0594069653 -0.0014827284
305298170.0 0.0587433501 -0.00142705 0.6481800832 -0.4532122556 0.6485507745 -0.4526982983 0.0598507443 -0.0021119388
310298140.0 0.0596649247 -0.0025130148 0.6438500439 -0.4609338948 0.6436206694 -0.4605462878 0.0597307678 -0.0029145056
315298110.0 0.0589268582 -0.0032969611 0.638241503 -0.4681066175 0.6387213748 -0.4686686895 0.0599379714 -0.004535995
320298080.0 0.0585889598 -0.0044152688 0.632862174 -0.475654313 0.633520402 -0.4756408379 0.0596848686 -0.0061768728
325298050.0 0.0583718191 -0.0059189161 0.6281530914 -0.4835517765 0.6281958845 -0.4835572217 0.0591468872 -0.0068413058
330298020.0 0.0580393526 -0.0065614624 0.6216248829 -0.4904374681 0.6215738938 -0.4907474474 0.0588015636 -0.0083354674
335297990.0 0.0575971222 -0.0077643351 0.6164924779 -0.4974985229 0.6165019937 -0.4980275538 0.0582835457 -0.00885384
340297960.0 0.056743375 -0.0081777933 0.6105449674 -0.5044194771 0.6108245954 -0.5041604647 0.0574288382 -0.0095620025
345297930.0 0.0561485958 -0.0086327136 0.6046833235 -0.5108260386 0.6043784219 -0.5110191594 0.057772786 -0.0106692473
350297900.0 0.0563953453 -0.0094139408 0.5990355656 -0.517117139 0.5990997264 -0.5180043556 0.0570660134 -0.0106143871
355297870.0 0.0559627242 -0.0102439882 0.593434088 -0.5246567 0.5931416246 -0.5252663442 0.0564084113 -0.0113435343
360297840.0 0.0559937822 -0.0106952745 0.5877527764 -0.5319866975 0.5872207999 -0.5317549693 0.0567180872 -0.0116828313
365297810.0 0.0557269755 -0.0114551009 0.5814138847 -0.5376999922 0.5813994755 -0.5383895769 0.0559879576 -0.0121930112
370297780.0 0.055668834 -0.0121843753 0.5756782659 -0.5440321288 0.5756133801 -0.5450874334 0.056164489 -0.0126277526
375297750.0 0.0548735731 -0.0124491113 0.5702029204 -0.550742257 0.5693688606 -0.551021753 0.0556627442 -0.0135251617
380297720.0 0.0550171448 -0.0138049548 0.5635069878 -0.5569557745 0.5635826236 -0.5568430693 0.0553592645 -0.0142991759
385297690.0 0.0548006871 -0.0139461727 0.5571869862 -0.5630454316 0.5569561 -0.5638124794 0.0550062714 -0.014611291
390297660.0 0.0542818752 -0.0146874988 0.5508741791 -0.5695489291 0.551277892 -0.5704050478 0.0548356284 -0.0157370341
395297630.0 0.0546833026 -0.0158923615 0.5449389945 -0.575845288 0.5444835505 -0.575519383 0.0545750604 -0.0158615607
400297600.0 0.0537014746 -0.0157205648 0.5385545971 -0.5820232411 0.53886853 -0.58210783 0.0533069278 -0.0169315919
405297570.0 0.0540643616 -0.0165521667 0.5323821749 -0.5880989757 0.5320869567 -0.5881860412 0.0537690709 -0.0166642846
410297540.0 0.0534719955 -0.0175588172 0.5250531676 -0.5935783026 0.5251422183 -0.5940941155 0.0533882312 -0.0176770317
415297510.0 0.0532318461 -0.0171981876 0.519064037 -0.5994713029 0.5192512659 -0.5995280276 0.0528521275 -0.017790627
420297480.0 0.0531236533 -0.0191686655 0.5121213818 -0.6058864443 0.5122772406 -0.6057505248 0.0525690606 -0.0189853179
425297450.0 0.0534710335 -0.0196705143 0.5055410127 -0.6112782903 0.5063414185 -0.6111447919 0.0520720291 -0.0190988302
430297420.0 0.0524858354 -0.0196213233 0.4989100335 -0.6168189129 0.4996169665 -0.6169515786 0.0515094461 -0.0202671083
435297390.0 0.052595729 -0.0207407984 0.4919386481 -0.6220218782 0.4925861092 -0.6219306493 0.0509746888 -0.0200338933
440297360.0 0.0521585774 -0.0215047088 0.4852883758 -0.6270445665 0.4845581526 -0.6279500287 0.0508582375 -0.0213255293
445297330.0 0.0521457408 -0.0220662079 0.4778533664 -0.6332478962 0.4781388622 -0.6331211319 0.0505000431 -0.0216361511
450297300.0 0.051751279 -0.0225905165 0.4710757945 -0.6378518772 0.4712122254 -0.6389402549 0.0502454562 -0.0217940141
455297270.0 0.0512682066 -0.0232786223 0.4647508287 -0.6434514094 0.4650635917 -0.6438041553 0.0500737111 -0.0225218555
460297240.0 0.0506866012 -0.023790534 0.4571496018 -0.6484843897 0.4566785247 -0.6488352315 0.0497158908 -0.0227431372
465297210.0 0.0508806811 -0.0247979908 0.4498976118 -0.6540077491 0.4504932536 -0.6544262304 0.0485777366 -0.0237844272
470297180.0 0.0501185784 -0.025107294 0.4428647132 -0.6585323459 0.4434624246 -0.6588978186 0.0479994138 -0.0242906656
475297150.0 0.0492500686 -0.0265188248 0.4357027936 -0.6631104844 0.4359019444 -0.6632376322 0.0482285842 -0.024676428
480297120.0 0.0499394569 -0.0268678305 0.4285442261 -0.6682318116 0.4287892816 -0.668130949 0.0475991134 -0.0244071213
485297090.0 0.0493532944 -0.0274061212 0.4215984893 -0.6728556279 0.4214403911 -0.6734552258 0.0469031738 -0.0258479366
490297060.0 0.049193278 -0.0281335065 0.4140452925 -0.6775996385 0.4139519029 -0.6778446657 0.0469851794 -0.0258230164
495297030.0 0.0478673188 -0.0282784465 0.4060306284 -0.68223481 0.4061847204 -0.6824621841 0.0466218458 -0.0264982428
500297000.0 0.0479338952 -0.0292662705 0.3983768922 -0.6863070977 0.3987685363 -0.6867608835 0.0452363812 -0.0264922372
505296970.0 0.0470433213 -0.0297829666 0.3907395901 -0.6906864023 0.3908412959 -0.6910625075 0.0444472456 -0.0272302188
510296940.0 0.0469095041 -0.0301575329 0.3837250983 -0.6952554921 0.3835860657 -0.6956959145 0.0450201874 -0.027094834
515296910.0 0.0461153464 -0.0303920213 0.375476363 -0.6992154432 0.3758572456 -0.6995174649 0.0439216997 -0.0281077806
520296880.0 0.0460405682 -0.0313400123 0.3681527538 -0.7035240245 0.3682642806 -0.7033910365 0.044288172 -0.0284816443
525296850.0 0.0453673084 -0.0321164305 0.3603737773 -0.7076928898 0.3602525039 -0.7076234311 0.0438456436 -0.0288308285
530296820.0 0.0450257823 -0.03262767 0.353101068 -0.7110393056 0.3524564112 -0.7114298757 0.0426194687 -0.0299108133
535296790.0 0.0440446394 -0.033147048 0.3449156486 -0.7147639528 0.345520507 -0.7150363684 0.0426918621 -0.030103024
540296760.0 0.0440510166 -0.0339173501 0.337008291 -0.7195079607 0.3368362472 -0.7192024013 0.0414526181 -0.0301388529
545296730.0 0.0434144458 -0.0334993066 0.3288090771 -0.7219519962 0.3291589569 -0.7234305869 0.0414801383 -0.0313456523
550296700.0 0.0426720102 -0.0342991256 0.3212975052 -0.726652063 0.3220988283 -0.7266431005 0.0406622159 -0.030403902
555296670.0 0.0426315826 -0.0352477014 0.3136843198 -0.7295503485 0.3136319711 -0.729938108 0.0401219924 -0.0312412986
560296640.0 0.0417702479 -0.0355281861 0.3055822075 -0.7333157549 0.3054496027 -0.7333746206 0.0397744226 -0.0316446099
565296610.0 0.0408367158 -0.0364009156 0.297083769 -0.736360516 0.2967261827 -0.7366321071 0.0388048252 -0.0325273943
570296580.0 0.0410553392 -0.0365998061 0.2888867817 -0.7395570472 0.2897345904 -0.7398945386 0.0389139192 -0.0317240318
575296550.0 0.040469133 -0.036183168 0.2811727131 -0.7420568254 0.2813029904 -0.7429207123 0.0385503957 -0.0329330862
580296520.0 0.0395043162 -0.0375302981 0.2733287898 -0.7462388811 0.2727325907 -0.7461005449 0.0375970101 -0.0334678115
585296490.0 0.0392555006 -0.0380047556 0.2656335966 -0.7489365544 0.2650898994 -0.7489433529 0.0372288837 -0.033873256
590296460.0 0.0378289116 -0.0384404906 0.2566778804 -0.7516510797 0.2564117249 -0.7517659828 0.0369004108 -0.0333920293
595296430.0 0.0376742574 -0.0384948591 0.2486823991 -0.7544770922 0.2480435157 -0.7549932897 0.0364654592 -0.0342895679
600296400.0 0.0368224624 -0.038653814 0.2405062286 -0.7570565583 0.2407362306 -0.7571645717 0.0357380048 -0.034011362
605296370.0 0.036777689 -0.0387228594 0.2325310783 -0.759922424 0.2322874284 -0.7597464379 0.0352309233 -0.0350414026
610296340.0 0.0359525008 -0.0394452139 0.2242756732 -0.7625252167 0.2234972118 -0.7624557299 0.0346093281 -0.0346075532
615296310.0 0.0351186134 -0.0395567403 0.215244778 -0.7642304844 0.2151145739 -0.764799178 0.0344664963 -0.0350515985
620296280.0 0.0347193948 -0.040210617 0.2070992593 -0.7667148461 0.2075224134 -0.7672164598 0.0337091417 -0.035553394
625296250.0 0.0343105074 -0.0403865398 0.1981099236 -0.7695059648 0.1986648954 -0.7692574634 0.0333398004 -0.0356084944
630296220.0 0.0336211276 -0.0405962686 0.1900330246 -0.7713396047 0.1906673382 -0.7713696606 0.0319747046 -0.0360627412
635296190.0 0.0329405901 -0.0407423149 0.1815696528 -0.772813711 0.1813754302 -0.7728095698 0.0317118951 -0.0364507952
640296160.0 0.0323688623 -0.0409571324 0.1737411413 -0.7750010722 0.1735460077 -0.7752904852 0.0320352963 -0.0364681548
645296130.0 0.0320157427 -0.0411418459 0.1650429984 -0.777283242 0.1650901184 -0.7769269387 0.0296369287 -0.0374052751
650296100.0 0.0309988147 -0.0409614247 0.1568489762 -0.7780924281 0.1567862721 -0.7786751707 0.0298121888 -0.0372079673
655296070.0 0.0304063329 -0.0419218961 0.1479517229 -0.7799614206 0.1481656126 -0.7801863679 0.0301198682 -0.0366811409
660296040.0 0.0292476932 -0.0417101415 0.1397652384 -0.7813161154 0.1395912689 -0.7816869878 0.0288129678 -0.037972023
665296010.0 0.0294891614 -0.0423657526 0.1313179866 -0.7829697875 0.131903492 -0.7838649195 0.0279464036 -0.0371309703
670295980.0 0.029340826 -0.0421970725 0.1225401078 -0.7847519799 0.122779838 -0.7848543637 0.0269076765 -0.0382296594
675295950.0 0.0285993313 -0.0423942208 0.1136141677 -0.7861657483 0.1141300524 -0.7866597242 0.0269976139 -0.0377401239
680295920.0 0.0272210991 -0.0424800687 0.1052864116 -0.7870142222 0.1048671028 -0.787279714 0.0267974307 -0.0384900173
685295890.0 0.0265312282 -0.0428466095 0.0969468765 -0.7880078672 0.0963956126 -0.7885382993 0.0260032213 -0.0383184998
690295860.0 0.026678276 -0.0430949201 0.0881335398 -0.7886851493 0.0877863373 -0.7890845596 0.0256512957 -0.0378354443
695295830.0 0.0262373582 -0.0434308034 0.0787487648 -0.7900943635 0.0790910633 -0.7900068277 0.024264085 -0.0385142219
700295800.0 0.0258262359 -0.0433538523 0.0708235811 -0.7911045562 0.0706908727 -0.7911255416 0.0238056605 -0.0394644428
705295770.0 0.0248066479 -0.0434919851 0.0622789584 -0.7914031105 0.0624018232 -0.7915895069 0.0229917548 -0.0390127867
710295740.0 0.0242048802 -0.0433417044 0.0536165764 -0.7921667909 0.0535704091 -0.7918996465 0.0217244166 -0.0388205632
715295710.0 0.0233975375 -0.0438552939 0.0450189623 -0.7928638009 0.0452350629 -0.7929932544 0.021930105 -0.0398736582
720295680.0 0.0226078541 -0.0442116847 0.0363672117 -0.7924555166 0.0364826342 -0.7940014771 0.0216019626 -0.0390566278
725295650.0 0.0227746043 -0.04439313 0.0272346581 -0.7932171801 0.027638583 -0.7933269216 0.0210411902 -0.039229143
730295620.0 0.0213849104 -0.0444827514 0.019046512 -0.7933778348 0.0191314222 -0.7943361823 0.0204938206 -0.0402213917
735295590.0 0.0212052031 -0.0441828613 0.0107780714 -0.7935905613 0.0108853293 -0.7941696594 0.0195121809 -0.039331475
740295560.0 0.0200952898 -0.0442535834 0.0015604557 -0.793180957 0.0018504739 -0.7935627824 0.0195472376 -0.0399229656
745295530.0 0.0200953037 -0.0446930479 -0.0071791303 -0.7938902612 -0.0064109803 -0.7941745686 0.0182769855 -0.0397956006
750295500.0 0.0194581647 -0.0448526336 -0.0153267811 -0.7936443906 -0.0152664444 -0.7935811931 0.0180738798 -0.0401527183
755295470.0 0.0192739072 -0.0444334073 -0.0234603742 -0.7936347771 -0.0241775887 -0.7936490342 0.0165035926 -0.0401565883
760295440.0 0.0178120869 -0.044416209 -0.0328756531 -0.7929728951 -0.0330007338 -0.7932602297 0.0159222377 -0.0403935256
765295410.0 0.0169198587 -0.0453346324 -0.0403689312 -0.7927863883 -0.0410394367 -0.7925638208 0.0165827143 -0.0396839929
770295380.0 0.0169577971 -0.0448944169 -0.0500489798 -0.7920398644 -0.05001622 -0.7923795281 0.0157290243 -0.0399038385
775295350.0 0.0160580662 -0.044658004 -0.0584238407 -0.7911127481 -0.058175088 -0.7920179889 0.0144477151 -0.0410311603
780295320.0 0.0157629515 -0.0446633389 -0.0671580144 -0.7912011448 -0.0668928716 -0.7912088804 0.0141677792 -0.0399186677
785295290.0 0.0147025916 -0.0446973588 -0.075679653 -0.7891057286 -0.0755634706 -0.790199604 0.0128747889 -0.040417506
790295260.0 0.0140093749 -0.0445849779 -0.0839687375 -0.7894142447 -0.0839922562 -0.7896341564 0.0130788347 -0.0403051892
795295230.0 0.0134304037 -0.0447940834 -0.0923614678 -0.7876239673 -0.0926549228 -0.7884096978 0.012301041 -0.0397032893
800295200.0 0.01290727 -0.0446130574 -0.1018905663 -0.787634935 -0.1019233104 -0.7874854182 0.0119278292 -0.0400273825
805295170.0 0.011906876 -0.044669032 -0.1097568187 -0.7855499488 -0.1097794203 -0.7858692564 0.0108316922 -0.0402800769
810295140.0 0.0114032522 -0.0446624893 -0.1180356094 -0.7854531063 -0.1180795443 -0.7849701672 0.0107121406 -0.0396941536
815295110.0 0.0108443965 -0.0443607094 -0.1268895924 -0.7831425219 -0.1274947594 -0.7838835002 0.009433797 -0.0405210626
820295080.0 0.0102559252 -0.0448537514 -0.1350585664 -0.7821208989 -0.1355785096 -0.7822335859 0.0088298918 -0.0398516148
825295050.0 0.0094290213 -0.0449159052 -0.1436140223 -0.7797631827 -0.1438292473 -0.780068774 0.009066287 -0.0396281565
830295020.0 0.0086539205 -0.0442888773 -0.1526742815 -0.77827169 -0.1532112606 -0.7789833357 0.0080151469 -0.0401306481
