!Created with skrf (http://scikit-rf.org).
# Hz S RI R 50.0 
!freq ReS11 ImS11 ReS21 ImS21 ReS12 ImS12 ReS22 ImS22
300000.0 -0.2106707897 -0.081790872 -0.0005726874 0.0004663431 -0.0019313507 0.0017045072 -0.7706074546 -0.1609364958
5299970.0 -0.2142291786 0.008704143 6.39522e-05 -4.55e-05 -0.0001533213 -7.36698e-05 -0.7847034735 -0.0083505574
10299940.0 -0.2102889959 0.0212661329 -0.0001128877 9.31066e-05 -3.6476e-05 2.68942e-05 -0.7883896836 -0.0051089296
15299910.0 -0.2055837635 0.0311535468 -3.29425e-05 7.61068e-05 -6.87163e-05 2.0832e-05 -0.7933941485 -0.0032368319
20299880.0 -0.1993581024 0.0389804191 4.436e-05 0.0001885383 8.09149e-05 -7.3741e-06 -0.7999121371 0.0017433048
25299850.0 -0.1931295551 0.0455288727 3.00852e-05 -0.00014213 6.31839e-05 -0.0001153991 -0.8063578497 0.0075369339
30299820.0 -0.186316478 0.0504493559 0.0001690582 0.0001924374 6.31075e-05 0.0001607565 -0.8127080508 0.0145688668
35299790.0 -0.1798678728 0.0545058984 -3.02e-08 0.0001876876 4.41261e-05 0.0003066486 -0.8181114382 0.0240741747
40299760.0 -0.1740552924 0.0572345564 8.15043e-05 6.92843e-05 -8.08059e-05 6.36577e-05 -0.8218357857 0.0332487071
45299730.0 -0.168186725 0.059518248 9.65042e-05 -9.93017e-05 7.42807e-05 -6.49207e-05 -0.8255220078 0.0421581929
50299700.0 -0.1628796391 0.0605982079 -6.08837e-05 7.87428e-05 -2.506e-05 1.41071e-05 -0.8276420533 0.0524082044
55299670.0 -0.1583572911 0.061838572 2.6356e-06 0.0001211623 6e-05 0.0002564422 -0.8300412873 0.0631682202
60299640.0 -0.1540895948 0.0620790112 0.0001407454 4.58538e-05 6.27444e-05 -0.0001711573 -0.830913044 0.0732276617
65299610.0 -0.1500304094 0.0626144897 2.06921e-05 -4.8205e-06 -0.0001162024 1.93762e-05 -0.8313431253 0.0829636307
70299580.0 -0.146381607 0.0624437384 2.76643e-05 -1.03515e-05 4.10444e-05 -4.00547e-05 -0.8318027417 0.0930039967
75299550.0 -0.1431448292 0.0622518016 1.26213e-05 -8.8966e-05 9.7085e-05 -0.0001219171 -0.8329170687 0.1021703177
80299520.0 -0.1404705747 0.0628461253 6.19741e-05 -2.0991e-06 3.98319e-05 0.0001468967 -0.8322017038 0.112633913
85299490.0 -0.1376605054 0.0619702139 -0.0001304334 0.00016862 -9.3245e-05 0.0001020598 -0.8319330818 0.1220936469
90299460.0 -0.1354532681 0.0623058318 3.07267e-05 5.44022e-05 -1.40338e-05 -5.24444e-05 -0.8309325623 0.1313597691
95299430.0 -0.1333065814 0.0618732725 2.45154e-05 -1.80938e-05 -6.25955e-05 -6.3017e-05 -0.8298186716 0.1411463434
100299400.0 -0.1316549134 0.0618835553 0.0001808322 7.9386e-05 -4.90287e-05 8.3729e-06 -0.8289414552 0.1494942374
105299370.0 -0.1296646713 0.0617597841 -3.81364e-05 9.3605e-05 -9.86418e-05 -8.41581e-05 -0.8276747255 0.159264708
110299340.0 -0.1282359775 0.0613835073 -0.0001490275 8.84643e-05 6.18767e-05 4.95837e-05 -0.8267129897 0.1682759214
115299310.0 -0.126920614 0.0609093876 2.40831e-05 0.0002508592 -7.1629e-06 4.02896e-05 -0.8242717138 0.1768252166
120299280.0 -0.1257834211 0.0612431631 0.0002653474 -0.0001020182 -0.0002197898 0.0001755317 -0.8232663992 0.1863834976
125299250.0 -0.1246906242 0.0609434547 9.46377e-05 1.98967e-05 3.64821e-05 0.0002828672 -0.8218470882 0.1955252703
130299220.0 -0.1234979993 0.0615874677 -6.7782e-05 6.14904e-05 5.59675e-05 9.71881e-05 -0.8202128917 0.2044003324
135299190.0 -0.122478727 0.0612554976 -1.77094e-05 7.43746e-05 6.20431e-05 -6.46629e-05 -0.8180105057 0.2125518859
140299160.0 -0.1215265812 0.0614191997 -2.97387e-05 0.0002292606 -2.9762e-06 0.0001652681 -0.8159158726 0.2214494712
145299130.0 -0.1209159759 0.0615108795 -1.67151e-05 0.0002283767 0.0002586844 -3.12054e-05 -0.8133360823 0.2303761079
150299100.0 -0.120072452 0.0613245124 1.14357e-05 0.000221986 8.98191e-05 -3.68503e-05 -0.8116785571 0.2385389811
155299070.0 -0.1193061489 0.0622001355 -0.000126145 0.0001206814 1.34158e-05 6.5919e-05 -0.8093221952 0.2475555701
160299040.0 -0.1187269102 0.0623508785 5.0297e-05 -2.24611e-05 -0.000109443 -1.10705e-05 -0.8075235134 0.2566646606
165299010.0 -0.1180123926 0.0625887839 -0.0001862897 -1.42584e-05 7.81369e-05 -1.80382e-05 -0.8043257805 0.2647471669
170298980.0 -0.1174460634 0.0627757903 0.0001257628 0.0001134236 -9.10216e-05 9.821e-06 -0.8018886716 0.2733094469
175298950.0 -0.1166689156 0.0635824435 -7.42375e-05 7.51191e-05 -1.58385e-05 0.0001159417 -0.7991360974 0.2823908862
180298920.0 -0.1164177347 0.0636575255 0.0002665518 4.70331e-05 -3.60306e-05 7.24093e-05 -0.7955024154 0.2906851256
185298890.0 -0.1158785926 0.0643525882 0.0001379865 0.0001177009 -3.93757e-05 3.59253e-05 -0.7931392263 0.2983421213
190298860.0 -0.1154330706 0.064637808 -9.84621e-05 -7.70731e-05 -2.6277e-05 0.0001232143 -0.7893689669 0.3077255615
195298830.0 -0.1143412503 0.0651227546 5.9083e-05 0.0002345386 0.000113398 -5.52366e-05 -0.7867399995 0.3154159106
200298800.0 -0.1142526814 0.0659660876 4.6094e-06 0.0001261377 0.0002000783 4.12463e-05 -0.7838436948 0.3241723334
205298770.0 -0.1138084039 0.0664004305 -7.22121e-05 -6.6136e-06 0.0001125305 0.0001825916 -0.7798855828 0.3327791431
210298740.0 -0.1132363308 0.067329779 0.0001259817 -1.50737e-05 -4.07907e-05 0.0002243906 -0.7766470505 0.3407182704
215298710.0 -0.1129086812 0.0678237425 0.0001353151 9.41182e-05 2.96261e-05 2.61248e-05 -0.7733867142 0.3485373026
220298680.0 -0.1127022188 0.0684077998 0.0002564926 9.44163e-05 5.18905e-05 -6.51422e-05 -0.7697837672 0.3567212286
225298650.0 -0.1118580376 0.0689933219 0.0004325912 -4.94859e-05 -4.21176e-05 -6.7138e-05 -0.7659532247 0.3646706638
230298620.0 -0.1116031399 0.0700277982 -9.94698e-05 0.0001164194 5.3664e-06 6.75996e-05 -0.7612667202 0.3730376421
235298590.0 -0.1111530642 0.0708493306 -2.69178e-05 9.01426e-05 7.40707e-05 -3.29947e-05 -0.7578104593 0.3805397712
240298560.0 -0.110666549 0.0715401345 0.000180087 -4.76975e-05 0.0001509093 8.21405e-05 -0.7537613843 0.3888336163
245298530.0 -0.1100317327 0.0723764962 -0.0002517316 8.62441e-05 5.22043e-05 0.000117456 -0.7494889678 0.3964561643
250298500.0 -0.1097729831 0.0733596762 0.0002261213 3.28809e-05 3.1237e-06 -0.0001825715 -0.7454715084 0.4048120859
255298470.0 -0.109165416 0.0739226103 0.0002299138 0.000224072 0.0001823225 6.99308e-05 -0.7412456398 0.4125203944
260298440.0 -0.1085206786 0.0746625599 0.0003441372 0.0003300665 5.73946e-05 0.0001104813 -0.7366938075 0.4202542759
265298410.0 -0.1083047154 0.0756894953 7.4606e-05 0.0002895721 8.7129e-06 1.666e-05 -0.7325983009 0.427226125
270298380.0 -0.1076285853 0.0764556951 -2.90593e-05 6.66142e-05 -1.22483e-05 -0.0002555218 -0.7275374485 0.4354136168
275298350.0 -0.1071559371 0.0773506228 3.24569e-05 0.0001195268 0.0001203433 -8.87855e-05 -0.7230190736 0.4430313519
280298320.0 -0.1065257417 0.0783432056 5.60903e-05 -1.03292e-05 -5.7146e-06 4.52106e-05 -0.7185555831 0.4502791531
285298290.0 -0.1059364769 0.079390028 -0.0001097864 0.000138596 8.19088e-05 0.000173538 -0.7133565404 0.4578346321
290298260.0 -0.1052354038 0.0802524219 6.72738e-05 4.19054e-05 0.0001792753 0.0001976524 -0.708750903 0.4654879461
295298230.0 -0.1047483991 0.0811474463 4.79181e-05 0.0002150125 0.000156158 0.0001838681 -0.7037766937 0.4731585389
300298200.0 -0.1039845834 0.0819635643 -3.15761e-05 1.48693e-05 -4.4727e-05 6.8677e-06 -0.6986876067 0.4802760715
305298170.0 -0.1032813492 0.0829783998 0.0001961395 4.63699e-05 0.0001131792 -7.27746e-05 -0.6930117793 0.4879695928
310298140.0 -0.1026571212 0.0834412589 0.0003717034 0.000397384 5.03057e-05 -4.11241e-05 -0.6888602394 0.4946719525
315298110.0 -0.1026126661 0.0843132853 0.0001368612 0.0001160677 0.0001166861 -0.000113756 -0.6831849012 0.5021221987
320298080.0 -0.101879618 0.0853827018 3.53218e-05 8.15487e-05 -5.53574e-05 -1.04032e-05 -0.6778060789 0.5095783463
325298050.0 -0.1014083236 0.0859595054 4.93722e-05 0.0001085454 -0.0001096713 9.52249e-05 -0.6719906016 0.5165103965
330298020.0 -0.1008666717 0.0870303986 -0.0002372752 6.19393e-05 1.10628e-05 0.0001153799 -0.6668362357 0.5231818973
335297990.0 -0.1000356629 0.0881941796 0.0001279557 0.0001111254 0.0002510815 8.49122e-05 -0.6616232407 0.5299341816
340297960.0 -0.0997543337 0.0892477313 0.0002153289 4.01343e-05 0.0002131964 2.15388e-05 -0.6554811577 0.5370436805
345297930.0 -0.0993419544 0.090227036 0.0002307586 0.0001963432 0.0002573178 0.0001079983 -0.649597515 0.5437485981
350297900.0 -0.0985038866 0.0914459739 4.41774e-05 0.0001423606 3.06102e-05 -0.0001433716 -0.6441859149 0.5511051324
355297870.0 -0.0979192996 0.0921392567 0.0001581052 0.0001647685 0.000144194 9.4141e-05 -0.6380235016 0.5571847888
360297840.0 -0.0973155124 0.0932086217 8.21694e-05 4.27879e-05 -1.79796e-05 1.00364e-05 -0.6323486059 0.563973719
365297810.0 -0.0967185991 0.0940504885 -2.3379e-05 0.0002850324 3.58955e-05 -2.07438e-05 -0.6262045 0.5705209902
370297780.0 -0.0958718356 0.0952946954 -6.15342e-05 6.53449e-05 8.5554e-05 0.0001541831 -0.6205697575 0.5767085389
375297750.0 -0.0952478631 0.0964668482 7.25798e-05 -0.0002187713 0.0001398797 0.000196304 -0.614626791 0.5833913519
380297720.0 -0.0939582269 0.0971964784 9.21161e-05 3.48992e-05 7.75735e-05 0.0001216911 -0.6082949339 0.589931883
385297690.0 -0.0936245288 0.0983593751 0.0002248272 0.0001839901 0.0002087863 9.30428e-05 -0.6019671471 0.5960140134
390297660.0 -0.0929037823 0.0992409264 -3.00912e-05 0.0001899224 7.37187e-05 -0.0001123009 -0.5955312038 0.6016289815
395297630.0 -0.0921225422 0.1002101215 -3.58416e-05 -0.0001083027 0.0002334992 0.0002555324 -0.5891121481 0.6084538258
400297600.0 -0.0911332378 0.1013299423 0.0001034355 0.0001572268 0.0001588587 -1.07835e-05 -0.5832097823 0.6142692598
405297570.0 -0.0904794418 0.1023588049 0.0001635708 9.48558e-05 0.0001245893 0.0001424229 -0.5771416479 0.6201227398
410297540.0 -0.0894787543 0.1031331385 0.0002124471 4.39873e-05 0.0001308469 7.14296e-05 -0.5698343473 0.6252756181
415297510.0 -0.0885397913 0.1040025116 0.0001396801 0.0001881692 0.0001049343 7.79212e-05 -0.5635230099 0.6312636826
420297480.0 -0.0876618837 0.1051728554 0.0001046553 5.2972e-05 0.0003393217 0.0001648236 -0.5566688241 0.6367970142
425297450.0 -0.086695766 0.1058697893 0.0002270457 9.35931e-05 0.0002693036 -6.91933e-05 -0.5499282068 0.6433888846
430297420.0 -0.0861776536 0.1070442944 0.0001398544 -2.49464e-05 0.0001698344 9.3956e-05 -0.5433909837 0.6485012869
435297390.0 -0.0853210171 0.1081446206 0.0001187807 -1.107e-05 0.0001737986 -7.6597e-06 -0.5367665975 0.6536965191
440297360.0 -0.0842571647 0.1088448574 0.0002403894 -9.68805e-05 7.64783e-05 -3.6829e-05 -0.5298809165 0.6589323718
445297330.0 -0.0832370714 0.1099519826 7.90844e-05 0.000226237 -5.40831e-05 4.35743e-05 -0.5232095283 0.6640692278
450297300.0 -0.0822980845 0.1106215573 2.9222e-06 2.04827e-05 8.43179e-05 1.36222e-05 -0.5170286098 0.6696883384
455297270.0 -0.0813844145 0.1116951899 0.0001299846 -0.0001157509 0.000133092 0.0002388552 -0.5094073904 0.6747905426
460297240.0 -0.0806489787 0.1126266008 5.79709e-05 3.43291e-05 0.0001375862 0.0001568932 -0.5023085455 0.6802171403
465297210.0 -0.07954665 0.1139206114 0.000103897 -3.21393e-05 0.0001826112 0.0001622674 -0.4956143467 0.6847615566
470297180.0 -0.0785733473 0.1145192298 0.0001163167 -3.85749e-05 0.0001892177 2.2073e-05 -0.4895967688 0.6893501798
475297150.0 -0.0776177585 0.1157630733 0.0001177312 2.60758e-05 0.0002462531 8.84594e-05 -0.4815767336 0.6949047375
480297120.0 -0.0768587806 0.1164127687 2.6932e-06 6.75875e-05 0.0001472909 0.0001937626 -0.4749192239 0.7000289983
485297090.0 -0.0755455301 0.1173334876 0.0003061349 0.0001135551 0.0001366738 0.0001833882 -0.4674192011 0.7037784906
490297060.0 -0.0745132348 0.1179442927 0.0002178877 8.9502e-05 0.000100843 2.4995e-06 -0.4603666834 0.7086522923
495297030.0 -0.0734617042 0.1189220823 0.000337414 3.06722e-05 0.0001955302 -0.0001326069 -0.4529565141 0.7128829971
500297000.0 -0.0724562139 0.1198044479 0.000222975 2.72398e-05 0.0001140937 5.29989e-05 -0.4465241587 0.7178558477
505296970.0 -0.0717414169 0.1206110725 0.0002361757 -0.0001324158 0.0002966949 -0.0001084499 -0.4394494189 0.7219238368
510296940.0 -0.0703395847 0.1216647709 0.0002080166 1.95263e-05 0.0002737041 -8.38384e-05 -0.4318925126 0.7265356591
515296910.0 -0.0692544657 0.1226602553 0.000200258 0.0001012568 -1.53449e-05 -7.14694e-05 -0.424452847 0.7304930286
520296880.0 -0.0682649706 0.1231788329 0.0002240698 0.0001958417 0.0002825367 0.00018857 -0.417097758 0.7346997333
525296850.0 -0.066994992 0.124239935 0.0002741433 0.000197579 0.0002471087 0.0001680688 -0.4093950293 0.7393663051
530296820.0 -0.0658406631 0.1248431375 0.0003633692 0.000137302 0.0001999425 1.64614e-05 -0.4027796921 0.7425375386
535296790.0 -0.0648733996 0.1258500484 0.0001898775 9.56229e-05 0.0002597782 0.0001773642 -0.3950420601 0.7463149021
540296760.0 -0.0639159 0.1262838524 2.2592e-05 0.0002780406 0.0002572457 4.63252e-05 -0.3879499044 0.7506926945
545296730.0 -0.0625144966 0.1275042952 0.0002477123 0.0001002414 0.0002444825 3.78752e-05 -0.3803020265 0.7538925948
550296700.0 -0.0615462352 0.1282831973 0.0001033209 -2.57747e-05 0.0002253924 -7.14317e-05 -0.3729792985 0.7584154993
555296670.0 -0.0598820446 0.1288741792 0.0003262688 -7.16484e-05 0.0002661927 -1.53942e-05 -0.3651667508 0.7615285953
560296640.0 -0.0591583196 0.1294712071 0.0003779848 0.0001015975 0.000116238 6.81925e-05 -0.3573002853 0.7655449742
565296610.0 -0.0579581928 0.13057289 0.0002754367 -4.5791e-06 0.0001652512 0.0001244595 -0.3499203454 0.7694242471
570296580.0 -0.0567887264 0.1309872393 0.0001774971 1.30802e-05 0.0002230586 -1.85623e-05 -0.3427022063 0.773025701
575296550.0 -0.055129159 0.1319355033 9.79103e-05 5.60939e-05 0.0002628628 0.0002223051 -0.3344968032 0.7759629996
580296520.0 -0.0544448047 0.1326877362 0.0001098293 0.0001414367 0.0002385593 0.0002896101 -0.3267484513 0.7794206155
585296490.0 -0.053235419 0.1332756071 0.0004357661 4.45922e-05 0.0001269229 1.49683e-05 -0.3190721357 0.781650383
590296460.0 -0.0520541044 0.134085002 0.0005094402 6.87333e-05 0.0002758266 5.96218e-05 -0.3112066208 0.7843087629
595296430.0 -0.0505042821 0.1347476979 0.0003026408 5.53908e-05 7.7907e-05 7.12094e-05 -0.3033098158 0.7872402188
600296400.0 -0.049216143 0.1354298038 -5.7462e-06 0.0001091327 0.0002252283 -6.15915e-05 -0.2957362608 0.7916629256
605296370.0 -0.048115002 0.1358698868 0.00032841 -4.52101e-05 6.84192e-05 0.0001488933 -0.2883612823 0.7942547929
610296340.0 -0.0470136996 0.1364758211 -9.55995e-05 0.0001797899 0.0001536504 -8.68845e-05 -0.2796153485 0.7967869732
615296310.0 -0.0455719931 0.1375324078 0.0001401558 0.0003198422 0.0004831178 0.0001059139 -0.2718731452 0.79926788
620296280.0 -0.0444502824 0.1379417304 0.0002575311 7.98531e-05 0.0001630501 8.57347e-05 -0.2642093878 0.8014984379
625296250.0 -0.0429871608 0.1384686869 0.0003633835 -6.42895e-05 0.0002485895 -5.44537e-05 -0.2565848306 0.8046884145
630296220.0 -0.0416624833 0.1390808982 0.0001499783 -0.0002228417 0.0002956253 -1.72794e-05 -0.2480163908 0.8075545866
635296190.0 -0.0405449789 0.139841116 0.000355488 -5.64764e-05 0.0001173744 -0.0001971632 -0.2407873668 0.8088553105
640296160.0 -0.0389311471 0.1402898473 0.0002013254 0.0001768106 0.0003195662 7.01125e-05 -0.2321274287 0.8117441615
645296130.0 -0.037971198 0.1409913634 0.0004737004 1.34007e-05 0.0001137304 -4.70295e-05 -0.2247459757 0.8137369007
650296100.0 -0.0364624927 0.1413508359 0.0002755229 -0.0001094732 0.0003429285 0.0003083416 -0.2161691917 0.8163604884
655296070.0 -0.0351873327 0.1421551785 0.0002898831 0.0002021974 0.0002695553 0.0001224863 -0.2084499285 0.817944834
660296040.0 -0.033939251 0.1425331591 0.0003124498 5.80909e-05 0.0003779446 -7.33929e-05 -0.200194659 0.820695588
665296010.0 -0.0326661543 0.1428456578 0.0003102708 4.70129e-05 0.0001616397 4.6218e-06 -0.1924705186 0.8217040897
670295980.0 -0.0310158748 0.1436129312 0.0003938244 0.000189879 0.0001178969 2.1886e-05 -0.1841850124 0.8242014874
675295950.0 -0.0298252577 0.1440692026 3.0438e-05 8.72515e-05 0.0002591163 -3.31559e-05 -0.1760151376 0.8265039704
680295920.0 -0.0285703324 0.1448796225 0.0001684241 -6.02801e-05 9.45964e-05 -0.0001297605 -0.1676951681 0.828055095
685295890.0 -0.0271642747 0.1450840018 0.000263771 -5.09365e-05 0.0002977401 -0.0002301443 -0.1594868928 0.8292907596
690295860.0 -0.0256202348 0.1455025915 0.000130463 9.97988e-05 0.0001043224 -8.8205e-06 -0.1513257159 0.8307158595
695295830.0 -0.024478637 0.1458200895 5.70245e-05 -1.39102e-05 0.0001573198 3.30353e-05 -0.1432671458 0.8324814938
700295800.0 -0.0227754845 0.1466124592 0.0003661564 6.53406e-05 0.0002996201 -2.95747e-05 -0.1346330564 0.8333912083
705295770.0 -0.0215926934 0.1469386758 0.0002832783 0.0002205668 0.0002194179 6.67852e-05 -0.1273847002 0.8348277891
710295740.0 -0.0201393266 0.1471324334 9.76909e-05 -0.0001475139 0.0003076774 4.87162e-05 -0.1190883804 0.836515893
715295710.0 -0.0191745666 0.1475861149 0.0003820707 -0.0002773984 7.83894e-05 0.0001374044 -0.110176719 0.8377015624
720295680.0 -0.0174365911 0.1478571597 0.0001967711 -1.91268e-05 0.0003693184 -3.75092e-05 -0.1021771816 0.8384131819
725295650.0 -0.0157808923 0.1486334089 0.0003466252 0.0002158579 0.0002123399 -0.0002774117 -0.0935662972 0.8394252849
730295620.0 -0.0146184444 0.1487265157 0.0001885128 -0.0001274473 0.0001422401 -3.63724e-05 -0.0852466192 0.8399655667
735295590.0 -0.0129406316 0.1490211756 0.000217173 -0.0001031745 0.0001832514 -0.0001156008 -0.076363087 0.8408697809
740295560.0 -0.0117202315 0.1495609999 0.0003217359 0.0003182745 0.0001250578 3.66043e-05 -0.068799567 0.8412480488
745295530.0 -0.0102329808 0.1497669087 0.0002021153 3.22454e-05 0.0001931095 -0.0001242108 -0.0602981444 0.8424015563
750295500.0 -0.0089233213 0.1499071449 0.0004200954 8.47181e-05 0.0002497037 -0.0001398538 -0.0521065886 0.8421988859
755295470.0 -0.0072244575 0.1506342429 0.0003723719 -6.57189e-05 0.0004209145 5.85605e-05 -0.0443468796 0.8434263791
760295440.0 -0.0060229607 0.1507777745 0.0002911931 -0.0002090129 0.0002122713 -3.62864e-05 -0.0361769072 0.8431656746
765295410.0 -0.0046539383 0.15084761 0.0003753695 -0.000139984 0.0004177142 -8.19282e-05 -0.0272122679 0.8439945819
770295380.0 -0.0029627344 0.1513666389 0.0001560742 -7.15805e-05 0.0002091999 -0.0001108895 -0.0183361642 0.8440025106
775295350.0 -0.0015206672 0.1516134505 0.0002664369 2.742e-07 0.0002576069 1.23713e-05 -0.0109134625 0.8435617415
780295320.0 -5.8495e-05 0.1514815349 0.0003085866 -0.0001592475 0.0002508713 -8.01827e-05 -0.002224849 0.844695921
785295290.0 0.0014199863 0.1519322455 0.0001167473 0.0001210205 0.0002758832 -0.0002599315 0.0055933179 0.8443356085
790295260.0 0.0027165908 0.1521164483 0.0003912803 -0.0003042077 0.0002547082 3.12306e-05 0.0149204209 0.8444721316
795295230.0 0.0042615637 0.1525835144 0.0001654888 -0.0001317375 0.000416341 3.91205e-05 0.0230836711 0.844253276
800295200.0 0.0058233064 0.1526020404 0.0003835126 9.21109e-05 0.0002129955 -0.0001391558 0.0312987057 0.8435794731
805295170.0 0.007125693 0.1526063709 7.19283e-05 -0.0001511967 0.000402324 -0.0001285457 0.0391756809 0.8429428635
810295140.0 0.0086547885 0.152724659 0.0001695592 -0.0001633835 0.0005616464 0.0001672201 0.0473102175 0.8435520528
815295110.0 0.0102505336 0.1528551566 0.0002453328 4.67091e-05 0.0003952364 6.84007e-05 0.0556149131 0.842495341
820295080.0 0.0116488259 0.1527380246 0.0003807794 3.94719e-05 0.0002490529 -6.07387e-05 0.0639398934 0.8419606078
825295050.0 0.0134225326 0.1531142564 0.0001908928 -0.0001398218 0.0001868246 -4.07084e-05 0.0721562193 0.8415203849
830295020.0 0.0147563276 0.1533725975 0.0002201217 -5.18657e-05 0.0001880057 -9.21423e-05 0.0801562679 0.8406616388
835294990.0 0.0160424883 0.1534992743 0.0004325577 -0.0001887249 0.0004677239 -0.0001114965 0.0886613651 0.8393429083
840294960.0 0.017626893 0.1532625268 0.000168623 -9.284e-06 0.0004857622 8.03692e-05 0.0962553218 0.8391344453
845294930.0 0.0192575443 0.153581125 5.87775e-05 -0.0002156872 0.0001815123 -0.0002592989 0.1054536413 0.8375245279
850294900.0 0.0208093399 0.1531001406 0.0001691608 -4.33731e-05 0.0003065242 -0.0002427152 0.113631662 0.8367374426
