!Created with skrf (http://scikit-rf.org).
# Hz S RI R 50.0 
!freq ReS11 ImS11 ReS21 ImS21 ReS12 ImS12 ReS22 ImS22
300000.0 -0.2409552955 -0.0973539356 0.4682256443 0.0638036747 0.469973959 0.0675677153 -0.2372559064 -0.1083888248
5299970.0 -0.2438278848 0.0073502646 0.4738998645 0.005221893 0.4734940397 0.0056068125 -0.2438594853 0.0061423817
10299940.0 -0.2402620997 0.0198024483 0.4761232404 0.006335369 0.4756544639 0.0066730719 -0.2410916555 0.0181801535
15299910.0 -0.2359371908 0.0294418759 0.4790689708 0.0076868132 0.4792142782 0.0078972051 -0.2367072329 0.027434113
20299880.0 -0.2306037594 0.0373028973 0.4840838101 0.0082370633 0.4843226846 0.0083111444 -0.2319412646 0.0357085298
25299850.0 -0.2249091224 0.0434138038 0.4896573548 0.0072847188 0.4895992408 0.0074711052 -0.2268513683 0.0415609559
30299820.0 -0.2188296814 0.0483265275 0.4952597325 0.0057348248 0.4947522831 0.0055957146 -0.2216635026 0.0470976523
35299790.0 -0.2129206169 0.0526338558 0.5001005319 0.0022792589 0.5005858974 0.0024303449 -0.2162570578 0.0509852188
40299760.0 -0.2074671579 0.0556467826 0.5052210303 -0.0015873917 0.5052467237 -0.0015216683 -0.211543243 0.0545564507
45299730.0 -0.2025018776 0.0582227254 0.5101952736 -0.0066279398 0.5101549652 -0.0063133179 -0.2066184693 0.0572880432
50299700.0 -0.1976911929 0.0601183835 0.5140950555 -0.0122679027 0.5143835408 -0.0124721349 -0.2018388453 0.059830518
55299670.0 -0.1935398102 0.0617903968 0.5178464615 -0.0183062286 0.5183305404 -0.0178535711 -0.1981897975 0.0616894005
60299640.0 -0.1893941119 0.0625566585 0.5211917788 -0.0245220036 0.5212510972 -0.024430704 -0.1945551614 0.0632046258
65299610.0 -0.1860541837 0.0638529711 0.5242267811 -0.0304001078 0.5242798016 -0.0305516736 -0.1909032507 0.0645784374
70299580.0 -0.1824569274 0.0640904256 0.5264695495 -0.0370965691 0.5265862946 -0.0373102848 -0.188161906 0.0657213045
75299550.0 -0.179568582 0.065069213 0.5284835257 -0.0441424011 0.5285238548 -0.0440677472 -0.1851523201 0.066880851
80299520.0 -0.1774255618 0.0656189907 0.5313126173 -0.0506968081 0.5306130618 -0.0508542053 -0.1823828091 0.0673127094
85299490.0 -0.1747045585 0.065734628 0.5320975725 -0.0574866431 0.5320649977 -0.0581892647 -0.1800542528 0.0684099969
90299460.0 -0.1725431535 0.0665711149 0.5334781181 -0.0648153206 0.5332086513 -0.0648374147 -0.1778146495 0.0695426925
95299430.0 -0.1705771075 0.0671825099 0.5340658265 -0.0721590435 0.5341689814 -0.0715315155 -0.1759129461 0.0701168597
100299400.0 -0.1686698162 0.0676224063 0.5340204332 -0.0784885957 0.5345214769 -0.0789547204 -0.1743544153 0.0710859538
105299370.0 -0.1670813136 0.0681657236 0.5345479621 -0.0854258497 0.5347533271 -0.0855811744 -0.1721989145 0.0720354923
110299340.0 -0.1655447953 0.0685846324 0.5346443523 -0.0921849451 0.5348923624 -0.0923865683 -0.1709505753 0.0726046402
115299310.0 -0.1638515435 0.0686746581 0.5346582253 -0.0991530443 0.5351322451 -0.0991680428 -0.1689871643 0.0731772052
120299280.0 -0.1629222826 0.0692695095 0.5344556748 -0.106069723 0.5346430537 -0.1060861769 -0.167604823 0.0742505918
125299250.0 -0.1620434774 0.0697833553 0.5343837352 -0.1126436697 0.5343892007 -0.1127920136 -0.1664954255 0.074656559
130299220.0 -0.1605435901 0.0704013077 0.5337118864 -0.1190534545 0.5339614832 -0.1192824446 -0.1652908495 0.0757967818
135299190.0 -0.1593537909 0.0709403471 0.532913125 -0.1257697612 0.5325315643 -0.1261811564 -0.1642576736 0.0767364837
140299160.0 -0.1586647217 0.072140223 0.5322377426 -0.1326037149 0.5322317733 -0.1329760968 -0.1628281257 0.0778392668
145299130.0 -0.1574312888 0.0728458483 0.5314312548 -0.1394318924 0.5313272408 -0.1392900885 -0.1623707827 0.0787807603
150299100.0 -0.1566707469 0.0734467409 0.5303954423 -0.1462364453 0.5299172219 -0.1457694143 -0.1608121263 0.0799677993
155299070.0 -0.1558898197 0.0749213583 0.5291600887 -0.1529054757 0.5290678402 -0.1527620624 -0.1602498404 0.0810208581
160299040.0 -0.1547656195 0.0751933893 0.5277486231 -0.1583754158 0.5279539683 -0.1588230126 -0.1590991229 0.0825816275
165299010.0 -0.1543203211 0.0761393902 0.5263317568 -0.1655133344 0.5265919654 -0.1653253893 -0.1579464982 0.0830582264
170298980.0 -0.153573534 0.0771772503 0.5239951215 -0.1719175332 0.5243864237 -0.1718411041 -0.1568958748 0.0847141965
175298950.0 -0.1528354615 0.0782604799 0.5235737301 -0.1780033391 0.5232573433 -0.177950201 -0.1558508866 0.0856315073
180298920.0 -0.1518875937 0.0789202593 0.5212503293 -0.1845502331 0.5214468054 -0.1842820672 -0.154844013 0.087314289
185298890.0 -0.1510773709 0.0801531836 0.5192571436 -0.190633228 0.5195911278 -0.1905888514 -0.154326259 0.087995045
190298860.0 -0.1504441056 0.0812520129 0.517617334 -0.1969401262 0.5179509116 -0.1967872004 -0.1529862791 0.0892256381
195298830.0 -0.1495018767 0.0819701544 0.5158704939 -0.2024237031 0.5157849343 -0.2030421333 -0.1520585642 0.0905660986
200298800.0 -0.1488616603 0.0836674388 0.5137871682 -0.2084314909 0.5138150656 -0.2087857311 -0.1511327307 0.0921865328
205298770.0 -0.1481042127 0.0845028803 0.5115987515 -0.2147581124 0.5113508369 -0.2147085315 -0.1499194974 0.0934139739
210298740.0 -0.1477761387 0.0857571565 0.5093498478 -0.2213188261 0.5090134361 -0.221344603 -0.1489867872 0.0947200137
215298710.0 -0.146556062 0.0867244804 0.5070087424 -0.226658586 0.5067975907 -0.2266901715 -0.1482791799 0.0962902089
220298680.0 -0.1458264008 0.0879880639 0.5046337688 -0.233028597 0.5045622632 -0.2328497086 -0.1470458209 0.0976949768
225298650.0 -0.1448727646 0.0893122161 0.5015276342 -0.2382926669 0.501607605 -0.2384493917 -0.146272055 0.099205722
230298620.0 -0.1444669734 0.0905190008 0.4996569925 -0.2442625156 0.4995729734 -0.2445411513 -0.1449324279 0.1002116065
235298590.0 -0.1435945234 0.0917095206 0.4962698332 -0.2500115991 0.4966850281 -0.2504834667 -0.1440455074 0.1014778473
240298560.0 -0.1431813639 0.0930669148 0.4940650168 -0.2557452788 0.494041603 -0.2555307683 -0.1430331251 0.1032215194
245298530.0 -0.1417682412 0.0940509556 0.4907026279 -0.2613512193 0.4910398588 -0.2619119042 -0.1417500038 0.1048845395
250298500.0 -0.1416451084 0.0952523933 0.4887316773 -0.2668823631 0.4885431702 -0.2667317441 -0.1406005704 0.1059408462
255298470.0 -0.1407322646 0.0966889122 0.4855392944 -0.2728858363 0.4855027502 -0.2725405687 -0.1395279386 0.1072425162
260298440.0 -0.1396888318 0.097795682 0.4823557393 -0.2779774037 0.4824924664 -0.278390943 -0.1382131484 0.1089310233
265298410.0 -0.1387922572 0.0998091954 0.4793169462 -0.2846997828 0.4793152173 -0.2836741454 -0.1372258167 0.109804108
270298380.0 -0.1376494886 0.1007819931 0.4761064994 -0.2896169968 0.4765597306 -0.2895428341 -0.1360375751 0.111805081
275298350.0 -0.1369246496 0.1022021833 0.4731089642 -0.2952925104 0.4733622856 -0.2948805281 -0.1346566884 0.1132509198
280298320.0 -0.1362404256 0.1033547032 0.4699044616 -0.2997120164 0.4698875851 -0.3003087079 -0.1334375142 0.1148739485
285298290.0 -0.13495848 0.1047710506 0.466786969 -0.3052426518 0.4666493148 -0.3053973942 -0.1325585218 0.116323001
290298260.0 -0.1341428591 0.1056915612 0.4637405017 -0.3105520981 0.4635032862 -0.3105367134 -0.130710563 0.1179090309
295298230.0 -0.133334278 0.1071924154 0.4603085974 -0.316321157 0.4598124629 -0.3161403524 -0.1295474309 0.1194445134
300298200.0 -0.1320767983 0.1084190721 0.4568577358 -0.3214697605 0.4566742357 -0.3215596785 -0.1283743426 0.1206990021
305298170.0 -0.1308919358 0.10953259 0.4534322229 -0.3268475439 0.4534819291 -0.3266575117 -0.1269169573 0.1224436386
310298140.0 -0.1299228751 0.110676619 0.449910001 -0.3315766436 0.4497352563 -0.3322900068 -0.1253208288 0.1240639374
315298110.0 -0.1292543057 0.1117243002 0.4455145486 -0.3369666171 0.4460110976 -0.3374249431 -0.123712734 0.1248736618
320298080.0 -0.1281413793 0.1132258534 0.4422031436 -0.3422054628 0.4426003393 -0.3421072718 -0.1228035131 0.1259893322
325298050.0 -0.127388468 0.1140529315 0.4391377406 -0.3474043839 0.4386568281 -0.3473728321 -0.121503327 0.1274149058
330298020.0 -0.1264435057 0.1152171913 0.434377426 -0.3518462756 0.4343835384 -0.352290654 -0.1204175687 0.128699969
335297990.0 -0.1251844583 0.1165915083 0.43015547 -0.3572085569 0.4302223116 -0.3574221627 -0.1187033808 0.1302493655
340297960.0 -0.1248526167 0.1181504128 0.4260626749 -0.3620147517 0.4265730274 -0.3616208887 -0.1178841066 0.1318526422
345297930.0 -0.1238157953 0.119442245 0.4222459719 -0.3663599824 0.4217990629 -0.3663363379 -0.1163129443 0.1330932135
350297900.0 -0.1223017294 0.1208509932 0.4179563978 -0.3704601472 0.4184115538 -0.3714743675 -0.1149587443 0.1348975568
355297870.0 -0.1216417203 0.1219724467 0.4137258773 -0.3757374442 0.413889435 -0.3760408596 -0.1136605116 0.1362792017
360297840.0 -0.1202559978 0.1233073294 0.4094908429 -0.3804342453 0.4096271238 -0.3804653614 -0.1120327524 0.1378715667
365297810.0 -0.1190259317 0.1246767536 0.4050361809 -0.3848206749 0.4056129309 -0.3847190295 -0.110788912 0.139488652
370297780.0 -0.1179178645 0.1255196091 0.4012311036 -0.3889196693 0.4013846816 -0.3894490811 -0.1092406473 0.1406479046
375297750.0 -0.1169610101 0.1274997521 0.3971910317 -0.3940104417 0.3968046039 -0.3935890407 -0.1077208903 0.1421215352
380297720.0 -0.1156497651 0.1284583748 0.3927253981 -0.3979131287 0.3926523191 -0.3983099736 -0.1062173651 0.1439269198
385297690.0 -0.11425886 0.1297787391 0.3879685087 -0.4018177394 0.3879899575 -0.4022819304 -0.104565321 0.1452252384
390297660.0 -0.1134192657 0.1310630792 0.3836830836 -0.4066144032 0.3834648121 -0.4067771696 -0.1026034333 0.1461394568
395297630.0 -0.1117509818 0.132152192 0.3794829972 -0.4103682784 0.3792604435 -0.4107970397 -0.1015610923 0.1481404841
400297600.0 -0.1107386385 0.1335543427 0.374695962 -0.4147432267 0.3747262424 -0.4152911662 -0.100329595 0.1489998531
405297570.0 -0.1093738987 0.1347872049 0.3702369063 -0.4191926373 0.3701322014 -0.4196667183 -0.0985176018 0.1507745376
410297540.0 -0.107967597 0.1358498494 0.365089521 -0.4227040708 0.3652146325 -0.4227843692 -0.0964488145 0.1515613632
415297510.0 -0.1066716002 0.137425654 0.3602167522 -0.4270429513 0.3608626709 -0.4269163814 -0.0952548334 0.1534488232
420297480.0 -0.1051591513 0.1378992664 0.3560470881 -0.4314778027 0.3559858976 -0.4309058436 -0.0932569009 0.154222397
425297450.0 -0.1039318833 0.138906947 0.3509457675 -0.4347866935 0.3516872371 -0.4348379974 -0.0917133519 0.1555438384
430297420.0 -0.1026342434 0.1403700918 0.3466075803 -0.4392152362 0.3465665946 -0.4384967468 -0.0904812868 0.1565363647
435297390.0 -0.1014820161 0.1415518225 0.3415547511 -0.4420247928 0.3420164485 -0.4421073954 -0.0885635746 0.1583796952
440297360.0 -0.0997847252 0.1427124765 0.3365785346 -0.4462029414 0.3360873904 -0.4459515651 -0.0865707884 0.1587000055
445297330.0 -0.0982443178 0.1438066507 0.331417009 -0.4500449205 0.3317047475 -0.4497439076 -0.0849806705 0.1601915006
450297300.0 -0.0967378003 0.1446568642 0.3267259346 -0.4533468908 0.3268918721 -0.4535337777 -0.0832520489 0.1614811423
455297270.0 -0.0957673304 0.1459991777 0.3222818957 -0.4572180683 0.32227899 -0.4567669561 -0.0813828534 0.1628060039
460297240.0 -0.0947656473 0.1470259575 0.31681547 -0.4599927196 0.3162084644 -0.4605801916 -0.0794155115 0.1640700136
465297210.0 -0.09277708 0.1478735719 0.3118032876 -0.4635642501 0.3122339508 -0.4638255258 -0.0781065589 0.1646462928
470297180.0 -0.0913609166 0.1487602144 0.3069019003 -0.4671816361 0.3071031484 -0.4667634899 -0.0768413338 0.165820623
475297150.0 -0.0903471709 0.1497932045 0.3013071916 -0.4701116341 0.3020540238 -0.4699561703 -0.074494381 0.1669956489
480297120.0 -0.0884978787 0.1505977011 0.2963324997 -0.4733394271 0.2968138998 -0.4736305321 -0.0729767879 0.1683891175
485297090.0 -0.0867251234 0.1515650949 0.2914605537 -0.4767279782 0.2914008773 -0.4767729379 -0.0712112882 0.1687132861
490297060.0 -0.0853959548 0.1525498888 0.2860439242 -0.4798312556 0.2862340476 -0.4801241506 -0.0692782539 0.1700099599
495297030.0 -0.084187315 0.1537048399 0.2806953775 -0.4827703042 0.2806846902 -0.4826441309 -0.0672935801 0.1703760955
500297000.0 -0.0825585097 0.1545619814 0.2757752684 -0.4862531684 0.2755346372 -0.4859613645 -0.065758563 0.1714488107
505296970.0 -0.0811527533 0.1552199658 0.2696916865 -0.4882596411 0.2699522975 -0.4887645508 -0.0641359576 0.1729755263
510296940.0 -0.0795107139 0.1561866935 0.2646758427 -0.4919468691 0.2648074944 -0.4917664164 -0.0619650419 0.1737282184
515296910.0 -0.0784591163 0.1573137099 0.2592581805 -0.494160862 0.25974253 -0.4943501776 -0.0602755973 0.1744377698
520296880.0 -0.0763774176 0.1582254675 0.2539325657 -0.4972566292 0.254135473 -0.4968635035 -0.0579998884 0.1753753624
525296850.0 -0.075192394 0.1587303937 0.2488737684 -0.4996605118 0.2486928634 -0.5000048181 -0.0559118686 0.176247389
530296820.0 -0.0735762868 0.1593957437 0.2437634885 -0.5018342082 0.2432988836 -0.5025605013 -0.0549978004 0.1765551867
535296790.0 -0.0720571562 0.1605439224 0.2375323055 -0.5048402229 0.2379862665 -0.5050044364 -0.0528432666 0.1772866943
540296760.0 -0.070384281 0.1609412234 0.2321136428 -0.5077486575 0.2318535281 -0.5077198487 -0.0509996609 0.1787818317
545296730.0 -0.0688525794 0.1620438942 0.2270190325 -0.5096904392 0.2267209096 -0.5102302564 -0.0491046031 0.1789630084
550296700.0 -0.067493123 0.1629662156 0.221272335 -0.5128206508 0.2217330089 -0.5127672881 -0.0469617926 0.1801560084
555296670.0 -0.0655035872 0.1635320952 0.215625672 -0.5148583051 0.2158520063 -0.5152018596 -0.0451185413 0.1807324099
560296640.0 -0.0641090506 0.1645019581 0.2100779917 -0.5171124729 0.2100133122 -0.5170589852 -0.0431517227 0.181308485
565296610.0 -0.0630218058 0.1649603249 0.2049365554 -0.5194443136 0.2041501891 -0.519305443 -0.0412744282 0.1820594215
570296580.0 -0.0607410346 0.1659741385 0.1984895544 -0.5216178496 0.198918638 -0.5218790732 -0.0390951167 0.1832007012
575296550.0 -0.0591937916 0.1667510006 0.1929975221 -0.5233994813 0.193497524 -0.5238344249 -0.0371565674 0.1832604003
580296520.0 -0.057723475 0.167188382 0.187822337 -0.5257295549 0.1875811428 -0.5259388733 -0.0351300251 0.18374183
585296490.0 -0.0562006563 0.1678969002 0.1818444944 -0.5278139111 0.1817641184 -0.5274372538 -0.0334872887 0.1841623118
590296460.0 -0.0547339767 0.1684915159 0.1760542983 -0.529337384 0.1759245596 -0.5296841013 -0.0312520207 0.1848139163
595296430.0 -0.0528993677 0.1694095938 0.1702940343 -0.5312269533 0.1697183141 -0.5315728573 -0.0293037856 0.1850371675
600296400.0 -0.0512856301 0.169768006 0.1643904462 -0.5333210021 0.1647344442 -0.5333626524 -0.0271972907 0.1858503293
605296370.0 -0.0493150447 0.1707046626 0.1585368794 -0.5350873498 0.1587877938 -0.5349235873 -0.025470043 0.1863832039
610296340.0 -0.0479338208 0.1713016852 0.1533487011 -0.5364793611 0.1528743911 -0.536759668 -0.0231432794 0.1869747548
615296310.0 -0.0463903131 0.1721678593 0.1471683486 -0.5382398581 0.1472069096 -0.5379945669 -0.0209367325 0.1871902415
620296280.0 -0.044578395 0.1723922931 0.1410704614 -0.5396394223 0.1411482041 -0.5398697762 -0.019074662 0.1875199248
625296250.0 -0.0428572575 0.1728902602 0.1349670049 -0.541171598 0.1353683011 -0.5412268395 -0.0172478551 0.187949866
630296220.0 -0.0409389086 0.1736216099 0.1292190433 -0.5425892289 0.1299384418 -0.5425647216 -0.0153427009 0.1882719621
635296190.0 -0.0394469913 0.174135331 0.1235097333 -0.5436238615 0.123499012 -0.5435755006 -0.013564269 0.1884067383
640296160.0 -0.0380597789 0.174314889 0.1180165596 -0.54460974 0.117639072 -0.5450573106 -0.0108869895 0.1887001643
645296130.0 -0.036264392 0.1754588399 0.1118971609 -0.5465533357 0.1118599324 -0.5462202961 -0.0094896673 0.1887137272
650296100.0 -0.0345709778 0.1762067068 0.1064568808 -0.5472415864 0.1062907512 -0.547130517 -0.0072455539 0.1890467468
655296070.0 -0.0330057191 0.1762566375 0.0998963282 -0.5486277323 0.1000228221 -0.5485853556 -0.004895781 0.1894799811
660296040.0 -0.0315044687 0.1770792727 0.0942601561 -0.5492816648 0.0942878571 -0.5494645467 -0.003339925 0.1895841599
665296010.0 -0.0292339431 0.1770268748 0.0879099109 -0.5505905359 0.0885545979 -0.5503176308 -0.0015171878 0.1899296003
670295980.0 -0.0273097473 0.1776049987 0.0822906797 -0.5515824003 0.0829043872 -0.5513852934 0.0004902972 0.1899799917
675295950.0 -0.0258230796 0.1780603791 0.0761779668 -0.5520823087 0.0766405358 -0.5524569849 0.0029903258 0.1902965636
680295920.0 -0.0241210311 0.1788083677 0.0704197281 -0.5532592672 0.0702793491 -0.5529319544 0.0052359881 0.1902130638
685295890.0 -0.0224752989 0.1789165976 0.0645109801 -0.553460269 0.0639524012 -0.554013551 0.0072596567 0.1905616888
690295860.0 -0.0202451804 0.1794778087 0.0584436857 -0.5541298431 0.0578597959 -0.5540612526 0.0099526482 0.1906082466
695295830.0 -0.0183436902 0.1793923304 0.0513780599 -0.5545617375 0.0520225323 -0.5549416181 0.0110551785 0.1905382612
700295800.0 -0.0168008617 0.1800880836 0.0461364471 -0.5554833744 0.0461236363 -0.5551679268 0.0136306432 0.1901254953
705295770.0 -0.0149083377 0.1807122682 0.0405146005 -0.5559540746 0.0406075432 -0.5557145981 0.0151754085 0.190416779
710295740.0 -0.0134114898 0.1808667275 0.0344807676 -0.5558680702 0.0343330149 -0.5559217227 0.016900555 0.1905853456
715295710.0 -0.0116981924 0.1810375554 0.0281298792 -0.5564897612 0.0286242851 -0.5565971207 0.0192318723 0.1903216193
720295680.0 -0.0100565553 0.1809027286 0.0224280809 -0.5566000167 0.0223168605 -0.5570368452 0.0217607456 0.1902812255
725295650.0 -0.0076942004 0.1813213929 0.015706157 -0.5566985586 0.0164572032 -0.5567472053 0.023751389 0.190425205
730295620.0 -0.0064682551 0.1813581025 0.010160432 -0.556783713 0.0102257485 -0.5568059983 0.0259926171 0.189457226
735295590.0 -0.0042024489 0.1817414661 0.0045328355 -0.5571780641 0.0044865528 -0.5572576891 0.0280338842 0.1900364363
740295560.0 -0.0026833286 0.1820551888 -0.001475967 -0.5562819837 -0.001691669 -0.5570144565 0.0302137824 0.1894627367
745295530.0 -0.0009729742 0.182025673 -0.0077654853 -0.5567917886 -0.0073723275 -0.5569937829 0.0319096056 0.1894763822
750295500.0 0.0008704818 0.1822967341 -0.013348778 -0.556432645 -0.0138133348 -0.5568784149 0.034066683 0.1892127546
755295470.0 0.0033308288 0.182549432 -0.0196945503 -0.5564463086 -0.0194834979 -0.556773699 0.0356506303 0.1891532883
760295440.0 0.0043943264 0.1829565192 -0.0254894245 -0.5561769351 -0.0256853343 -0.5564718295 0.0378055514 0.1888105022
765295410.0 0.0061900705 0.1823329138 -0.0309164591 -0.5553793323 -0.0311694891 -0.5563893451 0.040807862 0.1886520184
770295380.0 0.008157981 0.1828393475 -0.0374690505 -0.5548499711 -0.0373806504 -0.5556470773 0.0424829896 0.1883857412
775295350.0 0.0101595146 0.1830292891 -0.0436621548 -0.5547822205 -0.0433635051 -0.554882346 0.0440894512 0.1876173672
780295320.0 0.0118689339 0.1829235323 -0.0491791963 -0.5547862295 -0.0492270717 -0.5543723293 0.0462554737 0.1877270237
785295290.0 0.0136322618 0.1833725479 -0.0553293845 -0.5536171711 -0.0556862518 -0.5539408043 0.0479320272 0.1873088915
790295260.0 0.0152437968 0.1830755796 -0.0617233626 -0.5537402828 -0.0613182797 -0.5535500471 0.0506458294 0.1867695672
795295230.0 0.0169019195 0.1831046381 -0.0673029661 -0.5519683681 -0.0669744934 -0.5525861651 0.0523803466 0.1869944258
800295200.0 0.0190405328 0.1833608908 -0.0738966856 -0.5517257071 -0.0735266778 -0.5518123637 0.0546389129 0.1858850648
805295170.0 0.0206965778 0.1831608085 -0.0791217128 -0.5503135157 -0.0792838465 -0.5504020933 0.0562946371 0.1854722917
810295140.0 0.0224952828 0.183139703 -0.0850012891 -0.5498494799 -0.0851859258 -0.5504598789 0.0588305544 0.1852754693
815295110.0 0.0243646182 0.1829598449 -0.0913845233 -0.5486823003 -0.0912152361 -0.5489635186 0.0604246504 0.184357499
820295080.0 0.0260020428 0.1824892607 -0.0968233402 -0.5481048631 -0.0971310889 -0.5481478812 0.0624193924 0.1839862444
825295050.0 0.0279824386 0.1825487582 -0.1029079958 -0.5464129713 -0.1027475895 -0.5468518481 0.0650084213 0.1836958492
830295020.0 0.0299694927 0.1827615019 -0.1087944421 -0.5452929543 -0.1094579886 -0.5458131 0.066538399 0.1831140033
