!Created with skrf (http://scikit-rf.org).
# Hz S RI R 50.0 
!freq ReS11 ImS11 ReS21 ImS21 ReS12 ImS12 ReS22 ImS22
300000.0 -0.0493474343 -0.0417889224 0.0004274325 1.03566e-05 -0.0002387594 0.000339339 -0.7736800036 -0.1306704751
5299970.0 -0.0486611248 0.0153809729 -9.98116e-05 6.02142e-05 7.85795e-05 3.0961e-06 -0.7848031314 -0.0069828723
10299940.0 -0.0432257042 0.0319512116 -0.0002939773 2.68863e-05 -2.54449e-05 -0.0001190443 -0.7880371321 -0.0035098971
15299910.0 -0.0351234471 0.0461008522 -5.79061e-05 -5.02031e-05 -0.0001043073 -6.19627e-05 -0.7932391323 -0.0013113019
20299880.0 -0.0252514454 0.0575594434 0.0001806235 -0.0001142472 0.00022032 -0.000164876 -0.7994093579 0.0024460998
25299850.0 -0.0143023656 0.0664529999 5.47926e-05 -1.94729e-05 -7.15635e-05 -9.13938e-05 -0.806048093 0.0084758934
30299820.0 -0.003268145 0.0729494038 4.96003e-05 0.0002488644 1.24722e-05 0.0001220468 -0.8123969731 0.0162261507
35299790.0 0.0076270444 0.0777171797 -8.55859e-05 0.0001875804 -7.54331e-05 6.13449e-05 -0.8168997551 0.0255421823
40299760.0 0.019202108 0.0804861088 -0.0001375914 0.0001465779 2.5716e-06 -7.75751e-05 -0.8212215446 0.0344509418
45299730.0 0.0295735371 0.0816088792 -1.01089e-05 0.0001019744 0.0001153666 9.89936e-05 -0.8248684341 0.043918857
50299700.0 0.0393065163 0.081643852 -8.52266e-05 3.04262e-05 -7.095e-07 -9.41973e-05 -0.8276281677 0.0544350418
55299670.0 0.0482810194 0.080337162 3.40918e-05 0.0001303933 -7.99629e-05 -1.50892e-05 -0.8296957608 0.0643580993
60299640.0 0.0569068892 0.0786712182 0.0001680613 -0.0001274761 -0.0003697964 6.59023e-05 -0.8306588627 0.0739606168
65299610.0 0.0643610979 0.0762536598 -4.07811e-05 9.1618e-05 -1.51727e-05 -2.92752e-05 -0.8319130087 0.0841935513
70299580.0 0.0708375419 0.0734543585 -0.0001030042 2.20851e-05 -7.81045e-05 2.75144e-05 -0.8319792948 0.0942873914
75299550.0 0.0774423578 0.0701547444 -8.14021e-05 7.47754e-05 -4.13596e-05 -2.0063e-06 -0.8319971648 0.1043667854
80299520.0 0.083050578 0.0665199963 -4.6716e-05 0.0001507814 3.07529e-05 -0.0001607523 -0.832387856 0.1141708273
85299490.0 0.0876927882 0.0627162699 0.0001726395 2.85179e-05 6.09797e-05 3.45572e-05 -0.831894182 0.1240473915
90299460.0 0.0922982331 0.0589722035 -0.000248407 1.99305e-05 0.0001905181 0.0001264921 -0.8307990641 0.1331995357
95299430.0 0.0963891948 0.0548372993 -3.90148e-05 1.52749e-05 6.60118e-05 -5.59428e-05 -0.8291467938 0.1431194445
100299400.0 0.0998824554 0.0513233676 0.00010259 8.1731e-06 2.86021e-05 0.0001825709 -0.828813252 0.1522647608
105299370.0 0.1029175489 0.0472068331 -5.35586e-05 9.54555e-05 0.0002105638 -2.90011e-05 -0.8271269599 0.1608799683
110299340.0 0.1059048773 0.043116684 0.0002085506 0.000141908 -7.46295e-05 -4.91774e-05 -0.8253099527 0.1706457671
115299310.0 0.1083649697 0.0391899618 6.4344e-06 7.92944e-05 9.58104e-05 7.74787e-05 -0.8238827129 0.1800267901
120299280.0 0.11023032 0.035163638 -3.62452e-05 -0.0001720688 3.5076e-05 0.0001246158 -0.8223703743 0.1891763195
125299250.0 0.1119384333 0.0312814378 1.78742e-05 4.30223e-05 -0.0001381421 -4.87625e-05 -0.8213775384 0.1977417392
130299220.0 0.1137073092 0.0280290362 -1.20308e-05 8.52809e-05 2.922e-07 2.66147e-05 -0.818973055 0.2070940402
135299190.0 0.1153176058 0.0244919589 9.38085e-05 -0.0001416919 -7.24857e-05 0.0001668824 -0.8165858957 0.2162257035
140299160.0 0.1162126114 0.0205881125 -4.52117e-05 -2.11734e-05 3.6039e-06 -9.3275e-06 -0.8144541746 0.2251455615
145299130.0 0.117613331 0.0169259671 3.12759e-05 -8.61586e-05 1.4548e-06 0.0001664606 -0.8122521338 0.234006036
150299100.0 0.1183391753 0.013538937 1.64045e-05 -0.0001282923 1.73306e-05 8.343e-05 -0.810716645 0.2435581108
155299070.0 0.1190682359 0.0103557823 -4.58896e-05 -2.03472e-05 0.0001427823 -0.0001059136 -0.8072723809 0.2516700499
160299040.0 0.1191382431 0.0072173226 -1.99144e-05 3.08198e-05 0.0002241257 0.0001028995 -0.8048799863 0.2606304231
165299010.0 0.1199254947 0.0036542301 4.412e-05 0.0002283026 0.0002504488 0.0002153127 -0.802596587 0.2697390005
170298980.0 0.1200335593 0.0011564011 9.98084e-05 0.0002632009 -4.04772e-05 -0.0001546897 -0.7993921529 0.2783447999
175298950.0 0.1205739089 -0.0024001393 0.0001406931 2.32588e-05 5.70463e-05 0.0001342631 -0.7967710658 0.2866371714
180298920.0 0.1205662548 -0.0052709077 0.0002156093 0.0001628132 -0.0001242337 0.0001989563 -0.7938504909 0.2951476987
185298890.0 0.1206742461 -0.0082555325 -8.89041e-05 4.38493e-05 5.38987e-05 -0.0001851037 -0.7902196232 0.3038926974
190298860.0 0.1206827893 -0.0112101437 0.0001490621 2.12327e-05 0.0001480467 -1.75338e-05 -0.7883438656 0.3122401601
195298830.0 0.1198554442 -0.0138022497 -3.98738e-05 4.10512e-05 8.07537e-05 -0.0001746665 -0.7846750349 0.3213519981
200298800.0 0.1201366663 -0.0163968123 0.0002392413 -3.64277e-05 9.03457e-05 0.0001300938 -0.781661888 0.3294302783
205298770.0 0.1196495065 -0.0192316011 -0.0002004321 3.34418e-05 0.0001854817 0.0002284211 -0.7778769733 0.3375385142
210298740.0 0.1190313094 -0.0218586716 -3.35878e-05 0.0001576925 0.0001352083 -1.97638e-05 -0.7744314083 0.3458672041
215298710.0 0.1185933238 -0.0244542744 7.74367e-05 -0.0001415256 -2.84164e-05 -0.000134938 -0.7705899317 0.3541590463
220298680.0 0.1181989333 -0.0271521597 0.0002596264 0.0001105372 2.0969e-05 0.0001439594 -0.7674407571 0.3618834135
225298650.0 0.1174664184 -0.029604803 3.00764e-05 4.17629e-05 9.00284e-05 0.0001191773 -0.7639187212 0.3701299723
230298620.0 0.1168013343 -0.0316126422 5.66695e-05 -3.7343e-06 0.0001971936 0.0001890619 -0.7598412598 0.3787456164
235298590.0 0.1163551413 -0.0340039107 -0.0001034588 -1.10686e-05 7.72797e-05 -2.13799e-05 -0.7553495401 0.3872314493
240298560.0 0.1157789375 -0.0366004552 0.0001642065 -2.06023e-05 4.20525e-05 0.0002030107 -0.7515670397 0.3956046555
245298530.0 0.11517807 -0.0385341637 -0.0001027074 0.000265335 -7.24718e-05 8.6872e-06 -0.7481079451 0.4023310179
250298500.0 0.1142190099 -0.0406842333 -7.50613e-05 6.11644e-05 -7.7696e-05 9.95807e-05 -0.7434070332 0.4102644446
255298470.0 0.1131409431 -0.0431900703 6.41837e-05 5.438e-05 0.0002054749 -2.63392e-05 -0.7389788066 0.4183611566
260298440.0 0.1121529274 -0.0451277892 7.40876e-05 0.0002140166 -2.84485e-05 0.000145925 -0.734678556 0.4262956428
265298410.0 0.1116489697 -0.0470698219 -2.4577e-06 -4.52476e-05 -7.64473e-05 0.0001778315 -0.7302039618 0.4339196756
270298380.0 0.1104851419 -0.0494009886 8.17137e-05 -8.81185e-05 0.0001074449 -5.36465e-05 -0.725297764 0.4411593528
275298350.0 0.1098918139 -0.0512343773 6.69764e-05 0.0001620259 0.0001058338 0.0002586047 -0.7210610064 0.4486982822
280298320.0 0.1087981332 -0.0530977942 0.0002835493 0.0001058075 -3.22003e-05 0.0001723969 -0.7157586066 0.4559878329
285298290.0 0.1080671458 -0.0548396561 -0.0001589385 -8.7493e-06 0.0001477836 0.0001683914 -0.7107731043 0.4636788513
290298260.0 0.107157348 -0.0569019845 0.0001192324 -0.0001985421 0.0001169619 5.38714e-05 -0.705805294 0.4711997272
295298230.0 0.1061805473 -0.0589358947 8.47794e-05 -1.67664e-05 2.35251e-05 0.0002126784 -0.7013093566 0.4781401131
300298200.0 0.1052315832 -0.0603980603 -1.03339e-05 5.24057e-05 4.93754e-05 8.27245e-05 -0.6957497234 0.4850895052
305298170.0 0.1038887665 -0.0623132341 0.0002240099 -4.27011e-05 7.40471e-05 0.0001677421 -0.6903710274 0.4932843934
310298140.0 0.1028569687 -0.0640446221 0.0002914392 0.0002845459 5.58511e-05 8.86989e-05 -0.6858166293 0.4996559962
315298110.0 0.1018696146 -0.0658559503 0.0001997612 7.429e-05 0.0001219427 2.06814e-05 -0.6798884254 0.5071752899
320298080.0 0.1009595688 -0.0681201748 0.0001289071 -1.17764e-05 3.47065e-05 0.0002273366 -0.6749019946 0.5146358314
325298050.0 0.099586096 -0.0697370167 -5.61423e-05 4.7441e-06 0.0002059665 9.80117e-05 -0.6690459074 0.521690104
330298020.0 0.0979589806 -0.0719237775 -0.0001836947 3.8203e-05 0.0001251344 -2.17035e-05 -0.6635937672 0.5287974266
335297990.0 0.0966340356 -0.0733675798 -2.9644e-06 -2.07138e-05 0.0001433457 8.93601e-05 -0.6586783509 0.5358663604
340297960.0 0.0950535619 -0.0747380696 0.0003929261 2.99444e-05 8.48324e-05 0.0001756916 -0.6526486087 0.5425580816
345297930.0 0.093411024 -0.0761302369 -8.8538e-05 6.2998e-05 4.38699e-05 -5.86894e-05 -0.6469514074 0.5482003816
350297900.0 0.0922479172 -0.0771864105 -6.1306e-06 0.0002744754 6.14243e-05 7.54431e-05 -0.6416901331 0.5554350967
355297870.0 0.0910069315 -0.0787601316 0.000137855 -8.53217e-05 -3.31874e-05 6.74019e-05 -0.6358979767 0.5620888241
360297840.0 0.0893709619 -0.0801329942 0.0002013608 5.26599e-05 0.0001642972 0.0001616755 -0.6298606395 0.568969843
365297810.0 0.087724188 -0.0811414369 9.80105e-05 -6.97524e-05 0.0001656501 5.02253e-05 -0.623144723 0.575621373
370297780.0 0.0866511377 -0.0824489749 -3.72005e-05 -5.19304e-05 0.0001265135 0.0001524817 -0.6173036647 0.5817457488
375297750.0 0.0853455712 -0.0836956702 0.0001149202 -0.0002153057 0.0001254529 5.40769e-05 -0.6111220141 0.5879454358
380297720.0 0.0837054649 -0.0851603307 0.0001645892 0.0001098781 -4.00415e-05 7.66987e-05 -0.6057501756 0.5941657182
385297690.0 0.0821378299 -0.0861208335 0.000256386 0.0004107371 0.0002694255 1.15344e-05 -0.5991510896 0.6011319438
390297660.0 0.0807737259 -0.0870168153 0.0001312491 5.29381e-05 0.0002017868 0.0002474371 -0.5930954773 0.6070268262
395297630.0 0.0794167148 -0.0885918755 0.0001927111 -8.63385e-05 -4.48981e-05 7.00953e-05 -0.5862662065 0.6134254395
400297600.0 0.0781943169 -0.0893257138 0.0001575056 -5.7881e-06 5.43109e-05 0.0001829237 -0.5810356674 0.61912873
405297570.0 0.0764583787 -0.0906775153 0.0001706174 7.88125e-05 6.34252e-05 -7.21419e-05 -0.5746522075 0.6247375473
410297540.0 0.0748736245 -0.0916301506 -1.82152e-05 -8.73513e-05 3.32876e-05 0.0001529087 -0.5674306753 0.6311286642
415297510.0 0.0737201695 -0.0929502187 0.0001665032 0.0001655533 0.0001145088 9.58505e-05 -0.5609088027 0.6362409857
420297480.0 0.0721485645 -0.0936627095 7.20972e-05 0.0001150528 -0.0001026824 1.25334e-05 -0.5544428813 0.6425150114
425297450.0 0.070734285 -0.0949413883 -0.0001755979 1.74771e-05 -1.33496e-05 0.0001566435 -0.547959515 0.6480113574
430297420.0 0.0691377466 -0.0957873505 0.0001015473 0.0001124833 1.72781e-05 0.0001700159 -0.5414449888 0.6530385408
435297390.0 0.0675352093 -0.0967366358 0.0001544744 3.85816e-05 0.0002013082 -7.14926e-05 -0.5340220544 0.6586791822
440297360.0 0.066135445 -0.0977534573 0.0002661045 5.27698e-05 0.0001431615 -1.65516e-05 -0.5273577071 0.6638595912
445297330.0 0.0644886033 -0.0986316179 8.09057e-05 0.0001629982 -8.90865e-05 -0.0002088351 -0.5203504228 0.6687656738
450297300.0 0.062860511 -0.0995882881 9.96385e-05 -8.97336e-05 0.0002067925 -4.42258e-05 -0.5131528393 0.6740765862
455297270.0 0.0614592967 -0.1001965086 0.0002673896 0.0001390596 0.0001631414 -6.78758e-05 -0.5067200787 0.6787998341
460297240.0 0.0597367515 -0.1010881934 0.0001560428 0.0002028043 0.000158623 8.48596e-05 -0.5000070012 0.6840732429
465297210.0 0.0582926378 -0.1018363086 4.61879e-05 0.000336077 8.6728e-06 0.0001852058 -0.4921331805 0.6893709202
470297180.0 0.0568078713 -0.1025976152 0.0001925074 -0.0001287031 1.21765e-05 4.10654e-05 -0.4848242092 0.694758138
475297150.0 0.0548930525 -0.1036216948 4.46555e-05 1.48226e-05 -0.0001689663 6.04948e-05 -0.4773229575 0.6989381099
480297120.0 0.0534912478 -0.1040404117 -1.08238e-05 -0.0001134481 9.9969e-05 -0.000147512 -0.470574362 0.7039377178
485297090.0 0.0517890045 -0.1047180093 -9.21607e-05 4.42192e-05 -7.9697e-06 -0.0001242052 -0.4635410749 0.7086354238
490297060.0 0.0499291913 -0.105042382 0.0002407232 -1.8791e-05 0.0001205462 8.15227e-05 -0.4560206221 0.7127275451
495297030.0 0.0486269672 -0.1060253314 0.0001699362 8.60291e-05 0.0001604787 0.0001469807 -0.4490320556 0.7180634734
500297000.0 0.0471074669 -0.1066696965 3.52448e-05 -0.0002684457 0.000355301 -0.0001135052 -0.4408142893 0.7226031349
505296970.0 0.0455933805 -0.1073967395 -0.000229984 -3.43755e-05 0.0001510863 1.9172e-06 -0.4336579667 0.7270267735
510296940.0 0.0437687032 -0.1079510751 2.7498e-05 -4.59795e-05 0.0005595897 0.0002477824 -0.4261449831 0.7311968313
515296910.0 0.0421692528 -0.1086577447 0.0002088489 0.0001642222 0.0002730307 -3.9504e-06 -0.4187186683 0.7358692547
520296880.0 0.0405007937 -0.1087853571 0.0001942586 -0.0001589631 2.80258e-05 0.000101147 -0.4113210485 0.7394133583
525296850.0 0.0390437659 -0.1097052339 -9.02271e-05 0.0001767261 0.0001682864 7.45141e-05 -0.4040072819 0.7442251617
530296820.0 0.0373012213 -0.1098118323 0.0001896825 6.056e-06 0.0001546753 4.91313e-05 -0.3964897446 0.7475902683
535296790.0 0.0356509968 -0.1103894505 0.0002636325 0.0001611972 -4.70905e-05 8.60615e-05 -0.3888210649 0.751355843
540296760.0 0.0338210323 -0.1106806821 0.000206388 0.0002496312 0.0001813031 -1.36966e-05 -0.3807579482 0.7559662563
545296730.0 0.0321054633 -0.1110252925 2.97262e-05 -6.27477e-05 0.000101481 -0.0001128917 -0.3733212778 0.7595800769
550296700.0 0.0309262612 -0.1114043458 0.0004347132 2.00261e-05 0.000107442 8.09323e-05 -0.3657633423 0.7638359275
555296670.0 0.0287795451 -0.1118137378 0.0001345994 -0.0002470222 0.0003996974 3.11779e-05 -0.3581895684 0.7673561002
560296640.0 0.0276891435 -0.1120612785 4.71229e-05 -5.00047e-05 -0.0001598072 0.0001760887 -0.3502026455 0.7705479502
565296610.0 0.0255220468 -0.1122845872 0.0001777426 6.89355e-05 3.17222e-05 -3.77737e-05 -0.3424204861 0.7738447596
570296580.0 0.0238597657 -0.1124991413 0.0001419031 -0.0001074101 1.87704e-05 0.0001272486 -0.3347371662 0.7777336607
575296550.0 0.0223535328 -0.1127118398 0.0001532951 -0.0001676752 -0.0001319694 8.77665e-05 -0.3264185022 0.7812120364
580296520.0 0.0207940449 -0.1131074289 0.0001688561 1.0444e-05 1.59588e-05 0.0001497738 -0.3183118985 0.7841235028
585296490.0 0.0187503614 -0.1136508801 0.0002966556 -0.0001241025 -1.21354e-05 0.0001777595 -0.3105272666 0.7875811647
590296460.0 0.0176188698 -0.1133099376 9.3759e-06 0.000204494 -1.17765e-05 -0.0001574426 -0.3028426215 0.7902753923
595296430.0 0.0153483226 -0.1135518257 7.11587e-05 -0.0001957702 0.0001267564 -0.0002699679 -0.2944419272 0.7928001393
600296400.0 0.0137937105 -0.1135407548 1.40741e-05 3.32013e-05 0.0002012773 0.0001814396 -0.2863782471 0.7954214933
605296370.0 0.0119699138 -0.1135726593 0.0001559861 8.7991e-06 0.0001893909 0.0001383586 -0.2781489549 0.7986856972
610296340.0 0.0105872115 -0.113904116 0.0001339199 0.0003112331 -1.70702e-05 5.90748e-05 -0.2704482697 0.8010145214
615296310.0 0.0090894174 -0.1141126716 0.0001182659 -3.29373e-05 6.91389e-05 0.0001847933 -0.2615489838 0.803988913
620296280.0 0.006833294 -0.1140103626 4.67656e-05 -0.0001088641 0.0001266786 4.38285e-05 -0.2543297326 0.8065822436
625296250.0 0.0056175648 -0.1142952583 0.0002359734 0.0003089474 0.0002165823 6.86183e-05 -0.245656969 0.8083272358
630296220.0 0.0039153447 -0.1141389847 5.62124e-05 -0.0002272038 0.0003610914 8.45345e-05 -0.2375318536 0.8109402056
635296190.0 0.0019593298 -0.1140072654 0.0001075763 0.0001205091 -7.5118e-06 1.31797e-05 -0.2292466732 0.8132263116
640296160.0 0.0004963085 -0.1142413891 7.7151e-05 7.95432e-05 -0.0001087745 1.99915e-05 -0.2209160772 0.815604542
645296130.0 -0.0012420264 -0.1136954172 0.0002842091 1.48021e-05 -0.0001717176 -7.02508e-05 -0.2130928776 0.8180730391
650296100.0 -0.003061611 -0.1135780649 6.81304e-05 0.0002555231 -3.94396e-05 -0.0001117078 -0.2049541452 0.8189348108
655296070.0 -0.0048633418 -0.1134681594 0.0002722535 0.0003661266 0.0001123619 0.0001094716 -0.1958683503 0.821197133
660296040.0 -0.0064713086 -0.1133636733 0.0003010427 -0.0003046231 0.0001648896 1.46284e-05 -0.1879472741 0.8236575247
665296010.0 -0.0077154907 -0.1136130551 0.0002058921 -9.13891e-05 8.48124e-05 3.22392e-05 -0.179213478 0.8252105885
670295980.0 -0.0098295199 -0.1131691217 0.0001504318 -0.0001177191 3.05246e-05 -0.0002189131 -0.1718438873 0.827027593
675295950.0 -0.0113223016 -0.1125965846 -2.95781e-05 -3.837e-06 0.0001761522 -0.0001517239 -0.163836478 0.8290623835
680295920.0 -0.0129238947 -0.1124911599 0.0001843614 4.2153e-06 0.0001361492 -4.34473e-05 -0.1550735228 0.8313937848
685295890.0 -0.0147152989 -0.112141375 5.21159e-05 0.0001113319 0.0001558967 0.0001794473 -0.1460177127 0.8319662783
690295860.0 -0.016200892 -0.1117915418 -6.64462e-05 0.0002188478 0.0001806455 4.74711e-05 -0.1383299813 0.8336728824
695295830.0 -0.0179871746 -0.1116772911 0.0003281779 -1.49757e-05 0.0001685657 -4.41964e-05 -0.1290683395 0.8345698855
700295800.0 -0.0197586702 -0.1115325133 0.0001013012 -0.0001041265 -8.45128e-05 8.96206e-05 -0.1213485306 0.8364376589
705295770.0 -0.0213975193 -0.1106878385 0.0001075968 -6.59793e-05 1.78828e-05 6.54065e-05 -0.1131519823 0.8380199496
710295740.0 -0.0229451106 -0.1104825035 0.000132807 -2.01987e-05 0.0001354182 -4.48557e-05 -0.1048830945 0.8387164544
715295710.0 -0.0246796504 -0.1101290919 -2.49698e-05 -2.95107e-05 6.49651e-05 3.5801e-06 -0.0957866717 0.8396409178
720295680.0 -0.0261813615 -0.1098892485 0.0001014734 4.27056e-05 0.0002587782 3.84597e-05 -0.0876100781 0.8408091491
725295650.0 -0.0277115926 -0.1091976016 7.34559e-05 0.0001666469 0.0002493865 -4.20441e-05 -0.0798703053 0.8419366327
730295620.0 -0.0293743134 -0.1086710566 6.99348e-05 0.0001591446 0.0001306152 -0.0001139507 -0.071608036 0.8421895251
735295590.0 -0.030797028 -0.1081104559 0.0002129764 8.00082e-05 5.48139e-05 -8.71281e-05 -0.0626833403 0.8427318553
740295560.0 -0.0327319165 -0.1075243054 0.0001599744 -0.0001166042 0.0002512981 0.0002015943 -0.053794929 0.8441416332
745295530.0 -0.0341442087 -0.1070877693 8.58246e-05 -0.0001081595 0.000161342 -1.82348e-05 -0.0456112991 0.8437342239
750295500.0 -0.0357579697 -0.1065107272 4.0993e-06 2.38492e-05 3.9641e-05 -0.0001111118 -0.0375687314 0.8444548334
755295470.0 -0.0374262887 -0.1059945738 0.0002234122 -4.25965e-05 0.0002930793 -0.0002015404 -0.0292625591 0.844134493
760295440.0 -0.0387683179 -0.1054096184 0.000215897 -3.07007e-05 5.71489e-05 -9.14565e-05 -0.0204010203 0.8447301255
765295410.0 -0.0403451004 -0.1047889566 0.0002112763 -0.000157071 0.0002644742 -0.0001057533 -0.0120723288 0.8448845584
770295380.0 -0.0421505371 -0.1040019176 0.0001320187 -0.0003607426 0.0001795534 7.9159e-05 -0.0038417771 0.8444373274
775295350.0 -0.0437817891 -0.1033846356 0.000141063 -4.0313e-05 0.000142719 -0.0002003512 0.0035579119 0.8442877042
780295320.0 -0.0451065991 -0.1028337163 0.0001229857 -0.0002295244 0.0001898096 5.01544e-05 0.0125324502 0.8443462673
785295290.0 -0.0467429675 -0.1021814981 0.0002929141 8.04774e-05 0.0001981706 -0.000193505 0.0213365439 0.8439142212
790295260.0 -0.0479488434 -0.1015221366 0.0004573284 -1.44768e-05 3.04561e-05 -0.0001074061 0.0301447797 0.8440185111
795295230.0 -0.0496145549 -0.1005406763 -0.0001419222 -0.0001168656 0.0002473274 8.62744e-05 0.038903206 0.8429351814
800295200.0 -0.0513106589 -0.0995581041 2.74946e-05 6.21075e-05 -1.8484e-06 -0.000187122 0.0471838976 0.8428292443
805295170.0 -0.0528233404 -0.0992108575 6.96379e-05 0.0002704233 0.0002057191 2.76709e-05 0.0551378006 0.842945582
810295140.0 -0.053781482 -0.0982994865 0.0002803018 -3.43603e-05 -1.24967e-05 -0.0001768341 0.0634047648 0.8416830189
815295110.0 -0.0556343712 -0.0975278034 0.0002085836 1.55662e-05 0.0002064624 -0.0001025295 0.0722882021 0.8406978815
820295080.0 -0.0571276687 -0.0962515132 -0.0001336582 2.97413e-05 3.28529e-05 -6.82522e-05 0.0807348169 0.8406612526
825295050.0 -0.0581460434 -0.0957430986 0.000353534 -2.80619e-05 3.45981e-05 6.10041e-05 0.0886861109 0.8401218271
830295020.0 -0.0599503556 -0.0948932999 0.0001716618 -2.30916e-05 0.0001258236 4.17122e-05 0.0977798098 0.8385094345
835294990.0 -0.0611608747 -0.0937280829 4.04213e-05 -5.21917e-05 0.0003390642 0.000205027 0.1054774131 0.8377080947
840294960.0 -0.0627632946 -0.09299912 7.5419e-06 -0.0003102946 0.000247152 -2.1948e-06 0.114162251 0.836731695
845294930.0 -0.0643293326 -0.0917326201 -4.97678e-05 0.0002660791 -0.0001335984 -1.40388e-05 0.1215561709 0.8348983024
850294900.0 -0.0653789375 -0.0909126359 0.0001113964 -1.07505e-05 0.0003305897 -0.0002011281 0.1300425325 0.834279505
