!Created with skrf (http://scikit-rf.org).
# Hz S RI R 50.0 
!freq ReS11 ImS11 ReS21 ImS21 ReS12 ImS12 ReS22 ImS22
300000.0 -0.7731515561 -0.1105425634 0.000218877 3.32634e-05 0.0003661072 0.0019309058 -0.0495127575 -0.0648317808
5299970.0 -0.7851799052 -0.0063396539 0.0003086493 7.94047e-05 3.72208e-05 0.0001055826 -0.0497167388 0.0153415088
10299940.0 -0.7881797243 -0.0044630268 0.0001772607 6.987e-07 8.71545e-05 0.0001413095 -0.0441841988 0.0336766628
15299910.0 -0.7933630187 -0.0022532586 -9.00867e-05 0.0001656346 -0.0001969161 -5.04194e-05 -0.0357716635 0.0480313277
20299880.0 -0.7998255718 0.0017905119 -0.0001696867 9.3774e-06 1.91725e-05 -7.0283e-05 -0.0253515768 0.059937013
25299850.0 -0.8064812107 0.0076525855 -5.96524e-05 8.13649e-05 7.68348e-05 -0.0002134691 -0.0139370459 0.0693936234
30299820.0 -0.8125206694 0.0153763093 2.94935e-05 -5.65729e-05 -0.0001189903 3.77251e-05 -0.0023555477 0.0759266698
35299790.0 -0.8173655383 0.0246806441 0.0002478916 0.0001069231 8.10533e-05 -0.000105339 0.009153742 0.0810856872
40299760.0 -0.8217580583 0.0340467492 0.0001421368 -0.0001403225 -3.51217e-05 -3.9882e-05 0.0208156552 0.0834462684
45299730.0 -0.8250527642 0.0427857176 0.0002104386 2.28073e-05 -2.32729e-05 2.5539e-06 0.0314328063 0.0850921138
50299700.0 -0.827437407 0.0533497755 -0.0001373153 -0.0001448218 5.01668e-05 -5.8078e-05 0.0414573242 0.0848212526
55299670.0 -0.8292031414 0.0626660044 -0.0001127989 6.64723e-05 2.456e-06 2.06938e-05 0.0510496011 0.0833597768
60299640.0 -0.8301493293 0.0737072766 9.81784e-05 4.44733e-05 0.0001527173 -0.0001840762 0.0595084424 0.0817178479
65299610.0 -0.8313764058 0.083578989 -9.16631e-05 -3.61454e-05 0.0002058047 9.98042e-05 0.0671112239 0.0788435696
70299580.0 -0.8320064862 0.0935032269 3.87706e-05 -9.31488e-05 -0.0001237163 0.0001272066 0.074266047 0.0758456633
75299550.0 -0.8316722885 0.1037299389 2.14761e-05 0.0002320856 6.5004e-06 8.78542e-05 0.0805166947 0.0722830695
80299520.0 -0.8320869443 0.1135326508 9.71228e-05 5.16251e-05 0.0001150767 4.33295e-05 0.0859973593 0.0691708701
85299490.0 -0.8307138742 0.1225983144 0.0001039658 -0.0002630314 -0.000193905 7.30434e-05 0.0911911685 0.0650709756
90299460.0 -0.8305135472 0.1316645023 2.04328e-05 -3.93621e-05 -1.67852e-05 9.47262e-05 0.0956817904 0.0609782216
95299430.0 -0.8293733074 0.1416899193 -0.0001461901 6.17463e-05 7.3226e-05 -2.65171e-05 0.0997518395 0.0570487791
100299400.0 -0.8278601196 0.1513413854 -0.0001824215 9.85386e-05 -2.03709e-05 0.0001306695 0.1037894141 0.0528466802
105299370.0 -0.8274478575 0.1602963379 0.0001267908 1.195e-07 0.0002426872 0.0001878743 0.1070497572 0.0488984836
110299340.0 -0.8256753556 0.1697423164 -0.0001293889 0.0001270891 0.0001256773 5.73876e-05 0.1095676897 0.0445357691
115299310.0 -0.8237169793 0.1786875334 0.0001115843 5.53362e-05 -0.0001807834 -8.76495e-05 0.112302557 0.0404985705
120299280.0 -0.8224525181 0.1870974261 -4.13809e-05 9.43524e-05 -2.349e-05 8.68624e-05 0.1147539855 0.0368531148
125299250.0 -0.8202835116 0.1954499309 -1.64686e-05 4.37792e-05 0.0001550799 2.34461e-05 0.1163114415 0.0326188304
130299220.0 -0.8188101335 0.205319553 -0.0001443857 2.28477e-05 -0.0001452578 2.93979e-05 0.1183843757 0.0287288945
135299190.0 -0.8166331382 0.2141190864 0.0001568051 -0.0001902296 2.88453e-05 0.0001328796 0.1198420537 0.0251676814
140299160.0 -0.8146727525 0.2229891099 2.3782e-06 0.0002443751 -5.73236e-05 0.0002138153 0.1211733346 0.0215541096
145299130.0 -0.8125780222 0.2317003625 5.55902e-05 7.52608e-05 0.0001297334 -2.49202e-05 0.1220520734 0.0182079586
150299100.0 -0.8100325535 0.2405115904 0.0001030167 -0.0002962182 1.07656e-05 1.59848e-05 0.1227731535 0.0152792815
155299070.0 -0.8078021238 0.2489945271 3.63257e-05 4.5858e-05 -0.000199241 3.34371e-05 0.123712581 0.0115720308
160299040.0 -0.8052548029 0.2580780318 -0.0002152779 -8.11621e-05 -0.0001326965 -9.68442e-05 0.124035725 0.0081418212
165299010.0 -0.8028851755 0.266558435 -7.46983e-05 -1.97196e-05 6.17331e-05 0.0002508289 0.1249511193 0.0047396874
170298980.0 -0.8003533986 0.2751333909 -4.99976e-05 -4.0437e-06 7.07407e-05 5.76898e-05 0.1249470293 0.001467563
175298950.0 -0.7972451413 0.2841535257 0.0001306941 1.011e-06 -9.76251e-05 0.000242944 0.1251021856 -0.0013237005
180298920.0 -0.7951028993 0.2925450553 2.50593e-05 0.0002121416 4.35e-07 -1.7629e-06 0.1252432768 -0.004045627
185298890.0 -0.7914077417 0.3005041669 -6.2042e-05 0.0002356277 -4.70107e-05 0.0002087711 0.1254247244 -0.0071565534
190298860.0 -0.7893447174 0.3097520078 0.0001722806 1.80394e-05 7.25525e-05 -2.4597e-05 0.125361018 -0.0098313661
195298830.0 -0.7854895327 0.3178462798 -1.67691e-05 0.0002036844 7.02959e-05 -4.43796e-05 0.1251927528 -0.0128408304
200298800.0 -0.7816626683 0.3257412235 7.0445e-05 1.17276e-05 8.21228e-05 6.25307e-05 0.1248310131 -0.0155940454
205298770.0 -0.7785434412 0.333983354 -3.05955e-05 0.0001136427 4.66273e-05 5.93221e-05 0.1244911269 -0.0185547461
210298740.0 -0.7746937879 0.3417617388 9.7197e-06 3.37324e-05 4.6733e-06 -3.6096e-05 0.1243106407 -0.0209406351
215298710.0 -0.771286575 0.3507791231 3.28124e-05 -0.0001128881 -4.2516e-05 0.0001920278 0.1233823344 -0.0238996777
220298680.0 -0.7672234327 0.358387529 4.39155e-05 1.8628e-05 4.69699e-05 0.0001451624 0.1230732141 -0.0262989256
225298650.0 -0.7646251808 0.3663732979 0.0001650504 -6.98416e-05 2.33631e-05 2.1038e-05 0.1223652596 -0.0287448859
230298620.0 -0.7604066319 0.3746974736 0.000118166 0.0001255027 -0.00013241 2.20476e-05 0.121621745 -0.0312780241
235298590.0 -0.7566605594 0.3832684067 -6.48996e-05 0.0001453466 0.0001986227 -9.52852e-05 0.1210519718 -0.0336216816
240298560.0 -0.7530004691 0.3909170873 9.2745e-05 1.54752e-05 3.88153e-05 -0.0001155001 0.1204328467 -0.0359059867
245298530.0 -0.7485281024 0.3985920077 2.0875e-06 -3.07715e-05 0.0001474706 0.0001322316 0.1195825423 -0.0385581745
250298500.0 -0.7444650738 0.4065903359 -7.97727e-05 0.0002515409 -4.39902e-05 0.0001794088 0.1188551749 -0.0407158157
255298470.0 -0.7394828227 0.4137330748 -0.0001631118 -1.76359e-05 0.0001679589 -4.81952e-05 0.1179304084 -0.04347563
260298440.0 -0.7356246354 0.4217263306 -5.96711e-05 0.0001932807 0.0001236521 -5.95129e-05 0.117354865 -0.0455840288
265298410.0 -0.7312888322 0.4299894565 -3.47084e-05 0.0002360808 -8.61537e-05 -6.9672e-06 0.1163670937 -0.0473613716
270298380.0 -0.7271591451 0.4375365442 0.0001377537 7.04669e-05 -5.59705e-05 6.40142e-05 0.1156098406 -0.0493679978
275298350.0 -0.7223446701 0.4445365179 6.6359e-05 1.5848e-05 0.0001331376 -0.0001189654 0.1145783473 -0.0513224133
280298320.0 -0.7168897031 0.4521545763 -5.57015e-05 -4.8159e-06 4.09584e-05 -1.79012e-05 0.1139679226 -0.0536423545
285298290.0 -0.7131011672 0.4601165475 0.0002154517 6.90813e-05 0.0001419268 0.0001304607 0.1128896835 -0.0555181092
290298260.0 -0.7079900996 0.4675608666 8.01264e-05 1.785e-06 0.0001996346 -5.16518e-05 0.1122335809 -0.0571174651
295298230.0 -0.7029844072 0.4739681626 0.0001237598 0.000271204 0.0002048705 -1.05288e-05 0.1115102024 -0.0595616009
300298200.0 -0.6979820063 0.4819657223 0.0002179153 -4.43782e-05 0.0001182119 0.0001850709 0.1104194817 -0.0612618719
305298170.0 -0.692716244 0.4879788839 2.46874e-05 4.15501e-05 6.88303e-05 -9.84603e-05 0.1097854112 -0.0637329233
310298140.0 -0.6876014267 0.4960552503 -3.27898e-05 0.0001459325 0.0001033361 0.0001855895 0.1082384987 -0.0654545318
315298110.0 -0.6829029796 0.5028017574 6.07988e-05 5.64111e-05 0.0001065026 9.14303e-05 0.1067666729 -0.0672306807
320298080.0 -0.6773856284 0.5102752555 0.0002903966 5.20701e-05 7.27458e-05 8.55165e-05 0.1057884747 -0.0691412027
325298050.0 -0.6717010955 0.5170581684 -2.08989e-05 0.0001046403 -0.0001689426 0.0001681437 0.1044962038 -0.0709493315
330298020.0 -0.6667868462 0.5242092421 0.0003162144 4.60605e-05 0.0001333831 1.18503e-05 0.1027395945 -0.0721941841
335297990.0 -0.6608982253 0.5304377634 -0.0001258316 6.47747e-05 -9.23122e-05 2.84121e-05 0.1010452903 -0.0734354526
340297960.0 -0.6559771237 0.5376762104 0.0001267648 6.45519e-05 0.0001615312 0.0001256781 0.1005141838 -0.0750570975
345297930.0 -0.6502545911 0.5440063503 -3.67545e-05 8.47482e-05 -3.68387e-05 0.000146696 0.0984707226 -0.0767872989
350297900.0 -0.6445156403 0.5510203369 -0.0001122285 7.35968e-05 0.0002382643 0.0001815882 0.0970792078 -0.0773929832
355297870.0 -0.6384879685 0.5579026028 -9.761e-06 -6.79032e-05 7.2835e-06 0.0001051015 0.0955108777 -0.0791229024
360297840.0 -0.6326271012 0.5641335231 -2.6147e-06 3.91786e-05 0.0003273062 -0.0001519318 0.094324586 -0.0805068328
365297810.0 -0.6269937394 0.5706325412 0.0001786831 -6.5271e-06 0.0001716664 0.0001293957 0.0930303647 -0.0817801951
370297780.0 -0.621090677 0.5767869811 -8.36834e-05 0.0001487531 5.47707e-05 -6.32813e-05 0.0918101178 -0.0829828891
375297750.0 -0.6142984962 0.5831199203 0.0001990565 0.0001847016 0.0001368803 2.7433e-06 0.0903383571 -0.0846270422
380297720.0 -0.6091707763 0.5887110832 0.0001727223 -2.89298e-05 0.0001952752 -0.0001833764 0.0884895272 -0.0856570887
385297690.0 -0.60325842 0.5956049515 -6.0267e-05 -4.00119e-05 -0.0001135611 0.000119691 0.0874008148 -0.0872147331
390297660.0 -0.5967299492 0.6012743218 0.000188937 3.2518e-06 8.2816e-06 -1.18421e-05 0.0855852176 -0.087914453
395297630.0 -0.5902705315 0.6075812659 0.0001815043 5.6473e-05 8.40582e-05 -8.66e-07 0.0842577867 -0.0891705415
400297600.0 -0.5845199976 0.6139532072 -2.8699e-06 1.21304e-05 -1.92883e-05 7.1872e-06 0.0830145124 -0.0906681323
405297570.0 -0.5784714688 0.6193143732 -2.30124e-05 -6.51061e-05 0.0001440189 -7.5577e-06 0.081227314 -0.0917148987
410297540.0 -0.5713522854 0.6248836358 0.0003173912 -5.309e-05 0.0002562506 0.0001127335 0.0797042133 -0.092598156
415297510.0 -0.5650047276 0.6313827126 -6.12849e-05 -0.0002038908 0.0001098154 -7.75769e-05 0.0784296963 -0.0937253913
420297480.0 -0.5589977233 0.6369498748 0.0003036339 -0.0001193496 6.71422e-05 5.42936e-05 0.0767537445 -0.0947969619
425297450.0 -0.5515879385 0.6421857044 0.0002116577 5.35592e-05 0.0002840567 0.0001133733 0.0755394368 -0.0960818203
430297420.0 -0.5454931685 0.6482762145 0.0001384069 1.249e-07 0.0003046143 -1.28856e-05 0.0735290293 -0.0971462306
435297390.0 -0.5387676783 0.6535539746 0.0001625685 0.0002115723 0.0002257225 5.05283e-05 0.0723620189 -0.0984610093
440297360.0 -0.5319940566 0.6590182552 0.0002142041 8.42125e-05 -5.19797e-05 0.0003344195 0.0707734236 -0.0992085331
445297330.0 -0.525413012 0.6642712959 1.72728e-05 -0.0001088069 -3.14167e-05 8.23679e-05 0.069120308 -0.1005802897
450297300.0 -0.518427135 0.6691618305 0.0001829617 9.27143e-05 0.000147925 7.12037e-05 0.0676506595 -0.1011155531
455297270.0 -0.5118179894 0.6744375052 0.0002407092 0.0001305467 6.0345e-06 0.0001474425 0.0662332925 -0.1021298598
460297240.0 -0.5053602563 0.6794655754 6.92859e-05 -6.5654e-06 7.24709e-05 0.0001765188 0.0647854707 -0.1024199637
465297210.0 -0.4976306899 0.684401956 0.0002256266 3.53835e-05 0.0001525801 0.0001420909 0.0631402315 -0.1037092212
470297180.0 -0.490190748 0.6900401478 3.25517e-05 4.77256e-05 0.0001543475 -9.77276e-05 0.061735524 -0.1041590673
475297150.0 -0.4838317971 0.6942543423 0.0001919318 6.73505e-05 0.0001841739 5.44772e-05 0.0602105339 -0.105282944
480297120.0 -0.4770518988 0.6996589574 9.8175e-06 0.0002930726 0.0001723526 1.35873e-05 0.0588677805 -0.1059618424
485297090.0 -0.4694755354 0.7038884456 7.01108e-05 1.253e-05 4.33223e-05 -0.0002001027 0.0571416726 -0.1066467416
490297060.0 -0.4622461809 0.7084623425 0.0002162224 4.33271e-05 8.49281e-05 0.0001325426 0.0553616615 -0.1074913101
495297030.0 -0.455193128 0.7130619851 0.0002195865 -4.7924e-06 2.30129e-05 0.0001895483 0.0538542635 -0.1079029829
500297000.0 -0.4479889648 0.7181543601 -7.05361e-05 0.0002175133 0.000157065 3.32721e-05 0.0523715918 -0.1080844621
505296970.0 -0.4403464718 0.7222675604 4.31794e-05 5.60423e-05 0.0001809504 -0.0002198237 0.0505362383 -0.1093002583
510296940.0 -0.4331123645 0.7263879665 0.0001917056 1.65323e-05 9.40494e-05 -4.89493e-05 0.0487697745 -0.1096006968
515296910.0 -0.4244817618 0.730896341 7.99645e-05 5.85036e-05 9.7728e-06 0.0002337436 0.0474072415 -0.1101950354
520296880.0 -0.4183376735 0.7352190898 0.000224459 8.44577e-05 0.0001460407 5.01459e-05 0.0456267605 -0.110995784
525296850.0 -0.4102627471 0.7390716245 0.0002107424 0.0001690225 0.0001829064 0.0001343508 0.0442684118 -0.110982588
530296820.0 -0.4032151614 0.7432167087 0.0001008018 5.14416e-05 0.0001803065 0.0001515339 0.0427684267 -0.1115591837
535296790.0 -0.395759075 0.7470423955 7.10098e-05 -7.0291e-06 0.0002780478 7.46171e-05 0.0405309355 -0.1121952068
540296760.0 -0.3877301698 0.7506104449 6.58814e-05 2.46697e-05 9.41067e-05 2.2809e-06 0.0388172366 -0.1123072329
545296730.0 -0.3807081232 0.7550095556 0.0001222222 0.000163571 4.01969e-05 -0.0001015026 0.0372637285 -0.1129172553
550296700.0 -0.3729456488 0.7591469651 0.0003872615 -7.75026e-05 0.0001660415 0.0001325328 0.035303626 -0.1136871314
555296670.0 -0.3651880846 0.7619669214 0.0001326227 5.40529e-05 0.000210178 -1.43574e-05 0.0336060908 -0.1135931006
560296640.0 -0.3582378557 0.7664578884 0.0002164799 -5.93453e-05 7.67475e-05 8.24506e-05 0.0319670517 -0.1140728247
565296610.0 -0.3500166079 0.7699837784 3.81046e-05 8.53556e-05 8.47071e-05 3.03264e-05 0.030339712 -0.1143753464
570296580.0 -0.3427288435 0.7722916743 5.27575e-05 3.21635e-05 9.51084e-05 0.0001020214 0.0284216537 -0.1147318526
575296550.0 -0.3347677801 0.7767943626 6.53522e-05 0.0002259552 2.27295e-05 4.67067e-05 0.0268469941 -0.1148123879
580296520.0 -0.3264842125 0.7794210763 8.63265e-05 -9.45012e-05 4.19015e-05 -2.72732e-05 0.0252279287 -0.1150836165
585296490.0 -0.3190403327 0.782240022 7.70301e-05 1.55063e-05 0.0001764456 -4.0404e-06 0.0235109968 -0.1156578239
590296460.0 -0.3110751478 0.7861011046 -0.0001142279 -0.0001243198 6.98656e-05 1.96373e-05 0.0215101787 -0.1156302325
595296430.0 -0.3027771499 0.788440495 0.0003165008 9.32518e-05 0.0001541238 -6.39602e-05 0.0198119569 -0.1162165257
600296400.0 -0.2950708169 0.7916530501 9.50064e-05 7.1048e-05 8.60045e-05 4.4297e-06 0.0182079794 -0.116505404
605296370.0 -0.2876934291 0.7942695523 -9.568e-06 5.94063e-05 0.0001190458 -1.34357e-05 0.0165431507 -0.1163334921
610296340.0 -0.2793624928 0.797548675 -0.0001073653 7.62576e-05 0.0003002734 -0.0002548671 0.0152887872 -0.1163519486
615296310.0 -0.2707360785 0.8001663297 0.0003047503 0.0001341753 0.00028996 5.78201e-05 0.0136367118 -0.1168847098
620296280.0 -0.2629617701 0.8021687693 0.0001792611 -0.0001017112 0.0001768386 -4.31022e-05 0.0117422859 -0.1167736663
625296250.0 -0.2553335829 0.8050417166 0.0002231492 9.76945e-05 0.0001297362 0.0001967056 0.0101713764 -0.1169023595
630296220.0 -0.2464965601 0.8079190622 0.0002686765 -5.57334e-05 0.0001090663 1.96997e-05 0.0083307364 -0.1164679485
635296190.0 -0.2389170797 0.8103447442 9.69273e-05 -0.0001869476 0.0001919508 4.55443e-05 0.0068182719 -0.116741965
640296160.0 -0.2312194514 0.8124204803 0.0001276908 -2.82595e-05 0.0001873391 0.000119267 0.0052382171 -0.1166290934
645296130.0 -0.2226105059 0.8152339029 0.0001997265 8.4768e-06 0.0001814265 2.03069e-05 0.0037776194 -0.1166367093
650296100.0 -0.2144543432 0.8166536877 3.83589e-05 -7.23955e-05 4.19202e-05 0.0001803309 0.0019640857 -0.1171131559
655296070.0 -0.2064062701 0.8194612731 0.0002930693 1.62268e-05 0.0001120854 3.31293e-05 0.0007271007 -0.1164749389
660296040.0 -0.1980844488 0.8204394691 0.0001447914 -0.0001307312 -5.26409e-05 -0.0002055074 -0.0008558908 -0.1164980297
665296010.0 -0.1898080652 0.8221323997 0.0002787009 -0.0001948711 0.000185474 -2.2846e-06 -0.0027097114 -0.1160937205
670295980.0 -0.1825152256 0.8248154797 0.0001018929 8.5127e-05 1.17031e-05 6.91565e-05 -0.0046950662 -0.1162650762
675295950.0 -0.173663777 0.8264481404 0.0003741209 8.97426e-05 0.0001918989 2.5409e-05 -0.0063936249 -0.1158421263
680295920.0 -0.165698213 0.828082515 0.0001103727 -9.10533e-05 8.67284e-05 -3.00716e-05 -0.0078471633 -0.1153240814
685295890.0 -0.1567576811 0.8302106243 0.0001077169 -0.000248263 9.98312e-05 -8.7666e-06 -0.009391749 -0.1150109929
690295860.0 -0.1491350942 0.8307975853 0.000230328 0.0001849019 -2.64071e-05 1.65986e-05 -0.011019303 -0.1143586095
695295830.0 -0.1407397708 0.8319005422 0.0001732406 0.0001394498 -1.31574e-05 -7.681e-07 -0.0127949539 -0.1139415448
700295800.0 -0.1321054251 0.833674669 0.0003264078 3.24341e-05 0.0003048241 -0.000138511 -0.0150574221 -0.1139360244
705295770.0 -0.1241032136 0.8351670694 0.0001439381 0.0001507461 0.000231609 8.53062e-05 -0.0162432741 -0.1133119769
710295740.0 -0.115412019 0.8361994712 0.0004037979 -0.0001012525 0.0002908482 -8.8419e-05 -0.0182057626 -0.1131238823
715295710.0 -0.1080436795 0.8374278927 0.0001189263 -0.0001507705 0.0001553384 -6.61734e-05 -0.0197378053 -0.1128893851
720295680.0 -0.0993562676 0.8391589761 0.0002182406 -0.0001078308 0.0001420473 -1.21996e-05 -0.0210631199 -0.1125068399
725295650.0 -0.0910611028 0.8395369573 1.6731e-06 -3.40983e-05 0.0001858433 -0.0002430928 -0.0230758211 -0.1117484474
730295620.0 -0.0824791394 0.8404875034 -6.46375e-05 0.0001577283 -1.96663e-05 -7.6632e-05 -0.0249681051 -0.1113342604
735295590.0 -0.0745969607 0.8411715423 0.0001456893 -6.21861e-05 0.0002565559 4.27415e-05 -0.0266550226 -0.1109845637
740295560.0 -0.0661670469 0.8424007638 0.0002936976 -7.6281e-05 -9.303e-06 0.0001570467 -0.0282716018 -0.1104068336
745295530.0 -0.0579049701 0.8423500873 7.64527e-05 -8.06686e-05 0.0001086433 3.90551e-05 -0.0295641898 -0.1102460965
750295500.0 -0.0493902896 0.8429324144 3.60877e-05 -4.3978e-06 2.41059e-05 -0.0001099872 -0.0315804062 -0.10971848
755295470.0 -0.0407753978 0.8432771706 3.56612e-05 4.0748e-06 3.29508e-05 5.40354e-05 -0.0326149118 -0.1094604572
760295440.0 -0.0327079145 0.8434136429 0.0001636641 -5.28164e-05 0.0003472045 1.02485e-05 -0.0343180688 -0.1089344461
765295410.0 -0.0243413833 0.8442725743 0.000342352 -0.0002416095 -2.22011e-05 -0.0001263472 -0.0359663816 -0.1081332852
770295380.0 -0.016251007 0.8438126153 -0.000117189 -9.27254e-05 0.0002370329 -0.0001317022 -0.0377160727 -0.1076143342
775295350.0 -0.0075007852 0.8438246073 1.62631e-05 -0.0001015956 0.0002208321 5.28224e-05 -0.0395701315 -0.1069249538
780295320.0 0.0006339069 0.8444794865 -6.65226e-05 -9.10643e-05 -9.727e-07 -0.0001469286 -0.0404572342 -0.1062875925
785295290.0 0.0088677702 0.8439143318 0.0003286929 -5.393e-05 0.0001322038 -8.76652e-05 -0.0417023742 -0.1056501837
790295260.0 0.0178217029 0.8439996667 0.0001018761 -5.44819e-05 4.25641e-05 3.80786e-05 -0.0430159465 -0.1049908901
795295230.0 0.0254824082 0.8442702629 0.0003024213 -0.0001130956 0.0001826061 -0.0001006456 -0.0448519205 -0.1041973004
800295200.0 0.0337171081 0.8436203106 0.0003176014 0.0001098265 0.0001144054 -9.17805e-05 -0.0463341488 -0.1033936549
805295170.0 0.0423526038 0.8430905333 5.91315e-05 -8.67935e-05 8.30443e-05 4.82516e-05 -0.0477629711 -0.1022902292
810295140.0 0.0510684568 0.8429112175 0.0002111923 -0.0002029851 0.0002108882 -1.1008e-06 -0.0490045082 -0.1020115928
815295110.0 0.0589784662 0.8420185798 0.0002053854 2.45094e-05 0.0002452641 -2.3766e-05 -0.0506020955 -0.1012683173
820295080.0 0.0668872032 0.8414637271 0.0001927828 -9.70467e-05 0.0002396893 5.97553e-05 -0.0523176934 -0.1003725999
825295050.0 0.0761606919 0.8405065095 0.0002731697 -4.32413e-05 7.2863e-05 0.0001364883 -0.0531824553 -0.0992689428
830295020.0 0.0836934152 0.8397729834 0.0003513808 -0.0001906906 0.0002948918 -4.87527e-05 -0.0543400371 -0.0984446776
835294990.0 0.0922352328 0.8393603663 0.0001345791 0.0001205355 6.39787e-05 -9.57166e-05 -0.0562205743 -0.0975789739
840294960.0 0.1000443138 0.8381268821 0.0003275478 -2.99085e-05 0.0002964181 -0.0001428424 -0.0574822374 -0.0966679612
845294930.0 0.1082714811 0.837103709 0.0003462976 -0.0001718261 0.0001941472 8.57201e-05 -0.0589194356 -0.0959587057
850294900.0 0.1165757031 0.8363350664 0.0003135882 0.0002157538 0.000161921 3.59646e-05 -0.0607549326 -0.0945799424
