!Created with skrf (http://scikit-rf.org).
# Hz S RI R 50.0 
!freq ReS11 ImS11 ReS21 ImS21 ReS12 ImS12 ReS22 ImS22
300000.0 -0.0968106702 -0.1031601291 0.6247156413 0.094214766 0.6220129132 0.0950926404 -0.09579171 -0.1062212111
5299970.0 -0.1013122987 0.0113912601 0.6303260676 0.0110114108 0.6308278229 0.0112149411 -0.1014544828 0.0112821832
10299940.0 -0.096891771 0.0285516385 0.6346494397 0.0161716906 0.6347873841 0.0165946434 -0.09634989 0.0284470547
15299910.0 -0.0890745542 0.0423797685 0.6403605677 0.020935925 0.6405000835 0.02122591 -0.0895695157 0.0417378337
20299880.0 -0.0803659566 0.0535812618 0.6489209352 0.0237585768 0.6494646529 0.0242802353 -0.0807988778 0.0531359312
25299850.0 -0.0702905353 0.0621022215 0.6583835981 0.0260037414 0.6583541584 0.0256084926 -0.0717197633 0.0618774307
30299820.0 -0.060852344 0.0687137138 0.6682577636 0.024641075 0.6678182338 0.0245382338 -0.0619013781 0.0684010089
35299790.0 -0.0505961022 0.0734646178 0.6769946813 0.0220835507 0.6774231253 0.0217883851 -0.0524650214 0.0737122646
40299760.0 -0.041259068 0.0765104475 0.6868321467 0.0178718262 0.6870143983 0.01791441 -0.0425449302 0.0770802484
45299730.0 -0.0318546225 0.078233251 0.6957418393 0.0125594021 0.6960218761 0.0122950473 -0.0332437943 0.0790401474
50299700.0 -0.0228973063 0.0790191533 0.7040349739 0.0054688692 0.7037388144 0.0049303357 -0.0246703605 0.0801609585
55299670.0 -0.0151991193 0.0786940958 0.7109435992 -0.0021469248 0.7105826818 -0.0027971825 -0.0170317634 0.0803661704
60299640.0 -0.0075378378 0.0785035502 0.7179625038 -0.0112859758 0.7177471821 -0.0107714538 -0.0096928865 0.0797085406
65299610.0 -0.0010688873 0.0771998503 0.7244169661 -0.0198807352 0.7242842764 -0.0199501182 -0.0026990308 0.0785824651
70299580.0 0.005285228 0.0751516033 0.7292191801 -0.0290179008 0.7288385956 -0.0287411511 0.0030307608 0.0771321576
75299550.0 0.01048749 0.0732555304 0.7336946668 -0.0393669714 0.7334966529 -0.0383984541 0.0084398164 0.0755503023
80299520.0 0.0152122989 0.0714068738 0.7377862413 -0.048430782 0.7380059617 -0.0486377671 0.0136357699 0.0733243294
85299490.0 0.0199394821 0.0690295196 0.7407559412 -0.0588876809 0.7410808385 -0.0582113895 0.0181481763 0.0708431604
90299460.0 0.0239523941 0.0666695268 0.7435688441 -0.0685195341 0.7435649664 -0.0685138445 0.0225849069 0.0691774859
95299430.0 0.0280803353 0.0640107403 0.7461358474 -0.0790256762 0.7464546441 -0.0790579327 0.0258703629 0.0665229528
100299400.0 0.0314531266 0.0613654502 0.7475728601 -0.0882657417 0.7478317692 -0.08896626 0.0290769528 0.0647339342
105299370.0 0.0346061394 0.0589226757 0.749012933 -0.0991105958 0.7497747311 -0.098751577 0.0329445575 0.0616480795
110299340.0 0.0373267799 0.0565089935 0.750825521 -0.1086217517 0.7509159243 -0.1086951482 0.0351202905 0.0593417513
115299310.0 0.0396955929 0.0542969823 0.7515119399 -0.1186514342 0.7509720359 -0.1185477261 0.0372166474 0.0574577284
120299280.0 0.041530688 0.0520787296 0.7518121249 -0.1296115156 0.7517919399 -0.1290962887 0.0397850734 0.0545903758
125299250.0 0.0440158489 0.0497059808 0.7520225013 -0.1389984729 0.7522168765 -0.1382748795 0.0423321668 0.0527862913
130299220.0 0.0457165007 0.0469794755 0.7525444885 -0.1488929782 0.7520897582 -0.1493702261 0.0435761149 0.0508069924
135299190.0 0.0469294621 0.0451828506 0.7520664622 -0.1581685663 0.7521269235 -0.1588320124 0.0455199963 0.0479220689
140299160.0 0.0490128467 0.0433571204 0.751578436 -0.1687662337 0.751156996 -0.1682197151 0.0463339474 0.0454760054
145299130.0 0.0491405605 0.0410254158 0.7503778126 -0.1779542555 0.750379203 -0.1782279007 0.0478749692 0.0435928615
150299100.0 0.0509566711 0.0392886531 0.7494712725 -0.1885234557 0.7493887605 -0.187741982 0.0490131687 0.0423798327
155299070.0 0.0527306156 0.0370153832 0.7475682223 -0.1974763431 0.7482623651 -0.1978068608 0.0506286236 0.0395966857
160299040.0 0.0533310894 0.0356086259 0.7467245936 -0.2072436762 0.7468216577 -0.207045293 0.0510838251 0.0381688675
165299010.0 0.054519509 0.0333843462 0.745162187 -0.2162234589 0.7450935725 -0.2165078857 0.0523771554 0.0360778849
170298980.0 0.0552359165 0.032026782 0.7432973136 -0.225996995 0.7432741502 -0.2262496598 0.0523647265 0.0340669823
175298950.0 0.0559494319 0.0301692075 0.7421748043 -0.2352016624 0.7420935548 -0.2356308551 0.0537524805 0.0326883103
180298920.0 0.0565060857 0.0287651315 0.7393693533 -0.244942485 0.7395732331 -0.2445302551 0.0539510268 0.0309988151
185298890.0 0.057088919 0.0271593888 0.7379794692 -0.2534538059 0.7371536851 -0.2534895379 0.055269223 0.0289672407
190298860.0 0.0579189833 0.0258585537 0.734626592 -0.2621772158 0.7352595238 -0.2627935211 0.0551224403 0.0272631554
195298830.0 0.0579376466 0.0242737072 0.7325520965 -0.2717344033 0.7325257524 -0.2714887606 0.0556552632 0.0261486183
200298800.0 0.0584816156 0.0224713842 0.7297796406 -0.2808815235 0.7301645403 -0.2810920618 0.056399722 0.0243084568
205298770.0 0.0584857893 0.0207776023 0.726807462 -0.2893827293 0.7273094922 -0.2894064855 0.0568471355 0.0228005121
210298740.0 0.0590048526 0.0198880605 0.7242945875 -0.298200068 0.7233966495 -0.2984415779 0.0565095609 0.0207319673
215298710.0 0.0594663208 0.0186048188 0.7210649637 -0.3063411041 0.7206073175 -0.3071716405 0.057363917 0.0199191219
220298680.0 0.059882809 0.017438145 0.7172608506 -0.3155801382 0.7174953916 -0.3158721297 0.0572577004 0.0182496734
225298650.0 0.059853573 0.0161967724 0.7140645519 -0.3242398091 0.71451336 -0.3236084784 0.0572576994 0.0164564297
230298620.0 0.0603451151 0.0151422446 0.7114427511 -0.3328591461 0.7112325319 -0.3331177158 0.0575719839 0.0149317028
235298590.0 0.0599970488 0.0136877186 0.7076621623 -0.3414599346 0.707772894 -0.3415551656 0.0577736063 0.0139489857
240298560.0 0.0604765286 0.0127504348 0.7043140019 -0.3492151481 0.7038287138 -0.3493626133 0.0579464011 0.0128294826
245298530.0 0.0601866078 0.0111807283 0.7002855618 -0.3583298839 0.7001973353 -0.3577131978 0.0578782303 0.0119210048
250298500.0 0.0602037764 0.0104349372 0.6967668302 -0.365764216 0.6970090117 -0.3658736128 0.0576417698 0.010777711
255298470.0 0.0605580351 0.0095084033 0.6931532141 -0.3737193841 0.6933996286 -0.3743036661 0.0580474153 0.0099922448
260298440.0 0.0605863039 0.0082493467 0.6891835912 -0.3821512772 0.6890534776 -0.3824741314 0.0579722227 0.0079055591
265298410.0 0.0600652955 0.0075451552 0.6848659089 -0.3908811813 0.6844220379 -0.3908857393 0.0587357019 0.0067146747
270298380.0 0.0601256855 0.0063839288 0.6806642429 -0.3982136824 0.6806153187 -0.3980610455 0.0583402986 0.0060308538
275298350.0 0.0606081428 0.0056820164 0.6760449443 -0.405791689 0.675788445 -0.4058633907 0.0579323882 0.0050142471
280298320.0 0.0598473604 0.0044468259 0.6717237334 -0.4137908806 0.672263331 -0.4139937228 0.0586029564 0.003897319
285298290.0 0.0600527842 0.0037240151 0.6671336221 -0.4215382345 0.6676465002 -0.4215386444 0.0581478332 0.0024123924
290298260.0 0.0597808772 0.0026405233 0.6640014127 -0.4298569938 0.6629272866 -0.429719626 0.0581127359 0.0015885243
295298230.0 0.0599912981 0.0012986082 0.6585166514 -0.4377041257 0.6585824955 -0.4377619482 0.0578292385 0.0004007572
300298200.0 0.0600291641 0.0010416231 0.6537603339 -0.4449762185 0.6536747022 -0.4448589594 0.0579385921 -0.0008164129
305298170.0 0.0600139576 -0.0007482938 0.6493269216 -0.4533256682 0.6493242243 -0.4530132927 0.0578840595 -0.0023142851
310298140.0 0.0603372202 -0.0015603849 0.644023706 -0.4602789997 0.644474307 -0.4603813254 0.0580091201 -0.0035711364
315298110.0 0.0599212565 -0.0030855469 0.6396342889 -0.4687118697 0.6389765804 -0.4688551119 0.0578679217 -0.0043209196
320298080.0 0.0594825482 -0.0038515964 0.6334519126 -0.4758084322 0.6341074381 -0.4758439961 0.0573993144 -0.0058628292
325298050.0 0.058529848 -0.0054568585 0.6285868606 -0.4829706195 0.6287074403 -0.4830860176 0.0568683162 -0.0069520201
330298020.0 0.0574680893 -0.0059967783 0.6224790631 -0.4907380209 0.6235211134 -0.4906362965 0.0562802581 -0.007820357
335297990.0 0.0575851588 -0.0065914082 0.6176401642 -0.497166142 0.6174397406 -0.4975389125 0.055697347 -0.0086420757
340297960.0 0.0570388352 -0.0076456865 0.6111057402 -0.5049817999 0.6114366275 -0.5047200667 0.0554250129 -0.0091466245
345297930.0 0.0563047175 -0.0085639483 0.6055413368 -0.5123826204 0.605431308 -0.5121240376 0.0551936195 -0.0104347465
350297900.0 0.0557444756 -0.0092684273 0.6000070712 -0.5177018885 0.6001780827 -0.5181200157 0.0549157818 -0.011467227
355297870.0 0.0556891379 -0.0096108725 0.5948932105 -0.5243725189 0.5944119698 -0.5245544241 0.0547676416 -0.0119437765
360297840.0 0.0553626931 -0.0103226331 0.5881617153 -0.5313545244 0.5884059105 -0.5317460055 0.0537439549 -0.0123944154
365297810.0 0.0546162786 -0.0109444262 0.5825255676 -0.5379611915 0.5821074857 -0.5379041897 0.0529251354 -0.0132533194
370297780.0 0.0548822861 -0.0113425204 0.5761776878 -0.5445293332 0.5765229763 -0.5445224406 0.0529734558 -0.0141924219
375297750.0 0.054328597 -0.0121086083 0.5709576758 -0.5509623475 0.5707981046 -0.5511196132 0.0529309968 -0.0146772338
380297720.0 0.0533200271 -0.0127693235 0.5642288621 -0.5579485861 0.5643014878 -0.5576860398 0.0521790138 -0.0151705972
385297690.0 0.053112594 -0.013519555 0.5578548606 -0.5633639368 0.5583048385 -0.5641468673 0.0523897399 -0.0154078256
390297660.0 0.0529356631 -0.0143330649 0.5522320515 -0.569458342 0.5523790998 -0.5698242663 0.0520533353 -0.016613804
395297630.0 0.0529792345 -0.0149826515 0.5463440209 -0.5751629444 0.5460318424 -0.5755301034 0.0513436341 -0.0172211485
400297600.0 0.0520327218 -0.015713727 0.5394609581 -0.5822306073 0.5395352011 -0.5817408666 0.0514847712 -0.0174244868
405297570.0 0.0519494472 -0.0168329762 0.5335314042 -0.5872745064 0.5332389927 -0.5878281236 0.0509626759 -0.0178386554
410297540.0 0.0516784185 -0.0166683669 0.5269207517 -0.5936901618 0.5263441631 -0.5936452995 0.0507475936 -0.019039655
415297510.0 0.050960756 -0.0174393238 0.5200663831 -0.5994517714 0.5207392209 -0.6000999552 0.0505288299 -0.0190112604
420297480.0 0.0505103478 -0.0185563023 0.5135053106 -0.6054892888 0.5137140494 -0.6055083921 0.0502791034 -0.0195709671
425297450.0 0.050996896 -0.0189297694 0.5072475102 -0.6108343111 0.5072645045 -0.6106825795 0.0497393617 -0.0206599303
430297420.0 0.050008376 -0.0193356857 0.5003227731 -0.6169321909 0.5007876979 -0.616068136 0.0499357813 -0.0210798603
435297390.0 0.0498281625 -0.0202663447 0.4934163396 -0.6230613538 0.4931944697 -0.6223391639 0.0488084554 -0.0214955692
440297360.0 0.0497352686 -0.0210855691 0.4861957198 -0.6276952159 0.4859670923 -0.6275566843 0.0486244414 -0.0217759617
445297330.0 0.0493905715 -0.0218322437 0.4799147135 -0.6326739282 0.4793640177 -0.632864624 0.048462339 -0.022301665
450297300.0 0.0488318578 -0.0223989068 0.4728118059 -0.6382287141 0.4725780558 -0.6382126334 0.047976475 -0.0228778525
455297270.0 0.0479279636 -0.0231539578 0.4659144435 -0.6431643615 0.4657705502 -0.6436125416 0.0478726888 -0.023146173
460297240.0 0.0481722044 -0.0232750662 0.4589642945 -0.6490635497 0.4587585842 -0.6488745048 0.0473175029 -0.0240349035
465297210.0 0.0475503988 -0.0240355692 0.4510955231 -0.6540238673 0.4513137356 -0.6539957278 0.0477349287 -0.0240003324
470297180.0 0.0473324604 -0.02497037 0.4440347797 -0.6579903174 0.4445737375 -0.6585343765 0.0470503687 -0.0252970356
475297150.0 0.0466436101 -0.0252341854 0.4371002314 -0.663642503 0.4374724764 -0.6638033655 0.0465641431 -0.0256291066
480297120.0 0.0467716735 -0.0251230165 0.4296006474 -0.6683197607 0.4297023233 -0.6679577199 0.0457680809 -0.0264173764
485297090.0 0.0463412305 -0.0268699317 0.4224248553 -0.673396039 0.422666977 -0.6733618047 0.0459377413 -0.0263503312
490297060.0 0.0463829856 -0.0266009144 0.4142262496 -0.6776757217 0.414517591 -0.6780065589 0.0452495143 -0.0272565183
495297030.0 0.0451946312 -0.0278990043 0.4072284501 -0.6826072482 0.4074646638 -0.6824968214 0.0453602953 -0.0277173695
500297000.0 0.0449851183 -0.0278654094 0.400392876 -0.6863215682 0.3997571544 -0.6871342912 0.0448655625 -0.0277252722
505296970.0 0.0450849377 -0.0283132068 0.3925832282 -0.6910122106 0.392722675 -0.6912730763 0.0441785521 -0.0291114395
510296940.0 0.0443520199 -0.0292709153 0.384750089 -0.6965345456 0.3853274084 -0.6960952636 0.044299282 -0.0287498923
515296910.0 0.0438840744 -0.0290575358 0.3772305903 -0.7002973208 0.3766990195 -0.6999440081 0.0436021321 -0.0303554578
520296880.0 0.0434445406 -0.0294340985 0.3693952659 -0.7037661655 0.3694300669 -0.7034658047 0.0438912701 -0.0294487884
525296850.0 0.0433689703 -0.0305978855 0.361241606 -0.707847212 0.361784891 -0.7079136168 0.0435012857 -0.0305039902
530296820.0 0.0425377441 -0.0310320561 0.3537154172 -0.7123722539 0.3541578659 -0.7117782057 0.0432340884 -0.031431269
535296790.0 0.043094313 -0.0312347868 0.3463776133 -0.7152277692 0.3463756083 -0.7156397035 0.0429714875 -0.031238192
540296760.0 0.0421291908 -0.0312928433 0.3381877417 -0.7191978478 0.338057125 -0.7194046379 0.0422640726 -0.0324794098
545296730.0 0.0406031099 -0.0318101948 0.3300861471 -0.7229804257 0.3299571401 -0.7229188967 0.0419578432 -0.0326807438
550296700.0 0.0415216052 -0.0322646355 0.3223869354 -0.7267137495 0.3220077222 -0.7273400638 0.0417331222 -0.0329156123
555296670.0 0.040693341 -0.0327705579 0.3147825558 -0.7309462307 0.3146255758 -0.7304798649 0.0410978995 -0.0339042246
560296640.0 0.041282773 -0.033192619 0.3061489793 -0.733452302 0.3067320944 -0.7336837198 0.0404501533 -0.0335981387
565296610.0 0.0396696708 -0.0332903941 0.2983916781 -0.7373564623 0.2986111603 -0.7364242785 0.0404251435 -0.0343390727
570296580.0 0.0395667797 -0.0335948438 0.2900701763 -0.7399868253 0.2905344856 -0.740267194 0.039739141 -0.0350182208
575296550.0 0.0391159525 -0.0343855403 0.2824564854 -0.7430714743 0.2824320469 -0.7435782204 0.0391715427 -0.035204431
580296520.0 0.0388883738 -0.0340895013 0.2742909867 -0.7465257617 0.2743974716 -0.7466571729 0.0381041321 -0.0356144325
585296490.0 0.0382532764 -0.0346805186 0.2662495433 -0.7490140826 0.265784567 -0.7490846952 0.0390050064 -0.0355781302
590296460.0 0.0385357401 -0.0350100648 0.2577616107 -0.7522053215 0.2577786639 -0.7528906344 0.0374285507 -0.0363266118
595296430.0 0.0379326002 -0.0352379291 0.2494857132 -0.7553764603 0.249022111 -0.7554715666 0.0375978833 -0.037230306
600296400.0 0.0375559731 -0.035712067 0.2410336404 -0.7577389065 0.2410553562 -0.7577164007 0.0370051968 -0.0373345699
605296370.0 0.0363607108 -0.0357411072 0.2335988001 -0.7596902397 0.2327975957 -0.7607593508 0.0363048913 -0.0375091466
610296340.0 0.0364752996 -0.0357485938 0.2248078379 -0.7621284542 0.2249874562 -0.7622109332 0.0354252838 -0.0376226956
615296310.0 0.0363939511 -0.0363882319 0.2160308322 -0.7660546565 0.2157165665 -0.7650433871 0.0352939476 -0.0378227068
620296280.0 0.035095415 -0.0362446909 0.2074713114 -0.7674512277 0.2076860095 -0.7677346679 0.0343760128 -0.0382256132
625296250.0 0.034593809 -0.0367122369 0.1992984559 -0.7703162548 0.1995454495 -0.7703574512 0.0333580209 -0.0389435666
630296220.0 0.0343096169 -0.0366028799 0.1908155341 -0.7722595521 0.190789635 -0.7717136951 0.0337667294 -0.0388889736
635296190.0 0.0331664432 -0.0366679859 0.182453852 -0.7741458831 0.1828967097 -0.7738715567 0.0330741563 -0.0390822623
640296160.0 0.0330669055 -0.0371876122 0.1736390889 -0.7762030893 0.1741592008 -0.7759696392 0.0321521065 -0.0398911333
645296130.0 0.0329010387 -0.0366997681 0.1653030925 -0.7774719456 0.1656337355 -0.7774661837 0.0314143814 -0.0404819481
650296100.0 0.0322369749 -0.0375234588 0.1570106011 -0.7797299395 0.1572555069 -0.7801299523 0.0320034395 -0.0405771342
655296070.0 0.0316886433 -0.0373527132 0.1485106897 -0.7812829867 0.1482666256 -0.7809564131 0.0303570108 -0.0403186525
660296040.0 0.0311378498 -0.0375559585 0.1398938008 -0.7832637975 0.140101395 -0.7832277308 0.0299005101 -0.0413176073
665296010.0 0.0306475912 -0.0378422168 0.1300598015 -0.7841640322 0.1312984493 -0.7842182552 0.0292749042 -0.0411176327
670295980.0 0.0303765135 -0.0381530277 0.1226836386 -0.7854390254 0.1223803002 -0.7848577278 0.0287048987 -0.0417292319
675295950.0 0.0293939658 -0.038246986 0.1142332076 -0.7868708735 0.1145811459 -0.7868689306 0.0276405218 -0.0414246773
680295920.0 0.0287422641 -0.0381803319 0.1057491116 -0.7875591913 0.1061686923 -0.7875734941 0.0278053658 -0.0423100499
685295890.0 0.0287822649 -0.0377732573 0.0970539259 -0.7891677822 0.097399109 -0.7896475424 0.0269723921 -0.0419182138
690295860.0 0.0274340785 -0.0381753676 0.0883048898 -0.7903381113 0.0879956853 -0.7907318176 0.0262299531 -0.0425266121
695295830.0 0.0275358841 -0.0385451668 0.0805689345 -0.7908959222 0.080018733 -0.7908896052 0.0258163595 -0.0423345404
700295800.0 0.0269143672 -0.0381333924 0.0720312559 -0.791544786 0.0715436689 -0.7920934982 0.0249816917 -0.042354024
705295770.0 0.0257798708 -0.0383065206 0.0623805098 -0.7926857886 0.0626289426 -0.7923037637 0.0242713643 -0.042237261
710295740.0 0.0256690283 -0.0385898321 0.0541804451 -0.7929993577 0.0542038167 -0.7937254154 0.0240579345 -0.0422458474
715295710.0 0.0248786118 -0.0381704939 0.0454606828 -0.7941686454 0.0457152668 -0.7942904759 0.0231065156 -0.0426500732
720295680.0 0.0249472898 -0.0380682124 0.0366630459 -0.7939383982 0.0371686718 -0.794677854 0.0224013034 -0.0430843293
725295650.0 0.0234919587 -0.0379659716 0.028485661 -0.7948740966 0.0284192493 -0.794655108 0.0215099659 -0.0422909986
730295620.0 0.022205604 -0.0385365672 0.0194887184 -0.7941783733 0.019742364 -0.7941050107 0.0208983779 -0.041949393
735295590.0 0.0226667953 -0.0383021398 0.0110064273 -0.7951204299 0.0108680326 -0.795035768 0.0202342188 -0.0430983049
740295560.0 0.0219084517 -0.0389565165 0.0025696575 -0.7953048208 0.0026597784 -0.7954446581 0.0191143194 -0.0425459396
745295530.0 0.0208201434 -0.0385391481 -0.0062640591 -0.7944143315 -0.005525925 -0.7948672551 0.0181867575 -0.0430666204
750295500.0 0.0202761623 -0.0380312641 -0.0142292411 -0.7952014427 -0.0148343248 -0.79473516 0.0177166756 -0.0428613687
755295470.0 0.0195459405 -0.0383615324 -0.0230307058 -0.7948419383 -0.0231030742 -0.7947353835 0.0181417919 -0.0421426401
760295440.0 0.0188981392 -0.0377251846 -0.0325658214 -0.7943539131 -0.032112609 -0.7938574118 0.0168643724 -0.0438614984
765295410.0 0.0187460944 -0.0385101578 -0.040789324 -0.7936235793 -0.0404228752 -0.7936966779 0.0161500003 -0.0428902673
770295380.0 0.018073481 -0.03813525 -0.0489117591 -0.7928261243 -0.0489996484 -0.7936906254 0.01527226 -0.0428470612
775295350.0 0.017218251 -0.0383539267 -0.0578671901 -0.7931420025 -0.0576427931 -0.7921784791 0.0153176864 -0.0426908262
780295320.0 0.0161093326 -0.0379174185 -0.0664920867 -0.7914645784 -0.0661666687 -0.7913050073 0.0146672776 -0.0429964078
785295290.0 0.0157896131 -0.0382594909 -0.0749013107 -0.7912121923 -0.0748086123 -0.7909891829 0.0129592332 -0.0421208846
790295260.0 0.015306579 -0.0384698292 -0.0831151468 -0.7905779473 -0.0829922322 -0.7906527058 0.012588395 -0.0418825904
795295230.0 0.0147619223 -0.0385906246 -0.0923747025 -0.7897852471 -0.0919230924 -0.7895163269 0.0123382354 -0.0432111072
800295200.0 0.0136395295 -0.0377786727 -0.1001212451 -0.7879024151 -0.1003710558 -0.7881945712 0.0111724127 -0.0424004508
805295170.0 0.012801008 -0.0381206486 -0.1090959246 -0.787301949 -0.1085953008 -0.7867803109 0.0114589743 -0.0421695081
810295140.0 0.0127073411 -0.0379572603 -0.1175846979 -0.7855135667 -0.1174211612 -0.785931836 0.0103707923 -0.042409036
815295110.0 0.0118324872 -0.0375984485 -0.1256343196 -0.7845418797 -0.1252799582 -0.7848399793 0.0096355438 -0.0421843
820295080.0 0.0115241143 -0.0376722667 -0.1338424079 -0.7823645168 -0.1341017746 -0.783342484 0.0079096147 -0.0413844592
825295050.0 0.0106011136 -0.0377253968 -0.1434186976 -0.7811291064 -0.1426276163 -0.7808768828 0.0087615138 -0.0409789
830295020.0 0.0096885484 -0.0377436078 -0.1514159955 -0.7797206933 -0.1511961493 -0.7800920811 0.0075985517 -0.0418494304
