!Created with skrf (http://scikit-rf.org).
# Hz S RI R 50.0 
!freq ReS11 ImS11 ReS21 ImS21 ReS12 ImS12 ReS22 ImS22
300000.0 -0.7741712371 -0.1441741048 -3.85994e-05 -0.0013514218 0.0014293906 0.0011846849 -0.0477678291 -0.0700019723
5299970.0 -0.7855275189 -0.0068587135 0.0001274538 -3.383e-05 -7.04048e-05 3.00317e-05 -0.0485487638 0.0143599835
10299940.0 -0.7874602752 -0.0041355915 -0.0001361621 -2.68608e-05 3.85404e-05 -3.2327e-06 -0.0430815495 0.0317644956
15299910.0 -0.7932769554 -0.0014756446 0.0001203285 -5.10044e-05 -3.99335e-05 -9.7036e-05 -0.0345965498 0.0454678075
20299880.0 -0.7996869835 0.0022641869 0.0001467977 7.87528e-05 -5.5231e-06 -4.71956e-05 -0.0251344649 0.057015908
25299850.0 -0.8060355274 0.008286133 8.11471e-05 -5.0604e-06 -0.000129622 0.0001134092 -0.0142551327 0.0659835767
30299820.0 -0.8123026057 0.0161673034 -4.10028e-05 -3.03938e-05 -5.1566e-05 -2.53457e-05 -0.0031955228 0.072542641
35299790.0 -0.8167243824 0.0250484903 4.59209e-05 0.0001648853 -0.0001311538 0.0002086289 0.0078764162 0.0770174889
40299760.0 -0.8211140326 0.0341095085 -0.0001306804 0.0001266433 -9.82659e-05 3.88238e-05 0.0193473256 0.0799346263
45299730.0 -0.8247941381 0.0440421052 -9.39135e-05 -0.000103662 -0.00015592 -0.000152646 0.0295450326 0.0813999804
50299700.0 -0.826949619 0.0540625765 -5.99253e-05 -0.0001939311 5.07683e-05 0.0001406652 0.0395180032 0.0812332739
55299670.0 -0.8288355488 0.0642802383 4.12943e-05 5.11076e-05 0.0002115344 -1.3378e-06 0.0483461631 0.0802659978
60299640.0 -0.8297682686 0.0740731448 2.1024e-06 -6.36606e-05 8.03081e-05 0.0002406597 0.0568189143 0.0783138261
65299610.0 -0.8311021461 0.0846634229 -0.0001396499 9.9966e-06 -4.03619e-05 5.72639e-05 0.0644266397 0.0759370837
70299580.0 -0.8312277824 0.0938226515 0.0001027311 9.32192e-05 3.1308e-05 -3.58812e-05 0.071200147 0.0728537351
75299550.0 -0.8308542739 0.1043884545 0.0001050551 0.0002113499 0.0001114395 -2.07455e-05 0.077577306 0.0698687905
80299520.0 -0.8312858188 0.1146494763 0.0003397836 -1.38584e-05 0.0002011669 8.6246e-05 0.0826684976 0.0661577098
85299490.0 -0.8307643883 0.1242487874 5.62138e-05 -7.123e-06 8.94513e-05 8.96694e-05 0.0878916786 0.0622635918
90299460.0 -0.8299864349 0.1339101009 -5.53922e-05 0.000146604 0.0002001183 6.90187e-05 0.0924491133 0.0587784228
95299430.0 -0.8288492244 0.1436886451 2.69088e-05 0.0001573716 8.4641e-06 4.357e-06 0.0965534961 0.0547222759
100299400.0 -0.8278215408 0.153259817 1.1553e-05 0.0001043698 -0.0001942879 2.93944e-05 0.1000358253 0.0506634441
105299370.0 -0.8265760173 0.1623544817 0.0001377051 -0.0001369666 0.0002600298 -4.15124e-05 0.1030217658 0.0467194663
110299340.0 -0.8254321342 0.1708776435 -0.0001276905 8.59231e-05 6.60998e-05 -0.0001411261 0.1057156636 0.0427383614
115299310.0 -0.8234074205 0.1809070852 0.0002095274 -8.0775e-06 -4.2332e-05 0.000135172 0.1081041284 0.0386111674
120299280.0 -0.8218289849 0.1898710606 9.68496e-05 3.6458e-06 -6.23896e-05 0.0002044413 0.1106020213 0.0352703175
125299250.0 -0.8204717024 0.1986743649 7.13045e-05 -0.000153244 -3.92359e-05 5.3919e-05 0.1124128846 0.0309946967
130299220.0 -0.8185400785 0.2075659268 0.0001332543 0.0001520331 0.0001399641 7.80085e-05 0.1136195848 0.0273747155
135299190.0 -0.8167024745 0.2165705308 4.16631e-05 0.0002341376 6.41359e-05 7.5523e-06 0.1152714409 0.023590359
140299160.0 -0.8149270502 0.2255153114 2.7206e-05 -4.01016e-05 1.71973e-05 1.54473e-05 0.1167869458 0.0198622003
145299130.0 -0.8125362061 0.2343404237 -0.0001241932 3.33739e-05 9.62044e-05 7.80991e-05 0.1172805242 0.016463303
150299100.0 -0.810413741 0.2429686198 -5.71446e-05 4.96126e-05 5.49787e-05 -0.000110037 0.1184434319 0.0128867617
155299070.0 -0.8076630096 0.2526211282 0.0002133578 -0.0001756789 0.0001483337 -5.23158e-05 0.1189574737 0.0096491981
160299040.0 -0.8048442552 0.2612414052 -0.000107942 -7.76434e-05 -3.3411e-06 -6.83959e-05 0.1196532563 0.006193642
165299010.0 -0.8022001018 0.2690253715 -6.02595e-05 -7.5635e-05 -0.0001056432 5.20792e-05 0.1199567685 0.0031177247
170298980.0 -0.7995073932 0.2781376287 -3.19463e-05 -6.1224e-05 0.0001313882 -0.0001321324 0.1203587139 -8.297e-05
175298950.0 -0.7969721081 0.2870804866 -1.44555e-05 -1.34076e-05 7.25508e-05 0.0001481433 0.1206578361 -0.0033041526
180298920.0 -0.793459636 0.2946515313 -5.4167e-06 0.0001009854 -1.4176e-06 4.93244e-05 0.1208067357 -0.0062837999
185298890.0 -0.7905731616 0.3044347183 0.0001243187 7.06327e-05 -3.85213e-05 6.0163e-05 0.1205789212 -0.0094247034
190298860.0 -0.7872625953 0.3121314824 0.0001932425 -6.70483e-05 -0.0002449602 0.0001760173 0.120737582 -0.0120976581
195298830.0 -0.7838401952 0.3208767382 7.218e-07 0.0001924932 6.2721e-06 -9.3019e-05 0.1205682722 -0.0151455324
200298800.0 -0.7805996261 0.3293438494 -0.0001371895 3.54019e-05 -0.0004005343 -1.89575e-05 0.1206807091 -0.0181300961
205298770.0 -0.7772863256 0.3371711037 0.0001930804 4.87931e-05 9.26857e-05 -0.0001658401 0.1201500746 -0.0205994484
210298740.0 -0.7734960792 0.3456825436 0.0002262819 0.0002459043 5.6379e-05 -5.20302e-05 0.1200408246 -0.0230250665
215298710.0 -0.7704941725 0.353732948 8.32719e-05 -1.91446e-05 9.0236e-06 0.00014623 0.1193238285 -0.0254870781
220298680.0 -0.7671417791 0.3620768295 0.0002549558 -7.37282e-05 0.0001071063 6.2437e-06 0.1190821914 -0.0280394726
225298650.0 -0.7632361303 0.3705445944 -3.94119e-05 0.0001967368 -3.37875e-05 -1.86137e-05 0.1183897789 -0.0301509065
230298620.0 -0.7585879668 0.3787366291 -0.0001097148 4.595e-05 -9.8273e-06 7.77093e-05 0.1179119514 -0.0328479553
235298590.0 -0.754822983 0.3866331151 0.0001332856 -8.89621e-05 2.14441e-05 0.0001068414 0.1171598658 -0.0354809677
240298560.0 -0.7510148728 0.3948422371 -7.86e-05 0.0001115517 -0.0001236667 -9.62364e-05 0.1164644427 -0.0375606979
245298530.0 -0.7464568483 0.4027315372 0.0001740887 7.86848e-05 0.0001265937 -3.12292e-05 0.1160371965 -0.0397159887
250298500.0 -0.7424569438 0.4106200827 9.14009e-05 -6.90695e-05 8.26229e-05 0.0002287113 0.1155899816 -0.0420716733
255298470.0 -0.7378222806 0.4185870748 0.000215722 2.40792e-05 0.0001380092 -3.66288e-05 0.11439841 -0.0442571891
260298440.0 -0.7335158273 0.425922666 -0.0001480287 3.7863e-06 0.0001497683 -4.27905e-05 0.1134631671 -0.0461543409
265298410.0 -0.7290020002 0.4337209742 -3.6792e-05 0.0001085255 9.09395e-05 9.26759e-05 0.1128212573 -0.0486621561
270298380.0 -0.7240880948 0.4419386088 -3.81897e-05 0.0001889971 0.0001962247 -5.98419e-05 0.1122772385 -0.0505745968
275298350.0 -0.7193060303 0.44965593 0.0001621662 0.0001923253 0.000160858 -3.44346e-05 0.1110948654 -0.052427908
280298320.0 -0.7155792234 0.456598325 -5.54536e-05 -9.20098e-05 0.0001663877 0.0001904046 0.1105031404 -0.054536142
285298290.0 -0.7103828095 0.4641333704 8.46668e-05 0.0002070594 0.0001028601 0.000204419 0.1093402786 -0.0564519914
290298260.0 -0.7055959539 0.4715456724 4.35254e-05 -9.1231e-06 -8.52901e-05 7.0673e-05 0.1086992707 -0.0580673842
295298230.0 -0.7011023424 0.4789866422 -1.9382e-05 -9.97658e-05 0.0003154426 -8.79563e-05 0.107538575 -0.0598476903
300298200.0 -0.6947363955 0.4865525175 0.0001347582 -8.02145e-05 7.76648e-05 8.53242e-05 0.106652342 -0.0616888445
305298170.0 -0.6899407554 0.4943260397 -0.0001042329 -7.2901e-05 9.95101e-05 4.1271e-06 0.1059593363 -0.0635165348
310298140.0 -0.6841730886 0.5005509838 0.0001563006 9.37381e-05 0.0001679802 0.0001306354 0.1048848312 -0.0651911023
315298110.0 -0.6792549567 0.50830004 4.43871e-05 -5.3895e-06 9.15086e-05 -1.71204e-05 0.1039765126 -0.0668209198
320298080.0 -0.6740279462 0.5158601339 -1.08485e-05 -8.5536e-05 0.0001051342 0.0001352902 0.1028621023 -0.0687697898
325298050.0 -0.6683298947 0.5222259571 0.0001124146 4.4931e-06 0.0001687527 -2.11461e-05 0.1016592555 -0.0707440433
330298020.0 -0.6626051681 0.5291191903 0.0003056991 -7.27523e-05 3.13625e-05 5.58073e-05 0.1003597449 -0.0726972223
335297990.0 -0.6571882142 0.5362611276 -0.0003882572 3.81001e-05 3.10311e-05 2.19949e-05 0.098614953 -0.0739592029
340297960.0 -0.6518853303 0.5427512783 -3.617e-07 8.39824e-05 0.0001416515 -6.02763e-05 0.0975859253 -0.0756272153
345297930.0 -0.6459207747 0.5485153298 7.47085e-05 -1.29192e-05 -0.0001265131 -2.85105e-05 0.0960442263 -0.0770269603
350297900.0 -0.6399460439 0.556194521 0.000163735 6.98116e-05 0.0001357315 3.79393e-05 0.0949282902 -0.0781199337
355297870.0 -0.634906724 0.5629653659 0.0001402229 0.0001937798 3.89905e-05 -1.72476e-05 0.0935482337 -0.0795192945
360297840.0 -0.6284412547 0.5692451359 1.99803e-05 0.0001834987 6.04969e-05 -2.08284e-05 0.0921855438 -0.0805787786
365297810.0 -0.6224510991 0.5756623865 2.15274e-05 -1.55297e-05 -1.6446e-06 4.81944e-05 0.0906306833 -0.0820021913
370297780.0 -0.616103549 0.5813956976 -6.74139e-05 -0.000243173 9.89115e-05 0.0001791494 0.0890460824 -0.0831364669
375297750.0 -0.6099407016 0.5880360931 9.19108e-05 -3.22506e-05 0.0001525025 0.0001701927 0.0880041349 -0.0842782403
380297720.0 -0.6039847531 0.5942321941 0.0001112576 0.0001065157 0.0001221091 6.63266e-05 0.0872042717 -0.0852442099
385297690.0 -0.5978411493 0.6009133197 -0.0001623831 -8.44743e-05 0.0001675628 6.94878e-05 0.0851703618 -0.0862357634
390297660.0 -0.5915301456 0.6071592369 0.000103697 0.0001139178 -7.81984e-05 0.0001784684 0.084011258 -0.087809448
395297630.0 -0.5855950654 0.6133537141 -2.58163e-05 0.0002923553 7.80048e-05 -9.14628e-05 0.0824344481 -0.0885842806
400297600.0 -0.5791744159 0.6190010216 0.0001735195 6.30425e-05 8.60501e-05 8.74695e-05 0.0810421046 -0.0897785661
405297570.0 -0.5724565568 0.6251940125 0.0003862082 0.0001355937 -0.0001264261 3.92772e-05 0.0798409599 -0.0907122805
410297540.0 -0.565830534 0.6305619206 -6.05085e-05 -0.0001421883 2.57813e-05 0.0001305176 0.078222559 -0.0914754613
415297510.0 -0.5590974369 0.6365759515 0.0001687747 3.84044e-05 0.0002031283 -0.0001291374 0.0766212989 -0.0927864297
420297480.0 -0.5520727483 0.6417381852 0.0001650625 -1.45067e-05 9.45236e-05 -7.33516e-05 0.0748862108 -0.0936843583
425297450.0 -0.5460057798 0.6473299899 -4.15331e-05 -7.20737e-05 0.0001314252 -6.90381e-05 0.0736675848 -0.0947446488
430297420.0 -0.5390811116 0.6531508432 0.0001979902 -3.67894e-05 0.0001693303 -5.15566e-05 0.0721901987 -0.0954309299
435297390.0 -0.5322774609 0.6585644663 0.0001280349 -1.2099e-05 0.000100247 0.0001345191 0.0708129393 -0.0962014702
440297360.0 -0.5254167266 0.663934286 0.0003131884 -0.0001034802 0.000105456 0.0001130297 0.0691218445 -0.097450744
445297330.0 -0.5184288722 0.669537176 -8.996e-07 -0.0002434005 1.60193e-05 7.79792e-05 0.0676473708 -0.0981845751
450297300.0 -0.5112331552 0.6746437763 0.00011804 9.44998e-05 0.0001813945 0.0002533845 0.0660311228 -0.0986120371
455297270.0 -0.5041350027 0.6803837289 9.6375e-06 0.0001904166 0.0001040971 -2.81662e-05 0.0646981873 -0.0997626234
460297240.0 -0.4977672759 0.6854752106 6.15761e-05 7.37927e-05 8.2444e-06 1.42083e-05 0.0631366604 -0.100069298
465297210.0 -0.4894669453 0.6907449632 9.99055e-05 2.90976e-05 0.0001883349 5.56934e-05 0.061127425 -0.1011212992
470297180.0 -0.4825385001 0.6947698024 -0.0001072634 -0.0001758328 3.66048e-05 2.73659e-05 0.0597092605 -0.1018502855
475297150.0 -0.4755355993 0.7002743426 0.0002304508 -8.67403e-05 0.0001734393 -5.74671e-05 0.0580171881 -0.1022289105
480297120.0 -0.4692763493 0.7043879507 -0.0001526505 -5.287e-06 0.000304695 -7.09154e-05 0.0565022756 -0.1029674844
485297090.0 -0.4614065221 0.7092271162 8.05125e-05 0.0001549117 8.56209e-05 -1.8103e-06 0.0547954189 -0.1034389881
490297060.0 -0.4540372325 0.7137936406 7.93874e-05 -6.40699e-05 0.0001319379 -3.59777e-05 0.0530944102 -0.104513412
495297030.0 -0.4473008183 0.71863888 0.0001296817 7.43133e-05 0.0002512451 1.88237e-05 0.0517914227 -0.1051987729
500297000.0 -0.4388559051 0.723151627 4.68031e-05 0.00023739 -1.38376e-05 -7.09147e-05 0.0498292408 -0.1057182389
505296970.0 -0.4310808833 0.7268610407 2.33454e-05 0.0001279019 0.0002586165 -8.69303e-05 0.0480717315 -0.1059753106
510296940.0 -0.4247253945 0.7317467081 0.0002749561 -5.70041e-05 0.0001121723 -3.83428e-05 0.0467528139 -0.106407781
515296910.0 -0.4169225323 0.7363814588 6.6795e-06 0.0002082556 0.0001399427 0.000151424 0.0448360111 -0.1068960331
520296880.0 -0.4091171731 0.7404323728 0.0002826742 0.0001692611 8.15746e-05 0.0002077962 0.0435649964 -0.1076972751
525296850.0 -0.4017605128 0.7444826959 0.0001419675 0.0001150634 0.0001969406 5.94551e-05 0.0418007397 -0.108126215
530296820.0 -0.3941614313 0.7477408374 -2.94027e-05 0.0002560681 0.0001613111 1.98155e-05 0.0399583134 -0.108633336
535296790.0 -0.3860949302 0.7523698145 0.0002282525 7.6607e-06 1.85941e-05 2.08307e-05 0.0381888363 -0.1089388058
540296760.0 -0.3781021004 0.75604816 0.0003482458 -0.0001870407 0.0001664184 0.0001198623 0.0363611491 -0.1093588331
545296730.0 -0.3712379881 0.7595370479 0.0003583736 0.0001089316 4.15081e-05 7.43608e-05 0.0346346752 -0.1097190807
550296700.0 -0.3628576648 0.7634539088 0.0001464336 9.3167e-06 -3.00727e-05 0.0001836477 0.0331787462 -0.1102491038
555296670.0 -0.3546131836 0.7670377362 0.0002303231 8.96034e-05 8.68828e-05 6.49397e-05 0.0310430182 -0.1105178803
560296640.0 -0.3472579672 0.7706636959 0.0001571548 -6.16952e-05 0.0001865328 5.96849e-05 0.0297556147 -0.1109210364
565296610.0 -0.3393944064 0.773830703 -4.7145e-06 5.91157e-05 0.0003105245 -1.60601e-05 0.0277754789 -0.1109597745
570296580.0 -0.3318158868 0.7770334633 0.0003141134 -0.0001998542 0.0002209388 3.49373e-05 0.0262034933 -0.1111261161
575296550.0 -0.323628693 0.7806776647 0.0003585691 -0.0002142947 0.0002202457 0.0001379035 0.0247603124 -0.1117164123
580296520.0 -0.3156823312 0.783756774 0.0001691228 7.42147e-05 -8.97314e-05 1.1272e-06 0.0227733791 -0.1118394353
585296490.0 -0.3075627482 0.7861101273 0.0002914121 7.09329e-05 9.17808e-05 7.9078e-06 0.0210271031 -0.11249045
590296460.0 -0.2994910102 0.7898525249 0.0001166712 0.0002226594 3.26262e-05 6.77615e-05 0.0196506118 -0.1124019005
595296430.0 -0.2917314489 0.793641951 0.0001419426 -4.63134e-05 2.4824e-06 0.000151518 0.0174099542 -0.1124883602
600296400.0 -0.2833461482 0.7954191134 -4.8154e-06 -2.0195e-05 6.57857e-05 -1.13334e-05 0.0160290152 -0.1126586806
605296370.0 -0.2750712077 0.7991895734 0.0002161395 9.2582e-05 3.77005e-05 5.84567e-05 0.0145395424 -0.1125572095
610296340.0 -0.2677092301 0.8014932172 -8.3434e-06 -5.45196e-05 -7.70931e-05 -2.12318e-05 0.0124598043 -0.112565817
615296310.0 -0.2589437659 0.8038122073 0.0002501236 3.61999e-05 0.000214708 -1.81095e-05 0.0109450947 -0.1132790262
620296280.0 -0.2508513598 0.8062851397 0.0001092959 -0.0001427899 4.82038e-05 -5.83996e-05 0.0094272127 -0.1133275325
625296250.0 -0.2426320327 0.8084583566 0.0002900259 -2.30233e-05 8.02681e-05 -0.0001163753 0.0074916881 -0.1130471972
630296220.0 -0.2345013255 0.8118048674 0.0002142098 -6.98204e-05 0.0003521526 8.7362e-06 0.0058207994 -0.1131594792
635296190.0 -0.2260548354 0.814027595 0.0001096679 -8.80562e-05 0.0001906605 -0.0001003678 0.0041082113 -0.1127061387
640296160.0 -0.2177621045 0.8149714005 0.000310063 2.59588e-05 0.0001255702 3.64782e-05 0.0024871964 -0.1131258838
645296130.0 -0.2098959974 0.8179216237 0.0001756354 -9.37693e-05 0.0004262538 -0.000187603 0.0006994489 -0.1129707436
650296100.0 -0.2018541907 0.8206814412 0.0002756474 5.71664e-05 9.27927e-05 8.07691e-05 -0.0012756463 -0.1126412545
655296070.0 -0.1932689541 0.8220343573 0.000145148 -7.07761e-05 0.0002115148 -0.0001198054 -0.0029523669 -0.1125133461
660296040.0 -0.1855980234 0.8241493271 0.0001503269 0.0002092582 0.0003678216 2.3168e-06 -0.0044819778 -0.1126628297
665296010.0 -0.1771662373 0.8257093495 9.72059e-05 1.1464e-05 0.0001353564 -0.0002142914 -0.005815309 -0.1121920106
670295980.0 -0.1681715655 0.8271535454 -6.63444e-05 0.0001006521 0.0002007471 0.0001539935 -0.0077318543 -0.1120232917
675295950.0 -0.1599869941 0.8284321972 8.87361e-05 0.0001076922 0.0002131706 -0.0001586872 -0.00917331 -0.1118294561
680295920.0 -0.1519402009 0.8306290343 0.0001625341 -4.07282e-05 0.0001008943 0.0001771125 -0.0112618782 -0.1119046347
685295890.0 -0.143096418 0.8319348077 0.0002730646 0.0002314544 -6.07564e-05 -1.87057e-05 -0.0125458825 -0.1114690735
690295860.0 -0.1342443048 0.8336199777 0.0002733461 6.4397e-05 0.0001941323 -6.65355e-05 -0.0139520049 -0.1113064195
695295830.0 -0.126228418 0.8340762578 0.0002479757 -0.0001671422 0.00023426 -2.1916e-05 -0.0160806557 -0.110827634
700295800.0 -0.1183539234 0.8352059523 -6.071e-07 8.75507e-05 8.26492e-05 -8.98166e-05 -0.0176199432 -0.1106940729
705295770.0 -0.1090935276 0.8371350325 4.03966e-05 -3.81704e-05 4.88189e-05 9.41886e-05 -0.0191886277 -0.1100316021
710295740.0 -0.1010885811 0.8380497881 0.0002975426 9.53184e-05 0.0001795268 -4.37494e-05 -0.0210039656 -0.1096350759
715295710.0 -0.0931787374 0.8391277132 0.000165002 0.0001336819 0.0002879585 4.84043e-05 -0.0225171543 -0.1094688212
720295680.0 -0.0847236825 0.8396260641 6.37421e-05 -6.66286e-05 7.5077e-06 -0.0001534863 -0.0239663609 -0.1089123875
725295650.0 -0.0750008417 0.8409568575 0.0002740869 1.31685e-05 0.0001891082 -8.31537e-05 -0.0256586813 -0.1084035953
730295620.0 -0.0673840456 0.841561652 8.99355e-05 -0.0001019053 -2.69183e-05 -3.48637e-05 -0.0273686736 -0.1080448083
735295590.0 -0.0583756841 0.8415584219 0.0001914186 -0.0001433378 0.0002214063 -3.98029e-05 -0.0288639289 -0.1077109912
740295560.0 -0.0505236644 0.8429744896 4.98599e-05 -1.9766e-05 0.0001668851 -6.00096e-05 -0.0304039527 -0.1075143082
745295530.0 -0.0420134887 0.8423802416 0.0001126459 -0.0002153353 2.11034e-05 -2.1723e-06 -0.0322939328 -0.1065657831
750295500.0 -0.0338389319 0.8428477242 -4.17345e-05 -9.54623e-05 9.00899e-05 6.08436e-05 -0.0338622757 -0.1059043034
755295470.0 -0.0244848628 0.8431839822 0.0003000245 5.65671e-05 4.26371e-05 -1.65121e-05 -0.035658296 -0.1053215377
760295440.0 -0.0161531341 0.8429281363 -7.35357e-05 -0.0002693393 0.0001662447 8.9387e-06 -0.0370709507 -0.1048190515
765295410.0 -0.0078599754 0.8433517945 7.40394e-05 -9.65675e-05 0.0001984751 1.19108e-05 -0.03836218 -0.103965833
770295380.0 0.0009182915 0.8440721963 7.28773e-05 2.84581e-05 0.000266421 -9.05645e-05 -0.0397642387 -0.1033034569
775295350.0 0.0085654718 0.844056963 0.0001502306 -0.0001481443 0.0001027369 -0.0001595823 -0.0417062513 -0.1031353049
780295320.0 0.0179363984 0.8425584505 0.0001612198 -4.29626e-05 0.0001869633 0.000294107 -0.0436173217 -0.1022031102
785295290.0 0.0258732566 0.8432929034 0.0002319949 -2.82389e-05 0.000151385 -0.000193914 -0.0449754493 -0.1013017492
790295260.0 0.0345592763 0.8425743391 0.0001094115 -0.000121538 0.0002259466 -6.54065e-05 -0.0462582194 -0.1007989249
795295230.0 0.0429503856 0.8432532588 8.08747e-05 -6.51255e-05 0.0002496174 6.55461e-05 -0.0479068162 -0.0998829518
800295200.0 0.0511812456 0.8428067583 0.00028699 -5.78161e-05 0.0003047576 8.43979e-05 -0.0491957181 -0.0990863553
805295170.0 0.0600623896 0.8414157048 -1.14808e-05 -8.32472e-05 2.73754e-05 2.60371e-05 -0.0510980812 -0.0984743606
810295140.0 0.0680452092 0.8410957138 0.0002604652 1.81691e-05 0.0003796879 -0.0001554859 -0.0523021868 -0.0975800193
815295110.0 0.0769655113 0.8402677993 7.82925e-05 -8.27233e-05 0.0002689302 0.0001341637 -0.0538587756 -0.0964862694
820295080.0 0.0851463954 0.838724358 1.56773e-05 4.64323e-05 0.0002516892 -0.0001140116 -0.0554096538 -0.095722857
825295050.0 0.0936984561 0.8386541349 0.0001015075 -4.4671e-06 0.0001441776 -7.73028e-05 -0.0567068424 -0.0949230754
830295020.0 0.1019051207 0.8373172051 4.39436e-05 2.59594e-05 0.0001531155 -0.0001096412 -0.0587076283 -0.0939415544
835294990.0 0.1100039257 0.8366045055 0.000205303 -0.0001669534 1.349e-05 0.0001437708 -0.0596964844 -0.0932707622
840294960.0 0.1181936313 0.8353515684 0.0002807203 9.55532e-05 0.0002222072 0.0001993094 -0.061350033 -0.0920611907
845294930.0 0.1266106879 0.8341252562 0.0002022633 -0.0001803018 0.0001997132 -0.0001104208 -0.0626929894 -0.0912819738
850294900.0 0.1347539083 0.8326647706 5.73033e-05 1.65642e-05 9.32366e-05 5.30685e-05 -0.0640516522 -0.0902321839
