!Created with skrf (http://scikit-rf.org).
# Hz S RI R 50.0 
!freq ReS11 ImS11 ReS21 ImS21 ReS12 ImS12 ReS22 ImS22
300000.0 0.8591531254 -0.0029465081 -0.0010116793 7.15394e-05 -0.0005001237 0.0004488463 -0.7726286149 -0.1246857873
5299970.0 0.8589531393 -0.0100229461 0.0001752266 -6.56261e-05 -7.08924e-05 -2.87726e-05 -0.7852650563 -0.0069301853
10299940.0 0.8577060866 -0.0183696356 -7.23722e-05 7.8751e-05 -2.1909e-05 -9.39232e-05 -0.7883445428 -0.0037017347
15299910.0 0.8568048133 -0.0270007957 -7.208e-05 -0.0001138567 -0.0001519882 -0.0001227045 -0.7937706823 -0.0017528309
20299880.0 0.8560999493 -0.0351724335 -0.0003597854 -0.0002479306 3.50399e-05 -8.62001e-05 -0.8006378819 0.0017329399
25299850.0 0.8552983995 -0.043159624 -2.869e-07 -0.0001256363 -6.55535e-05 8.57226e-05 -0.8066641328 0.0085295137
30299820.0 0.8543868424 -0.0518360594 -0.0001086194 -0.0002142465 -9.86632e-05 0.0001518421 -0.8127870777 0.0160746329
35299790.0 0.8537261833 -0.060304967 0.0001140867 -0.0001788727 -8.59702e-05 -8.82061e-05 -0.8177497419 0.0249774047
40299760.0 0.8531499541 -0.0687686426 0.0001563042 5.51391e-05 6.78998e-05 -5.70853e-05 -0.8218918923 0.0342975685
45299730.0 0.8524564222 -0.0769857203 -0.000114691 -2.67368e-05 -7.1485e-05 0.0002205022 -0.8257727101 0.0439474808
50299700.0 0.8521514776 -0.0849632609 -7.2177e-06 8.76391e-05 -6.50703e-05 -7.37765e-05 -0.8274221518 0.0537663366
55299670.0 0.8507970673 -0.0931531981 -5.7853e-06 6.34404e-05 -4.98805e-05 9.6032e-06 -0.8296891074 0.0640443263
60299640.0 0.8495924753 -0.1012399862 8.42699e-05 9.80684e-05 -0.0001040706 -5.7328e-06 -0.8307489502 0.0740178122
65299610.0 0.8480771453 -0.1100996713 -0.0001305274 2.52797e-05 -9.62914e-05 7.671e-06 -0.8318930275 0.0835115037
70299580.0 0.8475920359 -0.1181073041 0.0001093786 0.0001570762 1.32245e-05 -7.38853e-05 -0.8318916996 0.0941887409
75299550.0 0.8461609255 -0.12617279 5.52478e-05 -4.63979e-05 0.0001213206 -1.80925e-05 -0.8324191984 0.1038943074
80299520.0 0.8441675249 -0.1342443503 -0.0001243244 -0.000146395 -0.0001117452 0.0001217089 -0.8318134795 0.113313043
85299490.0 0.8435137112 -0.14277838 -6.833e-07 -0.0001012452 -7.80852e-05 -0.0001492006 -0.831029902 0.1233088693
90299460.0 0.8416812085 -0.1509707509 6.0227e-05 5.74144e-05 6.97729e-05 6.73956e-05 -0.8304579679 0.132941335
95299430.0 0.8401879323 -0.1595557373 6.3832e-05 3.35472e-05 -3.07188e-05 1.57309e-05 -0.828709164 0.1427692011
100299400.0 0.8380640481 -0.1672631729 -0.000135027 -8.07346e-05 -2.4054e-05 -1.3853e-06 -0.8284366561 0.1522531413
105299370.0 0.837750102 -0.1753683218 2.57151e-05 -0.0001505006 -5.04657e-05 5.5109e-05 -0.826933595 0.1611606161
110299340.0 0.8353063881 -0.1839715084 -2.6938e-06 -4.25759e-05 1.18665e-05 0.000102975 -0.8255122551 0.1705430156
115299310.0 0.8332371637 -0.1918546354 0.0001152535 -0.0001206055 -0.0001164681 9.963e-06 -0.8241966184 0.1796633354
120299280.0 0.8315027666 -0.1997092422 -0.0003639376 -2.13113e-05 -8.94974e-05 -5.9014e-05 -0.8229919601 0.1885083746
125299250.0 0.8291815975 -0.2081433016 -9.54996e-05 -5.18424e-05 -2.97085e-05 -0.0001638833 -0.8211014972 0.1979391689
130299220.0 0.8274775209 -0.2161306028 8.43056e-05 6.34597e-05 -2.67419e-05 4.96273e-05 -0.8193027861 0.2067146779
135299190.0 0.8256487633 -0.2237741345 -5.10242e-05 0.0001496777 0.0002153643 -8.7629e-06 -0.8172365303 0.21606045
140299160.0 0.8229368262 -0.2320718497 -4.57974e-05 4.53998e-05 -3.00301e-05 8.39958e-05 -0.8150711669 0.224936517
145299130.0 0.8204923266 -0.240219705 -0.0001347236 -5.27414e-05 0.0002585007 -4.21019e-05 -0.8134730869 0.2341276059
150299100.0 0.8181241522 -0.2486148981 -8.5237e-06 -2.29494e-05 7.70817e-05 -0.0002417604 -0.8114774568 0.2434975919
155299070.0 0.8151526011 -0.2564344724 -6.99018e-05 -7.28024e-05 -0.0001402973 7.11016e-05 -0.808254225 0.2519135491
160299040.0 0.8130579357 -0.264331588 4.3461e-06 1.7582e-05 -6.57474e-05 6.72676e-05 -0.8059315413 0.2609667976
165299010.0 0.8106729099 -0.2719490701 -6.77272e-05 -4.56135e-05 -0.0001709503 1.50649e-05 -0.8032582754 0.2696615997
170298980.0 0.8076446641 -0.2797703087 -3.08092e-05 -7.88143e-05 5.68494e-05 0.0001727207 -0.8003043327 0.2777439311
175298950.0 0.8047028988 -0.287894622 9.21404e-05 -3.67698e-05 -0.0001257275 -5.85647e-05 -0.7977554827 0.286855232
180298920.0 0.8023248623 -0.2955809198 -5.57844e-05 -0.0001281925 -7.87764e-05 5.10761e-05 -0.7945771851 0.295179729
185298890.0 0.7988868003 -0.3037545516 -0.0001066049 -1.97227e-05 -1.30766e-05 -3.90498e-05 -0.7913197762 0.3034631258
190298860.0 0.7957219184 -0.3112335997 -0.000186577 0.0001303788 -1.14361e-05 5.41567e-05 -0.7888864012 0.3122352653
195298830.0 0.7928067115 -0.3188109232 -2.98208e-05 -8.15772e-05 3.3221e-06 0.0002120906 -0.7851823081 0.3204481458
200298800.0 0.7892467783 -0.3258067482 -3.06197e-05 -8.7528e-06 0.0001318684 1.11223e-05 -0.7823478042 0.3289227347
205298770.0 0.7865276225 -0.3341692515 0.0001260259 -8.85752e-05 6.27822e-05 -4.21779e-05 -0.7778744517 0.3374029064
210298740.0 0.782809757 -0.3415476946 5.5459e-05 -0.0002482545 -5.71673e-05 -9.3925e-06 -0.7747044724 0.3454526802
215298710.0 0.7792182915 -0.3497803554 8.61437e-05 3.94993e-05 -4.1208e-06 8.21534e-05 -0.7712067406 0.3535326568
220298680.0 0.775896069 -0.3572932545 8.9164e-06 0.0001181126 -9.64203e-05 6.1284e-05 -0.7676480293 0.3612844701
225298650.0 0.7720637347 -0.3652475448 7.75074e-05 -1.04268e-05 6.9245e-06 -1.96637e-05 -0.7637780856 0.3700268627
230298620.0 0.7690869738 -0.3722215083 8.77142e-05 0.0002097199 -0.0001245955 -6.82084e-05 -0.7600291426 0.3776319167
235298590.0 0.7650297943 -0.3801359489 6.49848e-05 -1.31023e-05 -3.64653e-05 0.0002164671 -0.7556141495 0.3862418067
240298560.0 0.7621408227 -0.3869727394 3.60812e-05 8.32146e-05 0.0001416227 -0.0002059932 -0.75132981 0.3944886189
245298530.0 0.7574275336 -0.3946026365 1.62614e-05 -2.4652e-05 0.0001028457 -0.000180284 -0.747864783 0.4018249126
250298500.0 0.7536195964 -0.4017245141 0.0002159622 -0.0001622487 -4.36528e-05 -0.0001722178 -0.7438645491 0.4097867526
255298470.0 0.7493115425 -0.4092092479 -8.5821e-05 1.62934e-05 -0.0001108613 -3.00049e-05 -0.7383584129 0.4178389036
260298440.0 0.7451861089 -0.4167965457 8.16868e-05 -8.12021e-05 2.3794e-06 -1.9036e-05 -0.7344107394 0.4258790717
265298410.0 0.7416461733 -0.4238541201 -0.0001501759 5.65286e-05 -3.11178e-05 1.13833e-05 -0.7303087664 0.4331680154
270298380.0 0.7367106465 -0.4307827419 0.0001345685 -0.0001856468 -3.9333e-06 0.0001618439 -0.7256150666 0.4409742637
275298350.0 0.7332139318 -0.4387608315 5.39501e-05 -6.48634e-05 9.38231e-05 -0.0001976525 -0.7206656666 0.4485597336
280298320.0 0.7284524217 -0.4448538124 -3.42984e-05 -5.66802e-05 -1.84705e-05 -9.31733e-05 -0.716187093 0.4560317318
285298290.0 0.7243997959 -0.4524879999 0.0002193014 -3.76397e-05 0.0001344418 2.6171e-05 -0.7112182905 0.4634802341
290298260.0 0.7201015874 -0.4589944537 6.06201e-05 -0.0001817425 5.07753e-05 1.37401e-05 -0.706600163 0.4711754188
295298230.0 0.7161603277 -0.4666936083 6.17691e-05 0.0002166691 -1.55022e-05 0.0001049015 -0.7015849147 0.4782224233
300298200.0 0.7115611317 -0.4740505284 4.8062e-05 0.0003234866 -2.20277e-05 -4.09839e-05 -0.6966807616 0.4860828566
305298170.0 0.7075331496 -0.4807423266 6.21698e-05 -2.48666e-05 -0.0001760018 -0.0001008748 -0.6908448796 0.4928815217
310298140.0 0.7023216443 -0.4880466811 -7.59927e-05 -0.0002254618 -1.17171e-05 -2.39371e-05 -0.6860268436 0.5000881191
315298110.0 0.6983499482 -0.495966344 -5.5736e-05 4.26567e-05 -5.6502e-06 8.73936e-05 -0.6807524987 0.5069863469
320298080.0 0.6936336799 -0.5032244458 7.47075e-05 7.46198e-05 4.98231e-05 -9.12238e-05 -0.6754915241 0.514763184
325298050.0 0.6879756722 -0.5104996464 -4.9996e-06 -0.0001473936 -0.0001232121 -0.0001822418 -0.6698202143 0.5207992021
330298020.0 0.6817208965 -0.5176731538 1.07466e-05 5.8174e-05 -5.79283e-05 -6.6064e-05 -0.6644606761 0.5288083547
335297990.0 0.675768262 -0.5247179868 -5.64895e-05 -0.0001574823 -1.11723e-05 -0.0001672748 -0.6593129788 0.5357656025
340297960.0 0.6700660272 -0.531031438 0.0002261303 -2.4817e-06 0.0001252581 -0.0001005335 -0.6534898055 0.5423436289
345297930.0 0.663982415 -0.5374198676 4.0291e-06 0.0001319665 -1.08413e-05 5.26143e-05 -0.6478869342 0.5486944988
350297900.0 0.6586568668 -0.5428120836 0.0001632577 -0.0001189015 2.34476e-05 -0.0002306482 -0.6425472937 0.555329462
355297870.0 0.6531181055 -0.5495054677 -1.17106e-05 0.000118521 4.412e-06 0.0001414655 -0.6364841371 0.5618703156
360297840.0 0.6480363569 -0.5554153903 0.000104606 0.0001398242 -0.0001019762 0.0001006387 -0.6304914835 0.5689512066
365297810.0 0.6408865139 -0.561939266 8.04237e-05 0.0001417861 -0.0001861904 0.000142135 -0.6237449025 0.5755859945
370297780.0 0.6364844097 -0.5677338083 -0.0001662417 3.26114e-05 -3.21228e-05 2.25062e-05 -0.6184992782 0.5815885707
375297750.0 0.629568554 -0.573936776 3.6922e-05 -0.0001191483 0.0001355888 -3.71849e-05 -0.6121132439 0.5873110244
380297720.0 0.6245800498 -0.5802012708 7.05109e-05 -5.66922e-05 -6.70343e-05 4.75481e-05 -0.606398332 0.5939466094
385297690.0 0.618630838 -0.5863383268 0.0002057817 -5.3652e-05 3.17951e-05 -9.81567e-05 -0.6000583242 0.6003781876
390297660.0 0.6128527408 -0.5914893156 -2.8367e-05 5.56312e-05 7.63674e-05 -0.0001408906 -0.5939808433 0.6059179318
395297630.0 0.6070427568 -0.5977610977 1.83463e-05 0.0001035304 -5.21082e-05 0.0001346348 -0.586749257 0.6122687076
400297600.0 0.6010001916 -0.6034059877 -1.1982e-06 3.02095e-05 9.4623e-05 -2.83993e-05 -0.580849218 0.6182922418
405297570.0 0.5945109138 -0.6086862723 3.0168e-05 8.0117e-05 -9.09055e-05 -3.36587e-05 -0.5738264307 0.624069521
410297540.0 0.5883471892 -0.6152459435 7.8086e-06 2.9081e-05 -5.39177e-05 4.63171e-05 -0.5676292506 0.6303716461
415297510.0 0.5828690598 -0.6205184513 9.1247e-06 3.83989e-05 -2.47827e-05 -8.54816e-05 -0.561464547 0.6357906325
420297480.0 0.5761334611 -0.6259575605 -3.6193e-06 4.41581e-05 0.0001290976 -1.36457e-05 -0.5545718109 0.642053476
425297450.0 0.5701635411 -0.6320028337 -9.05735e-05 -7.75975e-05 -0.0001697531 4.06736e-05 -0.5483992175 0.6480933943
430297420.0 0.5643526224 -0.6370363722 -0.0001091914 1.41965e-05 2.89024e-05 -0.000244348 -0.5415206047 0.6527377907
435297390.0 0.5577380056 -0.6428362587 8.7088e-06 -7.78639e-05 5.82753e-05 1.25071e-05 -0.5340264809 0.6581621418
440297360.0 0.5518425195 -0.649059106 -6.35689e-05 3.78721e-05 6.58288e-05 -5.79114e-05 -0.527834782 0.6636360815
445297330.0 0.5449756944 -0.6538768345 4.7002e-05 -0.0001599528 -4.04697e-05 -5.90534e-05 -0.5204113042 0.6684454171
450297300.0 0.5390299416 -0.6585577011 -0.0001406063 -7.00542e-05 -0.0001249825 -0.0001078874 -0.5136090083 0.6743261274
455297270.0 0.5315471757 -0.6644634072 7.9524e-05 2.08996e-05 8.53524e-05 -9.6019e-06 -0.5071024878 0.6791118526
460297240.0 0.5253780567 -0.6693705074 -0.0001698022 2.43899e-05 -0.0001303335 -4.40636e-05 -0.4996166034 0.6841942246
465297210.0 0.518098287 -0.6739089629 -9.775e-05 -9.2658e-05 -6.58729e-05 -0.0001740276 -0.4922871915 0.6894287145
470297180.0 0.5115504601 -0.6788252451 -0.0001496159 -2.39868e-05 -0.0003123452 -4.93195e-05 -0.4853974458 0.6946631622
475297150.0 0.5051235635 -0.6845944385 0.000207521 5.51919e-05 0.0001272651 -0.0001017691 -0.4784123248 0.6989560281
480297120.0 0.4980152773 -0.6893578481 -6.96268e-05 -5.005e-05 4.53361e-05 6.60041e-05 -0.4706795287 0.7042604161
485297090.0 0.4911717408 -0.6933922498 0.0001120159 2.74287e-05 4.19902e-05 3.65851e-05 -0.4640331215 0.7090944526
490297060.0 0.4838043021 -0.6981657425 -0.0001963501 2.29901e-05 -2.1971e-06 -6.62012e-05 -0.4567798403 0.7134573765
495297030.0 0.4772625758 -0.7025646561 -0.0002373603 -3.2242e-05 -7.90798e-05 0.0001543581 -0.4496572579 0.7180691917
500297000.0 0.4698072842 -0.7074528823 -2.50148e-05 1.40957e-05 7.24352e-05 -1.43552e-05 -0.4415373172 0.7230893886
505296970.0 0.4637613557 -0.7123195004 -2.12346e-05 0.0001209537 -0.0001576463 0.0001690502 -0.4346072856 0.7269581874
510296940.0 0.455734446 -0.7171235969 -0.0001255618 0.0001484597 0.0001319025 -9.1055e-05 -0.4273522474 0.7312322613
515296910.0 0.4494540954 -0.7208005608 4.91671e-05 -7.25647e-05 -0.000139038 -7.78552e-05 -0.4195477629 0.7352926854
520296880.0 0.4412390833 -0.7252671097 3.47078e-05 -0.0001438355 -0.0002066357 -0.0001633256 -0.4118712508 0.7395163906
525296850.0 0.4341973682 -0.7295840971 0.000113216 -5.3738e-06 3.1726e-06 -4.45797e-05 -0.4049234535 0.7439419669
530296820.0 0.42758061 -0.7337016866 2.74289e-05 5.17093e-05 0.0001076225 0.000288169 -0.3974464604 0.7480607311
535296790.0 0.419688536 -0.7376021639 7.15246e-05 -8.8189e-06 0.0002131684 -8.2838e-06 -0.3901361096 0.751334341
540296760.0 0.41245327 -0.7419805136 9.12916e-05 -4.6855e-05 -4.5983e-06 0.0001479583 -0.3817352402 0.7557559171
545296730.0 0.4050869805 -0.745489983 -0.0001146185 5.69458e-05 0.0001099243 9.61038e-05 -0.3741057395 0.7595515483
550296700.0 0.3980726876 -0.7491039659 6.71768e-05 5.14997e-05 -0.0001169141 6.87881e-05 -0.366840104 0.7630427942
555296670.0 0.3901916671 -0.7532698143 -1.82264e-05 -6.68309e-05 -0.0001441246 7.9962e-06 -0.3583524237 0.7670261932
560296640.0 0.382583495 -0.7568906992 0.0003010532 -2.34006e-05 4.1799e-06 7.85261e-05 -0.3505093749 0.7704416582
565296610.0 0.375168307 -0.7601157603 -0.0001455409 -7.02612e-05 -1.88906e-05 -0.0001613851 -0.3432932546 0.773567687
570296580.0 0.3672921185 -0.764126441 0.000145976 1.85183e-05 -0.0001251586 -0.0001245996 -0.3357292565 0.7774230559
575296550.0 0.3596643773 -0.7668890895 -0.0001116786 5.72544e-05 -7.31445e-05 3.22605e-05 -0.3272599638 0.7804071601
580296520.0 0.3529316331 -0.7710080173 -4.63726e-05 -1.48877e-05 -2.22197e-05 -1.583e-06 -0.318749528 0.7834328547
585296490.0 0.3440153673 -0.7748892296 6.48727e-05 5.95566e-05 0.0001714405 -0.0001052772 -0.3108905521 0.7873598001
590296460.0 0.3371121644 -0.7764422302 8.17887e-05 -0.0001036002 9.6655e-05 9.31272e-05 -0.3034347977 0.7900112362
595296430.0 0.3293519769 -0.7809019305 3.15124e-05 3.73636e-05 -1.20547e-05 0.0001047426 -0.2954467919 0.7926709505
600296400.0 0.3208940902 -0.7843001493 1.44331e-05 4.53338e-05 -9.07229e-05 0.0001613052 -0.2873172121 0.7956023706
605296370.0 0.3133299246 -0.7868369181 -5.05969e-05 -5.3627e-06 9.65772e-05 -7.40933e-05 -0.2780358356 0.7983731707
610296340.0 0.3052967707 -0.7900318559 -0.0002118318 2.86706e-05 0.0001161716 1.43247e-05 -0.270819428 0.8010121813
615296310.0 0.2978554894 -0.7933142439 -0.0002123945 -6.47171e-05 0.00011112 6.30679e-05 -0.2623360084 0.8042479034
620296280.0 0.2896914441 -0.795279921 1.80675e-05 0.0001306177 -9.45542e-05 0.0001159599 -0.2548230463 0.8064320712
625296250.0 0.2820607436 -0.798133322 0.0001307737 3.62092e-05 -8.01115e-05 0.0001354134 -0.2462430815 0.8086350354
630296220.0 0.2742495266 -0.8011332362 -3.08109e-05 3.61271e-05 6.03969e-05 0.0001882438 -0.2378843699 0.8114342709
635296190.0 0.2656078739 -0.8032484389 1.07038e-05 6.87076e-05 0.0001643994 -0.0001009725 -0.2304028511 0.8134781978
640296160.0 0.2579103019 -0.8063635936 6.60364e-05 -3.47098e-05 -6.68351e-05 0.0001602553 -0.2215533472 0.8164241279
645296130.0 0.2496508231 -0.808307334 7.67547e-05 0.0001088046 -8.1397e-06 0.0002621206 -0.2132857604 0.8184332643
650296100.0 0.241269357 -0.8105318036 2.93961e-05 0.0002530274 9.87712e-05 0.0002610713 -0.2053057798 0.8194342767
655296070.0 0.2333873779 -0.8131212835 -0.0001719035 -6.50182e-05 -8.45671e-05 0.000144713 -0.1965341744 0.821715105
660296040.0 0.2250516955 -0.8152773712 -9.7386e-05 -0.0002422858 -6.99707e-05 -1.4731e-06 -0.1880891064 0.8239059565
665296010.0 0.217771137 -0.8168541769 8.74913e-05 0.0002684372 0.0002840634 1.35769e-05 -0.1803235168 0.8258247617
670295980.0 0.2095931428 -0.8194266875 -3.64873e-05 -0.0001496747 -8.25959e-05 5.23795e-05 -0.1723943 0.8274282734
675295950.0 0.2011027242 -0.8203062329 -0.0001696401 -3.6224e-05 5.45058e-05 5.13755e-05 -0.1644916396 0.8297441034
680295920.0 0.1927695343 -0.8225418814 1.17243e-05 3.47694e-05 -0.0001965851 -0.0003430519 -0.1559256113 0.8312465731
685295890.0 0.1850730296 -0.824406285 -0.0002433045 -2.65283e-05 -1.71259e-05 0.0001993336 -0.1468588331 0.832438685
690295860.0 0.1762917174 -0.8261607773 9.69604e-05 4.98659e-05 0.0001656738 0.0001061897 -0.1390594358 0.8338108183
695295830.0 0.1686069187 -0.827973626 -5.40447e-05 9.36462e-05 -9.65229e-05 -5.49858e-05 -0.1303061282 0.8354405518
700295800.0 0.1603992857 -0.8289225629 0.0001343622 0.0001725174 -5.27063e-05 6.25494e-05 -0.1227571098 0.8361660657
705295770.0 0.1516485548 -0.8309964671 -9.8924e-06 0.0001288569 -6.88675e-05 4.86885e-05 -0.1146866141 0.8383038614
710295740.0 0.1425171061 -0.8316874281 -4.34371e-05 -0.0001404743 -0.0002693302 -5.5172e-05 -0.1058251334 0.8386346649
715295710.0 0.1346061331 -0.8336938069 0.0002027889 6.26615e-05 0.0002952492 -9.47506e-05 -0.096910224 0.8397267036
720295680.0 0.1264586398 -0.8344219239 -4.11863e-05 5.85455e-05 2.74307e-05 0.0001616046 -0.0887224266 0.8407402916
725295650.0 0.1177165722 -0.8346693878 6.55528e-05 -2.13237e-05 6.69149e-05 0.0001510837 -0.0804885003 0.841731968
730295620.0 0.1095925054 -0.8361783468 4.54673e-05 4.96116e-05 -0.0001726233 0.0002595195 -0.0727560685 0.8418214519
735295590.0 0.1013212443 -0.8364479652 -9.82362e-05 0.0001319996 0.0001205325 -2.69121e-05 -0.0639771646 0.8423158144
740295560.0 0.0927672181 -0.8378703999 -0.0001753677 -1.09467e-05 3.386e-06 -9.43402e-05 -0.0548509033 0.8435872495
745295530.0 0.084544743 -0.8386025208 -2.1477e-05 -0.0001145084 0.0001776391 3.82418e-05 -0.0463511294 0.8434492207
750295500.0 0.0758647221 -0.8393957291 9.23414e-05 0.0001158183 3.99368e-05 0.0001327301 -0.0388317602 0.8440002091
755295470.0 0.0673078642 -0.8397902907 0.0001138186 -5.30008e-05 -0.0001162119 4.39363e-05 -0.0299598729 0.8442502434
760295440.0 0.0591289876 -0.8400733236 5.7343e-06 -4.8728e-06 0.0001466648 0.0001452457 -0.0210053621 0.8443115312
765295410.0 0.0510051189 -0.8409423296 -9.54968e-05 -8.26002e-05 -0.0001172396 -0.000249777 -0.0121830171 0.8452127223
770295380.0 0.0426764571 -0.8410374755 -8.3727e-06 -4.08824e-05 -5.0046e-05 -1.5316e-06 -0.0046819847 0.8446295405
775295350.0 0.0340007871 -0.8411208483 1.35479e-05 7.95904e-05 1.49789e-05 3.19626e-05 0.0028112699 0.8444236014
780295320.0 0.0258941517 -0.8414691668 0.0001156312 -9.76107e-05 -0.0001613628 0.0002251548 0.0120613249 0.8445801864
785295290.0 0.0175618027 -0.8416602506 6.08016e-05 6.60872e-05 8.22942e-05 0.0001849026 0.0212672621 0.8448096266
790295260.0 0.0087808657 -0.8418559222 -0.0002074697 -0.000290938 -5.3362e-05 0.0002438 0.0293882695 0.8447296223
795295230.0 0.0004566976 -0.8415783302 0.0001802079 1.66174e-05 9.65782e-05 -0.0001189883 0.0383059755 0.8433859646
800295200.0 -0.0079407833 -0.8412067691 -0.0001458414 1.05966e-05 -3.14474e-05 -6.31613e-05 0.0466921238 0.8431597246
805295170.0 -0.0165133006 -0.8411233529 -2.08614e-05 -0.0002005021 -0.0001139582 -0.0001037622 0.0539727077 0.8432501923
810295140.0 -0.0245307705 -0.8400053259 3.88311e-05 3.35682e-05 -1.43514e-05 7.29953e-05 0.0635701854 0.8427588736
815295110.0 -0.032610968 -0.8408741521 0.0001638231 -3.078e-05 0.0001126453 8.65999e-05 0.0716019903 0.8417030506
820295080.0 -0.0409718018 -0.8397365623 -4.94655e-05 4.04881e-05 -0.0001250347 3.55524e-05 0.0798629402 0.8414960964
825295050.0 -0.0495754075 -0.8387197889 -1.4681e-05 8.95229e-05 -8.48252e-05 -0.000217222 0.0883068732 0.8400911807
830295020.0 -0.0578154381 -0.8381766076 -0.0002264947 -1.57543e-05 -0.000172097 0.0001790503 0.0971346905 0.8392940461
835294990.0 -0.0660185624 -0.8368409216 -7.12292e-05 -0.0001708944 5.27886e-05 0.0001337586 0.1050018335 0.8386438143
840294960.0 -0.0748245279 -0.8369785914 0.0001097796 5.56845e-05 0.000124359 3.08471e-05 0.1129833618 0.836884693
845294930.0 -0.0830757105 -0.8359349119 0.0001170774 -0.0002301484 0.0001044576 0.0001247637 0.1207045992 0.8357647112
850294900.0 -0.0901901708 -0.8342761038 0.0001384783 -4.48147e-05 -9.846e-07 0.0001826227 0.1294892136 0.834676479
