!Created with skrf (http://scikit-rf.org).
# Hz S RI R 50.0 
!freq ReS11 ImS11 ReS21 ImS21 ReS12 ImS12 ReS22 ImS22
300000.0 -0.213760513 -0.0588597609 -0.0015867276 0.0017947603 0.0002614455 0.0013536921 -0.7727125331 -0.1370826654
5299970.0 -0.2172617496 0.0083440331 -8.84675e-05 -0.0001873984 9.56078e-05 0.0002008184 -0.7844356816 -0.0074744243
10299940.0 -0.2131761625 0.0194331261 -8.89038e-05 -2.0692e-05 6.76049e-05 -3.7599e-06 -0.7878938338 -0.0037300023
15299910.0 -0.2085624077 0.0283816283 -1.75909e-05 -1.85121e-05 1.57557e-05 -1.55607e-05 -0.7931743001 -0.0013039568
20299880.0 -0.2035486357 0.0358799373 0.0002982365 -4.76879e-05 5.72618e-05 -0.0001044699 -0.7995986071 0.0018336945
25299850.0 -0.1977393092 0.0421129422 3.38941e-05 -2.02462e-05 -4.06577e-05 -8.45986e-05 -0.8057950974 0.0081334568
30299820.0 -0.1922459713 0.0468640749 -5.90705e-05 -0.0001000953 0.0001512023 -4.29263e-05 -0.8124020814 0.0168787566
35299790.0 -0.1863713143 0.0506021289 -5.33278e-05 -8.88905e-05 -4.62e-08 -2.09337e-05 -0.8172216762 0.0251272683
40299760.0 -0.180778599 0.0535088358 0.0001462116 6.15333e-05 -0.0001720542 0.0001459137 -0.8212921292 0.0342712903
45299730.0 -0.1753742847 0.055504399 -7.7412e-05 2.14249e-05 -0.0001855781 1.05082e-05 -0.825102308 0.044272843
50299700.0 -0.1706733053 0.0568422605 3.15354e-05 -0.0001811489 -0.0002550156 -7.28793e-05 -0.827109196 0.0536853481
55299670.0 -0.1666345803 0.0577951706 -0.0001736273 -5.05351e-05 2.88531e-05 -1.71509e-05 -0.8293801497 0.0644034579
60299640.0 -0.1624475074 0.0588142187 2.26835e-05 0.0001524656 -0.0001402101 3.59994e-05 -0.8300652963 0.074240077
65299610.0 -0.1589028982 0.0592200022 -0.0001064127 4.0714e-06 -1.91062e-05 0.0002302242 -0.8319333724 0.084142877
70299580.0 -0.1556472556 0.0597604479 -2.8292e-05 0.0001127574 -4.81534e-05 0.0001273814 -0.8316058161 0.0946031952
75299550.0 -0.1526053407 0.0600479277 9.76673e-05 1.34645e-05 -0.0001223084 9.85326e-05 -0.8322606468 0.1040764809
80299520.0 -0.1497986872 0.0598391011 0.0001835669 -6.805e-07 -0.0002200766 6.68675e-05 -0.8321579478 0.1135627478
85299490.0 -0.1479034925 0.0598254542 -6.79181e-05 -8.2078e-06 0.000105677 5.4722e-05 -0.8313884039 0.1239563584
90299460.0 -0.1455960709 0.0600053159 -0.0001112944 -0.0001739304 -6.6254e-06 0.0002792349 -0.8308538315 0.1331284029
95299430.0 -0.1433407314 0.0595159927 2.51407e-05 7.69236e-05 1.0045e-05 -0.0001017468 -0.8293552864 0.1427207529
100299400.0 -0.141547937 0.0597947702 7.13103e-05 6.58381e-05 -9.60226e-05 9.03187e-05 -0.8286916748 0.1524181203
105299370.0 -0.1401821689 0.0599373964 9.62455e-05 0.000301093 0.0002275768 -3.52577e-05 -0.826978217 0.1611745644
110299340.0 -0.1384441134 0.0599772312 6.00106e-05 0.000123717 6.70136e-05 -1.36223e-05 -0.8256427444 0.170636018
115299310.0 -0.1370200316 0.0600711991 -2.10796e-05 4.19472e-05 5.03213e-05 7.71466e-05 -0.8241869017 0.1801408199
120299280.0 -0.1362191706 0.0597669812 0.0003216668 7.20211e-05 0.0001053108 0.0001636574 -0.8221660045 0.1890920766
125299250.0 -0.1351025131 0.0599153924 0.0002087999 -0.0001250845 5.54673e-05 5.25665e-05 -0.8210340724 0.1979421487
130299220.0 -0.134193051 0.0603306093 0.0001603268 0.0001443484 0.000166962 -7.4654e-06 -0.8192838433 0.2068404502
135299190.0 -0.1330979629 0.0608028164 0.0001108818 0.0001646715 -2.31876e-05 -6.87322e-05 -0.8169652941 0.2158320942
140299160.0 -0.1323367108 0.0609066897 0.0002164995 1.34027e-05 9.23069e-05 -3.98397e-05 -0.8141094437 0.2251794506
145299130.0 -0.131504092 0.0611791935 0.0001492893 9.21654e-05 -2.55077e-05 0.0002578823 -0.8122357609 0.2339010316
150299100.0 -0.13048961 0.0614657478 -0.0001450498 0.0001941215 0.0001843596 0.0001002537 -0.8106934405 0.2432044418
155299070.0 -0.1301676387 0.0617425671 -8.02284e-05 1.402e-06 2.00078e-05 -2.58904e-05 -0.807146174 0.2519725334
160299040.0 -0.1297291573 0.0624406769 -4.36442e-05 0.0001145685 0.0001018844 -0.000120928 -0.8054333127 0.2606231955
165299010.0 -0.1288379509 0.0626807368 -0.0001819158 4.40679e-05 6.09483e-05 0.0001192246 -0.8024294536 0.2694168192
170298980.0 -0.1284468366 0.0633690974 6.46754e-05 4.65144e-05 0.0001441658 -0.0001127273 -0.799425249 0.2781347609
175298950.0 -0.127979119 0.0637719374 -1.60747e-05 -7.40813e-05 -1.96335e-05 9.35451e-05 -0.7969549214 0.2867770396
180298920.0 -0.1274803498 0.0647600565 -8.70206e-05 9.80163e-05 0.0001490855 0.000169149 -0.7934106003 0.2955764559
185298890.0 -0.1265956568 0.0653739361 0.0002395275 7.36211e-05 0.0001118848 -7.39176e-05 -0.790608733 0.3037386362
190298860.0 -0.1261498958 0.0659397116 4.97089e-05 0.0002260844 -6.83847e-05 -0.0001309287 -0.7881362037 0.3123971077
195298830.0 -0.1259097785 0.0667156676 -1.18604e-05 -0.0001417347 1.99188e-05 -7.84822e-05 -0.7846317204 0.3209076735
200298800.0 -0.1251256267 0.0675000837 -0.0001229637 0.0002862566 -1.42834e-05 4.74276e-05 -0.7814768035 0.3291553531
205298770.0 -0.1249233884 0.0679733574 -8.1159e-06 9.07812e-05 3.78642e-05 -4.01472e-05 -0.7777977307 0.3377585199
210298740.0 -0.1246471064 0.0687909082 6.2798e-05 7.33446e-05 5.54558e-05 7.36728e-05 -0.7742764392 0.3460601569
215298710.0 -0.1241351806 0.0697782935 7.28579e-05 -6.18831e-05 0.0001717712 -5.38482e-05 -0.7709886904 0.3539959934
220298680.0 -0.1233803573 0.0703638213 -6.19185e-05 0.0001583113 7.3643e-05 1.91392e-05 -0.7672028983 0.3618861603
225298650.0 -0.123303549 0.0711948044 0.000142783 -2.56118e-05 1.68889e-05 0.0001649663 -0.764246136 0.3701325386
230298620.0 -0.1228473251 0.0723338467 0.0001107559 5.29226e-05 0.0002001457 -3.48028e-05 -0.7598552593 0.3786752441
235298590.0 -0.1220465556 0.0732175521 0.0002235086 -7.51201e-05 0.0004530293 0.0001011719 -0.7557048577 0.3870880392
240298560.0 -0.1217087032 0.0737536135 0.0001361795 -4.98918e-05 0.0001892885 2.66762e-05 -0.7515789374 0.3951759754
245298530.0 -0.1214197786 0.0748317626 -5.09104e-05 5.80973e-05 3.675e-07 0.0001240764 -0.7481262424 0.4017836611
250298500.0 -0.1206256343 0.0756723459 -5.8011e-05 -1.06484e-05 0.0001313318 8.9562e-05 -0.7434855582 0.4099836211
255298470.0 -0.1205763276 0.0764620238 -5.31806e-05 -1.3952e-06 0.0001217188 -2.04792e-05 -0.7390699779 0.4179524984
260298440.0 -0.1200876588 0.077487476 -4.78071e-05 0.0001384846 0.0001626367 -0.0001550615 -0.7343631163 0.4260394758
265298410.0 -0.119518902 0.078867528 -3.28627e-05 0.0001681696 5.23976e-05 0.0001731973 -0.7302568086 0.4337107333
270298380.0 -0.1190010412 0.0798894651 0.0002135384 8.05493e-05 4.66928e-05 0.0001312069 -0.7256124233 0.4411996541
275298350.0 -0.1185844156 0.0807538521 0.0001866295 0.000229089 4.29193e-05 -0.000221283 -0.7207979694 0.4487248232
280298320.0 -0.1176337313 0.081621076 0.0001908993 7.51082e-05 9.44635e-05 5.20712e-05 -0.7158180219 0.4558208736
285298290.0 -0.1171453623 0.0829777524 0.0001427547 7.48014e-05 0.000259563 -0.0001068463 -0.7113165296 0.4637012393
290298260.0 -0.1166560044 0.0837954606 0.0001361573 -0.0002674688 0.0002552863 0.0001916706 -0.7058675086 0.4710544321
295298230.0 -0.1158684856 0.0845730644 -3.86504e-05 0.0001911514 0.0001789897 5.56865e-05 -0.7016984294 0.4778564169
300298200.0 -0.1153429991 0.0859227679 3.73995e-05 -9.16241e-05 4.8136e-05 -0.0001556183 -0.6958843068 0.485300875
305298170.0 -0.1145385914 0.0867663767 0.0001335513 8.8368e-06 0.0002404341 5.17814e-05 -0.6903251647 0.493067106
310298140.0 -0.1141880567 0.0877655731 0.0002759267 9.97724e-05 0.000241058 0.0002273049 -0.6858745579 0.4999544713
315298110.0 -0.1133581663 0.0886144306 -4.5015e-05 0.0001701773 0.0001273383 0.0002320802 -0.6799155414 0.5068514636
320298080.0 -0.1125824502 0.089546481 9.19884e-05 5.4038e-05 0.0001989821 1.05049e-05 -0.6748575787 0.5145862798
325298050.0 -0.1119715998 0.0904776047 0.0001110716 0.0003551159 0.000132009 -0.0001278613 -0.6690611306 0.5213076938
330298020.0 -0.1114427383 0.0916194872 9.66308e-05 -0.000179004 0.0002545018 0.0003592425 -0.664076059 0.5282966996
335297990.0 -0.1110089601 0.0924303201 0.0003938246 0.0001828695 0.0001052094 1.27163e-05 -0.6583596829 0.5353669977
340297960.0 -0.1106925875 0.0936851952 0.0002249192 -5.79791e-05 -4.91419e-05 0.0002485012 -0.652240239 0.5425974848
345297930.0 -0.1098309783 0.0947614231 -0.0002614546 0.0001640507 8.01184e-05 3.84617e-05 -0.6472535521 0.5483654941
350297900.0 -0.1090233544 0.0959819991 4.89311e-05 0.0001611138 0.0002498997 4.92501e-05 -0.6415816405 0.5559342929
355297870.0 -0.1084955503 0.0972779369 0.0002193871 -3.41923e-05 -8.05441e-05 0.0001899262 -0.6357906999 0.5620702184
360297840.0 -0.1078791384 0.0981164956 -1.98334e-05 0.0003408777 2.8564e-06 -8.5623e-06 -0.6299176859 0.5690819689
365297810.0 -0.1073861482 0.0994345407 -4.29075e-05 -6.3146e-05 0.0001044326 0.0001841565 -0.6231557797 0.5755302214
370297780.0 -0.1064394862 0.1006796119 9.7609e-05 -1.65182e-05 9.16382e-05 -3.40146e-05 -0.6173707245 0.5818001639
375297750.0 -0.1053763347 0.1015847514 0.0001210387 5.23251e-05 1.88064e-05 -0.0001362074 -0.6118865012 0.5874835729
380297720.0 -0.1050165786 0.1024414653 -9.37944e-05 0.0001691485 0.0001718414 2.08448e-05 -0.6056840914 0.5939476007
385297690.0 -0.1040524729 0.1039177189 0.0002246846 0.0002407747 -6.2641e-05 5.58952e-05 -0.5992959163 0.6006892742
390297660.0 -0.1034116754 0.1049917921 0.0002798491 0.0001877903 7.73819e-05 0.0001708709 -0.5935934075 0.6069099146
395297630.0 -0.1025679536 0.1061212107 2.0832e-05 0.000145551 0.0001810123 0.0001681042 -0.5865325396 0.6134213568
400297600.0 -0.1014067449 0.1074388584 0.0002018956 -1.9478e-05 7.35805e-05 6.65676e-05 -0.5804453976 0.6189280067
405297570.0 -0.10096378 0.1082827264 4.66004e-05 9.2203e-06 0.0001967117 0.0002452625 -0.5737269398 0.6249819537
410297540.0 -0.0997872928 0.1093724326 8.05428e-05 0.0001088369 0.0001517207 3.10622e-05 -0.5679602363 0.6305514494
415297510.0 -0.0989040328 0.1099809782 0.0002221133 -5.4953e-06 0.0001079034 6.19886e-05 -0.5611576169 0.636235869
420297480.0 -0.098227371 0.1117389401 0.0002530369 7.82613e-05 0.0001186915 0.0001330327 -0.5539885535 0.6420877537
425297450.0 -0.097357484 0.1124331096 0.0002318445 -4.31826e-05 6.52089e-05 3.0201e-06 -0.5478577143 0.6476266041
430297420.0 -0.0964670663 0.1134011649 0.0002181807 -8.16337e-05 6.62986e-05 8.65822e-05 -0.5413737188 0.6530453521
435297390.0 -0.095215587 0.1145556218 0.0002713118 0.0003319917 8.89671e-05 8.66847e-05 -0.5338166655 0.6581606323
440297360.0 -0.0943960035 0.1154511484 0.0001955595 -3.27523e-05 0.0001031792 0.0001586499 -0.5270064092 0.6637724994
445297330.0 -0.0934975152 0.1168230865 3.1207e-06 -0.0001535948 0.0001795538 1.51201e-05 -0.5202336829 0.6690794145
450297300.0 -0.0925870402 0.1172115813 0.0001937989 0.0001331312 2.88327e-05 9.25466e-05 -0.512953741 0.6741848976
455297270.0 -0.0915211767 0.1183883672 0.0003834075 -8.58746e-05 0.0002301507 9.95299e-05 -0.5063442505 0.6785650766
460297240.0 -0.0905986379 0.119766619 0.0001364481 7.80731e-05 -2.7797e-06 8.3025e-05 -0.4999369586 0.6843227776
465297210.0 -0.0894900621 0.1206932262 0.0001230264 0.0001726804 0.0001282983 0.000215414 -0.4922229895 0.6893059829
470297180.0 -0.0884729923 0.1215113345 5.2519e-05 2.18564e-05 -1.02085e-05 -0.0001069462 -0.4847801233 0.6942369681
475297150.0 -0.0876776426 0.1225341552 3.9753e-05 -1.91431e-05 1.67056e-05 6.59857e-05 -0.4776266618 0.6986294325
480297120.0 -0.0863733731 0.1237700724 0.000183284 0.0001381425 0.0002545053 1.65294e-05 -0.4701018821 0.7036640599
485297090.0 -0.0851789919 0.124480521 3.98264e-05 -7.77549e-05 8.10646e-05 3.28715e-05 -0.4632250019 0.7086339321
490297060.0 -0.0846808514 0.1259005469 0.0002711961 -0.0002037201 0.0003460157 -0.0001311251 -0.455739802 0.7126634973
495297030.0 -0.0833495917 0.1265704231 0.0001161321 0.0002102193 0.0001159505 8.09417e-05 -0.4485510895 0.7174724379
500297000.0 -0.0819766415 0.1276166522 0.0001640779 0.0001281107 0.000286322 0.0001075683 -0.4411517308 0.7224282933
505296970.0 -0.0807378023 0.1283342103 0.0004902296 -0.0001091463 0.0001418405 0.0001731925 -0.4337857267 0.7272840816
510296940.0 -0.0798845589 0.12937465 3.64958e-05 0.0003306107 0.0002145097 4.462e-06 -0.4264581963 0.7310703967
515296910.0 -0.0784807954 0.1300141352 0.000441525 0.0001435689 -2.49923e-05 5.11449e-05 -0.4186430459 0.7351295959
520296880.0 -0.0777464081 0.1311681309 2.25537e-05 9.7521e-06 0.0003591109 7.96591e-05 -0.4109992653 0.7393556232
525296850.0 -0.0764720023 0.131861385 0.0003172517 4.82588e-05 0.0004190397 -9.98186e-05 -0.4039494692 0.7435222384
530296820.0 -0.0752900184 0.1329875982 0.0001514174 -9.531e-07 0.000104867 -3.39303e-05 -0.3964791269 0.7474694586
535296790.0 -0.0743255981 0.1340222771 3.2327e-05 3.68495e-05 0.0003775509 9.32091e-05 -0.3892902541 0.7514050286
540296760.0 -0.0731055371 0.1347373126 0.000222982 0.0002184256 9.65385e-05 0.0001080101 -0.3807519899 0.7556547076
545296730.0 -0.0719774108 0.1356134338 0.0002185548 4.824e-06 0.0001540647 -0.0001715875 -0.3732233398 0.7597967848
550296700.0 -0.0704539399 0.1363181708 0.0001479603 0.0001471552 0.0001302786 -1.05e-07 -0.3655085755 0.7631174691
555296670.0 -0.0693256762 0.1372038199 8.5978e-05 5.89997e-05 0.0001625475 2.00333e-05 -0.3579559424 0.7673412286
560296640.0 -0.0678340012 0.1382506982 0.0002003809 9.13088e-05 0.0002980298 0.0001857546 -0.3497664167 0.7709481831
565296610.0 -0.0671459293 0.1390652214 0.0001381558 3.3176e-06 0.0001568742 4.92792e-05 -0.3426733538 0.7742235409
570296580.0 -0.0658592241 0.1396456099 9.3652e-06 0.0001312318 0.0004382181 -0.0001093109 -0.3348102387 0.7782258679
575296550.0 -0.0646106609 0.1406893393 1.8666e-05 7.72526e-05 0.0003170026 -7.1373e-05 -0.3269762802 0.7807389458
580296520.0 -0.0632429493 0.1412869469 0.0001262139 -5.4042e-06 4.05935e-05 0.0001154307 -0.318349837 0.7841036884
585296490.0 -0.0618338017 0.142152408 1.09651e-05 0.0001505446 0.0002563863 3.74286e-05 -0.3103281748 0.7875456215
590296460.0 -0.0605583145 0.1430006579 0.0003035341 4.5226e-06 8.69636e-05 7.1615e-05 -0.3033501874 0.7906091445
595296430.0 -0.0596071319 0.1434256423 0.0001430254 4.34209e-05 0.0002552592 -2.57797e-05 -0.2943500892 0.7925384694
600296400.0 -0.0584390246 0.1443307036 0.0002001615 -1.99248e-05 0.0001141345 -0.0001977304 -0.286166565 0.7959454997
605296370.0 -0.0570323154 0.1452520589 -4.63049e-05 0.000139155 0.0002252691 1.64821e-05 -0.2780094383 0.7986193142
610296340.0 -0.0555954262 0.1457671436 0.0003774884 -0.0001477546 0.0001251316 -9.8997e-06 -0.2700682605 0.8008562655
615296310.0 -0.0542069648 0.1464128983 0.0001868514 -0.0002223194 0.0003284776 2.89285e-05 -0.2619239017 0.8035126642
620296280.0 -0.0528435891 0.1470263447 0.0002132392 0.00019201 0.0003415778 0.0002143158 -0.2544813576 0.8063799152
625296250.0 -0.0515837234 0.1476594558 0.0003477272 4.63461e-05 0.0002529072 -8.2433e-05 -0.2451383903 0.8085173367
630296220.0 -0.0498995761 0.1482669355 0.0001452327 0.0002007734 -1.97984e-05 -3.4873e-06 -0.2376054882 0.8109916957
635296190.0 -0.0489348129 0.1492471614 2.91797e-05 4.48061e-05 0.0002328248 -3.0647e-05 -0.2292976171 0.8123905752
640296160.0 -0.0476061825 0.1497137612 0.0001826382 -0.0002659934 3.2891e-06 -0.0001069433 -0.221258089 0.8154433314
645296130.0 -0.046066943 0.1504782111 0.0003418819 0.0001236334 0.000227597 0.0003338319 -0.2129929467 0.8176443255
650296100.0 -0.0448185133 0.1508893559 0.0001676469 -9.69886e-05 0.0001615756 0.0002389451 -0.2048614906 0.819317139
655296070.0 -0.0433902825 0.1518571162 5.92435e-05 0.0001738457 4.77024e-05 6.84947e-05 -0.1960394081 0.8208897984
660296040.0 -0.0418569934 0.1523048324 0.0001451592 -0.0001608209 0.0001474012 0.000121077 -0.1876286711 0.8237074905
665296010.0 -0.0406416972 0.1524494621 0.0003524211 -0.0001102751 0.0004756338 -2.69475e-05 -0.1795114864 0.8257983421
670295980.0 -0.0394556659 0.1536198827 0.0002269695 2.83742e-05 0.0002551551 -1.02687e-05 -0.1716637544 0.8269768002
675295950.0 -0.037801818 0.1540921112 0.0002543189 0.000148882 9.86878e-05 -1.6994e-05 -0.1636324125 0.8291464671
680295920.0 -0.0364092102 0.1547211105 0.0002165654 0.0001263991 0.0002629992 -0.0001528893 -0.1547862732 0.8311450832
685295890.0 -0.0348872832 0.1553851703 0.0001910607 -0.0001336512 0.0002552217 6.17525e-05 -0.1461628672 0.8319140345
690295860.0 -0.0333213358 0.1555462171 0.0001166058 1.06193e-05 7.16471e-05 -0.0002062668 -0.1383811015 0.8337030062
695295830.0 -0.0323336099 0.1561805986 0.0004371882 -4.77379e-05 0.0001010707 -0.0001888099 -0.1295687566 0.8350074712
700295800.0 -0.0305053252 0.1565338453 0.0003211828 7.32136e-05 0.0002613553 0.0001528556 -0.121816103 0.8360468842
705295770.0 -0.0295725406 0.1570900106 0.000222617 6.17802e-05 0.0003603782 -0.0001416344 -0.1129049016 0.8386736827
710295740.0 -0.0277449336 0.1577930446 0.0003575051 9.08734e-05 0.0002328275 9.00332e-05 -0.1048746263 0.838133578
715295710.0 -0.0265332654 0.1582251076 0.0002921201 0.0001335253 0.0002187373 -2.595e-05 -0.096133995 0.839883959
720295680.0 -0.0248251951 0.1586168318 0.0003558654 -1.1733e-05 0.000125097 -7.24337e-05 -0.0875480141 0.840825911
725295650.0 -0.0232270467 0.1593644425 0.0002704196 2.76644e-05 0.0004339113 -4.51937e-05 -0.0796194337 0.8418915736
730295620.0 -0.0216409057 0.1598000338 0.0002045733 -0.0001165212 0.0001147955 -0.0001155404 -0.0716087936 0.8423142
735295590.0 -0.0202905479 0.160171401 0.0002941173 -0.000105627 0.0003471151 -0.0001214826 -0.0632796215 0.8424927936
740295560.0 -0.01900662 0.1602443787 0.0002426331 0.0001614065 0.0002468387 -0.0001112071 -0.0537678677 0.8442208164
745295530.0 -0.0177658127 0.1606860422 0.0004287543 -0.000181252 0.0002426545 -8.25123e-05 -0.0458071404 0.8433065741
750295500.0 -0.0157679161 0.1613082961 0.000226182 0.0001628438 0.0002279805 0.0001471482 -0.0380047673 0.8444230151
755295470.0 -0.0143655008 0.1613882124 0.0003764613 5.20684e-05 0.0002424501 -8.48805e-05 -0.0286938584 0.8438390711
760295440.0 -0.0130005739 0.1614121909 -3.49405e-05 0.0001386655 0.0001640836 -8.2014e-05 -0.0206878393 0.8443858788
765295410.0 -0.0115004511 0.1619604725 0.0001794141 0.0001338292 0.0005325181 0.0001616695 -0.0121570373 0.8446938537
770295380.0 -0.0100913213 0.1623531791 0.0004326957 0.0001405252 0.0003309796 8.08779e-05 -0.0041337628 0.8446867323
775295350.0 -0.0088720256 0.1627747206 1.74138e-05 0.00014161 0.0005248385 -0.0001056953 0.0041706001 0.8444291787
780295320.0 -0.0069747007 0.1630682738 0.0002978117 -3.3253e-05 0.0002699402 -3.87653e-05 0.0122841571 0.8444645848
785295290.0 -0.0056460894 0.1631791832 -2.38204e-05 -0.0001711295 0.0003579956 -0.0001732043 0.0209675319 0.8442036691
790295260.0 -0.0036560517 0.1635658489 0.000504062 -7.76913e-05 0.0002450795 -3.90624e-05 0.0302849238 0.8443308735
795295230.0 -0.0026218883 0.1638013405 0.0003444614 -0.0001895115 0.0002082333 4.8588e-06 0.0386737694 0.8428955562
800295200.0 -0.0011607217 0.1640176499 0.0001545879 -8.25934e-05 0.0003355065 -9.33671e-05 0.0469816252 0.8427892517
805295170.0 0.0006394807 0.1640903641 0.0002676068 -2.26045e-05 0.0002384766 -1.11532e-05 0.0549362996 0.8428337799
810295140.0 0.0023267446 0.1644764569 0.0002375601 2.10631e-05 0.0001909929 3.0834e-06 0.0636066949 0.8416819123
815295110.0 0.0035595774 0.1642265914 0.0002511355 -6.57605e-05 0.0003027751 3.05156e-05 0.0722657009 0.8412020931
820295080.0 0.0052931912 0.1647805229 0.0003066651 0.0001800637 0.0001399467 3.97102e-05 0.0802350102 0.8405622465
825295050.0 0.0072445339 0.1644772156 0.0001818351 -0.0002193219 0.0002594542 7.56125e-05 0.0887358182 0.8394406951
830295020.0 0.0083154363 0.1649903526 0.0003812242 -9.13935e-05 0.0005183274 -0.0002605486 0.0982911762 0.8382336628
835294990.0 0.0098766936 0.1650680382 0.0001441464 -0.00011554 0.0002993427 -0.0001254488 0.1053505189 0.8378110511
840294960.0 0.0112976037 0.1652072458 0.0002766656 -0.0001488172 0.0001318009 -0.0003320897 0.1136285464 0.8366118043
845294930.0 0.0128485272 0.1651664122 0.0002781121 -0.0003015225 0.0003120717 -0.0001218436 0.1217235136 0.8348850927
850294900.0 0.014854092 0.1654604955 0.0003099448 -3.77918e-05 0.0002503021 -0.0001019687 0.1304036211 0.8336536993
