!Created with skrf (http://scikit-rf.org).
# Hz S RI R 50.0 
!freq ReS11 ImS11 ReS21 ImS21 ReS12 ImS12 ReS22 ImS22
300000.0 -0.2432138814 -0.0785827481 0.4753145275 0.0514955183 0.469163738 0.0510026132 -0.2434809642 -0.0913254703
5299970.0 -0.244232018 0.0072002774 0.4736600507 0.0050425825 0.473830584 0.0050530697 -0.2444614403 0.0074622922
10299940.0 -0.2409137094 0.0189609025 0.4755883052 0.0060207335 0.4755572926 0.0065704902 -0.2406454885 0.020362054
15299910.0 -0.2367143875 0.0279021207 0.4791252627 0.0075305415 0.4792016436 0.0076589799 -0.2362958443 0.0296052253
20299880.0 -0.2319433075 0.0355474854 0.4840157246 0.0083400295 0.4838608466 0.0081821563 -0.2307776857 0.0372416072
25299850.0 -0.2269741726 0.0420647999 0.4892403686 0.007395526 0.4885818701 0.0073971631 -0.2248835246 0.0438014105
30299820.0 -0.2215536565 0.0471831823 0.4944800006 0.0056116812 0.4944868355 0.00530279 -0.2190189534 0.0491339519
35299790.0 -0.2164059431 0.0513590748 0.4999959249 0.0017661818 0.4996959739 0.0021825769 -0.2134546116 0.0531618648
40299760.0 -0.2115892751 0.0549584007 0.5049643122 -0.0017498956 0.5052622948 -0.001829437 -0.208148617 0.056042802
45299730.0 -0.206666386 0.0576220469 0.509526703 -0.0063936475 0.5100492741 -0.0063761945 -0.2036581388 0.0588206392
50299700.0 -0.2022913115 0.0599152072 0.5145708001 -0.0119967379 0.514203013 -0.0119236576 -0.1983826066 0.0607337289
55299670.0 -0.1984310567 0.0615639699 0.5180128484 -0.018171782 0.5178627822 -0.0179319647 -0.1943617918 0.0622161169
60299640.0 -0.194305772 0.063635815 0.5209793273 -0.0245541329 0.5215630719 -0.0243813245 -0.1902818133 0.0632625905
65299610.0 -0.1912788039 0.064770348 0.5241817417 -0.0308326739 0.5241756901 -0.0306861001 -0.1870383606 0.0641135572
70299580.0 -0.1880959961 0.0661110909 0.5266053086 -0.0374306504 0.5266229392 -0.0371572975 -0.1841954326 0.0648103826
75299550.0 -0.1849812619 0.0675189937 0.5286221141 -0.0439723645 0.5284849075 -0.0442733991 -0.1812520433 0.0653791128
80299520.0 -0.1825272237 0.068108742 0.5305160432 -0.0509307574 0.5302251823 -0.0510416112 -0.1782607258 0.0658046904
85299490.0 -0.1802225096 0.0688715962 0.5318353775 -0.0577939437 0.5319576243 -0.0572962522 -0.1760140176 0.0659749131
90299460.0 -0.1777560843 0.0697573355 0.5324360612 -0.0648235327 0.5332217472 -0.0645305018 -0.1738145062 0.0667854365
95299430.0 -0.1755561651 0.0704205586 0.5337232452 -0.0717948374 0.5337275433 -0.071808757 -0.171384678 0.0672827043
100299400.0 -0.1739811815 0.0718494404 0.5336767679 -0.0785603252 0.5339683954 -0.0787233133 -0.1694253155 0.0673926329
105299370.0 -0.1720723998 0.0723983476 0.5343553858 -0.0856645209 0.5346652703 -0.08545205 -0.1673897575 0.0679396026
110299340.0 -0.1705239254 0.0732555416 0.5346187158 -0.0921544563 0.534088893 -0.0922444883 -0.166302616 0.0685148202
115299310.0 -0.1686174638 0.0740291306 0.5343596555 -0.0992802711 0.5341242161 -0.0991629562 -0.1648325236 0.0688904578
120299280.0 -0.1672748923 0.0745411001 0.5340513995 -0.1058616357 0.5343206841 -0.1059185311 -0.1632706001 0.0695248155
125299250.0 -0.1661486725 0.0755289889 0.5342484645 -0.1123689255 0.5340840539 -0.1126383262 -0.162731137 0.0696081402
130299220.0 -0.165003094 0.0768171832 0.5333332807 -0.1197803093 0.5333945472 -0.1192976856 -0.1612564791 0.0703861046
135299190.0 -0.1638753551 0.0778670362 0.5327798719 -0.1262318625 0.5327993603 -0.1258832045 -0.1600249224 0.071115843
140299160.0 -0.1624526214 0.0788256349 0.5320674178 -0.1327092403 0.5316934849 -0.1326367999 -0.1588544772 0.0724323128
145299130.0 -0.161448874 0.0799599 0.5311846132 -0.1395128772 0.5307757636 -0.1393389271 -0.1578669238 0.0728428961
150299100.0 -0.1601720466 0.081091893 0.5297554529 -0.1454245633 0.5300790492 -0.1455969543 -0.1567984742 0.0740280903
155299070.0 -0.1595482099 0.0822217923 0.5286151811 -0.1529979901 0.5288544955 -0.1524245975 -0.1558582826 0.0748014381
160299040.0 -0.1583186431 0.0832291808 0.5272901833 -0.1587888929 0.5269169766 -0.159005737 -0.1557907271 0.0754816852
165299010.0 -0.1573739054 0.0845273871 0.5257366693 -0.1654819604 0.525787141 -0.1651849941 -0.1540689582 0.0766110237
170298980.0 -0.1566936561 0.0857211684 0.5241629996 -0.1712514157 0.5244130114 -0.1718052291 -0.1535231289 0.0774631192
175298950.0 -0.1554136923 0.0870374436 0.5231349018 -0.1775911766 0.5220437263 -0.1780381781 -0.1528514401 0.0785239261
180298920.0 -0.1546249808 0.0883845446 0.520873271 -0.1844083182 0.5207112095 -0.1838891828 -0.152227063 0.0795907957
185298890.0 -0.1534335795 0.0894872276 0.518977599 -0.1903230164 0.5185379743 -0.1904819952 -0.1514300501 0.0808096605
190298860.0 -0.1526649898 0.091071335 0.5175633633 -0.1966407881 0.5172126765 -0.1966977049 -0.1505684795 0.0817104232
195298830.0 -0.1517808588 0.0921421642 0.5153116443 -0.2027709652 0.5155062045 -0.2025122246 -0.1497030371 0.0830873415
200298800.0 -0.1507088456 0.0936778577 0.5132375169 -0.2088602333 0.5132068078 -0.2092148109 -0.1494541613 0.0843762343
205298770.0 -0.1496934179 0.0948941626 0.5106394787 -0.2151017527 0.5105257664 -0.2147115612 -0.1483453832 0.0848001326
210298740.0 -0.148919886 0.0960845836 0.5088857695 -0.2203683296 0.5086341434 -0.2205844065 -0.1474597554 0.0867765758
215298710.0 -0.1484512666 0.0979074778 0.5065043152 -0.2271977367 0.5062126944 -0.2272664997 -0.1471646973 0.087548826
220298680.0 -0.147000047 0.0989055478 0.5036301448 -0.2327227518 0.5038187578 -0.2329001855 -0.1467183269 0.0885784644
225298650.0 -0.1460697406 0.1000844414 0.5013348748 -0.2385389061 0.5013883664 -0.2386349849 -0.1465790123 0.0897866815
230298620.0 -0.1452248808 0.1021388804 0.4989870564 -0.2443303861 0.4991570493 -0.2442947617 -0.1457038371 0.0907184469
235298590.0 -0.1440554762 0.1036444073 0.4963223638 -0.2500009089 0.4961502958 -0.2495557928 -0.1445730091 0.0920288525
240298560.0 -0.1433576776 0.1052241202 0.4938790021 -0.2562232625 0.4934332038 -0.2562004434 -0.1437974359 0.0939240971
245298530.0 -0.1420092932 0.1066043641 0.4907968463 -0.2615098869 0.4907057967 -0.2618694563 -0.1428809798 0.0941292951
250298500.0 -0.1410962725 0.108022823 0.4874052049 -0.2675002039 0.4873123918 -0.2669029842 -0.1425617752 0.0956748726
255298470.0 -0.139825795 0.1094037431 0.4844584697 -0.2726368957 0.4849575397 -0.2726179261 -0.1414441462 0.0968076257
260298440.0 -0.1391428914 0.1104248063 0.4816191776 -0.2785803317 0.4820340709 -0.278215172 -0.1401955028 0.0980644365
265298410.0 -0.1374421584 0.1124432348 0.4787234843 -0.2841826048 0.4789710258 -0.2835946626 -0.1400350243 0.099485348
270298380.0 -0.1367868688 0.1139191625 0.4761782636 -0.2890769728 0.4757876714 -0.2893190612 -0.1389311539 0.1006452502
275298350.0 -0.1353357266 0.1152468997 0.4727548853 -0.2950473741 0.4731160543 -0.2947820197 -0.1379826112 0.1019196413
280298320.0 -0.1339987392 0.1166727742 0.4699203708 -0.3002227948 0.4698809367 -0.300086003 -0.1369637184 0.1030455993
285298290.0 -0.1327579036 0.1181641167 0.466431083 -0.305222295 0.4660640216 -0.3053484148 -0.1356656421 0.1043937813
290298260.0 -0.1314344482 0.11984608 0.4627520995 -0.3104101168 0.4630147851 -0.3110053731 -0.1352376316 0.1058746123
295298230.0 -0.130201381 0.120801923 0.4598056899 -0.3157871271 0.4594428179 -0.3157615291 -0.1333377567 0.1066181494
300298200.0 -0.1292139816 0.1224489528 0.45637336 -0.3209681283 0.4565019338 -0.3213137621 -0.1329059894 0.1079444768
305298170.0 -0.1277671851 0.1235816277 0.4524040609 -0.3264372914 0.4527421515 -0.3262691307 -0.1313331254 0.1092792672
310298140.0 -0.1267652998 0.1252654135 0.4490112833 -0.331604192 0.4492869309 -0.3313647039 -0.1306326853 0.1102127077
315298110.0 -0.1251705201 0.1263667928 0.4454518813 -0.3368932328 0.445607381 -0.3368696771 -0.1297293868 0.111571232
320298080.0 -0.1238415517 0.1273837471 0.4412076229 -0.3423455367 0.4416632713 -0.3419398455 -0.1286233137 0.1127553316
325298050.0 -0.1226381039 0.128703046 0.4377003342 -0.3471938083 0.4380419281 -0.3471429808 -0.1281590583 0.1140144196
330298020.0 -0.1214911073 0.1299427571 0.4335884969 -0.3519987994 0.4339007836 -0.3520866421 -0.1269161894 0.1151333851
335297990.0 -0.1203656847 0.131201425 0.4296241123 -0.3565451625 0.4295337805 -0.3570255865 -0.1266341811 0.1169744529
340297960.0 -0.1192348716 0.1329976039 0.4253475495 -0.361490949 0.4252500896 -0.3616895329 -0.1252861976 0.1180714358
345297930.0 -0.1178498047 0.1344900137 0.4215639071 -0.366187053 0.421117282 -0.3664570468 -0.1242281278 0.1191550241
350297900.0 -0.1166494133 0.1355264184 0.4171054359 -0.3711089852 0.4173022347 -0.3707668442 -0.1235482497 0.1209492631
355297870.0 -0.115157157 0.1375376198 0.413001159 -0.375333651 0.4132052497 -0.3752497854 -0.1224449352 0.1218442241
360297840.0 -0.1139321545 0.1386177 0.4095099458 -0.3804299925 0.4092902572 -0.3797605822 -0.1216900499 0.1234316726
365297810.0 -0.1125652908 0.1402435477 0.4046615954 -0.3847745618 0.4051068206 -0.3848760584 -0.1202052142 0.125269835
370297780.0 -0.1106315735 0.1415226739 0.4007482751 -0.3889414211 0.400880786 -0.3886280486 -0.1190129323 0.1262730131
375297750.0 -0.1090422277 0.1429677775 0.3964490141 -0.3933911963 0.3967008301 -0.3934077539 -0.1180859379 0.1276649508
380297720.0 -0.1075443585 0.1441984469 0.391327327 -0.3982101671 0.3921280143 -0.3972208648 -0.1173672417 0.1287110836
385297690.0 -0.1064272323 0.1454244249 0.3875820323 -0.4022790999 0.3871761131 -0.401979788 -0.1155538755 0.130094212
390297660.0 -0.1047941604 0.1470158636 0.3830539551 -0.4062996323 0.3828737256 -0.405790453 -0.1148878085 0.1313013229
395297630.0 -0.1031766348 0.1483554359 0.3790118107 -0.4107101309 0.3788153283 -0.410444607 -0.1131974786 0.1327334544
400297600.0 -0.101723532 0.1496602536 0.3740803629 -0.4150012866 0.3740545341 -0.414747018 -0.1121954963 0.133825383
405297570.0 -0.1001803441 0.1507385974 0.3694603106 -0.4186200047 0.3691514451 -0.4183648846 -0.1113693608 0.1350421796
410297540.0 -0.098321422 0.1517433643 0.3650838672 -0.4229063926 0.3652279807 -0.4226877687 -0.1099227371 0.1365083044
415297510.0 -0.0966388602 0.1530097756 0.3603849893 -0.4268251853 0.3604899522 -0.427204939 -0.108718161 0.1375489427
420297480.0 -0.0952508426 0.154506717 0.3551691831 -0.4308592539 0.3553467184 -0.4306720217 -0.1076326905 0.1384020599
425297450.0 -0.0935905502 0.1554371013 0.3509285505 -0.4348912745 0.3512767981 -0.4347144816 -0.1066717309 0.1398728125
430297420.0 -0.0919113007 0.15660753 0.3460609239 -0.4378773022 0.3460448771 -0.4378258897 -0.1048831236 0.1407352778
435297390.0 -0.0904110937 0.1577845108 0.3409708369 -0.4420014192 0.3408622136 -0.4419981364 -0.1032914554 0.1419326761
440297360.0 -0.0883062323 0.1590509526 0.3364145428 -0.4456547473 0.3363630412 -0.4457046335 -0.1023355996 0.1428745555
445297330.0 -0.0866146336 0.1597584694 0.3315520855 -0.4493078565 0.3315562227 -0.4490491843 -0.1008335684 0.1436194911
450297300.0 -0.0850227799 0.1608470275 0.3265786957 -0.4529438079 0.3263588747 -0.4529657642 -0.0994488608 0.1449776117
455297270.0 -0.0831752701 0.1620551292 0.321206084 -0.4564659608 0.3215957934 -0.4566425175 -0.0983933293 0.1459128955
460297240.0 -0.0816602115 0.1630064894 0.3163971188 -0.4596749001 0.3163426157 -0.4599130232 -0.0966279668 0.147262515
465297210.0 -0.0796247053 0.1643261971 0.3117907626 -0.4634023646 0.3115400881 -0.4637197078 -0.0950453484 0.1479692962
470297180.0 -0.0775894684 0.1649902539 0.3058041982 -0.4666584951 0.3061797151 -0.4667204769 -0.0938342474 0.1493737182
475297150.0 -0.0760779717 0.1656124887 0.3008819711 -0.4699361369 0.3014005388 -0.4692939447 -0.0917064286 0.1500525666
480297120.0 -0.0742144287 0.1675651641 0.295956316 -0.4733623897 0.2957759983 -0.473409505 -0.0903543805 0.1511967408
485297090.0 -0.07243197 0.1681674948 0.2913755423 -0.4762381555 0.2908006011 -0.4762916396 -0.088771123 0.1522673758
490297060.0 -0.0708973691 0.1688829567 0.2858074669 -0.4796065841 0.2860612048 -0.4794061985 -0.0875184562 0.1534340221
495297030.0 -0.0688327214 0.1698884961 0.2804693504 -0.4824151872 0.280738095 -0.4827518279 -0.0863523099 0.1543223673
500297000.0 -0.0669135545 0.1710425022 0.2751189453 -0.4852389828 0.2747002259 -0.4853859478 -0.084524978 0.1559400214
505296970.0 -0.0648515136 0.1716674027 0.2698824296 -0.4885854855 0.2697262308 -0.4887322655 -0.0831522265 0.1561828537
510296940.0 -0.0628727837 0.1728497359 0.2643814857 -0.491813795 0.2644503502 -0.4916872963 -0.0815073027 0.1578056672
515296910.0 -0.0612103191 0.1731981742 0.2587085972 -0.4943333894 0.2588849246 -0.4942932293 -0.0799509731 0.1584442876
520296880.0 -0.0597158773 0.1741077818 0.2541109708 -0.4970730487 0.2538709824 -0.4968494377 -0.0789199857 0.1593653689
525296850.0 -0.0571941901 0.1745886343 0.247678206 -0.4999644843 0.2483748999 -0.4994040822 -0.0772156263 0.1605421397
530296820.0 -0.0552028773 0.1756636421 0.2423094874 -0.5027049981 0.2425809751 -0.5024900779 -0.0756470385 0.1614009563
535296790.0 -0.0538579069 0.1765135756 0.2375338914 -0.504655999 0.2375258912 -0.5044457869 -0.074230154 0.1618357045
540296760.0 -0.0518185981 0.1772121613 0.2319619901 -0.5076686664 0.2317468521 -0.5076571658 -0.0728262705 0.1635628473
545296730.0 -0.0496901221 0.1777167657 0.2258556521 -0.5097298418 0.2260796687 -0.510491293 -0.0711742081 0.1640232502
550296700.0 -0.0474972965 0.178582435 0.2204385594 -0.5122285854 0.220973634 -0.5126751081 -0.0699093854 0.1650084992
555296670.0 -0.0461214723 0.1790866567 0.2154979892 -0.5146333923 0.2154663369 -0.5149021483 -0.0680957379 0.1661876822
560296640.0 -0.0435881745 0.1802511432 0.209145366 -0.51748842 0.2096433793 -0.5170606059 -0.066450985 0.1663811243
565296610.0 -0.0419507072 0.1808127645 0.2034258914 -0.5193454942 0.2036616504 -0.5192667043 -0.0649318901 0.1672150995
570296580.0 -0.0398242118 0.18135212 0.1981023776 -0.5219872686 0.1977612392 -0.5216255249 -0.0635941119 0.1686999963
575296550.0 -0.0382436173 0.1820511523 0.1926680582 -0.5236400526 0.1923214492 -0.5237171134 -0.0619887718 0.1689238295
580296520.0 -0.0358516912 0.1826250041 0.1865819728 -0.5260296624 0.1866654174 -0.525442897 -0.060035248 0.1697079235
585296490.0 -0.0341616726 0.1827300436 0.1811789026 -0.5273425817 0.1815326606 -0.5274549322 -0.0583677229 0.1702505784
590296460.0 -0.0316527813 0.1834685373 0.1754429669 -0.5287880474 0.1752935844 -0.5292030853 -0.0574739237 0.1712507837
595296430.0 -0.0295705043 0.1838279155 0.1692459755 -0.5313793899 0.169351761 -0.5313186219 -0.0554290253 0.1712894452
600296400.0 -0.0279819527 0.1842219194 0.1638444094 -0.5332778455 0.1638589991 -0.5327315072 -0.0540839053 0.172158648
605296370.0 -0.0259823851 0.1848882206 0.1581454372 -0.5347160235 0.1580991212 -0.5347648829 -0.0520167595 0.1727173521
610296340.0 -0.023849435 0.1850955857 0.1519805271 -0.5364178581 0.1523979007 -0.5363367289 -0.0506342976 0.1732752112
615296310.0 -0.0215633817 0.1855763092 0.1460880407 -0.5379198094 0.1463018294 -0.5386142779 -0.0484176374 0.1738347472
620296280.0 -0.0196300667 0.1855771004 0.1404061901 -0.5394594612 0.1406014992 -0.5390715572 -0.0469656713 0.1744855318
625296250.0 -0.0177797224 0.1858591382 0.1349829588 -0.5410769329 0.1346450458 -0.5412579304 -0.0447479348 0.1749339501
630296220.0 -0.0150098573 0.1865457409 0.1283540378 -0.5424915117 0.1283163875 -0.5418711848 -0.043425935 0.1758586744
635296190.0 -0.0135965046 0.1865227811 0.1232404834 -0.5433360827 0.1230384379 -0.5437711231 -0.0413892926 0.176344584
640296160.0 -0.011543644 0.1869142732 0.1173577702 -0.5442357992 0.1174605185 -0.544999696 -0.0398188983 0.1766899863
645296130.0 -0.0092307594 0.1874542434 0.1109546077 -0.5460540638 0.1113500523 -0.5459453951 -0.0380290175 0.1776185328
650296100.0 -0.0073108569 0.1874131472 0.1050365314 -0.5469549423 0.1052061925 -0.5472814551 -0.0359493293 0.1772956958
655296070.0 -0.0054317484 0.187495548 0.0991699833 -0.5483050478 0.0997360173 -0.5481677412 -0.0342444061 0.178582894
660296040.0 -0.0037922153 0.1875500656 0.0937188568 -0.5494200723 0.0936165786 -0.5493384211 -0.0325309806 0.1788898537
665296010.0 -0.000946156 0.1877164147 0.0872183334 -0.5501054331 0.0876335649 -0.5502584692 -0.0307143148 0.1798989598
670295980.0 0.0002651325 0.1880657239 0.0812640653 -0.5509548408 0.0814389966 -0.5509337814 -0.0291753847 0.1802510105
675295950.0 0.002796267 0.1884374849 0.0758521186 -0.5517178581 0.075762986 -0.5511329143 -0.0277902911 0.1804701728
680295920.0 0.0045499148 0.1885610489 0.0693097874 -0.552680448 0.0692720215 -0.5528581965 -0.0257544309 0.1815661411
685295890.0 0.0071068297 0.188964789 0.0632532288 -0.5535527354 0.0633832653 -0.5535696036 -0.0239316698 0.1816387096
690295860.0 0.0093251989 0.1883678748 0.0575715315 -0.5535471308 0.0575794721 -0.5543315169 -0.0223355957 0.1826970402
695295830.0 0.0111591746 0.1883623474 0.0517979913 -0.5544733982 0.0512276958 -0.5544904412 -0.0201301726 0.182768358
700295800.0 0.013320543 0.1885406045 0.0455050562 -0.5548779075 0.0454873569 -0.5544580209 -0.0189177087 0.1834316216
705295770.0 0.0151550018 0.1892004267 0.0397155891 -0.5552749339 0.0399555757 -0.5553938556 -0.0174342387 0.1836086469
710295740.0 0.0177407415 0.1887271225 0.0336310881 -0.5563273894 0.0339632649 -0.5559945298 -0.0150967152 0.1833621572
715295710.0 0.0189080904 0.1884671117 0.0280074358 -0.5559657319 0.0272861399 -0.5561195561 -0.0130232748 0.1841339782
720295680.0 0.0215496302 0.1885827882 0.0216466338 -0.5563446153 0.0218221528 -0.5562342064 -0.0116049338 0.1846374553
725295650.0 0.0237827787 0.1883735644 0.0156184691 -0.5566403364 0.0159154359 -0.5568223599 -0.0103373304 0.1851332861
730295620.0 0.0259927587 0.1885770352 0.0090923961 -0.556455784 0.0096321072 -0.5565904579 -0.0083698475 0.1848360865
735295590.0 0.0277339745 0.1883241653 0.0035989975 -0.5566448805 0.0033687226 -0.5565318603 -0.0067986496 0.185155371
740295560.0 0.0295280106 0.1881641448 -0.0026259112 -0.5566774702 -0.0023476605 -0.5564444239 -0.0044147587 0.1853674683
745295530.0 0.0318497076 0.1880960993 -0.008557858 -0.5561589472 -0.0083657172 -0.5563204965 -0.00305469 0.1853135389
750295500.0 0.0341851335 0.1877064571 -0.0142613913 -0.5559367812 -0.0141721776 -0.5565217442 -0.0009915118 0.1856617258
755295470.0 0.0360164682 0.1875000754 -0.0199990705 -0.5564213292 -0.0202024828 -0.5559326487 0.0010293817 0.1852994835
760295440.0 0.0380761655 0.1871140749 -0.0263340448 -0.5557631687 -0.0265833931 -0.5560110366 0.0025162336 0.1856043359
765295410.0 0.0399896033 0.1870443884 -0.0324150776 -0.5554571906 -0.0325611611 -0.5559059659 0.0043246099 0.1859266913
770295380.0 0.0419641478 0.1865478154 -0.0383328144 -0.5551973614 -0.0384104336 -0.5548449886 0.0058140844 0.1854916293
775295350.0 0.0439946943 0.1858203045 -0.044496664 -0.5543670207 -0.0441374466 -0.5544214252 0.0075177224 0.1860115909
780295320.0 0.0462583463 0.1856049978 -0.050410365 -0.5534710404 -0.0496872754 -0.5537365082 0.0092689258 0.1855583542
785295290.0 0.0476954422 0.1849702693 -0.0563922349 -0.5530355254 -0.0562641011 -0.5531759678 0.0116968117 0.1861338357
790295260.0 0.0504619085 0.1853196627 -0.0615582263 -0.5524231089 -0.0612661482 -0.5525573722 0.0132279434 0.1861564073
795295230.0 0.0523794176 0.184368591 -0.0679498234 -0.5516692026 -0.0674958512 -0.5517976358 0.0155553745 0.1862523034
800295200.0 0.0539400618 0.1842656054 -0.0745683035 -0.5508719024 -0.0743122048 -0.5511806501 0.0172137457 0.1861011484
805295170.0 0.056110386 0.1833548987 -0.07988682 -0.5499272823 -0.0801315258 -0.550440913 0.0188234171 0.186060771
810295140.0 0.0581582456 0.1828122217 -0.0854256423 -0.54942636 -0.0860048254 -0.5496844792 0.0213645684 0.1859458308
815295110.0 0.0600525921 0.1820958194 -0.0915666193 -0.5480422915 -0.0913180159 -0.5480495997 0.0226638343 0.1859228715
820295080.0 0.0618733736 0.1823598311 -0.0978636241 -0.5469598727 -0.0973291617 -0.5471067073 0.0244498793 0.1860114354
825295050.0 0.0644805293 0.181383207 -0.1032305585 -0.5459787508 -0.1032976772 -0.5458121227 0.0266094467 0.1859069996
830295020.0 0.0662180278 0.1808523305 -0.1097749683 -0.5443929627 -0.1092906878 -0.5448346577 0.0290867298 0.1858172952
