!Created with skrf (http://scikit-rf.org).
# Hz S RI R 50.0 
!freq ReS11 ImS11 ReS21 ImS21 ReS12 ImS12 ReS22 ImS22
300000.0 0.8585527495 -0.0027734758 7.41221e-05 -0.0003711332 -0.0004181589 0.0012951634 -0.7757552461 -0.1264128509
5299970.0 0.8589385146 -0.01006043 -5.78838e-05 -0.0001113522 -3.02934e-05 -5.94987e-05 -0.7855332644 -0.0067378641
10299940.0 0.8579371072 -0.0178005024 -4.5267e-05 3.76366e-05 4.38925e-05 0.0001038065 -0.7887300499 -0.0034514143
15299910.0 0.8565984805 -0.0264223565 0.0002013884 -0.0001776253 4.76123e-05 -9.93874e-05 -0.7940056251 -0.0014511023
20299880.0 0.8560048608 -0.0348886781 -0.0001091535 -0.0001403872 -0.0001311076 -0.0001071943 -0.8009556342 0.0021936176
25299850.0 0.8550030398 -0.0440257505 8.13232e-05 0.0001290942 7.8743e-05 -0.0001141139 -0.8072132944 0.0082302041
30299820.0 0.8542885005 -0.0518126487 9.5853e-05 0.0001669439 -0.0001261098 6.57592e-05 -0.8127500257 0.0161663602
35299790.0 0.8542537213 -0.0600497176 0.0001456071 -0.000140957 -0.0001525282 0.0002370576 -0.8174653213 0.0243588501
40299760.0 0.8525980423 -0.0690324836 -0.0001073999 0.0001001713 8.5724e-06 0.0001549924 -0.8215159628 0.0344337719
45299730.0 0.8527864872 -0.0769969766 0.0002540169 -0.0002372703 -0.0002028459 -0.0001080214 -0.8253039112 0.043475962
50299700.0 0.8517672911 -0.0851999975 0.0001443149 5.07785e-05 3.36425e-05 0.0001242933 -0.827422449 0.0537537087
55299670.0 0.8505711764 -0.0934263523 -5.2625e-05 0.0001145087 0.0003458159 2.21099e-05 -0.8299819203 0.0640773324
60299640.0 0.8493265406 -0.10141127 0.0001701595 2.971e-06 -0.0002104564 8.84412e-05 -0.8303217419 0.0739110893
65299610.0 0.8483518078 -0.1100681822 8.7855e-06 -4.57452e-05 -0.000262549 -6.49582e-05 -0.8321326886 0.0838329911
70299580.0 0.8473374595 -0.1182010978 -0.0001366119 4.24289e-05 -8.14649e-05 -7.634e-05 -0.8319181864 0.093862386
75299550.0 0.8456662623 -0.1264624196 0.000110906 3.32705e-05 -4.17554e-05 -7.9097e-05 -0.8322442379 0.1037431326
80299520.0 0.844355185 -0.1345528814 0.000182419 -9.98098e-05 3.36783e-05 2.06723e-05 -0.8321346321 0.1136269453
85299490.0 0.8433094662 -0.1429058504 9.26223e-05 -1.50559e-05 -7.58264e-05 0.0002750463 -0.8318859076 0.123461294
90299460.0 0.8417184803 -0.1505868466 1.96347e-05 7.0477e-05 0.0001212681 -5.47897e-05 -0.8305325947 0.1331063351
95299430.0 0.8398650239 -0.1597259665 -0.0001636705 6.53216e-05 5.05766e-05 7.95743e-05 -0.828855271 0.1428082687
100299400.0 0.8387204597 -0.1673268394 -2.66169e-05 -0.0001250215 -7.7789e-06 0.0002976102 -0.8285114618 0.1523597012
105299370.0 0.8371243276 -0.1756577742 7.57958e-05 6.67538e-05 5.90408e-05 0.0002017274 -0.8267350578 0.1609022163
110299340.0 0.8351876179 -0.1836911331 -0.0001118884 -0.0001407799 6.76348e-05 7.2178e-05 -0.825604949 0.1709899635
115299310.0 0.8333226019 -0.1917546477 4.24705e-05 -8.16387e-05 -1.43415e-05 0.0002300143 -0.8241268465 0.1796949021
120299280.0 0.8314020614 -0.1998624559 0.0001282395 -0.0003216362 -9.54478e-05 3.63098e-05 -0.822288217 0.1889777804
125299250.0 0.8291921531 -0.2080538561 -2.64631e-05 0.0002135275 8.60644e-05 -7.41108e-05 -0.8212717606 0.1979618132
130299220.0 0.8274301838 -0.2159712633 -5.23646e-05 -0.0001143803 2.3982e-05 0.0001206373 -0.8195113429 0.2064243462
135299190.0 0.8254029273 -0.2240021537 7.23e-08 0.0001705741 4.48358e-05 -3.77375e-05 -0.8176002755 0.2159496138
140299160.0 0.8233858847 -0.2318989689 -7.96462e-05 -0.0001495723 -8.57343e-05 -2.37168e-05 -0.8154327247 0.2255925188
145299130.0 0.8205428302 -0.2403345221 3.62803e-05 0.000128628 -0.0001340474 -3.44985e-05 -0.8129766362 0.2339903014
150299100.0 0.8183724694 -0.2476125781 0.0001906638 2.00428e-05 0.0001108912 -8.67667e-05 -0.8110948142 0.2430123482
155299070.0 0.8152624145 -0.2561940068 8.4938e-06 0.0002007543 -0.0002138003 -0.000108998 -0.8081658774 0.2515418163
160299040.0 0.8130374523 -0.2636463543 7.67439e-05 -0.0003431267 -1.46027e-05 -8.65718e-05 -0.8061493724 0.2608969383
165299010.0 0.8102460065 -0.2723288924 -0.0004172075 -0.0003161518 -6.36162e-05 0.0001019111 -0.8037280382 0.2692845328
170298980.0 0.8077735857 -0.2797914347 -6.14967e-05 1.48731e-05 -0.000108119 1.47809e-05 -0.8004160145 0.2779003554
175298950.0 0.8049309126 -0.2877337889 -0.000194709 3.402e-06 -0.0001036823 2.94765e-05 -0.7971671019 0.2866227636
180298920.0 0.8019640258 -0.295231882 0.0001390408 3.90369e-05 4.63473e-05 0.0001022417 -0.7946730229 0.2949776565
185298890.0 0.798435534 -0.3037841379 8.57147e-05 0.0001260191 -2.6716e-05 -6.28923e-05 -0.791111639 0.3034724949
190298860.0 0.7958636359 -0.3109757959 0.000117635 -0.0001368105 -0.0001001661 7.54842e-05 -0.788454036 0.3121290079
195298830.0 0.7931305089 -0.318767406 6.63155e-05 -1.90898e-05 7.45591e-05 0.000123319 -0.7855337092 0.3209359573
200298800.0 0.789474486 -0.3262671419 -4.36855e-05 -5.15515e-05 6.9236e-05 8.68136e-05 -0.7825294656 0.3291481662
205298770.0 0.7860410018 -0.3339171704 1.19756e-05 -3.1488e-05 -1.8745e-06 -0.0001452811 -0.7785689088 0.3370703112
210298740.0 0.7825868363 -0.3414566053 0.0002679597 6.26249e-05 -0.0001310371 -5.6903e-06 -0.7750588592 0.3458514344
215298710.0 0.7795616825 -0.3499155443 0.0001748846 1.99689e-05 4.46074e-05 3.15688e-05 -0.7713994343 0.3535723823
220298680.0 0.7764142935 -0.3573693518 -1.04122e-05 -0.0001350197 -4.50237e-05 5.6722e-06 -0.7680102311 0.3616834206
225298650.0 0.7722917665 -0.364880684 -4.72137e-05 0.0001390959 -0.0001283413 -3.09672e-05 -0.7639811194 0.3698794714
230298620.0 0.7685135377 -0.3725908874 2.771e-06 -9.17679e-05 6.89583e-05 -0.0001400431 -0.7600863576 0.378066502
235298590.0 0.7648668186 -0.3793795866 7.04966e-05 6.4588e-06 -8.26961e-05 -9.23917e-05 -0.7559019885 0.3863420476
240298560.0 0.761957983 -0.3869575543 7.5763e-05 0.000133484 0.0001021026 -0.0001234711 -0.7516896518 0.394700976
245298530.0 0.7571340556 -0.3949161745 -7.9733e-06 -0.0001079268 -0.0001121706 1.59576e-05 -0.748270451 0.4019088157
250298500.0 0.7533814053 -0.4012247554 9.42603e-05 0.0001508939 0.0001543706 0.0002561669 -0.743679236 0.4099423081
255298470.0 0.74912807 -0.4097906361 -0.0001178023 5.07394e-05 -7.19031e-05 0.0001743409 -0.7393596266 0.4177041578
260298440.0 0.7454190312 -0.4166233092 -0.0001295433 -2.86626e-05 -0.0001068728 -4.9984e-05 -0.7353971918 0.4258881956
265298410.0 0.7411631073 -0.4235093842 2.10529e-05 4.33779e-05 -2.7915e-06 -8.2535e-06 -0.7304392364 0.4329957451
270298380.0 0.7368846653 -0.4308767867 -5.09334e-05 -0.0001924742 -0.0001352352 -0.0001157896 -0.7258784094 0.441197715
275298350.0 0.7329827212 -0.4377284111 -6.00833e-05 -0.0001125796 -8.35177e-05 6.62943e-05 -0.7210559452 0.4486855597
280298320.0 0.7282065761 -0.4451410722 0.0001125497 -0.0001416555 -5.39946e-05 -1.28408e-05 -0.7162022398 0.4560433329
285298290.0 0.7249006197 -0.4524828681 -6.2732e-06 -0.0001650557 -3.94739e-05 -4.22895e-05 -0.7111837951 0.4636291315
290298260.0 0.719927893 -0.4590175003 4.99077e-05 -0.0002260431 -7.61864e-05 -3.93325e-05 -0.7066412214 0.4711948859
295298230.0 0.7158418962 -0.4661720521 -0.0001932183 -1.56884e-05 -0.0002438688 -4.26274e-05 -0.7015897224 0.4782591816
300298200.0 0.7118694056 -0.4738277512 -0.0002298109 0.0001765654 -8.30458e-05 0.0001165995 -0.6964719798 0.4857851074
305298170.0 0.7070353177 -0.480651239 0.0001385216 7.39386e-05 7.98409e-05 0.0001918505 -0.6909416067 0.4932312923
310298140.0 0.7030241835 -0.4880186963 0.0001238784 -9.51116e-05 4.9175e-05 -0.0001541139 -0.6863850587 0.5004516317
315298110.0 0.698119689 -0.4957799622 -0.0001030183 5.01345e-05 0.0001808155 8.212e-05 -0.6808861253 0.5069337991
320298080.0 0.6940645183 -0.5032851417 -1.9776e-05 0.0002058228 5.9602e-06 0.0002064389 -0.6755253282 0.5150155936
325298050.0 0.6875683732 -0.5102202409 -0.0002003103 -8.82252e-05 4.01206e-05 -0.0002541798 -0.6700938084 0.5216222235
330298020.0 0.6823704017 -0.5171019172 9.15016e-05 2.8442e-05 -8.72964e-05 3.9185e-05 -0.6649121709 0.5287611046
335297990.0 0.6754775354 -0.5245190908 1.8107e-06 -0.0001236205 -0.0001534365 2.35618e-05 -0.6592457763 0.5356531574
340297960.0 0.670121069 -0.5314713079 0.00010311 7.29704e-05 -7.74829e-05 2.74382e-05 -0.6536668591 0.5425472419
345297930.0 0.6639478502 -0.5369590311 -3.57063e-05 -5.37222e-05 2.75148e-05 -0.000178995 -0.647995928 0.5485471065
350297900.0 0.6587387085 -0.5435143739 -0.0003032336 0.0001003152 5.11047e-05 6.15463e-05 -0.6420643488 0.5554180096
355297870.0 0.6529613226 -0.5493608332 1.55162e-05 3.1943e-05 -9.8137e-05 6.44586e-05 -0.6367878255 0.5619056424
360297840.0 0.6477637598 -0.5557036934 -0.0002055728 8.72153e-05 3.53341e-05 7.13271e-05 -0.6306939389 0.5687327859
365297810.0 0.6413450786 -0.5621179684 -4.6156e-05 6.17718e-05 0.0001015507 0.0001197113 -0.6236466717 0.5756138085
370297780.0 0.6363314788 -0.5681503322 0.0001210026 -0.0001215431 -7.70709e-05 -0.0001093268 -0.6179986372 0.5818614883
375297750.0 0.6303846005 -0.5740255395 -4.7846e-06 -0.0001504383 -0.0001291217 0.0001374747 -0.6118298322 0.587167373
380297720.0 0.6250969307 -0.580234505 -0.0001508317 -0.000141843 9.61564e-05 -2.11424e-05 -0.6062501964 0.5941154032
385297690.0 0.6189728921 -0.5861799417 -9.91263e-05 -7.65542e-05 -5.30306e-05 0.0001308665 -0.5997292455 0.6004513304
390297660.0 0.6128731179 -0.5914307003 -0.0002325612 -4.22063e-05 -6.73048e-05 9.66353e-05 -0.5941034913 0.6068623643
395297630.0 0.6071378834 -0.5977378964 1.49914e-05 -0.0001538582 -0.0001225049 8.35012e-05 -0.5862983233 0.6128093535
400297600.0 0.6008810712 -0.6037379151 2.50464e-05 0.0001203627 4.62002e-05 -5.9254e-05 -0.5811515733 0.6181830516
405297570.0 0.595092585 -0.6092505229 0.0001032939 0.0002687598 -4.53771e-05 -9.04348e-05 -0.5745361089 0.6242492073
410297540.0 0.5886524397 -0.6148216739 -5.56419e-05 8.67546e-05 -0.0001068015 -5.9693e-05 -0.5676310699 0.6306259173
415297510.0 0.5829664505 -0.6207420427 -9.59327e-05 -0.000170804 -0.000129637 2.77087e-05 -0.5611213709 0.6357995201
420297480.0 0.5766429496 -0.6263111401 6.658e-05 0.0001485719 -0.0001059722 -7.93416e-05 -0.554438832 0.6416859784
425297450.0 0.5695023994 -0.6315760095 5.98526e-05 -6.59215e-05 9.12242e-05 7.28922e-05 -0.5482388997 0.6474314898
430297420.0 0.5636279697 -0.6377730505 -0.000160054 0.0001032859 6.32901e-05 9.36934e-05 -0.5419616179 0.6527513447
435297390.0 0.5578244727 -0.6428690183 -5.67358e-05 -2.86627e-05 2.53188e-05 -0.000148812 -0.5348040899 0.6584526292
440297360.0 0.5507234009 -0.6481672885 -8.50829e-05 5.61371e-05 0.0002170406 -9.95029e-05 -0.5276305267 0.6634615403
445297330.0 0.5447586592 -0.6538398069 -9.56155e-05 -2.0266e-06 7.517e-07 0.0001763569 -0.5206864898 0.6687980917
450297300.0 0.538614828 -0.658882221 -9.55486e-05 0.0001112645 -4.81349e-05 -0.0001010863 -0.5138438079 0.6740939631
455297270.0 0.5319121788 -0.6641037181 3.04615e-05 -9.98527e-05 -2.53996e-05 7.44179e-05 -0.506932794 0.679264003
460297240.0 0.5255493793 -0.6690081963 -9.93487e-05 -4.21064e-05 0.000180068 -5.64664e-05 -0.5004827741 0.6844337854
465297210.0 0.5183035568 -0.6746094419 0.000234044 7.5295e-06 0.000174516 0.0001644887 -0.492772102 0.6892827287
470297180.0 0.5116317973 -0.678736533 0.0001206419 0.0001710904 -7.69102e-05 0.000167754 -0.4854951687 0.6947229781
475297150.0 0.5049954762 -0.6840259836 0.0001133801 -0.000175411 -4.85293e-05 -6.0294e-05 -0.4783779531 0.6990988082
480297120.0 0.4979063532 -0.688743931 -0.0002094785 -0.0001409498 -5.45321e-05 -5.06622e-05 -0.4706945166 0.7038948788
485297090.0 0.4909632736 -0.6937131401 -8.58919e-05 -0.0001148555 -0.0003323057 5.824e-07 -0.4638027913 0.7091810496
490297060.0 0.484043919 -0.6983120066 -9.49225e-05 5.6958e-05 -0.0001025473 9.77165e-05 -0.4568538094 0.7129710965
495297030.0 0.4772482011 -0.7029608388 -9.95777e-05 0.0001828331 0.0002810735 0.0001137893 -0.4492718013 0.7183210259
500297000.0 0.4703000003 -0.7076125069 4.84644e-05 0.0002197005 0.0001162363 -0.0001137032 -0.4415787746 0.7229606303
505296970.0 0.4633502489 -0.7124067486 -0.0001423761 -0.0002682977 0.0001794936 -4.4158e-06 -0.4345198618 0.7272235914
510296940.0 0.4560037961 -0.7171151847 6.36235e-05 -2.59223e-05 4.34721e-05 -9.5469e-06 -0.4263773168 0.7315816605
515296910.0 0.4494806391 -0.7206748987 -0.0001036128 -0.0001674782 -5.61654e-05 3.633e-05 -0.4194413135 0.7359210753
520296880.0 0.4413185669 -0.7251498929 -1.8706e-06 -7.5802e-05 0.0001071273 2.05898e-05 -0.4118989863 0.7392258346
525296850.0 0.4347293593 -0.7297094985 -4.82616e-05 6.51848e-05 0.0001693731 7.7207e-05 -0.4051261123 0.7440978442
530296820.0 0.4269604044 -0.7337353302 0.0001149812 0.00016021 6.65559e-05 -1.67556e-05 -0.3975624715 0.7475679467
535296790.0 0.4194574135 -0.7379245954 -3.72095e-05 -7.28046e-05 9.2018e-05 -9.40876e-05 -0.3901727934 0.7512191726
540296760.0 0.4126182843 -0.7415947207 0.0001378429 7.28105e-05 -3.68512e-05 2.20766e-05 -0.3816560896 0.755695172
545296730.0 0.404883971 -0.7459925965 -0.000188947 2.20879e-05 3.95487e-05 7.24046e-05 -0.3740121137 0.7589209069
550296700.0 0.3979189314 -0.7490939121 1.34084e-05 -1.18731e-05 -0.0001388306 -4.21957e-05 -0.3664631448 0.7626768549
555296670.0 0.3902814684 -0.7534795264 -3.35515e-05 0.0001542571 7.96099e-05 1.79022e-05 -0.3584457229 0.7669033568
560296640.0 0.3825463497 -0.7567203738 2.226e-07 -1.54e-07 4.21537e-05 -1.87722e-05 -0.3506775695 0.7708110718
565296610.0 0.3751775123 -0.7604221611 -6.5346e-06 4.48248e-05 -4.88494e-05 -2.81188e-05 -0.3426906963 0.7733233086
570296580.0 0.3674563038 -0.7641471075 0.0001234663 7.06367e-05 -6.22476e-05 -5.62988e-05 -0.3352972677 0.7771158927
575296550.0 0.3598130024 -0.7673339688 -0.0001415148 -0.0001150559 -6.41612e-05 -0.0001228757 -0.3273402952 0.7802600276
580296520.0 0.3524159885 -0.7712503908 -0.0001250803 -7.10298e-05 -0.0002236383 0.0001095024 -0.318862048 0.7837587942
585296490.0 0.3436575506 -0.7746589568 2.72554e-05 9.1388e-06 4.41667e-05 2.89487e-05 -0.3109151272 0.7871109412
590296460.0 0.3370268466 -0.7769701099 -4.40431e-05 -8.37282e-05 4.87856e-05 -7.47675e-05 -0.3035935243 0.7899326767
595296430.0 0.3286842339 -0.780509393 -3.76556e-05 -5.7353e-06 -5.8733e-05 5.70429e-05 -0.2952229452 0.7923704792
600296400.0 0.3212605908 -0.7838100047 0.0001258159 -8.95317e-05 -5.65186e-05 0.0001098645 -0.2873438771 0.7957186385
605296370.0 0.3134735214 -0.787157011 5.23535e-05 -6.02644e-05 -0.0001159681 -5.43164e-05 -0.2785645898 0.79853281
610296340.0 0.3053747258 -0.789885834 -6.51699e-05 9.88653e-05 7.65641e-05 -1.41658e-05 -0.2707683829 0.8015205315
615296310.0 0.2980686019 -0.7930639515 2.80348e-05 -7.60393e-05 -4.31222e-05 -3.63593e-05 -0.2623488166 0.8041291385
620296280.0 0.289657702 -0.7955220963 8.20703e-05 0.0001151056 -0.0002198287 -2.58022e-05 -0.2548146823 0.8066312685
625296250.0 0.282021643 -0.7980793361 -3.21996e-05 9.9659e-05 9.39015e-05 -0.0001417656 -0.2461712548 0.8086879424
630296220.0 0.2743418801 -0.8008510381 -0.0001009289 -2.84423e-05 -3.99028e-05 0.0001283057 -0.2383970268 0.8115741351
635296190.0 0.2659530311 -0.8036586919 -0.0002782625 -6.22311e-05 -0.0001110221 -0.0001322824 -0.2302104641 0.8139237717
640296160.0 0.257695774 -0.8059237972 0.0002342937 -6.52344e-05 2.91412e-05 8.2427e-06 -0.2219600863 0.8161252067
645296130.0 0.249785853 -0.8083757326 0.0001199581 -5.77512e-05 9.01797e-05 0.000159709 -0.2137771785 0.8184672434
650296100.0 0.241141717 -0.8103645966 1.52698e-05 8.56527e-05 4.37719e-05 -8.9524e-05 -0.2056286985 0.8195753206
655296070.0 0.2335742556 -0.8131767184 -0.0001637128 8.57251e-05 -0.000108235 0.0001787774 -0.1967769621 0.8219871518
660296040.0 0.2253198919 -0.8153451761 0.0001428084 -0.0002077508 0.000105419 2.7194e-05 -0.1884494096 0.8240902317
665296010.0 0.2175578981 -0.8176834659 0.0002510585 -0.0001176779 -0.00010833 -4.39362e-05 -0.1799403746 0.8262987585
670295980.0 0.2094884566 -0.8196467157 -9.87646e-05 0.0001170342 -2.23295e-05 -0.0001138494 -0.1725400057 0.8277048379
675295950.0 0.2012529117 -0.8202361402 -3.17719e-05 8.64521e-05 -7.51466e-05 4.94149e-05 -0.164681294 0.8296444506
680295920.0 0.1929094423 -0.8228284748 -9.748e-06 7.7964e-05 -0.0001506593 -3.89139e-05 -0.1555840116 0.8314733843
685295890.0 0.1849786174 -0.8241433045 4.4752e-05 -5.74267e-05 2.70466e-05 1.10003e-05 -0.1469068171 0.8326230778
690295860.0 0.1762762274 -0.825672434 2.95452e-05 -0.0001054514 1.24139e-05 3.6012e-06 -0.1395747798 0.8340330919
695295830.0 0.1681594665 -0.827430107 3.39893e-05 -0.0001984534 -0.0001841852 -0.000121852 -0.1299556333 0.8355937909
700295800.0 0.1602266739 -0.8295009158 -4.76965e-05 9.79954e-05 -7.03837e-05 -0.0001221482 -0.1230704227 0.8360655674
705295770.0 0.1513793806 -0.8303575959 0.0001718861 0.0001463848 0.0002017532 1.97806e-05 -0.114255751 0.8376290584
710295740.0 0.1429105432 -0.8319804755 7.26656e-05 -2.29331e-05 -5.46788e-05 0.0001230159 -0.1058852329 0.8387522644
715295710.0 0.1345554303 -0.8336888079 0.0001090031 -0.000254996 9.31742e-05 6.44533e-05 -0.097090468 0.8396458313
720295680.0 0.1267323055 -0.8345494225 -2.37342e-05 5.744e-07 -1.62596e-05 0.0003490359 -0.0885781345 0.8410992286
725295650.0 0.1182461955 -0.8349312275 -7.09953e-05 2.15562e-05 0.0001174872 0.0001483169 -0.0802070561 0.8422563287
730295620.0 0.1097411506 -0.8359271882 4.10603e-05 -0.0001549408 -8.66187e-05 -0.0001318051 -0.0719953037 0.8423687224
735295590.0 0.1009368406 -0.8365909521 -7.62711e-05 -4.4486e-05 0.000193176 -0.0001737418 -0.0638071704 0.8426710635
740295560.0 0.0933365093 -0.8375812386 0.0001054143 -3.03848e-05 1.1673e-05 -3.65334e-05 -0.0552021694 0.8437957739
745295530.0 0.0844506626 -0.8388023959 5.79373e-05 8.24014e-05 0.000141637 9.86262e-05 -0.0464883638 0.843746034
750295500.0 0.0761445806 -0.8396443237 -6.72387e-05 8.36728e-05 -3.58421e-05 4.99261e-05 -0.0384617636 0.8444428232
755295470.0 0.0677450668 -0.8399568843 -6.99654e-05 -4.3701e-05 -2.01168e-05 0.0001428135 -0.0295928174 0.8438147691
760295440.0 0.0592725581 -0.8405820695 0.0002942335 3.53856e-05 0.0001428861 -4.82032e-05 -0.0215145953 0.8439640286
765295410.0 0.0512764544 -0.8406846055 3.70564e-05 -0.0001386629 -6.95435e-05 6.75208e-05 -0.012705587 0.8454723511
770295380.0 0.0424792539 -0.8411323766 -7.5102e-06 -2.37967e-05 -0.0001916548 -0.0001268359 -0.0048658577 0.8451095009
775295350.0 0.0340169556 -0.8413045166 3.85038e-05 7.39579e-05 -0.0001378298 4.77294e-05 0.003479294 0.8446256507
780295320.0 0.026066939 -0.8418715914 0.0001110282 5.94234e-05 1.10617e-05 5.46657e-05 0.0119663196 0.8445613357
785295290.0 0.0168203352 -0.8419216637 -0.0001548918 -6.18369e-05 5.727e-06 -4.08198e-05 0.0208028545 0.8448710074
790295260.0 0.0092988939 -0.8414466221 -0.0001171284 4.21086e-05 -8.63677e-05 0.0001309328 0.029396296 0.8448284893
795295230.0 0.0007870435 -0.8410340503 9.74761e-05 -3.74938e-05 -0.0001569821 -0.0001570545 0.0381967032 0.843765551
800295200.0 -0.0084407159 -0.8415930785 -1.2633e-06 6.86437e-05 3.6331e-05 -2.68189e-05 0.0466590637 0.843963484
805295170.0 -0.0165469554 -0.8413502361 -0.0001216154 -0.0001790778 -4.18504e-05 -0.0001321305 0.0540656077 0.8441403157
810295140.0 -0.0242254552 -0.8402209545 7.7735e-06 -4.64416e-05 4.56246e-05 0.0001128965 0.0629191954 0.842338194
815295110.0 -0.0329473284 -0.8401477502 9.27451e-05 -0.0001024438 7.95219e-05 3.30233e-05 0.071361566 0.8418464336
820295080.0 -0.0412494104 -0.83925761 -6.14559e-05 0.000182225 -8.04842e-05 5.971e-05 0.0801197982 0.8412261588
825295050.0 -0.0497450602 -0.8392559925 0.0001133292 -2.23263e-05 5.99951e-05 8.30162e-05 0.0885364387 0.840879663
830295020.0 -0.058382557 -0.8382049246 0.0001071444 -2.35857e-05 -2.65187e-05 -0.0002111435 0.0969126489 0.8395296405
835294990.0 -0.0657007808 -0.8376761943 -8.81586e-05 -0.0002435872 -0.0002068033 0.0001185261 0.1052966807 0.8388468003
840294960.0 -0.0747343432 -0.8367644111 0.0002870144 -2.3645e-05 4.69964e-05 9.684e-05 0.1129785614 0.8372983026
845294930.0 -0.0828695508 -0.8360109812 -1.9725e-05 -0.0001864715 -3.5883e-06 9.77005e-05 0.1215131572 0.8363132276
850294900.0 -0.0908731451 -0.8343183059 -6.8787e-06 -2.484e-05 -0.0001458865 7.73725e-05 0.1295409857 0.8349958751
