!Created with skrf (http://scikit-rf.org).
# Hz S RI R 50.0 
!freq ReS11 ImS11 ReS21 ImS21 ReS12 ImS12 ReS22 ImS22
300000.0 -0.237272811 -0.0759252555 0.4696623041 0.0526878226 0.4662893738 0.051059165 -0.2405070385 -0.0916216046
5299970.0 -0.2442084197 0.0075587901 0.4736810373 0.004719941 0.4736941676 0.0049562372 -0.24418007 0.007535618
10299940.0 -0.2410628324 0.0186951856 0.4753347498 0.006018385 0.4754525115 0.0062374563 -0.2407869724 0.020296993
15299910.0 -0.2368742033 0.0279669084 0.4794030422 0.0078692729 0.4796870626 0.007714948 -0.2362626972 0.0297007064
20299880.0 -0.2320718299 0.0355926793 0.4838361582 0.0084271516 0.4841620078 0.0083076704 -0.231113722 0.0374399778
25299850.0 -0.226873907 0.0420630524 0.4892224659 0.0072844757 0.4889485465 0.0074753404 -0.2248890853 0.04375263
30299820.0 -0.2215814093 0.0468532764 0.4944091049 0.0058069533 0.4942664657 0.0054365 -0.2191167619 0.0491336322
35299790.0 -0.2161933327 0.0516793427 0.5000725273 0.0017347681 0.4999948002 0.0018667795 -0.2137431175 0.0533820508
40299760.0 -0.2114867634 0.0549649199 0.5050653083 -0.0018273737 0.5050997158 -0.0019019949 -0.2082947612 0.0558893435
45299730.0 -0.2067743566 0.0576366383 0.5093855765 -0.0066312443 0.5101971825 -0.006392064 -0.2035383821 0.0588266721
50299700.0 -0.2022209363 0.0597349806 0.5141739771 -0.0118850378 0.5140440407 -0.0118823846 -0.1983196744 0.0604978466
55299670.0 -0.1982855396 0.0618917697 0.5178931681 -0.0182806533 0.5176930691 -0.0178795086 -0.1942095166 0.0621734083
60299640.0 -0.1942214151 0.063368337 0.5212098821 -0.0241531882 0.5212690065 -0.0241178008 -0.1905141688 0.063081617
65299610.0 -0.1911205768 0.0645940284 0.5241883266 -0.0306142149 0.5242234647 -0.0303547756 -0.187312493 0.0639387289
70299580.0 -0.1882060154 0.0660856331 0.5270445296 -0.0374642608 0.5265286005 -0.0371942256 -0.1837929091 0.0648655716
75299550.0 -0.1850646721 0.0672593997 0.5280692271 -0.043847281 0.5281008228 -0.0445305227 -0.180807803 0.0653769322
80299520.0 -0.1827263459 0.0683298265 0.5304989282 -0.0509695955 0.5303527867 -0.0511176075 -0.1782350197 0.0659419771
85299490.0 -0.1800471475 0.0688601059 0.5314180479 -0.0574738337 0.5318858241 -0.0575163466 -0.1761257481 0.0660442942
90299460.0 -0.1777664834 0.0698193617 0.5322693443 -0.0648336327 0.5331101878 -0.0648321847 -0.1738605966 0.0669354745
95299430.0 -0.1756319827 0.070482865 0.5339705235 -0.0716073552 0.5337760588 -0.0721669956 -0.171385705 0.0674616203
100299400.0 -0.1739652115 0.0715945354 0.5336590915 -0.0786104195 0.533862683 -0.0787266879 -0.1694536201 0.0674604918
105299370.0 -0.1720513271 0.0725581269 0.534004239 -0.0857926791 0.5346711081 -0.08547786 -0.1675264978 0.0681258567
110299340.0 -0.1703181818 0.0733809261 0.5349402765 -0.0921570257 0.5344034759 -0.0921621672 -0.1664537936 0.0681059598
115299310.0 -0.1686295831 0.0739306653 0.5345967585 -0.0992994612 0.5345380013 -0.0989121382 -0.1647457161 0.068935899
120299280.0 -0.1674982271 0.0746920071 0.5342855612 -0.1059349918 0.5345810104 -0.1060958884 -0.1633469794 0.069575866
125299250.0 -0.166122416 0.0752209671 0.53386992 -0.1122280821 0.5340493912 -0.1124566669 -0.1624372187 0.0698452555
130299220.0 -0.1651891126 0.0766171523 0.5332913034 -0.1194385617 0.5329879895 -0.119481389 -0.1611669137 0.0704229868
135299190.0 -0.1635800954 0.0779797243 0.532910222 -0.1262937256 0.5323112813 -0.1260740744 -0.1595589372 0.0711385474
140299160.0 -0.1626791701 0.0792558183 0.5319087204 -0.133074449 0.5321349776 -0.1328343245 -0.1588641335 0.0722356665
145299130.0 -0.1614540108 0.0798729346 0.5314278354 -0.1394893752 0.5306410042 -0.1393126682 -0.1579204751 0.072748571
150299100.0 -0.1603283054 0.0810396736 0.5298148087 -0.1455641138 0.5297477713 -0.1451579694 -0.1568270577 0.0741142534
155299070.0 -0.1596478661 0.082099917 0.5285980363 -0.152862074 0.5286148345 -0.1525811995 -0.1558422087 0.0746136926
160299040.0 -0.1582835656 0.083484247 0.5273583732 -0.1585899741 0.5272004824 -0.1589360177 -0.1554371019 0.0754500074
165299010.0 -0.1573883787 0.0845970026 0.5257333146 -0.1654495205 0.526011102 -0.1654949961 -0.1542071289 0.0768365054
170298980.0 -0.1565208481 0.0854812318 0.52407012 -0.1714096998 0.5243913572 -0.1718087915 -0.1536334583 0.0774528747
175298950.0 -0.1556842327 0.0867891217 0.5227615286 -0.177853908 0.5224630043 -0.1780402349 -0.1529257326 0.0786523649
180298920.0 -0.15490289 0.0883558497 0.5209279394 -0.1843651549 0.5210272303 -0.1841356483 -0.152190538 0.0798093294
185298890.0 -0.1534112933 0.0894991235 0.5193012488 -0.1901803534 0.5187265738 -0.1904399263 -0.1511557069 0.08099994
190298860.0 -0.1527499718 0.0912243388 0.517271346 -0.1969577182 0.5172778225 -0.1965517197 -0.1505288565 0.0816884668
195298830.0 -0.1516919163 0.091950841 0.5149991883 -0.2027662175 0.5153303688 -0.2025310714 -0.1497196845 0.0831334469
200298800.0 -0.1508272322 0.0935267174 0.5130731943 -0.2088300945 0.5131751445 -0.2093323961 -0.1493571646 0.0841585569
205298770.0 -0.1496038965 0.0951313179 0.5106585875 -0.2152735576 0.510947428 -0.2149650793 -0.1486640044 0.0848157544
210298740.0 -0.1488467726 0.096004681 0.508149105 -0.2205066078 0.5084395949 -0.220608748 -0.1476678718 0.0865638024
215298710.0 -0.1481612256 0.0977947729 0.506294271 -0.2268968484 0.5063577841 -0.2273042606 -0.1475397918 0.0878144128
220298680.0 -0.1470656194 0.0988674691 0.5035453744 -0.2326493436 0.5035787476 -0.2326138924 -0.1468516078 0.0887861778
225298650.0 -0.1458587906 0.1002807577 0.501230145 -0.2389333907 0.5015065113 -0.2386645613 -0.1463742074 0.0897044496
230298620.0 -0.1448782457 0.1020993903 0.4989785487 -0.2444039865 0.4994254712 -0.2444804936 -0.1453342187 0.0906224785
235298590.0 -0.1441420134 0.1037448555 0.4963825082 -0.2502358287 0.496400845 -0.2498215844 -0.1445767336 0.0921898137
240298560.0 -0.1427832615 0.1049813521 0.4938226019 -0.2557463981 0.49371205 -0.2560257116 -0.1441723798 0.0938116867
245298530.0 -0.1422729607 0.1064079087 0.4913167536 -0.2615722087 0.4905243734 -0.2616225669 -0.1427643748 0.0940823357
250298500.0 -0.1408117687 0.107988647 0.48746145 -0.2678397542 0.487559613 -0.267009889 -0.1425959926 0.0956534475
255298470.0 -0.1399774942 0.1092263127 0.4844929792 -0.272469836 0.4848651694 -0.2726339886 -0.1412755155 0.0966837153
260298440.0 -0.1394302739 0.110499458 0.4821525935 -0.2787477009 0.4817895966 -0.2784614022 -0.1402964278 0.0983390744
265298410.0 -0.137468515 0.1123640656 0.4787970775 -0.2841319866 0.4792383558 -0.2839155262 -0.1398225269 0.0994034614
270298380.0 -0.1365869663 0.1138390569 0.4763548014 -0.2890352985 0.4759107273 -0.2893697847 -0.1389138 0.1008982745
275298350.0 -0.1350817787 0.1152702933 0.4723241392 -0.2949147132 0.473014589 -0.2946873904 -0.1378824268 0.1017374388
280298320.0 -0.1338238128 0.1169270226 0.4695869172 -0.3003894011 0.469541577 -0.2997037966 -0.1368200129 0.1032252976
285298290.0 -0.1328107112 0.1184104035 0.4663232898 -0.3055051309 0.4663606224 -0.3058049325 -0.1359052292 0.1043024691
290298260.0 -0.1315295567 0.1198381623 0.4628168695 -0.3106577945 0.4631949128 -0.3108440773 -0.1348100235 0.1057517742
295298230.0 -0.1301645355 0.1207081515 0.4598320948 -0.3160303899 0.4597169684 -0.3161076555 -0.1336798132 0.1066691317
300298200.0 -0.1292919624 0.1224230424 0.4565946094 -0.3211103291 0.4565360499 -0.3215281279 -0.1330761437 0.1080824628
305298170.0 -0.1278528032 0.1236068701 0.452636422 -0.3265747541 0.4524588179 -0.3264269384 -0.131567744 0.1091234162
310298140.0 -0.1263328122 0.1250976986 0.4490916433 -0.3318643124 0.449162761 -0.3314551475 -0.1307262268 0.1103383473
315298110.0 -0.1251047524 0.1262259224 0.4454304264 -0.3369288415 0.4456651921 -0.3369977864 -0.1297522452 0.1115420883
320298080.0 -0.1238645728 0.1274162418 0.441531595 -0.3421820856 0.4417234902 -0.3419414438 -0.1287398396 0.1127520272
325298050.0 -0.1227454071 0.1290004513 0.437832501 -0.3471646741 0.4378353587 -0.3471407168 -0.1280897744 0.1138327793
330298020.0 -0.1212347 0.1300804788 0.4335385856 -0.3519690977 0.43426652 -0.3523209433 -0.1269275411 0.1152552201
335297990.0 -0.1200569348 0.131277783 0.4296602304 -0.3565941295 0.4297793543 -0.3566945561 -0.1266964755 0.1167152107
340297960.0 -0.1192116698 0.1328373684 0.4258378753 -0.3615987674 0.4254044639 -0.3620348678 -0.1247268888 0.1179771078
345297930.0 -0.1178489732 0.1344299727 0.4213385697 -0.3664151183 0.4213018758 -0.3665932151 -0.1240584499 0.1189747032
350297900.0 -0.116591619 0.1353545705 0.416616869 -0.3709511512 0.4169644607 -0.3711789105 -0.1234142767 0.1210670534
355297870.0 -0.115322291 0.1375469894 0.4130127933 -0.3759963309 0.4132448171 -0.3752830055 -0.1225027714 0.1219700732
360297840.0 -0.1137485252 0.1389567433 0.4094026147 -0.3801928224 0.4097217041 -0.3801561453 -0.1214323579 0.123683347
365297810.0 -0.1126637034 0.1402975026 0.4048291848 -0.3846326071 0.4049391765 -0.3848722744 -0.1200584005 0.1248119779
370297780.0 -0.1106514327 0.1413586116 0.40042373 -0.3887657211 0.4005940221 -0.3886434366 -0.1189395565 0.1261556256
375297750.0 -0.1089763247 0.142589437 0.3961673569 -0.3935264965 0.3970298743 -0.3936801162 -0.1180906269 0.1274801386
380297720.0 -0.1076400768 0.1440838524 0.3917347383 -0.3976773006 0.3922001112 -0.3974136144 -0.1171015529 0.1288500751
385297690.0 -0.1064366731 0.1454423448 0.387766691 -0.4020419402 0.3871896643 -0.4020011377 -0.115658913 0.1300731785
390297660.0 -0.1048807319 0.1467624976 0.3833138528 -0.4060713164 0.3832705377 -0.4058628264 -0.1148591448 0.131344938
395297630.0 -0.1032456406 0.1481504653 0.3786308454 -0.4106648216 0.3787484937 -0.4102165457 -0.1132619559 0.1327347887
400297600.0 -0.1015916254 0.1496483958 0.3737290649 -0.4152275112 0.3743010646 -0.4147797436 -0.1122028203 0.1336492749
405297570.0 -0.1003286756 0.1508224327 0.3696070107 -0.4182432982 0.369445205 -0.4182748384 -0.1113181677 0.1350441324
410297540.0 -0.0982878971 0.1520211138 0.3649355065 -0.4226661824 0.3651346529 -0.4229386386 -0.1100134123 0.1366460673
415297510.0 -0.0966345243 0.1528356113 0.3599089619 -0.4267439151 0.3604893865 -0.4269586962 -0.1086635973 0.1376791213
420297480.0 -0.0952628999 0.1548756725 0.3553815876 -0.4306618089 0.3554566865 -0.4308739978 -0.1075723712 0.1386972297
425297450.0 -0.0936762056 0.1553033306 0.3511163469 -0.4347012072 0.3510232147 -0.4345466122 -0.1066012926 0.1400650536
430297420.0 -0.0917978656 0.1564808101 0.3458349197 -0.4383214304 0.3460102927 -0.4380614459 -0.105452072 0.1409138982
435297390.0 -0.0903990402 0.1578208881 0.341326258 -0.4420878002 0.3408167278 -0.44186941 -0.1031944667 0.141985614
440297360.0 -0.0883541959 0.1591313271 0.3362030802 -0.4456634342 0.3362982503 -0.4455252881 -0.1024656194 0.1429138471
445297330.0 -0.0867404992 0.1598490394 0.331484567 -0.4494711481 0.3315341909 -0.4490236088 -0.1007807765 0.1438656847
450297300.0 -0.0848902025 0.1607680013 0.3265423438 -0.4529970462 0.3263824011 -0.4530076518 -0.0995341681 0.144683221
455297270.0 -0.0832729458 0.1619236937 0.3212000004 -0.4562843744 0.3216936456 -0.4566775832 -0.0980328021 0.1458297537
460297240.0 -0.0817249317 0.1633269758 0.3165581041 -0.4602911026 0.3165659027 -0.4601467865 -0.0967113308 0.1472192857
465297210.0 -0.0792034055 0.1643525601 0.3112487263 -0.4633050039 0.3115003756 -0.4639618235 -0.0951964593 0.1480388291
470297180.0 -0.0778649848 0.1650834952 0.3061719628 -0.4666095162 0.3066089903 -0.4669005078 -0.093598715 0.1493259677
475297150.0 -0.0759962932 0.1656736584 0.3011994392 -0.4699270933 0.301241739 -0.469542757 -0.0919696494 0.1498201727
480297120.0 -0.0741278537 0.1672795407 0.2956869314 -0.4733635608 0.2961241066 -0.4738562078 -0.0901986301 0.1512328468
485297090.0 -0.072478524 0.1682193916 0.2912144073 -0.4760995849 0.2909432264 -0.4760721744 -0.0893858982 0.1519808051
490297060.0 -0.0710577813 0.1689805313 0.2861507484 -0.4797882382 0.2859658377 -0.4795697171 -0.0876965447 0.1535221369
495297030.0 -0.0689163067 0.1700173332 0.2800737087 -0.4825041406 0.2804952332 -0.4824247772 -0.0863019514 0.154167927
500297000.0 -0.0667578437 0.1705504838 0.2748143594 -0.4854730274 0.2749237261 -0.4850523945 -0.0846862312 0.1559915869
505296970.0 -0.0649443253 0.1714676135 0.2699689114 -0.4881199022 0.2696518502 -0.4883080235 -0.0833009959 0.1564598359
510296940.0 -0.0632020316 0.1725258921 0.2648229006 -0.4915271308 0.2644194926 -0.4914033782 -0.0815540094 0.1577382123
515296910.0 -0.0613648006 0.173375891 0.2591965863 -0.4943091489 0.2590113728 -0.4941677666 -0.0798871524 0.158558317
520296880.0 -0.0595681955 0.1742942945 0.2538590433 -0.4971402586 0.2538301281 -0.4972634967 -0.0785077938 0.1591503521
525296850.0 -0.0573809317 0.1743701608 0.2477739577 -0.4996753187 0.2483923274 -0.4999736268 -0.0773084863 0.1605653542
530296820.0 -0.0555425 0.1757881447 0.2428808257 -0.5023557378 0.2426655793 -0.5023242631 -0.0756357262 0.1614032038
535296790.0 -0.0540419354 0.1765448776 0.2377395428 -0.5048772835 0.2375529953 -0.5043612564 -0.0743893331 0.1619606641
540296760.0 -0.0517582215 0.1774555648 0.2319889945 -0.5079703858 0.2318339999 -0.5079543476 -0.072663793 0.163449459
545296730.0 -0.0501921462 0.178033903 0.2263017314 -0.5098157037 0.2261009008 -0.5099366049 -0.0712153839 0.1640390601
550296700.0 -0.0475994727 0.1787475139 0.2205916891 -0.5125956769 0.2206001129 -0.5126074421 -0.0697034635 0.1649473847
555296670.0 -0.0458435789 0.1791426189 0.215133964 -0.5147553238 0.2154634253 -0.5147187134 -0.0682985871 0.1660805413
560296640.0 -0.0435435649 0.1804219182 0.20929444 -0.5172941671 0.2094742806 -0.5168195912 -0.0665421992 0.1664274462
565296610.0 -0.0418162127 0.1805613333 0.203815646 -0.5195141864 0.2040919963 -0.5190655548 -0.0652157371 0.1672595299
570296580.0 -0.0400999333 0.1814351475 0.198340218 -0.5221595815 0.197794426 -0.5214349582 -0.0635416643 0.1683183595
575296550.0 -0.0380391048 0.1821975426 0.1924996349 -0.5236172421 0.1921444179 -0.5236986478 -0.0618292025 0.1689901616
580296520.0 -0.0357901077 0.1825306942 0.1866063197 -0.5256744238 0.186935793 -0.5259061865 -0.0600278585 0.1697905355
585296490.0 -0.033921281 0.1825114387 0.1812207553 -0.5272046192 0.1814070765 -0.5275090131 -0.058727481 0.1703897736
590296460.0 -0.0316672513 0.1834456574 0.1753671835 -0.5289983687 0.175864557 -0.5293973327 -0.057537619 0.1711371085
595296430.0 -0.0295453395 0.1838055235 0.169292506 -0.5316496863 0.1694872479 -0.5311702399 -0.0556790833 0.1714311689
600296400.0 -0.0279400228 0.1844804636 0.1638051688 -0.5328531851 0.1635908523 -0.5328642321 -0.0540369391 0.1721702395
605296370.0 -0.0259604889 0.1848255681 0.1582325958 -0.5347611116 0.1581988789 -0.5347550043 -0.0517900882 0.1729075016
610296340.0 -0.0235610493 0.1850684897 0.1520035433 -0.5363015187 0.1522482633 -0.5364281803 -0.0503515661 0.1738161996
615296310.0 -0.021472542 0.1854371551 0.1463645709 -0.53772368 0.14596118 -0.5383254634 -0.0484417094 0.1739548114
620296280.0 -0.0196964842 0.1853918157 0.1405457399 -0.5391788786 0.1406256374 -0.5391910872 -0.0471016268 0.1746120261
625296250.0 -0.0178127717 0.1858868322 0.1351842111 -0.5409451183 0.1345241667 -0.5413094332 -0.0446320822 0.1753174622
630296220.0 -0.0149312786 0.1865261082 0.1282850137 -0.542635608 0.1285612433 -0.5420978969 -0.0435309747 0.1760244977
635296190.0 -0.0137597828 0.1866907558 0.1230125083 -0.5432620887 0.12295269 -0.5437880077 -0.0417974864 0.1764296685
640296160.0 -0.0117371369 0.1868703208 0.1171856248 -0.5443927892 0.1169614245 -0.5444812336 -0.0398216084 0.1769345501
645296130.0 -0.0094113156 0.187520024 0.1110015089 -0.5458297196 0.111257638 -0.5458736173 -0.0382612348 0.1775865705
650296100.0 -0.007504022 0.1875401677 0.1052454142 -0.5471762501 0.1054976666 -0.5468674989 -0.036067019 0.1774297806
655296070.0 -0.0054733761 0.1877122375 0.0995709603 -0.5480372265 0.0994882043 -0.5485444033 -0.0343264447 0.1783128292
660296040.0 -0.003845996 0.1874259935 0.0934232848 -0.5490370793 0.0936933153 -0.5498142031 -0.0323411717 0.1789181937
665296010.0 -0.0011616567 0.1877568741 0.0870384638 -0.5497361224 0.0873273044 -0.5502172392 -0.030811457 0.1797710461
670295980.0 0.0001197466 0.1882935155 0.0816535706 -0.5508333663 0.0816842304 -0.551195268 -0.029203164 0.1799667872
675295950.0 0.0025204056 0.1884062158 0.075771633 -0.5519315881 0.0759097846 -0.5514327329 -0.0276883652 0.180701002
680295920.0 0.0048059712 0.1882939439 0.0694267062 -0.5526059528 0.0693681772 -0.5532236654 -0.0257613466 0.1813838356
685295890.0 0.007044829 0.1888919198 0.0634455372 -0.5534820278 0.0633304805 -0.5535134681 -0.0236645029 0.1815819062
690295860.0 0.0091930238 0.1886932785 0.0576201539 -0.5535662974 0.0575761415 -0.5541607844 -0.0224403494 0.1824958816
695295830.0 0.0110692969 0.1884529146 0.0517490367 -0.5544307266 0.0511389435 -0.5547208492 -0.0202426255 0.1827898245
700295800.0 0.0133194449 0.1885207994 0.045276921 -0.554710946 0.04537906 -0.5546494808 -0.0189638312 0.1835270177
705295770.0 0.0151138644 0.1889580701 0.0394915402 -0.5553891681 0.0396864641 -0.5553739805 -0.0172363799 0.1835560685
710295740.0 0.0175034023 0.1886712827 0.0337274868 -0.5562508994 0.0338036104 -0.5563391102 -0.0151716706 0.1835444387
715295710.0 0.0188797173 0.1883462679 0.0279487067 -0.556077131 0.0273137337 -0.5556432065 -0.0131635563 0.1837128388
720295680.0 0.0211400917 0.1884976973 0.022048292 -0.5564050076 0.0217751272 -0.5563779364 -0.0116696345 0.184793895
725295650.0 0.0236617028 0.1885885542 0.0155562034 -0.5566262566 0.0156233622 -0.5568242457 -0.0103321666 0.1851116035
730295620.0 0.0259837277 0.1887131219 0.009461471 -0.5568895927 0.0098206884 -0.5565338596 -0.0085609017 0.184961706
735295590.0 0.0276596774 0.1883262457 0.0036024754 -0.5566915974 0.0034336061 -0.5567879067 -0.0070721561 0.1849142489
740295560.0 0.0296353087 0.1880678093 -0.00200595 -0.5565544435 -0.0024805952 -0.556741656 -0.0042904237 0.1855854879
745295530.0 0.0319696838 0.1878986383 -0.008747382 -0.5562292995 -0.0085762245 -0.55636179 -0.0028978379 0.185284913
750295500.0 0.0341493604 0.1878664798 -0.0144039407 -0.5561420571 -0.0143428308 -0.5564170598 -0.0013569002 0.1857571896
755295470.0 0.0360863379 0.1872716706 -0.0201012636 -0.5562832772 -0.0203898832 -0.5561433866 0.0007517472 0.1854089668
760295440.0 0.0378405657 0.1873140089 -0.0258149269 -0.5562475748 -0.0264843208 -0.5563041752 0.0023162636 0.1856894101
765295410.0 0.0398280094 0.1870930199 -0.0322730912 -0.5554920172 -0.0326249876 -0.555906797 0.0044315886 0.1860613354
770295380.0 0.0418534039 0.186412095 -0.0384760626 -0.5550989651 -0.038510925 -0.5550127211 0.0058472625 0.1859487739
775295350.0 0.0437766596 0.1857674753 -0.0444336006 -0.5542039302 -0.0440790285 -0.554714868 0.0071756044 0.1861528539
780295320.0 0.0460452097 0.1859134621 -0.0503727258 -0.5540294163 -0.0499675635 -0.553953049 0.0094028932 0.18574805
785295290.0 0.0479762535 0.1849120706 -0.0566912928 -0.5527456312 -0.0564041937 -0.5530524142 0.0117314338 0.1859941542
790295260.0 0.0504526987 0.1853808599 -0.0617067008 -0.5528490929 -0.0614136861 -0.5525980998 0.0134728472 0.1861481582
795295230.0 0.0523652037 0.1843714132 -0.0681057105 -0.5520117865 -0.0678202334 -0.5519754903 0.0154707277 0.1862434588
800295200.0 0.0540715887 0.184176582 -0.0742561754 -0.5510332939 -0.0743196614 -0.5511388899 0.0173522583 0.1859530655
805295170.0 0.0562291793 0.1836105478 -0.08001266 -0.5500157471 -0.0803647791 -0.550408899 0.0189530377 0.1860580853
810295140.0 0.0580143481 0.1826951194 -0.0854459064 -0.5493925687 -0.0859625983 -0.5494975711 0.0210708389 0.1859882795
815295110.0 0.0602358286 0.1819839435 -0.0919380588 -0.5477445438 -0.0915111537 -0.5483191968 0.0228339089 0.1858794188
820295080.0 0.0620674739 0.1821398581 -0.0979816628 -0.5470652303 -0.0975479336 -0.5471285874 0.0244887082 0.1858628119
825295050.0 0.0645642747 0.181364759 -0.1033819296 -0.545630191 -0.1030767325 -0.5462252398 0.0263444334 0.1859011221
830295020.0 0.066275196 0.1810541334 -0.1097040602 -0.5450051786 -0.1094738112 -0.5450869992 0.0289101475 0.1860294037
