!Created with skrf (http://scikit-rf.org).
# Hz S RI R 50.0 
!freq ReS11 ImS11 ReS21 ImS21 ReS12 ImS12 ReS22 ImS22
300000.0 -0.3197577211 -0.0997942418 0.3732210135 0.0508673126 0.3736587425 0.0533459297 -0.315381169 -0.1095622516
5299970.0 -0.3237391987 0.0051382841 0.3786275579 0.0026960571 0.3783695648 0.0030390729 -0.3261520995 0.0026389514
10299940.0 -0.320985957 0.0156579789 0.3799479769 0.0022438464 0.3796252571 0.0023147075 -0.3241833773 0.0128041879
15299910.0 -0.3181748144 0.0236196203 0.3818036126 0.0021794461 0.381911812 0.0023762732 -0.3213795603 0.0199417638
20299880.0 -0.3144597935 0.0300643693 0.3847340874 0.0016933317 0.3853185514 0.0014342179 -0.3187073424 0.0261491309
25299850.0 -0.3105552077 0.035587447 0.3886165255 -0.0002668605 0.3883762543 0.0001387471 -0.3156013989 0.0311635487
30299820.0 -0.3067070412 0.0405447463 0.3920852481 -0.0021105321 0.3915629457 -0.0021260808 -0.3128946948 0.035476094
35299790.0 -0.3029656228 0.0448097209 0.3950760164 -0.0054593395 0.3953477365 -0.005203785 -0.3096470239 0.0394555607
40299760.0 -0.2994709369 0.048132107 0.3983526297 -0.0085705074 0.3984254218 -0.0087012089 -0.307473144 0.0430340008
45299730.0 -0.2965255341 0.0516812197 0.4009827708 -0.0132690942 0.4013734557 -0.0131359438 -0.3047041521 0.0462432093
50299700.0 -0.2930450849 0.0541383669 0.4033743867 -0.0172357621 0.4037959976 -0.0174346462 -0.3020609251 0.0489672625
55299670.0 -0.2907551647 0.0568284456 0.4052890088 -0.0222012706 0.4058522765 -0.0220649405 -0.3001506734 0.0521665334
60299640.0 -0.2882407401 0.0592035199 0.4075651529 -0.0270521694 0.4074214393 -0.0272221799 -0.2979848639 0.0549034895
65299610.0 -0.285886945 0.0616959849 0.4094556096 -0.031570955 0.4095373699 -0.0319216114 -0.2964374788 0.0573518937
70299580.0 -0.2838855626 0.0635945804 0.4105520328 -0.0366318543 0.4105242877 -0.0370494598 -0.29456273 0.0595042956
75299550.0 -0.2818608624 0.0657976701 0.4113077975 -0.0420877504 0.4114974234 -0.0422992373 -0.2926348255 0.0619679068
80299520.0 -0.2802651945 0.0679615117 0.4127974404 -0.0473387047 0.4123571804 -0.047432793 -0.2913243552 0.0640024009
85299490.0 -0.2784013277 0.0699325907 0.4132813762 -0.0526059808 0.4129655895 -0.0529975744 -0.2901292063 0.0662737757
90299460.0 -0.2771482628 0.0721335199 0.4134902663 -0.0576588644 0.4135225227 -0.0578841251 -0.2884570006 0.0690225958
95299430.0 -0.2755803214 0.0743449127 0.4140664128 -0.0635511447 0.4139574967 -0.063065868 -0.2876104431 0.071406596
100299400.0 -0.2741420865 0.0763283757 0.4133639978 -0.0686082063 0.4137833093 -0.0681744774 -0.286755318 0.0731717963
105299370.0 -0.2729338949 0.0786001104 0.4134185239 -0.0735159017 0.4136635566 -0.0737149063 -0.2848844881 0.0757332681
110299340.0 -0.2719846073 0.0805374978 0.4132214365 -0.0784098005 0.4135248694 -0.078977068 -0.2844992762 0.0780362649
115299310.0 -0.2705353589 0.0824877661 0.41304842 -0.0837031085 0.4132034299 -0.0838368532 -0.2831391558 0.0801692986
120299280.0 -0.2696896343 0.0847607288 0.4130348782 -0.0891008844 0.4130463321 -0.0889213186 -0.2823421681 0.082492719
125299250.0 -0.2687987919 0.0867443562 0.4120389098 -0.093782705 0.4124164206 -0.0941272603 -0.2812217131 0.0847520544
130299220.0 -0.2679614556 0.0889488111 0.411463889 -0.0984882783 0.4115194111 -0.0991641931 -0.2805954639 0.0871833308
135299190.0 -0.2666567356 0.0908340083 0.4106567127 -0.1037411744 0.410642592 -0.1040329952 -0.279755101 0.0896747659
140299160.0 -0.2658015705 0.0937887267 0.4101797643 -0.1092977571 0.4100587718 -0.1092334463 -0.2784964405 0.0921706104
145299130.0 -0.2647638741 0.0958786629 0.4096944126 -0.1142884087 0.409234145 -0.1138400263 -0.2780758741 0.0946415687
150299100.0 -0.2637727805 0.0978670139 0.4081892247 -0.1191374668 0.4079594131 -0.1186449984 -0.2768053318 0.0969594204
155299070.0 -0.2631104017 0.1008986899 0.4070286529 -0.1242048722 0.4071733394 -0.1241865422 -0.2764588239 0.099710956
160299040.0 -0.2619606559 0.1031723885 0.4057880614 -0.1286837391 0.4059140372 -0.1287711207 -0.2751090116 0.1022250691
165299010.0 -0.2609997821 0.1053834067 0.4044347644 -0.1337834774 0.40464588 -0.1336210448 -0.2743255455 0.104569634
170298980.0 -0.2603203801 0.107619112 0.4026281618 -0.1382307216 0.4034146002 -0.1381986546 -0.27306225 0.1071607538
175298950.0 -0.2588492085 0.1103926432 0.4022342151 -0.1430961807 0.4020812837 -0.1430285226 -0.2725116681 0.1096745903
180298920.0 -0.2578198171 0.1128649601 0.4002576113 -0.1482691816 0.4006587047 -0.1477468091 -0.2709930385 0.1122746981
185298890.0 -0.2569085222 0.1154085764 0.3987310254 -0.1529705364 0.3988949097 -0.1527996904 -0.2702237067 0.1150834562
190298860.0 -0.2556199671 0.1177032019 0.3971647717 -0.1574595009 0.3972554616 -0.1574755847 -0.2686045824 0.1175215444
195298830.0 -0.2546385544 0.1200530797 0.3958553534 -0.1617825399 0.3954036587 -0.1622329438 -0.2679386518 0.1200591861
200298800.0 -0.2537107589 0.1226852109 0.3940242544 -0.166042545 0.3940492707 -0.166552003 -0.2665832647 0.1230945499
205298770.0 -0.2527106946 0.1251087157 0.3925622276 -0.1707540856 0.392210183 -0.1710334956 -0.2655463892 0.1253835405
210298740.0 -0.2515944675 0.1277363821 0.3904126456 -0.1757664348 0.390457868 -0.1761712358 -0.2644302594 0.1282737099
215298710.0 -0.2502179486 0.1298771166 0.3881691795 -0.1800825959 0.3886404208 -0.1799568444 -0.2635049544 0.1308128333
220298680.0 -0.2492858666 0.1328053726 0.3864068391 -0.1848441106 0.3862815521 -0.1847005588 -0.2621516187 0.1337674272
225298650.0 -0.2480454784 0.135674047 0.3845321281 -0.1891296138 0.3841386685 -0.1888190723 -0.2609516047 0.1364424988
230298620.0 -0.2467577256 0.1380709367 0.3826305295 -0.193712057 0.3826273623 -0.193565481 -0.2597124877 0.1389608063
235298590.0 -0.2452905039 0.1406307801 0.380297166 -0.1977574483 0.3804796646 -0.1983321155 -0.2582654723 0.1414748264
240298560.0 -0.2443515573 0.1432924656 0.3782467753 -0.2022550468 0.3782292826 -0.2018597046 -0.2571310085 0.1447417844
245298530.0 -0.2429250403 0.1454043848 0.3756612929 -0.2063293045 0.3759468191 -0.2066769698 -0.2559939666 0.1468793436
250298500.0 -0.2416062578 0.1481011345 0.3733721731 -0.2106372214 0.3740397105 -0.2104245315 -0.254151254 0.1498298939
255298470.0 -0.239807115 0.1510463598 0.3711384938 -0.215560225 0.3715780614 -0.2149775639 -0.2527001564 0.1521271042
260298440.0 -0.2385100729 0.1532339665 0.3691128308 -0.218900334 0.3687982271 -0.219296798 -0.2509402123 0.1551711711
265298410.0 -0.2369960911 0.1562551027 0.3666493206 -0.223821786 0.3662776004 -0.2236227878 -0.2497643013 0.1577938527
270298380.0 -0.2356544978 0.1582636748 0.3639612658 -0.2270413584 0.3641529373 -0.2275763781 -0.2480440491 0.1601427317
275298350.0 -0.2340551203 0.1610171675 0.3615219525 -0.2318911903 0.3614859805 -0.2319277446 -0.2460254766 0.1630175965
280298320.0 -0.2325019284 0.1637392315 0.3590496846 -0.2358137938 0.3588183452 -0.2357200741 -0.244793231 0.1657968583
285298290.0 -0.2308176408 0.1665113601 0.3565286409 -0.239819875 0.3563921897 -0.2400236686 -0.2433153007 0.1685036046
290298260.0 -0.2291976379 0.1687738007 0.3537782227 -0.2440208829 0.3538519313 -0.2439511013 -0.241146574 0.171174397
295298230.0 -0.2276863891 0.1712832798 0.3513439418 -0.2478592404 0.3510009954 -0.2479318109 -0.2394058964 0.173916858
300298200.0 -0.225858201 0.1735588775 0.3482965265 -0.2521572371 0.348663445 -0.2518855737 -0.2379339905 0.1764664429
305298170.0 -0.2239469625 0.1761766555 0.345638771 -0.2559316442 0.3457512162 -0.2559600415 -0.2355128807 0.1793688746
310298140.0 -0.2220327262 0.1783970084 0.3428918207 -0.2601176106 0.3430360936 -0.2597022968 -0.2342309363 0.1820283055
315298110.0 -0.2206407033 0.1807374984 0.3400090048 -0.263913263 0.3400757517 -0.2640919287 -0.2321614828 0.1842305898
320298080.0 -0.2188584487 0.1832758809 0.3372808616 -0.2676001792 0.3369752365 -0.2678174112 -0.2303214072 0.1867195347
325298050.0 -0.2170898235 0.1853127109 0.3337675274 -0.2718351982 0.3340203092 -0.2716352479 -0.2281827644 0.189579899
330298020.0 -0.2152253082 0.1878735776 0.3304992068 -0.2754855657 0.3309202787 -0.2753599382 -0.2266589941 0.1916805087
335297990.0 -0.2133736235 0.1906959077 0.3276434765 -0.2791740898 0.327692152 -0.2791935509 -0.2248564216 0.1942474794
340297960.0 -0.2118132477 0.192911743 0.3243881456 -0.282796118 0.3245733372 -0.2827151218 -0.2229608715 0.1969035301
345297930.0 -0.2101065061 0.1952235823 0.3214479476 -0.2860902534 0.3211131517 -0.2858254667 -0.2209627958 0.1991958212
350297900.0 -0.2078449679 0.1976359032 0.3180627896 -0.2893053785 0.3180270074 -0.2896569045 -0.2186737549 0.2020339272
355297870.0 -0.2058260745 0.1998847693 0.3145828153 -0.2932215839 0.3146580186 -0.2933035022 -0.2169240121 0.2048280706
360297840.0 -0.2037941594 0.2024231647 0.3115757319 -0.2967373279 0.3116342409 -0.2965206547 -0.2150459459 0.2070610663
365297810.0 -0.2016388297 0.2043052421 0.3081166474 -0.2999404432 0.3078341158 -0.3002639363 -0.2124690719 0.2098336217
370297780.0 -0.1995688833 0.206495808 0.3041848738 -0.3030367058 0.3044270099 -0.3037443174 -0.2101233692 0.2121598052
375297750.0 -0.1975747137 0.209008355 0.3019454537 -0.306800126 0.3013513008 -0.306692314 -0.208295866 0.2146134177
380297720.0 -0.1952423597 0.2110316875 0.2980485875 -0.3096828695 0.2978225122 -0.3102439003 -0.2059670153 0.2174641943
385297690.0 -0.1932687065 0.2137303111 0.294406327 -0.3132015311 0.2945033237 -0.3132490622 -0.2037859651 0.2198496133
390297660.0 -0.1909183781 0.2159737316 0.2907995398 -0.3168552051 0.2906362971 -0.3170590682 -0.201049348 0.2219041138
395297630.0 -0.1888189738 0.2180327877 0.2875589135 -0.319423108 0.2874586037 -0.3199472848 -0.1992347293 0.224542869
400297600.0 -0.1864901437 0.2204333832 0.2836772901 -0.3229165611 0.2839823713 -0.3231908616 -0.1972584513 0.2267505946
405297570.0 -0.1843380334 0.2222849881 0.2803781099 -0.3259487644 0.280526839 -0.3261777435 -0.1945172352 0.2290349075
410297540.0 -0.1818646124 0.2245900928 0.2764027215 -0.3288680147 0.2765406458 -0.328999331 -0.1925730463 0.2314286842
415297510.0 -0.1794879538 0.2268202374 0.2729170224 -0.3321730797 0.2729980011 -0.3320753794 -0.1896843072 0.2338935285
420297480.0 -0.1769784779 0.2284045234 0.2690280898 -0.3350973724 0.269102405 -0.3350482808 -0.1873759389 0.2358452318
425297450.0 -0.1745827158 0.2304178308 0.2653928644 -0.3378835506 0.2657970211 -0.337966151 -0.1847240972 0.2382068778
430297420.0 -0.1725278329 0.2326575503 0.2621891001 -0.3413557314 0.2619242279 -0.3407888328 -0.1824933267 0.2401295506
435297390.0 -0.1698516531 0.2344621448 0.258356993 -0.3435193049 0.2580526197 -0.3434926665 -0.1798167146 0.2425029466
440297360.0 -0.1672940112 0.2362592184 0.2537423395 -0.3462940831 0.2540200269 -0.3462515203 -0.1774124539 0.2440856857
445297330.0 -0.165010724 0.2384383254 0.2501542683 -0.3494723377 0.2501599191 -0.3489554305 -0.1751142707 0.2465709498
450297300.0 -0.1622810499 0.2399936324 0.246321136 -0.3518838655 0.2466020572 -0.3518790782 -0.1724552954 0.2489463257
455297270.0 -0.1600074944 0.2420406518 0.2428171541 -0.3545291252 0.2427421411 -0.3544788031 -0.1697748788 0.2506112634
460297240.0 -0.157503894 0.2441526691 0.2387124494 -0.3568289835 0.2384270238 -0.3570908689 -0.1670222538 0.2532681902
465297210.0 -0.1546744672 0.2458007778 0.2348412462 -0.3596285156 0.2351309994 -0.3595973409 -0.1650666521 0.2546503224
470297180.0 -0.1522093088 0.247565538 0.2310500098 -0.362166177 0.2312516353 -0.3618627194 -0.1626134675 0.256472121
475297150.0 -0.1498008374 0.2492345667 0.2268215613 -0.3643797661 0.2271242599 -0.3640567278 -0.1594613173 0.258694226
480297120.0 -0.146812617 0.2508159148 0.2224151477 -0.3668047905 0.2230770667 -0.3668715021 -0.1568589681 0.26075147
485297090.0 -0.1439182552 0.2526109072 0.2185810046 -0.3694170652 0.2189348816 -0.3691443722 -0.154470115 0.2623361854
490297060.0 -0.1414764247 0.2541763327 0.2148235479 -0.3715722598 0.2148392913 -0.3714885781 -0.1516627528 0.2641579177
495297030.0 -0.1389437665 0.2561498737 0.2104266521 -0.373952046 0.2102879065 -0.3738795184 -0.1485904851 0.265765617
500297000.0 -0.1359284179 0.2574888999 0.2060120812 -0.376431672 0.2065216727 -0.3761716986 -0.1463741043 0.2678228846
505296970.0 -0.133528428 0.2590102902 0.2020914636 -0.3782037046 0.2023962443 -0.3781241274 -0.143988907 0.2693672731
510296940.0 -0.130862024 0.2608580457 0.1981203666 -0.3806051379 0.198228676 -0.3804854207 -0.1405119246 0.2711125962
515296910.0 -0.1284436959 0.2625111002 0.1938282906 -0.3823156048 0.193955479 -0.3824517052 -0.1381219085 0.2729130358
520296880.0 -0.1250977128 0.2639241474 0.1897596937 -0.3845598782 0.1899805653 -0.3845966442 -0.1350232091 0.2744817148
525296850.0 -0.1227069984 0.2651184501 0.1855751217 -0.386740088 0.1856452184 -0.3868876755 -0.1321498636 0.2763259279
530296820.0 -0.1199290377 0.2665492208 0.1816946306 -0.3880441326 0.1808906809 -0.3884514413 -0.1296690662 0.2775075384
535296790.0 -0.1172928064 0.2679811417 0.1771387369 -0.3903812977 0.1774179085 -0.3903479498 -0.1267839885 0.2787291461
540296760.0 -0.1139821434 0.2690789681 0.1724594743 -0.3923434823 0.1725782577 -0.3925064944 -0.1240095791 0.2807454049
545296730.0 -0.1113896159 0.2708555846 0.1685409128 -0.3941165166 0.168663619 -0.3941569275 -0.121272677 0.2820517633
550296700.0 -0.1087596262 0.2721011268 0.1642547137 -0.3960323997 0.1645188817 -0.3959346518 -0.1182069749 0.2835713728
555296670.0 -0.1053382044 0.2732748403 0.1597154632 -0.3977774066 0.1596909982 -0.3973590919 -0.1154450477 0.2849424953
560296640.0 -0.1027600856 0.2746226859 0.155419874 -0.3992100415 0.1558377207 -0.3992509211 -0.1124620798 0.2863973579
565296610.0 -0.1000336456 0.2758516881 0.1511855649 -0.4008996582 0.1510631373 -0.4009187631 -0.1093896814 0.2876683533
570296580.0 -0.0968145221 0.2766406332 0.1467502002 -0.4020155411 0.1470621528 -0.4026920553 -0.1064799718 0.2892508965
575296550.0 -0.0939940944 0.2782265362 0.1422786133 -0.4039732771 0.1428704646 -0.4038300421 -0.1032365669 0.2907376189
580296520.0 -0.0912685193 0.2793151627 0.1383011733 -0.4052966369 0.1375350577 -0.4054205808 -0.1001749105 0.2913256662
585296490.0 -0.088092578 0.2801443468 0.1336275046 -0.4069551197 0.1338190007 -0.4068088737 -0.0977809938 0.292467537
590296460.0 -0.0854441312 0.2813817761 0.1288667705 -0.4081367334 0.1293479983 -0.4084496349 -0.0944281151 0.293931622
595296430.0 -0.0823275561 0.2825493346 0.1248936906 -0.4094913663 0.1246331793 -0.4095083686 -0.0912737688 0.2946659075
600296400.0 -0.079320196 0.2834755882 0.1203912725 -0.4109757304 0.1204453695 -0.4110533102 -0.0884236045 0.2963911192
605296370.0 -0.0760968249 0.2845174814 0.1158308291 -0.4121376365 0.1161212902 -0.4121665323 -0.085458694 0.2975401479
610296340.0 -0.0731504273 0.2855905512 0.1118192421 -0.4133484738 0.1115251542 -0.4137978139 -0.0822230386 0.298796575
615296310.0 -0.0706233274 0.2865091463 0.1068605435 -0.4144639198 0.1067422445 -0.4145982274 -0.0792721406 0.2991357428
620296280.0 -0.0671744585 0.287247516 0.1023897821 -0.415478267 0.1025241515 -0.4155621143 -0.0760830772 0.3000305624
625296250.0 -0.064043451 0.2880800284 0.0975582263 -0.4167259063 0.0974875066 -0.416936673 -0.0729493306 0.3011540134
630296220.0 -0.0610324754 0.2890991554 0.0929839597 -0.4178298635 0.093404905 -0.4178909033 -0.0702061092 0.302171543
635296190.0 -0.0577202983 0.2900234599 0.0881756953 -0.418184614 0.0887436209 -0.4183815063 -0.0670983488 0.3028665334
640296160.0 -0.0550306177 0.2902019149 0.0843226085 -0.4191213296 0.08436928 -0.419585175 -0.0635368848 0.3037445763
645296130.0 -0.0522121088 0.2911976454 0.0794398389 -0.4204623958 0.0795788144 -0.4203993167 -0.0612152716 0.3043542899
650296100.0 -0.0490642585 0.2919396491 0.0754008066 -0.421061602 0.0752773573 -0.4209569433 -0.0577350882 0.3053150521
655296070.0 -0.0459165301 0.2924769299 0.0705328496 -0.4218486705 0.0703195488 -0.4216733234 -0.0540798656 0.3058136673
660296040.0 -0.0430686146 0.2935454206 0.0660434496 -0.4224998493 0.065946427 -0.4225290436 -0.0513203927 0.3065237746
665296010.0 -0.039825726 0.2938191452 0.0613952931 -0.4230946909 0.0620353544 -0.4235033513 -0.048551832 0.3076831047
670295980.0 -0.0363140493 0.2942744792 0.0565066389 -0.4237521907 0.0570611728 -0.4237970858 -0.0451672541 0.3079149157
675295950.0 -0.033332112 0.2950447486 0.052016174 -0.4244880338 0.0523576483 -0.4248503574 -0.0419042127 0.3090204779
680295920.0 -0.0302315999 0.2955423863 0.0473328174 -0.4250893547 0.0475004674 -0.4250941935 -0.0388667643 0.3090937667
685295890.0 -0.0269915101 0.2961354548 0.0431571305 -0.4255127422 0.0428328937 -0.4256415265 -0.0350036391 0.3099576581
690295860.0 -0.0237543814 0.2965026139 0.0383249994 -0.4256268008 0.0383040302 -0.4254305891 -0.0321958979 0.3102860006
695295830.0 -0.0207275958 0.2965299728 0.0330366802 -0.4259053164 0.0334321366 -0.4262052981 -0.0288590997 0.3108967612
700295800.0 -0.0175202531 0.2969384213 0.0287114484 -0.4262600051 0.029002174 -0.4265440831 -0.0256981999 0.3109117697
705295770.0 -0.0141513489 0.297397205 0.0242433757 -0.4266202566 0.024676076 -0.4268297329 -0.0230249058 0.3119614584
710295740.0 -0.0111134864 0.2980265422 0.0197298703 -0.4267607164 0.0198069231 -0.426702825 -0.0197054005 0.3121025064
715295710.0 -0.0083700618 0.2980367248 0.015277023 -0.4268763642 0.0155057587 -0.4271063698 -0.0163680712 0.3121260269
720295680.0 -0.0051153326 0.2982487952 0.0105042934 -0.4267398444 0.0105067801 -0.4275149782 -0.0126366654 0.3125830424
725295650.0 -0.0015665498 0.2984978999 0.0055955574 -0.4269553453 0.0059655159 -0.427175017 -0.0094850297 0.3129496719
730295620.0 0.0011901665 0.2985590015 0.0011723823 -0.4271843263 0.0010402848 -0.4269595882 -0.0061128761 0.3129983481
735295590.0 0.0048268254 0.2987447887 -0.003346185 -0.426879805 -0.0031869127 -0.4272847031 -0.0029183841 0.3132129619
740295560.0 0.0077854975 0.2992076841 -0.0080242409 -0.4269847763 -0.0080148918 -0.4266535641 0.0003254867 0.3128355345
745295530.0 0.0110056301 0.298794618 -0.0129281988 -0.4268117551 -0.0122759242 -0.426820506 0.0035355626 0.3135547048
750295500.0 0.0137950054 0.2989282325 -0.0171558489 -0.4263668255 -0.0168855576 -0.4266596079 0.0066801942 0.3131650577
755295470.0 0.0177274202 0.2990078213 -0.0215624547 -0.4261169854 -0.0213162493 -0.4263706144 0.0097182635 0.3135900889
760295440.0 0.020330722 0.2990909361 -0.026532027 -0.4259600493 -0.0266210588 -0.426124192 0.0128458619 0.313374325
765295410.0 0.0234912606 0.2988011242 -0.0309117772 -0.4253552763 -0.0307711452 -0.4258662458 0.0168756132 0.3138426912
770295380.0 0.0268474742 0.2989877641 -0.0357125398 -0.4251125206 -0.0356609777 -0.4256209652 0.020173612 0.3138813881
775295350.0 0.0298446381 0.2986766339 -0.0400324508 -0.4246061311 -0.0400256438 -0.4247263943 0.0228210966 0.3130860178
780295320.0 0.0332154684 0.298250809 -0.0448220693 -0.4242708518 -0.0448178045 -0.4245847346 0.0262292131 0.3137221052
785295290.0 0.0362937102 0.2986213242 -0.0493270689 -0.4233243226 -0.0491840934 -0.4238677863 0.0293328366 0.3132464259
790295260.0 0.039370227 0.2979220354 -0.053939386 -0.4230533413 -0.0539502567 -0.4234340732 0.0330651586 0.3129883453
795295230.0 0.042663555 0.2978085958 -0.0581502217 -0.4222815197 -0.0583172176 -0.4224704276 0.0362331492 0.3132903115
800295200.0 0.0459546721 0.2975835354 -0.0633663585 -0.4218811793 -0.0633167176 -0.4222764788 0.0393105698 0.3126801492
805295170.0 0.0487435532 0.2973571044 -0.0674886301 -0.420965399 -0.0675255576 -0.4207672261 0.0423804874 0.3122371925
810295140.0 0.0520144888 0.2967225597 -0.0719240979 -0.4201831243 -0.071771083 -0.4208381227 0.0458998674 0.3123878306
815295110.0 0.0551414351 0.2965819703 -0.0765970011 -0.4193276208 -0.0767221775 -0.4195426403 0.0489671246 0.3117842508
820295080.0 0.0584786585 0.295740827 -0.0809045283 -0.4185242038 -0.0811252543 -0.4185521056 0.0519391531 0.3113613588
825295050.0 0.0617530071 0.2952780192 -0.0857466955 -0.4174043171 -0.0855563977 -0.4180535473 0.0559069042 0.3113708178
830295020.0 0.0647811882 0.2950565993 -0.0901407952 -0.4165559753 -0.0900778644 -0.416715029 0.0586410339 0.3103366652
