!Created with skrf (http://scikit-rf.org).
# Hz S RI R 50.0 
!freq ReS11 ImS11 ReS21 ImS21 ReS12 ImS12 ReS22 ImS22
300000.0 0.8609979393 -0.0009166826 -0.000620397 3.58237e-05 -0.0004060619 0.0004734828 -0.7635676556 -0.2100081624
5299970.0 0.8601882351 -0.0102800024 -0.0002204647 -0.000167198 -5.0058e-06 -5.38051e-05 -0.784745806 -0.0095722638
10299940.0 0.8583855093 -0.0186889181 -7.55795e-05 0.0001627784 5.11392e-05 -0.0001240089 -0.7872911515 -0.0055132605
15299910.0 0.8579816059 -0.0281584548 8.3481e-06 9.67777e-05 -2.94269e-05 0.000185134 -0.792364479 -0.0027321125
20299880.0 0.8572566798 -0.0351544825 -0.000179096 0.0002335244 -3.7797e-05 -8.5887e-06 -0.7993710651 0.0015428585
25299850.0 0.856419033 -0.0438900634 0.0001225185 7.00658e-05 -0.0001041494 -1.34607e-05 -0.8059774066 0.0078084831
30299820.0 0.8560962165 -0.0522343561 0.0002248765 -4.8734e-06 0.0001390219 5.1932e-06 -0.8116734618 0.0154620353
35299790.0 0.8552116579 -0.0601929759 0.0001114198 0.0003233814 0.0001060485 -9.69032e-05 -0.8167846508 0.0251170974
40299760.0 0.8546079776 -0.0683929004 0.0002138468 -1.20042e-05 3.69809e-05 -6.26345e-05 -0.8208792609 0.0340326197
45299730.0 0.8533958062 -0.076907192 -0.0001884565 8.52499e-05 0.0001570379 3.34433e-05 -0.8237311836 0.0435887995
50299700.0 0.8529566426 -0.0850427945 1.3445e-06 2.73634e-05 -7.4781e-06 -0.0001039283 -0.8261028377 0.054011022
55299670.0 0.8520087207 -0.0928017275 0.0002553795 3.0469e-05 4.83964e-05 -1.32396e-05 -0.8286152102 0.0639930136
60299640.0 0.8515669369 -0.1012480311 -1.70596e-05 4.59863e-05 -0.0001138334 -9.38767e-05 -0.8298323918 0.0739709962
65299610.0 0.8502117978 -0.10953127 0.0002697288 5.3234e-06 -0.0001076064 0.0002780627 -0.8302210615 0.0839832947
70299580.0 0.8486478967 -0.1175607165 -7.17933e-05 -3.157e-06 -6.61534e-05 -8.15994e-05 -0.8307695083 0.0937638119
75299550.0 0.8475232502 -0.1255687699 8.30483e-05 9.81473e-05 -2.8584e-05 -4.98367e-05 -0.8303581257 0.104165173
80299520.0 0.8460231612 -0.1333775451 -0.0002196804 -6.99564e-05 7.38304e-05 4.72236e-05 -0.8303061654 0.1135837261
85299490.0 0.8451016972 -0.1421061562 -0.0001580723 -0.0001277824 -2.85282e-05 -8.4491e-05 -0.8295487246 0.1234092166
90299460.0 0.8443738176 -0.1505712938 -3.25187e-05 -8.3714e-05 2.64957e-05 2.72323e-05 -0.828989128 0.132452894
95299430.0 0.8424733697 -0.1574519386 2.17059e-05 -8.60193e-05 0.0002252674 -1.57656e-05 -0.827902316 0.1425063417
100299400.0 0.8408706579 -0.1663124905 -0.0001626172 -0.0001023382 -5.21408e-05 -0.0001047341 -0.8268437614 0.1520292525
105299370.0 0.8393574139 -0.1745436498 -3.09849e-05 -6.0504e-05 -0.0001061016 -3.39818e-05 -0.8252771608 0.1607117115
110299340.0 0.8374065414 -0.1831089221 5.57198e-05 4.68171e-05 0.0001406636 5.62158e-05 -0.8239453544 0.1699079466
115299310.0 0.8358798794 -0.1904627419 6.31237e-05 3.60949e-05 -7.34921e-05 -0.0001338335 -0.8228273495 0.1792368922
120299280.0 0.8337149309 -0.1989235622 8.1809e-05 -8.5218e-05 9.52881e-05 0.00025737 -0.8207845301 0.188080991
125299250.0 0.8315968646 -0.2065840658 2.62579e-05 -0.0002052699 0.0001847618 0.0001528941 -0.8194098115 0.1971444035
130299220.0 0.82957855 -0.2146671645 9.1591e-05 2.73265e-05 -4.2831e-06 7.50223e-05 -0.8171120639 0.2054620958
135299190.0 0.828388216 -0.2229205926 5.47194e-05 -0.0002409316 -7.25413e-05 -0.0001176453 -0.8155174283 0.2151180474
140299160.0 0.8257608331 -0.2299568422 0.0001361123 8.3284e-06 -0.0001919822 -0.0001806982 -0.8134273783 0.2232450626
145299130.0 0.8233849226 -0.2382962385 7.71367e-05 -2.83488e-05 -9.06566e-05 -2.53e-07 -0.8117165074 0.2326251059
150299100.0 0.8211805404 -0.2462670081 1.6538e-05 -9.30043e-05 -3.3137e-05 3.4666e-05 -0.8095920043 0.241064389
155299070.0 0.818948405 -0.2539219719 -7.48351e-05 0.0001668038 -2.4389e-06 0.0002142024 -0.8062222639 0.250360762
160299040.0 0.8160035747 -0.262030947 6.83636e-05 -1.9273e-06 9.2597e-05 -4.60491e-05 -0.8045421678 0.2589637496
165299010.0 0.8137749486 -0.2695858373 2.49923e-05 6.40553e-05 -9.55855e-05 0.0001429669 -0.8016962868 0.2673067669
170298980.0 0.8114465917 -0.2775293496 7.81107e-05 4.25154e-05 -0.00018102 -3.19098e-05 -0.7993273383 0.2757880019
175298950.0 0.8086750807 -0.2852717281 0.0001036164 7.64274e-05 8.13892e-05 -2.3674e-05 -0.7964316823 0.2847528952
180298920.0 0.8058803384 -0.293235737 9.36719e-05 0.0001503492 -6.32619e-05 0.0001790059 -0.7932677468 0.2932326708
185298890.0 0.8029185373 -0.3013870925 0.0001333092 0.0001574493 -8.9203e-05 4.283e-05 -0.7901936078 0.3016889669
190298860.0 0.7999584107 -0.3089957612 6.17004e-05 0.0001041712 -0.0001862998 0.000176652 -0.7872454223 0.3103097569
195298830.0 0.7967486196 -0.3157593504 0.0001194445 -2.42522e-05 2.25783e-05 -6.19821e-05 -0.7838601296 0.3179800964
200298800.0 0.7939844869 -0.3233201927 1.43429e-05 9.7598e-05 -0.000136708 -7.57542e-05 -0.7806171403 0.3264011283
205298770.0 0.7911029882 -0.3317765456 4.8355e-05 -7.67166e-05 9.80827e-05 4.26262e-05 -0.777111867 0.3356302272
210298740.0 0.7879805967 -0.3390902685 0.0002090739 -0.000112273 4.36194e-05 6.5644e-05 -0.7737507887 0.3432999436
215298710.0 0.784959301 -0.347313166 3.61734e-05 8.4403e-05 7.07264e-05 0.0001038439 -0.7700979574 0.3517489822
220298680.0 0.7814532579 -0.3537960761 5.53143e-05 3.15943e-05 4.13147e-05 0.0002180508 -0.7660847122 0.3593518046
225298650.0 0.7776087722 -0.3618609617 -1.89579e-05 -0.0002876654 3.50682e-05 -8.39401e-05 -0.7632402253 0.3677055771
230298620.0 0.7732063876 -0.3688084735 -8.0781e-05 3.00943e-05 -2.88872e-05 -2.1877e-06 -0.7588567925 0.3754930028
235298590.0 0.7706335821 -0.3767922078 -3.7245e-06 0.0003158257 1.15969e-05 -6.7186e-06 -0.7546954511 0.3834785886
240298560.0 0.7661850076 -0.3835058084 -3.30396e-05 4.14011e-05 -7.28274e-05 -7.12945e-05 -0.7510172984 0.3906166251
245298530.0 0.7632171847 -0.3908456737 1.18372e-05 -8.1436e-05 2.58515e-05 3.3717e-06 -0.7474500888 0.3993277172
250298500.0 0.759007465 -0.3984630513 -5.24003e-05 0.0001282602 -2.92655e-05 -0.000162879 -0.7427292701 0.4070646493
255298470.0 0.7553769433 -0.4049707924 -2.52295e-05 -1.91988e-05 9.45753e-05 -1.6228e-05 -0.7388079771 0.4145674088
260298440.0 0.7513581768 -0.413050505 4.06219e-05 -0.0003188917 6.78528e-05 2.05131e-05 -0.7335916341 0.4217822695
265298410.0 0.7467477308 -0.4201014741 -0.0001137872 -6.11634e-05 9.3895e-05 0.0001894621 -0.7297555674 0.4297994713
270298380.0 0.7436094456 -0.4268250029 -0.0001443228 2.2037e-06 -7.06085e-05 0.0001706917 -0.7246304432 0.4379859719
275298350.0 0.7389719123 -0.4341898346 -0.000175651 0.0003248119 0.0002159448 -5.28199e-05 -0.7203439294 0.4455598913
280298320.0 0.7347347389 -0.4412706975 -0.0001183003 5.01231e-05 -0.0001322914 -5.33094e-05 -0.7158908215 0.4530065436
285298290.0 0.7311107783 -0.4479804152 5.43729e-05 0.0001074121 8.24434e-05 -1.40319e-05 -0.7118618484 0.460455545
290298260.0 0.7262439889 -0.455441496 9.17937e-05 8.32908e-05 -5.39449e-05 -0.0001797432 -0.7059917738 0.4675228608
295298230.0 0.7227685559 -0.4624175023 -2.67079e-05 -1.9501e-05 3.34157e-05 -0.0001165958 -0.7009683562 0.4752995104
300298200.0 0.7190464695 -0.4690205547 8.32828e-05 -0.0002530597 -7.05056e-05 -4.17001e-05 -0.6967332404 0.4823887925
305298170.0 0.7139889624 -0.4773356101 -5.99743e-05 0.0001840064 8.08665e-05 -2.05161e-05 -0.6910971837 0.489727664
310298140.0 0.7086932673 -0.4855311832 6.15401e-05 -9.50632e-05 -4.58391e-05 -0.0002246927 -0.6861585846 0.4973565936
315298110.0 0.7042051079 -0.4921948604 0.0002323907 -6.2564e-06 -0.000215487 8.59091e-05 -0.6813383442 0.5042844469
320298080.0 0.6984935169 -0.4997501321 -2.36117e-05 -0.0001081745 -0.0001188499 5.12911e-05 -0.6758414691 0.5106911481
325298050.0 0.6923724417 -0.506929648 -2.24297e-05 7.19789e-05 -0.0001975227 2.59911e-05 -0.670627829 0.5178303416
330298020.0 0.6867515917 -0.5137976316 -8.9577e-06 4.21654e-05 2.8551e-06 0.0003091748 -0.6648923448 0.5245764358
335297990.0 0.6810979198 -0.5190728514 7.90661e-05 9.13329e-05 0.000128767 -0.0001496362 -0.6589743016 0.5318295044
340297960.0 0.675515484 -0.5253507765 0.0002136359 -0.0001101905 -2.51167e-05 -0.0001523259 -0.6536495524 0.5383796884
345297930.0 0.6700020257 -0.5322562666 -8.10352e-05 0.0001619342 2.9795e-05 -7.07553e-05 -0.6487595354 0.5448232514
350297900.0 0.6649871836 -0.5380324146 -1.85122e-05 0.0001098564 -1.95085e-05 -0.0001276624 -0.6431218488 0.55116061
355297870.0 0.6599161764 -0.5445378582 -0.0003034509 -9.239e-07 2.39362e-05 0.0001043561 -0.6369688768 0.559166042
360297840.0 0.6542528818 -0.5508812951 -2.02701e-05 -4.27414e-05 9.1189e-05 -6.91405e-05 -0.6302849043 0.5649882551
365297810.0 0.6486546612 -0.5568040428 -7.84433e-05 4.76414e-05 -7.29076e-05 8.06596e-05 -0.6251216378 0.5706245386
370297780.0 0.6430869846 -0.5632683737 -0.0001452416 0.000117204 -4.95383e-05 -4.93345e-05 -0.6196179073 0.5773654696
375297750.0 0.6377712204 -0.5692958944 1.2e-06 2.15765e-05 0.0002164793 -0.000105327 -0.6130945092 0.5837642297
380297720.0 0.6319179191 -0.5744791831 -4.99977e-05 -2.87256e-05 -8.17274e-05 -5.69568e-05 -0.6071030542 0.5905556624
385297690.0 0.626242076 -0.5809388874 -0.0001844854 -9.17438e-05 -0.000108031 1.00102e-05 -0.6010019243 0.5968315892
390297660.0 0.6212085343 -0.5870060984 -6.30757e-05 -0.0001686058 6.98686e-05 1.89416e-05 -0.5943583254 0.6017685025
395297630.0 0.6153299653 -0.5925541535 0.0001292491 7.58355e-05 0.0001408604 -2.7136e-06 -0.5880780027 0.607507792
400297600.0 0.6087542748 -0.5984711015 3.6038e-05 0.000242226 0.0002294667 -6.4075e-05 -0.582501504 0.6142799643
405297570.0 0.6034235899 -0.6050245567 -4.56441e-05 4.90449e-05 -5.27415e-05 -0.00026901 -0.5756575568 0.6199532925
410297540.0 0.5979923218 -0.6097950112 -0.0001595927 2.4016e-06 0.0001233823 1.59265e-05 -0.5689440433 0.6262494954
415297510.0 0.5913653567 -0.615630944 1.62743e-05 0.0001860677 0.0001385972 -5.13414e-05 -0.5630692402 0.6319251467
420297480.0 0.5860152868 -0.6221335488 -0.000112014 -0.0001269001 0.0001639419 -0.0001306326 -0.5561421204 0.6380320129
425297450.0 0.5795874732 -0.6272935659 9.37848e-05 4.16106e-05 -1.007e-06 -0.0001334215 -0.549280478 0.6428931613
430297420.0 0.5731500965 -0.6331334723 -6.44379e-05 3.40527e-05 7.35578e-05 -0.0001192465 -0.5431277769 0.6487681833
435297390.0 0.5673713936 -0.6382805961 0.0001544682 8.56683e-05 0.0001830753 0.0001717656 -0.5368616552 0.654491332
440297360.0 0.5610188613 -0.6439974118 0.0001453082 -0.0001462306 -4.59069e-05 4.18167e-05 -0.5301157705 0.6595849477
445297330.0 0.5554063232 -0.6487309734 -6.63352e-05 5.64238e-05 2.32728e-05 -3.0805e-06 -0.5230821313 0.664964103
450297300.0 0.5490268081 -0.654520228 0.0001009522 5.18648e-05 -2.54016e-05 -2.73615e-05 -0.5159040723 0.6699109279
455297270.0 0.5426570478 -0.6600823805 -2.5151e-05 0.0001738544 2.19756e-05 -9.12486e-05 -0.5091771895 0.6753855945
460297240.0 0.5357230929 -0.6648564905 -0.0001178414 6.12317e-05 -8.67311e-05 -5.68019e-05 -0.5022181456 0.6798084494
465297210.0 0.5295848824 -0.6694490053 -0.0001245747 6.07345e-05 -1.80296e-05 -9.30194e-05 -0.4949890762 0.6854407905
470297180.0 0.5227136422 -0.6757455102 1.71276e-05 -0.0001557518 -7.8415e-05 -2.15424e-05 -0.4878636568 0.6903443123
475297150.0 0.5162361775 -0.6806913507 -9.22649e-05 0.000117473 -4.84732e-05 -1.38918e-05 -0.4809134791 0.6956350445
480297120.0 0.5094626791 -0.6852583916 9.47178e-05 8.76307e-05 -4.23439e-05 -3.46519e-05 -0.474456713 0.7002499006
485297090.0 0.502518897 -0.6900270718 5.21022e-05 -1.0488e-05 -5.07566e-05 -5.05231e-05 -0.4670538695 0.7047221283
490297060.0 0.4966180262 -0.6942819867 -3.03496e-05 1.71232e-05 8.15191e-05 -8.93953e-05 -0.4596305519 0.7090091277
495297030.0 0.4898271812 -0.6998203743 -0.000104727 9.20031e-05 -0.0001287197 2.43774e-05 -0.4523151504 0.7136722468
500297000.0 0.4831390208 -0.7042932262 -2.87181e-05 1.83755e-05 1.94196e-05 0.0002370352 -0.4450382108 0.7184176893
505296970.0 0.4763141024 -0.7090507879 -3.70426e-05 -2.95281e-05 -6.01629e-05 5.7546e-05 -0.4374154603 0.7229022596
510296940.0 0.469677443 -0.7140458049 8.44561e-05 0.0002974645 0.0001367078 -0.0001414658 -0.4299325181 0.7277478959
515296910.0 0.4617574965 -0.7181995528 -5.14553e-05 0.0001310425 3.53049e-05 -0.0002010603 -0.4226305672 0.7307530689
520296880.0 0.4564624844 -0.7231123537 0.0001617235 -9.7806e-06 0.0001834357 0.0002150841 -0.4151647676 0.7360529785
525296850.0 0.4492823945 -0.7274303835 8.55643e-05 6.61763e-05 6.80456e-05 0.0001504488 -0.4081785699 0.7400409963
530296820.0 0.4419187225 -0.731790496 -0.0001183732 -0.0001266003 1.12282e-05 3.07219e-05 -0.4002117182 0.7433492399
535296790.0 0.4349307982 -0.7357840503 0.0001907571 0.0001093175 -2.27402e-05 8.75788e-05 -0.3932041554 0.7479462373
540296760.0 0.4283163701 -0.739378523 -1.74675e-05 -0.0001002784 -0.0001292524 -1.35302e-05 -0.3848654017 0.7517033398
545296730.0 0.4199809153 -0.7441769068 -3.5969e-05 -6.06e-06 -0.0001540224 0.0001916593 -0.3774480669 0.7555881903
550296700.0 0.4132084883 -0.7476578532 -7.51457e-05 -2.47712e-05 7.91839e-05 -1.39488e-05 -0.3698588476 0.75901126
555296670.0 0.4058650984 -0.7519332756 4.98636e-05 -0.0001672534 0.0001064371 3.03674e-05 -0.3621012799 0.7618883946
560296640.0 0.3991738961 -0.7549565927 5.14893e-05 0.0002002989 -5.73077e-05 -0.0002032399 -0.354009888 0.7666712167
565296610.0 0.3912480842 -0.7591380346 5.31379e-05 5.19516e-05 5.63111e-05 0.0001863479 -0.3466084213 0.7699339335
570296580.0 0.3835058645 -0.7626147149 0.0001500321 -7.19663e-05 -3.9784e-05 -4.8907e-05 -0.3388462106 0.7726512587
575296550.0 0.376817135 -0.7662881968 -1.3817e-06 -0.0001336626 1.12462e-05 -4.6482e-05 -0.3308617766 0.7764975172
580296520.0 0.3690958704 -0.7700370782 -2.07878e-05 -0.0001083642 -0.0001590825 -2.26944e-05 -0.3237746971 0.7796908273
585296490.0 0.3617618494 -0.77347289 8.282e-05 3.36481e-05 0.0001010492 -0.0001080822 -0.3150756959 0.7833210546
590296460.0 0.354413572 -0.7761234288 -7.59143e-05 -1.18059e-05 -9.77778e-05 0.0001136171 -0.3079616007 0.785720253
595296430.0 0.3467670008 -0.779641072 0.0001921624 -0.0001521843 1.55396e-05 0.0001388511 -0.2999553179 0.7896308434
600296400.0 0.339120511 -0.7832868305 0.0001102613 5.06086e-05 2.86973e-05 1.402e-07 -0.2918364729 0.791797683
605296370.0 0.3307631667 -0.7867525583 -0.0001040128 2.11376e-05 -0.0001269363 0.0001131781 -0.283216793 0.7954036118
610296340.0 0.3230632244 -0.790101618 0.0002889203 9.89725e-05 0.0001005273 -0.0002542086 -0.2757691248 0.7977344325
615296310.0 0.3157234363 -0.7922037892 1.11349e-05 -2.96462e-05 -3.85367e-05 0.0002891295 -0.2669213981 0.8006949389
620296280.0 0.3078363198 -0.7950026438 -0.0002096069 7.88991e-05 -0.0001189323 -2.71741e-05 -0.2600047802 0.8034797372
625296250.0 0.3001520151 -0.7980483873 -0.0001646397 1.68038e-05 -5.056e-05 5.30271e-05 -0.2515727115 0.8053091384
630296220.0 0.2917491643 -0.8005598775 3.77187e-05 8.46498e-05 2.85178e-05 -0.0001658224 -0.2438207678 0.8082919523
635296190.0 0.2840768292 -0.803235985 5.4305e-06 -0.0001698782 7.36952e-05 6.60108e-05 -0.2354517366 0.8104074315
640296160.0 0.2757871121 -0.8060751794 -9.4102e-06 -0.0001188925 0.0001334927 -5.2345e-05 -0.2268987885 0.8128197175
645296130.0 0.2687009783 -0.8083609976 -0.0001707245 0.0001170272 -3.06959e-05 -9.10367e-05 -0.2195509742 0.8143869309
650296100.0 0.2604839818 -0.8106836637 0.00014304 -0.0001192894 9.3371e-06 -5.00518e-05 -0.2109353317 0.8166755831
655296070.0 0.2524361181 -0.8132575075 -0.0001127661 -0.0002789625 5.563e-06 -4.82747e-05 -0.2030115616 0.819263449
660296040.0 0.2438180849 -0.8150818293 -0.0001827339 -3.54591e-05 -6.87416e-05 -8.45911e-05 -0.1943911455 0.8211737773
665296010.0 0.235719322 -0.817207939 -2.76774e-05 -4.38594e-05 6.2113e-05 0.0001582764 -0.186175363 0.8225846789
670295980.0 0.2284113642 -0.8196495477 -0.0001387497 -7.47841e-05 -2.17498e-05 0.0001057527 -0.1781052853 0.8242927227
675295950.0 0.219536053 -0.8218330798 0.0001176138 0.000316019 0.0001677538 0.000115257 -0.1690364255 0.8268383387
680295920.0 0.2113170132 -0.8232138534 -5.1857e-06 -5.70006e-05 0.0002910329 -0.0001876792 -0.161066584 0.8280220689
685295890.0 0.2032458769 -0.8248129441 -5.99877e-05 0.0001704763 0.0001218086 -7.9367e-06 -0.1531831415 0.8300020674
690295860.0 0.1947897833 -0.8268343795 6.23384e-05 -0.0001113626 -0.000214826 0.0001701942 -0.1450665991 0.8308431874
695295830.0 0.1865930632 -0.8282185115 -0.0001356018 4.6853e-06 -2.86605e-05 0.0001521566 -0.1368397514 0.832692311
700295800.0 0.1786239194 -0.8301046178 0.0001740961 -0.0001171702 -1.76814e-05 8.14191e-05 -0.1279638957 0.8334461939
705295770.0 0.1698175823 -0.8315242687 -8.7254e-06 2.43886e-05 -5.77001e-05 -0.0001125435 -0.1199977094 0.8353410753
710295740.0 0.1619611512 -0.8320888051 -0.0001048809 -0.000103277 2.1178e-05 -5.55262e-05 -0.1116226146 0.8364740493
715295710.0 0.1539326173 -0.8341398239 0.0001333353 -3.90503e-05 3.01376e-05 4.9228e-05 -0.1027687978 0.8369584194
720295680.0 0.1451636523 -0.8349094247 9.75387e-05 0.0001078888 -3.77089e-05 -0.0001304517 -0.0942855975 0.8377890784
725295650.0 0.1365009414 -0.8364860051 8.44713e-05 8.7618e-06 1.2044e-06 -7.3844e-06 -0.0874776096 0.8390151818
730295620.0 0.1286004997 -0.8374229827 -9.8366e-06 -0.0001867948 -0.0001354715 9.7657e-06 -0.078487219 0.8398981635
735295590.0 0.1198174292 -0.8385451384 3.621e-07 -0.0002196655 -6.63906e-05 9.6937e-05 -0.0699221295 0.8402646078
740295560.0 0.1112338699 -0.839484573 0.0002161021 0.0001210044 0.000121519 -0.0002130018 -0.0615430408 0.8415198716
745295530.0 0.1036003281 -0.8400909962 -9.25286e-05 -0.000245516 -5.10062e-05 4.09789e-05 -0.0535532976 0.8415431069
750295500.0 0.0945379155 -0.8406784966 -3.56517e-05 -0.0001355776 -2.12416e-05 0.0001000235 -0.0450815818 0.842133391
755295470.0 0.0864790666 -0.8413107399 -7.71872e-05 0.0001472561 -3.1691e-05 0.0001480082 -0.0365375559 0.842766687
760295440.0 0.0782114759 -0.8416271623 -9.4045e-06 0.0001651058 0.0001709518 9.1954e-06 -0.0278540813 0.8428424372
765295410.0 0.0701238943 -0.8421631676 -4.51526e-05 0.0001520624 0.000211323 -4.36721e-05 -0.0196491028 0.8430078114
770295380.0 0.0615128316 -0.8421733217 5.92623e-05 4.65113e-05 -0.0001695949 2.97958e-05 -0.011389191 0.8433486644
775295350.0 0.0531996738 -0.8424169023 -3.89042e-05 -7.81945e-05 -5.72605e-05 -0.0001430953 -0.0026140687 0.8432369671
780295320.0 0.0443210215 -0.8428774712 -0.0001448703 -0.0001241035 -8.7425e-06 1.85866e-05 0.0055392478 0.8432496366
785295290.0 0.0357700105 -0.8434601837 -8.8983e-06 -0.0001793552 -4.00639e-05 -0.0001466355 0.0133512262 0.8437663965
790295260.0 0.028691879 -0.8430803496 -0.0001151176 -0.0001769651 2.82116e-05 8.18256e-05 0.0224093777 0.8432473764
795295230.0 0.019601965 -0.8437055443 -5.23722e-05 -0.0002021196 0.0001344332 -2.39614e-05 0.0300313343 0.8421004243
800295200.0 0.0106201299 -0.8438472023 6.80202e-05 -0.0001444143 -2.13981e-05 4.53955e-05 0.0387684871 0.841524516
805295170.0 0.0029397938 -0.8439246931 -5.58998e-05 -7.05658e-05 -0.0002583136 4.36883e-05 0.047534023 0.8417215401
810295140.0 -0.005731189 -0.8425665042 0.0001026449 -7.41848e-05 7.0363e-06 4.21632e-05 0.0557786958 0.8410485497
815295110.0 -0.0142302121 -0.8426839405 -0.0001259732 -0.0001071171 0.0001485296 0.0001271412 0.0632509992 0.8408303084
820295080.0 -0.0225954243 -0.842519617 0.0001181996 -7.58357e-05 0.0001137654 -9.04306e-05 0.0713733627 0.8401913833
825295050.0 -0.0316569531 -0.8424467242 -1.7152e-05 4.44886e-05 6.0389e-05 0.0001714968 0.0801357305 0.8393797912
830295020.0 -0.0396220934 -0.8416766309 0.0001089507 -7.1627e-06 -0.0001691137 8.48455e-05 0.0877235473 0.8383077868
835294990.0 -0.0475118327 -0.8410301267 -7.8762e-06 -2.88635e-05 -9.28813e-05 3.80204e-05 0.0966572707 0.8377917809
840294960.0 -0.0552698728 -0.840353365 0.0001363119 -0.0002066793 -0.0001143454 -9.26545e-05 0.1057451785 0.8366070703
845294930.0 -0.0645132981 -0.8395977354 -3.94485e-05 6.97487e-05 7.76724e-05 -7.256e-06 0.1137589481 0.8354072675
850294900.0 -0.0721131899 -0.8385956195 -0.0001118631 -1.68865e-05 -0.0001571926 -5.84121e-05 0.1215888353 0.8344517663
