!Created with skrf (http://scikit-rf.org).
# Hz S RI R 50.0 
!freq ReS11 ImS11 ReS21 ImS21 ReS12 ImS12 ReS22 ImS22
300000.0 -0.2330460498 -0.1363813821 0.4656754019 0.0902603486 0.4674092223 0.0879995469 -0.2332681285 -0.1331826252
5299970.0 -0.2415286643 0.0050530012 0.4748150186 0.0060771329 0.4753153705 0.0057731595 -0.2441832531 0.0047536381
10299940.0 -0.2385338933 0.0187130241 0.4772358556 0.0070686363 0.4772707554 0.007067677 -0.2406832932 0.0174400996
15299910.0 -0.2339187422 0.028713174 0.480485646 0.0080837608 0.4811145742 0.0081704613 -0.2366263627 0.0263300665
20299880.0 -0.2285042073 0.0366926545 0.4853647413 0.0080766449 0.4855230788 0.0082777298 -0.231755014 0.0339070335
25299850.0 -0.2223836406 0.043513172 0.4906697374 0.0075628813 0.4910423047 0.0073740673 -0.2267579365 0.039907465
30299820.0 -0.2169655473 0.048757019 0.4960338526 0.0045469854 0.4962469346 0.0050481288 -0.2212031747 0.0449694954
35299790.0 -0.2110366945 0.0529617565 0.5009371563 0.0018629667 0.501337709 0.0019563027 -0.2166396011 0.049076626
40299760.0 -0.206021112 0.0560005345 0.5062951832 -0.0019462196 0.5064986582 -0.0020726317 -0.2118095126 0.0521138577
45299730.0 -0.2010807835 0.0588155108 0.5109276556 -0.0066167394 0.511306247 -0.0071942902 -0.2067652209 0.054905722
50299700.0 -0.1958317291 0.0607867148 0.5152901051 -0.0127072088 0.5148525467 -0.0124570113 -0.2026395962 0.0567596907
55299670.0 -0.1918360866 0.0624185998 0.5188899765 -0.017944016 0.5189323422 -0.0185470354 -0.19879914 0.058590419
60299640.0 -0.1876412795 0.0640853876 0.5223818121 -0.0244065539 0.5224677505 -0.0250389084 -0.1951838465 0.0595599097
65299610.0 -0.1840885963 0.0648980857 0.5254445313 -0.0306302263 0.525382456 -0.0310070255 -0.1915199839 0.0608181956
70299580.0 -0.1808274515 0.0657997477 0.5273656133 -0.0374263396 0.5275303769 -0.0374975952 -0.189030712 0.0618837549
75299550.0 -0.1780822901 0.0665993828 0.5294796147 -0.0442899577 0.529738732 -0.0447316653 -0.1862597107 0.06261628
80299520.0 -0.175046276 0.0676373888 0.5315387155 -0.0512804317 0.5314787107 -0.0513770369 -0.183581029 0.0635121221
85299490.0 -0.1724546539 0.0682247138 0.5326696428 -0.0582465912 0.532724431 -0.0580941782 -0.1814331822 0.0639637132
90299460.0 -0.1701833544 0.0690287972 0.5333879213 -0.0653095426 0.5335619644 -0.0653125261 -0.1790933856 0.0648925654
95299430.0 -0.1679917177 0.0696220503 0.5343030177 -0.0723466729 0.5349125093 -0.0721080485 -0.1773950718 0.0657421208
100299400.0 -0.1662009801 0.0702900321 0.5347936843 -0.0785818125 0.5350491245 -0.0789264671 -0.1755499657 0.0666401158
105299370.0 -0.1639651956 0.0709856035 0.5347761223 -0.0858477858 0.5355957693 -0.086014948 -0.173643376 0.0667715314
110299340.0 -0.1620286413 0.0714208446 0.5351484584 -0.0922279862 0.5356957197 -0.0922940686 -0.1726878521 0.0673442327
115299310.0 -0.1607766505 0.0725456987 0.535392126 -0.0989839641 0.5353673344 -0.0992997287 -0.1712359625 0.0685757711
120299280.0 -0.1595640571 0.0732546049 0.5355445178 -0.1062081928 0.5351810694 -0.1066046589 -0.1699415317 0.0687290362
125299250.0 -0.1580586802 0.0737761923 0.5348128808 -0.1127192397 0.5349647823 -0.1127256003 -0.1685807273 0.0696867382
130299220.0 -0.1566839595 0.074697306 0.5343250095 -0.1195961083 0.5342620551 -0.1200345244 -0.1675846359 0.0707103228
135299190.0 -0.1553568185 0.0759122973 0.5339143409 -0.1262133343 0.5340612986 -0.1265031834 -0.1664254343 0.0712502194
140299160.0 -0.1543407494 0.0769523094 0.5331360701 -0.1332998915 0.5329250314 -0.1326928399 -0.1659324654 0.0718962159
145299130.0 -0.1532497778 0.0777673875 0.5318815042 -0.1398340519 0.5321688002 -0.1394693388 -0.1650614349 0.072865487
150299100.0 -0.1518721502 0.0789309645 0.5307153502 -0.1460237935 0.5306319742 -0.1460418321 -0.1640626689 0.0741429281
155299070.0 -0.1508989568 0.0798541512 0.5288190175 -0.152213379 0.529481033 -0.1525888893 -0.1631630667 0.0749108734
160299040.0 -0.1499536192 0.0813097888 0.5281216519 -0.1590805801 0.5280066055 -0.1592650647 -0.1624315288 0.0762940344
165299010.0 -0.148614968 0.0821870187 0.526939693 -0.1650808905 0.526560229 -0.1656947071 -0.1612319897 0.0768257022
170298980.0 -0.1480798147 0.0833748318 0.5249739104 -0.1719461653 0.5250962614 -0.1718288192 -0.1608565311 0.0779715814
175298950.0 -0.1467228044 0.0846133951 0.5238703859 -0.1780114384 0.5239006083 -0.1785200528 -0.1600591444 0.0791932205
180298920.0 -0.1460469372 0.0860585706 0.5218336386 -0.1843267393 0.5222497837 -0.1841426539 -0.1595190378 0.0802052474
185298890.0 -0.1449433633 0.0871813918 0.5203175488 -0.1905067268 0.520049598 -0.1906073839 -0.1583312273 0.0811888467
190298860.0 -0.1437119432 0.0889946823 0.5175594742 -0.1967759577 0.5181829452 -0.1967113524 -0.1577012556 0.0824946696
195298830.0 -0.1430262312 0.0902648254 0.5161901904 -0.2029212895 0.516078017 -0.2028623808 -0.1570805796 0.0837969427
200298800.0 -0.1419659622 0.0910095409 0.5137962328 -0.2093979825 0.5139737366 -0.2088412399 -0.1562502337 0.084485133
205298770.0 -0.1414492693 0.0923937717 0.511729453 -0.2147716766 0.5119832199 -0.2148862689 -0.1553123659 0.0861239978
210298740.0 -0.1401644333 0.0941428573 0.509570487 -0.2210301515 0.5092313605 -0.2207998839 -0.1548053459 0.0868751568
215298710.0 -0.1394026297 0.0954441892 0.507158448 -0.2268005487 0.5074891645 -0.2268409413 -0.1540885918 0.0884161261
220298680.0 -0.1378091592 0.0970041789 0.5041814436 -0.2328912819 0.5045367942 -0.2328188826 -0.1531015467 0.0894827425
225298650.0 -0.1372024749 0.0982490812 0.5019465314 -0.2381795329 0.5024879261 -0.2382683338 -0.1527038519 0.090827012
230298620.0 -0.1360485235 0.1000978977 0.4997579064 -0.2445278238 0.5000313488 -0.2443066861 -0.1518615348 0.0916817149
235298590.0 -0.1354424448 0.1013940117 0.4973052757 -0.2505200069 0.4972944945 -0.2504074023 -0.1511216492 0.0934699448
240298560.0 -0.1342038032 0.1027607553 0.4944473813 -0.2555428785 0.4943586656 -0.2557904979 -0.1502206903 0.0946117387
245298530.0 -0.1333471443 0.1039118417 0.4914258493 -0.2615695176 0.4919911804 -0.2616684616 -0.1496356036 0.0963080111
250298500.0 -0.1323835834 0.1053279359 0.48878805 -0.2668591176 0.4889572685 -0.2669761228 -0.1488213035 0.097660944
255298470.0 -0.1311126848 0.1070081799 0.4864728075 -0.2723776131 0.4862916603 -0.2727512199 -0.14808871 0.0987707235
260298440.0 -0.1302649802 0.1083223161 0.4831986934 -0.2778610914 0.4829339893 -0.2782250265 -0.1473090787 0.0999432684
265298410.0 -0.1295819727 0.1100531025 0.4800004538 -0.2841800086 0.4800196988 -0.2841656721 -0.1458672813 0.1010455958
270298380.0 -0.1283416769 0.1112218363 0.4768181766 -0.2890247538 0.4771858769 -0.288976851 -0.1451464954 0.1026434978
275298350.0 -0.1267822977 0.113135371 0.4734365151 -0.2944189669 0.4734467843 -0.2944926138 -0.1442314829 0.1044035875
280298320.0 -0.1260611374 0.1140770129 0.4708375416 -0.299261219 0.470914966 -0.3000558209 -0.1432648654 0.1055027567
285298290.0 -0.1248056499 0.1157398684 0.467144825 -0.3051115509 0.4677787278 -0.3050494022 -0.1427271147 0.1069651785
290298260.0 -0.1238862285 0.1175157261 0.4645300068 -0.3100779496 0.4642606376 -0.3107552799 -0.1414962773 0.1083258683
295298230.0 -0.1227002678 0.1182809908 0.4608278273 -0.3157812582 0.4612704355 -0.3162249069 -0.1405090236 0.1097595558
300298200.0 -0.1212151756 0.1204159926 0.4575985442 -0.3212965821 0.4576638203 -0.3206378832 -0.1396495852 0.1109370634
305298170.0 -0.1201475143 0.1212475367 0.4539057322 -0.3265345919 0.4544138738 -0.3264370954 -0.1383917615 0.1118464476
310298140.0 -0.1183580674 0.1224421943 0.4503613526 -0.3316378852 0.4506420175 -0.3310287085 -0.1373201189 0.1128380412
315298110.0 -0.1178222637 0.1236265771 0.4469775935 -0.3371575569 0.4468200625 -0.3367355389 -0.1364200432 0.1142335418
320298080.0 -0.1162713422 0.1250795401 0.4424343719 -0.3417034614 0.4436407166 -0.342014792 -0.1359373696 0.1153439153
325298050.0 -0.1155925343 0.1258858706 0.4391709675 -0.3463549456 0.4397228177 -0.3467374328 -0.1344397228 0.1166434095
330298020.0 -0.1148046746 0.1277303785 0.4353039442 -0.3519425836 0.4355287499 -0.3522785113 -0.1338238812 0.1178016034
335297990.0 -0.1133120647 0.1289518577 0.431406842 -0.3563530784 0.4314306761 -0.3568952592 -0.1330629177 0.1192418681
340297960.0 -0.1123015007 0.1302942942 0.4271777758 -0.3614855068 0.4274087428 -0.3618500093 -0.1319398406 0.1210952482
345297930.0 -0.1113136246 0.1316332338 0.4231079648 -0.3664986854 0.4231851275 -0.3661473234 -0.1311170725 0.1220178423
350297900.0 -0.1101173629 0.1328077502 0.4194880777 -0.3702788575 0.4193841411 -0.3707304569 -0.1298419884 0.1233035433
355297870.0 -0.1085961338 0.134480157 0.4149104636 -0.3748815227 0.4152408495 -0.3751360961 -0.1287568723 0.12497977
360297840.0 -0.107474533 0.1356330346 0.4104387582 -0.3799845911 0.4111111315 -0.3800114724 -0.1278277152 0.1264148408
365297810.0 -0.1062140146 0.1371516677 0.4065365528 -0.3844969229 0.4068331553 -0.384565911 -0.1268520503 0.1274268438
370297780.0 -0.1047436841 0.1383278771 0.4021771718 -0.3889155678 0.4026940436 -0.3884987909 -0.125732121 0.1287663736
375297750.0 -0.1033399711 0.1396077948 0.3983431042 -0.3926939338 0.3982126127 -0.3933979998 -0.1243662351 0.1302664189
380297720.0 -0.1022180049 0.141039783 0.394073053 -0.3974061885 0.3937481617 -0.3977499649 -0.1233633264 0.1317765114
385297690.0 -0.1007201963 0.1420916769 0.3892303311 -0.4017995487 0.3895776012 -0.4019833606 -0.1220037273 0.1331831726
390297660.0 -0.0991211884 0.1429423995 0.385274016 -0.4055759509 0.3849158453 -0.4063110583 -0.1204789978 0.1340814646
395297630.0 -0.0974738191 0.1446790244 0.3807500468 -0.4099677558 0.3804398132 -0.4102302015 -0.1194713625 0.1354168561
400297600.0 -0.0963449031 0.1457740891 0.3761494546 -0.4144550559 0.3762018756 -0.4142426003 -0.1180630763 0.1370206255
405297570.0 -0.0947923876 0.1465047423 0.3717559598 -0.4181819892 0.3717764576 -0.4182917928 -0.11668742 0.1384999144
410297540.0 -0.0934437018 0.1483910439 0.3672071023 -0.4226640088 0.3672896501 -0.4222565729 -0.1156231252 0.139458332
415297510.0 -0.0918818349 0.1492916053 0.3625137074 -0.4266307962 0.3629988483 -0.4265199758 -0.1141326743 0.1408414021
420297480.0 -0.0903896984 0.1500429086 0.3576804606 -0.4301838534 0.3578287501 -0.430754877 -0.1123342716 0.142497198
425297450.0 -0.0883239195 0.1514610777 0.3528813781 -0.4342408166 0.3530531684 -0.4342584875 -0.111712727 0.1433073549
430297420.0 -0.0871463423 0.152668172 0.3489113326 -0.4381147556 0.3482183595 -0.4377744171 -0.1096979378 0.1445157862
435297390.0 -0.0854217232 0.1534144764 0.3435087759 -0.4424386327 0.3437021166 -0.4422353675 -0.1091673498 0.1462521924
440297360.0 -0.0836052285 0.1543612397 0.3387372334 -0.4456423994 0.3385773521 -0.4457772615 -0.1075509331 0.1471848446
445297330.0 -0.0818041515 0.1549928358 0.333693093 -0.4488402982 0.3339439909 -0.4496999112 -0.1058389216 0.148466207
450297300.0 -0.0802612098 0.1564021114 0.3286965725 -0.4530213215 0.3289878289 -0.4530736897 -0.1042266887 0.1495580716
455297270.0 -0.0787934542 0.1571902883 0.32394329 -0.4563036406 0.3241733535 -0.4565745176 -0.1027727977 0.1506919353
460297240.0 -0.0764834788 0.1582892752 0.3190895921 -0.4603619417 0.3188911071 -0.4606367129 -0.1012228786 0.1517040806
465297210.0 -0.0751082768 0.159020423 0.3138593803 -0.4637208886 0.3134643393 -0.4640202872 -0.0996973326 0.1533914095
470297180.0 -0.073389327 0.160024296 0.3086504542 -0.4669075302 0.3087691102 -0.4668749773 -0.0983475686 0.1539734006
475297150.0 -0.0717530303 0.1610490635 0.3037996374 -0.4701382327 0.3041181342 -0.4707014094 -0.0970205464 0.1554900356
480297120.0 -0.0692583106 0.1623032521 0.2984066586 -0.4732584016 0.2986752745 -0.473465649 -0.0957337937 0.1565245689
485297090.0 -0.0677043965 0.162702529 0.2930024659 -0.476662807 0.2934995494 -0.4766820229 -0.0943329872 0.1573258555
490297060.0 -0.0651779224 0.1638390548 0.2873039704 -0.4800744212 0.2880533629 -0.4798925701 -0.0924555771 0.1580776438
495297030.0 -0.0639473673 0.1643944526 0.2829748961 -0.4831706456 0.2829239477 -0.4832348362 -0.0905958787 0.159349424
500297000.0 -0.0622795596 0.1653040147 0.2773966247 -0.4857551882 0.2773365529 -0.486389598 -0.0890882989 0.1605666385
505296970.0 -0.0599798155 0.1662880839 0.272592245 -0.4893859181 0.2724380305 -0.488894377 -0.0875450812 0.1609942231
510296940.0 -0.0582625794 0.1669354984 0.2672544213 -0.4925004888 0.2671643931 -0.4925289178 -0.0854025934 0.1626140242
515296910.0 -0.0561911011 0.1679850797 0.2609738976 -0.4947033986 0.2608374871 -0.4946013363 -0.0844389073 0.1630397065
520296880.0 -0.0540765548 0.1685997463 0.2560442422 -0.4973986823 0.2557645783 -0.4973405333 -0.0821313198 0.1643332711
525296850.0 -0.0523681254 0.1689520562 0.2504629856 -0.500186954 0.2502830463 -0.5002042259 -0.080790027 0.1650516293
530296820.0 -0.0509425504 0.1698554511 0.2454400233 -0.5028001357 0.2451168918 -0.503102041 -0.0791530554 0.166000373
535296790.0 -0.0479925785 0.1706469117 0.2396024539 -0.5053454988 0.2397353366 -0.5057542235 -0.077416577 0.1669995793
540296760.0 -0.0460406483 0.1716686571 0.2331736324 -0.5080842682 0.2336143437 -0.5079056402 -0.0759105722 0.1674148521
545296730.0 -0.0447748393 0.1722756257 0.2285642453 -0.5104797749 0.2281505949 -0.5104271488 -0.0740020524 0.1688432042
550296700.0 -0.0422767806 0.1727045435 0.2230429203 -0.5133763311 0.2225799008 -0.5133783791 -0.0724192697 0.169358531
555296670.0 -0.0405008694 0.1732155835 0.2171521374 -0.5154472799 0.2173642897 -0.5153623331 -0.0709797767 0.1698032746
560296640.0 -0.0376324453 0.1738957969 0.2112099454 -0.5177325062 0.2120488057 -0.5177617747 -0.0691629819 0.1711226376
565296610.0 -0.0363722685 0.1746297532 0.2063323984 -0.5201501257 0.2063104666 -0.519721413 -0.0675406992 0.1718575513
570296580.0 -0.0343327668 0.1752716028 0.2001116475 -0.5220037861 0.2003784128 -0.5223291003 -0.0659675126 0.1725115704
575296550.0 -0.0320928757 0.175701637 0.1952030071 -0.5245499728 0.194743101 -0.5242198743 -0.0640142517 0.1732184974
580296520.0 -0.0301329779 0.1767253643 0.1887328182 -0.5261574056 0.1890028281 -0.5262454664 -0.0625157816 0.1737781421
585296490.0 -0.0280642243 0.1767081125 0.1836640246 -0.5276806908 0.1833935502 -0.5283705845 -0.0605554568 0.1750143818
590296460.0 -0.0254461081 0.177309942 0.1778656137 -0.5305276875 0.1777451757 -0.5304955234 -0.0591309177 0.1758711404
595296430.0 -0.0239068494 0.1778934738 0.1716272817 -0.5319260212 0.1712158288 -0.5321253327 -0.0572253338 0.1761490871
600296400.0 -0.0213734954 0.1782222118 0.1656048369 -0.5334835542 0.165879496 -0.5337609742 -0.0556333358 0.1767411359
605296370.0 -0.0197272847 0.1789174562 0.1604095696 -0.5353303505 0.159931657 -0.5357270898 -0.0537196293 0.1775677579
610296340.0 -0.0174788618 0.1796985934 0.1540307885 -0.5367766084 0.1547112593 -0.5370225888 -0.0519780771 0.178534803
615296310.0 -0.0150513704 0.1799358991 0.1485624437 -0.5391953657 0.1480825714 -0.5387644648 -0.0501264462 0.1789218585
620296280.0 -0.0136124195 0.1807658286 0.1424561243 -0.5403740644 0.1423274392 -0.5399677617 -0.0483659765 0.179764484
625296250.0 -0.0116506217 0.1807042975 0.1368738235 -0.5419270716 0.1368333713 -0.5420775847 -0.0470872578 0.1802867808
630296220.0 -0.0094030184 0.1814037676 0.1306043107 -0.5431635035 0.1307654152 -0.5431831548 -0.0447401027 0.1807676332
635296190.0 -0.0073238032 0.1818165008 0.1250280105 -0.5446420378 0.1249853639 -0.5445595806 -0.0433392771 0.1813277125
640296160.0 -0.005192235 0.1818156421 0.1189367891 -0.5460621563 0.1189000314 -0.5459932819 -0.0413637857 0.1817892653
645296130.0 -0.002745992 0.1825998208 0.113069749 -0.5472122431 0.1127164626 -0.5469631496 -0.0398118012 0.1820625402
650296100.0 -0.0012151165 0.1827084452 0.1074055248 -0.5486028389 0.1069644859 -0.5486941795 -0.0374927175 0.1826980765
655296070.0 0.0009993848 0.1830001302 0.101196777 -0.5496629343 0.1009333325 -0.5494617624 -0.0366708853 0.18350889
660296040.0 0.0030562664 0.1833264334 0.0952991067 -0.5506894775 0.0954700709 -0.5506628762 -0.0341387771 0.18351925
665296010.0 0.0052703551 0.1833301319 0.0887116671 -0.5511095658 0.0891702935 -0.5513187957 -0.0325638231 0.1842383562
670295980.0 0.0072714269 0.1838572268 0.0833124969 -0.5521440266 0.0829870287 -0.5519728794 -0.0311019318 0.1848803932
675295950.0 0.0092356429 0.1837367206 0.0773305849 -0.552811875 0.0776218482 -0.5532045818 -0.0293528229 0.1852637458
680295920.0 0.0109071216 0.1841926475 0.0717524938 -0.5536503356 0.0714984718 -0.5536288507 -0.0270656454 0.1850800067
685295890.0 0.0132796254 0.1844596004 0.0652424892 -0.5547031231 0.0652986703 -0.5546398067 -0.0252397259 0.1861713781
690295860.0 0.014981067 0.1844020257 0.0598229769 -0.5552411888 0.0592233331 -0.5549965018 -0.0236036727 0.1860803776
695295830.0 0.0174869129 0.1844053298 0.0537347468 -0.5560060622 0.053250208 -0.5555959838 -0.0219360647 0.1869138145
700295800.0 0.0195644741 0.184827133 0.0479312404 -0.5565733191 0.0476107411 -0.5562962539 -0.0198652535 0.1871457091
705295770.0 0.0210960019 0.1847052372 0.0416259636 -0.556944962 0.0415828595 -0.5566448677 -0.0184011822 0.1877271238
710295740.0 0.02309204 0.1844095105 0.0357322239 -0.5569591065 0.0354436005 -0.5573570281 -0.0161763428 0.1880978327
715295710.0 0.025230353 0.1851263632 0.0299971613 -0.5576771805 0.0292800916 -0.5576242089 -0.0144226396 0.1881465357
720295680.0 0.0275612376 0.1849649289 0.0236377316 -0.5575931601 0.023253128 -0.5577532171 -0.012706253 0.1881831003
725295650.0 0.0290721919 0.1848466898 0.0176577727 -0.5581449118 0.0177446303 -0.558200481 -0.0111758236 0.1892065418
730295620.0 0.0308600462 0.1847465759 0.0116445242 -0.5579049204 0.0118001223 -0.5576410623 -0.0092638754 0.1895011858
735295590.0 0.0330801876 0.1847542917 0.0057677104 -0.5584112206 0.0054020776 -0.558099997 -0.0071233352 0.189167593
740295560.0 0.0349245282 0.1843721911 7.5286e-05 -0.5581047388 -0.000403502 -0.5584015548 -0.0056468717 0.189657552
745295530.0 0.0368184425 0.1843847489 -0.0062600449 -0.5575741885 -0.0055244184 -0.5578340256 -0.0039194016 0.1896399531
750295500.0 0.0385553191 0.1843480987 -0.0119968688 -0.557759638 -0.0124865756 -0.5579934948 -0.0021562618 0.1899367024
755295470.0 0.0407461905 0.1839611087 -0.0180208613 -0.5581149885 -0.01812534 -0.5579994503 -0.0002094158 0.1907562263
760295440.0 0.0426484649 0.1841432988 -0.0245764341 -0.5577477662 -0.0243653655 -0.5569667727 0.0019743614 0.1898443756
765295410.0 0.0447812989 0.183466236 -0.0301677177 -0.5570243472 -0.02988959 -0.5569591455 0.0035856814 0.190324566
770295380.0 0.0464975368 0.1836084941 -0.0359072633 -0.556426835 -0.0359517735 -0.5570762794 0.0051490465 0.1905404504
775295350.0 0.0485726522 0.1832365965 -0.042045346 -0.5567629907 -0.0421443497 -0.5558772319 0.0072291161 0.1907951734
780295320.0 0.0506288925 0.1832361968 -0.0480308764 -0.555399869 -0.047790512 -0.5556364122 0.0094020829 0.1907942962
785295290.0 0.052183446 0.1824923245 -0.0541742906 -0.5554799887 -0.0538900671 -0.5554519813 0.0104713948 0.191423881
790295260.0 0.0540534042 0.1819776218 -0.0596592707 -0.5547623676 -0.0594229097 -0.5552178583 0.0124902182 0.1913388449
795295230.0 0.056143907 0.1814730988 -0.0660244963 -0.5538580095 -0.0661889642 -0.5540824161 0.0144115365 0.1907856793
800295200.0 0.0576779566 0.1815625647 -0.0711947488 -0.5527548909 -0.0716568651 -0.5535470438 0.016255233 0.1910873997
805295170.0 0.0596839469 0.1808384789 -0.0775755765 -0.5526446858 -0.0773255974 -0.5525084741 0.0185305554 0.1910940686
810295140.0 0.0618293117 0.1805594543 -0.0834346076 -0.5510015705 -0.0837360335 -0.5516786323 0.0200607516 0.190915326
815295110.0 0.0635193344 0.1801401627 -0.0894293422 -0.5503685789 -0.0895621739 -0.5506067304 0.0217901217 0.1911395737
820295080.0 0.065447276 0.1794817707 -0.0948456474 -0.5492085374 -0.095049466 -0.5498565304 0.0231408066 0.191384464
825295050.0 0.0671891796 0.178886229 -0.1012955083 -0.5489114241 -0.1012669408 -0.5486707138 0.0257241791 0.1915901707
830295020.0 0.0691254133 0.1783104342 -0.1068693326 -0.5473376947 -0.1070116268 -0.5473706661 0.0274940697 0.1906080416
