!Created with skrf (http://scikit-rf.org).
# Hz S RI R 50.0 
!freq ReS11 ImS11 ReS21 ImS21 ReS12 ImS12 ReS22 ImS22
300000.0 -0.2337428775 -0.1329965558 0.4681713627 0.086238319 0.4691578074 0.0843948641 -0.2394610672 -0.1299586338
5299970.0 -0.2419443628 0.0051032775 0.4751080692 0.0062358872 0.4753203656 0.0059471354 -0.244398031 0.0049336624
10299940.0 -0.238607152 0.018716108 0.4771994718 0.0069207617 0.4771479067 0.0070864935 -0.2407148572 0.0172661494
15299910.0 -0.2337046451 0.0286890806 0.4804777614 0.0081905829 0.4808038407 0.0078644794 -0.2369015685 0.0266232902
20299880.0 -0.2282424178 0.0367825303 0.485037646 0.0084601171 0.4857092381 0.0082733353 -0.2320251133 0.0337376992
25299850.0 -0.2224186111 0.0434762874 0.4905304853 0.0075965914 0.4910080158 0.007263898 -0.2270862079 0.0403397222
30299820.0 -0.2172737875 0.0488454143 0.4960402098 0.0047162275 0.4962376743 0.0049371263 -0.2216243797 0.0448783882
35299790.0 -0.2114247008 0.0529938896 0.5010771013 0.0020037071 0.5014898228 0.0018919313 -0.2168200183 0.0491688449
40299760.0 -0.20615546 0.0559440252 0.5063860253 -0.0020316294 0.5065744033 -0.0022651601 -0.2118299327 0.0521108259
45299730.0 -0.2012256561 0.0587876479 0.5108298687 -0.0067273033 0.5112004745 -0.0069492761 -0.2070380171 0.0548650101
50299700.0 -0.196206805 0.0608309723 0.5153469604 -0.0124143209 0.5151325199 -0.0126356275 -0.2028409575 0.0570648458
55299670.0 -0.192268743 0.0624616776 0.51900859 -0.0176459322 0.5188145756 -0.0183518921 -0.1993827335 0.0586337356
60299640.0 -0.1878043686 0.0638133297 0.5223173744 -0.0244198032 0.5225659773 -0.024534741 -0.195331695 0.0598245566
65299610.0 -0.1841946806 0.06525474 0.5254987171 -0.0310451484 0.5255337697 -0.0308774185 -0.1920108643 0.0610719385
70299580.0 -0.1810682077 0.0656830039 0.527854253 -0.0369794007 0.5281793348 -0.03763968 -0.1892304567 0.0619747654
75299550.0 -0.1779493106 0.0668049 0.5293319742 -0.0447138051 0.529876087 -0.0444634456 -0.1861620828 0.0626180416
80299520.0 -0.1754403503 0.0677856736 0.5316261153 -0.0510008179 0.5315844553 -0.0515195567 -0.1838540866 0.0636159844
85299490.0 -0.1727271215 0.0680652197 0.5327114496 -0.0582532001 0.5328211285 -0.0579900588 -0.1815295799 0.0640588125
90299460.0 -0.1702270276 0.068913821 0.533340113 -0.0652318406 0.5337174999 -0.0649795407 -0.1794144218 0.0649970416
95299430.0 -0.1679904725 0.0696228605 0.5342581958 -0.0717978919 0.5348991962 -0.0722281484 -0.1776208914 0.0656630775
100299400.0 -0.1661155011 0.070351871 0.534938959 -0.0786627989 0.5352787545 -0.0790220167 -0.1758547946 0.0666889362
105299370.0 -0.1641725977 0.0709905803 0.5354880156 -0.0854947112 0.5358068035 -0.0857465985 -0.1738227988 0.0663632357
110299340.0 -0.1624337059 0.0712499202 0.5354312613 -0.0922230319 0.5357825508 -0.0920736729 -0.1728305703 0.0673101586
115299310.0 -0.1606753885 0.0724107973 0.5352151917 -0.0992507002 0.5354384709 -0.0994198171 -0.1715434229 0.0685943682
120299280.0 -0.1594801509 0.0732766799 0.5352652259 -0.1066234939 0.535338743 -0.1065817114 -0.1701199737 0.0687699733
125299250.0 -0.1580032403 0.0740420104 0.5348382389 -0.1127806307 0.5348109624 -0.1125875895 -0.1690737134 0.0695502931
130299220.0 -0.1566035468 0.0747268711 0.5340087917 -0.1194776013 0.5340545585 -0.1199656277 -0.1675869156 0.0705546722
135299190.0 -0.1558104999 0.0760197545 0.5341162864 -0.1259915623 0.5339802103 -0.1267475467 -0.1665266719 0.0709885817
140299160.0 -0.1541979936 0.0766081802 0.5330133315 -0.1329998635 0.5330614259 -0.132946385 -0.1661454182 0.0719258237
145299130.0 -0.1533167884 0.0777959571 0.5318714845 -0.1392605743 0.5319830115 -0.1394850394 -0.16508794 0.0729032711
150299100.0 -0.1520813066 0.0787097235 0.5305100946 -0.1457646425 0.5308072009 -0.1462188349 -0.1643552172 0.0739080907
155299070.0 -0.150846919 0.080037525 0.5287963407 -0.1526682368 0.529905067 -0.1527081317 -0.1631184972 0.0748952045
160299040.0 -0.150003001 0.0812801813 0.5282987829 -0.158933662 0.5284207265 -0.1592452633 -0.1626735874 0.0761676846
165299010.0 -0.1486916534 0.0821947915 0.5268771961 -0.1651816278 0.5268238519 -0.1656415507 -0.161410683 0.0765065496
170298980.0 -0.1477900243 0.0834703871 0.5247200125 -0.1715049885 0.5250959846 -0.1717820169 -0.1610473298 0.0777690607
175298950.0 -0.1469045317 0.0845916917 0.523515359 -0.1778464405 0.5238152503 -0.1783262783 -0.1601782725 0.0792869408
180298920.0 -0.1461381231 0.0862512779 0.5217645645 -0.1844796152 0.5217965328 -0.1845487477 -0.1593683031 0.0800976099
185298890.0 -0.1449890747 0.0874635588 0.5203588847 -0.1901882087 0.5201551344 -0.1908331058 -0.1584255608 0.0811530478
190298860.0 -0.1438080042 0.0888260802 0.5177084063 -0.1969995626 0.5182606683 -0.1966591444 -0.1576493132 0.082444933
195298830.0 -0.1429194889 0.0901791732 0.5163074095 -0.2027258222 0.516707866 -0.2029785375 -0.1572072696 0.0835968736
200298800.0 -0.1419282198 0.0910958136 0.5139404654 -0.2094630936 0.5142367747 -0.2090358563 -0.1565465707 0.0845973982
205298770.0 -0.1414728166 0.0925176162 0.5119487302 -0.214733293 0.5117146271 -0.2147916277 -0.1555956281 0.08594606
210298740.0 -0.1402606647 0.094111018 0.509571709 -0.2207461388 0.5096161822 -0.2209366954 -0.1550800521 0.0868490111
215298710.0 -0.1393888575 0.0954676309 0.5071571268 -0.2267300849 0.5073870664 -0.2268797371 -0.1543168978 0.0882356505
220298680.0 -0.13809093 0.0969312843 0.5043419796 -0.2327763346 0.5046665203 -0.2329160698 -0.1534830663 0.089541445
225298650.0 -0.1373529448 0.0983264603 0.5021290915 -0.2384909152 0.5024969092 -0.2383199917 -0.1525104513 0.0908583062
230298620.0 -0.1359661083 0.1000601556 0.4996268628 -0.2441546541 0.5002541967 -0.2445234037 -0.1520350022 0.0920071853
235298590.0 -0.1353197173 0.1014464519 0.4973688604 -0.2505067066 0.4976841555 -0.2500822689 -0.1513947403 0.0935013221
240298560.0 -0.1341353673 0.1029451737 0.4943134606 -0.2556781501 0.4943562666 -0.2555428001 -0.150505292 0.0945015098
245298530.0 -0.1330983066 0.1040094798 0.4915256209 -0.2611868657 0.4918607608 -0.2616425287 -0.1495700658 0.0962327305
250298500.0 -0.1325411382 0.1053124831 0.4891399378 -0.2669023513 0.4890626389 -0.2669994143 -0.1490479824 0.0972047797
255298470.0 -0.1312707104 0.1072093656 0.4863536778 -0.2722498202 0.4864608543 -0.2727905561 -0.1479063616 0.0988073307
260298440.0 -0.1301726408 0.108458185 0.4836914455 -0.2778731003 0.4833788343 -0.2780068155 -0.1472436258 0.0998950294
265298410.0 -0.1294245025 0.1100917637 0.4803911251 -0.2840451294 0.4798426858 -0.2840356159 -0.1458347969 0.1009999694
270298380.0 -0.1282339606 0.1113645002 0.4767730076 -0.2891636981 0.4773617366 -0.2890610604 -0.1451590332 0.1027061194
275298350.0 -0.1268790553 0.1130057306 0.4731179775 -0.2944505712 0.4736936697 -0.294389387 -0.1444870384 0.1042911265
280298320.0 -0.1261144035 0.1142858309 0.4711330851 -0.2994282865 0.4712623427 -0.3000243848 -0.143351673 0.1055645201
285298290.0 -0.1249975934 0.11579076 0.4673851807 -0.3051447819 0.4678839619 -0.3050425259 -0.1430163579 0.1069419044
290298260.0 -0.1237792474 0.1173767657 0.4645435078 -0.3103513419 0.4643169381 -0.3105040805 -0.1416885804 0.1084044014
295298230.0 -0.1227501227 0.1184105623 0.4609105245 -0.3158335228 0.4608486982 -0.3159242386 -0.1406695359 0.1092233812
300298200.0 -0.1214614806 0.120320165 0.4576823279 -0.3209760029 0.4573586836 -0.3208379474 -0.1396406876 0.1108743065
305298170.0 -0.1200283615 0.1211520072 0.4542277262 -0.3259887293 0.4544286677 -0.326405481 -0.1386075273 0.1116978838
310298140.0 -0.1185151565 0.1225817122 0.4505716197 -0.3311956288 0.4508325312 -0.3309851478 -0.1374671044 0.1130477514
315298110.0 -0.1178705071 0.1237189226 0.4471263697 -0.3369145235 0.4471276783 -0.3366733877 -0.1366226094 0.114411884
320298080.0 -0.1165517733 0.1252006137 0.4429186892 -0.3418054131 0.4435297115 -0.3420539343 -0.1355539515 0.1153839451
325298050.0 -0.1157122109 0.1262665774 0.4390137638 -0.346789986 0.4396630085 -0.3467520281 -0.1346136381 0.1166766477
330298020.0 -0.1148186608 0.1276925567 0.4355332054 -0.3520690322 0.4363397564 -0.3519619258 -0.1345120794 0.1180407423
335297990.0 -0.1134748199 0.1290528888 0.4313337717 -0.3561196619 0.4319220787 -0.3565833049 -0.1331238518 0.1194582153
340297960.0 -0.1123583382 0.1302718458 0.427301109 -0.3613936465 0.4271901249 -0.3614652891 -0.1321681406 0.1207471433
345297930.0 -0.1112030973 0.1315804817 0.423667797 -0.3661556395 0.4233262403 -0.3665665999 -0.1309182711 0.1221367314
350297900.0 -0.1102275318 0.1328653448 0.4195169162 -0.3704348366 0.4197567351 -0.3707264373 -0.1299197513 0.1233277432
355297870.0 -0.1086109394 0.1343090756 0.4148560358 -0.3749750321 0.415123699 -0.3749418087 -0.1286731158 0.1249445882
360297840.0 -0.1074036814 0.1357770359 0.410770487 -0.3797747828 0.411172618 -0.3801506568 -0.1277624543 0.1262953864
365297810.0 -0.1062719837 0.1372246849 0.4066755624 -0.384376163 0.4066458909 -0.384333187 -0.1270791751 0.1275452544
370297780.0 -0.104849223 0.1385620522 0.4016344943 -0.3888586451 0.4026050722 -0.3884917911 -0.1256562026 0.1288440555
375297750.0 -0.1032749293 0.1398323624 0.3980318348 -0.3931286536 0.3983292248 -0.3931063091 -0.1242941711 0.1300755857
380297720.0 -0.1022328008 0.1412060286 0.3940790762 -0.3973777886 0.3939616693 -0.3978817393 -0.1231801971 0.1317373599
385297690.0 -0.1012006576 0.1420569155 0.3897668873 -0.4013832554 0.3897113498 -0.4020639546 -0.1220741589 0.133125915
390297660.0 -0.0993085875 0.1431340995 0.3848424581 -0.4057673157 0.3849672198 -0.4060222978 -0.1204330181 0.1338616386
395297630.0 -0.0975503421 0.1445842139 0.3810608475 -0.4095637211 0.3805556589 -0.4099154963 -0.1194636747 0.1354101145
400297600.0 -0.0964334948 0.1458478678 0.3761964901 -0.4144900433 0.3767217136 -0.4142581217 -0.1182425568 0.1369379175
405297570.0 -0.0949165541 0.1465119028 0.3721582389 -0.4178609482 0.3721014377 -0.4184593753 -0.1168349444 0.1381805474
410297540.0 -0.0932445147 0.1482347203 0.3673723316 -0.4226616903 0.3672340756 -0.4223306312 -0.115732462 0.1395778004
415297510.0 -0.0917060562 0.149625185 0.3624130174 -0.426389959 0.3631559114 -0.4266697981 -0.1140173967 0.1408693343
420297480.0 -0.0903097054 0.1502570716 0.3577839859 -0.4302237858 0.3581288654 -0.4308344021 -0.1124515776 0.1424625013
425297450.0 -0.0882142655 0.1512117304 0.3528642987 -0.4341332916 0.353263241 -0.4341975812 -0.111541805 0.1430533848
430297420.0 -0.0869048748 0.1524441481 0.3488240466 -0.4381744599 0.3485796021 -0.43802653 -0.109734759 0.1445857188
435297390.0 -0.0850620687 0.1534174836 0.3433345411 -0.4424292104 0.343602949 -0.4417498178 -0.1090378054 0.1458713435
440297360.0 -0.0834399827 0.1543005657 0.3383057349 -0.4456892349 0.3386010125 -0.4453826725 -0.1074714565 0.1467013488
445297330.0 -0.0817003014 0.1550420362 0.3338941199 -0.4488312219 0.3340990867 -0.4495423978 -0.1058004604 0.1483654338
450297300.0 -0.0800750493 0.1565089576 0.3289536623 -0.4530614335 0.3291857084 -0.4528861532 -0.1043506506 0.1493119518
455297270.0 -0.0789098639 0.1572871802 0.3242769028 -0.4565181613 0.3245165481 -0.4568015558 -0.1030510991 0.1506467259
460297240.0 -0.0767380287 0.158326815 0.3189988557 -0.4607476165 0.3191841087 -0.4600966935 -0.101544825 0.1514295271
465297210.0 -0.0749196773 0.1591104438 0.3134248706 -0.4635098785 0.31365142 -0.4636438457 -0.0997526297 0.1534111439
470297180.0 -0.0732933874 0.1597577607 0.3090157194 -0.4663100322 0.3092190055 -0.466746886 -0.0982877571 0.1538668128
475297150.0 -0.0715467957 0.1611509297 0.3036377255 -0.4697224535 0.3039068434 -0.4702807565 -0.0966402003 0.1550182525
480297120.0 -0.0694585286 0.1623503399 0.2983402277 -0.4735619168 0.2987683345 -0.4735459199 -0.0953905869 0.1561348426
485297090.0 -0.0676350833 0.1625998501 0.2932767718 -0.4767293915 0.2935350619 -0.4764843915 -0.0942174769 0.1572577346
490297060.0 -0.0653348325 0.1638893898 0.2879124315 -0.4802541817 0.288142312 -0.4802294462 -0.0925966858 0.1582969187
495297030.0 -0.0641268389 0.1641862028 0.2832005455 -0.4829550138 0.2827469982 -0.4833520036 -0.0904226359 0.1592172946
500297000.0 -0.0621854252 0.1654546412 0.2778670761 -0.4860392939 0.2774358535 -0.4860789693 -0.088976624 0.1603709818
505296970.0 -0.0599784154 0.1661301651 0.2724486442 -0.4894338576 0.272565111 -0.4887367033 -0.0875894783 0.1608183299
510296940.0 -0.058023546 0.1667350107 0.2673690343 -0.4925687992 0.267133081 -0.4925346837 -0.0854959135 0.1623363024
515296910.0 -0.0563770119 0.1678731053 0.2612970868 -0.4946089491 0.2611424941 -0.4948420605 -0.0840870816 0.1629076589
520296880.0 -0.0544526084 0.1685276815 0.256263154 -0.49751854 0.2558161955 -0.4977353697 -0.0822428531 0.1645292819
525296850.0 -0.0522799124 0.1690205221 0.2506266438 -0.5003087979 0.2504704715 -0.4999450185 -0.0807058001 0.1650677977
530296820.0 -0.0507920044 0.1699289844 0.2450282278 -0.5028177153 0.245147232 -0.5029530105 -0.0794721483 0.1656520353
535296790.0 -0.0478748685 0.170724546 0.2396949732 -0.5054998469 0.239885578 -0.5059719081 -0.0774213998 0.1672155113
540296760.0 -0.0463895811 0.1714316923 0.2340367935 -0.5082632028 0.2338494211 -0.5082324766 -0.0757512661 0.1676117908
545296730.0 -0.0448443687 0.1724945507 0.2288245627 -0.5103030488 0.2284075769 -0.5102532205 -0.0740905579 0.1685030774
550296700.0 -0.0422163774 0.1727075455 0.2231159796 -0.5132159235 0.2228884917 -0.5131658242 -0.0722212552 0.1693077848
555296670.0 -0.0404142048 0.1733941607 0.2172365805 -0.5154414581 0.2176174245 -0.5154526193 -0.0709207781 0.1698315115
560296640.0 -0.0377058398 0.1738249038 0.2112700958 -0.5175465078 0.2120869138 -0.5178824332 -0.06902422 0.1712382758
565296610.0 -0.036534978 0.1746175123 0.206562282 -0.5202560718 0.2062266911 -0.5197469597 -0.067117866 0.1719802589
570296580.0 -0.034522001 0.1752216169 0.2008340741 -0.5219317097 0.2005931238 -0.5220711141 -0.0657489848 0.1723288885
575296550.0 -0.0320206327 0.1756040439 0.1950435568 -0.5240227008 0.1948417108 -0.5243280454 -0.0638987204 0.1734045441
580296520.0 -0.0302309483 0.1764313421 0.1891083567 -0.526351978 0.1889237496 -0.5265169949 -0.0627437321 0.1740348155
585296490.0 -0.0280071175 0.1771784204 0.1836617324 -0.5285867209 0.1832671148 -0.5283354998 -0.060210849 0.1751640944
590296460.0 -0.0254384498 0.177383969 0.1775053056 -0.5303283996 0.177608116 -0.5302571844 -0.0593093545 0.1755726074
595296430.0 -0.0236457625 0.1777973071 0.1714281221 -0.5322235724 0.1713424394 -0.5324635891 -0.056996501 0.1763948951
600296400.0 -0.02153001 0.1784730503 0.1659387341 -0.5337530472 0.1656734188 -0.5335583866 -0.0550689561 0.1767031472
605296370.0 -0.0197368667 0.1789448548 0.1602465142 -0.5356142255 0.1601825633 -0.535683528 -0.0534776958 0.1776852821
610296340.0 -0.0173458135 0.1796012051 0.1547841016 -0.5365700911 0.1548930895 -0.5371088038 -0.0519137156 0.1784599193
615296310.0 -0.0152812673 0.1801843704 0.148718116 -0.5392762115 0.1483476072 -0.5389637174 -0.0498907972 0.1790491302
620296280.0 -0.0135764563 0.1808899612 0.1424721591 -0.5404243464 0.1428541128 -0.540395064 -0.048744614 0.1797893072
625296250.0 -0.0116208021 0.1806971092 0.1368661485 -0.5419863115 0.1368892445 -0.5417440219 -0.0469869299 0.1798032563
630296220.0 -0.0092449153 0.1813735448 0.1309316168 -0.5434649453 0.1307823057 -0.5432775073 -0.0447624115 0.1807004649
635296190.0 -0.0073243785 0.1818813748 0.1252987066 -0.5446046808 0.1252729158 -0.544397813 -0.0432249759 0.1812276213
640296160.0 -0.0053130468 0.1820510613 0.1193892801 -0.546102714 0.1190961163 -0.5460875569 -0.0414765925 0.1817224308
645296130.0 -0.003038759 0.1824959522 0.113240106 -0.5470698297 0.1132153924 -0.5468688511 -0.0399225277 0.1819634514
650296100.0 -0.0014181091 0.1827544652 0.1079044338 -0.5483047334 0.1071392653 -0.5484821103 -0.0373802546 0.1826399314
655296070.0 0.0010717598 0.1828233388 0.1013362971 -0.5492913011 0.10175904 -0.549491078 -0.0361995263 0.1835016668
660296040.0 0.0029364458 0.18329615 0.095566948 -0.5501761137 0.0954423094 -0.5505470587 -0.0343528982 0.1836927317
665296010.0 0.0048964559 0.183592097 0.0889415022 -0.5510943293 0.0891064424 -0.5511332111 -0.0325876925 0.1842728023
670295980.0 0.0070282107 0.1837201159 0.0834971027 -0.5519931981 0.0837337079 -0.5522213197 -0.0310776061 0.1843862777
675295950.0 0.0091274446 0.1837577784 0.0778053421 -0.5527023368 0.0777958258 -0.5532168464 -0.0290047333 0.1850194095
680295920.0 0.0107615258 0.1840304895 0.0719533201 -0.5535221022 0.0719117452 -0.5534837261 -0.0270626752 0.1850607163
685295890.0 0.0131582902 0.1843126657 0.0652851954 -0.5546202489 0.0656238697 -0.5549613075 -0.0251215111 0.1862038473
690295860.0 0.014941395 0.1843035226 0.0596672087 -0.5554104742 0.0593272902 -0.5554385155 -0.0235795862 0.1866170156
695295830.0 0.0173806263 0.1844435526 0.0541504724 -0.5559311762 0.0538254177 -0.5555160618 -0.021621122 0.1869834017
700295800.0 0.0194847774 0.1847848692 0.0477203493 -0.5562729912 0.0479513575 -0.5564364073 -0.0199781871 0.187129512
705295770.0 0.0213624336 0.184689269 0.0417204326 -0.5570151108 0.0419701983 -0.5566674323 -0.0182265138 0.1878982409
710295740.0 0.0229087834 0.1843295946 0.0360231693 -0.5571624274 0.0355323869 -0.5577512852 -0.0161029566 0.1879543329
715295710.0 0.0251545911 0.1848479776 0.0299429262 -0.5572509969 0.0297714757 -0.5575965368 -0.0145841966 0.1880232606
720295680.0 0.0273773889 0.1848912789 0.023965239 -0.5576153208 0.0235992011 -0.5580337512 -0.0124420271 0.1885728352
725295650.0 0.0291901931 0.1847181326 0.0179908156 -0.558036881 0.0176816015 -0.5583264635 -0.0111134203 0.1891968664
730295620.0 0.0304403168 0.1845344383 0.0118477917 -0.5578435285 0.011390416 -0.55780823 -0.0093617941 0.1896299711
735295590.0 0.0330242179 0.1846138024 0.00601497 -0.5581870188 0.0057723527 -0.5582067036 -0.0073175631 0.1892741706
740295560.0 0.0348257728 0.1841611554 -0.0002196579 -0.5578966166 -3.14632e-05 -0.5585937538 -0.0056168567 0.1898200579
745295530.0 0.036715021 0.1841633431 -0.0060011582 -0.5578703401 -0.0056241734 -0.5581104568 -0.0040871389 0.1899950251
750295500.0 0.0386052597 0.1844675755 -0.0117207414 -0.5578558151 -0.0123187577 -0.5580318852 -0.0020994188 0.1900759924
755295470.0 0.0407514019 0.1840446963 -0.0177080245 -0.5580091825 -0.0178334568 -0.5584295037 -2.94641e-05 0.190678693
760295440.0 0.042688339 0.1842529644 -0.0243563359 -0.5575868891 -0.0239187775 -0.5571335647 0.0019788712 0.1899297681
765295410.0 0.0446495839 0.1833881625 -0.0299417307 -0.5568925417 -0.0297589432 -0.5574355379 0.0036855787 0.1907182178
770295380.0 0.0465176361 0.1837697295 -0.0356065265 -0.5568005696 -0.036164897 -0.5573366525 0.005267933 0.1906392574
775295350.0 0.048285056 0.1831390583 -0.0419495168 -0.5562222216 -0.0418636866 -0.5565343914 0.0075519289 0.1910548174
780295320.0 0.0502912354 0.1828623349 -0.0476497544 -0.5553149504 -0.0479158955 -0.5561791483 0.0095197428 0.1908575373
785295290.0 0.0521420072 0.1823541997 -0.0535258749 -0.5551924638 -0.0540402809 -0.5554162769 0.0106881934 0.1913550921
790295260.0 0.054271014 0.1818334768 -0.0597559197 -0.5547502291 -0.0594515979 -0.5549935305 0.0127537937 0.1916180722
795295230.0 0.0560044688 0.1814655729 -0.0657689301 -0.5537785073 -0.0657288837 -0.5544289072 0.0145971862 0.190872115
800295200.0 0.0576447265 0.1811015592 -0.071075256 -0.5527760848 -0.0713736013 -0.5531811595 0.0160495374 0.1909765175
805295170.0 0.0597574278 0.1810907783 -0.0775485034 -0.5525061424 -0.077798061 -0.5527484688 0.0185625487 0.1912289393
810295140.0 0.0619450994 0.1806362558 -0.0836004383 -0.5513903072 -0.0833151991 -0.5515645221 0.0204270637 0.1912737449
815295110.0 0.0636677982 0.1799932608 -0.0892267803 -0.5509129717 -0.0888451639 -0.5511249746 0.0219232053 0.1910479716
820295080.0 0.0654015376 0.1796575209 -0.0946863803 -0.5492393757 -0.094934848 -0.5497931377 0.0233025122 0.1915682617
825295050.0 0.0670495315 0.1789792579 -0.1010535697 -0.5486564581 -0.1008433771 -0.548663573 0.0260055579 0.1913814952
830295020.0 0.0688194272 0.1783107518 -0.1067900236 -0.5475147231 -0.1071638769 -0.5475730592 0.0278984261 0.1908338822
