!Created with skrf (http://scikit-rf.org).
# Hz S RI R 50.0 
!freq ReS11 ImS11 ReS21 ImS21 ReS12 ImS12 ReS22 ImS22
300000.0 -0.7744010483 -0.1360186829 -0.0001637117 1.6069e-05 -0.0002041165 0.0004449638 0.8606498842 -0.0017950073
5299970.0 -0.7853240128 -0.0067845135 0.0001057813 1.1603e-05 3.51241e-05 -7.6878e-05 0.8591869995 -0.0106532757
10299940.0 -0.7878905039 -0.0042796278 0.0001107258 7.7849e-06 -2.8804e-05 0.0001924735 0.8584586837 -0.0192316072
15299910.0 -0.793495664 -0.0014238136 0.000168457 -4.80049e-05 -4.58626e-05 -6.79003e-05 0.8576294601 -0.0272534317
20299880.0 -0.79986925 0.0027516331 2.25793e-05 -0.0001020358 5.02464e-05 3.2522e-05 0.8567388431 -0.0364834749
25299850.0 -0.8066050595 0.0086938752 6.84003e-05 6.71608e-05 7.83359e-05 -0.0001104216 0.8554084902 -0.043866297
30299820.0 -0.8119066366 0.0161573252 -2.63388e-05 -7.53021e-05 7.16349e-05 9.08909e-05 0.8547369648 -0.0519096102
35299790.0 -0.8171203494 0.0253480715 -4.42425e-05 -1.85216e-05 0.0001734477 -4.04961e-05 0.8542165342 -0.0604631714
40299760.0 -0.8212483329 0.0338710401 -0.0002298908 1.23562e-05 -1.93382e-05 6.27966e-05 0.8535408472 -0.0688022858
45299730.0 -0.8249564218 0.0440751187 -1.12354e-05 1.65382e-05 3.28014e-05 -4.4863e-05 0.8528672501 -0.0768528215
50299700.0 -0.826809192 0.0540157832 5.40569e-05 -3.40806e-05 -6.64813e-05 -0.0001039863 0.8513575999 -0.0856829018
55299670.0 -0.8285126554 0.0647249361 2.79744e-05 -0.0002256472 8.92707e-05 0.0001627908 0.8508707068 -0.092843954
60299640.0 -0.8299519013 0.0747182618 -0.0001696354 -0.0001984506 -0.0001095402 3.74239e-05 0.8495782532 -0.1021428119
65299610.0 -0.8311338795 0.0848399277 -0.0001337324 6.07894e-05 -4.81093e-05 3.46854e-05 0.8484920327 -0.1100766615
70299580.0 -0.8315114195 0.0949046075 -0.0001276132 -1.4706e-05 2.74438e-05 -6.03476e-05 0.8478050009 -0.1189798825
75299550.0 -0.8311865532 0.1047197494 1.10052e-05 0.0001184519 -8.45051e-05 -8.51047e-05 0.8470508774 -0.1267605458
80299520.0 -0.8316747187 0.1147329095 0.0001508322 2.80154e-05 -0.0001355294 1.87436e-05 0.8449186432 -0.1342413846
85299490.0 -0.8306799276 0.1244645317 4.04133e-05 4.8982e-06 3.48049e-05 7.883e-07 0.8436234096 -0.1428175402
90299460.0 -0.829552377 0.134095902 -0.0001177962 9.4666e-06 4.93179e-05 -1.75061e-05 0.8420408179 -0.1515097682
95299430.0 -0.8289895943 0.1439577056 -5.22908e-05 -0.0001582211 -1.45468e-05 7.28889e-05 0.8402372249 -0.1596049352
100299400.0 -0.8275938089 0.1529641522 0.0002236156 -9.4991e-05 -2.60485e-05 -0.0002147932 0.8388381047 -0.167769675
105299370.0 -0.8266808857 0.1618198831 0.0001470253 0.0001928517 3.44664e-05 -7.81115e-05 0.8374795659 -0.1758121279
110299340.0 -0.8255706061 0.1708231281 1.12433e-05 0.0002109003 0.0001675182 0.0001550006 0.8352094941 -0.1837760339
115299310.0 -0.8238095202 0.1807447744 7.37885e-05 -3.98689e-05 -4.74255e-05 -0.0002150448 0.8334471644 -0.1926756206
120299280.0 -0.8221885097 0.1895177742 -2.62671e-05 8.4967e-06 0.0001099912 0.0001661875 0.8310975784 -0.200242731
125299250.0 -0.8203942467 0.1986227305 -0.0002023323 2.38945e-05 3.01488e-05 0.000173411 0.8291549233 -0.2087364756
130299220.0 -0.8182784628 0.2078078647 -0.0001020022 3.014e-06 -9.15454e-05 1.72942e-05 0.8272183771 -0.2162012711
135299190.0 -0.8168993774 0.2164255416 -8.07296e-05 -8.4529e-05 0.0002359912 -3.68749e-05 0.8249371421 -0.2248286484
140299160.0 -0.8151463297 0.22554695 -2.42386e-05 9.09127e-05 4.43092e-05 5.91877e-05 0.8228696041 -0.2324452057
145299130.0 -0.812561507 0.2346556792 8.32117e-05 0.0001517041 -6.66146e-05 1.5924e-06 0.8203593075 -0.240891173
150299100.0 -0.8101478475 0.2433972953 -5.21462e-05 0.0001351025 0.0001673628 -8.25836e-05 0.8181444826 -0.2487717782
155299070.0 -0.8080991735 0.252741787 -0.0002173764 4.29353e-05 -8.5017e-05 -7.86606e-05 0.8154058784 -0.2562646895
160299040.0 -0.8047671226 0.261260466 -6.89997e-05 0.0001129161 0.0001340326 6.67926e-05 0.8130529522 -0.2644591436
165299010.0 -0.8020546253 0.2698272617 0.0001518634 -5.5042e-05 8.63955e-05 5.42642e-05 0.8113118551 -0.2725788024
170298980.0 -0.8001689876 0.2784705137 3.92664e-05 5.77384e-05 -0.0001273001 -0.0001844398 0.8072759262 -0.2805516071
175298950.0 -0.7970350397 0.2871389336 -0.0001316011 -0.0001493645 -0.0001834179 -1.22625e-05 0.804881559 -0.2884183407
180298920.0 -0.7937783214 0.2953541856 -0.0001620564 8.298e-06 3.55007e-05 1.21335e-05 0.8021239388 -0.295695401
185298890.0 -0.7904263806 0.3045243442 -0.0001040055 -3.7462e-06 -0.0002299712 9.24833e-05 0.7990633211 -0.3043363995
190298860.0 -0.7875454559 0.3121312739 -4.21653e-05 -0.0001020406 -1.60481e-05 0.0001449484 0.7961563549 -0.3112429657
195298830.0 -0.7842118027 0.320960223 -0.0001098726 -7.83264e-05 -6.28166e-05 -3.89535e-05 0.7931747836 -0.319389903
200298800.0 -0.7809624904 0.3294768904 5.99756e-05 -0.0003172219 1.88778e-05 -7.0321e-05 0.7899976183 -0.3276579341
205298770.0 -0.7778116855 0.3374773813 2.70491e-05 -0.0001532601 -7.61267e-05 -2.30185e-05 0.7865268934 -0.3347709337
210298740.0 -0.7736893575 0.3459375422 5.9475e-06 -7.90334e-05 -2.95589e-05 -0.0001618404 0.7835007029 -0.3428974872
215298710.0 -0.7704162448 0.3541060149 -0.0001766264 2.99498e-05 -0.0001375868 -5.09197e-05 0.7796346923 -0.3502452576
220298680.0 -0.7672113149 0.3623370756 -8.30477e-05 -8.98241e-05 -7.18655e-05 -5.94272e-05 0.7767686428 -0.3578805689
225298650.0 -0.762942516 0.3707383396 0.0001614306 0.0001120103 -0.0001115019 -6.67775e-05 0.7722592275 -0.3653756435
230298620.0 -0.7589311262 0.3786326506 -9.42149e-05 -0.0002004929 0.0001322994 -0.0001827273 0.7692590808 -0.3729296384
235298590.0 -0.7547468541 0.3872072381 -1.92773e-05 0.0001371193 -8.82316e-05 -2.40732e-05 0.7659169518 -0.3798222264
240298560.0 -0.7509668137 0.3953567091 -3.37117e-05 0.0003254229 1.63284e-05 9.22666e-05 0.7614797832 -0.3875982976
245298530.0 -0.7466177203 0.4033012322 0.0001795499 2.18756e-05 1.1666e-05 0.000143564 0.7581517625 -0.3948727789
250298500.0 -0.7422857881 0.4108349734 -9.89455e-05 -4.1544e-05 -0.000109695 -5.94195e-05 0.7536330209 -0.4022857188
255298470.0 -0.7378814125 0.4187017189 -0.0001089199 8.84862e-05 0.0001529129 -2.1665e-05 0.7504247575 -0.4094636359
260298440.0 -0.7341308673 0.4261402055 3.67209e-05 -8.17383e-05 -0.0001718418 -4.81499e-05 0.7458458851 -0.416278731
265298410.0 -0.729008212 0.4341820133 -0.00015988 0.0001168441 0.0001098186 -0.000112719 0.7422939173 -0.4247780116
270298380.0 -0.7247128776 0.4415503934 -6.04834e-05 2.86108e-05 5.97933e-05 0.0001004903 0.7389380703 -0.4313007383
275298350.0 -0.7195624372 0.4490253699 -4.27846e-05 3.22062e-05 -0.000267007 9.49867e-05 0.734482511 -0.4377670047
280298320.0 -0.7150864798 0.4570302009 4.6056e-05 3.7873e-06 -9.35678e-05 -2.60822e-05 0.7305042895 -0.4455371677
285298290.0 -0.7103451277 0.4644749628 -2.24359e-05 0.0001399336 2.93221e-05 7.23389e-05 0.7258677515 -0.4520782085
290298260.0 -0.7054136812 0.4714902776 0.0001019928 2.674e-07 0.0001735764 -1.48213e-05 0.7222751961 -0.4598354426
295298230.0 -0.7003109884 0.479113787 -1.56608e-05 -0.0001047894 -8.24105e-05 -0.0001356059 0.7178327782 -0.4661773826
300298200.0 -0.694768829 0.4862901775 4.2078e-06 -4.2529e-06 6.02515e-05 -0.0001601888 0.7133433299 -0.4734695235
305298170.0 -0.690097517 0.4944510345 -0.0003037838 3.30863e-05 -0.0001309073 -0.0001565998 0.7092939597 -0.4800451731
310298140.0 -0.684768145 0.5007715356 7.78866e-05 -0.000143625 -9.54522e-05 -6.74156e-05 0.7053208525 -0.4871923262
315298110.0 -0.6799138559 0.5080746216 5.26383e-05 -3.80869e-05 0.0002235176 4.0029e-05 0.7003594345 -0.4944771967
320298080.0 -0.6740996007 0.5158404606 -1.7256e-05 2.98764e-05 -0.0001913127 5.03799e-05 0.6959156294 -0.5020065188
325298050.0 -0.6684652451 0.5224586824 0.0001543454 -6.25551e-05 -0.0001543868 -3.79404e-05 0.6904616689 -0.5097074822
330298020.0 -0.6628853365 0.5290897823 2.90739e-05 3.85645e-05 -0.0001974153 -8.49372e-05 0.6854003209 -0.5172522818
335297990.0 -0.656836655 0.5364746637 -9.94845e-05 -4.12204e-05 -3.57811e-05 -2.2525e-05 0.6796629272 -0.5239604427
340297960.0 -0.6519299617 0.542771908 0.0001215144 0.0001341798 2.10333e-05 0.0001554619 0.6741215235 -0.5301650972
345297930.0 -0.6462642644 0.5491322931 -0.0001487164 -2.69484e-05 3.75703e-05 -7.29384e-05 0.6676128307 -0.5360428977
350297900.0 -0.6408285882 0.5556658176 6.70467e-05 7.69202e-05 4.8279e-06 2.2209e-05 0.6627998433 -0.5420065872
355297870.0 -0.6342029301 0.5625301781 0.000175535 -2.89167e-05 0.0001254616 -6.71974e-05 0.6571738757 -0.5484281518
360297840.0 -0.6281753722 0.5691787823 8.80096e-05 0.000155338 -0.0002651618 2.79929e-05 0.651631474 -0.554432463
365297810.0 -0.6225591429 0.5762807253 8.1124e-05 0.0001107741 -7.23617e-05 1.82864e-05 0.6460204061 -0.5605979265
370297780.0 -0.6164903322 0.5819468721 9.12548e-05 0.0001819821 2.22725e-05 -6.5829e-05 0.640435605 -0.5665661038
375297750.0 -0.6099813906 0.5882105811 0.0002581058 -4.44159e-05 -3.63511e-05 0.0001144345 0.6350923752 -0.5723388582
380297720.0 -0.603790174 0.5947172914 0.0001597526 -3.15933e-05 -0.0001371011 -0.000189824 0.6294626056 -0.5784783039
385297690.0 -0.5974005792 0.6011671798 0.0001315251 -0.0002762523 5.49974e-05 -0.0002161429 0.6235514204 -0.5836312841
390297660.0 -0.5914441563 0.6074735827 -0.0001281176 -0.0003201693 0.0001433041 -1.36729e-05 0.6180323433 -0.5904375528
395297630.0 -0.5854505506 0.6130542935 0.0002248613 4.3481e-06 -0.0001055525 -0.0001441812 0.6121780215 -0.5956933571
400297600.0 -0.5795009992 0.6192007581 -6.0913e-05 1.95921e-05 6.80031e-05 0.0002623606 0.6065388465 -0.6017869725
405297570.0 -0.5726524803 0.6250126336 -0.0001307373 -7.48725e-05 -0.0001821879 0.0001575294 0.6007174606 -0.6075245683
410297540.0 -0.5657699683 0.6310427154 -0.00011114 -1.79077e-05 -0.0001706966 8.38346e-05 0.5947748585 -0.6130172194
415297510.0 -0.5589870231 0.636328916 4.85131e-05 0.0002104458 -0.0001836094 8.44715e-05 0.5883985898 -0.6187742122
420297480.0 -0.5519124671 0.641985527 -0.0002704508 -5.20363e-05 0.0001051566 -9.2996e-05 0.5827588668 -0.6244693149
425297450.0 -0.5459272321 0.6481605807 0.0001911866 0.0001756346 -6.99606e-05 -8.49113e-05 0.5768491601 -0.6298831813
430297420.0 -0.5396445437 0.6532481998 0.0001147521 0.0002084629 0.000101247 -7.85762e-05 0.570678903 -0.6353077368
435297390.0 -0.5322822639 0.6590341428 -0.0001640275 -4.3022e-06 3.57347e-05 4.15481e-05 0.5638418392 -0.6404192611
440297360.0 -0.5253775901 0.6648337424 -5.7594e-06 -0.0001538761 0.0001984245 -1.87108e-05 0.557666639 -0.646322258
445297330.0 -0.5185267755 0.6706458835 7.7246e-06 0.0001512517 4.97716e-05 -5.48621e-05 0.551326534 -0.6517439971
450297300.0 -0.5110680032 0.6745992687 -7.27109e-05 -9.76001e-05 -0.0002030017 0.0001846993 0.5444492795 -0.6573103983
455297270.0 -0.5043929819 0.6804814846 5.11361e-05 0.0001581006 1.91928e-05 3.94254e-05 0.5386023679 -0.6625475513
460297240.0 -0.498001026 0.6852348011 -0.0003511067 3.7598e-06 7.81342e-05 9.5281e-05 0.5325465956 -0.6666436895
465297210.0 -0.4898663769 0.6905491514 -3.93649e-05 -1.35846e-05 -2.77496e-05 7.69365e-05 0.5254467414 -0.6724845467
470297180.0 -0.4829055054 0.6948171641 0.0002339766 -0.0001901905 4.52653e-05 2.54091e-05 0.5181131607 -0.6774005896
475297150.0 -0.4758949554 0.7001267055 -0.0001333536 -5.5427e-05 -8.19602e-05 -0.0001415408 0.5119618958 -0.6822402479
480297120.0 -0.4688403214 0.7045556635 7.7021e-05 -3.70593e-05 0.0003005634 -4.9123e-06 0.5051694943 -0.687261971
485297090.0 -0.4613794043 0.7096936259 -0.0001242773 -0.0002173361 -2.82279e-05 1.23196e-05 0.4984744245 -0.6919155914
490297060.0 -0.4542786378 0.7138959 -1.07307e-05 -0.0001114205 -1.37864e-05 0.0001127431 0.491657882 -0.6969776484
495297030.0 -0.4471460464 0.7192016868 -6.05365e-05 0.0002249044 -9.204e-07 -0.0001625532 0.4851807917 -0.7016678324
500297000.0 -0.4383220614 0.723262202 -1.26073e-05 5.00741e-05 1.96167e-05 -4.1942e-06 0.4775762954 -0.7062430922
505296970.0 -0.4319844004 0.7270727623 -6.80126e-05 1.00682e-05 6.4488e-06 0.0001737758 0.4700905557 -0.710846457
510296940.0 -0.4245115198 0.7317391542 4.72804e-05 -6.6329e-05 0.0001311215 -0.0001020364 0.4632322927 -0.7149328356
515296910.0 -0.4167609939 0.7364159269 -1.8463e-05 -0.000170121 8.34933e-05 -2.72465e-05 0.4555742216 -0.7185074342
520296880.0 -0.4089652662 0.7406721137 -0.0002278855 -0.000233007 -2.79503e-05 0.0002526309 0.4491882102 -0.7246787032
525296850.0 -0.4017583787 0.7447862215 -8.13094e-05 8.47668e-05 0.0001473443 0.0001093677 0.4417667535 -0.7282481265
530296820.0 -0.3941300702 0.7482401185 -1.95263e-05 -0.0001353456 -3.49088e-05 0.0001415816 0.4339272154 -0.7328825557
535296790.0 -0.3860934275 0.7523825996 -5.54835e-05 -0.0001339786 -8.17905e-05 2.67642e-05 0.4270136295 -0.7373591272
540296760.0 -0.3783363803 0.7561605709 0.0001058741 -6.06032e-05 -0.0001504385 -6.67754e-05 0.4192354603 -0.7411555343
545296730.0 -0.3710952911 0.7598529085 1.86408e-05 7.09296e-05 9.72868e-05 7.75927e-05 0.4120173327 -0.7450824446
550296700.0 -0.3629400339 0.7635143975 0.0001061498 6.99995e-05 -7.81026e-05 -3.14515e-05 0.4046560264 -0.7496400486
555296670.0 -0.3545316854 0.7671261979 -0.0001177884 0.0001788118 -7.54792e-05 8.08656e-05 0.3963521894 -0.7530266686
560296640.0 -0.3473584827 0.7714203654 3.29063e-05 5.42108e-05 -0.0001807771 -0.0001016307 0.3895215748 -0.7564198401
565296610.0 -0.3394702057 0.7738105737 4.35467e-05 6.15122e-05 9.14512e-05 0.0001616913 0.3819721664 -0.7604432512
570296580.0 -0.331633232 0.7778383041 0.0001016664 -0.0002423744 -5.06678e-05 -0.0001140863 0.3739990099 -0.763885367
575296550.0 -0.3234023257 0.7805541086 0.0002106483 -0.000237591 -5.59863e-05 1.09767e-05 0.3667116355 -0.7675703569
580296520.0 -0.3156420122 0.7842391873 -6.29026e-05 2.42486e-05 4.39149e-05 -3.89912e-05 0.3583806878 -0.7705191278
585296490.0 -0.3077244397 0.7869013659 4.45626e-05 0.0002155339 -0.0001085083 0.0001324226 0.3514009155 -0.7748421553
590296460.0 -0.299450292 0.7895786848 3.27727e-05 1.00378e-05 0.0001020441 -0.0002247388 0.3430590849 -0.7779410575
595296430.0 -0.2914032103 0.7938720146 -0.0001222684 5.26522e-05 9.19538e-05 -5.93557e-05 0.3349376576 -0.7810542941
600296400.0 -0.2829091275 0.7957826537 -3.32659e-05 9.43491e-05 9.33874e-05 0.0001538897 0.3274267897 -0.7836844991
605296370.0 -0.2757142431 0.7989302043 -0.0001920453 7.46293e-05 0.0001119928 -3.40003e-05 0.3193008254 -0.7873956079
610296340.0 -0.2675900773 0.801653616 8.89812e-05 -0.0002159774 8.96458e-05 -1.54498e-05 0.3111296298 -0.79020036
615296310.0 -0.2591976303 0.8044623957 -6.7158e-06 -0.0001121527 -5.6389e-06 1.56346e-05 0.3036862989 -0.7934976765
620296280.0 -0.2508987991 0.8059965117 -6.84104e-05 7.92727e-05 -3.23054e-05 6.60894e-05 0.2957036608 -0.7969657096
625296250.0 -0.242928529 0.8092766465 -6.17108e-05 0.0001424046 -9.58624e-05 -3.41118e-05 0.2870937792 -0.7986723111
630296220.0 -0.234332388 0.8118938545 0.0003564017 0.0001668181 -8.20585e-05 0.0001897642 0.2796202934 -0.8014082689
635296190.0 -0.2260998027 0.8140059051 4.37652e-05 6.7077e-06 2.34478e-05 0.0001094535 0.2715573105 -0.8039607861
640296160.0 -0.2177431665 0.8152217293 -0.0002561348 -7.3319e-06 -6.77846e-05 1.67024e-05 0.2634267347 -0.8066073743
645296130.0 -0.2099220555 0.8180128597 3.84362e-05 -0.0002366285 -3.68908e-05 7.30924e-05 0.2553012662 -0.8092885492
650296100.0 -0.2020650021 0.8206089435 -4.56991e-05 0.0001027274 8.31324e-05 -1.09431e-05 0.2471370411 -0.8111322309
655296070.0 -0.1929712042 0.8221274733 6.48248e-05 0.0001102824 0.0002082236 0.0001591217 0.2388333235 -0.8138791474
660296040.0 -0.1851257047 0.8244695902 2.20826e-05 7.67354e-05 -0.0001080828 -1.70041e-05 0.2309275679 -0.8160384443
665296010.0 -0.1768535448 0.8260857119 0.0001375788 -2.06826e-05 4.77203e-05 -8.04477e-05 0.2229589051 -0.8180104109
670295980.0 -0.1675216761 0.8275595137 5.82723e-05 -4.9321e-05 -1.03853e-05 1.2124e-05 0.2150831194 -0.8199094997
675295950.0 -0.1598127411 0.8287115892 0.0001152903 5.99497e-05 0.0001646174 0.0001868485 0.2063599413 -0.8221173511
680295920.0 -0.1518741428 0.831230711 -1.4519e-05 -7.45867e-05 1.80509e-05 9.52477e-05 0.1978558097 -0.8241240842
685295890.0 -0.142775138 0.8320593751 -0.0002187964 2.59036e-05 0.0001375841 -6.983e-05 0.189959409 -0.8260249164
690295860.0 -0.1339958518 0.833912741 -7.55454e-05 2.49579e-05 -4.20126e-05 -0.0002131518 0.1819115316 -0.8275083212
695295830.0 -0.126094898 0.8347057694 -0.0002524238 2.37328e-05 -2.77192e-05 -0.0001860984 0.1726462329 -0.8293802456
700295800.0 -0.1176454437 0.8356920906 7.5944e-06 0.0001302152 0.0001108424 -0.0001094889 0.1650430108 -0.8306727679
705295770.0 -0.1087759965 0.8372944475 2.30913e-05 -1.34489e-05 -7.54533e-05 -7.27523e-05 0.156681273 -0.8315672826
710295740.0 -0.1012557451 0.8381252268 -0.0002218921 4.47566e-05 0.0002204112 -7.16145e-05 0.1480239246 -0.8328841031
715295710.0 -0.0927910696 0.8390385658 -0.0001206765 5.41334e-05 -8.20255e-05 -6.54207e-05 0.139964606 -0.8345302175
720295680.0 -0.0841564335 0.8399440746 4.38338e-05 7.11546e-05 0.0001797323 -0.0002270018 0.1322315224 -0.8359210009
725295650.0 -0.0752523694 0.8407121354 0.0001134369 -3.85951e-05 3.53954e-05 2.6999e-06 0.1239848146 -0.8370274138
730295620.0 -0.0671428018 0.8412036058 -0.0001846813 -9.87719e-05 -0.0002109237 6.99503e-05 0.1150103346 -0.8385015356
735295590.0 -0.0580417061 0.8417295089 0.0001530153 4.9034e-06 -0.0001975947 -0.0001318418 0.1072583676 -0.8389491393
740295560.0 -0.0503251819 0.8424960095 -2.35881e-05 -5.3628e-06 -6.51128e-05 -0.0001345522 0.0983963261 -0.8407630087
745295530.0 -0.0415653254 0.8427392208 0.0002132407 2.95979e-05 4.22015e-05 -0.0001372002 0.0893713795 -0.840591396
750295500.0 -0.0336282001 0.842878251 0.0001330052 1.03038e-05 -0.0001077859 7.79128e-05 0.081866208 -0.8416083863
755295470.0 -0.0242255788 0.8434609822 -8.68125e-05 0.0001157257 5.2939e-05 -5.05687e-05 0.0725295178 -0.8420402525
760295440.0 -0.0157635807 0.8436015109 8.42757e-05 0.000183529 0.0002172295 -5.12076e-05 0.0644193085 -0.842930829
765295410.0 -0.007759642 0.8434314383 3.47753e-05 -9.77822e-05 -2.21032e-05 -0.0001141201 0.0560158673 -0.8423584702
770295380.0 0.0009769978 0.8439097908 -8.42658e-05 0.0002390198 6.43963e-05 -0.0001409849 0.0483237716 -0.842797413
775295350.0 0.009089656 0.8440965076 -2.96328e-05 2.89309e-05 -0.0001619315 -0.0002052449 0.0400900468 -0.8445367401
780295320.0 0.017612263 0.843319689 -2.91902e-05 -0.0001903873 -0.0001503972 7.02204e-05 0.0312878338 -0.8433468457
785295290.0 0.0257044984 0.8436523214 -2.3587e-05 -0.0001846386 0.0001672552 -0.0002179089 0.0226476314 -0.8433995884
790295260.0 0.0345826238 0.8429126761 5.20577e-05 -0.000270128 -7.26352e-05 2.49705e-05 0.0145757375 -0.8440083029
795295230.0 0.0430783314 0.8430469725 -1.08858e-05 0.000113131 0.0001945861 1.70891e-05 0.0066929256 -0.8435468305
800295200.0 0.0513855845 0.8422332928 5.12083e-05 9.99375e-05 0.0002513449 -2.90439e-05 -0.0022953438 -0.8439106207
805295170.0 0.0599029167 0.8421311864 2.30018e-05 -7.58745e-05 3.91928e-05 -1.97887e-05 -0.0109260817 -0.8439227245
810295140.0 0.0682800895 0.8415814687 -8.92937e-05 -0.0001462842 -2.74232e-05 0.0002468759 -0.0193247682 -0.8423402829
815295110.0 0.0771241335 0.8405388595 -0.0001264126 1.39199e-05 3.96923e-05 -3.43559e-05 -0.0280089932 -0.8428582118
820295080.0 0.0852441751 0.8390684397 0.0001353645 -9.81502e-05 6.94039e-05 -5.14395e-05 -0.0367908339 -0.8428667406
825295050.0 0.0940437045 0.8380947117 9.9688e-05 -0.0002112223 6.68178e-05 -0.0001599887 -0.0445207741 -0.841655839
830295020.0 0.1022297421 0.8378517027 5.6249e-06 0.0001379355 -7.59685e-05 -1.52299e-05 -0.0532547468 -0.8412716749
835294990.0 0.1103380885 0.8369636526 -3.29885e-05 -4.12665e-05 -1.5868e-06 9.78337e-05 -0.0613424862 -0.8406458198
840294960.0 0.1188308637 0.8354403635 -1.51275e-05 -0.0001779685 -8.2201e-06 -0.0002276188 -0.0705538594 -0.8389373849
845294930.0 0.1269429067 0.8342398485 7.36036e-05 -8.82418e-05 -1.63082e-05 0.0001268016 -0.0778435742 -0.8385024156
