!Created with skrf (http://scikit-rf.org).
# Hz S RI R 50.0 
!freq ReS11 ImS11 ReS21 ImS21 ReS12 ImS12 ReS22 ImS22
300000.0 -0.3153622821 -0.107361555 0.371105097 0.0536801364 0.373407976 0.0569074945 -0.3167182313 -0.1131588435
5299970.0 -0.32364497 0.0049644835 0.3784764841 0.0024533128 0.3787255801 0.0034336542 -0.3261402374 0.0027460543
10299940.0 -0.3209751869 0.0155279128 0.3796061541 0.0023045509 0.3797941228 0.0024371944 -0.3239393036 0.0126426345
15299910.0 -0.3179718816 0.0234172026 0.3818820024 0.002259535 0.3819194674 0.002478216 -0.3211892613 0.0198938233
20299880.0 -0.314344242 0.0302492242 0.3849412466 0.0015180138 0.3850207334 0.0019048676 -0.3188014346 0.0260453974
25299850.0 -0.3104921934 0.0356353026 0.3883539043 -9.86224e-05 0.3883922285 4.65138e-05 -0.3156765708 0.0311447895
30299820.0 -0.306624905 0.0405740351 0.3918140044 -0.0022367969 0.3917061447 -0.002235799 -0.3124497225 0.0354313813
35299790.0 -0.3032234227 0.0449713638 0.3952478691 -0.005310627 0.3953033123 -0.005277202 -0.3096437543 0.0394168492
40299760.0 -0.299664989 0.048144592 0.3983382552 -0.008552575 0.3984006398 -0.0087232219 -0.307095018 0.0431759077
45299730.0 -0.2964410063 0.0517636256 0.4013429418 -0.0130352397 0.4011602435 -0.0128200522 -0.3046284951 0.0460935313
50299700.0 -0.2932301261 0.054084755 0.4037653797 -0.0176154532 0.4036749688 -0.017320938 -0.3019863063 0.0491830005
55299670.0 -0.2906921917 0.0569741124 0.4053365586 -0.0222196213 0.4059229166 -0.0218815185 -0.3003729669 0.052057088
60299640.0 -0.2882014147 0.0588478235 0.4073809047 -0.0268950159 0.4073657603 -0.0270037476 -0.2978826947 0.0543631295
65299610.0 -0.2861615955 0.061643166 0.4093868511 -0.0315944162 0.4095220665 -0.0317014955 -0.296106227 0.057120506
70299580.0 -0.2839512796 0.0637114558 0.4104436206 -0.0367077249 0.4107131184 -0.0370640613 -0.2948359967 0.0597066377
75299550.0 -0.2819465922 0.0658815332 0.411235371 -0.0421162102 0.4117487733 -0.0421628388 -0.2929317373 0.0622385503
80299520.0 -0.2803267092 0.0682137104 0.4128035824 -0.0475586042 0.4124945011 -0.0472058106 -0.2916795119 0.0638905963
85299490.0 -0.2785997672 0.069821607 0.4131003022 -0.052894809 0.4130053452 -0.0528997822 -0.2902704436 0.0666478623
90299460.0 -0.2770849859 0.072050015 0.4134309711 -0.0574160367 0.4136240483 -0.0579507419 -0.2886778141 0.0688822929
95299430.0 -0.2755932916 0.0741750024 0.4141672914 -0.0635122747 0.4137334485 -0.0629559896 -0.2876375644 0.0712917408
100299400.0 -0.2744629262 0.076541747 0.4136170003 -0.0681452645 0.4138216098 -0.0685420717 -0.2868482463 0.0732247268
105299370.0 -0.2729137488 0.0782328719 0.4135044035 -0.0732224153 0.4133608638 -0.0738521154 -0.2847505783 0.0758785989
110299340.0 -0.2721110952 0.0805153976 0.4132684474 -0.0786773481 0.4134644315 -0.078914911 -0.2843267458 0.0785698758
115299310.0 -0.2708140055 0.0822604984 0.4130337268 -0.0834830456 0.4133481632 -0.083732575 -0.2830729872 0.0800466324
120299280.0 -0.2698158432 0.0845908201 0.4130677337 -0.088747966 0.41286406 -0.0890761799 -0.2824355221 0.0826206816
125299250.0 -0.26875811 0.0867650458 0.4122151445 -0.0939356167 0.4123068526 -0.0941889396 -0.2812818939 0.0845999764
130299220.0 -0.267682202 0.0890500607 0.4115031499 -0.0988166728 0.4114988086 -0.0991914202 -0.280810679 0.0875975116
135299190.0 -0.2665356834 0.09120177 0.4109875591 -0.1038134007 0.4107676284 -0.1040448401 -0.2797958224 0.0897225818
140299160.0 -0.265765623 0.0936157047 0.4100261733 -0.1087595013 0.4100959434 -0.1090092068 -0.2786177238 0.092178553
145299130.0 -0.2647948635 0.0959191014 0.4095172973 -0.1142461758 0.4090613326 -0.1137491893 -0.2780508776 0.0947362573
150299100.0 -0.263585618 0.0982839481 0.4081059484 -0.1192434249 0.4082044442 -0.1191403863 -0.2769539151 0.0968863124
155299070.0 -0.2629511408 0.1010046415 0.4070091846 -0.1241711296 0.4071022585 -0.1240425357 -0.276258691 0.0994320131
160299040.0 -0.2618955933 0.1030801598 0.4055523563 -0.1284317523 0.4061064387 -0.1289422775 -0.2751282911 0.1026255711
165299010.0 -0.2607711331 0.1055989342 0.4045773041 -0.1336384452 0.4050411778 -0.1336695517 -0.2743399613 0.1046659884
170298980.0 -0.2601494958 0.1079523999 0.4026404084 -0.138503141 0.4033218996 -0.1384602072 -0.2730877407 0.10703171
175298950.0 -0.258964516 0.1101735604 0.4020864176 -0.1428527777 0.402021304 -0.1430773845 -0.2721307608 0.1097835703
180298920.0 -0.2581172344 0.1128124202 0.4003596321 -0.14820054 0.4005795604 -0.1478443856 -0.270835006 0.1122068128
185298890.0 -0.2568971388 0.115680253 0.3986462255 -0.1530154186 0.3988370072 -0.1525657443 -0.2703095363 0.1147527128
190298860.0 -0.2557108252 0.1179112694 0.3972062494 -0.1574372512 0.3976070659 -0.157604382 -0.268715516 0.117627877
195298830.0 -0.2543723637 0.1200307836 0.3952938448 -0.1618459387 0.3954185575 -0.1621377378 -0.2678535686 0.1199767515
200298800.0 -0.2538156846 0.1227953017 0.3940096952 -0.1662570453 0.3938619117 -0.166511056 -0.2664343745 0.1229135817
205298770.0 -0.2523020891 0.1253894952 0.3922088897 -0.1711049425 0.3924526534 -0.1713753455 -0.2655725229 0.1254889442
210298740.0 -0.2516885341 0.1277581603 0.3905007037 -0.1759867016 0.390355051 -0.1756685864 -0.2645618362 0.1280296567
215298710.0 -0.2502680462 0.1304376481 0.3885428451 -0.1802037719 0.3883361981 -0.1800631465 -0.2638970953 0.1306109203
220298680.0 -0.2491933021 0.1330366787 0.3864598523 -0.184757165 0.3866401519 -0.1846191954 -0.2621152545 0.1338025199
225298650.0 -0.247563444 0.1355434786 0.3843706396 -0.1890554939 0.3842107294 -0.1887883968 -0.2612525135 0.1362810626
230298620.0 -0.2468182825 0.1381842265 0.3828241297 -0.1936746186 0.3827879408 -0.1934737769 -0.2595017273 0.1387718517
235298590.0 -0.245391497 0.140722014 0.3804355563 -0.1980353637 0.380075535 -0.1981952272 -0.2583045446 0.1413344345
240298560.0 -0.2441547554 0.1430444732 0.3783491334 -0.2016532475 0.3784895603 -0.201634613 -0.2569588302 0.1442225852
245298530.0 -0.2427763412 0.1457279535 0.3756625592 -0.2066202226 0.3759926624 -0.2066917177 -0.2558082161 0.146838984
250298500.0 -0.2415056811 0.1483111731 0.3733311956 -0.2105738072 0.3740549629 -0.2104301955 -0.2538154299 0.1497926268
255298470.0 -0.2398357471 0.1509514512 0.3711491825 -0.2150806992 0.3714344962 -0.2149588906 -0.252516007 0.1522844878
260298440.0 -0.2386353084 0.1533845307 0.3691186404 -0.218838115 0.3694270664 -0.2193060728 -0.2509893974 0.1551968765
265298410.0 -0.2369100507 0.1563950899 0.3664734096 -0.2237105938 0.3665044199 -0.2234309922 -0.2497542584 0.1575585208
270298380.0 -0.2354645399 0.1587070556 0.3636677931 -0.2277230491 0.3641982218 -0.2277538299 -0.2479473749 0.1604646207
275298350.0 -0.2340913675 0.1611066556 0.361616122 -0.2320825306 0.3618862393 -0.231804366 -0.245995994 0.1629324431
280298320.0 -0.2326096583 0.163779317 0.3588805347 -0.2353879715 0.358841802 -0.2359641017 -0.244566816 0.1655694891
285298290.0 -0.2310086091 0.1664177524 0.3565506285 -0.2395307254 0.3567020724 -0.2398741455 -0.2431784761 0.1684649007
290298260.0 -0.2295529329 0.1687331085 0.354218028 -0.2438539348 0.3539693679 -0.2439595768 -0.2410632125 0.1711052103
295298230.0 -0.227619005 0.1713551686 0.3511089982 -0.2479341953 0.3510835289 -0.2479769698 -0.239286875 0.1735488222
300298200.0 -0.2258211265 0.1738531202 0.3482571176 -0.2519784374 0.3484791126 -0.2517844373 -0.237736567 0.176418072
305298170.0 -0.2239585882 0.1762282241 0.3456207532 -0.2559087401 0.3459252653 -0.2560894505 -0.2355618262 0.1794380975
310298140.0 -0.2220097858 0.1781866826 0.3428343457 -0.2597443628 0.3430540568 -0.2599961007 -0.2339998922 0.1820536953
315298110.0 -0.2207755493 0.1809266113 0.3401417023 -0.2636666113 0.3402959714 -0.2638513741 -0.232012652 0.1842897583
320298080.0 -0.2186479032 0.1832094306 0.3368658302 -0.267713643 0.3369853989 -0.2677432155 -0.2301506005 0.1867432853
325298050.0 -0.2169149433 0.1854141839 0.3344891769 -0.2716191276 0.3343599009 -0.2717241634 -0.228039689 0.1893453024
330298020.0 -0.2152139377 0.1878622597 0.3305930334 -0.2754642382 0.3308568222 -0.2752821223 -0.2265224957 0.1916684162
335297990.0 -0.2133325918 0.1903876823 0.3275926123 -0.279111707 0.3280087754 -0.2790409129 -0.2248460646 0.194216837
340297960.0 -0.211767782 0.1929056187 0.3241432713 -0.2826740379 0.3245225544 -0.2825379802 -0.2226212396 0.1970656355
345297930.0 -0.2101709006 0.1949879072 0.3213213772 -0.2859130851 0.3206292516 -0.2859661042 -0.2203094022 0.1995389667
350297900.0 -0.2077427628 0.197533135 0.3178670989 -0.2891235757 0.3180104934 -0.289717675 -0.2184861227 0.2021508229
355297870.0 -0.205877851 0.1997588565 0.3144973059 -0.2931744368 0.314578634 -0.2933736072 -0.2165512944 0.2047814711
360297840.0 -0.2037808582 0.2023162929 0.3115740575 -0.2967318309 0.311308348 -0.2968075705 -0.2144964665 0.2074230573
365297810.0 -0.2014911007 0.2047994063 0.3081738166 -0.3004277266 0.3081876416 -0.3000795057 -0.2124473762 0.2099178061
370297780.0 -0.1995292701 0.2068242872 0.3046025668 -0.3033281178 0.3047851232 -0.3036896368 -0.2102713218 0.2122462116
375297750.0 -0.1975720779 0.2093119738 0.3014393247 -0.3064407953 0.3016523074 -0.3069721438 -0.2081172343 0.2149297607
380297720.0 -0.1954834495 0.2114080763 0.2979190023 -0.309988725 0.2981619296 -0.3098031219 -0.2058269744 0.2174959852
385297690.0 -0.1930660439 0.2136508495 0.2945165039 -0.3131608383 0.2946021113 -0.3133917002 -0.2038721504 0.2200656731
390297660.0 -0.1911168311 0.2159225925 0.2910165159 -0.316582492 0.29086172 -0.3170602769 -0.2013671138 0.2221109685
395297630.0 -0.1886535763 0.2180772133 0.2875469843 -0.319355152 0.2874005262 -0.3199118179 -0.1994616257 0.2249680077
400297600.0 -0.1863435674 0.2204977348 0.2839084836 -0.3230486513 0.2842346455 -0.3231124161 -0.1969866692 0.2268126697
405297570.0 -0.1841755742 0.2224960252 0.2802750269 -0.3260603847 0.2804851751 -0.3261503684 -0.1949468516 0.2294843333
410297540.0 -0.1818278124 0.2243583653 0.2764591302 -0.3286973052 0.2764551319 -0.3289550845 -0.1921286947 0.2316647926
415297510.0 -0.1796896187 0.2267056985 0.2731056223 -0.3318029107 0.27296866 -0.3319065153 -0.1899748259 0.2339203602
420297480.0 -0.1770360291 0.2284413108 0.2692636694 -0.3350649539 0.2694096736 -0.3346463647 -0.1873773135 0.235408242
425297450.0 -0.1744800338 0.2304263015 0.2655285794 -0.337624943 0.2659826963 -0.337826288 -0.1847832392 0.2383331723
430297420.0 -0.1723823557 0.2324162807 0.2616846111 -0.3408535074 0.2621434897 -0.3409010371 -0.1828340826 0.2405594618
435297390.0 -0.1698158622 0.2346315813 0.2583103512 -0.343329421 0.2581999947 -0.3435780199 -0.1800938376 0.2426674264
440297360.0 -0.1672781815 0.2363373287 0.254085273 -0.3461518701 0.254087197 -0.3462142605 -0.1777411594 0.2441666189
445297330.0 -0.1647918289 0.2386110117 0.2499129749 -0.3491345756 0.2502110504 -0.3487441164 -0.1752066168 0.2463990556
450297300.0 -0.1621683101 0.2402796902 0.2465842752 -0.3519859947 0.2465220468 -0.3519122723 -0.1727139949 0.2489416729
455297270.0 -0.1596554305 0.2423230421 0.2429971191 -0.3544298393 0.2430406369 -0.3543589854 -0.1697629577 0.2507097275
460297240.0 -0.1575900585 0.2440921546 0.2388934165 -0.3564639674 0.2382748407 -0.3571403764 -0.1672545872 0.2532156088
465297210.0 -0.1544568693 0.2456933871 0.2346306254 -0.3594893594 0.2352211591 -0.3596923293 -0.1652689221 0.2547755794
470297180.0 -0.1521398757 0.2477397981 0.2309108541 -0.3620761596 0.231126706 -0.3619725455 -0.1629183437 0.2565804981
475297150.0 -0.1498010744 0.2491874619 0.2265316746 -0.3642137761 0.2272240954 -0.3641534293 -0.1597834937 0.2584301035
480297120.0 -0.1469857497 0.2506039824 0.222699907 -0.3666680495 0.2229210298 -0.3669882313 -0.1568708998 0.2609737151
485297090.0 -0.144054007 0.252698389 0.2190557924 -0.3689605955 0.2189314583 -0.3692602937 -0.1544744585 0.2623740418
490297060.0 -0.1413374522 0.2543725587 0.2145397437 -0.371499015 0.2148035636 -0.3716083767 -0.1516841562 0.2642264772
495297030.0 -0.1390381006 0.2561763106 0.2106732745 -0.3740987828 0.2103646249 -0.3738698002 -0.1488357146 0.2656936914
500297000.0 -0.1357797769 0.2572517278 0.2063209389 -0.3764651941 0.2067408314 -0.3758059232 -0.1466061042 0.2675927032
505296970.0 -0.1335471946 0.2591758152 0.2020482558 -0.3780221063 0.2023600237 -0.3780192902 -0.144067904 0.2695257908
510296940.0 -0.1308316591 0.260889726 0.198016563 -0.3805492094 0.1985090396 -0.3804799831 -0.1405805221 0.2712622234
515296910.0 -0.1282488264 0.2626589572 0.193903 -0.382464711 0.1942456258 -0.3823627646 -0.1383288293 0.2728125588
520296880.0 -0.1252496937 0.2638040785 0.1896214465 -0.3844744219 0.189809404 -0.3844659355 -0.1350436886 0.2743145177
525296850.0 -0.1226749622 0.2652229358 0.1856638788 -0.3865216879 0.1858385654 -0.3867578868 -0.1321817846 0.2762463512
530296820.0 -0.1196891417 0.2666208646 0.1813959419 -0.3878287264 0.1812278869 -0.388333584 -0.1297098748 0.2776234666
535296790.0 -0.1168327448 0.2679678866 0.1770869745 -0.3901147637 0.1773772447 -0.3901035557 -0.1269172111 0.2786230341
540296760.0 -0.1140764849 0.2693076658 0.1727350098 -0.3925218773 0.1726868199 -0.392377933 -0.1243112178 0.2804016279
545296730.0 -0.1115105268 0.2710130093 0.168399342 -0.3938969871 0.1685809153 -0.394121473 -0.1212893705 0.2818532627
550296700.0 -0.1087414298 0.2723260156 0.1641509552 -0.3960758979 0.1643152711 -0.395948036 -0.1182892158 0.2835174484
555296670.0 -0.1053833111 0.2732373302 0.1600214326 -0.3975207803 0.1601776162 -0.3973472248 -0.1153068498 0.284645448
560296640.0 -0.1026468452 0.2745846973 0.1555313468 -0.39867627 0.1560577761 -0.3988917655 -0.1123059963 0.2862016473
565296610.0 -0.1000637002 0.2757003509 0.1510403014 -0.4006333533 0.151099071 -0.4008466597 -0.1097308217 0.2875147135
570296580.0 -0.0969334625 0.2772027981 0.146715774 -0.402453834 0.1473033893 -0.402527023 -0.1064443071 0.2892329342
575296550.0 -0.093930666 0.2784024342 0.1428970318 -0.4037942003 0.1428661338 -0.4037979566 -0.1035091323 0.2899586185
580296520.0 -0.0914855618 0.2794690429 0.138201443 -0.4054515548 0.1377438807 -0.4054980635 -0.1004803967 0.2912514219
585296490.0 -0.0879537378 0.2801123014 0.1335389169 -0.4067029522 0.1337419761 -0.4067664769 -0.0977036817 0.2923436615
590296460.0 -0.085092108 0.2814234451 0.1290142462 -0.4082536772 0.1292554818 -0.4083652852 -0.0945478564 0.2936693235
595296430.0 -0.0822351533 0.2826400561 0.1250382069 -0.4095610587 0.1248744825 -0.4096129406 -0.0914504263 0.2945203706
600296400.0 -0.0794049928 0.2834347571 0.1203693122 -0.4108392962 0.1205567064 -0.4109747543 -0.0882241752 0.2959843194
605296370.0 -0.0760581876 0.2848692942 0.1160311086 -0.4122400955 0.1159652132 -0.4121435105 -0.0851132473 0.2972560183
610296340.0 -0.0731974952 0.285329781 0.1116047319 -0.4133162059 0.1115522595 -0.4137969252 -0.0824766908 0.298305311
615296310.0 -0.0702591281 0.2865731853 0.1070749149 -0.4142740438 0.107047588 -0.4143233135 -0.0790243754 0.2990552886
620296280.0 -0.0672040802 0.2870545261 0.1025944069 -0.4151507163 0.1025898716 -0.4157882318 -0.0762591098 0.3000788266
625296250.0 -0.0638398728 0.2881410689 0.0974354114 -0.4168496671 0.097692767 -0.4168946375 -0.0730748201 0.3011520333
630296220.0 -0.0608595121 0.2891666207 0.0932610946 -0.4178136555 0.0935476784 -0.4178204449 -0.0703182238 0.3020104169
635296190.0 -0.0579836447 0.2901127305 0.088306366 -0.4181330306 0.0887209903 -0.4182835256 -0.0669304948 0.3029008241
640296160.0 -0.0551665251 0.2902814252 0.0846757811 -0.4190069419 0.0846024834 -0.4193788046 -0.0637666 0.3034247944
645296130.0 -0.052262709 0.2912482381 0.0796969377 -0.4204297089 0.079854826 -0.4204342315 -0.0611004082 0.3044250206
650296100.0 -0.0489332625 0.2922657928 0.0752330771 -0.4210913132 0.0752778072 -0.4211225705 -0.0577382521 0.3056602091
655296070.0 -0.0458059866 0.2925110532 0.0705278699 -0.4218568361 0.0707058572 -0.4220150795 -0.0543341975 0.3060725094
660296040.0 -0.043084084 0.2936511478 0.0661994982 -0.4222957212 0.0660111593 -0.4223840768 -0.0511448016 0.3065033223
665296010.0 -0.0394590951 0.2938520558 0.0615843237 -0.4231445128 0.0618396008 -0.4231805256 -0.0480787583 0.3074960726
670295980.0 -0.0362747146 0.2945790512 0.0567498759 -0.4236481417 0.0572648125 -0.423600661 -0.0453843649 0.308198859
675295950.0 -0.0334415382 0.2948942204 0.0522680332 -0.4241783971 0.0528226958 -0.4246273579 -0.0417989398 0.309154466
680295920.0 -0.0301342213 0.2959702596 0.0477961195 -0.4249648975 0.0476291528 -0.4249919314 -0.0380281511 0.3091873291
685295890.0 -0.0271947485 0.2960700548 0.0434980353 -0.4254120848 0.0428691983 -0.4256217639 -0.0349619962 0.3100495264
690295860.0 -0.0236536883 0.2965978691 0.0382971377 -0.4253729827 0.038426731 -0.4253836333 -0.0320135656 0.3101755652
695295830.0 -0.0204742992 0.2965686999 0.0334786682 -0.4258761126 0.033588055 -0.4263292474 -0.0289069393 0.3111494403
700295800.0 -0.0176473816 0.2973469455 0.0287051592 -0.426397936 0.0289498129 -0.4264239897 -0.0259273071 0.3108315486
705295770.0 -0.0143706301 0.297837028 0.0246345062 -0.4264707642 0.0246958105 -0.426611264 -0.0226402669 0.3118618197
710295740.0 -0.0112201132 0.2979645734 0.0198688701 -0.4267660652 0.0201972702 -0.4267416515 -0.0196831455 0.3124185298
715295710.0 -0.0082597378 0.2983159232 0.0154714779 -0.4268192875 0.0153463619 -0.4270750878 -0.0162352115 0.31229627
720295680.0 -0.0052779468 0.2981549055 0.0106431123 -0.4267107554 0.0110097285 -0.4273822669 -0.0128206954 0.3129771993
725295650.0 -0.0015596452 0.298496389 0.0057716507 -0.4267668937 0.0062325454 -0.4272668088 -0.0097049222 0.3132877437
730295620.0 0.0012894241 0.2987114684 0.0012913746 -0.4270205338 0.0013689698 -0.4271237473 -0.0061413824 0.3130167514
735295590.0 0.0048145346 0.298579685 -0.003115841 -0.4268628185 -0.0029748135 -0.427430556 -0.0026008536 0.3136453214
740295560.0 0.0075282697 0.2990952411 -0.0076618095 -0.4267238857 -0.0077598761 -0.4268289226 0.0003276277 0.3132991064
745295530.0 0.0108262945 0.2987676664 -0.0125228668 -0.4264529524 -0.0120236358 -0.4270120004 0.0031395249 0.3137318354
750295500.0 0.013967243 0.2988345459 -0.0169461375 -0.4264060374 -0.0169751631 -0.4264817847 0.0068009849 0.3135226845
755295470.0 0.0178387534 0.2991147706 -0.0216645774 -0.426041819 -0.0213491557 -0.4265636969 0.0097709886 0.3139204627
760295440.0 0.0203215901 0.298911299 -0.0263190294 -0.4260145933 -0.0261509909 -0.4261785212 0.0127116788 0.3138668308
765295410.0 0.0235658536 0.2987686438 -0.0303289806 -0.4255920459 -0.0307723646 -0.4256858293 0.0166460057 0.3139527035
770295380.0 0.0269049717 0.2987861142 -0.0355787748 -0.4254216914 -0.0357292672 -0.4256855016 0.0200568837 0.3138062986
775295350.0 0.029872012 0.2988585621 -0.0400822145 -0.4245042366 -0.0399352471 -0.4246657062 0.0226804377 0.3134916407
780295320.0 0.0333037597 0.2981322055 -0.0448290112 -0.4243381868 -0.0443335351 -0.4243862884 0.0260168669 0.3137252229
785295290.0 0.035926452 0.298595709 -0.0489828291 -0.4235860008 -0.0489718684 -0.423883481 0.0291664306 0.3136238992
790295260.0 0.038968076 0.2978626792 -0.0534406157 -0.4232297496 -0.0535275398 -0.423205789 0.0325309554 0.3132238744
795295230.0 0.0426682463 0.2977175977 -0.0581653188 -0.4221807874 -0.0581589005 -0.4225954094 0.0357632179 0.3133438537
800295200.0 0.0457764787 0.2977913962 -0.0629007039 -0.4219756788 -0.0630612276 -0.4222673969 0.0390599448 0.3128208663
805295170.0 0.0487291354 0.2972289756 -0.0671056317 -0.4207080677 -0.0670901382 -0.4210215042 0.0419340767 0.3125154845
810295140.0 0.0520262725 0.2970167803 -0.0715419598 -0.4205838986 -0.0715924356 -0.4209152295 0.0455557866 0.3126601685
815295110.0 0.0549473893 0.2963363723 -0.0763649864 -0.4192511796 -0.0765392662 -0.4193948826 0.0489270855 0.3119624905
820295080.0 0.0582125417 0.2956335509 -0.0808725002 -0.4184040903 -0.0809393466 -0.4188484322 0.0517883878 0.3115183748
825295050.0 0.0617414291 0.2952906641 -0.0853402404 -0.4172804966 -0.0855236139 -0.4172662361 0.0552397956 0.3110234589
830295020.0 0.0644881506 0.2953211516 -0.0898899307 -0.416484264 -0.0906737715 -0.4164723324 0.0583804227 0.3106390244
