!Created with skrf (http://scikit-rf.org).
# Hz S RI R 50.0 
!freq ReS11 ImS11 ReS21 ImS21 ReS12 ImS12 ReS22 ImS22
300000.0 -0.2388593541 -0.1101342693 0.4675781693 0.0720548617 0.4724542827 0.0734701131 -0.2371064752 -0.1133591051
5299970.0 -0.2405455685 0.0069031182 0.4750416105 0.0054227766 0.4749945396 0.0056573794 -0.2450137115 0.0053728385
10299940.0 -0.2372106132 0.0199693448 0.4773987136 0.0061440935 0.4770999033 0.006768775 -0.2421055776 0.0175958763
15299910.0 -0.2330349632 0.0296020299 0.4806715157 0.0076993574 0.4806189793 0.007796789 -0.2375980314 0.0262345107
20299880.0 -0.2276047343 0.0379413875 0.4855399925 0.0079901418 0.4853204035 0.0079767414 -0.2329797528 0.0341261073
25299850.0 -0.2217254928 0.0441985229 0.4905479769 0.0068782779 0.4906146482 0.0071005731 -0.2281012999 0.0398258854
30299820.0 -0.2159860358 0.0492860274 0.4962965556 0.0053223955 0.4956211821 0.0050403613 -0.2225178134 0.0449669762
35299790.0 -0.2099017184 0.0538314908 0.5008861327 0.0018426814 0.5011050517 0.0019769478 -0.2175976596 0.0486003923
40299760.0 -0.20458448 0.0570044794 0.506339516 -0.0023191151 0.506636356 -0.0022424872 -0.2127411802 0.0520003599
45299730.0 -0.1994769261 0.0601735368 0.5111580757 -0.0071101274 0.5112731596 -0.0072444542 -0.2081930688 0.0545795926
50299700.0 -0.1945714379 0.0621141005 0.5149531133 -0.012950337 0.5152123634 -0.0125374263 -0.2036190401 0.0564365949
55299670.0 -0.1905376946 0.0638178786 0.5184449869 -0.0186359257 0.5188431895 -0.0182461441 -0.2004290579 0.0580387449
60299640.0 -0.1864396425 0.064825027 0.521794986 -0.0250034283 0.5222486115 -0.0250568641 -0.1961918588 0.0596689061
65299610.0 -0.1832482563 0.0664699911 0.5254637957 -0.030674496 0.5255131479 -0.0308190338 -0.1928758769 0.0607503107
70299580.0 -0.1795487514 0.0670782387 0.5269085751 -0.0375451389 0.5278898631 -0.0379096663 -0.1902374045 0.0616376736
75299550.0 -0.1766374997 0.0683737485 0.529086364 -0.0448189611 0.5294143622 -0.044541619 -0.1871628258 0.0625866483
80299520.0 -0.1742135334 0.0690658351 0.5316229903 -0.0512302924 0.5315827384 -0.051390883 -0.1848503168 0.0629172856
85299490.0 -0.1713631772 0.0694501091 0.5329039889 -0.0585522285 0.5323393555 -0.0582760663 -0.1826553254 0.0635706319
90299460.0 -0.1694369819 0.0702576151 0.5334159197 -0.0649635333 0.5339419332 -0.0653274455 -0.1802620421 0.0642664742
95299430.0 -0.1672084264 0.071187814 0.5347422628 -0.0725718402 0.5346589843 -0.0721113391 -0.1786404155 0.0649325281
100299400.0 -0.165524731 0.072083184 0.5346243596 -0.0787393706 0.534720065 -0.0792715755 -0.1766538051 0.0655674337
105299370.0 -0.1633199052 0.0724114109 0.5347192308 -0.0857558259 0.53525223 -0.086214712 -0.1750274828 0.0662872516
110299340.0 -0.1620159565 0.0729955331 0.5348067972 -0.0923400153 0.5354114403 -0.0930225761 -0.1738786563 0.0669385548
115299310.0 -0.1602258781 0.0735157538 0.5350272557 -0.0991312072 0.5353027443 -0.0993566625 -0.1719045377 0.0670280783
120299280.0 -0.1593417429 0.0744315677 0.5350996001 -0.1059516963 0.5350689575 -0.1064308658 -0.1710068077 0.0678464911
125299250.0 -0.1577717206 0.0752565663 0.5346478218 -0.1132592532 0.5349744507 -0.113155493 -0.1699539404 0.0683365057
130299220.0 -0.156568392 0.0760399021 0.5341472233 -0.119110187 0.5340666149 -0.1202745806 -0.1688777572 0.0693265727
135299190.0 -0.1551581956 0.0767652171 0.5329073805 -0.1259319232 0.533034976 -0.1261126392 -0.1680253904 0.0700815052
140299160.0 -0.1545170213 0.0781543824 0.5328501258 -0.1329209782 0.5328322339 -0.1330615458 -0.1669012521 0.0712000501
145299130.0 -0.1529557333 0.0788600162 0.532008852 -0.1395982287 0.5313052279 -0.1394621197 -0.1660561542 0.0714713199
150299100.0 -0.15199319 0.0798411978 0.5305471392 -0.1463267055 0.5303537348 -0.1460632173 -0.1648698931 0.0725730008
155299070.0 -0.1511323707 0.0815196488 0.5291466661 -0.1529822661 0.5293955101 -0.1531430442 -0.1644481369 0.0735544103
160299040.0 -0.1499863444 0.0821937256 0.5276427233 -0.1586692557 0.5278249596 -0.1590711646 -0.1634008952 0.0749750928
165299010.0 -0.1493330094 0.0831459399 0.5268220754 -0.1652344127 0.5270456145 -0.1655440043 -0.1627720634 0.0754329223
170298980.0 -0.1485362451 0.0844099337 0.5242761773 -0.1719936977 0.5249179727 -0.1717966319 -0.1614359526 0.0762815937
175298950.0 -0.1473448845 0.0857316601 0.5237030713 -0.1776902536 0.5236724552 -0.1779064411 -0.160904797 0.0774729754
180298920.0 -0.1464125441 0.0868537027 0.521840003 -0.1844081477 0.5219565448 -0.1840562365 -0.1600817038 0.0786308326
185298890.0 -0.1452732677 0.0878963476 0.5196136848 -0.1904466281 0.519669367 -0.1905668889 -0.1598674672 0.0797132049
190298860.0 -0.14441374 0.0891004561 0.5178036443 -0.1969918348 0.5180021946 -0.1964901716 -0.1581717032 0.0809108092
195298830.0 -0.143460229 0.0901638325 0.5160539934 -0.2024594052 0.5159013651 -0.2032836813 -0.1578000914 0.0821152703
200298800.0 -0.1425865447 0.0916383367 0.5137701241 -0.2084409752 0.5137280448 -0.2088464679 -0.1567906382 0.0832568488
205298770.0 -0.1414816166 0.0930520029 0.511981799 -0.2145659651 0.5118556681 -0.2147892236 -0.1563627398 0.0843180679
210298740.0 -0.140807727 0.094024837 0.5095257926 -0.2209636112 0.5092921774 -0.2212598697 -0.1553883986 0.0855815283
215298710.0 -0.1398480278 0.0956736533 0.5072381073 -0.2265053845 0.507047066 -0.2266453271 -0.1550456418 0.0867091342
220298680.0 -0.1388185033 0.0971176245 0.5046273896 -0.232981351 0.5048340021 -0.2327263803 -0.1538976057 0.0884238855
225298650.0 -0.1377042067 0.0981921814 0.5018117865 -0.2382286532 0.5022816371 -0.2382397883 -0.1534398425 0.0891976051
230298620.0 -0.1371432206 0.1001138399 0.5001491793 -0.2446252435 0.500020619 -0.2446653219 -0.1522441801 0.0905776056
235298590.0 -0.1358615863 0.100784052 0.4970300391 -0.2497887056 0.4972617802 -0.2505385735 -0.1516767974 0.0916788471
240298560.0 -0.1348501599 0.1026242332 0.4943796205 -0.2555769353 0.4946371531 -0.2553585812 -0.1509759724 0.0932551016
245298530.0 -0.1335090817 0.1040373006 0.4908449 -0.2616127165 0.491712518 -0.2614599658 -0.150063223 0.0945132541
250298500.0 -0.1330321822 0.1052219995 0.4886375652 -0.2668150515 0.4889575777 -0.2665400778 -0.1487361867 0.0958741606
255298470.0 -0.1319738489 0.1067175593 0.4859178867 -0.2727514258 0.4857443534 -0.2725028222 -0.1479473014 0.0969817773
260298440.0 -0.13077856 0.1081897518 0.4832157241 -0.2777466618 0.4828194922 -0.2781636204 -0.1468208025 0.0983027832
265298410.0 -0.1294985993 0.1097112541 0.4793548772 -0.2838516039 0.4796062702 -0.2839352957 -0.1465123535 0.0995785163
270298380.0 -0.1284277724 0.1111587218 0.4762899351 -0.2893930862 0.4768299914 -0.2891977065 -0.1454750684 0.1013291712
275298350.0 -0.1277346936 0.1124117118 0.4736611219 -0.2946820894 0.4742794781 -0.2949066413 -0.1446854808 0.1027475502
280298320.0 -0.1262082029 0.1140456859 0.4702882329 -0.2994982513 0.4704067006 -0.3001248877 -0.1434811229 0.1040389689
285298290.0 -0.1249899782 0.1155985131 0.4670442608 -0.3050422693 0.4672479261 -0.3049890785 -0.1426983238 0.1055313541
290298260.0 -0.1237683254 0.1168611303 0.4642196453 -0.310647952 0.4638898271 -0.3107419017 -0.1413121923 0.1068478253
295298230.0 -0.1224401573 0.1179841942 0.4605327838 -0.3160591626 0.4603024642 -0.3160699868 -0.1402249593 0.1081145715
300298200.0 -0.1208733981 0.1193858648 0.4567204239 -0.3211851512 0.456966481 -0.3213907599 -0.139388409 0.1097120869
305298170.0 -0.1197886281 0.1208423417 0.4541674602 -0.3267743485 0.453834689 -0.3268317607 -0.1379767074 0.1111007299
310298140.0 -0.1182853101 0.1216561137 0.4504912811 -0.3316149279 0.4502115338 -0.3321608313 -0.1372189207 0.1127343468
315298110.0 -0.1171686376 0.1234096256 0.4466448081 -0.3368897521 0.4468471087 -0.3368573077 -0.1357155212 0.1135673597
320298080.0 -0.1159835026 0.1246648548 0.4427793778 -0.3419142258 0.4427857967 -0.3421968745 -0.1346863507 0.1147987379
325298050.0 -0.1147697078 0.1256569117 0.4394505859 -0.3472632131 0.4390826002 -0.3472382885 -0.134141756 0.1159785308
330298020.0 -0.1132989165 0.1272936042 0.4345137279 -0.3523138472 0.4350114303 -0.3521087746 -0.1331583116 0.1172089258
335297990.0 -0.1121778514 0.1281545649 0.4307076375 -0.3568782519 0.4305985899 -0.357182549 -0.1318462417 0.118610895
340297960.0 -0.1111427854 0.1298453637 0.4266796869 -0.3615700531 0.4268778469 -0.3620305429 -0.1310331161 0.1201591429
345297930.0 -0.1101504274 0.1311792279 0.422638793 -0.3657515778 0.4220822298 -0.3659813784 -0.129798924 0.1211285901
350297900.0 -0.1083184874 0.1325637679 0.418436404 -0.3702594264 0.4188124114 -0.3709904439 -0.129063364 0.1230214872
355297870.0 -0.107367645 0.1338907997 0.414607452 -0.3751193288 0.4145402197 -0.3757143726 -0.1278661858 0.1246948125
360297840.0 -0.105623111 0.1350764285 0.4104096761 -0.380081114 0.4099599006 -0.380167543 -0.1266672767 0.1260550884
365297810.0 -0.1037784867 0.1364238462 0.4057050247 -0.3846288794 0.4060918382 -0.3845675937 -0.1256911344 0.1275161019
370297780.0 -0.1025715032 0.1376724662 0.4017738322 -0.3890592615 0.4019369611 -0.3892274088 -0.1243886864 0.1288418308
375297750.0 -0.1011843498 0.1391955486 0.397887998 -0.3935451595 0.3975276929 -0.3937529271 -0.1232537935 0.1304641164
380297720.0 -0.099687476 0.1402170399 0.3932318949 -0.3976488406 0.3930835557 -0.3977454912 -0.1218814857 0.131861667
385297690.0 -0.0981648312 0.1418680301 0.3886894247 -0.4017399682 0.3886796493 -0.4021359722 -0.1207415003 0.133378668
390297660.0 -0.0966292191 0.1428476371 0.3838387874 -0.4063697672 0.3842966951 -0.4065619922 -0.1193202302 0.1343177124
395297630.0 -0.0946825454 0.1438111889 0.3797490967 -0.4101585014 0.3797174742 -0.410197715 -0.1182977921 0.1362206708
400297600.0 -0.0934755573 0.1452430019 0.3749762639 -0.414805005 0.3752923593 -0.4147739602 -0.1174070489 0.1368118985
405297570.0 -0.0917444654 0.1463446738 0.3705944772 -0.4191144581 0.3705811132 -0.4191297835 -0.1160729978 0.1388678336
410297540.0 -0.0900095975 0.1475117499 0.3658235304 -0.4226245459 0.3659770924 -0.4228380735 -0.1145673536 0.1398013973
415297510.0 -0.0887113149 0.1487731565 0.3614735685 -0.4262745124 0.3614756105 -0.4269311984 -0.1132419258 0.1416719491
420297480.0 -0.0870029278 0.149833726 0.3565963215 -0.43073712 0.3567388215 -0.4306642881 -0.1114560238 0.1423410673
425297450.0 -0.084702987 0.1506340913 0.3517208212 -0.4345209542 0.3521769974 -0.4345776678 -0.1101836992 0.1440293481
430297420.0 -0.0835305625 0.1520164731 0.3472022404 -0.4385891597 0.3474974489 -0.4386522984 -0.1091787468 0.1450079564
435297390.0 -0.0816570186 0.1527695847 0.3427892094 -0.4417314412 0.34274476 -0.4419859793 -0.1076294556 0.1464762457
440297360.0 -0.0800602959 0.1541189913 0.3370356381 -0.4456002955 0.3370478154 -0.4460201848 -0.1065305891 0.1474340234
445297330.0 -0.0778014129 0.1550427563 0.332259904 -0.449995418 0.3324056197 -0.4492375548 -0.1048645509 0.1487445037
450297300.0 -0.0763145875 0.1561677227 0.3274220527 -0.4532698206 0.3279516602 -0.4532007284 -0.1038908001 0.1501035309
455297270.0 -0.0746917431 0.1570767719 0.322950255 -0.4565538209 0.3233125738 -0.456442708 -0.1019651965 0.1511759524
460297240.0 -0.07345134 0.1579607204 0.3176972979 -0.4600596453 0.3174531585 -0.4601445026 -0.1004385138 0.1526677251
465297210.0 -0.0711192648 0.1587527398 0.3125641457 -0.4637154188 0.3128900234 -0.4634290871 -0.0993158895 0.1534211251
470297180.0 -0.069639904 0.1596295942 0.3079415347 -0.466876199 0.3078641501 -0.4671083955 -0.0984053992 0.154755825
475297150.0 -0.0679340882 0.1605624543 0.3025260864 -0.4696969852 0.302802437 -0.4698332325 -0.0964257319 0.1560141086
480297120.0 -0.0659360858 0.1612591672 0.2971667101 -0.4731722815 0.2976111941 -0.473235018 -0.0952440411 0.1573713402
485297090.0 -0.0638909171 0.1623248406 0.2922975554 -0.4766396739 0.2923985521 -0.4767910776 -0.093872865 0.1581363246
490297060.0 -0.0620591421 0.1628256288 0.2868170354 -0.4797399334 0.2872319634 -0.4794112632 -0.0921222615 0.1592091004
495297030.0 -0.060525857 0.1642008675 0.2814632298 -0.4824946056 0.2815647327 -0.4828215105 -0.0906037726 0.1600704992
500297000.0 -0.0586600728 0.1646345977 0.2760807872 -0.4858040472 0.2768672621 -0.4855213065 -0.0893959947 0.1611377567
505296970.0 -0.0568162822 0.1655444999 0.2707621259 -0.4883518717 0.2708637333 -0.4887674906 -0.0879692962 0.1626305689
510296940.0 -0.0549482252 0.166428244 0.2658327001 -0.4917278536 0.2659440119 -0.4915071987 -0.0861436563 0.163957594
515296910.0 -0.0532077985 0.1671366347 0.2599696326 -0.4943408354 0.2604962076 -0.4944501213 -0.0850304439 0.1643523308
520296880.0 -0.0512427193 0.1676893106 0.2548390159 -0.4970706944 0.2550312043 -0.4971031607 -0.0830825893 0.1657230238
525296850.0 -0.0496944325 0.1683734138 0.2494952453 -0.4996869648 0.2498256061 -0.5002528737 -0.0812223159 0.1667226087
530296820.0 -0.0475921736 0.1692343278 0.2442675547 -0.5018262546 0.2443427524 -0.5022004347 -0.0804479351 0.1673499467
535296790.0 -0.0457839554 0.1698087957 0.2386883962 -0.5047489 0.2393170967 -0.5048115798 -0.0785641386 0.1681029384
540296760.0 -0.0438457505 0.170073606 0.2332745036 -0.5077878408 0.2329520573 -0.5077321364 -0.0770875604 0.1695478381
545296730.0 -0.042017116 0.1710622842 0.2274510431 -0.5096122227 0.2278722037 -0.5100889923 -0.0756492504 0.1700855501
550296700.0 -0.0402674468 0.1716941689 0.2219413245 -0.5125749129 0.2224637529 -0.5127758989 -0.07403127 0.1713364486
555296670.0 -0.0378469247 0.1720290351 0.2162990678 -0.5148117058 0.2165515296 -0.5149417392 -0.0726340273 0.1721156119
560296640.0 -0.0360308031 0.1726269788 0.2109280792 -0.5171975275 0.2110098624 -0.5169174848 -0.0707502402 0.173010999
565296610.0 -0.0345071516 0.1730865273 0.2055129496 -0.5191861794 0.2051376135 -0.5190254455 -0.0691913444 0.1737089615
570296580.0 -0.0321792007 0.1737892433 0.1995678773 -0.5215115456 0.2001265688 -0.5216725269 -0.0675147495 0.1751119771
575296550.0 -0.0303125847 0.1744899979 0.1941691084 -0.5234598848 0.1941644461 -0.5234337183 -0.0654733642 0.1755663557
580296520.0 -0.0287062137 0.1745966025 0.1885095496 -0.5252669745 0.1885472998 -0.5256659713 -0.0641968713 0.1762767692
585296490.0 -0.0263784025 0.1749830746 0.1831235223 -0.5276338184 0.1829455661 -0.5277049699 -0.0625952981 0.1764341931
590296460.0 -0.0248166305 0.1750678744 0.1770570105 -0.5289603111 0.1766495717 -0.5299305598 -0.0607610337 0.1778165653
595296430.0 -0.0228152348 0.1760821144 0.1715064261 -0.53107327 0.1714022707 -0.5315557557 -0.0589890858 0.1783952503
600296400.0 -0.0206690067 0.1764219167 0.1653305229 -0.5329234378 0.1656385353 -0.5330189572 -0.0572017943 0.1793957164
605296370.0 -0.0184717972 0.1771013906 0.1600817069 -0.5350317879 0.159707524 -0.5346393723 -0.0557569079 0.1797403573
610296340.0 -0.0167047708 0.1770570304 0.1542284835 -0.5367172188 0.1543186537 -0.5368219463 -0.0540578889 0.1810449692
615296310.0 -0.0148815827 0.177871976 0.1481878772 -0.5377677113 0.1482370307 -0.5385349063 -0.0522026339 0.181305019
620296280.0 -0.013152282 0.1775744363 0.1424341855 -0.5391716275 0.1425208247 -0.539634343 -0.0508035286 0.1816620164
625296250.0 -0.0106222154 0.1781516536 0.1360817216 -0.5413267448 0.1362897257 -0.541382369 -0.0488621633 0.1823710545
630296220.0 -0.0087995413 0.1784366472 0.1302470983 -0.5428982224 0.1311754929 -0.5425532662 -0.0474575135 0.1832200034
635296190.0 -0.0067722492 0.1785632835 0.1246831254 -0.5435166536 0.1244376786 -0.5435807093 -0.0454948155 0.1835411873
640296160.0 -0.0050677426 0.1783496887 0.119015441 -0.544778567 0.1188706713 -0.5451980455 -0.0433038353 0.1843094459
645296130.0 -0.002929089 0.1791302862 0.1130122138 -0.5466313182 0.1133954668 -0.5466791531 -0.0425904541 0.1845347926
650296100.0 -0.0008174782 0.1796261542 0.1073506152 -0.5475248206 0.107531757 -0.5471387479 -0.0405035257 0.1852438476
655296070.0 0.0009042992 0.1792355016 0.1014320874 -0.5485907419 0.1013943473 -0.5484084335 -0.0381405435 0.1862535138
660296040.0 0.0025051224 0.1798191832 0.0956439767 -0.5491855948 0.095404722 -0.5491829016 -0.0369698087 0.1861965306
665296010.0 0.0049249572 0.1795345585 0.0893689315 -0.5502957824 0.0898624985 -0.5504660833 -0.03512557 0.1870468038
670295980.0 0.0074597298 0.1799643498 0.0835116532 -0.5513005869 0.0836831997 -0.5515248805 -0.0335526746 0.1871504708
675295950.0 0.0090660415 0.179717125 0.077284509 -0.5522531538 0.0779769951 -0.5528887795 -0.0313392837 0.1880405022
680295920.0 0.011080194 0.1802392091 0.071705483 -0.5529914819 0.0719159322 -0.5532381608 -0.0295650788 0.188387808
685295890.0 0.0129528503 0.1799608895 0.0659889499 -0.5534698658 0.0655499445 -0.5541413206 -0.0274627802 0.1890483479
690295860.0 0.0152963579 0.1801243399 0.0593648644 -0.5538806404 0.0593425941 -0.5539907424 -0.025546843 0.1892443519
695295830.0 0.0177371337 0.1797126733 0.0525946257 -0.5546801721 0.0534379816 -0.5549669939 -0.0242721645 0.1899488827
700295800.0 0.0194458483 0.1798581475 0.047538235 -0.5555125593 0.0477729 -0.5554303337 -0.0222149046 0.18980852
705295770.0 0.0214748877 0.1798682713 0.0412443943 -0.5559306723 0.0419185693 -0.5562430479 -0.0205933942 0.1905868329
710295740.0 0.0233617977 0.1800030595 0.0354278442 -0.5560118838 0.035610556 -0.5560569986 -0.0192208763 0.1910964693
715295710.0 0.0252461204 0.1797016254 0.0295075606 -0.5565169488 0.0298694273 -0.5567767249 -0.0169985438 0.1907823707
720295680.0 0.0272854611 0.1792090176 0.0232530099 -0.5564036786 0.023801802 -0.5573249938 -0.0147595438 0.1915214464
725295650.0 0.0294780878 0.1795296452 0.0175048457 -0.5565242399 0.0173456798 -0.557232 -0.0129991441 0.1919908068
730295620.0 0.0312501652 0.1791964049 0.01145858 -0.5568883586 0.0115006873 -0.5573148168 -0.0113963297 0.1919744158
735295590.0 0.0337215571 0.1786932172 0.0059111874 -0.5569986073 0.0060002359 -0.5575241186 -0.0095635187 0.1923839706
740295560.0 0.0356290833 0.1787917371 -0.0007641041 -0.5566050921 -0.0005249838 -0.5573505692 -0.0074644044 0.1921400251
745295530.0 0.0373956786 0.1780466086 -0.0064173182 -0.5570973452 -0.0058879127 -0.557611988 -0.0057280787 0.1926984753
750295500.0 0.039416594 0.1782696237 -0.0121463222 -0.5570175181 -0.0120158242 -0.5568530888 -0.0038746054 0.1926756156
755295470.0 0.0418796651 0.1780745395 -0.0183194145 -0.5569859687 -0.0182005537 -0.557173084 -0.0022236667 0.1934347607
760295440.0 0.0436206972 0.1777601981 -0.0246362266 -0.5561119087 -0.0241012128 -0.5570851751 -0.0008492782 0.1931147906
765295410.0 0.0451769942 0.1770194639 -0.0294316554 -0.5557683276 -0.0301880349 -0.5565314303 0.0019655146 0.193824505
770295380.0 0.0475100083 0.176876857 -0.0363338005 -0.5556911563 -0.0363012302 -0.5561900253 0.0036322813 0.1937276732
775295350.0 0.049388304 0.1766249744 -0.0423225931 -0.5551382206 -0.0419231747 -0.555198536 0.0050221039 0.1933468272
780295320.0 0.0515269019 0.1760126766 -0.0481029227 -0.5548911055 -0.047887551 -0.5551474938 0.0070499288 0.1939308532
785295290.0 0.0534585044 0.1758229247 -0.0539948719 -0.5536810285 -0.054034613 -0.5544167866 0.0085800174 0.1939745591
790295260.0 0.0553421735 0.1754037924 -0.0596630694 -0.5536851981 -0.0600746926 -0.5539433047 0.0109283577 0.1938747554
795295230.0 0.0570682032 0.1749694331 -0.0654668392 -0.5525390705 -0.0658185954 -0.5530271518 0.012744951 0.194566944
800295200.0 0.0594332925 0.1747275288 -0.072506131 -0.5524613379 -0.0724934244 -0.5524429988 0.0146496385 0.1941347397
805295170.0 0.0611434109 0.1742060154 -0.078118986 -0.5511010875 -0.0776279543 -0.5510427526 0.0162210497 0.1938139533
810295140.0 0.0632593774 0.1733780966 -0.0839454827 -0.5500424586 -0.0833997769 -0.5508778971 0.0182125253 0.1944472592
815295110.0 0.0651340922 0.1729674214 -0.0897080985 -0.5488115944 -0.0895552288 -0.5496427891 0.0198928738 0.1942642918
820295080.0 0.0672103537 0.1720782809 -0.0955188429 -0.5483390467 -0.0954324707 -0.5484363328 0.0218047714 0.1940999178
825295050.0 0.0690162276 0.1715432584 -0.1011492241 -0.5467618373 -0.1014770417 -0.5471103904 0.024067083 0.1941054833
830295020.0 0.0711782356 0.1713020952 -0.1077508293 -0.5458989063 -0.1078784818 -0.5463263886 0.0257649406 0.1937431289
