!Created with skrf (http://scikit-rf.org).
# Hz S RI R 50.0 
!freq ReS11 ImS11 ReS21 ImS21 ReS12 ImS12 ReS22 ImS22
300000.0 -0.320462342 -0.0843236614 0.3745761326 0.0431850461 0.3715839546 0.0431625583 -0.3163713458 -0.0990453323
5299970.0 -0.3265852282 0.0042022902 0.3779900337 0.0022966298 0.3782435468 0.002637019 -0.3241604105 0.0046798738
10299940.0 -0.3243371063 0.0131068203 0.3794893753 0.0021493871 0.379549361 0.0024777756 -0.3216030318 0.0159647132
15299910.0 -0.3214033401 0.0203038163 0.3818623444 0.0019152462 0.3818218435 0.0022374276 -0.3182943493 0.0235741793
20299880.0 -0.3185903389 0.0261510628 0.3846925128 0.0018720242 0.3848505821 0.0015217425 -0.3146332583 0.0304352302
25299850.0 -0.3157426487 0.0317010935 0.3882032884 0.0001903998 0.3880214991 0.0002661109 -0.3108107418 0.0358980959
30299820.0 -0.3128332996 0.035677817 0.3914131514 -0.0023271677 0.3911465483 -0.0025393916 -0.3071074219 0.0409272844
35299790.0 -0.3098442921 0.0398305207 0.3947820511 -0.0055095517 0.3947313641 -0.005291735 -0.3034423882 0.0449544028
40299760.0 -0.3073896774 0.0432934439 0.3979938129 -0.0089641109 0.3980630354 -0.0086594918 -0.3002580478 0.048338101
45299730.0 -0.3045388232 0.0464205492 0.4007329933 -0.0125734323 0.4012493166 -0.0123784501 -0.2973171581 0.051771006
50299700.0 -0.302608733 0.0493318665 0.4037722825 -0.017059712 0.4035237225 -0.017172536 -0.2942256075 0.05439641
55299670.0 -0.3002894116 0.0519467717 0.4058417382 -0.0220747326 0.40567357 -0.0220980781 -0.291929374 0.0575343278
60299640.0 -0.297842182 0.0550963806 0.4074276275 -0.027322052 0.4076667261 -0.0266434699 -0.2891331399 0.0594383231
65299610.0 -0.2961932016 0.0570707884 0.4089401998 -0.0318397033 0.4093291061 -0.0317718454 -0.2869859373 0.0616625594
70299580.0 -0.2947389681 0.0600519259 0.4101632757 -0.0371448027 0.4104647891 -0.0368398397 -0.2850597428 0.0637793498
75299550.0 -0.2927825469 0.0623757133 0.411312326 -0.0421360916 0.4111578546 -0.0422106397 -0.283034225 0.0657819174
80299520.0 -0.2919858741 0.0648553235 0.4125709562 -0.0476790085 0.412358228 -0.0475075571 -0.2815997569 0.0680417655
85299490.0 -0.290143283 0.0668685638 0.4127100576 -0.0523135856 0.4128088117 -0.0523915448 -0.2803394335 0.0698519317
90299460.0 -0.2888633192 0.0692204825 0.412628949 -0.0577505054 0.4132531637 -0.0577049963 -0.2783605226 0.0719921901
95299430.0 -0.287028551 0.0714544404 0.413388777 -0.0630171342 0.4135335715 -0.0632077466 -0.2767030211 0.0743705624
100299400.0 -0.2864235676 0.0740809962 0.4132325221 -0.0679355068 0.4132988448 -0.0682362285 -0.2750378616 0.076047751
105299370.0 -0.2851940183 0.0763917272 0.4132913758 -0.0735595954 0.4134745656 -0.0736637927 -0.2738285217 0.0779972641
110299340.0 -0.2840951487 0.0786414453 0.4132483806 -0.0786125168 0.4133195435 -0.0782669802 -0.2728051968 0.080121664
115299310.0 -0.2828759423 0.0812279872 0.4128518392 -0.0838661153 0.4127743186 -0.0837989111 -0.2715014516 0.0824895116
120299280.0 -0.2822976454 0.0832377372 0.4121311466 -0.0889164998 0.4123393941 -0.0890932856 -0.2705211524 0.0847318511
125299250.0 -0.2810344241 0.0855823468 0.4117735319 -0.0937772697 0.4120152235 -0.0935860038 -0.26971505 0.0866001257
130299220.0 -0.2801293564 0.0882179487 0.4110035785 -0.0991899817 0.411239231 -0.0993680091 -0.2684274515 0.0886584264
135299190.0 -0.2792905199 0.0905685998 0.4105996682 -0.1042221847 0.4105459919 -0.103809949 -0.2673337216 0.0908518954
140299160.0 -0.2783328541 0.0931171581 0.4096044901 -0.1093656646 0.4097996599 -0.1090622592 -0.2660329914 0.093522948
145299130.0 -0.2773046629 0.0956368083 0.4086653741 -0.1138210489 0.4085587957 -0.1140247892 -0.2650423861 0.0958768257
150299100.0 -0.2761935546 0.0983061092 0.407570578 -0.1185508807 0.4079825654 -0.1184363541 -0.2644088212 0.0984331273
155299070.0 -0.275896847 0.1006890092 0.4067919625 -0.1239730721 0.4067713451 -0.1237101898 -0.2631288804 0.1008254663
160299040.0 -0.2747492138 0.1034650906 0.4054842641 -0.1289567138 0.4053071315 -0.1287288852 -0.2625690865 0.1032594009
165299010.0 -0.2738158018 0.1061429556 0.4043429873 -0.1338795499 0.404389226 -0.1336773206 -0.2611630001 0.1057755692
170298980.0 -0.2727326102 0.108657843 0.4026903411 -0.138242324 0.4033002974 -0.138131045 -0.2603134134 0.1080211331
175298950.0 -0.2718233052 0.1111618823 0.4017417414 -0.1429443536 0.401189241 -0.1428858959 -0.2594716852 0.110506318
180298920.0 -0.2708336879 0.1139232231 0.39998408 -0.1477879149 0.4002040262 -0.1476284428 -0.258440355 0.1133781047
185298890.0 -0.2694920321 0.1164906674 0.3985109768 -0.1524465023 0.3982063676 -0.1524906343 -0.2571653305 0.1156531871
190298860.0 -0.2686168984 0.1192951087 0.3968849743 -0.1574351857 0.3970369439 -0.1570781514 -0.2562577555 0.1182680095
195298830.0 -0.2677200134 0.1217904483 0.3953582554 -0.1618798831 0.3952435615 -0.1618390213 -0.255078788 0.1209553101
200298800.0 -0.2662214324 0.1244652511 0.3934087642 -0.1667520668 0.3936114552 -0.1666096946 -0.2545626395 0.1234656297
205298770.0 -0.2653623026 0.1274339291 0.3915166936 -0.1715291741 0.3918029161 -0.1706357759 -0.2533372047 0.1256319425
210298740.0 -0.264115791 0.1298343248 0.3897921693 -0.1752950209 0.3897687722 -0.1754739687 -0.2515787547 0.1290304217
215298710.0 -0.2634766321 0.1325293541 0.3877990262 -0.1803041712 0.3879055588 -0.1803525783 -0.251286691 0.1310526337
220298680.0 -0.2619780727 0.1349565358 0.3855081752 -0.1842683623 0.3858434009 -0.1847056763 -0.2500226727 0.1333516066
225298650.0 -0.2609312572 0.1377444944 0.3835129678 -0.1890572752 0.3843855507 -0.1890078122 -0.2491069981 0.1359062474
230298620.0 -0.2595434089 0.1408853772 0.3819105905 -0.1932620304 0.3823460064 -0.1933476781 -0.248039122 0.1383510253
235298590.0 -0.2584149012 0.143782177 0.3797771356 -0.1977885738 0.3799105424 -0.1976229667 -0.246449993 0.1414747515
240298560.0 -0.2570472093 0.1465880172 0.3780322476 -0.2025114124 0.3779910467 -0.2024603604 -0.2454347978 0.1440609465
245298530.0 -0.2557544837 0.149325524 0.3756150041 -0.2067489296 0.3757215392 -0.2067816573 -0.2438317065 0.1459819007
250298500.0 -0.254076249 0.1516012852 0.372685767 -0.2108137801 0.3730222499 -0.2103061233 -0.2427672274 0.1486861911
255298470.0 -0.2530198268 0.154032882 0.3706621377 -0.2148475422 0.3707050089 -0.2150372782 -0.2409797649 0.1511014046
260298440.0 -0.2516572069 0.1568929019 0.3684220904 -0.2193212316 0.3685490539 -0.2187280613 -0.2398247605 0.1534599688
265298410.0 -0.2497299909 0.1599308735 0.365945164 -0.2237239348 0.3663171864 -0.2227775283 -0.2380420745 0.1561562714
270298380.0 -0.2485398293 0.1625083462 0.3638572807 -0.2274863276 0.3635941179 -0.2275292387 -0.236573656 0.1586895784
275298350.0 -0.2468251236 0.1650238808 0.3609739273 -0.2315821441 0.3614108748 -0.2316873174 -0.2353230374 0.1607913263
280298320.0 -0.2452060774 0.1678423838 0.3588445743 -0.2355675321 0.358445131 -0.235293386 -0.2333148167 0.1636267229
285298290.0 -0.2434788337 0.1708177324 0.3560772169 -0.239645235 0.3558852251 -0.2394534767 -0.2318795233 0.1661261357
290298260.0 -0.2418034638 0.1731269084 0.3533077644 -0.2433951676 0.35343554 -0.2436084457 -0.2301695612 0.1688152787
295298230.0 -0.2399360555 0.1757408599 0.3505293691 -0.2480200377 0.3508176012 -0.2476838489 -0.2282632737 0.1706743535
300298200.0 -0.2385808691 0.1783014174 0.3480760241 -0.2511714108 0.348386766 -0.2520243086 -0.2268665932 0.1736142569
305298170.0 -0.2362793806 0.1806128746 0.3449745924 -0.255801971 0.3450128668 -0.2555746424 -0.224291326 0.1758723391
310298140.0 -0.234850494 0.1834043518 0.3425295189 -0.2596068262 0.3425911776 -0.2593658027 -0.2229888739 0.178273099
315298110.0 -0.2331254877 0.1857884707 0.3393261279 -0.2632459598 0.339702127 -0.26323022 -0.2212588209 0.1805329045
320298080.0 -0.2310241547 0.1881856152 0.3358341625 -0.2674418738 0.3366549903 -0.2673933149 -0.2194551136 0.1829731482
325298050.0 -0.2294318873 0.1908260637 0.333310941 -0.2712373729 0.3335644492 -0.2712416715 -0.2180112974 0.1853699402
330298020.0 -0.2274889259 0.1930069738 0.3300842903 -0.2750425495 0.3304514218 -0.2749375611 -0.2161293912 0.187936771
335297990.0 -0.2257150989 0.1956193904 0.3271051755 -0.2785807762 0.3269941252 -0.2786365943 -0.2147097003 0.1905179681
340297960.0 -0.2242025923 0.1982495175 0.3237158025 -0.2821904218 0.3236011568 -0.2824497111 -0.2122168936 0.1929568153
345297930.0 -0.2222344184 0.2006701902 0.3205114944 -0.2857643469 0.320650903 -0.285860937 -0.2108962971 0.1951320893
350297900.0 -0.2201797833 0.2030752762 0.3169891362 -0.2891632544 0.3173596356 -0.2891717637 -0.2087947276 0.1979902925
355297870.0 -0.2180110242 0.2059795653 0.3142347835 -0.2927089863 0.3142500062 -0.2925262538 -0.2069978422 0.1999275103
360297840.0 -0.2160075364 0.2084034115 0.3110202918 -0.295993448 0.3115965453 -0.2959297808 -0.2049192136 0.202788807
365297810.0 -0.2141989847 0.2108274488 0.3078118213 -0.2996943865 0.3078509138 -0.2995836623 -0.2026801562 0.2048541023
370297780.0 -0.2116821674 0.2132850276 0.3041902609 -0.3025696023 0.3047369839 -0.3026513459 -0.2009038888 0.2074295381
375297750.0 -0.2092761475 0.2156323165 0.3007767913 -0.3064316345 0.3011959557 -0.3062084597 -0.1990157951 0.2091542802
380297720.0 -0.2075550643 0.2175893731 0.2976125843 -0.3095214586 0.2974967773 -0.3090917056 -0.1971380395 0.2116418862
385297690.0 -0.2056486864 0.2202589327 0.2940323672 -0.312708208 0.2941879598 -0.3129077581 -0.1945808928 0.2139181944
390297660.0 -0.2030047414 0.2227971501 0.290502926 -0.3162430341 0.2907560539 -0.3156725497 -0.1926418159 0.2166344977
395297630.0 -0.2007661604 0.2249969502 0.2872346274 -0.319057637 0.2871907779 -0.3193122257 -0.1900891392 0.2186812334
400297600.0 -0.1984097761 0.2272613254 0.2833838318 -0.3222420403 0.2836781134 -0.322424217 -0.1880192388 0.2209338361
405297570.0 -0.1963255568 0.2294942525 0.2797704743 -0.3252644201 0.2802092887 -0.3249624165 -0.1859791841 0.2228041146
410297540.0 -0.1936723191 0.2316727114 0.2765050477 -0.3284778572 0.2769441882 -0.3284973841 -0.1838319303 0.2248596833
415297510.0 -0.1912063884 0.2338092068 0.2727527729 -0.3317688837 0.2732205893 -0.3316637945 -0.181287815 0.2270776424
420297480.0 -0.189337868 0.2362838407 0.2691976547 -0.3345762063 0.2690081156 -0.334775766 -0.1795095636 0.2290412939
425297450.0 -0.1864459257 0.2383595989 0.2655507918 -0.3373154559 0.265743153 -0.3373649862 -0.1770930841 0.231457179
430297420.0 -0.1845359184 0.2404515783 0.2616580003 -0.3401397484 0.2618241202 -0.3398631202 -0.1747607981 0.232891131
435297390.0 -0.1819482105 0.2427207992 0.2575689931 -0.3430750112 0.2573650027 -0.3430024492 -0.1717081375 0.235118002
440297360.0 -0.1793278003 0.2447527124 0.2540990251 -0.3458710397 0.2542192264 -0.3459002378 -0.1695179506 0.2368827423
445297330.0 -0.1765400665 0.2465716603 0.2503265141 -0.3487035076 0.2507017142 -0.3481582488 -0.1673920171 0.2385304739
450297300.0 -0.1739444388 0.2481264693 0.2462331913 -0.3513446479 0.2464187684 -0.3512024908 -0.1645397609 0.2405479844
455297270.0 -0.1715375362 0.2504634481 0.2419658483 -0.3536879124 0.2424187889 -0.3539714191 -0.1620198911 0.2422220421
460297240.0 -0.1690347985 0.2524525196 0.2386271603 -0.3563376413 0.2385650362 -0.3564978119 -0.1597120993 0.2445840168
465297210.0 -0.1661500669 0.2544435383 0.2348861815 -0.3591169863 0.2348977778 -0.3595611021 -0.1567795348 0.2458005976
470297180.0 -0.1633812707 0.2562395926 0.2305325246 -0.3614153041 0.2310668865 -0.3617658697 -0.1543759535 0.2480798602
475297150.0 -0.1609984512 0.2577920388 0.226624316 -0.363575389 0.2268327066 -0.3640214903 -0.1512311403 0.2495645602
480297120.0 -0.1582893416 0.2602118437 0.2226411729 -0.3665341833 0.2225636258 -0.3668896585 -0.1489239781 0.2515681087
485297090.0 -0.1553947388 0.2615435222 0.2185936947 -0.3686416224 0.2187655553 -0.3685439837 -0.1463181382 0.2531661457
490297060.0 -0.1532335351 0.2636756417 0.2148215108 -0.3716021147 0.2147695652 -0.3708843694 -0.1436056815 0.2550381183
495297030.0 -0.1502272327 0.2652556927 0.210400387 -0.3736124462 0.2110279672 -0.3732802729 -0.1410383829 0.2569896353
500297000.0 -0.147480889 0.2671632529 0.2062643245 -0.3757576624 0.2062661314 -0.37552872 -0.1383095672 0.2587778651
505296970.0 -0.1443210583 0.2686433352 0.2024825793 -0.3777783296 0.2020087959 -0.3780559419 -0.1357346563 0.2602837855
510296940.0 -0.1416787749 0.2707162758 0.1979319525 -0.3802447615 0.1979609555 -0.3801423252 -0.1327054091 0.2616797859
515296910.0 -0.1386771331 0.2719716107 0.1936544463 -0.3820670974 0.1937805476 -0.3821319143 -0.1297933684 0.2630403771
520296880.0 -0.1362352329 0.2737950322 0.1897188079 -0.3845522561 0.1897242835 -0.3840718764 -0.1275929481 0.2646430691
525296850.0 -0.1330628455 0.2749114203 0.1852933256 -0.3860311211 0.1858874867 -0.3864158395 -0.124710294 0.2665296394
530296820.0 -0.1302847103 0.276963218 0.181395399 -0.3885246412 0.1811200398 -0.3882671049 -0.1217083254 0.2678196354
535296790.0 -0.1276933736 0.2782880186 0.1776214555 -0.3901565775 0.1771707226 -0.3895885935 -0.1192618154 0.2690131215
540296760.0 -0.1249049001 0.2798741326 0.1730523809 -0.3923383408 0.1728529855 -0.3922639828 -0.1165103093 0.2708988841
545296730.0 -0.1218025141 0.2814616078 0.1679238827 -0.393917428 0.16841029 -0.3941405233 -0.1138013302 0.2723134556
550296700.0 -0.1188772008 0.2827980346 0.1641197115 -0.395444637 0.164388298 -0.3959945519 -0.1108037697 0.2738522627
555296670.0 -0.1156790491 0.2842508645 0.160159236 -0.3976394806 0.1599557041 -0.3973716647 -0.1082542209 0.2752657912
560296640.0 -0.1123058775 0.2856949994 0.1550702275 -0.398980573 0.1556127097 -0.3990154309 -0.1052299892 0.276068847
565296610.0 -0.1097585606 0.2871049699 0.1510357861 -0.4009466036 0.1513712674 -0.4003217468 -0.1025899722 0.277298728
570296580.0 -0.1067799421 0.2880980467 0.1463256086 -0.4027307256 0.1464923087 -0.4023962566 -0.0998376347 0.2793285209
575296550.0 -0.1039979268 0.2897436218 0.14232246 -0.404018018 0.1421396908 -0.4040049865 -0.0961821956 0.279918711
580296520.0 -0.1007646416 0.2907722516 0.1378498625 -0.4057853971 0.1380470884 -0.4053467742 -0.0933662618 0.2810051436
585296490.0 -0.0978614737 0.2915722214 0.13363732 -0.4066513252 0.1335630823 -0.4065568311 -0.0904292892 0.2824102679
590296460.0 -0.0943455983 0.2928590334 0.1289173195 -0.407783962 0.129302663 -0.4084326825 -0.0879867612 0.2834955687
595296430.0 -0.0915303693 0.294122631 0.1243793807 -0.4096208765 0.1242776953 -0.4094331854 -0.0846890952 0.2841425695
600296400.0 -0.0887234017 0.2953057737 0.1200487151 -0.4110447733 0.120048655 -0.4105826655 -0.0821277567 0.2850590509
605296370.0 -0.085659103 0.2961029826 0.1158782189 -0.4119499174 0.1157528643 -0.4122938555 -0.0786181838 0.2864056404
610296340.0 -0.0823937502 0.2976576307 0.1107704652 -0.4134129313 0.1109333057 -0.4130351581 -0.0758829331 0.2871461003
615296310.0 -0.0792190673 0.2981102313 0.1061762096 -0.4142545912 0.1063768859 -0.4146852358 -0.0723307905 0.2878402122
620296280.0 -0.0763706591 0.2989017475 0.1021266271 -0.4152291718 0.1021074502 -0.4151100152 -0.0699810688 0.2891096283
625296250.0 -0.0731006851 0.2997892825 0.0978570398 -0.4166112451 0.0976214567 -0.416724234 -0.066133791 0.2898889886
630296220.0 -0.0694077487 0.3008258851 0.092409899 -0.417707036 0.0929914579 -0.4173918901 -0.0633803224 0.2907777089
635296190.0 -0.0671372185 0.3015138617 0.0887734553 -0.4179384594 0.0886016733 -0.4184176439 -0.0602853289 0.2914855008
640296160.0 -0.0636727721 0.3023987547 0.0839227017 -0.4190436784 0.0844573475 -0.4194099077 -0.057022637 0.2922562468
645296130.0 -0.0603911873 0.3039727412 0.0789796388 -0.4201696355 0.0796907008 -0.4201878456 -0.0538910824 0.2930819312
650296100.0 -0.0573382474 0.303995836 0.0747335339 -0.4206930624 0.0750590313 -0.4207487699 -0.0507779115 0.2933784914
655296070.0 -0.0539651322 0.3051126417 0.0701174875 -0.4219711326 0.0704559668 -0.4215129341 -0.0475643225 0.294145557
660296040.0 -0.0512607482 0.3053677817 0.0658456467 -0.4221129518 0.0658455018 -0.4223469152 -0.0447302331 0.295064187
665296010.0 -0.0475390338 0.3058085751 0.0607323108 -0.4228980321 0.0610230724 -0.4226905681 -0.0411267338 0.2955870035
670295980.0 -0.044859821 0.3069230742 0.0565185901 -0.4233586177 0.0567092551 -0.4237051303 -0.0385149669 0.296593749
675295950.0 -0.0413909465 0.3076605147 0.0520633862 -0.4241530579 0.0517794899 -0.4239042242 -0.0353296965 0.2970868058
680295920.0 -0.0385564278 0.3079029135 0.0474556161 -0.424268894 0.0471547648 -0.4249305919 -0.0317867506 0.2980370688
685295890.0 -0.0350281417 0.3089613778 0.042559807 -0.4253851105 0.0425414159 -0.4250304767 -0.0286957182 0.2981293659
690295860.0 -0.0316271431 0.3091811196 0.0383168978 -0.4250920036 0.0383351809 -0.4258123464 -0.0261512356 0.2992709717
695295830.0 -0.0283247103 0.3097011673 0.0336411103 -0.4255347636 0.0334113208 -0.4255436076 -0.0230105757 0.299238537
700295800.0 -0.0252262122 0.3097560618 0.0286166089 -0.4257189732 0.0286007513 -0.4257803783 -0.0198655055 0.2998454589
705295770.0 -0.0223061109 0.3109231924 0.0240819128 -0.426281013 0.024508402 -0.4260701011 -0.0167323366 0.300597766
710295740.0 -0.0186286932 0.3108801293 0.0195531991 -0.4269311991 0.019793247 -0.4267416141 -0.0138399182 0.3003318544
715295710.0 -0.0155694497 0.3112389446 0.0154856255 -0.4266964774 0.0146574055 -0.4266719805 -0.0097890009 0.3007702865
720295680.0 -0.0123471336 0.3115367281 0.0105242845 -0.4268876288 0.0106578724 -0.426647333 -0.0071501098 0.3012589316
725295650.0 -0.0089585722 0.3118451483 0.0056648208 -0.4268798877 0.0058520712 -0.4272821562 -0.0043636157 0.3017990874
730295620.0 -0.0054926015 0.3121794492 0.0008149324 -0.426669311 0.0014129877 -0.426952049 -0.0015458815 0.3014805169
735295590.0 -0.0027299071 0.3123995248 -0.0033705689 -0.4270207219 -0.0035310527 -0.4269600793 0.0017518091 0.301438968
740295560.0 0.0006137974 0.3124099062 -0.0080080849 -0.4265635185 -0.0081703062 -0.4268314084 0.0056887434 0.3017873619
745295530.0 0.0037810985 0.3128437532 -0.0128516865 -0.4261896068 -0.0123592815 -0.4264940613 0.0082528021 0.3014900517
750295500.0 0.0074099726 0.3127498785 -0.0174943288 -0.4261642808 -0.0168245733 -0.426305197 0.0112434325 0.3017586948
755295470.0 0.0107928052 0.3127884788 -0.0220434852 -0.4260998513 -0.021884499 -0.4262652281 0.014720332 0.3016056326
760295440.0 0.0135285649 0.3127774807 -0.0263483451 -0.4262261284 -0.0264474521 -0.4261746045 0.0180523482 0.301393681
765295410.0 0.0170654742 0.3125397164 -0.0312243753 -0.4249525856 -0.0313526424 -0.4253414192 0.0211351346 0.3014274248
770295380.0 0.0201990196 0.3126833509 -0.0360018363 -0.4251305078 -0.0359353434 -0.4248104517 0.0241990711 0.3011541529
775295350.0 0.0230743713 0.3119312934 -0.0403635673 -0.4242835796 -0.039810633 -0.4243835865 0.0267487911 0.3012297439
780295320.0 0.0266917046 0.3121842195 -0.0450332347 -0.4241212878 -0.0442740816 -0.4238895777 0.0300918748 0.3008087996
785295290.0 0.0297782687 0.311678426 -0.0495649146 -0.4230695551 -0.0495137795 -0.4235325387 0.0336877849 0.3006034063
790295260.0 0.0335202414 0.3122230063 -0.0540071457 -0.4231366001 -0.0535201298 -0.4226583637 0.0370304733 0.3006334789
795295230.0 0.0364689365 0.3112681291 -0.0589854414 -0.4220649533 -0.058142756 -0.422279755 0.0402296049 0.3002156695
800295200.0 0.0396013153 0.3116871856 -0.0636462711 -0.4216570198 -0.0629833403 -0.4214295669 0.0434827949 0.2999452313
805295170.0 0.0429763997 0.3108969488 -0.0677938919 -0.420600493 -0.0675739705 -0.421026773 0.0466057883 0.2995923098
810295140.0 0.0461828904 0.3105327031 -0.0719953079 -0.4197457475 -0.0720468096 -0.419842003 0.0500487949 0.2993102544
815295110.0 0.0493273951 0.3098432475 -0.0769776181 -0.4187372721 -0.0763995935 -0.4190474436 0.052892078 0.2987578853
820295080.0 0.0523045716 0.3099087884 -0.0808549038 -0.417858956 -0.0810856787 -0.4181776783 0.0561894251 0.2987624791
825295050.0 0.0564937914 0.3093061959 -0.0856780778 -0.4171315274 -0.0857966408 -0.4174253053 0.0596043854 0.298341051
830295020.0 0.0591993902 0.3091807965 -0.0905128486 -0.416032139 -0.0902955981 -0.4162077203 0.0628891893 0.2976703533
