!Created with skrf (http://scikit-rf.org).
# Hz S RI R 50.0 
!freq ReS11 ImS11 ReS21 ImS21 ReS12 ImS12 ReS22 ImS22
300000.0 -0.3226418236 -0.0821899441 0.3775611082 0.0450141341 0.3742234241 0.0422634723 -0.3192139804 -0.102655093
5299970.0 -0.3261412529 0.004479901 0.3782585493 0.0023675117 0.3783098896 0.0026416707 -0.3237969095 0.0047851816
10299940.0 -0.3242742754 0.0134193565 0.3794962131 0.0019894888 0.3794205523 0.0020073868 -0.3212654606 0.0161485811
15299910.0 -0.3215189342 0.020272212 0.3817726331 0.0022833302 0.3815518465 0.0021663965 -0.318170752 0.0238359435
20299880.0 -0.318762737 0.0261580873 0.3846639519 0.0019305488 0.3847559936 0.0015361166 -0.3142486258 0.0301507586
25299850.0 -0.3156590861 0.0315886808 0.3880399494 0.0002542272 0.3880844381 0.0001568131 -0.3105975294 0.036028034
30299820.0 -0.3126222964 0.0357477573 0.3911660491 -0.0019532541 0.3912413813 -0.0024291909 -0.3070767244 0.0410167626
35299790.0 -0.3098766903 0.0399516957 0.3947625703 -0.0056293205 0.3947823835 -0.0053994121 -0.3033154378 0.0453045951
40299760.0 -0.3073293191 0.0437327735 0.3979264655 -0.0089535527 0.3981428741 -0.0088183336 -0.3006338865 0.0487776304
45299730.0 -0.3046424174 0.0466805656 0.4004607626 -0.0129634124 0.4009938643 -0.0126007473 -0.297114339 0.0518815722
50299700.0 -0.3024741458 0.0492133343 0.4034673119 -0.0174157896 0.40323057 -0.0169946725 -0.293920428 0.0545616099
55299670.0 -0.3004278121 0.0522022186 0.4060583233 -0.0224342453 0.4055210565 -0.0221272386 -0.2917882821 0.0575370144
60299640.0 -0.2978705319 0.0550348536 0.4073484079 -0.02728156 0.407445667 -0.0268071576 -0.2889165061 0.059202303
65299610.0 -0.2961917708 0.0574963729 0.4093490669 -0.031803712 0.4091598425 -0.0320171588 -0.2869620053 0.0617109247
70299580.0 -0.2946811788 0.060082644 0.4105469213 -0.0369980814 0.4104333948 -0.0369674603 -0.2852193579 0.0639392328
75299550.0 -0.2929480999 0.0624281163 0.4110718908 -0.0420529843 0.4113256199 -0.0423288246 -0.2834669689 0.0658998008
80299520.0 -0.2915727084 0.064806337 0.4124173153 -0.0477059557 0.4125308131 -0.047638258 -0.2815634456 0.0682000371
85299490.0 -0.2902473705 0.0671315415 0.4124600939 -0.0527209811 0.4128733853 -0.0522392267 -0.2800483024 0.0696053898
90299460.0 -0.2890135302 0.069469178 0.413210829 -0.0579143535 0.4133140548 -0.0580020687 -0.2783857723 0.0721641243
95299430.0 -0.2872770017 0.0712844122 0.4137866277 -0.063418336 0.4134860639 -0.0634550701 -0.2767369626 0.0744401567
100299400.0 -0.2862684277 0.0741376517 0.4132865211 -0.0684611887 0.4133102149 -0.0683179061 -0.2753065919 0.0762163951
105299370.0 -0.2851755208 0.0761844061 0.4129988449 -0.0734971632 0.4133906057 -0.0738780253 -0.2736011842 0.0783783733
110299340.0 -0.2839238118 0.0787687119 0.4131314696 -0.0783570843 0.4131968422 -0.0785568446 -0.2730560155 0.0805536242
115299310.0 -0.2829737151 0.0808656122 0.4127183969 -0.0837465205 0.4128141221 -0.0839721033 -0.2713629932 0.082585608
120299280.0 -0.2820470168 0.083183 0.4119978327 -0.0890768224 0.4122225965 -0.0889601162 -0.2704037894 0.0846628816
125299250.0 -0.2810768174 0.0854565939 0.4120555355 -0.0938810108 0.4121418982 -0.0936772978 -0.2694717497 0.0861426061
130299220.0 -0.2803309186 0.0881094718 0.4109620059 -0.099334947 0.4110661391 -0.0992998013 -0.2685065388 0.0886519072
135299190.0 -0.2792625868 0.0907533355 0.4109333704 -0.1042956643 0.4105547854 -0.1042592431 -0.2672665352 0.0909979152
140299160.0 -0.2785752145 0.0933521796 0.4096548667 -0.1094319657 0.4097313037 -0.109269404 -0.2659295394 0.093390288
145299130.0 -0.2774299516 0.095597906 0.4089783748 -0.1139159948 0.4082837881 -0.1139783281 -0.2652219633 0.0956273775
150299100.0 -0.2761502632 0.0985153438 0.4073356174 -0.1189428824 0.4075218062 -0.1184671376 -0.2640841402 0.0986642323
155299070.0 -0.275405336 0.1009044449 0.4068999547 -0.1240829762 0.4065062965 -0.1239017721 -0.2629045222 0.1008496785
160299040.0 -0.2744418527 0.1035118724 0.4050893278 -0.1288470185 0.4050477312 -0.1286943467 -0.2627390462 0.1030637229
165299010.0 -0.2736934907 0.1060376268 0.4042376312 -0.133850896 0.4042518339 -0.1339875993 -0.2612604263 0.1056450989
170298980.0 -0.2727960698 0.1085548663 0.4027934713 -0.1382291323 0.4029752627 -0.1385083925 -0.2601033965 0.1079633087
175298950.0 -0.271818176 0.1113346089 0.401683509 -0.1433422196 0.4012369501 -0.1431978468 -0.2593338665 0.1105426213
180298920.0 -0.2710821227 0.114040714 0.3999465778 -0.1479443823 0.3999710928 -0.1480009912 -0.2581091743 0.113474338
185298890.0 -0.2694305547 0.1165528553 0.3982841587 -0.1524829411 0.3983117334 -0.1522553189 -0.2573915162 0.115703903
190298860.0 -0.2687123324 0.1194220289 0.3969742977 -0.1574781155 0.3967865963 -0.1571545682 -0.2564196801 0.1182943901
195298830.0 -0.2675763405 0.1218318959 0.3953034293 -0.1620824631 0.3951345284 -0.162018987 -0.2550270563 0.1208585388
200298800.0 -0.2662911751 0.1247960681 0.3931404003 -0.166551993 0.3933797845 -0.1670205272 -0.2543652744 0.1238142299
205298770.0 -0.2654051104 0.1274418697 0.3913554312 -0.1714534416 0.391435885 -0.1711028217 -0.2529932057 0.1254674888
210298740.0 -0.2641665012 0.1299003088 0.3896997088 -0.1753990571 0.3897758305 -0.1756005007 -0.2517570046 0.1287322054
215298710.0 -0.2636220454 0.1328703484 0.3878938981 -0.1799593301 0.3878267326 -0.1805089163 -0.2510427645 0.1311280425
220298680.0 -0.2621592155 0.1353108896 0.3855172568 -0.18413329 0.3860411754 -0.1846039725 -0.2503417677 0.1336843226
225298650.0 -0.2608782316 0.1379338083 0.3834915031 -0.1891294143 0.3841441982 -0.1891428222 -0.248684987 0.136099753
230298620.0 -0.2595365594 0.1411745459 0.3822010262 -0.1933884901 0.3822041481 -0.1935521505 -0.247749558 0.1385129451
235298590.0 -0.2580603423 0.1438428136 0.3796289388 -0.1981016011 0.3797492425 -0.1976352478 -0.2466049672 0.1411604774
240298560.0 -0.2570572179 0.1463783409 0.3777264982 -0.2023202318 0.3773307667 -0.202350434 -0.2452135176 0.143754362
245298530.0 -0.256082841 0.1488351262 0.3756317392 -0.2066349101 0.3755167848 -0.2067879752 -0.2437489629 0.1457452689
250298500.0 -0.2543288138 0.1517843839 0.3724709568 -0.2109088397 0.3724754559 -0.2107002419 -0.2426661216 0.1486848918
255298470.0 -0.2530737446 0.1537465886 0.3703108738 -0.2144913608 0.3706817967 -0.2149918384 -0.2413035904 0.1508789728
260298440.0 -0.2515978536 0.1569403519 0.368023781 -0.219530707 0.368076021 -0.2193247392 -0.239804737 0.153675663
265298410.0 -0.2499647657 0.160001863 0.3657953549 -0.2236857089 0.3658114405 -0.2233549081 -0.2382586347 0.1562723341
270298380.0 -0.2485574183 0.1623939498 0.3637342962 -0.2274888962 0.3639695288 -0.2277532267 -0.2371000632 0.1586732475
275298350.0 -0.2469206007 0.1651001606 0.3609293366 -0.2320451034 0.3610198454 -0.2314569042 -0.235165217 0.1608477604
280298320.0 -0.2450273825 0.1676925262 0.3586747488 -0.2358932375 0.3584117225 -0.2358118179 -0.2334129169 0.1637873635
285298290.0 -0.2435149737 0.1707476961 0.3557715672 -0.2400774774 0.3556998187 -0.2397108021 -0.2315786371 0.1659455537
290298260.0 -0.241905344 0.173215872 0.3530425124 -0.2433189767 0.3531687587 -0.2439092533 -0.2302592127 0.1685230533
295298230.0 -0.2400243167 0.1753815487 0.3505605291 -0.2477842256 0.3506015942 -0.2477694737 -0.2281316849 0.1706889207
300298200.0 -0.2384021591 0.1782450331 0.3477688694 -0.2516348435 0.3481806286 -0.2518460565 -0.2266205527 0.1733276405
305298170.0 -0.236684818 0.1805396482 0.344636206 -0.255900423 0.3448900036 -0.2556913322 -0.2242207653 0.1756135731
310298140.0 -0.2347064348 0.1833340643 0.3420240991 -0.2594048277 0.3420662268 -0.2595790592 -0.2229682205 0.1779636395
315298110.0 -0.2328964178 0.1856584226 0.3393484227 -0.2634550444 0.3394372021 -0.2635579132 -0.2209993498 0.1804155456
320298080.0 -0.2312045842 0.1882582284 0.3359238208 -0.2678798104 0.3365594715 -0.267287356 -0.2192982388 0.1829998413
325298050.0 -0.2293334715 0.1908034632 0.3333868659 -0.2717315454 0.333524539 -0.2714846422 -0.217804395 0.1854288352
330298020.0 -0.227378774 0.1930082469 0.3302658305 -0.2752110172 0.3302994141 -0.274996293 -0.2160601438 0.1876923823
335297990.0 -0.2254305112 0.1957628444 0.3269472461 -0.2785087923 0.326831427 -0.2788097733 -0.2145896052 0.1904447579
340297960.0 -0.224337437 0.1983394074 0.3236080671 -0.2823651223 0.3235238879 -0.2822865432 -0.2120268844 0.1928483109
345297930.0 -0.2219431875 0.2007040431 0.3202512793 -0.2861530253 0.3204967808 -0.2862421239 -0.2102611953 0.1951250339
350297900.0 -0.2201679346 0.2032008517 0.3168993915 -0.2894591073 0.3172135803 -0.2895852126 -0.2088432125 0.1980874375
355297870.0 -0.2179202553 0.206231819 0.3139247563 -0.292934246 0.3145605077 -0.2929027096 -0.2067534127 0.200261053
360297840.0 -0.2159165168 0.2084347143 0.3111859965 -0.2959211941 0.3109815504 -0.2961547415 -0.2047771578 0.2027807668
365297810.0 -0.2145423716 0.2108253478 0.3077095074 -0.2996058742 0.3078489455 -0.2999117404 -0.2027591446 0.205040644
370297780.0 -0.2116087315 0.2128862324 0.3035886357 -0.3029535022 0.3045368021 -0.3029838582 -0.2007601897 0.2077469547
375297750.0 -0.2094621877 0.2155357349 0.3004659536 -0.3065126776 0.3011270792 -0.3066060019 -0.1988754866 0.2095371086
380297720.0 -0.207389992 0.2175711028 0.2973457683 -0.3097881104 0.2974947033 -0.3093199552 -0.1967763725 0.2118178593
385297690.0 -0.2055327053 0.2203674763 0.294014969 -0.3128367899 0.2939241997 -0.3128058952 -0.1945605356 0.2142626123
390297660.0 -0.2028382791 0.2226663737 0.2904172104 -0.3160932702 0.290487214 -0.3160060427 -0.192676395 0.2165894097
395297630.0 -0.2009383615 0.225283847 0.2872805842 -0.3192409525 0.2869602706 -0.3195121984 -0.1899250846 0.2185114436
400297600.0 -0.1983310822 0.2273937315 0.2831661612 -0.3229103809 0.2833460033 -0.3225852567 -0.1881305773 0.2208856519
405297570.0 -0.1963679438 0.2293205487 0.2798349778 -0.3255614915 0.2798489045 -0.3254491056 -0.1860317367 0.2228681945
410297540.0 -0.1937151575 0.2317100687 0.2762757119 -0.3287397561 0.2764420386 -0.3284702103 -0.1836216191 0.2251278828
415297510.0 -0.1911547782 0.233702913 0.2724097529 -0.3319163862 0.2729366027 -0.3317151191 -0.1817498348 0.2273301642
420297480.0 -0.1891313177 0.2365986166 0.2689322611 -0.3347129951 0.2687743325 -0.3350309123 -0.1791057728 0.229657432
425297450.0 -0.1867648713 0.2382039529 0.2654774931 -0.3374977963 0.2656560373 -0.3376061545 -0.1769887599 0.2313639222
430297420.0 -0.1842034328 0.2402273727 0.2612148289 -0.3396369189 0.2616528108 -0.3401451906 -0.1749605009 0.2329002702
435297390.0 -0.1819132282 0.2425948399 0.2575316978 -0.3431724922 0.2573205433 -0.3431861722 -0.1719485919 0.2350121461
440297360.0 -0.1789318013 0.2447386023 0.2535378122 -0.3457881431 0.2539951008 -0.3461643441 -0.1698900075 0.2369029705
445297330.0 -0.1767137723 0.2464917417 0.2501028197 -0.3484503275 0.2501168774 -0.3485076669 -0.167020415 0.2384674294
450297300.0 -0.1740062687 0.2484594502 0.2464460429 -0.3513699169 0.2459773498 -0.3514545841 -0.1646006641 0.2404493361
455297270.0 -0.1712783123 0.2505016646 0.2419875858 -0.3537898095 0.2425957038 -0.3542205335 -0.1620874875 0.242138312
460297240.0 -0.1689781399 0.2525461646 0.2381518567 -0.3566607411 0.238270157 -0.3568327996 -0.159447629 0.244324021
465297210.0 -0.1662081527 0.2543999022 0.2341581437 -0.3589487574 0.2345190915 -0.359287929 -0.1568919805 0.2456434357
470297180.0 -0.1635413878 0.2563230581 0.2301371976 -0.361752837 0.2305142756 -0.3617880229 -0.1540239918 0.2479569977
475297150.0 -0.1608166712 0.2577408409 0.2263529031 -0.3636893733 0.226307405 -0.3637237563 -0.1513673101 0.2492548215
480297120.0 -0.1582079983 0.2600124335 0.2222570165 -0.3668828048 0.2222573736 -0.366859706 -0.1486396305 0.2515358385
485297090.0 -0.1557587446 0.2615504549 0.2188604559 -0.3689203894 0.2187360033 -0.3688571674 -0.1461312806 0.2530398369
490297060.0 -0.1529652705 0.2633507736 0.2146597344 -0.3714011656 0.2147254669 -0.3710601112 -0.1433042742 0.2546211426
495297030.0 -0.1503650011 0.2653212414 0.2099087097 -0.3736155951 0.2108216764 -0.3735223859 -0.1410023988 0.256715364
500297000.0 -0.1471494477 0.2668416479 0.2064200853 -0.375393109 0.2059120223 -0.3756980366 -0.1380258576 0.2588054608
505296970.0 -0.1443749152 0.2687018666 0.2020720559 -0.3776382671 0.2021673363 -0.3780307233 -0.1355617948 0.2602151931
510296940.0 -0.141922946 0.2704206617 0.1979462494 -0.3801137713 0.1977995261 -0.3802639383 -0.1324203745 0.261681685
515296910.0 -0.1387031375 0.2717826016 0.1933990556 -0.3819519345 0.1935683408 -0.3821120004 -0.1297294777 0.2632916652
520296880.0 -0.1361189038 0.2737237503 0.1897647341 -0.3845808643 0.1894230871 -0.3840901107 -0.1273417261 0.2645711819
525296850.0 -0.133083487 0.274661173 0.1849696218 -0.3861009945 0.1857320587 -0.3864280914 -0.1243985444 0.2664510242
530296820.0 -0.1298215229 0.2765940177 0.1807664012 -0.3886488495 0.1811184378 -0.388184631 -0.1216901871 0.2677838434
535296790.0 -0.1276940526 0.2782113499 0.1771502733 -0.3900385212 0.1769316955 -0.3900710893 -0.1190188954 0.2688835976
540296760.0 -0.1245288139 0.2797723055 0.1724952935 -0.3927803944 0.1724037568 -0.3919822536 -0.1165627609 0.2709783941
545296730.0 -0.1218492373 0.2811574405 0.167888163 -0.393816261 0.1679297725 -0.3938399264 -0.1138446068 0.2722604649
550296700.0 -0.1184889944 0.2827289534 0.1637245633 -0.395596506 0.1639767472 -0.3959405105 -0.1109515765 0.2739836449
555296670.0 -0.1157698541 0.2837835692 0.1596672812 -0.397224086 0.1597488085 -0.3976505919 -0.1077151613 0.2755757415
560296640.0 -0.1126086594 0.2855573477 0.1551552513 -0.3991985341 0.1553221765 -0.3992408675 -0.1049182722 0.2765283266
565296610.0 -0.1098511444 0.2868775122 0.1508583602 -0.4007502806 0.1510388652 -0.4008632819 -0.101974402 0.2773660171
570296580.0 -0.1067876552 0.2880987202 0.1463075158 -0.402617022 0.146198511 -0.402357275 -0.0994615927 0.2792186101
575296550.0 -0.1037530707 0.2896515259 0.1417717646 -0.4042493083 0.1418181197 -0.4040469096 -0.0962332416 0.2802945703
580296520.0 -0.100737677 0.2904557345 0.1374768125 -0.4057512078 0.1374508626 -0.4056675512 -0.0934057324 0.2810156942
585296490.0 -0.0981207413 0.2912537367 0.1334750394 -0.4064465962 0.1330979009 -0.4069957716 -0.090366403 0.2824120547
590296460.0 -0.0944014303 0.2930187109 0.1289607874 -0.4081794699 0.1289145297 -0.4083281537 -0.0880202725 0.2836768528
595296430.0 -0.0914834569 0.294034624 0.1239188119 -0.4097192444 0.1243806694 -0.4095837557 -0.0849509088 0.2838483139
600296400.0 -0.0883830923 0.2950455525 0.1197995883 -0.4108766138 0.1196699748 -0.4106175573 -0.08204903 0.2855279291
605296370.0 -0.0856170641 0.2962664077 0.1152340592 -0.4120442994 0.1152241507 -0.4120248962 -0.0786728062 0.2860702887
610296340.0 -0.0823742745 0.2971096133 0.1105751183 -0.4130961616 0.1109169746 -0.4132656756 -0.0755274881 0.2870493507
615296310.0 -0.0787638632 0.297830232 0.1059380444 -0.4140557826 0.1061570457 -0.4146484217 -0.0725812452 0.2878182938
620296280.0 -0.0759014705 0.2988803952 0.1015092044 -0.4153947121 0.1018083797 -0.4151600587 -0.0695653625 0.2889888929
625296250.0 -0.073221909 0.2996903949 0.0976769107 -0.4164786597 0.0973442252 -0.4168652153 -0.0660917646 0.2894156878
630296220.0 -0.0691499524 0.3008551406 0.0920153513 -0.4176377235 0.0924978473 -0.4176485541 -0.0634404038 0.2905517381
635296190.0 -0.066867208 0.3015937653 0.088187908 -0.418290656 0.0880541262 -0.4183017388 -0.0603446115 0.2911299526
640296160.0 -0.0635636505 0.3022951257 0.0833979708 -0.4190912782 0.0839825758 -0.4192707447 -0.057190181 0.2919627973
645296130.0 -0.0601462451 0.303393648 0.0788340633 -0.4196938569 0.0792648944 -0.4201576646 -0.0540397056 0.2928587943
650296100.0 -0.0568846993 0.3040381531 0.0744802141 -0.4206988984 0.0744743749 -0.4206999417 -0.0509821979 0.2930983523
655296070.0 -0.0540533447 0.3047811984 0.0698372072 -0.4217510704 0.0699501335 -0.4217291484 -0.0476877343 0.2939722382
660296040.0 -0.0509835381 0.3049207017 0.0652067722 -0.4220998049 0.0652648786 -0.4223894541 -0.0442175412 0.2948169609
665296010.0 -0.0473783776 0.3057005836 0.0602348063 -0.4229896623 0.060828506 -0.4226744111 -0.0410647111 0.2956693029
670295980.0 -0.0450215466 0.3067503752 0.056258997 -0.4234362428 0.0561739835 -0.4234239234 -0.0385086407 0.2961719771
675295950.0 -0.0414826088 0.3075149291 0.0516778718 -0.423783675 0.0518565894 -0.4237208702 -0.035020961 0.297017096
680295920.0 -0.0382575712 0.3074559924 0.0469268509 -0.4242824632 0.0465102059 -0.4251026876 -0.0316160461 0.2979762597
685295890.0 -0.0348904323 0.3085922 0.0424518688 -0.4248219623 0.0422709003 -0.4249690849 -0.0286512359 0.2982231111
690295860.0 -0.0314776598 0.3093434777 0.0376081454 -0.4250598105 0.037745032 -0.4255045704 -0.0260447162 0.2987873894
695295830.0 -0.0284795806 0.3093257496 0.0333733343 -0.4254676566 0.0329037588 -0.425649291 -0.0224406741 0.2992175489
700295800.0 -0.0250764559 0.3095738245 0.0283999897 -0.4257092792 0.0283810304 -0.4258676598 -0.0199470307 0.3001159201
705295770.0 -0.0219649058 0.3107741015 0.0240443669 -0.4265770459 0.0238242916 -0.4264118756 -0.01639844 0.3005757892
710295740.0 -0.0187895396 0.3107081491 0.0196535008 -0.4269318012 0.0191878211 -0.426548172 -0.0132251533 0.3001570558
715295710.0 -0.0159012122 0.3107167805 0.0150291664 -0.4266782536 0.0145409341 -0.4266747579 -0.0102505286 0.3006977278
720295680.0 -0.0122097399 0.3110862264 0.0100184436 -0.4267530091 0.0100648242 -0.4271339458 -0.0070511094 0.3014556304
725295650.0 -0.0087501298 0.3116355545 0.0054186623 -0.4268476132 0.0054113447 -0.4267883533 -0.0041982385 0.3016606699
730295620.0 -0.0054049268 0.3118158605 0.0006998104 -0.4266732264 0.0007355389 -0.4269727859 -0.0012225455 0.3013508586
735295590.0 -0.0023282304 0.3117802494 -0.0040628196 -0.4268312759 -0.004013614 -0.4268180393 0.002012178 0.3013817039
740295560.0 0.0009122049 0.3123419118 -0.0083755839 -0.4266924979 -0.0085161671 -0.4266620485 0.005832132 0.3017287866
745295530.0 0.0039161085 0.3124847861 -0.0131263676 -0.4263609779 -0.0133387829 -0.4264424071 0.0085776715 0.3015354488
750295500.0 0.0077525285 0.3124941179 -0.0177278366 -0.4262989385 -0.0179582069 -0.4263609985 0.0117756843 0.3020019475
755295470.0 0.0107972245 0.3123175153 -0.0224755201 -0.4260568878 -0.0221640673 -0.4260738088 0.0148404679 0.3014173049
760295440.0 0.0139910561 0.3125783707 -0.0273102455 -0.4260804789 -0.0271869481 -0.4260243306 0.0178086653 0.3013924831
765295410.0 0.017369005 0.3124198542 -0.0316195723 -0.4256176439 -0.0317886033 -0.4256168231 0.0210540938 0.3015883389
770295380.0 0.0202303272 0.3122480976 -0.0361319969 -0.4247725968 -0.0361287202 -0.4249204428 0.0238591503 0.3012968241
775295350.0 0.023494211 0.3119824715 -0.0411455044 -0.4242233414 -0.0404712733 -0.4245491465 0.0270767623 0.301008806
780295320.0 0.0267302994 0.3121531871 -0.0450207174 -0.4240312786 -0.0446673281 -0.4238004616 0.0301555607 0.3008380082
785295290.0 0.0298176983 0.3112442362 -0.0499825617 -0.4229926586 -0.0501564552 -0.4232309708 0.0340452773 0.3004815462
790295260.0 0.033687695 0.3115477997 -0.0541681456 -0.4226058512 -0.0538024435 -0.4225753361 0.0371139285 0.3004300354
795295230.0 0.036599911 0.3111907 -0.0586171795 -0.4216560823 -0.058898698 -0.4222703755 0.0402572551 0.3002026877
800295200.0 0.0398489183 0.3112703007 -0.0638461551 -0.4213715475 -0.0632700098 -0.4211844343 0.0433767889 0.2998671324
805295170.0 0.043179261 0.3107834083 -0.0681110769 -0.4206106238 -0.0682487739 -0.4208134923 0.0465437702 0.2998078094
810295140.0 0.0463383931 0.3101766602 -0.0724517694 -0.4195183019 -0.0726787092 -0.4198106929 0.0501459486 0.2991348328
815295110.0 0.0496537246 0.3099893144 -0.0770350176 -0.4185645509 -0.0769295442 -0.4189612025 0.0530166906 0.2985511425
820295080.0 0.052391641 0.3100985002 -0.0813251725 -0.4181060237 -0.0812481108 -0.4181115865 0.0565066501 0.2984601316
825295050.0 0.0565112025 0.3092622606 -0.0856985279 -0.4172371331 -0.0860664156 -0.417276976 0.0596029074 0.2978364177
830295020.0 0.0594571553 0.3086302139 -0.0905098596 -0.4158674093 -0.09066456 -0.4160760211 0.0634633665 0.2976353756
