!Created with skrf (http://scikit-rf.org).
# Hz S RI R 50.0 
!freq ReS11 ImS11 ReS21 ImS21 ReS12 ImS12 ReS22 ImS22
300000.0 -0.2406965039 -0.0879669436 0.472141866 0.0596649238 0.4702362285 0.0565835505 -0.2383609585 -0.0975620746
5299970.0 -0.2450675068 0.0064702452 0.4747736272 0.0049376029 0.4748519992 0.0052085324 -0.24094626 0.0075403139
10299940.0 -0.2418065978 0.0178923974 0.4768032593 0.0060655685 0.476601813 0.006083689 -0.2374851656 0.0205093858
15299910.0 -0.2373543187 0.0269619769 0.480491966 0.0072498587 0.4805515091 0.0072371164 -0.2332150875 0.0301820663
20299880.0 -0.2326985215 0.0338445738 0.4851353341 0.0082982832 0.4848306031 0.0077632783 -0.2278292417 0.0378806748
25299850.0 -0.2276980879 0.0404810602 0.4903049441 0.0069654285 0.4900485644 0.0073415816 -0.2221239122 0.0446488627
30299820.0 -0.2223763531 0.0450589896 0.495372961 0.004431775 0.4955536363 0.0047689772 -0.2161886117 0.0502094939
35299790.0 -0.2173803068 0.0490720851 0.5009854554 0.0012104578 0.5008337921 0.0015594685 -0.2105749805 0.0545617477
40299760.0 -0.2125622529 0.0524583251 0.5055437185 -0.0027063994 0.5058408438 -0.0021538808 -0.2053160188 0.0573235804
45299730.0 -0.2078749752 0.0547320988 0.5103870752 -0.007141502 0.5108841099 -0.0069385401 -0.2005256106 0.060424381
50299700.0 -0.2037977301 0.0568458972 0.5152235514 -0.012640713 0.5146038198 -0.0124064846 -0.1953273686 0.0624715203
55299670.0 -0.1998742975 0.0582612315 0.5186965041 -0.0192292884 0.5187025035 -0.0185676337 -0.1913010842 0.064349179
60299640.0 -0.196064262 0.0599858426 0.5218881759 -0.0249365418 0.5219014701 -0.0245229927 -0.1873074191 0.0655691138
65299610.0 -0.1931196812 0.0607607325 0.5248444869 -0.0313137719 0.52477179 -0.0313591474 -0.1842252228 0.066735422
70299580.0 -0.1899256599 0.0619511098 0.5270152527 -0.0376839178 0.5270332236 -0.0377711387 -0.1806257266 0.067699238
75299550.0 -0.1873886342 0.063025604 0.5292558187 -0.0445974756 0.5287535773 -0.0446614258 -0.1778534873 0.0681508745
80299520.0 -0.1847501894 0.0639158594 0.5311006498 -0.051678559 0.5308963684 -0.0517527697 -0.175271576 0.0690525704
85299490.0 -0.1824373742 0.0643491383 0.5317578144 -0.0583538732 0.5321272938 -0.0577758927 -0.1728788475 0.0695735753
90299460.0 -0.1803902303 0.0646074202 0.5328688233 -0.065210617 0.5330049282 -0.0651350781 -0.1704869672 0.070495413
95299430.0 -0.1782307733 0.0653293239 0.5343733043 -0.072180227 0.5342545956 -0.0726117011 -0.1681843808 0.0712543482
100299400.0 -0.1766306808 0.0664124041 0.5342884783 -0.0790740399 0.5339715822 -0.07913644 -0.1657255098 0.071568307
105299370.0 -0.1749787529 0.0668405577 0.5344873984 -0.0862768052 0.5345585111 -0.0859561531 -0.1638979795 0.072459017
110299340.0 -0.1733959236 0.0677406325 0.5349604845 -0.0929867154 0.53451719 -0.0928184747 -0.1627588879 0.0728470289
115299310.0 -0.1720733509 0.0679461896 0.534967122 -0.0992068117 0.5348935469 -0.0995133931 -0.1611897385 0.0737096511
120299280.0 -0.1707136411 0.0685402932 0.5341002186 -0.1062133456 0.5344878944 -0.106558242 -0.1594626704 0.0744410765
125299250.0 -0.1694375151 0.0694512242 0.5341506429 -0.112960456 0.5343373993 -0.1127610109 -0.1586209223 0.0750299313
130299220.0 -0.1685931751 0.0703235683 0.5332671508 -0.1200531388 0.533381355 -0.120079037 -0.1570931436 0.0756601302
135299190.0 -0.1671881037 0.0710490396 0.5329072505 -0.1261934237 0.5327450412 -0.1263184826 -0.1555909583 0.076643017
140299160.0 -0.1665909859 0.0719704182 0.5320433489 -0.1333057517 0.5320721747 -0.1331640923 -0.1543410681 0.0782179978
145299130.0 -0.1656166411 0.0729086938 0.5316210046 -0.1396971716 0.5308602029 -0.1397754646 -0.1533981441 0.0787765929
150299100.0 -0.1644610032 0.0738929488 0.529902301 -0.1458181112 0.5301397969 -0.1459321679 -0.1524436065 0.0802866596
155299070.0 -0.1636490242 0.0746829687 0.5287897611 -0.1531286681 0.5285291329 -0.1527972391 -0.1509323348 0.0810960885
160299040.0 -0.1628506212 0.0759058094 0.5274617067 -0.1590999595 0.5269667064 -0.1594591816 -0.1508521432 0.0822830996
165299010.0 -0.1620678826 0.0768764421 0.5255701355 -0.1659649904 0.5258677409 -0.1654972467 -0.1493153033 0.0837556893
170298980.0 -0.1613770388 0.0777079793 0.5244322814 -0.172073411 0.5243939537 -0.1722301672 -0.1484183852 0.0845625042
175298950.0 -0.1609405275 0.0786926865 0.5232531595 -0.178461249 0.5226205703 -0.1782721528 -0.1474454699 0.0859225657
180298920.0 -0.1599908991 0.0801386705 0.521193369 -0.1844381526 0.5210230024 -0.1841798419 -0.1464778395 0.0871828534
185298890.0 -0.1587001292 0.0811020322 0.5187901102 -0.1905458621 0.5191813097 -0.1904143197 -0.1458374119 0.0886638742
190298860.0 -0.1585706529 0.0822706832 0.5174317381 -0.1971831425 0.5176377795 -0.1967269271 -0.1451003371 0.0900343964
195298830.0 -0.1580184339 0.0832423037 0.515555469 -0.2029958905 0.5155957584 -0.202888912 -0.1436901796 0.0912453435
200298800.0 -0.1567966658 0.0847380454 0.5130681569 -0.2091039098 0.5134050443 -0.2091998922 -0.1431732009 0.0924039433
205298770.0 -0.1562491576 0.0858626805 0.5107754804 -0.2153000394 0.5109497682 -0.2147903247 -0.1418347006 0.093031937
210298740.0 -0.1554503767 0.0872222182 0.5084059938 -0.2209387014 0.5089560732 -0.220725358 -0.1411383547 0.0952857521
215298710.0 -0.1551492608 0.0882290552 0.5065852996 -0.2270509174 0.5063940788 -0.2272222868 -0.140556125 0.0963964485
220298680.0 -0.1540256051 0.0891437575 0.5032042086 -0.2327746275 0.5035207627 -0.2330091673 -0.1396533158 0.0973544909
225298650.0 -0.1535082336 0.0907784813 0.5015816174 -0.2389089513 0.5018384781 -0.2388077735 -0.1388823975 0.0988179058
230298620.0 -0.1525555536 0.0922522118 0.4993371721 -0.2441978344 0.499035121 -0.2444699497 -0.1377528964 0.1000157571
235298590.0 -0.1516456305 0.0936192321 0.4961068909 -0.2501753195 0.4961503766 -0.2497019495 -0.1368399399 0.1016286285
240298560.0 -0.1511991567 0.0947304506 0.4938909804 -0.2562779367 0.4936888521 -0.2561311185 -0.1360013038 0.1032508633
245298530.0 -0.1502557679 0.0963846788 0.4908646246 -0.2619884692 0.4909843985 -0.261797942 -0.1344269201 0.103802993
250298500.0 -0.1490771457 0.0975584911 0.4876169773 -0.2674970917 0.4877353421 -0.2670169708 -0.1340289601 0.1056509195
255298470.0 -0.1485195119 0.0985154912 0.4843817724 -0.2726882264 0.4850684957 -0.2724545161 -0.1327985935 0.1067528387
260298440.0 -0.148036489 0.100136554 0.4817363225 -0.2784454502 0.4822711972 -0.2785020788 -0.1316458192 0.108613558
265298410.0 -0.1466343498 0.1017514228 0.4788526485 -0.2841331799 0.4790344876 -0.2840349529 -0.130881836 0.1100164888
270298380.0 -0.1460190219 0.1027998797 0.476084886 -0.2891885558 0.4760810161 -0.2895511596 -0.1296085252 0.1112879374
275298350.0 -0.1448431835 0.1042219232 0.4729418321 -0.2949281794 0.473079377 -0.2948739671 -0.1280602735 0.1125533441
280298320.0 -0.1439009764 0.1060583961 0.469654599 -0.3003422972 0.4696506141 -0.2998768071 -0.1268469793 0.1138069799
285298290.0 -0.143126474 0.1073376507 0.4668938422 -0.3054617009 0.4663280043 -0.3053297365 -0.1258570655 0.1150826893
290298260.0 -0.1418570527 0.1086577447 0.4631251235 -0.310519812 0.4629492998 -0.3107671389 -0.1244158256 0.1165900174
295298230.0 -0.1408775959 0.1094184821 0.4600429818 -0.315999685 0.4597735158 -0.3160353345 -0.1226064919 0.1178085795
300298200.0 -0.1401277954 0.1111172036 0.4566060998 -0.3208396083 0.4563886341 -0.3212662103 -0.1217753171 0.1190554063
305298170.0 -0.1389925507 0.1121232383 0.4525408162 -0.3263297469 0.4524810114 -0.326209595 -0.1197181447 0.1200592441
310298140.0 -0.1380920436 0.1137965594 0.4491073237 -0.3317378206 0.4493311231 -0.3312402959 -0.1190705461 0.1214801981
315298110.0 -0.1370923546 0.114398842 0.4455534841 -0.336694271 0.445763557 -0.336756544 -0.1177748172 0.1227169848
320298080.0 -0.1358434748 0.1159867514 0.4412107379 -0.3421114361 0.4420285623 -0.3419026198 -0.1165233449 0.1243011016
325298050.0 -0.1351866566 0.1172705843 0.4379757759 -0.3473305047 0.4382179876 -0.3473078749 -0.1153287501 0.125175022
330298020.0 -0.1340508437 0.1181206779 0.4336695048 -0.3520758548 0.4341532732 -0.3520243228 -0.114167529 0.1264170693
335297990.0 -0.1330430394 0.1193087145 0.4299918239 -0.3566814556 0.4300188843 -0.3569621693 -0.113683628 0.1286070884
340297960.0 -0.132466828 0.1212019251 0.4256013515 -0.3617708576 0.4254985244 -0.3615066429 -0.1116339115 0.1297587935
345297930.0 -0.1314929477 0.1226764879 0.4218325208 -0.3663757559 0.4210982202 -0.3666564757 -0.1105584925 0.1308614179
350297900.0 -0.1303540154 0.123642448 0.4170948217 -0.3711011241 0.4171049386 -0.3707332658 -0.1095053849 0.1326478011
355297870.0 -0.129164011 0.1256469462 0.4132315913 -0.3754381236 0.4137729215 -0.3752975743 -0.1082811765 0.1338471795
360297840.0 -0.1282569017 0.126729628 0.4095413886 -0.3796084354 0.4095487603 -0.3800096692 -0.1067649516 0.1355233642
365297810.0 -0.1274790314 0.1281973741 0.4050029363 -0.3844069122 0.405526025 -0.3845926377 -0.1053747238 0.136507939
370297780.0 -0.1257451962 0.1293915664 0.4004265989 -0.3885299513 0.4015381699 -0.3887171976 -0.104066018 0.138261715
375297750.0 -0.1244232693 0.1306942045 0.3965645577 -0.3933611237 0.3970951083 -0.3931215854 -0.1024646415 0.13917213
380297720.0 -0.1232716958 0.1321688619 0.3922634985 -0.3977092767 0.3926091378 -0.3972350124 -0.1011680946 0.1405711742
385297690.0 -0.1225760211 0.1333677418 0.3876474938 -0.4015879005 0.3875614079 -0.4017755702 -0.0995905634 0.1421635473
390297660.0 -0.1210725496 0.1346608878 0.3840588964 -0.4059906047 0.3832173534 -0.4056890315 -0.0983572778 0.1428873323
395297630.0 -0.1200676104 0.1362382357 0.379018821 -0.4104327913 0.3789365801 -0.410714441 -0.0963986175 0.1444540818
400297600.0 -0.1186072097 0.1376435037 0.3740627898 -0.4147288468 0.3745316696 -0.414650202 -0.0950397365 0.145598044
405297570.0 -0.1175845447 0.1386471926 0.3695599421 -0.4184264154 0.3698257387 -0.4183321748 -0.0936761769 0.1468671637
410297540.0 -0.1159937865 0.139884247 0.3652279501 -0.4226052568 0.3655457897 -0.4226933579 -0.0920657452 0.1483422222
415297510.0 -0.1144735879 0.1412416036 0.3601761685 -0.4266237381 0.3606973044 -0.4265841307 -0.090515902 0.1492362264
420297480.0 -0.1133336039 0.1426923461 0.356030107 -0.4304498291 0.3557312473 -0.4307088342 -0.0891148555 0.1503059256
425297450.0 -0.111930349 0.1432608798 0.3515113891 -0.4343351352 0.3517301097 -0.4345069287 -0.0876183789 0.1516176643
430297420.0 -0.1107371182 0.1450666676 0.3466300789 -0.438061661 0.3463147732 -0.4378142646 -0.0859762304 0.1524189366
435297390.0 -0.1095579641 0.1460675576 0.3413937948 -0.4418904514 0.3414879101 -0.4421217947 -0.0838164279 0.1532097192
440297360.0 -0.1080146408 0.1473665972 0.3368002111 -0.445108664 0.336855575 -0.4455018745 -0.0827383438 0.1542179982
445297330.0 -0.1067085386 0.1481007903 0.3318617011 -0.4492184253 0.3321931352 -0.4487317657 -0.0808227689 0.1549971464
450297300.0 -0.1049816319 0.1494795331 0.3268741392 -0.4527330364 0.3266692811 -0.4527827794 -0.0792416102 0.1561206346
455297270.0 -0.1037164581 0.1508908691 0.3216351215 -0.4563693784 0.321795266 -0.4564009436 -0.0772906362 0.1571486214
460297240.0 -0.1024808331 0.1517807211 0.3170632952 -0.4598301007 0.317067621 -0.4600969682 -0.0758575192 0.1586102685
465297210.0 -0.1008259176 0.1528078816 0.312112632 -0.4629266249 0.3118252993 -0.4634635039 -0.0736819152 0.1589509253
470297180.0 -0.0993061134 0.1541336388 0.3065212768 -0.4662852751 0.306732854 -0.4666043174 -0.0718933857 0.1602821822
475297150.0 -0.0980632958 0.1546509106 0.3017066746 -0.4692440264 0.3019583098 -0.4695636202 -0.069474812 0.1606615467
480297120.0 -0.0963341069 0.1563792431 0.2965633385 -0.4734900262 0.2964656851 -0.4732094829 -0.0678912695 0.161913945
485297090.0 -0.0949830744 0.1571196754 0.2914252579 -0.4759924979 0.2914148687 -0.47610064 -0.0662380103 0.1628479178
490297060.0 -0.0938510648 0.1583767523 0.2862619297 -0.4792480397 0.2862634514 -0.4792494526 -0.0643638099 0.1637611081
495297030.0 -0.0921719966 0.1592134854 0.2809573952 -0.4819931161 0.2811927997 -0.482285853 -0.0628758704 0.1646963709
500297000.0 -0.0905814837 0.1602478466 0.2754646004 -0.4853723907 0.2752899967 -0.4849403418 -0.0607738566 0.1659938033
505296970.0 -0.0888680636 0.1611430606 0.2703094175 -0.4882716182 0.2701015957 -0.4882036236 -0.0588790817 0.1666789108
510296940.0 -0.0871597548 0.1624540948 0.2650615059 -0.4913444981 0.2644679469 -0.4914218992 -0.056791679 0.167681247
515296910.0 -0.0859467622 0.1633319087 0.2594187926 -0.4943345504 0.2591340124 -0.4939301732 -0.0551080177 0.1683356169
520296880.0 -0.0843845507 0.1643354405 0.2543326927 -0.4970682788 0.2541627882 -0.4968010598 -0.0533566099 0.1689522027
525296850.0 -0.0824489903 0.164685971 0.2484464191 -0.4996222954 0.2491644222 -0.4997824748 -0.0515134655 0.1703625452
530296820.0 -0.0808635188 0.1658581593 0.2432289205 -0.5025486574 0.243369984 -0.5024011729 -0.0494736205 0.1707157726
535296790.0 -0.0797066894 0.1669836517 0.2380370016 -0.5049647107 0.2379686218 -0.5042502533 -0.0478898608 0.1709746769
540296760.0 -0.0779674819 0.1679141542 0.2319592176 -0.507585426 0.2318629512 -0.5073108379 -0.0462891792 0.1722433659
545296730.0 -0.0763041313 0.1687940175 0.2262428915 -0.5097221878 0.226428273 -0.5094944902 -0.0444189181 0.1727905393
550296700.0 -0.0742677121 0.1698720526 0.2215122873 -0.5123276288 0.2215138042 -0.5125652523 -0.0425574733 0.1736535539
555296670.0 -0.0729462082 0.1704413823 0.2161240166 -0.5144548088 0.2158410854 -0.5144241364 -0.0405451151 0.1740629507
560296640.0 -0.0711248864 0.1719875253 0.2100940455 -0.5173877383 0.2102709282 -0.5169417205 -0.0385059139 0.1746832031
565296610.0 -0.0700508169 0.1725199157 0.2044640004 -0.5194634595 0.2044004539 -0.5187841213 -0.0367650979 0.1750536455
570296580.0 -0.0681003926 0.1731622587 0.1986170423 -0.5218451441 0.1984333925 -0.5213208429 -0.0350090881 0.1764362865
575296550.0 -0.0667167623 0.1740076463 0.1934966344 -0.5237415779 0.1930248331 -0.5234226834 -0.0329946225 0.1766835051
580296520.0 -0.0650324531 0.1750457985 0.1874165556 -0.5259229995 0.1877282469 -0.5254515836 -0.0309788306 0.1768094964
585296490.0 -0.0633395191 0.1751370863 0.1822049265 -0.5271601065 0.1817989344 -0.5273766431 -0.0289276678 0.1773121258
590296460.0 -0.0610553232 0.176254088 0.1757861654 -0.5289054805 0.1762026551 -0.5293338913 -0.0277041938 0.1779806643
595296430.0 -0.059435419 0.1769221306 0.1697976398 -0.5313295402 0.1699444576 -0.5311230141 -0.0252338551 0.1778459725
600296400.0 -0.0579399493 0.1776800919 0.1645403393 -0.5332381488 0.1645121918 -0.5326558057 -0.023519195 0.178367856
605296370.0 -0.0562852391 0.1781967168 0.1583401982 -0.5345062597 0.1589999656 -0.5348513562 -0.0214717992 0.178980582
610296340.0 -0.054116889 0.1790813014 0.1523368881 -0.5363858178 0.1529924911 -0.5363778832 -0.0190456508 0.1791830874
615296310.0 -0.0525841175 0.1796811102 0.1467671914 -0.5382637616 0.1467851815 -0.5385432219 -0.0170055459 0.1793620842
620296280.0 -0.0509459085 0.1799106685 0.1414137787 -0.5389318044 0.1410753183 -0.5390215731 -0.0152681047 0.1800230238
625296250.0 -0.0494206973 0.1805595705 0.1361415974 -0.5409901298 0.1353593586 -0.5412558732 -0.0125045331 0.180104852
630296220.0 -0.0467392361 0.1812474071 0.1288926287 -0.5421845348 0.1290063815 -0.5421836773 -0.0108130437 0.1805516191
635296190.0 -0.0458360996 0.1818128281 0.1235438545 -0.5434722605 0.1237506128 -0.5436608657 -0.0089621146 0.1806217292
640296160.0 -0.0440007325 0.1825095727 0.117651535 -0.5444994954 0.1178508449 -0.5447875581 -0.0071448 0.1810559579
645296130.0 -0.0421342007 0.1831076526 0.1119042852 -0.545678757 0.1121266471 -0.5460696247 -0.0049652607 0.1813059516
650296100.0 -0.0404717672 0.1837207189 0.1060128896 -0.5471080588 0.1056381987 -0.5468796144 -0.0023675443 0.1808668569
655296070.0 -0.0388280217 0.183949528 0.1000871555 -0.5482971741 0.0999850195 -0.5480169265 -0.0006131137 0.1815341483
660296040.0 -0.0370176875 0.1843546678 0.0941765092 -0.5493915747 0.0943382495 -0.5494562738 0.0014750526 0.1817568422
665296010.0 -0.0347318658 0.1848260153 0.0878177641 -0.5500705188 0.0879451256 -0.5499889369 0.0037720553 0.1819867405
670295980.0 -0.0338674939 0.1856839282 0.0822837804 -0.5507984628 0.0821776047 -0.5514095782 0.0054471705 0.1820567637
675295950.0 -0.0316444335 0.1860906818 0.076636333 -0.5517327124 0.0765745342 -0.5511769994 0.0071771316 0.1823405172
680295920.0 -0.0301100892 0.1864307371 0.0702215073 -0.5520409409 0.069715263 -0.5530625215 0.009354044 0.1826435212
685295890.0 -0.0280637838 0.1872632844 0.0644306838 -0.5531321371 0.0641033619 -0.553244138 0.0113711665 0.1826496528
690295860.0 -0.0260790676 0.1876528517 0.0581241538 -0.55339245 0.0586262049 -0.5544834004 0.0133103909 0.1836096439
695295830.0 -0.0243555232 0.187592056 0.0527066242 -0.5545298425 0.0522026111 -0.5545086489 0.0156655684 0.183036911
700295800.0 -0.022437401 0.1879970027 0.0461398149 -0.5547402584 0.0459976448 -0.5549227411 0.0173075916 0.1835628001
705295770.0 -0.0208448797 0.1888600569 0.0400130485 -0.5557001023 0.0406788452 -0.5556595264 0.019521515 0.1833709013
710295740.0 -0.0187997786 0.1890511041 0.0344840616 -0.5563433161 0.0344989461 -0.5564775828 0.021392474 0.1828630712
715295710.0 -0.0175344031 0.1891141308 0.0289159732 -0.5561014177 0.0283984036 -0.556281263 0.0235521756 0.1827695057
720295680.0 -0.0153088252 0.1894172706 0.0224436159 -0.5566136349 0.0227312431 -0.5567487115 0.0253066829 0.183027297
725295650.0 -0.0134667724 0.1899440581 0.0162321227 -0.5568479793 0.0164438047 -0.5569300768 0.0272421553 0.1829243043
730295620.0 -0.0112480833 0.1901900675 0.010632276 -0.5563296884 0.0105454145 -0.5566148756 0.0290392384 0.1823745431
735295590.0 -0.0096212218 0.1905378005 0.004697067 -0.5568253291 0.0045007223 -0.5567993566 0.0311177194 0.1820683249
740295560.0 -0.0078807945 0.1907537418 -0.0013363379 -0.5567495591 -0.001607066 -0.5569584101 0.033370135 0.1825762727
745295530.0 -0.0058041728 0.1910622891 -0.0074389537 -0.5563524134 -0.0077625966 -0.5564786777 0.0354994171 0.1816992908
750295500.0 -0.003978761 0.1909480397 -0.0134148857 -0.556280533 -0.0131976474 -0.5564781132 0.0372351862 0.1816097883
755295470.0 -0.0020748892 0.1912635475 -0.0192532376 -0.5565525455 -0.0193861479 -0.5564316781 0.0394637825 0.1809487312
760295440.0 -0.0001546407 0.1915092505 -0.0255661417 -0.5565841762 -0.0255289329 -0.556438189 0.0413043415 0.1808349455
765295410.0 0.0011912429 0.1915399917 -0.0312161504 -0.555774448 -0.031739692 -0.5559039928 0.0432966823 0.1804969863
770295380.0 0.0031889786 0.1915326848 -0.037463294 -0.5553323986 -0.037479306 -0.5550872839 0.0450503782 0.1800415476
775295350.0 0.0050375596 0.19136722 -0.0438710804 -0.5546161118 -0.0431964296 -0.5548505919 0.04678367 0.1797286601
780295320.0 0.0071128506 0.1918133568 -0.0493811439 -0.5539324269 -0.0488528305 -0.5542017591 0.0488608348 0.1791111721
785295290.0 0.0082278616 0.1912311933 -0.0552756555 -0.5530325915 -0.0555698345 -0.5538193178 0.0516330522 0.1789117892
790295260.0 0.0108242534 0.1920707833 -0.0606131304 -0.5530205607 -0.0604317573 -0.5527169416 0.053571916 0.1782649361
795295230.0 0.0125066163 0.1918255298 -0.0670738982 -0.552183096 -0.0668719205 -0.5520951287 0.05577087 0.1780841003
800295200.0 0.0141858339 0.1920988373 -0.0735870988 -0.5513806005 -0.0730828325 -0.5513669449 0.0571399889 0.1776783954
805295170.0 0.0162390156 0.1917556712 -0.0790592323 -0.5504178481 -0.0792833695 -0.550656044 0.059579946 0.177186667
810295140.0 0.0178533141 0.1915727175 -0.084476497 -0.549596037 -0.0850017705 -0.5498155018 0.0618583234 0.1764757749
815295110.0 0.0195807967 0.1914999433 -0.0909790213 -0.5487362291 -0.0904803877 -0.5484305867 0.0636651155 0.1760685365
820295080.0 0.0214931117 0.1918602277 -0.0966477377 -0.5471731453 -0.0968050057 -0.547752694 0.0655823564 0.175563959
825295050.0 0.0239449418 0.1914628262 -0.1028251522 -0.5464566782 -0.102662526 -0.5465668359 0.0676314511 0.1750147982
830295020.0 0.0255176208 0.1915216558 -0.1086481909 -0.5449673628 -0.1084296958 -0.5451862092 0.0703791539 0.1745020358
