!Created with skrf (http://scikit-rf.org).
# Hz S RI R 50.0 
!freq ReS11 ImS11 ReS21 ImS21 ReS12 ImS12 ReS22 ImS22
300000.0 -0.2314433717 -0.1351728027 0.465185648 0.0876767121 0.4675339619 0.0846654773 -0.2351030099 -0.1294931386
5299970.0 -0.2418788007 0.0054840109 0.4748646519 0.0057443886 0.4751496361 0.0058661626 -0.2445830557 0.0046796586
10299940.0 -0.2386764728 0.0188299197 0.4775063886 0.0067277802 0.4769742613 0.0071867934 -0.2407834762 0.0174316568
15299910.0 -0.2338090388 0.0286802474 0.4803941627 0.0084407217 0.4805894491 0.0080174103 -0.2366953866 0.026173996
20299880.0 -0.2285809516 0.0368949005 0.4854310897 0.0078472871 0.4856327493 0.0081462517 -0.2318719995 0.0338741285
25299850.0 -0.2224384888 0.0433941504 0.4909160329 0.0077432086 0.4909712451 0.0074487977 -0.2270350055 0.0401735617
30299820.0 -0.2171125269 0.0486594181 0.4960956254 0.0049436344 0.4960609058 0.0049760797 -0.2217087239 0.0448105623
35299790.0 -0.2114372533 0.0529241801 0.5010457085 0.0023535114 0.5015704439 0.0016999531 -0.216973366 0.0490521439
40299760.0 -0.206122456 0.0560032013 0.5064538229 -0.0022785796 0.5065787023 -0.0023181555 -0.212053294 0.0521979039
45299730.0 -0.2008583794 0.0588193038 0.5112066176 -0.0067732993 0.511155187 -0.006539752 -0.2071691571 0.0547508117
50299700.0 -0.1960262722 0.0607826446 0.5150310809 -0.0127409726 0.5153288968 -0.0126252945 -0.2024860365 0.0570679418
55299670.0 -0.1920916128 0.0625273201 0.5191119574 -0.0176638976 0.5189574244 -0.0183118316 -0.1992819112 0.0586711879
60299640.0 -0.1876462048 0.0640043784 0.5221530314 -0.0247673041 0.5224464138 -0.0249441699 -0.1954905934 0.0597992612
65299610.0 -0.1842426944 0.0651632904 0.5255963975 -0.0309226881 0.5254896412 -0.0307340924 -0.191950745 0.0608636504
70299580.0 -0.1806777082 0.0659225776 0.5273573593 -0.0370771528 0.5275248828 -0.0375996128 -0.1892315804 0.061757196
75299550.0 -0.1780509189 0.0669846629 0.5294891921 -0.0446980477 0.5298551649 -0.0445145816 -0.1862439727 0.0627282612
80299520.0 -0.1749951662 0.0675573997 0.5313532359 -0.0515295471 0.5314062022 -0.0512478466 -0.1835513904 0.0636554761
85299490.0 -0.1724179193 0.0683890508 0.5324689407 -0.0585830673 0.5327219111 -0.057811765 -0.1816353041 0.0638433821
90299460.0 -0.17034421 0.0690211574 0.5338161585 -0.065325708 0.5336265691 -0.064955231 -0.1792583888 0.0649241523
95299430.0 -0.1681664841 0.0697149086 0.5347601537 -0.0719744402 0.5348111219 -0.072465234 -0.1775177832 0.0654488954
100299400.0 -0.1658007135 0.0701217785 0.5345671072 -0.0784654717 0.5350571783 -0.079118541 -0.1756227028 0.0665775421
105299370.0 -0.164184238 0.0708355099 0.5354249457 -0.0858384899 0.5358608107 -0.0855670622 -0.1738647928 0.0666985523
110299340.0 -0.1620769718 0.0714184216 0.5353322275 -0.0918061626 0.5357960786 -0.0923083567 -0.1725358031 0.0672258507
115299310.0 -0.1608027393 0.0723156329 0.5351349196 -0.0989629753 0.5355041079 -0.0993778247 -0.1711982344 0.0685175949
120299280.0 -0.1594334366 0.0733672773 0.5354734579 -0.1063434755 0.5349288368 -0.1064468334 -0.170090393 0.0684555036
125299250.0 -0.1579565638 0.07379296 0.5347112202 -0.1129278683 0.5347044421 -0.112854479 -0.1688186056 0.0696704022
130299220.0 -0.1566245282 0.0744076439 0.5340715383 -0.1196321549 0.5344043147 -0.1201736657 -0.1676424368 0.0704674135
135299190.0 -0.1556815438 0.075824375 0.533836101 -0.1261584833 0.5337764365 -0.1264420617 -0.1665421097 0.0709587206
140299160.0 -0.1541017527 0.0769784324 0.5328987947 -0.133271503 0.5328101319 -0.132738118 -0.1661343327 0.0714209289
145299130.0 -0.1535697412 0.0779167224 0.5322324281 -0.1394222004 0.531945933 -0.1395820029 -0.1650951316 0.0728887436
150299100.0 -0.1520666572 0.0787779291 0.5308409271 -0.1459828418 0.5304640345 -0.146031424 -0.1641039109 0.0739775367
155299070.0 -0.1507205987 0.0800136144 0.5290371788 -0.1520533168 0.5295431198 -0.1525244467 -0.16325972 0.0747762269
160299040.0 -0.1498731725 0.0811329002 0.5282536481 -0.1588005063 0.5281049581 -0.1592474127 -0.1625088075 0.0762022168
165299010.0 -0.1488238279 0.0821794502 0.526751725 -0.1648233748 0.5263482389 -0.1655833234 -0.1614923941 0.0767529704
170298980.0 -0.1478465046 0.0836969117 0.5245130227 -0.171751129 0.5251417766 -0.1719634726 -0.1609721855 0.0779623536
175298950.0 -0.1467440619 0.0848558812 0.523330124 -0.1781018937 0.5236933273 -0.178535559 -0.1600922657 0.0791217328
180298920.0 -0.1463033909 0.0859554562 0.5219754852 -0.1844961098 0.5218832476 -0.1847196257 -0.1592005041 0.0801804244
185298890.0 -0.1451831488 0.087281353 0.5204376277 -0.1906258506 0.5198911542 -0.1903068492 -0.1584876772 0.0809265867
190298860.0 -0.1436824547 0.0889843909 0.5174439953 -0.1968432322 0.5180891688 -0.196650328 -0.1576349015 0.082162152
195298830.0 -0.142823858 0.0900119662 0.5164379683 -0.2024307439 0.5166171953 -0.2028856874 -0.1570874638 0.0835300982
200298800.0 -0.1417911604 0.0911236379 0.5141022567 -0.2092366734 0.5139834383 -0.2090662298 -0.1564280493 0.0842477724
205298770.0 -0.1412611334 0.0923941755 0.5116507828 -0.2148530077 0.5121221275 -0.214794549 -0.1556248706 0.0858786543
210298740.0 -0.1401087071 0.093967315 0.5095762106 -0.2207728681 0.5093899407 -0.2207540011 -0.1550045001 0.0870151877
215298710.0 -0.1393313307 0.0952996928 0.5067913132 -0.2263962626 0.5071868331 -0.2269468636 -0.1540642691 0.088498062
220298680.0 -0.1382176409 0.0971229752 0.504898975 -0.2325195774 0.5043252685 -0.2332036217 -0.1531715609 0.0893562884
225298650.0 -0.1372691506 0.0983309823 0.5018145287 -0.2385819506 0.5024611615 -0.2380842636 -0.1529618161 0.0906830539
230298620.0 -0.1360610861 0.0998872757 0.5000844181 -0.2444585458 0.4999402157 -0.2446325947 -0.1520062299 0.0918350309
235298590.0 -0.1357452696 0.1013036731 0.4977816589 -0.2506985718 0.4972098289 -0.2502630238 -0.1510812028 0.0934643477
240298560.0 -0.1341635775 0.1027478551 0.4944456279 -0.255362705 0.494432456 -0.2559295497 -0.1504467872 0.0946112961
245298530.0 -0.1331950399 0.1041119221 0.4915664059 -0.2618039848 0.4916717503 -0.2614158459 -0.149747686 0.0958487651
250298500.0 -0.1324290171 0.1055992829 0.4889320411 -0.2670161366 0.4888477111 -0.2667238163 -0.1489233973 0.0973009067
255298470.0 -0.1311505717 0.1071380948 0.4861245495 -0.2722729347 0.4865911818 -0.2727648125 -0.1480396372 0.0987369192
260298440.0 -0.130294736 0.1083700307 0.4832105617 -0.277630341 0.4833278143 -0.2779688127 -0.1473701772 0.0995276
265298410.0 -0.129311281 0.1098933286 0.4797803239 -0.2842673069 0.4798913871 -0.2840074023 -0.1459991058 0.1009031197
270298380.0 -0.1283550474 0.1112226583 0.4771409476 -0.2889886731 0.4771559599 -0.2892534446 -0.1452133773 0.1026212822
275298350.0 -0.1268395513 0.1130763215 0.4735196623 -0.2944471889 0.4734586577 -0.2946817512 -0.1443586061 0.1041568385
280298320.0 -0.1261058059 0.1142611182 0.4710318676 -0.2992290907 0.4710576567 -0.2996673261 -0.1435884155 0.1053696407
285298290.0 -0.1249117633 0.1158674478 0.4675033648 -0.3050792809 0.4679094822 -0.3051187712 -0.1426966447 0.1069976588
290298260.0 -0.1237126731 0.1176547623 0.4646096565 -0.3103713049 0.4642900153 -0.3104046434 -0.1416721833 0.1082241722
295298230.0 -0.1226972202 0.1181258187 0.4608540009 -0.3157305661 0.4610434886 -0.3160263442 -0.1407699918 0.1092529862
300298200.0 -0.1213286737 0.1201888751 0.4574720061 -0.3209619218 0.4575984409 -0.3209890837 -0.1398086113 0.110688014
305298170.0 -0.1198916338 0.1210701006 0.4536950083 -0.326409201 0.4541948079 -0.3265262773 -0.1385979558 0.1118160039
310298140.0 -0.1186237922 0.1227177541 0.4505039121 -0.3314000035 0.4509916204 -0.3309482943 -0.1374654715 0.1130084472
315298110.0 -0.1174796248 0.1236558362 0.4468279726 -0.3367023393 0.4470179269 -0.3366275623 -0.1366705871 0.1142290085
320298080.0 -0.1166000034 0.1252057057 0.4426754994 -0.3422848025 0.4434726236 -0.3419250438 -0.1358091697 0.1156067656
325298050.0 -0.115652251 0.1259160392 0.439257639 -0.3468526381 0.4398816258 -0.3470416504 -0.1347045141 0.116964389
330298020.0 -0.1149275922 0.1278010008 0.4352335513 -0.3519186341 0.4358005078 -0.3518100964 -0.134309278 0.1178149074
335297990.0 -0.113396767 0.1291117361 0.431255037 -0.3566502227 0.431770665 -0.356442055 -0.1331971555 0.1193398958
340297960.0 -0.112236635 0.1302939191 0.42678792 -0.3613495573 0.4270570791 -0.3615303741 -0.1320539324 0.1206574619
345297930.0 -0.1115010328 0.1315613795 0.4232385045 -0.3663933896 0.4230477671 -0.3664587297 -0.1308082099 0.122181512
350297900.0 -0.1099542852 0.1329783835 0.4191823552 -0.3700694104 0.4197029552 -0.3708714846 -0.1300884074 0.1231288501
355297870.0 -0.1089168827 0.1341010285 0.4151327086 -0.3749325354 0.4152442972 -0.3749291905 -0.1286830584 0.1249259171
360297840.0 -0.1074012809 0.1356820081 0.4108255429 -0.3795249034 0.4112482748 -0.3799103026 -0.127850349 0.1261349741
365297810.0 -0.106188039 0.1372660274 0.4066852291 -0.3843324597 0.4065095774 -0.384149845 -0.1269714879 0.1275889971
370297780.0 -0.1045587556 0.1384291629 0.4021291103 -0.3889820559 0.4024176376 -0.3884507275 -0.1257804856 0.1287563691
375297750.0 -0.1034096812 0.1396550791 0.3982041553 -0.3931165314 0.3984391144 -0.3931815693 -0.1241905053 0.1300519565
380297720.0 -0.102270618 0.1410240511 0.3942530793 -0.3975485021 0.3938192147 -0.3978004234 -0.1231269931 0.1314551458
385297690.0 -0.100847395 0.1419850914 0.389674857 -0.4016844419 0.3895119716 -0.4020563897 -0.1217758343 0.133108053
390297660.0 -0.0991183409 0.1431052007 0.3848635896 -0.4055709425 0.3852527981 -0.4064162151 -0.1204330292 0.1339568591
395297630.0 -0.0976572207 0.1445724954 0.3811874411 -0.4098910407 0.3803894689 -0.4101037693 -0.1194121863 0.1350990563
400297600.0 -0.0964270049 0.1457441827 0.3759901808 -0.4147345264 0.3763915748 -0.4146474724 -0.1181683403 0.1367960388
405297570.0 -0.0948398856 0.1465367982 0.3716995936 -0.4183200716 0.3719740658 -0.4187500215 -0.1169106452 0.1386061259
410297540.0 -0.0928524534 0.1481510215 0.3669416439 -0.4226361449 0.3671006432 -0.4228262662 -0.1154150067 0.1395104658
415297510.0 -0.0918016542 0.1493073444 0.3619779389 -0.4266738116 0.3628086677 -0.4265815255 -0.1142686646 0.1407043694
420297480.0 -0.0904446983 0.1501332256 0.3574866488 -0.4304714734 0.3578357381 -0.4305674553 -0.1126930798 0.1422534927
425297450.0 -0.0880865844 0.1513574748 0.3530312074 -0.4342196891 0.3530575643 -0.4345378367 -0.1116394893 0.1430295023
430297420.0 -0.0868735954 0.1523228215 0.3490363298 -0.4380991601 0.3485852019 -0.4378147977 -0.10963753 0.1442359995
435297390.0 -0.0852001233 0.1533661575 0.3432292196 -0.4426337168 0.3434442959 -0.4420677986 -0.1089007213 0.1460498067
440297360.0 -0.0835792966 0.1543044602 0.3385579868 -0.4457159967 0.3384546351 -0.4456895263 -0.1073336849 0.1469963429
445297330.0 -0.0817310789 0.154917547 0.3336671342 -0.4493603292 0.3336502562 -0.4497235934 -0.1056567007 0.1484273123
450297300.0 -0.0800778462 0.1562239921 0.3289372657 -0.4528197686 0.3291001494 -0.4528199995 -0.1044667571 0.149672616
455297270.0 -0.0787100118 0.1572344332 0.3240276379 -0.4564055294 0.3239352394 -0.4566483756 -0.1028933863 0.1505513317
460297240.0 -0.0762914226 0.1582750577 0.3188342169 -0.4605117688 0.3193251947 -0.460402362 -0.1015048202 0.1515168553
465297210.0 -0.0746743786 0.1590346001 0.3134840037 -0.4637245914 0.3134860968 -0.4635107545 -0.0997580335 0.1531322707
470297180.0 -0.0729782762 0.1600159063 0.3086686758 -0.4665608544 0.3090581022 -0.4668452835 -0.098288258 0.1539320914
475297150.0 -0.0717031831 0.1612727358 0.3036948492 -0.4699628778 0.3036263204 -0.4700492451 -0.0966467727 0.1550152118
480297120.0 -0.0693104409 0.1620953328 0.2979062105 -0.4737585771 0.2984078056 -0.4733639951 -0.0953636229 0.1560798464
485297090.0 -0.0678137493 0.1626382363 0.2927218072 -0.4768923819 0.2932710495 -0.4766318157 -0.0942226728 0.1572541359
490297060.0 -0.0653431981 0.1637225894 0.2874025 -0.4801299188 0.2880981864 -0.4798001353 -0.0923407737 0.1581980147
495297030.0 -0.0641512411 0.1643061329 0.2832716201 -0.4829582377 0.2822939086 -0.4833266258 -0.0902009078 0.1590689481
500297000.0 -0.0622008686 0.1653239726 0.2774354047 -0.4858818338 0.277592663 -0.4863305199 -0.0890735486 0.1602896493
505296970.0 -0.0598216661 0.1661071533 0.2726685046 -0.4891858116 0.2720498418 -0.4890415677 -0.0873917346 0.1608781703
510296940.0 -0.0582200228 0.16664231 0.2670278442 -0.4925662866 0.2669757077 -0.4924846319 -0.0855678882 0.1626017746
515296910.0 -0.0561325514 0.1679032462 0.26100597 -0.4947630918 0.2609818878 -0.4947823571 -0.084300177 0.1627447042
520296880.0 -0.0542761036 0.1686543515 0.2559577371 -0.4974856436 0.2555468824 -0.4972408705 -0.0820061575 0.1643204133
525296850.0 -0.0524102836 0.1691997521 0.2503944112 -0.5004144608 0.2501898512 -0.4999909126 -0.0808078584 0.1648292169
530296820.0 -0.0506295477 0.1698523328 0.2447993082 -0.5028642918 0.2452053953 -0.5031614835 -0.0794272852 0.1657009737
535296790.0 -0.0481800851 0.170781554 0.2394356495 -0.5055765962 0.2395334343 -0.5058388265 -0.0769057564 0.1668686573
540296760.0 -0.0463357868 0.171540492 0.2337839503 -0.5080612349 0.2340496251 -0.5081934412 -0.0761123166 0.167323835
545296730.0 -0.044835369 0.1725442423 0.2286690214 -0.5104751458 0.2279939053 -0.5102042717 -0.0740256844 0.168431459
550296700.0 -0.0420671498 0.1729064572 0.2227961974 -0.5132705524 0.2226103925 -0.5132743845 -0.0723585227 0.1695003236
555296670.0 -0.0402966136 0.1736361387 0.2175420722 -0.5155927915 0.2172964419 -0.5152770623 -0.0707050586 0.1696889383
560296640.0 -0.0377931567 0.1738994987 0.2111397284 -0.5173389657 0.2118861426 -0.5178059758 -0.0692238859 0.1709872747
565296610.0 -0.0363931142 0.1745253916 0.2063502317 -0.5200024496 0.2060702608 -0.5195951464 -0.0671903151 0.171982376
570296580.0 -0.0345050366 0.1752571935 0.2003660811 -0.5218931609 0.2003207851 -0.5222295194 -0.0656028756 0.1723599389
575296550.0 -0.0322505608 0.1757553214 0.1948955435 -0.5241058966 0.195001609 -0.5241695679 -0.0637824939 0.1733147322
580296520.0 -0.0301130916 0.1765976491 0.1892944613 -0.526139355 0.1888190331 -0.5265435519 -0.0624070109 0.173815869
585296490.0 -0.0279895615 0.1770192243 0.1835085438 -0.5285372706 0.1828291911 -0.5279799888 -0.0599859673 0.1747896147
590296460.0 -0.0256690451 0.177614546 0.1776006948 -0.5302721902 0.1777372595 -0.5305446108 -0.0590874585 0.1754850293
595296430.0 -0.0236522595 0.1777790432 0.1709848423 -0.5320957762 0.1713450366 -0.5319752466 -0.0570402712 0.1761299955
600296400.0 -0.0212985164 0.1785232153 0.1655506719 -0.5335578839 0.1654795451 -0.5341654887 -0.0554655245 0.1768339941
605296370.0 -0.0202135796 0.1788511153 0.1604571635 -0.5356808832 0.1597382542 -0.5357253057 -0.0536202315 0.1775767446
610296340.0 -0.017368721 0.1797855401 0.1544657371 -0.5364403813 0.1544044151 -0.5369683503 -0.0519730999 0.1784272272
615296310.0 -0.0152620338 0.1798665598 0.1485733295 -0.5387344634 0.1482517932 -0.5392591501 -0.0500270675 0.1789214575
620296280.0 -0.0136491115 0.1808998 0.1421449656 -0.5405859962 0.1421193166 -0.5402281033 -0.0485526963 0.1796224883
625296250.0 -0.0115202792 0.1807079183 0.1369939179 -0.5421525049 0.1369963951 -0.5420120806 -0.0468651485 0.1801088641
630296220.0 -0.009549699 0.1812800474 0.1306847054 -0.5434800696 0.1305457534 -0.543303058 -0.0448485847 0.1805920104
635296190.0 -0.0074306641 0.1818090699 0.1246574738 -0.5446669457 0.1248572595 -0.5444591749 -0.0433179924 0.1811189412
640296160.0 -0.0052968408 0.1820636859 0.1195513176 -0.5464801132 0.1189941677 -0.5459164087 -0.04164298 0.1817162525
645296130.0 -0.0028798269 0.1828366476 0.1131842468 -0.5470483525 0.1129320943 -0.5467504432 -0.0400427397 0.1820059135
650296100.0 -0.000867996 0.1826503667 0.1074126637 -0.5483124172 0.1068717634 -0.5484727955 -0.0371254267 0.1825526907
655296070.0 0.0008751635 0.1829623363 0.1011494239 -0.5496625208 0.1011471009 -0.5493332776 -0.0365225376 0.1833532425
660296040.0 0.0028710185 0.1831186936 0.0951546389 -0.55053302 0.0949049546 -0.5504362254 -0.0342669124 0.1834724903
665296010.0 0.0052389727 0.1836858333 0.0890666102 -0.551325793 0.0889199135 -0.5512850195 -0.0321272857 0.1843442587
670295980.0 0.0072282805 0.1840111416 0.0828493724 -0.5523775669 0.0834606381 -0.5517141377 -0.0311489509 0.1842521125
675295950.0 0.0092438716 0.1837297793 0.0773630451 -0.5527742519 0.0776413756 -0.5530928019 -0.0289965586 0.1851637943
680295920.0 0.0108856217 0.1840971395 0.0718091541 -0.5534825613 0.0714666215 -0.5536132015 -0.0269824949 0.1852624573
685295890.0 0.0134010869 0.1844574111 0.0653963184 -0.5546960785 0.0653153569 -0.5544937178 -0.0251833166 0.1861284207
690295860.0 0.0151180828 0.1844797922 0.0595143565 -0.555184163 0.0592508606 -0.5552279549 -0.0236160254 0.1861849755
695295830.0 0.0172675494 0.1842801366 0.0539426484 -0.5555589849 0.0533794674 -0.5559147534 -0.0216366569 0.1868951996
700295800.0 0.0195596529 0.1848572915 0.04756345 -0.5562692217 0.0477168569 -0.5561785369 -0.0200036689 0.1868439061
705295770.0 0.021087533 0.1846170747 0.0416889995 -0.5570826149 0.0414051958 -0.5567140488 -0.0180315841 0.1876092656
710295740.0 0.0229394763 0.1847163447 0.0357193699 -0.5572242197 0.0355809387 -0.5571406196 -0.0160378582 0.1878950507
715295710.0 0.0253833939 0.1848687694 0.0298059793 -0.5575442192 0.0295842335 -0.557567744 -0.0141334877 0.1877977524
720295680.0 0.0276845788 0.1846055866 0.0232744286 -0.5579754186 0.0232881505 -0.5576596614 -0.0124750576 0.1882271229
725295650.0 0.028800154 0.1849969249 0.0181901014 -0.5577150561 0.0174851089 -0.5579743687 -0.0108171339 0.1890420844
730295620.0 0.0306746409 0.1846718229 0.0116426407 -0.5575633162 0.011431081 -0.5575303281 -0.0092623087 0.1895431149
735295590.0 0.0330708813 0.18469616 0.0055785239 -0.5584461084 0.0053678087 -0.5585404318 -0.007684704 0.1892496566
740295560.0 0.0349841079 0.1844076 -0.0001139088 -0.5585964973 0.0001299663 -0.5581866668 -0.0054636827 0.1896156965
745295530.0 0.0369296843 0.1844310672 -0.0062553397 -0.5575108161 -0.0054317764 -0.5579980781 -0.0039582185 0.1898021881
750295500.0 0.0387427374 0.1843243146 -0.0122498875 -0.5579749167 -0.0124405195 -0.5580546092 -0.0021320986 0.1900231441
755295470.0 0.0404128537 0.1839365556 -0.0179342283 -0.5582138635 -0.0182004432 -0.5582978532 1.14759e-05 0.19067344
760295440.0 0.0425040651 0.1842936761 -0.0243454141 -0.5575314994 -0.023988321 -0.5570025035 0.0019902812 0.1896165907
765295410.0 0.0447477731 0.183219448 -0.0299514975 -0.5569055739 -0.0302612205 -0.557132056 0.0037051845 0.1901687946
770295380.0 0.0464371533 0.1837453864 -0.0358645398 -0.5565789365 -0.0364489968 -0.5571951475 0.0054212361 0.1904700741
775295350.0 0.0485219384 0.1831161614 -0.0419800203 -0.5564670265 -0.0419285918 -0.5562704496 0.0073525341 0.191085995
780295320.0 0.0503468977 0.1830067146 -0.0477822698 -0.5551288107 -0.0478374991 -0.5557589093 0.0095085251 0.1905650518
785295290.0 0.052122878 0.1824553987 -0.0539187544 -0.5551017214 -0.0538032824 -0.5555032744 0.0107570929 0.191151925
790295260.0 0.0543578896 0.181957089 -0.0601385582 -0.5549965097 -0.0594600889 -0.5549120202 0.0128875782 0.1913967184
795295230.0 0.0560802273 0.1814766743 -0.065876428 -0.5540669084 -0.0657460881 -0.5541049549 0.0143885196 0.1905527862
800295200.0 0.0576685196 0.181479513 -0.0710686578 -0.5526998145 -0.0718952591 -0.5531772932 0.0161995036 0.190854642
805295170.0 0.0596896058 0.1809336349 -0.077413799 -0.552447498 -0.0776147756 -0.5525124776 0.0184712433 0.1908917241
810295140.0 0.0619690843 0.1806406194 -0.0834310202 -0.5513266357 -0.0834489484 -0.5514262076 0.0205797501 0.1909351608
815295110.0 0.0636056952 0.1802358049 -0.0894806993 -0.550390563 -0.0892000237 -0.5509466285 0.0219603141 0.1909169421
820295080.0 0.0653962973 0.1795376779 -0.094977853 -0.5493618858 -0.094910076 -0.5496449292 0.0230784331 0.1914740245
825295050.0 0.0668890468 0.1789143377 -0.1010080572 -0.5486890498 -0.1013861505 -0.548644083 0.0261111462 0.1913993723
830295020.0 0.0689607621 0.1783357694 -0.1066870181 -0.5473604649 -0.107079982 -0.5475329849 0.0275123725 0.1908427737
