!Created with skrf (http://scikit-rf.org).
# Hz S RI R 50.0 
!freq ReS11 ImS11 ReS21 ImS21 ReS12 ImS12 ReS22 ImS22
300000.0 -0.7719981428 -0.1829575265 -0.0014518711 0.0001176288 -0.0004879009 0.0003132619 0.8599734351 -0.0028068635
5299970.0 -0.7860958769 -0.0094621684 -2.62611e-05 4.50496e-05 0.0001122676 -0.000116501 0.8593525434 -0.0102485709
10299940.0 -0.7893622552 -0.0055408233 0.0001070074 1.29441e-05 -5.77158e-05 -0.0001829991 0.8580302309 -0.0188568979
15299910.0 -0.7942613277 -0.0031775604 -8.04458e-05 -2.62441e-05 -3.78503e-05 -0.000114632 0.8573007518 -0.0275562226
20299880.0 -0.8011443584 0.0006050879 0.0001474446 -3.7018e-05 4.08031e-05 0.0001359787 0.8560644759 -0.0354824125
25299850.0 -0.8076076278 0.0066507276 -4.8992e-06 2.87839e-05 0.0001321295 -1.99889e-05 0.855555265 -0.0440749823
30299820.0 -0.8140474674 0.0133246579 7.03629e-05 0.0001149905 -0.0001031558 -0.0002871702 0.8552412671 -0.0526674073
35299790.0 -0.8187620183 0.0228073406 6.69957e-05 0.0001185762 9.061e-07 -8.44416e-05 0.8542789697 -0.0612116666
40299760.0 -0.8233370878 0.0317474501 -0.0001116881 -5.01192e-05 -8.40715e-05 7.72632e-05 0.8537082994 -0.0686138798
45299730.0 -0.8262004864 0.0415455886 -2.6224e-06 -0.0001828134 3.13274e-05 -7.53503e-05 0.8526896651 -0.0770973553
50299700.0 -0.828938564 0.0519199209 5.1687e-05 0.0003166643 4.08663e-05 -8.04971e-05 0.8521086104 -0.0858592724
55299670.0 -0.8312557626 0.0615647972 0.0001540602 3.2082e-05 -6.83796e-05 6.06974e-05 0.8506175506 -0.0933450398
60299640.0 -0.8326503249 0.0719923199 -3.84003e-05 -5.23368e-05 -0.0001163151 -2.16e-05 0.8497410887 -0.1023432728
65299610.0 -0.8334541406 0.0814803573 0.0001615339 -0.0002073878 3.67035e-05 -0.000105048 0.8490056597 -0.1106630525
70299580.0 -0.8339314421 0.0916598609 0.000227191 0.0001375392 -2.18423e-05 3.95835e-05 0.8472801172 -0.1185142678
75299550.0 -0.8341810452 0.1018812842 -0.0001066904 -0.000135345 7.17592e-05 -0.0001698248 0.8462009464 -0.1269029796
80299520.0 -0.834251758 0.111537687 9.30629e-05 -5.36432e-05 -4.20907e-05 -0.000149923 0.8454438297 -0.1354136367
85299490.0 -0.8331977886 0.1213793451 -2.25971e-05 -1.27112e-05 0.0001292945 1.90307e-05 0.8443094161 -0.1431588575
90299460.0 -0.8330365778 0.1315938671 -9.27843e-05 5.88082e-05 0.0001980993 1.3032e-06 0.842326872 -0.1513182433
95299430.0 -0.8316732324 0.1406972134 0.0001053006 0.0001790476 -3.15533e-05 -0.000108441 0.8407782703 -0.160087123
100299400.0 -0.830244324 0.1497245311 0.0001513812 0.000107651 5.47154e-05 -6.10076e-05 0.8393626606 -0.1679607961
105299370.0 -0.8290127406 0.1589192161 -0.0001004426 -0.0002558095 0.0002370959 9.96557e-05 0.8374926796 -0.1759229478
110299340.0 -0.8277817785 0.1687166236 -0.0001176593 -0.0001826563 2.39029e-05 -5.30917e-05 0.8355149461 -0.1844655339
115299310.0 -0.8261633545 0.1775199332 1.61082e-05 4.6662e-05 -8.4817e-06 -0.000105064 0.8335583529 -0.1923238543
120299280.0 -0.8246838205 0.1866910532 0.0001590492 0.0001351616 2.81122e-05 1.50789e-05 0.8317860376 -0.199928284
125299250.0 -0.8225045865 0.1957610787 0.0001869799 0.0001325633 4.4128e-05 -3.40554e-05 0.8297293395 -0.2086174291
130299220.0 -0.8214463824 0.2049458229 -3.23982e-05 8.12594e-05 1.28181e-05 1.80725e-05 0.8278046088 -0.216696921
135299190.0 -0.8188822216 0.2140759994 -2.86267e-05 -1.30293e-05 1.81249e-05 0.000102548 0.8256947827 -0.225061709
140299160.0 -0.8174809965 0.2237740157 -6.69189e-05 1.952e-05 6.45516e-05 6.03141e-05 0.8231041809 -0.2331709014
145299130.0 -0.814616271 0.2320820677 -1.42107e-05 7.80254e-05 -0.0001522573 9.83614e-05 0.8211349829 -0.2409938094
150299100.0 -0.8124609813 0.2409945855 9.30508e-05 7.8288e-05 -1.90722e-05 -5.97613e-05 0.8182390883 -0.2485710024
155299070.0 -0.8099973726 0.2501477458 -0.0001700779 0.0002227185 9.43246e-05 -8.7486e-05 0.8159677727 -0.2576276363
160299040.0 -0.8074642809 0.2585915322 0.0001067904 -2.30039e-05 -4.14946e-05 0.0001010783 0.8132407297 -0.2653125988
165299010.0 -0.8047191703 0.2672344258 -0.0001587838 2.273e-06 -1.73832e-05 -6.77139e-05 0.8109636956 -0.2731075739
170298980.0 -0.801769201 0.275746039 -9.53796e-05 9.23362e-05 -0.0001166844 -5.15898e-05 0.8079226364 -0.2810122351
175298950.0 -0.7990071296 0.2851129834 -2.45244e-05 -8.01537e-05 5.42561e-05 5.42419e-05 0.8048611054 -0.2888707982
180298920.0 -0.7963212278 0.293720194 -8.43518e-05 0.0001416201 -0.0001389368 6.79713e-05 0.8021415515 -0.2965009505
185298890.0 -0.7927207998 0.3019182652 7.16891e-05 -6.02874e-05 -0.0002054405 -5.02e-07 0.79922446 -0.3042573694
190298860.0 -0.7895914721 0.3113843314 8.18524e-05 5.53866e-05 -8.27273e-05 5.3019e-06 0.7957895138 -0.3126689218
195298830.0 -0.7868526958 0.3192210145 -6.40877e-05 6.32232e-05 -0.0001107571 -5.44385e-05 0.7931275222 -0.3208045528
200298800.0 -0.7828649218 0.3280294098 9.80418e-05 4.50091e-05 7.29879e-05 9.82986e-05 0.7894225999 -0.3276257956
205298770.0 -0.7791444535 0.3364231275 6.7674e-06 5.04464e-05 0.0001988668 0.0001367195 0.7868494636 -0.3360103387
210298740.0 -0.7761978905 0.3448031349 -9.32551e-05 0.0001065592 -5.72001e-05 -0.0001095765 0.7830308318 -0.3434342246
215298710.0 -0.7719780107 0.353317519 -0.0001228516 -1.6817e-05 2.07963e-05 2.70264e-05 0.7795073959 -0.3515189961
220298680.0 -0.7687091042 0.360835829 -0.0001826824 -1.67124e-05 0.0001085564 -5.7256e-06 0.7758007013 -0.3579654564
225298650.0 -0.7648731261 0.3694953369 2.91785e-05 -2.37482e-05 4.09221e-05 -9.7913e-05 0.7725159498 -0.3666600242
230298620.0 -0.7613448188 0.3777792775 4.70994e-05 6.10446e-05 1.8418e-06 -6.27999e-05 0.7687000721 -0.3733597351
235298590.0 -0.757509819 0.3857498734 0.0001105751 -5.7209e-06 -8.5659e-05 0.0001343933 0.7650406272 -0.3806179834
240298560.0 -0.7527507545 0.3929762469 -5.33721e-05 7.32627e-05 0.0001183698 0.0001303154 0.7620233922 -0.388793661
245298530.0 -0.7484700366 0.4017144227 0.0001738264 3.17687e-05 4.67176e-05 0.0001738694 0.7572310408 -0.3951805742
250298500.0 -0.7443814217 0.4089522719 0.0001328858 -0.0001447168 0.000133617 3.24675e-05 0.7539369476 -0.4030757972
255298470.0 -0.7408732074 0.4175052021 7.3654e-06 0.0001816671 0.0001560552 9.63952e-05 0.7494825889 -0.4105450211
260298440.0 -0.7363996754 0.4253802451 8.62964e-05 -7.77365e-05 4.81598e-05 1.87264e-05 0.7453254593 -0.4179043731
265298410.0 -0.731954892 0.4325939112 -1.0196e-05 2.5065e-05 -5.08211e-05 2.4462e-06 0.7421312902 -0.4245941584
270298380.0 -0.7270229647 0.4404929831 1.58603e-05 -0.0001134277 0.0001147338 6.28021e-05 0.737963517 -0.4319967291
275298350.0 -0.7229221716 0.4479457819 0.0002410928 8.34193e-05 1.33439e-05 -0.000212736 0.7325748918 -0.4395027505
280298320.0 -0.7184980697 0.4554986093 0.000124584 5.41404e-05 0.0001694787 -3.80571e-05 0.7289502529 -0.4464238701
285298290.0 -0.713842717 0.4634918501 1.65946e-05 -5.92103e-05 -2.68055e-05 4.7208e-06 0.724320959 -0.4536381735
290298260.0 -0.7085353244 0.4711653791 0.0001977443 -2.97833e-05 -0.0001614308 -0.0003108971 0.720452151 -0.460695618
295298230.0 -0.7039319644 0.4782951794 0.0001606152 8.64889e-05 1.47079e-05 0.0001558269 0.7160949946 -0.4676444845
300298200.0 -0.6995337635 0.4858456381 -0.0001130353 -0.0002721985 -4.34946e-05 4.23397e-05 0.7115885773 -0.4747696625
305298170.0 -0.6944578868 0.4925264766 -1.60487e-05 0.0001423235 1.32927e-05 -9.3123e-05 0.7064180889 -0.4818266482
310298140.0 -0.6893677625 0.499747936 -2.254e-07 9.85605e-05 5.52967e-05 3.82039e-05 0.7024337495 -0.4892789657
315298110.0 -0.6847785585 0.5070567555 6.64631e-05 -0.0002354624 5.89678e-05 -3.75964e-05 0.6983231773 -0.4970237377
320298080.0 -0.6790985971 0.5143349343 0.0001273966 -2.82241e-05 -0.0002187024 -7.61512e-05 0.6923760318 -0.5042219992
325298050.0 -0.6738175557 0.5207842329 -0.000116044 0.0001046079 -4.29154e-05 -5.2137e-06 0.687738965 -0.5117533136
330298020.0 -0.6683698781 0.5278044376 0.0001039021 -0.0001888507 -5.88521e-05 -1.97075e-05 0.6821603065 -0.5191662087
335297990.0 -0.6633388409 0.5344064772 -0.000108952 -1.49006e-05 1.10345e-05 5.39893e-05 0.67624182 -0.5254932976
340297960.0 -0.6579424379 0.5416929295 -7.19665e-05 -1.00921e-05 -6.51763e-05 -2.1651e-05 0.670567511 -0.5320065874
345297930.0 -0.652254132 0.5479748917 -0.0001505539 0.0001241537 0.0001140077 0.0002074046 0.6643339888 -0.5384810298
350297900.0 -0.6462784981 0.5551923689 0.0001065761 3.13485e-05 3.472e-07 -0.0001572415 0.6584421207 -0.5448387726
355297870.0 -0.6412213094 0.5614794621 0.0002644611 4.10371e-05 -0.0001966015 -9.83859e-05 0.6531238102 -0.5512400354
360297840.0 -0.6348648937 0.5684789313 5.06417e-05 0.0003819061 -0.0001077396 -5.22806e-05 0.6473655685 -0.5568305814
365297810.0 -0.6299059304 0.5746797416 -0.0001450736 1.74867e-05 -8.02835e-05 7.2576e-05 0.6416803576 -0.5631977541
370297780.0 -0.6233967892 0.5808088479 3.38565e-05 9.76949e-05 0.0002245255 0.0001383971 0.635982723 -0.5689157481
375297750.0 -0.6177699831 0.5871799836 1.64442e-05 0.0001582658 4.18562e-05 0.0001065641 0.6305391851 -0.5756685925
380297720.0 -0.6119727304 0.5932490768 -0.0002464064 -0.0001213931 -5.68147e-05 -7.90136e-05 0.6244893012 -0.5812325254
385297690.0 -0.606106769 0.5995230417 4.36332e-05 -6.05481e-05 -7.87829e-05 -2.50091e-05 0.6183386387 -0.5876394072
390297660.0 -0.599172758 0.6055718948 0.0004410376 4.42365e-05 -0.0001127621 0.0001513511 0.6126267585 -0.5931443879
395297630.0 -0.5933906271 0.6120063335 -7.85154e-05 1.91061e-05 -0.0001989157 -2.53777e-05 0.6067826935 -0.5992955556
400297600.0 -0.5873566102 0.6181465967 -0.0001649263 7.09165e-05 3.00629e-05 3.94522e-05 0.6009434879 -0.6047557056
405297570.0 -0.5810444266 0.6230955012 -8.39355e-05 -0.0001926872 -0.0001970555 -0.0001788829 0.5944700911 -0.6107782617
410297540.0 -0.5742025579 0.6297573202 -0.0001940163 -5.77255e-05 -0.0001086131 5.35688e-05 0.5880968471 -0.6164357571
415297510.0 -0.5676068331 0.6352222002 -0.0001046439 -9.08167e-05 -0.0002262802 7.78167e-05 0.5824165949 -0.6221206526
420297480.0 -0.5606729764 0.6409298862 -0.0002403162 4.67671e-05 -9.51225e-05 4.2236e-06 0.5763634274 -0.626582039
425297450.0 -0.5548185816 0.6467933782 5.55165e-05 -2.40443e-05 -9.4503e-05 -9.00968e-05 0.5704683857 -0.6337477745
430297420.0 -0.5478480991 0.6522663071 -7.03471e-05 0.0001466073 -0.0001736078 -6.97894e-05 0.5637347271 -0.6391100072
435297390.0 -0.5417070159 0.6572043822 -2.8501e-06 -6.20569e-05 -0.0001728882 3.37366e-05 0.5569874327 -0.6449004742
440297360.0 -0.5341256813 0.6630243003 -0.0003709405 0.0001154321 5.9917e-05 -0.000192922 0.5512436794 -0.6491079765
445297330.0 -0.5272971589 0.6676446278 -0.0003717471 0.0001453065 -0.0001532502 -9.53925e-05 0.5442271535 -0.6546378337
450297300.0 -0.5206780918 0.6735163587 -3.84703e-05 -0.000213551 1.7132e-05 0.0001209876 0.5385136843 -0.6596354211
455297270.0 -0.5138931083 0.6781446989 -0.0002014135 -0.0001220451 1.37612e-05 -7.1779e-06 0.5315247817 -0.6651159668
460297240.0 -0.5059233949 0.684576787 -6.76181e-05 -9.94962e-05 9.29153e-05 0.0001068407 0.5247756618 -0.6707158484
465297210.0 -0.4996799115 0.6889975951 1.98598e-05 -8.82217e-05 0.0001283674 1.92438e-05 0.5180192766 -0.6747047953
470297180.0 -0.492409384 0.6942099458 0.0001499313 9.92139e-05 -8.68195e-05 0.0001553462 0.5113591032 -0.6802570997
475297150.0 -0.4848343622 0.6986316955 -0.0002108246 -0.0001261931 8.4968e-05 -0.0001419467 0.5046635319 -0.685182822
480297120.0 -0.4772412783 0.7039218029 -9.2934e-05 -3.51413e-05 -1.87947e-05 -2.85124e-05 0.497609934 -0.6898730013
485297090.0 -0.4705588356 0.7080021646 4.92441e-05 -0.0001452184 -0.0001674509 0.0003001731 0.4915415742 -0.6949436481
490297060.0 -0.4623293099 0.7140929607 -7.91571e-05 -9.61597e-05 -0.0001921635 -0.0001028958 0.4839749733 -0.6993858242
495297030.0 -0.4550474034 0.718062335 0.0001688449 -6.0101e-05 0.0001293405 -7.25943e-05 0.4770078427 -0.7043169359
500297000.0 -0.4475139586 0.7221701227 0.0001434373 -1.28588e-05 -8.09967e-05 5.93888e-05 0.4702986254 -0.7089202917
505296970.0 -0.4397215984 0.7272180013 9.15363e-05 0.0003262815 0.0001544745 -0.0002046777 0.4630093236 -0.7137022021
510296940.0 -0.4322211842 0.7315415325 0.0001686056 0.0002080263 -4.02362e-05 6.94921e-05 0.4550371277 -0.7175375304
515296910.0 -0.4244311445 0.7357855244 -3.24966e-05 0.0001432691 -0.000192644 0.0001051045 0.4486455797 -0.721977559
520296880.0 -0.4163648526 0.7402694505 7.92e-07 0.0001856633 1.2475e-06 -3.02388e-05 0.4416003872 -0.7266786675
525296850.0 -0.4087534813 0.7441508909 -0.0001241897 -1.79675e-05 -4.02954e-05 7.63717e-05 0.4342339259 -0.7306669645
530296820.0 -0.4014413509 0.7486565176 -0.0001352575 -7.04438e-05 0.0001969917 -8.47257e-05 0.4269273083 -0.7346722266
535296790.0 -0.3932121596 0.7518433917 0.0001610586 4.32314e-05 -2.55994e-05 0.000174464 0.4203489757 -0.7384890856
540296760.0 -0.3850243314 0.756251407 -2.76481e-05 -8.21202e-05 -6.15901e-05 6.81537e-05 0.4122272656 -0.7428673489
545296730.0 -0.37751324 0.7602380066 4.93194e-05 0.0002332982 -5.00075e-05 -7.44088e-05 0.4050110265 -0.7470783447
550296700.0 -0.3693354654 0.7638224867 -0.0001761413 -8.40957e-05 -7.62992e-05 -0.000115396 0.3972710114 -0.7505000715
555296670.0 -0.3614813181 0.7676665092 -1.78568e-05 0.000131928 5.43669e-05 5.42816e-05 0.3898230813 -0.75499299
560296640.0 -0.3535508495 0.7712503372 7.4884e-06 -7.48921e-05 -1.33895e-05 0.0001096719 0.3820261425 -0.7583120216
565296610.0 -0.3456833731 0.7744717885 -8.7965e-06 -2.02742e-05 0.0002125604 -6.3264e-05 0.3748263517 -0.7618490168
570296580.0 -0.3374226965 0.7781837277 8.44207e-05 3.24499e-05 -7.32075e-05 -9.65315e-05 0.3672002467 -0.7656714006
575296550.0 -0.3279874209 0.7817656797 6.14056e-05 -0.0001511527 6.0031e-05 -4.306e-07 0.3596970623 -0.7689498369
580296520.0 -0.3214010472 0.7846325847 -0.0001931405 0.0001899197 -7.04578e-05 -8.96315e-05 0.3513930672 -0.772265944
585296490.0 -0.312717904 0.7876534592 6.35455e-05 1.27334e-05 0.0001798643 4.24644e-05 0.3440601993 -0.7750764362
590296460.0 -0.3041477504 0.7906784342 0.0002197753 0.000141927 -0.0002389295 -8.03375e-05 0.3360430575 -0.7790993375
595296430.0 -0.2963827618 0.7936152202 -0.0002779191 -0.0001415483 3.65255e-05 0.0001133608 0.3291299795 -0.7822523355
600296400.0 -0.2881891184 0.7970464973 -0.0001343879 5.26634e-05 0.0001297255 0.000101809 0.321264051 -0.7849247237
605296370.0 -0.2801595597 0.7993530229 6.04243e-05 1.73568e-05 -3.76223e-05 0.0001397624 0.3133736831 -0.787835501
610296340.0 -0.2715430551 0.8032356676 -0.0001601346 -4.40043e-05 3.35039e-05 -0.0002472985 0.3046262605 -0.7909484486
615296310.0 -0.26257008 0.8051602761 0.0001149982 0.000276722 -2.91743e-05 -3.62416e-05 0.2966274058 -0.7940375266
620296280.0 -0.2552302763 0.8085322107 -0.0001342238 -9.75627e-05 -0.0003093695 7.45129e-05 0.2890770044 -0.7965522336
625296250.0 -0.2473936426 0.8103098022 -0.0001177202 -0.0001774135 5.23919e-05 -0.000115739 0.280970475 -0.7998445842
630296220.0 -0.2384725712 0.8131753022 0.0001372538 5.17786e-05 0.0002280101 -6.99112e-05 0.2732685937 -0.8021651416
635296190.0 -0.2303182259 0.8158380187 0.0001734819 -2.01979e-05 8.55271e-05 -4.67039e-05 0.2653092358 -0.804709689
640296160.0 -0.2222407628 0.8176899937 -0.0002969875 0.0001795018 -0.0001667108 -3.99689e-05 0.2568977692 -0.8070588198
645296130.0 -0.2136125912 0.8204114735 -1.1224e-05 -0.0001604741 -1.08953e-05 -6.07508e-05 0.2489305948 -0.8092573668
650296100.0 -0.2052093626 0.8213913803 -0.0002485679 -1.68707e-05 -6.14864e-05 5.47027e-05 0.2410542247 -0.8116615054
655296070.0 -0.197770767 0.8244707685 3.3521e-06 7.31996e-05 -0.0001351759 6.41184e-05 0.2325876593 -0.8141933913
660296040.0 -0.1892045247 0.8265027708 -0.0001265614 -0.0001560757 -4.92477e-05 -4.5034e-05 0.2254794064 -0.8161415607
665296010.0 -0.1809374642 0.8285742033 5.66506e-05 2.41672e-05 -0.0001728359 2.79453e-05 0.2176025373 -0.8179661201
670295980.0 -0.1724695254 0.8307120544 0.0003463904 0.0001492606 -0.0001495801 1.63809e-05 0.2088200195 -0.8200366475
675295950.0 -0.1634524599 0.8323010617 0.0001471232 0.0002255242 0.0001458742 0.00013111 0.2001467994 -0.8222249814
680295920.0 -0.1567182344 0.8339012411 8.00517e-05 9.76108e-05 9.88779e-05 0.0001594889 0.1924243813 -0.8239735874
685295890.0 -0.1475261421 0.8357355765 -0.0003282325 1.77037e-05 -0.0001047933 1.77124e-05 0.1838916236 -0.8254045936
690295860.0 -0.1395318938 0.8369099399 6.38917e-05 0.0001416322 -8.0628e-06 2.69095e-05 0.1754656046 -0.8272406101
695295830.0 -0.1305391323 0.8385349627 -2.596e-06 5.68945e-05 6.31471e-05 -0.0001758111 0.1676619599 -0.8283268308
700295800.0 -0.1222981207 0.8403821444 -5.21397e-05 -6.09506e-05 -2.04627e-05 3.6512e-05 0.1594816651 -0.8299344379
705295770.0 -0.1147151382 0.8417079869 -5.82983e-05 -5.98653e-05 9.91116e-05 -0.0001552795 0.150004158 -0.8317011801
710295740.0 -0.1074307124 0.8426304816 -3.28693e-05 3.67195e-05 1.275e-07 8.54724e-05 0.1432121562 -0.832733897
715295710.0 -0.0980017053 0.8438237955 0.0001369476 -0.0002191085 -0.0002426959 0.0001326222 0.1347175781 -0.8345635056
720295680.0 -0.08907407 0.8445113143 -0.0002430147 7.88361e-05 0.0001569328 -0.0001741057 0.1264197338 -0.8348972122
725295650.0 -0.0816282352 0.846389491 -7.29683e-05 0.000228916 2.19783e-05 -0.0001880849 0.1174737156 -0.8360068572
730295620.0 -0.0738695028 0.8467913505 -1.22261e-05 -9.08996e-05 6.67134e-05 -5.36284e-05 0.1090066166 -0.8371722488
735295590.0 -0.0659888647 0.8481191898 0.0001193478 -1.90198e-05 -5.05418e-05 -0.0002609902 0.1012048171 -0.8375839393
740295560.0 -0.0578558805 0.847859714 -0.0001827007 0.0002395795 9.45301e-05 2.00917e-05 0.0927018585 -0.8386750849
745295530.0 -0.0492618929 0.8487555893 -7.03147e-05 8.50357e-05 -0.0001645679 -0.0002612502 0.0835395758 -0.8401288043
750295500.0 -0.0413410383 0.8494016361 7.5947e-06 -3.74085e-05 -3.70271e-05 -0.0001204222 0.0759262059 -0.8404458289
755295470.0 -0.0324000068 0.8502498918 -0.0001630377 -0.0001573959 -0.0001482453 0.0002537764 0.0674609747 -0.8402329368
760295440.0 -0.0242244658 0.8508053012 0.0001456927 -5.85679e-05 -9.58009e-05 3.15435e-05 0.0591856327 -0.8414470138
765295410.0 -0.0159759531 0.850998036 -0.0001368952 -9.7607e-06 -0.0002226964 -8.5862e-05 0.050601001 -0.8416929834
770295380.0 -0.0087166203 0.8508454326 9.01187e-05 -1.60622e-05 3.8994e-05 0.0002694136 0.0424052343 -0.8419535095
775295350.0 -9.30395e-05 0.8513287147 -9.40994e-05 7.59693e-05 8.12797e-05 -9.5712e-06 0.0342874801 -0.842675389
780295320.0 0.0083416898 0.8514206445 4.33422e-05 0.0001236545 0.0001494897 -2.0513e-06 0.0258219858 -0.8423911146
785295290.0 0.0163992612 0.8515225753 1.41313e-05 -0.0001812553 -2.56775e-05 -7.16189e-05 0.0164466818 -0.8425032779
790295260.0 0.0247934194 0.8513056932 1.66636e-05 -0.0002239531 -0.0001649152 8.15564e-05 0.0091088561 -0.8423133549
795295230.0 0.0327852402 0.8509868199 -6.53538e-05 3.67943e-05 -4.9777e-06 7.40389e-05 0.0004120453 -0.8434807956
800295200.0 0.0410830452 0.8506893376 -0.000181552 -6.41566e-05 2.74001e-05 0.0002425105 -0.007974912 -0.8423653964
805295170.0 0.0488648469 0.8505356576 -9.29063e-05 0.0003632619 6.02478e-05 6.78054e-05 -0.0157895633 -0.8423535465
810295140.0 0.0576483625 0.8505089224 6.066e-05 3.86431e-05 -0.0001279747 6.47916e-05 -0.0249104952 -0.8418173828
815295110.0 0.0653994097 0.850202675 5.33517e-05 -0.00020719 -2.8129e-06 -0.0002858104 -0.0336167196 -0.8412179808
820295080.0 0.0733192902 0.8492606433 -1.2057e-06 -0.0002040934 -1.1058e-05 9.55584e-05 -0.041940682 -0.8404038337
825295050.0 0.0818764615 0.8485062792 -0.0001097932 -7.1925e-05 -5.2333e-05 3.28116e-05 -0.0497621294 -0.8400249484
830295020.0 0.0902186735 0.8481167502 -4.16862e-05 -0.0002435123 -0.0002112377 5.9938e-05 -0.0587205655 -0.839268558
835294990.0 0.0980048068 0.8469597002 -5.08251e-05 0.000282759 -0.0001289341 4.94537e-05 -0.0668468675 -0.8384415126
840294960.0 0.1065178415 0.8455822169 9.7334e-06 -7.17889e-05 2.46813e-05 -1.26286e-05 -0.0750152541 -0.8373691532
845294930.0 0.1146420931 0.8448092273 0.0001018614 0.0001869396 -0.0001638403 1.28934e-05 -0.0835528167 -0.8361085272
