!Created with skrf (http://scikit-rf.org).
# Hz S RI R 50.0 
!freq ReS11 ImS11 ReS21 ImS21 ReS12 ImS12 ReS22 ImS22
300000.0 -0.2354930453 -0.1118937511 0.4678446884 0.0724908695 0.4708798594 0.074812076 -0.2380770475 -0.1129953524
5299970.0 -0.240831558 0.0068700558 0.474993534 0.0054460624 0.4755364373 0.0056174837 -0.2447173642 0.0052198243
10299940.0 -0.2373396709 0.0198356753 0.4772931539 0.0064759398 0.4772306379 0.006491358 -0.241617368 0.017673425
15299910.0 -0.2328647528 0.029872912 0.480620184 0.0074608928 0.4805870415 0.0078566316 -0.2373349241 0.0261364775
20299880.0 -0.2274199188 0.0380120025 0.4853238014 0.0080047884 0.4856315382 0.0079457675 -0.2328223198 0.0341264856
25299850.0 -0.2215927272 0.0442696901 0.4904201505 0.0069167859 0.4905842757 0.0070339915 -0.2277375326 0.040004313
30299820.0 -0.2156307114 0.0493774768 0.4960674751 0.0049245618 0.4956125201 0.004832954 -0.2225973551 0.0451583605
35299790.0 -0.2100774133 0.0539665848 0.5014524866 0.0017949559 0.5012100373 0.0018539007 -0.2172784661 0.0486657874
40299760.0 -0.2044994667 0.0570226406 0.5063718935 -0.0020444763 0.506396311 -0.0022610466 -0.2125747727 0.0522580498
45299730.0 -0.1994281965 0.0600867976 0.5111983647 -0.0070489485 0.5111556343 -0.0070708106 -0.2078990448 0.0545616905
50299700.0 -0.1946635748 0.0619315171 0.5147647499 -0.0128308349 0.5152310523 -0.0126634344 -0.2036188323 0.056550287
55299670.0 -0.1905658616 0.0640058175 0.5182179577 -0.0187275762 0.5189546238 -0.0186007142 -0.1999101911 0.0582835055
60299640.0 -0.1866436207 0.0649390756 0.5217516295 -0.0251172758 0.521918235 -0.0246606211 -0.1961957764 0.059710804
65299610.0 -0.1830286354 0.0664374436 0.5251450379 -0.0309050923 0.5251096146 -0.031140433 -0.1927657716 0.0608893006
70299580.0 -0.1796466029 0.0670167235 0.5271772536 -0.0377013916 0.5273280569 -0.0376280152 -0.1898916209 0.0616258641
75299550.0 -0.1765081011 0.0679269096 0.529190163 -0.0443789618 0.5290526008 -0.0446707196 -0.1871573407 0.0628281408
80299520.0 -0.1741450341 0.0688183834 0.5313063087 -0.0514459949 0.5313486958 -0.0515437922 -0.1846192713 0.0629659749
85299490.0 -0.1714353639 0.0694051988 0.5326486729 -0.0583409795 0.5328207061 -0.0583561031 -0.1826147385 0.06393388
90299460.0 -0.1691167474 0.0700797771 0.5334659546 -0.0650668738 0.5336197088 -0.0653743764 -0.1800409444 0.0644931463
95299430.0 -0.1670453605 0.0709772953 0.5344015167 -0.0723101307 0.5344583958 -0.0724208944 -0.1784361855 0.0652691443
100299400.0 -0.1652771339 0.071921547 0.5348161915 -0.0795975437 0.5346070683 -0.0793195365 -0.1767499857 0.0658135964
105299370.0 -0.1633289362 0.072280709 0.5345274362 -0.0857932169 0.5351150799 -0.0861514544 -0.1749689538 0.0664086017
110299340.0 -0.1620262664 0.0730801592 0.535061399 -0.0928868923 0.535217261 -0.0929297624 -0.1737758571 0.0671203657
115299310.0 -0.160269985 0.0734404063 0.5347928238 -0.0992246018 0.5352084 -0.0992511902 -0.1721821461 0.0671997987
120299280.0 -0.158995755 0.0743699616 0.5350847145 -0.1062068991 0.5351873012 -0.1065439562 -0.171221295 0.0680298232
125299250.0 -0.1578543272 0.0751997524 0.5344244511 -0.1130099451 0.5348205165 -0.1132592683 -0.1698563776 0.0685230449
130299220.0 -0.15644698 0.0759593674 0.5339314106 -0.1193721839 0.5340231234 -0.1197619596 -0.1689087817 0.0694315135
135299190.0 -0.1551172851 0.076607282 0.5332646041 -0.1259376225 0.5328060775 -0.1264991552 -0.1679507745 0.0703271393
140299160.0 -0.1544338846 0.0779647397 0.5324818594 -0.13303848 0.5323410548 -0.133234662 -0.1666758449 0.0710763834
145299130.0 -0.1529367374 0.079015823 0.5318243683 -0.1396401023 0.5313169089 -0.1391485372 -0.1663366959 0.0717524277
150299100.0 -0.1521873965 0.0801344361 0.5307764015 -0.1462709772 0.5302678545 -0.145908714 -0.1649715403 0.0726714447
155299070.0 -0.151100621 0.0814047514 0.5291908987 -0.1528759346 0.5292757095 -0.1531579717 -0.1646522159 0.0736106807
160299040.0 -0.1501034727 0.0821609512 0.52738948 -0.1586207608 0.5278215047 -0.159073302 -0.1635438581 0.0748479826
165299010.0 -0.1492665509 0.0831652937 0.5265984982 -0.1656003987 0.5265505759 -0.1655908254 -0.1628191302 0.0754470759
170298980.0 -0.1486180017 0.0843407728 0.5241945407 -0.171800817 0.5246760144 -0.1718294929 -0.1620254864 0.0764612738
175298950.0 -0.1469784409 0.0857240352 0.5234626984 -0.1781642971 0.5234245081 -0.1782201267 -0.1612329015 0.0776299551
180298920.0 -0.1463374641 0.0867795272 0.5213408025 -0.184480117 0.5218594053 -0.1842865775 -0.1603963995 0.0789746241
185298890.0 -0.1451376588 0.0877764311 0.519295986 -0.1908674357 0.5196037839 -0.1907735286 -0.1596663467 0.079731773
190298860.0 -0.1445727686 0.0891041004 0.5177566774 -0.1968559123 0.5180159882 -0.1969675862 -0.1584395931 0.0807995484
195298830.0 -0.1434499972 0.0901174351 0.5158305121 -0.2027970311 0.5157448869 -0.2028885762 -0.1581092531 0.0816862886
200298800.0 -0.1422868865 0.0916104236 0.5137054042 -0.2080985994 0.5134953936 -0.2087847993 -0.1569894748 0.0833106608
205298770.0 -0.1415651922 0.0933163813 0.5117593751 -0.2149999939 0.5115594679 -0.2151737116 -0.156527442 0.0839218724
210298740.0 -0.1409533437 0.0943793577 0.5100105216 -0.2209779143 0.5090818469 -0.2212761524 -0.155522288 0.0857099317
215298710.0 -0.1399370077 0.0957848171 0.5070551111 -0.2269986381 0.5070878658 -0.2264380766 -0.1551753041 0.0863665819
220298680.0 -0.1388176913 0.097035958 0.5045290367 -0.2332160831 0.5044811691 -0.2328894434 -0.1540460038 0.0879995617
225298650.0 -0.137450286 0.0985045593 0.501540016 -0.2383763275 0.5018682289 -0.238140362 -0.1536192306 0.0892466028
230298620.0 -0.1369752447 0.099825342 0.4997184668 -0.2447406246 0.4997312912 -0.2442524999 -0.1523303821 0.0906303567
235298590.0 -0.1357882 0.1010530267 0.4965259176 -0.2498998227 0.4972240935 -0.2504183573 -0.1517837696 0.0914273894
240298560.0 -0.1350852302 0.1025101857 0.4941926344 -0.2559544858 0.4940575884 -0.255351627 -0.1507993209 0.0929795699
245298530.0 -0.1336273248 0.1036128757 0.4905730252 -0.2614115095 0.4910367672 -0.2615508079 -0.149922403 0.0944103997
250298500.0 -0.1330733248 0.1050339375 0.4885156463 -0.2664388921 0.4888846692 -0.2667176094 -0.148874253 0.0955843828
255298470.0 -0.1318718175 0.1068802346 0.4854544264 -0.272962615 0.4854333604 -0.2730353663 -0.1480535059 0.0969515235
260298440.0 -0.1308589275 0.1081393517 0.4826567647 -0.2780986718 0.4827589276 -0.2782615756 -0.1468439022 0.0984497855
265298410.0 -0.1295179569 0.1098575982 0.4796847799 -0.2836996298 0.4795586356 -0.283679759 -0.1462793931 0.0992426217
270298380.0 -0.1283299852 0.1113155628 0.4763235301 -0.2895284516 0.4765242933 -0.2893350548 -0.1454187378 0.1011786993
275298350.0 -0.1273142831 0.1125738618 0.4735429419 -0.2950825476 0.4738673832 -0.294789446 -0.1442812101 0.1024552846
280298320.0 -0.1261089719 0.1139060255 0.470261429 -0.2992577697 0.4697416385 -0.299698118 -0.1433899606 0.1037681955
285298290.0 -0.1248491917 0.1155434996 0.4667289546 -0.3051718581 0.4669834972 -0.3053469823 -0.1425334988 0.1051064107
290298260.0 -0.1236408033 0.1167766419 0.4638994329 -0.3109476856 0.463734752 -0.3105119677 -0.1412712939 0.1066323933
295298230.0 -0.1228218554 0.1180372364 0.4609887285 -0.315594215 0.4600325031 -0.3159813907 -0.1401557691 0.1078164574
300298200.0 -0.1208767785 0.1193319698 0.4567872738 -0.3209674451 0.4568909798 -0.3213885109 -0.1391638815 0.1093249834
305298170.0 -0.1197958322 0.1205916432 0.4538418939 -0.3264612159 0.4534902904 -0.3266560356 -0.1378184664 0.1108054014
310298140.0 -0.1182364244 0.1218604045 0.4499691082 -0.3318965878 0.4501793737 -0.3322402656 -0.1367749473 0.1122801431
315298110.0 -0.1172589669 0.1231980127 0.4463676785 -0.3368347108 0.4463888291 -0.3370580769 -0.1357779436 0.1133345372
320298080.0 -0.1158257538 0.1247108559 0.4426346618 -0.3421462969 0.4426481931 -0.3420380319 -0.1346780522 0.1143203709
325298050.0 -0.1145313742 0.1253663122 0.438867599 -0.3474435177 0.4390208909 -0.3474718137 -0.1337556717 0.1161113258
330298020.0 -0.1135506967 0.1270249291 0.4343289954 -0.3523967235 0.4345037972 -0.3520939748 -0.1330023428 0.1170313405
335297990.0 -0.1120602003 0.1279728383 0.4303016427 -0.3570244287 0.4307475341 -0.3570502605 -0.1318296085 0.1183270935
340297960.0 -0.1113677093 0.1296908462 0.4264480613 -0.3618582076 0.4268777016 -0.3617128404 -0.1311343491 0.120345233
345297930.0 -0.1101647889 0.1310052482 0.4224062852 -0.3657720387 0.4222756946 -0.3659514092 -0.1301171775 0.1213782866
350297900.0 -0.1083746336 0.1325627206 0.4183822382 -0.3705796897 0.4186958763 -0.3710713324 -0.1289738959 0.1230171477
355297870.0 -0.1071585544 0.1336445004 0.4140417247 -0.375273549 0.4142030741 -0.3757293335 -0.1278539372 0.1245533092
360297840.0 -0.1055144238 0.1352545495 0.4101098105 -0.380242614 0.4102408392 -0.3799648196 -0.1267412862 0.1258195688
365297810.0 -0.1042286876 0.1364512515 0.4055280041 -0.3841640006 0.4059719209 -0.384875811 -0.1253766684 0.1274727172
370297780.0 -0.1023197285 0.1374823141 0.4013771261 -0.3887153698 0.4014955982 -0.3892305849 -0.1241532161 0.1286878691
375297750.0 -0.1012926957 0.1391205623 0.3979032612 -0.393215215 0.3973347908 -0.3939016125 -0.1229708922 0.1305248909
380297720.0 -0.0995664705 0.1402066553 0.3929787508 -0.3974329522 0.3930994757 -0.3976018887 -0.1218512417 0.1317260424
385297690.0 -0.0981532544 0.1416755263 0.3883426785 -0.4016592366 0.3884035528 -0.4019203238 -0.1208771674 0.1331166313
390297660.0 -0.0967751522 0.1428331274 0.3837480332 -0.406456306 0.3840573652 -0.4066388451 -0.1192257364 0.1342960098
395297630.0 -0.0947987698 0.1440656676 0.3797574445 -0.4104503851 0.3794890331 -0.4104976003 -0.1180769781 0.1358340152
400297600.0 -0.093674309 0.1453642508 0.3750109422 -0.4148124154 0.375166795 -0.4150994647 -0.1169648992 0.1367448972
405297570.0 -0.0921126436 0.1466086668 0.3705400261 -0.418737641 0.3704741449 -0.4189861137 -0.1156265027 0.1385845385
410297540.0 -0.0903092269 0.1474881349 0.3655558385 -0.4224471989 0.3654699458 -0.4227027872 -0.1144640418 0.1395804124
415297510.0 -0.088498351 0.1490387355 0.3610592428 -0.4263351642 0.3614932898 -0.4268950038 -0.1131860535 0.1414044727
420297480.0 -0.0868611485 0.1497352186 0.3565131714 -0.4309889563 0.356494923 -0.430470778 -0.1115502431 0.1421476288
425297450.0 -0.0847875361 0.1506945399 0.3513670631 -0.4348235055 0.3519693305 -0.4345366035 -0.110327949 0.1440809454
430297420.0 -0.0836833646 0.1520455094 0.3471406015 -0.4386555654 0.3472807382 -0.4382941871 -0.1090760746 0.1446484437
435297390.0 -0.0817696593 0.1529319023 0.3423343013 -0.4421713904 0.3422239808 -0.4418831976 -0.1076033595 0.1468104251
440297360.0 -0.080056606 0.1542148863 0.3373203468 -0.4457632214 0.3373213228 -0.4460360969 -0.106694125 0.1471398292
445297330.0 -0.077938816 0.155275456 0.331613392 -0.4499434165 0.3317555336 -0.4496187763 -0.1047984885 0.148549053
450297300.0 -0.0764239922 0.1559952851 0.3274383551 -0.4530127098 0.3275059226 -0.4530361809 -0.1037236824 0.1497720153
455297270.0 -0.0746725516 0.1569572304 0.3223656447 -0.4566897156 0.3225916901 -0.4563127547 -0.1021877222 0.151112362
460297240.0 -0.0734718918 0.1580538794 0.3175278725 -0.4598914139 0.316907259 -0.4600602146 -0.1003986593 0.152741338
465297210.0 -0.0713900876 0.1589844019 0.3124591302 -0.4636329322 0.3129198719 -0.4637328566 -0.0996123653 0.1532263085
470297180.0 -0.0695342234 0.1597888487 0.3072914731 -0.4667252508 0.3076843238 -0.4667229163 -0.0985535994 0.1547843293
475297150.0 -0.0677832214 0.1603636146 0.3018331183 -0.4700362699 0.3023100322 -0.4698246204 -0.0965611756 0.1557480854
480297120.0 -0.0657564523 0.1613700747 0.2972597056 -0.4733253054 0.2970851932 -0.4733000318 -0.095067355 0.1573210603
485297090.0 -0.0639977446 0.1620774946 0.2921998984 -0.4764977396 0.2921202771 -0.4764662737 -0.0939792116 0.1578037692
490297060.0 -0.0619928121 0.1628956667 0.2868236694 -0.4796419266 0.2867571444 -0.4800579334 -0.0922693781 0.1593745544
495297030.0 -0.0605205826 0.1641005716 0.28093599 -0.4830023017 0.2809127011 -0.4826798376 -0.0905408303 0.1600189098
500297000.0 -0.0584289313 0.1646011442 0.2757779804 -0.486183016 0.2762498946 -0.4857764937 -0.0893160674 0.1613420887
505296970.0 -0.0569822244 0.1655828618 0.2705007236 -0.4882675916 0.2707195889 -0.4884257989 -0.0883233765 0.1622526344
510296940.0 -0.0549326153 0.1664770156 0.2651224926 -0.4914876772 0.2658481183 -0.491793333 -0.0863336695 0.1636881584
515296910.0 -0.0534376224 0.1671956885 0.2601228254 -0.4944173198 0.2601388212 -0.4942896499 -0.0848366124 0.1644081874
520296880.0 -0.0512228908 0.1677305291 0.2546812993 -0.497135158 0.254707527 -0.4965600633 -0.0828292294 0.165276378
525296850.0 -0.049544718 0.1682163165 0.2495309981 -0.4996633689 0.2493078324 -0.5001430647 -0.0812485797 0.1666337418
530296820.0 -0.047593258 0.1690642271 0.2441489589 -0.502088145 0.243758893 -0.5023811247 -0.0803580877 0.167153623
535296790.0 -0.0458052752 0.1694977288 0.2382533011 -0.5046705564 0.2383677563 -0.5048671986 -0.0785106503 0.1680126647
540296760.0 -0.043870004 0.1701288527 0.2329538239 -0.5081823136 0.2328003839 -0.507780086 -0.0775106144 0.1693518543
545296730.0 -0.0417934932 0.1712523231 0.227294712 -0.5098845392 0.2274616962 -0.510165991 -0.0755280574 0.1697125484
550296700.0 -0.0403820225 0.1718148546 0.2219149027 -0.5124386316 0.222018756 -0.5126506014 -0.07387732 0.1714731598
555296670.0 -0.0380234196 0.1720234877 0.2163499426 -0.515036372 0.2163565843 -0.514573681 -0.0724647673 0.1719546278
560296640.0 -0.0361526618 0.1725879258 0.21061439 -0.5169977549 0.210818065 -0.5168754414 -0.070671142 0.1726125803
565296610.0 -0.0344576318 0.1729309975 0.2049288137 -0.519025657 0.2051491004 -0.51939214 -0.0692542274 0.1734073707
570296580.0 -0.032216319 0.1733408704 0.1994724467 -0.5212483781 0.1995752381 -0.5214391315 -0.0673978583 0.1748943844
575296550.0 -0.0301783541 0.1742736602 0.1936301638 -0.523230572 0.193918636 -0.5232236637 -0.0655492285 0.1753311723
580296520.0 -0.0285941631 0.1745137617 0.1884213648 -0.5256108153 0.1880625327 -0.5254722249 -0.0642386065 0.1760686574
585296490.0 -0.0265085009 0.1748537162 0.1825773364 -0.5276816243 0.1822558303 -0.5271274157 -0.0625586447 0.1763850299
590296460.0 -0.0245205102 0.1751523963 0.1761652211 -0.5295971972 0.176677066 -0.5293390718 -0.0607284739 0.1775254309
595296430.0 -0.0227817795 0.1760207363 0.1713577937 -0.5313699271 0.1706688513 -0.5313856127 -0.0590368227 0.1780909775
600296400.0 -0.0205679003 0.1763772353 0.1651270975 -0.5330856398 0.1656975258 -0.5331859626 -0.0572452482 0.1793147729
605296370.0 -0.018592664 0.1766791537 0.15950049 -0.5351039294 0.1597247468 -0.5349150592 -0.0558226257 0.1797515181
610296340.0 -0.0166336892 0.1769309116 0.1536748842 -0.5364255033 0.1534890586 -0.5366466892 -0.0539238954 0.1806671518
615296310.0 -0.0149524022 0.1777293153 0.1480310441 -0.5378364201 0.1477915181 -0.5381002067 -0.0520644457 0.1812639525
620296280.0 -0.0128641676 0.1774881975 0.1419151284 -0.5392583116 0.1421714337 -0.5395831723 -0.0504143289 0.1815147713
625296250.0 -0.0107187024 0.1779314355 0.1355612672 -0.5413488021 0.1360001333 -0.541348313 -0.0487379676 0.1825774369
630296220.0 -0.0087899417 0.1783449718 0.1298722393 -0.5424902244 0.1307523239 -0.5425869264 -0.0470476585 0.1833109379
635296190.0 -0.0069143868 0.1787111081 0.1244788342 -0.5435192409 0.1243871435 -0.5435894305 -0.0454096979 0.1835890209
640296160.0 -0.0050256603 0.1784767888 0.1191341736 -0.5449339309 0.1184200835 -0.5451014885 -0.0432324901 0.1841680145
645296130.0 -0.0030927037 0.1792909286 0.112711409 -0.5461508838 0.1126909566 -0.5462504832 -0.042024109 0.1844307396
650296100.0 -0.0010965607 0.1795664918 0.1067211232 -0.5471179012 0.1069645722 -0.5471900699 -0.0400608949 0.1854526588
655296070.0 0.0007977546 0.1792372344 0.1013004504 -0.5484610901 0.1008301609 -0.5484612028 -0.0378876749 0.1858413231
660296040.0 0.0028026602 0.1796861234 0.0950713993 -0.5491385607 0.0951168611 -0.5495247333 -0.0366781116 0.1863889541
665296010.0 0.0049555803 0.1795618682 0.0895702677 -0.5502976324 0.089634582 -0.5503854607 -0.0350707876 0.1869323221
670295980.0 0.0074177697 0.1797550044 0.0831766278 -0.5514438243 0.0833262701 -0.5511008733 -0.033393246 0.1870948165
675295950.0 0.0091859528 0.1795412773 0.077140088 -0.5520610069 0.0772183552 -0.5524146949 -0.0310151069 0.187676462
680295920.0 0.0109023201 0.1801655357 0.0710296446 -0.5527494019 0.0708773196 -0.5531767115 -0.0294804098 0.1882374172
685295890.0 0.0127834789 0.1800923128 0.0654789009 -0.5535492024 0.0653544095 -0.5538630082 -0.0279009833 0.1886353977
690295860.0 0.0153379693 0.1799484078 0.0591944701 -0.5539546636 0.0588634937 -0.5539490519 -0.0256366592 0.1891167191
695295830.0 0.0176805248 0.179541495 0.0527612936 -0.5546409895 0.0529109113 -0.5547592154 -0.0240026692 0.1894718998
700295800.0 0.0195082374 0.1797931239 0.0472834582 -0.5552362611 0.0472753604 -0.5556844774 -0.0225678333 0.1895422845
705295770.0 0.0215404031 0.1798367348 0.0410111803 -0.5556765213 0.0415049631 -0.5560046389 -0.0208262844 0.1902942834
710295740.0 0.0231589779 0.1800194769 0.0353728345 -0.5560940803 0.0350705638 -0.5562150053 -0.0193234341 0.1908474306
715295710.0 0.0251584098 0.1798875472 0.0291924752 -0.5565795456 0.0296213183 -0.5567048659 -0.0172813927 0.1907992034
720295680.0 0.0272676559 0.1794072177 0.0231105397 -0.5564484046 0.0234430536 -0.5571046557 -0.0148789442 0.1912837992
725295650.0 0.0295026129 0.1795325015 0.0169103837 -0.5567642743 0.0171263931 -0.55693965 -0.0132561266 0.1916280882
730295620.0 0.0309709081 0.17910227 0.0114122716 -0.5570673642 0.0111716795 -0.5570717117 -0.0115027256 0.1914238463
735295590.0 0.0337545172 0.1787672185 0.0053843404 -0.5569655715 0.0055824091 -0.5574130911 -0.0094566509 0.1920264287
740295560.0 0.0354757814 0.1789225493 -0.0008569962 -0.557080119 -0.0010391225 -0.5572709738 -0.007551979 0.1920437948
745295530.0 0.0374007627 0.1782470818 -0.0068586956 -0.5570412648 -0.0067633574 -0.5574944866 -0.0060088788 0.1924889996
750295500.0 0.0395291242 0.17842284 -0.012823177 -0.5565700409 -0.0127202007 -0.5566121824 -0.0040648842 0.1920470857
755295470.0 0.0419846105 0.1782177297 -0.0184888071 -0.5567609122 -0.0184978567 -0.5565733017 -0.0024571676 0.1927598935
760295440.0 0.043518897 0.1777310705 -0.025238742 -0.5565064861 -0.0248145184 -0.5564490597 -0.0008617181 0.1931033573
765295410.0 0.0452866601 0.1769576362 -0.0302007419 -0.5558477092 -0.0306107835 -0.5561529336 0.0019953199 0.1931860596
770295380.0 0.0478448488 0.176995831 -0.0368276929 -0.555370695 -0.036731656 -0.5557557234 0.0037894666 0.1931386068
775295350.0 0.0492855432 0.1766879044 -0.0426049308 -0.5550327085 -0.0424745872 -0.555224682 0.0049765618 0.1929193626
780295320.0 0.0516977752 0.1760001677 -0.0485538479 -0.5547020906 -0.048554552 -0.5545767025 0.0071982773 0.1936955915
785295290.0 0.0534285214 0.1762002936 -0.0544446567 -0.5537105142 -0.054408454 -0.5539359956 0.0084315632 0.193509798
790295260.0 0.0552749173 0.1753981014 -0.0605152234 -0.5532160598 -0.0607461327 -0.553943376 0.0110447586 0.1936855622
795295230.0 0.0571094709 0.1749984264 -0.0658668272 -0.5524623641 -0.0658652554 -0.5524951374 0.0129445016 0.1940887786
800295200.0 0.0595132674 0.1745510755 -0.0727588178 -0.5521458321 -0.0725673603 -0.552064631 0.0148779562 0.1937671535
805295170.0 0.0611838194 0.1739112338 -0.0782617922 -0.5506197059 -0.0782684549 -0.551284881 0.0160114397 0.1935598542
810295140.0 0.0634109235 0.1734028031 -0.084208808 -0.550067021 -0.0841009172 -0.5506083333 0.018425131 0.1938177997
815295110.0 0.065268807 0.1730597114 -0.0906280988 -0.5487556411 -0.090483557 -0.5491018716 0.0200602937 0.1938483966
820295080.0 0.0670545249 0.1721093697 -0.0960666437 -0.5483490534 -0.0961121169 -0.5486348316 0.0216762282 0.1934713561
825295050.0 0.069056945 0.1714446732 -0.101895403 -0.5465867689 -0.1017475882 -0.5470420467 0.0239612816 0.1936592914
830295020.0 0.0708822499 0.1711955695 -0.107704765 -0.5459143432 -0.1082579116 -0.5464817247 0.0257086677 0.1932543009
