!Created with skrf (http://scikit-rf.org).
# Hz S RI R 50.0 
!freq ReS11 ImS11 ReS21 ImS21 ReS12 ImS12 ReS22 ImS22
300000.0 -0.7730292992 -0.1641129375 -0.00299247 0.0013587539 -0.0009712243 0.0008715489 -0.7680525855 -0.1790787576
5299970.0 -0.786000247 -0.0084476811 -0.0001472984 1.47496e-05 -8.68616e-05 0.0001019189 -0.7850228148 -0.009435341
10299940.0 -0.7888366275 -0.0055320217 3.02443e-05 3.56354e-05 -1.80146e-05 -0.0002028297 -0.7879224573 -0.0050291271
15299910.0 -0.7945774712 -0.0027640592 0.0002217432 0.0001071764 0.0001726881 -7.34772e-05 -0.7931519712 -0.0030503164
20299880.0 -0.8009229243 0.0007271105 -4.89003e-05 -2.23571e-05 -1.62875e-05 -0.0001484724 -0.7999053423 0.0017131885
25299850.0 -0.8077974922 0.0064434792 -7.69595e-05 -5.83917e-05 -8.93972e-05 6.78196e-05 -0.8063519462 0.0078912964
30299820.0 -0.8138829489 0.0135618941 -9.93744e-05 -1.95954e-05 0.0001617171 -0.0001951338 -0.8120780192 0.0157580093
35299790.0 -0.8187576375 0.0230404366 9.9143e-06 4.3135e-06 -0.0002790834 -0.0001308097 -0.8172026034 0.0249555732
40299760.0 -0.8232811025 0.0320137275 0.0001738269 3.83511e-05 0.0001112093 0.0001113162 -0.8211024773 0.0337255869
45299730.0 -0.8264885145 0.0418881048 3.87064e-05 0.0001861251 0.0001408069 -0.0001160024 -0.8243920592 0.04385007
50299700.0 -0.8296291078 0.052194833 -1.87825e-05 -0.0002556938 -3.65499e-05 -5.48018e-05 -0.8264238093 0.0537102814
55299670.0 -0.8308870442 0.0607349882 -0.0001090182 4.45513e-05 -6.92178e-05 -1.0673e-05 -0.8287854098 0.0637837147
60299640.0 -0.832568162 0.0717240542 -3.79834e-05 0.0001482888 8.17094e-05 6.20806e-05 -0.8297880251 0.0740417474
65299610.0 -0.8333295249 0.0819416408 0.0001638374 -0.0001680033 -9.8357e-05 0.0001307784 -0.8305711928 0.0837791165
70299580.0 -0.833666986 0.0913230038 -9.41433e-05 -5.51568e-05 -1.10581e-05 2.65531e-05 -0.8312597422 0.0935647407
75299550.0 -0.8338597437 0.1017883026 1.84364e-05 -8.58747e-05 0.0002392581 1.19249e-05 -0.8309717155 0.1039946618
80299520.0 -0.8338859545 0.1121043345 -0.0001612496 -7.85384e-05 0.0001648389 -2.64423e-05 -0.8313043671 0.1141486487
85299490.0 -0.8324430569 0.1210259606 0.0001148322 0.0002157444 -3.5948e-05 -2.89162e-05 -0.8297337387 0.1231786646
90299460.0 -0.8315981957 0.1315579131 5.92784e-05 3.45387e-05 -3.195e-06 -0.0001004122 -0.8290451261 0.1326964605
95299430.0 -0.8317212831 0.1405691073 -7.05386e-05 3.73238e-05 8.02845e-05 0.0002343035 -0.8284598687 0.1423986578
100299400.0 -0.8303773267 0.1496906967 9.45834e-05 3.96419e-05 -0.0002304706 0.0001025896 -0.8275488486 0.1518711972
105299370.0 -0.8287959612 0.1590230383 3.18288e-05 0.0001124466 -4.87626e-05 7.6746e-05 -0.8257528447 0.1607497558
110299340.0 -0.827638328 0.1686025915 1.84317e-05 6.27408e-05 0.0001221122 -7.66777e-05 -0.8243142043 0.1698561923
115299310.0 -0.8261530389 0.1771981044 4.0553e-06 -0.0002412657 6.02733e-05 -0.0001456146 -0.8234101898 0.1787719194
120299280.0 -0.8249583606 0.1863134075 -6.57059e-05 -7.31261e-05 -0.0002613213 2.0847e-06 -0.8208470516 0.188194532
125299250.0 -0.8218753654 0.1953298666 0.0002261825 -0.0001733082 -3.40393e-05 -1.76742e-05 -0.8200828172 0.1972655969
130299220.0 -0.8207019335 0.2055406441 0.0001775942 -0.0001626148 -0.0001269144 -7.79232e-05 -0.817105338 0.2057810136
135299190.0 -0.8183824 0.2143934845 0.0001212996 8.22291e-05 0.0001074783 0.000191871 -0.8161915439 0.2148601346
140299160.0 -0.8168915199 0.2236292226 -0.0001017635 9.54479e-05 0.0001248143 -1.87533e-05 -0.8139488669 0.2233942714
145299130.0 -0.8150329451 0.2319419886 -1.19221e-05 0.000129908 -0.0003785546 3.06559e-05 -0.8122569563 0.2324283395
150299100.0 -0.8119129652 0.240685956 -8.61405e-05 -0.0002289455 -6.49082e-05 -6.07643e-05 -0.8095133692 0.2414532796
155299070.0 -0.8100265681 0.2498882005 0.0001403628 0.0001582667 -6.49617e-05 -5.11278e-05 -0.8072450068 0.2503783111
160299040.0 -0.8078113544 0.2593177386 6.17742e-05 -8.5249e-06 -0.0001478081 1.25229e-05 -0.8042809058 0.2588218774
165299010.0 -0.8045577554 0.2671975145 -0.0001409361 8.26222e-05 9.8628e-05 8.25496e-05 -0.8023868798 0.2672084683
170298980.0 -0.8015100518 0.2757336287 -6.40544e-05 -0.0001511352 0.0002176246 -5.44297e-05 -0.7997575514 0.2754739404
175298950.0 -0.7995128683 0.2843836006 6.8528e-06 3.829e-06 0.0001810485 2.09959e-05 -0.7961981694 0.284774139
180298920.0 -0.7960419296 0.2935658231 -0.0002210847 -5.04664e-05 -0.0001879149 -2.3673e-05 -0.7934865186 0.2932517853
185298890.0 -0.7928863362 0.3020531304 -0.000108766 -4.67103e-05 -0.0001511666 5.26445e-05 -0.7904045409 0.3013138695
190298860.0 -0.7894642076 0.3108716747 -4.82516e-05 9.9115e-06 -0.0001935646 -0.0001340587 -0.7873051225 0.3099397192
195298830.0 -0.7864434763 0.319108932 -0.0001354204 7.17704e-05 0.0001635418 9.79413e-05 -0.7842809011 0.3182335186
200298800.0 -0.7830110536 0.3277726315 -0.0001210843 2.50833e-05 0.0001608669 6.91921e-05 -0.7814816865 0.326730995
205298770.0 -0.7797224067 0.3360943174 -0.0001330126 -0.0002480651 -9.74386e-05 0.0001081938 -0.7777960992 0.3355780573
210298740.0 -0.7760988258 0.344623128 4.00087e-05 9.27222e-05 0.0001082576 -0.0002038152 -0.774560049 0.3433189511
215298710.0 -0.7721876754 0.3530571397 -4.66058e-05 1.22243e-05 0.0001681217 1.28635e-05 -0.7706283774 0.351091695
220298680.0 -0.7687888985 0.3606376981 -0.0001044998 2.70111e-05 -1.99413e-05 0.0002081738 -0.7666310121 0.3593261741
225298650.0 -0.7650079018 0.3695277869 6.2367e-05 0.000111983 -5.70738e-05 -3.80424e-05 -0.7630489267 0.3675356116
230298620.0 -0.7608904146 0.3779967107 0.0002578777 0.0002786496 4.58247e-05 6.44738e-05 -0.7592248919 0.3756595751
235298590.0 -0.7571114271 0.3862178484 0.0001647679 -8.09455e-05 -9.07257e-05 1.78884e-05 -0.7547616594 0.3833263377
240298560.0 -0.752685678 0.3942459801 0.000132018 0.0001490321 0.0001574135 -4.48784e-05 -0.7512982303 0.3911084376
245298530.0 -0.7488412003 0.4012775049 3.62968e-05 5.1933e-05 0.0001823823 3.51587e-05 -0.747067251 0.3991697502
250298500.0 -0.7444807207 0.4091932861 0.0001524087 -1.29167e-05 4.33888e-05 -2.25097e-05 -0.7421969925 0.4072161132
255298470.0 -0.7407506297 0.4175114518 -3.02338e-05 8.10766e-05 0.0001459483 2.105e-07 -0.7389974106 0.4149324581
260298440.0 -0.7364502479 0.4250315582 0.0001422094 -0.0002296886 -8.29132e-05 4.4623e-06 -0.7344387462 0.4223625155
265298410.0 -0.7320621526 0.4326144413 5.36641e-05 -0.0001899817 6.69381e-05 1.18143e-05 -0.7301278578 0.4300953684
270298380.0 -0.727205849 0.4408097333 -8.413e-06 5.41939e-05 -5.79197e-05 0.0001020568 -0.7250454326 0.4383697713
275298350.0 -0.7227445597 0.4483264095 -9.0143e-06 6.9617e-06 0.0001144129 -1.52793e-05 -0.7205403432 0.4450987518
280298320.0 -0.717802571 0.4557057665 -9.52642e-05 0.0001675613 0.0001302931 0.000143934 -0.7162693834 0.4527177542
285298290.0 -0.7136847507 0.4632595385 0.000107317 0.0001305181 0.0001147388 4.92819e-05 -0.7121795285 0.4603231711
290298260.0 -0.7085578598 0.4710005055 7.85355e-05 -2.4548e-06 3.94018e-05 0.000190975 -0.7064907651 0.4678057776
295298230.0 -0.7037553788 0.4782860946 -3.46282e-05 1.47883e-05 9.1303e-06 -0.0002776929 -0.7014164082 0.4749014865
300298200.0 -0.6993232834 0.4854924375 -0.0003488141 2.00949e-05 -0.0001647151 -2.73853e-05 -0.6966558346 0.4823736012
305298170.0 -0.6945068758 0.4924143471 -0.0002513341 -9.42959e-05 -9.43305e-05 3.53473e-05 -0.6911247618 0.489477155
310298140.0 -0.6890972074 0.4998769627 -1.34955e-05 2.54537e-05 0.0001125481 0.0001857394 -0.6861854901 0.4968648016
315298110.0 -0.6844048469 0.506516012 4.47059e-05 4.17203e-05 -7.28608e-05 -0.0001581686 -0.6810274915 0.5039672021
320298080.0 -0.6785521419 0.5144738106 8.52319e-05 -4.12391e-05 0.0001496853 8.13845e-05 -0.6761088096 0.5106460063
325298050.0 -0.6734409383 0.5209103376 -4.95843e-05 -2.23063e-05 1.79217e-05 2.25915e-05 -0.6701453022 0.5176205982
330298020.0 -0.6678911851 0.5276964113 0.0001180324 -8.305e-06 5.37304e-05 -0.000165765 -0.6652052601 0.5241550717
335297990.0 -0.6624760553 0.5343516066 -4.93546e-05 -0.0001333179 -5.98938e-05 0.0001584545 -0.6592133293 0.5316749154
340297960.0 -0.6581298813 0.5413499095 -0.000150155 2.68996e-05 -2.21e-06 -0.0001727814 -0.6541131 0.5379933267
345297930.0 -0.6517454072 0.5482839775 -5.81176e-05 -8.47016e-05 0.0001544856 -0.0002497267 -0.6486838957 0.5446274973
350297900.0 -0.6467767176 0.5549203182 -6.06779e-05 0.000161637 -8.79147e-05 -7.93361e-05 -0.6430893315 0.5509439706
355297870.0 -0.6409374892 0.5612133626 0.0002298881 1.00457e-05 0.0001399489 1.8337e-05 -0.6369275977 0.5586517088
360297840.0 -0.6347224318 0.5681261863 -5.77825e-05 0.000126908 -2.95061e-05 0.0001060674 -0.6308519287 0.564993385
365297810.0 -0.6291956047 0.5744283901 -2.93071e-05 -4.28805e-05 9.45072e-05 0.0001222853 -0.625785243 0.570921043
370297780.0 -0.6238524036 0.5801872858 0.000251366 3.30028e-05 -3.986e-07 -0.0001368873 -0.6193907249 0.5779001724
375297750.0 -0.6177051358 0.5870724277 -0.0002060792 1.0517e-05 0.000120281 0.0001986035 -0.6133237426 0.583992712
380297720.0 -0.6116434847 0.5937563072 -0.0002086947 -4.80433e-05 9.08171e-05 -0.0001002622 -0.6067256763 0.590426405
385297690.0 -0.6056916314 0.599551285 4.01455e-05 0.0001972246 -3.42653e-05 6.82681e-05 -0.6020155654 0.5960575832
390297660.0 -0.5981513659 0.6055378441 -8.74274e-05 8.43231e-05 -6.82911e-05 3.48475e-05 -0.5944259821 0.60206323
395297630.0 -0.5927525764 0.612000359 -9.9351e-06 1.5314e-06 1.81998e-05 7.56464e-05 -0.5881947755 0.6074636496
400297600.0 -0.586531058 0.6177768826 -0.0001209472 -4.07211e-05 -0.0001395584 8.39341e-05 -0.5825196893 0.6141787814
405297570.0 -0.5805205585 0.622781084 0.0002614111 -2.67e-07 0.0002185436 -4.75027e-05 -0.5757290809 0.6201132087
410297540.0 -0.5736074497 0.6296302089 -0.0001276337 0.0001472681 0.0002223822 5.61004e-05 -0.5689958598 0.6260010425
415297510.0 -0.567129107 0.6355950934 0.0002197533 4.63723e-05 6.64988e-05 -4.23684e-05 -0.5631620423 0.6315045477
420297480.0 -0.5604281548 0.6409805414 9.33305e-05 0.0001931377 0.0002375824 0.0001011491 -0.5563401486 0.6381830417
425297450.0 -0.5547047513 0.6466646721 -0.0002232354 1.4602e-05 4.39389e-05 -2.83802e-05 -0.5495475526 0.6423161715
430297420.0 -0.5477893747 0.6518661471 -0.0001153579 -0.0001423104 0.0001727067 0.0001785838 -0.5433391094 0.6483968518
435297390.0 -0.5412823283 0.6576574148 0.0001484661 2.99463e-05 5.68229e-05 0.000117165 -0.5368107332 0.6543157263
440297360.0 -0.5343259171 0.6633177448 -7.31689e-05 1.91165e-05 0.0001432055 0.0001032348 -0.530400041 0.6594390686
445297330.0 -0.5268423564 0.6679047788 0.0003063977 5.70289e-05 2.19791e-05 1.78773e-05 -0.5230661385 0.6647654199
450297300.0 -0.5198431019 0.673482536 -0.000156332 6.53371e-05 0.0001270651 -9.6641e-06 -0.5156626569 0.6695486025
455297270.0 -0.5132319301 0.6787289969 -0.0002615605 3.67968e-05 -8.547e-07 -3.31597e-05 -0.5088079976 0.6747113184
460297240.0 -0.5059239601 0.6839141994 -0.0001833561 -0.0002253794 -2.823e-05 -0.0001597689 -0.5021318289 0.6801080967
465297210.0 -0.4988898215 0.6889987579 1.85122e-05 0.0001021539 -5.18581e-05 -1.81168e-05 -0.4949629248 0.685349209
470297180.0 -0.4919954069 0.6939801042 0.0002607495 3.52605e-05 -0.0001709113 2.38142e-05 -0.4879578793 0.6898546071
475297150.0 -0.48444895 0.6987216647 -3.32475e-05 -0.0001631189 8.51134e-05 4.62959e-05 -0.4813901596 0.6950455527
480297120.0 -0.4766198735 0.7039433592 8.9955e-06 -8.17684e-05 5.39247e-05 5.79494e-05 -0.4745375357 0.699696671
485297090.0 -0.469802471 0.7084270849 2.40819e-05 2.63065e-05 -0.000168669 -0.000140928 -0.4672739187 0.7047755647
490297060.0 -0.4616440842 0.714105372 -2.90872e-05 -0.0001154192 -0.0001491573 -2.73728e-05 -0.4597018029 0.7088049351
495297030.0 -0.4549654326 0.718480659 4.71226e-05 3.8552e-05 8.01459e-05 1.14113e-05 -0.4525587318 0.7132928934
500297000.0 -0.4466076299 0.7217327728 -5.32267e-05 -1.62691e-05 -6.6089e-06 7.64601e-05 -0.4449528894 0.718444325
505296970.0 -0.4394054572 0.7272937827 4.77388e-05 -4.2167e-05 -2.51089e-05 0.0001501569 -0.4377945943 0.7228675628
510296940.0 -0.4319480074 0.7313199401 0.0001077822 3.43009e-05 1.01362e-05 -7.11141e-05 -0.4300519 0.727417425
515296910.0 -0.4243954578 0.7352254225 -1.50129e-05 6.86811e-05 4.87001e-05 -4.64474e-05 -0.4228839357 0.7308129721
520296880.0 -0.4162372151 0.7397328974 0.0001286381 -0.0001308877 7.52636e-05 -4.54987e-05 -0.4154008902 0.7358367203
525296850.0 -0.4081537288 0.7440412159 -7.04955e-05 -4.77399e-05 2.13845e-05 -0.0002384089 -0.4081487961 0.7393442662
530296820.0 -0.4009282839 0.747795321 -0.0001715596 -2.6202e-05 -3.6966e-06 -0.0001413836 -0.4008003664 0.7435588089
535296790.0 -0.392254668 0.7517812345 -6.20381e-05 -2.2149e-05 0.0001487762 0.0001887292 -0.3929569896 0.748413821
540296760.0 -0.3847313574 0.7561771945 8.35456e-05 -5.01281e-05 3.03384e-05 7.20291e-05 -0.3851274316 0.7515626027
545296730.0 -0.3774733964 0.7602026119 6.23953e-05 0.0001203971 -8.6616e-06 -2.71347e-05 -0.3772571803 0.7557296122
550296700.0 -0.3692403347 0.7635292129 2.71884e-05 -0.000116315 -9.25443e-05 7.94e-07 -0.3702234867 0.7593616697
555296670.0 -0.3609915163 0.7673087906 0.0001236519 4.26241e-05 -8.13266e-05 -0.0001324545 -0.3626831307 0.762287858
560296640.0 -0.3531378832 0.7704680375 -1.54796e-05 4.06726e-05 -0.0001525615 2.81553e-05 -0.3538489028 0.7664763509
565296610.0 -0.3458049708 0.774407353 -9.7433e-06 -0.0001295114 -2.59774e-05 0.0002241472 -0.3462884284 0.7703456214
570296580.0 -0.3371841183 0.7782807689 -4.03444e-05 -7.0407e-06 -5.53865e-05 0.0001082905 -0.3393363597 0.7731726142
575296550.0 -0.3281104019 0.7812607061 0.0001805978 -7.4003e-05 7.08745e-05 2.73089e-05 -0.3303967788 0.7763993585
580296520.0 -0.3211752392 0.7848968031 -2.08403e-05 -8.39286e-05 -0.0002098328 -5.6092e-05 -0.3238643423 0.7793481125
585296490.0 -0.312284489 0.7876938287 -0.0001105528 1.84474e-05 0.0002350757 3.88666e-05 -0.3150463884 0.7833259108
590296460.0 -0.3039597755 0.7907474141 -1.87931e-05 -5.847e-07 -5.54397e-05 -3.93925e-05 -0.3076658324 0.785882648
595296430.0 -0.2961878607 0.79383117 -0.0003177338 -4.18824e-05 -9.5859e-06 -6.52613e-05 -0.299544818 0.7891726086
600296400.0 -0.2885170724 0.7969512347 -0.0001464299 0.0001143715 -3.99098e-05 5.35382e-05 -0.291650956 0.7918204679
605296370.0 -0.2797868057 0.7992680946 7.50214e-05 -0.0001255759 0.0001897351 -0.0001821065 -0.2835619775 0.7954768193
610296340.0 -0.2714216836 0.8030169344 8.02629e-05 -0.0001278327 3.19318e-05 6.0421e-06 -0.2760148263 0.7976186445
615296310.0 -0.2633592743 0.8053307215 -2.42426e-05 -0.0001924078 0.0001324962 -2.58541e-05 -0.2675161788 0.8003070206
620296280.0 -0.2553958622 0.8081964966 -0.0001163968 7.54287e-05 -3.315e-05 4.05993e-05 -0.2594917971 0.8031149753
625296250.0 -0.2472859295 0.8099727589 -0.0001676535 -9.62989e-05 -0.0001409555 -6.49151e-05 -0.2511996132 0.8048392079
630296220.0 -0.2389147806 0.8131802301 -0.0001045765 4.06531e-05 -4.97098e-05 1.45601e-05 -0.2431851399 0.8082519511
635296190.0 -0.230568408 0.8150666654 -0.0001071906 -0.0001160828 -0.0001880878 4.56289e-05 -0.235173795 0.8096339865
640296160.0 -0.2217732682 0.8176935425 0.0001402369 0.0002098483 9.66411e-05 0.0001725925 -0.2270163552 0.8126693474
645296130.0 -0.2137292736 0.8205566301 9.63075e-05 6.941e-07 -7.22857e-05 -4.26278e-05 -0.2192690245 0.814636291
650296100.0 -0.2049643933 0.8223054097 0.0001242016 -0.0001874224 -7.35143e-05 -6.61415e-05 -0.2105365833 0.8167311661
655296070.0 -0.19742339 0.8242008101 0.0002041611 0.0002253375 3.98654e-05 5.32558e-05 -0.2031605927 0.8191676291
660296040.0 -0.1890548002 0.825963581 6.20748e-05 0.0002990476 4.15815e-05 0.0001462369 -0.1940332784 0.8213122727
665296010.0 -0.1803341943 0.8283613167 1.21833e-05 0.000102917 -4.26669e-05 -5.91532e-05 -0.1866199967 0.8223364526
670295980.0 -0.1726748576 0.8307305072 -0.0003920426 -6.1471e-06 0.0001816545 5.9322e-05 -0.1783169112 0.8243034282
675295950.0 -0.1642865168 0.8324902365 -0.0001110355 -8.15139e-05 -0.0001068198 -6.00903e-05 -0.1699730908 0.8263219246
680295920.0 -0.1565263382 0.833479645 -0.0001030074 9.32695e-05 5.70254e-05 -5.5232e-06 -0.1612503036 0.8279245483
685295890.0 -0.1475329873 0.8360072964 -6.69901e-05 2.04817e-05 5.41717e-05 -6.10077e-05 -0.1531122346 0.8291517718
690295860.0 -0.1395342517 0.8366063272 -0.0001224773 -0.0003036513 4.40206e-05 6.13967e-05 -0.1451429701 0.8310948811
695295830.0 -0.1307280794 0.8386469714 6.88993e-05 5.3172e-05 5.22437e-05 3.54356e-05 -0.1370664241 0.8329510893
700295800.0 -0.1222863406 0.8401963498 6.02519e-05 -0.0001709398 0.0001415378 -4.82579e-05 -0.1282465346 0.8333507751
705295770.0 -0.1141905337 0.8412716616 0.0001620199 0.0001580887 -1.06834e-05 0.0001052849 -0.1201557583 0.8355462643
710295740.0 -0.106550704 0.8417220579 7.96582e-05 -0.0001785676 -7.0762e-05 0.0001209658 -0.1116798322 0.8360409511
715295710.0 -0.0974820152 0.8435435716 0.0001660089 -0.0003884247 3.74024e-05 -9.80062e-05 -0.1028675863 0.8363701649
720295680.0 -0.0888000866 0.8443906555 -0.0002480684 -0.0001189775 -0.0002374677 -2.54908e-05 -0.0946619692 0.8375194066
725295650.0 -0.0812096057 0.8457384345 3.66583e-05 -1.8253e-05 -4.07553e-05 4.37542e-05 -0.086882338 0.8395532327
730295620.0 -0.073888005 0.84680506 4.3926e-06 -0.0002471153 -0.0001777878 1.89056e-05 -0.0788882288 0.8398241717
735295590.0 -0.0652914689 0.8474705333 7.2324e-05 6.11595e-05 0.0001497553 -4.31044e-05 -0.0694206251 0.8401960186
740295560.0 -0.0575980004 0.8475040634 -0.0002629433 -1.16615e-05 4.31286e-05 1.91431e-05 -0.0610841922 0.8412619319
745295530.0 -0.0489318728 0.8489392357 -8.7703e-06 0.0001439652 9.9347e-05 8.453e-06 -0.053555794 0.8412473776
750295500.0 -0.0409395392 0.8491346392 6.02472e-05 -0.0001648744 -0.0001869376 7.53866e-05 -0.0447747406 0.8419765854
755295470.0 -0.0321062726 0.8499283269 3.45911e-05 3.00508e-05 -4.5889e-06 2.9079e-06 -0.03700334 0.8428708418
760295440.0 -0.0241857357 0.8509339672 5.809e-06 -4.07812e-05 8.46749e-05 0.0001047476 -0.0277456476 0.8424331029
765295410.0 -0.0161626043 0.8504010273 -0.0002656745 -0.0001217983 -0.0001573918 -0.0001246283 -0.019736564 0.8431757727
770295380.0 -0.0083324943 0.8506347409 -0.0001747295 0.0001058472 -1.41566e-05 4.0715e-06 -0.0113205659 0.8431841587
775295350.0 -0.0001625468 0.8512514603 -4.28943e-05 -4.54163e-05 -5.993e-07 -5.87479e-05 -0.0028743911 0.8432451801
780295320.0 0.0093220281 0.8509251276 9.69717e-05 -3.66434e-05 0.0001892868 0.0001712728 0.0056877538 0.8434146054
785295290.0 0.017089682 0.8506396535 5.46334e-05 1.15758e-05 -9.41416e-05 -3.51879e-05 0.0140174654 0.8436894632
790295260.0 0.0248766746 0.8508125044 -0.0002510455 0.0002961357 -3.3752e-06 -4.00186e-05 0.0220828928 0.8433257388
795295230.0 0.0331839679 0.8507038695 -0.0001051641 -5.94412e-05 0.0001710515 7.18553e-05 0.0303854238 0.8425179338
800295200.0 0.0411066748 0.8501394163 -0.0001790149 7.77943e-05 6.29932e-05 0.0001017425 0.0384220396 0.8421923652
805295170.0 0.0493138324 0.8503835441 -0.0001581392 -5.33167e-05 -9.94751e-05 0.0001485024 0.0479605738 0.8416807962
810295140.0 0.0577125158 0.8503513315 6.95211e-05 8.27835e-05 9.56515e-05 0.0001639986 0.0558416947 0.8412391488
815295110.0 0.0658577051 0.8495384174 -8.24567e-05 -0.0003124722 2.40396e-05 -0.0001982394 0.0633217916 0.840687227
820295080.0 0.0737400652 0.8491940455 3.36434e-05 1.82338e-05 4.69292e-05 4.96314e-05 0.0716638952 0.840182861
825295050.0 0.0818600556 0.848223549 5.49892e-05 -0.0002465434 -9.53075e-05 -4.33147e-05 0.0800476442 0.8393722288
830295020.0 0.0905842013 0.8476081971 0.0001381846 0.0001015097 2.0729e-06 -1.19979e-05 0.0884650865 0.8385388842
835294990.0 0.098164058 0.8465227463 0.0001777455 1.79708e-05 -2.10431e-05 -0.0002133377 0.0968023147 0.8378347302
840294960.0 0.1067306696 0.8450432998 6.22424e-05 2.17628e-05 9.93853e-05 -2.12038e-05 0.1057975204 0.8367670704
845294930.0 0.1143582562 0.8441281605 4.22838e-05 -0.0001988676 -7.21176e-05 -7.8443e-05 0.1138997393 0.8351622438
850294900.0 0.1239343612 0.8431746973 -0.0001964693 -0.0001282857 0.0001046338 -9.19046e-05 0.1215786316 0.834528679
