!Created with skrf (http://scikit-rf.org).
# Hz S RI R 50.0 
!freq ReS11 ImS11 ReS21 ImS21 ReS12 ImS12 ReS22 ImS22
300000.0 -0.1016359687 -0.0717085308 0.6325115091 0.0658437743 0.6246990356 0.0668423775 -0.1013540727 -0.0770123248
5299970.0 -0.1018842908 0.0131395924 0.6300354215 0.0099744621 0.6304517703 0.0110334591 -0.1007102569 0.0131043556
10299940.0 -0.0973720064 0.029309988 0.6342505073 0.0151176988 0.6339741071 0.01602374 -0.0958416987 0.0301946493
15299910.0 -0.0898831088 0.0424568636 0.6405417528 0.0207340398 0.6406097063 0.0203730452 -0.0887237896 0.043627988
20299880.0 -0.0817865172 0.0529490247 0.6489268849 0.024416 0.6483770819 0.0242852201 -0.0800052705 0.0544745876
25299850.0 -0.0723882963 0.062359779 0.6578674432 0.0253967605 0.6575998457 0.0254031489 -0.0698820651 0.0632869514
30299820.0 -0.0620135242 0.068784128 0.6674002807 0.0242479108 0.6672177094 0.0246365544 -0.0601722717 0.0703107884
35299790.0 -0.0525164744 0.0736243724 0.677361769 0.0213219807 0.677234924 0.0215760327 -0.0498739432 0.0749345726
40299760.0 -0.043325467 0.077316439 0.6860534511 0.0172337299 0.6864917263 0.0177672501 -0.0402870255 0.077473341
45299730.0 -0.0338401685 0.0791710556 0.6951425468 0.0118886173 0.6954228908 0.0118480199 -0.0311388477 0.0796976975
50299700.0 -0.0257462506 0.0804065065 0.7036869943 0.0049266373 0.7034151867 0.0054784488 -0.0228227751 0.080562811
55299670.0 -0.0174382503 0.0805092451 0.7109588951 -0.0036109011 0.7108419986 -0.002811875 -0.0147281261 0.0809111867
60299640.0 -0.0101285724 0.0801172371 0.7175792122 -0.0113790283 0.7175232032 -0.0107680394 -0.007778981 0.0794999622
65299610.0 -0.0037830582 0.0790011226 0.7233170013 -0.0201377611 0.7233490735 -0.0195769379 -0.0011388941 0.0784220628
70299580.0 0.002626269 0.0777191249 0.7289650222 -0.0295970146 0.7286307069 -0.0285379235 0.0047381478 0.0766153022
75299550.0 0.0081327572 0.0759563735 0.7326928351 -0.0387846781 0.7325475533 -0.0387508483 0.0101932898 0.0745123686
80299520.0 0.0130638388 0.0738512369 0.7369745905 -0.0491953235 0.7374166522 -0.0486512145 0.0150566245 0.0726111108
85299490.0 0.0177165348 0.0715770545 0.7405114003 -0.0581323554 0.7403355477 -0.0583330452 0.0195374393 0.0700584784
90299460.0 0.0216625574 0.0690166255 0.7430019045 -0.0691672368 0.7434354268 -0.0687935997 0.0235609107 0.0680062629
95299430.0 0.0259711039 0.0664502233 0.7455732028 -0.0787079884 0.7458907155 -0.0786424373 0.0273344612 0.0656365055
100299400.0 0.0289631522 0.0646966342 0.7466529411 -0.0889356908 0.7469405586 -0.0889877199 0.0311625364 0.0626837757
105299370.0 0.0320958771 0.0621317011 0.7487198439 -0.099826695 0.7491977641 -0.0991784928 0.0340563952 0.0606838508
110299340.0 0.0350677201 0.0596944686 0.7502325456 -0.1088201194 0.7495598226 -0.1088135968 0.0361773431 0.0579516945
115299310.0 0.0374788872 0.0575644307 0.7508733087 -0.1190284224 0.7508256988 -0.1189725724 0.0389977511 0.0554904203
120299280.0 0.0399027032 0.0547747043 0.7514286775 -0.1294856385 0.7512486823 -0.1289889881 0.0412214732 0.0531639219
125299250.0 0.0419640001 0.0523127664 0.7518628035 -0.1390061749 0.7516460351 -0.1387745543 0.0426258631 0.0505475541
130299220.0 0.0437358656 0.0505577015 0.751458365 -0.1485674103 0.7512232276 -0.149244657 0.0449156394 0.0482865359
135299190.0 0.0453950395 0.0483450496 0.7511108316 -0.1587852425 0.7512599986 -0.1586660147 0.0466882354 0.0462868289
140299160.0 0.0466203636 0.0461602184 0.7508306328 -0.1686281429 0.751020022 -0.1687495739 0.0479814507 0.044692989
145299130.0 0.0483901497 0.0439287493 0.7502833989 -0.1782127471 0.7496540675 -0.1778439363 0.0494276703 0.0420988231
150299100.0 0.0495235815 0.0420364105 0.7486494936 -0.187279336 0.7492605988 -0.1873645243 0.0507544863 0.0401044744
155299070.0 0.0503741392 0.0398805068 0.7485987246 -0.1979118155 0.7474162857 -0.1978622453 0.0517183229 0.0383653918
160299040.0 0.0519269679 0.0379244913 0.7465898303 -0.2072224593 0.7455403511 -0.2073708447 0.0521748114 0.0363683024
165299010.0 0.0524099912 0.0365309899 0.7443514896 -0.2169657144 0.7449661768 -0.2167851955 0.0537120798 0.0350329413
170298980.0 0.053383024 0.0339756018 0.7431338506 -0.2264034523 0.7429882913 -0.2257750385 0.0541222433 0.0329249693
175298950.0 0.0535714713 0.0323141776 0.7413467405 -0.2351391103 0.7406330968 -0.235104284 0.0550130421 0.0312899284
180298920.0 0.0544298479 0.0308182232 0.7392303072 -0.244740664 0.7388994848 -0.24427266 0.0553125942 0.030031512
185298890.0 0.0554496274 0.0288014314 0.7364743184 -0.2535224712 0.7367521758 -0.2536652467 0.0558488016 0.0285365246
190298860.0 0.0555234677 0.0275236455 0.7345351366 -0.2628493355 0.7342881877 -0.2628534527 0.0562745302 0.0261583485
195298830.0 0.0562735464 0.0256512877 0.7319566101 -0.2717576633 0.7320267241 -0.2714751769 0.0572717436 0.025224355
200298800.0 0.0564484802 0.0242977269 0.7290488724 -0.2809572945 0.7287398147 -0.2810260203 0.0568999084 0.0237704773
205298770.0 0.0570294346 0.022878063 0.7260957051 -0.2899765949 0.7263897659 -0.2893639551 0.0573748659 0.0214105273
210298740.0 0.0572588709 0.0212023164 0.7233154021 -0.2980295147 0.7230419218 -0.298002971 0.0578735696 0.0212320895
215298710.0 0.0567755435 0.0198258651 0.7206660916 -0.3074663561 0.7200141562 -0.3069637658 0.0575602054 0.0198110935
220298680.0 0.0575453705 0.0177881581 0.7164023295 -0.3156430636 0.7167496261 -0.3153910605 0.0579061446 0.0179434804
225298650.0 0.0577942527 0.0166900937 0.7139073818 -0.3247251866 0.7136876785 -0.3242039482 0.0575304427 0.016582202
230298620.0 0.0578828299 0.0159257234 0.7108528786 -0.3324150038 0.7107062399 -0.3329974414 0.0577454402 0.014994259
235298590.0 0.0581362827 0.0148565843 0.7069431909 -0.341320234 0.7071447738 -0.3406639642 0.0575678828 0.0138097647
240298560.0 0.0581276249 0.0134697615 0.7033327124 -0.349708201 0.7033381992 -0.3493742617 0.057671735 0.0131671437
245298530.0 0.0580529867 0.012200803 0.7000240076 -0.3582879321 0.6999149778 -0.3582463 0.0583624948 0.0107517378
250298500.0 0.058544637 0.0111551983 0.6951802923 -0.3659754547 0.695585829 -0.3659708521 0.0580657021 0.0104159067
255298470.0 0.0584800319 0.0094241619 0.6914661744 -0.3739792713 0.6919512392 -0.3736996467 0.0583159615 0.0090098549
260298440.0 0.0578324932 0.0082876072 0.687842739 -0.3831463531 0.6879488096 -0.3821187595 0.0586258718 0.0082075862
265298410.0 0.0588060878 0.0075748035 0.6840724996 -0.3911908496 0.6843052013 -0.3902763137 0.0583193851 0.0067672198
270298380.0 0.058562459 0.0062706778 0.6798566709 -0.3983533545 0.6795965376 -0.3984245265 0.0579764669 0.0057912768
275298350.0 0.0588909612 0.0052114047 0.6755224926 -0.4069431636 0.6752819745 -0.4062029978 0.0586472969 0.0044052219
280298320.0 0.0587407049 0.0045093021 0.6714191079 -0.4147047268 0.6709937651 -0.4139632539 0.0587681805 0.0034128132
285298290.0 0.0589214811 0.0032529233 0.6672604276 -0.4225056352 0.6663243807 -0.4221943637 0.058536191 0.0023229011
290298260.0 0.0589582189 0.0023366201 0.6617037001 -0.4298280121 0.66224109 -0.4301566462 0.0589180289 0.0017768809
295298230.0 0.0590180158 0.0011172073 0.6579460265 -0.4376914907 0.6573367194 -0.4374365401 0.0594949274 0.0004588433
300298200.0 0.0583815274 -6.30967e-05 0.6528339299 -0.4446682128 0.6529195995 -0.4454587526 0.0587774512 -0.0008819682
305298170.0 0.0588177205 -0.0014230106 0.6476859936 -0.4533623566 0.6478079372 -0.4524688841 0.0594898186 -0.0020127757
310298140.0 0.0584461245 -0.0022354339 0.6435109039 -0.4604067933 0.6436360405 -0.460580077 0.0594563065 -0.0030126401
315298110.0 0.0584050554 -0.0040360145 0.6379235683 -0.4681416044 0.638343166 -0.468240189 0.0590078781 -0.004229507
320298080.0 0.0588229884 -0.0047356405 0.6322269274 -0.4763271659 0.6327016622 -0.4759198029 0.0586071319 -0.0053523432
325298050.0 0.0578116054 -0.00598584 0.6272155962 -0.483435019 0.6274659293 -0.4830179181 0.058235303 -0.0062623779
330298020.0 0.0573135709 -0.0072326104 0.6212966152 -0.4910860513 0.6217290076 -0.4904712845 0.0575436725 -0.0074783081
335297990.0 0.0570636434 -0.0084262925 0.6161663384 -0.4972242046 0.6158242598 -0.4976416227 0.056715063 -0.0076186158
340297960.0 0.056311638 -0.0089730736 0.6100837014 -0.5046432921 0.6097216095 -0.5046864682 0.0569263092 -0.0086036749
345297930.0 0.056024324 -0.0089439425 0.6040653735 -0.5118553752 0.6044050984 -0.5116726717 0.0563155012 -0.0098219064
350297900.0 0.0554040238 -0.0107551395 0.5976011332 -0.5186488976 0.5981555394 -0.5184260098 0.0557266858 -0.009704913
355297870.0 0.0551070992 -0.0105229784 0.5923172614 -0.5247494057 0.5930443728 -0.524682482 0.0552457995 -0.0105243652
360297840.0 0.0547395036 -0.0112852108 0.5871471838 -0.5314212006 0.5875103645 -0.5315722903 0.0550619443 -0.0109873721
365297810.0 0.0539871898 -0.0116417992 0.5808106287 -0.5383121801 0.5817632542 -0.5382096558 0.0548504085 -0.0116914172
370297780.0 0.054266299 -0.0130427487 0.5745543286 -0.5447899081 0.5754772438 -0.5438966239 0.0541103558 -0.0123020488
375297750.0 0.0540155192 -0.0133565259 0.5689076923 -0.5513555533 0.5696758924 -0.5508369318 0.0544630269 -0.0128956972
380297720.0 0.0535649213 -0.0140368851 0.5627764516 -0.5579440807 0.5629929188 -0.5564680126 0.0533999864 -0.0139493477
385297690.0 0.0531056908 -0.0150243419 0.5563403868 -0.5636479179 0.5565862405 -0.5635651243 0.0535107119 -0.0141672252
390297660.0 0.0530761904 -0.0149911652 0.5507189817 -0.5696912018 0.5506131176 -0.5693765044 0.0528240963 -0.0150408388
395297630.0 0.0522709786 -0.0159482353 0.5443697629 -0.5761779497 0.5443733832 -0.5760853975 0.0531608997 -0.0157969308
400297600.0 0.0516951115 -0.0166792585 0.5373669349 -0.5825285423 0.5380131956 -0.5819762801 0.0525720703 -0.016390003
405297570.0 0.0512384433 -0.0173663545 0.5311339842 -0.5882089448 0.5313096332 -0.5872883201 0.051767372 -0.0167728482
410297540.0 0.0514528702 -0.0179021821 0.5246672643 -0.5941462063 0.5259186126 -0.5934567749 0.0512729089 -0.0171739712
415297510.0 0.0513344813 -0.0183919512 0.5182296502 -0.6000595259 0.5185913693 -0.599812839 0.0510659485 -0.0178325827
420297480.0 0.0509702826 -0.0190056428 0.5119068932 -0.6055191392 0.5119065765 -0.6057450932 0.050571926 -0.0190206468
425297450.0 0.0503052309 -0.02032433 0.5052287361 -0.6111259275 0.5053977748 -0.6111320027 0.0496087648 -0.0188319966
430297420.0 0.0496740607 -0.0208317154 0.4980721227 -0.6160862999 0.4982190453 -0.6166078141 0.0495321017 -0.0200863526
435297390.0 0.0496383411 -0.0212919108 0.4908197533 -0.6217831771 0.4913287837 -0.6221715941 0.050192117 -0.0207022374
440297360.0 0.0494240827 -0.0216693375 0.4850347133 -0.6276359991 0.4847178655 -0.6276405672 0.0489687111 -0.0213456009
445297330.0 0.0488544132 -0.0227467854 0.4779915676 -0.633180664 0.4777331371 -0.632491815 0.049224347 -0.0222447544
450297300.0 0.0487681867 -0.0229264605 0.4709639682 -0.6381847311 0.4706059136 -0.6385118332 0.0484699421 -0.0228983118
455297270.0 0.0483947336 -0.0236414521 0.4635455713 -0.6437652946 0.4637676096 -0.6432792715 0.0483121973 -0.0231339328
460297240.0 0.0478156195 -0.0241374379 0.4563625407 -0.6485550189 0.4567559562 -0.6490153142 0.0475194948 -0.0237004602
465297210.0 0.0480242841 -0.0246733693 0.4497848324 -0.6539214262 0.4495584209 -0.6540655684 0.0477343392 -0.0246126132
470297180.0 0.0471430621 -0.0256594478 0.441709794 -0.6586383901 0.4423681196 -0.6588851188 0.0473575674 -0.0248098628
475297150.0 0.0468651933 -0.0263850315 0.4346166354 -0.6630155915 0.4351930165 -0.6630584852 0.0473937934 -0.0257913236
480297120.0 0.0463002857 -0.026007453 0.4273889809 -0.6685965233 0.4276242115 -0.6687736239 0.0470375329 -0.0258092896
485297090.0 0.0457426521 -0.026783893 0.4203643883 -0.6728057812 0.4204376796 -0.6726600116 0.046663075 -0.0267083702
490297060.0 0.0450531987 -0.0277203913 0.4133289078 -0.6780463858 0.4131946246 -0.6771204311 0.0460413681 -0.0268243222
495297030.0 0.0448032245 -0.0279296874 0.4050883651 -0.6823078911 0.4059438813 -0.6818534342 0.0454023717 -0.0276309001
500297000.0 0.0441616969 -0.0284974016 0.3981099185 -0.6862905307 0.3974588578 -0.6858683728 0.045099311 -0.0274451214
505296970.0 0.0440140301 -0.0292804881 0.390190152 -0.690646268 0.3899785213 -0.6905385666 0.0448087002 -0.0280245588
510296940.0 0.0433338172 -0.0293213163 0.3825395492 -0.6954272711 0.3825703295 -0.6951789747 0.0444354977 -0.0282009006
515296910.0 0.0428733748 -0.029659439 0.374842929 -0.699093672 0.3750885116 -0.6989782819 0.0439894947 -0.0287106409
520296880.0 0.0425253019 -0.0303587315 0.3676051123 -0.7038593299 0.3673816897 -0.7031325388 0.0433702251 -0.0297508954
525296850.0 0.0423271898 -0.0314110946 0.359208282 -0.7076188634 0.3602714605 -0.7070837305 0.0425937191 -0.0298567042
530296820.0 0.0418796529 -0.0312350567 0.3516840235 -0.7113346846 0.3522135274 -0.7108890181 0.0426906418 -0.0300968202
535296790.0 0.0405026285 -0.0316526358 0.344338397 -0.7149996372 0.3443926902 -0.7140489617 0.0419054159 -0.0312626221
540296760.0 0.0401390641 -0.0317235153 0.3361162451 -0.719347024 0.3357771523 -0.7189181553 0.0408736392 -0.0306046232
545296730.0 0.0396689428 -0.0326039327 0.3278196568 -0.7225419678 0.3277586958 -0.722368623 0.0405780277 -0.0314260527
550296700.0 0.0400121936 -0.0324280891 0.3207321059 -0.7257538223 0.320520794 -0.72596371 0.0399134669 -0.0313607508
555296670.0 0.0388927769 -0.032967123 0.3126551377 -0.7292399484 0.3129432862 -0.7290849661 0.039543778 -0.0320066969
560296640.0 0.0387189578 -0.0330445536 0.3041884616 -0.7329910324 0.3046660694 -0.7326400762 0.0390519847 -0.0326726306
565296610.0 0.0376396211 -0.033719136 0.296111988 -0.7364280093 0.2965556956 -0.7361771808 0.0381008985 -0.0332543868
570296580.0 0.0371702981 -0.0339263517 0.2886536976 -0.7398517453 0.2875742497 -0.739488954 0.0379285669 -0.0327880526
575296550.0 0.0364308242 -0.03420849 0.2800737306 -0.7428072148 0.2804175839 -0.7429784615 0.0374050564 -0.0335927876
580296520.0 0.0364068674 -0.03456751 0.2715763299 -0.7456670675 0.2721775627 -0.7452116476 0.0366516668 -0.0340827286
585296490.0 0.0356514392 -0.0356594771 0.2636503694 -0.7482322037 0.2646288453 -0.7485906561 0.0362366123 -0.0343396241
590296460.0 0.0356652761 -0.0353294567 0.2560034846 -0.750514015 0.2558954452 -0.7510396692 0.0349320647 -0.0346988941
595296430.0 0.0351844263 -0.0357667366 0.2470537822 -0.7548913875 0.2476590444 -0.7539429142 0.0351917733 -0.0353241858
600296400.0 0.0339924304 -0.0363037153 0.2390951834 -0.7569728585 0.239358056 -0.7563538461 0.0347201502 -0.0354630422
605296370.0 0.0339860418 -0.0364028612 0.2305859249 -0.7587130408 0.2313017931 -0.7587009251 0.0339340445 -0.0358620191
610296340.0 0.0331514926 -0.0369145297 0.2221103262 -0.7613174585 0.2233192796 -0.7616432813 0.0339221349 -0.0361923351
615296310.0 0.032784133 -0.0374274001 0.2139181883 -0.764119013 0.2141208962 -0.7646760364 0.0333363401 -0.0364916381
620296280.0 0.0323780015 -0.0377059294 0.2057323478 -0.7663538266 0.205956847 -0.7659636703 0.0323102771 -0.0370597448
625296250.0 0.0313479606 -0.0385776024 0.1982753833 -0.7689021958 0.198004034 -0.7690422286 0.0327654586 -0.0372288728
630296220.0 0.0319859846 -0.0381103616 0.1886194459 -0.770935277 0.1888232762 -0.7708157043 0.0317901775 -0.0369437577
635296190.0 0.0302145585 -0.0389946163 0.1808991481 -0.7723891834 0.1812764471 -0.7728603476 0.0313724909 -0.0375287181
640296160.0 0.0296559475 -0.0388372995 0.1723127503 -0.7743392908 0.1725535262 -0.774650431 0.0305672551 -0.0377546167
645296130.0 0.0293398053 -0.0391249021 0.1636839966 -0.7761916605 0.1642130894 -0.7768308948 0.0303045833 -0.0380781561
650296100.0 0.0289988294 -0.0393642865 0.1552655676 -0.7779969336 0.1556411077 -0.7784273497 0.0304234278 -0.039289649
655296070.0 0.0276119688 -0.0398389988 0.1468903197 -0.7797961864 0.1474031532 -0.7797139334 0.0295807089 -0.0385044675
660296040.0 0.0268323274 -0.0403478359 0.1386374736 -0.7816399568 0.1386084075 -0.7815741888 0.0290786564 -0.0389394616
665296010.0 0.0270493783 -0.0405275432 0.1292056262 -0.7828834268 0.1302320216 -0.7825921851 0.0284683327 -0.0384795827
670295980.0 0.0252387891 -0.0403347489 0.121131446 -0.784211955 0.12130142 -0.7837438827 0.0272322787 -0.0391318921
675295950.0 0.0252346699 -0.0401219499 0.1134138521 -0.7849941745 0.1134015119 -0.7848464443 0.0265851208 -0.0390915074
680295920.0 0.0241227199 -0.040908049 0.1033490834 -0.7859141532 0.1035346726 -0.7872550083 0.0264218831 -0.0382145511
685295890.0 0.0241243785 -0.0403639199 0.0954196732 -0.7875657161 0.0951857427 -0.7880893189 0.0256518312 -0.0393488429
690295860.0 0.0238329558 -0.0406853282 0.0867222912 -0.7879367146 0.0869969975 -0.788942403 0.0249040456 -0.0384321955
695295830.0 0.0231700102 -0.0410333513 0.0788120616 -0.7895390913 0.0781706146 -0.7892853028 0.0242501856 -0.038886228
700295800.0 0.0225591144 -0.0416431752 0.0699678385 -0.7899012244 0.0694833209 -0.789408375 0.0235780234 -0.0386471498
705295770.0 0.0217289639 -0.0405582729 0.0608907005 -0.7907930652 0.0611109664 -0.7911679525 0.0229278499 -0.0390946485
710295740.0 0.0213645145 -0.0411532049 0.0525407544 -0.7920337334 0.053328482 -0.7916249674 0.022778878 -0.0401084101
715295710.0 0.0199157728 -0.0414834608 0.0445159921 -0.7923257371 0.0439119229 -0.7920498132 0.0224750135 -0.0397451622
720295680.0 0.0197322241 -0.0413923638 0.0353264501 -0.7925716339 0.0358747321 -0.7921991964 0.0213307818 -0.0390638776
725295650.0 0.0194363007 -0.0415515577 0.026459055 -0.7927806853 0.0270124001 -0.793201142 0.0201780689 -0.0392362199
730295620.0 0.0188912046 -0.0411371373 0.0178268857 -0.7926059779 0.0180026379 -0.7931519567 0.0197537967 -0.0401570215
735295590.0 0.0181017614 -0.0411526436 0.0094223138 -0.7935749847 0.0094809684 -0.7936420635 0.0189819682 -0.0403155187
740295560.0 0.0171714328 -0.0414853929 0.0005281832 -0.7930155087 0.0004370416 -0.7931912397 0.0190398662 -0.0399233381
745295530.0 0.0168629686 -0.0414347925 -0.0078063719 -0.7925974543 -0.0076522294 -0.793194831 0.0182358606 -0.0405306791
750295500.0 0.0164483528 -0.0414206185 -0.0163687723 -0.7927336347 -0.0161410218 -0.7931190475 0.0175194143 -0.0402587783
755295470.0 0.0159326893 -0.0420957184 -0.0248883832 -0.7932049403 -0.0242552843 -0.792902749 0.0179544654 -0.0408163495
760295440.0 0.0152362122 -0.0417538165 -0.0334520891 -0.7929022532 -0.0334029691 -0.7926815913 0.0167282835 -0.0404630724
765295410.0 0.0144588648 -0.0420231046 -0.0423017402 -0.7923023886 -0.0429593866 -0.7924437228 0.0162915194 -0.0405128332
770295380.0 0.0134861235 -0.0421051059 -0.0512875035 -0.7914519956 -0.0510731866 -0.7918875709 0.0150705355 -0.0412325712
775295350.0 0.0129635604 -0.0427854139 -0.0601475883 -0.7903518754 -0.059154201 -0.7904164522 0.0140396802 -0.0403225566
780295320.0 0.0126483224 -0.042311171 -0.0681263202 -0.7901345796 -0.0670920235 -0.7903222947 0.0137026067 -0.0412681795
785295290.0 0.0116323087 -0.0430101619 -0.076962252 -0.7886733204 -0.0757722704 -0.7892161588 0.0142250181 -0.0406183485
790295260.0 0.0118215487 -0.0416423238 -0.0845636203 -0.7881142323 -0.0841155495 -0.7879287194 0.0128184725 -0.0408974787
795295230.0 0.0109905058 -0.0425785839 -0.0936121569 -0.7873308526 -0.0930740173 -0.7875589652 0.0126268883 -0.0404205224
800295200.0 0.0096094756 -0.0418939501 -0.1031204712 -0.7862127265 -0.1020940544 -0.7862015386 0.0120926019 -0.0410922604
805295170.0 0.009249355 -0.0423890417 -0.1110467531 -0.785036258 -0.111251705 -0.785463511 0.0110873704 -0.040480485
810295140.0 0.0082873272 -0.0428172776 -0.118976874 -0.7838147651 -0.1193385672 -0.7838972873 0.0112082393 -0.0404552043
815295110.0 0.0083227904 -0.0427864475 -0.1274774331 -0.7827178309 -0.1272371709 -0.7824134396 0.0099940826 -0.0403375115
820295080.0 0.0068162074 -0.0418106512 -0.1361864224 -0.780817102 -0.1358825081 -0.7807506759 0.0095148836 -0.0406359065
825295050.0 0.0072658814 -0.0418511942 -0.1442722583 -0.7791002 -0.144388188 -0.7794437708 0.0094312653 -0.0405031351
830295020.0 0.0063533366 -0.0416402487 -0.1530198003 -0.7772646523 -0.1528489404 -0.7770789088 0.0093302588 -0.040404322
