!Created with skrf (http://scikit-rf.org).
# Hz S RI R 50.0 
!freq ReS11 ImS11 ReS21 ImS21 ReS12 ImS12 ReS22 ImS22
300000.0 0.8591152774 -0.0023118513 -0.0007353496 -0.0004619754 -0.0007835308 0.0003853967 -0.7746692344 -0.1267352919
5299970.0 0.858662967 -0.0096859301 1.7968e-05 -7.04916e-05 -8.35091e-05 8.4752e-05 -0.7853241019 -0.0069083646
10299940.0 0.8575448837 -0.0189962162 -0.0002602422 -9e-06 -6.15711e-05 -9.0479e-06 -0.7883960636 -0.0034481112
15299910.0 0.8568829489 -0.026275781 0.0001147663 2.7177e-05 1.94486e-05 -2.19843e-05 -0.7940799896 -0.0014040625
20299880.0 0.8562220592 -0.0351093774 3.68902e-05 -0.000177255 0.000148306 0.0001171537 -0.8001515196 0.0022754659
25299850.0 0.8553346093 -0.0432222961 4.74559e-05 -0.0001089432 0.000280859 0.0001007441 -0.8061964915 0.0079348169
30299820.0 0.854585875 -0.0522703161 -9.78202e-05 0.0001439494 -2.25257e-05 8.90449e-05 -0.8123324398 0.0158884923
35299790.0 0.8537997289 -0.060121873 -4.25775e-05 0.0002697857 3.44553e-05 3.22064e-05 -0.8173862076 0.0247176718
40299760.0 0.8530178269 -0.0689720739 -0.0001207113 7.08309e-05 -9.80247e-05 -9.88869e-05 -0.8216046411 0.0345905623
45299730.0 0.8527759304 -0.0768900151 8.93443e-05 8.95831e-05 -5.73474e-05 0.0001946148 -0.8252260855 0.0433968194
50299700.0 0.8520439671 -0.0848572044 -0.0001235072 5.15085e-05 -0.0002197875 8.6159e-06 -0.827200849 0.0537339652
55299670.0 0.850866136 -0.0935133373 9.9564e-05 7.67747e-05 5.1346e-06 -0.0001184461 -0.8296971597 0.0646335933
60299640.0 0.84938217 -0.1010502034 -6.26694e-05 0.0001680322 3.59666e-05 -5.7716e-05 -0.8306796852 0.0743025081
65299610.0 0.8480400959 -0.1096851708 -0.0001465652 5.02785e-05 -0.0001256985 -0.0001244512 -0.8321811706 0.0840561573
70299580.0 0.8474235439 -0.1184803233 -8.18059e-05 0.0002222659 9.5079e-06 2.81676e-05 -0.8319363102 0.0944858038
75299550.0 0.8462597527 -0.1265088309 -7.29379e-05 -1.28322e-05 -7.18258e-05 0.0001243312 -0.8324341044 0.1037853461
80299520.0 0.8438792222 -0.1348856 9.7836e-05 -8.00471e-05 4.94456e-05 -0.0001230256 -0.8316554416 0.113772942
85299490.0 0.843370245 -0.1431498664 -5.9246e-05 0.0001016243 8.61838e-05 0.0002998479 -0.8314862159 0.123284152
90299460.0 0.8415285789 -0.1509488307 2.20135e-05 -9.25456e-05 0.0001635299 6.90817e-05 -0.8309581319 0.1328490542
95299430.0 0.8401429289 -0.1592086087 4.25929e-05 0.0001326944 3.24672e-05 9.84873e-05 -0.8290285572 0.1422762145
100299400.0 0.8385556099 -0.1674502176 1.05198e-05 8.36713e-05 3.06523e-05 -0.000127647 -0.8288167124 0.1519231756
105299370.0 0.8368176714 -0.1755116528 0.0001865962 0.0001361647 -0.0001483205 0.0001091237 -0.8271509987 0.1607296078
110299340.0 0.8357102355 -0.1838553315 3.91635e-05 -7.8579e-06 -5.48335e-05 -5.13178e-05 -0.8255660174 0.1706735189
115299310.0 0.8332477182 -0.1919920872 -0.0001057558 -1.19129e-05 -8.42635e-05 4.67014e-05 -0.8241039891 0.1801570778
120299280.0 0.8318054172 -0.1996527749 1.3226e-05 -1.45224e-05 4.76804e-05 8.9377e-05 -0.8224907698 0.1888290593
125299250.0 0.8295161986 -0.2081583791 -5.63851e-05 0.0001727148 -0.0001070264 7.7989e-05 -0.8208858059 0.1979396757
130299220.0 0.8276754545 -0.2165076074 0.0001068948 -0.0001674459 -0.0001374437 4.56951e-05 -0.8188051231 0.2068736608
135299190.0 0.825555791 -0.2241431573 -2.91006e-05 2.423e-07 -0.0002330978 4.08283e-05 -0.8167256137 0.2159691413
140299160.0 0.8228714045 -0.2323616239 -5.22476e-05 9.85971e-05 -0.0001245976 6.53161e-05 -0.81481487 0.2251173371
145299130.0 0.8201384524 -0.2403252087 -3.96433e-05 0.0001274848 -3.23648e-05 -0.0001368302 -0.8127643295 0.2339574989
150299100.0 0.817963552 -0.2479899651 -0.0001510648 7.4824e-05 4.74901e-05 -0.0001172909 -0.810983392 0.2429227329
155299070.0 0.8151202122 -0.2562684227 0.0001678948 0.0001385299 5.84517e-05 0.0002332523 -0.8077257101 0.2519572837
160299040.0 0.8128719374 -0.2645186778 1.64905e-05 -0.0003126744 4.26783e-05 -3.819e-07 -0.8053382266 0.2603519657
165299010.0 0.8106625181 -0.2724265328 -6.14636e-05 7.0097e-05 -5.45202e-05 -7.13834e-05 -0.8027128246 0.2693839364
170298980.0 0.8077671442 -0.2802467041 -0.0001372729 5.03891e-05 0.0001465505 -5.52108e-05 -0.7998919669 0.2778498236
175298950.0 0.8044880091 -0.288327494 -9.28995e-05 0.0002044752 1.21947e-05 5.07029e-05 -0.7977227906 0.2866214789
180298920.0 0.8021825818 -0.2954154834 7.76064e-05 -4.73914e-05 4.67742e-05 2.83082e-05 -0.7944771968 0.2946989616
185298890.0 0.799201762 -0.3038424507 -7.01563e-05 -3.22549e-05 -1.70049e-05 -7.1265e-06 -0.7911404735 0.3040163516
190298860.0 0.7956551373 -0.3114451768 0.0001280092 5.76747e-05 -0.0001393089 3.02752e-05 -0.7887526475 0.312177942
195298830.0 0.7930977645 -0.3190298302 5.98585e-05 8.38025e-05 5.99643e-05 0.0001169531 -0.7848253927 0.32078197
200298800.0 0.7892038501 -0.326516415 -0.0001562705 -0.0001908553 -1.95195e-05 0.0003079473 -0.7816904042 0.3287857784
205298770.0 0.7862842632 -0.3345214657 -8.13438e-05 -0.0001393672 0.0001224761 -0.0001122783 -0.7777505009 0.3375206697
210298740.0 0.7827035825 -0.342206591 0.0001867854 -9.6369e-05 2.06004e-05 0.0001117765 -0.7745462972 0.3454271516
215298710.0 0.7793437033 -0.35010714 -0.0001869423 -7.17806e-05 6.41816e-05 -3.12456e-05 -0.7715675643 0.3535089685
220298680.0 0.7758498679 -0.3574723844 -1.00176e-05 -8.91128e-05 2.6502e-06 -4.74717e-05 -0.7676661562 0.3620536561
225298650.0 0.7720145206 -0.3652469217 4.50016e-05 8.06747e-05 6.44076e-05 4.85824e-05 -0.7639890054 0.3703857645
230298620.0 0.7686476606 -0.3727911953 -3.59131e-05 0.000112474 -0.0001009417 -3.3222e-05 -0.7597012898 0.3787109673
235298590.0 0.7649492193 -0.3798063945 5.80069e-05 -0.0001081602 -8.64005e-05 -5.0862e-06 -0.7553206622 0.386777375
240298560.0 0.761510444 -0.3874526794 -1.89486e-05 -4.51396e-05 -9.27078e-05 -3.11165e-05 -0.7516255171 0.3952325822
245298530.0 0.7576851256 -0.3950572793 2.18447e-05 4.43056e-05 -0.0001574222 2.12017e-05 -0.7478296354 0.4020723363
250298500.0 0.7533840206 -0.4021173034 4.643e-05 0.0001277591 5.93896e-05 0.0001718291 -0.7435476794 0.4101334207
255298470.0 0.7491578292 -0.4098090221 1.79022e-05 -7.50712e-05 0.000172147 -0.0001370777 -0.7388403083 0.4175739355
260298440.0 0.7453288487 -0.4169123092 -1.88562e-05 9.11906e-05 -2.98027e-05 5.45196e-05 -0.7351022106 0.4261027901
265298410.0 0.7413314258 -0.4243332397 -3.58279e-05 -0.0001367596 -8.08642e-05 6.66267e-05 -0.7306059964 0.4332096608
270298380.0 0.7376399036 -0.4317070559 -0.0002334568 4.96125e-05 -2.82901e-05 -8.15509e-05 -0.7257938461 0.4407289959
275298350.0 0.7330204752 -0.4388311788 -9.41392e-05 0.0001861765 -5.15554e-05 -8.99259e-05 -0.7212198698 0.4486342493
280298320.0 0.7285567891 -0.445311577 1.52742e-05 5.35221e-05 -1.65847e-05 -6.43294e-05 -0.7160415558 0.4560503001
285298290.0 0.7246164028 -0.452903433 -0.0001821491 2.96367e-05 1.41652e-05 -4.50697e-05 -0.7110643993 0.4638640223
290298260.0 0.7196943758 -0.4601382028 0.0001050659 -6.73737e-05 -0.0001668277 -4.84947e-05 -0.7059000869 0.4713326902
295298230.0 0.715686686 -0.4669956771 7.2472e-06 -9.84178e-05 -0.0001994538 3.69653e-05 -0.7015086911 0.4780911722
300298200.0 0.7121894207 -0.4743521183 0.0001644098 -5.69975e-05 -0.0001107778 0.0001135891 -0.6958609528 0.485468288
305298170.0 0.7070768589 -0.4811014023 -2.72891e-05 -0.0001234136 -0.0002148815 -0.0001652749 -0.6906678579 0.4933297527
310298140.0 0.7028562004 -0.4883392725 -4.7241e-06 0.0001885693 7.4578e-06 -6.2985e-06 -0.6859608996 0.4999174317
315298110.0 0.6986554872 -0.4960641266 -0.0001480077 -6.6449e-05 -0.0001919218 3.46816e-05 -0.6802065304 0.5066755871
320298080.0 0.6936520499 -0.5032946297 -6.78276e-05 -2.44904e-05 4.89188e-05 3.03057e-05 -0.6752283833 0.5146964069
325298050.0 0.6876275119 -0.510224875 8.3726e-05 7.47154e-05 -0.0001867086 -5.50118e-05 -0.669310693 0.5215063606
330298020.0 0.6819907811 -0.5180717423 0.0001013175 6.64831e-05 0.0001204855 5.79302e-05 -0.6639617834 0.5282937663
335297990.0 0.6758330337 -0.5242718773 -0.0001753279 -0.0002424035 -5.25497e-05 3.5674e-05 -0.6587857753 0.5357384744
340297960.0 0.6703837087 -0.5315814182 3.26824e-05 4.69991e-05 7.50725e-05 -4.24234e-05 -0.6527765467 0.5425490578
345297930.0 0.6642625247 -0.5372716603 -6.5992e-05 7.08172e-05 -2.13363e-05 3.28645e-05 -0.6478064702 0.5486337346
350297900.0 0.6589851524 -0.5436512727 8.42821e-05 -0.0001206431 -3.41363e-05 4.89907e-05 -0.6421006861 0.5556616566
355297870.0 0.6533428347 -0.5491410389 -6.6858e-06 -4.35186e-05 -2.52607e-05 -0.0001267244 -0.6360954736 0.5622870312
360297840.0 0.6478155231 -0.5554738886 -0.000122756 4.86383e-05 -7.28801e-05 2.21535e-05 -0.6299708246 0.5687310549
365297810.0 0.6411772224 -0.5620115446 -3.27489e-05 -0.0001218962 -8.1715e-06 0.0001855852 -0.6236137029 0.5751988173
370297780.0 0.6359224377 -0.5682638294 6.18106e-05 -0.0001147119 6.03712e-05 -7.6764e-06 -0.6180201175 0.5817552588
375297750.0 0.6299270575 -0.5743474794 -0.0001290751 -3.21433e-05 2.4289e-06 9.83625e-05 -0.6118500428 0.5874962725
380297720.0 0.6242634386 -0.5799218694 -6.03278e-05 -5.88071e-05 -1.4777e-05 1.00231e-05 -0.6060539693 0.5942928785
385297690.0 0.6186864599 -0.586627533 -8.51622e-05 -4.7023e-05 -9.8712e-06 -0.0001840355 -0.5993839135 0.6006643387
390297660.0 0.6127478847 -0.5918890331 -0.0002081606 7.10871e-05 3.70754e-05 -6.61895e-05 -0.5938587189 0.6067044775
395297630.0 0.6069329825 -0.5978379006 -5.04221e-05 -0.0001152586 -4.9616e-06 -6.90266e-05 -0.587263 0.6130896992
400297600.0 0.6009382141 -0.6036719604 -2.5986e-05 -1.50231e-05 2.97629e-05 4.43786e-05 -0.5810617771 0.6187490104
405297570.0 0.5951410356 -0.609282838 -0.0001226828 -7.73043e-05 0.0002197694 0.0001352013 -0.5742943413 0.6244882253
410297540.0 0.5883876916 -0.6154979026 -0.0001021372 -4.77438e-05 -1.97076e-05 0.0001200681 -0.5675578175 0.6302002068
415297510.0 0.5826469008 -0.6213171832 0.0001864434 3.79093e-05 0.0001261288 6.77915e-05 -0.5611508866 0.6358313702
420297480.0 0.5763989721 -0.6263998188 5.7739e-06 6.81696e-05 2.44998e-05 -8.05242e-05 -0.5542514449 0.6414345161
425297450.0 0.5702452133 -0.6320725814 -4.63345e-05 -9.9683e-06 1.14201e-05 -0.0002018132 -0.5479125948 0.6476116357
430297420.0 0.5635392643 -0.6373318819 6.53465e-05 -0.0001295652 -0.00014556 0.0001166098 -0.5413798906 0.6527023851
435297390.0 0.5576525164 -0.6434277694 0.0001769964 -9.82214e-05 5.93518e-05 0.0001725571 -0.533925258 0.6586017079
440297360.0 0.5509905678 -0.649081002 -4.72156e-05 0.0001893211 -6.20078e-05 5.47931e-05 -0.5277737345 0.6633589031
445297330.0 0.5442552552 -0.653865246 -2.63762e-05 8.34819e-05 -6.83913e-05 4.74524e-05 -0.520689804 0.6685074323
450297300.0 0.5380147943 -0.6588891029 -0.0001012235 6.01945e-05 3.48941e-05 0.0001899268 -0.5132874036 0.6741430962
455297270.0 0.5316856597 -0.6644292018 -0.0001802881 1.1745e-06 2.54849e-05 -4.30263e-05 -0.5063101514 0.6786081649
460297240.0 0.5254064992 -0.6698781419 0.0003080829 -8.79991e-05 0.0001448223 -3.20876e-05 -0.5003030246 0.6839613293
465297210.0 0.5177027688 -0.6747401979 2.05553e-05 -0.0002558589 -0.0001189618 0.0002634542 -0.4921444167 0.6893969951
470297180.0 0.5111742064 -0.6793875807 -3.84164e-05 1.51263e-05 -0.0001642356 -7.09678e-05 -0.485017823 0.6945345017
475297150.0 0.5049441401 -0.6844408902 0.0001521863 4.69923e-05 3.3813e-06 0.0001691925 -0.4783554892 0.6987689984
480297120.0 0.4977914494 -0.6890848437 3.91481e-05 -2.53848e-05 -2.32754e-05 5.48077e-05 -0.4707676945 0.7037888031
485297090.0 0.4907719541 -0.694187681 7.26278e-05 0.000121907 -1.00484e-05 -0.0002062243 -0.4635940468 0.7086292315
490297060.0 0.4843450912 -0.6983613819 0.0001439745 0.0001665635 2.09925e-05 0.000106808 -0.456622795 0.7126216205
495297030.0 0.4776423551 -0.703084225 2.74607e-05 -7.5922e-05 -6.7094e-05 7.64551e-05 -0.4494767068 0.7178728902
500297000.0 0.469614346 -0.7074509028 -0.0001944018 -0.0002310412 0.0001070805 9.7707e-05 -0.4411462413 0.723043341
505296970.0 0.4632035304 -0.7126847598 -8.88805e-05 0.0001453956 -9.91904e-05 2.56338e-05 -0.4338372173 0.7268615632
510296940.0 0.4553077564 -0.7170579376 5.32602e-05 0.0001233271 9.06234e-05 -0.0002732235 -0.4263896499 0.7310483373
515296910.0 0.4492759744 -0.7212441285 2.51711e-05 0.0001880659 -2.78595e-05 -0.0002266943 -0.4186973861 0.735197137
520296880.0 0.4416356738 -0.7255528686 8.63483e-05 3.07092e-05 0.0001160085 6.46985e-05 -0.4116504112 0.7393501462
525296850.0 0.4346000932 -0.7302916148 0.0001036167 5.9674e-06 0.0002377354 0.0001319522 -0.4045724255 0.7438397083
530296820.0 0.4269486233 -0.733612535 9.65831e-05 -1.82309e-05 -0.0001889987 0.0002610369 -0.3965975265 0.7477581308
535296790.0 0.4200303861 -0.7380522018 9.89775e-05 -8.15277e-05 8.81532e-05 -0.0001927876 -0.3895466304 0.7515884294
540296760.0 0.4121616147 -0.7419115583 3.59791e-05 -0.0001632739 0.0002958906 0.0001017829 -0.3808777912 0.7555833904
545296730.0 0.4046528332 -0.7457801131 -0.0002183023 -0.0001066706 0.0002658026 0.0002392214 -0.3739722974 0.7596349321
550296700.0 0.3980452943 -0.7488390784 7.69694e-05 -5.83524e-05 6.6796e-05 4.69973e-05 -0.3658355956 0.7626166047
555296670.0 0.3901874867 -0.7537104884 0.0003137317 3.04761e-05 -0.000130242 6.64562e-05 -0.3583986832 0.7669330841
560296640.0 0.3825044859 -0.7573714029 -0.0001336734 -9.51212e-05 8.96746e-05 0.0001511763 -0.3502194665 0.7711970234
565296610.0 0.3751172467 -0.7605614342 0.0001105686 2.2518e-06 -3.10375e-05 -4.22804e-05 -0.3424584408 0.7736170835
570296580.0 0.3672645708 -0.7640275302 8.55103e-05 -0.0001144324 2.41247e-05 0.0001931824 -0.3350850891 0.7777446429
575296550.0 0.3600325883 -0.76749233 -9.361e-05 5.58936e-05 2.13602e-05 -9.17462e-05 -0.3269634427 0.7806304567
580296520.0 0.3521488473 -0.7713217978 4.76103e-05 -0.0001999684 2.13546e-05 6.33296e-05 -0.3191274916 0.7833486592
585296490.0 0.3438965082 -0.7751393619 0.0001948677 -9.97925e-05 -6.9375e-05 0.0001242988 -0.3103142088 0.7873960543
590296460.0 0.3368041731 -0.7770218503 -3.95515e-05 1.95283e-05 -1.35611e-05 -9.71028e-05 -0.3028385222 0.7901405129
595296430.0 0.3283555687 -0.7809017258 4.25593e-05 -3.1154e-06 3.11393e-05 6.6692e-05 -0.2947661396 0.7924098573
600296400.0 0.3205133831 -0.7838684031 8.20821e-05 3.4365e-05 7.74164e-05 6.10128e-05 -0.2872132861 0.7953140636
605296370.0 0.3131138243 -0.7865015487 9.63086e-05 -1.4984e-05 -6.85842e-05 9.42166e-05 -0.2781468106 0.7987260063
610296340.0 0.3048409798 -0.7902224766 3.40745e-05 7.89516e-05 -1.73188e-05 -8.81766e-05 -0.2707984071 0.8010830217
615296310.0 0.2984611292 -0.7928569065 2.75999e-05 2.4311e-06 0.0002213788 9.93619e-05 -0.2620515198 0.8032474418
620296280.0 0.2893339499 -0.7956648268 0.0003110067 0.0002432427 -0.0001065444 -0.0001018711 -0.2547907762 0.8063021146
625296250.0 0.281644482 -0.7982714563 -4.26686e-05 -0.0001605447 0.0001220188 -7.04642e-05 -0.245448658 0.8081085536
630296220.0 0.2739466089 -0.8014260905 0.0001355025 -1.21219e-05 -2.84068e-05 5.6901e-05 -0.2380542728 0.8114461471
635296190.0 0.2655295683 -0.803774363 6.01939e-05 -6.89672e-05 -0.0001098788 8.25431e-05 -0.2299750828 0.8134309515
640296160.0 0.2575664242 -0.8063820822 6.23126e-05 1.46721e-05 0.0001077675 2.56777e-05 -0.2212419014 0.8160446934
645296130.0 0.2497000466 -0.8085130829 -4.2571e-05 -7.68684e-05 5.171e-07 0.0001067663 -0.2134574836 0.8178056631
650296100.0 0.2414318359 -0.8108598074 -8.61533e-05 0.000110101 8.3996e-06 8.11742e-05 -0.2054517862 0.8189821979
655296070.0 0.2329489818 -0.8133957088 1.80878e-05 -5.57611e-05 7.30667e-05 2.2897e-06 -0.1966710313 0.82107046
660296040.0 0.2251494503 -0.815870629 0.0001074425 0.0003359169 -0.0001506179 -1.88213e-05 -0.187957164 0.8234602084
665296010.0 0.2175328182 -0.8172666407 0.0001703921 0.0001149108 -7.46527e-05 -0.0001837489 -0.1795247933 0.8257361515
670295980.0 0.208582532 -0.8196937221 -3.40371e-05 8.84241e-05 -9.35295e-05 9.01119e-05 -0.1719992749 0.8273786691
675295950.0 0.2008787567 -0.8211364599 0.0001284834 -0.0002835447 -0.0002982426 -7.473e-06 -0.1636813979 0.8292231441
680295920.0 0.192535938 -0.8229073755 7.4272e-05 4.06084e-05 -3.116e-06 2.59606e-05 -0.1552504311 0.8315276442
685295890.0 0.1846288343 -0.8242571853 5.75642e-05 -0.0001772193 0.0001306963 1.63734e-05 -0.1461334005 0.8318776037
690295860.0 0.1760438545 -0.8262479118 6.47919e-05 6.41581e-05 0.000113641 -6.71161e-05 -0.1384259462 0.8339695029
695295830.0 0.1677363018 -0.827880012 -6.46244e-05 -7.9763e-06 -2.78427e-05 3.77287e-05 -0.1297921409 0.8349039696
700295800.0 0.1600755467 -0.8294332467 0.0001271043 0.0001295629 -0.0002424887 -8.43206e-05 -0.1221613143 0.8361697522
705295770.0 0.1508237298 -0.830817464 -0.0002533415 0.0002090589 -4.70366e-05 5.62663e-05 -0.1135095158 0.8381055123
710295740.0 0.1422626062 -0.8320252018 -3.06895e-05 3.73588e-05 0.0002497816 0.0001578458 -0.1051264128 0.8387363048
715295710.0 0.134457228 -0.8336478837 7.45861e-05 -0.0002690902 -0.0002140642 -1.73164e-05 -0.0968358812 0.8400075166
720295680.0 0.1264570632 -0.834248047 9.0739e-06 2.87352e-05 6.24859e-05 -9.48404e-05 -0.0882627835 0.8409658376
725295650.0 0.1177379182 -0.8351701697 0.0001570083 0.0001834633 -3.45594e-05 -0.0001052275 -0.0804041378 0.841552702
730295620.0 0.1096984199 -0.8360927711 4.42435e-05 -0.0001841533 0.0001269692 4.15909e-05 -0.0726386689 0.8420027642
735295590.0 0.1012563794 -0.8368609264 -2.53061e-05 -0.0001949866 -3.39151e-05 -6.34294e-05 -0.0635608286 0.8426471884
740295560.0 0.0929629709 -0.8380157068 1.22674e-05 -5.05508e-05 2.22948e-05 0.0001097229 -0.0543551024 0.8438331238
745295530.0 0.0846938083 -0.8387839788 3.39337e-05 -0.0001730245 -0.0002056569 -5.07238e-05 -0.0463136929 0.8441900794
750295500.0 0.0760716681 -0.8396541709 2.79346e-05 -8.8992e-05 0.000146643 5.80103e-05 -0.0380190403 0.8443599757
755295470.0 0.0672994113 -0.8399295944 -6.1889e-05 5.0745e-05 0.0001638571 -0.0001480725 -0.0293490618 0.8442127523
760295440.0 0.0592642061 -0.8407775771 -0.000128132 -2.83628e-05 5.22787e-05 9.0412e-05 -0.0206505197 0.8445718281
765295410.0 0.0505708652 -0.8407241986 0.0002366609 -5.8382e-06 5.44271e-05 3.35903e-05 -0.0127072784 0.8452629135
770295380.0 0.0422120212 -0.8409411527 5.88167e-05 -4.6751e-06 -9.80988e-05 6.498e-06 -0.0041118852 0.8450624407
775295350.0 0.0338648173 -0.8415617681 0.0002709755 0.0001034991 4.49564e-05 -8.17259e-05 0.0034092249 0.8443175523
780295320.0 0.0254551625 -0.8418901374 8.44932e-05 -3.98365e-05 -2.43534e-05 -0.0001669645 0.0125605367 0.8443071969
785295290.0 0.0169547151 -0.8418459418 0.0001093507 -2.2971e-06 -1.11983e-05 0.0001727157 0.0209672057 0.8446095269
790295260.0 0.008680992 -0.8417157758 8.78856e-05 0.0003442592 2.2947e-06 4.75792e-05 0.0298988529 0.8446725564
795295230.0 0.0001793799 -0.841510014 -4.15643e-05 6.80705e-05 0.0002170596 9.90796e-05 0.0387464721 0.843780703
800295200.0 -0.0079493372 -0.8416651676 1.20437e-05 -0.0002122163 -5.08863e-05 0.0002704395 0.0468304992 0.8431188132
805295170.0 -0.0167201689 -0.8413154044 4.15833e-05 -4.9702e-05 1.91431e-05 -1.09827e-05 0.0546157782 0.8428731848
810295140.0 -0.0243098411 -0.8404102407 -2.26034e-05 -2.38095e-05 8.99965e-05 -2.24499e-05 0.0633623607 0.8421385075
815295110.0 -0.0330566852 -0.8407967999 5.08783e-05 6.29697e-05 0.0001080514 -7.79237e-05 0.071606368 0.8412570154
820295080.0 -0.0414586875 -0.8398339878 -2.18698e-05 8.51682e-05 -0.0001972304 -0.000270985 0.0798867506 0.8409839392
825295050.0 -0.0495619043 -0.8389356862 0.0003691768 -9.65275e-05 -6.27576e-05 -0.0001643339 0.088601459 0.840063729
830295020.0 -0.0582881478 -0.8389197585 7.32958e-05 -8.56115e-05 9.74163e-05 -8.96714e-05 0.0979570477 0.8391855646
835294990.0 -0.066526101 -0.8372633341 -0.0001619991 -1.36205e-05 -0.0001895401 0.0001485228 0.1050327607 0.8385773025
840294960.0 -0.0747982185 -0.8366401828 -0.0001460885 0.0001151963 -5.74107e-05 -0.0001319967 0.1130970515 0.8369664326
845294930.0 -0.0831779007 -0.8361974718 0.0001688569 0.0001418177 -0.000195149 -6.26459e-05 0.1215610034 0.8354612813
850294900.0 -0.0907410153 -0.8346661183 -5.01098e-05 5.21531e-05 7.97248e-05 -1.66433e-05 0.1296726067 0.8343848553
