!Created with skrf (http://scikit-rf.org).
# Hz S RI R 50.0 
!freq ReS11 ImS11 ReS21 ImS21 ReS12 ImS12 ReS22 ImS22
300000.0 -0.0472233382 -0.0739899785 0.0004165884 0.0016008596 -0.0012044799 0.0001282777 -0.7620971705 -0.1950706498
5299970.0 -0.0499668694 0.0142270689 3.1095e-05 -0.000157437 0.0001468171 9.35837e-05 -0.7847118427 -0.009531581
10299940.0 -0.0444287836 0.032560495 0.0001213638 -2.77953e-05 0.0001207874 2.06344e-05 -0.7874945977 -0.0051956766
15299910.0 -0.0357887245 0.0472780696 -2.94009e-05 -0.0001196641 0.0001353801 -0.0001132015 -0.7927407797 -0.0031008739
20299880.0 -0.0257186207 0.0591510163 6.20402e-05 -2.00196e-05 -9.41262e-05 -3.67214e-05 -0.7996742273 0.0019220699
25299850.0 -0.0141510999 0.0687544086 -4.3437e-05 1.67963e-05 0.0003047982 0.000115123 -0.8060350803 0.0083388442
30299820.0 -0.0026741144 0.0753241004 -9.92667e-05 3.68982e-05 8.43383e-05 8.43506e-05 -0.8118534787 0.0158845926
35299790.0 0.0089897292 0.0798722171 -2.21286e-05 3.89416e-05 -2.3876e-05 -8.36827e-05 -0.8168169385 0.0243627323
40299760.0 0.0207095328 0.082705096 2.55522e-05 6.07902e-05 0.0002650528 4.5348e-06 -0.8211574652 0.0340231729
45299730.0 0.0313450924 0.08370555 3.76795e-05 -3.71424e-05 -0.0001002694 -0.0001293559 -0.823679237 0.0434559862
50299700.0 0.0417654326 0.0833872844 -5.26766e-05 -2.80756e-05 0.0002493629 -6.63223e-05 -0.8263383035 0.0537340426
55299670.0 0.0509629106 0.082682904 -1.24053e-05 7.96195e-05 0.0001169859 -2.65654e-05 -0.8290989278 0.0639841495
60299640.0 0.0597619899 0.0805253512 -0.0001505732 0.0001351887 1.2249e-06 1.89203e-05 -0.8297656242 0.0742691568
65299610.0 0.0678355804 0.0780373389 0.0001909318 -4.4435e-06 0.0001382524 0.0002163251 -0.8303925487 0.0840323795
70299580.0 0.0743292564 0.0748703404 -4.59775e-05 -3.55759e-05 8.06722e-05 -0.0001744952 -0.8307106646 0.0935285956
75299550.0 0.0810557272 0.0719059018 0.0002360988 9.3698e-05 -7.14854e-05 -7.89264e-05 -0.8305422782 0.1037831695
80299520.0 0.0868412189 0.0679287398 -2.72907e-05 0.0002744721 -9.09443e-05 7.70157e-05 -0.8308433367 0.1140996732
85299490.0 0.0920396175 0.0639925668 0.0001437832 -0.0001014931 -9.32617e-05 0.0001356942 -0.8301259771 0.1232005343
90299460.0 0.0968423338 0.0601231389 0.0001231616 5.89108e-05 5.6989e-05 2.47992e-05 -0.8288149687 0.1327833528
95299430.0 0.1009391488 0.056324147 -5.9341e-05 0.0002940456 6.2844e-06 -2.38391e-05 -0.8283853834 0.1428807083
100299400.0 0.1043776733 0.0520386904 0.0002876847 0.0002842574 -0.0001156352 0.0001047787 -0.8270788463 0.1516857216
105299370.0 0.1080825977 0.0478585093 -0.0001719915 8.70831e-05 2.02335e-05 6.5028e-05 -0.8255777794 0.1609195436
110299340.0 0.1106586304 0.0436711352 3.75523e-05 -3.66036e-05 4.02212e-05 9.8253e-06 -0.8241723255 0.1695796406
115299310.0 0.1134977147 0.0400204165 -4.61359e-05 9.43012e-05 -7.20275e-05 0.0001115484 -0.8228438085 0.1790805327
120299280.0 0.11585909 0.0359829906 7.44194e-05 4.71589e-05 -4.51053e-05 0.0001463112 -0.8208298864 0.1881995167
125299250.0 0.1175529431 0.0317817022 7.16785e-05 -6.78131e-05 -6.22669e-05 0.0001358789 -0.8195174613 0.1970294459
130299220.0 0.1193118343 0.0281637794 6.15353e-05 8.31202e-05 0.0002502937 0.0002817497 -0.8175598077 0.2056255971
135299190.0 0.1209343099 0.0246009845 0.0001329652 -1.52863e-05 -4.25633e-05 0.0002043517 -0.8158127515 0.2151497051
140299160.0 0.1221003136 0.0208196805 7.4486e-05 1.4557e-06 -4.46359e-05 2.85075e-05 -0.8137441798 0.2233610928
145299130.0 0.1233873983 0.0174516943 -0.0001520247 3.55595e-05 1.34469e-05 0.000186655 -0.8118427403 0.2325522223
150299100.0 0.1241435253 0.0137061238 0.0002118265 -2.58294e-05 -3.14697e-05 0.0001182931 -0.8092137392 0.2415024934
155299070.0 0.1251405498 0.0107539671 0.0001003896 8.07979e-05 4.61998e-05 7.00158e-05 -0.806565886 0.2508763988
160299040.0 0.1255049147 0.0073660889 -4.38042e-05 1.92842e-05 8.10286e-05 -2.11884e-05 -0.8045314309 0.258870651
165299010.0 0.126080819 0.0042739864 0.0001341477 -8.5614e-06 0.0001833777 0.0001589027 -0.801767722 0.2676024085
170298980.0 0.1264009745 0.0007369206 0.0001095738 -5.55201e-05 -0.0001497912 9.7313e-06 -0.7992086031 0.275547786
175298950.0 0.1269154632 -0.002351551 0.0001994973 0.0001102908 0.000183831 -0.0001656941 -0.7964251968 0.2847027219
180298920.0 0.1267660584 -0.0051763004 -1.76364e-05 -1.11321e-05 0.0001466119 -2.83612e-05 -0.7930351485 0.2930731484
185298890.0 0.1266931444 -0.0085138881 -0.0001313408 -6.10242e-05 0.000174216 -3.10431e-05 -0.7904101557 0.3016763173
190298860.0 0.1269949989 -0.0110175356 -7.46597e-05 0.0001929369 1.04785e-05 0.0001628379 -0.7871254342 0.31021844
195298830.0 0.1270842676 -0.0134500774 -8.28089e-05 3.71964e-05 9.0998e-05 3.9079e-06 -0.7842028677 0.3184344715
200298800.0 0.1271370813 -0.0165696392 5.24689e-05 9.30111e-05 3.85593e-05 9.92294e-05 -0.7808664593 0.3264675217
205298770.0 0.1261812433 -0.0192249347 0.0001277624 3.19148e-05 2.89274e-05 -0.0002281892 -0.7776341294 0.3348763594
210298740.0 0.1264368421 -0.0218522549 0.0001489555 0.0001018291 0.0001185252 4.73356e-05 -0.7739111506 0.3435240728
215298710.0 0.1256242974 -0.0243386935 0.0001032823 -0.0003007554 0.0001303105 -9.14387e-05 -0.7702323366 0.351028844
220298680.0 0.1254693599 -0.0268641482 4.75185e-05 0.0001439934 2.88684e-05 3.92612e-05 -0.7666443989 0.3595858845
225298650.0 0.1248097686 -0.0294261464 -4.75734e-05 -0.0001025433 -7.81298e-05 -3.79193e-05 -0.7628314844 0.3674579546
230298620.0 0.1242855645 -0.0313259513 -6.0451e-05 1.0198e-06 -0.0001011469 0.0001283172 -0.7587583387 0.3753365368
235298590.0 0.1234936215 -0.0339091115 0.0001772429 3.72303e-05 -9.35521e-05 0.0001370533 -0.7548926559 0.3836759788
240298560.0 0.1229586072 -0.0362199702 0.0002447981 6.37477e-05 8.28315e-05 0.0001465832 -0.7511204197 0.3908555914
245298530.0 0.1219905702 -0.0382084839 0.0001314802 0.0002745692 3.3215e-06 3.40542e-05 -0.7469427766 0.3988792416
250298500.0 0.1212632652 -0.0405838564 -8.45048e-05 1.77254e-05 5.80113e-05 -0.0001373296 -0.743011037 0.4072981457
255298470.0 0.120685936 -0.0425581977 7.24287e-05 -0.0002590867 -7.12298e-05 0.0001452219 -0.7387971016 0.4143199968
260298440.0 0.1199423782 -0.0448536575 -0.0001028503 -4.10588e-05 2.63524e-05 0.0001459909 -0.7341123273 0.4218244461
265298410.0 0.1187795283 -0.0468092612 -2.58281e-05 -4.1657e-06 5.57481e-05 0.0001219288 -0.7297085385 0.4303910345
270298380.0 0.1179310559 -0.0492005355 -0.0001060681 -4.75784e-05 0.0001287135 0.0001804622 -0.7247908968 0.4382800905
275298350.0 0.1168893822 -0.0507568886 0.000107141 -2.01154e-05 0.0001770054 2.88593e-05 -0.7205056699 0.4458250203
280298320.0 0.11599256 -0.0527397276 -9.21284e-05 -5.71736e-05 0.0001526644 -0.0001382557 -0.716619929 0.4529412182
285298290.0 0.1151408764 -0.0545691535 8.16021e-05 -6.49575e-05 0.000314523 8.43492e-05 -0.7121686064 0.4604279254
290298260.0 0.1139611971 -0.0565116175 2.4367e-06 0.0001660383 0.0001348868 3.88471e-05 -0.7062171409 0.4677986539
295298230.0 0.1127327032 -0.0584871879 0.0001721744 0.0001941186 -4.96023e-05 0.0001582551 -0.7012243104 0.4751656108
300298200.0 0.1120228084 -0.0603777119 -0.0002258833 0.0003957891 0.0002239011 5.85949e-05 -0.6967471422 0.4826096537
305298170.0 0.1108500042 -0.0623217236 0.0001057629 0.0001341593 0.0001472375 5.93251e-05 -0.6917783113 0.4895498553
310298140.0 0.1096976715 -0.0644806875 -1.98938e-05 -3.65869e-05 -1.94049e-05 -0.0001345559 -0.6858771963 0.4970000338
315298110.0 0.108504079 -0.0663161641 -7.29949e-05 5.37592e-05 0.0001702318 -4.02076e-05 -0.6813256378 0.5039421716
320298080.0 0.1069097511 -0.0681414049 -0.0001089069 5.0682e-06 0.00012817 -0.0001134123 -0.6764821655 0.5104481223
325298050.0 0.1054389155 -0.0705345248 0.0002697831 0.0001403635 6.195e-07 2.17853e-05 -0.6699149417 0.5177366508
330298020.0 0.1036501371 -0.0717059248 7.42532e-05 0.0002418695 0.00014195 0.0001362413 -0.6650958169 0.5247247246
335297990.0 0.102289623 -0.0730356093 2.59049e-05 9.47755e-05 0.0001617949 8.91781e-05 -0.6593320116 0.5313125975
340297960.0 0.1010447223 -0.0743306542 0.0001971242 3.7642e-06 0.0001157991 0.0002882475 -0.654002813 0.5384937452
345297930.0 0.0996504544 -0.0759464745 -0.0001907871 7.72931e-05 9.71298e-05 0.0001365181 -0.6486341465 0.5450379834
350297900.0 0.0982030371 -0.0776315442 0.0001713921 0.000233815 0.0001912837 -1.51743e-05 -0.6430515465 0.5511873314
355297870.0 0.0967724326 -0.0790763435 0.0001285092 -2.46837e-05 0.0001048711 4.99408e-05 -0.6367184941 0.5583942172
360297840.0 0.0955014594 -0.0802287345 5.74255e-05 -3.20474e-05 2.3152e-06 -1.55421e-05 -0.6304972441 0.5649859285
365297810.0 0.0940598359 -0.0817025176 9.3468e-05 1.00528e-05 9.24758e-05 -3.00315e-05 -0.6257889336 0.5705502553
370297780.0 0.092436045 -0.082930055 1.49331e-05 -6.18121e-05 6.11179e-05 -8.6947e-05 -0.6191470701 0.577840725
375297750.0 0.0910866267 -0.084327305 -9.252e-05 -0.0001869922 2.56969e-05 0.0001273357 -0.6130165278 0.5838353922
380297720.0 0.0897432139 -0.0851816106 0.0001445638 -4.06489e-05 5.7567e-06 0.0001138008 -0.6068577669 0.5907266712
385297690.0 0.088081818 -0.0866658629 -0.000156743 -2.16032e-05 0.0001719693 -5.17744e-05 -0.6011536237 0.5968551815
390297660.0 0.0868544189 -0.0884501425 9.9535e-05 0.0001517809 5.82503e-05 -2.95583e-05 -0.5946096215 0.6020595198
395297630.0 0.0854203954 -0.0892826321 6.14976e-05 8.49767e-05 0.0001019751 8.58366e-05 -0.5880351043 0.6079790174
400297600.0 0.0835048277 -0.0906147907 8.72009e-05 0.0001933123 0.0003412061 0.0001455968 -0.5824081389 0.6144580128
405297570.0 0.0822799589 -0.0917974047 7.1982e-05 1.96677e-05 0.0001666905 8.5374e-06 -0.5752481579 0.6202521107
410297540.0 0.0813387937 -0.0929852786 0.000210008 -7.4627e-06 0.0001461581 -1.76673e-05 -0.5692971446 0.626405513
415297510.0 0.0792651445 -0.0938207094 -6.34577e-05 8.5296e-06 0.0001409833 8.64947e-05 -0.5628708688 0.6314247006
420297480.0 0.0778104126 -0.0955476608 0.0002238566 -5.82073e-05 8.6322e-06 -8.95816e-05 -0.5555990216 0.6381286656
425297450.0 0.0765923548 -0.0965940202 0.0001748812 -0.0001398622 -2.37544e-05 -8.6268e-05 -0.5493517905 0.6422852453
430297420.0 0.0748650418 -0.0976242034 0.0002142134 1.97278e-05 1.97165e-05 3.394e-07 -0.5428651449 0.6486029348
435297390.0 0.0733399018 -0.0985034371 1.13329e-05 0.0001297414 0.0002342827 7.51105e-05 -0.5364488152 0.6543693936
440297360.0 0.0718405515 -0.0994766554 -7.7039e-06 3.00608e-05 2.29105e-05 -8.45042e-05 -0.5303971568 0.6599421068
445297330.0 0.0705091609 -0.1006145453 0.0001521674 -1.41809e-05 0.0001053874 4.54907e-05 -0.5227153562 0.6653577828
450297300.0 0.069045132 -0.1017956953 3.2446e-06 -8.17886e-05 3.51133e-05 7.81957e-05 -0.5155619964 0.670082387
455297270.0 0.0672257027 -0.1027123896 -1.71913e-05 -0.0002065452 7.44804e-05 3.87613e-05 -0.5089769879 0.6750522758
460297240.0 0.0657394327 -0.1035646357 1.10436e-05 -8.3352e-05 9.38399e-05 3.13665e-05 -0.5026943886 0.6800463828
465297210.0 0.0643237377 -0.1042330224 -1.02596e-05 6.39515e-05 6.8606e-05 -7.04414e-05 -0.4945225612 0.685784365
470297180.0 0.06266202 -0.1050089484 -2.0873e-05 -8.40956e-05 -4.2647e-06 -0.0001429634 -0.4884398995 0.6902824877
475297150.0 0.0609340651 -0.1060995885 0.0002060521 0.0002733983 5.88832e-05 0.0001052776 -0.4811716824 0.6959109675
480297120.0 0.0597541835 -0.1069918818 3.14134e-05 0.0002008924 1.68563e-05 8.67692e-05 -0.4744044045 0.7001733832
485297090.0 0.0580393518 -0.1078031971 0.000124741 -3.18679e-05 0.0002763603 0.0002967269 -0.4675829725 0.7048297756
490297060.0 0.05689029 -0.1084589018 0.0001139669 -1.18442e-05 0.0001440282 8.79847e-05 -0.4594556232 0.709027634
495297030.0 0.0552430472 -0.1095014959 0.000153673 -5.34196e-05 0.000385874 3.40247e-05 -0.4523379509 0.7135571938
500297000.0 0.0533805784 -0.1099328541 6.4035e-06 9.27033e-05 6.33921e-05 -6.78502e-05 -0.4449942541 0.7186283408
505296970.0 0.0518370761 -0.110815991 0.000313819 6.03132e-05 0.0001364193 -2.75456e-05 -0.4372075794 0.7230454424
510296940.0 0.0504455273 -0.11115649 -4.37954e-05 6.29331e-05 0.0001244946 0.000197443 -0.4297456497 0.7267025772
515296910.0 0.0485737853 -0.1117156212 0.0001816709 -5.41894e-05 0.0002830759 -1.93234e-05 -0.4228751261 0.7308265014
520296880.0 0.0473732584 -0.1124809001 -2.85945e-05 7.9347e-06 0.0001408238 3.37573e-05 -0.4152878244 0.7356675857
525296850.0 0.0456535188 -0.1131464969 -5.48291e-05 8.1987e-05 0.0001047222 0.00015954 -0.4082975148 0.7397255475
530296820.0 0.0439996492 -0.1136192774 0.0002457805 9.7523e-05 0.0001557163 4.45306e-05 -0.4003526563 0.7433214093
535296790.0 0.0425208844 -0.1140515276 -0.0001012171 -0.0001634179 0.0003566267 0.0001455362 -0.3926119325 0.7480419095
540296760.0 0.0412211119 -0.1147818758 2.37597e-05 -3.42041e-05 0.0001500963 0.0001112885 -0.3848177258 0.7513619082
545296730.0 0.0393667343 -0.1148475926 0.0002457322 0.0001337926 0.0001747635 -9.07188e-05 -0.3770778 0.7552557174
550296700.0 0.0379376572 -0.1152731262 7.26116e-05 -6.8002e-06 0.0001725036 -8.834e-05 -0.3696983446 0.7591457924
555296670.0 0.0360950594 -0.1157507186 0.0002151815 8.87621e-05 0.0001774611 0.0002020422 -0.3620673664 0.7620145839
560296640.0 0.0348642418 -0.1160400339 0.0002973274 0.0001454582 0.00010514 -0.0001739546 -0.3544807175 0.7668626177
565296610.0 0.032663471 -0.1163020618 0.0001490492 8.58131e-05 6.27345e-05 5.54766e-05 -0.3467333696 0.7700237795
570296580.0 0.0315173366 -0.1167315732 8.45559e-05 -4.1002e-05 0.0001757414 -2.37219e-05 -0.3383678664 0.773401417
575296550.0 0.029738129 -0.1169856196 0.0002183727 6.61873e-05 0.0001066488 0.0001179119 -0.3306787116 0.77652105
580296520.0 0.0282519891 -0.1170608253 6.58607e-05 0.0002293074 5.72433e-05 -0.0002501809 -0.3240223271 0.7796653471
585296490.0 0.0267275936 -0.1170268731 -1.86199e-05 5.58782e-05 0.0002022773 -4.57292e-05 -0.315013487 0.7829398301
590296460.0 0.0252137782 -0.1172420561 0.0002239368 -3.63234e-05 0.0003022043 0.0001848699 -0.3080160821 0.7858646554
595296430.0 0.023408947 -0.1174428485 0.0001534702 2.9929e-06 0.0002577603 0.0001022827 -0.2999275779 0.7891524394
600296400.0 0.0220617235 -0.1175261284 0.0002057641 0.0001697422 4.60383e-05 -3.37027e-05 -0.2916883027 0.7920176952
605296370.0 0.0198718489 -0.1174923816 0.0001163534 0.000188334 0.00028005 -0.0001157007 -0.2834612127 0.7951701899
610296340.0 0.0187142863 -0.1175634624 0.0001286213 0.000122501 9.96096e-05 -9.7547e-06 -0.2760599492 0.7978900169
615296310.0 0.0171364362 -0.1176717414 0.0001604935 -7.9319e-05 0.0001341195 -0.0001717388 -0.2670855204 0.8005717703
620296280.0 0.0152929807 -0.1174175856 0.0003044687 3.39882e-05 0.0001685363 -1.23909e-05 -0.2599122169 0.8033897325
625296250.0 0.0134052035 -0.1176643384 5.5978e-05 0.0001231141 0.0001454028 2.06795e-05 -0.251598614 0.805026805
630296220.0 0.0119451745 -0.1173216958 0.0002578192 -4.97504e-05 0.0001863827 0.0003021069 -0.2433612442 0.8083418721
635296190.0 0.0102615218 -0.1172386494 0.0001960143 -0.0001244458 3.37903e-05 -8.08787e-05 -0.2349877514 0.8098283874
640296160.0 0.0084339571 -0.1173796178 9.00545e-05 5.0585e-06 0.0002629588 0.000115926 -0.2274062979 0.8129955458
645296130.0 0.007400157 -0.1172906281 9.58649e-05 1.95105e-05 0.0001436061 -6.00558e-05 -0.2195534603 0.8144231796
650296100.0 0.0053848059 -0.1170191942 0.0001062715 0.0002557957 7.64235e-05 -3.09054e-05 -0.2103303333 0.8168106394
655296070.0 0.0038324945 -0.1168386835 0.000280578 7.35457e-05 0.0001349696 2.638e-07 -0.2029226321 0.8191498039
660296040.0 0.0018981799 -0.1164065325 -6.04916e-05 5.62555e-05 4.64098e-05 0.000146711 -0.1943345937 0.8211041269
665296010.0 8.86225e-05 -0.1162036699 0.0003973941 0.0001004731 1.99927e-05 7.40218e-05 -0.186356856 0.8223095204
670295980.0 -0.0014039425 -0.1160626555 0.0001667405 -0.0001831814 0.0001447281 6.75496e-05 -0.1784789286 0.8244910857
675295950.0 -0.0031572034 -0.1158276736 0.0001686685 0.0001042656 0.0001576117 -0.0002123308 -0.1696975852 0.8263263267
680295920.0 -0.0049050824 -0.1151665528 6.65848e-05 9.21574e-05 5.16727e-05 2.70375e-05 -0.1614128629 0.8278943795
685295890.0 -0.006273834 -0.1148535697 7.07031e-05 0.0001034823 0.0001200002 -2.88823e-05 -0.153087261 0.8297556148
690295860.0 -0.0079747528 -0.1146426824 2.46133e-05 -6.99147e-05 2.56285e-05 1.89942e-05 -0.1449730518 0.8312142985
695295830.0 -0.0099689293 -0.1143737127 8.74847e-05 -0.0001840153 0.0002329555 -9.78462e-05 -0.1366091756 0.8330321552
700295800.0 -0.0113310811 -0.113991407 0.0001580669 -5.11341e-05 0.0001496853 -3.3341e-06 -0.1284342969 0.8334521795
705295770.0 -0.0131582279 -0.1134769858 0.0001110959 -4.1508e-05 0.0001948485 -0.0001166769 -0.1205009947 0.8349677672
710295740.0 -0.0151514856 -0.1131283552 0.0001538538 -0.000248488 0.0001964577 -0.0002576057 -0.1117918348 0.8366083445
715295710.0 -0.0160389709 -0.1125677964 6.94991e-05 -2.33016e-05 0.000109898 -4.75076e-05 -0.1034243656 0.8370162438
720295680.0 -0.0181173385 -0.1119304143 9.92295e-05 -4.82302e-05 7.92396e-05 -4.55212e-05 -0.0945839192 0.8379897095
725295650.0 -0.0196734067 -0.1118773943 8.7433e-05 -6.98183e-05 0.0001690162 0.0002262994 -0.0869586218 0.8393233613
730295620.0 -0.0218389422 -0.1109096654 8.94872e-05 8.00848e-05 0.0001399496 1.62157e-05 -0.0785822591 0.8401060976
735295590.0 -0.02328982 -0.1104963832 -4.8844e-06 -7.53204e-05 0.0002194837 -0.0001530233 -0.0699100836 0.8404120174
740295560.0 -0.0251000401 -0.1101419286 9.99651e-05 -0.0002543821 0.0001690376 3.6427e-05 -0.0613870902 0.8411430577
745295530.0 -0.0266420764 -0.1095899792 1.9143e-06 -0.00026456 1.73756e-05 0.0001393096 -0.0536219323 0.8415667645
750295500.0 -0.0282357796 -0.1087367045 0.0001683678 -9.29373e-05 9.64525e-05 9.94862e-05 -0.0448313714 0.8424907308
755295470.0 -0.0301228306 -0.1080970488 0.0002875129 7.52898e-05 8.43177e-05 -1.11408e-05 -0.0367881732 0.8428024608
760295440.0 -0.0316053153 -0.1074260771 0.0001029636 -0.0001263832 0.00019782 8.5484e-06 -0.0277585082 0.8425488876
765295410.0 -0.0329660611 -0.107033569 9.45076e-05 7.19866e-05 0.0001227887 -0.0001822269 -0.0194043078 0.8430385996
770295380.0 -0.0348413979 -0.1061209523 0.0002386536 -9.8726e-06 0.0001154165 9.76368e-05 -0.0114321933 0.8430153821
775295350.0 -0.0365369247 -0.1052162837 8.829e-05 1.71321e-05 3.95634e-05 -3.58166e-05 -0.0036576334 0.8433182454
780295320.0 -0.0381025767 -0.1047001711 0.0002388426 5.77493e-05 7.66279e-05 -8.11023e-05 0.0050488757 0.8433265621
785295290.0 -0.039800416 -0.1041277862 0.0002308136 -0.0002643605 0.0002110563 -0.0001534733 0.0135236719 0.8435100741
790295260.0 -0.0412690456 -0.1036302318 0.000236198 -0.0002675991 0.0001523787 -0.000215256 0.0218971049 0.8434804902
795295230.0 -0.042974325 -0.1027680809 0.0001600473 5.9102e-06 0.0002606613 -0.000112549 0.0299366299 0.8425642053
800295200.0 -0.0445863465 -0.1021793148 3.77168e-05 -7.11493e-05 0.0001973629 5.61806e-05 0.0383385693 0.8420142201
805295170.0 -0.0462605449 -0.1012168144 3.27975e-05 0.0001064127 9.94033e-05 -9.44298e-05 0.047411689 0.8416208261
810295140.0 -0.0477281657 -0.1004183589 0.0002053204 -9.43511e-05 0.0002258852 -7.26548e-05 0.0556788627 0.8412941898
815295110.0 -0.0493829093 -0.0995095022 0.000159428 -0.0001055982 7.84194e-05 -4.7011e-05 0.0633078667 0.8408606586
820295080.0 -0.0508823336 -0.0988164572 0.0003858019 -9.88304e-05 0.0001917767 4.86567e-05 0.0715637191 0.8402384611
825295050.0 -0.0529850976 -0.0980993138 4.62867e-05 0.0002618348 9.76787e-05 -0.0001578642 0.0803081909 0.8394520928
830295020.0 -0.0540970757 -0.0972402656 0.0003311938 -0.0001148662 0.0002414288 -7.28551e-05 0.0882053775 0.8383580962
835294990.0 -0.0555862058 -0.0964524783 0.0001144248 -0.000149815 -1.4015e-05 0.0001609168 0.0969726227 0.8375824164
840294960.0 -0.0569170776 -0.0956633192 0.0003016244 -6.17053e-05 0.0002313796 1.14929e-05 0.1054628118 0.8364997356
845294930.0 -0.0585570651 -0.0944517348 0.0001593628 1.80956e-05 -2.46394e-05 4.5581e-05 0.1138436357 0.8354895259
850294900.0 -0.0595787718 -0.0938800008 0.0001230714 -7.85025e-05 0.0003007815 -0.0001631434 0.121019984 0.8348088859
