!Created with skrf (http://scikit-rf.org).
# Hz S RI R 50.0 
!freq ReS11 ImS11 ReS21 ImS21 ReS12 ImS12 ReS22 ImS22
300000.0 -0.3205836121 -0.0849476349 0.3755787127 0.0447133796 0.3729634736 0.0414507173 -0.320417082 -0.0987677208
5299970.0 -0.3266489476 0.0043188903 0.378490358 0.0028378237 0.3781876171 0.0025137407 -0.3239428102 0.0049771547
10299940.0 -0.3243364675 0.0132550188 0.3794388528 0.0021406707 0.3793678969 0.0023278784 -0.3215631346 0.0158853458
15299910.0 -0.3213679205 0.0200843075 0.3815963159 0.0023023226 0.3819817919 0.0020593465 -0.3183941249 0.023881284
20299880.0 -0.3186460451 0.0263350317 0.3847092037 0.0018870927 0.3846975841 0.0018448916 -0.3147036003 0.0303281775
25299850.0 -0.315795769 0.0315366766 0.3880592093 -0.0002214973 0.3880689012 9.32309e-05 -0.3107522199 0.0361149069
30299820.0 -0.3126431377 0.035827556 0.3912377845 -0.0023107323 0.3916523475 -0.0024823596 -0.3071972153 0.0413707068
35299790.0 -0.309802633 0.0400894551 0.3949192555 -0.0055562283 0.3945892109 -0.0053621029 -0.3035187353 0.045304146
40299760.0 -0.3070067995 0.0435504908 0.3979653365 -0.0089810553 0.3977613559 -0.0090271416 -0.2999822291 0.04838587
45299730.0 -0.3046141962 0.0466019229 0.4007362977 -0.0127669934 0.4009552177 -0.0127679936 -0.2973214175 0.0519330252
50299700.0 -0.3021493082 0.049747592 0.4032107922 -0.0174470065 0.4033555891 -0.0169894659 -0.2941060204 0.0546293494
55299670.0 -0.300223295 0.0521462256 0.4056198091 -0.0227122029 0.4054361523 -0.0221121469 -0.2916069384 0.0573506819
60299640.0 -0.2976886055 0.0550063826 0.4073769267 -0.0271953299 0.4075205753 -0.0266226357 -0.2890436998 0.059265296
65299610.0 -0.2963012703 0.0571345766 0.4090879663 -0.0322696868 0.4089961634 -0.0317578737 -0.2870340215 0.0615015778
70299580.0 -0.294664368 0.0600747651 0.4101665587 -0.0369167172 0.4103069452 -0.0367397439 -0.2851713286 0.0638212015
75299550.0 -0.2931049189 0.0625275612 0.4110822355 -0.0420665613 0.4111470515 -0.0420921359 -0.2834615098 0.0660350252
80299520.0 -0.2916124476 0.0647386756 0.4125272527 -0.0477275576 0.4123068585 -0.0476045883 -0.2815099235 0.0679238598
85299490.0 -0.2903368567 0.0669818257 0.412876523 -0.0526692624 0.412579254 -0.0524785167 -0.2800752126 0.0696948829
90299460.0 -0.288962011 0.0694247126 0.4128151279 -0.0581490112 0.4134488106 -0.057791311 -0.2783324968 0.0721603834
95299430.0 -0.2874165517 0.071608666 0.4136969433 -0.0629430768 0.4136065212 -0.0632801582 -0.2767957284 0.0744684044
100299400.0 -0.2863484525 0.074163885 0.4130428624 -0.0684625963 0.4132446444 -0.0684643576 -0.2752598171 0.0761091088
105299370.0 -0.2855023667 0.0766576832 0.4133121291 -0.0739158204 0.4133661626 -0.0735803395 -0.2734477971 0.0781017091
110299340.0 -0.2839704378 0.0789771115 0.4131523804 -0.0787045449 0.4129880644 -0.0786573676 -0.2729293089 0.0801655868
115299310.0 -0.2830705315 0.0811843253 0.4128601088 -0.0837047552 0.4126940783 -0.0838312419 -0.2712658281 0.0825318447
120299280.0 -0.2819106159 0.0831459787 0.4121488145 -0.0890424317 0.4124685067 -0.0889421706 -0.2704734544 0.0845884736
125299250.0 -0.2809948733 0.0854344257 0.4116377193 -0.0938556968 0.4121125176 -0.0938635798 -0.2696555703 0.0862303437
130299220.0 -0.2804371728 0.0882786666 0.4112433761 -0.0990445909 0.4111081683 -0.0990940532 -0.2684602128 0.0884420296
135299190.0 -0.2791984059 0.0908407724 0.4106145542 -0.1041930153 0.4103785843 -0.1040477567 -0.267212945 0.0910607198
140299160.0 -0.2783148156 0.0932581726 0.4094176613 -0.10929985 0.4096933234 -0.1093982813 -0.2659898689 0.093612192
145299130.0 -0.2773413407 0.0959035337 0.4088611655 -0.1143629609 0.4082820014 -0.1141274725 -0.2652114293 0.0953626833
150299100.0 -0.2762100073 0.0984411046 0.4077142907 -0.1188509397 0.4079234775 -0.1185891394 -0.264234888 0.0981240779
155299070.0 -0.2757055999 0.1007982361 0.406630502 -0.1246041413 0.4065601032 -0.1243411532 -0.2630834898 0.1007074701
160299040.0 -0.2743569584 0.10343747 0.4053471898 -0.1283544743 0.405176446 -0.1288092659 -0.2624276601 0.1031747157
165299010.0 -0.2737185577 0.1061029645 0.4039446865 -0.1338052776 0.4041902136 -0.1335721381 -0.2611369321 0.1056946635
170298980.0 -0.2727447991 0.108705037 0.402496971 -0.1386749947 0.4029427096 -0.1386269934 -0.2599906597 0.1081355
175298950.0 -0.2718672703 0.11110103 0.4015457382 -0.1431038895 0.4011262747 -0.1431660065 -0.2592298521 0.1107401285
180298920.0 -0.2712069548 0.1139907841 0.4002212087 -0.1481039678 0.3999002746 -0.1475057374 -0.2583632142 0.1134664233
185298890.0 -0.2693437658 0.1165047225 0.3982462573 -0.1525789577 0.3982146146 -0.1525374029 -0.2573216067 0.1159577187
190298860.0 -0.2685662132 0.1193979357 0.3967746058 -0.1573435344 0.3968209693 -0.1575402237 -0.2558187241 0.1181906669
195298830.0 -0.2675621327 0.1215206885 0.3950561007 -0.1618891874 0.3950107717 -0.1613868605 -0.2551230105 0.1209030666
200298800.0 -0.2665949946 0.1245067564 0.3937097037 -0.1666960434 0.3936104221 -0.1667670273 -0.2543865532 0.1236200829
205298770.0 -0.2656054934 0.1276630991 0.3916745252 -0.1716190105 0.3914422125 -0.1709290993 -0.2529652563 0.1255331149
210298740.0 -0.2643023733 0.1300765735 0.3894457941 -0.17548473 0.3898304273 -0.1754108387 -0.2517497298 0.1288091247
215298710.0 -0.2633245316 0.1328098569 0.3877005909 -0.1803857485 0.3876504711 -0.1803937712 -0.2511065925 0.1308913851
220298680.0 -0.2622473066 0.1351861499 0.385710844 -0.1845975446 0.3858847292 -0.1845332308 -0.25007898 0.133464158
225298650.0 -0.2612193819 0.1382958303 0.3841115736 -0.1891415493 0.3844014436 -0.1891017034 -0.2490244882 0.136175634
230298620.0 -0.259579821 0.1410748671 0.3819280774 -0.1934386015 0.3822624312 -0.1935020993 -0.2476992436 0.1384934474
235298590.0 -0.2583374094 0.1441014565 0.3797464179 -0.1980096158 0.3797392436 -0.1974265348 -0.2464555114 0.1413817914
240298560.0 -0.257300701 0.1463766475 0.3776321924 -0.202451039 0.3778095304 -0.20226703 -0.2454477632 0.1441892669
245298530.0 -0.2558854577 0.1491339701 0.375731696 -0.2069627426 0.3751887646 -0.2066085977 -0.2435786161 0.1458188619
250298500.0 -0.2541739739 0.1517632776 0.3727862768 -0.2110169488 0.3726990161 -0.2106526657 -0.242658767 0.1482828952
255298470.0 -0.2528252841 0.1542315038 0.3703063764 -0.214997159 0.370493884 -0.2150266709 -0.2410392438 0.1508979203
260298440.0 -0.2516286071 0.1568122701 0.3683830955 -0.2192974898 0.3685320837 -0.2193348895 -0.2397244622 0.1537564992
265298410.0 -0.2498368951 0.159828324 0.3659270003 -0.2237803133 0.3661996821 -0.2232549131 -0.2383138476 0.1564704865
270298380.0 -0.2484592451 0.162679574 0.3635903565 -0.2278239239 0.3637517352 -0.2274387776 -0.2366527741 0.1586904078
275298350.0 -0.2466903735 0.1652176915 0.3606526274 -0.2317826838 0.3613638971 -0.2316112534 -0.2353942695 0.1609590179
280298320.0 -0.2453729573 0.1678884761 0.3587495893 -0.2359900127 0.3586752628 -0.2358496273 -0.233448186 0.1637439039
285298290.0 -0.2435874743 0.1708901159 0.3557769941 -0.2399673507 0.3557043689 -0.239783546 -0.2318700028 0.1658728931
290298260.0 -0.241796159 0.1732876689 0.3533169852 -0.2439339854 0.3532729834 -0.2438796803 -0.2302180018 0.1687369698
295298230.0 -0.2401411435 0.1756341679 0.3505518286 -0.2478324788 0.3506484329 -0.2475687986 -0.2283058219 0.1706114755
300298200.0 -0.2386440169 0.1783321098 0.3482093531 -0.2515311466 0.3479481316 -0.2519181243 -0.2265179388 0.1731583724
305298170.0 -0.2365920976 0.1805833454 0.3449834185 -0.2559062077 0.3449336 -0.255671764 -0.224464247 0.1757866609
310298140.0 -0.2349167737 0.1833937901 0.34256217 -0.2594890834 0.3421871174 -0.2596051588 -0.2230304999 0.1781474271
315298110.0 -0.2331424793 0.1857040886 0.3393953694 -0.263260734 0.3394908817 -0.2634152578 -0.2214218404 0.1803937652
320298080.0 -0.231146787 0.188204121 0.3359404194 -0.267721652 0.3362615209 -0.2674556379 -0.2192861998 0.1828805566
325298050.0 -0.2292091827 0.1908080247 0.3332888416 -0.2715273557 0.3331898122 -0.2712308032 -0.2176976511 0.1853260009
330298020.0 -0.2274835593 0.1930053867 0.3301955759 -0.2750806476 0.3303353637 -0.2751124148 -0.2157772127 0.1879129236
335297990.0 -0.2254682861 0.1955534675 0.3269530539 -0.2782522529 0.3270313984 -0.2785206795 -0.2146193594 0.1907077673
340297960.0 -0.2241467734 0.1982844747 0.3237035789 -0.2822536414 0.323599595 -0.2824141478 -0.2121035408 0.1930021122
345297930.0 -0.2220441424 0.200825653 0.3204797268 -0.2860915269 0.3202763215 -0.2860401723 -0.2104789216 0.1949822101
350297900.0 -0.2201985789 0.2032387811 0.316499519 -0.2893589699 0.3170452055 -0.2894822704 -0.2086789096 0.1977791298
355297870.0 -0.2180967378 0.2061879848 0.31403446 -0.2933142561 0.3142975227 -0.2927437052 -0.2070554837 0.199886957
360297840.0 -0.2161878064 0.2083069567 0.3110518572 -0.2961795014 0.3111875508 -0.2959341843 -0.2051325437 0.2026447388
365297810.0 -0.2143308708 0.2109477335 0.3076952701 -0.299800556 0.3076314438 -0.2996716662 -0.2028599726 0.2048038537
370297780.0 -0.2115682997 0.2131833401 0.3037767002 -0.3028790502 0.3045504734 -0.3030199262 -0.2006452086 0.2074347842
375297750.0 -0.2093671329 0.2157631984 0.3010871574 -0.3063810492 0.3011081299 -0.30640897 -0.1988852195 0.2093651767
380297720.0 -0.2073845312 0.217906483 0.2973214404 -0.3098124428 0.2975097096 -0.3089934948 -0.1968119087 0.2118742679
385297690.0 -0.2056900669 0.2205363496 0.2940292547 -0.3127760311 0.2938169913 -0.3129127553 -0.1943323526 0.2145153299
390297660.0 -0.2029514642 0.2229268428 0.2904169365 -0.3160874275 0.2906407225 -0.3158868036 -0.1928645055 0.2166023223
395297630.0 -0.2007601293 0.2249166432 0.2873004181 -0.3195543157 0.2871637756 -0.3196999358 -0.189995314 0.2187886455
400297600.0 -0.1982309538 0.2274475728 0.2834083497 -0.3228632559 0.283327403 -0.3225407504 -0.1879082903 0.2209088733
405297570.0 -0.1967688567 0.2293077577 0.2800989572 -0.3253498272 0.2802602889 -0.3252640868 -0.1862770805 0.2229190379
410297540.0 -0.1940297834 0.2316557528 0.2766148736 -0.3287171857 0.2764254323 -0.3287335659 -0.1839021093 0.2254040638
415297510.0 -0.1910040748 0.2338588189 0.2723915724 -0.3319662413 0.2724193135 -0.3317060519 -0.1811647962 0.2269202773
420297480.0 -0.1892050999 0.2364358736 0.2687652861 -0.3346570081 0.2688916684 -0.3346792647 -0.1794513749 0.2294414988
425297450.0 -0.1866942515 0.2380628735 0.2653229098 -0.3374246076 0.2655163459 -0.3375333072 -0.1770777938 0.2311736272
430297420.0 -0.1841502006 0.240460315 0.2613595632 -0.3399786386 0.26154829 -0.3400536605 -0.1745679575 0.2330570754
435297390.0 -0.1820092812 0.2425252945 0.2574549846 -0.3431421256 0.2573907705 -0.3433817789 -0.1717222202 0.2349774117
440297360.0 -0.1791862404 0.2447375709 0.2537428563 -0.3458869937 0.2541181881 -0.3456030743 -0.1697772935 0.2367602751
445297330.0 -0.1767229432 0.246481737 0.2502913431 -0.3487784257 0.2501622604 -0.3484696495 -0.1669297841 0.238369334
450297300.0 -0.1739321482 0.2483483199 0.2464602112 -0.3513322833 0.2461777738 -0.3514676427 -0.1646800916 0.2402095721
455297270.0 -0.1714961691 0.2504465667 0.2422013027 -0.3541718699 0.2423727537 -0.354059859 -0.1621676896 0.2420010002
460297240.0 -0.1691495729 0.2525688141 0.2384646853 -0.3564721279 0.2385903539 -0.3569061122 -0.1597914373 0.244422444
465297210.0 -0.1659807919 0.2544836688 0.2346746274 -0.3590622692 0.2349036685 -0.3595685134 -0.156886446 0.2459348937
470297180.0 -0.1636101426 0.2562530253 0.2301532147 -0.3618259501 0.2305597201 -0.3617997681 -0.1542320372 0.2480580632
475297150.0 -0.1608788379 0.2578773753 0.2263154765 -0.3633441936 0.2264304842 -0.3637636624 -0.1516559846 0.2493646219
480297120.0 -0.1580268892 0.2601955967 0.2220783376 -0.3666186104 0.222186524 -0.3668490523 -0.1487824444 0.2513667933
485297090.0 -0.1556483142 0.2619158828 0.2183507008 -0.3690327899 0.218598242 -0.3688602077 -0.1459871775 0.2529951686
490297060.0 -0.1532577212 0.2636132584 0.2147190455 -0.3714659708 0.2145538879 -0.3708731585 -0.1432366717 0.2546618419
495297030.0 -0.1504605572 0.2652823243 0.2105241681 -0.3737995788 0.2107302033 -0.3733151916 -0.1408394377 0.2567045081
500297000.0 -0.1471662207 0.2667233065 0.2060487899 -0.3754840106 0.2058595146 -0.3755238105 -0.1378239072 0.2590798415
505296970.0 -0.1446496921 0.2687380819 0.202436779 -0.3776792236 0.2019739074 -0.3780434258 -0.1356123318 0.2600620811
510296940.0 -0.1419089327 0.2703807864 0.1981315833 -0.3802056286 0.1974912674 -0.3805240401 -0.1325186383 0.2614187555
515296910.0 -0.138931008 0.2719651279 0.1937016091 -0.3822332248 0.1936355464 -0.3820897848 -0.1299088306 0.2630843127
520296880.0 -0.1358839241 0.2737893962 0.1895821533 -0.3850117072 0.1894784003 -0.3838868093 -0.1270923091 0.2646081955
525296850.0 -0.1331209889 0.274820976 0.1850711179 -0.3863324689 0.1856144124 -0.3862991407 -0.1243666175 0.2665626119
530296820.0 -0.1302617894 0.2766810797 0.1813549518 -0.3883757322 0.1809418904 -0.3882200476 -0.1216355713 0.267763919
535296790.0 -0.1277896964 0.2781851086 0.1771183533 -0.3903405434 0.1772866132 -0.3898775334 -0.119572619 0.2692413246
540296760.0 -0.1245513583 0.279858845 0.172797776 -0.3922247561 0.1725920534 -0.3920676126 -0.1160379182 0.2706869735
545296730.0 -0.1217607562 0.2813939302 0.1684634496 -0.393668529 0.1682363545 -0.3940113787 -0.1137447363 0.2722110117
550296700.0 -0.1184638024 0.2829286233 0.1636915722 -0.3956880719 0.1638448301 -0.3957453115 -0.1106622886 0.273895329
555296670.0 -0.1157314825 0.2838956229 0.1597373666 -0.3978138825 0.1599394504 -0.397564236 -0.1077380232 0.2753684513
560296640.0 -0.1126161527 0.2856582576 0.1552790414 -0.3993449948 0.1551853266 -0.3992170474 -0.1049488934 0.2763737466
565296610.0 -0.1096897869 0.2869957991 0.1506399716 -0.4008766758 0.1508761869 -0.400764042 -0.1022992591 0.2777266426
570296580.0 -0.1069296366 0.2879863797 0.1465252708 -0.4028597214 0.1461199254 -0.4024778533 -0.0994636688 0.2793690541
575296550.0 -0.1037849682 0.2895669572 0.1420124086 -0.4043140524 0.1418264092 -0.4038847686 -0.0964818624 0.2799164057
580296520.0 -0.1005704192 0.2904071567 0.1378523802 -0.4055713638 0.1374071687 -0.4054851019 -0.09326893 0.2812197902
585296490.0 -0.0979157276 0.2916342322 0.1333225067 -0.4066977147 0.1332331104 -0.4068544096 -0.0903108552 0.2823448629
590296460.0 -0.0943525984 0.2929625526 0.1287507609 -0.4081054711 0.1291548736 -0.408056166 -0.0879250634 0.2832713285
595296430.0 -0.0915594472 0.2940324168 0.124246987 -0.4099031906 0.123912425 -0.4096009742 -0.0846265049 0.2838083399
600296400.0 -0.0885590428 0.2949578919 0.1198202014 -0.4108816731 0.1199965988 -0.4107600756 -0.082163465 0.2851477502
605296370.0 -0.0857670882 0.2960485629 0.1155412865 -0.4119219297 0.1155001267 -0.412032538 -0.0787976785 0.2863118743
610296340.0 -0.082027533 0.297169439 0.1103180854 -0.4132968803 0.1110617856 -0.4130959749 -0.07581044 0.2870537121
615296310.0 -0.0788412185 0.2977498036 0.1061652178 -0.414113523 0.1061590159 -0.4145317544 -0.0723953509 0.2879700079
620296280.0 -0.0762420131 0.2988735983 0.1016637548 -0.415468107 0.1015531816 -0.4152519389 -0.0698225807 0.2891115641
625296250.0 -0.0729042051 0.2994265172 0.0975866965 -0.416578965 0.0972544484 -0.416947197 -0.0662161983 0.2897623096
630296220.0 -0.069229015 0.3007809728 0.0923375108 -0.4173646505 0.0926443603 -0.4176146959 -0.0633545448 0.2907708123
635296190.0 -0.0667481282 0.3014937126 0.0877880908 -0.4182825327 0.0883378018 -0.4185561264 -0.0602064517 0.2911025527
640296160.0 -0.0636588459 0.3024109807 0.0835696539 -0.4190636382 0.0839929436 -0.4194884921 -0.057159484 0.2920130153
645296130.0 -0.0604498762 0.3035641044 0.078712855 -0.4198313335 0.0793839593 -0.4203866454 -0.0538480417 0.2929135095
650296100.0 -0.0570033242 0.3041950903 0.0744815908 -0.4208448505 0.0747213319 -0.4206633351 -0.0505591307 0.2932143972
655296070.0 -0.0540746806 0.3048270755 0.0702119894 -0.4213944248 0.0700266505 -0.4219967409 -0.0472250205 0.2943683807
660296040.0 -0.0511693565 0.3052240673 0.065200641 -0.4224484621 0.0654892311 -0.4224093681 -0.0440902548 0.2949075812
665296010.0 -0.0473992686 0.3058118123 0.0604568819 -0.4229547274 0.0605904216 -0.4229669164 -0.041065949 0.2958023042
670295980.0 -0.0450805167 0.3067330985 0.0564158531 -0.4233539405 0.0564478552 -0.4234952215 -0.0385622536 0.2962480339
675295950.0 -0.0413338182 0.307261974 0.051534998 -0.4238460964 0.0518945319 -0.4237603094 -0.0355793739 0.2967379502
680295920.0 -0.0379603915 0.3076798837 0.0467208565 -0.4241699507 0.0466502207 -0.4250634826 -0.0318136958 0.2978382141
685295890.0 -0.0347906898 0.3085487675 0.042179114 -0.4250573559 0.0424466289 -0.4247279232 -0.0286756105 0.2980624334
690295860.0 -0.0315206998 0.3089819061 0.0377889113 -0.4253712237 0.0376492033 -0.4258150938 -0.0257652388 0.299173287
695295830.0 -0.0285012312 0.3094433496 0.033551107 -0.4255613693 0.0330928718 -0.4259690707 -0.0225360515 0.2993222415
700295800.0 -0.0251807448 0.3097057769 0.0285558599 -0.4258676433 0.0281249504 -0.4257463104 -0.01996656 0.2998882082
705295770.0 -0.0221305094 0.3105388069 0.0237812074 -0.4262770724 0.0239527945 -0.4266040689 -0.0164372254 0.3006449785
710295740.0 -0.0186656955 0.3108407481 0.0194017645 -0.4266749032 0.0196191697 -0.4267583357 -0.0134316478 0.3002390608
715295710.0 -0.0157533216 0.3109015854 0.0145717033 -0.426910657 0.0142217423 -0.426644101 -0.0101042237 0.300802733
720295680.0 -0.0122992441 0.3114310938 0.0103046403 -0.4269038334 0.0102480242 -0.4268104374 -0.0069776025 0.3012108978
725295650.0 -0.0085030368 0.3116178827 0.005400689 -0.4267026584 0.0056058788 -0.4270218072 -0.004287701 0.3015811877
730295620.0 -0.0055487212 0.3122009442 0.0006728275 -0.4269926671 0.0006513675 -0.4269303395 -0.0011135341 0.3014463301
735295590.0 -0.0022336829 0.312271696 -0.0036474306 -0.4271097975 -0.0037481901 -0.4268363676 0.0019040332 0.3013891895
740295560.0 0.0006326762 0.3120536068 -0.0082921182 -0.4267546095 -0.008457618 -0.4267992355 0.0054773543 0.3017447765
745295530.0 0.0042039352 0.312715268 -0.0131812262 -0.4266393832 -0.0131180719 -0.4263677267 0.0083888309 0.3015348312
750295500.0 0.0077884979 0.3123366821 -0.0177471457 -0.4261284316 -0.0173942053 -0.4266063582 0.0114114609 0.3016591873
755295470.0 0.0109444831 0.3124658068 -0.0220039031 -0.4260989747 -0.0222954278 -0.426296833 0.0151460799 0.3014138543
760295440.0 0.0137933033 0.3121730179 -0.0268031116 -0.4260889913 -0.0268995064 -0.4259610769 0.0176819176 0.3013988663
765295410.0 0.0172325861 0.3125029507 -0.0314567209 -0.4254172336 -0.0321220994 -0.4254241314 0.02103621 0.3015197961
770295380.0 0.0201225207 0.3122595849 -0.0360936577 -0.4249055176 -0.036099409 -0.4248136931 0.0241217831 0.3012215989
775295350.0 0.0234050433 0.3119162738 -0.0410232449 -0.4244159475 -0.0405575074 -0.4244506703 0.0269315467 0.3012610764
780295320.0 0.0266891604 0.3119185327 -0.0452571567 -0.4236740944 -0.0451774901 -0.4238362906 0.0302792781 0.3007068165
785295290.0 0.0300988234 0.3113567713 -0.0503499141 -0.4228454782 -0.049769897 -0.4233286322 0.0338354996 0.3006449381
790295260.0 0.0336966462 0.3118692619 -0.0543331174 -0.4230869729 -0.0538192732 -0.4226831814 0.0371609861 0.3006673078
795295230.0 0.0364212149 0.3110705688 -0.0587146836 -0.4220463025 -0.0587860207 -0.4223577908 0.0404904118 0.300092047
800295200.0 0.0397441079 0.3110311512 -0.0635073985 -0.4216728249 -0.0635129023 -0.4214097588 0.0433483321 0.2997972517
805295170.0 0.0431347554 0.3106085035 -0.0679546832 -0.4204583939 -0.0680379248 -0.4208497308 0.0466640758 0.2994836881
810295140.0 0.0465371044 0.3103010077 -0.0725353892 -0.4196333123 -0.0727908732 -0.4197917366 0.0501759603 0.2992948297
815295110.0 0.0493754385 0.3096561693 -0.0767992395 -0.418237974 -0.0768680119 -0.4189930772 0.0530887782 0.2988491778
820295080.0 0.0526001828 0.3097487096 -0.0813453522 -0.4177553609 -0.0809383136 -0.4181121881 0.0562696765 0.2985373859
825295050.0 0.0566327961 0.3091934274 -0.0859243151 -0.4170767033 -0.0859128955 -0.417077836 0.0593605674 0.2982503849
830295020.0 0.0591531972 0.3088968883 -0.0907827005 -0.4161915745 -0.0907626881 -0.4160896802 0.0635052366 0.2973623373
