!Created with skrf (http://scikit-rf.org).
# Hz S RI R 50.0 
!freq ReS11 ImS11 ReS21 ImS21 ReS12 ImS12 ReS22 ImS22
300000.0 -0.2405860173 -0.0925335481 0.4677530255 0.0611628832 0.4696136146 0.0666430577 -0.2359447807 -0.1067331852
5299970.0 -0.243794257 0.0075275752 0.4738989777 0.0051225099 0.4736775293 0.0055081256 -0.2441305621 0.0061691532
10299940.0 -0.2403511479 0.0199225515 0.4762291019 0.0062470736 0.4759198011 0.0068280308 -0.2408968241 0.0183276408
15299910.0 -0.2361785693 0.0295097536 0.4794827924 0.0075123535 0.4794341542 0.0080535026 -0.2367493248 0.0277313917
20299880.0 -0.2306954776 0.0373377283 0.4840332932 0.0081553578 0.484187894 0.0081165697 -0.2321334601 0.0354940818
25299850.0 -0.2247199977 0.0435756384 0.4896133026 0.0072420476 0.4895839809 0.0073741112 -0.2268343936 0.0415641753
30299820.0 -0.2187483132 0.0485726876 0.4949753448 0.0054115077 0.4945577878 0.0054159441 -0.2217212965 0.0468240491
35299790.0 -0.2132131714 0.0529106782 0.5003766731 0.0022241053 0.5004310182 0.0022967483 -0.2164082395 0.0507414428
40299760.0 -0.2074724882 0.0557714203 0.505514502 -0.0015755946 0.5051824975 -0.0017983336 -0.2114483804 0.0545499962
45299730.0 -0.2026577789 0.0586836471 0.5103814642 -0.0067890521 0.5103124629 -0.0063003993 -0.2069273369 0.0572191098
50299700.0 -0.1974381674 0.0603161814 0.5140330831 -0.011930443 0.5143197557 -0.0122790886 -0.2019374146 0.0595670848
55299670.0 -0.1937198476 0.0616393839 0.517751033 -0.0179355262 0.5183992915 -0.018048244 -0.1984982081 0.061469056
60299640.0 -0.1893941201 0.062464489 0.5210189746 -0.0243997872 0.5213865599 -0.0242674621 -0.1944511731 0.0630050833
65299610.0 -0.1861175924 0.0638598655 0.5246626042 -0.0301703443 0.5245402933 -0.030464434 -0.1910960976 0.0646096004
70299580.0 -0.1825689845 0.064446208 0.5265042757 -0.0366230815 0.5268049514 -0.0373198197 -0.187903725 0.0657259101
75299550.0 -0.1795873863 0.0649375479 0.528496332 -0.0439405424 0.528967025 -0.0440241387 -0.1850914747 0.0668516685
80299520.0 -0.1772141725 0.0658765773 0.5312488604 -0.0507706494 0.5311211355 -0.0509550421 -0.1827582841 0.0675055399
85299490.0 -0.1747993594 0.0660951314 0.5320103983 -0.0580899589 0.5321624622 -0.0579170212 -0.18020001 0.0683412518
90299460.0 -0.1724652864 0.0665701698 0.5328712796 -0.0647892954 0.5336592272 -0.0647792406 -0.1776292812 0.0692854161
95299430.0 -0.1706152213 0.0671046695 0.5343772631 -0.0720449472 0.5342735337 -0.071927592 -0.1759706077 0.069916416
100299400.0 -0.1687732091 0.0677073935 0.5343736924 -0.0785745524 0.5343975418 -0.078761591 -0.1741020552 0.0708190022
105299370.0 -0.1669177542 0.0681188294 0.5344386912 -0.0853990993 0.5346897011 -0.0855388254 -0.1720553812 0.0717799326
110299340.0 -0.1655988012 0.0683191324 0.5347180756 -0.0921777636 0.5347741264 -0.0925904172 -0.1707184132 0.0725458737
115299310.0 -0.1639820256 0.0686643497 0.5345864748 -0.0988937247 0.5349556197 -0.0987213957 -0.169169231 0.0728530798
120299280.0 -0.1628176807 0.0693383579 0.5348563301 -0.1057671238 0.534818475 -0.1062454628 -0.16811678 0.0746265021
125299250.0 -0.1617948966 0.0697551927 0.5340618234 -0.1124929019 0.5348250148 -0.1130131482 -0.1665023122 0.0746917978
130299220.0 -0.1604817332 0.0707011885 0.5340447271 -0.1192655808 0.533852094 -0.119607438 -0.1654421594 0.0758079237
135299190.0 -0.1594921537 0.0709450833 0.5329346528 -0.1259820233 0.5326988797 -0.1260826761 -0.1641502329 0.077091426
140299160.0 -0.1585714058 0.0720414504 0.5319315134 -0.1326208678 0.5324514223 -0.1325562558 -0.1627155162 0.0779507973
145299130.0 -0.1575479875 0.072607406 0.5315656045 -0.13937301 0.5311814695 -0.1388941506 -0.1621982899 0.0786970552
150299100.0 -0.1565939713 0.0735137894 0.5303224411 -0.1459675419 0.530155393 -0.1455286028 -0.1609229971 0.0797463054
155299070.0 -0.156037964 0.0747363755 0.5293140316 -0.1527715248 0.529028558 -0.1528665708 -0.1601162419 0.0809610061
160299040.0 -0.1549414649 0.0752679439 0.5275608942 -0.1587173407 0.5279856387 -0.1586359268 -0.1587874833 0.0822348576
165299010.0 -0.1542917629 0.0762039343 0.5265245714 -0.1653016316 0.526326082 -0.1651193745 -0.1580375663 0.0832412482
170298980.0 -0.1536295359 0.0773018072 0.5240452239 -0.1715641248 0.5246615579 -0.1719652455 -0.1568895537 0.0845206191
175298950.0 -0.1528107174 0.0781396146 0.5234612334 -0.1779233152 0.5231426246 -0.1778214873 -0.1560350048 0.0857547541
180298920.0 -0.1517038069 0.0790892583 0.5212492006 -0.1843983388 0.5212874607 -0.1840827394 -0.1548033371 0.0870761747
185298890.0 -0.1506599839 0.0802343232 0.5191561547 -0.1906095835 0.5195676305 -0.1904758908 -0.1544008588 0.0882890995
190298860.0 -0.1503133746 0.0812518575 0.5175156881 -0.1969661549 0.5176080731 -0.1970630883 -0.1526090156 0.0894445237
195298830.0 -0.1495716422 0.0819004899 0.5157443051 -0.2026891742 0.5155574387 -0.2030283208 -0.1518247179 0.0906841671
200298800.0 -0.1490995685 0.083612619 0.5138940774 -0.2084612048 0.5137173204 -0.2088547905 -0.1510090178 0.0924394508
205298770.0 -0.1482931981 0.0846499821 0.5117624304 -0.2149486958 0.5117651433 -0.2147591262 -0.1499521796 0.0932456249
210298740.0 -0.1477268098 0.0856245792 0.5095054852 -0.2210822256 0.5094951381 -0.2212204841 -0.1490980907 0.0946998805
215298710.0 -0.1467307132 0.086794315 0.5069013964 -0.2264107232 0.5067738062 -0.2269834316 -0.14810389 0.0962716325
220298680.0 -0.1459563656 0.0877706074 0.5044520508 -0.232656852 0.5044273199 -0.232731713 -0.1470995971 0.0975641727
225298650.0 -0.1449907714 0.0893441264 0.5014362464 -0.2385964889 0.5020100062 -0.2385696262 -0.1462627307 0.0990442344
230298620.0 -0.1443963483 0.0904103741 0.4995573401 -0.244450587 0.4996689678 -0.2447701784 -0.1450770164 0.1004587698
235298590.0 -0.1433865475 0.0914485136 0.49647724 -0.2495222135 0.4968217049 -0.2504640525 -0.1441728582 0.1015004933
240298560.0 -0.1432980681 0.0929867169 0.4944805612 -0.255732151 0.4943179223 -0.2557376666 -0.1432862444 0.1033954799
245298530.0 -0.1419570621 0.0943025886 0.49085436 -0.2616379489 0.4912449028 -0.2618287737 -0.1420231014 0.1048296688
250298500.0 -0.1415832049 0.0950909755 0.4881537999 -0.266741225 0.489001286 -0.2666440881 -0.1406452193 0.106063089
255298470.0 -0.1408338169 0.0969724795 0.4857037796 -0.2732507522 0.4857856135 -0.2729490946 -0.1394997527 0.1072924565
260298440.0 -0.1397048541 0.0980402546 0.4827520225 -0.2782505584 0.4824544753 -0.2784610316 -0.1381703527 0.1089511629
265298410.0 -0.1387881991 0.0994355997 0.4794578297 -0.2842238814 0.4794001638 -0.2840866552 -0.1374504849 0.1103175902
270298380.0 -0.1376641793 0.1005914018 0.475921733 -0.2890071601 0.4764089433 -0.2896120988 -0.1360777478 0.1119810629
275298350.0 -0.1372408902 0.1016697103 0.4732815654 -0.2948950092 0.4735719031 -0.2949286042 -0.1349360456 0.1138287435
280298320.0 -0.1361409363 0.103296559 0.4698775277 -0.299718733 0.4701603233 -0.3003022892 -0.133670552 0.1150757872
285298290.0 -0.1352770818 0.1046315598 0.467164249 -0.30553646 0.467034915 -0.3054699773 -0.1325525134 0.1165149982
290298260.0 -0.1342752081 0.1057857542 0.4637699792 -0.3110519534 0.4635397971 -0.3107767398 -0.1309449417 0.1179453422
295298230.0 -0.1333439452 0.107078375 0.4604226022 -0.316005418 0.4599738625 -0.3161595685 -0.1295822638 0.1191928077
300298200.0 -0.1320704737 0.1083862279 0.456412136 -0.321325356 0.4568723882 -0.3214749008 -0.1284581594 0.1206029699
305298170.0 -0.1311023304 0.1096976297 0.4536878522 -0.3267182952 0.4536252558 -0.3268903288 -0.1268144414 0.1223889497
310298140.0 -0.1300117255 0.1105812172 0.4500821011 -0.3318879322 0.4499091152 -0.332428979 -0.1256274014 0.1241697505
315298110.0 -0.1290857709 0.1118425955 0.4461941748 -0.3371969897 0.4465179629 -0.337379356 -0.1238203011 0.1249768368
320298080.0 -0.1281216757 0.1132097499 0.4422005972 -0.3422522989 0.44246598 -0.3423876072 -0.1229023147 0.126315247
325298050.0 -0.1272207832 0.1140629284 0.4389538426 -0.3474784648 0.4383819073 -0.3477429688 -0.1213015997 0.1277884388
330298020.0 -0.1263128366 0.1156039107 0.4342973509 -0.3522814796 0.4341296314 -0.352353762 -0.1203068777 0.1286828042
335297990.0 -0.1254306441 0.1165119693 0.4302978338 -0.3570513345 0.4304789483 -0.3573745863 -0.1191783338 0.1301748823
340297960.0 -0.1249312844 0.1181078872 0.4261549564 -0.3621276135 0.4264787025 -0.3620952901 -0.1179814675 0.1319034793
345297930.0 -0.1240426139 0.119338194 0.4225605782 -0.366160883 0.4219496599 -0.3665730242 -0.1163808347 0.1330167428
350297900.0 -0.1224675559 0.1209580923 0.4178653768 -0.37068853 0.4183190565 -0.3711724612 -0.1150993136 0.1346315332
355297870.0 -0.1215123831 0.122041781 0.4137835345 -0.3757682419 0.4141949246 -0.3761384899 -0.1140224747 0.1365228456
360297840.0 -0.1203170014 0.1235794595 0.4096398634 -0.3804926133 0.409658174 -0.3803773977 -0.1124210401 0.1377774398
365297810.0 -0.1190238883 0.1246244306 0.4053992519 -0.3849470778 0.4054667875 -0.3847176663 -0.1107378535 0.1392181478
370297780.0 -0.1177082893 0.1258954128 0.4010112952 -0.3894052894 0.4014430165 -0.389583102 -0.1093430628 0.1405683398
375297750.0 -0.1169727628 0.1272938135 0.3975967113 -0.3938643224 0.3967142525 -0.3939399826 -0.1077798472 0.1421984338
380297720.0 -0.1154102314 0.1284896608 0.3925597351 -0.3975235459 0.3924298936 -0.3981309448 -0.1060770116 0.1438824724
385297690.0 -0.114398679 0.1297028836 0.3878064044 -0.4015461845 0.3884245038 -0.4023875854 -0.1045712588 0.1450042265
390297660.0 -0.1129826401 0.1310857092 0.3834893245 -0.4068829101 0.3836872892 -0.4069792826 -0.1030487403 0.1461405917
395297630.0 -0.1118327846 0.1322909123 0.3793409128 -0.4106962885 0.379101444 -0.4104309417 -0.1015153447 0.1477237775
400297600.0 -0.1109580785 0.1336858764 0.3744185045 -0.4149975833 0.3749812165 -0.4149992758 -0.100371704 0.1488978913
405297570.0 -0.1093577523 0.134783016 0.3700884421 -0.4191573852 0.3701953617 -0.4190753381 -0.0986144784 0.1504690465
410297540.0 -0.107863437 0.1356873876 0.3651657082 -0.4225184922 0.3655635896 -0.4227364974 -0.0965835157 0.1516016587
415297510.0 -0.1068836094 0.1372980732 0.3609036359 -0.4268179129 0.3610410439 -0.4271577854 -0.095441535 0.1531953774
420297480.0 -0.1052904711 0.1379556474 0.3559726605 -0.4312300835 0.3562154247 -0.4307656589 -0.0933490249 0.153746198
425297450.0 -0.1038928943 0.138994141 0.3512892149 -0.4349701366 0.3517118279 -0.4344925255 -0.0914571381 0.1552937703
430297420.0 -0.1026808632 0.1404041781 0.346474667 -0.4390491091 0.3468334109 -0.4387765852 -0.0903028185 0.1566277493
435297390.0 -0.1010710841 0.1414037902 0.3415101783 -0.4423168598 0.3419085472 -0.442374893 -0.0882119009 0.1582549252
440297360.0 -0.099936834 0.1425180407 0.3364413021 -0.4460829307 0.3364226716 -0.4461345583 -0.086752081 0.1586832615
445297330.0 -0.0981882946 0.1438021297 0.3314740395 -0.4498386384 0.3318394346 -0.4497524413 -0.0852031787 0.1600973009
450297300.0 -0.0969775927 0.1445988337 0.3265400155 -0.4533796189 0.3272232794 -0.4536040251 -0.0834862769 0.161584625
455297270.0 -0.0959367564 0.145750437 0.3220335251 -0.4568414621 0.3225207144 -0.4567421131 -0.0814510509 0.162538152
460297240.0 -0.0943080275 0.1468663756 0.3163664364 -0.4601297578 0.3163105712 -0.4605744783 -0.0794277379 0.1640274327
465297210.0 -0.0926336406 0.1475088324 0.3116698098 -0.4635218721 0.3123660093 -0.4636815684 -0.078268792 0.1647071825
470297180.0 -0.0915236786 0.148793449 0.3069304922 -0.4669787209 0.3073283572 -0.4670090747 -0.0768435243 0.1660729759
475297150.0 -0.0902665227 0.1496474167 0.3015103871 -0.4700766521 0.3019477536 -0.4698468387 -0.07452134 0.1669583849
480297120.0 -0.0881487255 0.1505940351 0.2962829235 -0.4733145115 0.2966921444 -0.4734553417 -0.0727874626 0.1683721769
485297090.0 -0.0868232462 0.1515859754 0.2914264874 -0.477048825 0.2913611651 -0.4766723748 -0.0712219645 0.169000016
490297060.0 -0.0852446558 0.1523136387 0.2859890057 -0.4799756774 0.2864335717 -0.4800524497 -0.0694947526 0.1700971135
495297030.0 -0.084400838 0.1539107745 0.280801258 -0.4829113892 0.2806231755 -0.4829889068 -0.0673521967 0.1706919843
500297000.0 -0.0823994371 0.1543648753 0.2754356608 -0.4859031244 0.2757345704 -0.4860995714 -0.0658334478 0.1718308479
505296970.0 -0.0812876826 0.1552183908 0.269806335 -0.4888277724 0.269915133 -0.4885999363 -0.0642832058 0.1731003104
510296940.0 -0.0798164673 0.1561950733 0.2651873875 -0.4918919698 0.2647212511 -0.4916879165 -0.0618097389 0.1740749612
515296910.0 -0.0784067592 0.1574411992 0.2592532708 -0.4941550136 0.2594310872 -0.4944277989 -0.0601913048 0.1744345314
520296880.0 -0.0762752893 0.1580320219 0.2536361722 -0.4971181121 0.254276118 -0.4970523253 -0.0580988887 0.1755061396
525296850.0 -0.0753484913 0.1588614189 0.2489789474 -0.4997534393 0.2487481973 -0.5000892736 -0.0559531462 0.1765828192
530296820.0 -0.0733494711 0.1596160053 0.2435768025 -0.5020318151 0.2431651642 -0.5025579581 -0.0547346934 0.1767654465
535296790.0 -0.0720685449 0.1605190287 0.2374672694 -0.5049424696 0.2381619886 -0.5047016784 -0.0525599367 0.17754632
540296760.0 -0.0706044088 0.1612694428 0.2322731907 -0.5078898459 0.2317981823 -0.5080601521 -0.0510270915 0.1786887993
545296730.0 -0.0688160186 0.1622289247 0.2268660245 -0.5098218461 0.2267722088 -0.5105423555 -0.0490816531 0.1790216512
550296700.0 -0.0676930637 0.1630160963 0.2212191375 -0.5122167045 0.2215110255 -0.512752947 -0.0470000473 0.180300388
555296670.0 -0.0656063198 0.1636923775 0.21558524 -0.5151219119 0.2156963572 -0.514852047 -0.0451240722 0.181022554
560296640.0 -0.064340723 0.1644167733 0.2100454194 -0.5170397458 0.2104002533 -0.517245229 -0.0432013375 0.1817206964
565296610.0 -0.0630831909 0.1652255748 0.2044930507 -0.5192866812 0.204193091 -0.5193382408 -0.041366567 0.1819733169
570296580.0 -0.0608364906 0.1658018677 0.1986794228 -0.521670919 0.1992767369 -0.5218645926 -0.0393505245 0.1833093872
575296550.0 -0.0592900262 0.1668416861 0.1931053545 -0.5232645545 0.1933105861 -0.523420955 -0.0372551649 0.1832748546
580296520.0 -0.05764218 0.1671867484 0.1875825726 -0.5251735592 0.1875333524 -0.5256487009 -0.0353553446 0.183906229
585296490.0 -0.0557640487 0.1676462181 0.1815966957 -0.5275217671 0.1817215247 -0.5275785956 -0.0335224832 0.184198768
590296460.0 -0.0547363775 0.1683201641 0.1758298692 -0.5294791741 0.1757754407 -0.5295957857 -0.031463909 0.18498398
595296430.0 -0.0530584392 0.1693891613 0.1703007836 -0.5319322371 0.1698891271 -0.5314511472 -0.0294503765 0.1851045677
600296400.0 -0.0512387997 0.1699969964 0.1642578966 -0.5331898263 0.1644547963 -0.5330750858 -0.0274208066 0.1863437112
605296370.0 -0.0496009978 0.1708412268 0.158594351 -0.5350337057 0.1586879546 -0.5345715759 -0.0254830391 0.186129562
610296340.0 -0.0480523591 0.1711417733 0.153153668 -0.5363350158 0.1531915613 -0.5367532935 -0.0235615073 0.1870979614
615296310.0 -0.0462350187 0.1720142466 0.1469179655 -0.5381916947 0.1469089875 -0.5381939646 -0.0212557647 0.1872451293
620296280.0 -0.0444227327 0.1723408693 0.1412480846 -0.5394508788 0.1411588179 -0.5398318783 -0.0189866596 0.1872195488
625296250.0 -0.0427723784 0.1730428275 0.135068538 -0.541331476 0.135481637 -0.5414359895 -0.0170787699 0.187841925
630296220.0 -0.0412797368 0.1737759692 0.1291977349 -0.5429535308 0.1298621139 -0.5424940021 -0.0152996326 0.1884487639
635296190.0 -0.0395716244 0.174224048 0.1236329934 -0.5437105104 0.12380275 -0.543623177 -0.0133202505 0.1883916209
640296160.0 -0.0377185856 0.1746553477 0.1177930748 -0.5449303639 0.1177370376 -0.5453981129 -0.0108792388 0.188634606
645296130.0 -0.0363579689 0.1754333436 0.111932354 -0.546440278 0.1119929505 -0.5465529818 -0.0096480335 0.1887806601
650296100.0 -0.0345782123 0.176108486 0.1063855363 -0.5472041207 0.1062388027 -0.5472134799 -0.0071759986 0.1894769521
655296070.0 -0.0328695271 0.1761057076 0.099914506 -0.5485978869 0.0999490776 -0.5484433736 -0.0048129908 0.1896518796
660296040.0 -0.0315219818 0.1770460298 0.0942576869 -0.5493611465 0.0944859483 -0.5492571558 -0.0031686532 0.1894034151
665296010.0 -0.0295782664 0.1771093924 0.0887268719 -0.5503445512 0.0887047422 -0.5503557122 -0.0015153651 0.1900409014
670295980.0 -0.0271691423 0.1777631996 0.0821950672 -0.5513062568 0.0826930516 -0.5513706761 0.0004991719 0.1898151429
675295950.0 -0.0256466524 0.1781619893 0.076186162 -0.5522566321 0.0765518768 -0.5525098965 0.0033901832 0.1902862166
680295920.0 -0.0239585131 0.1786390006 0.0704178689 -0.5529924991 0.070386301 -0.5530240784 0.0050877008 0.1901299266
685295890.0 -0.0224642299 0.1789034591 0.0645752904 -0.5534534467 0.0641078346 -0.553799566 0.0073349769 0.1903414302
690295860.0 -0.020613334 0.1792996452 0.058549423 -0.5538892928 0.0578953945 -0.554086785 0.0093402986 0.1906348315
695295830.0 -0.0183073238 0.1794162929 0.0516925499 -0.5546433145 0.0520994058 -0.5551213924 0.0109061446 0.1908465139
700295800.0 -0.0168485335 0.1801961734 0.0461335711 -0.555261196 0.0461538452 -0.5555659457 0.0133719892 0.1903119247
705295770.0 -0.0149865564 0.1802882691 0.0402783968 -0.5556199555 0.0407363443 -0.55547063 0.0152842894 0.19024002
710295740.0 -0.0133427918 0.1807298176 0.0342134146 -0.5561856865 0.0345596981 -0.5560564727 0.016908413 0.1905002887
715295710.0 -0.0118681017 0.1809690138 0.0286029206 -0.5563793618 0.0284412124 -0.5567016898 0.0194131123 0.1901608258
720295680.0 -0.0100778145 0.1808179975 0.0223009071 -0.5566938657 0.0223256813 -0.5571899294 0.0217713837 0.1902093395
725295650.0 -0.0077188082 0.1813022619 0.0158191598 -0.5564197093 0.0162633756 -0.5568649342 0.0238865999 0.1904547551
730295620.0 -0.006668094 0.18142461 0.0107020004 -0.5568404505 0.0103717346 -0.5567375612 0.0259561235 0.1896576548
735295590.0 -0.0043647459 0.1816071684 0.0046193538 -0.5571160705 0.0044135049 -0.5571541463 0.0278906172 0.1898170955
740295560.0 -0.0025403979 0.18224563 -0.0016600704 -0.5568096478 -0.0018704308 -0.5571659253 0.0300891114 0.189669771
745295530.0 -0.0010175057 0.1821903844 -0.0075425316 -0.5571350253 -0.0071896176 -0.5573547734 0.0316912428 0.189283299
750295500.0 0.0008519644 0.1821696643 -0.0134502563 -0.5565699912 -0.0136992513 -0.5567866776 0.0344797465 0.1890725631
755295470.0 0.0032989041 0.1826450062 -0.0197435652 -0.5564330784 -0.0194753488 -0.5566451091 0.0357944479 0.1888474742
760295440.0 0.0045334901 0.1827503518 -0.0259107466 -0.5559935593 -0.025395424 -0.5564387607 0.0376069441 0.1889920014
765295410.0 0.0062009357 0.1823262367 -0.0311203663 -0.5554914232 -0.0313644143 -0.5561305508 0.0407536088 0.1888201974
770295380.0 0.0084847398 0.1828938901 -0.0379188237 -0.5552771677 -0.0373926274 -0.5557279734 0.0428477426 0.1883596147
775295350.0 0.009995749 0.1830177406 -0.0436964602 -0.5546216155 -0.0436271104 -0.5551221225 0.0440690419 0.187635105
780295320.0 0.011819821 0.1829263801 -0.0494550346 -0.5545545202 -0.0491726383 -0.5544212784 0.0465079607 0.1877374499
785295290.0 0.0137036364 0.1835062707 -0.0555209359 -0.5534140503 -0.0556120256 -0.5538488732 0.0481696888 0.1871097563
790295260.0 0.0151359342 0.1830519006 -0.060856173 -0.5531517117 -0.0615034429 -0.5535320792 0.0506381892 0.1869135293
795295230.0 0.0170380869 0.1832437414 -0.0668296234 -0.552278171 -0.0669855516 -0.5523489893 0.0526825796 0.1871095415
800295200.0 0.0191628678 0.1834599923 -0.0740560761 -0.5519336607 -0.0734989259 -0.5522634475 0.0549085061 0.1862152355
805295170.0 0.0204036374 0.1830960857 -0.0789395407 -0.5505093192 -0.0794103072 -0.5508115669 0.0565847944 0.1854597125
810295140.0 0.0225422462 0.1829731547 -0.0848111529 -0.5501951383 -0.0852973863 -0.5510158936 0.0587680788 0.1854847265
815295110.0 0.0246064638 0.1831577893 -0.0913134793 -0.5487520619 -0.0914408566 -0.5490925981 0.0604832852 0.1846229574
820295080.0 0.0263033608 0.182824304 -0.0969529229 -0.5479157467 -0.0970607572 -0.5484694605 0.0624769405 0.1844532097
825295050.0 0.0280522221 0.1826926348 -0.102703023 -0.5462313929 -0.1030085365 -0.5467990809 0.0649980958 0.1835931864
830295020.0 0.0296689211 0.1828148099 -0.1087070035 -0.5451331373 -0.1089832529 -0.5456912597 0.0666626889 0.1829407041
