!Created with skrf (http://scikit-rf.org).
# Hz S RI R 50.0 
!freq ReS11 ImS11 ReS21 ImS21 ReS12 ImS12 ReS22 ImS22
300000.0 -0.3154149796 -0.1285268894 0.3741805017 0.0652280865 0.3719483687 0.0645065539 -0.3191422487 -0.1279370853
5299970.0 -0.3250264622 0.0029999207 0.3784116124 0.0029963904 0.3787433121 0.0031778104 -0.3257065766 0.0020496364
10299940.0 -0.3226588632 0.0142589297 0.3800653293 0.0024801765 0.3799670511 0.003209032 -0.3234260505 0.0126265255
15299910.0 -0.3191672821 0.0224317164 0.3822715554 0.0026345257 0.3823470569 0.0027999278 -0.3208421801 0.0200166795
20299880.0 -0.3154894063 0.0289720292 0.3847357287 0.0017938552 0.3851862543 0.0018090747 -0.3179322514 0.0260682719
25299850.0 -0.3115776613 0.0348292054 0.3886097909 0.0004876368 0.3887483634 0.0001383166 -0.3150248089 0.0312869899
30299820.0 -0.3081778518 0.0394303833 0.3918229499 -0.0018349157 0.3922601412 -0.00213392 -0.3118410901 0.0356981312
35299790.0 -0.3043254344 0.0435406868 0.3948320968 -0.0048837194 0.3953333977 -0.0051092023 -0.3096247582 0.0397791413
40299760.0 -0.301264304 0.0468483203 0.3983765741 -0.0088331158 0.3984328709 -0.0086504543 -0.3066035416 0.0433389373
45299730.0 -0.2981070654 0.0498452976 0.4011338905 -0.0124959287 0.4016682809 -0.0126805092 -0.3037943009 0.0466119324
50299700.0 -0.2947610805 0.0526456699 0.4036689394 -0.0171648936 0.4038802088 -0.0171251158 -0.3012085479 0.0497067943
55299670.0 -0.2925495525 0.0553787483 0.4058506873 -0.0214761146 0.4060961037 -0.0218679321 -0.2997326632 0.0524374858
60299640.0 -0.2898845199 0.057997977 0.4080247934 -0.0266999583 0.4081800978 -0.0265990134 -0.2970698022 0.0549899926
65299610.0 -0.2874737163 0.0602053916 0.4097094088 -0.0315563128 0.4099870475 -0.0315010508 -0.2953664413 0.0574629298
70299580.0 -0.2853802396 0.0619569417 0.4108335874 -0.0365857718 0.41139771 -0.0367626298 -0.2935584719 0.0598351664
75299550.0 -0.2835049072 0.0642873295 0.4118205148 -0.04230157 0.4120979457 -0.0420514175 -0.2918515295 0.0622373139
80299520.0 -0.2817479336 0.0666736218 0.4128809287 -0.0475312024 0.4127231081 -0.0476743931 -0.2905329756 0.0650494804
85299490.0 -0.2801814253 0.0684661612 0.41332304 -0.05262956 0.4136884577 -0.052627126 -0.2892554648 0.0669232995
90299460.0 -0.2784408619 0.0707916747 0.413657082 -0.0575325847 0.4137673289 -0.0579059961 -0.2876507569 0.0695259107
95299430.0 -0.2767854862 0.0728321578 0.4138384152 -0.0633824697 0.4141888448 -0.0633093715 -0.2865626211 0.0719706907
100299400.0 -0.2754179595 0.0746222476 0.4139775952 -0.0681642593 0.4140283065 -0.0680121729 -0.2855194047 0.0744627258
105299370.0 -0.2738953584 0.0766100298 0.4136926569 -0.0733722849 0.4142009825 -0.0735139934 -0.2841739709 0.0763834871
110299340.0 -0.2722655036 0.0785607895 0.4134822393 -0.077856996 0.4142073511 -0.0783768255 -0.283255782 0.0786118065
115299310.0 -0.2715977084 0.0808556309 0.4134724783 -0.0832440412 0.4136619712 -0.0835113807 -0.2821854799 0.0812771885
120299280.0 -0.2706357102 0.0831146863 0.4133453202 -0.0889935484 0.4131521754 -0.0891716936 -0.2811674991 0.0833245238
125299250.0 -0.2691636931 0.0852026353 0.4127059847 -0.0939099076 0.4125532567 -0.0939027747 -0.2800549395 0.0859141153
130299220.0 -0.2681870506 0.0877839838 0.4116876043 -0.0994020573 0.4117400744 -0.0993381207 -0.2793320557 0.0883044921
135299190.0 -0.2671065477 0.0899724766 0.4113276831 -0.1039192169 0.4118830592 -0.1041595192 -0.2784613828 0.0906432668
140299160.0 -0.2662594993 0.0919897948 0.4104708925 -0.1089286709 0.4104872641 -0.1088355256 -0.2775596143 0.0929815951
145299130.0 -0.265214762 0.094679324 0.4097078214 -0.1140345595 0.4093087676 -0.1136657347 -0.2764296203 0.0956700739
150299100.0 -0.2642337848 0.0969728497 0.408672757 -0.1190342468 0.4083176382 -0.1188721179 -0.2759938185 0.0983412036
155299070.0 -0.2632756804 0.0995031599 0.4071409965 -0.1238351593 0.4073980172 -0.1238663557 -0.2744256652 0.1007107591
160299040.0 -0.2622021753 0.10175003 0.4063813249 -0.1289493883 0.4059452482 -0.1289351118 -0.2740392975 0.1033905854
165299010.0 -0.2612577838 0.104476262 0.4050452064 -0.133654573 0.4049485641 -0.1338014044 -0.2725898713 0.1058776996
170298980.0 -0.2602592409 0.1068265601 0.4028916876 -0.138227574 0.4036296454 -0.1385020264 -0.272186215 0.1087996184
175298950.0 -0.2589292945 0.1094299876 0.4023788965 -0.143087982 0.4023058221 -0.143390699 -0.2710149622 0.1116609534
180298920.0 -0.2581403762 0.1119472948 0.4010227532 -0.1479994663 0.400874922 -0.148329289 -0.2701781486 0.1140426093
185298890.0 -0.256986681 0.114342817 0.3992676939 -0.1525757957 0.3991333479 -0.1526937337 -0.2688490671 0.1166279321
190298860.0 -0.2558627838 0.1172674801 0.3974589077 -0.1571365139 0.39785877 -0.1575227018 -0.2677805271 0.1192631237
195298830.0 -0.2547918973 0.1198036893 0.3960182695 -0.1615427789 0.3964285172 -0.1619696352 -0.267055346 0.121926228
200298800.0 -0.2533363891 0.1218862848 0.3942857083 -0.166747513 0.3945717741 -0.1665668996 -0.2658548246 0.1244080276
205298770.0 -0.2525970926 0.1247975594 0.3924822994 -0.1709763236 0.3927246018 -0.1709401308 -0.2647579177 0.1271946421
210298740.0 -0.2515187218 0.1275763133 0.3906108494 -0.1759285211 0.3905423973 -0.1756817111 -0.264167794 0.1298606634
215298710.0 -0.2502991839 0.1301662467 0.3886277304 -0.1798475864 0.3887623142 -0.1803980327 -0.2624979335 0.1325963364
220298680.0 -0.2490566756 0.1325104174 0.3864879728 -0.184409104 0.3869561292 -0.1849345607 -0.2611303084 0.1354157924
225298650.0 -0.2479875709 0.1353805773 0.3846374709 -0.1890040677 0.3849384143 -0.1887106436 -0.2600313559 0.1381601642
230298620.0 -0.2466794165 0.1382488048 0.3827545504 -0.1936752637 0.3828595765 -0.1937384962 -0.2587649169 0.1405241899
235298590.0 -0.2454461072 0.1407018047 0.3804597094 -0.1983091312 0.3808078549 -0.1979976415 -0.2575516771 0.1434136221
240298560.0 -0.2438774607 0.1434337586 0.3784671376 -0.201882845 0.3785603212 -0.2023621975 -0.2560531523 0.1461790646
245298530.0 -0.2428018908 0.145843923 0.3762311069 -0.2066215099 0.3761756516 -0.2066582391 -0.2548980903 0.1485819214
250298500.0 -0.241615607 0.1480832108 0.3740490983 -0.2102889279 0.374065563 -0.2108381665 -0.2536657969 0.1516669766
255298470.0 -0.2401528229 0.1513445809 0.3716362349 -0.2147983678 0.3722655962 -0.2153878705 -0.2521709393 0.154352585
260298440.0 -0.2387577054 0.1535432279 0.3695404401 -0.2187642981 0.3696978287 -0.2189755676 -0.2510155208 0.1568104122
265298410.0 -0.2374742986 0.1563024865 0.3667405769 -0.2234255466 0.3667710777 -0.2237475352 -0.2487974616 0.1592997649
270298380.0 -0.2360736182 0.158924379 0.3644689308 -0.2273860215 0.3646282031 -0.2276987803 -0.2472945854 0.1623760233
275298350.0 -0.2341031912 0.1615603624 0.3613800471 -0.2312521309 0.3616787962 -0.2314687774 -0.2457613318 0.1645133518
280298320.0 -0.2332293133 0.1639981137 0.3595038958 -0.2350464508 0.359872649 -0.2359507818 -0.2443243517 0.167747585
285298290.0 -0.2314020779 0.1666410883 0.3564754999 -0.2398092506 0.3573109461 -0.2395415593 -0.242861897 0.1705592976
290298260.0 -0.2299790424 0.1692915889 0.3542288219 -0.2435575105 0.3542724137 -0.243649669 -0.2411521353 0.1726921184
295298230.0 -0.2284029897 0.1716235946 0.3516637191 -0.2479878879 0.3519522365 -0.2480968141 -0.2396482931 0.1753481951
300298200.0 -0.2270100538 0.1743143468 0.3494250612 -0.251488346 0.3490430199 -0.2516055713 -0.2378365532 0.1781234738
305298170.0 -0.2252371865 0.1764351954 0.3461185498 -0.255680391 0.3466584983 -0.2558544995 -0.2356905275 0.1804314593
310298140.0 -0.2229129538 0.1789381494 0.3432440445 -0.2594821203 0.3435315704 -0.2592244971 -0.2337726809 0.1829194397
315298110.0 -0.2219755915 0.1813736864 0.3405488487 -0.2637760091 0.3407175777 -0.2636858295 -0.2320254365 0.1856917055
320298080.0 -0.2200294323 0.1838132795 0.3370586347 -0.2676968156 0.3379862017 -0.2675614533 -0.2307458642 0.1876292863
325298050.0 -0.2185369398 0.185535063 0.334407511 -0.2710906442 0.3348160966 -0.2713382491 -0.2284703538 0.1902017545
330298020.0 -0.2171534615 0.18843037 0.3315834028 -0.2752191456 0.3320297436 -0.2750653499 -0.2267552337 0.1927351374
335297990.0 -0.2150024316 0.1908275241 0.3284737746 -0.2787423326 0.3286707368 -0.27856335 -0.2249934609 0.1952368327
340297960.0 -0.2136169859 0.1931839557 0.3250724447 -0.2822289088 0.3250930082 -0.2825032497 -0.2232033926 0.197938279
345297930.0 -0.2120248474 0.1955055613 0.3217338642 -0.2858060988 0.3221568594 -0.286048701 -0.2212561814 0.2004356355
350297900.0 -0.2104762325 0.1982303488 0.3190021917 -0.289218664 0.31895533 -0.2893834866 -0.2195450452 0.2025546838
355297870.0 -0.2083956016 0.2002908339 0.3152139183 -0.2925502542 0.3155693168 -0.2926882282 -0.217158015 0.2054569977
360297840.0 -0.2064227293 0.2027692121 0.3119906974 -0.2965475724 0.3124084336 -0.2966948921 -0.2148777378 0.2078715616
365297810.0 -0.2044202687 0.2054071404 0.3087590079 -0.2998223699 0.3093906914 -0.2999840485 -0.2137033488 0.2102268281
370297780.0 -0.2021768058 0.2072526585 0.3050532531 -0.3032170435 0.3060188373 -0.3030874552 -0.2112526164 0.2126212626
375297750.0 -0.2005830548 0.2100173585 0.3021424153 -0.306595319 0.302618178 -0.30648291 -0.2091149525 0.2149302852
380297720.0 -0.198661876 0.2122373891 0.2989306078 -0.3099423109 0.298803873 -0.3097811465 -0.2063551719 0.2176083835
385297690.0 -0.1968764936 0.2140708075 0.2955264806 -0.3127342652 0.2954070056 -0.3132346928 -0.2041590612 0.2202782195
390297660.0 -0.1942254231 0.2161701626 0.292006132 -0.316006267 0.291966856 -0.3162236153 -0.2020735584 0.2220408796
395297630.0 -0.1919710368 0.2184218659 0.2886935153 -0.3188436279 0.288492941 -0.3190003935 -0.1998872901 0.2239796828
400297600.0 -0.1901328664 0.220619789 0.2851916146 -0.322593894 0.2854604902 -0.3226405734 -0.1975919075 0.2267675751
405297570.0 -0.1882306301 0.2224895319 0.2818237754 -0.3254861464 0.2814409483 -0.3256637182 -0.1949644148 0.2289151188
410297540.0 -0.1853593902 0.2249008797 0.2778487664 -0.3290616602 0.2780578073 -0.3285463176 -0.1930063798 0.231295921
415297510.0 -0.1837233103 0.2268161375 0.2743434442 -0.3318634339 0.2745127837 -0.3317908836 -0.1902427809 0.2334713858
420297480.0 -0.1812721845 0.2285254541 0.2704115685 -0.3346470518 0.2708194562 -0.3350175641 -0.1877194743 0.2361427378
425297450.0 -0.1783325238 0.2303586542 0.2668748893 -0.3374759997 0.26687659 -0.3377756593 -0.1855786158 0.2376192113
430297420.0 -0.1766215139 0.2328375813 0.2634545542 -0.3405462758 0.2635161951 -0.3404169351 -0.1829786949 0.240053394
435297390.0 -0.1741680657 0.2344910987 0.2593026223 -0.3434771073 0.2594351521 -0.3433463144 -0.1809533867 0.2423608842
440297360.0 -0.1715827358 0.2365298905 0.255191356 -0.3461183887 0.2554278265 -0.3460749179 -0.1782953827 0.2441154792
445297330.0 -0.169291364 0.2383043731 0.2518617591 -0.3486302206 0.252058327 -0.3491944775 -0.1754338776 0.24616816
450297300.0 -0.1664710556 0.2402974653 0.2477849561 -0.3512966138 0.2480267772 -0.3514289979 -0.1729722576 0.2481132623
455297270.0 -0.1643908784 0.2420345823 0.2441283921 -0.3541272211 0.2445553114 -0.3544908199 -0.1701650349 0.2501362222
460297240.0 -0.1614507841 0.2441643785 0.2403482835 -0.3572469998 0.2402180278 -0.3572451675 -0.1677851956 0.2520792307
465297210.0 -0.1591393915 0.2457093771 0.2360506419 -0.3597465173 0.2359264048 -0.3597732837 -0.1646981 0.2541330738
470297180.0 -0.1568588883 0.247917513 0.2320812722 -0.3617915383 0.2323827272 -0.3621320438 -0.1622629546 0.2560397262
475297150.0 -0.1543566266 0.2497705413 0.228321594 -0.3646363916 0.2282962313 -0.365092723 -0.1596448704 0.2580790646
480297120.0 -0.1508472957 0.2513923951 0.2240314567 -0.3672172455 0.2245445939 -0.3670078711 -0.1570031245 0.25992996
485297090.0 -0.1485714286 0.2527128498 0.2199986159 -0.3694535888 0.220127813 -0.3695670258 -0.1541569277 0.2618284976
490297060.0 -0.145259412 0.254732333 0.2157784977 -0.372169611 0.2161707543 -0.3721592799 -0.1511967321 0.2634305158
495297030.0 -0.1432829659 0.2559948584 0.2122059503 -0.3740999326 0.2121075769 -0.3742379268 -0.1486214 0.2646847652
500297000.0 -0.1405760928 0.2580004825 0.2079949258 -0.3767195674 0.2078412973 -0.3767776394 -0.1455930124 0.2668642403
505296970.0 -0.1370566187 0.2595288991 0.2037318784 -0.3788251296 0.2038704765 -0.3785954569 -0.1428696791 0.2681372694
510296940.0 -0.1348630289 0.2608267698 0.1994707143 -0.3813628502 0.1998728643 -0.3812414158 -0.1399259379 0.2702443349
515296910.0 -0.1319011454 0.2625235539 0.1953205662 -0.3829479204 0.1948691859 -0.3829522602 -0.1370987191 0.2712986206
520296880.0 -0.1286881457 0.2642770548 0.1911059348 -0.3850829204 0.1907166548 -0.3852867523 -0.1340175545 0.2736304375
525296850.0 -0.1260032924 0.2654095368 0.1864346695 -0.3871771839 0.1865541419 -0.3869491419 -0.1313229316 0.2746885839
530296820.0 -0.1233192834 0.267155702 0.1824798109 -0.388891698 0.1823421937 -0.3890240528 -0.1285488513 0.2761581682
535296790.0 -0.1198962186 0.2684509868 0.177874067 -0.390616659 0.1783790383 -0.3912559297 -0.1253228509 0.2778249117
540296760.0 -0.1173243125 0.2700683936 0.1737639929 -0.3929090544 0.1735634942 -0.392827277 -0.1225220406 0.2789881605
545296730.0 -0.1146420602 0.2719135584 0.1698168937 -0.3946371214 0.1692817785 -0.3946807734 -0.1194334638 0.2808736531
550296700.0 -0.1111361374 0.27284475 0.1651932375 -0.3964438529 0.1650056014 -0.3964787414 -0.1166010589 0.2819451317
555296670.0 -0.1084182838 0.2742871044 0.1609682032 -0.3983357868 0.1607171046 -0.3982806118 -0.113682455 0.2830968749
560296640.0 -0.1052091286 0.2753246481 0.156502756 -0.3998737634 0.156518007 -0.4003130124 -0.1106649218 0.2849081036
565296610.0 -0.1026694658 0.2767406198 0.1521484286 -0.4019246803 0.1522208539 -0.4014633597 -0.1074990772 0.2863066077
570296580.0 -0.0993948021 0.278274744 0.1475535738 -0.403456318 0.1477704088 -0.4032892396 -0.104550709 0.2871220242
575296550.0 -0.096300075 0.2793664521 0.143439338 -0.40479276 0.1429662917 -0.404791076 -0.1013108402 0.2887613068
580296520.0 -0.093441489 0.280807177 0.138693899 -0.4060655726 0.1389849458 -0.4062647831 -0.0986047933 0.2894377231
585296490.0 -0.0901632322 0.2818112106 0.1348323427 -0.4075799176 0.1342194844 -0.407899527 -0.0952026 0.2912725741
590296460.0 -0.0865347296 0.2830038895 0.1300387934 -0.4091095301 0.1299259086 -0.4092461211 -0.09267723 0.2922308845
595296430.0 -0.0839216156 0.2839846993 0.1251839376 -0.4102375058 0.1252572001 -0.4104968484 -0.0892548505 0.2930542719
600296400.0 -0.0805772642 0.2849579657 0.1207162126 -0.4116603841 0.1210699883 -0.4118426817 -0.0860024761 0.2940973268
605296370.0 -0.0778083559 0.2863511258 0.1168813823 -0.4128306421 0.1160401008 -0.4131268041 -0.082600361 0.295483937
610296340.0 -0.0744636147 0.2877786343 0.1119870681 -0.4139363726 0.1120821756 -0.4140589275 -0.07997528 0.2963032564
615296310.0 -0.0713065594 0.2886245209 0.107203641 -0.4156192606 0.1070311218 -0.4153691906 -0.076534212 0.2972533982
620296280.0 -0.068523035 0.2901626016 0.102881139 -0.4165013269 0.1026489449 -0.4164086867 -0.0739559018 0.2983235892
625296250.0 -0.0656618252 0.2905035743 0.0983749666 -0.4175299864 0.0982405388 -0.4176635511 -0.07082208 0.2990734635
630296220.0 -0.0623930439 0.2914494876 0.0940752503 -0.4184919496 0.0936652682 -0.4185760937 -0.0671116552 0.3000590999
635296190.0 -0.0592704091 0.2924376762 0.0895351591 -0.4194654885 0.0891521199 -0.419247849 -0.064611758 0.3004763536
640296160.0 -0.0555455988 0.2933049731 0.0847166727 -0.4205611317 0.0845545448 -0.4203733206 -0.0609998417 0.3016977638
645296130.0 -0.052552731 0.2946458959 0.0799882828 -0.4212471019 0.0798791044 -0.4214458816 -0.0579182613 0.3023057245
650296100.0 -0.0498206528 0.2949724905 0.0757732872 -0.4220009608 0.0753204685 -0.4222129383 -0.0543612456 0.3029384312
655296070.0 -0.0465478714 0.2958532962 0.0707293532 -0.4225023178 0.0707602881 -0.4225163881 -0.0518222088 0.3039316683
660296040.0 -0.0436600831 0.2968172036 0.0666009359 -0.4236844755 0.0662634771 -0.4236024741 -0.0482208206 0.3042604657
665296010.0 -0.0402837364 0.2975300007 0.0611010777 -0.4235573094 0.0612597486 -0.4238796223 -0.0448857186 0.3048978408
670295980.0 -0.037242494 0.298065703 0.0570242182 -0.4245704304 0.0568831313 -0.4244580694 -0.0421666705 0.305621852
675295950.0 -0.0343440589 0.2988038992 0.0524462687 -0.4250692279 0.0524129628 -0.4252217451 -0.0387635044 0.3064992418
680295920.0 -0.0313333459 0.2992954063 0.0479901804 -0.4253698823 0.0477001021 -0.4254328966 -0.0353517496 0.3064698384
685295890.0 -0.028035275 0.3001681657 0.0432212319 -0.4263841199 0.0430752854 -0.4263300724 -0.0323361744 0.3071429769
690295860.0 -0.0247723591 0.3008832965 0.0388771995 -0.4264877649 0.0384207855 -0.4264734599 -0.0290283683 0.3076535249
695295830.0 -0.021386323 0.301317708 0.0342621956 -0.4268922785 0.0337986506 -0.4271126345 -0.0258861305 0.3085118973
700295800.0 -0.0181990885 0.3016476885 0.0297622074 -0.4272488748 0.0292923404 -0.4272310971 -0.0222098383 0.3086282666
705295770.0 -0.0156237851 0.3027248645 0.0250295762 -0.4278545898 0.0246519425 -0.4274721661 -0.0193231828 0.3095380594
710295740.0 -0.0127341831 0.3024939774 0.0203305966 -0.4277692054 0.0196269797 -0.4282254129 -0.0160773708 0.3097982231
715295710.0 -0.0090332953 0.3030929415 0.0155969552 -0.4277793803 0.0152879987 -0.4279281833 -0.0127166695 0.3095022067
720295680.0 -0.0056290809 0.3033281229 0.0106570275 -0.4279397372 0.0108027258 -0.4280196353 -0.0095994617 0.3098256304
725295650.0 -0.0029019885 0.3038247972 0.0063618573 -0.4279935496 0.0065533739 -0.4282393028 -0.0065434958 0.3105157704
730295620.0 -0.000449562 0.3040226086 0.0018455846 -0.4279253798 0.0016675972 -0.4279099832 -0.0034414819 0.3108991567
735295590.0 0.0030378934 0.3043303646 -0.0027526604 -0.4278233332 -0.0032301232 -0.4282208164 0.0001666204 0.3109094511
740295560.0 0.0061206968 0.3040824911 -0.007363779 -0.4276576046 -0.0073742946 -0.4281137866 0.0032955823 0.3109802943
745295530.0 0.0091855516 0.3048793639 -0.0116247198 -0.4275038634 -0.0119013491 -0.4276986094 0.0063526362 0.3110941533
750295500.0 0.0117656907 0.3053106976 -0.0159725976 -0.4277428551 -0.0169796771 -0.4273922541 0.0097847733 0.3109957433
755295470.0 0.0153026501 0.3048785237 -0.0211130665 -0.4274611333 -0.0213062778 -0.4277343159 0.012962522 0.3114983951
760295440.0 0.0181420761 0.3055879568 -0.0260573889 -0.4271403509 -0.0260925331 -0.4270098339 0.0164462573 0.3108741175
765295410.0 0.0214494521 0.3048341202 -0.0302986265 -0.4264338814 -0.0301314749 -0.4266719347 0.0195430382 0.3110754702
770295380.0 0.0242614831 0.3053276786 -0.0345739382 -0.4265042873 -0.0346609192 -0.4268073711 0.022660458 0.3110049389
775295350.0 0.02752822 0.3052572925 -0.039575013 -0.4258214323 -0.039156094 -0.4255151392 0.0262545116 0.3109563631
780295320.0 0.0306858922 0.3052818821 -0.0438932736 -0.4252680922 -0.0443925882 -0.4254650297 0.0294716469 0.3107869686
785295290.0 0.0337741543 0.3048368461 -0.0485717975 -0.4246012143 -0.0486607646 -0.4252617987 0.0322787664 0.3108182182
790295260.0 0.0366276328 0.3044568089 -0.0532622767 -0.4240498849 -0.0530763707 -0.4248151142 0.0355385191 0.3109138095
795295230.0 0.0397684338 0.3046702698 -0.057704673 -0.4237249998 -0.0578757438 -0.4238499171 0.0387692865 0.3096410538
800295200.0 0.0423725378 0.3042738641 -0.0616705077 -0.4224864369 -0.0625202588 -0.4232771947 0.0418664068 0.3097473702
805295170.0 0.0455267577 0.3045269711 -0.0664951419 -0.422410789 -0.0667308821 -0.422751488 0.0455360889 0.3093491656
810295140.0 0.0489409769 0.3040824403 -0.0714646436 -0.4216768264 -0.071438088 -0.4215774473 0.0488686523 0.3090539627
815295110.0 0.0517320721 0.3036968316 -0.0760564182 -0.4208992365 -0.0757594872 -0.4209715428 0.0519620498 0.3089072383
820295080.0 0.0546793785 0.303213142 -0.0799519598 -0.4198107558 -0.0799861621 -0.4200712664 0.0543381701 0.3088124348
825295050.0 0.057810416 0.3025988051 -0.0851199487 -0.4191478563 -0.0848648816 -0.419119072 0.0585319123 0.3083946414
830295020.0 0.0608358072 0.3024818529 -0.0894412188 -0.4179289992 -0.0894483106 -0.4180681273 0.0612643802 0.3074651797
