!Created with skrf (http://scikit-rf.org).
# Hz S RI R 50.0 
!freq ReS11 ImS11 ReS21 ImS21 ReS12 ImS12 ReS22 ImS22
300000.0 -0.0472379829 -0.0725356639 -0.0029509474 0.000388586 -0.0005578732 0.0015970217 -0.7664368881 -0.1904622137
5299970.0 -0.0502591863 0.0144422875 0.0001411745 0.0001181286 -4.64772e-05 9.37515e-05 -0.7852574502 -0.0101094025
10299940.0 -0.0445095366 0.0328000545 7.27789e-05 0.000286934 -4.93903e-05 0.0001065504 -0.7879188236 -0.0051803073
15299910.0 -0.0358372196 0.0473363686 -4.25651e-05 7.31509e-05 -3.34012e-05 -3.78164e-05 -0.7929805388 -0.0028911071
20299880.0 -0.0257959347 0.0589800685 -0.0001236143 0.0002332378 -0.0001281949 0.0002121151 -0.8002200315 0.0017238563
25299850.0 -0.0143871709 0.0685133312 -0.0001036348 -1.31938e-05 9.0586e-05 0.0002544992 -0.8064701113 0.0079787645
30299820.0 -0.0026876359 0.0753205829 0.0001309686 -0.0002730927 -0.000186374 5.98387e-05 -0.8125717999 0.0158219429
35299790.0 0.0090039237 0.0798159274 -8.38e-08 0.0001348738 -0.0001230323 -5.10122e-05 -0.8173713974 0.0246070283
40299760.0 0.0204506654 0.0825917051 0.0002422483 -7.77935e-05 0.0002118121 3.39825e-05 -0.8213298483 0.0344528994
45299730.0 0.0309790336 0.0836064862 0.0001263809 9.80022e-05 -2.59571e-05 -0.0001099948 -0.8245748451 0.0437493221
50299700.0 0.0414109334 0.0836874033 9.20055e-05 -7.25499e-05 8.89046e-05 -0.0001431444 -0.8271546823 0.0538363632
55299670.0 0.0508183571 0.0827220987 0.0002497193 0.0001032298 0.0001246997 -9.99368e-05 -0.8294017117 0.0641320641
60299640.0 0.0596385977 0.0804380154 -4.93524e-05 3.34903e-05 0.0001236619 0.0002320962 -0.8299583237 0.0739224529
65299610.0 0.0677788449 0.0781565786 -6.4108e-05 -0.0001463343 0.0001231029 0.0001551464 -0.8308364049 0.0841341509
70299580.0 0.074347383 0.0747917453 -4.28872e-05 -0.0001057275 -5.95521e-05 -5.2263e-05 -0.8315308874 0.0933735771
75299550.0 0.0809884988 0.0716679634 6.09591e-05 8.55645e-05 4.96984e-05 -4.60938e-05 -0.8311026443 0.1037954571
80299520.0 0.0866220502 0.0679579619 0.000228798 0.0001407498 -0.0001951984 -0.0002669654 -0.8311794653 0.1141319405
85299490.0 0.0918593843 0.0637987803 -4.29284e-05 0.0001285504 -1.59132e-05 7.25197e-05 -0.8302368062 0.1232336239
90299460.0 0.0968766784 0.0600887068 0.0001555341 -6.84863e-05 -1.2905e-06 0.0001459868 -0.8293968699 0.1330030097
95299430.0 0.1008483169 0.0559730652 0.0001051471 0.0001229519 -0.0001043451 -5.8004e-05 -0.8286888087 0.1426743554
100299400.0 0.1046148885 0.0518279417 3.27881e-05 0.0003117262 1.92647e-05 -0.0001213721 -0.8276301787 0.1515272667
105299370.0 0.1078734142 0.0478381183 8.10097e-05 -9.53e-06 -0.0002318957 0.000102173 -0.8259000542 0.1606761168
110299340.0 0.1108784887 0.0436411821 -0.0001299348 -0.0002191859 8.81769e-05 0.0002836604 -0.8250099068 0.1695098619
115299310.0 0.1132049625 0.0399935895 1.97282e-05 0.0002007562 5.20405e-05 -6.5742e-05 -0.8234728366 0.1790183052
120299280.0 0.115804796 0.0359886528 0.000159397 -0.0001671402 -0.0001323989 -0.0001648973 -0.8212578217 0.1876661256
125299250.0 0.1175835608 0.0320396238 -2.19696e-05 0.0001311407 -4.706e-05 5.41617e-05 -0.8199544938 0.1973995124
130299220.0 0.1194225851 0.0281731859 -9.54574e-05 0.0001981465 -7.15006e-05 0.0001096793 -0.81791579 0.2058412474
135299190.0 0.1210206559 0.0244252297 -6.46457e-05 3.33049e-05 5.92736e-05 0.0001224042 -0.8161813817 0.2152276703
140299160.0 0.1222045002 0.0208071539 0.0001389325 0.0001887574 2.11697e-05 1.38367e-05 -0.8146481982 0.2232043226
145299130.0 0.1234236295 0.0173324217 5.22838e-05 6.1131e-05 -1.75932e-05 -0.0001132833 -0.8124575549 0.2324479849
150299100.0 0.1242110309 0.013679537 -1.44322e-05 -0.0001901096 4.5738e-06 0.0001395582 -0.8096558298 0.2417559263
155299070.0 0.1250737475 0.0105013796 1.40279e-05 -0.0001475279 2.574e-05 2.3588e-06 -0.8074665419 0.2507159771
160299040.0 0.1257212829 0.0072253854 0.0002202914 -0.0001293077 -0.0001135367 0.0001186393 -0.8047287122 0.2591323755
165299010.0 0.1263994325 0.004034807 -2.36918e-05 5.08359e-05 3.45321e-05 -5.1401e-06 -0.8018836182 0.2674452354
170298980.0 0.1266135074 0.0009394756 -0.0001533142 4.64077e-05 0.0002687631 0.0001873604 -0.7995874161 0.2755766831
175298950.0 0.1269023244 -0.002344942 -3.33076e-05 0.0001288054 0.0001230333 -6.55544e-05 -0.7965531057 0.2850797279
180298920.0 0.1268792729 -0.0051614238 -1.80286e-05 6.90136e-05 -6.59326e-05 -0.000148129 -0.7936392385 0.2930799629
185298890.0 0.1269857609 -0.0084843552 -3.48438e-05 0.000234431 -2.44262e-05 1.67466e-05 -0.7908580304 0.3014322794
190298860.0 0.1268877162 -0.0111464774 7.474e-06 3.33911e-05 -1.6358e-06 -7.25243e-05 -0.7875878098 0.3097872256
195298830.0 0.1272047798 -0.0136349533 2.25752e-05 -2.77443e-05 -0.0001512777 0.0002036191 -0.7839506966 0.3182165358
200298800.0 0.1271608728 -0.0165355595 3.52174e-05 3.73929e-05 -1.01113e-05 -7.92066e-05 -0.7813835486 0.3266466812
205298770.0 0.1261642679 -0.0191971051 4.7708e-06 -0.0001235277 8.42371e-05 8.10863e-05 -0.7777120105 0.3352166319
210298740.0 0.126212678 -0.0216894707 -0.0001254598 9.68306e-05 0.0002945016 -9.5835e-06 -0.7744418839 0.343742222
215298710.0 0.1256577036 -0.0244152881 -5.21583e-05 -9.83114e-05 -0.0001722662 0.0001470791 -0.7711926148 0.3515445287
220298680.0 0.1253127658 -0.02698482 0.0001583382 0.0001847316 0.0001837367 2.27345e-05 -0.7670693124 0.3593324696
225298650.0 0.1249293864 -0.0290369366 0.0003434678 -0.0001041242 1.6279e-05 6.8249e-06 -0.7634409926 0.3672721333
230298620.0 0.1242766069 -0.0314880921 -5.66357e-05 0.0001780595 0.000137809 0.0001553165 -0.759182388 0.375277074
235298590.0 0.1233929909 -0.0338680949 0.0002527955 -5.31263e-05 -9.53641e-05 0.000157204 -0.7555199506 0.3833471621
240298560.0 0.1227209044 -0.0359435346 0.0001018127 9.29352e-05 5.37682e-05 9.13436e-05 -0.751327799 0.3906393201
245298530.0 0.1221816425 -0.0384478275 8.1823e-05 4.56594e-05 8.98346e-05 -0.0002776549 -0.7476228561 0.3989249822
250298500.0 0.1213038093 -0.0406036717 7.68969e-05 -5.88484e-05 4.08406e-05 0.0001001121 -0.742862426 0.4071798942
255298470.0 0.1207818401 -0.0422328091 0.0001695936 -4.65175e-05 0.0001442056 0.0001744674 -0.7389110845 0.4144687136
260298440.0 0.1198468638 -0.044693875 -0.000206104 -1.98954e-05 -2.97099e-05 9.23997e-05 -0.7342733995 0.4222879595
265298410.0 0.118599975 -0.0467865822 5.22085e-05 -6.70421e-05 1.123e-06 -2.44849e-05 -0.730250179 0.4297582288
270298380.0 0.1180092234 -0.049022803 6.68745e-05 -0.0001483412 0.0001013341 4.28564e-05 -0.7252522572 0.4379647992
275298350.0 0.1170983136 -0.0506872834 -0.0001269205 0.0001044962 5.77337e-05 8.60785e-05 -0.7203840831 0.4457881152
280298320.0 0.1157338922 -0.0526448685 -2.96161e-05 0.0003555577 2.5336e-05 -0.0002427035 -0.7165500135 0.4528954461
285298290.0 0.1151278974 -0.0544909015 -3.36323e-05 8.22589e-05 0.0001082957 -3.13048e-05 -0.7118016798 0.4609363946
290298260.0 0.1139718804 -0.0563967491 -3.16291e-05 5.82294e-05 0.000166427 -4.4726e-06 -0.7066929458 0.4675744617
295298230.0 0.1128046847 -0.0587248673 0.0003632108 0.0002871652 -4.5282e-06 -3.46545e-05 -0.7019441591 0.4750885627
300298200.0 0.112000201 -0.0602523927 0.0001540654 5.79254e-05 -3.5086e-05 7.8395e-06 -0.6964955106 0.4824247815
305298170.0 0.1110587914 -0.0623194589 0.0001201089 0.0002293359 -3.69506e-05 0.0001685612 -0.6921109063 0.4896536227
310298140.0 0.1096758828 -0.0646443378 4.07737e-05 7.07191e-05 0.0001342442 -1.51026e-05 -0.6862418129 0.4966299555
315298110.0 0.1085803012 -0.0662322618 4.57164e-05 0.0001141443 0.0003033905 -0.0002015808 -0.6812809889 0.5039889597
320298080.0 0.1070655728 -0.0681480795 0.0001639305 -6.52713e-05 2.02114e-05 1.16812e-05 -0.6763438043 0.5105887011
325298050.0 0.1053137672 -0.0703971146 0.0002333046 0.0001900557 6.82054e-05 0.0001056154 -0.6701794172 0.5178485401
330298020.0 0.103884809 -0.071542841 -0.0001531712 6.34847e-05 -0.0001511644 6.56178e-05 -0.6651886165 0.5245045099
335297990.0 0.1024012231 -0.0730469386 -7.17119e-05 0.0001737266 0.0001600077 8.6173e-06 -0.6595324966 0.5315343795
340297960.0 0.1008287978 -0.0743277692 9.77774e-05 2.62357e-05 0.0001895796 7.41624e-05 -0.6542430297 0.5385126209
345297930.0 0.0994109001 -0.0759610916 -4.70275e-05 -9.34043e-05 -4.9073e-06 2.28638e-05 -0.6492422854 0.5445057871
350297900.0 0.0979744442 -0.0772278902 0.0002171311 3.41275e-05 8.642e-07 7.59073e-05 -0.643733371 0.5513681084
355297870.0 0.0968277665 -0.0789778659 6.14852e-05 1.59653e-05 5.96543e-05 0.0002263958 -0.637124673 0.5585750567
360297840.0 0.0953787558 -0.08012577 -3.694e-05 0.0001093981 -1.49867e-05 2.31288e-05 -0.6306516951 0.5651153144
365297810.0 0.0938125659 -0.0815035293 -0.0001004085 -0.0001642183 6.34766e-05 0.0001423086 -0.6261985325 0.5701207756
370297780.0 0.0924773622 -0.0830538788 1.1983e-06 -0.0001997091 0.0001040219 8.94456e-05 -0.6197859288 0.5777216071
375297750.0 0.0910118085 -0.0841596814 5.35391e-05 -1.20038e-05 -8.15525e-05 0.000134466 -0.6138197456 0.583978299
380297720.0 0.0898379261 -0.0850861921 0.0001863453 -3.28486e-05 2.03593e-05 0.00014976 -0.607137863 0.590906041
385297690.0 0.0880106836 -0.0867457932 0.000178996 3.13483e-05 0.0001913895 0.0001059338 -0.6017128811 0.5962687906
390297660.0 0.0868157274 -0.0882949064 0.0002092762 3.16511e-05 0.0002381714 0.0001013046 -0.5947660437 0.6018401391
395297630.0 0.0853179301 -0.0891476753 0.0002086864 1.44642e-05 2.33742e-05 0.0002305277 -0.5881698528 0.6079776928
400297600.0 0.083555489 -0.090419059 6.54043e-05 3.42733e-05 -3.87811e-05 -0.0001435669 -0.5826010582 0.6140776103
405297570.0 0.081994919 -0.0918210075 -4.81116e-05 5.60863e-05 3.43578e-05 0.0002077614 -0.5754347632 0.6200606033
410297540.0 0.0810147636 -0.0928514158 0.0002789219 3.50641e-05 -2.46528e-05 3.31043e-05 -0.5690856922 0.6258277752
415297510.0 0.0794851245 -0.094063344 0.0001869051 0.0001217481 0.0001159176 -3.13782e-05 -0.5633776437 0.6316332072
420297480.0 0.0778366232 -0.0952897504 -5.41224e-05 0.0001341843 -6.68407e-05 1.68862e-05 -0.5562403924 0.6378017831
425297450.0 0.0764724172 -0.0963347534 -3.66201e-05 0.0002770715 6.10077e-05 -1.99077e-05 -0.5498614511 0.642581736
430297420.0 0.0748643148 -0.0972989909 2.27642e-05 3.254e-07 8.86547e-05 4.54204e-05 -0.543651778 0.6486054885
435297390.0 0.0733856721 -0.0985415676 1.96318e-05 3.78395e-05 8.21169e-05 -3.31087e-05 -0.5375083587 0.6544225575
440297360.0 0.0718761528 -0.0996034708 0.0002504696 0.0002489809 0.0002695944 -2.44629e-05 -0.5309802843 0.6596411523
445297330.0 0.0703360737 -0.1006670921 5.52723e-05 -6.69638e-05 0.0001208883 0.0001378658 -0.5233945362 0.6647634189
450297300.0 0.0689724045 -0.1017816722 9.86175e-05 3.33498e-05 0.000171077 1.09951e-05 -0.5158951719 0.6694999532
455297270.0 0.0672599006 -0.1025609569 3.96691e-05 4.94715e-05 7.89383e-05 0.0001563626 -0.5094533337 0.6748213816
460297240.0 0.0658692094 -0.1035435576 0.0001926555 2.41941e-05 0.0003435945 -1.66117e-05 -0.5026210547 0.6796127072
465297210.0 0.0643022965 -0.1044130239 0.0002478899 -0.0001079451 0.0001979803 5.55771e-05 -0.4955786689 0.6857204435
470297180.0 0.0626053221 -0.1052477337 0.0003501271 0.0002867328 0.0002662836 -6.8227e-05 -0.4882212178 0.6904814446
475297150.0 0.0609061521 -0.10582143 0.0001341752 4.93402e-05 3.973e-07 7.83115e-05 -0.4811943862 0.6952893979
480297120.0 0.0596204571 -0.1069196523 6.24038e-05 0.0001795195 0.0002476573 -3.7151e-05 -0.4751329571 0.7002118537
485297090.0 0.057883715 -0.1076826135 0.0001199652 0.0002741332 2.30556e-05 -3.1918e-05 -0.4670171799 0.7046695285
490297060.0 0.0569974348 -0.1083659726 0.0003309443 0.0001725189 0.0001625352 -3.60972e-05 -0.4599178755 0.708726153
495297030.0 0.0550237003 -0.1092731325 0.0001401608 -0.0001367679 3.32634e-05 0.0001755116 -0.4523351671 0.7139447347
500297000.0 0.0533666242 -0.110017842 0.0002298942 0.0001851031 7.20041e-05 -0.0001095433 -0.445585365 0.7185783074
505296970.0 0.0522153737 -0.1106485197 1.15247e-05 -0.0001409104 0.0001732191 1.49126e-05 -0.4380289808 0.7227683118
510296940.0 0.0506550596 -0.1110043107 -8.53108e-05 0.000253326 -0.0001046678 0.000170276 -0.4301706667 0.7274851587
515296910.0 0.0486422495 -0.1114520232 0.0002499369 -7.53379e-05 0.0001390198 -9.47365e-05 -0.4228813057 0.7313351373
520296880.0 0.0474132904 -0.112429632 8.02366e-05 -1.8212e-05 3.50159e-05 -0.0001558041 -0.4152778609 0.7358705768
525296850.0 0.0458196254 -0.1132672113 4.44582e-05 3.9058e-05 0.0001699785 0.000153587 -0.4085136638 0.7394921613
530296820.0 0.044113162 -0.1136617868 0.0002914277 0.0001148255 0.0001524101 6.0035e-06 -0.4001734768 0.7431955372
535296790.0 0.0429042928 -0.1139275889 8.8791e-06 6.89806e-05 9.86996e-05 2.00063e-05 -0.3931111548 0.7479259359
540296760.0 0.0412836867 -0.1147907066 5.03611e-05 5.7926e-05 0.0001518599 0.0001307041 -0.3853082142 0.7513380495
545296730.0 0.0393461265 -0.1145849362 -2.07674e-05 -0.000203681 0.0001612978 0.0003091978 -0.3780335529 0.7553923032
550296700.0 0.0378418388 -0.1151501664 0.0001004397 0.0002838642 0.0001476035 0.0001605079 -0.3701404137 0.7592580616
555296670.0 0.0363611314 -0.115486909 8.01729e-05 0.0002208229 0.0001073692 0.0002599232 -0.3630855419 0.7621012401
560296640.0 0.0350608256 -0.1159487057 -8.8879e-06 -2.66835e-05 0.0001445812 -1.21586e-05 -0.3547529513 0.7668431263
565296610.0 0.032991101 -0.116295021 -2.78481e-05 0.0001660797 -0.0001474641 -2.50909e-05 -0.347156882 0.7701112809
570296580.0 0.0313880826 -0.1164588329 0.0003162826 2.27314e-05 0.000110993 -3.99093e-05 -0.3392552485 0.773040537
575296550.0 0.0297036 -0.1169364505 -6.00224e-05 -6.51717e-05 0.0001374387 6.81171e-05 -0.3314933969 0.7764060761
580296520.0 0.0281111991 -0.1170216262 -9.2462e-06 0.0001032242 7.72375e-05 0.0001932464 -0.3236660146 0.7788697451
585296490.0 0.0267530061 -0.1169506926 -0.0001097056 0.0001877688 0.0001345857 5.6482e-05 -0.3159639764 0.7830256717
590296460.0 0.0252821917 -0.1172081939 0.0001938358 0.0001332086 -2.1716e-06 0.000169473 -0.3077861658 0.7856750012
595296430.0 0.0236170098 -0.1174596892 -1.26528e-05 0.0001100852 6.70806e-05 -6.02226e-05 -0.3004079412 0.7891792968
600296400.0 0.0219887125 -0.1176638834 0.0001888602 -0.0001496662 -1.6066e-06 -0.0002193158 -0.2924392384 0.7916252453
605296370.0 0.020121307 -0.1174959272 0.0002118744 4.4057e-05 0.0002661756 7.6201e-06 -0.2840290616 0.7955298955
610296340.0 0.0187734511 -0.1174970171 0.0001547846 -1.39593e-05 -1.98981e-05 1.89886e-05 -0.2765000145 0.798085169
615296310.0 0.0171661792 -0.1177130162 0.0001168237 -0.0001388642 2.75585e-05 2.66397e-05 -0.267709902 0.8006586215
620296280.0 0.0153428533 -0.1172290647 3.01216e-05 -2.13262e-05 3.74152e-05 4.13243e-05 -0.2602206467 0.8035366175
625296250.0 0.0135124552 -0.1176149406 9.05042e-05 4.89221e-05 -4.89616e-05 4.94367e-05 -0.2518566373 0.8053824555
630296220.0 0.0121553767 -0.1173191739 0.0001390792 0.0002054127 0.0001491835 0.0001225429 -0.2440545486 0.8077066791
635296190.0 0.0103313853 -0.1172099403 0.0002222426 -0.0001533188 -3.07948e-05 -0.0001366999 -0.2357980095 0.8100965848
640296160.0 0.0088621551 -0.1174595169 0.0002381479 -8.9152e-05 0.0001043048 7.9152e-05 -0.2275236033 0.812508664
645296130.0 0.0072798351 -0.1170853099 3.13215e-05 0.0001112682 0.0002061331 1.30673e-05 -0.2193064371 0.8146188226
650296100.0 0.0055816609 -0.1166934288 -2.5372e-06 -4.2286e-06 0.0001597331 -8.7343e-05 -0.2109790819 0.8167734173
655296070.0 0.0038042819 -0.1168412286 5.77321e-05 -4.01507e-05 0.0001399748 0.0001954362 -0.2037663843 0.8189664328
660296040.0 0.0021805332 -0.1166080883 2.2833e-06 3.39517e-05 0.0001662359 -1.97684e-05 -0.1947381821 0.8209207736
665296010.0 0.0002970584 -0.116056436 0.0001866687 -6.77922e-05 0.0001927745 -4.17592e-05 -0.1865792066 0.8223683838
670295980.0 -0.0014474056 -0.1159522841 6.10122e-05 7.21777e-05 0.0002513333 8.1113e-06 -0.1787175502 0.8242950953
675295950.0 -0.0029055878 -0.1158619024 -1.96134e-05 5.60567e-05 5.6884e-05 -0.000156691 -0.1699899099 0.8264344886
680295920.0 -0.004738746 -0.1152406462 0.0002076397 0.0002303849 0.0001356478 5.81494e-05 -0.1614193986 0.8277544985
685295890.0 -0.0061999229 -0.1148547697 0.0003096615 0.0002473509 0.0001688333 -1.64788e-05 -0.1538552901 0.8298971134
690295860.0 -0.0079258116 -0.1146157083 0.0001628863 -0.0001370476 -3.84535e-05 -0.0002643843 -0.1453413023 0.8313781385
695295830.0 -0.0098729108 -0.1144425517 6.16231e-05 -0.0001117488 0.0001730099 -0.0001060327 -0.1371488711 0.8333196101
700295800.0 -0.0112408885 -0.1136372957 0.0001100179 -9.1768e-06 8.99221e-05 -5.46094e-05 -0.1287475583 0.8335427577
705295770.0 -0.0132855421 -0.1132896863 0.0002060972 -2.73124e-05 0.0001758774 -2.40009e-05 -0.1208888173 0.8355822199
710295740.0 -0.0146367402 -0.1130637997 0.0001050391 5.22344e-05 0.0001966891 2.37366e-05 -0.1120133331 0.8361882772
715295710.0 -0.0162877782 -0.1124646996 0.0001215426 -8.1389e-06 0.0001170432 -0.0001994331 -0.1038466983 0.8365578249
720295680.0 -0.0177763657 -0.1120989576 0.0003118754 7.2456e-05 0.0001525023 -5.26325e-05 -0.0950541931 0.8378099131
725295650.0 -0.0195887297 -0.1115707743 0.0001167819 -9.93074e-05 0.0001625509 -7.15079e-05 -0.0876201115 0.8396192795
730295620.0 -0.0216338386 -0.1112273166 5.30872e-05 9.74312e-05 9.14584e-05 -8.80247e-05 -0.0793736783 0.8403120897
735295590.0 -0.0231000296 -0.1102951825 0.0002038834 1.7443e-05 8.64568e-05 0.000114155 -0.0699029721 0.8400899291
740295560.0 -0.0251490242 -0.1101559126 0.0001376354 -2.66798e-05 0.0003079983 3.39221e-05 -0.0617162603 0.8417778668
745295530.0 -0.0264337073 -0.1095743682 0.0002071759 -3.44423e-05 0.0002026826 4.48663e-05 -0.0537492117 0.8418401927
750295500.0 -0.0282654563 -0.108639674 0.0003344652 3.11786e-05 0.0002270271 -4.23908e-05 -0.0449906063 0.8425400905
755295470.0 -0.0300464477 -0.1079121865 4.96408e-05 1.56609e-05 -3.163e-07 -6.9414e-05 -0.0371974289 0.8432162354
760295440.0 -0.031467684 -0.1073660946 0.0001249156 -0.0001084265 9.5282e-05 3.6738e-05 -0.0281681734 0.8431783274
765295410.0 -0.0330261849 -0.1068326303 0.0001144447 -0.0001559784 -6.19906e-05 0.0001059006 -0.0201835932 0.8435721106
770295380.0 -0.0348349555 -0.1061336055 0.0002388192 -0.000148395 0.0001809261 0.0001014397 -0.0117339493 0.8433828007
775295350.0 -0.0365453146 -0.1053695764 0.0002163372 9.52614e-05 0.0001220854 -5.50637e-05 -0.003628086 0.8432142158
780295320.0 -0.0378860461 -0.1047173186 0.0001063783 -0.0002383105 0.000234765 2.98668e-05 0.0047613561 0.8436222902
785295290.0 -0.0396722189 -0.1040202556 0.0002708665 -5.30946e-05 0.0003098939 6.0644e-06 0.0131351983 0.8440225842
790295260.0 -0.0410933009 -0.1037038431 0.0001956729 -0.0002673642 5.4515e-06 -5.87865e-05 0.0213988594 0.8436930904
795295230.0 -0.043029836 -0.1030940154 8.56818e-05 -4.32411e-05 0.0002137035 -1.17718e-05 0.0295673497 0.8427305612
800295200.0 -0.044722345 -0.1019915521 0.0003035371 -0.0001620816 0.0003076189 -0.0001389149 0.0379690028 0.8424931859
805295170.0 -0.0462112845 -0.1012665733 0.0002484483 4.30611e-05 0.0002536028 7.78527e-05 0.0471662705 0.8422957796
810295140.0 -0.0474877459 -0.1003815899 4.34603e-05 0.0001576496 0.000210177 -9.13336e-05 0.0555280966 0.8417193907
815295110.0 -0.049491423 -0.099651575 0.0001038644 -7.10345e-05 9.27315e-05 0.0001150879 0.0631477464 0.8412131065
820295080.0 -0.0508215003 -0.098843186 9.04922e-05 -2.97798e-05 2.99484e-05 -0.0001920448 0.0710293047 0.8406564137
825295050.0 -0.0526731406 -0.0982716733 5.68616e-05 -0.0002383451 0.0001381912 -0.000101617 0.079782596 0.8399181157
830295020.0 -0.053923115 -0.0971788762 0.0001816426 -0.0001198028 -1.954e-06 3.2237e-05 0.0877187601 0.8380821771
835294990.0 -0.0555332083 -0.0965124743 0.0001266852 -0.0002278906 -6.95648e-05 -7.46531e-05 0.0962932115 0.8382603036
840294960.0 -0.0568815105 -0.0956901553 0.0003116704 -2.6083e-05 -3.89529e-05 -6.91659e-05 0.1047801382 0.836920645
845294930.0 -0.058484142 -0.0944318805 9.05462e-05 -0.000144514 -0.0001038012 -9.194e-07 0.1133400755 0.8358117885
850294900.0 -0.0595445283 -0.094095682 3.03573e-05 6.01649e-05 -0.0001471882 1.37424e-05 0.1209512961 0.8348209642
