!Created with skrf (http://scikit-rf.org).
# Hz S RI R 50.0 
!freq ReS11 ImS11 ReS21 ImS21 ReS12 ImS12 ReS22 ImS22
300000.0 -0.779571519 -0.0893394569 0.0003724141 -0.0007454791 -0.0006644024 0.001402269 -0.7692889354 -0.13184488
5299970.0 -0.7851008162 -0.0053672786 9.02932e-05 -7.44397e-05 8.3419e-05 -0.0001183495 -0.7844482677 -0.0071518326
10299940.0 -0.7876968132 -0.003853363 -0.0002737926 8.37232e-05 -3.59532e-05 0.0001167609 -0.7873685876 -0.0035517445
15299910.0 -0.7930748868 -0.0020743169 -6.475e-05 7.72563e-05 3.2022e-05 -1.54943e-05 -0.7933234823 -0.0013820695
20299880.0 -0.8000354774 0.0019977234 2.56163e-05 7.78146e-05 4.69582e-05 -0.0001161149 -0.7998031004 0.0024081166
25299850.0 -0.8061199266 0.0078340821 -0.0001586799 1.98252e-05 6.59745e-05 0.0001208212 -0.806016052 0.0080683856
30299820.0 -0.8125692016 0.0153727087 2.48095e-05 9.3211e-06 7.9528e-05 0.0002413861 -0.8119465074 0.0163335908
35299790.0 -0.8172292531 0.0250278688 -0.000177548 -5.52332e-05 9.05689e-05 2.78732e-05 -0.8172008248 0.02458033
40299760.0 -0.8212655797 0.0339897101 -8.65467e-05 -3.55372e-05 -0.0001684311 -0.0003177816 -0.8211913525 0.0346590572
45299730.0 -0.8246093927 0.0430607291 -7.40022e-05 5.07535e-05 8.62992e-05 -8.05305e-05 -0.8248252804 0.0440430596
50299700.0 -0.8272393398 0.0529536893 6.84011e-05 -0.0002189834 0.0001400339 3.89068e-05 -0.8272921249 0.0540095251
55299670.0 -0.8289880284 0.062919338 -7.96103e-05 5.36628e-05 -0.000114709 -7.78852e-05 -0.8293691972 0.0645408742
60299640.0 -0.8304667281 0.0738162026 8.23488e-05 -8.8251e-05 -0.0002175009 -1.95174e-05 -0.8306186904 0.0746411184
65299610.0 -0.8313585286 0.0836871517 -0.0004000621 -0.0001010471 -0.0001573752 -0.000125468 -0.8318725701 0.0843821502
70299580.0 -0.8317227131 0.0936480795 -0.0002010848 -0.0001329586 -4.76073e-05 0.0001037963 -0.8314156019 0.0944928679
75299550.0 -0.831968877 0.1036444788 0.0001082596 0.000389399 -3.58596e-05 9.01654e-05 -0.8325947454 0.1041366962
80299520.0 -0.8318618891 0.113697823 2.82915e-05 4.50879e-05 1.84064e-05 -3.8278e-05 -0.8321120299 0.1136002838
85299490.0 -0.8310767206 0.1225158141 1.15333e-05 -3.4437e-06 -0.0001088867 -7.02549e-05 -0.8318333581 0.1237454296
90299460.0 -0.8301678325 0.1322299742 -0.0001915487 -1.4911e-06 9.0129e-05 -7.452e-06 -0.8309094355 0.1331176078
95299430.0 -0.8291447881 0.1417141586 -3.54326e-05 -0.0001756196 0.0001619122 5.88116e-05 -0.8290549146 0.1428438061
100299400.0 -0.8280229161 0.150769226 2.23693e-05 1.40074e-05 2.2216e-06 8.32836e-05 -0.8285331565 0.1523424716
105299370.0 -0.8273898195 0.160553324 6.48685e-05 -0.0002177467 5.1007e-05 -2.02969e-05 -0.8268734413 0.1611799325
110299340.0 -0.8256206543 0.1695514597 -7.06136e-05 -5.17506e-05 -6.42841e-05 4.56179e-05 -0.8252918758 0.1709558533
115299310.0 -0.8237459041 0.178769148 1.55159e-05 5.71397e-05 -3.46714e-05 -0.0001166624 -0.8240474132 0.1798814882
120299280.0 -0.8223360655 0.1869632417 0.000100846 1.11453e-05 -0.0002128337 -0.0001558674 -0.8226448408 0.1893957039
125299250.0 -0.8201934907 0.1964329148 -0.0001590698 -2.00381e-05 0.0001281857 3.1412e-06 -0.8207922616 0.1982580943
130299220.0 -0.8189147848 0.2055355563 0.0002741947 -7.53694e-05 -1.8507e-06 0.0001101288 -0.818989076 0.2068361738
135299190.0 -0.816715959 0.214355891 -0.0001005346 -8.43381e-05 -4.79824e-05 -5.00545e-05 -0.8166413847 0.2159296213
140299160.0 -0.8146068772 0.2232669978 9.88712e-05 0.0001214464 -7.37452e-05 -0.0001284671 -0.8142360288 0.2245768881
145299130.0 -0.8125732562 0.2324019299 0.000221901 -0.0001918994 -0.0001055167 -0.0001252631 -0.8117946824 0.2342095251
150299100.0 -0.810176081 0.2412963063 0.0001309618 0.0002334034 1.38866e-05 0.0002761573 -0.8102783179 0.242991271
155299070.0 -0.8078729061 0.2494343268 2.01905e-05 -7.99635e-05 0.000215208 2.96006e-05 -0.807199256 0.2516299472
160299040.0 -0.8055613966 0.2581796896 -7.16555e-05 0.0001058404 9.82906e-05 4.46491e-05 -0.8049713414 0.2603744269
165299010.0 -0.8029280776 0.267007498 1.2748e-05 8.79792e-05 -7.55269e-05 -4.191e-06 -0.8024761802 0.2692964907
170298980.0 -0.7997416482 0.275349593 -0.0002176031 -0.0001512497 -0.0002427531 -5.86736e-05 -0.7992882567 0.2782167308
175298950.0 -0.7971936288 0.2841928855 2.58182e-05 -0.0001177134 1.30911e-05 -0.0001306407 -0.7968970837 0.2866667048
180298920.0 -0.7943381994 0.2926081636 0.000107868 -0.0001793402 1.72512e-05 -0.0001212818 -0.7935621261 0.2947772182
185298890.0 -0.7911788309 0.300480445 -5.99964e-05 9.47999e-05 -1.2218e-05 7.82084e-05 -0.7901111914 0.3040894986
190298860.0 -0.7885103324 0.3097367938 4.49984e-05 0.0001498725 -1.07308e-05 -0.000146034 -0.7880515444 0.3124670043
195298830.0 -0.7854345154 0.3184080582 -8.71183e-05 9.3507e-05 -0.0001165216 -3.5274e-05 -0.7844515456 0.3209232576
200298800.0 -0.7815405525 0.3261082514 1.57453e-05 2.17695e-05 -7.51533e-05 -0.0002101442 -0.7821079408 0.3293339341
205298770.0 -0.7786070947 0.3340589883 0.0001710391 -0.0002731172 1.37704e-05 3.41951e-05 -0.7774394055 0.3375697169
210298740.0 -0.7748261911 0.3420021752 -0.0001903797 0.0001426621 0.0002223063 -0.0001638357 -0.7740169212 0.3458794003
215298710.0 -0.7717678332 0.3512799926 0.0001213595 -3.21485e-05 -0.0001093603 -0.0002102643 -0.7709156537 0.3538504855
220298680.0 -0.7671899528 0.3586339362 -8.44294e-05 9.96569e-05 6.38409e-05 6.06509e-05 -0.767387088 0.3617913593
225298650.0 -0.7641142924 0.3665402036 -0.0001078967 -0.0001804805 0.0001248349 -6.73945e-05 -0.7640272882 0.3704117727
230298620.0 -0.7599845358 0.3740566888 6.78182e-05 -0.0001119193 -9.0802e-06 -7.73485e-05 -0.7599617334 0.3783804545
235298590.0 -0.7564313286 0.3834605631 0.0001629009 0.0001131143 7.71687e-05 -8.42573e-05 -0.7552623066 0.3869073089
240298560.0 -0.7523891228 0.3912450146 5.92344e-05 1.75525e-05 -6.88804e-05 2.39507e-05 -0.7517416544 0.3951335386
245298530.0 -0.7487615765 0.3987084943 0.0001753488 7.17168e-05 6.09515e-05 -0.0002144356 -0.7480811327 0.4027250397
250298500.0 -0.7439587724 0.4068282853 -6.73673e-05 -3.93528e-05 -0.0001415142 6.56789e-05 -0.7433874703 0.4098291819
255298470.0 -0.7395870411 0.4141071844 5.85894e-05 0.0001698945 -0.0001823645 -9.90436e-05 -0.7387834126 0.4179930269
260298440.0 -0.7356482958 0.4213861373 -7.99185e-05 6.62821e-05 -1.95671e-05 -1.27293e-05 -0.7350426585 0.4259030202
265298410.0 -0.7311743582 0.4296358311 -4.29542e-05 0.0001792411 0.0002011608 5.33318e-05 -0.7301227524 0.4334520103
270298380.0 -0.727159932 0.4371147278 -0.0001832517 0.0001835159 1.9844e-06 6.34071e-05 -0.7256531368 0.4410891723
275298350.0 -0.721915135 0.4450746969 -0.0001759444 -0.0001797581 0.0001091972 -1.23294e-05 -0.7203167176 0.448705739
280298320.0 -0.7169942246 0.4524407326 -0.0001649163 -0.000288154 -4.4537e-05 -0.0001391825 -0.7159836436 0.455828163
285298290.0 -0.7129965419 0.4598974638 -2.826e-07 2.27171e-05 0.0001656276 0.0001387407 -0.7108302122 0.4637945005
290298260.0 -0.7079608699 0.4675624614 0.0001402496 -0.0001198256 -2.4163e-05 -0.0001164414 -0.705936204 0.4709513308
295298230.0 -0.7023768354 0.4743662621 -9.71392e-05 7.747e-07 -1.96607e-05 -0.0001370668 -0.7010585487 0.4783571935
300298200.0 -0.6977292093 0.4813003936 -1.5643e-06 7.9263e-05 -0.0001251375 -4.61251e-05 -0.6958302731 0.485469261
305298170.0 -0.6925163359 0.4884183131 -0.0002095776 0.0001377488 2.20903e-05 -0.0001746516 -0.6901807228 0.4932990838
310298140.0 -0.687426571 0.4958848707 4.8946e-06 0.0001119712 3.97888e-05 -9.99164e-05 -0.6858592475 0.5000841574
315298110.0 -0.6830165641 0.5029948074 9.39309e-05 -0.0001646066 5.89544e-05 -9.5131e-05 -0.6796519966 0.506708405
320298080.0 -0.6773838073 0.5103932231 -0.0001420933 1.44914e-05 1.64699e-05 -0.0001537235 -0.6748004885 0.5142103277
325298050.0 -0.6714362811 0.5172232238 0.0001231652 -2.38542e-05 0.0001032506 -0.0001416618 -0.6690191877 0.5210500385
330298020.0 -0.6659844802 0.5237054835 -1.39122e-05 3.25084e-05 -7.63845e-05 -1.26527e-05 -0.6636830414 0.5283592073
335297990.0 -0.6606393245 0.5305541915 3.3628e-06 0.0001744127 -0.0001033447 0.000219231 -0.6584257852 0.5355684552
340297960.0 -0.655805715 0.5377213138 -0.0001001163 0.0002200003 4.2716e-05 0.0001382254 -0.6524535523 0.5429273016
345297930.0 -0.6497342655 0.5442929463 -7.08598e-05 -0.0001819615 9.4911e-06 -1.55372e-05 -0.6470784524 0.548452074
350297900.0 -0.6441518002 0.5512574927 -0.0001275327 -8.30062e-05 3.1586e-06 -0.0001030006 -0.6414185371 0.5555249333
355297870.0 -0.6382690876 0.5581223232 -0.0002025564 -0.0001699063 -6.50283e-05 -5.37808e-05 -0.6355560982 0.5620973077
360297840.0 -0.6325286788 0.5637331051 -7.6746e-05 -0.000174926 0.0001545887 -2.7717e-06 -0.6297686134 0.5692032706
365297810.0 -0.6268354163 0.5707822134 0.0002689571 1.50884e-05 -5.72832e-05 -7.25301e-05 -0.6231901078 0.5750405828
370297780.0 -0.6207632366 0.5770529396 -8.54203e-05 -2.63951e-05 1.55773e-05 -0.0002087281 -0.6178676673 0.5820881622
375297750.0 -0.6143365831 0.5835509802 2.846e-07 0.000127151 5.27692e-05 7.8618e-06 -0.6116686204 0.5877398679
380297720.0 -0.6089455383 0.5890421839 -0.0001166747 1.94971e-05 -4.3909e-05 -7.40034e-05 -0.605746183 0.5940339534
385297690.0 -0.6032739786 0.5950025902 -8.7179e-05 0.0001013132 7.95347e-05 -4.55926e-05 -0.5990029497 0.6005477683
390297660.0 -0.5962508066 0.6012575591 9.76713e-05 0.0001343201 -8.6934e-05 -7.63052e-05 -0.5932447556 0.6065654002
395297630.0 -0.5907336573 0.6083522093 -6.63444e-05 2.3445e-05 -0.0001373322 -5.34844e-05 -0.58655585 0.6132835494
400297600.0 -0.5842209376 0.6139141919 9.70733e-05 -6.82632e-05 -0.0002024643 -1.05696e-05 -0.5804196963 0.6192238157
405297570.0 -0.5782411163 0.6194854877 -0.0001980851 8.9829e-06 -0.0001156716 -6.72258e-05 -0.5743471451 0.6247648506
410297540.0 -0.5707120769 0.6254778703 0.0001065156 -3.54368e-05 0.0001500691 -1.15006e-05 -0.5674225952 0.6305764272
415297510.0 -0.5642785535 0.6310388506 3.68937e-05 -6.56404e-05 6.77786e-05 0.000175125 -0.5611877132 0.6364482831
420297480.0 -0.5592279792 0.6370757655 -0.0001694451 -0.0002206268 -9.02795e-05 0.0001074304 -0.5541355209 0.6424998024
425297450.0 -0.5514425736 0.6426393712 -2.45431e-05 -0.0001594959 -8.6473e-05 -6.45768e-05 -0.5479008121 0.6481164305
430297420.0 -0.5453149146 0.6483567428 2.5976e-06 -7.25869e-05 -1.89744e-05 0.0001220679 -0.5413614098 0.6531249388
435297390.0 -0.5389667738 0.6532262664 -3.17565e-05 -0.0001196038 9.95964e-05 7.6277e-06 -0.5337387984 0.6587882614
440297360.0 -0.531873383 0.6589564738 8.28996e-05 -0.0001407691 2.69398e-05 7.8135e-06 -0.5272185761 0.6639852066
445297330.0 -0.5247218788 0.6644236893 -3.03542e-05 2.86812e-05 -0.0001022378 -0.0001303564 -0.5203285514 0.6683333408
450297300.0 -0.5180723497 0.6691433925 4.05754e-05 1.8096e-06 5.16146e-05 -0.0001576533 -0.5130477764 0.6742314455
455297270.0 -0.5112827599 0.6748288275 0.0002510644 -0.0001788562 -0.0001340202 0.0001796068 -0.5062194351 0.6786783114
460297240.0 -0.5049217034 0.6796626759 5.1242e-05 0.0001703717 -8.69506e-05 -5.98965e-05 -0.4997629459 0.6842071484
465297210.0 -0.4973628673 0.6850907099 0.0001281622 0.0001087368 -9.0298e-06 -9.61898e-05 -0.4922017428 0.6887780098
470297180.0 -0.4904675209 0.6897574741 2.78303e-05 4.98032e-05 0.0001259361 -0.0001105351 -0.4846813145 0.694449193
475297150.0 -0.4836849428 0.6945085106 0.0001067328 0.0001938937 0.0001616004 0.0001782881 -0.477400349 0.6984704602
480297120.0 -0.4761796659 0.6989835827 -8.93912e-05 8.26862e-05 -9.45316e-05 0.0001545563 -0.4695160187 0.7040296573
485297090.0 -0.46929426 0.704094625 0.0002046689 -0.0002967412 -0.0001313964 -7.32144e-05 -0.4629361165 0.7081642599
490297060.0 -0.4620932281 0.7084636908 0.0001305776 0.0002045856 -1.10848e-05 0.0002251772 -0.4558702423 0.7126101279
495297030.0 -0.4550315228 0.7138743241 7.42626e-05 0.0001189532 -4.25444e-05 -5.64032e-05 -0.4489528112 0.717875871
500297000.0 -0.4473512895 0.7181446861 1.90399e-05 -0.0001681184 -8.61046e-05 -2.11238e-05 -0.4410290261 0.7226188968
505296970.0 -0.4396719854 0.7226564045 -0.0002018453 5.83057e-05 9.72218e-05 -2.7139e-05 -0.4336683705 0.7265493736
510296940.0 -0.4326160171 0.7268222988 1.24298e-05 -0.0001342715 -3.80326e-05 -0.0003998073 -0.4257559593 0.7310205447
515296910.0 -0.4247590803 0.7304011068 0.0002344149 0.0001544549 7.32e-07 7.31253e-05 -0.4183143246 0.7351062053
520296880.0 -0.4183204877 0.7352059752 0.0002897229 3.5136e-05 0.0001099394 0.0001946802 -0.4110060358 0.7390467791
525296850.0 -0.410003772 0.7388896598 6.70975e-05 0.0001799255 -0.0001075997 0.0001383068 -0.403865442 0.7439298284
530296820.0 -0.4029701038 0.7436951526 -8.27389e-05 -7.4877e-06 -9.4216e-06 -0.0001216767 -0.3960658338 0.7475393988
535296790.0 -0.3959733497 0.7470931689 -0.000165058 -0.0001378835 6.28249e-05 -2.85791e-05 -0.3890662551 0.7514361556
540296760.0 -0.3878115277 0.7510134359 -0.00033104 -0.0001146618 -6.66457e-05 0.0001395253 -0.3810594372 0.7560725985
545296730.0 -0.3806356664 0.7556903011 -1.1537e-05 -0.0001512432 5.52388e-05 0.0001265999 -0.3734484803 0.7594020161
550296700.0 -0.3728066802 0.7590146609 6.26894e-05 2.42776e-05 -0.0002400076 -9.93459e-05 -0.3654836899 0.7632356519
555296670.0 -0.3643309484 0.7616004841 -6.66864e-05 -8.9623e-06 6.90348e-05 0.0002102022 -0.3579199331 0.7670755659
560296640.0 -0.3573538407 0.7665658951 -0.0001730414 -1.30768e-05 4.71485e-05 0.0001500186 -0.3502588766 0.7714315435
565296610.0 -0.3494230136 0.7697726585 -0.000207341 0.0001402224 0.0002782776 4.551e-05 -0.342118567 0.7734770298
570296580.0 -0.3425920194 0.7724354548 -8.84271e-05 -0.0001531568 -5.09261e-05 0.0002182755 -0.3348772398 0.7780948512
575296550.0 -0.3343293546 0.7766769283 0.0001986077 -3.90189e-05 -3.076e-06 -9.43619e-05 -0.3270517103 0.7808254765
580296520.0 -0.326221786 0.7795298745 3.85633e-05 0.0001656782 5.03349e-05 6.19915e-05 -0.3180671391 0.7836623544
585296490.0 -0.3186516664 0.7827409587 9.79316e-05 -1.30026e-05 -0.0001318012 5.7512e-06 -0.3107136741 0.7875888044
590296460.0 -0.3104807325 0.7860101649 -0.0001020636 0.0002099312 0.0001052713 2.41298e-05 -0.3030659351 0.7902391431
595296430.0 -0.3027664035 0.7887673551 -0.00019445 0.0001009503 -0.0001358914 -5.70343e-05 -0.2944190867 0.7925755047
600296400.0 -0.2949955117 0.7917557664 1.9486e-05 8.1732e-05 -0.0001626572 0.0001912358 -0.2867322479 0.7955557843
605296370.0 -0.2875354413 0.794687551 -0.0001240676 1.86576e-05 -4.02273e-05 -7.04623e-05 -0.2781083687 0.7988025589
610296340.0 -0.2787090553 0.7977635295 -8.09925e-05 0.0001415673 -8.50326e-05 0.0001358199 -0.2702728531 0.801115206
615296310.0 -0.2703036028 0.800246563 -9.88143e-05 -8.86807e-05 0.000114605 0.0002239273 -0.2617913869 0.8035808604
620296280.0 -0.2627185807 0.8019090534 6.74715e-05 -3.01706e-05 -0.0001226982 -5.24484e-05 -0.2545360969 0.806302107
625296250.0 -0.2548182559 0.8049598187 -0.0001282139 -0.0001539961 -0.0001030707 -1.3087e-06 -0.2451069516 0.8080550669
630296220.0 -0.2460637108 0.8077640203 0.0002190674 -0.0002748693 5.19381e-05 -6.48485e-05 -0.2376251528 0.8111207258
635296190.0 -0.2384064365 0.8101578161 3.728e-05 -0.0002620258 7.55418e-05 7.5846e-05 -0.229484707 0.8129142732
640296160.0 -0.2310631693 0.8118440899 0.0001247279 3.48737e-05 -3.38767e-05 5.85766e-05 -0.2206336404 0.8155114306
645296130.0 -0.2224673308 0.815363968 -0.0002107958 -0.0001849844 3.32154e-05 -6.00932e-05 -0.2131431568 0.8174382207
650296100.0 -0.2140566299 0.8165410522 2.36944e-05 -6.33932e-05 0.0001596049 -0.000176909 -0.2043064706 0.818870086
655296070.0 -0.2063752484 0.8189044985 8.40585e-05 -0.000150368 0.0001180056 -2.66829e-05 -0.1961396231 0.8213277512
660296040.0 -0.1978679644 0.8203519364 5.08817e-05 0.0001228914 1.0894e-06 2.76604e-05 -0.1874690475 0.8232040662
665296010.0 -0.1893375516 0.822023505 7.24864e-05 -0.0001177862 -4.63076e-05 -0.0001333725 -0.179249748 0.8255951504
670295980.0 -0.1818413235 0.8240784304 8.04094e-05 0.0001224804 4.25802e-05 1.50466e-05 -0.1714222199 0.8268260346
675295950.0 -0.1730569862 0.8262577883 0.0001236291 -3.73296e-05 3.4847e-06 2.13265e-05 -0.1632755743 0.8291396867
680295920.0 -0.1652877201 0.828226968 0.0001069192 2.17552e-05 0.0001083888 5.40252e-05 -0.1546870604 0.8312289601
685295890.0 -0.1563062062 0.830266039 8.78115e-05 0.0001891351 9.4345e-06 2.71908e-05 -0.1458006396 0.8313247463
690295860.0 -0.1484426296 0.8310648743 0.0003209619 -0.0002371941 -3.8234e-05 -2.24321e-05 -0.1380876247 0.83312547
695295830.0 -0.1406801945 0.8319867247 9.5617e-06 -0.0001481225 -0.0002062867 0.000206834 -0.12893768 0.8350909464
700295800.0 -0.1314659774 0.8335751954 0.0001894605 9.36287e-05 6.86102e-05 0.0001048346 -0.12166255 0.836041535
705295770.0 -0.1236733518 0.8355317263 -0.0001775982 0.0001389793 0.0001005054 -0.0001953257 -0.1132024092 0.8381747926
710295740.0 -0.1156534968 0.8364583351 -6.46423e-05 0.0002142584 5.43877e-05 0.0001192036 -0.10492128 0.8391119169
715295710.0 -0.1070162919 0.8373139812 -0.0001075048 -5.20949e-05 -2.24085e-05 -0.0001310577 -0.0960764402 0.8395117292
720295680.0 -0.0987834113 0.8387901757 -9.45658e-05 -1.90078e-05 0.0001156988 1.45386e-05 -0.0878159457 0.8407882262
725295650.0 -0.0904743199 0.8392448728 -8.66167e-05 -4.8865e-06 -5.08596e-05 8.10055e-05 -0.0800732074 0.8420706324
730295620.0 -0.0812799678 0.8401858017 0.0001369899 -9.7573e-06 -0.0001337684 -0.0001305044 -0.0718185608 0.8421098259
735295590.0 -0.0741358743 0.841501704 7.28968e-05 -8.77836e-05 7.37141e-05 -8.61813e-05 -0.0628613212 0.8428521728
740295560.0 -0.0655082603 0.8416933844 8.40287e-05 1.3781e-06 5.99732e-05 0.0002642513 -0.0541550466 0.8438435317
745295530.0 -0.057476506 0.8428651905 0.0001165854 -8.45794e-05 -0.0001205594 -9.05091e-05 -0.0458611047 0.8435494103
750295500.0 -0.0485085791 0.8425819074 0.0001791821 5.3608e-06 -0.0001308138 0.0002312148 -0.0374080678 0.844368991
755295470.0 -0.0404258754 0.8429391933 0.0001717199 9.3779e-05 4.62058e-05 -0.0001184683 -0.0289803778 0.8439638324
760295440.0 -0.0325630933 0.8431168794 -0.0001681313 -8.14739e-05 -0.0001418562 -0.0001547534 -0.0207355453 0.8442413428
765295410.0 -0.0241605871 0.8439879872 -0.0001270667 4.69091e-05 -9.05662e-05 -0.0001226285 -0.0126166626 0.8451258373
770295380.0 -0.0156550496 0.8444330837 -3.92159e-05 -5.56989e-05 0.0001500607 -0.0001796925 -0.0041694456 0.8445635136
775295350.0 -0.0071542389 0.8439757985 -8.85168e-05 -7.76225e-05 7.61897e-05 -0.0001977452 0.0037522288 0.8441613574
780295320.0 0.0010780591 0.8441245152 6.10219e-05 4.5182e-05 -5.40328e-05 3.70053e-05 0.0125624568 0.844270306
785295290.0 0.0094713049 0.8434611917 0.000148801 2.70692e-05 0.0002038468 -7.69382e-05 0.0212662907 0.8436210038
790295260.0 0.0182984069 0.8436221138 -2.10648e-05 -4.137e-06 0.0001031189 4.80648e-05 0.0302013058 0.8442573148
795295230.0 0.0256676064 0.8434893443 5.76706e-05 -5.41904e-05 -0.000111255 6.37415e-05 0.0385857183 0.8425843007
800295200.0 0.0345397605 0.8431082782 7.40657e-05 0.0001795404 -0.0002023154 8.5637e-06 0.0473775179 0.84274776
805295170.0 0.0431702841 0.8430351347 2.90549e-05 -0.0001184655 0.0002303504 0.0001676028 0.0550957864 0.8424679281
810295140.0 0.0512892245 0.8424215046 -0.0001605202 0.0002712126 -7.08451e-05 0.0002523824 0.0641652428 0.8415343631
815295110.0 0.0595230946 0.8416854473 5.11207e-05 -1.00894e-05 0.0001343817 0.0001437052 0.0722211417 0.8407320409
820295080.0 0.0679899033 0.8410172 0.000127985 0.0001107646 1.44674e-05 9.14428e-05 0.0805095951 0.8405259359
825295050.0 0.0767030735 0.8399475443 -0.0002127611 -0.0001373786 -3.2181e-05 1.91628e-05 0.088724447 0.8398764286
830295020.0 0.0844552152 0.8397790063 2.8583e-06 -6.67993e-05 -7.41281e-05 1.11178e-05 0.0978894547 0.8385934487
835294990.0 0.0922483407 0.8391047077 0.0002298132 -1.72499e-05 2.77842e-05 0.0002779767 0.1051679042 0.83742104
840294960.0 0.1007881984 0.8378697166 8.0346e-06 7.19102e-05 9.48568e-05 0.0001631283 0.1138012083 0.8359206482
845294930.0 0.1090747732 0.8365743507 -3.64795e-05 0.0001208367 1.48534e-05 3.86306e-05 0.1217721698 0.8349494297
850294900.0 0.1169246977 0.8358992416 -0.0001644553 -1.9681e-06 2.88253e-05 -5.10272e-05 0.129847555 0.8336680838
