!Created with skrf (http://scikit-rf.org).
# Hz S RI R 50.0 
!freq ReS11 ImS11 ReS21 ImS21 ReS12 ImS12 ReS22 ImS22
300000.0 0.8588374931 -0.0028350609 -0.0014146429 -0.0007012459 -0.0002152255 0.0003740054 -0.7768493336 -0.1422356675
5299970.0 0.8588074198 -0.0103531842 -4.41879e-05 -2.01373e-05 -0.0001783408 2.2595e-06 -0.7846945217 -0.0072568472
10299940.0 0.8574424547 -0.0185131093 -0.0003808035 4.30231e-05 -3.93612e-05 8.24584e-05 -0.787762846 -0.003322091
15299910.0 0.8568185078 -0.0268129368 -1.3852e-05 0.0001635631 0.0001045346 -0.0001396214 -0.7930806404 -0.0012459643
20299880.0 0.8559733202 -0.0352674302 4.81136e-05 -0.0001384583 7.44232e-05 2.0228e-06 -0.7999999848 0.0023382557
25299850.0 0.8556049766 -0.0438523187 0.0001602853 -5.79925e-05 -0.0002426662 -0.0001033445 -0.8063112429 0.0081306908
30299820.0 0.8548337893 -0.0522958198 -1.78245e-05 -6.24971e-05 6.33808e-05 -8.943e-06 -0.8119522755 0.0163741004
35299790.0 0.8544198836 -0.0603176407 -5.58094e-05 2.14609e-05 -0.0001081417 -3.04265e-05 -0.8169474771 0.0251058243
40299760.0 0.8530574869 -0.068617894 -9.83915e-05 0.0001265635 0.0001429497 -4.61165e-05 -0.8211904153 0.0344970859
45299730.0 0.8529286643 -0.0769001625 6.7485e-05 9.83085e-05 -0.0001660062 0.0001386493 -0.8253369988 0.0438601887
50299700.0 0.8525594216 -0.0850985613 -0.0001122394 0.0001757908 0.0001856883 -2.14473e-05 -0.8273809924 0.0538801795
55299670.0 0.8506583825 -0.0937476409 -9.7499e-06 3.81344e-05 3.92759e-05 1.36222e-05 -0.8299768274 0.0641895072
60299640.0 0.8496973414 -0.1009412082 0.0001391701 -0.0001099161 7.02311e-05 -7.39733e-05 -0.8303011471 0.0741487351
65299610.0 0.8486281528 -0.1098983028 0.000138351 -0.0001438463 5.86284e-05 -8.19876e-05 -0.832087908 0.0842573543
70299580.0 0.8478016854 -0.1183005157 -0.0002851216 -0.0002052866 -2.0104e-06 6.14228e-05 -0.8316984883 0.0944090384
75299550.0 0.8462040911 -0.1265932662 -4.87224e-05 0.0001130725 -0.0001538261 -3.76182e-05 -0.8322886448 0.1040242029
80299520.0 0.8445086057 -0.1349913017 3.94023e-05 -9.49444e-05 0.0001203198 -0.0001064125 -0.8318807017 0.1135866443
85299490.0 0.8434183308 -0.1431635425 0.0001416396 3.90862e-05 -0.0002647634 -2.69533e-05 -0.8319841015 0.1237501129
90299460.0 0.8420328349 -0.1508368743 6.56861e-05 -0.0001240588 4.33595e-05 1.03605e-05 -0.830875646 0.1329362976
95299430.0 0.8401932582 -0.1593804548 -9.4098e-05 -0.0001238928 6.3169e-05 6.3519e-05 -0.8288823423 0.1428073087
100299400.0 0.8387546916 -0.1671573857 -0.0001185166 6.28126e-05 -3.848e-05 0.0001248878 -0.828394408 0.152123589
105299370.0 0.8367971124 -0.1753644663 8.79829e-05 -0.0001130226 4.1586e-05 -0.0001066343 -0.8270194804 0.1607104857
110299340.0 0.8351165093 -0.18413461 -0.0001959997 -6.6024e-05 9.22869e-05 -7.59005e-05 -0.8252583678 0.1707459928
115299310.0 0.8332577876 -0.1921730513 0.0002089447 -0.0002675865 0.0001389056 -8.919e-05 -0.8241816454 0.1797467375
120299280.0 0.8315799841 -0.1996674971 -6.35922e-05 0.0002782695 7.79805e-05 0.0002121327 -0.8226718503 0.1887294106
125299250.0 0.8292480407 -0.2082554437 0.0002346813 0.0001263939 7.58869e-05 0.0002145721 -0.8211373647 0.198101605
130299220.0 0.8275547082 -0.21692772 -5.65204e-05 7.17319e-05 0.0003156317 0.0001983663 -0.8188744281 0.2069063615
135299190.0 0.8256366689 -0.2242625733 -0.0001593727 -0.0002741026 -0.000137037 -5.07882e-05 -0.8164835772 0.2161161931
140299160.0 0.823288833 -0.2321283257 6.02585e-05 1.8168e-05 4.2651e-06 -2.03836e-05 -0.8141888563 0.2245879853
145299130.0 0.8205642146 -0.2406662098 -0.0001749246 -0.0002548927 -0.0001148049 0.0001445574 -0.8123716773 0.2339399637
150299100.0 0.8188036547 -0.2481595512 6.60009e-05 1.40104e-05 0.0001474423 -9.84443e-05 -0.8106840124 0.2432635385
155299070.0 0.8157510526 -0.2560180651 0.0003172635 9.79384e-05 -0.0002362813 -0.0001199216 -0.8072076036 0.2513935187
160299040.0 0.8129247998 -0.2642724537 -0.000181637 0.0001479618 -2.74472e-05 7.63913e-05 -0.8050553538 0.260675806
165299010.0 0.81113087 -0.2719878715 0.0001484987 9.56724e-05 -0.0001175531 -6.28463e-05 -0.80235025 0.269458014
170298980.0 0.8079240437 -0.279961061 5.53445e-05 -5.01248e-05 0.0001406929 -0.0001096508 -0.7992465648 0.2779299876
175298950.0 0.8049649293 -0.2881946965 4.9444e-05 0.0001786974 1.38225e-05 -1.99822e-05 -0.7967979054 0.2867915722
180298920.0 0.8022866838 -0.2956930847 0.0001859678 2.26653e-05 0.0001488077 -0.0002193288 -0.7938356464 0.2949108767
185298890.0 0.7987605265 -0.3035466801 9.71999e-05 -0.0001246005 -4.47966e-05 -1.68302e-05 -0.7901778306 0.3037342094
190298860.0 0.7959624807 -0.3114217472 8.15351e-05 9.86219e-05 -7.83803e-05 -6.40368e-05 -0.7880247471 0.3121055141
195298830.0 0.7932093859 -0.3189070876 0.0001160967 -4.78052e-05 -2.86531e-05 8.0735e-06 -0.7845449399 0.3206345331
200298800.0 0.789020389 -0.3267386634 0.0001290263 -6.73498e-05 -0.0001057801 -7.63294e-05 -0.7819865914 0.3287961774
205298770.0 0.7860818869 -0.3338874568 0.0001275475 -2.37853e-05 -5.69132e-05 0.0001526527 -0.7780347033 0.3376856898
210298740.0 0.7828204704 -0.3416923499 1.0032e-05 -0.0001271222 5.12172e-05 -0.0001330511 -0.7746553248 0.345917713
215298710.0 0.779303597 -0.3504337888 -7.60358e-05 0.0001601553 4.62628e-05 -0.0001263695 -0.7712548187 0.3537612275
220298680.0 0.7762343673 -0.3572745762 -1.07528e-05 -6.22549e-05 0.0001510851 -0.0001747663 -0.7677163905 0.3620581394
225298650.0 0.7727064073 -0.3656827294 2.49131e-05 5.59891e-05 -9.04742e-05 -9.14493e-05 -0.7640168268 0.3699309152
230298620.0 0.7689998194 -0.3725807589 -0.0001950161 4.07564e-05 -1.26339e-05 3.09208e-05 -0.7600490876 0.3785615744
235298590.0 0.7650109419 -0.3796329373 -0.000134762 6.89219e-05 2.88668e-05 -2.10622e-05 -0.755425308 0.386728769
240298560.0 0.7612750749 -0.3872322364 8.18025e-05 -0.0001076917 -9.3231e-06 -7.78974e-05 -0.7521046264 0.3952172758
245298530.0 0.757245042 -0.3950499897 2.54868e-05 0.0001955109 -3.7907e-06 -1.6033e-06 -0.747727386 0.402177241
250298500.0 0.7531588867 -0.4021572609 -3.82774e-05 5.65798e-05 2.08774e-05 -0.0001580404 -0.743604916 0.409631895
255298470.0 0.749417768 -0.4096557183 1.74486e-05 8.236e-07 2.03701e-05 -1.37485e-05 -0.7387113593 0.4179485067
260298440.0 0.745273646 -0.4167123731 -0.0001015302 6.76999e-05 -2.5013e-06 4.11628e-05 -0.7350545939 0.4262522866
265298410.0 0.7410972184 -0.4237665444 1.18346e-05 -0.0001470918 0.0001311022 6.79108e-05 -0.7304871368 0.4335743303
270298380.0 0.7371646512 -0.4313139776 -6.01094e-05 5.42979e-05 8.58886e-05 0.0001798276 -0.7255684797 0.4407412402
275298350.0 0.7329259416 -0.4383184957 -0.0001005774 -2.06014e-05 -7.59203e-05 3.5751e-05 -0.7207161535 0.4485436288
280298320.0 0.7280992782 -0.4452567352 0.0001464005 -6.1923e-06 -3.24478e-05 0.0001012889 -0.7160894461 0.455826563
285298290.0 0.7248859907 -0.4528808211 5.16353e-05 -6.57545e-05 -6.26353e-05 1.46573e-05 -0.7111080592 0.4633428122
290298260.0 0.7206216313 -0.4598266506 -0.0002704771 0.0001941865 9.35218e-05 -8.89182e-05 -0.7062849418 0.4712056067
295298230.0 0.7159490807 -0.4663771757 0.0001701291 0.0001188031 6.35949e-05 -8.55666e-05 -0.7014610002 0.4779531615
300298200.0 0.7122079365 -0.4745685597 0.0001281455 -1.08895e-05 7.95721e-05 5.31778e-05 -0.6959150281 0.4848669377
305298170.0 0.7072585401 -0.4813705647 -8.13694e-05 -0.0003737069 2.76809e-05 0.000134687 -0.6903768724 0.4929090798
310298140.0 0.7028634958 -0.4885611122 0.0001575394 -8.3925e-05 0.0001124634 3.46271e-05 -0.6858595012 0.4996978036
315298110.0 0.6985837188 -0.4961129277 9.35369e-05 -6.73933e-05 -9.2255e-06 0.0001799793 -0.6801308771 0.5067974176
320298080.0 0.6933392304 -0.5033996428 -0.000179375 -9.5988e-06 -7.0351e-05 -0.0003630549 -0.6747942711 0.5146171891
325298050.0 0.6878525292 -0.5099512902 -2.50906e-05 -0.0001082241 0.0001978642 1.6564e-05 -0.669336633 0.5211129627
330298020.0 0.6822185038 -0.5177351665 -4.38368e-05 -6.5371e-06 0.0001341341 0.0001710317 -0.6637106952 0.5282200515
335297990.0 0.6757856209 -0.5247559341 7.57837e-05 2.80036e-05 7.70369e-05 -4.22725e-05 -0.6585929227 0.53538234
340297960.0 0.6699667582 -0.5311839888 -0.0001534277 -9.60918e-05 6.14827e-05 0.0001375147 -0.6525939931 0.542110896
345297930.0 0.6641700459 -0.5378140887 0.0001405869 1.67976e-05 -4.13336e-05 -9.48693e-05 -0.6467551204 0.5481489744
350297900.0 0.6585606226 -0.5435852743 -7.613e-06 2.2662e-05 1.9845e-06 -0.0001383267 -0.6415152328 0.555396896
355297870.0 0.6534747921 -0.549058283 -2.08183e-05 -4.26216e-05 0.0001092081 -8.14488e-05 -0.6357928787 0.5617891449
360297840.0 0.6476340805 -0.5559254119 3.79029e-05 -3.2705e-05 -6.1178e-05 6.28365e-05 -0.6295329653 0.5689625133
365297810.0 0.6418560525 -0.5622509195 -2.57113e-05 0.0001880359 -0.0001668483 0.0001419807 -0.622988766 0.5749812362
370297780.0 0.6358878929 -0.5682866153 -0.0002081136 -0.0001066773 4.84706e-05 -0.0001323341 -0.6173170341 0.5819503767
375297750.0 0.6297608919 -0.5742114592 2.56987e-05 7.54577e-05 5.51849e-05 -0.0001432915 -0.6114421964 0.5874384704
380297720.0 0.6247049478 -0.5807883045 -0.0001268115 2.66894e-05 -0.0001299419 2.39334e-05 -0.6060022607 0.5938905204
385297690.0 0.6182750217 -0.5867443444 4.3139e-05 -1.6399e-06 8.96281e-05 -6.43249e-05 -0.5993475913 0.6003949021
390297660.0 0.6126769989 -0.5916963001 -2.74806e-05 0.0001472336 7.18232e-05 0.0001849657 -0.5933132548 0.6067366228
395297630.0 0.6068861816 -0.5982940654 2.91849e-05 9.29622e-05 1.52225e-05 0.0002150575 -0.5863047216 0.6131078561
400297600.0 0.6008150957 -0.6037429758 8.4847e-06 8.8929e-06 1.37568e-05 -9.2625e-06 -0.5809213594 0.6187094149
405297570.0 0.5946065001 -0.6094621217 0.0002931217 4.1359e-06 0.0001330536 -1.98385e-05 -0.5740663513 0.6247009917
410297540.0 0.5882651293 -0.6160518831 7.31592e-05 -2.17689e-05 2.99549e-05 6.39414e-05 -0.5679702958 0.6302921979
415297510.0 0.5827135754 -0.6211263301 -3.056e-05 0.0003023846 4.8237e-05 0.0001918579 -0.5612189454 0.6360783923
420297480.0 0.5762816411 -0.626419924 -1.63746e-05 0.0002840625 4.65626e-05 0.0002803794 -0.5542281862 0.6424609995
425297450.0 0.5701037594 -0.6320349948 -0.0001234872 -0.0003010016 -0.0001339823 -8.01637e-05 -0.5484205505 0.6483287371
430297420.0 0.5635831773 -0.6372421826 -5.05091e-05 3.3835e-05 5.08016e-05 -8.2783e-05 -0.5409727164 0.652786353
435297390.0 0.557744871 -0.6429995741 -7.38417e-05 -6.95952e-05 4.61112e-05 1.1732e-06 -0.5342305585 0.6586787006
440297360.0 0.551479045 -0.6493207382 -0.0002757057 3.55558e-05 0.0002023687 -0.000117659 -0.5270592901 0.6634573492
445297330.0 0.5447559728 -0.6543133301 7.8703e-05 -0.0001290438 -0.0001036148 -4.60624e-05 -0.5208810496 0.6683467384
450297300.0 0.5384438773 -0.6589008643 5.83939e-05 0.0002470219 1.63364e-05 7.44595e-05 -0.5132791971 0.673756842
455297270.0 0.5315661357 -0.6639731526 -0.000144652 -0.0001061291 3.1658e-05 6.26639e-05 -0.5063880868 0.6784820041
460297240.0 0.52489705 -0.669405669 9.1185e-05 5.99519e-05 -4.82058e-05 7.05205e-05 -0.4998464498 0.6836815507
465297210.0 0.5186765232 -0.6746262191 0.0001214204 -5.60397e-05 -9.50701e-05 0.0002122783 -0.4921759187 0.6888369259
470297180.0 0.5116595814 -0.6788349779 -0.0001129275 0.0002208233 0.0001578134 4.71632e-05 -0.4850216701 0.6943376557
475297150.0 0.5050912853 -0.6843927296 0.0001301731 -0.000129133 0.0001457033 -2.4515e-05 -0.4775540621 0.6983165858
480297120.0 0.4976642365 -0.6893374988 -4.03521e-05 -0.0001240444 -0.0001083151 -6.9904e-05 -0.4698946617 0.7039265877
485297090.0 0.4904566703 -0.6937528937 -0.0001432534 0.0001159288 -5.50459e-05 0.0001881551 -0.4634233736 0.7087762551
490297060.0 0.4837426198 -0.6985559716 -0.0003371542 0.0001542853 -7.72627e-05 -2.35335e-05 -0.4558079048 0.7127505746
495297030.0 0.4768897699 -0.7031625814 -4.28122e-05 5.13652e-05 0.0001361868 1.99838e-05 -0.4483532294 0.717378809
500297000.0 0.469987712 -0.7080137201 0.0001238361 1.5701e-06 6.74776e-05 3.42437e-05 -0.4410863899 0.7224984124
505296970.0 0.4629533153 -0.7122536886 5.42387e-05 -0.0001107731 0.0001722833 -9.0745e-05 -0.4337738452 0.7264159323
510296940.0 0.455962308 -0.7170305489 0.0001439094 -0.000160749 -4.8589e-05 -0.0001273627 -0.4256142658 0.7309084911
515296910.0 0.4488721417 -0.7210604952 7.23631e-05 -0.0001500712 -0.0001321413 2.59877e-05 -0.418833961 0.7345641519
520296880.0 0.4413278183 -0.7255000555 7.14346e-05 -0.0001160222 -0.0001668534 -2.1336e-05 -0.4111866583 0.7393121811
525296850.0 0.4344382371 -0.7296163892 9.41105e-05 0.0001283764 -0.0001283793 -3.2472e-05 -0.4039830475 0.7438551458
530296820.0 0.4275132165 -0.7338386728 8.44499e-05 -0.000126128 -0.0002115462 -3.97224e-05 -0.3963684515 0.7470978611
535296790.0 0.4203557619 -0.7379725913 -0.0001758373 6.60088e-05 0.0001705027 -9.93839e-05 -0.3894224773 0.7518963628
540296760.0 0.41228657 -0.7421693625 -3.61806e-05 0.0001651767 8.4939e-05 -0.0001481293 -0.381167389 0.7558740285
545296730.0 0.4047905687 -0.7458651836 0.0002428367 6.15512e-05 0.0001545853 3.52141e-05 -0.3734584951 0.7591635825
550296700.0 0.3982338438 -0.7492300543 -9.59095e-05 0.0001730355 7.18796e-05 0.000111423 -0.3651412118 0.7631045507
555296670.0 0.3899227234 -0.7535105562 1.50977e-05 9.3005e-05 -3.21713e-05 -2.31625e-05 -0.3586205136 0.7674171744
560296640.0 0.3821835323 -0.7570367623 -0.0001392988 0.0001120548 0.0001284739 -0.0001299859 -0.3498981572 0.7707993141
565296610.0 0.3750040946 -0.7605138193 5.54459e-05 -4.37429e-05 0.0001115545 0.0001108822 -0.3421983379 0.7736691588
570296580.0 0.3674602445 -0.7643404152 -0.0001454083 -0.0001037727 9.94027e-05 -3.30739e-05 -0.3349255417 0.7776250654
575296550.0 0.3596178679 -0.7671135872 0.0002674625 -0.0001151714 -7.96703e-05 -0.0001256976 -0.3267782117 0.7808439924
580296520.0 0.3522347368 -0.7715413967 0.0002106278 -5.3764e-06 0.0002536284 2.809e-07 -0.3183172698 0.7841202115
585296490.0 0.3441272444 -0.7751563756 -0.0001601017 -0.0001016336 -0.0001428549 -3.7027e-05 -0.310519607 0.7873498389
590296460.0 0.336710468 -0.7769570758 0.0002009498 6.9236e-06 4.65952e-05 -8.168e-07 -0.3030503361 0.7900131893
595296430.0 0.3281710986 -0.7812775947 3.37184e-05 -3.14844e-05 -4.20364e-05 0.0001048909 -0.2949680491 0.792320684
600296400.0 0.3205968474 -0.7838520363 0.0001569233 9.42937e-05 -1.18015e-05 -8.93729e-05 -0.286884948 0.7953167873
605296370.0 0.3127019229 -0.7871143846 -0.0001826351 -6.81124e-05 4.89995e-05 -1.76562e-05 -0.2781292247 0.7986592259
610296340.0 0.3048778736 -0.7899894421 2.2773e-06 -6.94444e-05 0.0001369049 0.0002715119 -0.270398535 0.8007769528
615296310.0 0.2981875836 -0.7928924269 4.0436e-06 1.88877e-05 1.95199e-05 4.49762e-05 -0.2615983293 0.8038639742
620296280.0 0.2891970457 -0.795647302 0.0002196563 0.0001735015 3.4637e-06 -1.66938e-05 -0.2546007252 0.8061353979
625296250.0 0.2820138338 -0.7986657665 -3.92638e-05 0.0002004304 -9.79525e-05 2.82845e-05 -0.2452244225 0.8082195895
630296220.0 0.2736969288 -0.8009776961 -9.93033e-05 -0.0002659114 -0.0001986267 8.1265e-05 -0.237984781 0.8109534212
635296190.0 0.2659611977 -0.804395736 -0.0002376637 0.0001887577 -3.64577e-05 -5.93871e-05 -0.2297662576 0.812703359
640296160.0 0.257877658 -0.8061428471 0.0001046464 6.07078e-05 7.73196e-05 0.0001865027 -0.221404806 0.8156239709
645296130.0 0.2495113849 -0.8086564763 3.07336e-05 -6.26888e-05 0.0001472281 -8.08066e-05 -0.2131386636 0.8175550145
650296100.0 0.2416200325 -0.8110236875 0.0001018264 -7.67862e-05 0.0001193102 8.41712e-05 -0.2053087543 0.8187108685
655296070.0 0.2332508385 -0.8131753359 -0.0002159732 1.72594e-05 0.0001847682 0.0001138819 -0.1961137618 0.8209895803
660296040.0 0.2256697038 -0.8153812559 -0.0001026863 0.000153669 -4.22336e-05 0.0001849137 -0.1877985668 0.8230117883
665296010.0 0.2175012442 -0.8176024352 -1.87243e-05 6.03013e-05 -0.0001205285 0.0001266332 -0.1797710551 0.8252373615
670295980.0 0.208945794 -0.8196092574 -0.0002197164 -6.62755e-05 0.0002627254 -5.94924e-05 -0.1721781758 0.826797524
675295950.0 0.2012139288 -0.8210736968 5.83146e-05 0.0001265114 8.21228e-05 -1.46226e-05 -0.1638744323 0.8289714119
680295920.0 0.1923918783 -0.8232416304 9.47075e-05 7.2373e-05 -0.000124475 8.79121e-05 -0.1553508543 0.8313741157
685295890.0 0.1843570678 -0.8243443432 -6.13571e-05 0.0003017534 -8.24287e-05 0.0001423793 -0.1459357014 0.8319576922
690295860.0 0.1758892688 -0.8265298661 4.01204e-05 -2.49555e-05 -0.0001644083 0.0001823106 -0.1385259946 0.8337315543
695295830.0 0.1677921704 -0.828299861 0.0001620344 -0.00024738 -4.5244e-05 -6.47462e-05 -0.1296013217 0.8345350749
700295800.0 0.1599081915 -0.8295021418 0.0001172636 -5.79168e-05 0.0001433327 -2.39381e-05 -0.1226378352 0.8362047734
705295770.0 0.1512042395 -0.8308201898 -6.00786e-05 -3.19387e-05 -4.75722e-05 -9.00204e-05 -0.1131157389 0.8381107815
710295740.0 0.1428002887 -0.8319306138 -5.56855e-05 0.0001363064 -6.35362e-05 5.47386e-05 -0.1051747913 0.838543344
715295710.0 0.134660601 -0.8337754701 -2.38806e-05 -0.0001581792 9.87726e-05 -7.05272e-05 -0.0967855945 0.839553946
720295680.0 0.1270075864 -0.8341259372 0.0003108948 -3.66452e-05 -0.000159356 0.0001053667 -0.0882811732 0.8405554626
725295650.0 0.1175939144 -0.8353506148 -2.5018e-05 -0.0001277183 -8.4801e-06 -4.0939e-06 -0.0804557735 0.8417082363
730295620.0 0.109651637 -0.836247097 -9.20085e-05 9.113e-07 -7.13665e-05 -0.0001942374 -0.0723965312 0.8420001619
735295590.0 0.1007870886 -0.8366110732 1.3894e-05 -0.0001240242 0.0001055673 4.00261e-05 -0.0631615553 0.8421191329
740295560.0 0.0925342393 -0.837695854 0.0001956834 0.0001849533 -0.0001024935 0.0001268157 -0.0542887443 0.8437316532
745295530.0 0.0841439984 -0.8383912465 7.0372e-06 -0.0001799648 -5.86628e-05 5.20727e-05 -0.0466825865 0.8439712735
750295500.0 0.0763085247 -0.8393156263 -0.0001254505 0.0001299775 6.5295e-06 -6.06337e-05 -0.0378611352 0.844086376
755295470.0 0.0674818984 -0.8395576011 -8.04599e-05 7.25966e-05 -6.36741e-05 0.0001509031 -0.0294840546 0.8438988617
760295440.0 0.0590921399 -0.8399469776 -3.3914e-06 0.0001323246 3.3272e-06 -2.37239e-05 -0.0211251232 0.8444110828
765295410.0 0.0510920979 -0.8406529659 -2.02e-05 9.49598e-05 2.34493e-05 -3.72337e-05 -0.0126668176 0.8446708469
770295380.0 0.0423033217 -0.8410847889 0.0001866103 0.0001440298 -1.96625e-05 0.0001058617 -0.0042262629 0.8446365938
775295350.0 0.0335107724 -0.8419049682 -9.8162e-05 2.96517e-05 -1.29855e-05 -8.42419e-05 0.0036469154 0.8443092381
780295320.0 0.0254042342 -0.8417376298 -0.0001648079 0.0001087066 0.000134889 5.63786e-05 0.012302974 0.8443505578
785295290.0 0.017308685 -0.8422158932 0.0001082412 5.38438e-05 0.0001564053 -0.0001922853 0.0209447251 0.8440340235
790295260.0 0.008593357 -0.8419899805 -7.17406e-05 -0.0002423187 0.000180323 0.0001946221 0.0296320239 0.843998652
795295230.0 0.0001751963 -0.8412596931 -9.59621e-05 0.0001716394 -5.91122e-05 -3.6778e-05 0.0384347443 0.8431807449
800295200.0 -0.0084434617 -0.841238336 6.67804e-05 -9.47157e-05 0.0001517624 9.37752e-05 0.0471581332 0.8427226244
805295170.0 -0.0168157941 -0.8407686664 7.71783e-05 -9.8173e-06 4.3819e-05 -0.0001161951 0.0546294474 0.8425715749
810295140.0 -0.0246018546 -0.840155037 3.01604e-05 -6.908e-07 0.0001718653 -1.11095e-05 0.0633565028 0.8416297944
815295110.0 -0.0329952034 -0.8407426691 0.0001475013 0.0001918778 0.0002012397 -0.0001341375 0.0719423791 0.8411655772
820295080.0 -0.0415473698 -0.8394524123 -0.0001769662 5.8171e-05 -0.0001260969 -0.0001871958 0.0798704793 0.8405105899
825295050.0 -0.0495456481 -0.8385622029 3.8366e-05 0.0001185473 0.0001850416 0.0001093093 0.0885485573 0.8400134451
830295020.0 -0.0580178513 -0.8386704504 3.6696e-06 0.0001418065 -5.21674e-05 4.18881e-05 0.0975497358 0.8388074231
835294990.0 -0.0668194458 -0.8378493211 0.0001037624 -2.20445e-05 -2.83112e-05 6.52003e-05 0.1049543789 0.8378926959
840294960.0 -0.0749546842 -0.8362407988 0.0003475276 0.0001745324 0.0001783881 1.96245e-05 0.1136043938 0.8362493421
845294930.0 -0.0837311691 -0.8355193856 -9.7973e-06 6.99915e-05 -1.16393e-05 0.0001508115 0.1217342234 0.835367331
850294900.0 -0.090936944 -0.8348254224 0.0002565787 2.66986e-05 0.0001043531 5.50159e-05 0.1298390474 0.8340656369
