!Created with skrf (http://scikit-rf.org).
# Hz S RI R 50.0 
!freq ReS11 ImS11 ReS21 ImS21 ReS12 ImS12 ReS22 ImS22
300000.0 -0.2371547371 -0.1175183423 0.4681315032 0.077991356 0.4664874686 0.0795821581 -0.2361780613 -0.1258747443
5299970.0 -0.2448525215 0.0052186893 0.4733486745 0.0058695182 0.4741849681 0.0059397229 -0.2438126971 0.0053012452
10299940.0 -0.2418737562 0.0184368545 0.4759166116 0.0070151611 0.4757294665 0.0071969397 -0.2401735876 0.0181242442
15299910.0 -0.2369247666 0.0283480917 0.4791981629 0.0080473178 0.4797311656 0.008470368 -0.2362960976 0.0274113346
20299880.0 -0.231611983 0.0362741563 0.4842724428 0.008083724 0.4844783597 0.0086065222 -0.2312132295 0.0352161926
25299850.0 -0.2256129724 0.0429370657 0.4897680029 0.0077883689 0.490087244 0.0076386257 -0.2262336112 0.0417328339
30299820.0 -0.2202962794 0.0476737011 0.4951417581 0.0055819545 0.4952367029 0.0052902326 -0.2209861591 0.0469771394
35299790.0 -0.2142566762 0.0517105747 0.4999639588 0.0024639427 0.5004963593 0.002362247 -0.2156845887 0.0513676283
40299760.0 -0.2092692939 0.0548532434 0.5054419908 -0.0015114894 0.5056871145 -0.0015418794 -0.2109766307 0.054706667
45299730.0 -0.2041320257 0.0570531183 0.5100689434 -0.0057937814 0.5107237646 -0.0063039293 -0.2057304127 0.0575139855
50299700.0 -0.1989900007 0.0591239363 0.5144045852 -0.0120212844 0.5145695261 -0.0120588236 -0.201495894 0.0602253735
55299670.0 -0.1951534022 0.0602823102 0.5180515573 -0.0175294028 0.5184410408 -0.0177726123 -0.1975970961 0.0617165747
60299640.0 -0.1906390702 0.0617636972 0.5215723294 -0.0241335772 0.5217334494 -0.0242820252 -0.1935805608 0.0635273976
65299610.0 -0.1872227395 0.0625454576 0.5247649967 -0.030409099 0.5246800261 -0.0303614432 -0.1902535549 0.0648323693
70299580.0 -0.1843003053 0.0628873132 0.5271701376 -0.0367260266 0.5274702056 -0.0371226451 -0.187557962 0.0661255125
75299550.0 -0.1813463868 0.0637789863 0.5290931993 -0.0441447914 0.529232575 -0.0438805374 -0.1842648463 0.0671376847
80299520.0 -0.1784516993 0.0644889701 0.5311869555 -0.0509222646 0.5311051842 -0.0507409291 -0.1817560492 0.0680768428
85299490.0 -0.1758989147 0.0647434886 0.532589694 -0.0576958399 0.5325942038 -0.0573667065 -0.1794097788 0.0686118426
90299460.0 -0.1737149946 0.0656404084 0.533181808 -0.0648189197 0.5333443396 -0.0643251518 -0.176982133 0.0699407489
95299430.0 -0.1714387508 0.0655774239 0.5341123717 -0.0713333455 0.5345633304 -0.0716255957 -0.1750153908 0.0706458096
100299400.0 -0.1693064696 0.0660923964 0.5344151215 -0.0780500637 0.5347020214 -0.0784146805 -0.1732974964 0.0715861673
105299370.0 -0.1675652224 0.0664528951 0.5347614899 -0.0849444292 0.5357190874 -0.0852147883 -0.1711674507 0.0719820765
110299340.0 -0.1658616281 0.0668064571 0.5350569801 -0.0916329257 0.5354625125 -0.0915790108 -0.16989396 0.0731676059
115299310.0 -0.1644330275 0.0676796734 0.5352146181 -0.0984299072 0.5350212412 -0.0988961427 -0.1685018699 0.0741258538
120299280.0 -0.1631990426 0.0682770297 0.5350486373 -0.1059870266 0.5349457812 -0.1057684202 -0.1668693049 0.0745893658
125299250.0 -0.1616719635 0.0686554336 0.534598595 -0.1127254347 0.5345834022 -0.1124153153 -0.1654313746 0.0759854715
130299220.0 -0.1609607474 0.0691300265 0.5344524774 -0.1191905087 0.5339236816 -0.1198199892 -0.1638733369 0.0772170545
135299190.0 -0.1595731323 0.0701124427 0.5334934496 -0.1257059323 0.5333925173 -0.1261321856 -0.1630966737 0.0776255426
140299160.0 -0.158670853 0.0709766416 0.5332520558 -0.132807414 0.5326072461 -0.132172284 -0.1621485828 0.0785811021
145299130.0 -0.1577833665 0.0717325613 0.5316078472 -0.1393647604 0.5320937228 -0.1390175529 -0.160950627 0.079901631
150299100.0 -0.1566767695 0.0724314591 0.5306654632 -0.145620111 0.5307654285 -0.1457486474 -0.1601308502 0.0813512663
155299070.0 -0.1555739699 0.0731457351 0.5289454661 -0.1521493718 0.5294957832 -0.1521987358 -0.1586023924 0.0824462812
160299040.0 -0.1547403724 0.074376606 0.528186912 -0.158625859 0.5281956554 -0.1587161559 -0.1581603574 0.0837880038
165299010.0 -0.1536852054 0.0752348281 0.5267655287 -0.1651052248 0.5262403459 -0.1653692796 -0.1567790938 0.0843899931
170298980.0 -0.1532575014 0.0762601672 0.5249942691 -0.1713887473 0.5251643607 -0.1715269242 -0.1561399918 0.0857679639
175298950.0 -0.1523782946 0.0770712943 0.5238127691 -0.1775825618 0.5238857092 -0.1779739569 -0.1552665973 0.0875951566
180298920.0 -0.1516605861 0.078299125 0.521699972 -0.1843555799 0.5217056567 -0.1840482734 -0.1541007167 0.0884818194
185298890.0 -0.1505921672 0.0793875152 0.5200876679 -0.1904753517 0.51971004 -0.1904830457 -0.1528268271 0.0893990878
190298860.0 -0.1498293928 0.0807390303 0.5176311992 -0.196217892 0.5184515046 -0.1965299646 -0.1522459918 0.0910211557
195298830.0 -0.1490111853 0.0820669629 0.5164093985 -0.2025341959 0.516505438 -0.2025536039 -0.1515560442 0.092344891
200298800.0 -0.1481043159 0.0830073119 0.5140789321 -0.2094091776 0.5139184078 -0.2089446429 -0.1503835267 0.0935316081
205298770.0 -0.1478526319 0.0839455364 0.5114342642 -0.2146391856 0.512063587 -0.2143154576 -0.1492984816 0.0950098477
210298740.0 -0.1470271355 0.0852311709 0.50976746 -0.2208934232 0.5093972767 -0.2209383882 -0.1487273051 0.096290203
215298710.0 -0.1460267038 0.0868914438 0.5069373286 -0.2265601688 0.5072649489 -0.2270100525 -0.1474076534 0.0977705013
220298680.0 -0.1452318243 0.0879883145 0.5044804362 -0.2325170798 0.5046842963 -0.2327103291 -0.146440367 0.0988517241
225298650.0 -0.1444174729 0.089264558 0.5017182752 -0.2383997446 0.5023351569 -0.2380968643 -0.1456124509 0.100490215
230298620.0 -0.1437868459 0.0906999622 0.4998467391 -0.2441759049 0.5000517462 -0.2442219965 -0.1446769014 0.1018807601
235298590.0 -0.1431349649 0.0917445515 0.49729486 -0.2500506353 0.4974414884 -0.2502015007 -0.1434834878 0.1035696923
240298560.0 -0.1420440275 0.0931514822 0.4943374489 -0.2558130691 0.4943891873 -0.2556236791 -0.1426302011 0.1045558894
245298530.0 -0.1413104101 0.0942176159 0.4912799774 -0.2613659761 0.4916905272 -0.2615888797 -0.1416194975 0.1059548124
250298500.0 -0.1408371425 0.0955436844 0.4887837076 -0.2668123359 0.4888114543 -0.2668602996 -0.1405544606 0.1076550172
255298470.0 -0.139866691 0.0970669002 0.4861399358 -0.2720798283 0.486332756 -0.2727696934 -0.1395664065 0.1095592762
260298440.0 -0.1390228619 0.0981536252 0.482985149 -0.2777591174 0.4833486366 -0.277892875 -0.1385283772 0.1102816336
265298410.0 -0.1385508626 0.0996685397 0.4800046074 -0.2838292352 0.4798642502 -0.2838145069 -0.1370427789 0.1118386497
270298380.0 -0.137542511 0.1009939359 0.4765934274 -0.2889795146 0.4770382223 -0.2891102285 -0.1358954607 0.1136763672
275298350.0 -0.1367586483 0.1027200872 0.4731214348 -0.2941069086 0.4734633204 -0.2944010908 -0.134797412 0.1148434062
280298320.0 -0.1362376719 0.1038858376 0.4708140046 -0.2994810329 0.470935467 -0.2999267461 -0.133387095 0.1162581648
285298290.0 -0.1350750047 0.1054171903 0.4673002795 -0.3052462642 0.4676420387 -0.3048317319 -0.1326110911 0.1180185491
290298260.0 -0.1343868426 0.1065515524 0.4643840227 -0.3105844141 0.4640418638 -0.3107700892 -0.1312319036 0.1192289863
295298230.0 -0.1335401769 0.1074786196 0.4607311823 -0.3159157604 0.4609383041 -0.31602721 -0.1302157339 0.1205506921
300298200.0 -0.1324054645 0.1091490187 0.4573479691 -0.3208523962 0.4576595828 -0.3208760462 -0.128768876 0.1221277664
305298170.0 -0.1314773239 0.1100886656 0.4541492471 -0.3265875523 0.4543065778 -0.3263468742 -0.1273646033 0.1227873348
310298140.0 -0.1301368318 0.1113959878 0.4507292261 -0.33130586 0.4506059189 -0.3313211869 -0.1260170452 0.1246161178
315298110.0 -0.1293475319 0.1123219982 0.4471154647 -0.3370664498 0.447037096 -0.3369092596 -0.1246102871 0.1260811751
320298080.0 -0.1287031513 0.1138153911 0.4428881914 -0.3420780691 0.4433146227 -0.3419322667 -0.1236394232 0.1270726597
325298050.0 -0.1283162761 0.1143887808 0.4389281896 -0.3465339669 0.4394996713 -0.34683421 -0.122079697 0.1282683097
330298020.0 -0.127527823 0.1162029651 0.4352254668 -0.3518528521 0.4355840995 -0.351796448 -0.1212990059 0.1296479902
335297990.0 -0.1265599309 0.1174653594 0.4312647191 -0.3563567375 0.4313769508 -0.3565684565 -0.1199942282 0.1308261743
340297960.0 -0.1258999903 0.1186891621 0.4267779292 -0.361631433 0.4269353849 -0.3619864676 -0.1185270569 0.132811364
345297930.0 -0.1251249819 0.1197403662 0.4232411552 -0.3664609452 0.4229763362 -0.366438374 -0.1176108164 0.1339098115
350297900.0 -0.1241451401 0.1209553519 0.4191938153 -0.3704336898 0.4191961147 -0.3706190868 -0.1161717599 0.1350882009
355297870.0 -0.1230772088 0.1225765771 0.4148012267 -0.3750284744 0.415067495 -0.3751087908 -0.1145330436 0.1367928098
360297840.0 -0.1222819599 0.1238530675 0.4104302299 -0.3800841485 0.4109323876 -0.3800496086 -0.1134424573 0.138211876
365297810.0 -0.1209859632 0.1254198634 0.4063242193 -0.3842394247 0.406666017 -0.3845196425 -0.1124448216 0.1393030864
370297780.0 -0.1199312641 0.126533482 0.4014633066 -0.3891244816 0.4025455823 -0.3889821351 -0.1107736599 0.1408595101
375297750.0 -0.1192307313 0.1278633834 0.3982908347 -0.3934095462 0.3984721795 -0.3934551667 -0.1090511842 0.1423032948
380297720.0 -0.1182293819 0.1293105584 0.3936863762 -0.3977264035 0.3936114737 -0.3978787308 -0.1075359886 0.143780971
385297690.0 -0.1171449596 0.1302902038 0.3889346341 -0.4015685653 0.389664392 -0.4021290512 -0.1060472777 0.1451806085
390297660.0 -0.1157008464 0.1312714034 0.384943638 -0.405766366 0.3849788122 -0.4065524028 -0.1045306261 0.1457800888
395297630.0 -0.1142318742 0.1328492251 0.3806488122 -0.4098370738 0.3803799472 -0.4100846074 -0.1027032916 0.1472057608
400297600.0 -0.1135961349 0.1339149027 0.3761761201 -0.41464997 0.3761414657 -0.4145776989 -0.1010718507 0.149030434
405297570.0 -0.1124117091 0.134552578 0.371112657 -0.4181788359 0.3715615667 -0.418586682 -0.0993506236 0.1500580636
410297540.0 -0.1108586845 0.1364304311 0.3667077614 -0.422695764 0.3668562982 -0.4224500161 -0.097967889 0.151230758
415297510.0 -0.110046551 0.1375732146 0.361784211 -0.4267728565 0.3624800588 -0.4266489183 -0.096075886 0.1527169401
420297480.0 -0.1088442083 0.138124278 0.3575186998 -0.430735333 0.3577712692 -0.4307357889 -0.0944355625 0.1541168352
425297450.0 -0.107037836 0.1395740975 0.352772147 -0.4345292593 0.3528037623 -0.4344367783 -0.0930635471 0.1546035695
430297420.0 -0.106151763 0.140423774 0.3485890074 -0.4380790427 0.3480514593 -0.437789736 -0.0908593066 0.1560729037
435297390.0 -0.1048465308 0.1415985418 0.342909248 -0.4427203666 0.3433247397 -0.4418576286 -0.0896362393 0.1576089784
440297360.0 -0.1031751473 0.1426699909 0.3377176998 -0.4459290649 0.3381219009 -0.4460285089 -0.0878591942 0.1587319679
445297330.0 -0.1020011735 0.1436793619 0.3331165555 -0.4492059565 0.3332554812 -0.4497475253 -0.0855670244 0.1597671679
450297300.0 -0.1006019968 0.1449336326 0.3284142779 -0.4529064137 0.3289809648 -0.4530096045 -0.084224773 0.1611429761
455297270.0 -0.0996167502 0.1458408291 0.3236518631 -0.456495362 0.3235244078 -0.4568499619 -0.0822770426 0.1620311677
460297240.0 -0.0978141366 0.1468927138 0.3188236976 -0.4604662855 0.3186066429 -0.4606674475 -0.0806596335 0.1632711125
465297210.0 -0.096498035 0.148036966 0.3129688789 -0.4638467315 0.3128669109 -0.4640195381 -0.0785735488 0.1644294796
470297180.0 -0.0950781106 0.1487278208 0.3082790242 -0.4665823613 0.308235228 -0.4671146717 -0.0763595888 0.1648316534
475297150.0 -0.0939494462 0.1504001416 0.3033531282 -0.4703363347 0.3033027519 -0.4704177815 -0.0749331201 0.1660341168
480297120.0 -0.0919151278 0.1513436977 0.2976712198 -0.4738966648 0.2983096657 -0.4734466883 -0.0734165483 0.1670742108
485297090.0 -0.0906133242 0.1515176748 0.2926206745 -0.4769317228 0.2928307219 -0.4767392991 -0.0713017137 0.1682057379
490297060.0 -0.0883951362 0.1530635956 0.2871190157 -0.4803446232 0.2877311848 -0.4804674709 -0.0696104135 0.1688726532
495297030.0 -0.0875306344 0.1537588106 0.2825929679 -0.4831680987 0.2823879085 -0.4831550256 -0.0672984686 0.1696423642
500297000.0 -0.0861288684 0.1551344803 0.2771686194 -0.4859392237 0.2772831545 -0.4863600759 -0.0654450091 0.1707409031
505296970.0 -0.0840699924 0.1560111219 0.2717524369 -0.4894313501 0.2721254049 -0.4888261128 -0.0638948293 0.1710990524
510296940.0 -0.0827061966 0.1566617059 0.2667122263 -0.4926044185 0.2667064199 -0.4926212593 -0.0611169071 0.1727290891
515296910.0 -0.0812775481 0.1577889358 0.2605837004 -0.4948435892 0.2606349022 -0.4952878419 -0.0597480453 0.1729169212
520296880.0 -0.0794917831 0.158859481 0.2553835568 -0.4976556345 0.2555575157 -0.4975852175 -0.0574513146 0.1743376595
525296850.0 -0.0779026454 0.1593744254 0.2497476892 -0.5002807878 0.2497882296 -0.5004420332 -0.0555711961 0.1745417362
530296820.0 -0.0766271783 0.1603908081 0.2442144946 -0.5030636283 0.2446290638 -0.5028933371 -0.0535062338 0.1750839952
535296790.0 -0.0741499615 0.1610406251 0.2389740917 -0.5057221783 0.2392272056 -0.5059173826 -0.0516164018 0.1764674766
540296760.0 -0.0727898636 0.1622749271 0.2333840964 -0.5081683677 0.2332530177 -0.5082163455 -0.0495340903 0.1765592166
545296730.0 -0.0719100698 0.1634512746 0.2282658409 -0.5106569518 0.2279395453 -0.5106286602 -0.0477806288 0.1777221959
550296700.0 -0.0692557333 0.1641054235 0.222416919 -0.5130981691 0.2221323108 -0.5135780353 -0.0455459107 0.1781674824
555296670.0 -0.0681020233 0.1649139289 0.2169764193 -0.5156669675 0.21668348 -0.5156144941 -0.0437625195 0.1785231797
560296640.0 -0.0659690795 0.1653124517 0.2108253181 -0.5174296848 0.2113136301 -0.5181013124 -0.0416331359 0.1797482047
565296610.0 -0.0647649461 0.1663525724 0.2058684316 -0.5202575576 0.205444702 -0.5196711012 -0.0391652746 0.1801028518
570296580.0 -0.0628788797 0.1672579513 0.1998266489 -0.522203275 0.1996664534 -0.5222337972 -0.0376848006 0.1805297923
575296550.0 -0.0610174421 0.1678680626 0.1945954706 -0.5244746828 0.1938958505 -0.5241905465 -0.0354599128 0.1809977447
580296520.0 -0.0594495131 0.1690563517 0.1886872504 -0.5262263862 0.1882491295 -0.5265628547 -0.033855932 0.1813619258
585296490.0 -0.0576298759 0.1698676564 0.1831100333 -0.5283225682 0.1821223379 -0.5281849459 -0.0310835768 0.182218363
590296460.0 -0.0553200969 0.1703886575 0.1770607458 -0.5300542361 0.1767275901 -0.5303592621 -0.0295047327 0.1825496802
595296430.0 -0.0539229736 0.1710171989 0.1705612918 -0.5322046759 0.1710707459 -0.5321173554 -0.0273032127 0.1828657948
600296400.0 -0.0520584795 0.1718294518 0.1651684137 -0.5338205362 0.1650848411 -0.5340774524 -0.0253671141 0.1834242864
605296370.0 -0.0507468232 0.1727586463 0.1599119134 -0.5352555364 0.159298476 -0.535702873 -0.0232932774 0.1839612163
610296340.0 -0.0486594108 0.1738175844 0.1535402072 -0.5367619744 0.1540604851 -0.537272741 -0.0213978028 0.1843056518
615296310.0 -0.0466978285 0.1739652623 0.1480321802 -0.5389208219 0.1473868622 -0.5388571888 -0.018679938 0.1846627273
620296280.0 -0.0452644297 0.1752587567 0.1417015764 -0.5403662804 0.1419036985 -0.5403986915 -0.0172258372 0.1853710571
625296250.0 -0.0437524393 0.1755299002 0.1360159083 -0.5422027434 0.1361270122 -0.542368461 -0.015387595 0.185278824
630296220.0 -0.0418399137 0.1766766677 0.1298691167 -0.5436054398 0.1301273359 -0.5436473386 -0.0130378574 0.1858700412
635296190.0 -0.0401955263 0.1775145472 0.1246577399 -0.5444785088 0.1239396261 -0.5446363558 -0.0109768238 0.1858675311
640296160.0 -0.0384439346 0.1778029783 0.1185594337 -0.5460661512 0.1180320366 -0.5463816938 -0.00886144 0.1862475609
645296130.0 -0.0364446372 0.1786674604 0.1123857453 -0.5473275068 0.1124047181 -0.5469817429 -0.0070803703 0.1860090642
650296100.0 -0.0346860409 0.1789795926 0.1067836688 -0.548622476 0.1064062424 -0.5485560086 -0.0042833409 0.1861955491
655296070.0 -0.0330685393 0.1798229671 0.1000804641 -0.5497627381 0.100718104 -0.5490250417 -0.0030751128 0.1869640452
660296040.0 -0.0310841834 0.180331871 0.0949968833 -0.550568134 0.0949038522 -0.5505021113 -0.0005703075 0.1865715098
665296010.0 -0.0294429293 0.1806971363 0.0885093391 -0.5511247034 0.0884623282 -0.5513365357 0.0014795289 0.1870072024
670295980.0 -0.027493877 0.1816191188 0.0822305983 -0.5522653158 0.0828411272 -0.5518767378 0.0030271255 0.1868677681
675295950.0 -0.0260938865 0.1820724923 0.0765528692 -0.5527043575 0.0767230702 -0.5532005608 0.0055234225 0.1872533709
680295920.0 -0.0243141236 0.1823618025 0.0706048343 -0.5532373871 0.0707145275 -0.5535372682 0.0078830291 0.1872045017
685295890.0 -0.022436425 0.1832594083 0.0647576779 -0.5550351655 0.0647211087 -0.5547498655 0.0097704569 0.187696971
690295860.0 -0.020698642 0.183612437 0.0586740807 -0.5553287851 0.0582205429 -0.5551949925 0.0119164143 0.187521027
695295830.0 -0.0187876211 0.1839354118 0.0532856443 -0.5560960684 0.0527701772 -0.5556104583 0.0137153 0.187379216
700295800.0 -0.0169124043 0.1848026114 0.0468811094 -0.5563041522 0.0466559551 -0.5560862412 0.0158911055 0.1874715101
705295770.0 -0.0155113625 0.185147745 0.0408044335 -0.5571403347 0.0409423252 -0.556950437 0.0178497424 0.187804543
710295740.0 -0.0137888921 0.1851583518 0.0350398162 -0.5573129754 0.0348721973 -0.5574979496 0.0201546323 0.1875768181
715295710.0 -0.0120818197 0.1859913754 0.0290983978 -0.5576264525 0.028875849 -0.5575930873 0.0219512599 0.1872454549
720295680.0 -0.009759173 0.1859599826 0.0226962294 -0.5576191696 0.0226260629 -0.5579215654 0.0239955403 0.1870857451
725295650.0 -0.0085800745 0.1866965395 0.0174031892 -0.5576397153 0.0167464844 -0.5579886027 0.0259042579 0.1873008925
730295620.0 -0.0073023408 0.1868379077 0.011076973 -0.5575831795 0.0108430015 -0.5575608475 0.0279793378 0.1875679451
735295590.0 -0.0047444291 0.1871138784 0.0049096251 -0.5579874411 0.0046730833 -0.5582124416 0.0302165821 0.1868806242
740295560.0 -0.003433925 0.1870926088 -0.0006746238 -0.5577336396 -0.0008225741 -0.558252159 0.0320446801 0.1871615984
745295530.0 -0.0018084142 0.1878862723 -0.0066934898 -0.5572073631 -0.0065702666 -0.5579204705 0.033944057 0.1867741713
750295500.0 -0.0001410828 0.1881957387 -0.0128027274 -0.5575617917 -0.0129508333 -0.5578423751 0.0361755962 0.1866703108
755295470.0 0.001786128 0.1885080845 -0.0186860888 -0.5579537348 -0.0190260663 -0.5582309982 0.0380981161 0.1867804991
760295440.0 0.0035542268 0.1888850648 -0.0254631626 -0.5573523628 -0.0254862529 -0.5569775828 0.0403093037 0.185588513
765295410.0 0.0053162471 0.1884291504 -0.0308068214 -0.5571338218 -0.03064278 -0.5569225812 0.0422565015 0.185665365
770295380.0 0.0067992074 0.1890918183 -0.0366032382 -0.5563546514 -0.0367081293 -0.5568830631 0.0442472196 0.1855567103
775295350.0 0.0085586494 0.1889103542 -0.0425298583 -0.5561014079 -0.0428393053 -0.5556732995 0.0464111063 0.1852113203
780295320.0 0.0103970793 0.1895020231 -0.0488778969 -0.5553842999 -0.0486663088 -0.5557470193 0.0487540773 0.1846685907
785295290.0 0.0119412815 0.1892784255 -0.0548000445 -0.555016509 -0.0546704499 -0.5552175568 0.0502817077 0.1846843681
790295260.0 0.0140376748 0.1890994192 -0.060339297 -0.5542688097 -0.0601156009 -0.5547762364 0.0521972233 0.1842114881
795295230.0 0.015649177 0.189491237 -0.0665992487 -0.5542357209 -0.0669713891 -0.5540162155 0.0541978511 0.1835193729
800295200.0 0.0172113955 0.1895983119 -0.0719311422 -0.5525015865 -0.0728273102 -0.5529058387 0.0561494151 0.1831680001
805295170.0 0.0187719791 0.1897166398 -0.0784814588 -0.5520747625 -0.0783196887 -0.5525758418 0.0589735044 0.182864965
810295140.0 0.0209565016 0.1896761334 -0.0841846576 -0.5509483007 -0.0844419688 -0.5512405283 0.0605520375 0.1821970682
815295110.0 0.0222001437 0.1896394611 -0.0897921381 -0.5504746111 -0.089880731 -0.5505284572 0.0624120021 0.1817099318
820295080.0 0.0242277455 0.1897215967 -0.0955237276 -0.5492150809 -0.0959313349 -0.5494220422 0.0637505206 0.1819370502
825295050.0 0.0256586373 0.1893340675 -0.1017108622 -0.5484335826 -0.1019541236 -0.5485246875 0.0667472925 0.1811225669
830295020.0 0.0276216529 0.1894633616 -0.1077383724 -0.5468186995 -0.1079257409 -0.5471081684 0.0680611636 0.1799649107
