!Created with skrf (http://scikit-rf.org).
# Hz S RI R 50.0 
!freq ReS11 ImS11 ReS21 ImS21 ReS12 ImS12 ReS22 ImS22
300000.0 -0.0953796064 -0.0997168923 0.6239668899 0.0917151387 0.62151934 0.0941400522 -0.096698149 -0.1055812241
5299970.0 -0.1013954592 0.0113765981 0.6301681978 0.0112247633 0.6313063169 0.0110108372 -0.1017462534 0.0112977808
10299940.0 -0.0969888412 0.0286810296 0.6348363396 0.0163695723 0.6341725811 0.0168022832 -0.0964850424 0.0283176496
15299910.0 -0.0891139704 0.0423702905 0.6406854093 0.0216832693 0.640596241 0.0211503248 -0.089785095 0.0417214305
20299880.0 -0.0805260729 0.0534374325 0.6490802625 0.0243187743 0.6490557636 0.0245750862 -0.0809151194 0.0528426484
25299850.0 -0.0704192183 0.0623066122 0.6582480189 0.0258379129 0.6586906634 0.0254929998 -0.0718391724 0.0617362693
30299820.0 -0.0610937947 0.0688822003 0.6679401802 0.0244737398 0.6680873204 0.0245169262 -0.0617338312 0.0685520056
35299790.0 -0.0504969365 0.0735087705 0.6771817189 0.0220850932 0.6778333457 0.0220630385 -0.0523900977 0.0736736196
40299760.0 -0.0412325895 0.0766930019 0.6870466374 0.0177571862 0.6874215771 0.0175743384 -0.0424975463 0.0768589695
45299730.0 -0.0320459332 0.0786917678 0.6959026704 0.0123407661 0.6964114039 0.0121078351 -0.0332487917 0.0791143607
50299700.0 -0.0229208984 0.0789000684 0.7036590266 0.0058309178 0.7041246606 0.0054028441 -0.0245880298 0.080208302
55299670.0 -0.0152004718 0.0788528748 0.7112813204 -0.0021765732 0.7110934735 -0.0026866935 -0.0171617685 0.0804463441
60299640.0 -0.0076894606 0.0787063892 0.7181145146 -0.0111669069 0.7182249021 -0.0109570028 -0.0096783545 0.0798105947
65299610.0 -0.0013975926 0.0771243992 0.7239730241 -0.019299198 0.7241903784 -0.019937416 -0.0027322453 0.0787194742
70299580.0 0.005206076 0.0751548576 0.7290392413 -0.028700936 0.7294593498 -0.0291724039 0.0029485957 0.0773127451
75299550.0 0.0103964352 0.0732143387 0.7334966598 -0.0393227381 0.7333331806 -0.0386944499 0.0085614017 0.0754040929
80299520.0 0.0154046546 0.0713232513 0.7381456079 -0.0485365468 0.7378646595 -0.0488053488 0.0134791671 0.0733283838
85299490.0 0.019998402 0.0692081372 0.7411700145 -0.0587348825 0.7410173759 -0.0583852654 0.0178752837 0.0708966172
90299460.0 0.0240720084 0.0666175114 0.7435790692 -0.0688690609 0.7435513453 -0.0682760774 0.0224601269 0.0692446717
95299430.0 0.0279262706 0.0642685766 0.7462678199 -0.0787583917 0.7464063665 -0.0790037853 0.0258680888 0.0666200754
100299400.0 0.0311410137 0.0614998226 0.7474643397 -0.0886839029 0.7479095155 -0.0889872766 0.029024522 0.0645542691
105299370.0 0.034162016 0.0591821353 0.7492512494 -0.0983821074 0.750223147 -0.0988873559 0.0326749822 0.0618442654
110299340.0 0.0373331942 0.0565747621 0.7510058019 -0.1079507304 0.7511610452 -0.1088345619 0.0349734407 0.059614327
115299310.0 0.0395192895 0.0543272847 0.7516694969 -0.1185929342 0.7512327885 -0.1186208097 0.0371803487 0.0576540981
120299280.0 0.0416015475 0.0519749034 0.7517811163 -0.1292287388 0.7519963919 -0.1292627363 0.039834774 0.0546363858
125299250.0 0.0438220005 0.0497201066 0.7524479397 -0.1392929749 0.7524582109 -0.1388481085 0.0421606306 0.0529713274
130299220.0 0.0458001124 0.0470484371 0.7523253861 -0.148914239 0.7518403846 -0.1491587792 0.0437089909 0.0508503079
135299190.0 0.0470261512 0.0453294436 0.7522492236 -0.1578899732 0.7522396197 -0.1585737324 0.0454607359 0.0479575648
140299160.0 0.048984253 0.0433034993 0.7514092062 -0.1691195861 0.75133926 -0.1681304691 0.0462515217 0.0456282432
145299130.0 0.0496602862 0.0411627631 0.7505353325 -0.1783224277 0.7508295582 -0.1781754781 0.0478858957 0.0438445467
150299100.0 0.0512349529 0.0392964239 0.7492455575 -0.1878518202 0.7495176766 -0.1876150233 0.0492634488 0.0421354009
155299070.0 0.0527565778 0.0371219967 0.7476907361 -0.1977171593 0.7486525911 -0.1977512153 0.0504054223 0.039672725
160299040.0 0.053284273 0.03555712 0.7466672157 -0.2071020078 0.746774396 -0.2069657003 0.0510061575 0.0383606165
165299010.0 0.0544102832 0.0333162903 0.7452292833 -0.2159551256 0.7450249492 -0.2164467903 0.052162849 0.0360163378
170298980.0 0.0550434943 0.0319213946 0.7430324146 -0.2258679394 0.7437449995 -0.2261505857 0.0527322904 0.0341158503
175298950.0 0.0560800037 0.0305184493 0.7419712097 -0.235004094 0.7419730451 -0.2357091855 0.0534519084 0.0325093914
180298920.0 0.0564886887 0.0288311476 0.7396172251 -0.2448363421 0.7392997 -0.2445937912 0.0540670051 0.0309851947
185298890.0 0.0567101418 0.0272085123 0.7379840308 -0.2533880709 0.7370132413 -0.2532774778 0.055073333 0.029081619
190298860.0 0.0579714422 0.0256572453 0.7342703659 -0.2627780978 0.7350859729 -0.2624451391 0.0552280207 0.0275355154
195298830.0 0.0577149321 0.0245000597 0.732616931 -0.2714475262 0.7335115642 -0.2714117802 0.0555058443 0.0259198098
200298800.0 0.0587382447 0.0225822599 0.7306767309 -0.2809921327 0.7297738836 -0.2808229029 0.0560815824 0.0240377216
205298770.0 0.0582262709 0.0210845763 0.727093438 -0.2889959934 0.7273620002 -0.2889976079 0.0569055455 0.0229715204
210298740.0 0.0589593258 0.0199704588 0.7246338995 -0.2981139529 0.7236611953 -0.2979685182 0.0565520881 0.0207463388
215298710.0 0.0593378964 0.0187591791 0.7211598226 -0.3067357717 0.7213060324 -0.306993713 0.0570424754 0.0201569555
220298680.0 0.0598170104 0.0177099767 0.7174651807 -0.3153254685 0.7175439092 -0.3155005986 0.0573149439 0.0181503884
225298650.0 0.0596950308 0.0162232896 0.7142469563 -0.3236666136 0.7151590947 -0.3237494052 0.0577083044 0.016486388
230298620.0 0.0605014892 0.0150944411 0.7116669542 -0.3325461245 0.7114680206 -0.333186292 0.0574903303 0.0152263716
235298590.0 0.0599135913 0.0139634224 0.7083462769 -0.3416510264 0.708104366 -0.3411237599 0.0577874636 0.0144093693
240298560.0 0.0603454748 0.0128027762 0.7045527952 -0.3494394833 0.7038005025 -0.3488686115 0.0575584485 0.0128366244
245298530.0 0.0604201677 0.0111494785 0.7003813622 -0.3577013302 0.7005889887 -0.3579976518 0.0579171602 0.0119492874
250298500.0 0.0603355351 0.0101693119 0.6967674042 -0.3657708233 0.6968626028 -0.3657787172 0.0576594391 0.0107941853
255298470.0 0.0606577379 0.0097836221 0.6932979274 -0.3739175539 0.6932684113 -0.3741114006 0.0581049496 0.0098245482
260298440.0 0.0605214686 0.0084522654 0.6893654773 -0.3817525199 0.6891763932 -0.3818490919 0.0577405764 0.0080655897
265298410.0 0.0602900457 0.0074992846 0.6847801179 -0.390904843 0.6849287389 -0.3907505817 0.0590219235 0.0067388942
270298380.0 0.0601399994 0.0063711687 0.680739299 -0.3981682826 0.6809126847 -0.3981697756 0.0583019424 0.0060628893
275298350.0 0.0604720161 0.0057776888 0.675734229 -0.4057375355 0.6758111844 -0.405616541 0.0577431879 0.0050652902
280298320.0 0.0599243463 0.0044263731 0.6719063174 -0.413770234 0.6726293447 -0.4141778353 0.0584451328 0.004045392
285298290.0 0.0600918846 0.0035700395 0.6673147592 -0.4215666054 0.6675355601 -0.4216691871 0.0579884837 0.002939048
290298260.0 0.0601065649 0.0028476157 0.6633899626 -0.4293406333 0.6635340084 -0.4294365023 0.0581863413 0.0020092649
295298230.0 0.0599549609 0.0014472333 0.6595068412 -0.4374652718 0.6583101608 -0.4376985529 0.0577321982 0.0002634282
300298200.0 0.0603649204 0.0010963289 0.6542271472 -0.4450457545 0.6537659011 -0.444677141 0.057805114 -0.0006816889
305298170.0 0.0601500569 -0.0007486025 0.6493808724 -0.4531665798 0.649480522 -0.4530776086 0.0577636814 -0.0021344729
310298140.0 0.0604113257 -0.001658231 0.6449693563 -0.4599274731 0.6447822412 -0.4603716299 0.0581307175 -0.0034169355
315298110.0 0.0599345478 -0.0031012767 0.6393288936 -0.4689843364 0.6395130461 -0.4684344771 0.0576581875 -0.0042585679
320298080.0 0.0596225189 -0.0036569709 0.6334457526 -0.4754414037 0.6345991863 -0.4765982764 0.0573013067 -0.0054685803
325298050.0 0.0583881909 -0.0051354015 0.6286917095 -0.4828285402 0.6290967219 -0.4831623722 0.0571511372 -0.0065831841
330298020.0 0.0575850272 -0.0059467709 0.6229356386 -0.4906972718 0.6233949337 -0.4909252054 0.0560757318 -0.0078017645
335297990.0 0.0578616857 -0.0065740163 0.6174672382 -0.4973931005 0.6175623712 -0.4976794712 0.0558414131 -0.0087233261
340297960.0 0.0571946606 -0.00746654 0.6110906681 -0.5042882894 0.6113972152 -0.5044783756 0.0551883292 -0.0093365508
345297930.0 0.0564118231 -0.0082460653 0.6063419092 -0.5117461583 0.6060046157 -0.5116122747 0.0550950371 -0.0103483484
350297900.0 0.0555061987 -0.0090856695 0.6003325493 -0.5176477527 0.6007587628 -0.5182132667 0.0548281482 -0.0110496512
355297870.0 0.0556436654 -0.0097712234 0.5949930531 -0.5244570494 0.5946637548 -0.5244655877 0.0545549264 -0.0118914182
360297840.0 0.055266019 -0.0100777716 0.5892366858 -0.5315316842 0.5886801645 -0.5312848144 0.0535138857 -0.0120834414
365297810.0 0.0545518179 -0.0111912501 0.5826776538 -0.5379172284 0.5821373583 -0.5382630357 0.0530206829 -0.0131053497
370297780.0 0.0546937938 -0.0112346351 0.5764482175 -0.5444289838 0.5770328636 -0.5443034757 0.052860345 -0.0139510685
375297750.0 0.0543532682 -0.0120852636 0.5706336814 -0.5506688466 0.5711931384 -0.5508767084 0.0530174404 -0.0143795471
380297720.0 0.0533548698 -0.0126237328 0.5647095002 -0.557364013 0.5646468214 -0.5575371459 0.0522972745 -0.0147740859
385297690.0 0.0531461243 -0.0135427689 0.5585879064 -0.5635526062 0.5585105629 -0.5638950652 0.0521783978 -0.0153123798
390297660.0 0.052870572 -0.0144919506 0.5521462067 -0.5692555392 0.5524538217 -0.5696725141 0.052144088 -0.0167108834
395297630.0 0.0530576839 -0.0149157386 0.5462522203 -0.5752728227 0.5461817001 -0.5752209477 0.051470457 -0.0171010709
400297600.0 0.0520825758 -0.0158283556 0.5396709339 -0.5819211465 0.5397456244 -0.5817550853 0.0514369153 -0.0173949623
405297570.0 0.0520540392 -0.0165573329 0.5334631231 -0.5876641401 0.5336676554 -0.5880278401 0.0511631156 -0.0177051686
410297540.0 0.0513941771 -0.0165581259 0.5270725019 -0.5939120638 0.5270006347 -0.5937388859 0.0505725517 -0.0185758913
415297510.0 0.05108017 -0.0174321127 0.5199319784 -0.5993639065 0.5213992137 -0.6000029986 0.0505889451 -0.0188425815
420297480.0 0.0507193535 -0.0184000451 0.51367182 -0.6055694992 0.5139223153 -0.6050847727 0.050368889 -0.0195013918
425297450.0 0.0510649877 -0.0188454477 0.5071965026 -0.6109631341 0.5072488373 -0.6109332584 0.0499713149 -0.0207588122
430297420.0 0.0500811091 -0.0194222493 0.5012055777 -0.6166393129 0.5006721481 -0.6162037884 0.0499739498 -0.020753441
435297390.0 0.0500790163 -0.0201454755 0.4933025778 -0.6228625399 0.4937137368 -0.6222212041 0.048782506 -0.0212337354
440297360.0 0.0497434217 -0.020984181 0.4863360074 -0.6276369085 0.4862442262 -0.6279945802 0.0489384134 -0.0217095573
445297330.0 0.0493313338 -0.022119261 0.4802128413 -0.6328620909 0.4801271014 -0.6331694144 0.0482187821 -0.0220474898
450297300.0 0.0489421724 -0.022260694 0.4731059802 -0.6380373175 0.4730951788 -0.6381320373 0.0482156235 -0.0223831867
455297270.0 0.0479649548 -0.0227216682 0.4662563094 -0.6434281276 0.4661825097 -0.6436989252 0.0477924508 -0.0233474892
460297240.0 0.0480814592 -0.0234074565 0.4588926668 -0.6489204852 0.4587788593 -0.649134107 0.0474641254 -0.0242127445
465297210.0 0.0476889926 -0.0242124899 0.451266607 -0.6538274536 0.4512145183 -0.6536316321 0.0476017689 -0.0238499712
470297180.0 0.0471774171 -0.0250240299 0.4446220813 -0.6586143417 0.4448814789 -0.6579816045 0.0468826629 -0.0251254524
475297150.0 0.046490876 -0.0251372139 0.4371202356 -0.6639641741 0.4375129106 -0.6636033765 0.0466102169 -0.0254049255
480297120.0 0.047078492 -0.0248917804 0.4300001079 -0.6685068353 0.4304200951 -0.6682104071 0.0460395946 -0.026223724
485297090.0 0.0463174705 -0.0270850905 0.4227086338 -0.6732170774 0.4230864562 -0.6731927159 0.0456954984 -0.0264334189
490297060.0 0.0462473541 -0.0268302342 0.4148570891 -0.6781013098 0.4150650656 -0.6781900215 0.0452405195 -0.0269462594
495297030.0 0.0450601184 -0.0276896322 0.4080209432 -0.6823360503 0.4076545465 -0.6825405973 0.0453215775 -0.0277668006
500297000.0 0.0449263374 -0.0278563042 0.4005530251 -0.686491091 0.4003395045 -0.6869775645 0.0449805549 -0.0275566234
505296970.0 0.0451503752 -0.0284537591 0.3926232668 -0.6913958231 0.3930887282 -0.6909388524 0.0443527375 -0.0290109277
510296940.0 0.0443478666 -0.0291215072 0.3848906279 -0.6961421451 0.3858496293 -0.696122289 0.0445869778 -0.0288830882
515296910.0 0.0437610371 -0.0290793282 0.3768610621 -0.6998381211 0.3769567865 -0.6998751733 0.0439443634 -0.0302431375
520296880.0 0.0433805971 -0.0297102341 0.369642183 -0.70347038 0.3697171129 -0.703604804 0.0440206133 -0.0293769877
525296850.0 0.0434095396 -0.0305187282 0.3620624107 -0.7079368055 0.361401339 -0.7077540769 0.0437790433 -0.0304418687
530296820.0 0.0425958255 -0.0312778307 0.3544415405 -0.7119800168 0.3542886656 -0.7116074332 0.0431582949 -0.0312212817
535296790.0 0.042951428 -0.0312625857 0.3462540553 -0.7153549964 0.3467052998 -0.7155056641 0.0433177825 -0.0310200598
540296760.0 0.0422467607 -0.0314112909 0.3382362838 -0.7195890914 0.3387155152 -0.7193186158 0.0423828207 -0.0321020755
545296730.0 0.0411142624 -0.0320883722 0.3306684334 -0.7225233774 0.3306459211 -0.7226914916 0.0419687033 -0.0324926904
550296700.0 0.0415755438 -0.0323974465 0.3228052273 -0.7266362224 0.3227531456 -0.727303823 0.0419684468 -0.0327862899
555296670.0 0.0408037089 -0.0329988587 0.3142666696 -0.7307811088 0.3150271862 -0.7302741506 0.0413381181 -0.0339851418
560296640.0 0.0412375007 -0.0332978957 0.30669438 -0.7334042717 0.3074959574 -0.7336812536 0.0405885544 -0.0335613794
565296610.0 0.0400307481 -0.0338275364 0.2988646356 -0.7374284755 0.2993824043 -0.7364648684 0.0402322913 -0.0337930171
570296580.0 0.0392289137 -0.0337878714 0.290428564 -0.7403783193 0.2907831076 -0.7405366399 0.0399652665 -0.0349591887
575296550.0 0.0392457936 -0.0343844688 0.2829854779 -0.7435690452 0.2830440872 -0.7434110035 0.0393565632 -0.0349741172
580296520.0 0.0387359666 -0.0341843009 0.2743057036 -0.7466305939 0.2742326469 -0.7465680323 0.0387056035 -0.0354868893
585296490.0 0.0384682717 -0.0346522513 0.2663867904 -0.7493680169 0.2660501937 -0.7490846911 0.0388542103 -0.0353091671
590296460.0 0.0388359242 -0.0351428896 0.2584142015 -0.7517538003 0.258384728 -0.7524087962 0.037710383 -0.0359379987
595296430.0 0.0378492907 -0.0354692286 0.248854274 -0.7544482178 0.2492971485 -0.7555210513 0.0375115302 -0.0369710577
600296400.0 0.0376502352 -0.0357398611 0.2409937274 -0.7575152798 0.2408402721 -0.7575872323 0.0373930101 -0.0371578351
605296370.0 0.036301596 -0.0358088816 0.2335950864 -0.7599486052 0.2329407954 -0.7607612873 0.036310278 -0.0372316278
610296340.0 0.0366433136 -0.0357576574 0.2247042436 -0.761754906 0.2253816787 -0.7624972263 0.0358721754 -0.037545097
615296310.0 0.0365313341 -0.0366124936 0.2167142867 -0.7658038232 0.2159631149 -0.7654469536 0.0356006213 -0.0378865993
620296280.0 0.0352523208 -0.0360951081 0.2079152296 -0.7677942084 0.2080177466 -0.7673948417 0.0347600544 -0.0378674573
625296250.0 0.0345164934 -0.0366596789 0.1999371315 -0.7698229209 0.1994943732 -0.770026053 0.0337455781 -0.0386652888
630296220.0 0.034286419 -0.0369649777 0.1905941742 -0.7724293886 0.191086353 -0.7719245038 0.0338684672 -0.0387458345
635296190.0 0.0333737934 -0.0368650122 0.1831319744 -0.7734923799 0.1830403627 -0.773910016 0.033248336 -0.0389833749
640296160.0 0.0329351027 -0.0371279464 0.1737120672 -0.7763450615 0.1745250388 -0.7759478002 0.0321842686 -0.0396880988
645296130.0 0.0332452503 -0.036841512 0.1658550703 -0.7772851594 0.1658157244 -0.7776231854 0.0317437524 -0.0403329851
650296100.0 0.0322537067 -0.0373230294 0.1576234449 -0.779820938 0.1576864356 -0.7797280657 0.0322176039 -0.0404424433
655296070.0 0.031813516 -0.0375346756 0.1484947482 -0.7813109268 0.1488475315 -0.7807287515 0.0304649472 -0.040455262
660296040.0 0.0312852943 -0.0375355776 0.1403924825 -0.7828150993 0.1405801592 -0.7828605789 0.0302234983 -0.0411755614
665296010.0 0.0306447213 -0.0378132902 0.1311699637 -0.7839222768 0.131493915 -0.7839075213 0.0297613032 -0.0406113015
670295980.0 0.0302765216 -0.0378559813 0.122558512 -0.7862286312 0.1230059203 -0.7853090036 0.0285108329 -0.0414171074
675295950.0 0.0295278652 -0.037997522 0.1147145844 -0.7862591334 0.1143662685 -0.7869436649 0.0280250873 -0.0412109012
680295920.0 0.0290688523 -0.0379639483 0.1062211829 -0.7877644543 0.1062825943 -0.787809437 0.0280496731 -0.0420550029
685295890.0 0.028711107 -0.0380723617 0.0972317805 -0.7894750255 0.0977666879 -0.7890558249 0.0275882574 -0.041567771
690295860.0 0.0275134582 -0.0382388635 0.0886712663 -0.7903152995 0.0884843073 -0.7904370131 0.0265505939 -0.0421927637
695295830.0 0.027311485 -0.0385085171 0.0806689879 -0.7910700244 0.080511357 -0.7908068817 0.025923779 -0.0420497807
700295800.0 0.0267437308 -0.0381789641 0.0719570796 -0.7920496441 0.0720486486 -0.7922675715 0.0251644325 -0.0420508716
705295770.0 0.0258464291 -0.038367938 0.0627832093 -0.7932477624 0.0635218378 -0.7926859074 0.0245233855 -0.0421650866
710295740.0 0.0257178884 -0.0385030702 0.0544912006 -0.793378111 0.0545927229 -0.7938836353 0.0241760945 -0.0421445367
715295710.0 0.0248839534 -0.0379688485 0.0459469768 -0.7942223767 0.0458045246 -0.7937692533 0.0235018478 -0.042634362
720295680.0 0.0247733988 -0.0384579577 0.036686305 -0.7935636456 0.036880901 -0.7946603634 0.0226933669 -0.0428243424
725295650.0 0.0233767225 -0.038446684 0.0287497527 -0.7947634735 0.0288979144 -0.7944587611 0.0215947969 -0.0422158618
730295620.0 0.0220848542 -0.0387161599 0.0192701503 -0.7946831131 0.0200492488 -0.7942713182 0.0210411657 -0.0420939907
735295590.0 0.0224112774 -0.0384972529 0.0112232985 -0.7952521118 0.0112157519 -0.7950158747 0.0202744675 -0.0428486404
740295560.0 0.0215856603 -0.0387302747 0.002512737 -0.7949923749 0.0030591368 -0.7954693929 0.0193481702 -0.0423893895
745295530.0 0.0210888395 -0.0387865325 -0.0057935648 -0.7940900625 -0.004885747 -0.7948024651 0.0183812022 -0.0428337049
750295500.0 0.0200732357 -0.0384035469 -0.0138494467 -0.7947811577 -0.0148605639 -0.7947925951 0.0182404519 -0.0426365142
755295470.0 0.0192314394 -0.0385356573 -0.0230905354 -0.7950608585 -0.022613982 -0.7946121008 0.0178930842 -0.042273082
760295440.0 0.0191828612 -0.0378786508 -0.032304303 -0.7942051477 -0.031500346 -0.7937039738 0.0172720402 -0.0434768057
765295410.0 0.0187574732 -0.0384620457 -0.0403902987 -0.7940699527 -0.0401690442 -0.7938238468 0.0164629396 -0.0426744268
770295380.0 0.0177831528 -0.0380559491 -0.048551584 -0.7926589979 -0.048674085 -0.793362682 0.0154496417 -0.0425535113
775295350.0 0.0171249765 -0.0385657329 -0.0574415415 -0.7930051268 -0.0570195035 -0.792339487 0.0154501337 -0.0422706963
780295320.0 0.0163685471 -0.0381015451 -0.0656365048 -0.7912232849 -0.0653995731 -0.7914824118 0.0147683379 -0.0426481142
785295290.0 0.0158494415 -0.0382991512 -0.0745497789 -0.7913524664 -0.0744856795 -0.7912415934 0.0131874997 -0.0422235766
790295260.0 0.0156000091 -0.0383796497 -0.0825805724 -0.7900389464 -0.0825608587 -0.7902705461 0.0128761969 -0.0419458789
795295230.0 0.0146486296 -0.0387482642 -0.0915449071 -0.7897199873 -0.0917254376 -0.7898096905 0.0124770306 -0.0430110864
800295200.0 0.0135629947 -0.0378030907 -0.0997220622 -0.7880097719 -0.1001855095 -0.7883623655 0.0114288962 -0.0421277644
805295170.0 0.0129450765 -0.0382009555 -0.108835403 -0.7872755861 -0.1081990252 -0.7871306602 0.0117204334 -0.0417408171
810295140.0 0.0129778109 -0.0379214414 -0.1170681915 -0.7859739402 -0.1171918852 -0.7862605903 0.0107454441 -0.0422461423
815295110.0 0.0119028002 -0.037843375 -0.125720837 -0.7844054677 -0.1251764999 -0.7848774205 0.0099122284 -0.0419589769
820295080.0 0.0116353369 -0.0378664454 -0.1338880605 -0.7827274479 -0.133480213 -0.78347536 0.0080969505 -0.0410488246
825295050.0 0.0105703089 -0.0378366141 -0.1428748436 -0.7818852862 -0.1429151492 -0.7815883972 0.0089995637 -0.0408091373
830295020.0 0.0098945913 -0.037929452 -0.1510139747 -0.7802488155 -0.1510823664 -0.7805305168 0.0079176506 -0.0416242896
