!Created with skrf (http://scikit-rf.org).
# Hz S RI R 50.0 
!freq ReS11 ImS11 ReS21 ImS21 ReS12 ImS12 ReS22 ImS22
300000.0 -0.0955286704 -0.1036251699 0.6237959202 0.0943926179 0.6206250916 0.0947106779 -0.0949024448 -0.1058095439
5299970.0 -0.101376596 0.0113348697 0.6304247963 0.0111543946 0.6310983082 0.011036325 -0.1016184801 0.0113191079
10299940.0 -0.0969442257 0.0286349523 0.634377867 0.0165381024 0.6342451841 0.0165382064 -0.0963351269 0.0282922513
15299910.0 -0.0891618032 0.0424493707 0.6402649224 0.0212345759 0.6404222359 0.021260989 -0.0899354698 0.04182496
20299880.0 -0.0802961291 0.0536371604 0.6491172544 0.0244210809 0.6490238676 0.0241386507 -0.0809605715 0.0527516594
25299850.0 -0.0702511834 0.0626070801 0.6582295282 0.0256890965 0.6583398494 0.0250437391 -0.0717563967 0.0617053043
30299820.0 -0.060959183 0.0687190378 0.6678616643 0.0245654422 0.6681199603 0.0245258015 -0.0614368234 0.0683646885
35299790.0 -0.0504466309 0.0735106037 0.6768981496 0.0220591612 0.6776150418 0.0219478946 -0.0521000911 0.0737262937
40299760.0 -0.0409445134 0.0764936217 0.6868931235 0.0178777316 0.686690274 0.0176515672 -0.0427431263 0.076694769
45299730.0 -0.0319025336 0.0785187766 0.6961139365 0.0126549029 0.6957850571 0.0122394189 -0.0332388012 0.078903761
50299700.0 -0.0228676976 0.0789650693 0.7037642402 0.0051719275 0.7037950308 0.0053423322 -0.0242313596 0.0803688874
55299670.0 -0.0149256347 0.0788990413 0.7113203592 -0.0022975526 0.710657625 -0.0029659207 -0.0171214773 0.0803399855
60299640.0 -0.0075709903 0.078660758 0.7181122449 -0.0111445183 0.7179965942 -0.0110475848 -0.0095905136 0.0794398746
65299610.0 -0.001117899 0.077442287 0.7243288821 -0.0197082183 0.7242662115 -0.0196352181 -0.0024801253 0.0787743952
70299580.0 0.0051805213 0.0751127138 0.7288715987 -0.0282258724 0.7293081237 -0.0287469955 0.0031225557 0.0775919482
75299550.0 0.0106370663 0.0732439319 0.7333178082 -0.0389984001 0.73335133 -0.03880437 0.0088773811 0.0753187254
80299520.0 0.0153768735 0.0713535637 0.7376314513 -0.0486172365 0.7380319258 -0.0487148004 0.0138878989 0.0736073279
85299490.0 0.0200288635 0.0692856546 0.7411579342 -0.0590357721 0.7411435932 -0.0581437205 0.0180797202 0.0709430736
90299460.0 0.023827736 0.066607836 0.7431080487 -0.0688595193 0.7435567881 -0.068246917 0.0225016351 0.0694081841
95299430.0 0.0280218429 0.0641551377 0.7463504133 -0.0785652692 0.7464841288 -0.0787579467 0.0257197543 0.0668165452
100299400.0 0.0311295078 0.0616088044 0.7477557616 -0.0889353738 0.747563753 -0.0890405829 0.029159166 0.0648283941
105299370.0 0.0344566023 0.0592477525 0.7491689428 -0.098828243 0.749627007 -0.0990410537 0.032881607 0.0617392246
110299340.0 0.0374634312 0.0562968327 0.7505602636 -0.1085747632 0.7507391884 -0.1083728748 0.0348913651 0.0594063253
115299310.0 0.0398742704 0.0543227056 0.7505888998 -0.1188363899 0.7509010118 -0.1186919598 0.0376230695 0.057712278
120299280.0 0.0417088463 0.0520139304 0.7518799438 -0.129496445 0.7519314364 -0.1299428178 0.0399747355 0.0544934887
125299250.0 0.0437205347 0.0495877841 0.7524460624 -0.1392745802 0.7520550546 -0.1384460099 0.0421561156 0.052792337
130299220.0 0.0458399003 0.0471305803 0.752039845 -0.1492038252 0.7518846989 -0.1491846464 0.0436841552 0.0507270061
135299190.0 0.0470285224 0.0452941486 0.752091509 -0.158161962 0.7522859253 -0.1589091932 0.0455764025 0.047806844
140299160.0 0.0489226491 0.0433746009 0.7517584869 -0.1689666428 0.7510561718 -0.1682128593 0.0464385539 0.0452907731
145299130.0 0.0493228774 0.041061473 0.7502172761 -0.178091163 0.7503120231 -0.1782281806 0.0481745177 0.0436061575
150299100.0 0.0510888583 0.039253507 0.7493322201 -0.1878448545 0.7493750397 -0.18794585 0.0493981314 0.0420457731
155299070.0 0.0525345467 0.0368988634 0.7475766085 -0.1976407611 0.7484123681 -0.1977288855 0.0507844062 0.0396183025
160299040.0 0.0535500598 0.0354093916 0.7467754362 -0.2072216798 0.7465458936 -0.2072822416 0.0509818324 0.0380419297
165299010.0 0.0544493673 0.0336756343 0.7452681204 -0.2165532817 0.7448484608 -0.2168300221 0.0524500715 0.0360587728
170298980.0 0.0549885356 0.0318558475 0.7431522786 -0.2258628523 0.7431137644 -0.2260180008 0.0527573337 0.0339308266
175298950.0 0.0559374606 0.0303903712 0.7420677937 -0.2350423949 0.7418114155 -0.2358625739 0.0537638808 0.0327180711
180298920.0 0.0563731794 0.0287448535 0.7394341128 -0.2446349557 0.7393976455 -0.2447353455 0.0542108638 0.0308106424
185298890.0 0.0568371727 0.0270749894 0.7375594217 -0.2530865102 0.7372559232 -0.2534775105 0.0552677579 0.0288668167
190298860.0 0.0579281533 0.02557771 0.7344277058 -0.2628416133 0.7348860259 -0.2625160846 0.055347636 0.0275285853
195298830.0 0.0578414408 0.0240724287 0.732471395 -0.2715538076 0.7327340212 -0.2717245446 0.0555983971 0.0255829272
200298800.0 0.0586091296 0.0222604033 0.7298777674 -0.2811249526 0.7299425692 -0.2807694187 0.0562505995 0.024017548
205298770.0 0.0583100407 0.0208537957 0.7274122851 -0.2893456387 0.7272618987 -0.2892011098 0.0568453986 0.0225153395
210298740.0 0.0589066118 0.019991066 0.7243288745 -0.2980716957 0.7236781951 -0.2985648931 0.0565453351 0.0208757556
215298710.0 0.0594063239 0.01856353 0.721076861 -0.306441778 0.7208170351 -0.30700925 0.0571326472 0.0197884488
220298680.0 0.0595751693 0.017543108 0.7176502522 -0.3157050066 0.7173920352 -0.3156646354 0.0574389473 0.0182839126
225298650.0 0.0597206244 0.0161105326 0.7140218247 -0.3238432237 0.7145346495 -0.3239251808 0.0578376298 0.0165946264
230298620.0 0.0602158061 0.0152699616 0.7116967021 -0.3332224902 0.7115733815 -0.3328960625 0.057530554 0.0154053411
235298590.0 0.0597979437 0.013765361 0.7080193241 -0.3419577502 0.7080508475 -0.3414583774 0.0578459245 0.0140643585
240298560.0 0.0603600287 0.0128636315 0.7044518442 -0.3491755665 0.7036080438 -0.3496515459 0.0578719236 0.012992656
245298530.0 0.0600280865 0.0108815883 0.7001211833 -0.3583912397 0.699984591 -0.358268262 0.0581618194 0.011753163
250298500.0 0.0599366668 0.0101011577 0.6968399932 -0.3662562718 0.6965221078 -0.3660211925 0.0578596556 0.0106326816
255298470.0 0.0605591506 0.0094909765 0.6933965609 -0.373962049 0.6934834712 -0.3741804888 0.0581004421 0.0098936983
260298440.0 0.0607276837 0.0081846791 0.6890578274 -0.3819497318 0.6891474912 -0.3824517439 0.0577830935 0.0076938165
265298410.0 0.0601095518 0.0075368048 0.6845858306 -0.3905765303 0.6845359179 -0.3908500858 0.0586756446 0.0067421395
270298380.0 0.0600061654 0.0061794432 0.6803680828 -0.398417214 0.6805229913 -0.3980027909 0.0580880714 0.0063536696
275298350.0 0.0604178972 0.0056729218 0.6760369372 -0.405734443 0.6757605513 -0.4057384822 0.0579230515 0.0049744133
280298320.0 0.0598455547 0.0045137903 0.6722274718 -0.4136080085 0.6722114034 -0.4140453121 0.0585278044 0.0038982015
285298290.0 0.0599849445 0.0032579128 0.6671427616 -0.4218055319 0.6671672207 -0.4214787612 0.0580452718 0.0027514751
290298260.0 0.0597531668 0.0028892756 0.6636593049 -0.4294630591 0.6631579783 -0.429360325 0.0582768087 0.0015417256
295298230.0 0.0600049259 0.0012589541 0.6582098966 -0.4380491359 0.6584003637 -0.437791634 0.0580177878 0.0005147074
300298200.0 0.0602549084 0.000979259 0.6545385548 -0.4447105251 0.6535769507 -0.4449055483 0.0578482865 -0.0008283874
305298170.0 0.0602443012 -0.0006564886 0.6492946233 -0.4530830156 0.6493801559 -0.4529951109 0.0575606205 -0.0021860918
310298140.0 0.0604361075 -0.0016474076 0.6443611953 -0.4603140622 0.6445677474 -0.460091955 0.0580268093 -0.0035954047
315298110.0 0.0599563868 -0.0030808693 0.6392946121 -0.4680720888 0.639162003 -0.4686361833 0.0577101271 -0.0044721915
320298080.0 0.0595490264 -0.0036917529 0.633424744 -0.4754729037 0.6341989415 -0.4760327642 0.0572910099 -0.0055080536
325298050.0 0.058619059 -0.0054376652 0.6283620285 -0.4830574189 0.6292148949 -0.4831378365 0.0572224296 -0.0069538883
330298020.0 0.0573953305 -0.0056131323 0.622606536 -0.4907914064 0.6231594058 -0.4909102005 0.0558567451 -0.0083122969
335297990.0 0.0577861699 -0.0065386043 0.6173374101 -0.4974451659 0.6177678858 -0.4978655885 0.0555578979 -0.0085157561
340297960.0 0.0570588414 -0.007593794 0.6117117279 -0.5046664943 0.6109235289 -0.5046455643 0.0552116669 -0.0090438441
345297930.0 0.0562841115 -0.0085628364 0.6057428558 -0.5122886185 0.6057420113 -0.5118900988 0.0551210056 -0.0105482361
350297900.0 0.0556869464 -0.009234695 0.6000965347 -0.5177407175 0.6004317932 -0.5179719957 0.0544607026 -0.0111967929
355297870.0 0.0555674223 -0.0098175735 0.5945985777 -0.5240722487 0.5944372428 -0.5245279384 0.0546299259 -0.0120710304
360297840.0 0.0550628578 -0.0103581057 0.5883885774 -0.5313189517 0.5883623314 -0.5318718795 0.0534308142 -0.0122889572
365297810.0 0.0546625496 -0.0110344996 0.5822159871 -0.5379253854 0.5819888359 -0.5383340971 0.0529847341 -0.0131754293
370297780.0 0.0546592817 -0.0113527897 0.5762684641 -0.5449271093 0.5763736923 -0.5443059316 0.0527036408 -0.014299687
375297750.0 0.0544080522 -0.0122253627 0.5701040459 -0.5509221753 0.5703403504 -0.5511156082 0.0529037869 -0.0146259269
380297720.0 0.0535844354 -0.0125165554 0.5651057974 -0.5575870996 0.5645553444 -0.5573665072 0.0522668128 -0.015044685
385297690.0 0.0531780968 -0.0135841139 0.5578775992 -0.5634081758 0.5584427465 -0.5642228492 0.0521964781 -0.0155346115
390297660.0 0.0529894949 -0.0144186369 0.551712727 -0.569386106 0.5524010365 -0.5698668135 0.0521748471 -0.0165989035
395297630.0 0.0531422003 -0.0152834058 0.5457326813 -0.5747135082 0.5456392639 -0.5755375065 0.0512049788 -0.017018061
400297600.0 0.0521663222 -0.0158616181 0.5393735298 -0.5820294449 0.5398530506 -0.5820124369 0.0514155631 -0.0171494599
405297570.0 0.052043995 -0.0168028317 0.5334539106 -0.587922173 0.5331371781 -0.5877486233 0.0507706185 -0.0177812531
410297540.0 0.0516297217 -0.0165497297 0.5263590954 -0.593763507 0.5269580115 -0.5938224582 0.0506190218 -0.0185705629
415297510.0 0.0509090964 -0.0173987196 0.5196961111 -0.5994744718 0.5202955516 -0.599843644 0.0505275314 -0.0191427616
420297480.0 0.050569406 -0.0183182008 0.5129387673 -0.605468495 0.5134541884 -0.605126613 0.0505317082 -0.0195621237
425297450.0 0.0510119953 -0.0189534015 0.5069848379 -0.6109859367 0.5067139373 -0.6108560961 0.0498026132 -0.0204904654
430297420.0 0.0499044338 -0.0192812221 0.5010636665 -0.6165405771 0.5008941023 -0.6161263525 0.0500964236 -0.0208550157
435297390.0 0.0496284668 -0.0204723978 0.492925918 -0.6231102955 0.4932775266 -0.6220613828 0.0488277404 -0.0214094388
440297360.0 0.0498273843 -0.0209639507 0.4866193185 -0.6273386651 0.4859301618 -0.6279225795 0.0489734129 -0.0217496331
445297330.0 0.0492176403 -0.022004255 0.4797927507 -0.632804599 0.4794761737 -0.6330987456 0.0482025299 -0.0221143302
450297300.0 0.0488239808 -0.0222046573 0.4724500135 -0.6382859488 0.4732100653 -0.6381958362 0.047973549 -0.0224763247
455297270.0 0.0479964691 -0.0229415364 0.4656423697 -0.6431017856 0.4657698969 -0.6433057756 0.0476925956 -0.0235849037
460297240.0 0.0482789399 -0.0232282009 0.4586423907 -0.6492102711 0.4585917369 -0.6488834776 0.0473341961 -0.0241453583
465297210.0 0.047680311 -0.0241495911 0.4511811363 -0.6534830094 0.4506904281 -0.6544185242 0.0476347359 -0.0237181326
470297180.0 0.047227506 -0.0249679656 0.4441418888 -0.6582550854 0.4446571012 -0.658367028 0.0469641271 -0.0251311414
475297150.0 0.0466422437 -0.0249330019 0.4367497777 -0.6637481544 0.4365523073 -0.6639238951 0.0465922629 -0.0257270229
480297120.0 0.0468414217 -0.0250291095 0.4299302343 -0.6682551525 0.4297583454 -0.6684447645 0.0460762101 -0.026022581
485297090.0 0.0461576297 -0.0266929697 0.4224232463 -0.6734197239 0.4227209606 -0.6728767627 0.0457467125 -0.0264316531
490297060.0 0.046312464 -0.026641046 0.4144578184 -0.6778586087 0.4146207073 -0.6780672538 0.0452576327 -0.0271460597
495297030.0 0.0452068315 -0.0276833502 0.4075487246 -0.6825263405 0.4077047025 -0.6824094086 0.0455412045 -0.0278746303
500297000.0 0.0447762307 -0.0278773976 0.4000231888 -0.686440471 0.3999060828 -0.68724098 0.0449107354 -0.0277385113
505296970.0 0.0451372267 -0.0282260788 0.3925849113 -0.6914650996 0.3923162729 -0.6908832855 0.0445277043 -0.0292907616
510296940.0 0.0441910509 -0.0291678247 0.3847386807 -0.6962905896 0.3849621714 -0.6964084693 0.0444372442 -0.0289277377
515296910.0 0.0437451981 -0.029060243 0.3766063739 -0.6998653039 0.3767769979 -0.7001177905 0.0434916455 -0.0302021946
520296880.0 0.0433414802 -0.0295057519 0.3696157266 -0.7035157703 0.3688383738 -0.7035299429 0.0436465968 -0.0295980461
525296850.0 0.0432352452 -0.0302716533 0.3616758293 -0.7074308389 0.3614962311 -0.7075688439 0.043642636 -0.0305873825
530296820.0 0.042519901 -0.0311257248 0.3541144292 -0.7120676192 0.3540065475 -0.7119089681 0.0429593948 -0.0314945197
535296790.0 0.042987561 -0.0314236637 0.3464592729 -0.7155176217 0.3467367371 -0.7153698467 0.0429153627 -0.0311648873
540296760.0 0.0421500776 -0.0315789328 0.3381591614 -0.7194651687 0.3380284144 -0.7194663094 0.042270445 -0.0324652731
545296730.0 0.0410697719 -0.0319374511 0.3305643457 -0.7225976764 0.3300105391 -0.7230031602 0.0419351469 -0.0325553727
550296700.0 0.0414272948 -0.0322030362 0.3225997304 -0.7264992099 0.3221693938 -0.7267928626 0.0419178545 -0.033074123
555296670.0 0.0407040005 -0.0328332303 0.3139856549 -0.7307728023 0.3146509033 -0.7302678288 0.0409637231 -0.0341179769
560296640.0 0.041168531 -0.0331158857 0.3061761824 -0.7336578519 0.3072143209 -0.733626469 0.0404831091 -0.0337076428
565296610.0 0.039953735 -0.0335216759 0.2983730641 -0.7371184747 0.2988277175 -0.7365773128 0.0401998965 -0.034243838
570296580.0 0.0392642445 -0.0336023853 0.290190925 -0.7398570106 0.2904605068 -0.7403564012 0.0396674838 -0.0349172041
575296550.0 0.0390888453 -0.034627401 0.2824336772 -0.743303526 0.2823119548 -0.7434801338 0.0391587822 -0.0351552676
580296520.0 0.0389563529 -0.0344440614 0.274069777 -0.7464496338 0.2742484593 -0.746460503 0.038220407 -0.0355187139
585296490.0 0.0381789905 -0.0346610608 0.2664456634 -0.7494153391 0.265790529 -0.7491460549 0.0383854551 -0.0355556924
590296460.0 0.0387288797 -0.035071066 0.2579517031 -0.7525760845 0.2577310296 -0.7524791132 0.037378617 -0.0360586357
595296430.0 0.037905811 -0.0352881935 0.249278271 -0.7546558872 0.2492682248 -0.7549115772 0.0374531471 -0.0370157304
600296400.0 0.0377600065 -0.0355544359 0.2409963255 -0.7574040815 0.2409902479 -0.7577075936 0.037117461 -0.0372347749
605296370.0 0.0364429931 -0.0359073727 0.2333294862 -0.7600661768 0.2324039259 -0.760078196 0.0362351041 -0.0375482239
610296340.0 0.0365807318 -0.0357856529 0.2249778743 -0.7620324095 0.225244403 -0.7625133392 0.0354216254 -0.0376690441
615296310.0 0.036174559 -0.0364680646 0.2160713453 -0.7654122609 0.2157763874 -0.7655283575 0.035362249 -0.037959927
620296280.0 0.0351276138 -0.0362266585 0.2069968956 -0.7677602234 0.2077618404 -0.7673623918 0.0344639827 -0.0381894498
625296250.0 0.0345662175 -0.0370206119 0.1993958759 -0.769836897 0.1990070689 -0.7700387656 0.0338463521 -0.0385418048
630296220.0 0.0344822262 -0.0365929123 0.1906323032 -0.7723027336 0.1908387785 -0.7717706373 0.0335551618 -0.038954297
635296190.0 0.033250845 -0.0368356369 0.1821948623 -0.7735837603 0.1826222799 -0.7736358821 0.0330569922 -0.0392848116
640296160.0 0.0328404222 -0.0370101939 0.173692827 -0.7761294388 0.174186601 -0.7756556115 0.032123659 -0.0397180428
645296130.0 0.0329819208 -0.0367574673 0.1649390265 -0.77775398 0.1656921163 -0.7773852502 0.0312488128 -0.0404200445
650296100.0 0.0321344758 -0.0374146728 0.1568731839 -0.779882278 0.1565967413 -0.7794068578 0.0319069124 -0.0402963268
655296070.0 0.0316472363 -0.0373628037 0.1480176791 -0.7815877374 0.1485173646 -0.7806542296 0.0301836422 -0.0402097407
660296040.0 0.0311099252 -0.0375550061 0.1399716312 -0.782791932 0.1400107455 -0.783134158 0.0298136484 -0.0412464551
665296010.0 0.0305638937 -0.0378761925 0.1305058329 -0.783945439 0.131160905 -0.7834560951 0.0297520734 -0.0411137758
670295980.0 0.0302910367 -0.0378222283 0.1223223124 -0.7857209897 0.1227033235 -0.785100012 0.0282605073 -0.0414749948
675295950.0 0.0295264558 -0.0380775498 0.1139778084 -0.786368914 0.1142827944 -0.7865931817 0.0276895665 -0.0414035211
680295920.0 0.0287721108 -0.038238956 0.1057144586 -0.7878537274 0.1060533035 -0.787639512 0.0277636421 -0.0420749329
685295890.0 0.0287841372 -0.0379108661 0.0967974004 -0.7893926417 0.0972277205 -0.7887972858 0.0271337804 -0.0415456905
690295860.0 0.0273061596 -0.0378811428 0.0883144632 -0.7903282267 0.0882983993 -0.7904113523 0.0260700446 -0.042226324
695295830.0 0.0272234187 -0.0385185623 0.0803911923 -0.7913946125 0.0801124786 -0.7910370575 0.0257940378 -0.0418934374
700295800.0 0.0267177291 -0.0382626905 0.0715476238 -0.7915126259 0.0713167302 -0.7916433714 0.0250401423 -0.0422333424
705295770.0 0.0259563515 -0.038297969 0.0625213317 -0.7930875691 0.06292654 -0.7920988699 0.0242801485 -0.0423324833
710295740.0 0.0251014586 -0.0387584049 0.0541594462 -0.7932344785 0.0540778703 -0.7936803876 0.0240725859 -0.0423163592
715295710.0 0.0247923355 -0.0379260195 0.0454624251 -0.7934508248 0.0450510843 -0.7936360092 0.0232967546 -0.0425541966
720295680.0 0.0247670427 -0.0382804692 0.0369227198 -0.793208634 0.0367666004 -0.794636921 0.0224709621 -0.0427496136
725295650.0 0.0230050482 -0.038424746 0.0281154566 -0.7949694232 0.0286998278 -0.7944307239 0.0214447589 -0.0423812514
730295620.0 0.0221177379 -0.038820603 0.0195423787 -0.7944989674 0.0197242629 -0.7941081023 0.0208565017 -0.0424090441
735295590.0 0.0224275639 -0.0386723707 0.0109560931 -0.7951544192 0.0108357998 -0.7947654028 0.0200755697 -0.0431068653
740295560.0 0.0217876966 -0.0387214921 0.0023854716 -0.7952786052 0.0023223547 -0.7951348983 0.019305223 -0.0426631671
745295530.0 0.0207139932 -0.0384260237 -0.0062793823 -0.7940565984 -0.0054945477 -0.7944290233 0.0180073081 -0.0428497334
750295500.0 0.0202269328 -0.038220089 -0.0144197532 -0.7950754456 -0.0149337489 -0.7943779602 0.0178294616 -0.0426518369
755295470.0 0.0194291515 -0.0385330477 -0.0230688367 -0.7947043162 -0.0233720351 -0.7947632169 0.0175702325 -0.0421711004
760295440.0 0.0186898053 -0.0380693916 -0.0330598699 -0.7942329618 -0.0318089203 -0.7936963937 0.016900047 -0.0436507561
765295410.0 0.0188127222 -0.038488062 -0.0408980752 -0.7932394554 -0.0401017893 -0.7932945072 0.0161839552 -0.0429994569
770295380.0 0.0178314838 -0.038123742 -0.0488414764 -0.79245691 -0.0492089027 -0.7933099697 0.0152395593 -0.0428833629
775295350.0 0.0170964381 -0.0387533504 -0.0576592722 -0.7928395045 -0.0574080529 -0.7919806872 0.0152466263 -0.0424778628
780295320.0 0.0162558773 -0.038014401 -0.0662389699 -0.7912478835 -0.0659800359 -0.7916000169 0.0145039535 -0.0429103875
785295290.0 0.0158041252 -0.0384646426 -0.074814419 -0.7910708633 -0.0749509799 -0.7911598951 0.01307718 -0.0421720793
790295260.0 0.0154787582 -0.0387487995 -0.0836475302 -0.7903088095 -0.0830356644 -0.790029333 0.0123908587 -0.0419110851
795295230.0 0.0145172935 -0.0387359334 -0.0920242528 -0.7894736983 -0.0920352166 -0.7898548405 0.0120944454 -0.0428593715
800295200.0 0.0136614552 -0.0380790447 -0.1000138468 -0.7876898599 -0.1005933988 -0.7882069066 0.0112701674 -0.0423501397
805295170.0 0.0129583622 -0.0383577585 -0.1092519298 -0.7869544444 -0.1085591941 -0.7868906914 0.0113300283 -0.0420295537
810295140.0 0.012577769 -0.0380154238 -0.117537407 -0.7855262692 -0.1175048589 -0.7855806125 0.0105908267 -0.0425203097
815295110.0 0.0118312484 -0.0376312054 -0.1261749293 -0.7846257394 -0.1256807744 -0.7845150595 0.0095157381 -0.0423068999
820295080.0 0.0113655582 -0.0377764535 -0.1337761783 -0.782663157 -0.1341548374 -0.7831533243 0.0082337016 -0.0411414964
825295050.0 0.010323334 -0.0378867468 -0.1427878296 -0.7816957827 -0.142911627 -0.7813732314 0.0087793353 -0.0408922972
830295020.0 0.0097300642 -0.0378805587 -0.1517281961 -0.7799489544 -0.151074067 -0.779722165 0.0078462106 -0.0417781762
