!Created with skrf (http://scikit-rf.org).
# Hz S RI R 50.0 
!freq ReS11 ImS11 ReS21 ImS21 ReS12 ImS12 ReS22 ImS22
300000.0 -0.2400866302 -0.0875813858 0.4714123897 0.0584368482 0.4711326581 0.0562195352 -0.2406747673 -0.0955962657
5299970.0 -0.2451489558 0.0067476903 0.4751158869 0.0049498573 0.4751657688 0.0047453807 -0.2408666775 0.0073413113
10299940.0 -0.2418407759 0.0179459893 0.4767459103 0.0060558667 0.4765569047 0.0062594691 -0.2374362501 0.0203388723
15299910.0 -0.2374541114 0.0271395094 0.4805767969 0.007086382 0.4804164095 0.0073365773 -0.2331335556 0.030079118
20299880.0 -0.2329003722 0.0340343642 0.4848886794 0.0081372902 0.4847217977 0.0080976648 -0.2276215803 0.0379486627
25299850.0 -0.2275938015 0.040232486 0.4902069865 0.0069985656 0.4903766868 0.0067961182 -0.2217960409 0.0448091548
30299820.0 -0.2225435408 0.0451188498 0.4956544739 0.0046952944 0.4956485185 0.0048971552 -0.2161164887 0.0501354013
35299790.0 -0.2175232501 0.0489337124 0.500755513 0.0016235313 0.501035511 0.0013888967 -0.2104591045 0.054583357
40299760.0 -0.2125946734 0.0524817255 0.5057954498 -0.0027130656 0.5058312837 -0.0023147004 -0.2053394411 0.0573212515
45299730.0 -0.2079205907 0.0550268579 0.5103965024 -0.0073511068 0.5109982214 -0.00687399 -0.2004608987 0.0604963886
50299700.0 -0.2039911958 0.0567645662 0.5149334673 -0.0125043278 0.5149616299 -0.012568331 -0.1954480229 0.0624165031
55299670.0 -0.2000324045 0.058267642 0.5186094784 -0.019131706 0.5185725603 -0.0186302519 -0.1916237113 0.0644285898
60299640.0 -0.1958611717 0.0598582351 0.5216985639 -0.0247508786 0.521990212 -0.0246597106 -0.1874882711 0.0653827643
65299610.0 -0.1929149104 0.0609476655 0.5246520671 -0.0314098883 0.5251408448 -0.0314397063 -0.1841891523 0.0665714389
70299580.0 -0.1899155665 0.0619632904 0.527331372 -0.0377321674 0.5270275299 -0.0376537179 -0.1808434586 0.0674698651
75299550.0 -0.1873677834 0.0631891981 0.5289819158 -0.0447772698 0.5285626901 -0.0448486723 -0.1777951308 0.0683642809
80299520.0 -0.1847186373 0.0636916394 0.5307043194 -0.0516397648 0.5309171435 -0.0517110857 -0.1753307354 0.0691708186
85299490.0 -0.1823354286 0.0640126505 0.5319998557 -0.0583145269 0.5326486797 -0.0582482976 -0.1731207862 0.0696774124
90299460.0 -0.1803144113 0.0649871701 0.5326747819 -0.0651133364 0.5334686341 -0.0652763389 -0.1704514502 0.0704652729
95299430.0 -0.1783369342 0.0653161744 0.534235722 -0.072099096 0.5340792683 -0.0723705624 -0.1681718454 0.071252184
100299400.0 -0.176683406 0.0661733382 0.534060354 -0.0790319619 0.5340673953 -0.0789854726 -0.1661646543 0.07147302
105299370.0 -0.1747877772 0.0667767185 0.534470235 -0.0860741501 0.5348846808 -0.0860826601 -0.1641733776 0.072165905
110299340.0 -0.1734104404 0.067590559 0.5347852384 -0.0924513316 0.5347500923 -0.0925265771 -0.1631963822 0.0729908527
115299310.0 -0.171861438 0.0682354705 0.5345439723 -0.0996187246 0.5346523217 -0.0998269806 -0.1612917521 0.0737942565
120299280.0 -0.1707409883 0.0685887308 0.5345895651 -0.1064448603 0.5347108367 -0.1065598463 -0.1597403837 0.0746514939
125299250.0 -0.1695182796 0.0690711372 0.5342399439 -0.1129167984 0.5341020911 -0.1128302109 -0.1585237163 0.0749713657
130299220.0 -0.1685595784 0.0701805305 0.5335080743 -0.1199557264 0.5333843053 -0.1200205198 -0.1570280444 0.0757661511
135299190.0 -0.167759066 0.0712986924 0.533263114 -0.126747619 0.532760069 -0.1264010232 -0.1558371443 0.0767595629
140299160.0 -0.16673739 0.0721126422 0.5318327231 -0.1335093939 0.5320614455 -0.1335179701 -0.1544813189 0.0780574442
145299130.0 -0.1655052343 0.072788355 0.5314894542 -0.1394673599 0.5311108416 -0.1395659504 -0.1535068422 0.0789899975
150299100.0 -0.1643789698 0.073812858 0.5298535057 -0.1457132266 0.5299263331 -0.1458541164 -0.1524505457 0.0803395291
155299070.0 -0.1638438532 0.0745150595 0.5290602358 -0.1533924496 0.5287511951 -0.1526221981 -0.1509006979 0.0814913408
160299040.0 -0.1627068322 0.0760121134 0.5275548226 -0.15944108 0.527195476 -0.1594337218 -0.1506335104 0.0823110838
165299010.0 -0.16218786 0.0769024974 0.5257990922 -0.1657734058 0.5258351522 -0.1659469644 -0.1491111336 0.0835288217
170298980.0 -0.1614400313 0.0778655238 0.5240282849 -0.1719043503 0.5247312426 -0.1722009032 -0.1483442923 0.0848643925
175298950.0 -0.1608643103 0.0787220965 0.5234462757 -0.178154524 0.5222083735 -0.1783277854 -0.1473917052 0.0860167479
180298920.0 -0.1601592194 0.0799717884 0.5212676401 -0.1842928984 0.520666774 -0.1840598812 -0.1465863914 0.0871999595
185298890.0 -0.1587235459 0.0809052127 0.519236567 -0.1905143309 0.5193151366 -0.1907623826 -0.1456321849 0.0887701645
190298860.0 -0.1585278352 0.0822706181 0.5175697218 -0.1970297617 0.5175939414 -0.1967494521 -0.1448062378 0.0899811293
195298830.0 -0.1578341737 0.0830861905 0.5156351022 -0.2028754402 0.5153826916 -0.2027973244 -0.1434669921 0.0912920852
200298800.0 -0.1569371626 0.0848889338 0.5131837774 -0.2094105282 0.5132645608 -0.2092220875 -0.1431869706 0.0924590394
205298770.0 -0.1560892397 0.0859127763 0.5107473862 -0.2154077328 0.510757104 -0.2152344813 -0.1420593799 0.0929281996
210298740.0 -0.1551297013 0.0866963277 0.5083788527 -0.2207015861 0.508547709 -0.2207215058 -0.1409822676 0.0953034429
215298710.0 -0.1549386461 0.0880994443 0.5064780761 -0.2270318794 0.5061062024 -0.2273073372 -0.1406315532 0.0964679378
220298680.0 -0.1542482402 0.0892790819 0.5039100292 -0.2329999599 0.503880048 -0.2331156191 -0.1399116403 0.0974889722
225298650.0 -0.1534398059 0.0906144455 0.501094369 -0.2386587318 0.5017208163 -0.2386577724 -0.1389928325 0.0987113749
230298620.0 -0.1525465006 0.0922615409 0.4991760623 -0.2442897171 0.499266316 -0.2447832428 -0.137824661 0.1002158959
235298590.0 -0.1515971169 0.0937260427 0.4963101453 -0.2504410538 0.4961812153 -0.2498870935 -0.1367252536 0.101676456
240298560.0 -0.1511510111 0.0949693219 0.4937629617 -0.2563006672 0.4939320933 -0.2562327461 -0.1359790229 0.1033665732
245298530.0 -0.1505420041 0.0960957537 0.4915757276 -0.2616032211 0.4908986037 -0.2620348928 -0.1347392034 0.103925599
250298500.0 -0.1492161476 0.0975082094 0.4878916699 -0.2674857406 0.4874521536 -0.2672241733 -0.1340500527 0.1055942916
255298470.0 -0.1485081609 0.0984280937 0.4844452825 -0.2724995647 0.4850353755 -0.2729100743 -0.1328965077 0.1069141421
260298440.0 -0.1478987463 0.10025549 0.4816966634 -0.2783497819 0.4819073428 -0.2785221519 -0.1315493327 0.1083997768
265298410.0 -0.1467506327 0.1019307543 0.478847605 -0.2842045922 0.478957479 -0.2836529978 -0.1305795467 0.1098491737
270298380.0 -0.1458931663 0.1026646722 0.4759834869 -0.2887389491 0.4761697182 -0.2892724408 -0.1295347149 0.1109302373
275298350.0 -0.1449386326 0.104436024 0.4725487699 -0.2951823498 0.4729432813 -0.2946256223 -0.1282088109 0.1124282485
280298320.0 -0.1438462115 0.1057330007 0.4697040432 -0.3002840955 0.4696820407 -0.2998447075 -0.1266148743 0.1134642907
285298290.0 -0.1431796328 0.1073409273 0.4667340058 -0.3057089531 0.4664638892 -0.3056149451 -0.1256233913 0.1149513426
290298260.0 -0.1418587451 0.1084756056 0.4632831072 -0.3106383787 0.4630070995 -0.3107613637 -0.1244900015 0.1166943538
295298230.0 -0.1409560144 0.1096297923 0.4600781059 -0.315908816 0.4593121137 -0.3160315927 -0.1226544927 0.1178084967
300298200.0 -0.1404571293 0.1108553408 0.456459266 -0.3208174965 0.4565882139 -0.3215221061 -0.1219657457 0.119218374
305298170.0 -0.1388357905 0.1120359304 0.4523722144 -0.3265715056 0.4528643362 -0.3264837236 -0.1201613319 0.120214263
310298140.0 -0.1379035719 0.1135286887 0.4490188232 -0.3317234366 0.4494016187 -0.3314388933 -0.119159035 0.1215487405
315298110.0 -0.1369456715 0.1144777098 0.4458631238 -0.337134238 0.4458061191 -0.3368001814 -0.1178261981 0.1228138981
320298080.0 -0.1359251528 0.1156499879 0.4416463184 -0.3423968832 0.4419126373 -0.3420334574 -0.1164488904 0.1241827798
325298050.0 -0.1349899836 0.1170729136 0.4377677255 -0.3469652972 0.4383168522 -0.346753695 -0.115491734 0.1255180606
330298020.0 -0.1339866439 0.1182564916 0.4340188241 -0.3520700773 0.4340254999 -0.3522762594 -0.1143660331 0.1264350753
335297990.0 -0.1332552894 0.1192686665 0.4300977382 -0.3564671807 0.4296161781 -0.3568692532 -0.1135735451 0.1284049428
340297960.0 -0.1324625547 0.1211548979 0.4254708979 -0.3612446489 0.4256301081 -0.3619891174 -0.1115332325 0.1297383299
345297930.0 -0.1315255359 0.1227671415 0.4220929349 -0.3662868964 0.4217489767 -0.3666439265 -0.1104479174 0.130501969
350297900.0 -0.1303910027 0.1237493012 0.4171812591 -0.3710855968 0.4172151898 -0.3708139622 -0.1093919691 0.132560045
355297870.0 -0.1292723131 0.1254743822 0.4132491645 -0.3754859723 0.4134423905 -0.3750766806 -0.1082351176 0.1337276773
360297840.0 -0.1279304335 0.1265583518 0.4096670497 -0.379577612 0.4098885053 -0.3798722865 -0.1068506894 0.1352956263
365297810.0 -0.127361063 0.1283438491 0.4051146422 -0.3845697564 0.4053291627 -0.3847041387 -0.1050831058 0.1366755392
370297780.0 -0.1259188944 0.129086237 0.4004913628 -0.3884624877 0.4012914815 -0.3886314923 -0.1038650553 0.1382680986
375297750.0 -0.124349191 0.1308497099 0.3963290733 -0.3931907405 0.3968065429 -0.3931784055 -0.1022159153 0.1390558841
380297720.0 -0.1235013207 0.1319063304 0.3920295539 -0.3975997137 0.3921639321 -0.3969119148 -0.1011773677 0.1405197932
385297690.0 -0.122564841 0.1332239253 0.3877761218 -0.4016414326 0.3875883908 -0.4020645135 -0.0993869715 0.1420122334
390297660.0 -0.1213655838 0.1349210998 0.3837162059 -0.4062545507 0.383296185 -0.4059505458 -0.0984566178 0.1431027349
395297630.0 -0.1199753249 0.1364456621 0.3786368011 -0.4104907512 0.3789910934 -0.4103272912 -0.0964809501 0.1444614354
400297600.0 -0.1184422869 0.1374772916 0.3741182147 -0.4148483484 0.3746058263 -0.4144425044 -0.0952770677 0.145640029
405297570.0 -0.1176025047 0.1386549942 0.3698816428 -0.4185100203 0.3698873039 -0.4184546557 -0.0939355501 0.1469072816
410297540.0 -0.1161177876 0.1399243005 0.3648589325 -0.4227423225 0.3654385252 -0.422752062 -0.0921447701 0.1484670595
415297510.0 -0.114616823 0.1411015394 0.3598683257 -0.4268094201 0.3607178969 -0.4267010181 -0.0906118018 0.1492612604
420297480.0 -0.1135417327 0.1425138517 0.355793623 -0.4305214095 0.355668434 -0.4308466032 -0.0889999397 0.1503667983
425297450.0 -0.1123801442 0.1432903789 0.3513776561 -0.4343812236 0.3514990067 -0.4347045522 -0.0874655574 0.1519087527
430297420.0 -0.1109326847 0.1445588084 0.3467931276 -0.4377194585 0.3463992444 -0.4382951486 -0.0859496134 0.1522619039
435297390.0 -0.1094585018 0.1462148141 0.3413905078 -0.4420597963 0.3412565327 -0.4418234938 -0.0840699342 0.1535897381
440297360.0 -0.107887019 0.1475405886 0.3367573157 -0.4456440423 0.3365009934 -0.4457957078 -0.0827419193 0.1542885778
445297330.0 -0.1067354761 0.1483955221 0.3321420239 -0.4494056799 0.3319615718 -0.4487900787 -0.0808818106 0.1552140751
450297300.0 -0.1050173434 0.1494695453 0.3266426137 -0.4525408479 0.3267348162 -0.4531602241 -0.0790092613 0.1562016816
455297270.0 -0.1037499043 0.1505478855 0.3214912503 -0.4560755976 0.3218005145 -0.4563147745 -0.0772791904 0.1572615326
460297240.0 -0.1022139737 0.1516141002 0.3169234639 -0.459439453 0.3169691396 -0.4598679823 -0.0756291084 0.1584758338
465297210.0 -0.1005651106 0.1529017689 0.3120289672 -0.4636416768 0.3118653629 -0.4635387826 -0.0736513981 0.1588746513
470297180.0 -0.0992377897 0.1537576065 0.3062911664 -0.4665815835 0.306745581 -0.4665934709 -0.0716262248 0.1604498558
475297150.0 -0.0980122898 0.1549537759 0.3014985194 -0.4692800867 0.3017313877 -0.4695945195 -0.0699047497 0.1607147459
480297120.0 -0.0963660509 0.1560342039 0.2964506428 -0.4731768106 0.2962807362 -0.4734495962 -0.0678759136 0.1621085297
485297090.0 -0.0950751304 0.157173437 0.2914904967 -0.4757856805 0.2913851855 -0.4760373554 -0.0660994254 0.1625639343
490297060.0 -0.0938437155 0.1581669822 0.2865782895 -0.4795958183 0.2862913078 -0.479448179 -0.064365183 0.1641988555
495297030.0 -0.0919960616 0.1592734973 0.2806845505 -0.4824582192 0.2811472004 -0.4825235869 -0.0627942066 0.164831513
500297000.0 -0.0904044552 0.1603064594 0.2752088992 -0.4855505932 0.2751649282 -0.4851182167 -0.060581543 0.1660851683
505296970.0 -0.0888606869 0.1612481804 0.2701822498 -0.4883106087 0.2698158374 -0.4887575542 -0.0589714526 0.1666640643
510296940.0 -0.0873550772 0.1623412492 0.2647808495 -0.4914388899 0.2649824489 -0.4916682068 -0.0570672019 0.1676963019
515296910.0 -0.0858965919 0.1632237391 0.2595079758 -0.4940624414 0.2594622033 -0.4936707948 -0.0552179798 0.1682884036
520296880.0 -0.0844384664 0.1643644408 0.2542194911 -0.4972675942 0.2540239582 -0.4969216571 -0.0532321638 0.1692650692
525296850.0 -0.0825976685 0.1646893843 0.2486674318 -0.4992637116 0.2486519046 -0.4998719608 -0.0517292463 0.169801235
530296820.0 -0.0808668565 0.1662491887 0.2432171987 -0.5024043181 0.2434409251 -0.50251297 -0.0495193104 0.170772376
535296790.0 -0.0797419352 0.1671156667 0.2381191006 -0.5048073755 0.2379799592 -0.5044976546 -0.0477658913 0.1713103428
540296760.0 -0.078115978 0.1682776059 0.2323006134 -0.5078083027 0.232028732 -0.5075375323 -0.0460620087 0.172347367
545296730.0 -0.076435595 0.1690038187 0.2267271817 -0.5097386199 0.2267165203 -0.5099143757 -0.0442565985 0.1728702517
550296700.0 -0.0743105437 0.170104282 0.2208767698 -0.5123033159 0.2208751757 -0.51259504 -0.0427932109 0.1738485303
555296670.0 -0.0730946425 0.1705486005 0.2156246293 -0.5146693301 0.2160332489 -0.5145193929 -0.0405563584 0.1746607144
560296640.0 -0.0711124247 0.1716439811 0.2102540037 -0.5166644684 0.2104021155 -0.51698633 -0.0387830171 0.1749877313
565296610.0 -0.0699349871 0.1723474705 0.2047283195 -0.5194689601 0.2047632845 -0.5189243895 -0.0368551419 0.1751824437
570296580.0 -0.0683946144 0.1730819838 0.1986143834 -0.5219052352 0.1983646488 -0.5214948619 -0.0349693148 0.1762084713
575296550.0 -0.0666372108 0.1743094263 0.1931222284 -0.5239696752 0.1932764845 -0.5234612036 -0.0329184954 0.1765981656
580296520.0 -0.0646523437 0.1749758358 0.1871195775 -0.5254774997 0.1872209501 -0.5258076251 -0.0309026407 0.1769614345
585296490.0 -0.0630720937 0.1752506174 0.1818685293 -0.5272170601 0.1820234471 -0.5275600123 -0.0289503816 0.1774763014
590296460.0 -0.0609100899 0.1761397232 0.1760631115 -0.5288890989 0.1762194626 -0.5291216308 -0.0274475351 0.1779766122
595296430.0 -0.0595289581 0.177395654 0.1696550755 -0.5315483636 0.1697632128 -0.5313260318 -0.0253524441 0.1781136052
600296400.0 -0.0580883371 0.1776456324 0.1647697302 -0.5334315172 0.1643298483 -0.5327664312 -0.0233118366 0.1786597422
605296370.0 -0.056246052 0.1784590286 0.1587657611 -0.534800857 0.1590039942 -0.5346993372 -0.0212346302 0.179088732
610296340.0 -0.0543263914 0.1790458638 0.1525275556 -0.5365471664 0.1529899994 -0.5363702449 -0.0194013354 0.1792474349
615296310.0 -0.0523115574 0.1793812351 0.1469141405 -0.537809789 0.1467787338 -0.5385844081 -0.0169547429 0.1796695199
620296280.0 -0.0509375532 0.179830422 0.1413817648 -0.5394210938 0.1409090452 -0.5394523377 -0.0152967578 0.1798166877
625296250.0 -0.0492284078 0.1803796726 0.1357316926 -0.5409877944 0.1352487429 -0.5410859051 -0.0128832339 0.1801604809
630296220.0 -0.0468973462 0.1813580749 0.1288533376 -0.5423282425 0.1293254615 -0.5424638983 -0.010963605 0.1806137956
635296190.0 -0.0459062709 0.1816744196 0.1237698641 -0.5434389193 0.1234924277 -0.5436623177 -0.0089723537 0.1807083352
640296160.0 -0.0440746991 0.1825822365 0.1175140718 -0.5445737495 0.11774115 -0.5451628277 -0.0067889245 0.1810512535
645296130.0 -0.0421217802 0.1832954333 0.1117676354 -0.5460284744 0.1118390277 -0.5460720922 -0.0048384361 0.1812429565
650296100.0 -0.0404311617 0.1835398046 0.1060100126 -0.5471382507 0.1059639387 -0.547527638 -0.0024084735 0.1808840595
655296070.0 -0.0387232969 0.1837740035 0.0997914721 -0.5484174197 0.1001082004 -0.5482243733 -0.0007263949 0.1813087316
660296040.0 -0.0374019496 0.1842667062 0.0941149901 -0.5491718616 0.0941445805 -0.5494628686 0.001607248 0.1817208637
665296010.0 -0.0348689746 0.1849143839 0.0880194928 -0.5503142271 0.0877621291 -0.5503130096 0.0036367883 0.1820535049
670295980.0 -0.0340431174 0.1854671963 0.0821327066 -0.5509591854 0.0824418939 -0.5510326829 0.0052868637 0.1821989049
675295950.0 -0.0318014025 0.1862204395 0.0766723946 -0.5518006551 0.0763232617 -0.5513921863 0.007217609 0.1822600652
680295920.0 -0.0302814922 0.1863621777 0.0703117766 -0.5524481766 0.0701278801 -0.5531881713 0.009482693 0.182880061
685295890.0 -0.0278179865 0.1874238057 0.0641327711 -0.5535887386 0.0641343541 -0.5537746769 0.0115483461 0.1828312964
690295860.0 -0.0257019829 0.1873241744 0.0580521873 -0.5537714471 0.0583850968 -0.5541155209 0.0133219642 0.183184778
695295830.0 -0.0243861787 0.1874162513 0.0526810765 -0.554284552 0.0522211356 -0.5545130006 0.0153505719 0.1829268803
700295800.0 -0.0224675759 0.1876685752 0.0460220638 -0.5549898662 0.045866557 -0.5548152433 0.0175528502 0.1834596116
705295770.0 -0.020582156 0.1888514975 0.039951256 -0.5555008834 0.0404179834 -0.5555371595 0.0193397819 0.183218876
710295740.0 -0.0186752267 0.1890957969 0.0344603544 -0.5563140038 0.0347590313 -0.556297047 0.0216383944 0.1829653557
715295710.0 -0.017260647 0.1891717188 0.028853985 -0.5563240727 0.0280080723 -0.5562155468 0.0237557699 0.1830153587
720295680.0 -0.0152235232 0.1894996066 0.0222646963 -0.5567238972 0.022550663 -0.5566253561 0.0255452253 0.1833781974
725295650.0 -0.0131870067 0.1897679721 0.0161746113 -0.5565696389 0.0164476907 -0.5568088796 0.0271842223 0.1830734587
730295620.0 -0.0111748792 0.1904432683 0.0105166661 -0.5565342361 0.0103244645 -0.5569354669 0.0290232509 0.1825340501
735295590.0 -0.0095430119 0.190688683 0.0043795295 -0.5570773361 0.0043936652 -0.5568669767 0.0310587788 0.1824166694
740295560.0 -0.0074895512 0.1906860649 -0.0018327089 -0.5565629961 -0.0018668281 -0.5569068904 0.0335449262 0.1825332801
745295530.0 -0.0059024478 0.1910432329 -0.0077638535 -0.5560658603 -0.0075832164 -0.556986854 0.0353640559 0.181806184
750295500.0 -0.0039206438 0.1910300901 -0.013519327 -0.5564753457 -0.0137854871 -0.5567903123 0.0371927551 0.1817143331
755295470.0 -0.0019183959 0.1912950456 -0.019637672 -0.5559461327 -0.0197501902 -0.5564787924 0.0396198149 0.1810402342
760295440.0 -0.0004636987 0.191537642 -0.0256218743 -0.5566964518 -0.0254677012 -0.556362224 0.0414207134 0.1809060985
765295410.0 0.0015120071 0.1916836374 -0.0317231092 -0.5557466919 -0.0317840795 -0.5560895244 0.0436601785 0.180697434
770295380.0 0.0029291359 0.1916634092 -0.0377864339 -0.5555837463 -0.0376810801 -0.5552752066 0.045096921 0.1799568116
775295350.0 0.0047087503 0.1914835804 -0.0437446587 -0.5544667968 -0.0435410051 -0.5544793257 0.0467234401 0.1799280693
780295320.0 0.0070521484 0.1916247079 -0.0496812725 -0.5539939308 -0.0488655058 -0.5542220136 0.0490036145 0.1790078634
785295290.0 0.0084885611 0.1914404951 -0.0558084357 -0.5533782971 -0.0553773299 -0.553748092 0.051410125 0.1788785726
790295260.0 0.0109684179 0.192158261 -0.0611590626 -0.5526600763 -0.0607975255 -0.5527993812 0.0535309007 0.1784169213
795295230.0 0.0125459535 0.1917979862 -0.0673378003 -0.5520362024 -0.0669674128 -0.5524078485 0.0553491187 0.1780985622
800295200.0 0.0139542042 0.1920124989 -0.0738977321 -0.5513318602 -0.0732152053 -0.551140752 0.0574493871 0.1774052311
805295170.0 0.0163297403 0.1916786501 -0.079533286 -0.5502901605 -0.0791554956 -0.5507514415 0.0593675253 0.1769213815
810295140.0 0.0179732699 0.1916357155 -0.0845905129 -0.5491454263 -0.0852411015 -0.5497526296 0.0615637621 0.1767622322
815295110.0 0.0196502252 0.1914137553 -0.0907797081 -0.5483215921 -0.0909904697 -0.5486138703 0.0630355527 0.1759793451
820295080.0 0.0214895753 0.1919053674 -0.0971264891 -0.5475504773 -0.0965544978 -0.5473850899 0.0655202414 0.1753252577
825295050.0 0.023910467 0.1915468986 -0.1025284784 -0.5462068481 -0.1030200004 -0.5462648231 0.0677281444 0.1749376775
830295020.0 0.0255116651 0.1918281268 -0.1090184955 -0.54477341 -0.1084184297 -0.5453052691 0.069997193 0.1743557848
