!Created with skrf (http://scikit-rf.org).
# Hz S RI R 50.0 
!freq ReS11 ImS11 ReS21 ImS21 ReS12 ImS12 ReS22 ImS22
300000.0 -0.3183182961 -0.1069308171 0.3725162655 0.0554150365 0.3741632753 0.0578906229 -0.3178934227 -0.1146277496
5299970.0 -0.3238985474 0.004407759 0.3787148147 0.0031804363 0.378473796 0.0031277145 -0.3261274328 0.0027854473
10299940.0 -0.320919199 0.0153156014 0.3801358494 0.0023944089 0.3797302062 0.0024041116 -0.3242162215 0.0125694932
15299910.0 -0.3180630856 0.0231968401 0.3818863669 0.0024867079 0.3819711845 0.0025236519 -0.3213238328 0.0196815084
20299880.0 -0.314362881 0.0299849015 0.3851163293 0.0016070192 0.3850898559 0.0019548029 -0.318527087 0.0258471797
25299850.0 -0.3106025402 0.0354781623 0.3883892379 -0.0001719647 0.3885483034 0.0002993894 -0.3156795984 0.0311979758
30299820.0 -0.3070336756 0.0404127554 0.3922059719 -0.0023461354 0.391456162 -0.002433088 -0.3127922054 0.0353946369
35299790.0 -0.3028300347 0.0446687702 0.3950252067 -0.0049856902 0.395245505 -0.0052908942 -0.309732193 0.0395940687
40299760.0 -0.2998174782 0.0481720832 0.3982793272 -0.0085480089 0.3982700451 -0.008596953 -0.3071214798 0.0432609822
45299730.0 -0.2964551054 0.0516184065 0.401234663 -0.012861599 0.401112053 -0.0125689336 -0.3047372453 0.0460706998
50299700.0 -0.2932078085 0.0541785494 0.4033919923 -0.0174257965 0.4036056852 -0.0172973018 -0.3021697601 0.0490727392
55299670.0 -0.2905089369 0.0569057147 0.4051769565 -0.0221634591 0.4058566817 -0.0219869857 -0.2999802291 0.0519482252
60299640.0 -0.2877380836 0.0591037279 0.4075301877 -0.0268646021 0.4075362638 -0.0270502478 -0.2981090208 0.0545915847
65299610.0 -0.2860769521 0.0616334034 0.4094359597 -0.031475126 0.4092958721 -0.0316334516 -0.29651516 0.0570415733
70299580.0 -0.2837876739 0.0634175963 0.4104145959 -0.0369007163 0.4103225646 -0.0368511358 -0.2946435144 0.059205246
75299550.0 -0.2819481105 0.0657853257 0.4115489952 -0.0418471475 0.4114945835 -0.0424670833 -0.2928243801 0.062332114
80299520.0 -0.2802754899 0.0682887735 0.4128226794 -0.0475043669 0.4124570255 -0.0473739366 -0.2916605864 0.0637743393
85299490.0 -0.2784429689 0.0698820346 0.413262513 -0.0527007122 0.4130310755 -0.05267031 -0.2903697408 0.0663142014
90299460.0 -0.276950151 0.0721966911 0.4134801067 -0.0575854738 0.4134697234 -0.0579784445 -0.288516766 0.0689894564
95299430.0 -0.2756120442 0.0742985597 0.4139514585 -0.0634993474 0.4141008629 -0.0631605973 -0.2874870364 0.0713043966
100299400.0 -0.2741439121 0.0765638993 0.4136163312 -0.068408314 0.4138751287 -0.0683703522 -0.2866668362 0.0734651047
105299370.0 -0.272913267 0.0785143192 0.4132921267 -0.0734206026 0.4138393918 -0.0735541834 -0.2852298775 0.0756598516
110299340.0 -0.2719737959 0.0804503867 0.4134204607 -0.0783700061 0.413380687 -0.0789215773 -0.2843600038 0.0781796279
115299310.0 -0.2706459314 0.0823384181 0.4131233943 -0.0833748667 0.4132249096 -0.0837165387 -0.2828602721 0.0802095249
120299280.0 -0.2698256746 0.0848116269 0.4130273461 -0.0889934524 0.4131332652 -0.0891380638 -0.2823603838 0.0824352864
125299250.0 -0.2689799898 0.0867012734 0.4122409284 -0.0939378036 0.412433198 -0.0940187785 -0.2812423489 0.0847622228
130299220.0 -0.267770073 0.0891296664 0.4116504268 -0.0985194706 0.4115970111 -0.0991862645 -0.2804827808 0.087338646
135299190.0 -0.2665162694 0.0912527802 0.4109329404 -0.103902928 0.410788026 -0.1041219287 -0.2801763238 0.0896442398
140299160.0 -0.2659417806 0.0939020282 0.4100983114 -0.1092443525 0.4101752589 -0.1089869635 -0.2786950137 0.0919636576
145299130.0 -0.2648152961 0.0959292068 0.4095017695 -0.1141876078 0.409103755 -0.1136881317 -0.2778212199 0.0940632049
150299100.0 -0.263603598 0.0983618217 0.4082602425 -0.1190965687 0.4082492073 -0.118720183 -0.2768827372 0.0966364522
155299070.0 -0.2627560672 0.1008473656 0.4071067768 -0.1241003246 0.4070142218 -0.123952056 -0.2764340736 0.0996253972
160299040.0 -0.2619248151 0.1029909465 0.4056392521 -0.1284911676 0.4059235867 -0.1285121991 -0.2750898426 0.1021328863
165299010.0 -0.2611365839 0.1054077683 0.4045437778 -0.1335953684 0.404678996 -0.1335890479 -0.2739237684 0.1046967099
170298980.0 -0.2600823683 0.1077704436 0.4025162429 -0.138525546 0.4030075146 -0.138225049 -0.2730041388 0.1072244023
175298950.0 -0.2588592498 0.1106951782 0.402238904 -0.1431761907 0.4022608103 -0.1431028492 -0.272303374 0.1096174863
180298920.0 -0.2578894931 0.112465864 0.4003191646 -0.1482543861 0.4005062113 -0.1478324744 -0.2710198293 0.1123158942
185298890.0 -0.2568192417 0.1152514069 0.3986503087 -0.1526910453 0.3988502103 -0.1525939222 -0.270245116 0.1147716775
190298860.0 -0.2558629455 0.1175548073 0.3971917323 -0.1574351266 0.3975826424 -0.1576387466 -0.2688636205 0.1177190876
195298830.0 -0.2546892799 0.1199720775 0.3957664256 -0.1614842788 0.3957831545 -0.1621613249 -0.268056252 0.1198127227
200298800.0 -0.2537703096 0.1226704292 0.394110701 -0.1662449097 0.3939173265 -0.1665748711 -0.2665199597 0.1230164393
205298770.0 -0.2525670271 0.1253042912 0.3922382857 -0.1711125363 0.392335925 -0.1709656357 -0.2657391539 0.1251082397
210298740.0 -0.2514885056 0.1276636146 0.3904880594 -0.1758592962 0.3907911454 -0.1758914232 -0.2644221671 0.1280967576
215298710.0 -0.25004119 0.1303797917 0.3886483038 -0.1801022093 0.3885586884 -0.1802057771 -0.2634430491 0.1312562776
220298680.0 -0.2491135913 0.1328006269 0.3864451117 -0.1843993372 0.3864722076 -0.1846687542 -0.2621096121 0.1336427635
225298650.0 -0.247798666 0.1355524388 0.3844851746 -0.1887754501 0.3844405964 -0.1889953187 -0.2610148748 0.1363857231
230298620.0 -0.2465666549 0.1381706447 0.3827077295 -0.1932619152 0.3827010517 -0.1937806585 -0.2595209144 0.1388320601
235298590.0 -0.2451342525 0.1404830648 0.3800306921 -0.1977391754 0.3804776782 -0.1978779596 -0.2584509224 0.1412226876
240298560.0 -0.2441421935 0.1431147239 0.3781203844 -0.2017031515 0.3782870364 -0.2020818959 -0.2571611414 0.1443397346
245298530.0 -0.2424507452 0.1456239499 0.3754886443 -0.2065595593 0.3762230493 -0.2064853256 -0.2555966224 0.1472580754
250298500.0 -0.2416812866 0.1482197746 0.3737594671 -0.2103260446 0.3739484797 -0.210561192 -0.2539480409 0.1499514676
255298470.0 -0.2401298729 0.1511166576 0.3713139736 -0.2151814795 0.3714350959 -0.2151392332 -0.2528370114 0.1521694433
260298440.0 -0.2387935674 0.1532195248 0.3691638265 -0.2189484527 0.3692067031 -0.2195384586 -0.250907715 0.1552770916
265298410.0 -0.2371535593 0.1562371155 0.3665056867 -0.223749768 0.366482068 -0.2233283821 -0.2497549324 0.1575479367
270298380.0 -0.2355448939 0.1582966557 0.3638684437 -0.2275729406 0.3640887718 -0.2277353875 -0.2476249761 0.1604679976
275298350.0 -0.234294972 0.1611409848 0.3617187701 -0.2317311162 0.3616302834 -0.2319163376 -0.2461148667 0.1630786245
280298320.0 -0.232430346 0.1635921591 0.359090414 -0.2355897349 0.3590159471 -0.2361165692 -0.2447622682 0.165857663
285298290.0 -0.2310572677 0.1665149918 0.3563771568 -0.2398245848 0.3564386393 -0.2398136383 -0.2430845849 0.1684875182
290298260.0 -0.2294171964 0.1687923524 0.3538135794 -0.2436689174 0.3542654555 -0.2440909217 -0.2413117413 0.1714915336
295298230.0 -0.2277567989 0.1713410288 0.3516044467 -0.2478833635 0.350742645 -0.2479434242 -0.2396478902 0.1738063554
300298200.0 -0.2254880746 0.1737523947 0.3483719542 -0.2518951161 0.3485934969 -0.2518830671 -0.2377863851 0.1763589111
305298170.0 -0.2239064673 0.1761702727 0.3460766761 -0.2561602241 0.3457291635 -0.2562022268 -0.2352753494 0.1792630739
310298140.0 -0.2218235535 0.1782953044 0.3429873802 -0.2597861152 0.3431156297 -0.2600636354 -0.2339895356 0.1820232708
315298110.0 -0.2205595532 0.1809308533 0.3397368248 -0.2637003187 0.3399708504 -0.263832592 -0.2319872758 0.1842495778
320298080.0 -0.2186324223 0.183262174 0.3370957836 -0.2675331041 0.3372552327 -0.2673764714 -0.2301627743 0.1866549086
325298050.0 -0.217057916 0.1857483519 0.3343690312 -0.2717101841 0.3344454998 -0.2716462704 -0.228539795 0.1896667896
330298020.0 -0.2150936387 0.1882241884 0.3303390038 -0.2754756197 0.3308704557 -0.275380047 -0.2265318115 0.1918179321
335297990.0 -0.2132578783 0.1901462759 0.3275464019 -0.2791627322 0.3275757456 -0.2790428179 -0.2245606814 0.1944347936
340297960.0 -0.2118614736 0.1928159967 0.3242983371 -0.2828005883 0.3248953182 -0.2827595899 -0.2229771575 0.1972414749
345297930.0 -0.2100784381 0.1953579666 0.3213816156 -0.2859384584 0.3210347805 -0.2859618594 -0.2204013498 0.1992269318
350297900.0 -0.2078498982 0.1974937485 0.3179143492 -0.2894349084 0.3183036643 -0.2898961774 -0.2184885872 0.2024338821
355297870.0 -0.2058875661 0.2001175145 0.3146490739 -0.292794732 0.3147474457 -0.2932071184 -0.2167984199 0.2045744779
360297840.0 -0.2036117809 0.2022015058 0.3112599146 -0.2966775557 0.3113606243 -0.2968105048 -0.2145725811 0.2073871387
365297810.0 -0.2017401893 0.2045451399 0.3078218392 -0.3001196922 0.3081796749 -0.2998703276 -0.2126326502 0.2098621225
370297780.0 -0.1996594974 0.2065444662 0.3047190198 -0.3032630656 0.3047354161 -0.3036873587 -0.2101658248 0.2123612231
375297750.0 -0.1973685828 0.2094683941 0.301500242 -0.3069662095 0.3015414959 -0.3071064872 -0.2083885206 0.2149678905
380297720.0 -0.1953607038 0.2114125808 0.2978685891 -0.3099378964 0.2979504172 -0.3098152761 -0.2059733714 0.2173642126
385297690.0 -0.1932384875 0.2138462077 0.294661521 -0.3132214213 0.2946306534 -0.3132086496 -0.2038947723 0.21999322
390297660.0 -0.1910087543 0.2160053657 0.2911165389 -0.3167561784 0.2910147681 -0.3165422742 -0.2010462906 0.2217198189
395297630.0 -0.1887777532 0.2177455834 0.2875140308 -0.319526368 0.2875354293 -0.3198471131 -0.1990167258 0.2247541513
400297600.0 -0.1863508417 0.2201999597 0.2836765526 -0.322545648 0.2841989482 -0.3228821283 -0.1974497602 0.2264568835
405297570.0 -0.1842118287 0.2221553791 0.2805249069 -0.3260196437 0.2804687046 -0.3261735146 -0.1948189378 0.2292862524
410297540.0 -0.181863491 0.2243106057 0.2765532431 -0.3286609314 0.2763173273 -0.3289211795 -0.1921347186 0.2313511785
415297510.0 -0.1795957282 0.2267618584 0.2730243772 -0.3319769156 0.2733467588 -0.3320031971 -0.1899831822 0.2339852734
420297480.0 -0.177059435 0.2285017311 0.2693567549 -0.3351789834 0.269459958 -0.3349193781 -0.1874424854 0.2358689944
425297450.0 -0.1744440692 0.2303621696 0.2655812238 -0.3377808118 0.2661100432 -0.3380176863 -0.1849196317 0.2386074088
430297420.0 -0.1725044038 0.232835311 0.2619018926 -0.341190176 0.2618982092 -0.3406384806 -0.1823789355 0.2403377033
435297390.0 -0.1698586534 0.2345468977 0.2581181386 -0.3434601131 0.2582427449 -0.3434157944 -0.1800973574 0.2427395845
440297360.0 -0.1671817642 0.2364908265 0.2542355782 -0.3460927806 0.2539714103 -0.3463678844 -0.177709333 0.2443245839
445297330.0 -0.1648534486 0.2384371151 0.2505183484 -0.3490220095 0.2503497433 -0.3489394721 -0.1751831669 0.2466913721
450297300.0 -0.1620441853 0.2403448233 0.2463897787 -0.3520931345 0.2466855817 -0.3517945705 -0.1729276031 0.2488254417
455297270.0 -0.1597989797 0.242262679 0.2429850941 -0.3545139913 0.2429495728 -0.3544094836 -0.169863032 0.2506061383
460297240.0 -0.1575462246 0.2440041558 0.238842781 -0.3567710357 0.2385988225 -0.3574075281 -0.1674339711 0.2530209689
465297210.0 -0.1545914282 0.2459208955 0.2351583192 -0.3598227229 0.2348754256 -0.359516716 -0.1651113821 0.2546582732
470297180.0 -0.1522810431 0.2477620137 0.2313023751 -0.3621399349 0.231272737 -0.3623993275 -0.1627813565 0.2567790541
475297150.0 -0.1496990422 0.2492757444 0.2268959712 -0.364126072 0.2270404679 -0.3639907415 -0.1595786512 0.2584856448
480297120.0 -0.1470029113 0.2506058417 0.2227835601 -0.3666844808 0.2230709615 -0.3667739764 -0.1569185155 0.2607534645
485297090.0 -0.1442960343 0.2525252051 0.2190065724 -0.3689850482 0.2189994308 -0.3693009497 -0.1546170116 0.2624587617
490297060.0 -0.1417627685 0.2541760266 0.2151332019 -0.371686141 0.2150293269 -0.371812578 -0.151892962 0.2643527827
495297030.0 -0.1391079065 0.2560707086 0.2106662387 -0.3737800103 0.2106212798 -0.3741027432 -0.1490133231 0.2659398093
500297000.0 -0.1361097275 0.2573889992 0.2065570288 -0.3760697704 0.2067085823 -0.3760034206 -0.1464339494 0.2677636554
505296970.0 -0.1336825302 0.2591495946 0.2024730722 -0.3778511265 0.2024102917 -0.3779449632 -0.1439309714 0.2695746551
510296940.0 -0.1309581052 0.2605658249 0.1983976491 -0.3804351799 0.1983592771 -0.3806508981 -0.1407647343 0.2713781679
515296910.0 -0.1286048884 0.2627475301 0.1940322603 -0.382219802 0.194415758 -0.3825112559 -0.1382498174 0.2727357676
520296880.0 -0.1253567384 0.2639181232 0.1897050896 -0.3845355026 0.1901747824 -0.3843679989 -0.1352186722 0.2744633158
525296850.0 -0.1226276997 0.2651754533 0.1859337406 -0.386392424 0.1857563231 -0.3866740125 -0.1320621143 0.2760117853
530296820.0 -0.1197546858 0.2665671525 0.1813924252 -0.3880561253 0.181582372 -0.3883145441 -0.1299837399 0.2774971616
535296790.0 -0.1168961862 0.2682033436 0.1770871621 -0.3899202908 0.1773231159 -0.3903127689 -0.1267294982 0.2787144061
540296760.0 -0.11419694 0.2690636997 0.1727213719 -0.3922405585 0.172862336 -0.3924573549 -0.12422658 0.2808230648
545296730.0 -0.1113557942 0.2707580307 0.1685800008 -0.3939002547 0.1688342892 -0.394268961 -0.121440585 0.2817289077
550296700.0 -0.1086973105 0.2721015055 0.164326952 -0.3959651698 0.1646690744 -0.3962210749 -0.118567524 0.2834780167
555296670.0 -0.1054547977 0.2733724152 0.159965003 -0.3976277929 0.1601801703 -0.3975609686 -0.1156921006 0.2849297834
560296640.0 -0.1026263511 0.2744412752 0.1554887544 -0.3992105225 0.1558202455 -0.3991039177 -0.112308303 0.2862751885
565296610.0 -0.0997774833 0.2757449844 0.1511020642 -0.4005016366 0.1508620381 -0.4008795221 -0.1097006514 0.2874459497
570296580.0 -0.0967476594 0.2769074065 0.1466575156 -0.4022388766 0.1473293065 -0.4024749584 -0.1067172309 0.2891679125
575296550.0 -0.0940948796 0.278073291 0.1426409208 -0.403792528 0.1428383071 -0.4037889178 -0.1034750413 0.2902140497
580296520.0 -0.0910157377 0.2793937184 0.1383528177 -0.4055545995 0.1381743912 -0.4052742328 -0.1006747259 0.291480959
585296490.0 -0.0878678563 0.2800644571 0.1337428912 -0.4068663002 0.1340493936 -0.4067486245 -0.0976512011 0.2924585691
590296460.0 -0.0855287313 0.2810961519 0.129476744 -0.407915064 0.1290766684 -0.4083532606 -0.0943914438 0.2935848939
595296430.0 -0.0818382487 0.2826642041 0.1249018229 -0.4097664905 0.1248042841 -0.4099260052 -0.0914381242 0.2949099955
600296400.0 -0.0791719529 0.2835726203 0.1203346422 -0.4110145338 0.1205346188 -0.4112763115 -0.0885450627 0.2964948469
605296370.0 -0.0763272139 0.2846490952 0.1161728964 -0.4123824287 0.116115927 -0.412145312 -0.085389942 0.2973944486
610296340.0 -0.073262037 0.285470506 0.1117177863 -0.4135873628 0.1117572017 -0.4137625314 -0.0825848095 0.2984434718
615296310.0 -0.0702017272 0.2864233336 0.1069300249 -0.4142279257 0.1069177348 -0.4145772028 -0.0792936214 0.2992728676
620296280.0 -0.0672342926 0.2871459167 0.1027255913 -0.4150408962 0.1024634037 -0.4154590598 -0.0764552296 0.3000173777
625296250.0 -0.0639508304 0.2883000011 0.0974520047 -0.4168263067 0.0979114285 -0.4166920397 -0.0730380405 0.3011918616
630296220.0 -0.0611153007 0.2892691987 0.0934574166 -0.4178861555 0.0939357468 -0.4174579154 -0.0704114257 0.3020815787
635296190.0 -0.0582383019 0.289739308 0.0886618666 -0.4180264398 0.0887831145 -0.418149007 -0.067211508 0.3027993626
640296160.0 -0.0550590095 0.2903826476 0.0843540449 -0.4197146228 0.0845466099 -0.4195821459 -0.0636626099 0.3038889489
645296130.0 -0.0518484869 0.2911097231 0.0797501838 -0.4198701301 0.0800846057 -0.4203321601 -0.0611585377 0.3042296173
650296100.0 -0.0490473773 0.2922536258 0.0756748048 -0.4212339123 0.0755732496 -0.4208749251 -0.0578004507 0.3051143479
655296070.0 -0.0458769774 0.2924210915 0.0705916683 -0.4216012096 0.0707021168 -0.4218130768 -0.0540438084 0.3058771946
660296040.0 -0.0428696012 0.2934400099 0.0664227466 -0.4224622531 0.0661347087 -0.4225366256 -0.0510277122 0.3067829058
665296010.0 -0.0396681715 0.2937720218 0.0617459716 -0.4230238658 0.06174684 -0.4232366525 -0.0483821238 0.3075614686
670295980.0 -0.0363806743 0.2945774975 0.0571015174 -0.4236744056 0.0574326429 -0.4237973516 -0.0453625971 0.3084186096
675295950.0 -0.0335867173 0.2949842882 0.0524317106 -0.4244439802 0.0526711668 -0.4246094193 -0.0417409312 0.3088323975
680295920.0 -0.0303424454 0.295930651 0.0478781052 -0.4247400142 0.0475963212 -0.4252685805 -0.0383595436 0.3093952651
685295890.0 -0.0272071637 0.2960316193 0.0434410162 -0.425394895 0.0432009898 -0.4255441954 -0.035137733 0.3099555438
690295860.0 -0.0237218362 0.2964753982 0.0383731073 -0.4254823468 0.0381150557 -0.4255221608 -0.0318589368 0.3105790929
695295830.0 -0.0205187242 0.296666557 0.0332922048 -0.4264004269 0.0338494903 -0.4260413233 -0.0290816902 0.3108742735
700295800.0 -0.0175578848 0.29705681 0.0290321024 -0.4262854226 0.0290776957 -0.4265127712 -0.0255395851 0.3110553788
705295770.0 -0.0142306957 0.297718961 0.0242788915 -0.4266465971 0.0249214382 -0.4265597558 -0.0227684257 0.3116168676
710295740.0 -0.0114078667 0.298005139 0.019932834 -0.4267225721 0.0203403283 -0.4268195165 -0.0201326813 0.3122542959
715295710.0 -0.0082325558 0.2982970163 0.0150826591 -0.4271551834 0.0155669663 -0.4269919767 -0.0162931557 0.3122939787
720295680.0 -0.0050833429 0.2983266009 0.0106087246 -0.4270461272 0.0107815763 -0.4273353002 -0.0125899361 0.312806662
725295650.0 -0.0015384641 0.2987495692 0.0058444597 -0.4269280877 0.0058867093 -0.4271367105 -0.0094904966 0.3133905436
730295620.0 0.0010093567 0.29854152 0.0014155755 -0.4273734952 0.0014551351 -0.4270779455 -0.0062407114 0.3130563283
735295590.0 0.0050461371 0.2985827115 -0.0030151196 -0.426843447 -0.0027931241 -0.4273704391 -0.0026803235 0.3133099635
740295560.0 0.0076223573 0.2989193928 -0.007506333 -0.4265596062 -0.0077887757 -0.4266183682 0.0003434722 0.3133525155
745295530.0 0.0109551258 0.2991442389 -0.0124850228 -0.4268699417 -0.0119746226 -0.4270029028 0.0033136398 0.3138409653
750295500.0 0.0139984485 0.2988627452 -0.0170689135 -0.4261449822 -0.0169208407 -0.4264315242 0.0068947465 0.3136705518
755295470.0 0.0174454095 0.2988535902 -0.0216595732 -0.426161252 -0.0213648725 -0.426728282 0.0097558309 0.3138798643
760295440.0 0.0204311846 0.2990489 -0.0260175888 -0.4261484662 -0.0260262887 -0.4262884787 0.0130957501 0.3139249912
765295410.0 0.0236073446 0.2986689328 -0.030302778 -0.4253311396 -0.0308191168 -0.426094795 0.0166535469 0.3141867039
770295380.0 0.0271379434 0.29906252 -0.0357319367 -0.42498233 -0.0351789478 -0.4253781145 0.0196542488 0.3135940721
775295350.0 0.0298115425 0.2986150779 -0.0399425973 -0.4245822988 -0.0397675619 -0.4249380901 0.0224669282 0.3137097886
780295320.0 0.033408889 0.2983372369 -0.0443994301 -0.424043884 -0.0441370081 -0.4246754249 0.026095371 0.3139101076
785295290.0 0.0362264659 0.2985169278 -0.0489116738 -0.4232775703 -0.0489452207 -0.4236652279 0.0290211195 0.3135166351
790295260.0 0.0392649063 0.298125081 -0.0534986059 -0.4235458789 -0.0537484532 -0.4234208839 0.0326353431 0.3134973111
795295230.0 0.0426800418 0.2981126696 -0.0580525378 -0.4222049926 -0.0579890039 -0.4224544892 0.0359871474 0.3136218282
800295200.0 0.0458001905 0.2977360442 -0.063127046 -0.4219642632 -0.0631026534 -0.4220408559 0.0391675284 0.3128308775
805295170.0 0.0488857473 0.2972948613 -0.0676320466 -0.4206619394 -0.0671586758 -0.4210105823 0.0420951812 0.3123607818
810295140.0 0.052070153 0.2968331189 -0.0718983726 -0.4202830726 -0.0718529195 -0.4207664358 0.0457445196 0.3129026511
815295110.0 0.055148568 0.2962793999 -0.0766959524 -0.4191022923 -0.0763931795 -0.4194681637 0.0487371358 0.3120846924
820295080.0 0.0582300429 0.2956125692 -0.0810387878 -0.4186095135 -0.0806845124 -0.4188258901 0.051831016 0.3116899646
825295050.0 0.0615943156 0.2955424832 -0.0855832089 -0.4173549297 -0.0856183522 -0.4176530883 0.0552605651 0.311294154
830295020.0 0.0645595744 0.2950796527 -0.0901586064 -0.416545934 -0.0900824817 -0.4166436888 0.058431027 0.3107552434
