!Created with skrf (http://scikit-rf.org).
# Hz S RI R 50.0 
!freq ReS11 ImS11 ReS21 ImS21 ReS12 ImS12 ReS22 ImS22
300000.0 -0.773036841 -0.1565576954 -0.0011200813 -0.0005467076 0.0018029081 0.0012797537 -0.0456974969 -0.0720442719
5299970.0 -0.7853688339 -0.007358876 0.0001485158 0.0001568656 9.91262e-05 7.89844e-05 -0.0482007334 0.0142699417
10299940.0 -0.7875365318 -0.0042330793 -4.41822e-05 5.99239e-05 0.0001416694 0.000133141 -0.0427055024 0.0311609871
15299910.0 -0.7936729114 -0.0019037274 -9.5769e-05 0.0001521068 -5.64438e-05 0.0002442073 -0.0346077436 0.0454055536
20299880.0 -0.7993001812 0.0024146107 4.58722e-05 0.0002250072 -9.27042e-05 0.0001287126 -0.0247554381 0.0570161908
25299850.0 -0.8062416837 0.0084369577 -8.15819e-05 -4.72781e-05 -0.0001426645 -7.71249e-05 -0.0141139074 0.0662088488
30299820.0 -0.8121349956 0.0163902192 0.0001093803 1.90162e-05 0.0003134631 5.14543e-05 -0.0026799648 0.0726552994
35299790.0 -0.8171025205 0.0251004114 7.08516e-05 -5.57985e-05 7.28777e-05 -8.73951e-05 0.0083712242 0.0771157134
40299760.0 -0.8213097894 0.0343024231 0.0001882686 -5.01014e-05 -7.45925e-05 -0.0001582421 0.0194903146 0.080022883
45299730.0 -0.824766401 0.0439862482 0.0002072811 -1.13858e-05 -1.127e-05 -1.1895e-05 0.0295161774 0.0813758583
50299700.0 -0.8269367737 0.053884145 0.0002447476 5.16919e-05 9.69497e-05 0.0001416187 0.0397298966 0.0814855853
55299670.0 -0.8289756422 0.064538767 3.00964e-05 9.15006e-05 0.0001700423 -9.15764e-05 0.0483170769 0.0803021389
60299640.0 -0.8295583338 0.0741292615 -8.41369e-05 1.50094e-05 0.0001942709 0.0001672815 0.0570698369 0.0784868816
65299610.0 -0.8309164755 0.0848323702 -9.15843e-05 -0.0001123271 0.0001091404 -3.21381e-05 0.0645001459 0.0760444296
70299580.0 -0.8316037196 0.0949967401 -6.36445e-05 -2.75994e-05 5.77823e-05 -7.06669e-05 0.0711449332 0.0730610876
75299550.0 -0.8314198739 0.105017267 0.0001322398 0.0001154733 -2.51354e-05 -0.0001061233 0.0774833875 0.0699400245
80299520.0 -0.831034256 0.1143931759 -8.90968e-05 9.20733e-05 -6.92168e-05 -9.3867e-06 0.0827212075 0.0664513499
85299490.0 -0.8304907332 0.1240856664 -0.0001253337 -4.416e-07 6.59648e-05 3.80519e-05 0.0877321929 0.0626112298
90299460.0 -0.8299913241 0.1340989413 2.58371e-05 2.32496e-05 1.5395e-06 -0.0001035581 0.0922557474 0.0587151476
95299430.0 -0.8283648701 0.1434504477 0.000103323 -0.000181095 0.0001312195 -8.47379e-05 0.0963871471 0.0548894116
100299400.0 -0.8280485152 0.1533453578 -4.78729e-05 3.04607e-05 -1.80032e-05 -1.1423e-06 0.099721971 0.0508995263
105299370.0 -0.8267821542 0.1624037544 -1.16324e-05 3.35362e-05 7.00413e-05 -9.16825e-05 0.1030789737 0.0469154074
110299340.0 -0.8253802362 0.1712332553 6.98969e-05 0.0001012222 2.71244e-05 -0.0001383865 0.1055867174 0.0430382827
115299310.0 -0.823359038 0.1806050578 -2.15737e-05 0.0002833631 7.71952e-05 6.07903e-05 0.108103602 0.0386329161
120299280.0 -0.8217390057 0.1897119668 -0.0001326618 -7.18387e-05 9.36283e-05 -5.45339e-05 0.1104021781 0.0352625847
125299250.0 -0.8206605106 0.1985021035 6.71249e-05 0.0002386817 0.0001687022 -4.30936e-05 0.1123860378 0.0305944201
130299220.0 -0.8178450588 0.2080070585 -0.0001110623 1.828e-05 -9.59769e-05 -6.26697e-05 0.1134123013 0.0273395053
135299190.0 -0.8166967887 0.2168529422 -0.0001331491 1.4187e-06 8.5905e-05 0.0001104314 0.1150936942 0.0237516683
140299160.0 -0.8146531065 0.2252211707 -7.1332e-05 7.20546e-05 0.0002551618 0.0001842026 0.116667808 0.0199187284
145299130.0 -0.8124486451 0.2342875693 2.91911e-05 4.70636e-05 3.81511e-05 0.0002069848 0.1170680267 0.016671326
150299100.0 -0.8101516104 0.2431136334 -3.01676e-05 1.2696e-05 0.0001167657 0.0001568206 0.1180646716 0.0128302647
155299070.0 -0.8076667987 0.252203618 2.17025e-05 0.0002244826 0.0002597583 0.0002795578 0.118911171 0.0096357864
160299040.0 -0.8048852607 0.2614053116 -0.000173719 6.46932e-05 5.58821e-05 0.0001915791 0.1194491512 0.0061870388
165299010.0 -0.802162921 0.269329435 -6.65753e-05 0.0001260134 -7.56015e-05 0.0001130587 0.1196814719 0.0027887034
170298980.0 -0.7996264594 0.2779360557 -3.00493e-05 0.0002449602 0.0001477725 -3.78265e-05 0.1202167188 -0.0001743291
175298950.0 -0.7966699838 0.2870882063 0.0001079226 6.35838e-05 0.000255292 2.98924e-05 0.1204037174 -0.0033982512
180298920.0 -0.793710969 0.2950173722 -5.19944e-05 -0.0001992845 0.0002268673 0.0002224044 0.1206561149 -0.006382391
185298890.0 -0.790923087 0.3041686047 -2.95797e-05 1.39509e-05 0.0001708918 0.0001090855 0.1203571214 -0.0096435934
190298860.0 -0.7873256029 0.3119998253 -6.578e-07 -3.7253e-05 9.93084e-05 9.68e-08 0.1208316685 -0.0123086508
195298830.0 -0.7838327826 0.3201365707 5.44419e-05 -0.0001108644 8.15688e-05 0.0001025962 0.1205093884 -0.0152749872
200298800.0 -0.7806886492 0.3294203977 -0.0001212964 0.0001336222 0.0001294431 8.49285e-05 0.1206677179 -0.0179124079
205298770.0 -0.7774450014 0.3372084085 -8.29507e-05 2.39342e-05 8.5878e-05 0.0001316375 0.1201188624 -0.0207428684
210298740.0 -0.7733085685 0.3456127785 8.1492e-06 0.0002186353 -3.29318e-05 8.61203e-05 0.1199127852 -0.0232017508
215298710.0 -0.7702565294 0.3541821566 -3.4436e-05 -5.48447e-05 -1.70383e-05 2.30668e-05 0.118995108 -0.0258347239
220298680.0 -0.7673889412 0.3624711254 1.56212e-05 6.49711e-05 6.80677e-05 5.75361e-05 0.118912817 -0.0283231964
225298650.0 -0.7629729659 0.3710934971 -1.72527e-05 0.0001323672 -6.1711e-06 0.0001342541 0.1183858773 -0.0305529109
230298620.0 -0.758831906 0.378741891 -7.82809e-05 -3.6489e-06 9.84772e-05 2.61842e-05 0.1177745195 -0.033391344
235298590.0 -0.7548119278 0.3873811105 -0.0001882979 -0.0001622413 -8.9734e-06 5.01417e-05 0.1173896671 -0.0357816935
240298560.0 -0.750922865 0.3949776575 0.0001142012 0.0001738652 -0.0002017673 3.76319e-05 0.1167206943 -0.0379212955
245298530.0 -0.7467509228 0.4028159663 0.0001985479 1.5354e-05 8.44318e-05 3.69425e-05 0.1158447116 -0.0399464371
250298500.0 -0.7423048288 0.4112368274 0.0002670482 -0.0003309798 5.75933e-05 0.0002166872 0.1153198128 -0.0419446025
255298470.0 -0.7379241983 0.4186610744 -6.06158e-05 0.0001419129 1.45416e-05 3.20906e-05 0.1144648997 -0.0446184632
260298440.0 -0.7339235302 0.4262442723 3.90774e-05 -4.69811e-05 -4.18848e-05 7.88878e-05 0.1140172456 -0.0464785368
265298410.0 -0.7290052027 0.4340813914 0.0001564265 -6.87703e-05 -0.0001024525 0.0001620943 0.1128563561 -0.0487450298
270298380.0 -0.7245344161 0.4418060742 -7.1722e-06 2.0251e-05 -7.7416e-05 7.03986e-05 0.1125156878 -0.0507659183
275298350.0 -0.7195643981 0.4490980684 4.1635e-06 -2.8724e-06 7.8564e-06 -4.7554e-06 0.1116274512 -0.0523834744
280298320.0 -0.7148721376 0.4566327835 0.0001153847 4.05251e-05 -1.45142e-05 6.04003e-05 0.1108896999 -0.0546474647
285298290.0 -0.7104664012 0.4647439869 0.0003267207 6.29141e-05 0.0003285002 3.36814e-05 0.1093899043 -0.0562159663
290298260.0 -0.705365297 0.4718827003 -0.0001033344 -5.61758e-05 0.000175838 0.0001783267 0.1088830985 -0.0583882531
295298230.0 -0.7006225028 0.4793394709 -3.94322e-05 6.45878e-05 -0.0001179918 0.00017432 0.1078357205 -0.0601304073
300298200.0 -0.6945379715 0.4866384105 7.06913e-05 0.000176614 0.0002307713 -0.0001288625 0.1067467122 -0.0618953856
305298170.0 -0.6900248993 0.4939143915 -7.13858e-05 4.11514e-05 0.0001596401 -5.45429e-05 0.1062033163 -0.0632014934
310298140.0 -0.6847025756 0.5011955457 -7.44524e-05 0.0001382473 0.0001388674 -6.72443e-05 0.1052286964 -0.0649921109
315298110.0 -0.6798846653 0.5074000505 0.0001838029 0.0001682017 0.0001788354 0.0001200632 0.1044225814 -0.0670538739
320298080.0 -0.6743796646 0.5158942606 0.0001525054 0.0001641212 2.28406e-05 -9.0863e-05 0.1030078032 -0.068649968
325298050.0 -0.6683315208 0.5222079497 0.0001384969 -0.0001553123 0.0002637517 1.3757e-06 0.1018746565 -0.0708268745
330298020.0 -0.6628314165 0.5291094629 0.000259447 5.3597e-06 -0.0001711378 0.0001017115 0.1005194635 -0.0724434126
335297990.0 -0.6571392291 0.5364649867 0.0001508188 -8.3299e-06 0.0001266414 8.90303e-05 0.0988887179 -0.0741582759
340297960.0 -0.6523469755 0.5428844063 -6.1924e-06 0.0001667354 3.98724e-05 -6.97e-06 0.0979128285 -0.0757002554
345297930.0 -0.6460687022 0.549166575 4.31327e-05 5.44524e-05 4.34999e-05 8.3535e-05 0.0961599974 -0.0766963348
350297900.0 -0.6405778525 0.5566581961 0.0001622704 -8.172e-05 -0.0001649616 4.98515e-05 0.0950726918 -0.0781547693
355297870.0 -0.6340628263 0.5628281205 1.12335e-05 0.0001019749 -1.92722e-05 0.0001084534 0.0936159641 -0.0792068208
360297840.0 -0.628636072 0.5693093134 0.0001257742 -4.78017e-05 0.0001261389 2.64619e-05 0.0920154972 -0.0802321167
365297810.0 -0.6218772528 0.5757237264 3.36803e-05 -5.01511e-05 0.0002694348 0.0001788797 0.0909078229 -0.0817289312
370297780.0 -0.6156957462 0.5820647321 -0.0001261986 1.68674e-05 8.89549e-05 0.0001003123 0.0891597451 -0.0831144066
375297750.0 -0.6106754753 0.5883714421 -0.0001138574 0.0001787574 -0.0001197269 -0.0001149936 0.0881331225 -0.0840073937
380297720.0 -0.6036666513 0.5950610523 0.0001781666 -8.41602e-05 -1.81434e-05 1.00702e-05 0.0869566423 -0.0849079431
385297690.0 -0.5979878987 0.6007754026 9.24964e-05 -7.35842e-05 4.7248e-06 8.12758e-05 0.085486264 -0.0859672853
390297660.0 -0.5911729038 0.607046929 4.84337e-05 2.24926e-05 -3.50476e-05 0.0001114614 0.0837882642 -0.0876798918
395297630.0 -0.5850461226 0.612833355 -4.92092e-05 0.0001422229 6.0883e-05 0.0001069335 0.0824671317 -0.0886038286
400297600.0 -0.5785227237 0.6188581453 0.0003167983 -0.0001727294 6.13998e-05 -0.0001012902 0.0807553279 -0.0896303066
405297570.0 -0.5723472955 0.6251852916 0.0002369292 0.0002139868 0.0002651011 -2.61527e-05 0.079778073 -0.0904023669
410297540.0 -0.5658361879 0.6311935083 0.0002459991 8.18357e-05 -4.26102e-05 0.000241584 0.0782522095 -0.091316005
415297510.0 -0.5591977074 0.6364953265 -3.24607e-05 0.0001791954 0.0001068433 -6.44328e-05 0.0763873107 -0.0919478424
420297480.0 -0.5522482473 0.6426726973 7.05507e-05 -7.01231e-05 6.50957e-05 4.81107e-05 0.0747459589 -0.0935908059
425297450.0 -0.5455288742 0.6482501127 0.000116795 4.86634e-05 0.0001403189 0.000279815 0.0736662479 -0.0942775328
430297420.0 -0.5392245248 0.6533007561 0.000410115 0.0001323567 -6.05951e-05 -0.0002073827 0.0721445473 -0.0952607399
435297390.0 -0.5320816066 0.6590291084 0.0001696335 1.47747e-05 6.10966e-05 6.04635e-05 0.0708564306 -0.095993542
440297360.0 -0.5251299356 0.6645229633 -6.48092e-05 6.82364e-05 -1.25594e-05 -0.0001965647 0.0687926968 -0.0973377731
445297330.0 -0.5185286511 0.6696154751 0.0001397556 4.76034e-05 0.0002463627 -1.12043e-05 0.0675056638 -0.0978376885
450297300.0 -0.5112328558 0.6751508485 2.51202e-05 -0.000224241 0.000139414 -0.0001201788 0.0656310493 -0.0985785003
455297270.0 -0.5044004815 0.6800382593 0.0002510736 0.0001253653 0.0002316931 -2.62249e-05 0.0644191622 -0.0998061321
460297240.0 -0.4974253555 0.6853272561 0.0003947876 4.25327e-05 -2.01149e-05 9.33903e-05 0.0630559009 -0.099901713
465297210.0 -0.4901174903 0.6902462158 -0.0001212379 -0.0001003092 -0.0001848357 0.0001513868 0.0606836982 -0.1012849891
470297180.0 -0.4830333214 0.69473064 0.0002048845 0.0001745085 8.81143e-05 0.0001159157 0.059124691 -0.1017344451
475297150.0 -0.4757031973 0.7004227191 0.000131067 0.0001494443 -3.6254e-06 -0.0001137337 0.0580272429 -0.1023884131
480297120.0 -0.4685939814 0.7046690638 0.0002691868 0.0002526338 -3.53171e-05 -0.0001970449 0.0564483333 -0.1030952478
485297090.0 -0.461046633 0.7099987812 0.0002067595 0.0001115092 -3.79272e-05 0.0001163914 0.0545390817 -0.1038043776
490297060.0 -0.4545118667 0.7142608048 0.0001062673 0.0002041561 0.0002267449 9.09874e-05 0.0530459991 -0.1044973366
495297030.0 -0.4472481227 0.7188683758 0.0001958587 -0.0001372641 0.0001917953 -7.48102e-05 0.0515712326 -0.1053179466
500297000.0 -0.4390360974 0.7234297349 0.0002199012 -0.0001404975 9.76371e-05 9.48926e-05 0.0497838396 -0.105861769
505296970.0 -0.4311985731 0.7273660464 5.03953e-05 0.0002737601 -0.0001207564 -8.09179e-05 0.0477861424 -0.106223681
510296940.0 -0.4249476771 0.7325765382 0.0001381211 -5.44928e-05 0.0001716912 -4.35303e-05 0.0466475536 -0.1065291458
515296910.0 -0.4171210478 0.7359090199 0.0001069595 0.0001305684 0.0001727655 1.85643e-05 0.0445318047 -0.1070855027
520296880.0 -0.4089516523 0.7409333907 -0.0001001286 9.4262e-06 9.49325e-05 0.0001722391 0.043216741 -0.1077657401
525296850.0 -0.4017024163 0.7448769017 0.0001750203 -0.0001776246 6.77542e-05 -0.0001921653 0.041741827 -0.1083475119
530296820.0 -0.3944102115 0.7485587292 0.0004060354 1.9398e-06 0.0002416064 0.0001140938 0.0396040667 -0.1088634796
535296790.0 -0.3858060067 0.7525712585 0.0001038101 2.31739e-05 0.0001474828 8.39392e-05 0.0380301471 -0.1094732318
540296760.0 -0.3780254159 0.7559162789 0.0003531093 -3.03306e-05 -2.16894e-05 -6.86973e-05 0.0362316949 -0.1095613757
545296730.0 -0.3710757953 0.7596010877 0.0003824231 -2.50563e-05 0.0002043469 -6.58893e-05 0.0346404654 -0.1103103171
550296700.0 -0.3630691222 0.7635101963 0.0001589519 3.84751e-05 0.0002115506 5.70819e-05 0.0330723241 -0.1106400565
555296670.0 -0.354656086 0.7672941424 -2.03284e-05 0.0001373129 4.15524e-05 -3.695e-07 0.031294047 -0.1106080299
560296640.0 -0.3473159867 0.7708735267 -4.6805e-06 -9.16199e-05 0.0001445884 -0.0001444701 0.0298886109 -0.1111703282
565296610.0 -0.3396637795 0.7740200763 0.0001364297 -0.0001602315 0.0001808839 8.12514e-05 0.0281151999 -0.1112947594
570296580.0 -0.3319054537 0.7773798834 6.39733e-05 -2.689e-06 0.0002313164 -1.18768e-05 0.0263669144 -0.1114363492
575296550.0 -0.3231435183 0.7805679107 -1.7719e-05 0.0002431258 0.000120785 6.2098e-05 0.0248123157 -0.1119497841
580296520.0 -0.3155732075 0.7841454924 -5.20078e-05 0.0001064521 -0.0001480274 0.0002053307 0.0229911881 -0.1120289296
585296490.0 -0.3075935593 0.7865821204 0.0002718845 -1.82848e-05 0.0001356505 -9.0972e-06 0.0212175637 -0.112605735
590296460.0 -0.2999039655 0.7897036688 -0.0001408026 -1.61132e-05 -1.10803e-05 -4.11075e-05 0.0196275992 -0.1124114617
595296430.0 -0.2909637059 0.7935844546 6.3991e-06 -4.12021e-05 9.37392e-05 9.13273e-05 0.0179653158 -0.1127213167
600296400.0 -0.283636474 0.7954296895 4.92575e-05 -4.33517e-05 4.14972e-05 -1.04881e-05 0.0162581126 -0.1128069443
605296370.0 -0.2751854977 0.7989662125 1.37465e-05 -5.32861e-05 0.0002812503 -6.87376e-05 0.0146987724 -0.1127614346
610296340.0 -0.2673342426 0.8018387762 0.0001157576 7.70621e-05 0.0001163208 0.0001222961 0.0126322116 -0.1127183063
615296310.0 -0.2593145763 0.8042949853 8.91422e-05 7.76515e-05 6.80772e-05 9.41734e-05 0.0111311413 -0.1129900699
620296280.0 -0.2506864552 0.8064818754 1.02539e-05 -2.14899e-05 9.26928e-05 -3.75091e-05 0.0092239504 -0.1133703117
625296250.0 -0.2423449363 0.809428016 0.0001995929 -8.22502e-05 0.0002141595 0.0001263271 0.0078586168 -0.1132279594
630296220.0 -0.2340908811 0.811744582 7.44724e-05 8.16483e-05 6.71866e-05 -5.54397e-05 0.0057422609 -0.112999443
635296190.0 -0.2260862827 0.8138569077 0.0001670554 -8.01496e-05 -5.78299e-05 -1.71843e-05 0.0042602647 -0.1127001617
640296160.0 -0.2178268 0.8150558511 6.41314e-05 -0.0001609325 0.0003023534 0.0001606 0.0027117476 -0.1132636643
645296130.0 -0.2095451295 0.8176536924 0.0002608621 4.39345e-05 0.000222735 7.14493e-05 0.0008880507 -0.1129980248
650296100.0 -0.2016051266 0.8202814531 0.0003463882 -0.0001505622 0.0002322821 8.71767e-05 -0.0010255255 -0.1126708314
655296070.0 -0.1931771 0.8218622878 0.0002721754 0.000184129 0.0002644239 -7.0596e-06 -0.002513848 -0.1123466464
660296040.0 -0.1853827283 0.8248004567 0.0002178322 0.0002714474 -6.24179e-05 -0.0001483878 -0.0042943684 -0.1124230246
665296010.0 -0.1766217022 0.8260106402 6.43298e-05 0.000122421 3.63191e-05 -1.58014e-05 -0.0057999884 -0.112138007
670295980.0 -0.1677012307 0.8273989703 0.0001942583 7.33482e-05 0.0002859883 -3.95077e-05 -0.0074752083 -0.1121914658
675295950.0 -0.1600088126 0.8286776254 3.77984e-05 5.57201e-05 0.0002231608 -7.75634e-05 -0.0090915404 -0.1117083085
680295920.0 -0.1514946026 0.8306448077 0.0002848073 2.64813e-05 -2.5714e-06 -4.88565e-05 -0.0108048716 -0.1117532757
685295890.0 -0.1426356868 0.8319434712 6.4723e-06 -5.34606e-05 4.20432e-05 0.0001485126 -0.012619495 -0.1114788211
690295860.0 -0.1341997429 0.8332777493 0.0001888834 -0.0001170427 -1.58772e-05 0.0001300899 -0.0143311589 -0.1109467641
695295830.0 -0.1260966429 0.8340939187 0.0002496062 -2.54401e-05 0.0001166759 -0.0001107735 -0.0159327882 -0.1107224758
700295800.0 -0.1175099303 0.8355728914 9.52955e-05 0.0002276357 2.881e-06 5.02779e-05 -0.0177590776 -0.1104917905
705295770.0 -0.1090615852 0.8372138051 0.000171846 -7.33476e-05 0.0001627088 6.00284e-05 -0.0193154976 -0.1097612243
710295740.0 -0.1012000752 0.8384758904 0.000210483 -8.88842e-05 0.0004309042 -5.55024e-05 -0.0211925077 -0.1095027609
715295710.0 -0.0930408815 0.8390264677 0.0003955778 0.0001508951 0.0001836913 -0.0001264368 -0.0226688577 -0.1094111559
720295680.0 -0.0842260768 0.8399655241 5.07103e-05 5.06091e-05 0.0002206416 1.84542e-05 -0.0241282358 -0.1085615003
725295650.0 -0.0751911315 0.8411153674 0.0001163868 0.0002648443 7.3792e-06 3.2643e-05 -0.0256385539 -0.1084562682
730295620.0 -0.0678596354 0.8413332628 0.0002062816 7.68165e-05 0.0002547832 -1.7656e-05 -0.0274421276 -0.1079010238
735295590.0 -0.0586171334 0.8417910329 8.87438e-05 4.6366e-05 7.72488e-05 -0.0001053472 -0.0291061872 -0.1074096832
740295560.0 -0.0500565743 0.842550573 0.0002981167 2.447e-07 0.0001448959 -2.382e-06 -0.0308361426 -0.1069739842
745295530.0 -0.0415669166 0.8427324752 0.0001866288 -0.0001178766 0.0004410529 1.22639e-05 -0.0325106824 -0.1060874689
750295500.0 -0.0338062661 0.8433246104 4.72238e-05 -0.0002320894 0.0002819832 -8.64794e-05 -0.0337864021 -0.1061367456
755295470.0 -0.0240743973 0.8430469123 0.0001743982 -5.74445e-05 0.0001326568 -0.0001285811 -0.0357059232 -0.1049594946
760295440.0 -0.0162590934 0.8438467727 -8.22118e-05 -9.2448e-06 7.50156e-05 -4.81343e-05 -0.0375084767 -0.1049036712
765295410.0 -0.007858966 0.8437198867 0.0002959526 -0.0001328384 0.0001897759 -8.73237e-05 -0.0386054897 -0.1039919601
770295380.0 0.000466378 0.8441873777 0.0003198355 0.0001569256 0.0002327785 -0.0001814262 -0.0400825036 -0.1034579684
775295350.0 0.0090384231 0.8439179376 0.0001677529 4.54571e-05 4.3709e-05 -6.2328e-05 -0.0422471623 -0.1032142262
780295320.0 0.0180393449 0.8432345307 -6.62642e-05 4.28408e-05 0.0003711755 -0.0001723768 -0.0434636512 -0.1018259337
785295290.0 0.026002233 0.8439285638 0.0002889212 -5.5365e-05 6.66944e-05 -5.03446e-05 -0.0449713829 -0.1013556468
790295260.0 0.0348455696 0.8430234137 6.92505e-05 0.0001652636 8.92671e-05 -7.6897e-05 -0.046251059 -0.100922748
795295230.0 0.0429223248 0.843166258 4.49966e-05 4.80674e-05 0.0001390505 0.0001669646 -0.0482142621 -0.0998497245
800295200.0 0.0515044991 0.8426024667 5.81123e-05 6.09952e-05 0.0001759833 -3.10208e-05 -0.0496712389 -0.0994080024
805295170.0 0.0598209939 0.8418315314 0.0003033004 0.0001511951 6.38276e-05 -8.07756e-05 -0.0509682123 -0.09817039
810295140.0 0.0681083946 0.8412817184 0.00021006 0.0002426587 5.4358e-05 -5.29404e-05 -0.0526322395 -0.0975239022
815295110.0 0.0769257802 0.8408347032 0.0001025446 -0.0002149859 0.0003057803 5.986e-05 -0.0542046947 -0.0966769586
820295080.0 0.0850221828 0.8393506542 7.26926e-05 -0.000115901 6.17098e-05 -5.8139e-06 -0.0555603691 -0.0959042018
825295050.0 0.0937770408 0.8383784891 5.88623e-05 0.000124234 0.0002904023 0.0001013295 -0.0568834533 -0.095077212
830295020.0 0.1026871158 0.8380541849 8.69885e-05 -0.0001471466 0.0002922742 -0.0001493803 -0.0586006593 -0.0941001364
835294990.0 0.1098224792 0.8372363177 -0.0001242014 -0.0001630778 0.0001990371 4.29021e-05 -0.0597011626 -0.0936619863
840294960.0 0.1188768613 0.8352649754 0.0001969043 -2.62761e-05 0.0003124702 0.0001459308 -0.0612749936 -0.0920015696
845294930.0 0.1269741355 0.8342170975 0.0001527693 -0.0001362348 5.31972e-05 -2.80187e-05 -0.06257451 -0.0914404354
850294900.0 0.1352159077 0.8329957727 0.0001120919 0.0001019689 0.0001088807 2.60558e-05 -0.0639185149 -0.0903306386
