!Created with skrf (http://scikit-rf.org).
# Hz S RI R 50.0 
!freq ReS11 ImS11 ReS21 ImS21 ReS12 ImS12 ReS22 ImS22
300000.0 -0.7745555893 -0.1750884166 0.0018595932 0.0017335122 -0.0007107975 0.0005349043 -0.0444115961 -0.0759323869
5299970.0 -0.7858192931 -0.0094832307 0.0001585796 0.0001320482 0.0002673517 0.0002530632 -0.0488815896 0.014044759
10299940.0 -0.7893333181 -0.0058320229 5.97771e-05 -8.95051e-05 -9.22518e-05 0.0001893197 -0.043245247 0.0324297594
15299910.0 -0.7939335217 -0.0035124972 8.57825e-05 -5.48698e-05 0.0003482616 0.0001506647 -0.0346935149 0.0468748019
20299880.0 -0.8011128883 0.0008755474 0.0002209704 0.0001429996 7.72514e-05 -0.0001197124 -0.0253491917 0.0585618276
25299850.0 -0.8076015862 0.0067293706 6.87578e-05 -0.0001323218 0.0001129013 -5.21906e-05 -0.0143197013 0.0677397617
30299820.0 -0.813804095 0.0135749376 4.63296e-05 0.0001031462 -4.64685e-05 -2.80076e-05 -0.0028295919 0.0748099911
35299790.0 -0.818359275 0.0228773559 -0.0001163467 0.0002436035 -1.91846e-05 1.62178e-05 0.0085576991 0.0796079952
40299760.0 -0.8235285683 0.031811491 -1.9643e-05 0.0001735526 3.48465e-05 8.17287e-05 0.0196815721 0.082466693
45299730.0 -0.8266267508 0.0418465097 -7.39413e-05 0.0002125596 4.09715e-05 9.39051e-05 0.0304128897 0.0840975467
50299700.0 -0.8292143127 0.051890065 6.27655e-05 9.98226e-05 4.8829e-05 3.6247e-06 0.0403929994 0.0845434188
55299670.0 -0.8313802862 0.0617803953 1.1841e-06 0.0001400026 1.19392e-05 -0.0001158727 0.0492104023 0.0833850288
60299640.0 -0.8328372212 0.072100989 -9.5328e-05 -6.67629e-05 2.17177e-05 -3.3987e-06 0.0579444135 0.0817891778
65299610.0 -0.8337732723 0.0819293647 5.16415e-05 -0.0002628867 3.14657e-05 -3.3843e-05 0.0657609168 0.0794480125
70299580.0 -0.8334287643 0.0912814026 -2.18253e-05 0.0001015959 1.60511e-05 9.2607e-06 0.0724549255 0.0768708827
75299550.0 -0.8342200415 0.101551589 -3.21598e-05 -4.78023e-05 -6.0395e-06 -5.11371e-05 0.0791490417 0.0735642557
80299520.0 -0.8338697251 0.1116911208 8.47375e-05 -0.0001370103 2.0931e-05 0.0001766746 0.0848251596 0.0702849503
85299490.0 -0.8327481821 0.1209064069 4.56998e-05 -2.14674e-05 3.60288e-05 0.0001193179 0.0898858434 0.0666271376
90299460.0 -0.8319958093 0.1320814604 -0.0001179344 0.0001632821 0.0001221026 0.0001844225 0.0943951773 0.0630652496
95299430.0 -0.8317908236 0.1405980808 8.78194e-05 5.59749e-05 -3.7463e-05 7.81271e-05 0.098563297 0.059295929
100299400.0 -0.8302385722 0.1503341042 -1.13718e-05 4.25539e-05 0.0001845254 0.0001854572 0.1026299366 0.0555544504
105299370.0 -0.8294562867 0.1596140586 6.00487e-05 -0.0001011669 -0.0001048894 1.26661e-05 0.1058922366 0.0515805501
110299340.0 -0.8279367531 0.1686589523 -0.0001512217 -6.79478e-05 0.0001574637 3.81213e-05 0.1082248388 0.0475122903
115299310.0 -0.8256932908 0.1778726278 0.0002033705 0.0001153658 0.0002706048 1.04709e-05 0.1109117864 0.043677407
120299280.0 -0.8250200767 0.1869023518 9.91363e-05 0.0002060184 0.0001544861 0.000309151 0.1132265346 0.0397308389
125299250.0 -0.8225962255 0.1950952432 3.9032e-06 -8.37617e-05 0.0002190621 0.0001437905 0.1152074686 0.036522125
130299220.0 -0.8208598911 0.2051134181 -0.0001965479 0.0002833586 2.27268e-05 -0.0001972814 0.1171002723 0.0327432709
135299190.0 -0.8185107639 0.2143680323 3.75345e-05 8.19627e-05 -4.82144e-05 -0.0002592971 0.1186670938 0.0288247232
140299160.0 -0.8172743812 0.2233587412 9.4803e-05 7.0677e-05 5.97246e-05 0.0002213393 0.1198240286 0.025757507
145299130.0 -0.8143975451 0.2320636592 0.0001056546 -0.0001028581 -3.42614e-05 -3.286e-05 0.1209805743 0.0223175641
150299100.0 -0.8122772053 0.2409368347 0.0001118793 0.0002518717 -6.45853e-05 5.60317e-05 0.1218521524 0.0191119204
155299070.0 -0.8100966219 0.2498413635 -8.56761e-05 0.0001038706 -2.9273e-05 0.0001137603 0.1228352089 0.0157279606
160299040.0 -0.8076457261 0.259173638 3.78639e-05 6.06112e-05 0.00015637 -6.09792e-05 0.1231200006 0.0123381571
165299010.0 -0.804176192 0.2672934419 -6.98591e-05 0.0002003308 0.0002096614 8.05893e-05 0.1242529083 0.0094112838
170298980.0 -0.8016009756 0.2762337036 0.0001341459 0.0002731727 0.0002249419 -4.44118e-05 0.1243339324 0.0063826498
175298950.0 -0.7992242406 0.2846414309 3.81835e-05 4.50742e-05 0.0002636991 -0.0001487179 0.1245564194 0.0040497906
180298920.0 -0.7958888401 0.2937929063 0.0001632685 0.0001630412 4.62666e-05 9.45393e-05 0.1250215651 0.0006768357
185298890.0 -0.7927756104 0.3019144571 -7.67646e-05 -2.518e-07 0.0001275872 6.10421e-05 0.1250326725 -0.0021559389
190298860.0 -0.7899660237 0.3111791299 0.0002400526 0.0001498 0.0001215246 6.54458e-05 0.1249064192 -0.0049246217
195298830.0 -0.7864342514 0.3192124001 0.0002349739 0.0001700924 0.0001887921 4.70451e-05 0.1248814703 -0.0076198569
200298800.0 -0.7828808546 0.3280425149 0.0001395584 4.91547e-05 2.62143e-05 -2.02744e-05 0.1251222288 -0.0102762288
205298770.0 -0.778885851 0.3366637952 -8.79671e-05 0.0001876197 0.0001170459 0.0001214968 0.1249054561 -0.0130173035
210298740.0 -0.7761349885 0.3446757705 0.0001309499 0.000215812 -0.0001000961 0.0001839482 0.1246349389 -0.0152372738
215298710.0 -0.7716528924 0.3532271163 0.000253341 3.59015e-05 6.461e-06 4.79332e-05 0.1243122322 -0.0183326416
220298680.0 -0.7685355311 0.3607915188 -2.09519e-05 0.0001671489 0.0003626905 0.0001681516 0.1237942121 -0.0200987926
225298650.0 -0.7646780538 0.3695724702 2.41273e-05 0.0001104459 7.93747e-05 8.44124e-05 0.1233146839 -0.0225997194
230298620.0 -0.7609390413 0.3772859519 -0.0001190629 0.000310083 -5.51985e-05 7.41343e-05 0.1228935502 -0.025022295
235298590.0 -0.7570475358 0.3858797394 0.0002584508 4.59815e-05 -2.81341e-05 9.91327e-05 0.1223039314 -0.02697269
240298560.0 -0.7528863575 0.3933926999 4.86999e-05 0.0001400716 -0.0001069576 4.27345e-05 0.1219316059 -0.0295384001
245298530.0 -0.7488531531 0.4015195446 0.0002215303 7.0063e-05 -7.6019e-06 9.9394e-05 0.1213421627 -0.0317481498
250298500.0 -0.7446881434 0.4093788783 0.0003343574 6.38171e-05 1.52804e-05 4.62565e-05 0.1205098897 -0.0336655268
255298470.0 -0.7406849223 0.4175952157 0.0001410995 0.0002130661 0.0002667304 3.76723e-05 0.1200102067 -0.0360704082
260298440.0 -0.7363924015 0.4251792471 0.0002128727 0.00023859 7.41433e-05 4.76092e-05 0.1189130258 -0.037895735
265298410.0 -0.7319505144 0.4327767083 -2.90726e-05 0.0002524404 5.98199e-05 0.000215595 0.118927826 -0.0400224791
270298380.0 -0.7273028831 0.4402779152 0.0002460251 9.74392e-05 -3.56603e-05 0.0001415111 0.1183866393 -0.0418728092
275298350.0 -0.7234416493 0.4482002673 8.25628e-05 0.000126476 0.0001854095 0.0003583321 0.1172069689 -0.0437603635
280298320.0 -0.7182848441 0.4553304993 -4.7937e-06 0.0001277102 0.0001244195 -0.0001109126 0.1161956471 -0.0457912433
285298290.0 -0.7132375855 0.4636635348 6.36463e-05 -0.0001054819 0.000113286 0.000109065 0.1156421336 -0.0475257353
290298260.0 -0.7082975973 0.4709792937 0.0002155507 0.0003050109 3.60643e-05 0.0001725902 0.1147424012 -0.0490749456
295298230.0 -0.7042136565 0.4779861215 0.0001492281 0.0003881159 0.0003045632 8.24938e-05 0.1138162622 -0.0510231051
300298200.0 -0.6996259414 0.4853662344 0.0002845932 0.0001365131 -0.0001035947 -8.91528e-05 0.1134244579 -0.0528457781
305298170.0 -0.6944892069 0.4924637763 0.0001507074 5.18417e-05 0.0002510446 0.0001352398 0.1126836637 -0.0545619579
310298140.0 -0.6889244493 0.499824701 0.0001875966 -3.63087e-05 0.0002533852 -0.0001572836 0.1114694754 -0.0561790116
315298110.0 -0.684651566 0.5068557823 0.0002323969 0.0003019231 -8.01836e-05 9.30632e-05 0.1107367514 -0.0581933672
320298080.0 -0.6791581115 0.5142939916 0.0001069984 0.0001581914 0.0002669108 0.0001684383 0.1096059035 -0.0596992724
325298050.0 -0.6729431872 0.5209827084 0.000262725 0.0002311249 0.0003031994 0.0002067932 0.1088005091 -0.061976851
330298020.0 -0.6686315988 0.5275362436 5.58414e-05 0.0001278331 0.0001737116 0.0002557666 0.1076035669 -0.0636452836
335297990.0 -0.6628193699 0.5348241206 0.0003419375 6.48302e-05 9.48995e-05 0.0001276033 0.1061968416 -0.0650393211
340297960.0 -0.6576791956 0.5409708124 0.0002440068 0.0002816701 0.000298433 0.0001448508 0.1052593744 -0.0664581614
345297930.0 -0.6516667298 0.5480732614 0.0002131984 0.0002818386 0.0003781844 0.000153865 0.1036409988 -0.0679823054
350297900.0 -0.6461001341 0.5548958158 0.0003565176 0.0001275852 0.0001357522 0.0002488278 0.1022358062 -0.0693816785
355297870.0 -0.6409824783 0.5608323834 0.0001289586 0.0002063789 0.000182924 0.0001826552 0.1013106784 -0.070713482
360297840.0 -0.6349688251 0.5683528866 0.000172207 0.000267576 0.0001829196 0.0003226815 0.0999843186 -0.0719155154
365297810.0 -0.6295590269 0.5747691415 -8.3384e-06 0.0001175394 0.0002285666 6.99178e-05 0.0987578801 -0.0733851408
370297780.0 -0.6232869004 0.580274312 0.0002850617 0.0002206425 0.0002587622 5.95137e-05 0.0974457989 -0.0743991673
375297750.0 -0.6176642559 0.5869156077 7.33035e-05 7.03377e-05 0.0003704541 0.0002974572 0.0963479572 -0.0758632546
380297720.0 -0.6121681591 0.593727434 1.27541e-05 -4.33018e-05 0.0002265153 0.0001165238 0.0951126278 -0.0769559766
385297690.0 -0.6058833659 0.5992394542 0.0001988448 6.89226e-05 0.0002542114 -3.09814e-05 0.0939720868 -0.0781622059
390297660.0 -0.5982060051 0.6051026439 0.0001590518 -9.20918e-05 0.0001583101 -4.488e-07 0.0926517386 -0.0792219534
395297630.0 -0.5927531283 0.6117472793 0.0001745604 9.32007e-05 3.86948e-05 4.63535e-05 0.0913004446 -0.0805321276
400297600.0 -0.5866270711 0.6178604835 0.0003334844 0.0002569636 8.93432e-05 4.6407e-06 0.0902072151 -0.08145163
405297570.0 -0.5804514099 0.6233217448 0.0003362054 4.18201e-05 -5.10148e-05 0.0001581927 0.0891495513 -0.0828164884
410297540.0 -0.573848041 0.6291879052 0.0003381063 8.17033e-05 0.0002506015 0.0001651012 0.0874135732 -0.0834540158
415297510.0 -0.5679358982 0.63500148 0.0001214389 0.0001827983 -8.6176e-06 8.89363e-05 0.086330373 -0.0848023091
420297480.0 -0.5607959569 0.6406762882 0.0001361418 0.0003293187 0.0002690938 5.36938e-05 0.0852125768 -0.0853112385
425297450.0 -0.5545554974 0.6458865605 1.82333e-05 0.0002708503 0.000395444 0.0003617669 0.0836552196 -0.0867831977
430297420.0 -0.5482585798 0.6523044213 0.0001324794 9.25968e-05 0.0003148612 0.000212835 0.08261038 -0.087732352
435297390.0 -0.5409196677 0.6570786225 0.0002114906 3.82116e-05 0.0001309259 9.68824e-05 0.0810129725 -0.0885401603
440297360.0 -0.5340690974 0.6624333331 0.0003042651 0.0003360812 3.24575e-05 5.02194e-05 0.0798965145 -0.0896831083
445297330.0 -0.5274056752 0.6679007527 0.0004532176 0.0001042333 0.0002160504 -1.49957e-05 0.0787547445 -0.0905814795
450297300.0 -0.5202696047 0.6734751213 0.0001958672 -0.000151631 0.0001402989 6.73862e-05 0.0774172118 -0.0914638682
455297270.0 -0.513669105 0.6784775533 4.7435e-06 0.0001848809 0.0003771644 5.3693e-05 0.0761110215 -0.092253801
460297240.0 -0.5058456599 0.6842652758 0.0002347291 -2.22174e-05 0.0001966105 8.10667e-05 0.0745777437 -0.0931206291
465297210.0 -0.4993565555 0.6889381775 0.0003934865 -1.80929e-05 8.71907e-05 -2.27022e-05 0.0733567201 -0.0939025978
470297180.0 -0.4917271976 0.6943208331 0.0001504356 7.14606e-05 1.394e-07 -2.73153e-05 0.0720109994 -0.0948108964
475297150.0 -0.4847672097 0.6988196217 0.0001654378 0.0001662297 0.0003418665 5.69679e-05 0.0708173226 -0.095280339
480297120.0 -0.4766346797 0.7042155319 0.0001921529 7.68426e-05 0.0003110034 0.0001034631 0.0691793437 -0.0962774348
485297090.0 -0.4697755096 0.7084817338 0.0004479186 0.0002916405 0.0001583844 0.0001034698 0.0676718046 -0.0970667949
490297060.0 -0.4623797454 0.7136895342 0.0002043749 0.0001333817 0.0002441045 8.6491e-05 0.0664975909 -0.0979807136
495297030.0 -0.4547094593 0.7181661555 0.0004782276 0.0001415257 0.0003160895 0.0001986612 0.065218975 -0.0985034671
500297000.0 -0.4473125766 0.7220392232 0.000227082 -3.50061e-05 0.0003038738 0.0002600062 0.0637690135 -0.0993551056
505296970.0 -0.439399661 0.7269723123 0.0004358643 0.0001121319 0.0002481897 0.0003195656 0.0622490462 -0.0999429011
510296940.0 -0.4319160286 0.7313945789 0.0005065895 5.69664e-05 0.0001581287 8.07671e-05 0.0613004561 -0.1002903308
515296910.0 -0.4244660398 0.7355216061 0.0001698983 0.000207449 0.0003304426 6.9486e-06 0.0594572698 -0.1009637496
520296880.0 -0.4166222024 0.7398224599 0.0001606796 7.91934e-05 -3.45409e-05 -9.2843e-06 0.0583884266 -0.1016916003
525296850.0 -0.4086364457 0.7440782142 0.0004169187 -5.20513e-05 0.0001988595 0.0001654887 0.0566652975 -0.1021888993
530296820.0 -0.4017540054 0.7481781903 0.0004866598 7.0473e-06 0.0004021084 4.57781e-05 0.055300302 -0.1027209696
535296790.0 -0.3927545083 0.7521550037 0.0002466729 3.92784e-05 0.00032539 7.1482e-05 0.0543829599 -0.1032856285
540296760.0 -0.385055686 0.7564440345 0.0003906484 0.0002082414 0.0002571741 -3.05444e-05 0.0523173152 -0.1038103654
545296730.0 -0.3778351586 0.7600507541 0.0002690067 2.03861e-05 0.000165444 1.80697e-05 0.0513454202 -0.1041021639
550296700.0 -0.3694025949 0.7631794412 0.0002915711 -5.899e-06 0.0003768013 0.0001821316 0.0496227249 -0.1048906953
555296670.0 -0.3610980701 0.7673255033 0.0002767193 0.0001369487 0.0003055 7.48155e-05 0.0480137007 -0.1054244212
560296640.0 -0.3533283988 0.7706969783 0.0003641911 -3.37686e-05 0.0005124636 -4.34403e-05 0.0468074963 -0.1055497533
565296610.0 -0.3455393804 0.773972748 0.0004024706 0.0001094626 0.0005140921 0.0002396092 0.0456096899 -0.1057420283
570296580.0 -0.33698117 0.7780090811 0.0003295442 7.5692e-06 0.0003584678 0.0001416247 0.0437422859 -0.1065648952
575296550.0 -0.328471427 0.7811238182 0.0002777624 -3.05458e-05 0.0002339421 6.97199e-05 0.0425903363 -0.1067851442
580296520.0 -0.3211323229 0.7844064309 0.000437816 7.6531e-06 0.0004472696 0.0002670316 0.0406846425 -0.1072687276
585296490.0 -0.3128152679 0.7874441399 0.0004345782 0.0003788482 0.000196867 0.0002237032 0.0395714 -0.1075570052
590296460.0 -0.3037559574 0.790926243 0.0001945521 -8.37547e-05 0.0003786503 0.0002452524 0.0377973986 -0.1079323169
595296430.0 -0.2958522958 0.7939238357 0.0003515034 0.0001556147 0.0002200995 0.0001687674 0.0365562392 -0.1080144621
600296400.0 -0.2879939164 0.7967226783 0.0004746369 -0.0002101884 0.0002684414 4.6562e-06 0.0352964558 -0.1084300743
605296370.0 -0.2796233224 0.7992538473 0.0002419381 -0.0002319219 0.0004964101 0.0001667588 0.0336608398 -0.1086036412
610296340.0 -0.2714206701 0.8028073966 0.0001996948 1.16339e-05 0.0005134107 7.26267e-05 0.0321479444 -0.109078123
615296310.0 -0.2627347467 0.8052571804 0.0004132106 0.0001524266 0.0002911575 -0.0001119253 0.0307961389 -0.1089572654
620296280.0 -0.2553615928 0.8086592454 0.0003371322 0.0001313177 0.0003551756 -4.46966e-05 0.0295178144 -0.1092594327
625296250.0 -0.247227268 0.810085486 0.0006051026 3.86124e-05 0.0003557155 -6.90349e-05 0.0277345276 -0.1095182344
630296220.0 -0.2389461613 0.8130418919 0.0001734318 3.34162e-05 0.0003326992 0.0001046861 0.0263201106 -0.1095706349
635296190.0 -0.2306621301 0.814848182 0.0003504237 9.27738e-05 0.0004719939 0.0002205156 0.0248645104 -0.1096302648
640296160.0 -0.2216164921 0.8174944012 0.000461719 -5.66738e-05 0.0003133668 -2.05777e-05 0.0234910616 -0.1096952209
645296130.0 -0.2136909248 0.8202125312 0.0003296621 0.0001585993 0.0004024993 2.09182e-05 0.0216501222 -0.109764493
650296100.0 -0.2053235082 0.8216572252 0.0003311199 9.9342e-05 0.0004295541 0.0002126273 0.0206024411 -0.1099711193
655296070.0 -0.1975108991 0.8243806353 0.0003936816 -0.0001269324 0.0003931665 5.82772e-05 0.0187170001 -0.1100214212
660296040.0 -0.1885758628 0.8259135562 0.000187057 5.64713e-05 0.0001705164 1.316e-06 0.0180019055 -0.1101218909
665296010.0 -0.1808064866 0.8283567017 0.0003205634 -0.0001551533 0.0002600152 -0.0001015436 0.0164756006 -0.1099614565
670295980.0 -0.1725358812 0.8303370011 0.0003336703 5.74017e-05 0.0004762439 0.0001165609 0.0146613328 -0.1102010116
675295950.0 -0.1640759442 0.8316809972 0.0003838295 0.0001100602 0.0004451269 9.36068e-05 0.0132811352 -0.109942164
680295920.0 -0.1569219963 0.8333554205 0.0003751088 -6.6883e-05 0.0002263496 -5.36285e-05 0.0118937246 -0.1098638645
685295890.0 -0.1470721578 0.8357516075 0.0001209247 0.0001942311 0.0004595022 -6.87554e-05 0.0103865037 -0.1099175849
690295860.0 -0.1391414759 0.8373188378 0.0003205343 -4.96857e-05 0.0003074287 0.0001349846 0.0088735143 -0.109620658
695295830.0 -0.130512155 0.83820983 0.0004942319 -0.0001119922 0.0004703381 -0.0001204701 0.0073759199 -0.1096265204
700295800.0 -0.1224747228 0.840032615 0.0003633973 2.35252e-05 0.0004414508 -7.27568e-05 0.0063387606 -0.1094311735
705295770.0 -0.1147890026 0.8414948632 0.0006006861 -0.0001544966 0.0003619096 4.03351e-05 0.0047640361 -0.1092773184
710295740.0 -0.1061481481 0.841502914 0.0003821009 4.3376e-06 0.0004192864 7.339e-07 0.0033822644 -0.1092189925
715295710.0 -0.0978246906 0.8434019838 0.0003623205 -0.000172766 0.0003320187 -7.4436e-05 0.0020696041 -0.1092713384
720295680.0 -0.089048976 0.8438627394 0.0004522953 0.0001718937 0.0004732705 -4.07235e-05 0.0003598778 -0.1090990106
725295650.0 -0.081628088 0.845867663 0.000281904 0.0001402727 0.0004756514 8.02061e-05 -0.0008895438 -0.1085563946
730295620.0 -0.0735533954 0.8464607016 0.0004279904 -7.84844e-05 0.000319489 1.47724e-05 -0.0025278163 -0.1084829426
735295590.0 -0.06553311 0.8480061666 0.0004341222 -0.0002712624 0.0002187106 2.35946e-05 -0.0036494172 -0.1085297619
740295560.0 -0.0579136941 0.8475883858 0.0005682417 0.000190739 0.0005060296 -0.0001281228 -0.0052734737 -0.1077383836
745295530.0 -0.0489115163 0.8487266955 0.0003879916 -6.03082e-05 0.0005743802 -0.000151679 -0.0066654838 -0.1074132792
750295500.0 -0.0410809254 0.8494456269 0.0006130098 -6.66343e-05 0.0005497501 6.39193e-05 -0.008031116 -0.1074301219
755295470.0 -0.032570261 0.8493609654 0.0004808397 -7.10347e-05 0.0005406097 -0.0001140093 -0.0093465278 -0.106699547
760295440.0 -0.0238349261 0.8502200061 0.0004552588 -0.0002013305 0.0004672478 -3.72853e-05 -0.010828964 -0.1066992807
765295410.0 -0.0159152647 0.8509607926 0.0004055917 -0.0001013252 0.0005205474 -0.000268876 -0.0121057608 -0.1061998532
770295380.0 -0.0082108651 0.851083367 0.0005584005 -7.36652e-05 0.00056284 1.15363e-05 -0.0136196538 -0.1058175155
775295350.0 -0.0001492509 0.851060762 0.0005240008 -1.55071e-05 0.0003500219 -0.0002181824 -0.0146744647 -0.1059225656
780295320.0 0.0091121932 0.8514138383 0.0003010022 -1.27657e-05 0.00036701 -0.0001012427 -0.0161168891 -0.1051829704
785295290.0 0.0168845564 0.8512475416 0.0005563283 5.7339e-06 0.0003321324 6.27914e-05 -0.0179108092 -0.104692123
790295260.0 0.0249525506 0.8508536475 0.0006207286 -0.0001162892 0.0006353449 3.2604e-06 -0.0188126001 -0.1041244667
795295230.0 0.033030637 0.8505817317 0.0003341363 5.85955e-05 0.0003732823 -3.82505e-05 -0.020213024 -0.1042244469
800295200.0 0.0416488119 0.8503503086 0.0005627888 -0.0002541342 0.0003216628 -0.0002288692 -0.0216440378 -0.1036218785
805295170.0 0.0489845954 0.8505160208 0.0002101939 -0.0001658887 0.000496095 -9.24676e-05 -0.0229500898 -0.1031027876
810295140.0 0.0574354924 0.8500605816 0.0004905406 -1.4626e-05 0.0004718537 -0.0002146625 -0.0243880698 -0.1023494311
815295110.0 0.0653527135 0.8495659642 0.0004419229 -0.000163397 0.0001850911 -0.0002478291 -0.0257898624 -0.1018436705
820295080.0 0.0737940659 0.8491828623 0.0003956155 -0.0001307552 0.0002734959 -4.46617e-05 -0.027029497 -0.1008382254
825295050.0 0.0817715506 0.8482017481 0.0005940171 -0.0001576861 0.0002895575 -0.0002955973 -0.0281220349 -0.1006732862
830295020.0 0.0906884022 0.8479400191 0.0005482913 -0.0001253147 0.0005918235 -0.000139541 -0.0296863517 -0.1001811854
835294990.0 0.0981940786 0.8461556032 0.0004761076 -0.0003846376 0.0005289954 -9.9341e-05 -0.030656152 -0.0993464083
840294960.0 0.1065474819 0.845338221 0.000480763 -0.000137166 0.0004766053 -0.0001050426 -0.0319922826 -0.099201743
845294930.0 0.114979907 0.8445988845 0.0004407717 -0.0001638224 0.0004975521 -0.0001135635 -0.0333320965 -0.0982222565
850294900.0 0.1238987336 0.8432697 0.0005007821 -0.0002243931 0.0004878494 -9.041e-07 -0.0344926426 -0.0973342965
