!Created with skrf (http://scikit-rf.org).
# Hz S RI R 50.0 
!freq ReS11 ImS11 ReS21 ImS21 ReS12 ImS12 ReS22 ImS22
300000.0 -0.7791201482 -0.1203582924 -0.0010985881 -7.35452e-05 -0.0005406634 0.0002910997 0.8591966457 -0.0025886483
5299970.0 -0.7850394329 -0.006086137 0.0001827737 -1.5374e-05 8.46824e-05 -2.76905e-05 0.8598517926 -0.0101160508
10299940.0 -0.787910951 -0.0041667501 -0.0001296085 -2.93512e-05 2.17737e-05 0.000144775 0.8588767167 -0.018954883
15299910.0 -0.7937323485 -0.0022972191 4.55835e-05 9.24065e-05 -6.08371e-05 -2.27964e-05 0.8579231463 -0.0272361981
20299880.0 -0.7999296536 0.0019649769 2.11778e-05 -0.000126817 -7.39689e-05 9.72581e-05 0.8567576633 -0.0357531433
25299850.0 -0.8062129999 0.0078829346 0.0001598313 -6.40411e-05 -9.10753e-05 -3.04503e-05 0.8561369165 -0.0432331066
30299820.0 -0.8120532187 0.0153943353 -2.9893e-06 -2.64266e-05 2.12595e-05 -0.0002129415 0.8554107503 -0.0520590926
35299790.0 -0.8175005315 0.0244224581 0.0001490547 0.0001184049 7.0983e-06 5.4896e-06 0.8549659729 -0.0597593279
40299760.0 -0.821528264 0.0337926229 -3.91209e-05 5.69178e-05 8.50755e-05 4.97885e-05 0.8535011791 -0.0676004948
45299730.0 -0.8241274959 0.0426577107 8.30012e-05 -0.000126643 -7.192e-06 -8.47708e-05 0.8524009537 -0.0765063721
50299700.0 -0.8272368015 0.0528131855 -4.0961e-06 -0.0001102789 0.0001125746 0.0001320658 0.8517255785 -0.0845113238
55299670.0 -0.8293127527 0.0623703801 -0.0001174253 2.10438e-05 0.0001005873 8.33892e-05 0.8507566451 -0.0933215835
60299640.0 -0.8306656773 0.0735311444 -0.0001112107 0.0001375778 -0.0001169711 1.55787e-05 0.8496892539 -0.1010931888
65299610.0 -0.8311124559 0.0838139694 4.17465e-05 7.92488e-05 8.0327e-05 -5.1314e-06 0.8492441427 -0.1090345565
70299580.0 -0.8316865125 0.0934604978 -0.0001380789 -1.53724e-05 0.000119987 8.88637e-05 0.8477083672 -0.1173598395
75299550.0 -0.8316604508 0.1038431201 -0.0001370589 -2.85361e-05 5.52232e-05 1.24854e-05 0.8461589812 -0.1257793704
80299520.0 -0.8319501079 0.1134265251 -0.0001686836 9.59178e-05 -4.74932e-05 -0.000190701 0.8453170689 -0.1332532419
85299490.0 -0.8310446145 0.122384761 -0.0001828428 0.0001315582 -3.40262e-05 5.85582e-05 0.8440131638 -0.1419423645
90299460.0 -0.8299406789 0.1327662421 -8.11607e-05 -0.0001187615 -6.48694e-05 0.0001592897 0.8421645581 -0.1500823791
95299430.0 -0.829359806 0.1419062276 2.20116e-05 -2.05043e-05 -9.19362e-05 -1.70175e-05 0.8399139503 -0.1579992263
100299400.0 -0.8282790395 0.150989776 -8.54766e-05 3.39277e-05 -6.28268e-05 0.0001327648 0.8392576431 -0.1665600798
105299370.0 -0.8270042473 0.1605563386 0.00012704 -0.0001585754 7.20337e-05 9.5168e-06 0.8375466212 -0.1750316126
110299340.0 -0.8255326709 0.1696969253 0.0002711908 -8.626e-06 3.37974e-05 5.82e-05 0.8358589435 -0.1824850183
115299310.0 -0.8236436676 0.178756239 -8.6975e-05 -0.0001107872 -0.0001424895 0.0001214156 0.8343560497 -0.1908567489
120299280.0 -0.822034238 0.1872180488 -2.67068e-05 3.44933e-05 0.000151304 0.0001309301 0.8322409664 -0.1987492761
125299250.0 -0.820281554 0.1961647079 0.000117072 2.61105e-05 0.0001031501 0.0001299078 0.8305167187 -0.2065398767
130299220.0 -0.8186542838 0.2055056438 0.0001006316 3.2962e-05 3.27679e-05 -7.3943e-06 0.8285669693 -0.2156524367
135299190.0 -0.8171254093 0.2140302259 1.2698e-06 -0.0002034385 0.0001493754 -2.856e-07 0.8266079043 -0.2229572458
140299160.0 -0.8148587594 0.2236113036 -6.93838e-05 -1.80523e-05 -0.0002176119 -4.8516e-06 0.8239796424 -0.2308252508
145299130.0 -0.8127768407 0.2322729298 8.16012e-05 -3.07906e-05 -2.84785e-05 -6.91613e-05 0.8215976997 -0.238585854
150299100.0 -0.810163431 0.2411105394 0.0001346757 5.18248e-05 -2.83459e-05 -1.73842e-05 0.8195254991 -0.2468499908
155299070.0 -0.8078214088 0.2497616269 -7.90966e-05 -9.50393e-05 2.11292e-05 7.13896e-05 0.8175049595 -0.2547441769
160299040.0 -0.8053652019 0.2584156889 0.0001018959 -2.15747e-05 -0.0003874759 -9.73816e-05 0.8145644232 -0.2620924784
165299010.0 -0.8029408285 0.2669501452 -4.23716e-05 -5.89066e-05 3.15211e-05 4.5201e-05 0.8114276177 -0.2705358609
170298980.0 -0.8003636398 0.275384114 3.15991e-05 8.04539e-05 0.000122615 9.57689e-05 0.8091852533 -0.2783299717
175298950.0 -0.7974125633 0.2841097421 -7.78803e-05 0.0001002952 -1.75208e-05 0.0001051711 0.8070058405 -0.2863101966
180298920.0 -0.7949555094 0.2931031939 4.33461e-05 -2.13871e-05 8.87794e-05 0.0001114748 0.8038731343 -0.2941551315
185298890.0 -0.7910149766 0.3009001211 0.0001001852 -0.0001391177 0.0001313224 5.39528e-05 0.800535607 -0.3015720216
190298860.0 -0.7882641156 0.3094281932 -0.0001901175 1.34096e-05 0.000128033 9.81718e-05 0.79799179 -0.3089918899
195298830.0 -0.7853008061 0.3180311418 0.0001359906 -3.8663e-06 0.0001273924 -0.0001187196 0.7945628328 -0.3170168011
200298800.0 -0.7813441068 0.3261217173 5.13057e-05 -2.57488e-05 -4.85541e-05 0.0001260841 0.791389693 -0.325345221
205298770.0 -0.778498558 0.3342824106 0.00011625 -2.91081e-05 8.02352e-05 5.29244e-05 0.7878395732 -0.3327631746
210298740.0 -0.7747831377 0.3427799466 -6.94016e-05 5.33327e-05 -0.0001039586 7.05362e-05 0.7845978008 -0.33991277
215298710.0 -0.7719990637 0.3505330217 -0.0001186306 6.1095e-05 4.55913e-05 0.0003167793 0.7815660297 -0.3472631653
220298680.0 -0.7679334825 0.3591243474 -0.0001636171 -0.0001307584 0.000169826 -1.13697e-05 0.778065389 -0.3545242581
225298650.0 -0.764540619 0.3664047828 0.0002589384 2.24302e-05 8.1128e-05 0.0001983081 0.773967809 -0.3617219418
230298620.0 -0.7603362587 0.3748482814 -0.0001107075 -2.17295e-05 1.78636e-05 -0.0001149682 0.7704673897 -0.369699222
235298590.0 -0.7564457773 0.3833139365 2.25283e-05 -0.0001050478 2.24886e-05 0.0001316264 0.7665346145 -0.3770101207
240298560.0 -0.7523886345 0.3909129407 -0.0001824936 6.9507e-05 -0.0001135691 0.00022012 0.7633687753 -0.3846116577
245298530.0 -0.7486032091 0.399054154 5.54111e-05 0.0003021606 2.73159e-05 0.0001897144 0.7592517742 -0.3921303142
250298500.0 -0.744099127 0.406853034 0.0004116842 0.000131224 0.0003456069 0.0001350425 0.755494194 -0.3991702984
255298470.0 -0.7401609931 0.4139960124 -0.0001353184 0.000227344 -9.88697e-05 3.88495e-05 0.7516349881 -0.4068800772
260298440.0 -0.7357104632 0.4220179136 4.34721e-05 0.000292774 8.75781e-05 0.000185839 0.7477602907 -0.4140175579
265298410.0 -0.7314419359 0.430182375 6.9305e-05 -0.000213159 -0.0001315131 4.34762e-05 0.7442698334 -0.4210904691
270298380.0 -0.7268560145 0.4373192395 1.70733e-05 -0.0001751176 7.84679e-05 6.83695e-05 0.7397729341 -0.4280165818
275298350.0 -0.7220295535 0.4447109093 -0.000110787 -8.72591e-05 0.0001160211 7.40964e-05 0.7356597811 -0.4358433462
280298320.0 -0.7169343616 0.4523557034 0.0001229267 4.8443e-06 0.0001120944 5.04219e-05 0.731814879 -0.443112647
285298290.0 -0.7133089854 0.4601666851 7.19719e-05 -8.63153e-05 5.61835e-05 0.0001971184 0.7275675212 -0.449946391
290298260.0 -0.7077551112 0.4675356704 9.04695e-05 0.0001333613 6.99492e-05 0.0001705134 0.7237712671 -0.4573868832
295298230.0 -0.7021500968 0.4739826298 -9.43031e-05 4.54607e-05 -0.0001141098 -2.14129e-05 0.7197412647 -0.4636763662
300298200.0 -0.6977301814 0.4814972521 -0.0001921688 7.70287e-05 -1.253e-07 -6.90294e-05 0.7153792084 -0.4715564952
305298170.0 -0.6927865483 0.4883707192 -0.0001957896 -1.8185e-05 -8.96809e-05 -0.000158556 0.7112950349 -0.4796479345
310298140.0 -0.6875851106 0.496113777 -0.0002103732 3.74591e-05 0.0002235918 -1.95952e-05 0.7059624172 -0.4867903239
315298110.0 -0.6826486603 0.5030333948 -1.19904e-05 4.9669e-05 8.15461e-05 -1.60485e-05 0.7010394673 -0.4946265862
320298080.0 -0.6772819702 0.5105814064 -2.20731e-05 -5.94737e-05 -0.000194061 -7.611e-06 0.6958031619 -0.5015581691
325298050.0 -0.6717644445 0.5170062788 0.0001500662 -5.43497e-05 -2.00143e-05 -0.0001422023 0.6905470565 -0.5087884065
330298020.0 -0.6664928959 0.5237791959 -0.0001226427 0.0001319451 1.27116e-05 -0.0001007222 0.6840563017 -0.5149644911
335297990.0 -0.6605549664 0.5303968853 3.96607e-05 2.79037e-05 2.99233e-05 8.59437e-05 0.6790841529 -0.5210583912
340297960.0 -0.6560904963 0.5377880019 4.32612e-05 3.62069e-05 1.59163e-05 -6.8077e-06 0.6735686347 -0.5272033836
345297930.0 -0.6503248156 0.5442473218 -5.65431e-05 0.0001374763 -1.78372e-05 -0.0001017104 0.6676930067 -0.5342023265
350297900.0 -0.6443568359 0.5511813369 -2.73841e-05 -0.0001021705 0.0001014739 3.21807e-05 0.6619399309 -0.5396565238
355297870.0 -0.6375998319 0.5579647898 -0.0001398138 8.114e-06 7.72551e-05 -8.6945e-05 0.6564901463 -0.5461908128
360297840.0 -0.6327647107 0.5641192129 -0.000162493 1.30088e-05 -8.9363e-05 -7.17321e-05 0.6516259753 -0.5528574296
365297810.0 -0.6269908235 0.5708970606 -0.0001197801 -9.28527e-05 0.0001752069 -6.1704e-05 0.646021783 -0.558463841
370297780.0 -0.6207346082 0.5770643236 0.0001741503 -1.99288e-05 0.000120913 0.0001461446 0.640887196 -0.564328532
375297750.0 -0.6142168633 0.583372322 0.0001118518 6.24898e-05 -4.80749e-05 -0.0001322347 0.6347042425 -0.5707160406
380297720.0 -0.6089162899 0.5887952606 -0.0001273509 5.79075e-05 7.4057e-06 0.0001208556 0.6285826981 -0.5763890971
385297690.0 -0.6034664486 0.5950666745 0.0002146798 -0.0001067093 9.99249e-05 0.000183564 0.6233506171 -0.5821594312
390297660.0 -0.5969718119 0.6012155724 9.3731e-06 0.0001127397 6.66105e-05 -0.0001596273 0.617168582 -0.5880054899
395297630.0 -0.590220749 0.6079764889 -3.8536e-06 0.0001377201 1.25676e-05 5.30876e-05 0.6113922815 -0.5939006148
400297600.0 -0.5835158319 0.6138216487 -0.0001343411 -0.0001387977 3.90555e-05 -0.0001351626 0.6052982989 -0.5994143409
405297570.0 -0.5774334457 0.6197842273 8.86137e-05 -0.0001779649 -1.44509e-05 -2.6936e-06 0.5994708347 -0.6055778062
410297540.0 -0.5711205326 0.6253659326 -3.60541e-05 0.000185773 -0.0002831635 7.09306e-05 0.5936251224 -0.6119109326
415297510.0 -0.5644179913 0.6313391538 -4.21914e-05 0.0002202181 0.0001558281 -5.30475e-05 0.5874823299 -0.6171300435
420297480.0 -0.559339039 0.6373057683 4.07538e-05 -5.86502e-05 -0.000111626 -6.17381e-05 0.581584858 -0.6226476816
425297450.0 -0.5513932472 0.6425853402 -5.93658e-05 -1.73607e-05 0.000159468 4.87964e-05 0.5754755435 -0.6286552112
430297420.0 -0.5451411274 0.6483431197 0.0002626527 -5.04846e-05 -3.522e-07 1.29979e-05 0.5689051761 -0.6344603791
435297390.0 -0.5387541758 0.6530058664 2.42637e-05 0.0001122553 1.32915e-05 -0.0001507133 0.5628730988 -0.6398653668
440297360.0 -0.5315433464 0.6586340888 0.0001426095 -0.0001030819 0.0002551046 2.57559e-05 0.5568265626 -0.6451382635
445297330.0 -0.5250765496 0.6642689892 0.0001330056 2.91452e-05 2.44273e-05 -7.38933e-05 0.5507837638 -0.6509715775
450297300.0 -0.5183875376 0.6694626999 3.52858e-05 4.71723e-05 -2.65841e-05 -0.00011599 0.5434875884 -0.655157269
455297270.0 -0.5116193365 0.67454529 0.0001234077 -7.9625e-05 0.000363558 -4.61418e-05 0.5372916591 -0.660666392
460297240.0 -0.5051058168 0.6796623355 9.2381e-05 3.72825e-05 -8.62516e-05 -6.33232e-05 0.5307823436 -0.666560179
465297210.0 -0.4974142927 0.6851191497 -0.0001600101 2.182e-05 -8.7223e-06 3.17284e-05 0.5239414642 -0.6715750177
470297180.0 -0.4902438691 0.6899242572 5.81319e-05 -4.64143e-05 -4.47394e-05 7.99865e-05 0.517176245 -0.676158517
475297150.0 -0.4837087377 0.6947399462 -0.0002025114 1.80551e-05 -0.0001087572 -0.000174929 0.5107588434 -0.6816848296
480297120.0 -0.4763577815 0.6998043709 5.04255e-05 -0.0001072121 5.83296e-05 -0.0001004703 0.5046514412 -0.6859471834
485297090.0 -0.4692913431 0.704134953 -9.47686e-05 5.15959e-05 6.97698e-05 0.0001778056 0.4978178333 -0.6910970856
490297060.0 -0.4621486225 0.7088041715 -0.0001490056 0.0001058463 -0.0001293183 -6.2162e-05 0.4905737917 -0.696547405
495297030.0 -0.4548646875 0.7132112567 -1.51268e-05 -1.94256e-05 -0.0001013612 -3.97824e-05 0.4841424368 -0.6999480291
500297000.0 -0.4472110672 0.7175847492 0.0001284787 -8.42735e-05 -5.11997e-05 2.2057e-05 0.4770590001 -0.7049084073
505296970.0 -0.4401920407 0.7222145943 -0.0001329662 -4.4942e-05 7.9156e-06 -4.53941e-05 0.4697561364 -0.7094416044
510296940.0 -0.4327648844 0.7265259403 0.0002226342 6.1167e-06 -0.0002122811 -0.0001865835 0.4627117565 -0.7144324506
515296910.0 -0.4246646626 0.7307612429 -1.45965e-05 -7.03153e-05 8.57795e-05 -0.0001951639 0.4562588631 -0.7181245776
520296880.0 -0.4182176171 0.7356116347 0.000153107 9.0774e-06 2.17509e-05 -5.28756e-05 0.4486317301 -0.7233837762
525296850.0 -0.4101890009 0.7389561099 0.0001609131 0.0001036161 -8.19007e-05 -0.0001111734 0.4417431634 -0.7263218934
530296820.0 -0.4023810019 0.743272512 9.08266e-05 3.74897e-05 7.75979e-05 -0.0002406273 0.434514742 -0.7307541149
535296790.0 -0.3959200802 0.7469229552 0.0001949624 -0.0002281269 0.0001403469 -0.0002659678 0.4264506734 -0.7353354758
540296760.0 -0.3885553728 0.7511618657 4.02522e-05 -0.0001226704 2.86944e-05 -0.0001198975 0.4193317333 -0.7390460036
545296730.0 -0.3806163963 0.7554442157 6.11724e-05 -6.93208e-05 -6.9687e-06 -2.91987e-05 0.4126250975 -0.7434228048
550296700.0 -0.3732509559 0.7591985646 1.47809e-05 -4.71195e-05 -2.73461e-05 5.16149e-05 0.4048232998 -0.7476175615
555296670.0 -0.3652038165 0.7617078913 -0.0001307015 -8.71976e-05 -2.89467e-05 0.0001055031 0.3978088969 -0.750947231
560296640.0 -0.3572921485 0.7663594246 6.77285e-05 0.0003192121 1.9966e-06 -2.62184e-05 0.3899926804 -0.7543930126
565296610.0 -0.3493618574 0.7701277286 -0.0001443599 0.0001904068 1.90242e-05 0.0001121289 0.3826487706 -0.7579983518
570296580.0 -0.3419331077 0.7724984925 -9.13366e-05 -0.0001030641 6.79556e-05 -0.0002112297 0.3749806805 -0.7620853036
575296550.0 -0.33393438 0.7766936099 0.000141764 -0.0001162341 -8.04183e-05 -0.0001699105 0.367400497 -0.7650875079
580296520.0 -0.3260905449 0.7792241695 -0.000131729 -1.7391e-06 -3.16919e-05 0.0001121293 0.360199701 -0.7690655138
585296490.0 -0.3183752612 0.7825262056 -8.19973e-05 4.8792e-06 4.96707e-05 6.01684e-05 0.3529207585 -0.772767785
590296460.0 -0.310331297 0.7857960194 9.24665e-05 -0.000248676 7.17967e-05 -2.34254e-05 0.3442749436 -0.7750009094
595296430.0 -0.3028249607 0.7881607331 -0.0001615272 -0.0003215982 -0.0001216437 -0.0001093095 0.3370468634 -0.7788605429
600296400.0 -0.2949684303 0.7917408892 0.0001445737 -2.27085e-05 7.9183e-06 -0.000253458 0.3295263259 -0.7827333049
605296370.0 -0.2877715507 0.7949912424 -0.0001261119 3.6679e-06 -4.9785e-06 -1.41279e-05 0.3217160524 -0.7854619278
610296340.0 -0.2789460374 0.7976631112 0.0001532215 4.64304e-05 0.0001704255 -0.000123941 0.3137864191 -0.7883903701
615296310.0 -0.2705182363 0.8000978856 0.000148166 0.0001004976 -5.40754e-05 8.5678e-05 0.3058870956 -0.7915052775
620296280.0 -0.2626511346 0.8019186104 -0.0001450927 7.41383e-05 0.000350671 1.12942e-05 0.298772956 -0.7941695649
625296250.0 -0.2547723273 0.8052331419 -2.16956e-05 2.73869e-05 7.49283e-05 -0.0001425938 0.2909412402 -0.7971586139
630296220.0 -0.2459796114 0.8078242638 -0.0001993977 -0.0001010221 -0.0001158066 -9.23729e-05 0.2825080311 -0.7999377077
635296190.0 -0.2388580417 0.8104788057 -4.07485e-05 -6.00169e-05 -4.09045e-05 -7.26988e-05 0.2751430141 -0.8025379302
640296160.0 -0.2309837524 0.8124637918 4.37185e-05 1.87183e-05 -0.0001325766 3.16294e-05 0.266499561 -0.8053365261
645296130.0 -0.2223372409 0.8152409216 -0.0001435037 5.98687e-05 0.000161889 -3.74145e-05 0.2591267729 -0.8074376575
650296100.0 -0.2143408545 0.8168420304 -4.90331e-05 -2.45374e-05 -6.33553e-05 -1.81065e-05 0.250992421 -0.8114854464
655296070.0 -0.2060656899 0.8190573039 -6.91676e-05 -8.43238e-05 -7.85129e-05 -6.1961e-06 0.2433481616 -0.812405273
660296040.0 -0.198228574 0.8206002134 -1.58466e-05 -0.0001912158 -0.0001078605 -4.55873e-05 0.2354779282 -0.8144669746
665296010.0 -0.1894347359 0.8220487746 -0.0001649711 -5.51962e-05 -0.0001304823 4.80667e-05 0.2269137579 -0.8164697966
670295980.0 -0.1819487844 0.8244011824 -0.0001101164 5.81798e-05 1.8977e-05 0.0001900014 0.2188663745 -0.8190149867
675295950.0 -0.1734733958 0.8261613796 5.21435e-05 0.0001102748 1.96502e-05 -8.79462e-05 0.2106887932 -0.8203236258
680295920.0 -0.1643705272 0.8278650523 -0.0001751348 -0.0001843332 1.3326e-06 8.29927e-05 0.2031676752 -0.822077532
685295890.0 -0.1564475559 0.8302403061 4.71968e-05 -0.0001398545 -8.47945e-05 -0.0001164039 0.1950076977 -0.824318027
690295860.0 -0.1488455245 0.8310246177 0.000219116 -7.90878e-05 7.7682e-06 1.84011e-05 0.1861205878 -0.8257067762
695295830.0 -0.1403486159 0.8320176766 -0.0001558782 -0.0001287526 -0.0001073901 -0.0001483711 0.1781925689 -0.8276651777
700295800.0 -0.1317230287 0.8335665074 -8.2096e-06 -0.0002381864 -0.0001285998 3.17676e-05 0.1702440604 -0.8293159065
705295770.0 -0.1243169216 0.8352861225 -8.53726e-05 6.48051e-05 0.0001140429 -3.6954e-05 0.1613159983 -0.8295108206
710295740.0 -0.1152322564 0.8360708857 1.3815e-05 -0.0002136332 9.1756e-05 -9.80083e-05 0.1533814525 -0.8316668717
715295710.0 -0.107326298 0.8376246706 9.06788e-05 -8.52033e-05 0.0002726141 0.000197858 0.1451422958 -0.833010899
720295680.0 -0.0985698859 0.8383296158 -7.02079e-05 -4.96742e-05 -0.0002064658 0.0001200347 0.1372257104 -0.8342139176
725295650.0 -0.0901146476 0.8393750246 0.000220242 0.0001363856 -3.2417e-05 -0.0001151686 0.1285495559 -0.8351159244
730295620.0 -0.0817396497 0.8400619808 -5.55287e-05 -0.0001152711 -9.7536e-05 0.0001720209 0.1196752485 -0.8368717544
735295590.0 -0.0736498439 0.8411372915 0.000284455 2.02378e-05 -2.58434e-05 3.7664e-06 0.1112979621 -0.8381033038
740295560.0 -0.0659487946 0.8420446041 -0.0001353726 -0.0001867361 0.0001406674 -0.000142939 0.1036514532 -0.8386629293
745295530.0 -0.0571568246 0.8428547494 0.0001577825 -3.34223e-05 1.59761e-05 -9.67237e-05 0.0954682462 -0.8390945856
750295500.0 -0.04879466 0.8424978842 -0.0001991384 -6.58911e-05 0.0001015928 2.28327e-05 0.0862281879 -0.8395286132
755295470.0 -0.0404216592 0.8428245978 -0.0003900671 -0.0001695343 0.0001832631 1.66207e-05 0.0792106539 -0.8414145971
760295440.0 -0.0320556792 0.842821363 -3.40359e-05 -6.7016e-05 0.000193155 0.0001711185 0.0704004793 -0.8414963322
765295410.0 -0.0238756698 0.8436366002 0.0001620117 -7.45723e-05 1.72754e-05 3.29177e-05 0.0623703077 -0.8418925717
770295380.0 -0.0152705367 0.8437275949 -0.0001962016 -6.79725e-05 -0.0002971978 3.12325e-05 0.0533283687 -0.8432490285
775295350.0 -0.0073813841 0.8440669531 -0.000113397 -9.53437e-05 -2.27312e-05 -7.4172e-05 0.0439395089 -0.8427146875
780295320.0 0.0013877973 0.8439936149 -0.0001236503 6.70861e-05 -0.0001619403 -0.0001712933 0.0370691202 -0.8432378062
785295290.0 0.0093174345 0.8435759644 5.35884e-05 -1.8689e-05 0.0002019893 7.20963e-05 0.0287449429 -0.8441031237
790295260.0 0.0181989271 0.843603675 3.2808e-05 -0.0001767983 -8.51266e-05 -1.87807e-05 0.0208121849 -0.8435392264
795295230.0 0.0258562941 0.8434779783 0.0001584924 -2.43606e-05 7.56928e-05 -7.90642e-05 0.0116758756 -0.8445124017
800295200.0 0.0340904023 0.843380731 4.07608e-05 0.0001700931 5.07437e-05 -8.28739e-05 0.0035811901 -0.8436051245
805295170.0 0.043162848 0.8426805956 0.000137052 0.0002283346 9.67113e-05 -6.47355e-05 -0.0051915584 -0.8439344869
810295140.0 0.051154803 0.8425082976 0.0002192477 0.0001873419 -7.27545e-05 -1.79475e-05 -0.0119983387 -0.8436794088
815295110.0 0.0595313986 0.8413866732 -4.62949e-05 0.0002949274 -0.0001427226 -6.20614e-05 -0.0210972065 -0.8433858558
820295080.0 0.0679177865 0.8411557257 -7.93372e-05 0.0001259358 -1.65124e-05 -7.10501e-05 -0.0298672148 -0.8431649879
825295050.0 0.077520757 0.8400367026 -0.0001759021 -2.45763e-05 3.44519e-05 0.0001089415 -0.0377059192 -0.8420019992
830295020.0 0.0844427811 0.8400641016 0.0001144922 6.08804e-05 0.0001670897 -3.46128e-05 -0.0459023852 -0.8418714277
835294990.0 0.0927043383 0.8390595036 -0.0001006986 -0.0001757062 -7.6847e-05 -2.2583e-06 -0.0546609669 -0.8410584971
840294960.0 0.1008694611 0.8384037334 0.0001447314 -9.64901e-05 -3.53287e-05 -9.67083e-05 -0.0632334297 -0.8401773065
845294930.0 0.10906015 0.8365762281 -1.02597e-05 0.0002043102 -4.62082e-05 -6.1244e-06 -0.0714966633 -0.8389213442
