!Created with skrf (http://scikit-rf.org).
# Hz S RI R 50.0 
!freq ReS11 ImS11 ReS21 ImS21 ReS12 ImS12 ReS22 ImS22
300000.0 -0.1013509082 -0.0667100704 0.6294217882 0.0628049087 0.6245460458 0.0630790276 -0.1002602949 -0.0752193993
5299970.0 -0.1019445565 0.0132844499 0.6305901331 0.0096940107 0.6307349937 0.0100745544 -0.1007816505 0.0131175806
10299940.0 -0.097204872 0.0294107216 0.6337798229 0.0149004838 0.6342341352 0.015561174 -0.0959103594 0.0302627249
15299910.0 -0.0902522679 0.0425389997 0.6403311652 0.0205021996 0.6405474208 0.0205607966 -0.0886218881 0.0437419276
20299880.0 -0.0817286605 0.0532151226 0.6485435288 0.024170543 0.6485059988 0.0243339517 -0.0799444081 0.0545068773
25299850.0 -0.0726316493 0.0623171522 0.6577110767 0.0254963023 0.6577838426 0.0255286002 -0.0697446182 0.0632310018
30299820.0 -0.0620305028 0.0690251336 0.6672973862 0.0242333863 0.667106142 0.0243326691 -0.0597156819 0.0699436481
35299790.0 -0.0524822151 0.0736807109 0.6770868597 0.0211958613 0.6770527998 0.0214044599 -0.0497970027 0.074935966
40299760.0 -0.0432150676 0.0772275932 0.6860594956 0.0174537062 0.6864994029 0.0173110986 -0.040233666 0.0771771772
45299730.0 -0.0338147307 0.079303262 0.6948753984 0.0115165637 0.6955317401 0.011729476 -0.0312681738 0.0796317738
50299700.0 -0.0257514999 0.0801483462 0.7034688526 0.0050301027 0.7034984398 0.0055202393 -0.0228709146 0.080918825
55299670.0 -0.0176812216 0.0804903092 0.7113768202 -0.0033400144 0.7105182356 -0.002579865 -0.0149374413 0.0805014312
60299640.0 -0.010048517 0.0801104248 0.717166096 -0.0111557363 0.7179134556 -0.01114126 -0.007641198 0.0796528582
65299610.0 -0.0036627474 0.0789353349 0.7228967203 -0.020326117 0.7237683672 -0.0196797004 -0.0009502621 0.0784547226
70299580.0 0.0027329456 0.0775826577 0.7287825183 -0.029705377 0.7287069084 -0.0287926252 0.0048086971 0.0768215295
75299550.0 0.0080583125 0.0759568339 0.7329424944 -0.0390988274 0.7327357975 -0.0392539162 0.0102134257 0.0748226713
80299520.0 0.0128296201 0.0733873891 0.7372227333 -0.0488000499 0.7370829217 -0.0493118446 0.0152375592 0.0728170882
85299490.0 0.0174151518 0.0716118586 0.740184917 -0.0578688481 0.7404088105 -0.0584973944 0.0196938811 0.0699562728
90299460.0 0.0217559282 0.0692536659 0.7432651224 -0.0690124812 0.7431856613 -0.0688241329 0.0237466596 0.0677440435
95299430.0 0.0259721323 0.0663794047 0.745827211 -0.0792130001 0.7456108505 -0.0791799242 0.0273930916 0.0653844274
100299400.0 0.0287777246 0.0645913308 0.7467771393 -0.089060147 0.7469219711 -0.0890217929 0.0312368827 0.0625934557
105299370.0 0.0322534141 0.0620652065 0.7489210109 -0.0998341812 0.7489433475 -0.0990473352 0.0344091111 0.0607224706
110299340.0 0.0348349531 0.0596390824 0.7500428892 -0.1092104335 0.7497771647 -0.1091140003 0.036135422 0.0579289775
115299310.0 0.0373454404 0.0572030326 0.750100146 -0.1198097579 0.7505714436 -0.1191738109 0.0391091292 0.0554099116
120299280.0 0.0398934688 0.0545367702 0.7512757636 -0.1292850695 0.7514634464 -0.1296531517 0.0414221612 0.0530969047
125299250.0 0.0417151179 0.0522292914 0.7518321461 -0.1390376084 0.7513439898 -0.1392860732 0.0428665583 0.0501930663
130299220.0 0.0435470864 0.0502293743 0.7514785279 -0.1496392023 0.7514630065 -0.149134313 0.0447841963 0.0479799233
135299190.0 0.0453747159 0.0481910089 0.7516161074 -0.1594314026 0.7515262779 -0.1589838776 0.0468198241 0.0457620842
140299160.0 0.0465941186 0.0462859104 0.750729541 -0.1688294641 0.7508452527 -0.1690559962 0.0479145987 0.0445985996
145299130.0 0.048184759 0.0438968207 0.7500111545 -0.178355601 0.7500270363 -0.1780694929 0.0495655642 0.0420641635
150299100.0 0.0496075277 0.0421872979 0.7487065503 -0.1873103968 0.7491021712 -0.1879890812 0.0509275177 0.0403637533
155299070.0 0.0501721506 0.0396024519 0.7483207293 -0.198615556 0.7475921646 -0.197996453 0.0518803356 0.038211408
160299040.0 0.0518356999 0.0379742236 0.7465890401 -0.2074034537 0.7457642714 -0.2075310976 0.0522959926 0.0361163754
165299010.0 0.0524924995 0.0362195569 0.7449255966 -0.2164982879 0.7445046905 -0.2171029663 0.0538034717 0.0349845926
170298980.0 0.0532013835 0.0339184457 0.7426889646 -0.2266809899 0.7428685657 -0.2264721398 0.0539710322 0.033058383
175298950.0 0.0535831267 0.0321688407 0.7412038762 -0.2352518721 0.7402692473 -0.2354419606 0.0549297968 0.0312368695
180298920.0 0.0545663532 0.030580474 0.7388902616 -0.2449249745 0.7385615294 -0.2446384642 0.055685317 0.029680384
185298890.0 0.0554840885 0.0288008111 0.7365000661 -0.2536382129 0.736074963 -0.2537030235 0.0558118907 0.0283148679
190298860.0 0.0553295322 0.0272400682 0.7340354697 -0.2631466439 0.7345158417 -0.2627204172 0.05626294 0.0262683565
195298830.0 0.0560442836 0.0253097596 0.7317073559 -0.2719443387 0.7323298057 -0.2717116983 0.0571055384 0.0251370288
200298800.0 0.056313676 0.0240075778 0.7283048533 -0.2813894795 0.7288701779 -0.2813843314 0.0568469868 0.0236506763
205298770.0 0.056812784 0.0227258335 0.7260894999 -0.2903012783 0.7265325066 -0.2897843236 0.0571417031 0.021666249
210298740.0 0.0572423788 0.0211408927 0.7231603887 -0.298363006 0.7231644215 -0.2979759817 0.0580845393 0.0211368585
215298710.0 0.056905015 0.0195507307 0.7201366865 -0.3072979566 0.7199095119 -0.3075660192 0.0578036404 0.0196891142
220298680.0 0.0574948455 0.0177575674 0.7162352815 -0.3154203686 0.7169066762 -0.3160983017 0.0575215163 0.0179691897
225298650.0 0.0577053784 0.0167009907 0.7137043643 -0.3248181346 0.7137808082 -0.3246768172 0.0576333623 0.0165265478
230298620.0 0.0578707949 0.0159063967 0.7109506419 -0.3328993201 0.7110192398 -0.3332791308 0.0575111136 0.0149083662
235298590.0 0.0579400654 0.0145812776 0.7067003619 -0.3416479997 0.7069502074 -0.3410178036 0.0577362917 0.0137395982
240298560.0 0.0579911971 0.0133410986 0.7037411755 -0.3503974898 0.7030208806 -0.3500045793 0.0578644694 0.0131613002
245298530.0 0.0580554085 0.0119898963 0.7000039178 -0.3573210196 0.6998359891 -0.3582018495 0.0583628894 0.0109843541
250298500.0 0.0584741037 0.0109608685 0.6952304142 -0.3666586196 0.6950627213 -0.3662196268 0.0578707689 0.0104654132
255298470.0 0.0584659272 0.0093960662 0.6908203573 -0.3737560949 0.6917244518 -0.3741490644 0.0582839071 0.0090972206
260298440.0 0.0580315223 0.0080781328 0.6874332981 -0.3833679661 0.6880691635 -0.3824874939 0.0584173244 0.0078931892
265298410.0 0.058746388 0.0077739861 0.6839487189 -0.3908700948 0.6835526796 -0.3904720108 0.0580869352 0.0068420644
270298380.0 0.0584107955 0.0061918783 0.6795103949 -0.3984286388 0.6796589635 -0.3988348317 0.0577647767 0.0058025017
275298350.0 0.058819472 0.005041908 0.675186578 -0.4069484322 0.6753537189 -0.4071390826 0.0583804663 0.0042912519
280298320.0 0.0586801297 0.0042772751 0.6712481773 -0.4146834756 0.6708061628 -0.4142463008 0.0587780163 0.0035421567
285298290.0 0.0586963546 0.0030668982 0.6663738301 -0.4225082504 0.6664227527 -0.4224379865 0.0585979822 0.0020597745
290298260.0 0.0591840252 0.0020689598 0.6616386318 -0.4296056589 0.661656504 -0.4302525322 0.058545446 0.0016961946
295298230.0 0.0590890759 0.000641218 0.6577087476 -0.4376167485 0.6574488541 -0.4376952613 0.059420024 0.0003176586
300298200.0 0.0582438354 -9.05183e-05 0.6529084515 -0.4452040498 0.6527503262 -0.4457662083 0.0587003359 -0.0007895781
305298170.0 0.0588463438 -0.0016362809 0.6475285822 -0.4533887524 0.6477493152 -0.4527576711 0.0594316047 -0.0021579349
310298140.0 0.0584275205 -0.0023203013 0.6429213824 -0.4609331338 0.6431389293 -0.4606460853 0.0593870475 -0.003048892
315298110.0 0.0582846605 -0.0042740715 0.6376710877 -0.4682849256 0.6382258842 -0.4687095199 0.0590557174 -0.0043483806
320298080.0 0.0586986492 -0.0049293023 0.6318724777 -0.4761771612 0.632355593 -0.4762401358 0.0587438504 -0.0051998859
325298050.0 0.0577177952 -0.0060480447 0.6272124892 -0.4839812056 0.6269970763 -0.4835101247 0.057882148 -0.0063689565
330298020.0 0.057320702 -0.0075351144 0.6214084467 -0.4914221835 0.6217797879 -0.4909321955 0.0574768861 -0.0073895244
335297990.0 0.0568813134 -0.0087973045 0.6159239794 -0.4979965593 0.6154437637 -0.4980176591 0.056494703 -0.0078891207
340297960.0 0.0561133212 -0.008908114 0.6097871697 -0.5050130265 0.6095956606 -0.5052333804 0.0568381785 -0.0088231777
345297930.0 0.0559357949 -0.0094136032 0.6043364351 -0.5121987011 0.6039580452 -0.5124790093 0.0564702753 -0.009680772
350297900.0 0.0551217122 -0.0107888368 0.5974898019 -0.5187544048 0.5979987598 -0.5184761611 0.0554141863 -0.0098413228
355297870.0 0.055057798 -0.0106802295 0.5919436358 -0.5251849223 0.592271925 -0.5249682467 0.0552079382 -0.010733794
360297840.0 0.0546778426 -0.0116283154 0.5870462772 -0.5315338246 0.5871561397 -0.5314837208 0.0549309376 -0.011266111
365297810.0 0.0539061958 -0.0122618877 0.5805151418 -0.5389551125 0.5812627453 -0.538302686 0.0547884765 -0.0116957177
370297780.0 0.054332183 -0.0132913989 0.5745740183 -0.5446490296 0.5749181309 -0.544070774 0.0540741881 -0.0124228147
375297750.0 0.0539003414 -0.0138530293 0.5685960712 -0.551349535 0.5690450709 -0.5514578794 0.0543211203 -0.0131035102
380297720.0 0.0534226884 -0.0143018522 0.5627467301 -0.5574827343 0.5626961026 -0.556559932 0.0534320088 -0.0140350385
385297690.0 0.0527769656 -0.0152535862 0.5557985862 -0.5638267368 0.5559344983 -0.5634633466 0.0534670135 -0.0142065158
390297660.0 0.0527916338 -0.0154630045 0.5503014175 -0.570028473 0.54979651 -0.5701080536 0.0525732356 -0.0152847868
395297630.0 0.052062701 -0.0161495153 0.5442866641 -0.5762186636 0.5444167013 -0.5760643869 0.0528038294 -0.0160356965
400297600.0 0.0517974797 -0.0168332918 0.5374247786 -0.5826195543 0.5375508012 -0.582275032 0.052235956 -0.0162546859
405297570.0 0.0511128109 -0.0176418014 0.5312599492 -0.5880603243 0.5312077593 -0.5877371247 0.0517031399 -0.0169756401
410297540.0 0.0513933066 -0.0180870102 0.525007376 -0.5945023094 0.5252583647 -0.5940957728 0.0511848547 -0.0170542098
415297510.0 0.0513948124 -0.0189056097 0.517884653 -0.5999834308 0.5182543318 -0.5999172963 0.0508300429 -0.0177861105
420297480.0 0.0507488863 -0.0192607894 0.511112445 -0.6062310416 0.511159527 -0.6061730886 0.0507073518 -0.0191237333
425297450.0 0.0502684063 -0.0205562103 0.5048992212 -0.6113589857 0.5047241342 -0.6111453824 0.0493584113 -0.018948019
430297420.0 0.0499003621 -0.0207958458 0.4975297801 -0.6158029476 0.4981592119 -0.6165007808 0.0495280846 -0.0200702794
435297390.0 0.049558886 -0.021442241 0.4902021055 -0.6224101857 0.4908802085 -0.6224101141 0.0501097223 -0.0203220219
440297360.0 0.0495324413 -0.021714198 0.4843472776 -0.6273472317 0.4839483031 -0.6277341511 0.0487373802 -0.0216282763
445297330.0 0.0486532821 -0.0227855838 0.4780030807 -0.6330152026 0.4778415636 -0.6326183396 0.0491607867 -0.0222461308
450297300.0 0.0486862447 -0.0232217684 0.4707760432 -0.6382530238 0.4703652373 -0.6389790448 0.0483455213 -0.0228738508
455297270.0 0.0481985128 -0.0236172398 0.4630598543 -0.644019401 0.4635279069 -0.6437601027 0.048174647 -0.023073765
460297240.0 0.0475931553 -0.0245154631 0.456106999 -0.6488436817 0.4563515636 -0.6487554537 0.0477455428 -0.0237673427
465297210.0 0.0474912941 -0.0249784489 0.449272686 -0.6535337253 0.4496019975 -0.6544537244 0.0475948226 -0.0249110094
470297180.0 0.046948884 -0.025649792 0.4414024375 -0.658852443 0.4421504083 -0.6589485806 0.047274717 -0.0249461515
475297150.0 0.0469077734 -0.026387737 0.4343206559 -0.6624464848 0.4345880521 -0.6631244695 0.0473663989 -0.025939193
480297120.0 0.0462131196 -0.0263574338 0.4268083727 -0.6686596964 0.4272808349 -0.6689537516 0.0468973319 -0.0259426865
485297090.0 0.0453495341 -0.0271852766 0.420495857 -0.6727738216 0.4201581558 -0.6727823071 0.0462592564 -0.0268231739
490297060.0 0.0446010717 -0.027663654 0.4129437874 -0.6780123144 0.41274706 -0.6773316679 0.0460565071 -0.0266134411
495297030.0 0.0445118675 -0.0281332266 0.404871057 -0.6822528396 0.4053308595 -0.6820844136 0.0449102732 -0.0276085571
500297000.0 0.0441303072 -0.0290017263 0.3968913759 -0.6861596829 0.3973635553 -0.6857880552 0.0449132895 -0.0275072459
505296970.0 0.0438934958 -0.0291892132 0.3900737958 -0.6906653528 0.3897735814 -0.6908868754 0.0445431169 -0.0282422397
510296940.0 0.043451994 -0.0295573057 0.3826194651 -0.6957390383 0.3823195735 -0.6952465651 0.0443551366 -0.0284917088
515296910.0 0.0424835009 -0.0296816889 0.3747082002 -0.6995280272 0.3743489323 -0.6990039124 0.0439576059 -0.0288592304
520296880.0 0.042168103 -0.03059015 0.3670171779 -0.7035606393 0.3673866565 -0.7030537689 0.0431936803 -0.0297377543
525296850.0 0.0420470935 -0.031611207 0.358845999 -0.7079066073 0.3595368141 -0.7073425067 0.0426431217 -0.0298899145
530296820.0 0.0413780032 -0.0314871473 0.3517108542 -0.7118887718 0.3513285753 -0.7115802112 0.0423165665 -0.0299529621
535296790.0 0.0406606381 -0.0318402981 0.3441905593 -0.714997002 0.3441568294 -0.7144699312 0.0419753333 -0.0312470393
540296760.0 0.0400745744 -0.0321841292 0.335873344 -0.7191473233 0.3357807655 -0.7193823489 0.0409305604 -0.0303658994
545296730.0 0.0397717907 -0.0326568287 0.327595073 -0.7220769637 0.3279016115 -0.7224152447 0.0402063092 -0.0315454735
550296700.0 0.0398221399 -0.0327345449 0.3199410031 -0.7258551049 0.3203194589 -0.7264057218 0.039969454 -0.0314086048
555296670.0 0.0387711993 -0.0331537576 0.3119707593 -0.7298131438 0.3124321555 -0.7292262867 0.0394495046 -0.0319279821
560296640.0 0.0386677443 -0.0330305616 0.3039939954 -0.7330478568 0.3041378715 -0.733368905 0.038885899 -0.0322902716
565296610.0 0.0370884257 -0.0340401883 0.2956206623 -0.7366769061 0.2959951061 -0.7367409058 0.0381016262 -0.0328260118
570296580.0 0.0369861772 -0.0341016843 0.2878719423 -0.7402170098 0.2874428795 -0.7393096113 0.0374507459 -0.0326486668
575296550.0 0.0362451532 -0.0343417539 0.2796492923 -0.7428725392 0.2800359385 -0.7427645507 0.0374678942 -0.0333867749
580296520.0 0.036096471 -0.0347003835 0.2717996591 -0.7460081598 0.2716942468 -0.7459153825 0.0366915472 -0.033674172
585296490.0 0.0354883747 -0.0358348972 0.2639117165 -0.7484340204 0.2639383667 -0.7487409691 0.0360721482 -0.0341508245
590296460.0 0.0351027596 -0.0357099519 0.2556411285 -0.7508237396 0.2555006417 -0.7514657125 0.0347737657 -0.0344544453
595296430.0 0.0349992121 -0.035924478 0.2468378252 -0.7547501039 0.2466494064 -0.7543740131 0.0349549133 -0.0353335368
600296400.0 0.0339134032 -0.0361764985 0.2389273815 -0.7568392375 0.2385957182 -0.7563437836 0.0340094097 -0.0355554893
605296370.0 0.0334323903 -0.036626833 0.2305982796 -0.7595628664 0.2308253848 -0.7594641518 0.0335827374 -0.0356349784
610296340.0 0.032860729 -0.0370999679 0.221804573 -0.7619869431 0.2225417661 -0.7621742198 0.0337362347 -0.036298506
615296310.0 0.0327125773 -0.0380648062 0.2140512038 -0.7641460604 0.2136131517 -0.7647615521 0.0330486088 -0.0364039363
620296280.0 0.0321912529 -0.0379553952 0.2057635259 -0.766625223 0.2057341886 -0.7662477332 0.0322076449 -0.0368843362
625296250.0 0.0309996432 -0.0387546138 0.1978869574 -0.768958712 0.1974663061 -0.7692247482 0.0324255833 -0.0370136381
630296220.0 0.0316794134 -0.0383331785 0.1882447505 -0.7709223125 0.1880009149 -0.7708363434 0.0312462901 -0.0371429218
635296190.0 0.029645188 -0.0391619391 0.1804127281 -0.7727620228 0.180341923 -0.7727053892 0.0310588638 -0.0373044829
640296160.0 0.0294982022 -0.0388428887 0.1719242252 -0.7745155453 0.17209376 -0.7745218262 0.0305636311 -0.0377009964
645296130.0 0.0291330966 -0.0392492089 0.1631324836 -0.776168805 0.1634729114 -0.7764756149 0.0300144249 -0.0379407921
650296100.0 0.0285679594 -0.0395806397 0.1544343142 -0.7785061457 0.1554295155 -0.778035994 0.0301641747 -0.0390286345
655296070.0 0.0273071965 -0.0401505423 0.1463310991 -0.7802329728 0.1469890996 -0.7799355204 0.0293771986 -0.0383900485
660296040.0 0.0263509882 -0.0408569866 0.1382083928 -0.781860517 0.1381105067 -0.7812562563 0.0289415847 -0.0387446841
665296010.0 0.026993272 -0.0407591945 0.1287869504 -0.7829140166 0.1293077145 -0.7824447404 0.0283059889 -0.0385655716
670295980.0 0.0246125239 -0.040623271 0.1205750883 -0.7843759412 0.1208703721 -0.7840647274 0.0271707879 -0.0390774494
675295950.0 0.0248702041 -0.0404327758 0.1123019746 -0.7850555273 0.1124201438 -0.7844673882 0.0264719045 -0.0391233489
680295920.0 0.0238508439 -0.0413108541 0.103454298 -0.786790649 0.1027731894 -0.7869211417 0.0263017668 -0.0386628157
685295890.0 0.0236050807 -0.0403561101 0.09488528 -0.7876926035 0.0947460946 -0.7878161428 0.0254289563 -0.0393702795
690295860.0 0.0234603969 -0.0407312503 0.086757332 -0.7882517216 0.086446927 -0.7890104336 0.0248223195 -0.0386645296
695295830.0 0.0227290262 -0.0413039186 0.0784739565 -0.7895575693 0.0776324655 -0.789311368 0.0244360129 -0.0390054265
700295800.0 0.0223475385 -0.0418213306 0.0694180132 -0.7904037679 0.0688382393 -0.7899946472 0.0234011698 -0.0386945057
705295770.0 0.0211207479 -0.0407605287 0.0601634971 -0.790596226 0.0607407225 -0.7908517517 0.0230075482 -0.0392927148
710295740.0 0.0212294593 -0.041377226 0.0522580502 -0.7923955743 0.0524845564 -0.7919318501 0.0227326276 -0.0399865293
715295710.0 0.0197366742 -0.0416598241 0.0441874952 -0.7922284892 0.0432252239 -0.7918968552 0.0222187895 -0.0397323534
720295680.0 0.0194382926 -0.0418987114 0.0348234706 -0.7927643752 0.0349632999 -0.7920361914 0.0215097517 -0.0391150167
725295650.0 0.0191231694 -0.0419368151 0.0259997051 -0.7926913228 0.0264215691 -0.7930560465 0.0201757232 -0.0391919349
730295620.0 0.0186329961 -0.0414248107 0.0177112973 -0.7927738155 0.0176979871 -0.7934059235 0.019492037 -0.039810872
735295590.0 0.017947464 -0.0413398542 0.0094137183 -0.7931625691 0.008694095 -0.7928064281 0.0186219234 -0.0402218625
740295560.0 0.0169588592 -0.0417968505 0.0002299747 -0.7931510306 0.0004339993 -0.7929973988 0.0187718729 -0.0398349392
745295530.0 0.0166320787 -0.0416374542 -0.0082571603 -0.7925815104 -0.0085847517 -0.793317375 0.0179167173 -0.0403917132
750295500.0 0.0161394792 -0.0416772338 -0.0170100621 -0.7923989899 -0.0171065453 -0.7928161857 0.0173625774 -0.0399613732
755295470.0 0.0157092201 -0.0421361274 -0.025264176 -0.7928661299 -0.0253685117 -0.7933051183 0.0172098566 -0.0407965521
760295440.0 0.0149983106 -0.0417841473 -0.0338447325 -0.7925869988 -0.034460619 -0.792728344 0.0163073237 -0.0404487146
765295410.0 0.0141461161 -0.0421291286 -0.0430019679 -0.7921540738 -0.0433651027 -0.7919607315 0.0160190857 -0.0403918114
770295380.0 0.0131372855 -0.0421438574 -0.0518250918 -0.791606517 -0.0514692312 -0.7912108187 0.0151086182 -0.0409386091
775295350.0 0.0127997573 -0.0428114328 -0.0600096035 -0.7902988314 -0.0602432373 -0.7907090199 0.0136611638 -0.0400756337
780295320.0 0.0126063143 -0.0423604959 -0.0684011783 -0.7896642192 -0.0679106547 -0.7900034546 0.0134024771 -0.0415164132
785295290.0 0.0113030007 -0.0429800717 -0.0776198587 -0.7889008433 -0.0769605206 -0.789121269 0.0139642856 -0.0405852295
790295260.0 0.0115918632 -0.0417918182 -0.0849789271 -0.7882900067 -0.0849968495 -0.7882857781 0.0124392188 -0.0406107396
795295230.0 0.0105528017 -0.042459695 -0.0938658957 -0.7872117565 -0.093857358 -0.787318986 0.0123679131 -0.0401361166
800295200.0 0.0093617004 -0.0421417695 -0.103812923 -0.7861342648 -0.1028358729 -0.7858381295 0.0117833927 -0.0407410837
805295170.0 0.009019622 -0.042317639 -0.1116370194 -0.7848466137 -0.1113656098 -0.7851862936 0.0110529426 -0.0405243032
810295140.0 0.00811127 -0.0428498751 -0.1201965012 -0.7833281571 -0.1196324063 -0.7834560151 0.0111192551 -0.040231819
815295110.0 0.0080298781 -0.0428250843 -0.1281759069 -0.7820803144 -0.1280403982 -0.7821276321 0.0097473295 -0.0398882682
820295080.0 0.006899863 -0.0417143801 -0.1366209315 -0.7803466279 -0.1364716434 -0.7807980991 0.0093988028 -0.0401512255
825295050.0 0.0070485833 -0.0421908105 -0.1444298431 -0.7792018445 -0.1452553464 -0.7792319913 0.0092322162 -0.0401766593
830295020.0 0.0059317634 -0.0418805792 -0.1536915056 -0.777382712 -0.1537568309 -0.7770927479 0.0094267041 -0.0402283246
