!Created with skrf (http://scikit-rf.org).
# Hz S RI R 50.0 
!freq ReS11 ImS11 ReS21 ImS21 ReS12 ImS12 ReS22 ImS22
300000.0 -0.7732749461 -0.1368336425 -0.0008424491 0.0009914532 0.0015005053 0.0011559595 -0.7738246788 -0.1552855513
5299970.0 -0.7849802441 -0.0066816631 -0.0001198496 7.68942e-05 6.99724e-05 9.39383e-05 -0.7850105093 -0.0086010158
10299940.0 -0.7875325571 -0.0043184205 5.52575e-05 0.0001104946 -0.0003943294 3.01301e-05 -0.7880639745 -0.0050493984
15299910.0 -0.7933476555 -0.0016476657 0.0001051067 8.8274e-06 -6.25664e-05 0.0001514335 -0.7935422547 -0.0025661672
20299880.0 -0.7998124596 0.0024379708 -5.00989e-05 6.66188e-05 3.1874e-05 -2.53217e-05 -0.800444709 0.0012219285
25299850.0 -0.8063134502 0.0082477776 -1.67868e-05 -0.0001328046 6.24253e-05 0.0001809601 -0.8067459921 0.0074611075
30299820.0 -0.8120558577 0.0166033901 0.0003092338 3.3168e-06 6.85553e-05 -3.72392e-05 -0.8125924384 0.0150991861
35299790.0 -0.8172830531 0.024955904 0.0001079652 0.0001184465 5.76991e-05 -0.0001479817 -0.8176997569 0.0239287238
40299760.0 -0.8211969824 0.0346034467 9.12814e-05 -4.06251e-05 -7.41992e-05 -2.31291e-05 -0.8216611539 0.033251087
45299730.0 -0.8245813196 0.0444767291 -0.0003687725 -7.44691e-05 -0.000302989 6.91227e-05 -0.8247291644 0.0424619008
50299700.0 -0.8264425758 0.0541852157 0.0001307574 4.04637e-05 -0.0001652762 -6.32839e-05 -0.8276029055 0.0528414013
55299670.0 -0.8291343362 0.064233405 -0.0001044744 1.93841e-05 0.0002115245 0.0001624653 -0.8295941422 0.0628073377
60299640.0 -0.8298750047 0.0743929612 -2.0969e-06 -7.06484e-05 3.78627e-05 -2.64987e-05 -0.8307416011 0.0733696043
65299610.0 -0.8304586868 0.0845279474 0.0001711552 0.0002670652 -6.01214e-05 -6.59861e-05 -0.8312679948 0.0829162665
70299580.0 -0.8312850404 0.094825807 -3.12283e-05 8.48745e-05 5.08989e-05 0.0001861581 -0.8319368688 0.0932307497
75299550.0 -0.8314189878 0.1048811931 0.0001640859 -0.0001789071 0.0001146413 5.11689e-05 -0.8326202466 0.1025587815
80299520.0 -0.8313652623 0.1146787572 0.0002092088 -8.04253e-05 1.78404e-05 -9.22061e-05 -0.831414621 0.1123579811
85299490.0 -0.8305620646 0.1243382868 -9.94725e-05 5.09155e-05 0.000194751 -2.07749e-05 -0.8316930913 0.1217303739
90299460.0 -0.829496741 0.1340737405 -0.0001435475 -6.56047e-05 -9.29795e-05 -9.4765e-05 -0.8308198311 0.1314186618
95299430.0 -0.8283119266 0.1437833037 -5.74786e-05 -0.0001725061 2.16537e-05 -6.45692e-05 -0.8298782513 0.141136862
100299400.0 -0.827842985 0.1531860784 3.15007e-05 -0.0001282446 0.0001419403 -0.0001323284 -0.8291472959 0.1497301191
105299370.0 -0.8265069785 0.1621806939 -4.30064e-05 -5.3065e-06 0.000183931 -0.0002011608 -0.8277736734 0.1592506352
110299340.0 -0.8255333841 0.1706995874 2.04192e-05 -5.65404e-05 -6.35839e-05 -6.39887e-05 -0.8267569494 0.168266395
115299310.0 -0.8237595682 0.1807546183 8.149e-06 -9.50446e-05 -0.0001200162 -9.01588e-05 -0.8245193532 0.177120777
120299280.0 -0.8218888786 0.1894913102 -2.70105e-05 -5.47394e-05 -0.0001003654 1.89384e-05 -0.8236643014 0.186012439
125299250.0 -0.8203825516 0.1987601288 5.5514e-05 5.22352e-05 -3.98992e-05 0.0002243425 -0.8218042906 0.1955842667
130299220.0 -0.8181845618 0.2077230933 -2.92706e-05 -0.0001579755 9.5057e-06 3.02242e-05 -0.8201737847 0.2044448397
135299190.0 -0.8166466572 0.2166616242 -2.2464e-05 0.0001902447 -8.1257e-05 -7.16381e-05 -0.8175933899 0.2128056599
140299160.0 -0.8144506666 0.2255382458 -0.0001021189 0.0001759902 -1.29915e-05 4.28526e-05 -0.8162081812 0.221328039
145299130.0 -0.8126344021 0.2341793927 4.00687e-05 4.59497e-05 0.0001050064 0.0001667351 -0.81356202 0.2300280428
150299100.0 -0.8105162947 0.2434355008 -6.9081e-05 0.0001062026 -9.26375e-05 0.0001176359 -0.8114597523 0.2387558595
155299070.0 -0.8075623616 0.2525359903 0.000160708 -8.64876e-05 -8.3925e-06 6.55625e-05 -0.8094678478 0.2474160848
160299040.0 -0.8050002167 0.2609743996 -0.0001275781 2.23856e-05 6.51926e-05 8.08892e-05 -0.8074365771 0.2568545746
165299010.0 -0.8020014638 0.2694962647 0.0001685362 -0.0001302128 -0.000208269 4.21553e-05 -0.8040409121 0.2646971474
170298980.0 -0.7997262768 0.2784175262 -3.21779e-05 -0.0001307287 -0.0001030262 0.0001206014 -0.8021245767 0.2734619803
175298950.0 -0.7964801463 0.2870981434 6.0693e-06 -9.02405e-05 2.49822e-05 -0.0001023081 -0.7991021592 0.2825130263
180298920.0 -0.7935320269 0.295091196 0.000199988 0.0001313448 -4.9183e-06 0.0001415686 -0.7955421997 0.2903839695
185298890.0 -0.7904346959 0.304329367 -8.3787e-06 7.34294e-05 5.55093e-05 6.21964e-05 -0.7929011815 0.2982813469
190298860.0 -0.7874318529 0.3123937744 1.83988e-05 -3.66859e-05 -5.87657e-05 2.73594e-05 -0.7894399349 0.3071711878
195298830.0 -0.7839825684 0.3208036852 -7.34317e-05 4.34919e-05 -0.0002435531 1.26541e-05 -0.7870465641 0.3154487509
200298800.0 -0.7810884226 0.3295863842 4.54173e-05 5.96148e-05 0.0001208766 0.0001202928 -0.7832625114 0.3238315106
205298770.0 -0.7773417881 0.3372382344 -0.000128618 4.8023e-05 3.3146e-06 -3.79577e-05 -0.7798205358 0.3319163734
210298740.0 -0.7735054744 0.345908341 -0.00011714 -0.0001911807 1.20194e-05 2.05964e-05 -0.7767779846 0.3405232171
215298710.0 -0.7701419764 0.3540338485 5.92533e-05 3.62434e-05 -0.0001115112 -4.79174e-05 -0.7731732507 0.3484677668
220298680.0 -0.7675106134 0.3623757149 0.0001338008 0.0004489199 0.0001244315 0.0001101769 -0.7694039077 0.3566848977
225298650.0 -0.762981629 0.3705648832 -8.16262e-05 0.0002099609 0.0001444446 -0.0001321608 -0.7659282338 0.3645823458
230298620.0 -0.7584745176 0.3789928806 -0.00016168 -0.0001992299 -7.27826e-05 -5.85872e-05 -0.7616673849 0.3724666626
235298590.0 -0.7548878574 0.3875532698 0.0001479201 -9.64817e-05 -8.55798e-05 -6.0694e-05 -0.7578338602 0.3807964073
240298560.0 -0.7510948641 0.3949946222 -0.0001230991 -0.0002333238 6.58343e-05 6.8108e-06 -0.7542995951 0.3885945867
245298530.0 -0.7466902818 0.4032980299 0.0001087318 0.0001746865 0.0001674915 2.89721e-05 -0.7503283294 0.3966903208
250298500.0 -0.7427602266 0.4107222752 9.105e-06 -0.0001753289 6.92628e-05 0.0001013375 -0.7455832315 0.4045235536
255298470.0 -0.7379256415 0.4191911077 0.0001086656 0.0001495012 6.57275e-05 9.09602e-05 -0.7407837043 0.4130236518
260298440.0 -0.7339663804 0.4257132525 0.0001558894 0.000160499 -0.0001458271 0.0002373772 -0.736753254 0.4197735499
265298410.0 -0.7290664955 0.4341957583 0.0002526576 -7.5105e-05 0.0001099589 3.90528e-05 -0.7323181484 0.4270920173
270298380.0 -0.7243311175 0.4419967929 -2.41153e-05 4.57428e-05 -0.0001694223 -6.64499e-05 -0.727367729 0.4355045465
275298350.0 -0.7196590111 0.4488552941 0.0001676475 9.16111e-05 -3.52475e-05 2.29543e-05 -0.7225743271 0.4431772725
280298320.0 -0.7149712097 0.4567692869 3.79615e-05 -1.70758e-05 1.7748e-05 -3.5823e-05 -0.7187237565 0.4503546897
285298290.0 -0.7104212855 0.4642866924 -0.0001362308 -0.0001043813 3.02886e-05 3.1851e-05 -0.713423646 0.4581071534
290298260.0 -0.7054583892 0.4718142809 -0.0001505056 -1.3128e-06 0.0002803241 -3.22874e-05 -0.7084401721 0.4656164009
295298230.0 -0.7007960845 0.479503844 0.00025458 -0.0002809943 -5.52518e-05 0.0001876784 -0.7034902784 0.4730575646
300298200.0 -0.6947030409 0.4865413489 7.03181e-05 -0.0001337177 0.0001242584 -6.96812e-05 -0.6987403936 0.4800391272
305298170.0 -0.6896747737 0.4944324685 -6.66177e-05 2.10214e-05 0.0001340268 -0.0002076768 -0.6931395933 0.4875561398
310298140.0 -0.6845622619 0.5010360034 -0.0001795482 -0.0001229228 -2.17555e-05 -4.4222e-06 -0.6888943358 0.4951499078
315298110.0 -0.6798396932 0.5080586208 5.34275e-05 -3.40286e-05 0.0001789754 7.64488e-05 -0.6833885402 0.5022908693
320298080.0 -0.6741088049 0.5154584157 7.77536e-05 -6.8591e-05 -0.0001110331 0.0003114078 -0.6776064573 0.5091866794
325298050.0 -0.6682942287 0.5219129451 6.25321e-05 7.23343e-05 5.47708e-05 0.0002327575 -0.6723364063 0.5163022874
330298020.0 -0.6627806431 0.5291568314 -9.88325e-05 6.30651e-05 6.48662e-05 -7.37128e-05 -0.6669033984 0.5233488225
335297990.0 -0.6568142592 0.5363954586 -0.0001884597 -8.6372e-05 -8.67814e-05 -0.0001048257 -0.6611507674 0.5295520397
340297960.0 -0.6522417619 0.5425821311 -1.09543e-05 0.0001350093 0.0001037108 0.0001143138 -0.6551544394 0.5372899932
345297930.0 -0.6462902015 0.5489809282 9.87699e-05 -6.27739e-05 -2.74561e-05 0.0003041808 -0.6499160704 0.5440798388
350297900.0 -0.6405566873 0.556001243 -0.0001632374 -7.63699e-05 0.0001335134 0.0001003429 -0.6441507282 0.5505197451
355297870.0 -0.6347466449 0.5627683632 -0.0001475296 -9.2116e-06 -2.70543e-05 0.0001759837 -0.6381632467 0.5573834725
360297840.0 -0.6282612933 0.5693509978 3.7903e-06 4.1064e-05 -3.5148e-05 -3.42202e-05 -0.6321955444 0.5639412742
365297810.0 -0.6223017462 0.5756049052 -2.9789e-06 0.0002050046 0.0001347246 3.4684e-06 -0.6258243551 0.5703750682
370297780.0 -0.6162477814 0.5822334208 0.0001165483 -0.0002198823 -4.42659e-05 -0.0001284841 -0.6202230118 0.5764546466
375297750.0 -0.610471411 0.5884003637 -0.0002277415 -4.32334e-05 9.69348e-05 9.46025e-05 -0.6144875771 0.58339875
380297720.0 -0.6035851033 0.5948773258 -6.1007e-05 1.9519e-05 8.82316e-05 -0.000122272 -0.6078020566 0.590223442
385297690.0 -0.5974863247 0.6012175491 -9.4474e-06 -0.0001744033 4.74686e-05 6.6112e-05 -0.6018797378 0.5954549056
390297660.0 -0.5916454463 0.6070025787 0.0002919409 0.0002663754 3.4399e-06 0.000102725 -0.595426933 0.601719105
395297630.0 -0.585489914 0.6137490949 8.16293e-05 -1.72663e-05 7.89936e-05 -0.0001303691 -0.5887944958 0.6081588796
400297600.0 -0.5787376921 0.6193698652 -4.43279e-05 7.01377e-05 0.0001517462 0.0002371452 -0.5834104525 0.6136854028
405297570.0 -0.5728769735 0.6253375578 0.0002052661 -3.91826e-05 -0.0002503181 0.0001193621 -0.5767916472 0.620283672
410297540.0 -0.5655061579 0.6306893482 -0.0001111241 2.85069e-05 -1.50386e-05 7.31817e-05 -0.5697793319 0.6255849664
415297510.0 -0.5588489408 0.636356763 4.31069e-05 -0.0001217512 2.27589e-05 -0.0002361713 -0.5631852368 0.6320631881
420297480.0 -0.551552601 0.6428153021 8.71779e-05 -4.01443e-05 0.0001531513 0.0001342151 -0.5566944613 0.6370407032
425297450.0 -0.5455523755 0.6479178304 -0.0001140095 -0.0002117843 -4.7394e-05 3.86608e-05 -0.5499329689 0.6429403956
430297420.0 -0.5393329978 0.653517713 0.0001284446 -3.05259e-05 0.0001088522 2.63654e-05 -0.5438873344 0.648185474
435297390.0 -0.5322961323 0.658745384 -6.57911e-05 -0.0003343843 -0.0001278986 4.6006e-05 -0.5367294783 0.6535891905
440297360.0 -0.5252058785 0.6638683618 -0.0001542622 -6.35851e-05 -9.59579e-05 -3.36428e-05 -0.5300541033 0.6590976447
445297330.0 -0.5185086769 0.6700217649 -3.39335e-05 -9.47806e-05 9.88493e-05 -6.2705e-05 -0.5238309158 0.6643591359
450297300.0 -0.5114362079 0.6745470183 -0.0001304797 -9.2472e-06 -0.0001568784 -0.0001261099 -0.5170031407 0.6695817959
455297270.0 -0.5042096377 0.6801692 5.06381e-05 2.3333e-06 0.0001126502 -0.0001355537 -0.5096807259 0.6751031951
460297240.0 -0.4979675988 0.6855234032 -6.98413e-05 0.0001732746 -0.0001120585 -7.0409e-06 -0.5024128426 0.6806063667
465297210.0 -0.4899469702 0.6905900659 0.0001414461 -0.000265571 -1.20059e-05 -0.0001168353 -0.4959264785 0.6852058164
470297180.0 -0.4827632961 0.695014853 4.68314e-05 5.88644e-05 3.5973e-06 -0.0001017467 -0.4890121303 0.6896600191
475297150.0 -0.4761084549 0.6999149584 2.96427e-05 0.0001393621 4.96118e-05 -3.16058e-05 -0.4815187579 0.6947333145
480297120.0 -0.4690669198 0.7047647306 4.37986e-05 0.0002124172 0.000177519 -8.4023e-05 -0.4751899583 0.7001855207
485297090.0 -0.4610770851 0.7096644518 -6.0585e-05 -9.6279e-06 -2.45458e-05 -0.0001625392 -0.467250182 0.704435449
490297060.0 -0.4542397122 0.7140407422 0.0001649747 -6.40582e-05 0.0002572899 -0.0001372442 -0.4607199757 0.7085760543
495297030.0 -0.4473108973 0.7185676187 -5.45775e-05 -0.000164145 -3.62453e-05 -4.63429e-05 -0.4529988825 0.7130681139
500297000.0 -0.4391637925 0.7238044758 5.8623e-05 -1.28018e-05 8.81968e-05 -0.0001291201 -0.4462910739 0.7178229342
505296970.0 -0.4315793832 0.7271747294 -3.27946e-05 -0.0002241736 -1.5252e-06 4.6791e-06 -0.4397166441 0.722252149
510296940.0 -0.424146553 0.7321890031 0.0001634615 0.0001530128 5.18363e-05 -6.27152e-05 -0.4320509221 0.7263492944
515296910.0 -0.41722767 0.7364120599 -8.88551e-05 0.0001778947 5.96992e-05 2.8315e-05 -0.4246291132 0.7306098999
520296880.0 -0.4091237857 0.7405635602 0.0001231559 -0.0002177496 -4.06985e-05 -4.80029e-05 -0.4173512495 0.7346762152
525296850.0 -0.4021179189 0.744455754 7.51213e-05 0.0001529422 -8.02741e-05 5.83133e-05 -0.4098846433 0.7393016626
530296820.0 -0.3938776401 0.7479902004 -0.000239367 -0.0003014315 0.0001735931 -8.98734e-05 -0.4025971467 0.7428643326
535296790.0 -0.3861038154 0.7525738833 3.86551e-05 -7.1386e-05 4.51193e-05 0.0001948393 -0.3951836663 0.7464967635
540296760.0 -0.3781626345 0.7563769819 7.45618e-05 6.05315e-05 -0.000166432 -0.0002398708 -0.3874929254 0.7506865853
545296730.0 -0.370952956 0.7597917979 0.0001867332 1.8394e-06 2.75713e-05 0.0001146608 -0.3805184852 0.7539891561
550296700.0 -0.3631383788 0.7641097596 0.0001530365 2.03809e-05 0.0001255223 -7.5422e-05 -0.3728742916 0.7583262134
555296670.0 -0.3545097676 0.76704617 -0.0001800314 1.59808e-05 6.45102e-05 7.69352e-05 -0.3653956912 0.7616955908
560296640.0 -0.3468658383 0.7708398254 -0.0002418412 -2.22755e-05 -6.69318e-05 4.00348e-05 -0.3575354623 0.7652155549
565296610.0 -0.3400469522 0.7745183708 1.01378e-05 -0.0001764306 0.0003011936 -1.6284e-05 -0.3500724971 0.7691948108
570296580.0 -0.3316463176 0.7775531473 -4.18521e-05 7.52571e-05 -6.21657e-05 -0.0002465035 -0.3426894965 0.7725022366
575296550.0 -0.3233614292 0.7809443906 -0.0001123783 -0.0002448485 2.44043e-05 1.37171e-05 -0.3346468329 0.775621918
580296520.0 -0.315418915 0.7839884753 -1.43994e-05 0.0001161526 -5.12398e-05 -0.0001845623 -0.3271502682 0.7791936014
585296490.0 -0.307908165 0.7866754839 -0.0001608876 0.0001283663 -0.0002306186 7.07576e-05 -0.3191858621 0.782141034
590296460.0 -0.2992998703 0.7899177976 0.0001045466 -6.91822e-05 0.0001662587 3.1717e-06 -0.3115381576 0.784973881
595296430.0 -0.2915202873 0.7935069954 8.75656e-05 0.0002179626 0.0001050114 6.65207e-05 -0.3037124666 0.7874423361
600296400.0 -0.2831582928 0.7955031002 3.97164e-05 0.0001719435 -4.89172e-05 -5.51827e-05 -0.2961547139 0.791155865
605296370.0 -0.2757826464 0.7989576216 0.0001388732 -0.0001050984 7.90056e-05 -0.0001118659 -0.2879643789 0.794486293
610296340.0 -0.2667515427 0.8016550552 -0.0001825538 0.0002154877 9.7638e-05 4.43064e-05 -0.2802934626 0.7968386066
615296310.0 -0.2589765263 0.8045528209 5.59981e-05 -7.29843e-05 -4.68599e-05 -0.0001778186 -0.2721106539 0.7993539598
620296280.0 -0.2505457143 0.8061164691 -7.66584e-05 -9.0342e-05 -0.0003394268 0.0001244952 -0.264674739 0.8019609668
625296250.0 -0.2425010307 0.8090245621 -0.0001460691 5.32204e-05 -3.35432e-05 -0.0001457906 -0.2564353227 0.8050475645
630296220.0 -0.2341636664 0.8117246061 -0.0001589524 3.3944e-06 -0.0001342238 -5.79679e-05 -0.2483656008 0.8075393003
635296190.0 -0.2263174937 0.8138172226 -0.0001224336 0.0002379804 0.0001543834 -4.11373e-05 -0.2409345246 0.8096712848
640296160.0 -0.2179888087 0.8157146805 9.55516e-05 -0.0001683076 -0.0001110672 -0.0002066637 -0.2321827558 0.8115892099
645296130.0 -0.2100828229 0.8179154278 0.0001222172 2.20585e-05 -1.05151e-05 -0.0001568821 -0.2248204532 0.8138445461
650296100.0 -0.2016784891 0.820284772 -0.0001884405 0.0001704272 9.36815e-05 2.52065e-05 -0.2164501983 0.8163526257
655296070.0 -0.1927262192 0.8219699898 2.62368e-05 0.0001711737 8.19907e-05 2.83013e-05 -0.2085613483 0.817795304
660296040.0 -0.1846374855 0.8245754101 -1.01791e-05 -0.0001160973 1.19857e-05 -3.06414e-05 -0.2002149338 0.8202202402
665296010.0 -0.1767993546 0.8259012048 -9.71329e-05 0.0001224939 -0.0002155981 0.0001850007 -0.1923370192 0.8224050696
670295980.0 -0.1683186704 0.8272000934 -0.0001163892 3.1015e-05 0.0002895507 8.8e-08 -0.184605799 0.8236660882
675295950.0 -0.1596153328 0.828561933 -6.73922e-05 -0.0001166351 -0.0001144863 4.1143e-05 -0.1758555695 0.8262280158
680295920.0 -0.1514851408 0.8307952089 -4.62314e-05 -0.0003018808 7.3583e-05 0.0001073904 -0.1676348909 0.8273954396
685295890.0 -0.1427594108 0.8319855277 0.0001594245 9.1052e-06 -1.47241e-05 5.13643e-05 -0.1592886528 0.8291709593
690295860.0 -0.1343207866 0.8336123148 -6.46247e-05 -3.47823e-05 7.65751e-05 -0.0001190417 -0.1515922246 0.8308133719
695295830.0 -0.1261429707 0.8341321062 -4.88838e-05 2.73865e-05 -5.24067e-05 -5.66901e-05 -0.1435700898 0.8321490399
700295800.0 -0.1179035867 0.835732774 -7.44415e-05 7.17267e-05 -6.08424e-05 5.81236e-05 -0.134412063 0.8331334425
705295770.0 -0.1088842624 0.8372323617 3.34e-07 -6.7499e-06 5.39457e-05 -9.0669e-05 -0.1272309175 0.8350660276
710295740.0 -0.1010846305 0.8382118119 -0.0001887911 9.33711e-05 -0.0001006066 -5.51114e-05 -0.1190945324 0.8363971406
715295710.0 -0.0931865797 0.8393496373 4.81315e-05 0.0001524143 -9.22167e-05 4.1516e-06 -0.1106017467 0.8371879468
720295680.0 -0.0843419224 0.8397917747 0.0001959709 -7.93917e-05 -1.08485e-05 -6.67715e-05 -0.1020724212 0.8380648519
725295650.0 -0.075090691 0.8410200677 1.71018e-05 -9.06273e-05 7.71452e-05 0.0001156164 -0.0936758423 0.8396962899
730295620.0 -0.0673710687 0.8415948079 -7.91563e-05 0.0001315616 -2.60868e-05 -0.0001454442 -0.0855072355 0.8399920718
735295590.0 -0.0587270377 0.8418235698 2.6066e-06 0.0002339128 8.45434e-05 1.99351e-05 -0.0767315102 0.8409882619
740295560.0 -0.0497707431 0.842788196 -7.55269e-05 -1.90369e-05 -8.36681e-05 5.50441e-05 -0.0685863158 0.8409693626
745295530.0 -0.0417557613 0.8425851313 -0.000153769 5.02578e-05 1.24316e-05 6.23547e-05 -0.0603039867 0.8416728434
750295500.0 -0.0335471536 0.8434405068 0.0001318257 0.0001889563 5.60913e-05 -2.5676e-05 -0.0520566753 0.8426700342
755295470.0 -0.0244913696 0.8433478229 0.0001258697 0.0001123818 -9.50691e-05 1.8878e-05 -0.0440034279 0.8434400811
760295440.0 -0.0159041577 0.8436657445 -9.51275e-05 0.0001261519 -0.0001143466 7.76344e-05 -0.0362604373 0.8438445589
765295410.0 -0.0079457275 0.8437857363 -8.28158e-05 -6.79177e-05 -0.0001235416 -3.52337e-05 -0.0264274284 0.8443536636
770295380.0 0.0007416908 0.8438724643 -9.10488e-05 -0.000227851 0.000149945 4.09068e-05 -0.0187240717 0.8440392052
775295350.0 0.0088489882 0.843867718 -0.0001449914 -0.0001146316 0.0001901227 -9.98685e-05 -0.0112040975 0.8440674112
780295320.0 0.0178800122 0.8429704721 8.225e-05 0.0001610121 -9.28982e-05 -8.1605e-05 -0.0021426715 0.8443310655
785295290.0 0.0260939071 0.8442261521 0.0001279305 4.57375e-05 4.17081e-05 0.0001374491 0.0056293736 0.844375636
790295260.0 0.0344159963 0.8425477499 -5.69224e-05 0.0002484443 -0.0001694264 0.0001200771 0.015031391 0.8441543735
795295230.0 0.0428992104 0.8436047165 -0.000293949 5.37016e-05 -4.914e-06 3.34659e-05 0.0227101451 0.8443324107
800295200.0 0.0517998224 0.8428820188 -6.624e-06 -5.05785e-05 -0.0001476177 6.70698e-05 0.0304963273 0.8439916054
805295170.0 0.0602304627 0.8418566688 -0.0001401056 -3.25639e-05 0.0001580793 0.000106943 0.0387360752 0.8431981214
810295140.0 0.0683792689 0.8414529999 0.0001501947 -0.0001021856 4.2114e-05 0.0001879742 0.047371489 0.8437401979
815295110.0 0.0770879664 0.8404887077 0.0001096037 0.0001744541 -0.0001501656 -3.33676e-05 0.0554173645 0.8425734917
820295080.0 0.0849098186 0.8388827669 -3.22839e-05 7.45457e-05 5.13187e-05 0.0002354953 0.06360578 0.841633301
825295050.0 0.0940299709 0.8386036727 2.93221e-05 6.99041e-05 1.7822e-05 6.98903e-05 0.0722484941 0.8413293221
830295020.0 0.1021633996 0.8376510611 0.0001152064 2.41004e-05 -5.56967e-05 2.94186e-05 0.0798957691 0.8404015892
835294990.0 0.1100482655 0.8364158776 7.1021e-05 0.0002299033 2.9365e-06 -6.44245e-05 0.088784729 0.8397290789
840294960.0 0.1186614636 0.8352836841 -7.42724e-05 6.03424e-05 -7.24401e-05 4.25417e-05 0.0965923561 0.8390755609
845294930.0 0.1269852168 0.8340909482 -5.03948e-05 -9.5676e-05 6.15052e-05 -9.90895e-05 0.1047306539 0.8378608143
850294900.0 0.1348993557 0.8329711532 2.69667e-05 -0.0001306986 7.45067e-05 0.0002055033 0.112894897 0.8371019071
