!Created with skrf (http://scikit-rf.org).
# Hz S RI R 50.0 
!freq ReS11 ImS11 ReS21 ImS21 ReS12 ImS12 ReS22 ImS22
300000.0 -0.243003109 -0.0795879774 0.4733012062 0.0528639561 0.4698847342 0.050729849 -0.2393749677 -0.087743983
5299970.0 -0.2454330959 0.0068099494 0.4748904853 0.0050098201 0.4751292049 0.00503024 -0.2414534189 0.0076110928
10299940.0 -0.2419517846 0.0180663678 0.4768454564 0.005818286 0.4769686667 0.0062506483 -0.2382954283 0.020587179
15299910.0 -0.2376096953 0.0271788591 0.4804899112 0.0073018174 0.4810863537 0.0075364191 -0.2336315352 0.0298493607
20299880.0 -0.2331156644 0.0341376155 0.4851706953 0.0083806388 0.4851205405 0.0080252339 -0.228578772 0.0379145525
25299850.0 -0.2282185839 0.0401931097 0.4905800673 0.0071970364 0.4901922249 0.0072684558 -0.2225911428 0.0445358535
30299820.0 -0.2226946758 0.0449959431 0.4958057638 0.0050411125 0.4953995923 0.0046044379 -0.2163826525 0.0498760354
35299790.0 -0.2175982881 0.0489927625 0.5009443529 0.0015583889 0.5012989159 0.0015283339 -0.2108771893 0.054262856
40299760.0 -0.2128797874 0.0524370314 0.5060612354 -0.0022430573 0.5062535806 -0.0020206157 -0.2056608695 0.0571371345
45299730.0 -0.2081263863 0.0547879245 0.5104421815 -0.0071381314 0.5109535964 -0.0066412364 -0.2005308486 0.0599479039
50299700.0 -0.2039364151 0.0567140754 0.5149967705 -0.0126845228 0.5154041577 -0.0123619783 -0.1960167197 0.0620114238
55299670.0 -0.1998335975 0.0581637185 0.5188208592 -0.0188353358 0.5186586846 -0.0183299876 -0.1915284015 0.0640931799
60299640.0 -0.1960471825 0.0599134915 0.5218601751 -0.0249151915 0.5223029289 -0.0245561698 -0.1874419752 0.0648999084
65299610.0 -0.1930251872 0.0607499733 0.5249510226 -0.0308883445 0.5247691998 -0.0309590738 -0.1838810123 0.0663240156
70299580.0 -0.1901358734 0.0620477932 0.5274728207 -0.037932699 0.5273444647 -0.0374605271 -0.1807496409 0.0672315496
75299550.0 -0.1872124109 0.063262508 0.5294156101 -0.0444990828 0.5291688954 -0.0445897643 -0.1778704744 0.0680559945
80299520.0 -0.1848661909 0.0636997766 0.5311179841 -0.0511380735 0.5311133589 -0.05128815 -0.1749799707 0.0689561177
85299490.0 -0.1825490828 0.0642416695 0.5322341843 -0.0579510909 0.5326024858 -0.057894542 -0.1729172821 0.0697955535
90299460.0 -0.1802288109 0.0646729865 0.5330496678 -0.0650595662 0.533442815 -0.065213441 -0.1702000748 0.0704951626
95299430.0 -0.1780474572 0.0653028479 0.5342025511 -0.0717714005 0.5342907942 -0.0719169526 -0.1679536415 0.0713807429
100299400.0 -0.1766385516 0.066274536 0.5340872565 -0.0783180741 0.5345985279 -0.078985025 -0.1658415474 0.0715404209
105299370.0 -0.1746380904 0.0666176239 0.5346649345 -0.0860537533 0.5348884458 -0.0858169731 -0.1635885577 0.0726203619
110299340.0 -0.1734753439 0.0674936006 0.5351394593 -0.0922660644 0.5350089043 -0.0922518076 -0.1629323855 0.0733426624
115299310.0 -0.1719544506 0.068055706 0.5351202181 -0.099503622 0.5350081239 -0.0993787662 -0.1611389193 0.0741884827
120299280.0 -0.1707025196 0.0683910449 0.5343675986 -0.1059466519 0.5347080946 -0.106287125 -0.1599466089 0.0750165007
125299250.0 -0.169762528 0.0690232286 0.534734504 -0.112818794 0.5345135873 -0.1124288568 -0.1585412033 0.0752110215
130299220.0 -0.1687609971 0.0699751014 0.5335026459 -0.1192894178 0.5338008693 -0.1199023255 -0.1572897088 0.076241958
135299190.0 -0.1674997696 0.0712617239 0.532907396 -0.1261808835 0.5330679084 -0.1259945719 -0.1558910511 0.077227312
140299160.0 -0.1668204715 0.0720143797 0.5321663317 -0.1330084171 0.5324693221 -0.1330079647 -0.1550880935 0.0784320335
145299130.0 -0.1655394752 0.073012325 0.5314701922 -0.139480561 0.5313090501 -0.1390707985 -0.1541389706 0.0795548015
150299100.0 -0.1647187079 0.0736911312 0.530298375 -0.1452034352 0.5302693413 -0.1454610205 -0.1527789089 0.0806564464
155299070.0 -0.1642716098 0.074741701 0.529515658 -0.1529841268 0.5290142374 -0.1523419082 -0.1517364113 0.0814078032
160299040.0 -0.1630716804 0.0757003016 0.5275902038 -0.1585441867 0.5274941786 -0.1588089261 -0.1513043842 0.0825307446
165299010.0 -0.1624481997 0.0771489426 0.5262295332 -0.1659298622 0.5263523298 -0.1653404577 -0.149849917 0.0840613866
170298980.0 -0.1615129826 0.0779223353 0.5246875151 -0.1718969811 0.5247004663 -0.1717488136 -0.1489335641 0.0848999102
175298950.0 -0.1609958625 0.0788551194 0.5232583471 -0.1777956963 0.5226324956 -0.1777073303 -0.148381663 0.0863185435
180298920.0 -0.1603273187 0.0801758565 0.5215307222 -0.1842632858 0.52141092 -0.1836723419 -0.1473407218 0.0870749111
185298890.0 -0.1591952477 0.0809194541 0.5193450763 -0.1905303789 0.5194415573 -0.1903666734 -0.1461773195 0.0886679582
190298860.0 -0.158894663 0.0824977159 0.517819236 -0.1967335257 0.5179114116 -0.1965556106 -0.1453531634 0.0895196098
195298830.0 -0.1578306013 0.0832321084 0.5155233504 -0.2025977997 0.5156926373 -0.2025462164 -0.1440667671 0.0909003003
200298800.0 -0.1570189523 0.0847701849 0.5134180892 -0.2090355575 0.5135439862 -0.2093778605 -0.1436301137 0.0923220427
205298770.0 -0.156197003 0.0859608932 0.5110171073 -0.2153326811 0.511405746 -0.2148234495 -0.1423713487 0.0930535578
210298740.0 -0.1554676334 0.0869801015 0.5086696818 -0.2207452906 0.5091498569 -0.2207454895 -0.1408976871 0.0950736787
215298710.0 -0.1552584452 0.0882901971 0.507074891 -0.2269211807 0.5067000397 -0.2268939375 -0.1404892957 0.096219111
220298680.0 -0.1543378272 0.0892851304 0.5039744712 -0.2322358138 0.5042565731 -0.2327647015 -0.1398696667 0.0973529324
225298650.0 -0.1533884865 0.090496831 0.5017083991 -0.2386807988 0.5020358674 -0.2382590477 -0.1389364858 0.0982243883
230298620.0 -0.1525610261 0.0922828074 0.4991612745 -0.2441208607 0.4995817664 -0.2443782842 -0.1379454432 0.0998453941
235298590.0 -0.1517948478 0.0936011735 0.4968325936 -0.2497718314 0.4967418812 -0.2493977525 -0.1366645153 0.1012967264
240298560.0 -0.1511004128 0.0951462227 0.4940644423 -0.2559577448 0.4939160197 -0.255950765 -0.1358474517 0.1031329994
245298530.0 -0.1504506095 0.0960467806 0.4916236503 -0.2616682105 0.4912060926 -0.2616929901 -0.1344601362 0.1036638171
250298500.0 -0.1493692272 0.0973301212 0.487844535 -0.2672307042 0.4878025458 -0.2666105367 -0.1336123275 0.10554449
255298470.0 -0.1487773336 0.0983441201 0.4848686339 -0.2719946729 0.4854913704 -0.2724661658 -0.132656078 0.1065733129
260298440.0 -0.1479440755 0.0998218244 0.4821148377 -0.2780436632 0.4828002459 -0.2780463121 -0.1313606815 0.1084115862
265298410.0 -0.1469554847 0.1017178754 0.4794068035 -0.2837958907 0.47964218 -0.2834975669 -0.1304453302 0.109791705
270298380.0 -0.1460258079 0.1028790866 0.4765128314 -0.2888599565 0.4769119783 -0.2887670733 -0.1292571411 0.1112363454
275298350.0 -0.1447851404 0.1040600277 0.4729982318 -0.2945402681 0.4736191336 -0.2943405006 -0.1280172923 0.1126058928
280298320.0 -0.1440613212 0.1054980282 0.4703945837 -0.3003258398 0.4704107031 -0.2998043624 -0.1270098579 0.1138965718
285298290.0 -0.1429140767 0.1070638431 0.4672659591 -0.3051202621 0.4669156488 -0.3053798466 -0.125711271 0.115287465
290298260.0 -0.1419598585 0.1085063222 0.4635449502 -0.3103347386 0.4638560989 -0.310630163 -0.1245251413 0.1169372474
295298230.0 -0.1408973506 0.1096937914 0.4602467624 -0.3155219818 0.4604640852 -0.3154657204 -0.1227463955 0.1180139754
300298200.0 -0.1404233481 0.1111611161 0.457082616 -0.3207455504 0.4573691629 -0.3212563662 -0.1217937314 0.1192116767
305298170.0 -0.1390021062 0.1120096862 0.4531886941 -0.3265556602 0.4533850824 -0.3260976883 -0.1202624738 0.1208404046
310298140.0 -0.1383153826 0.1137064769 0.4493530888 -0.3314167444 0.4501775042 -0.3314424867 -0.1190762598 0.1222417662
315298110.0 -0.1371043598 0.1146519805 0.446059768 -0.3365586814 0.4464855253 -0.3368032062 -0.1181196864 0.1233066897
320298080.0 -0.1361433962 0.1160794625 0.4422205643 -0.3423402154 0.4425370342 -0.3416062746 -0.1168207348 0.124521878
325298050.0 -0.1351649637 0.1173255176 0.4384773069 -0.3471357152 0.438542894 -0.3466663531 -0.1160026312 0.1259513829
330298020.0 -0.1342341716 0.1185746456 0.4344261278 -0.3519288935 0.4348053103 -0.3516834374 -0.1147722487 0.126931345
335297990.0 -0.1331121114 0.1194736514 0.4302150704 -0.3561351755 0.4303186894 -0.3565233299 -0.1141311566 0.1288907567
340297960.0 -0.1325855471 0.1215254844 0.4263342574 -0.3614578116 0.4261231233 -0.361352749 -0.1119537821 0.1298763203
345297930.0 -0.1315086596 0.1229338623 0.4219502865 -0.3661791945 0.4220819778 -0.366004439 -0.1109621871 0.1310665407
350297900.0 -0.1305641903 0.1238624545 0.4174447043 -0.3706535202 0.4179075186 -0.3707067054 -0.1100838303 0.1326792905
355297870.0 -0.1293383627 0.1258623562 0.4139328538 -0.3755199321 0.4142428118 -0.3751818306 -0.1087961158 0.1339136878
360297840.0 -0.1284087732 0.126824025 0.4102969684 -0.3794449403 0.4101244129 -0.3796449047 -0.1074113331 0.1353867033
365297810.0 -0.1273840382 0.1285068542 0.4052704775 -0.3845878217 0.4058405723 -0.3841817238 -0.1055283456 0.1365907455
370297780.0 -0.125965772 0.1296284126 0.401051896 -0.388652539 0.4015874521 -0.3881284636 -0.1042664347 0.1379163455
375297750.0 -0.1247289993 0.1310644758 0.3969776767 -0.3932034664 0.3972109783 -0.3932386672 -0.1028686015 0.139172762
380297720.0 -0.1235013665 0.1322295926 0.3925748831 -0.3976158974 0.3930181691 -0.396958994 -0.1016235538 0.1402639171
385297690.0 -0.1224953765 0.133516013 0.3878638353 -0.4016027601 0.3878708597 -0.4015472875 -0.0999064584 0.1417380583
390297660.0 -0.1214302057 0.1351707167 0.384026574 -0.4061898624 0.3837587922 -0.4057006638 -0.0979307209 0.1429535807
395297630.0 -0.1200321398 0.1361686608 0.3793602094 -0.4104533541 0.3794680714 -0.4102491151 -0.0962767766 0.1443304915
400297600.0 -0.1187324503 0.1375611835 0.3747871584 -0.4143793503 0.374972366 -0.4142666479 -0.0951445601 0.1455594072
405297570.0 -0.1177475914 0.1387748526 0.3704889366 -0.4180539063 0.3704130359 -0.4181973789 -0.0939983352 0.1465086292
410297540.0 -0.1162767611 0.1401628741 0.3660158271 -0.4225624818 0.3661477946 -0.4226971717 -0.0921372798 0.147800212
415297510.0 -0.1148537857 0.1410956567 0.36094225 -0.4266471392 0.3615238187 -0.4263306394 -0.0902976588 0.1490804185
420297480.0 -0.1136701148 0.1427958523 0.3561084535 -0.4306614841 0.3563902009 -0.4303064067 -0.0890664031 0.1496088213
425297450.0 -0.1123839269 0.1436362823 0.3518202389 -0.433925036 0.3522903725 -0.4341768601 -0.0875197324 0.1515017061
430297420.0 -0.111068207 0.1449223495 0.3470098833 -0.4373370875 0.3469516301 -0.437454676 -0.0860499148 0.1527076161
435297390.0 -0.1095567203 0.1463297247 0.3417600241 -0.4413954368 0.3420583131 -0.4418638282 -0.083589047 0.153526385
440297360.0 -0.1081171925 0.1475044995 0.3372032773 -0.4454092435 0.3374741009 -0.4452613408 -0.0823581785 0.1544132869
445297330.0 -0.1068405161 0.1484147597 0.332781797 -0.4489722137 0.332928712 -0.4487451091 -0.08045266 0.1555918411
450297300.0 -0.1054365705 0.1496883328 0.3274400409 -0.4527005278 0.3274302824 -0.4528574554 -0.0789329484 0.1565098987
455297270.0 -0.103942308 0.1507626715 0.3221096475 -0.4564954209 0.3227032834 -0.4560989242 -0.0772776594 0.1574485468
460297240.0 -0.1026855168 0.151879909 0.3171623887 -0.4596229033 0.3176044681 -0.4597889072 -0.0755352857 0.1591163161
465297210.0 -0.100793231 0.1531809614 0.3127440802 -0.4633934245 0.3123709895 -0.4634608563 -0.0736236326 0.1597532728
470297180.0 -0.0994390367 0.1538992983 0.3070519607 -0.4663963993 0.3072927084 -0.4666513595 -0.0717510473 0.1608649794
475297150.0 -0.0980021779 0.1548172272 0.3018568105 -0.469590862 0.3022024132 -0.4694854248 -0.0698327071 0.1613513242
480297120.0 -0.0962292547 0.1565226127 0.2969601148 -0.4732233511 0.2966934308 -0.4732099477 -0.0681668156 0.1625212016
485297090.0 -0.0952349755 0.1575731517 0.292028628 -0.4758216497 0.2919535456 -0.4757942209 -0.0663302427 0.1631890859
490297060.0 -0.0939035037 0.1586353036 0.2871552217 -0.4793253051 0.2868022396 -0.4791152339 -0.0644901621 0.1644155435
495297030.0 -0.0921682699 0.1597233003 0.2813755914 -0.4821455914 0.2817551184 -0.4822846704 -0.0631589279 0.165255786
500297000.0 -0.0903313302 0.1603895084 0.2760573334 -0.4847271261 0.2759238825 -0.4851521166 -0.0609371194 0.1664631093
505296970.0 -0.0887073992 0.1613950602 0.2703183986 -0.4879309667 0.2708621223 -0.488501054 -0.0593747847 0.1668178323
510296940.0 -0.0873435166 0.1624824179 0.2655083456 -0.4914154092 0.2654164669 -0.4914353356 -0.0573299291 0.167865072
515296910.0 -0.085940039 0.1634177997 0.260141617 -0.4941760261 0.2604391462 -0.493754942 -0.0555352279 0.1684781999
520296880.0 -0.0842030449 0.1645374336 0.2547592867 -0.4973996652 0.2547331067 -0.4966253272 -0.0539239398 0.1690284773
525296850.0 -0.0827066697 0.1651230759 0.2491620785 -0.4995005493 0.2495550268 -0.4994582889 -0.0520207204 0.170320818
530296820.0 -0.0807104392 0.1664042421 0.2434097398 -0.5025953833 0.24398801 -0.5021927327 -0.0501927437 0.1708895284
535296790.0 -0.0799383364 0.1671677158 0.2388917201 -0.5048219807 0.2385127746 -0.5043013845 -0.0484579877 0.1711188377
540296760.0 -0.0780936259 0.1682641085 0.233115235 -0.5079755418 0.2327146509 -0.5074758258 -0.0464901533 0.1724759893
545296730.0 -0.0764804916 0.1691655025 0.2271473564 -0.5093752082 0.2273588589 -0.5099322261 -0.0446073069 0.1723045915
550296700.0 -0.074502943 0.1700989224 0.2220405547 -0.5119278932 0.2219598729 -0.5127921622 -0.0428111823 0.1733138302
555296670.0 -0.0727499397 0.1708337454 0.2164834093 -0.514519952 0.2164912301 -0.5147546856 -0.0408119042 0.1742226341
560296640.0 -0.0709352531 0.1718186194 0.2103347434 -0.517238036 0.2110209886 -0.5169180153 -0.0387618693 0.17462422
565296610.0 -0.0698906002 0.1723500523 0.2051674468 -0.5192383443 0.2051892847 -0.5192355433 -0.0369633988 0.1750083643
570296580.0 -0.0684787399 0.1734678278 0.199567267 -0.5217827198 0.199086727 -0.5212593231 -0.0348834977 0.1758882351
575296550.0 -0.0665180869 0.1744695623 0.1938996909 -0.5235292117 0.1940133791 -0.5236336913 -0.03281426 0.1762978882
580296520.0 -0.0647746022 0.175297707 0.1881923275 -0.5258846251 0.1882069756 -0.5256018582 -0.0305771099 0.1764911495
585296490.0 -0.0632811001 0.1750197454 0.1827088357 -0.5269604643 0.1827028271 -0.5277448977 -0.0289299955 0.1776878966
590296460.0 -0.061073593 0.1761276757 0.1766637093 -0.5286937559 0.1768211716 -0.5291390002 -0.0273132067 0.1777461458
595296430.0 -0.0596029614 0.1772715515 0.1704464623 -0.5312585915 0.1710725726 -0.5314302725 -0.0248537687 0.1780744381
600296400.0 -0.0579837681 0.1778585019 0.1650875115 -0.5328126223 0.1654826561 -0.5328027085 -0.0231075987 0.1784293746
605296370.0 -0.0565398097 0.1784165736 0.1594480286 -0.5346007797 0.1595778746 -0.5347289043 -0.0206523677 0.1794063916
610296340.0 -0.0545570436 0.1793046321 0.1532409307 -0.5361401078 0.1538466816 -0.5363656608 -0.0189098405 0.1792951977
615296310.0 -0.0526491624 0.1796058625 0.1474305026 -0.5377884095 0.1475830951 -0.5386449566 -0.0169281469 0.1798590078
620296280.0 -0.0510665706 0.1801488075 0.1418578366 -0.5390969363 0.1419727487 -0.5393276096 -0.0151200021 0.1804994189
625296250.0 -0.0492094642 0.1807477359 0.1362801891 -0.5411408349 0.1362121156 -0.5413782362 -0.0125208294 0.1805180489
630296220.0 -0.04712625 0.1816494756 0.1295723715 -0.542499366 0.1298662075 -0.5419710782 -0.0110458715 0.1810487692
635296190.0 -0.0459833477 0.181955534 0.1240913062 -0.5436860677 0.1245003252 -0.5435450823 -0.0087670188 0.1811921069
640296160.0 -0.0442389134 0.182842834 0.1184194696 -0.5444761925 0.1187110797 -0.5449934148 -0.0068006307 0.1816600889
645296130.0 -0.0423377328 0.1837056722 0.1124047678 -0.5461198383 0.1131040729 -0.546440033 -0.0049831162 0.1820619359
650296100.0 -0.0404396057 0.1839659522 0.10670921 -0.546929801 0.106745493 -0.5475270237 -0.0024983528 0.1811099732
655296070.0 -0.0386364655 0.1844448636 0.1007683072 -0.5484990983 0.1009503067 -0.5486101092 -0.0005651926 0.1821058573
660296040.0 -0.0373407438 0.1846303604 0.0949984863 -0.5492552467 0.0949682053 -0.5498540653 0.0016225561 0.1825900058
665296010.0 -0.0349917784 0.1853219296 0.088469638 -0.5506281859 0.0891513669 -0.5502332668 0.003280007 0.1828126358
670295980.0 -0.03386245 0.1859729411 0.0832257815 -0.5513393871 0.0827804585 -0.5511997573 0.0047878029 0.1825595248
675295950.0 -0.0317136951 0.186545033 0.0769416152 -0.5516640107 0.0772375724 -0.551607334 0.0066039974 0.1827089377
680295920.0 -0.0298957173 0.186813525 0.0707146985 -0.5528953069 0.0708508355 -0.553293507 0.0088301067 0.1834154736
685295890.0 -0.0278682094 0.1877536384 0.0648638263 -0.5536120906 0.0653118005 -0.5537650104 0.0109522432 0.1828983165
690295860.0 -0.0260934259 0.187869264 0.0588141753 -0.5537922133 0.059154529 -0.5542568031 0.0128194159 0.1834809558
695295830.0 -0.0244024455 0.1880514601 0.0532200873 -0.5541728674 0.0530915027 -0.5548084321 0.0152641837 0.1831488448
700295800.0 -0.0222276828 0.1881201911 0.0467442606 -0.5548779952 0.0469931228 -0.5550693832 0.0170222132 0.1833371467
705295770.0 -0.0207611758 0.1893611769 0.0412117199 -0.5555013291 0.0415960151 -0.5556405754 0.0189272995 0.1832857268
710295740.0 -0.0189219034 0.1890892579 0.0350292705 -0.5563352474 0.0352673911 -0.5564683796 0.0211430327 0.1825961026
715295710.0 -0.0176596224 0.1892150529 0.0298028262 -0.5562536371 0.0290095938 -0.5563738549 0.0231647425 0.1827076891
720295680.0 -0.0153662775 0.1896931528 0.0230686043 -0.5566190747 0.0232075073 -0.5566795292 0.0255218096 0.1828584308
725295650.0 -0.0133609422 0.1901015882 0.0172285069 -0.5569422255 0.0174321856 -0.5571406628 0.0267986822 0.1825782783
730295620.0 -0.0114507944 0.1906659133 0.0112453402 -0.5564921224 0.0112407965 -0.5571395604 0.0287274642 0.1824850902
735295590.0 -0.0097676981 0.1909163905 0.0053022895 -0.5571523692 0.0054843279 -0.5570500808 0.0307430012 0.1818867705
740295560.0 -0.0081054123 0.1910162481 -0.0007230368 -0.5568700978 -0.0007963882 -0.5567715809 0.0337431698 0.182076639
745295530.0 -0.0062382632 0.1911595552 -0.0068549056 -0.556601635 -0.0069253233 -0.5567833053 0.0357591323 0.1814590171
750295500.0 -0.0042113279 0.1915600963 -0.0128175447 -0.5566264692 -0.0128189905 -0.5570035163 0.0374255186 0.1814658587
755295470.0 -0.0024938472 0.1914313515 -0.0184856171 -0.5563999919 -0.0186466095 -0.5567269569 0.0396937672 0.1807984579
760295440.0 -0.0006437504 0.1916942761 -0.0243881077 -0.556735468 -0.0246729207 -0.556980059 0.0416171626 0.1808537742
765295410.0 0.0013441503 0.191894899 -0.0306023746 -0.5559898416 -0.0310275142 -0.5563807977 0.0438162018 0.1805846615
770295380.0 0.0026974045 0.192043958 -0.0368658742 -0.5557271562 -0.0367880182 -0.5557897624 0.0453082007 0.1803251622
775295350.0 0.0048002029 0.1915419495 -0.0428267419 -0.5544896939 -0.0423031197 -0.5548385821 0.0471441241 0.1799588639
780295320.0 0.0069903468 0.1922574392 -0.0486856603 -0.5543246511 -0.0483202251 -0.5545308794 0.0493370752 0.1792604956
785295290.0 0.0084331101 0.1917595952 -0.0546613859 -0.5537617033 -0.0545144535 -0.5542519631 0.051938129 0.1794356907
790295260.0 0.0109432917 0.1923057839 -0.0603912714 -0.5533395475 -0.0597958014 -0.5531604065 0.0534656005 0.1791101737
795295230.0 0.0124219921 0.1922236665 -0.0665459021 -0.5524482435 -0.0662166449 -0.552924566 0.0555432272 0.1786605635
800295200.0 0.0142354872 0.192457528 -0.0732054465 -0.5514935722 -0.0727238924 -0.5519580512 0.0576730704 0.1781263162
805295170.0 0.0161827365 0.1923323995 -0.07875375 -0.5507352544 -0.0783424143 -0.5512968233 0.0593627132 0.1775333799
810295140.0 0.0181119849 0.1921373344 -0.0844694863 -0.5494242662 -0.0840174642 -0.5503242797 0.0619608116 0.177446477
815295110.0 0.0200108605 0.1918862034 -0.0902447039 -0.5488444149 -0.0897813019 -0.5488540472 0.0637110456 0.1763402515
820295080.0 0.0214484181 0.192499876 -0.0958507743 -0.547698745 -0.0955476345 -0.5479661116 0.0656536265 0.1762600177
825295050.0 0.0240691433 0.1919753257 -0.1016815639 -0.5461444643 -0.1018265858 -0.5470074342 0.0674760789 0.1756725023
830295020.0 0.0254182537 0.1920140891 -0.1082572905 -0.5456729705 -0.1079220214 -0.5456679144 0.0702074525 0.1746328563
