!Created with skrf (http://scikit-rf.org).
# Hz S RI R 50.0 
!freq ReS11 ImS11 ReS21 ImS21 ReS12 ImS12 ReS22 ImS22
300000.0 -0.2405574612 -0.0759328728 0.4730265552 0.0521309619 0.4688574744 0.0504178663 -0.2423020636 -0.0908965622
5299970.0 -0.2443472217 0.0074657682 0.4738650378 0.004668233 0.4737070134 0.0048378654 -0.244288421 0.007300637
10299940.0 -0.2411365348 0.018898065 0.4750938499 0.0060376156 0.475498996 0.0061349687 -0.2406857254 0.0202584816
15299910.0 -0.2367739557 0.0281501037 0.479226302 0.0075357537 0.4794964035 0.0077599672 -0.2361110874 0.0298657598
20299880.0 -0.2321407716 0.0353765729 0.483998379 0.0083313701 0.4839623623 0.0082494387 -0.2308650397 0.037408036
25299850.0 -0.2267760738 0.0419446005 0.4890892528 0.0074654491 0.4891216162 0.0075506576 -0.2248174778 0.0439477528
30299820.0 -0.2215511371 0.0470379087 0.4943906175 0.0055619856 0.4943752807 0.0053991764 -0.2192242185 0.0490619573
35299790.0 -0.216170484 0.0514427574 0.499697129 0.0017236224 0.499986983 0.0020031389 -0.2134495483 0.053447639
40299760.0 -0.2114307834 0.0549042775 0.504878217 -0.0019600964 0.5050711284 -0.0020262483 -0.2082460922 0.0561943279
45299730.0 -0.2066319106 0.0575495497 0.5094940034 -0.0066069178 0.5098655112 -0.0064659822 -0.2035304653 0.0589110494
50299700.0 -0.2022050677 0.0600514189 0.5143792468 -0.0123089185 0.5140584888 -0.0117597343 -0.198620767 0.0604448776
55299670.0 -0.1983763357 0.0616645238 0.5182485933 -0.0183570907 0.5178751469 -0.0180203093 -0.194181505 0.062279161
60299640.0 -0.1944113782 0.0638147445 0.5211549401 -0.02459278 0.52143366 -0.0240206395 -0.1904546535 0.0631741551
65299610.0 -0.1911308221 0.064585793 0.5238618731 -0.0307786877 0.5242949884 -0.0307552314 -0.1872460013 0.0638253484
70299580.0 -0.1879911362 0.0661732283 0.5265391306 -0.0373161696 0.5265395495 -0.037473456 -0.1838814323 0.0649179222
75299550.0 -0.1851165906 0.0672872986 0.52860618 -0.0439186052 0.528632085 -0.0439195228 -0.1811968827 0.0651981621
80299520.0 -0.1825703896 0.067960922 0.5301431939 -0.0511032953 0.5306746111 -0.0510914623 -0.1784059323 0.0658820636
85299490.0 -0.1801779324 0.0686975401 0.5316666829 -0.0576037478 0.5315078718 -0.0573133335 -0.1761939381 0.0660818535
90299460.0 -0.1778392793 0.0696313587 0.5323810686 -0.0649861408 0.5328289414 -0.064657472 -0.1737582935 0.0665159506
95299430.0 -0.1754986993 0.0704194022 0.5340263355 -0.0716990426 0.5335847479 -0.0719182536 -0.1714961951 0.0672815717
100299400.0 -0.1739306524 0.071674125 0.5335900179 -0.0787501934 0.5339211727 -0.0786027561 -0.1693075698 0.0672553278
105299370.0 -0.1721355572 0.0723569565 0.534450952 -0.0858921393 0.5344850743 -0.0855508064 -0.1674458032 0.0682661749
110299340.0 -0.1703438754 0.0733655228 0.5345123561 -0.0921987262 0.5344892504 -0.0921124038 -0.1666442878 0.0684107352
115299310.0 -0.1689068823 0.074190725 0.5345770245 -0.0990921634 0.534050902 -0.0990466181 -0.1650299695 0.0688224697
120299280.0 -0.1677457038 0.0747244135 0.5344563624 -0.1059847523 0.5343101461 -0.1062310988 -0.1633630989 0.0694198487
125299250.0 -0.1658114366 0.0752942356 0.5339055022 -0.1123152007 0.5341359043 -0.1125494668 -0.1625195843 0.0698943189
130299220.0 -0.1650789895 0.0767878555 0.5333066564 -0.1194867412 0.5331030911 -0.1192572455 -0.1612138082 0.0702478012
135299190.0 -0.1639343454 0.0775574544 0.5325679617 -0.1262814831 0.5325976631 -0.1263018456 -0.1595976766 0.071161669
140299160.0 -0.1627170146 0.0789802817 0.5316149824 -0.1328912596 0.5320676285 -0.1330500271 -0.1589112276 0.0720940897
145299130.0 -0.1615839626 0.0799583814 0.5311729483 -0.139603543 0.530873128 -0.1393837093 -0.1579959967 0.0727176529
150299100.0 -0.1599677373 0.0812507259 0.5294832469 -0.145408108 0.5302323063 -0.1453667871 -0.1569531526 0.0735330475
155299070.0 -0.1594058513 0.081931821 0.5289577051 -0.1527503666 0.52868627 -0.1520970921 -0.1559821637 0.0744906225
160299040.0 -0.1584235487 0.0836276252 0.5272320854 -0.1587374069 0.5271905366 -0.1589664502 -0.1554385044 0.0754208033
165299010.0 -0.1574556797 0.0845982585 0.5256747827 -0.1654274718 0.5258185497 -0.1653985552 -0.1542340213 0.0767558966
170298980.0 -0.156330402 0.0856015693 0.5242477433 -0.1719293491 0.5244587961 -0.1717785264 -0.1535974461 0.0775951095
175298950.0 -0.155454565 0.0871299302 0.5231613707 -0.1778589958 0.522278029 -0.1780881599 -0.1528578377 0.0785662696
180298920.0 -0.1548687848 0.0883694318 0.5209439564 -0.1843724007 0.5205627094 -0.1839738595 -0.1519912623 0.0797196349
185298890.0 -0.1530331706 0.0894813837 0.5189834415 -0.1905120765 0.5189029049 -0.1904176006 -0.1512898617 0.0808123234
190298860.0 -0.1525994226 0.0910241106 0.5173291952 -0.1968354056 0.5173984814 -0.1965016766 -0.1505943903 0.0816745713
195298830.0 -0.1519579318 0.0920876712 0.5151623353 -0.2027268579 0.5151939852 -0.202866564 -0.1496687384 0.0832663151
200298800.0 -0.1507207597 0.093512213 0.512826577 -0.2090104058 0.5131328573 -0.2090245566 -0.1493688086 0.0842172512
205298770.0 -0.1497594697 0.0948528413 0.5106581484 -0.2152844537 0.510716425 -0.2151295111 -0.1484291376 0.0847670295
210298740.0 -0.1488911035 0.0962450154 0.5085584464 -0.2211238404 0.5082716326 -0.2204072047 -0.1473821489 0.0866513016
215298710.0 -0.1484092749 0.0977375897 0.5062839318 -0.2270219994 0.5058889135 -0.2270807405 -0.1473840583 0.0876937683
220298680.0 -0.1471113515 0.0989222162 0.5035276091 -0.2328190676 0.5039386091 -0.2330129699 -0.1469039318 0.0889389287
225298650.0 -0.1462233074 0.1004653968 0.5015280229 -0.2386119182 0.5015066506 -0.2388627185 -0.1460495634 0.0899542339
230298620.0 -0.1450610333 0.1022439961 0.4988916195 -0.244498718 0.4992786815 -0.2443504614 -0.1455308151 0.0907470273
235298590.0 -0.1441503493 0.1035594011 0.4960409673 -0.250394442 0.4961372941 -0.2500694844 -0.144766807 0.0923968545
240298560.0 -0.1431491681 0.1049092705 0.4937731612 -0.255923822 0.493421227 -0.2559703156 -0.1438294891 0.0939577596
245298530.0 -0.1424117187 0.1064947391 0.4911539036 -0.2618937955 0.4908323291 -0.2619753415 -0.1429952735 0.0942444266
250298500.0 -0.1407391539 0.1080775123 0.4874660417 -0.2671436128 0.4872863466 -0.2670736516 -0.1426518924 0.0957229308
255298470.0 -0.1399358224 0.1091458277 0.4845398441 -0.2727332114 0.4849252447 -0.2729172635 -0.1416365018 0.0968720864
260298440.0 -0.1391535742 0.1107173973 0.4818657186 -0.2790847868 0.4818095493 -0.2780877499 -0.1405371828 0.0981612201
265298410.0 -0.1376046546 0.1124855871 0.4789855034 -0.283894905 0.4791379891 -0.2837480045 -0.1396432006 0.0994292052
270298380.0 -0.1366845754 0.1138814482 0.4760642445 -0.28934913 0.4762175313 -0.2893543447 -0.1388976748 0.1006834724
275298350.0 -0.1350117639 0.1152123816 0.4722901912 -0.2948987244 0.4729371418 -0.2949029944 -0.1381964354 0.1017071925
280298320.0 -0.1339261463 0.116856445 0.4696107126 -0.3006102183 0.4695134546 -0.3003735406 -0.1368967823 0.1031483972
285298290.0 -0.1329850019 0.1181541236 0.4665161243 -0.3055014577 0.466194649 -0.3056685528 -0.136090851 0.1041725791
290298260.0 -0.1313905967 0.119498562 0.4628984892 -0.3105160969 0.4630805594 -0.3105909701 -0.1350310125 0.105684904
295298230.0 -0.130256826 0.1206480401 0.4598453571 -0.3159500054 0.4597752469 -0.3160666892 -0.133533796 0.106897854
300298200.0 -0.1292100974 0.1225708295 0.4565410962 -0.3212009566 0.4561305776 -0.3217718766 -0.1328723741 0.1080306811
305298170.0 -0.128033799 0.1234788796 0.4525726688 -0.3270078968 0.4526116542 -0.3263160838 -0.1312979637 0.1091463141
310298140.0 -0.1265435006 0.1251301171 0.4493556049 -0.3319310594 0.4492127846 -0.3316813235 -0.1306552512 0.1102705599
315298110.0 -0.125210938 0.1262392167 0.4454757612 -0.3366822764 0.4454217249 -0.337096969 -0.129796615 0.1114472802
320298080.0 -0.1237338954 0.1276671788 0.4410435124 -0.3423690401 0.4416563832 -0.3422171934 -0.1286501177 0.1127704601
325298050.0 -0.1227997872 0.1287628154 0.4376636045 -0.3474315921 0.4378398029 -0.3468720854 -0.1280288315 0.1139792833
330298020.0 -0.1213616625 0.1299450668 0.4338200755 -0.3520520246 0.4336198908 -0.352158954 -0.1272338862 0.115024184
335297990.0 -0.119913021 0.1313224877 0.42957463 -0.3566024344 0.4297992067 -0.3571405372 -0.1265729091 0.1166440709
340297960.0 -0.1194475509 0.1329236298 0.4257208818 -0.3613967745 0.4255250683 -0.3618854177 -0.1249809498 0.1182301365
345297930.0 -0.117932303 0.1344151194 0.4213132984 -0.3664491464 0.4209792876 -0.3665094363 -0.1241779462 0.1189176128
350297900.0 -0.1164976139 0.1354362408 0.4164857871 -0.3709530987 0.4167879916 -0.3711529165 -0.1236821694 0.12060795
355297870.0 -0.1151068464 0.1374868534 0.4130600952 -0.3757513585 0.4132239325 -0.3756577558 -0.1225930751 0.1220651194
360297840.0 -0.1137339069 0.1387584976 0.4093799111 -0.3801836904 0.4092137609 -0.3799784121 -0.1210850527 0.1237545994
365297810.0 -0.112585625 0.1402957402 0.4046676766 -0.3851446928 0.404967217 -0.3850177484 -0.1201593569 0.124993663
370297780.0 -0.1104891509 0.1413834708 0.4004599581 -0.3891039569 0.400939031 -0.3887051126 -0.1191273838 0.1265360447
375297750.0 -0.1092779423 0.1426406308 0.396022266 -0.3936303473 0.3965239707 -0.3933147414 -0.1178779177 0.1276667005
380297720.0 -0.107771533 0.1440852638 0.3919773186 -0.3979015838 0.3921108174 -0.3972210719 -0.1172782737 0.1288129954
385297690.0 -0.1064217606 0.1454349038 0.3876614001 -0.4023289515 0.3872280678 -0.4019669557 -0.1156506305 0.1303848185
390297660.0 -0.1050964292 0.1469783631 0.3829235395 -0.4063667222 0.38274065 -0.4058467867 -0.1149476603 0.1312456371
395297630.0 -0.1031493263 0.1481517054 0.3786653132 -0.4106222918 0.3787417433 -0.410700784 -0.113202524 0.132594012
400297600.0 -0.1018461044 0.1496022795 0.3735835181 -0.4151780326 0.3741547416 -0.4146986048 -0.1119500041 0.1336890823
405297570.0 -0.1003797786 0.1507685874 0.3694207575 -0.4183776793 0.3695923598 -0.4183452863 -0.1112527316 0.1350777587
410297540.0 -0.0984471934 0.1520242383 0.3650259833 -0.4225986686 0.3652894681 -0.4228512234 -0.1102105043 0.1364141845
415297510.0 -0.0965130253 0.1529917468 0.3597646476 -0.4270236861 0.3604240755 -0.4269254083 -0.1086261768 0.1372622828
420297480.0 -0.0951841626 0.1546894304 0.3553125573 -0.4305864635 0.3555620379 -0.4311381698 -0.1078822347 0.1386205257
425297450.0 -0.0933415826 0.1554078256 0.3509260067 -0.4342350978 0.3511437242 -0.4349312721 -0.1067286348 0.1400956827
430297420.0 -0.091882967 0.1568370676 0.3459887772 -0.4379194983 0.3460377035 -0.438136573 -0.1055102139 0.1410120498
435297390.0 -0.0903125639 0.1578490558 0.3409807603 -0.4417643412 0.3407886446 -0.4421500466 -0.1034744558 0.1418828034
440297360.0 -0.0882565275 0.1589810909 0.3362607032 -0.4456155312 0.3365774582 -0.445950159 -0.1025185624 0.1429301731
445297330.0 -0.0867763631 0.1600824236 0.331654755 -0.4492572103 0.3312018557 -0.4488408901 -0.100732001 0.1437761582
450297300.0 -0.0849144722 0.160924158 0.3262938114 -0.4533348648 0.326462275 -0.4533202696 -0.0993940726 0.1448822126
455297270.0 -0.0832336616 0.1619303672 0.3214614126 -0.4563233099 0.3217181239 -0.4565520493 -0.0981477308 0.1458785802
460297240.0 -0.0814336173 0.1631812402 0.31634011 -0.4599022633 0.3164895861 -0.4602247421 -0.0969621618 0.147315847
465297210.0 -0.079424934 0.1641698991 0.311444143 -0.4634596155 0.311446508 -0.4638796669 -0.0950524837 0.1478999471
470297180.0 -0.0777937848 0.1649148115 0.3060969023 -0.4667557929 0.3067946911 -0.4669650851 -0.0936887134 0.1492376115
475297150.0 -0.0760440241 0.1660176253 0.3011289617 -0.4698863108 0.3010393516 -0.4695772156 -0.091809692 0.1500095377
480297120.0 -0.0741606203 0.1674525186 0.2957848998 -0.4736635936 0.2957192793 -0.4738109828 -0.0905369626 0.1514520397
485297090.0 -0.0724743302 0.168058181 0.2911012269 -0.4761502361 0.2911037266 -0.4764280252 -0.0890679964 0.152143579
490297060.0 -0.0708826327 0.1690944322 0.2857856921 -0.4799118037 0.285734747 -0.4795131701 -0.0875293576 0.1531934551
495297030.0 -0.0688907517 0.16985274 0.2801033449 -0.4826421768 0.2807874529 -0.482876286 -0.0863595 0.154553549
500297000.0 -0.0666970235 0.1707351643 0.2746887771 -0.4852689096 0.2747823171 -0.4852635684 -0.0846930504 0.1560748362
505296970.0 -0.0649260221 0.1714934915 0.2696472481 -0.4885123708 0.2695598083 -0.4885201584 -0.0834777768 0.156453621
510296940.0 -0.0631917985 0.1725209288 0.2645542594 -0.4914209149 0.2644987221 -0.491453741 -0.0814779395 0.1576868344
515296910.0 -0.0612988039 0.1734314413 0.2586908621 -0.4941949842 0.2588533589 -0.4940793669 -0.0796522661 0.1585464304
520296880.0 -0.0595896935 0.1742702736 0.2537907958 -0.4973279929 0.2535309 -0.4968446478 -0.0786813738 0.1591487304
525296850.0 -0.0572750982 0.1745386023 0.2479500611 -0.4999977715 0.2484495887 -0.499844827 -0.0770958982 0.1604838523
530296820.0 -0.0552869348 0.1757023025 0.2427210017 -0.5026745462 0.2428789899 -0.5027520289 -0.0756968328 0.1614675536
535296790.0 -0.053907121 0.1763385226 0.2373578895 -0.5049624728 0.2374104756 -0.5047474956 -0.0741838139 0.1619968924
540296760.0 -0.0516613558 0.1774380165 0.2319564377 -0.5077502277 0.2317034505 -0.507821601 -0.0725664376 0.1636778774
545296730.0 -0.0497329962 0.1780865215 0.225626907 -0.5100141342 0.2261057128 -0.510045018 -0.071125601 0.1639785142
550296700.0 -0.0475134624 0.17903776 0.2205226496 -0.5125086659 0.2205876077 -0.5128067246 -0.0697867583 0.1652201856
555296670.0 -0.0457791691 0.1790186714 0.2151600469 -0.514593184 0.2150440329 -0.514721182 -0.0680295108 0.1658950386
560296640.0 -0.0433244828 0.180246104 0.2090626714 -0.5173738839 0.2091930571 -0.5170966527 -0.0664250796 0.1665812733
565296610.0 -0.0419793515 0.1805930307 0.2037505195 -0.5188216144 0.2039686922 -0.5193712369 -0.065237784 0.1671808726
570296580.0 -0.0401715513 0.1811368545 0.1982077233 -0.5219684643 0.1974896772 -0.52144985 -0.0636900508 0.1686624836
575296550.0 -0.0381797094 0.1819546486 0.1926247951 -0.5236949485 0.1923337116 -0.5237159315 -0.0617120696 0.1688968434
580296520.0 -0.0357935878 0.1825647313 0.1864164323 -0.5255803673 0.1868211227 -0.5257712616 -0.0603109259 0.1695714995
585296490.0 -0.0340017147 0.1827312859 0.1810454533 -0.5276690909 0.1810575431 -0.5275445883 -0.0587423933 0.1705587463
590296460.0 -0.0316366427 0.1834575255 0.1751863805 -0.5289806062 0.1757282098 -0.5293670189 -0.0576966765 0.1710804689
595296430.0 -0.0295380853 0.183836001 0.1691367832 -0.5311444867 0.1693090762 -0.5311281649 -0.0555379535 0.1715415784
600296400.0 -0.0277864051 0.1846055516 0.1639278481 -0.5334250813 0.1636884714 -0.5328421139 -0.0540032214 0.1720868004
605296370.0 -0.0257724323 0.1847575504 0.1578298697 -0.5347065755 0.1580986327 -0.5344372891 -0.0519274532 0.172895477
610296340.0 -0.0239156747 0.1851992938 0.1514286425 -0.5362257933 0.1519551979 -0.5363434943 -0.0503691547 0.1735627116
615296310.0 -0.0213212726 0.1853727113 0.1460297181 -0.5378846516 0.1460374273 -0.5383065445 -0.0484851687 0.1742990848
620296280.0 -0.0196168266 0.1854833475 0.1405633173 -0.5394207356 0.1399683783 -0.5392735492 -0.0470695021 0.1746144986
625296250.0 -0.0177321072 0.185713287 0.1349265476 -0.5411062109 0.1345642631 -0.5412937423 -0.0450295723 0.1752682204
630296220.0 -0.0149921474 0.1863099688 0.1282480175 -0.5422534647 0.12827833 -0.5419664261 -0.0434634857 0.175653755
635296190.0 -0.0137193794 0.1865592101 0.1227729781 -0.5434356028 0.1224304924 -0.5437331301 -0.0417171615 0.1763454238
640296160.0 -0.0115570626 0.1870144504 0.1169519358 -0.5445292792 0.1169204963 -0.5449414008 -0.0400119674 0.1768534757
645296130.0 -0.0092877392 0.1875191852 0.110809628 -0.546011974 0.1112036974 -0.546241846 -0.0378313505 0.1772671294
650296100.0 -0.0072578732 0.1874598629 0.1052807283 -0.5473538049 0.1048747808 -0.5471461745 -0.0359699519 0.1772707406
655296070.0 -0.0055570161 0.1873337813 0.0989762883 -0.5483132241 0.0990927805 -0.5482003378 -0.0342732711 0.1784243598
660296040.0 -0.0034996455 0.1874260847 0.0934465745 -0.5493617882 0.0930353072 -0.5489166911 -0.0324039246 0.1788829334
665296010.0 -0.0009520795 0.1876761085 0.0870180496 -0.5501406282 0.0874828664 -0.5499572515 -0.0308752105 0.1798337672
670295980.0 0.0005625463 0.1882723918 0.0814826237 -0.5507247508 0.0813112583 -0.5510395043 -0.0291966291 0.1797743143
675295950.0 0.0026631835 0.1884279792 0.0756482067 -0.5516472662 0.0755743695 -0.551260676 -0.0275305344 0.1804326243
680295920.0 0.0047407521 0.1883175067 0.0692043059 -0.5524574509 0.0691844644 -0.5531583114 -0.0253798298 0.1815745069
685295890.0 0.0068728495 0.1889907346 0.0635787133 -0.5537382802 0.0632777291 -0.5532194888 -0.0239445437 0.1815447723
690295860.0 0.0092934234 0.1887118775 0.0570150172 -0.5531222145 0.0573188711 -0.5542092044 -0.0222473606 0.1825408069
695295830.0 0.0110923008 0.1885695308 0.0519300594 -0.5542560975 0.0516840788 -0.5542196778 -0.0201364495 0.182596969
700295800.0 0.0131938842 0.1883243141 0.0452750541 -0.554673005 0.0448744791 -0.5548387613 -0.0188499798 0.1832741946
705295770.0 0.0151633343 0.1889565993 0.0392121139 -0.5553238168 0.0397854417 -0.5556207024 -0.0171485792 0.1836759577
710295740.0 0.0176027619 0.1886345403 0.0334060486 -0.5562164927 0.0341044023 -0.5559834739 -0.0153279547 0.1835564392
715295710.0 0.0192640415 0.1883344481 0.0278652392 -0.5560225755 0.0271846852 -0.5564085534 -0.0132875629 0.1841389057
720295680.0 0.0212700883 0.1882474249 0.0214475887 -0.5564993246 0.0217052036 -0.5564267056 -0.0116856788 0.1847104676
725295650.0 0.0235729783 0.1882691339 0.0154190007 -0.556527598 0.0156385645 -0.5567423834 -0.0103309724 0.1851124847
730295620.0 0.0260664724 0.1885001905 0.0092842147 -0.5562917336 0.0096924095 -0.5567402284 -0.0089663991 0.184849671
735295590.0 0.0279271592 0.1884300376 0.0035773291 -0.5568876725 0.0035055749 -0.556811673 -0.0069244124 0.185135316
740295560.0 0.0296013258 0.1881423347 -0.0026337465 -0.5566273413 -0.0022620074 -0.5564003564 -0.0046560789 0.1853886772
745295530.0 0.0317386854 0.18822657 -0.0089576288 -0.5564225951 -0.0086716325 -0.5566098664 -0.0028156426 0.1854878824
750295500.0 0.0342139601 0.1874623233 -0.0142291368 -0.5559964442 -0.0144062142 -0.5563456356 -0.0009895189 0.1857701246
755295470.0 0.0360521915 0.187179033 -0.0199573105 -0.5559884842 -0.0205777169 -0.5562740899 0.0011244335 0.1855354099
760295440.0 0.0379909609 0.1872147514 -0.0264991666 -0.5559753411 -0.0266558645 -0.5560540886 0.0024837816 0.1858159383
765295410.0 0.0402198747 0.1867576846 -0.0325030138 -0.5555382837 -0.0327504889 -0.5559149422 0.0043639372 0.1861165531
770295380.0 0.0418641 0.1864113989 -0.03881958 -0.5548503858 -0.0388416329 -0.5548406727 0.006039336 0.18563128
775295350.0 0.0440213 0.1858158565 -0.0445662206 -0.554222114 -0.0444680757 -0.5544907825 0.0073554302 0.1860232832
780295320.0 0.0462686513 0.1857486989 -0.0505620565 -0.5539497736 -0.0500087208 -0.5536126448 0.0094130497 0.1857582491
785295290.0 0.0478406806 0.1849137669 -0.0567542021 -0.5529782658 -0.0561906424 -0.5530636357 0.0117272246 0.186091752
790295260.0 0.0506929457 0.1853422593 -0.0621085769 -0.5530072589 -0.061545268 -0.5524767447 0.0134513573 0.1859374012
795295230.0 0.0524682288 0.1842213704 -0.0681274172 -0.5519028747 -0.0679319186 -0.5519571118 0.0152957652 0.1861379212
800295200.0 0.054124809 0.1840221728 -0.0746788819 -0.551072882 -0.0744331784 -0.5509940616 0.0172806026 0.1861071382
805295170.0 0.0563146664 0.1834953817 -0.0803030449 -0.5500785075 -0.0802526512 -0.5503091642 0.0191059695 0.1861855129
810295140.0 0.0580349395 0.1826709815 -0.0857368487 -0.548751291 -0.0863673648 -0.5494077037 0.021258383 0.1859520477
815295110.0 0.0602049049 0.1820838327 -0.0919892136 -0.5481561127 -0.091906579 -0.5482665985 0.0227767373 0.1859487094
820295080.0 0.0619613314 0.182339509 -0.0976835652 -0.547018247 -0.09785743 -0.5473436012 0.0246843102 0.1859675167
825295050.0 0.0645165549 0.181354954 -0.1032394498 -0.545722386 -0.1036919738 -0.5463811832 0.0266087938 0.1856500037
830295020.0 0.0661690289 0.1810741217 -0.1096380603 -0.5447512268 -0.1093736021 -0.5448709383 0.0291955352 0.1857940669
