!Created with skrf (http://scikit-rf.org).
# Hz S RI R 50.0 
!freq ReS11 ImS11 ReS21 ImS21 ReS12 ImS12 ReS22 ImS22
300000.0 0.8595017624 -0.0024801322 0.0002442243 -0.0002719455 -0.0002674325 -8.5395e-06 -0.7734341519 -0.1409413159
5299970.0 0.8592696996 -0.0101498595 0.0001015472 -4.41516e-05 8.37009e-05 -0.0001983127 -0.7840842505 -0.0077144616
10299940.0 0.8578628971 -0.0193565304 -5.2143e-06 5.38177e-05 3.7597e-06 3.01029e-05 -0.7870896266 -0.0039707123
15299910.0 0.8576844117 -0.0271769797 7.18281e-05 3.96748e-05 -0.0001672267 0.0001110331 -0.7926162517 -0.0013141898
20299880.0 0.8567294296 -0.0354830767 -0.0002191417 -5.2383e-06 3.39985e-05 -2.81477e-05 -0.7992739702 0.0018432626
25299850.0 0.8562854728 -0.0439268633 4.65515e-05 8.62718e-05 -0.0001238417 4.76909e-05 -0.8058285875 0.0084632078
30299820.0 0.8548259555 -0.0521055171 -5.9176e-06 -0.0002872693 0.0002487997 1.65451e-05 -0.8119110947 0.0166350127
35299790.0 0.8542012188 -0.060709945 5.26469e-05 5.59693e-05 0.0001380476 -6.07807e-05 -0.8169854856 0.0255690414
40299760.0 0.8528855236 -0.069465515 0.0001944527 -9.92216e-05 -9.32848e-05 7.56558e-05 -0.8205334096 0.0344389659
45299730.0 0.853123052 -0.0772498675 -9.04306e-05 0.0001339153 0.0002027426 8.31868e-05 -0.8248530811 0.0441200779
50299700.0 0.8520648715 -0.0852701306 -5.96565e-05 -4.76835e-05 8.77843e-05 8.63221e-05 -0.82724899 0.0542654101
55299670.0 0.8509637023 -0.0935031324 -1.17142e-05 -7.24704e-05 0.0001955438 7.70284e-05 -0.8289848073 0.0642848639
60299640.0 0.8495488725 -0.1015487384 2.9441e-05 -1.44801e-05 -4.11042e-05 1.90797e-05 -0.8305855846 0.0744729255
65299610.0 0.8483869798 -0.1104311387 -3.6243e-06 4.9955e-06 -9.94354e-05 -1.96233e-05 -0.8316747196 0.0844069597
70299580.0 0.8474399536 -0.1186057271 7.345e-06 3.89643e-05 0.0001033942 -3.9341e-06 -0.8316803241 0.0943679935
75299550.0 0.846491507 -0.1268157386 0.0001160112 0.0001301414 2.11018e-05 -0.0001415909 -0.8318827692 0.1042382633
80299520.0 0.8446330065 -0.135239819 -4.09506e-05 3.67105e-05 -5.8336e-05 -6.764e-07 -0.8325822635 0.1141887811
85299490.0 0.8431086539 -0.1436368433 2.56261e-05 2.45413e-05 -0.0001034584 -9.15925e-05 -0.8319210175 0.1240472337
90299460.0 0.8414206465 -0.151264124 1.60326e-05 0.0001123255 -0.0001321499 -5.63944e-05 -0.831045197 0.1329278885
95299430.0 0.8399822906 -0.1597115379 0.0001996231 -7.9748e-06 -4.7521e-06 -5.13896e-05 -0.8294110609 0.1432017153
100299400.0 0.8385238352 -0.1675487292 -3.06809e-05 6.81708e-05 -0.0001703305 1.99901e-05 -0.8286153626 0.1522004993
105299370.0 0.8373571752 -0.1759530761 0.00018387 -0.0001586924 -3.05531e-05 4.34232e-05 -0.8269170082 0.1610903985
110299340.0 0.8356727905 -0.1843293045 -0.0002502862 -5.83575e-05 5.82883e-05 8.41431e-05 -0.8251199335 0.1704993105
115299310.0 0.8332912888 -0.1921280134 0.0001371499 -8.28792e-05 -0.0002407065 -0.0001283927 -0.8238381527 0.180183852
120299280.0 0.831250419 -0.2005072447 -8.06808e-05 -4.4902e-06 7.4519e-05 0.0001218234 -0.8221796667 0.1887385083
125299250.0 0.8293701939 -0.2089542967 -0.0001405896 -3.3851e-05 -0.0001852174 -0.0001423892 -0.8208015901 0.1980611604
130299220.0 0.8275625429 -0.2164687369 9.29953e-05 0.0002294705 4.25e-06 5.24775e-05 -0.8185969868 0.207129951
135299190.0 0.8254262353 -0.2245502334 9.70008e-05 -3.91335e-05 -1.51789e-05 -0.0001701671 -0.8163605501 0.2156913972
140299160.0 0.8232372081 -0.23242262 -0.0001765644 -0.000145557 7.00654e-05 8.75349e-05 -0.8135625186 0.2253113926
145299130.0 0.8203909497 -0.2416190721 0.0001341757 0.0001281278 -9.42972e-05 2.32676e-05 -0.8121683435 0.2339745095
150299100.0 0.8185910435 -0.2489630485 6.1721e-05 -5.4753e-05 -8.7191e-06 6.34944e-05 -0.8101655277 0.2430823848
155299070.0 0.8153068209 -0.2567592444 -0.0001257772 5.86402e-05 2.3316e-05 -7.2175e-06 -0.8067871692 0.2517285712
160299040.0 0.8128312966 -0.2650254052 0.0002374418 0.0001269338 -0.0001022792 -9.65771e-05 -0.8045999271 0.2607115372
165299010.0 0.8102195413 -0.2730458228 -0.0002712132 -5.42786e-05 1.19475e-05 6.88359e-05 -0.8017573886 0.2695223116
170298980.0 0.8074335997 -0.280674757 9.51212e-05 4.60349e-05 0.000245208 -8.30258e-05 -0.7987827282 0.2780065773
175298950.0 0.8045691304 -0.2884800707 -6.90257e-05 -0.0002297422 -8.9063e-06 -4.15374e-05 -0.7960262624 0.2866833817
180298920.0 0.8021159107 -0.2959719915 -0.0001496574 -8.51386e-05 0.0001812322 2.93888e-05 -0.7932911014 0.2953091828
185298890.0 0.7987718402 -0.3041882958 -0.000187434 0.0001978989 -3.80603e-05 -2.23161e-05 -0.7896924642 0.3037661546
190298860.0 0.7959633828 -0.311885629 -3.11419e-05 -4.50218e-05 0.0001453563 -0.0001705556 -0.7874776661 0.3123338735
195298830.0 0.7928233931 -0.3192684019 -2.25406e-05 -0.0001224265 -0.0001683524 1.00648e-05 -0.7843170255 0.321426036
200298800.0 0.7891574636 -0.326837713 5.69831e-05 -0.0001045031 -7.03547e-05 -2.68316e-05 -0.7813105112 0.3293737685
205298770.0 0.7859693586 -0.3343455559 8.23604e-05 -2.00704e-05 -0.0002065069 -6.83837e-05 -0.7771048215 0.3372165086
210298740.0 0.7826129087 -0.3424529728 -3.42773e-05 9.0915e-05 -8.8857e-05 1.81051e-05 -0.7744070843 0.3459842457
215298710.0 0.7792635973 -0.3508875485 -0.0001428074 7.56145e-05 -4.90531e-05 -0.0001858088 -0.7710959788 0.3542369244
220298680.0 0.775716412 -0.3574755684 4.49266e-05 0.0001070669 1.0075e-05 -1.91482e-05 -0.7674964019 0.3625384382
225298650.0 0.771914716 -0.3658503828 5.261e-07 6.47313e-05 9.68677e-05 -0.0001260693 -0.7640841429 0.3705521957
230298620.0 0.7685097528 -0.3729684504 -6.19711e-05 -7.69541e-05 -1.77054e-05 -3.82e-06 -0.7595507086 0.3787626498
235298590.0 0.7646706833 -0.3799819527 -0.0001256853 -2.80679e-05 2.41497e-05 3.2422e-05 -0.7553993059 0.3870683885
240298560.0 0.7613725896 -0.3878048098 4.75678e-05 -3.7594e-05 9.77217e-05 6.02988e-05 -0.751583945 0.395698501
245298530.0 0.7569780043 -0.3955057361 4.7256e-05 -3.19578e-05 -2.47439e-05 -1.7397e-06 -0.7478639458 0.4027817401
250298500.0 0.7530838595 -0.4028193839 0.0001831423 6.04702e-05 -2.38913e-05 0.0001495605 -0.7437758776 0.4102804098
255298470.0 0.7490415471 -0.410243789 4.45828e-05 -2.84336e-05 0.0001288445 -2.08068e-05 -0.7383329065 0.4180535338
260298440.0 0.7448612985 -0.4173653647 -9.07332e-05 5.9608e-06 -8.6445e-05 0.0002441246 -0.7349351947 0.4267121039
265298410.0 0.7410967198 -0.4244233301 0.0001982931 -4.21642e-05 -0.0001975067 -8.34208e-05 -0.7303710842 0.4339613991
270298380.0 0.7367110469 -0.4316228412 0.0001930411 -7.63194e-05 4.585e-06 -2.31368e-05 -0.7252238646 0.4407472406
275298350.0 0.7322815039 -0.4389517259 -9.93487e-05 -0.0001015315 -4.46978e-05 -1.9046e-06 -0.720613252 0.448894066
280298320.0 0.7278032156 -0.4460140033 0.000234178 4.63809e-05 -4.76081e-05 7.79423e-05 -0.7157698994 0.4560384382
285298290.0 0.7241036816 -0.4530577913 8.80384e-05 -0.000108266 0.0001526733 0.0001722482 -0.7106841983 0.4635599617
290298260.0 0.7201876053 -0.4601829787 2.05147e-05 2.31464e-05 2.1673e-05 4.27655e-05 -0.70559739 0.4706883515
295298230.0 0.715710771 -0.4671872793 -3.02382e-05 0.0002819462 0.0001583785 3.68143e-05 -0.7006337964 0.4774859447
300298200.0 0.7108987896 -0.4745204361 0.000134884 -0.0001356947 -3.23357e-05 -0.0001215053 -0.6954667083 0.4850434251
305298170.0 0.7071461034 -0.4818439131 0.0002416434 3.0493e-05 -0.0001578507 0.0001124527 -0.6897546129 0.4929406938
310298140.0 0.7026126494 -0.4893667369 0.0001588662 -7.92844e-05 -0.0002304164 0.0001160792 -0.6847592745 0.4998266393
315298110.0 0.6975515752 -0.4965174384 0.0002537792 -2.5396e-06 -3.4385e-06 -0.0002156187 -0.6792673498 0.5063877808
320298080.0 0.6928946676 -0.503823345 1.30997e-05 0.0001517102 -0.0002332443 0.0002155434 -0.6745426137 0.5144958722
325298050.0 0.6875893605 -0.5112060797 0.0001009697 8.75183e-05 -2.83574e-05 8.23645e-05 -0.6685450276 0.5210442211
330298020.0 0.6817223156 -0.51860674 6.7117e-06 -3.90772e-05 -2.87823e-05 0.0001255936 -0.6630710393 0.5281691619
335297990.0 0.67519105 -0.5260298097 -0.0002560244 -5.31251e-05 0.0001182066 -0.0001025271 -0.6577582283 0.5349161202
340297960.0 0.6699040506 -0.5320479294 9.78852e-05 -0.0001475472 -4.16695e-05 0.0002437527 -0.6518938494 0.5422078269
345297930.0 0.6636824778 -0.5380426413 9.41319e-05 8.16996e-05 0.0001706911 0.0001752484 -0.6464064021 0.5485118686
350297900.0 0.6580715362 -0.5438698739 0.0001083085 0.0001271877 -2.87365e-05 0.0001239976 -0.6403103482 0.5552528475
355297870.0 0.6527157054 -0.5504974973 -5.81725e-05 1.94452e-05 0.000108137 9.80762e-05 -0.6357556418 0.5617460605
360297840.0 0.6470898972 -0.556477975 1.00353e-05 -3.27915e-05 -8.16205e-05 1.28151e-05 -0.6290628013 0.5690297428
365297810.0 0.6406488854 -0.5628332869 5.13767e-05 0.0001133972 0.0001055794 -0.0001226936 -0.6226508646 0.575162706
370297780.0 0.6356953152 -0.5686331223 -6.56694e-05 9.73447e-05 -3.75602e-05 0.000254778 -0.6172400603 0.5817135731
375297750.0 0.6290321468 -0.574716308 -0.0001628249 7.55104e-05 9.34961e-05 0.0001589615 -0.6114235122 0.5881626797
380297720.0 0.6240893599 -0.5811703366 0.0001767452 -3.79271e-05 7.2782e-06 9.77023e-05 -0.6053812912 0.5942386581
385297690.0 0.6179837878 -0.5868766516 4.06546e-05 -7.82465e-05 -8.88751e-05 -7.22813e-05 -0.5987372147 0.600965833
390297660.0 0.6120355823 -0.592119874 7.36217e-05 -6.2193e-06 0.0002245691 0.0001035601 -0.5929839952 0.607168644
395297630.0 0.6059823684 -0.5985627029 0.0002416133 -4.00866e-05 -0.0001757025 -4.64623e-05 -0.5862839484 0.6135065353
400297600.0 0.6004152704 -0.6041467347 0.0001459078 3.05483e-05 -0.0001078727 0.0001166134 -0.5804812063 0.6196327279
405297570.0 0.5943215173 -0.609708821 -1.68213e-05 0.0001781447 -1.72963e-05 4.1401e-06 -0.5732985357 0.6250622778
410297540.0 0.587318748 -0.6159544328 9.14851e-05 4.0009e-06 -4.5619e-06 0.0001043054 -0.5675226159 0.6310313606
415297510.0 0.5823027368 -0.6216583638 -9.6916e-06 -1.55016e-05 0.0001087616 -1.3145e-05 -0.5609505256 0.6363547889
420297480.0 0.5756555234 -0.6267668218 7.6592e-05 0.0002206096 -0.0001393384 5.14385e-05 -0.5541740678 0.6427822105
425297450.0 0.5692648478 -0.6325688309 -8.56492e-05 0.0001769544 0.000124966 5.50246e-05 -0.547601676 0.6480052266
430297420.0 0.5636187478 -0.6381173824 -8.55646e-05 7.10259e-05 4.67262e-05 -3.72077e-05 -0.5417127549 0.6530147835
435297390.0 0.5566136884 -0.6435292352 6.51692e-05 -5.6331e-05 -0.0001603439 2.66729e-05 -0.533701544 0.6581747081
440297360.0 0.5502132903 -0.6493561743 -0.0001593348 -0.0001118553 -3.43014e-05 5.73023e-05 -0.5269497573 0.6635643379
445297330.0 0.5440229489 -0.6545012824 -4.43014e-05 -0.0001091619 1.6909e-05 0.0001729839 -0.5197046643 0.6686253865
450297300.0 0.5376182651 -0.6596433167 -1.73222e-05 -0.0002774766 -3.38691e-05 0.0001783645 -0.5124296775 0.6738865706
455297270.0 0.5308993525 -0.6647537057 -0.0001274637 4.1671e-06 5.19305e-05 0.0001741407 -0.5061599632 0.6782084993
460297240.0 0.5239336113 -0.6696603293 0.0001595002 -6.55619e-05 3.8557e-05 -3.965e-06 -0.4996406255 0.6839771665
465297210.0 0.5172161457 -0.6750431121 0.0001718206 -0.0002399065 1.55892e-05 -6.08015e-05 -0.4915734642 0.6886813954
470297180.0 0.5106469978 -0.6791986837 -0.0002478935 0.0001912632 -6.42138e-05 9.24823e-05 -0.4843099603 0.6939228917
475297150.0 0.5037665349 -0.6850283469 0.0001292648 4.25558e-05 8.671e-07 2.70172e-05 -0.4773219135 0.6980844896
480297120.0 0.496658037 -0.6899638358 -0.0002325922 0.0001663945 -5.99276e-05 0.0001217779 -0.4698860267 0.7030694232
485297090.0 0.4902104038 -0.6950960931 -9.63486e-05 7.02362e-05 4.51019e-05 -0.000144816 -0.4627980776 0.7076559699
490297060.0 0.482896281 -0.6995909884 -0.0001851323 -0.0001143659 0.0001448123 0.0001201064 -0.4548101889 0.7119616951
495297030.0 0.4764486121 -0.7038891576 -3.00436e-05 6.49199e-05 2.9968e-05 6.38429e-05 -0.4481897991 0.7174692533
500297000.0 0.4690490306 -0.7083990861 -8.29334e-05 5.51782e-05 -5.44209e-05 0.0001571018 -0.4401888818 0.7226192865
505296970.0 0.4624725614 -0.712677523 -0.0001085857 8.96345e-05 7.7503e-05 -2.6527e-05 -0.4333085653 0.7263306181
510296940.0 0.4547256819 -0.7177545053 1.3581e-05 -4.6885e-05 -5.87321e-05 0.0001473759 -0.4257279046 0.7308442549
515296910.0 0.4480686719 -0.7217805896 -4.39655e-05 0.0001312742 9.63706e-05 0.0001713569 -0.4180326309 0.7345012817
520296880.0 0.4402078183 -0.7262265471 -0.0001284844 -0.0001674514 0.0001530004 2.5593e-05 -0.4105659204 0.7388619936
525296850.0 0.4338360214 -0.7304178606 -9.07276e-05 7.00475e-05 3.42655e-05 8.08403e-05 -0.4035643717 0.7435051855
530296820.0 0.4262523908 -0.7340934778 -4.40578e-05 -0.0002083351 -0.0001290551 -1.38811e-05 -0.3960836207 0.7477015384
535296790.0 0.4191666051 -0.7384682859 0.0001050857 0.0001209409 -1.9664e-05 -3.00876e-05 -0.3886232394 0.751505383
540296760.0 0.4118120246 -0.7425434818 -6.68722e-05 -0.000121589 9.3111e-06 8.7285e-05 -0.3805417522 0.7556052032
545296730.0 0.403983364 -0.7461716915 2.47762e-05 -0.0001360632 -4.0658e-06 6.59489e-05 -0.3734919528 0.7588805028
550296700.0 0.3967649382 -0.7495827323 -1.1988e-06 2.93766e-05 1.00464e-05 3.11905e-05 -0.364832367 0.7628871205
555296670.0 0.3884496025 -0.75401843 -5.2611e-05 -0.0001041394 -0.0001241262 3.3598e-05 -0.3575376194 0.7671696923
560296640.0 0.381342662 -0.7574815791 1.93262e-05 -8.44332e-05 -3.64876e-05 0.0001080489 -0.3495689899 0.7706854926
565296610.0 0.3743696002 -0.7604484892 2.38799e-05 0.0001190309 1.07686e-05 2.59693e-05 -0.341683091 0.7740561765
570296580.0 0.366345452 -0.7644719068 0.0002332943 -6.82613e-05 0.0001549591 -5.15519e-05 -0.3341733142 0.7774552784
575296550.0 0.3584537718 -0.7678499286 -1.17514e-05 -1.5999e-06 2.90133e-05 6.99826e-05 -0.3261111884 0.781305392
580296520.0 0.3512309044 -0.7715440889 -0.0003125971 3.95783e-05 -0.0001207719 -4.65249e-05 -0.3181781539 0.7838957718
585296490.0 0.3429296628 -0.7760073382 -0.0001226472 5.30052e-05 -3.11355e-05 0.0003172468 -0.3099540683 0.787482298
590296460.0 0.3359091346 -0.7774842911 -0.0001027372 -1.57157e-05 7.96316e-05 5.80918e-05 -0.3023061813 0.7901599699
595296430.0 0.3278685943 -0.7815749552 -0.000115278 8.25273e-05 -0.0001211784 7.30605e-05 -0.294475344 0.7928383492
600296400.0 0.3198655355 -0.7847483859 -1.8174e-05 -4.5162e-05 -4.57257e-05 1.6833e-05 -0.2865154902 0.7955909733
605296370.0 0.3119416726 -0.7873456277 6.59584e-05 2.9452e-05 2.17205e-05 -0.0001103852 -0.2776810039 0.7985036738
610296340.0 0.3037969298 -0.7906808858 6.93331e-05 -5.67268e-05 -8.87815e-05 2.43874e-05 -0.2702143642 0.8009603756
615296310.0 0.29680683 -0.793472068 -0.0002038661 -6.06151e-05 -0.0001089149 -2.3129e-06 -0.2615193226 0.803503581
620296280.0 0.2879729625 -0.7960207609 -0.0001792678 0.0003300469 8.83369e-05 -0.0001123108 -0.253960695 0.8057660583
625296250.0 0.281057444 -0.7992192976 8.20402e-05 -0.0001923887 -0.0001415009 3.34851e-05 -0.2451963275 0.8079675781
630296220.0 0.273573289 -0.8015059857 1.06682e-05 -0.000269052 0.0002205351 0.0001758894 -0.237095798 0.8106690728
635296190.0 0.2647224525 -0.804530057 0.0002536405 0.0002899076 3.99079e-05 0.0001096676 -0.2288473598 0.8126922548
640296160.0 0.2572570853 -0.8069503234 9.17038e-05 -0.0002035441 -1.12481e-05 -1.04608e-05 -0.2206425931 0.8151588125
645296130.0 0.248484046 -0.8086448773 0.0001271974 6.23762e-05 0.0001142715 3.275e-06 -0.212766261 0.8165611567
650296100.0 0.2407330729 -0.8109368064 0.0002368402 0.0002068517 5.21687e-05 -3.66511e-05 -0.204424907 0.8184218894
655296070.0 0.2317335118 -0.8132809728 5.56151e-05 -0.0001126116 -7.05482e-05 -3.01892e-05 -0.1957202354 0.8202381432
660296040.0 0.224066044 -0.8159540239 -0.000201573 0.0002696626 0.000224617 4.40048e-05 -0.1869700475 0.822576939
665296010.0 0.2156366088 -0.8175876366 -0.000198137 0.0001398081 -2.3979e-06 7.24994e-05 -0.1785103267 0.8247129709
670295980.0 0.2077251318 -0.8201184745 -0.0002321502 0.0001351463 0.0001326889 -3.13233e-05 -0.1709687709 0.8261716113
675295950.0 0.1996877979 -0.8210303545 1.95384e-05 -2.4223e-05 -2.37331e-05 -0.0001081561 -0.162560371 0.8284102001
680295920.0 0.1913315927 -0.8233403559 -0.0001492582 0.0001633382 -0.000205871 1.91124e-05 -0.1541725616 0.830630707
685295890.0 0.1835442612 -0.8244762147 0.0001742343 -3.61303e-05 8.91223e-05 0.0001648724 -0.1454554823 0.8309807747
690295860.0 0.174939256 -0.8266135902 3.47775e-05 0.0001890883 -0.0001218773 1.20283e-05 -0.1378012914 0.8330873006
695295830.0 0.1669589614 -0.8278728452 -2.10533e-05 -6.5532e-05 3.41488e-05 0.0002368762 -0.1289625754 0.8342646758
700295800.0 0.1586049329 -0.8293607862 3.28565e-05 0.0001552553 -0.0001050371 -7.7571e-05 -0.1213174562 0.8359446627
705295770.0 0.150024027 -0.8306723517 -7.71937e-05 0.0001326745 -7.60147e-05 5.17371e-05 -0.1126214556 0.8381552934
710295740.0 0.1414487791 -0.8320331957 -0.0002154765 -7.9256e-06 -0.000199879 0.0001477711 -0.1044006006 0.8386020581
715295710.0 0.1334134869 -0.8343771862 -4.72089e-05 -0.0001120431 6.3884e-06 -0.0001173003 -0.0963711295 0.8393795497
720295680.0 0.1255965405 -0.8350058105 -0.0002130682 2.37741e-05 0.0001048873 0.0002439172 -0.0872060633 0.8408010563
725295650.0 0.1166933581 -0.8354547634 -2.63634e-05 -0.0001179777 0.0001503171 4.96415e-05 -0.0797044082 0.841945181
730295620.0 0.1084042786 -0.8365793952 -3.6141e-05 -0.0002069341 -0.0001229917 0.0001000227 -0.0715587666 0.8424135434
735295590.0 0.0996803447 -0.8367902576 0.000142339 4.47477e-05 0.0001013544 2.8698e-06 -0.0627954685 0.8426265035
740295560.0 0.0913595858 -0.8372294468 -3.47038e-05 0.0001971892 0.0001127453 0.0002019271 -0.0541563225 0.8437882645
745295530.0 0.0833147344 -0.8389243049 -2.83264e-05 1.59048e-05 -1.64262e-05 -0.0001423956 -0.0454174842 0.843529614
750295500.0 0.075090784 -0.8394573378 -0.0001284263 0.0001859117 -0.0001274213 5.13856e-05 -0.0376076578 0.8442469976
755295470.0 0.0659143539 -0.8401790031 9.69864e-05 -6.01249e-05 0.0001211827 -0.0001823799 -0.0284882493 0.8439967227
760295440.0 0.057743323 -0.8402581441 5.74105e-05 7.52794e-05 -0.0001091967 0.0001064787 -0.0204900196 0.8441299229
765295410.0 0.0495494429 -0.8405877786 4.22144e-05 -0.0001329256 -4.86165e-05 -0.0001382451 -0.01194824 0.8446325717
770295380.0 0.0408744823 -0.8411298346 -0.0001377884 -2.07268e-05 -0.0001023315 0.0002705851 -0.0039014831 0.8438883783
775295350.0 0.0324591925 -0.8415065062 -0.0001726938 -3.56125e-05 6.7447e-06 3.85273e-05 0.0042324741 0.8438822555
780295320.0 0.024543697 -0.8413275551 -8.89731e-05 0.0002678798 0.0001228213 -6.96311e-05 0.0120725302 0.8438454179
785295290.0 0.0161484052 -0.8421991323 -3.35898e-05 -0.0003620235 -4.08755e-05 5.094e-05 0.0217511796 0.8432042179
790295260.0 0.0074567381 -0.8417565455 -2.28669e-05 6.845e-07 -0.0001524984 4.95123e-05 0.0303058268 0.8437118059
795295230.0 -0.000886841 -0.8413173447 9.59805e-05 -2.2431e-06 -0.0001645072 2.0764e-06 0.0388489979 0.8425304891
800295200.0 -0.0090966569 -0.8409170929 -9.17679e-05 -0.0002368248 1.69498e-05 0.0001611407 0.0473857377 0.8421037155
805295170.0 -0.0179892673 -0.8416190315 -4.50574e-05 2.03455e-05 0.0002105428 7.962e-05 0.0551350242 0.8419888994
810295140.0 -0.0259268448 -0.8405552361 0.0001117353 8.37258e-05 -3.97449e-05 2.95267e-05 0.063757214 0.8407269496
815295110.0 -0.0343940174 -0.8405944399 -3.11125e-05 0.0003014835 0.0001332629 0.0002014307 0.0723282462 0.8402743749
820295080.0 -0.0425977986 -0.840026989 -8.99334e-05 -5.86587e-05 -0.0001030603 -4.55308e-05 0.0805720177 0.8398667959
825295050.0 -0.0514355456 -0.8390638961 1.69579e-05 0.000244087 0.0001450485 -5.91528e-05 0.0889845499 0.8392448048
830295020.0 -0.0595619104 -0.838476112 -0.0001832848 -4.21942e-05 -0.0002027854 1.16087e-05 0.0984092354 0.8378663093
835294990.0 -0.0676556103 -0.8372651841 0.0002238928 -7.74813e-05 -1.8458e-06 -1.0525e-06 0.1056435271 0.837331696
840294960.0 -0.0760624459 -0.8367577051 -5.89896e-05 -7.1574e-06 -3.59069e-05 -7.0667e-06 0.1142501772 0.836034109
845294930.0 -0.0847043883 -0.8357172803 -0.0001863721 -6.68354e-05 -0.0003303667 -3.59932e-05 0.1222433454 0.8343836495
850294900.0 -0.0925619069 -0.8345709933 0.0001533617 0.000261528 -5.20695e-05 4.77327e-05 0.1305643873 0.8337431471
