!Created with skrf (http://scikit-rf.org).
# Hz S RI R 50.0 
!freq ReS11 ImS11 ReS21 ImS21 ReS12 ImS12 ReS22 ImS22
300000.0 -0.3159507726 -0.1241016432 0.3710485204 0.0643689242 0.3701681592 0.0620519313 -0.3138552285 -0.130367858
5299970.0 -0.324800445 0.0030550801 0.378195158 0.0033050704 0.3787275037 0.0033086394 -0.326001493 0.0019116428
10299940.0 -0.3226308063 0.014165167 0.3801122742 0.0027087828 0.3799038455 0.0028546393 -0.3235009787 0.0126390912
15299910.0 -0.3190541925 0.022440608 0.3819571933 0.0027277922 0.3825430328 0.0025425495 -0.3207671399 0.0200269686
20299880.0 -0.3154117497 0.0291247871 0.3849702286 0.0018515902 0.3852406385 0.0018836387 -0.3180306724 0.0260613042
25299850.0 -0.3116118114 0.0350542012 0.3885027224 0.000550524 0.3886668552 0.0004331358 -0.3149166714 0.0313540165
30299820.0 -0.3082406611 0.0394695256 0.3919552866 -0.0021485379 0.3918679403 -0.002401574 -0.3118011852 0.0359635523
35299790.0 -0.3044437811 0.043636178 0.3951992372 -0.0050643341 0.3954210688 -0.0050646645 -0.3092932988 0.0399222894
40299760.0 -0.3012484537 0.0469431536 0.3985327708 -0.0086405202 0.3982183406 -0.0086158227 -0.3063622455 0.043139555
45299730.0 -0.2979565906 0.0502390601 0.4014986201 -0.0123871852 0.4014793636 -0.0124796731 -0.3037838347 0.0466015329
50299700.0 -0.2947259509 0.0527254394 0.4039802626 -0.0171249446 0.4037872065 -0.0171155888 -0.3013894862 0.0497173033
55299670.0 -0.2924780018 0.055435172 0.4056749822 -0.0216065418 0.405901615 -0.0218346808 -0.2993006286 0.0524280602
60299640.0 -0.2897561182 0.0577626553 0.407860407 -0.0268448674 0.407802671 -0.0268664641 -0.2969653372 0.0546842529
65299610.0 -0.287556925 0.060130394 0.410053909 -0.0313774203 0.4098689468 -0.0314758818 -0.2950722049 0.0574705498
70299580.0 -0.2853993904 0.0618339309 0.4108964185 -0.0365453236 0.4110418829 -0.0368017288 -0.2937286208 0.0599025292
75299550.0 -0.2833195859 0.06441874 0.4115497649 -0.0422503254 0.4119455095 -0.0422763486 -0.2917849971 0.0624949913
80299520.0 -0.2815726793 0.066448 0.4127740912 -0.0472468818 0.4131128019 -0.0474414866 -0.290458148 0.0649066959
85299490.0 -0.2796874112 0.0683968468 0.4131493926 -0.0526460987 0.4136483781 -0.0524209939 -0.2891476844 0.0668903755
90299460.0 -0.2782846246 0.0707399085 0.4135758298 -0.0578981567 0.4135029335 -0.0577045509 -0.2875782337 0.0695445425
95299430.0 -0.2768821811 0.0724719597 0.4142184063 -0.0627427043 0.4143735226 -0.0629870422 -0.2865673187 0.0718192556
100299400.0 -0.2754191661 0.0749405921 0.4142186444 -0.0684353329 0.4140828623 -0.0680928371 -0.2854439364 0.0743517776
105299370.0 -0.2740348914 0.0765434301 0.4139220601 -0.0732311221 0.414217034 -0.0735695345 -0.2839413134 0.0763072183
110299340.0 -0.2727365662 0.0787308394 0.4137286166 -0.0781019854 0.4142141879 -0.0784538463 -0.2831058231 0.0785279308
115299310.0 -0.2716456389 0.0811648944 0.4135104101 -0.0835197209 0.4138727861 -0.0837234121 -0.2820177987 0.0812093352
120299280.0 -0.2705416358 0.0834192741 0.4131243441 -0.089101954 0.4130042992 -0.0892758837 -0.2811942612 0.0835712913
125299250.0 -0.269030875 0.0851687787 0.4125058153 -0.0937747486 0.4124409331 -0.0940309539 -0.2801708108 0.0859371101
130299220.0 -0.2681267212 0.0876219433 0.4120403472 -0.0991460202 0.4118832115 -0.0995731776 -0.2790147077 0.0882695457
135299190.0 -0.2671480185 0.0898919613 0.4113898199 -0.1037612461 0.4114018401 -0.104056446 -0.2782988525 0.0908078806
140299160.0 -0.2664213351 0.092263838 0.4106900803 -0.1089604519 0.410603196 -0.1087446047 -0.2778306712 0.0929439136
145299130.0 -0.2652065971 0.094561135 0.4095552867 -0.1137499041 0.4093672043 -0.1140588857 -0.2763903177 0.0958119562
150299100.0 -0.2641887202 0.096978868 0.4083114365 -0.119161742 0.4085720187 -0.1190795992 -0.2756752639 0.0985531387
155299070.0 -0.2631515109 0.0995049356 0.4068523593 -0.1237881548 0.4072649289 -0.1234981904 -0.2748311761 0.1009218171
160299040.0 -0.2622073838 0.1018661138 0.4062262159 -0.1287771998 0.4060945573 -0.1288658305 -0.2740019911 0.1037735919
165299010.0 -0.2609602272 0.1044082873 0.4048859664 -0.1332998285 0.4051050916 -0.1338152631 -0.2728503602 0.1059620941
170298980.0 -0.2600395648 0.1068494879 0.4031896584 -0.1382949908 0.4035116824 -0.1382140891 -0.2722042137 0.1085559526
175298950.0 -0.2592424945 0.1093558207 0.4022843512 -0.1431765982 0.4023364191 -0.1434449497 -0.2710703086 0.111414496
180298920.0 -0.2581382968 0.1118816739 0.4004551402 -0.1480441285 0.4007172459 -0.1481769463 -0.2697137416 0.1140941445
185298890.0 -0.2569515176 0.114450004 0.3993241129 -0.1526013889 0.3992419641 -0.1527018626 -0.2687906973 0.1164671633
190298860.0 -0.2557603259 0.1173722122 0.3973564537 -0.1576975295 0.3978987905 -0.157074144 -0.2677492563 0.1191965305
195298830.0 -0.2546538713 0.1196689021 0.3962817429 -0.1617549234 0.3959848949 -0.1618278578 -0.2669651722 0.1220100551
200298800.0 -0.253622145 0.1220462009 0.3944806276 -0.1668257979 0.3943497972 -0.1666935753 -0.2656604874 0.1246407769
205298770.0 -0.252892529 0.1248026866 0.3922523845 -0.1709334841 0.3924911472 -0.1711972876 -0.2644319279 0.1272305569
210298740.0 -0.2513700537 0.1273934181 0.3908014192 -0.1757436145 0.3904837068 -0.1753590203 -0.2638363236 0.1297994397
215298710.0 -0.2503832119 0.1298375149 0.388551779 -0.1797085369 0.3884664505 -0.1803030587 -0.2623404563 0.132658802
220298680.0 -0.2491141731 0.1327319685 0.3863436023 -0.1845439115 0.386656025 -0.1847264512 -0.2612073829 0.1352124585
225298650.0 -0.2476206227 0.1353059586 0.3843557928 -0.1887895038 0.3845783117 -0.1891677682 -0.2598871388 0.1381859478
230298620.0 -0.2463698748 0.1380383813 0.3826324457 -0.1935118756 0.3829136653 -0.1935744112 -0.2587382127 0.1404526176
235298590.0 -0.2453229954 0.1407602578 0.3805490426 -0.1980668544 0.3806946785 -0.1976874225 -0.2574367736 0.1432269955
240298560.0 -0.2442657442 0.1431127396 0.3781725913 -0.2018767281 0.3783138413 -0.2021672658 -0.2560436864 0.1458126579
245298530.0 -0.2426129437 0.1457471765 0.3760648668 -0.2065609928 0.3763557108 -0.2065855998 -0.254901797 0.1484347667
250298500.0 -0.2416051369 0.1482521445 0.3741759098 -0.211005714 0.3738579801 -0.2103957252 -0.2533997925 0.1513416713
255298470.0 -0.2402350513 0.1510937572 0.3717121209 -0.2148632372 0.3720844302 -0.215166672 -0.2520561233 0.1541523489
260298440.0 -0.2386272873 0.1535845637 0.3692424633 -0.21863819 0.3693305872 -0.2193747987 -0.2505154976 0.1568126509
265298410.0 -0.2373491929 0.1561723556 0.3667841396 -0.2234673698 0.3667396285 -0.2238125606 -0.2488716174 0.1593213909
270298380.0 -0.2358822581 0.1586428008 0.3640688987 -0.227489879 0.3643873188 -0.2276310015 -0.2474110368 0.1624706475
275298350.0 -0.2345402826 0.161551384 0.3614680414 -0.2317156763 0.3617794354 -0.2315707634 -0.2458759302 0.165320255
280298320.0 -0.2330295934 0.1640682925 0.359556138 -0.2352747988 0.3596728117 -0.2358082644 -0.2442679235 0.1676612016
285298290.0 -0.2314717959 0.166717145 0.3566666494 -0.2397725452 0.3571393722 -0.2393568777 -0.2429444777 0.170317141
290298260.0 -0.22994577 0.1693239896 0.3547463302 -0.2436363809 0.3542765094 -0.2438482564 -0.2408678119 0.1726467535
295298230.0 -0.2284223698 0.1714715418 0.3514050489 -0.2477761015 0.3518644276 -0.2479234655 -0.2394398699 0.1753969641
300298200.0 -0.2266711009 0.1746045293 0.3486874606 -0.2517242267 0.3491194271 -0.2517194674 -0.2378265958 0.1779488976
305298170.0 -0.2253628442 0.176668037 0.3461010584 -0.2556739641 0.3462622509 -0.2557936304 -0.2359176787 0.1803371718
310298140.0 -0.2231775578 0.1789552454 0.343060986 -0.2594974512 0.3433078486 -0.2595402514 -0.2338017791 0.1828788067
315298110.0 -0.2218536588 0.1813252728 0.340582316 -0.264040128 0.3406528453 -0.2639094632 -0.232360736 0.1855688878
320298080.0 -0.220004599 0.1838170975 0.3372889683 -0.2678886127 0.3378151347 -0.2675338323 -0.2307312779 0.1877301617
325298050.0 -0.2185737259 0.1856962394 0.3342676707 -0.2712052524 0.3347981705 -0.2712886091 -0.2284453412 0.1902401522
330298020.0 -0.2172024344 0.1885970726 0.3314311262 -0.275129114 0.3319699111 -0.2748209007 -0.2269534538 0.1925117782
335297990.0 -0.2152390843 0.1907882303 0.3282924088 -0.2787013967 0.3284184282 -0.2786839929 -0.2250147408 0.1954369934
340297960.0 -0.2139300553 0.1932642567 0.3249157151 -0.2824128883 0.3252580162 -0.2822099042 -0.2233204638 0.1978744134
345297930.0 -0.2117638616 0.1957935167 0.3217922352 -0.2864181944 0.3215595762 -0.2862095385 -0.2208719603 0.2004379348
350297900.0 -0.2101310911 0.1979218305 0.3189438979 -0.289117345 0.3192175988 -0.2892305256 -0.2194794219 0.2023771066
355297870.0 -0.20831847 0.2002005209 0.315556149 -0.2927742759 0.3154420092 -0.2925089987 -0.2169988877 0.2051392721
360297840.0 -0.2061956693 0.2025251599 0.3120617397 -0.2962530052 0.3123176958 -0.2966889534 -0.2148804216 0.2077860813
365297810.0 -0.2046141603 0.2052475523 0.3091525511 -0.2996755197 0.3091081055 -0.2996944595 -0.2134466359 0.2098546643
370297780.0 -0.2022841628 0.207191763 0.3052853369 -0.303075711 0.3061220185 -0.3031277794 -0.211332471 0.2125719297
375297750.0 -0.2005891408 0.2096985126 0.3023554655 -0.3063758978 0.3022559027 -0.3065607145 -0.2089149309 0.214946437
380297720.0 -0.1987963634 0.2120402051 0.2990573033 -0.3103128862 0.2987558769 -0.309749259 -0.2063977715 0.2171954718
385297690.0 -0.1966430469 0.2139513794 0.2952780546 -0.3129412844 0.2954059751 -0.3132657334 -0.2044009473 0.219679523
390297660.0 -0.1940428336 0.2160317977 0.2918552903 -0.3160262333 0.2921277655 -0.3161570507 -0.2021883352 0.2217345792
395297630.0 -0.1917533562 0.2186010583 0.2882714785 -0.3191243686 0.2882542926 -0.3192095418 -0.1996435025 0.2242589692
400297600.0 -0.190107182 0.2206813217 0.2850717643 -0.3225543136 0.285398379 -0.3223311072 -0.197915925 0.2265424376
405297570.0 -0.1880067261 0.2225084274 0.281356792 -0.3255444731 0.2814391868 -0.3256504196 -0.195041552 0.2291923346
410297540.0 -0.1852101712 0.2248174969 0.2778641604 -0.3285386272 0.2779573737 -0.3286708937 -0.1925880354 0.2313971091
415297510.0 -0.1834972611 0.2268320089 0.2740248916 -0.3317587211 0.2746221317 -0.3318564197 -0.1904337954 0.2334042297
420297480.0 -0.1813097857 0.2285872584 0.2701872589 -0.3344859712 0.2706867487 -0.33471242 -0.1877079816 0.2360874201
425297450.0 -0.1784875401 0.2305244844 0.2668618596 -0.3375606043 0.2666792563 -0.3375450787 -0.1856277701 0.2372581192
430297420.0 -0.176253436 0.232443009 0.2629969173 -0.3404768841 0.2632013109 -0.3402826201 -0.1826853306 0.2398448948
435297390.0 -0.1740904174 0.2344875916 0.2592205373 -0.3436873975 0.2593936883 -0.3434743165 -0.1810659751 0.2422675589
440297360.0 -0.1714684461 0.2365579352 0.2553534814 -0.3462886546 0.2556581849 -0.3463002229 -0.1782676687 0.2440656782
445297330.0 -0.169054517 0.2385392003 0.2514377167 -0.3489306125 0.2518460026 -0.349219864 -0.1755380557 0.246261937
450297300.0 -0.166534065 0.2403110255 0.2477098974 -0.3517604073 0.248502671 -0.351360092 -0.1727607827 0.247623062
455297270.0 -0.1645348475 0.2420255667 0.2444477337 -0.3543714154 0.2443064349 -0.3547180316 -0.1701132249 0.2501250729
460297240.0 -0.1615279065 0.2442025731 0.2403479158 -0.3574111842 0.2400186893 -0.3572540709 -0.1674965041 0.2518064606
465297210.0 -0.1589255861 0.2457905745 0.2359807915 -0.3597986694 0.2359499067 -0.3600420534 -0.1648150532 0.2542199317
470297180.0 -0.1564456632 0.247709956 0.2319444021 -0.3617692979 0.2321727692 -0.3622379732 -0.1620169437 0.2558613464
475297150.0 -0.1541048135 0.2496089167 0.2280403792 -0.3648109277 0.2281015125 -0.3646452174 -0.1595220094 0.2577245625
480297120.0 -0.1511860416 0.2512892011 0.22417651 -0.3670894532 0.2245559948 -0.366975505 -0.1571384045 0.2598138383
485297090.0 -0.1483325588 0.2527204266 0.21986848 -0.3696814477 0.2199142407 -0.3694398855 -0.1541921872 0.2613015228
490297060.0 -0.1453762742 0.254588023 0.2157214303 -0.372217623 0.2158077617 -0.3719986929 -0.1512714342 0.2631109257
495297030.0 -0.1429566184 0.256070195 0.2120260523 -0.3743711104 0.2118862366 -0.3742238516 -0.148549319 0.2646069036
500297000.0 -0.1404155176 0.2578999279 0.2076160078 -0.3761489143 0.2076905921 -0.3768419098 -0.1455513526 0.2670308679
505296970.0 -0.1368784367 0.2595438343 0.2033852911 -0.3788216515 0.203467409 -0.3786073193 -0.1427287694 0.2680086825
510296940.0 -0.1345132794 0.261129635 0.1992603223 -0.3813033024 0.1995735732 -0.3815458691 -0.1397476304 0.2703358184
515296910.0 -0.1318882663 0.2626425689 0.194854767 -0.3831331643 0.1949209656 -0.3829696997 -0.1371894087 0.271253363
520296880.0 -0.1289132595 0.2640545406 0.1909294175 -0.3849723819 0.1907516306 -0.385011745 -0.1338217489 0.2734443173
525296850.0 -0.1259633146 0.2656312592 0.1866906046 -0.3870664684 0.1863743224 -0.3871673757 -0.1311665429 0.2746631673
530296820.0 -0.1235066015 0.267084545 0.1823907856 -0.389243243 0.182491578 -0.3889404511 -0.1283724793 0.2757122091
535296790.0 -0.119871969 0.2685138535 0.1779278003 -0.3906876691 0.1781255608 -0.3910283171 -0.125564722 0.2778371471
540296760.0 -0.1168824387 0.270143689 0.1736708663 -0.3929460198 0.1734505574 -0.3928361753 -0.1222840291 0.2787038489
545296730.0 -0.1145314758 0.2716722882 0.1697451632 -0.3944445901 0.1692843891 -0.3946920953 -0.1195161211 0.2809762809
550296700.0 -0.1112260183 0.2727796947 0.165254003 -0.3967346973 0.1646475314 -0.3965474157 -0.1164910329 0.281706059
555296670.0 -0.1083977217 0.2744034025 0.1609360539 -0.3986169093 0.1606206084 -0.3981123417 -0.113657654 0.2829533109
560296640.0 -0.1048596257 0.2753400662 0.1560706193 -0.4000734566 0.1564434129 -0.4000683002 -0.1104588238 0.2846786175
565296610.0 -0.1025630034 0.2769056541 0.152328094 -0.4017273542 0.1521285138 -0.4013312605 -0.1074633308 0.2860096466
570296580.0 -0.0994683602 0.2782938577 0.1476507515 -0.4032391571 0.1473594914 -0.4034234197 -0.1044894133 0.2871251391
575296550.0 -0.0960535854 0.2791884634 0.1433097164 -0.4046336618 0.1430992644 -0.4046033434 -0.1013189797 0.2882513336
580296520.0 -0.0933345789 0.2809527427 0.1390002044 -0.4064211619 0.1386861469 -0.4062105399 -0.0985889958 0.2890696547
585296490.0 -0.0900576917 0.2820078418 0.1345729982 -0.4076640745 0.1336722351 -0.4077183572 -0.0950569692 0.290924541
590296460.0 -0.08668275 0.2828417423 0.1299049112 -0.4090553183 0.1300009245 -0.4090813354 -0.0922675967 0.2918678408
595296430.0 -0.08383157 0.2837464214 0.1250588621 -0.4103480004 0.125056109 -0.4104775087 -0.0890286122 0.2928416283
600296400.0 -0.0807298769 0.2852590212 0.1205665557 -0.4117709652 0.1202927164 -0.4118481618 -0.0860399738 0.2942211408
605296370.0 -0.0776638335 0.2863667408 0.1167013119 -0.4127429233 0.1160411915 -0.4130721488 -0.0828931967 0.2950456182
610296340.0 -0.0743475986 0.2876370771 0.1119585144 -0.4140021052 0.1118598078 -0.4140693531 -0.079888439 0.296182697
615296310.0 -0.071253041 0.2884087932 0.1073386755 -0.4154216657 0.1065671196 -0.4156702997 -0.0763126754 0.2973457119
620296280.0 -0.0684495138 0.2899170645 0.1027543957 -0.4164656447 0.1026472904 -0.4165565109 -0.0739038322 0.2982265505
625296250.0 -0.0658044895 0.2903690837 0.0983270005 -0.4174581828 0.0982091678 -0.4174452953 -0.0707173473 0.2988249771
630296220.0 -0.0622088918 0.2917402006 0.0934811545 -0.4185830276 0.0930541031 -0.4186580995 -0.0670295878 0.2998136507
635296190.0 -0.0591884962 0.2927511919 0.0890499836 -0.419149124 0.08904624 -0.4191225117 -0.0642345135 0.3006025928
640296160.0 -0.0560356774 0.2933345296 0.0843829379 -0.4204403955 0.0844441088 -0.4204782958 -0.0609024201 0.3013016372
645296130.0 -0.0526628468 0.2943624462 0.0800002597 -0.4210253291 0.0797325841 -0.4208915162 -0.0581250071 0.302166721
650296100.0 -0.0496552424 0.2950615363 0.0754963943 -0.4221569462 0.0749555269 -0.4220664222 -0.054485577 0.3028730107
655296070.0 -0.0467969559 0.2956867642 0.0706768114 -0.4229495306 0.070752806 -0.4223947502 -0.0519893113 0.3038042819
660296040.0 -0.0435870729 0.2964531487 0.0663604898 -0.423407264 0.0658915434 -0.4233776496 -0.0479236121 0.3042308324
665296010.0 -0.0403034849 0.2971736297 0.06137199 -0.4237849756 0.0612774294 -0.4237810961 -0.0450368743 0.3048045931
670295980.0 -0.0372710731 0.298020295 0.0569525176 -0.4248807519 0.0567819899 -0.4239865491 -0.0418927158 0.3049923373
675295950.0 -0.0341562905 0.2986050353 0.0523685909 -0.4249833593 0.0521878127 -0.4253780795 -0.0386298841 0.3064448799
680295920.0 -0.0314452066 0.2994058944 0.0477906435 -0.4255612213 0.0475832723 -0.4255285465 -0.0351400732 0.30629124
685295890.0 -0.027758583 0.3002155037 0.0427734315 -0.4259168594 0.0429018313 -0.4260047665 -0.0322917582 0.3072650842
690295860.0 -0.0248950972 0.300760934 0.0386901843 -0.4264544964 0.0382713517 -0.4265707875 -0.0290712279 0.3075945291
695295830.0 -0.0217635314 0.3008908779 0.0340158817 -0.4271339081 0.0337654769 -0.4267866427 -0.0259541344 0.3082838255
700295800.0 -0.0182351332 0.3015720438 0.029675864 -0.4271357439 0.0292533854 -0.4272706553 -0.0227905647 0.3085521747
705295770.0 -0.0155120392 0.3020521504 0.0245848308 -0.427588325 0.0244622387 -0.4272076161 -0.0194396866 0.3090441431
710295740.0 -0.0126226836 0.3023699575 0.0201938435 -0.4277169028 0.0196814282 -0.4280222285 -0.0159408627 0.3092765072
715295710.0 -0.009025876 0.3028575554 0.015399818 -0.42788416 0.0151828312 -0.428033881 -0.0126073814 0.3093437038
720295680.0 -0.0057248274 0.3029505063 0.0105659421 -0.4277871854 0.0105244667 -0.4282574716 -0.0094131436 0.3096902776
725295650.0 -0.0032936817 0.3037886717 0.0064346151 -0.4280703873 0.0062959504 -0.4282010886 -0.0064983501 0.3106542788
730295620.0 -0.0004606969 0.3039277448 0.0018397109 -0.4278170156 0.0012888342 -0.4277435132 -0.0031854879 0.3107824165
735295590.0 0.003040507 0.3040415427 -0.0029125267 -0.4280180007 -0.0031860411 -0.427813597 0.0001795043 0.3104095514
740295560.0 0.0059318857 0.3040728098 -0.0072291637 -0.4276285972 -0.0072561548 -0.4280731317 0.0031902051 0.3106474911
745295530.0 0.0092347652 0.3044692829 -0.0119616144 -0.4272892319 -0.0118583373 -0.4276967056 0.0063778715 0.3108325903
750295500.0 0.0120111547 0.3047014056 -0.0166148283 -0.4274006227 -0.0170091609 -0.4275492447 0.0099693553 0.3109598312
755295470.0 0.0152593469 0.3049283565 -0.0211995564 -0.4276381294 -0.0213529626 -0.4279072158 0.0130255655 0.3113562024
760295440.0 0.0182904382 0.3052208583 -0.0263060646 -0.4269942058 -0.0261753568 -0.4267533327 0.016553439 0.3106382514
765295410.0 0.0216759404 0.3043958331 -0.0304801687 -0.426542691 -0.0303958658 -0.4266051812 0.0196647233 0.310657634
770295380.0 0.0242586428 0.3051795206 -0.0348779228 -0.4259503019 -0.0351770322 -0.4265881867 0.0226346973 0.3108591794
775295350.0 0.027532686 0.305073057 -0.0395127128 -0.4260209505 -0.0395618271 -0.4255908114 0.0259215069 0.310938656
780295320.0 0.0307198357 0.3049463988 -0.0441228974 -0.4250411154 -0.0442969514 -0.4251905644 0.0292849061 0.3106977604
785295290.0 0.0335976262 0.3049130137 -0.0487909337 -0.4250508203 -0.0487996516 -0.4252516213 0.0320837701 0.3107791867
790295260.0 0.03649438 0.3042985327 -0.0531150793 -0.4243235363 -0.0534413645 -0.4246152401 0.0356162724 0.3106596359
795295230.0 0.0397311895 0.3042315677 -0.0582476415 -0.4238822603 -0.0581317238 -0.4237713973 0.0386827189 0.3098119735
800295200.0 0.042536411 0.3042639833 -0.0619393007 -0.4228902767 -0.0625801949 -0.4234363795 0.0421057312 0.3094866439
805295170.0 0.0459127939 0.3042898243 -0.0672407608 -0.4222479467 -0.0672431592 -0.4223778284 0.0456635902 0.3092122101
810295140.0 0.0489886766 0.3036274232 -0.0715562863 -0.4212501941 -0.0716984081 -0.4214222842 0.0492499778 0.308964976
815295110.0 0.0517550657 0.3034736356 -0.0758033194 -0.4206498576 -0.0760281005 -0.4207498135 0.0518876968 0.3085677929
820295080.0 0.0549146587 0.3030687621 -0.0801686213 -0.4193848183 -0.0801830248 -0.4201625493 0.0547188394 0.3087144026
825295050.0 0.0576410465 0.3025021926 -0.085182906 -0.418747932 -0.0851132097 -0.4190833537 0.058426848 0.3080387901
830295020.0 0.0608789913 0.3022270629 -0.0895219223 -0.4179080519 -0.0894712279 -0.4181314352 0.0615074851 0.3070421499
