!Created with skrf (http://scikit-rf.org).
# Hz S RI R 50.0 
!freq ReS11 ImS11 ReS21 ImS21 ReS12 ImS12 ReS22 ImS22
300000.0 -0.7774674175 -0.0965844487 -0.0009418351 0.0010041919 -0.0011979225 0.0006425833 -0.2134081674 -0.0816554196
5299970.0 -0.7848910257 -0.0053170549 -0.0001479742 -0.0001875087 -0.0001141435 4.29288e-05 -0.2147821023 0.0084502459
10299940.0 -0.7878828901 -0.0036093638 -6.7673e-05 7.75699e-05 -0.0001125228 8.41271e-05 -0.2111825347 0.0215089249
15299910.0 -0.793508737 -0.0016363524 -5.821e-07 -5.3517e-06 0.0001709738 0.0001054968 -0.2058570149 0.0312413629
20299880.0 -0.8002479482 0.0021599839 -0.0002119549 0.0001045039 6.08262e-05 -4.21476e-05 -0.199847822 0.0394126076
25299850.0 -0.8062692665 0.0079004008 9.95137e-05 0.0001656413 -0.000135281 -8.7106e-06 -0.1936008847 0.0455012523
30299820.0 -0.8122179919 0.0156007743 8.02934e-05 2.17819e-05 0.0002040222 -0.0003851036 -0.1870459218 0.0508819516
35299790.0 -0.817295034 0.024803673 8.47512e-05 4.32494e-05 8.41013e-05 4.2405e-06 -0.1807476319 0.0549619616
40299760.0 -0.8211617601 0.0341442602 3.99236e-05 0.000110215 -0.0001743373 5.647e-07 -0.1745006207 0.0577463437
45299730.0 -0.824609011 0.0432742186 0.000226741 -6.71109e-05 -8.70121e-05 3.4545e-05 -0.1695147158 0.0597854465
50299700.0 -0.8274279643 0.0531656765 -7.07574e-05 3.80662e-05 0.0001831721 -9.81813e-05 -0.1640456966 0.0611845151
55299670.0 -0.8290189193 0.0630662438 2.2766e-06 -3.51266e-05 0.0001029015 -3.9476e-05 -0.1597433154 0.0619027825
60299640.0 -0.8300291133 0.0734891613 -0.0001311948 8.4067e-06 -2.33971e-05 -1.64008e-05 -0.1549601281 0.0626755861
65299610.0 -0.8313348539 0.0834914286 0.0001616537 0.0002159678 9.22626e-05 8.29084e-05 -0.1514201909 0.0628627219
70299580.0 -0.8317672151 0.0940015958 7.85788e-05 -2.91459e-05 -0.0001056597 -1.45633e-05 -0.1483064537 0.0629682207
75299550.0 -0.83182422 0.1042128402 -8.61992e-05 0.0002878867 -8.69159e-05 2.31223e-05 -0.1446616872 0.0628065015
80299520.0 -0.8320792841 0.1134974814 -6.8e-07 -5.00082e-05 3.15661e-05 -1.54302e-05 -0.1422957038 0.0629597983
85299490.0 -0.8312223537 0.1225355656 4.3185e-05 -0.0001022738 8.83213e-05 0.000171106 -0.1394859413 0.0626847203
90299460.0 -0.8299224375 0.1319112464 -6.14602e-05 1.90362e-05 0.0001539822 -3.355e-07 -0.1369816853 0.061968163
95299430.0 -0.8296627169 0.1421722353 0.000134551 0.0001120964 0.0001902398 0.0001530404 -0.1348758851 0.0622452454
100299400.0 -0.8286257427 0.1510599407 -0.0001630251 0.0001265614 0.0001756804 -2.3557e-06 -0.1328545602 0.0619768035
105299370.0 -0.8268093797 0.1604907301 2.56027e-05 9.47177e-05 6.4123e-05 0.0001006873 -0.1307570489 0.0614792353
110299340.0 -0.8254376955 0.1695401516 -6.91287e-05 5.53371e-05 -6.95638e-05 -0.0001357789 -0.1294914721 0.061544254
115299310.0 -0.8236301111 0.1788268407 -0.0001689202 0.0002487044 0.0001116483 0.0001473197 -0.1280435111 0.0612520334
120299280.0 -0.8219740506 0.1867653246 4.71617e-05 0.0001193449 -0.0001114598 6.16492e-05 -0.1268432366 0.0610914101
125299250.0 -0.8203253 0.1958632297 4.48554e-05 5.45222e-05 3.7975e-05 0.0001866322 -0.1253962755 0.0606085143
130299220.0 -0.8185541899 0.2051371653 1.74974e-05 -4.27385e-05 -1.14788e-05 5.22638e-05 -0.124358455 0.0607670835
135299190.0 -0.8166979777 0.214393907 2.67269e-05 4.38916e-05 -3.81935e-05 -5.6982e-05 -0.1232841175 0.0610742039
140299160.0 -0.8148149978 0.2231268022 5.6191e-06 -5.51923e-05 7.63861e-05 0.0001274043 -0.1223597785 0.0611893033
145299130.0 -0.8126444287 0.232110592 6.22155e-05 -3.6263e-06 -3.76698e-05 0.000176219 -0.1213830994 0.061163309
150299100.0 -0.809867446 0.2410825843 -0.0001743213 -6.821e-05 -0.0001066122 -0.0001621995 -0.1208668537 0.0621305578
155299070.0 -0.8077139404 0.2502649262 -0.0001236902 -0.0001564194 -5.0782e-05 -7.75855e-05 -0.1198142033 0.0621824443
160299040.0 -0.8050351318 0.2580392071 7.83514e-05 -5.72911e-05 0.0001884347 -1.8761e-06 -0.1197020812 0.0626671539
165299010.0 -0.8024623096 0.266990636 0.00010604 6.62312e-05 -6.85066e-05 0.0001650493 -0.118784179 0.0627820049
170298980.0 -0.8003080442 0.2753051077 -8.70319e-05 7.09146e-05 -0.0001014649 7.1823e-05 -0.1181505357 0.0636954726
175298950.0 -0.7971975049 0.2846324212 6.43545e-05 -2.99216e-05 -4.33664e-05 3.66278e-05 -0.117626912 0.0639647805
180298920.0 -0.7948839393 0.2928420725 -7.15771e-05 0.0002598896 -7.18252e-05 -7.68757e-05 -0.1169065661 0.064490458
185298890.0 -0.791067451 0.3009843255 0.0001490016 5.60312e-05 4.40484e-05 1.46833e-05 -0.1164395751 0.0651526134
190298860.0 -0.7883143274 0.309914688 3.88927e-05 4.38872e-05 2.29979e-05 -0.0001634993 -0.1158278374 0.0659248889
195298830.0 -0.7852467019 0.3183925681 -5.43574e-05 9.08013e-05 2.60274e-05 0.0001971346 -0.1155598353 0.0663271059
200298800.0 -0.7810847993 0.3262896804 1.19597e-05 7.53663e-05 0.0001365271 -0.0001650382 -0.1154163111 0.0670976373
205298770.0 -0.7785571372 0.3345686579 -0.0001374648 6.91862e-05 9.85815e-05 0.0001828642 -0.1144535027 0.0674369787
210298740.0 -0.7746420034 0.3423825403 8.22407e-05 6.81958e-05 0.0001553807 -4.8861e-06 -0.1142501696 0.0681485168
215298710.0 -0.7711038388 0.3511743748 0.0001638324 5.78136e-05 -2.835e-05 -0.0001108126 -0.1140332272 0.0687027674
220298680.0 -0.7675661522 0.358998204 -5.05388e-05 0.0001478108 0.0002455942 6.91481e-05 -0.1139027875 0.0691952288
225298650.0 -0.7638191254 0.3667620928 0.0002940776 0.0002423209 0.0001210549 -3.42728e-05 -0.1133087664 0.070230346
230298620.0 -0.7605942635 0.3747956975 -2.79001e-05 0.0001277389 -2.62679e-05 4.97185e-05 -0.1129471239 0.0713091352
235298590.0 -0.7559657806 0.3835420805 0.0003210964 0.0001984637 2.98377e-05 -8.31699e-05 -0.1124710789 0.0716577312
240298560.0 -0.7523071469 0.390911479 0.000206829 -1.01495e-05 7.29307e-05 0.000159532 -0.1118315133 0.072667175
245298530.0 -0.7487389826 0.3988808458 -3.784e-07 -0.0001154231 -6.7975e-05 6.20153e-05 -0.1115466153 0.073110615
250298500.0 -0.7438847096 0.4065914667 0.0002215816 -8.10553e-05 7.40711e-05 1.01042e-05 -0.1113476329 0.0735826315
255298470.0 -0.7397227365 0.4141400674 0.0001316146 -0.0001372422 7.37068e-05 0.0001192843 -0.1104859261 0.0744067035
260298440.0 -0.7356678063 0.4218744186 0.0001450711 7.30854e-05 -0.0001149846 3.47596e-05 -0.1099494686 0.0753304592
265298410.0 -0.7311883411 0.4300197053 7.7493e-05 -0.0001263751 0.0001257029 6.88694e-05 -0.1096165186 0.0762812359
270298380.0 -0.7270450845 0.4376280972 0.0001130384 0.0001207977 4.31156e-05 0.00027115 -0.1093255512 0.0771473478
275298350.0 -0.7219580818 0.4450472622 -8.08855e-05 3.10187e-05 0.0001587332 0.0002629088 -0.1084895141 0.0782253063
280298320.0 -0.7166477352 0.4528277551 1.36352e-05 7.37679e-05 0.000111023 7.02857e-05 -0.1078006951 0.0784859867
285298290.0 -0.7127001989 0.4598717775 2.74018e-05 3.81749e-05 8.37288e-05 5.24675e-05 -0.1073201373 0.0795266323
290298260.0 -0.7077485692 0.4677988188 3.81186e-05 -4.81043e-05 0.0001013833 -9.14194e-05 -0.1066030569 0.080631121
295298230.0 -0.7024057502 0.4746897191 -5.25952e-05 8.32415e-05 0.0002380673 3.64072e-05 -0.1058730694 0.0813732391
300298200.0 -0.6980014796 0.4821456462 0.0002716299 -4.17016e-05 2.51069e-05 0.0001019473 -0.105199109 0.0823570985
305298170.0 -0.6923025024 0.4885905642 0.0001717274 8.29218e-05 2.4406e-05 0.0002253538 -0.104168108 0.0829855142
310298140.0 -0.6874989601 0.4963552052 0.0001475567 0.0002285619 7.3565e-06 -1.1791e-05 -0.1041818113 0.0838036479
315298110.0 -0.6823736289 0.5034556626 -4.0838e-06 0.0001672051 0.0001038323 0.0002360894 -0.1033632404 0.0848587026
320298080.0 -0.6773937482 0.5105270708 -0.0001774248 0.0001652612 0.0001085072 5.02279e-05 -0.10260992 0.0858147075
325298050.0 -0.6722023836 0.5174353564 2.93032e-05 -7.30665e-05 0.0001411648 0.0001289698 -0.1020921901 0.0866949315
330298020.0 -0.6662317076 0.5236811069 3.51224e-05 3.69717e-05 1.40873e-05 0.000119505 -0.1018675045 0.0876656818
335297990.0 -0.6607844619 0.5310671532 4.17328e-05 9.3216e-05 0.0001814571 9.52993e-05 -0.1013009353 0.0890480273
340297960.0 -0.6556806325 0.5376716104 0.0001398819 0.0002697556 1.02812e-05 -0.0001124904 -0.1001541721 0.09018278
345297930.0 -0.6500252438 0.54437133 5.92627e-05 -1.17941e-05 9.06881e-05 0.0001168597 -0.1001908334 0.0912209592
350297900.0 -0.6443199844 0.551666919 -0.0001009381 7.21404e-05 -6.68228e-05 9.57847e-05 -0.0992252291 0.0923795579
355297870.0 -0.6376393947 0.5577820331 0.0001459118 0.000146341 -7.29172e-05 7.4495e-05 -0.0990256611 0.0932157198
360297840.0 -0.6321946954 0.5636633194 0.0001034179 0.000362322 0.0002201105 0.0002724763 -0.0982060452 0.0942961495
365297810.0 -0.6271436056 0.5702779925 4.7677e-06 -1.8204e-05 -3.71275e-05 -5.79429e-05 -0.0975496935 0.0951925008
370297780.0 -0.6206113837 0.5765571449 0.0001760428 0.0001151985 0.0001108187 9.95495e-05 -0.0964510845 0.0966560028
375297750.0 -0.6142324395 0.5833471603 0.0002308725 2.32289e-05 0.0002773374 7.54932e-05 -0.096147422 0.0972730502
380297720.0 -0.6079291447 0.5895497074 6.8429e-06 -1.1925e-05 0.0001489042 0.0002056637 -0.0957098513 0.0986422549
385297690.0 -0.6027296752 0.5953340978 7.85711e-05 5.09154e-05 -4.75042e-05 0.0002107068 -0.0947510018 0.0995153506
390297660.0 -0.5967794831 0.6013237157 8.55444e-05 0.0002554948 3.28105e-05 -6.20809e-05 -0.0941608625 0.1008459631
395297630.0 -0.5901832609 0.6077868268 0.0002150275 -0.0002778689 0.0002104054 0.0001268235 -0.0929805131 0.1016214227
400297600.0 -0.5837934987 0.6143104795 0.0001435239 1.5682e-05 0.0001697647 8.34416e-05 -0.0925199374 0.1024899208
405297570.0 -0.5779825105 0.6196857043 8.32339e-05 0.0001517604 0.0002316257 2.12819e-05 -0.0919193425 0.1036782457
410297540.0 -0.570728575 0.6255884586 6.82217e-05 -5.55072e-05 0.000241405 0.0001839703 -0.0905267566 0.104824033
415297510.0 -0.5643550338 0.6309005691 6.52327e-05 0.0001440786 0.0001218735 -1.1046e-05 -0.0903023784 0.1053440562
420297480.0 -0.5584435478 0.6370079354 8.87831e-05 0.0002050129 0.0001739804 4.45744e-05 -0.0894641447 0.1065224769
425297450.0 -0.5515840132 0.642463558 0.0002211839 -4.39895e-05 0.0003815149 6.62024e-05 -0.0884396138 0.1073684652
430297420.0 -0.5446858507 0.64845716 0.0001606738 0.0002229368 0.0002308354 -4.91261e-05 -0.0879155329 0.1082343861
435297390.0 -0.5385864022 0.653028761 0.0002066335 0.0001104519 0.0002970514 2.58326e-05 -0.0866930823 0.1093211324
440297360.0 -0.5311933645 0.6594203864 6.28709e-05 0.0002585886 0.0003061359 2.64996e-05 -0.0859336102 0.1100472508
445297330.0 -0.5245172401 0.6644858003 0.0001386959 0.0002916923 -4.3806e-05 0.0001524848 -0.0851756003 0.1105958989
450297300.0 -0.5175966318 0.66944394 0.0001892626 7.32884e-05 0.0001676264 -7.11391e-05 -0.0842297089 0.1118532071
455297270.0 -0.5112719304 0.6745212403 0.0002287304 9.8826e-05 0.0001357879 2.98008e-05 -0.0831516716 0.1124743479
460297240.0 -0.5048541875 0.6797593882 0.000119592 0.0001308594 9.04122e-05 -1.38059e-05 -0.0820765431 0.1137610629
465297210.0 -0.4976301677 0.6848647607 0.0002582515 4.76076e-05 0.0002024204 -4.71132e-05 -0.0807486862 0.1143033256
470297180.0 -0.4898033615 0.689848956 0.0001107619 0.0001757533 0.0003367344 -4.55963e-05 -0.0797097724 0.1153565444
475297150.0 -0.4832234707 0.6942347007 0.0002103332 -0.0001054404 0.0002128918 0.0001460268 -0.0788843005 0.1163515219
480297120.0 -0.4760066761 0.6991463478 -6.05247e-05 6.6353e-06 0.000131181 -9.27016e-05 -0.0775595547 0.117090538
485297090.0 -0.468492835 0.7043104349 0.0002027648 0.0001230907 0.0001775268 3.45723e-05 -0.0762761618 0.1184583799
490297060.0 -0.4616223329 0.7086821088 0.0003875904 6.2688e-05 0.0001344438 0.0001475969 -0.0755250627 0.1189156165
495297030.0 -0.4546540418 0.713573179 0.0001891996 -8.0195e-06 0.0002893464 2.41711e-05 -0.0745755996 0.1201647411
500297000.0 -0.4471957336 0.7183674765 0.0001760332 0.0001135459 0.0002279796 -0.0001434297 -0.0734913525 0.1211329604
505296970.0 -0.4393678185 0.7223775091 0.0002653784 4.58932e-05 0.0001183324 0.0001220501 -0.07252712 0.1220437193
510296940.0 -0.4325663323 0.7267560184 -2.89857e-05 -8.50037e-05 0.0001160194 -5.27801e-05 -0.071443395 0.1226323254
515296910.0 -0.4244405315 0.7306369771 6.54971e-05 -0.000104665 0.000220349 -6.18434e-05 -0.07015832 0.1238113641
520296880.0 -0.4180615623 0.7358171321 0.0002733484 0.0001418216 0.0003488647 -9.7161e-06 -0.0690044869 0.1244569451
525296850.0 -0.4100007754 0.738702678 4.20805e-05 0.0002084691 0.000141729 0.0001120748 -0.0679605825 0.1255616022
530296820.0 -0.4021728766 0.7431878386 0.0001867909 0.0002328567 0.0001372758 3.89463e-05 -0.0669776125 0.1263825682
535296790.0 -0.3954523184 0.7471444732 0.0002039628 0.0002041768 0.0002130095 5.9542e-06 -0.0660314491 0.1271073139
540296760.0 -0.3872978085 0.7511499584 0.0003732804 -0.0001127229 0.0001714967 -7.5423e-05 -0.0646646946 0.1280709698
545296730.0 -0.3805522195 0.7561223465 0.0001237717 0.000211168 0.000119031 -7.49047e-05 -0.0640048391 0.128790647
550296700.0 -0.3732854833 0.7590077681 0.0001263614 0.0001209205 0.0002742734 4.31096e-05 -0.0626244511 0.129663976
555296670.0 -0.3640615289 0.7617845384 1.83572e-05 -7.68163e-05 0.0002981166 0.0001339612 -0.061796857 0.1307336153
560296640.0 -0.3571640801 0.7661024463 0.0001884775 -0.0001460443 5.97078e-05 3.4372e-06 -0.0602742776 0.1314254014
565296610.0 -0.3490998906 0.7697229225 0.0001889147 -0.0001393178 0.0002977262 2.14894e-05 -0.0593304958 0.1320582883
570296580.0 -0.341667482 0.7725718038 1.72925e-05 -9.79827e-05 8.82733e-05 9.7654e-05 -0.0582147305 0.1328883557
575296550.0 -0.3340198967 0.7764540161 0.0002048554 -7.64798e-05 0.0002338152 -7.98577e-05 -0.0572126659 0.1335098735
580296520.0 -0.3255788507 0.7798050456 0.000172207 9.28894e-05 4.62619e-05 0.0001184657 -0.0559064778 0.1344349584
585296490.0 -0.3180039222 0.7826163849 0.0004884696 0.0002556241 0.0002625563 3.4274e-06 -0.0547629594 0.1352624194
590296460.0 -0.3102140693 0.7858660972 0.0002081366 -0.0001048421 0.0002495428 0.0001081904 -0.0540007979 0.1358713435
595296430.0 -0.3028346767 0.7884408654 9.86156e-05 4.73645e-05 0.0003195827 5.30368e-05 -0.0522208003 0.1360144553
600296400.0 -0.2942484509 0.7922818626 0.0004034296 2.6542e-05 4.01464e-05 -1.09441e-05 -0.0511673436 0.1366430078
605296370.0 -0.2870176741 0.7944643248 3.1713e-06 -0.0002591167 0.0003282476 0.0001711861 -0.0498470714 0.1371470124
610296340.0 -0.2780486223 0.7972835415 2.02946e-05 0.000231288 0.0002778384 2.465e-06 -0.0486136065 0.1381585899
615296310.0 -0.2694894277 0.8001005922 0.000212177 0.0001692296 0.0001246202 0.0001679593 -0.046994932 0.1385221745
620296280.0 -0.2622903792 0.8024521994 0.0002589722 8.23306e-05 0.0003349904 -0.0001330556 -0.0464509483 0.1393626287
625296250.0 -0.2548084529 0.8052751183 6.90007e-05 -5.6971e-05 0.000301319 3.42114e-05 -0.044439523 0.1397669529
630296220.0 -0.2455090998 0.8075083678 0.0001562757 5.03512e-05 0.0002757926 0.0002056011 -0.0435281529 0.1404128765
635296190.0 -0.2381031432 0.8101601358 2.11874e-05 -8.00882e-05 0.0002709456 0.0001681886 -0.041842295 0.1410741478
640296160.0 -0.2303396991 0.8121915187 8.67375e-05 -0.0001525252 7.6401e-05 0.0001128485 -0.040576534 0.1415929504
645296130.0 -0.2219037569 0.8150249824 0.0004489143 2.97104e-05 0.0001446268 -5.222e-06 -0.0393028547 0.1421861367
650296100.0 -0.2137424025 0.8164400812 0.0003929559 -3.16976e-05 0.0003468004 -0.0001174343 -0.0379224265 0.1427148808
655296070.0 -0.2059520145 0.8193472532 0.0004058759 0.0002431787 0.0001218356 0.0001008872 -0.0364875356 0.1431011076
660296040.0 -0.1977667348 0.8203270149 0.0003656139 4.59487e-05 0.0004682933 -0.0001180628 -0.0349927588 0.1437953043
665296010.0 -0.1890836834 0.8222123847 0.0001819265 -8.7542e-06 0.0001303942 5.66164e-05 -0.0332795994 0.1445015216
670295980.0 -0.1811807308 0.8243797439 8.3758e-05 0.0002126257 0.0001589231 0.0002764788 -0.0323940722 0.1451974807
675295950.0 -0.1732122034 0.8261564198 -0.00016366 -5.84066e-05 0.0002798185 -9.11216e-05 -0.0311216289 0.1458710754
680295920.0 -0.1646251685 0.8280538688 0.0001314581 -8.45044e-05 0.0003332656 -1.4853e-05 -0.0295927086 0.1467096413
685295890.0 -0.1564368446 0.8302967143 0.0001152708 7.6775e-05 0.0002144891 -2.9918e-06 -0.028258307 0.1470876628
690295860.0 -0.1481630774 0.8305946636 9.89331e-05 -1.26403e-05 9.40961e-05 -2.6354e-05 -0.0268587375 0.1476109731
695295830.0 -0.1399739846 0.8318943413 0.0002678482 -9.45334e-05 0.0002112889 -5.38873e-05 -0.0254986802 0.1480124763
700295800.0 -0.1305214382 0.8330330549 0.0003825475 -0.0001170142 0.0004068992 -0.0001196645 -0.0242408277 0.1484653767
705295770.0 -0.1237560559 0.8356962363 0.0003188075 0.000154379 0.0001063612 -0.0001566962 -0.0229118926 0.1495852718
710295740.0 -0.1148282254 0.8362212698 0.0001458956 -0.0002275171 2.11922e-05 0.0001126214 -0.0214287768 0.1493905655
715295710.0 -0.1063312702 0.8371670871 0.0001305799 0.0002654604 0.0001656936 -4.11214e-05 -0.020125538 0.1499041894
720295680.0 -0.0986868024 0.8386029912 0.0001753675 -0.0001012451 0.0005088831 0.0001658372 -0.018487311 0.1505197716
725295650.0 -0.0894696097 0.8393603593 0.0002308504 -4.7816e-05 0.0003510429 -0.0001184563 -0.0177357959 0.1512132926
730295620.0 -0.0817819291 0.8400820822 0.00021297 -1.73601e-05 0.0001784506 3.70566e-05 -0.0165510571 0.1510865131
735295590.0 -0.0734921398 0.8411456141 0.0001370459 -0.0001195161 0.0001731331 9.57069e-05 -0.0151395579 0.1514523153
740295560.0 -0.0647724753 0.8415580294 2.28307e-05 -0.0002929715 0.000487316 -0.0001839572 -0.0132078563 0.1516997626
745295530.0 -0.0571038426 0.84236684 3.50696e-05 -0.0002743581 0.0001780412 4.80544e-05 -0.0118005425 0.1521870597
750295500.0 -0.048113671 0.842418405 0.0003786987 4.99529e-05 0.0002729607 -4.74713e-05 -0.0107137984 0.1529005671
755295470.0 -0.0400132734 0.8431274993 0.0001889212 0.0001426469 0.0001567463 -0.0001492326 -0.0093669478 0.1524404426
760295440.0 -0.0321408 0.8436553117 0.0003839974 -8.59711e-05 0.000217907 -0.0001428663 -0.0078123973 0.1528110806
765295410.0 -0.023498966 0.8438375142 0.0002593868 -3.972e-06 0.000152666 -1.00548e-05 -0.0064761063 0.1531401745
770295380.0 -0.0154666205 0.8441425912 0.0002466822 -0.0001574597 0.0002846862 -2.53676e-05 -0.0052036797 0.153054721
775295350.0 -0.0070125333 0.8438836675 0.0002211562 -4.27901e-05 5.73056e-05 0.0001101793 -0.0039613208 0.1535154082
780295320.0 0.001512451 0.8442787843 0.0001786524 0.0001989974 0.0001721186 -8.6468e-05 -0.0022978491 0.1536354224
785295290.0 0.0098758196 0.8431389846 0.0004255332 -0.0003263971 0.0001576185 -0.000117455 -0.0004692427 0.1538187172
790295260.0 0.0186602147 0.8436533762 0.0003288688 -4.87777e-05 0.0002442554 -0.0001430034 0.0012090464 0.1541621851
795295230.0 0.0262202462 0.8433643013 0.0001825482 -3.45966e-05 0.0002909075 -0.0001117419 0.0026386774 0.1538952015
800295200.0 0.0346887159 0.8427035256 0.0002576926 -4.36859e-05 0.0002112865 1.44406e-05 0.0040251607 0.1543648713
805295170.0 0.0435354508 0.8427927044 8.49731e-05 -0.0002091198 0.000314955 -0.000121347 0.0057298549 0.1547191862
810295140.0 0.0514826473 0.8419527892 0.0002521144 -8.6494e-05 0.0003143918 -3.41383e-05 0.0074925874 0.1545712933
815295110.0 0.0598443678 0.8418139149 0.0003377563 2.789e-05 8.82439e-05 -0.0002286063 0.0085838263 0.1547952697
820295080.0 0.0678296125 0.8411692947 0.0003300819 -0.0001826631 0.0003129656 -8.52935e-05 0.0101894377 0.1549642895
825295050.0 0.0773518823 0.839774983 0.0001419254 -0.0001074973 0.0001706863 -0.0002073139 0.0118425683 0.1552097731
830295020.0 0.0845028291 0.8396441623 0.0001542075 0.0002535328 0.0002444023 -8.4228e-06 0.0136114077 0.1551205994
835294990.0 0.0926838532 0.8392664863 0.0002367573 -3.6748e-05 0.0002322483 2.22527e-05 0.0146819065 0.1553587383
840294960.0 0.1008616964 0.8380261861 0.0001857587 -5.14511e-05 0.0004063333 -6.46635e-05 0.0163135044 0.1550905676
845294930.0 0.1091055737 0.836335981 0.0002157579 -4.15642e-05 0.000323401 -0.000141874 0.01786797 0.1554487692
850294900.0 0.1176239384 0.8354579122 0.0003312246 -0.0002314074 0.0002867425 1.04412e-05 0.0192185936 0.1555540198
