!Created with skrf (http://scikit-rf.org).
# Hz S RI R 50.0 
!freq ReS11 ImS11 ReS21 ImS21 ReS12 ImS12 ReS22 ImS22
300000.0 0.8606910173 -0.0010831642 0.0003606561 0.000379231 -7.57928e-05 0.0001550825 -0.7640159316 -0.1879199505
5299970.0 0.8600249218 -0.0098735981 1.48888e-05 -1.40381e-05 0.0001511434 -2.42085e-05 -0.7853571214 -0.008958442
10299940.0 0.8586722 -0.0188317123 0.0001211415 -0.0002634112 -8.53801e-05 5.05015e-05 -0.7878431965 -0.0051719783
15299910.0 0.8573177695 -0.027037529 3.86578e-05 0.0001414178 9.56429e-05 -0.0002038545 -0.7931172005 -0.0031498104
20299880.0 0.8569480576 -0.0352950967 1.1808e-06 0.0002265892 -8.71496e-05 5.99794e-05 -0.799676935 0.0015489513
25299850.0 0.8564982079 -0.0442117855 -0.0002117112 -0.0002136111 -8.53222e-05 5.81704e-05 -0.8064327093 0.0078303727
30299820.0 0.8555566309 -0.0522419952 1.02598e-05 -2.4406e-06 -3.02457e-05 -9.75703e-05 -0.8120546785 0.0154329437
35299790.0 0.8545823957 -0.0603621144 6.4624e-06 0.0001456979 0.0001896076 7.05547e-05 -0.8171715858 0.0247523022
40299760.0 0.8543780103 -0.0684475796 0.0002509433 -4.32468e-05 0.0001178938 -0.000139036 -0.8209341816 0.0337024136
45299730.0 0.8534596579 -0.0764368877 8.77812e-05 -6.77089e-05 4.71494e-05 -7.69552e-05 -0.8242812961 0.0439552217
50299700.0 0.8529708272 -0.0843570676 -0.0001918175 8.4394e-06 0.0001302509 -9.20778e-05 -0.8268497568 0.0541360466
55299670.0 0.8520638364 -0.0923218667 -0.000226779 -0.0001282925 -0.000107471 5.08205e-05 -0.8288307036 0.0638390248
60299640.0 0.8506759778 -0.1017232253 0.000119585 -2.1912e-05 0.0001608609 3.56761e-05 -0.8294697823 0.0739077651
65299610.0 0.8502734819 -0.1093337625 0.0002059746 5.95087e-05 -3.6258e-06 1.51783e-05 -0.8305607036 0.08381971
70299580.0 0.8489592315 -0.1169442476 -0.0001840748 -0.0002319693 -0.0001879476 0.0001919556 -0.8313346661 0.0941204833
75299550.0 0.8477100809 -0.1254193628 7.20716e-05 8.1516e-06 8.932e-07 -0.0001801907 -0.8310476977 0.1040068115
80299520.0 0.8462889581 -0.1334295023 8.13623e-05 0.0001667007 -7.39666e-05 3.4957e-05 -0.8307702148 0.1141302245
85299490.0 0.8453382038 -0.1413986513 -3.20225e-05 -0.0001585176 6.3477e-06 4.2373e-05 -0.8302720895 0.123626302
90299460.0 0.8440779633 -0.1505397433 -8.52481e-05 -5.64061e-05 -0.0001748381 6.42769e-05 -0.829192217 0.1326972733
95299430.0 0.8422691465 -0.1577977509 -1.68779e-05 0.0001649752 -3.453e-07 -5.3582e-05 -0.8285523042 0.1427955284
100299400.0 0.8409153912 -0.1663512628 -1.64357e-05 -0.0001381046 -0.0001383237 1.94615e-05 -0.8271107528 0.1517996313
105299370.0 0.8391919203 -0.1745762608 -9.995e-07 0.0001347296 0.0001239732 -7.2778e-06 -0.8260272913 0.160920094
110299340.0 0.8376334937 -0.1828418938 -0.0001825605 -8.68431e-05 -0.000221102 0.0002140108 -0.8245798525 0.1701211178
115299310.0 0.8357056504 -0.1907993442 -0.0002063903 -1.34383e-05 -5.43203e-05 -2.99733e-05 -0.82333201 0.1792804541
120299280.0 0.8339000783 -0.1989041214 -0.0001082832 -0.0001714929 -4.02063e-05 0.0002334639 -0.8209060081 0.1880968074
125299250.0 0.8318332678 -0.2065939205 0.0001604315 0.0001086211 0.0001032791 6.94361e-05 -0.8200736687 0.1968816314
130299220.0 0.8299100335 -0.2144662223 -2.36819e-05 -0.0001523274 -5.73238e-05 9.25327e-05 -0.8180562348 0.2063565553
135299190.0 0.828043004 -0.2230049582 -1.6014e-06 -7.03679e-05 9.9363e-06 -6.97648e-05 -0.8158954932 0.2150525568
140299160.0 0.8256497282 -0.2300108216 9.535e-06 -8.12152e-05 0.0002236606 -0.0001082631 -0.8141788638 0.2232000832
145299130.0 0.8232537109 -0.2380735529 0.0002113598 -4.26719e-05 -0.0001201251 1.92362e-05 -0.812126344 0.23267621
150299100.0 0.8207444604 -0.245713849 2.35053e-05 0.0001248587 2.41994e-05 -0.000236793 -0.8098720648 0.241603018
155299070.0 0.818553954 -0.2541085716 3.50426e-05 0.0001094426 0.0001211795 5.17028e-05 -0.8073885639 0.2502939792
160299040.0 0.8162510961 -0.2618487629 -0.0003168228 8.4668e-05 -3.26633e-05 -8.85141e-05 -0.804939599 0.2595151036
165299010.0 0.8136898013 -0.2699019413 0.0001305385 6.36185e-05 -1.96773e-05 -3.79154e-05 -0.8020541737 0.2671436731
170298980.0 0.8112855965 -0.277497599 -2.64767e-05 0.0001206039 -0.0001063301 4.38632e-05 -0.7995316103 0.2758799552
175298950.0 0.8092482157 -0.2854043021 0.0001313363 0.0001034295 -6.52239e-05 -5.93669e-05 -0.7964624788 0.2846083894
180298920.0 0.8060414768 -0.2931174349 4.94561e-05 2.75324e-05 4.26056e-05 -0.0001339951 -0.7933864131 0.2933566188
185298890.0 0.8025655891 -0.3010143236 5.3709e-06 -1.8619e-06 -0.0001632045 -2.53177e-05 -0.7906334878 0.3019160122
190298860.0 0.7997609785 -0.3085813715 4.21253e-05 0.0001142963 -0.000105947 -0.0001118473 -0.7875388829 0.3098924547
195298830.0 0.7965929112 -0.3159555792 0.0001485722 -0.0002212773 1.3281e-05 0.0001142333 -0.7841626492 0.3180238145
200298800.0 0.7937693659 -0.323252007 -0.0001209956 -3.30449e-05 0.0002594837 -0.0001695346 -0.7810291184 0.3265605498
205298770.0 0.7906223308 -0.3319462299 0.0001678766 -1.05809e-05 -6.71231e-05 0.0001156867 -0.7776994649 0.3351338721
210298740.0 0.7876402354 -0.3389207707 -7.67921e-05 -3.59301e-05 5.29449e-05 -0.0001802453 -0.7739036276 0.3432610479
215298710.0 0.7843141786 -0.3468830117 0.000108127 0.0002004781 -1.6802e-06 -2.00662e-05 -0.7705231238 0.3518792111
220298680.0 0.7811895114 -0.353675405 2.47038e-05 2.50252e-05 9.4086e-06 -0.0001754237 -0.7668366829 0.3592090021
225298650.0 0.7778072088 -0.3617328433 -5.39754e-05 -3.90906e-05 0.0003361405 0.0001458048 -0.7633342719 0.3681288156
230298620.0 0.7734304463 -0.3688530605 -7.33623e-05 -2.8811e-06 0.000142416 7.73556e-05 -0.7589458142 0.3755059679
235298590.0 0.7701972155 -0.3758297175 -0.0002156083 -4.0763e-06 7.33495e-05 -0.000135007 -0.7553238379 0.3836850457
240298560.0 0.766587679 -0.3832449304 -0.0002027722 7.8541e-05 0.0001103693 -6.36264e-05 -0.7514476742 0.3907221222
245298530.0 0.7622251309 -0.3917552597 0.0001004439 4.33362e-05 5.55223e-05 5.01775e-05 -0.7477154511 0.3991344522
250298500.0 0.7591140765 -0.3982220777 -2.87555e-05 -1.89749e-05 -8.02221e-05 -6.50428e-05 -0.7431050169 0.4067859178
255298470.0 0.7548984487 -0.4047386041 0.0001587014 -2.42634e-05 -0.0001927734 6.45894e-05 -0.7388068623 0.4143829684
260298440.0 0.7518683915 -0.4124366129 0.0001908342 3.3786e-06 -1.24438e-05 9.9816e-06 -0.7343893601 0.4219262154
265298410.0 0.7464414037 -0.4202155693 -4.86435e-05 0.0001258472 -1.9596e-05 4.2224e-06 -0.72998272 0.4300461818
270298380.0 0.7435001611 -0.4269229545 0.0001825004 -5.6938e-06 -0.0001400381 4.26075e-05 -0.7250208789 0.4383398507
275298350.0 0.7391935501 -0.4339537827 -1.59628e-05 8.56124e-05 1.07256e-05 0.0002816507 -0.7207844966 0.4453628933
280298320.0 0.7351485453 -0.441286433 0.000109799 -2.3478e-06 5.19404e-05 0.0002282711 -0.7161732603 0.4527586686
285298290.0 0.7304518319 -0.4482281583 -0.0001488589 -0.0002535915 5.2847e-06 4.36978e-05 -0.7118594085 0.4611455341
290298260.0 0.7262938339 -0.4551617901 4.50921e-05 -0.0001491641 -2.74965e-05 -0.0002040562 -0.7066922996 0.4678598662
295298230.0 0.722571481 -0.462272751 9.11986e-05 5.47807e-05 9.7935e-05 -2.58136e-05 -0.7016564802 0.4749293585
300298200.0 0.7179403217 -0.4694651766 -5.12269e-05 -0.0001064765 -4.41435e-05 -0.0001110964 -0.6961934906 0.482720696
305298170.0 0.7136257404 -0.4773267052 9.60198e-05 8.34243e-05 -4.05158e-05 -2.79392e-05 -0.6916096023 0.4895545437
310298140.0 0.7090437574 -0.4856009073 2.47976e-05 6.96155e-05 0.0001009091 -3.569e-07 -0.686550161 0.4971148261
315298110.0 0.7040360355 -0.4924148058 0.0001706179 -7.07354e-05 8.48095e-05 -0.0001192721 -0.6811461306 0.5043960209
320298080.0 0.6984573228 -0.4992066524 -9.06786e-05 0.0001670477 2.19348e-05 9.35195e-05 -0.6762909876 0.5106407086
325298050.0 0.6922149718 -0.5071863539 -0.0001526995 0.0001098306 -6.83908e-05 5.45069e-05 -0.67032659 0.5173695317
330298020.0 0.6863697416 -0.5134104898 9.11029e-05 0.0002410511 8.92471e-05 -8.03377e-05 -0.6650239231 0.5246360809
335297990.0 0.6812772061 -0.5188812545 -3.65343e-05 9.91743e-05 7.92956e-05 -7.18488e-05 -0.6594434458 0.5317488154
340297960.0 0.6754574541 -0.5258085447 7.84758e-05 -0.0001661524 0.0002181901 -9.07073e-05 -0.6543638161 0.5385464015
345297930.0 0.6705223675 -0.5318108234 -2.26887e-05 -0.0001351914 8.67605e-05 -4.65895e-05 -0.6484942856 0.5447774167
350297900.0 0.6650432307 -0.5379217646 0.000208092 4.53341e-05 0.0001102033 4.32576e-05 -0.6432008092 0.5514121199
355297870.0 0.6597199277 -0.5443139252 -0.0001069364 0.0001036677 -0.0001731299 -8.19759e-05 -0.6369244546 0.5590316119
360297840.0 0.6537967789 -0.5507142792 0.0001411785 0.0001413216 -7.53469e-05 0.0001794378 -0.6307152322 0.5649444559
365297810.0 0.6484008514 -0.5566167432 0.0001588094 -0.0001005388 -0.0001652433 5.95256e-05 -0.6258853801 0.5708349926
370297780.0 0.6434011221 -0.5626275656 8.84967e-05 -3.40507e-05 0.0001846743 -8.0847e-06 -0.6196899997 0.5782024576
375297750.0 0.6376449772 -0.5688517336 5.70976e-05 -6.2377e-05 5.5537e-06 0.0001773281 -0.6127796883 0.5837857933
380297720.0 0.6317177108 -0.5743621554 5.65781e-05 7.51388e-05 6.44398e-05 -5.74552e-05 -0.6065475883 0.5901588162
385297690.0 0.6263336769 -0.5811063712 0.0001102603 0.0002561257 7.2975e-05 3.49322e-05 -0.6012835138 0.5965360575
390297660.0 0.6208552949 -0.5869203387 1.77278e-05 -0.0002092504 -6.39751e-05 -4.29033e-05 -0.5944942669 0.602246502
395297630.0 0.6151647016 -0.5921462283 -6.95471e-05 5.5363e-06 -5.58248e-05 -3.34855e-05 -0.5880426298 0.6077683821
400297600.0 0.6090499142 -0.5985855284 4.8696e-05 2.3181e-05 2.25566e-05 7.81886e-05 -0.5831521516 0.6138243663
405297570.0 0.6036320444 -0.6042379147 2.08243e-05 3.46695e-05 -0.0001004652 3.72637e-05 -0.5759535436 0.6202170917
410297540.0 0.598576458 -0.6100216444 -2.93324e-05 5.08143e-05 9.57661e-05 -3.55038e-05 -0.5695522574 0.6260465794
415297510.0 0.5912748675 -0.6157025735 -9.07126e-05 0.0001200224 -0.0003377365 7.98822e-05 -0.5630802786 0.6312138128
420297480.0 0.5859711602 -0.6217952888 6.47603e-05 0.0003077286 -5.10346e-05 -2.13051e-05 -0.5558744413 0.6383105746
425297450.0 0.5793814299 -0.6274782791 -9.01497e-05 -0.0001368463 -0.0001858286 5.51796e-05 -0.5492917182 0.6426803981
430297420.0 0.5737464313 -0.6329727647 2.44375e-05 -2.76681e-05 0.0001383413 2.51537e-05 -0.5433958295 0.6481924685
435297390.0 0.5671815516 -0.6385620731 -1.70122e-05 -3.9896e-06 -5.36701e-05 6.26553e-05 -0.5368877793 0.6540927149
440297360.0 0.5610774094 -0.6438652937 -4.97208e-05 0.000162092 -4.84427e-05 0.0001203047 -0.5301957738 0.6592249321
445297330.0 0.5555274721 -0.6492445116 0.000106598 -0.0001566444 9.97483e-05 -5.8506e-05 -0.5228645218 0.6646911362
450297300.0 0.5488775738 -0.6549583672 0.0001222574 -4.15569e-05 2.98524e-05 0.0001146285 -0.5157434698 0.6695827649
455297270.0 0.5417850319 -0.6603546111 0.0001726922 -0.000216125 0.0001017132 -9.08076e-05 -0.5088980927 0.6749689249
460297240.0 0.5359359148 -0.6644340289 2.1752e-05 6.2895e-06 -0.0002226467 2.69746e-05 -0.5024302975 0.680166712
465297210.0 0.5296294784 -0.6698230686 -4.16954e-05 -0.0001695576 -0.0001404096 -2.86851e-05 -0.4946365167 0.6861174755
470297180.0 0.5233774467 -0.6752537403 -0.0001670142 0.0002027298 0.000154039 -2.70366e-05 -0.488275978 0.6906640009
475297150.0 0.5158622188 -0.6803091047 5.60589e-05 -7.00061e-05 -5.22454e-05 2.77685e-05 -0.4808704108 0.6951829055
480297120.0 0.5096375046 -0.6853518451 -0.0001365648 -0.000248772 -3.88178e-05 0.0001340852 -0.4745142864 0.6996388391
485297090.0 0.5029562755 -0.6902583985 1.64158e-05 -8.14143e-05 8.02294e-05 -4.71593e-05 -0.4674558615 0.7048498214
490297060.0 0.4967990448 -0.6951628176 -6.8011e-05 -6.3864e-06 4.84552e-05 1.5998e-06 -0.4593414871 0.7090745539
495297030.0 0.4900950481 -0.6991956192 -0.0001831791 7.02403e-05 2.40903e-05 0.0001156612 -0.4528255858 0.7135536698
500297000.0 0.4832352213 -0.7041617519 -0.0002271758 -6.14031e-05 -0.0001041052 -5.7651e-05 -0.4452501544 0.7183493947
505296970.0 0.476869112 -0.7090083821 6.5937e-05 0.0001399189 -8.6073e-05 6.36573e-05 -0.4381560494 0.7225280736
510296940.0 0.4688471107 -0.7132223253 -1.42723e-05 -0.0001934423 -0.000109197 5.96389e-05 -0.4298918815 0.7271911127
515296910.0 0.4620472313 -0.7179233245 0.0001397907 -1.7721e-06 8.58176e-05 -0.000127408 -0.4228205601 0.7313137147
520296880.0 0.4566237382 -0.7222095361 -1.53378e-05 -5.0782e-06 -0.0002261227 0.0001379719 -0.4153653437 0.7360036797
525296850.0 0.4488536512 -0.7274973123 -8.95402e-05 -0.0001208636 -2.81526e-05 -2.11096e-05 -0.4084031008 0.7403553063
530296820.0 0.4422611457 -0.7315838283 -6.80452e-05 0.0002155603 2.59334e-05 -7.09658e-05 -0.4003673164 0.7436595427
535296790.0 0.4345050927 -0.7354735063 -0.0001968084 -4.50366e-05 9.53832e-05 3.59738e-05 -0.393283137 0.7485627553
540296760.0 0.4283198933 -0.7394537939 2.28594e-05 -0.0001532883 -1.41035e-05 1.6598e-06 -0.3848955928 0.7512722205
545296730.0 0.4198901526 -0.7437956489 -0.0003407521 7.83822e-05 -2.49618e-05 5.46513e-05 -0.3774036476 0.7548836698
550296700.0 0.4131950164 -0.7474852998 -0.0002002962 0.0003090487 0.0001748874 3.73191e-05 -0.3699502135 0.7589021189
555296670.0 0.4062012128 -0.7514454539 1.53474e-05 0.000165241 0.0001589106 1.15498e-05 -0.3627498949 0.7625822927
560296640.0 0.3993038303 -0.7549499918 -0.0001015573 4.7094e-05 8.20452e-05 1.711e-06 -0.3546563604 0.7668655802
565296610.0 0.3909767536 -0.7591311955 0.000150435 -0.0001339589 -3.94613e-05 2.72203e-05 -0.3466564134 0.7701837221
570296580.0 0.3839524834 -0.7626352174 -0.0001091367 2.27015e-05 8.56718e-05 6.79963e-05 -0.3390529718 0.7728002832
575296550.0 0.3773392222 -0.7665090347 0.000199518 -0.0002153918 -9.91706e-05 0.0001930245 -0.3309571269 0.7766362664
580296520.0 0.368954963 -0.7696482027 0.000165844 8.3462e-05 0.0001805383 6.24622e-05 -0.324045297 0.7798864385
585296490.0 0.3617200339 -0.7728912843 0.0001324932 -0.0001449126 0.0001798172 -2.98444e-05 -0.3151884567 0.7835731261
590296460.0 0.3539520759 -0.7760429524 0.0001486415 -4.5037e-05 -7.6579e-06 6.90911e-05 -0.3080508524 0.7857293251
595296430.0 0.3466085738 -0.7798249145 3.0982e-06 -0.000124312 0.0001377437 7.35265e-05 -0.2998312723 0.7895070378
600296400.0 0.3388413488 -0.7831811258 3.45788e-05 -0.0002364277 -3.89306e-05 5.8879e-06 -0.2919117713 0.791827489
605296370.0 0.3305414352 -0.7863312076 -9.22727e-05 -2.79602e-05 5.18377e-05 0.0001296051 -0.2834302566 0.7954532069
610296340.0 0.323598073 -0.7893858075 9.31332e-05 5.74263e-05 -4.39686e-05 2.9663e-06 -0.2757212571 0.7979434771
615296310.0 0.3159382193 -0.7923712202 0.0001961428 -0.0001045506 7.05101e-05 -9.1366e-06 -0.2674627534 0.800648135
620296280.0 0.3077401036 -0.7946848731 0.000178987 -0.0001739539 1.03854e-05 0.0001671882 -0.2601178075 0.8032701848
625296250.0 0.2999635715 -0.798292399 0.0001448533 -0.0001035429 -3.40747e-05 0.0001710149 -0.2515419343 0.8050174172
630296220.0 0.2917509832 -0.8004258722 4.02535e-05 3.17179e-05 -0.0001208557 5.41672e-05 -0.2434878493 0.8079206175
635296190.0 0.2839085099 -0.8032202979 -8.88127e-05 -3.94072e-05 5.24713e-05 -2.25796e-05 -0.2355440066 0.8103156295
640296160.0 0.2761193616 -0.8057705643 8.06434e-05 -0.0001022466 -8.11247e-05 0.0002252455 -0.2276655381 0.8125283066
645296130.0 0.2690102154 -0.8080076187 1.81392e-05 5.83196e-05 -1.0234e-06 0.0001810629 -0.2196722852 0.8142439329
650296100.0 0.2603457319 -0.8104076378 -6.7273e-06 0.0001284033 -3.9508e-06 -4.60536e-05 -0.2105345879 0.8168197014
655296070.0 0.2526759774 -0.812916545 -8.58989e-05 9.77189e-05 2.83367e-05 -8.14037e-05 -0.2029504452 0.8190199685
660296040.0 0.2437800466 -0.8151194678 -7.5566e-06 -2.31549e-05 -0.0001310731 0.0001452178 -0.1934428152 0.8206246698
665296010.0 0.2359232221 -0.8176258073 0.000183281 9.60352e-05 -7.48449e-05 0.0001672725 -0.1861317971 0.8223130677
670295980.0 0.2281002241 -0.8194971561 7.40085e-05 -2.67738e-05 6.35948e-05 -2.45766e-05 -0.1782770396 0.8246499794
675295950.0 0.2200176929 -0.8215971814 5.20319e-05 -5.64953e-05 1.71187e-05 0.0001069438 -0.1696621901 0.8262116626
680295920.0 0.2113245853 -0.8235030111 -6.20798e-05 -1.62314e-05 9.96315e-05 -0.0002324723 -0.1615748479 0.8275573493
685295890.0 0.2033615622 -0.8243531084 -2.55006e-05 1.16462e-05 1.82114e-05 -4.22109e-05 -0.1534824195 0.8296599594
690295860.0 0.1951411104 -0.826786804 -0.0001887891 0.0001883558 -4.60934e-05 2.10777e-05 -0.1451629351 0.8309257392
695295830.0 0.1867338505 -0.8286416031 -2.94634e-05 -5.1268e-06 -8.882e-06 0.0001940042 -0.1371536377 0.8331890016
700295800.0 0.1783726417 -0.8298081696 -6.16196e-05 5.8254e-05 4.62326e-05 0.0001215649 -0.1283231243 0.833598547
705295770.0 0.1698734878 -0.8315882297 0.0001434473 2.73972e-05 8.871e-05 9.43079e-05 -0.1199800576 0.8351387115
710295740.0 0.1617424134 -0.8319328187 -0.000104287 4.40964e-05 0.000133484 6.95093e-05 -0.1116084557 0.8359393467
715295710.0 0.1537483153 -0.833749208 -6.8952e-06 0.0001147189 0.0001299421 3.36441e-05 -0.1031926806 0.8366571755
720295680.0 0.1453912385 -0.8348941476 -0.0001633714 -1.2084e-05 1.5984e-06 1.4373e-06 -0.0948827566 0.8377868149
725295650.0 0.136487832 -0.8364840939 0.0001237231 -3.61024e-05 -0.0001197798 -4.76351e-05 -0.0871944551 0.8396043506
730295620.0 0.1284031629 -0.8375075347 -0.0001746296 0.000124966 -9.49585e-05 0.0001024445 -0.078654969 0.8402489274
735295590.0 0.1202453654 -0.8386629074 0.0002145847 0.0001084474 1.12577e-05 -0.0001158816 -0.069721948 0.8408541772
740295560.0 0.1117429527 -0.8396256322 5.55183e-05 0.0001085244 -4.6506e-05 2.23167e-05 -0.0614459651 0.8415926433
745295530.0 0.1033270857 -0.8402203747 0.000146411 0.0001445122 -0.0001133518 -5.60276e-05 -0.0534625567 0.8418782223
750295500.0 0.0947753324 -0.8406990486 -1.5637e-05 0.0001942016 8.32402e-05 7.8505e-06 -0.0447522293 0.8426847915
755295470.0 0.0865267959 -0.8410079575 1.33532e-05 -2.21252e-05 6.61405e-05 0.0001245035 -0.0365261083 0.8428701729
760295440.0 0.0788354612 -0.8410629949 -7.39373e-05 0.0001362109 -1.31347e-05 1.3307e-05 -0.0282849116 0.8428407014
765295410.0 0.0698180722 -0.8419970594 0.0001063556 0.0002992491 7.39804e-05 0.0001371838 -0.019232521 0.8432892672
770295380.0 0.06111205 -0.841791813 3.21021e-05 -8.86984e-05 5.87994e-05 -7.99033e-05 -0.0115457671 0.8431539268
775295350.0 0.0528571041 -0.8422766939 -7.68504e-05 -0.0002419107 -0.0002523183 7.81498e-05 -0.0034272534 0.8431969193
780295320.0 0.0443797287 -0.8431877623 8.99373e-05 0.0001290352 3.72531e-05 -8.9578e-05 0.0054834475 0.8432586997
785295290.0 0.0363511703 -0.8428934616 -2.03176e-05 0.0001358761 7.69325e-05 -7.08407e-05 0.0133045473 0.8434300553
790295260.0 0.0283566515 -0.8431409461 8.16877e-05 -3.34089e-05 -3.57717e-05 -0.0002238206 0.0222365383 0.8431754642
795295230.0 0.0194410526 -0.8438144343 8.5389e-06 4.98076e-05 0.0002645894 -0.0001602262 0.0303093197 0.842417794
800295200.0 0.0107453063 -0.8437329015 -7.17053e-05 -4.10328e-05 4.2722e-06 -3.31578e-05 0.0382255155 0.8422085848
805295170.0 0.002421507 -0.8435251927 0.0001605933 -2.52286e-05 4.19558e-05 5.35466e-05 0.047569835 0.8418548175
810295140.0 -0.0055128312 -0.8421851768 -0.0002671597 -5.8266e-06 1.84143e-05 -7.12677e-05 0.0559801845 0.8413125818
815295110.0 -0.014339017 -0.842204876 -0.0001728828 2.86322e-05 -0.0001024176 4.14577e-05 0.0637524007 0.8409229668
820295080.0 -0.0217973244 -0.8422564924 -9.7965e-05 -2.43508e-05 0.000231635 -1.76815e-05 0.0715832028 0.84067819
825295050.0 -0.0315672616 -0.841856554 -0.0001343506 -8.68243e-05 -1.04675e-05 0.0001528862 0.080106417 0.8397095574
830295020.0 -0.0389241257 -0.84144597 -3.3775e-06 -2.03137e-05 -4.03677e-05 0.000274049 0.0883894483 0.8382813698
835294990.0 -0.0470296227 -0.8406986236 -3.90691e-05 -0.0001049899 0.0001377357 0.0001320582 0.0971256112 0.838022406
840294960.0 -0.0555931384 -0.8406310432 -4.43744e-05 -7.27888e-05 -0.0001774075 6.36496e-05 0.1056528699 0.8368860827
845294930.0 -0.0648103674 -0.8392647627 -0.0001274763 -2.90825e-05 -5.55813e-05 2.34659e-05 0.1138895459 0.8354876969
850294900.0 -0.0722099363 -0.8387079352 5.18985e-05 -0.0001568437 -0.0002195578 0.0001946098 0.121627419 0.8345772172
