!Created with skrf (http://scikit-rf.org).
# Hz S RI R 50.0 
!freq ReS11 ImS11 ReS21 ImS21 ReS12 ImS12 ReS22 ImS22
300000.0 -0.2434057841 -0.0860243909 0.4726956339 0.0573047461 0.4713640172 0.054188161 -0.2386308454 -0.0957731426
5299970.0 -0.2449799214 0.0068392786 0.4747501719 0.0047426845 0.4747371834 0.0047630624 -0.2411627323 0.0076845841
10299940.0 -0.2414190878 0.0179749343 0.4762949614 0.0059479124 0.4767108849 0.006383669 -0.2375369583 0.0206092185
15299910.0 -0.2377052744 0.0269242037 0.4804465294 0.0071661071 0.480428598 0.0071380507 -0.2328849235 0.0300979233
20299880.0 -0.2328452937 0.0341781697 0.4851932365 0.0081414833 0.4850636507 0.0077074157 -0.2279074394 0.0379686072
25299850.0 -0.2278259085 0.0403681685 0.4900116018 0.0069815724 0.4900605749 0.0071084359 -0.2218131817 0.0446886962
30299820.0 -0.2226351475 0.0452691855 0.4956388408 0.0049021195 0.4954342396 0.0045394865 -0.2160302666 0.0501630654
35299790.0 -0.2173419743 0.0490857508 0.5013380563 0.0012199698 0.5012892086 0.0013850202 -0.2106634283 0.0544597976
40299760.0 -0.2124639283 0.0526495348 0.5058756162 -0.0025643029 0.5059974267 -0.0023748677 -0.2054160125 0.0573530567
45299730.0 -0.2077028933 0.054823691 0.5105153268 -0.00739985 0.5107346275 -0.0071637576 -0.2000605725 0.0604620514
50299700.0 -0.2038134538 0.0567803036 0.5148761898 -0.0125818232 0.5149465981 -0.0122837653 -0.195676153 0.0623072622
55299670.0 -0.1998152252 0.0584845338 0.5183479027 -0.0188657421 0.5185555013 -0.0186886972 -0.1912393608 0.06453791
60299640.0 -0.195864753 0.0600596838 0.5217941905 -0.0252282617 0.5223703626 -0.0247686005 -0.1875548826 0.0655426318
65299610.0 -0.1930320353 0.0610588181 0.5245565142 -0.0312612344 0.5248282418 -0.031309407 -0.1839500779 0.0667789966
70299580.0 -0.1899317893 0.0621545014 0.5272145137 -0.0380147164 0.5274187861 -0.0379974362 -0.181021406 0.0678050775
75299550.0 -0.1871545254 0.0630017933 0.5289125288 -0.0446329551 0.5288401615 -0.0448180365 -0.1778480746 0.0683266695
80299520.0 -0.1847886081 0.0635344785 0.5310257928 -0.0515244759 0.5310477686 -0.0514654934 -0.1752970612 0.0689407478
85299490.0 -0.1824814374 0.0639070836 0.5317548032 -0.057955996 0.5321226783 -0.0582541084 -0.1727272916 0.0695614772
90299460.0 -0.1804777205 0.0645315965 0.5328993046 -0.0655681768 0.5331395076 -0.0654776231 -0.1703603537 0.070525268
95299430.0 -0.178554973 0.0655190769 0.5343464452 -0.0721682771 0.5341787983 -0.0721768184 -0.1683979829 0.0713490658
100299400.0 -0.1767615947 0.0665446213 0.5338977577 -0.0789985629 0.534054321 -0.0792937383 -0.1662262571 0.0714418061
105299370.0 -0.1750067559 0.0669448642 0.534699603 -0.0862685093 0.5348936058 -0.0861084584 -0.1642949987 0.072475638
110299340.0 -0.1734883229 0.0675741195 0.5349884206 -0.0929705338 0.5345831118 -0.092656656 -0.163107803 0.0730662405
115299310.0 -0.1720479158 0.068132404 0.5348375822 -0.0996230003 0.5345251487 -0.0999861535 -0.1611543537 0.0739368826
120299280.0 -0.1706346235 0.0686102799 0.534228881 -0.1063257301 0.534592857 -0.1063244865 -0.1594543982 0.0742578962
125299250.0 -0.1695591756 0.069034096 0.5342180134 -0.112728073 0.5341582983 -0.112958534 -0.1586758254 0.0749031775
130299220.0 -0.1686706798 0.0702023751 0.5330524519 -0.1199596868 0.5335864128 -0.1200784813 -0.1572128393 0.0756270824
135299190.0 -0.1675488993 0.0712515591 0.5329355184 -0.1265163564 0.5326688353 -0.1263873185 -0.1556965603 0.0768158731
140299160.0 -0.1666640164 0.0719415136 0.5319806646 -0.1329822952 0.5318209047 -0.1334631756 -0.1545888128 0.0781322969
145299130.0 -0.1656387053 0.0726147273 0.5313364557 -0.1397456786 0.5308163268 -0.1397056425 -0.1534551306 0.0791787233
150299100.0 -0.1644948404 0.0737584514 0.5300464963 -0.1456359744 0.5298841708 -0.1461480495 -0.1524960162 0.0804558972
155299070.0 -0.1639780191 0.0747820742 0.5291421058 -0.1531743803 0.5288831272 -0.1528206395 -0.151151924 0.0813140677
160299040.0 -0.162641171 0.0756650853 0.5270721977 -0.1591011276 0.5267925438 -0.1594127581 -0.1507036129 0.0819459173
165299010.0 -0.1619349232 0.0767536912 0.5257583749 -0.1658742791 0.5256841702 -0.165818505 -0.1491837754 0.0834202274
170298980.0 -0.1616095203 0.0777294776 0.524451834 -0.1717478918 0.5246802658 -0.1720874588 -0.1481943484 0.0847501765
175298950.0 -0.1606933343 0.0789777192 0.5233336955 -0.1780935252 0.5224589361 -0.1781244394 -0.1475668999 0.0858928591
180298920.0 -0.1598549185 0.0798732612 0.5209292264 -0.1843936165 0.5206901214 -0.1838426091 -0.1464935227 0.0871776322
185298890.0 -0.1587558365 0.0809257172 0.5191198941 -0.1906439998 0.5188791352 -0.1906098583 -0.1456579154 0.0888782972
190298860.0 -0.15828613 0.0820906686 0.516861413 -0.1969602966 0.5175322446 -0.1967951027 -0.1443514222 0.0897550415
195298830.0 -0.1577689983 0.0832425776 0.5153249509 -0.2033759059 0.5154494281 -0.2026338299 -0.1439049821 0.0912219942
200298800.0 -0.1568171518 0.0846688221 0.5132251243 -0.2090044845 0.5130314086 -0.2091754504 -0.1431537802 0.0923792022
205298770.0 -0.156094242 0.085916002 0.5108223378 -0.2153626328 0.51077606 -0.2148822463 -0.1419016202 0.0932136324
210298740.0 -0.1555180215 0.0868791796 0.5085531118 -0.221015762 0.5084796576 -0.2208749288 -0.1406850339 0.0953057255
215298710.0 -0.1550369336 0.0883377767 0.50649872 -0.2269366401 0.5061527516 -0.2274374213 -0.14047312 0.096596615
220298680.0 -0.1541227909 0.0891864706 0.503707783 -0.232981179 0.5036434989 -0.2326696726 -0.1398985101 0.0975160021
225298650.0 -0.1534393225 0.0907985206 0.5012041743 -0.2390224872 0.5016292202 -0.2387142153 -0.1390048204 0.0984962421
230298620.0 -0.1527291947 0.0922003995 0.4988587611 -0.2439652387 0.4991471418 -0.244829827 -0.1378743222 0.1001979957
235298590.0 -0.1518586384 0.093542 0.4963391058 -0.2500478609 0.4965262486 -0.2499513942 -0.1370782089 0.1016585909
240298560.0 -0.1512865411 0.0949475958 0.4937708369 -0.2560215618 0.493269266 -0.2561149715 -0.1360100048 0.1033205268
245298530.0 -0.1502556474 0.096191527 0.4912136681 -0.2616862204 0.4909047546 -0.2621818264 -0.1348365292 0.1038654717
250298500.0 -0.1493742851 0.0976939522 0.4876776163 -0.2675257357 0.4875171816 -0.2672664193 -0.1339882206 0.1055893177
255298470.0 -0.1485547234 0.098622785 0.4843858065 -0.2725295842 0.4848540953 -0.2726484872 -0.1327716566 0.1067561689
260298440.0 -0.1479397826 0.099860821 0.4821601002 -0.2787432102 0.4822949812 -0.2782733684 -0.1316540102 0.1084593561
265298410.0 -0.1467402207 0.101701279 0.4788061318 -0.2841116261 0.4790253277 -0.2837381767 -0.130553844 0.1099515255
270298380.0 -0.1461633231 0.1028479891 0.4758433997 -0.2892339536 0.4761572857 -0.2891449232 -0.1295414095 0.1107542738
275298350.0 -0.1448136415 0.1043678056 0.4726207017 -0.2950832768 0.4733228642 -0.2945971794 -0.1283794589 0.1123246292
280298320.0 -0.1440244387 0.1060213799 0.4699178667 -0.3004982414 0.4695482872 -0.3000663427 -0.1268627558 0.1134952463
285298290.0 -0.1430616404 0.1073030756 0.4664642959 -0.3055200559 0.4662500403 -0.3053769793 -0.1256061173 0.1149276438
290298260.0 -0.1418865085 0.1085825975 0.4630665625 -0.3101075909 0.4629160472 -0.3106836011 -0.1245789561 0.1166985131
295298230.0 -0.1408491295 0.1093694881 0.4595079512 -0.3160867314 0.4598537403 -0.3157575926 -0.1228857121 0.1175708595
300298200.0 -0.1403027915 0.1108333041 0.4569060799 -0.3205767242 0.456403112 -0.3214629192 -0.1218446626 0.1189292687
305298170.0 -0.1389605321 0.1120308253 0.4527570261 -0.3268718071 0.4527511905 -0.3265585327 -0.119980506 0.1206308442
310298140.0 -0.138034265 0.1133501335 0.4494030041 -0.3313684722 0.4491971843 -0.3315750877 -0.1190574967 0.1214469073
315298110.0 -0.1370959278 0.1147963715 0.4456237962 -0.3368102968 0.445676691 -0.3369648638 -0.1178113345 0.1227313563
320298080.0 -0.1359842651 0.1156950642 0.4415084187 -0.3422153723 0.4420992202 -0.3422135902 -0.1165540648 0.1240403074
325298050.0 -0.1352466192 0.1170785926 0.4380903464 -0.3472694552 0.4380470299 -0.3472288746 -0.1154678778 0.1253493175
330298020.0 -0.1340717284 0.118312075 0.4336880791 -0.3519004823 0.4340899481 -0.3521684905 -0.1142468431 0.1267453687
335297990.0 -0.1329560155 0.1193227551 0.4300270682 -0.356169636 0.4297412237 -0.3569159362 -0.1133309932 0.1283194166
340297960.0 -0.1326598459 0.1210780147 0.4257384277 -0.3614197509 0.4255425769 -0.3619240856 -0.1116767509 0.12967812
345297930.0 -0.1315998274 0.1225578386 0.421382514 -0.3664129023 0.4213571566 -0.3666007151 -0.1104254776 0.1306087303
350297900.0 -0.1306666899 0.1238450658 0.4171558417 -0.3708488739 0.4173385878 -0.370889057 -0.1095097784 0.1326475564
355297870.0 -0.1294736548 0.1253644399 0.4131054244 -0.3755338707 0.4135681826 -0.3757674946 -0.1081128575 0.1337586221
360297840.0 -0.1282425183 0.1267273848 0.4094583147 -0.3800285266 0.4095456312 -0.3798728679 -0.1067180177 0.1354544684
365297810.0 -0.1274569724 0.1285098377 0.4050560031 -0.3845455702 0.4050536501 -0.3848797334 -0.1051609626 0.1366545197
370297780.0 -0.1256003595 0.1295321238 0.4003789336 -0.3889140469 0.4013015755 -0.3888169984 -0.1037396323 0.1382181532
375297750.0 -0.1245850484 0.1307443721 0.396675372 -0.3932886565 0.3967841992 -0.393311212 -0.1024590332 0.1394634006
380297720.0 -0.123424805 0.1318266512 0.3921123075 -0.3977135678 0.3919927041 -0.3973038092 -0.1008958438 0.1403658077
385297690.0 -0.1223283974 0.1332027826 0.3878242503 -0.4017555892 0.3876059135 -0.4020482681 -0.0993816896 0.1420299977
390297660.0 -0.1212718089 0.1350582686 0.3834051514 -0.4063713554 0.3830565707 -0.4057250036 -0.0982560263 0.1429234964
395297630.0 -0.1197279384 0.1361789442 0.3790409812 -0.4103975067 0.378876674 -0.4105249548 -0.0962956393 0.1447267659
400297600.0 -0.1185235036 0.1375019049 0.3736825228 -0.4149986272 0.3743316386 -0.4145592752 -0.0949951013 0.1456453243
405297570.0 -0.1175959413 0.1386288362 0.3699401692 -0.4185366454 0.3697514722 -0.4183558634 -0.0936693079 0.1467369591
410297540.0 -0.1158346409 0.1399321041 0.3650841577 -0.4224824546 0.3655470508 -0.4224883564 -0.0922608358 0.1482038365
415297510.0 -0.1147436649 0.1409544457 0.3606017022 -0.4267734217 0.360433114 -0.4265876571 -0.090158145 0.14931692
420297480.0 -0.1134790082 0.1427572285 0.3559020409 -0.4306289512 0.3557868973 -0.4309286682 -0.0890425758 0.1502203475
425297450.0 -0.1119948911 0.1433804333 0.3512362652 -0.4342840687 0.3513215775 -0.4346623283 -0.0877485385 0.1515638533
430297420.0 -0.1110660125 0.144761136 0.3464906942 -0.4377910588 0.3462154791 -0.4378091089 -0.0861266559 0.1523715598
435297390.0 -0.1096347422 0.1458914094 0.3413080528 -0.4418587105 0.341110559 -0.4420382669 -0.0836918356 0.1535483661
440297360.0 -0.1080950528 0.1470841393 0.3368851178 -0.4449793794 0.336494115 -0.4454061724 -0.0824102772 0.1543865445
445297330.0 -0.1066410408 0.1481423309 0.3319197203 -0.4490806923 0.3317568789 -0.4489633764 -0.0804897172 0.1552672234
450297300.0 -0.1051437773 0.1494348888 0.326968385 -0.4529620586 0.3265770095 -0.4529429354 -0.0791175017 0.1561184569
455297270.0 -0.1036453146 0.1506975063 0.3217568344 -0.4563725574 0.3221454923 -0.4562730458 -0.0773884946 0.1571079328
460297240.0 -0.1022670456 0.1516764157 0.3167591304 -0.4597524908 0.3167275592 -0.4598102596 -0.075592336 0.1586533059
465297210.0 -0.1004169082 0.1527127102 0.311788651 -0.4632194935 0.3114732301 -0.463811091 -0.0738299182 0.159091879
470297180.0 -0.0992183169 0.153778012 0.3063108596 -0.4665448914 0.3070245448 -0.4665021392 -0.071815597 0.1601822704
475297150.0 -0.0977814334 0.1546268635 0.3011825758 -0.4695479034 0.3017145743 -0.4696532419 -0.0699062162 0.1607769499
480297120.0 -0.0963754625 0.1562995027 0.2963858024 -0.4733291958 0.2962035961 -0.4735229229 -0.0679654301 0.1619888884
485297090.0 -0.0950594543 0.1570908141 0.2916984501 -0.4762151904 0.2917051901 -0.4762169242 -0.0663023588 0.162596775
490297060.0 -0.0935109643 0.1580879027 0.2862856078 -0.4796209425 0.2864796371 -0.4791071607 -0.0646894817 0.1640173021
495297030.0 -0.0920918465 0.1592404761 0.2807080854 -0.482222123 0.2812445659 -0.4825550926 -0.0628071008 0.1647028781
500297000.0 -0.0904548938 0.1602949851 0.2752426387 -0.4851010226 0.2755070755 -0.4851317692 -0.0608170633 0.1663449682
505296970.0 -0.0886825572 0.1613511365 0.2701823275 -0.4880246992 0.2699502383 -0.4886397652 -0.0588150211 0.1667865262
510296940.0 -0.0872852098 0.1622097517 0.2647411792 -0.4913680716 0.2647211745 -0.4917342555 -0.0567085573 0.1673747046
515296910.0 -0.085622441 0.1632102585 0.2593058949 -0.4945070375 0.2594568205 -0.4940070619 -0.055232096 0.1682854256
520296880.0 -0.0842858648 0.1642319882 0.2540680465 -0.4971500986 0.2541164544 -0.4967240514 -0.0535022625 0.1689856869
525296850.0 -0.082545692 0.1648727262 0.2485142728 -0.4997441039 0.248834868 -0.4996195287 -0.0517415563 0.1698786309
530296820.0 -0.0809782161 0.1659545724 0.2430652036 -0.5025688489 0.2433287955 -0.5022253356 -0.0498413707 0.1706141318
535296790.0 -0.079717141 0.1670170161 0.2379311157 -0.5043493948 0.2378179192 -0.5042979411 -0.0480565043 0.1709002437
540296760.0 -0.0781000129 0.1679629419 0.232436058 -0.5075370323 0.232277603 -0.5073082799 -0.0464208032 0.17210297
545296730.0 -0.0762197575 0.1687099336 0.2264005436 -0.5093559419 0.226422741 -0.5099712293 -0.0442700467 0.1728039004
550296700.0 -0.0742687188 0.1696221473 0.2209090564 -0.5123821477 0.2210323079 -0.5121443755 -0.0423235043 0.1734979077
555296670.0 -0.0729580431 0.1704867849 0.2156795805 -0.514379584 0.2156698755 -0.5144650745 -0.0404749141 0.1742574363
560296640.0 -0.071114736 0.1716007434 0.2099089996 -0.5169642818 0.2098979046 -0.5170452306 -0.0388776335 0.174961681
565296610.0 -0.0700318762 0.1722447893 0.2044012978 -0.5191758218 0.2047343868 -0.5190969161 -0.0369740607 0.1751006553
570296580.0 -0.068152853 0.1732266149 0.1988461497 -0.5218070472 0.1984308181 -0.5213878529 -0.0353232273 0.1763465591
575296550.0 -0.0664818297 0.1744177072 0.1933512935 -0.523795875 0.1927236773 -0.5235393497 -0.0326720853 0.1764388116
580296520.0 -0.0644286862 0.174989949 0.1871554491 -0.5260150185 0.187438656 -0.5256102777 -0.0310572812 0.1768109508
585296490.0 -0.063212094 0.1751684928 0.1820360061 -0.5272188394 0.18192469 -0.5277630601 -0.029139052 0.1776634686
590296460.0 -0.0608995588 0.1762489331 0.175939861 -0.5291151626 0.1763529801 -0.529127982 -0.0276748942 0.1779031082
595296430.0 -0.0594761046 0.177134021 0.1697718257 -0.5311523275 0.1697801827 -0.5315099804 -0.0254494821 0.1781562796
600296400.0 -0.0579709868 0.1777103909 0.164304576 -0.5329309309 0.1643977735 -0.5326441687 -0.0237825382 0.1784849283
605296370.0 -0.0562922249 0.1782542412 0.1584672286 -0.5344537577 0.1587175276 -0.53491563 -0.0213987623 0.1789926187
610296340.0 -0.0543435602 0.1789670743 0.1523448995 -0.5363953053 0.1530033506 -0.5361194661 -0.0190195849 0.1793848753
615296310.0 -0.0524921677 0.1795294558 0.14700179 -0.537559859 0.1466570528 -0.5383481323 -0.0167329322 0.1796188773
620296280.0 -0.0506491595 0.1797740111 0.1412281148 -0.5390106444 0.1412371422 -0.5394349079 -0.0155925231 0.1797565537
625296250.0 -0.0491718769 0.1805674794 0.1356651167 -0.5407844201 0.1351318744 -0.5410260376 -0.0128436127 0.1800239494
630296220.0 -0.0467615742 0.1811889953 0.128966331 -0.5425847918 0.1291999555 -0.5422747359 -0.0113526798 0.1803638605
635296190.0 -0.045821719 0.1817360159 0.1239796884 -0.5431337846 0.1237051691 -0.5435107963 -0.0088893889 0.1804421404
640296160.0 -0.0440215883 0.182698348 0.1175855443 -0.5445525921 0.1175932627 -0.5450808432 -0.006749627 0.1808368505
645296130.0 -0.042144583 0.1833930223 0.111526881 -0.5458546122 0.1119879187 -0.5460235901 -0.0048015399 0.1811041941
650296100.0 -0.0403224816 0.1835781786 0.1056051775 -0.5469503509 0.1059903053 -0.5470298227 -0.002499663 0.1811490911
655296070.0 -0.0388125948 0.1840402398 0.1000243891 -0.5483049168 0.0999635788 -0.5481597601 -0.0004644471 0.1815044468
660296040.0 -0.0372764381 0.1842466628 0.0944183444 -0.548986115 0.0941970418 -0.5492811036 0.0017913233 0.1816434336
665296010.0 -0.0346366399 0.184911838 0.0876273623 -0.5503990015 0.0882064939 -0.549968055 0.0036564115 0.181974325
670295980.0 -0.0339389129 0.1855369436 0.0823018384 -0.5508458279 0.082503398 -0.5511248665 0.0053106007 0.1820478665
675295950.0 -0.03191954 0.1860800369 0.0762653954 -0.5514937003 0.0761930105 -0.5515039744 0.0071939413 0.1820074887
680295920.0 -0.0298798196 0.1864395501 0.0697697405 -0.5524525977 0.069623046 -0.5529151922 0.0096115956 0.1828485415
685295890.0 -0.0277745609 0.1872230773 0.0641930047 -0.5533809922 0.0640474937 -0.5531603529 0.0112684099 0.1824721927
690295860.0 -0.025987483 0.1876145318 0.0580594363 -0.5536495659 0.0583777541 -0.5541108506 0.0132658673 0.1828314708
695295830.0 -0.0243724215 0.1878741142 0.0525907969 -0.554168896 0.0520467391 -0.5547294292 0.0156005746 0.1831644559
700295800.0 -0.022523558 0.187806832 0.0462369244 -0.5546602169 0.0459144999 -0.5548070533 0.0171822771 0.1831857263
705295770.0 -0.0207006241 0.1890343012 0.0399545336 -0.5552578597 0.0406007477 -0.5556678236 0.0193050937 0.1834178115
710295740.0 -0.0186828093 0.1891209656 0.0346173055 -0.556500303 0.0345832328 -0.5561292077 0.0217686991 0.1823519564
715295710.0 -0.0171729479 0.1890941754 0.0286534987 -0.5561505112 0.028305872 -0.5562665155 0.0237534844 0.182668229
720295680.0 -0.0151356116 0.1894950637 0.0222208567 -0.5567326744 0.0224604454 -0.5566488273 0.0254522376 0.1829408499
725295650.0 -0.0131035775 0.1899268301 0.0164200158 -0.5566406871 0.0164747378 -0.5568432178 0.0269843797 0.1829567208
730295620.0 -0.0111885186 0.1903488317 0.0102111219 -0.5564263074 0.0102201571 -0.5569067287 0.0291318026 0.1825580353
735295590.0 -0.0096147347 0.1906724549 0.0041324605 -0.5566625356 0.0042028141 -0.5566659514 0.0311291757 0.182418015
740295560.0 -0.0080321602 0.1909748614 -0.0017917321 -0.556476022 -0.0017459388 -0.5566833047 0.033609388 0.1825065406
745295530.0 -0.0059814147 0.1909943147 -0.0079644442 -0.5562562262 -0.0080752033 -0.5567318604 0.0352890553 0.1815873561
750295500.0 -0.0041881588 0.1912182471 -0.0135123653 -0.5566865818 -0.0133900631 -0.5567080115 0.0374723174 0.1817659869
755295470.0 -0.0020695492 0.1912329127 -0.0193641234 -0.5559100531 -0.0197928178 -0.5567054797 0.039587947 0.1811378391
760295440.0 -0.0004006056 0.1914292668 -0.0254311029 -0.5562194834 -0.0257753426 -0.5564418158 0.0414947108 0.1808645109
765295410.0 0.0013631886 0.1914117385 -0.0314641235 -0.5556376258 -0.0322320077 -0.5556416403 0.0435744192 0.180459717
770295380.0 0.00303816 0.1914578067 -0.0374911424 -0.5552752436 -0.0379608087 -0.5554062818 0.0450554789 0.180176507
775295350.0 0.0048416378 0.1913943051 -0.0435965241 -0.5543889682 -0.0436035844 -0.554961428 0.0466378338 0.1799957472
780295320.0 0.0069531724 0.1917556115 -0.049747802 -0.55417549 -0.0492875425 -0.5542830567 0.0490127064 0.1790699266
785295290.0 0.0085708479 0.1912741756 -0.055732822 -0.5530621252 -0.0554607649 -0.5535342143 0.0514772959 0.1790434879
790295260.0 0.0109967991 0.1920793208 -0.0610994633 -0.5527955244 -0.0606566601 -0.5527625828 0.0535543523 0.1784974164
795295230.0 0.0125545814 0.1916321277 -0.0670773152 -0.5519599802 -0.0669329924 -0.5523309943 0.0556157019 0.1780304299
800295200.0 0.0143371915 0.191992638 -0.0738530038 -0.5512053728 -0.0733535463 -0.5511574246 0.0575821523 0.1773341163
805295170.0 0.0163542964 0.191796659 -0.0794841356 -0.5506130272 -0.0796057217 -0.5507270674 0.0594103942 0.1772003235
810295140.0 0.0176410367 0.1916374609 -0.0847618724 -0.5494728961 -0.0850472492 -0.5495937801 0.0619984574 0.1768406132
815295110.0 0.0198036265 0.191299559 -0.0909040774 -0.5485212534 -0.0907035819 -0.5484178886 0.0635001049 0.1761920676
820295080.0 0.0214105422 0.1918969427 -0.0966981896 -0.5470487201 -0.0964993109 -0.5475258643 0.0654402865 0.1754552943
825295050.0 0.0242051402 0.1915817886 -0.1025625086 -0.5461031469 -0.1028538699 -0.5465873725 0.0675958201 0.1748554742
830295020.0 0.0254958306 0.1916388579 -0.1085098124 -0.5447938604 -0.1085757026 -0.544780451 0.0702662245 0.1742715702
