!Created with skrf (http://scikit-rf.org).
# Hz S RI R 50.0 
!freq ReS11 ImS11 ReS21 ImS21 ReS12 ImS12 ReS22 ImS22
300000.0 -0.2407191679 -0.072215539 0.4743864934 0.0484091022 0.4682583286 0.0471785068 -0.2432035644 -0.0855664108
5299970.0 -0.2444811282 0.0077679199 0.4735628173 0.0045145171 0.4734812814 0.0049502022 -0.2446319701 0.0075157038
10299940.0 -0.2411610872 0.0188175208 0.4755656531 0.0058260027 0.4755186618 0.0062529063 -0.2411039478 0.020464355
15299910.0 -0.2368528463 0.0278220618 0.479424863 0.00749849 0.4795375943 0.0077449163 -0.2366869222 0.0298783495
20299880.0 -0.232210243 0.0355837472 0.4841123374 0.0085175404 0.4840263278 0.0082273354 -0.2314275341 0.0376594164
25299850.0 -0.2270275912 0.0420753863 0.4894487217 0.0073814197 0.4891386202 0.007695354 -0.2253306331 0.043803443
30299820.0 -0.2216998172 0.0472875274 0.4947776684 0.0054390289 0.4946467094 0.0052229864 -0.2194117191 0.0490245614
35299790.0 -0.2165252623 0.0512932563 0.4999829946 0.0022860634 0.5000479063 0.0019635291 -0.2139113437 0.0531841288
40299760.0 -0.2116469548 0.0550177973 0.5050252214 -0.0018689694 0.5052894428 -0.0017497142 -0.2083924969 0.0557424052
45299730.0 -0.2069180532 0.0576996748 0.509822673 -0.006336646 0.510006077 -0.006375005 -0.2037283797 0.0587702984
50299700.0 -0.2025134332 0.0598561656 0.5144361104 -0.01194503 0.5143380847 -0.0115129968 -0.1986570164 0.0602320534
55299670.0 -0.1986336097 0.061779286 0.5181238719 -0.0183570024 0.5177109743 -0.0177465642 -0.1944306821 0.0618918531
60299640.0 -0.1942935806 0.0633105184 0.5211655079 -0.0240660381 0.5217816758 -0.0239066872 -0.1903618543 0.0630290895
65299610.0 -0.1910996738 0.0647483786 0.52412251 -0.0307542257 0.5243682742 -0.030721881 -0.186995857 0.0639914118
70299580.0 -0.1879989905 0.0660936399 0.5266931795 -0.0371876103 0.5264912957 -0.0370293895 -0.1835113882 0.0646932088
75299550.0 -0.1849351831 0.067230414 0.5282178116 -0.0439694334 0.5283957612 -0.0442306635 -0.1808698638 0.0652266848
80299520.0 -0.1824258272 0.0680762382 0.5306590714 -0.0510205476 0.5308370064 -0.0509176125 -0.17824232 0.0659066776
85299490.0 -0.1799727676 0.0685607658 0.5313814647 -0.0577398253 0.5318900449 -0.0575414913 -0.1760444506 0.0660316292
90299460.0 -0.1777672169 0.0695426527 0.5327491319 -0.0645753362 0.5329187839 -0.0646241935 -0.173556947 0.0667023839
95299430.0 -0.175654518 0.0704144635 0.5337297472 -0.0715810366 0.5337770365 -0.0715699574 -0.1713387121 0.0672258389
100299400.0 -0.1738321532 0.0713378235 0.5337426296 -0.0782448095 0.5341148725 -0.0786342859 -0.1693087939 0.0675265175
105299370.0 -0.1720829613 0.0722071946 0.5346576052 -0.0855255772 0.5347404807 -0.0855101881 -0.1674183495 0.068306937
110299340.0 -0.1702572211 0.072908059 0.5343291854 -0.0919347161 0.5345122709 -0.0917768147 -0.1664965162 0.068507603
115299310.0 -0.1686635719 0.073655047 0.5344872725 -0.0990252838 0.5347029219 -0.0989916984 -0.1650488487 0.0693291383
120299280.0 -0.1674356638 0.0746395978 0.5344416006 -0.105769657 0.5348127063 -0.1057751901 -0.1633485915 0.0697991798
125299250.0 -0.1662039907 0.0754217128 0.5342679621 -0.112324803 0.5340685941 -0.1122085124 -0.1622855269 0.0702414054
130299220.0 -0.1650502494 0.0766516632 0.5332255009 -0.119255854 0.5334578397 -0.1194704858 -0.1613108948 0.070664817
135299190.0 -0.1638425708 0.0780031591 0.5331697374 -0.125809607 0.5326275261 -0.1259790256 -0.1600258992 0.0713375355
140299160.0 -0.1627897543 0.0788799057 0.5320107446 -0.132533401 0.5322940023 -0.1329289543 -0.1588197765 0.0724678899
145299130.0 -0.1615835986 0.0798564583 0.5315638685 -0.139004473 0.5309577293 -0.1394528673 -0.1581869761 0.0730175561
150299100.0 -0.1602090413 0.0811913269 0.530090463 -0.1450106915 0.5298932324 -0.1452242512 -0.1571913161 0.0743097128
155299070.0 -0.1594401371 0.082129702 0.528810497 -0.1528380585 0.5284382793 -0.1522207324 -0.1561635203 0.0746304575
160299040.0 -0.1582009514 0.0834556368 0.5275687443 -0.1589941556 0.5270646409 -0.1585937218 -0.1559154149 0.0756188167
165299010.0 -0.157491864 0.0846611203 0.5258795589 -0.1653802177 0.5261294488 -0.1650985517 -0.1548170976 0.0766715147
170298980.0 -0.1566195565 0.0857656262 0.5241885235 -0.171622492 0.5247700797 -0.1718709328 -0.1536886029 0.0778641079
175298950.0 -0.155763075 0.0868692573 0.523123758 -0.1773064625 0.5227738237 -0.1774246932 -0.1533723794 0.0787022081
180298920.0 -0.155057477 0.0884398809 0.5212029162 -0.1843025675 0.5212194681 -0.1838198087 -0.1526305741 0.0798941342
185298890.0 -0.1534159939 0.0895131259 0.519408636 -0.1903567772 0.5192249266 -0.1903388135 -0.1515793677 0.0811592236
190298860.0 -0.1529756151 0.0909552302 0.5177203329 -0.1967322644 0.5175056437 -0.19645132 -0.1511245552 0.0816384803
195298830.0 -0.1518843976 0.0920863423 0.515206197 -0.2025963594 0.5155536024 -0.2025005169 -0.1501695119 0.0828240509
200298800.0 -0.1508002621 0.0936667394 0.5132196706 -0.2088789995 0.5132823665 -0.2090306232 -0.1496413881 0.0839956817
205298770.0 -0.1499599272 0.0949731193 0.5110582956 -0.2151080314 0.5109163547 -0.2146780393 -0.148908024 0.0845085736
210298740.0 -0.1488984505 0.0963206026 0.5086394814 -0.22068634 0.5086373806 -0.2208603904 -0.1479675236 0.0864407765
215298710.0 -0.1482824761 0.0977243928 0.5066383793 -0.2268923522 0.5064394425 -0.2272752784 -0.1473507008 0.0875588217
220298680.0 -0.1470188868 0.09888514 0.5035575057 -0.2324110891 0.5040154812 -0.232609109 -0.1467702702 0.0884677178
225298650.0 -0.1460494274 0.1005124156 0.5012648368 -0.2384528671 0.5016754924 -0.2383340301 -0.1462170486 0.0896627332
230298620.0 -0.1448448971 0.1020857285 0.498973349 -0.2441577995 0.499520599 -0.2442102746 -0.1456933756 0.0903843713
235298590.0 -0.1441496771 0.1035806679 0.4960834394 -0.2498457805 0.4964859253 -0.2497698306 -0.1448305849 0.0920228879
240298560.0 -0.1430912894 0.1050435444 0.4938853158 -0.2560327388 0.4937321035 -0.2558926277 -0.1439576451 0.0934906613
245298530.0 -0.1421861894 0.1065355278 0.4913437613 -0.2614445333 0.4911511955 -0.2615822248 -0.1429052556 0.0940736909
250298500.0 -0.1408789657 0.1081836474 0.4874912245 -0.2671356264 0.4874415649 -0.2667306815 -0.1422585074 0.095520324
255298470.0 -0.1399255131 0.1091673641 0.4849330581 -0.272781737 0.4851006641 -0.2724542337 -0.1411571044 0.0970764756
260298440.0 -0.1390470378 0.1105771118 0.4821339586 -0.2784918162 0.482337026 -0.2779703793 -0.1405262355 0.0981733868
265298410.0 -0.1374981479 0.1123618954 0.4792658524 -0.2841644394 0.4793068491 -0.2834041588 -0.1394403367 0.0995953395
270298380.0 -0.1368018073 0.1135542135 0.4765786618 -0.2889077593 0.4761739007 -0.2890889502 -0.1390832723 0.1007838036
275298350.0 -0.1351618666 0.1151101539 0.4732198139 -0.2942462049 0.4732306016 -0.2946687248 -0.1378840144 0.1019512074
280298320.0 -0.1340709724 0.1166134237 0.470074836 -0.2998625965 0.4701550148 -0.3000795998 -0.1367687418 0.1035355782
285298290.0 -0.1327422997 0.1181630207 0.4664571347 -0.305479855 0.4665606723 -0.3053727371 -0.1360153924 0.1044838225
290298260.0 -0.1317527456 0.119695599 0.4628737391 -0.3102869444 0.4632526873 -0.3108848623 -0.1347631383 0.1060813046
295298230.0 -0.1303516774 0.1208144954 0.4596757277 -0.3158652888 0.4599464015 -0.3159870667 -0.1336080594 0.1070017698
300298200.0 -0.1293154897 0.1225790621 0.4565586743 -0.3207774004 0.4567984164 -0.3210992234 -0.1328769065 0.1081242756
305298170.0 -0.1277624957 0.1236335305 0.4526370463 -0.3264872205 0.452941457 -0.3263473832 -0.1315395393 0.1094141877
310298140.0 -0.1265011249 0.1252643252 0.4491147409 -0.3317319575 0.4492527026 -0.3313798746 -0.1308961809 0.1105860778
315298110.0 -0.1254233532 0.1261664901 0.445744301 -0.3365616518 0.4461712638 -0.3364097764 -0.1299869592 0.1116652047
320298080.0 -0.1238217325 0.1275461186 0.4414917964 -0.3422102462 0.4421441851 -0.3417670586 -0.1288029212 0.1130433267
325298050.0 -0.122684555 0.1288963242 0.4377675864 -0.3472407054 0.4381640062 -0.3470019238 -0.128389282 0.1139345236
330298020.0 -0.1216250122 0.1301306741 0.4341178405 -0.3518383268 0.4343030391 -0.35210434 -0.1274274028 0.1155065563
335297990.0 -0.1206460746 0.13127122 0.4301882646 -0.3566224204 0.4298533665 -0.3568799639 -0.1267710537 0.1172448872
340297960.0 -0.1195005419 0.1331738877 0.4256521651 -0.3616423676 0.4255519826 -0.3616946883 -0.1253749033 0.1182336024
345297930.0 -0.1181849398 0.1347086174 0.4221762204 -0.3664568597 0.421829038 -0.3662983881 -0.1246591808 0.1191368201
350297900.0 -0.1168354142 0.1356779914 0.4170898098 -0.3710671903 0.4174776393 -0.3706202295 -0.1241220667 0.1208358017
355297870.0 -0.1152565839 0.1375150755 0.4134417348 -0.3754934295 0.4137058445 -0.375310118 -0.1229983878 0.1221067403
360297840.0 -0.1138897605 0.1387693302 0.4097213512 -0.3800350117 0.4096942387 -0.3796003397 -0.121539798 0.1236584654
365297810.0 -0.1128901936 0.1404592252 0.4049818262 -0.3843719273 0.4052386775 -0.3847877812 -0.1202076137 0.1250302057
370297780.0 -0.1105531038 0.1415072082 0.4001492902 -0.3886616208 0.401214891 -0.3885707831 -0.1195731873 0.1261614533
375297750.0 -0.1089508257 0.1429406137 0.3965809258 -0.393340966 0.3969330115 -0.3934107575 -0.1181731202 0.1274502379
380297720.0 -0.1076843799 0.1442631345 0.3920815957 -0.3979098848 0.3923105193 -0.3971901288 -0.1175088112 0.1286525116
385297690.0 -0.1063163919 0.1455163986 0.3878864137 -0.4017301896 0.3877784388 -0.4018916566 -0.1158280099 0.1300138964
390297660.0 -0.1048744347 0.1470637539 0.3833988293 -0.4059542356 0.3831302419 -0.4059706319 -0.115002737 0.1309838431
395297630.0 -0.1033524534 0.1483786147 0.3790322244 -0.4103194029 0.3790818905 -0.4104582956 -0.112914289 0.1326592329
400297600.0 -0.1019249071 0.1496458035 0.3740429894 -0.4149159054 0.3742946977 -0.4144480773 -0.1122977323 0.1334727862
405297570.0 -0.1001124026 0.1510168683 0.3696308041 -0.4185320275 0.3698283514 -0.4182598069 -0.1113827435 0.1347120814
410297540.0 -0.0986357915 0.1519300671 0.3651604347 -0.4228975305 0.3655564765 -0.4230374248 -0.109581824 0.1362330966
415297510.0 -0.0967154249 0.1531671545 0.3604981905 -0.4266940531 0.3608266438 -0.4267993734 -0.1085908753 0.1375992348
420297480.0 -0.0952809985 0.1544304667 0.355489432 -0.4304706436 0.3557697075 -0.4307415724 -0.1074518076 0.138255657
425297450.0 -0.0936804905 0.1555450227 0.3514829564 -0.4344927168 0.3513102953 -0.4344254757 -0.1063456668 0.1397912983
430297420.0 -0.091998663 0.1566441357 0.3462431497 -0.4379459318 0.3463673066 -0.4379864909 -0.1051448862 0.1408644333
435297390.0 -0.0902188815 0.1579625171 0.3411037181 -0.4416208463 0.3410418228 -0.4419540341 -0.1029854793 0.1418896221
440297360.0 -0.0884688392 0.1589990939 0.3363693449 -0.4455108566 0.3369524975 -0.4456562813 -0.1021211393 0.142957137
445297330.0 -0.0868172809 0.1599482961 0.3320895207 -0.4493049863 0.3318433113 -0.4492982653 -0.1008374843 0.1438917274
450297300.0 -0.0848087159 0.1610397222 0.326893795 -0.4530365535 0.3268341662 -0.4528956424 -0.0994446518 0.1449215537
455297270.0 -0.0833331332 0.1622856184 0.3216201496 -0.4561657827 0.322030424 -0.4563101087 -0.0983563259 0.1461552625
460297240.0 -0.0815602202 0.1631760851 0.316513957 -0.4596592243 0.3169690362 -0.4601757167 -0.0967299502 0.1475068291
465297210.0 -0.0795143324 0.1644090751 0.3119781831 -0.4634032912 0.3115093443 -0.4636710506 -0.0951836746 0.1482965686
470297180.0 -0.0777373132 0.1653199952 0.3065391788 -0.4670452652 0.3066796122 -0.4667800215 -0.0939326457 0.1497885158
475297150.0 -0.076015296 0.1660104081 0.301393803 -0.4693958707 0.3017143039 -0.4695140541 -0.0919717277 0.1503410905
480297120.0 -0.074240648 0.1674756766 0.2962655658 -0.4733775671 0.2961295742 -0.4731815857 -0.090526072 0.1516809214
485297090.0 -0.0724654822 0.1682782137 0.2913432922 -0.4761991438 0.2913210766 -0.4761051846 -0.0892363357 0.1521801036
490297060.0 -0.0708742845 0.169365801 0.2863128702 -0.480000116 0.2862710014 -0.4795455756 -0.0877417315 0.1538369203
495297030.0 -0.0688282414 0.1702502459 0.2807510743 -0.4826911379 0.2811842976 -0.4825088613 -0.0865779936 0.154533495
500297000.0 -0.0669838913 0.1708879814 0.2755433003 -0.4850945868 0.2749379543 -0.4850725772 -0.0848806749 0.155921257
505296970.0 -0.064901602 0.1719189128 0.2701605565 -0.488591513 0.270351603 -0.4885744319 -0.0836990588 0.1568832003
510296940.0 -0.0628712419 0.172511372 0.2644898002 -0.4914740265 0.2645908363 -0.4916059644 -0.081881682 0.1574867593
515296910.0 -0.061228489 0.173554827 0.2594293235 -0.4943591712 0.259315657 -0.4938788696 -0.0802816504 0.1584197002
520296880.0 -0.059413529 0.1744838 0.2540803536 -0.4973203474 0.254292938 -0.4967842569 -0.0790822653 0.1592929424
525296850.0 -0.057217027 0.1744797571 0.2478457746 -0.499139913 0.2488488582 -0.4994970106 -0.077276181 0.1603248144
530296820.0 -0.0553130075 0.1758538483 0.2429274085 -0.5025946487 0.2431218552 -0.502490938 -0.0758730181 0.1614045465
535296790.0 -0.0537532416 0.1766303241 0.2376999255 -0.5049335306 0.2379476198 -0.5044776193 -0.0745474948 0.1617299548
540296760.0 -0.0519776084 0.1773923817 0.2322823338 -0.5076563962 0.2321900105 -0.5078529109 -0.0731189423 0.1634472217
545296730.0 -0.0499873283 0.1779796046 0.2264013015 -0.5095377907 0.2268291495 -0.5101464036 -0.0715607413 0.1635613807
550296700.0 -0.0477761911 0.178981098 0.2209184551 -0.5122588982 0.2211655873 -0.5126077082 -0.0698795804 0.1647376209
555296670.0 -0.0461081423 0.179167266 0.2156241658 -0.5145962896 0.2156635023 -0.5145243271 -0.0680098063 0.1659403929
560296640.0 -0.0433134232 0.1804672473 0.2098540514 -0.5171821724 0.2100846118 -0.5170037096 -0.0665729456 0.1661523187
565296610.0 -0.0421510759 0.1806952708 0.2040250205 -0.5193314651 0.2041364105 -0.5193283373 -0.0651723964 0.1664919858
570296580.0 -0.0399030821 0.1814036194 0.1988522375 -0.5222452289 0.1981906944 -0.5215146847 -0.0633521076 0.168328117
575296550.0 -0.0381916209 0.1822360787 0.1929007121 -0.5241278114 0.1928949722 -0.5237546386 -0.0615633884 0.1687366869
580296520.0 -0.0360171887 0.1826213522 0.1870092933 -0.5258072646 0.1874054677 -0.5256887651 -0.0602699938 0.1695387967
585296490.0 -0.0339303608 0.1827425081 0.181415262 -0.5271283928 0.1815744784 -0.5276149006 -0.0587109177 0.1704677744
590296460.0 -0.0315598992 0.1833127999 0.1757572198 -0.5287266932 0.1761353375 -0.5291829744 -0.0573789819 0.1708784345
595296430.0 -0.0296427539 0.1840236104 0.1697266589 -0.5315166728 0.1698724364 -0.5311494017 -0.0550094466 0.1711567317
600296400.0 -0.0279791464 0.1845774418 0.1641336536 -0.5332955496 0.1642752067 -0.532608458 -0.0537460495 0.1720888016
605296370.0 -0.0259917779 0.1849336673 0.1584013762 -0.5346292265 0.1585872725 -0.5348691911 -0.0519939366 0.1729681876
610296340.0 -0.0239798966 0.1853087903 0.1519953686 -0.536310017 0.1527592329 -0.5361779712 -0.0498665667 0.1736441171
615296310.0 -0.0216727937 0.1854663992 0.1466417704 -0.5375505851 0.1465688968 -0.5383997571 -0.0481832223 0.1741360531
620296280.0 -0.0195631623 0.1858000512 0.140611779 -0.5395124722 0.1408659837 -0.5394310014 -0.0467779384 0.1747421742
625296250.0 -0.0178059681 0.1860267756 0.1356055747 -0.5408746044 0.1351824311 -0.5410672181 -0.0447044638 0.175433773
630296220.0 -0.0149291748 0.1866407034 0.1287615605 -0.542515521 0.1285310962 -0.5422010262 -0.0431923532 0.1761489527
635296190.0 -0.0136951735 0.1868796015 0.1235546192 -0.5436523309 0.1231288409 -0.544010431 -0.0415895509 0.1767034021
640296160.0 -0.0116743336 0.1873696902 0.1172854074 -0.5450081667 0.1177701572 -0.5448370314 -0.0396911204 0.1773380372
645296130.0 -0.0094806323 0.1876235978 0.1111079711 -0.5458255306 0.1117746316 -0.5460282184 -0.0380432819 0.1778390116
650296100.0 -0.007235128 0.1877605972 0.1055895099 -0.547009823 0.1057836255 -0.5474185755 -0.0362187025 0.1777276826
655296070.0 -0.0052393204 0.1878052682 0.0992325566 -0.5482147851 0.0999334289 -0.5486009513 -0.0344820259 0.1787211359
660296040.0 -0.0035681309 0.187810895 0.0937186798 -0.5493150473 0.0939194007 -0.5493602463 -0.0328058635 0.1792783728
665296010.0 -0.0008373746 0.1880992696 0.0872663237 -0.5502072387 0.0878406366 -0.5502281488 -0.0308765888 0.1802429112
670295980.0 0.0003655138 0.1885785284 0.0818159605 -0.551155395 0.0816599358 -0.5510828781 -0.0293912627 0.1805062328
675295950.0 0.0029159426 0.1888345171 0.0756383336 -0.5520892918 0.0762095651 -0.551651749 -0.027929941 0.1807124403
680295920.0 0.0044845273 0.1884363746 0.0696871685 -0.5521790165 0.0694329409 -0.5530261837 -0.0257877524 0.1816743199
685295890.0 0.0067931698 0.189083966 0.0639664063 -0.5530984534 0.0638551321 -0.55362104 -0.0240192418 0.1816428887
690295860.0 0.0090634732 0.1889928104 0.0579195927 -0.5536535345 0.0581792618 -0.5547543625 -0.0226903635 0.1827903205
695295830.0 0.011056553 0.1888296666 0.0519814039 -0.5542585196 0.0519002329 -0.5544492823 -0.0208188004 0.182602344
700295800.0 0.0130884557 0.1889426136 0.0458366808 -0.5550052573 0.0455461873 -0.5547049229 -0.0191478395 0.1832373606
705295770.0 0.0151507526 0.1893039659 0.0396481797 -0.5554058741 0.040249497 -0.5559106712 -0.0174091213 0.1837037908
710295740.0 0.0174546697 0.188851987 0.0337032961 -0.555935933 0.0346299794 -0.5560899377 -0.0154628781 0.1834225735
715295710.0 0.0190955136 0.1888575633 0.0281615106 -0.5564478727 0.0277678792 -0.5560998567 -0.0136557877 0.1837092668
720295680.0 0.0214501775 0.1885524268 0.0219532055 -0.5564395612 0.0222138675 -0.5565151653 -0.0118265957 0.1845004657
725295650.0 0.0237878939 0.1885870221 0.015899062 -0.5564411185 0.0160775021 -0.5570645774 -0.0104413113 0.1848623851
730295620.0 0.025771139 0.1890128117 0.0098342284 -0.5563510262 0.0100570723 -0.5568490092 -0.0087873329 0.1848961947
735295590.0 0.027503928 0.18870346 0.0040016628 -0.5569303565 0.0038646034 -0.5569334642 -0.0069120319 0.1848994302
740295560.0 0.0297800475 0.1886431693 -0.001896963 -0.556782219 -0.0021179004 -0.5569234928 -0.0042370899 0.1854508682
745295530.0 0.0317333319 0.1882398554 -0.0079726119 -0.5561387895 -0.0081585417 -0.5566273641 -0.0028698329 0.1851971306
750295500.0 0.0339876094 0.1878880319 -0.0141261129 -0.5562065449 -0.0138581552 -0.5565384402 -0.001133624 0.1855183081
755295470.0 0.0359683749 0.1873737292 -0.0196994318 -0.5561532795 -0.0198361445 -0.5565647813 0.001200143 0.1852480794
760295440.0 0.0377046503 0.187324817 -0.025897803 -0.5562069542 -0.0259435653 -0.5562035543 0.0023200551 0.1857192852
765295410.0 0.0399082581 0.1872769298 -0.0319569375 -0.5553611064 -0.0325758402 -0.5559689724 0.0045682868 0.1861524587
770295380.0 0.0419982463 0.1869377575 -0.0381651794 -0.5551130372 -0.038037627 -0.5550517305 0.0061496259 0.1859714245
775295350.0 0.0438981983 0.1861641525 -0.044307563 -0.5544840993 -0.0433650097 -0.5546828987 0.0075472495 0.1864006889
780295320.0 0.0459819839 0.1860568288 -0.0498598552 -0.5540553703 -0.0491727236 -0.5541344086 0.0094496091 0.1858356779
785295290.0 0.0477822424 0.1851973154 -0.0559738163 -0.5529505398 -0.0557161787 -0.55374162 0.0118243819 0.1862616761
790295260.0 0.0504869035 0.1853848955 -0.0614942566 -0.5528440461 -0.0609144312 -0.5529078689 0.0135629823 0.1861050484
795295230.0 0.0524669583 0.1847166921 -0.0678939398 -0.5519564198 -0.0672619142 -0.5525635457 0.015508181 0.1861189174
800295200.0 0.0542258593 0.1845427333 -0.0741956029 -0.5511667526 -0.0736208379 -0.5511527235 0.0175966805 0.1863105039
805295170.0 0.0562656473 0.1837530164 -0.079744621 -0.5501365317 -0.0798243309 -0.5508538609 0.0190812764 0.1864527654
810295140.0 0.0581700957 0.1830599088 -0.0850897164 -0.5490500865 -0.0856696553 -0.5498368168 0.0214354952 0.1864410671
815295110.0 0.0601965474 0.182502281 -0.0913224192 -0.5482840338 -0.0908085518 -0.5484618397 0.0227088026 0.1864406074
820295080.0 0.0620695699 0.182869688 -0.0974766857 -0.546830651 -0.0968324366 -0.5472900388 0.0248035253 0.1861374133
825295050.0 0.0647910346 0.1815535871 -0.1026935513 -0.5456978046 -0.1032024436 -0.5468920025 0.0266009915 0.1861643623
830295020.0 0.0663619764 0.1814113854 -0.1089753888 -0.5449715116 -0.108790938 -0.5448824748 0.0289030827 0.1861024456
