!Created with skrf (http://scikit-rf.org).
# Hz S RI R 50.0 
!freq ReS11 ImS11 ReS21 ImS21 ReS12 ImS12 ReS22 ImS22
300000.0 -0.0497815353 -0.0522681459 -0.0014474484 -9.64761e-05 -0.0002432329 0.000483874 -0.7706366822 -0.1584131692
5299970.0 -0.0489478562 0.0158889938 0.0001666893 -0.0001619408 9.6753e-06 2.64644e-05 -0.7846662513 -0.0082845974
10299940.0 -0.0430174887 0.0334881678 1.29836e-05 0.0001558711 0.0001017928 -9.6219e-06 -0.788101906 -0.0048734564
15299910.0 -0.0350473075 0.0480788321 0.0002357424 -8.91051e-05 -8.591e-07 7.98998e-05 -0.7931602911 -0.0028777884
20299880.0 -0.0246404907 0.0597315246 -6.60423e-05 -0.0001168773 4.08708e-05 0.000147901 -0.800404747 0.0016798868
25299850.0 -0.0132657695 0.0691034062 -0.0003653586 0.000134882 -2.49609e-05 0.0001115101 -0.8065126837 0.0075268907
30299820.0 -0.0012080818 0.0757112026 -8.09083e-05 0.0001912539 -2.98178e-05 -0.0001105428 -0.8123641983 0.0149215115
35299790.0 0.0104698151 0.0806049668 -4.48824e-05 -4.94118e-05 -0.0001735143 6.05106e-05 -0.8176019494 0.0236920622
40299760.0 0.0218960469 0.0829988366 -0.0001024835 0.0001416826 3.2557e-06 -4.60336e-05 -0.8214391765 0.0330667795
45299730.0 0.0325874866 0.0848120872 0.000165091 -4.80881e-05 6.27747e-05 9.03433e-05 -0.8251379193 0.0425126785
50299700.0 0.0429252665 0.084300332 0.0001201774 0.0001373276 4.56025e-05 0.0001183889 -0.8275190033 0.0527108496
55299670.0 0.0521961999 0.0833062779 8.5241e-05 3.38902e-05 0.0001015273 6.40872e-05 -0.8297688223 0.0633492627
60299640.0 0.0606531382 0.0811795132 7.52646e-05 -2.82591e-05 -0.0001211041 0.0001547045 -0.8311292038 0.0732124847
65299610.0 0.0685844351 0.0787038268 -1.24959e-05 2.4424e-05 6.7576e-06 -0.0001133618 -0.8315133602 0.0832369655
70299580.0 0.0756354245 0.0756525347 0.0001110649 -0.0001077516 4.52776e-05 -6.54707e-05 -0.8318502311 0.0930729523
75299550.0 0.082084595 0.07203495 -0.0001625489 -0.0001808557 2.50049e-05 7.60256e-05 -0.8324794225 0.1027030875
80299520.0 0.0873426551 0.0688496483 -7.55168e-05 0.0001596242 -8.42346e-05 -9.32049e-05 -0.8318524343 0.1120404221
85299490.0 0.0927775086 0.0647025306 -0.0001077766 0.0002467861 7.31166e-05 0.0001637749 -0.8319143516 0.1221770861
90299460.0 0.0973741503 0.0611341832 -0.0001668155 -8.75097e-05 -0.0001660474 3.05331e-05 -0.8303009083 0.1316624822
95299430.0 0.1013606964 0.0565833462 0.0001137098 0.0001374753 0.0001283192 0.0001627785 -0.8301192429 0.1410253414
100299400.0 0.104906312 0.0531789043 -0.000221827 5.21119e-05 -0.000221749 -5.50739e-05 -0.828833006 0.1502083932
105299370.0 0.1082629614 0.0489476294 -0.0001089067 -0.0001209504 0.0001797046 9.20772e-05 -0.8280812889 0.1591037664
110299340.0 0.1109552577 0.0447431258 -0.000183313 0.0002620242 2.17624e-05 5.37847e-05 -0.8269125495 0.1684336501
115299310.0 0.1135221539 0.040250616 -3.08507e-05 6.97193e-05 -3.75704e-05 7.07978e-05 -0.8242944146 0.177276747
120299280.0 0.115613812 0.0368303309 0.0001403434 -0.0001089426 -5.62005e-05 0.0001620812 -0.8229908456 0.1860729208
125299250.0 0.1174103394 0.0323073373 7.56517e-05 6.0347e-06 5.31551e-05 9.97881e-05 -0.8219796194 0.1953964729
130299220.0 0.1193302093 0.0291444036 7.35098e-05 6.12602e-05 1.52277e-05 0.0001604244 -0.8198873727 0.2044221086
135299190.0 0.1208916866 0.0251962151 -6.96339e-05 4.1234e-05 6.03134e-05 -6.4619e-05 -0.8178662601 0.2126476225
140299160.0 0.1220328862 0.0214913246 0.0001785439 0.0001344356 -2.58682e-05 8.53043e-05 -0.8159358031 0.2221307271
145299130.0 0.1230726273 0.0176596959 0.0002138912 2.01143e-05 -5.1993e-05 -6.04486e-05 -0.8134334112 0.2302549145
150299100.0 0.1239536008 0.014165081 -0.0001379612 4.98988e-05 1.38093e-05 9.64602e-05 -0.8111863352 0.2387951117
155299070.0 0.124487744 0.0107744846 3.04807e-05 -3.25886e-05 7.50958e-05 0.0002100897 -0.8095048877 0.2480192833
160299040.0 0.1251320408 0.0073919386 6.45563e-05 0.0002125003 -3.92775e-05 0.0002778058 -0.8069309065 0.2571716943
165299010.0 0.1253163864 0.0043032641 3.11323e-05 -2.85367e-05 -8.124e-07 -6.37805e-05 -0.8037138301 0.2653345986
170298980.0 0.1255997876 0.000886776 5.93353e-05 2.02863e-05 5.59999e-05 -6.59145e-05 -0.8020270407 0.2738039457
175298950.0 0.1263246794 -0.0019763447 9.51086e-05 -9.78466e-05 0.000168247 8.52833e-05 -0.7988375406 0.2821005586
180298920.0 0.1261024774 -0.005318023 1.14708e-05 3.08197e-05 6.89174e-05 0.0001060378 -0.7951539114 0.2909872945
185298890.0 0.1259653734 -0.008329172 0.0001848591 -1.3308e-06 -6.67002e-05 0.0003294941 -0.7926903535 0.2985300267
190298860.0 0.1261150474 -0.0112473226 2.3305e-06 0.0001041117 5.9172e-06 8.136e-07 -0.7897106482 0.3075861613
195298830.0 0.1264374119 -0.0143313075 4.0945e-05 0.0001610883 5.78779e-05 0.0001205248 -0.787052978 0.3152814842
200298800.0 0.1257739592 -0.0168290673 2.5389e-05 -9.9089e-06 0.0002503962 7.54432e-05 -0.7829434762 0.3241049223
205298770.0 0.1253283661 -0.019734525 -6.70298e-05 0.0001007649 1.26981e-05 -4.10776e-05 -0.7801940913 0.3326147486
210298740.0 0.1252365951 -0.0222896156 0.0001784645 -2.05141e-05 0.0001178697 -8.50947e-05 -0.7767435454 0.3409207189
215298710.0 0.1247570346 -0.0251045712 0.0002429034 -7.02726e-05 7.06335e-05 0.0002170546 -0.7730056451 0.3485912547
220298680.0 0.1239739271 -0.0277099088 -1.07417e-05 3.1716e-06 -0.0001172327 8.7616e-06 -0.769208137 0.3572063905
225298650.0 0.1238286609 -0.0299355549 0.000147974 0.0001558947 0.0001338947 -2.00684e-05 -0.7658988 0.3647401013
230298620.0 0.1231101159 -0.0323225815 0.0001132826 2.86222e-05 -6.50459e-05 0.0001646235 -0.7612451371 0.3727173734
235298590.0 0.1223265187 -0.0348368767 2.86216e-05 1.04064e-05 -2.09331e-05 0.0002915762 -0.7577105292 0.3809159151
240298560.0 0.121794706 -0.0373715348 -2.98388e-05 0.0002999148 -0.0002295211 7.93467e-05 -0.7539687557 0.388495414
245298530.0 0.1212785128 -0.0395312664 0.0001084471 7.61284e-05 0.0001199262 -1.73557e-05 -0.7498297896 0.3968576226
250298500.0 0.1201841719 -0.0420187224 8.24023e-05 -0.0001064438 2.82848e-05 5.6613e-05 -0.7458787139 0.4049318663
255298470.0 0.1193886974 -0.0441350817 0.0001198121 -0.000113302 0.0001921446 0.0001644978 -0.74078898 0.4131114218
260298440.0 0.1186148297 -0.0461952012 1.94603e-05 9.823e-05 0.0001237332 -1.8925e-05 -0.7364884604 0.4199416609
265298410.0 0.1176348898 -0.0481639672 0.0002040468 0.0001572777 -7.55923e-05 0.0001820676 -0.7324336522 0.4274354466
270298380.0 0.1169817863 -0.0503580372 2.78231e-05 -5.78136e-05 0.0001520481 0.0001159489 -0.727277495 0.4357054735
275298350.0 0.1161136569 -0.0522639017 -5.72661e-05 6.21296e-05 0.0001962405 3.86051e-05 -0.722689515 0.443064621
280298320.0 0.1151316883 -0.0544231666 -4.74675e-05 0.000240535 0.000114907 -0.0001377781 -0.7184151035 0.4506863208
285298290.0 0.1142858542 -0.0561840777 7.02497e-05 4.90529e-05 -4.5477e-06 -2.45654e-05 -0.7133660357 0.457351304
290298260.0 0.1131936776 -0.0583568897 -0.0001617756 -0.0002514074 0.0002911795 8.75171e-05 -0.7087222404 0.4655485019
295298230.0 0.1122991389 -0.0601175256 -2.9864e-06 8.70459e-05 2.98517e-05 2.28631e-05 -0.7037357875 0.4727766984
300298200.0 0.1113118596 -0.0625895672 0.0001253911 0.0004528291 0.000148487 2.2573e-05 -0.69852428 0.480386249
305298170.0 0.1106865627 -0.0642903715 6.373e-07 0.0001765586 -3.99198e-05 -6.80991e-05 -0.6934534059 0.4877890421
310298140.0 0.1091902003 -0.0662656589 0.0001212567 -0.0001035769 -2.4662e-06 0.0001968941 -0.6882910123 0.4948920523
315298110.0 0.107844465 -0.0681460663 0.0002099307 0.000201027 0.0001251829 -7.99753e-05 -0.6828394139 0.5021333209
320298080.0 0.1064203985 -0.0701238667 9.17799e-05 7.73972e-05 3.42927e-05 0.0001407205 -0.6774440427 0.509787287
325298050.0 0.1048755829 -0.0720163328 6.20308e-05 -0.0002931287 0.0002229084 -1.6575e-05 -0.6720464878 0.5162179335
330298020.0 0.1036102906 -0.0735231279 0.0001628924 0.0001600208 0.0001575629 6.34035e-05 -0.666679025 0.5238608573
335297990.0 0.1020599869 -0.0750216227 0.0003660584 -1.08352e-05 0.000150187 -4.67801e-05 -0.6613216065 0.5300066484
340297960.0 0.1006657655 -0.0763483495 2.88848e-05 0.000129513 0.0001942231 6.5375e-06 -0.655303581 0.5373139642
345297930.0 0.0990374807 -0.0779037808 -9.6523e-05 -9.55945e-05 1.39651e-05 0.0001096172 -0.6492013182 0.5437702519
350297900.0 0.0980656702 -0.0793445396 -4.8392e-06 0.0001252525 0.0001649087 0.000114779 -0.6439820203 0.5512457498
355297870.0 0.096357494 -0.0808442844 -0.0001206488 9.63803e-05 0.0002552821 1.35661e-05 -0.638197648 0.5575114539
360297840.0 0.0952154883 -0.0820891483 -3.01916e-05 -0.0001434818 -8.6147e-05 2.82479e-05 -0.6319000154 0.5634283191
365297810.0 0.0938065616 -0.0837291015 -7.92018e-05 0.0001053222 0.0002032102 3.81587e-05 -0.6260101928 0.5704410639
370297780.0 0.0925723659 -0.0848530081 0.000131928 -2.95969e-05 8.06818e-05 0.0001379001 -0.6206900265 0.5764903641
375297750.0 0.0911256281 -0.0860447212 0.0001945098 -3.64302e-05 0.0002628311 8.1701e-06 -0.6139508094 0.583261437
380297720.0 0.0897864565 -0.0874228301 -2.95333e-05 -8.10715e-05 0.000281397 0.0001196025 -0.6081425619 0.5901731836
385297690.0 0.0881484589 -0.088500642 2.83295e-05 8.30659e-05 -0.0001286751 0.0002741547 -0.6015652133 0.5961721836
390297660.0 0.0868826597 -0.0897681498 -4.27951e-05 0.0002243432 0.0002938993 0.0002918442 -0.5952042574 0.6012550574
395297630.0 0.0854916756 -0.0911337552 3.28597e-05 3.75158e-05 -7.75946e-05 0.0001443689 -0.5889069877 0.6085066055
400297600.0 0.0838963753 -0.0920265432 0.000243867 -9.07246e-05 8.54851e-05 8.30762e-05 -0.5827629167 0.6140337426
405297570.0 0.0826214645 -0.0933905261 0.0001024868 -0.0001688848 0.0002074631 5.91582e-05 -0.5766176573 0.6200076912
410297540.0 0.0809168764 -0.0946297275 8.01843e-05 3.7238e-06 0.0001432351 0.000126747 -0.569364454 0.6256698206
415297510.0 0.0795916761 -0.095654022 0.0001290529 6.68744e-05 0.0001333012 -9.77222e-05 -0.5629904677 0.6317905107
420297480.0 0.0778871512 -0.0967042877 0.0002426886 -0.0001661743 0.0001640944 -0.0002091685 -0.5565177314 0.6365704457
425297450.0 0.076675399 -0.0978535506 -4.01186e-05 3.93145e-05 7.51338e-05 -0.0001779751 -0.5500590822 0.643145551
430297420.0 0.0749393254 -0.0986562196 0.0001786339 0.0001500606 7.41222e-05 4.77895e-05 -0.5433611345 0.6485958217
435297390.0 0.0734486526 -0.0999236335 -2.8682e-06 -7.22772e-05 -4.07733e-05 -3.23619e-05 -0.5362580054 0.6536115577
440297360.0 0.0719294042 -0.1006659751 2.39518e-05 -4.98283e-05 0.000166871 -3.61284e-05 -0.5298054683 0.6589531222
445297330.0 0.0702849905 -0.1016934875 0.000225667 6.2166e-06 0.0001735095 -1.9732e-05 -0.5230516731 0.6646685998
450297300.0 0.0687775658 -0.1026374745 -0.0001335765 0.0001802985 -2.89288e-05 -3.45687e-05 -0.5165260884 0.6699072036
455297270.0 0.0672584001 -0.1033964888 0.0001987544 -1.55738e-05 -2.06689e-05 -2.18678e-05 -0.5093875822 0.6746902195
460297240.0 0.0657109258 -0.1040452256 0.0002201151 -0.0001377923 2.26649e-05 1.49832e-05 -0.5016868218 0.680931429
465297210.0 0.0641475328 -0.1051339891 -0.0002658416 -1.80901e-05 0.0002093933 1.63185e-05 -0.4954923432 0.6848254695
470297180.0 0.0623163384 -0.1057985259 0.0001696928 -5.55575e-05 6.5646e-06 0.0001130168 -0.4888357811 0.6896576893
475297150.0 0.0607790105 -0.1066988093 4.7655e-05 2.4237e-05 2.03844e-05 0.0001149263 -0.4817427268 0.6946532706
480297120.0 0.0592355573 -0.1075570774 -0.0001213003 -0.0001582647 3.04262e-05 -0.0001283275 -0.4750763417 0.7001478601
485297090.0 0.0577485259 -0.1080127146 9.09625e-05 8.63525e-05 9.30425e-05 -1.96535e-05 -0.467215288 0.703996998
490297060.0 0.0560690453 -0.1089212922 6.2895e-05 -7.95881e-05 0.0001905624 0.0001133404 -0.4603175824 0.7083287845
495297030.0 0.0543240581 -0.1095253052 0.0001850596 3.94879e-05 -3.8039e-06 0.0001898278 -0.4530510109 0.7126788415
500297000.0 0.0527393967 -0.1103761914 0.0001977213 0.0001740145 6.57112e-05 0.0003604167 -0.4460666793 0.7177498674
505296970.0 0.0510728379 -0.1106775775 0.0003156744 -3.13268e-05 5.10226e-05 9.25779e-05 -0.4395166111 0.7220546476
510296940.0 0.0495152813 -0.1112207735 0.0001551189 -8.39567e-05 2.15115e-05 -3.58842e-05 -0.431166961 0.7265415198
515296910.0 0.047976758 -0.1120152519 0.0001908875 0.0001745281 -0.0002371018 -0.0001974919 -0.424035409 0.7308741367
520296880.0 0.0461802312 -0.112497243 0.0004656415 -9.98172e-05 0.0001009769 -0.000139556 -0.4171316587 0.7350213292
525296850.0 0.0445994327 -0.1131883752 -9.63043e-05 -0.0002155493 0.0002998362 5.00438e-05 -0.409509836 0.7396892219
530296820.0 0.0426308676 -0.1137758974 4.92931e-05 -1.49144e-05 0.0001883638 -8.33703e-05 -0.4022109371 0.7431909111
535296790.0 0.0409394097 -0.1140168886 0.0003851805 -6.7387e-06 4.27389e-05 9.54053e-05 -0.3949926797 0.7465926013
540296760.0 0.0394621682 -0.1148283678 8.0312e-05 0.0002257815 1.34262e-05 -0.0002183804 -0.3874535936 0.7511031689
545296730.0 0.0380557709 -0.1148367275 0.0001817451 -0.0002421037 0.0001156695 -7.73542e-05 -0.379915511 0.7541082482
550296700.0 0.0362739825 -0.1152899009 0.0001138153 0.0002015158 0.0002279476 3.54083e-05 -0.372433628 0.7583852833
555296670.0 0.0348123529 -0.115877308 0.0002765152 -0.0002165515 8.73343e-05 -8.283e-07 -0.3646001709 0.7621656167
560296640.0 0.0328695446 -0.1161539159 3.6828e-05 -9.06178e-05 0.0003210469 -0.0001667604 -0.3565042483 0.7656354438
565296610.0 0.0309848272 -0.1164534642 0.0002685241 -0.0002215113 6.64221e-05 4.72072e-05 -0.3497345004 0.7692915442
570296580.0 0.0295253873 -0.1168890131 7.26268e-05 7.11368e-05 0.0001862725 0.0002508051 -0.342530905 0.7727844077
575296550.0 0.0278862287 -0.1169614443 0.0001076175 0.0001584214 0.0001508496 0.0001640709 -0.3341887799 0.7758399841
580296520.0 0.0263642203 -0.1173546644 8.26926e-05 0.000165871 9.37571e-05 -2.39665e-05 -0.3265326239 0.7789738031
585296490.0 0.0244171646 -0.1175668137 9.77441e-05 -5.04555e-05 0.0001287731 -1.98297e-05 -0.3188197706 0.7818746177
590296460.0 0.0226581622 -0.1179148893 0.0002442944 4.95462e-05 7.02944e-05 2.76519e-05 -0.3107487625 0.7852876636
595296430.0 0.0209565648 -0.1180300187 0.0002053725 -0.0001518891 -6.6819e-05 2.95684e-05 -0.3035060443 0.7877503932
600296400.0 0.0194347222 -0.1181145134 -5.69818e-05 -8.72495e-05 0.0001889925 -0.0001192856 -0.2957389233 0.7910692138
605296370.0 0.0178581589 -0.1182475452 7.96107e-05 -0.0001249295 -1.12683e-05 -9.93613e-05 -0.2878834593 0.7949437278
610296340.0 0.0160779189 -0.1184636803 0.0001889221 -0.0001118297 0.0002661879 1.16752e-05 -0.2790731056 0.7969025904
615296310.0 0.0142959627 -0.1184035426 3.96124e-05 -5.42329e-05 0.0002473378 -5.6431e-05 -0.2722696664 0.7994653249
620296280.0 0.0128241635 -0.1184199038 0.000125335 -7.55294e-05 5.9029e-05 -4.45486e-05 -0.264103361 0.8016028951
625296250.0 0.0109255852 -0.1185913979 0.0003231402 0.0001339763 8.87818e-05 8.83143e-05 -0.2558482773 0.8047294692
630296220.0 0.00927516 -0.1185042024 0.0002423026 -2.8841e-05 0.0001021203 1.83589e-05 -0.2485419245 0.8070883987
635296190.0 0.0074123647 -0.1187257845 0.0001791132 -0.0002367728 0.0001854983 -1.01605e-05 -0.2404993315 0.8094045457
640296160.0 0.0058595125 -0.1184417389 8.13315e-05 5.28004e-05 8.25508e-05 2.76717e-05 -0.2320409201 0.8117875763
645296130.0 0.0037937554 -0.1182827169 0.000241752 -5.71792e-05 0.0001027952 0.0001528914 -0.2245319992 0.8139196186
650296100.0 0.0022513992 -0.1182800436 0.0002921619 -0.0001511657 0.0001165047 -0.0001869798 -0.2160025245 0.8166171589
655296070.0 0.0008497796 -0.1183798563 0.0003657332 -0.0002313761 3.24633e-05 -0.0002217356 -0.2083790007 0.817501698
660296040.0 -0.0011982704 -0.1178252727 -1.72163e-05 -4.96115e-05 0.0001686658 -9.80565e-05 -0.2000612458 0.8199210006
665296010.0 -0.0025003339 -0.1178723647 0.0001190422 4.81024e-05 8.52797e-05 -7.14626e-05 -0.1918011252 0.8225153551
670295980.0 -0.0042186238 -0.1178578403 0.0003598837 -0.0001256549 0.0003025802 -3.83759e-05 -0.1849947691 0.8235423819
675295950.0 -0.0056716382 -0.1178364646 0.000187087 -1.82923e-05 0.000170395 3.52252e-05 -0.1757598574 0.8258588479
680295920.0 -0.0074924237 -0.1171525957 0.0002568717 -0.0001981059 0.0001670482 -7.31222e-05 -0.1675128736 0.8274724689
685295890.0 -0.0093101304 -0.1169584209 -4.88437e-05 -0.0001665788 0.0001656634 2.08323e-05 -0.1593855729 0.8294486882
690295860.0 -0.0106352164 -0.1169310536 0.0001444537 -0.000155432 0.0001005115 7.15687e-05 -0.1512837694 0.830125755
695295830.0 -0.0123677867 -0.1166387918 1.03827e-05 9.843e-07 0.0003344155 2.36141e-05 -0.142440903 0.8326740655
700295800.0 -0.0141232877 -0.1162245532 3.29211e-05 -1.28476e-05 7.31475e-05 -2.97727e-05 -0.1340499409 0.8329915568
705295770.0 -0.0157985919 -0.1160480043 -0.0001491828 0.0001347603 0.0001660727 -1.07722e-05 -0.1269844972 0.8347909587
710295740.0 -0.0174289722 -0.1156141507 0.0001966657 -8.15007e-05 0.00010995 -3.31e-05 -0.1188244714 0.8362489662
715295710.0 -0.0191980763 -0.1152383976 0.0002750191 0.0001840584 0.0001995396 -3.98854e-05 -0.1103188913 0.8372458894
720295680.0 -0.0207174693 -0.1149783889 9.27469e-05 -1.8984e-05 0.0003525712 5.26396e-05 -0.1020400833 0.8381854183
725295650.0 -0.022368344 -0.1143428736 6.45729e-05 -6.75283e-05 0.0001191627 0.0002255808 -0.0932139551 0.8390818379
730295620.0 -0.0241205201 -0.1142218096 1.06472e-05 0.0001000276 7.53223e-05 1.74334e-05 -0.0850118922 0.8402174856
735295590.0 -0.0253420282 -0.1136638191 0.0004003449 2.52217e-05 0.0001068345 1.48754e-05 -0.0765446384 0.8405576478
740295560.0 -0.0270948775 -0.112909798 -3.4884e-05 -2.56711e-05 0.0004092119 -0.0001248121 -0.0688757353 0.8406464656
745295530.0 -0.0287371117 -0.1126074107 0.0001454916 -0.0001062918 2.66915e-05 -2.42665e-05 -0.0602959838 0.8423083276
750295500.0 -0.0304365737 -0.1122746121 0.0003133648 8.33031e-05 2.77531e-05 -0.000236599 -0.0519616742 0.8421535094
755295470.0 -0.0315414686 -0.1114999399 0.0002550075 -4.88577e-05 0.0001182426 7.71364e-05 -0.0438072798 0.8430934069
760295440.0 -0.0335349603 -0.110912064 1.47227e-05 3.3286e-06 1.71014e-05 3.44105e-05 -0.0357458124 0.8437134928
765295410.0 -0.0353353139 -0.1105335872 5.28e-07 -0.0001152538 0.0002709044 0.000139239 -0.0263709528 0.8439734247
770295380.0 -0.0366720717 -0.109815426 2.51516e-05 -0.0002459249 6.10617e-05 3.02345e-05 -0.018217544 0.8438471054
775295350.0 -0.0382880467 -0.1089192315 0.000244379 9.92377e-05 -0.0001381268 3.21693e-05 -0.0104176687 0.8434603597
780295320.0 -0.0400112876 -0.1085009728 0.0001482143 0.0001588594 0.0001799986 -3.25421e-05 -0.0022384748 0.8445361805
785295290.0 -0.0412970914 -0.1077768462 0.0002077826 2.75774e-05 -8.9313e-06 -2.9193e-05 0.0057710889 0.844427212
790295260.0 -0.042816135 -0.1068517288 0.000115397 5.86996e-05 0.0002048329 3.26842e-05 0.0153385694 0.8441924252
795295230.0 -0.0443202318 -0.1063390263 0.0002922641 -0.0001674654 0.0001389326 0.0001051721 0.0231874425 0.8442683339
800295200.0 -0.0455274345 -0.1056315082 0.0001763248 0.0002275539 8.12298e-05 2.1471e-06 0.0317420184 0.8433316121
805295170.0 -0.0472918972 -0.1047133042 0.0002470141 -4.66413e-05 0.0002410457 1.7282e-06 0.0396599979 0.8427247551
810295140.0 -0.0490663087 -0.1040680751 8.06381e-05 -1.03518e-05 9.01802e-05 -0.0001454741 0.0481562319 0.8435641082
815295110.0 -0.0502107577 -0.103072347 0.0001071335 -4.878e-05 0.0001570764 -1.66059e-05 0.0563494843 0.8424967733
820295080.0 -0.0517833069 -0.1024891187 7.3407e-05 -0.000165531 0.0002411775 0.0001076075 0.0644722464 0.8417613863
825295050.0 -0.0532089979 -0.1017088426 0.0002382936 9.15255e-05 0.0001518215 -0.0001145794 0.0728895954 0.8410529079
830295020.0 -0.0544936724 -0.1007286934 0.0002015056 -0.0003123587 7.8049e-06 4.19596e-05 0.0808267478 0.8403361824
835294990.0 -0.0559415212 -0.0999016366 0.0001019663 0.0001040979 0.0002648522 -0.0001930738 0.0897032327 0.8393445275
840294960.0 -0.0575317096 -0.0991169611 5.90294e-05 -0.0001750011 3.44279e-05 -0.0001833429 0.0969626095 0.8387322351
845294930.0 -0.0589313309 -0.0978697896 0.0002932924 -7.34241e-05 0.0003570932 9.34716e-05 0.1054494025 0.8373156828
850294900.0 -0.0601736824 -0.0971434439 0.0001811467 -0.0001374177 0.0001799057 6.47759e-05 0.1141288926 0.8367240209
