!Created with skrf (http://scikit-rf.org).
# Hz S RI R 50.0 
!freq ReS11 ImS11 ReS21 ImS21 ReS12 ImS12 ReS22 ImS22
300000.0 -0.7734648491 -0.18414706 -0.0010697795 -0.0004022517 -0.0006442771 0.0003059371 0.8600409103 -0.0024402914
5299970.0 -0.7862233003 -0.0097200716 -2.68387e-05 -0.0001551486 -3.05088e-05 1.71753e-05 0.8593773754 -0.0094751404
10299940.0 -0.7895594365 -0.0062542874 -0.0001659299 -1.03344e-05 0.0001302665 2.49821e-05 0.858399081 -0.0195555583
15299910.0 -0.7940546338 -0.003639488 1.51554e-05 8.94396e-05 -1.27067e-05 -0.0002111955 0.8569060043 -0.0280777554
20299880.0 -0.8003633319 0.0009630653 3.48098e-05 -0.0001062432 0.000110249 9.9355e-05 0.8565398605 -0.035556395
25299850.0 -0.8076642689 0.0067407526 -9.25205e-05 0.0002809501 -1.85095e-05 -9.39802e-05 0.8553737087 -0.0441503318
30299820.0 -0.8142487026 0.0139125019 6.60288e-05 0.0001136305 0.0002084731 -3.27373e-05 0.8554806632 -0.0522962559
35299790.0 -0.8190014042 0.0227596611 6.5385e-06 0.0001421122 -6.3092e-05 2.83211e-05 0.8545398168 -0.061176295
40299760.0 -0.8237017445 0.0319134989 -1.74564e-05 4.21501e-05 -1.33833e-05 0.0001664924 0.8533103475 -0.0690702526
45299730.0 -0.82653614 0.0418667157 0.0001349609 0.0001692396 -2.77499e-05 -3.10669e-05 0.8523305862 -0.0776638401
50299700.0 -0.8290866609 0.051844856 2.09158e-05 8.68895e-05 -0.0001461446 2.70535e-05 0.8525720144 -0.085548236
55299670.0 -0.8309911106 0.0611746856 -8.1664e-06 -0.0001109521 -6.9397e-05 -0.0001644004 0.8508534906 -0.0937165102
60299640.0 -0.832138059 0.071701095 0.0001729363 6.4796e-05 0.0001674346 2.6864e-06 0.8497205216 -0.1017408504
65299610.0 -0.8336811993 0.0819705839 0.0002291414 0.000166924 0.000284503 -2.43747e-05 0.8494535551 -0.1105838219
70299580.0 -0.833805 0.0915108632 0.0001369224 1.69922e-05 1.95414e-05 0.0001537723 0.8476543427 -0.1187356729
75299550.0 -0.8339689168 0.1014639899 -3.56312e-05 -0.00028502 -8.42998e-05 9.88059e-05 0.8463555946 -0.1270509
80299520.0 -0.8342170623 0.1121961623 -9.44031e-05 -7.63315e-05 -7.33349e-05 -0.000116135 0.8447761488 -0.1354523017
85299490.0 -0.8326387113 0.1210876263 8.22976e-05 0.0002138722 0.0001222078 6.97855e-05 0.8434698851 -0.143128473
90299460.0 -0.8326591699 0.1314179102 5.1939e-06 -0.0001513419 3.34979e-05 -2.51562e-05 0.842486049 -0.1516337268
95299430.0 -0.8314634752 0.1406513534 -2.97229e-05 4.70715e-05 3.03017e-05 6.87721e-05 0.8407236898 -0.1599763688
100299400.0 -0.8301137855 0.1496713046 -0.0001846959 0.0001397256 -0.0001753399 4.71614e-05 0.838902924 -0.1683897933
105299370.0 -0.8286975656 0.159703673 -6.80779e-05 -1.1133e-06 -3.76114e-05 -1.25385e-05 0.8374786245 -0.1764857899
110299340.0 -0.8280592931 0.1688391943 5.58633e-05 -4.06742e-05 -1.45522e-05 2.4336e-06 0.8355188848 -0.1847940951
115299310.0 -0.8265296592 0.1773484555 4.84152e-05 -6.68388e-05 9.52606e-05 -0.0001764304 0.8332848917 -0.1926573702
120299280.0 -0.8244060919 0.186755899 6.23546e-05 7.85946e-05 -7.3424e-06 1.76439e-05 0.8314644953 -0.200476365
125299250.0 -0.8227341251 0.1957822672 -0.0001943602 -9.08539e-05 0.0001300312 -5.44703e-05 0.8297799537 -0.2092685007
130299220.0 -0.8210433277 0.205180812 -1.53605e-05 4.03612e-05 -4.2752e-06 -9.96807e-05 0.8273399035 -0.2167363214
135299190.0 -0.8189493494 0.214201747 -6.43873e-05 -0.000170417 -0.0001099999 6.19095e-05 0.8253106153 -0.2253058411
140299160.0 -0.8172316702 0.223249221 0.0001869752 0.0001356387 -0.0001059211 6.08539e-05 0.8229929613 -0.2333647662
145299130.0 -0.8151788152 0.2326498559 -0.0002205362 0.0001054587 -0.0001253409 0.0001963325 0.8205153443 -0.2415174901
150299100.0 -0.8123658305 0.2414263629 -4.193e-05 3.9137e-05 8.43261e-05 9.65351e-05 0.8185016226 -0.2494585945
155299070.0 -0.8099328555 0.2503097618 -0.0001270843 4.3573e-06 8.35551e-05 -6.35349e-05 0.8157047016 -0.2574226377
160299040.0 -0.807897403 0.2597048034 0.000103012 8.42625e-05 -9.02352e-05 1.098e-06 0.8128072711 -0.2653788436
165299010.0 -0.8045902267 0.2679245547 -8.63992e-05 2.52216e-05 -0.0001439668 -7.1012e-06 0.8103728211 -0.2734980259
170298980.0 -0.8016714059 0.276030145 0.0002467419 4.24637e-05 -0.0002375902 -5.67412e-05 0.8077689974 -0.2809847858
175298950.0 -0.7991362673 0.2843626437 8.0232e-06 -0.0002205743 6.97371e-05 -5.08395e-05 0.8051330783 -0.289024648
180298920.0 -0.7959509584 0.2929945419 -0.0001006615 -0.0001317434 -7.71659e-05 -4.36062e-05 0.8022756164 -0.2967620316
185298890.0 -0.7924752359 0.302230235 3.67265e-05 -3.33142e-05 1.962e-06 -2.80048e-05 0.7993747189 -0.3044256449
190298860.0 -0.7898155763 0.31096936 -0.0001001727 -0.0001854612 -4.4894e-05 -9.29215e-05 0.7957137895 -0.3126292527
195298830.0 -0.7861955482 0.3193215674 -0.0001452293 0.0002615523 7.5085e-06 0.0001268025 0.7929835823 -0.3202964758
200298800.0 -0.7829716776 0.3280533038 -0.0001192943 -6.42778e-05 1.599e-05 -0.0002093539 0.789337019 -0.3278427906
205298770.0 -0.7789060977 0.3365452524 0.0001290879 7.48477e-05 1.46026e-05 1.29665e-05 0.7865720423 -0.3362053124
210298740.0 -0.7763375375 0.3445853455 -0.0001397798 -0.0001358469 0.000119939 -7.31215e-05 0.7827735002 -0.3433843155
215298710.0 -0.7720699019 0.3534049701 -9.273e-05 0.0002283764 -5.9644e-06 -6.42385e-05 0.779631173 -0.3508139201
220298680.0 -0.7689871364 0.360672134 -0.0002406405 0.0002288795 -0.0001769506 -3.29981e-05 0.7757393048 -0.3583302024
225298650.0 -0.7645176407 0.3696350941 0.0001126851 7.5849e-06 -0.0001849327 0.0001441629 0.7722030436 -0.366355555
230298620.0 -0.7613075628 0.3775771296 9.43088e-05 0.0002285618 9.2512e-06 -2.11427e-05 0.768771889 -0.3736248585
235298590.0 -0.7572102898 0.385825077 7.3793e-05 9.2262e-06 6.75717e-05 -1.82581e-05 0.7649492148 -0.3808909508
240298560.0 -0.7525992247 0.3937050498 0.0001065589 0.0001643065 -2.32037e-05 2.00453e-05 0.7613721943 -0.3886417849
245298530.0 -0.7488194511 0.402392016 -6.98878e-05 0.0001275178 5.577e-06 0.0001264388 0.7569470313 -0.3954851525
250298500.0 -0.7449305582 0.4090767127 0.0001166732 -0.0001035786 1.49504e-05 8.2868e-05 0.753267817 -0.4031364854
255298470.0 -0.740703839 0.4174332595 4.53557e-05 -1.64519e-05 0.00010771 8.9367e-05 0.7495133469 -0.4108607248
260298440.0 -0.7361753044 0.4248177406 0.0001498875 1.81328e-05 -4.70892e-05 1.25875e-05 0.7450114996 -0.4182751844
265298410.0 -0.7321508724 0.4330036719 9.8465e-06 -0.0001274903 -8.65109e-05 -5.65514e-05 0.741503649 -0.4253633486
270298380.0 -0.7275436965 0.4400387227 4.73213e-05 2.89634e-05 -4.6403e-06 4.92317e-05 0.7374183762 -0.432358949
275298350.0 -0.7231554339 0.4476152928 -1.95314e-05 1.83561e-05 6.59765e-05 -3.67637e-05 0.7325739207 -0.4397562226
280298320.0 -0.7185753166 0.4554385933 -5.79267e-05 -2.89829e-05 -8.35018e-05 -1.06509e-05 0.7286421965 -0.4466932178
285298290.0 -0.713326753 0.4632171738 -0.0001704412 6.5371e-05 0.0002068009 1.78002e-05 0.7240793304 -0.4538231558
290298260.0 -0.7085492026 0.4709250534 -0.0001446733 -0.0002688736 0.000111679 2.10916e-05 0.7204533133 -0.4606630665
295298230.0 -0.7041966924 0.4782432027 4.35007e-05 0.0002206202 -6.39449e-05 0.0001645798 0.7154925588 -0.4676462083
300298200.0 -0.6993865458 0.4851078318 -6.96503e-05 -8.76894e-05 -3.80968e-05 -1.8382e-05 0.7112390364 -0.4751923323
305298170.0 -0.6944661606 0.4924352194 0.0001062675 -2.52567e-05 -0.0001432977 0.0001059489 0.7061272715 -0.4820440997
310298140.0 -0.6888152375 0.4998936767 9.07e-07 8.90043e-05 0.0001133363 4.95743e-05 0.7021261761 -0.489572276
315298110.0 -0.6847461741 0.5070813907 0.0001448316 -2.55232e-05 2.76676e-05 5.23218e-05 0.6971527174 -0.4964834171
320298080.0 -0.6789855384 0.5141198064 -0.0002758155 0.0001747859 8.41986e-05 3.37812e-05 0.6925387512 -0.5041985515
325298050.0 -0.6733265119 0.5207988849 2.60423e-05 4.3905e-06 1.3156e-06 -0.0001373361 0.6877449757 -0.5113692994
330298020.0 -0.6680511573 0.5279017939 3.90309e-05 0.0002309922 3.15979e-05 -0.0002455907 0.682150805 -0.5193600253
335297990.0 -0.6628466494 0.534788873 -2.3934e-05 6.84756e-05 0.0001178104 1.55573e-05 0.6760606003 -0.5258169902
340297960.0 -0.6576779634 0.5415902885 2.70452e-05 -5.36629e-05 -7.43887e-05 0.000157374 0.6702869623 -0.5322317416
345297930.0 -0.6519392855 0.5479156049 0.0001406029 -0.0003009491 -3.78072e-05 0.000120395 0.6639529676 -0.5391090282
350297900.0 -0.6465746554 0.5546489494 0.0001979726 0.0001089523 -0.00013152 -0.0001136281 0.6581742297 -0.545225664
355297870.0 -0.6408460177 0.5613035559 -0.0001138188 -2.60341e-05 -1.39726e-05 7.49914e-05 0.6527633026 -0.5511719485
360297840.0 -0.6347199185 0.5680271142 -0.0001166733 7.82797e-05 0.0001143462 9.50654e-05 0.6472034931 -0.5572327905
365297810.0 -0.6297844072 0.5746264584 3.1723e-06 3.66967e-05 -2.13352e-05 0.0001153967 0.6415086498 -0.5632570038
370297780.0 -0.623516144 0.580320036 -0.0003405653 -8.10736e-05 -0.0001284337 0.0001515326 0.6352680967 -0.5694224574
375297750.0 -0.6176330885 0.587170009 0.0001081235 0.0001235718 -3.46006e-05 0.000121349 0.6300399497 -0.5753362602
380297720.0 -0.6124808886 0.5935934009 0.000133892 -6.78525e-05 0.0001146911 -8.25013e-05 0.6244589727 -0.5812475384
385297690.0 -0.6056013844 0.5995954423 -1.59015e-05 -6.13107e-05 -3.5551e-06 4.8156e-05 0.6184248683 -0.5872250202
390297660.0 -0.5986465754 0.6052931437 6.63326e-05 0.0002202726 -3.9795e-06 -0.0001716405 0.6122429412 -0.5932827578
395297630.0 -0.5929818026 0.6123669872 8.2064e-05 -5.72047e-05 0.0001254496 1.13783e-05 0.6062470026 -0.5994712616
400297600.0 -0.58637635 0.6183425478 -3.10292e-05 -7.90587e-05 -6.60034e-05 -1.27033e-05 0.600308423 -0.6050094269
405297570.0 -0.5806146481 0.6231749817 0.0001024915 3.56837e-05 -0.000110827 -7.67196e-05 0.5943212728 -0.610610847
410297540.0 -0.573658944 0.6299104092 0.0002733471 3.77312e-05 3.95197e-05 1.82902e-05 0.5884168863 -0.6168416666
415297510.0 -0.567958483 0.6354769958 4.19951e-05 -2.38162e-05 5.869e-06 -8.14181e-05 0.5820075373 -0.6222618701
420297480.0 -0.5608047288 0.6413287192 0.0001305595 0.0003376659 -4.0719e-06 -0.0001118491 0.5757632844 -0.6271462575
425297450.0 -0.554726607 0.6460994237 -0.0001591253 -7.84856e-05 -5.63166e-05 -0.000222525 0.5699918259 -0.6336098248
430297420.0 -0.5481616372 0.6525763854 0.0001190509 -0.0001074366 2.67714e-05 0.0002555984 0.5634618301 -0.6391869381
435297390.0 -0.5408633057 0.657307842 0.0002622661 -0.0001129633 -5.45043e-05 4.50327e-05 0.5565926484 -0.6450209691
440297360.0 -0.5343505463 0.6631015288 -0.0001276734 -0.0001079894 -0.0001874842 2.78285e-05 0.5504030481 -0.6495360115
445297330.0 -0.5279017507 0.6675294767 -0.0002078453 -5.5571e-06 -0.0001158868 3.81836e-05 0.5438180849 -0.6541803537
450297300.0 -0.5204912913 0.6738806655 2.18214e-05 -0.0001717274 -1.6167e-06 0.0002125413 0.5374716928 -0.6600232677
455297270.0 -0.5134330553 0.678373633 -0.0002294828 9.94388e-05 5.32833e-05 0.0001223927 0.5311171305 -0.6650565917
460297240.0 -0.5059644016 0.6845495794 5.88011e-05 -0.000245402 3.02593e-05 -8.48351e-05 0.5239185413 -0.6706154269
465297210.0 -0.499365968 0.689188242 -7.3069e-05 -4.6736e-06 1.30589e-05 0.0001934573 0.5175849773 -0.6750746229
470297180.0 -0.491874625 0.693781784 1.29337e-05 -0.0001463621 1.96781e-05 -2.62346e-05 0.5110318984 -0.6806613172
475297150.0 -0.4842766331 0.6988807451 6.62165e-05 0.0001184801 -1.94435e-05 -1.61352e-05 0.5045302425 -0.6846745963
480297120.0 -0.4767676842 0.7038221722 0.0001165149 1.8215e-05 -2.93111e-05 -0.0001845406 0.4971896113 -0.6899807387
485297090.0 -0.4703151546 0.708240751 8.06484e-05 0.0001713892 0.0001378683 -0.000113875 0.4910639394 -0.6947374824
490297060.0 -0.4620205204 0.713714826 -8.99542e-05 6.35738e-05 -0.0001288083 -1.46861e-05 0.4832079725 -0.6997712698
495297030.0 -0.4545366036 0.718023072 -0.0001901428 0.0001650371 -5.83625e-05 0.0001050928 0.4765318817 -0.7044467941
500297000.0 -0.4472170579 0.7220920358 -0.0001249971 -7.7824e-05 -0.0001132819 1.8743e-05 0.4693067731 -0.7085822608
505296970.0 -0.4392280333 0.7267124348 -6.74605e-05 6.6114e-05 7.84797e-05 -0.0001129068 0.4620662028 -0.7130725591
510296940.0 -0.431682392 0.7310399823 0.000238823 -3.31281e-05 -0.0001833974 -0.0002877749 0.454775767 -0.7173027045
515296910.0 -0.4245072472 0.7356748444 -0.0001845723 -0.0001066233 -0.000128703 -9.96499e-05 0.4481133957 -0.7218294426
520296880.0 -0.4160627019 0.740171777 -0.0003614936 -7.69797e-05 -3.7753e-06 3.44618e-05 0.4411406577 -0.7264070326
525296850.0 -0.4085963262 0.7440376296 7.67976e-05 0.0002051568 -0.000106297 -7.1312e-06 0.4336936017 -0.7307148851
530296820.0 -0.4017256822 0.7483133793 -0.0001197725 0.0001668929 -0.0001645467 4.98324e-05 0.4272736578 -0.7349786989
535296790.0 -0.3927379068 0.7518939668 -0.000106499 9.50681e-05 -2.8882e-06 0.0002317161 0.4197089284 -0.7385868428
540296760.0 -0.384876581 0.7560782498 -0.0001289334 2.941e-05 -6.3216e-06 8.27299e-05 0.4119316886 -0.742874803
545296730.0 -0.3776729203 0.7602930237 1.2285e-05 9.38818e-05 -2.44308e-05 3.98307e-05 0.4040628484 -0.746832801
550296700.0 -0.3691741342 0.7634503063 4.63146e-05 -0.0001066797 -0.0001601193 6.08922e-05 0.3963839462 -0.7507321464
555296670.0 -0.3613824705 0.7670191636 -0.0001338985 5.63035e-05 -0.0001152653 -8.21338e-05 0.38915067 -0.7550367007
560296640.0 -0.3531757784 0.7708932261 -7.50296e-05 1.94748e-05 -0.0001450563 -1.5124e-05 0.3817450948 -0.7586503821
565296610.0 -0.3453626201 0.7743686875 7.6102e-06 4.86912e-05 -3.85438e-05 -0.0001260945 0.3745333274 -0.7614529164
570296580.0 -0.3372852659 0.7781263102 0.0001644572 0.0001970659 -8.46802e-05 0.0001341985 0.3669395432 -0.7654913452
575296550.0 -0.3279763866 0.7811962084 4.66465e-05 9.95379e-05 -7.82346e-05 -2.14411e-05 0.3597102343 -0.769024918
580296520.0 -0.3209386343 0.7845889862 -6.50982e-05 7.87118e-05 -9.88106e-05 0.0001911177 0.351200267 -0.7718942928
585296490.0 -0.3126106193 0.7875865615 -1.34725e-05 -2.53191e-05 1.66315e-05 -6.21326e-05 0.3433507498 -0.7753629429
590296460.0 -0.3035802692 0.7909690786 -3.30763e-05 -5.09782e-05 3.52014e-05 -9.04887e-05 0.3360364207 -0.7787672728
595296430.0 -0.2957134608 0.7942277238 0.0002802137 0.0001022771 -9.79214e-05 0.0001434196 0.3278714116 -0.7820304751
600296400.0 -0.2882563252 0.7969445844 -8.9798e-05 1.7721e-06 9.98648e-05 -0.0001571245 0.3209041993 -0.7848654365
605296370.0 -0.2798508637 0.7998922238 -0.0001308187 -1.74386e-05 -7.0676e-06 -3.27243e-05 0.3125750907 -0.7879618241
610296340.0 -0.271295458 0.8031536594 7.7839e-05 -7.03835e-05 0.0001718528 -6.56346e-05 0.3037034847 -0.790893408
615296310.0 -0.2625422179 0.8057824912 -0.000141015 1.47724e-05 5.28484e-05 -0.0001608749 0.296622294 -0.7941048159
620296280.0 -0.2550814048 0.8083760249 -0.0001363103 -0.0001226181 9.02153e-05 -4.51648e-05 0.2887939527 -0.7966060197
625296250.0 -0.247315073 0.8102073671 -9.23082e-05 5.74657e-05 0.0002062151 -8.20151e-05 0.280544332 -0.7995562723
630296220.0 -0.2389406681 0.8127516184 5.23477e-05 0.0001931478 1.08293e-05 1.02519e-05 0.2730391727 -0.8021293116
635296190.0 -0.230582702 0.815613723 0.0001106474 -3.10137e-05 0.0003188715 0.000259537 0.2650294108 -0.8041514132
640296160.0 -0.221677913 0.8177335591 -3.53242e-05 6.4732e-05 0.0002221101 1.04082e-05 0.256701816 -0.8067578233
645296130.0 -0.213940444 0.8206593659 0.0001172575 7.77807e-05 1.94773e-05 2.07591e-05 0.2484764842 -0.8092364386
650296100.0 -0.2053693456 0.8220408562 -0.0001404164 -2.39856e-05 -1.59787e-05 -8.86095e-05 0.2404890599 -0.8112413482
655296070.0 -0.1975516896 0.8241795702 -4.83053e-05 0.0003134086 -8.97414e-05 3.2488e-06 0.2320205305 -0.8144491252
660296040.0 -0.1894185049 0.826228454 0.0001564478 -0.0001113404 -1.77924e-05 0.0001062403 0.2246308597 -0.8163727925
665296010.0 -0.1809580068 0.8286905893 -8.5096e-05 0.0001120664 4.41237e-05 0.0001019592 0.2166928878 -0.818118449
670295980.0 -0.1731282299 0.8307634776 4.85841e-05 0.0001908058 -3.302e-05 -2.72837e-05 0.2079073434 -0.8202385806
675295950.0 -0.1636747677 0.8318008903 0.0002074352 2.84627e-05 0.0001959477 0.0001567075 0.1997007633 -0.8219148632
680295920.0 -0.1568146151 0.8335419056 -4.44984e-05 -5.89342e-05 -4.57178e-05 -3.72715e-05 0.1916955712 -0.8240404771
685295890.0 -0.1473990467 0.8357890213 4.04576e-05 -0.0001516896 2.27961e-05 -0.0001003162 0.183644926 -0.8251982958
690295860.0 -0.1390214569 0.8372213417 -9.4104e-05 0.0001363609 4.06321e-05 3.1927e-06 0.1750253772 -0.8273499432
695295830.0 -0.1307906594 0.8388133905 5.819e-06 5.9405e-06 0.000103615 3.92038e-05 0.1670033779 -0.8282235781
700295800.0 -0.1227284215 0.840268745 5.16755e-05 -5.90822e-05 1.32985e-05 0.0001453398 0.1590799939 -0.8299161496
705295770.0 -0.1146145962 0.8416731492 -8.23869e-05 0.0001445378 -3.35377e-05 -0.0001318114 0.150275341 -0.8313298861
710295740.0 -0.1069449344 0.8422796808 3.99092e-05 5.32552e-05 -7.76781e-05 0.0001007249 0.1424465672 -0.8326405197
715295710.0 -0.0978176931 0.8433962763 -0.000171048 8.70538e-05 -1.78178e-05 0.0001642949 0.1343700982 -0.8343857027
720295680.0 -0.0891077382 0.8447751328 1.94481e-05 5.14148e-05 -1.14793e-05 2.72784e-05 0.1251755443 -0.8354448373
725295650.0 -0.0813891955 0.8457173384 0.0001143287 -0.0001026778 0.000142554 9.56916e-05 0.1176717506 -0.83611103
730295620.0 -0.073850032 0.8468691142 0.0001028364 -0.000111028 -5.46062e-05 4.31952e-05 0.1086125521 -0.8372055651
735295590.0 -0.065363934 0.8478424052 -9.56172e-05 0.0001379558 0.0002340432 -7.99621e-05 0.1008283017 -0.8372724754
740295560.0 -0.0573641203 0.8474938015 -0.0001075754 0.0001104128 0.0001625613 0.000170357 0.0922769913 -0.8390090867
745295530.0 -0.0485725787 0.8487918607 -0.0001403767 6.83e-08 -0.0001872354 -0.0001989258 0.0833160527 -0.8399906299
750295500.0 -0.0410585096 0.8494651997 0.0001904367 -4.75439e-05 -1.09835e-05 6.94266e-05 0.0753994223 -0.8402780569
755295470.0 -0.0323508882 0.8496351998 -2.82984e-05 0.0002649247 0.0001500626 2.9756e-06 0.0669289647 -0.8402551236
760295440.0 -0.024209656 0.8509011132 0.000180669 8.74544e-05 6.45524e-05 -0.0001196252 0.0584872646 -0.8414309442
765295410.0 -0.015971198 0.8508265011 -8.40124e-05 0.0002409729 -0.0001698447 0.000151798 0.050254847 -0.8418670753
770295380.0 -0.008303622 0.8507595825 0.0002446317 8.17864e-05 -6.73406e-05 0.0003490208 0.0420257155 -0.8421119793
775295350.0 -3.8259e-06 0.8515741379 -0.000180889 -6.57148e-05 -4.81883e-05 8.06269e-05 0.0341808559 -0.8424804308
780295320.0 0.0088099479 0.8511495615 -3.80454e-05 3.80069e-05 0.0001194625 -0.0001426245 0.0253909336 -0.8432066553
785295290.0 0.0167742477 0.8508428776 -9.60013e-05 0.0001383217 -0.0002053001 -0.0002811469 0.0165643269 -0.8421087204
790295260.0 0.0250180281 0.8506989214 -0.0001061893 -0.0001548777 0.0002903683 6.0793e-05 0.0083993789 -0.8421087454
795295230.0 0.0328740199 0.8512696323 -0.0001592271 0.0002478203 -3.81486e-05 -0.0002157264 -7.87169e-05 -0.8434132848
800295200.0 0.0411484631 0.850940272 -4.36953e-05 2.50497e-05 0.0001806002 -8.93233e-05 -0.0084133249 -0.8425729615
805295170.0 0.0489627242 0.8508586832 -2.53228e-05 2.79653e-05 1.09812e-05 -0.0001703066 -0.0159596198 -0.8425589931
810295140.0 0.0579287122 0.8502642032 -2.03432e-05 -7.13321e-05 -1.71356e-05 7.56344e-05 -0.0256223225 -0.8411690628
815295110.0 0.0653475417 0.8492922184 -0.000264317 2.73536e-05 6.7215e-05 -0.0001070897 -0.033681571 -0.8412190998
820295080.0 0.0741689769 0.849063898 -4.28349e-05 -0.0001350194 -8.54323e-05 -3.65947e-05 -0.0421631614 -0.8401039654
825295050.0 0.0813763445 0.8482008901 -9.0953e-06 -0.0002204883 -5.36426e-05 -0.0001149954 -0.0501248346 -0.8400828336
830295020.0 0.0904861203 0.8476533693 2.76427e-05 0.0002303551 1.5433e-05 0.000127015 -0.0593695995 -0.8396983577
835294990.0 0.0979059431 0.8466958334 7.70789e-05 -0.0002030865 -4.73887e-05 -0.0001264527 -0.0669701943 -0.8379521858
840294960.0 0.1068202391 0.8452114578 0.0001667579 9.39558e-05 -0.0001380218 9.92953e-05 -0.0759998021 -0.837392757
845294930.0 0.1151925068 0.8443796915 6.93621e-05 0.0002315626 0.0001534462 0.0002155664 -0.0839025645 -0.8360514252
850294900.0 0.1240432665 0.8436138558 8.95954e-05 -1.67044e-05 -0.0002975436 0.0001189618 -0.0922717045 -0.8358477894
