!Created with skrf (http://scikit-rf.org).
# Hz S RI R 50.0 
!freq ReS11 ImS11 ReS21 ImS21 ReS12 ImS12 ReS22 ImS22
300000.0 -0.2345916436 -0.1306914969 0.4678858025 0.0864977155 0.4677202704 0.084632459 -0.235704894 -0.1305328376
5299970.0 -0.2417814801 0.0053655057 0.4751352846 0.006136799 0.4757366291 0.0059228794 -0.244471137 0.0044414869
10299940.0 -0.2387730828 0.0187610868 0.4773439687 0.0066962948 0.4767308612 0.0069819171 -0.2408121659 0.0173489816
15299910.0 -0.233867058 0.028777449 0.4804126545 0.0079527782 0.4809019874 0.0081952893 -0.2368750844 0.0263759504
20299880.0 -0.2284822678 0.0368582931 0.4850961097 0.0082110209 0.4855183854 0.0081975604 -0.2320176625 0.0339377698
25299850.0 -0.2225258478 0.0436812212 0.4906417277 0.0075642237 0.4906882348 0.0071940641 -0.2267524391 0.039913636
30299820.0 -0.2169299285 0.0487767872 0.4959321092 0.0050340861 0.4962303788 0.004998771 -0.2219028468 0.0448822762
35299790.0 -0.2115115194 0.0530017913 0.5009469703 0.002012801 0.5015306 0.0016504213 -0.2167895888 0.0490316603
40299760.0 -0.2061386636 0.056122209 0.5062321218 -0.0021074772 0.5069597572 -0.00236726 -0.2119565259 0.0521308256
45299730.0 -0.2010289443 0.0588489989 0.511017405 -0.0066005022 0.5113600041 -0.0069904861 -0.207047735 0.0547921725
50299700.0 -0.1961091869 0.0607327462 0.5154336 -0.0124470181 0.5152343862 -0.0126585712 -0.2025007215 0.0567274427
55299670.0 -0.1920238744 0.0624484366 0.5189896464 -0.0179496864 0.5190243734 -0.018213493 -0.1991329705 0.058676161
60299640.0 -0.1877752496 0.0642130158 0.5225905399 -0.0248391868 0.5225477011 -0.0249510986 -0.1956133925 0.0599342592
65299610.0 -0.1842250929 0.0653121047 0.5255867374 -0.0309236122 0.5259649983 -0.030781511 -0.1917572603 0.0609771002
70299580.0 -0.1809129251 0.0657707809 0.5278696709 -0.0368461607 0.5280520909 -0.0374606719 -0.1891389848 0.0616875001
75299550.0 -0.1776864261 0.0666523939 0.5292757742 -0.0445287186 0.5294807139 -0.0443429832 -0.1863178538 0.0629587112
80299520.0 -0.1753520172 0.0678125426 0.531422687 -0.0512646767 0.5317674377 -0.0515762937 -0.1838117181 0.0636934517
85299490.0 -0.1725110095 0.0682395049 0.5329187015 -0.0583732414 0.5329375258 -0.0580524321 -0.181547706 0.0639566696
90299460.0 -0.1700950651 0.0691732291 0.5333061025 -0.0652069583 0.5334593057 -0.0647980347 -0.1793368856 0.0648002565
95299430.0 -0.1679409561 0.0695722478 0.5343872252 -0.0721685891 0.5348397067 -0.0721766226 -0.17771007 0.0653905165
100299400.0 -0.16614956 0.0701709745 0.5347876726 -0.0784790725 0.5355885435 -0.0787536476 -0.1760246317 0.0664065974
105299370.0 -0.1641419367 0.0708411834 0.5348241594 -0.0852638655 0.5357172229 -0.0858428782 -0.1736750993 0.0666660294
110299340.0 -0.1621941828 0.0717181714 0.5350825061 -0.0923128134 0.5358022574 -0.0924823735 -0.1727790044 0.0672501029
115299310.0 -0.1608335711 0.0724565427 0.5357473699 -0.0989933234 0.5355443853 -0.0991954375 -0.171675427 0.0684242787
120299280.0 -0.1593034766 0.0735451459 0.5354668651 -0.1067506351 0.5353140016 -0.1063623407 -0.1699358285 0.0685352251
125299250.0 -0.1580324101 0.0738909824 0.5350668986 -0.1126737687 0.5351750183 -0.1126931233 -0.1685656018 0.0697290095
130299220.0 -0.1565611909 0.0744722494 0.5343062917 -0.119949532 0.5341712856 -0.1198809339 -0.1679313683 0.070417046
135299190.0 -0.15552237 0.0759965356 0.5338709606 -0.1263088717 0.5337716485 -0.1265314996 -0.1669100892 0.0710559368
140299160.0 -0.1540616921 0.0766259724 0.5331777279 -0.1333024832 0.5329476978 -0.1328730664 -0.1662707527 0.0719608637
145299130.0 -0.1535909497 0.0776463545 0.5321000673 -0.1392947256 0.5318773292 -0.139367953 -0.164934915 0.0728858945
150299100.0 -0.1521356185 0.0789738371 0.5310619348 -0.1461402445 0.5308399799 -0.1461138641 -0.1643165038 0.0739834825
155299070.0 -0.1509109604 0.0798830029 0.5290823343 -0.1522677963 0.5298897374 -0.1527158791 -0.1632056437 0.0747557857
160299040.0 -0.1499618353 0.0813669152 0.5279494768 -0.1590340907 0.5283218637 -0.1592845836 -0.1626353277 0.0762419092
165299010.0 -0.1487966574 0.0822265925 0.5269028077 -0.1651283976 0.5265390336 -0.1654039385 -0.161499544 0.0766964617
170298980.0 -0.1479207975 0.0836656658 0.5248730002 -0.1717038415 0.5251556647 -0.1721528005 -0.1612525656 0.0777061612
175298950.0 -0.1468164685 0.0847622458 0.5236277809 -0.1779413377 0.5238841451 -0.1782851136 -0.1604044751 0.0789770054
180298920.0 -0.1461231085 0.0856933224 0.5218069639 -0.1842817658 0.5215742189 -0.1846301007 -0.1594173971 0.0802771646
185298890.0 -0.1451952348 0.0871707324 0.5205123482 -0.1903128072 0.5201295384 -0.1904704502 -0.1586583183 0.0812955956
190298860.0 -0.1437458228 0.0889422747 0.5175308404 -0.1967666982 0.5182310755 -0.1968033952 -0.157798428 0.0822274571
195298830.0 -0.1431201115 0.0899828594 0.5165967281 -0.2023811416 0.5163265146 -0.2029874799 -0.1573417106 0.083517432
200298800.0 -0.1417084209 0.0910151489 0.5140558505 -0.2093504786 0.5141857121 -0.2091088945 -0.1564042609 0.0845280319
205298770.0 -0.1414040478 0.092261073 0.5117002661 -0.2148098253 0.5118209722 -0.2147846629 -0.1554614112 0.0857807979
210298740.0 -0.140489758 0.0941153438 0.5097429638 -0.220609936 0.5093617663 -0.2210842402 -0.1551171853 0.0870247762
215298710.0 -0.139441423 0.0954913224 0.5069778093 -0.2262871024 0.5070325689 -0.2272893315 -0.1540705365 0.088419327
220298680.0 -0.1381203991 0.0969650498 0.5044377883 -0.2327047554 0.5045909604 -0.232961776 -0.1533288452 0.0896551209
225298650.0 -0.1370950759 0.0982247313 0.5016487828 -0.2384613831 0.5025105601 -0.2384107815 -0.1527369663 0.0905151274
230298620.0 -0.1361369056 0.0998283125 0.4995983717 -0.2447809949 0.4999211872 -0.2447660465 -0.1521910488 0.0916841523
235298590.0 -0.1357003597 0.1014000176 0.4973654621 -0.2508081165 0.4972896493 -0.2503611195 -0.150957943 0.093270183
240298560.0 -0.1340154401 0.1027537866 0.4945339106 -0.2557558555 0.4941720044 -0.2554785416 -0.1502918973 0.0943197103
245298530.0 -0.1331359648 0.1038555506 0.4913421425 -0.2613285633 0.4915228082 -0.261765766 -0.1495369287 0.0957782805
250298500.0 -0.1325009803 0.1054933637 0.4891234646 -0.2671121571 0.4888350376 -0.2669728464 -0.1488688059 0.0971264306
255298470.0 -0.1309796175 0.107324225 0.4860399259 -0.2723907051 0.4867878924 -0.2730882997 -0.1479013344 0.0990607851
260298440.0 -0.1301120342 0.1084817087 0.4832720686 -0.2780475818 0.4833335724 -0.2780096737 -0.1473065913 0.0994973707
265298410.0 -0.1291812665 0.1100069202 0.4798019549 -0.2838692343 0.4798610653 -0.283686451 -0.1459427305 0.1009250214
270298380.0 -0.1281378678 0.1112845792 0.4768982033 -0.2891163054 0.4769072251 -0.2891819085 -0.1452681993 0.1027865522
275298350.0 -0.1269573273 0.1129746756 0.4733346513 -0.294248375 0.4733832456 -0.2945451813 -0.1445368202 0.1041855805
280298320.0 -0.1264129514 0.1145567102 0.4706028528 -0.2994645539 0.4712048291 -0.299928546 -0.1433757045 0.1053534596
285298290.0 -0.1247754924 0.1157504905 0.4672713612 -0.3052558696 0.4675266718 -0.3050101988 -0.1425307934 0.1069698229
290298260.0 -0.1236190494 0.1174463023 0.4644056724 -0.3103898034 0.464518994 -0.3106329446 -0.1414935624 0.1080235898
295298230.0 -0.1226046452 0.1184591774 0.461003725 -0.3160615801 0.4609777852 -0.3160243222 -0.1406772638 0.1092970363
300298200.0 -0.1211866337 0.120059738 0.4574453577 -0.3209253412 0.4576058935 -0.3207905807 -0.13974006 0.1104368525
305298170.0 -0.1202293797 0.1212042295 0.4543185388 -0.3260868665 0.4544072347 -0.3265550547 -0.1386582387 0.1115017262
310298140.0 -0.1185291701 0.1226974124 0.4502571838 -0.3313454484 0.4505285488 -0.3311784311 -0.1373165538 0.1128879907
315298110.0 -0.117664768 0.123645644 0.4471894128 -0.3370564792 0.4469826105 -0.336797158 -0.1365620652 0.11443299
320298080.0 -0.1164449257 0.1252657894 0.4427962309 -0.3416369818 0.4436306007 -0.3419440961 -0.1357386093 0.1153598918
325298050.0 -0.1158718032 0.126309928 0.4395026464 -0.3468380147 0.4397983877 -0.3470913623 -0.1344497325 0.1165077144
330298020.0 -0.1149186555 0.1276169319 0.4353210066 -0.3520230421 0.4355521833 -0.3517859378 -0.1339729096 0.1180218199
335297990.0 -0.1132810596 0.1289484178 0.4312300055 -0.356796088 0.4315308349 -0.3567483148 -0.1329281565 0.1191404374
340297960.0 -0.1125724015 0.1303385365 0.4269738786 -0.3615530645 0.4272734594 -0.3612137877 -0.1320594821 0.1209101904
345297930.0 -0.111081084 0.131446453 0.4231166095 -0.3664132856 0.4232771533 -0.3662909292 -0.1310694915 0.1220493668
350297900.0 -0.1102588664 0.1329522338 0.4194028328 -0.3704058039 0.4194051427 -0.3705102941 -0.130086028 0.1230792928
355297870.0 -0.1090381147 0.1342731936 0.415169123 -0.3748372933 0.41523517 -0.3748223946 -0.1287736612 0.1247890846
360297840.0 -0.1073106755 0.1357654352 0.4100722051 -0.3799546064 0.4112154831 -0.3802468343 -0.1278669771 0.1262937225
365297810.0 -0.1062694417 0.1371671563 0.4066496815 -0.384312362 0.4064173581 -0.3844656344 -0.1265548813 0.1273968929
370297780.0 -0.1048624388 0.1382472037 0.4021103324 -0.3887283041 0.4025881425 -0.3885665707 -0.1257000515 0.128775778
375297750.0 -0.1034326156 0.1397556648 0.398499778 -0.3932368792 0.397999519 -0.3933645707 -0.1240267371 0.1302079345
380297720.0 -0.1023488633 0.141276511 0.3943881091 -0.397825301 0.3935744763 -0.3975001454 -0.1230920007 0.1315548684
385297690.0 -0.1007348296 0.1420569153 0.3893322114 -0.401727434 0.3894978262 -0.4020840234 -0.1219966107 0.1331775145
390297660.0 -0.0991952471 0.1433627487 0.3849684646 -0.4057597881 0.3855757205 -0.4057970109 -0.120763796 0.1339810502
395297630.0 -0.097177744 0.1445657348 0.3805063341 -0.409691096 0.3805833946 -0.4099417459 -0.1194945208 0.1352499443
400297600.0 -0.0963634341 0.1458469993 0.3761918373 -0.4143899694 0.3764804627 -0.4143388239 -0.1181266409 0.1371096997
405297570.0 -0.0948393752 0.1465534345 0.3715402706 -0.4179384751 0.371729397 -0.4184611985 -0.1166289935 0.1383003246
410297540.0 -0.0930121724 0.1481641012 0.3672753926 -0.4225230026 0.3673236794 -0.422665594 -0.1155869011 0.1394038839
415297510.0 -0.0921345453 0.1491803807 0.3623251031 -0.4264014875 0.3625774389 -0.4265740175 -0.1143080352 0.1406457186
420297480.0 -0.0902783763 0.150044218 0.3578382801 -0.4303511261 0.3580812271 -0.4306553546 -0.112544883 0.1422835235
425297450.0 -0.0880924195 0.1513964748 0.3531451113 -0.4338921671 0.3530517351 -0.4342715298 -0.1116508977 0.1427695453
430297420.0 -0.0868901676 0.1524461872 0.348598838 -0.4382041075 0.3484661362 -0.4380156836 -0.1097521572 0.1446259069
435297390.0 -0.0852814181 0.1532942946 0.3432162271 -0.4424690094 0.3433862628 -0.4418417311 -0.108837544 0.145717284
440297360.0 -0.0833244206 0.1540313452 0.3382972392 -0.4459023874 0.3384004635 -0.4460277725 -0.1073187446 0.147144504
445297330.0 -0.0819461195 0.1550841326 0.3337758241 -0.4488212637 0.3336056236 -0.4493755269 -0.1058833 0.1481562924
450297300.0 -0.0799782554 0.1564667807 0.3285155823 -0.4529510813 0.3291228183 -0.4527532007 -0.1041203116 0.1494868945
455297270.0 -0.0787021536 0.1571869075 0.3239325808 -0.4565889113 0.3242275282 -0.4571206068 -0.1029349789 0.1506041533
460297240.0 -0.076389874 0.1586903921 0.3188511881 -0.4605634705 0.3191049929 -0.4603742414 -0.1015893404 0.1516639062
465297210.0 -0.0747109543 0.1592179327 0.3132321134 -0.46398171 0.3135381596 -0.4636796849 -0.0997723724 0.1531428432
470297180.0 -0.0731646837 0.1599405737 0.3087675468 -0.4665232619 0.3089708051 -0.4666667837 -0.0983706918 0.153684263
475297150.0 -0.0717708065 0.1613439867 0.3035478834 -0.4705377295 0.3037558912 -0.4705096059 -0.09667679 0.1549915695
480297120.0 -0.069263338 0.162415982 0.2982621863 -0.4734063613 0.2986862185 -0.4733570911 -0.0956736758 0.1559010853
485297090.0 -0.0675041439 0.1625874973 0.2929721598 -0.4768336566 0.2930849022 -0.4764198907 -0.0940668468 0.1572299427
490297060.0 -0.065358432 0.1640668578 0.2876433402 -0.4801116428 0.288195255 -0.4800742312 -0.0923468364 0.1579691152
495297030.0 -0.0638379258 0.1645342075 0.2828899771 -0.4828256192 0.2823722796 -0.4832708504 -0.0903298275 0.1591759574
500297000.0 -0.0621238718 0.1654872717 0.2774080214 -0.4859288166 0.2773379456 -0.4862337743 -0.0890424867 0.1602954052
505296970.0 -0.0596985133 0.1661461206 0.2721587393 -0.4894430744 0.2722758187 -0.4891486996 -0.0872223053 0.1607677674
510296940.0 -0.0581925949 0.1668863945 0.26685763 -0.4924503578 0.2671701246 -0.4928505423 -0.085639166 0.1625131852
515296910.0 -0.0564426326 0.1679187999 0.261075423 -0.4950068873 0.2609681043 -0.4949135024 -0.0843928704 0.1629013137
520296880.0 -0.0541582923 0.1686874908 0.2557833402 -0.4976860382 0.256118463 -0.4974500074 -0.0823048241 0.1642431791
525296850.0 -0.0522666743 0.1691090296 0.2505446323 -0.499959755 0.2502819239 -0.500071412 -0.080668909 0.1647588702
530296820.0 -0.0507316965 0.1697393262 0.2447830491 -0.5030833431 0.2453000548 -0.5028415922 -0.0793412396 0.1656899762
535296790.0 -0.0479988829 0.1704936377 0.2395564263 -0.5052991369 0.2398392777 -0.5055684164 -0.0775547312 0.1668334129
540296760.0 -0.0461099687 0.1715679584 0.2336516945 -0.5082692599 0.2340200176 -0.5078653333 -0.0760001269 0.1674347439
545296730.0 -0.044773041 0.1723568008 0.2284508656 -0.5106020156 0.228487786 -0.5102045904 -0.0741385858 0.1683141273
550296700.0 -0.0421280979 0.1729005476 0.2229457674 -0.5132647861 0.2227231835 -0.5135101858 -0.0724371919 0.169284367
555296670.0 -0.0404661142 0.1736313469 0.2174187829 -0.5163114175 0.2172918082 -0.5153685894 -0.0710001101 0.1697328887
560296640.0 -0.0381097488 0.1738115338 0.2114692207 -0.5174928456 0.2117659911 -0.5180089543 -0.0689825579 0.1710494708
565296610.0 -0.0366043479 0.1745390158 0.2065962021 -0.5199465516 0.2061500493 -0.5194297492 -0.0673571443 0.1717139672
570296580.0 -0.0345389158 0.1754758934 0.2004943607 -0.52203778 0.2001491649 -0.5222124009 -0.0656261188 0.1723305577
575296550.0 -0.0321015352 0.1756666616 0.1951057308 -0.5241949264 0.1947368962 -0.5243603172 -0.0641235968 0.1732166518
580296520.0 -0.0302481065 0.176428043 0.1890990627 -0.5261217231 0.1887991941 -0.5264672445 -0.0625462397 0.1739150383
585296490.0 -0.0281484723 0.177076708 0.1837209883 -0.5282626072 0.1828056147 -0.5282207433 -0.0603987693 0.1747431044
590296460.0 -0.0255445081 0.1775333758 0.1775938933 -0.5302636258 0.1775562137 -0.5306113447 -0.0592367671 0.1756263594
595296430.0 -0.0237877813 0.1779716639 0.171489689 -0.5320869286 0.1713657503 -0.531951855 -0.0571956959 0.1758381773
600296400.0 -0.0217729008 0.1786060662 0.1657403707 -0.5335575503 0.1656329666 -0.5339181148 -0.0551152366 0.1766906875
605296370.0 -0.0200059295 0.1791026976 0.1604971956 -0.5353558384 0.1599291756 -0.5356475094 -0.0535466616 0.177474997
610296340.0 -0.0173768359 0.1796978122 0.1544882792 -0.5365236702 0.1548113544 -0.5370906181 -0.0522583585 0.1783274831
615296310.0 -0.0151847914 0.1797926084 0.1485395305 -0.5391621114 0.1480751568 -0.5389804395 -0.0498129966 0.1787875091
620296280.0 -0.0135345206 0.1805957617 0.1426592614 -0.540289753 0.1425054153 -0.5406020539 -0.048546284 0.1797504966
625296250.0 -0.0119418276 0.1807381278 0.1368977481 -0.5421932675 0.136559997 -0.5419158898 -0.0468477398 0.1800013096
630296220.0 -0.0094288942 0.1813331514 0.1308561822 -0.5434280009 0.1304599828 -0.5431992429 -0.0448832321 0.1807353291
635296190.0 -0.00754951 0.1816489497 0.1253788295 -0.5443372447 0.1247827674 -0.5444791915 -0.0432907051 0.1812566027
640296160.0 -0.0054522356 0.1819502096 0.1191557501 -0.5460082799 0.1189878301 -0.5462810018 -0.0418275127 0.1817809224
645296130.0 -0.0027832288 0.1827615597 0.1134010707 -0.5471128683 0.1128623807 -0.546819586 -0.0396871716 0.1817332096
650296100.0 -0.0013643909 0.1824703614 0.1075138872 -0.5486086703 0.1071684829 -0.5486866648 -0.0374765844 0.1827031133
655296070.0 0.0008887305 0.1831268903 0.1011241334 -0.5493952923 0.1012303041 -0.5490370608 -0.0364388724 0.1832855739
660296040.0 0.0030261103 0.1831914477 0.0951834963 -0.5505258526 0.0954501425 -0.5506639564 -0.0345054132 0.1832442634
665296010.0 0.0049426997 0.1834930497 0.0888390075 -0.5511377335 0.0890330323 -0.5513062753 -0.0324248422 0.1841984867
670295980.0 0.0070185801 0.1838486039 0.083307835 -0.5523295618 0.0832119895 -0.5518440289 -0.0309399646 0.1845534397
675295950.0 0.0092651482 0.1838425532 0.0771692623 -0.5529205079 0.0775762898 -0.5529174345 -0.0289674141 0.1851130017
680295920.0 0.0108108734 0.1841921189 0.0715477002 -0.5539163493 0.0715193284 -0.5537569106 -0.0271855126 0.18545783
685295890.0 0.0133156829 0.1842335727 0.0653743996 -0.5545033034 0.0656130802 -0.5546232421 -0.0252232378 0.185955782
690295860.0 0.0147939874 0.1847097487 0.0594785943 -0.5554060369 0.0591711589 -0.5551440283 -0.0233900078 0.1862531816
695295830.0 0.0172568576 0.1841753531 0.0539567841 -0.5557988774 0.0536029084 -0.5558210458 -0.0217893836 0.1867382966
700295800.0 0.0191888847 0.1849094642 0.0478401003 -0.556292992 0.047521282 -0.5561439192 -0.0197652595 0.1869667385
705295770.0 0.0211710449 0.1844313384 0.041384417 -0.5571170045 0.0414480839 -0.5565645628 -0.0179790773 0.1876221272
710295740.0 0.0230194938 0.1845351207 0.0360383355 -0.5570924169 0.0358519704 -0.5574355139 -0.0162981039 0.1877029675
715295710.0 0.0253345611 0.1847994894 0.0297452378 -0.5576018711 0.0293318124 -0.5573890792 -0.0144556055 0.1878881316
720295680.0 0.0277124038 0.1844960772 0.0234481329 -0.5576070773 0.0235149123 -0.5580995542 -0.0125326248 0.1882172101
725295650.0 0.0287021613 0.1850622782 0.0179929077 -0.5579584218 0.0176595927 -0.5582435442 -0.0110308555 0.1891930281
730295620.0 0.0304647031 0.1848832778 0.0114810957 -0.5578827041 0.0114923739 -0.5578464703 -0.0091323231 0.1896310617
735295590.0 0.0330666378 0.184579092 0.0057169026 -0.5581209299 0.0055271887 -0.5582326425 -0.0071999255 0.188983141
740295560.0 0.0347550038 0.1844491688 -0.0002004333 -0.5581303589 0.000202 -0.5584466099 -0.0056075165 0.1895825536
745295530.0 0.0370143659 0.1843230784 -0.0062399086 -0.5571347192 -0.0057031256 -0.5578996606 -0.0040081101 0.1898076198
750295500.0 0.0384710888 0.1844974879 -0.01177485 -0.5579537553 -0.0123695099 -0.5582210692 -0.0022093276 0.1898806396
755295470.0 0.0405735275 0.1842230007 -0.0177974919 -0.5582149894 -0.0183113185 -0.5579790769 0.0004061131 0.1904903274
760295440.0 0.0425818046 0.1840980027 -0.0245477294 -0.5572542297 -0.0244025777 -0.5571799242 0.0018305633 0.1897467328
765295410.0 0.0447348714 0.1833697405 -0.0303528954 -0.5568252679 -0.0302437966 -0.5573693485 0.0037736302 0.1906697503
770295380.0 0.0463480396 0.1835262285 -0.0358271184 -0.5560554774 -0.036433269 -0.557135863 0.0053035744 0.1903912349
775295350.0 0.0482653307 0.1830516076 -0.041840477 -0.556791504 -0.042173298 -0.5557890968 0.0075947525 0.190674921
780295320.0 0.0504876516 0.1829060787 -0.0478309706 -0.5553490975 -0.0480774802 -0.5554997731 0.0096435339 0.1905205431
785295290.0 0.0520786294 0.1825602809 -0.053986374 -0.5551316999 -0.0538770788 -0.5555412491 0.0108642568 0.1911230395
790295260.0 0.0543319922 0.1818799924 -0.0597355262 -0.5549842366 -0.0598063897 -0.5548739403 0.0126617376 0.1911389303
795295230.0 0.056187238 0.1815714387 -0.0659313447 -0.5543408581 -0.06597089 -0.554214625 0.0144556873 0.1905153644
800295200.0 0.0577461178 0.181326549 -0.0714222327 -0.5525468297 -0.0715895817 -0.5534250897 0.0162859499 0.1908497871
805295170.0 0.0595467517 0.1809954874 -0.077422895 -0.5524792913 -0.0774256929 -0.5528797494 0.0187946725 0.1908336357
810295140.0 0.0618297208 0.1805490317 -0.083509619 -0.5518292875 -0.0836218539 -0.5513774082 0.0203543578 0.1910618912
815295110.0 0.0634924216 0.1800431304 -0.0889813148 -0.5504347024 -0.0892747892 -0.5507248521 0.0219857491 0.1909670484
820295080.0 0.0654130506 0.1797838327 -0.0945287151 -0.5493747562 -0.0950683474 -0.5498049276 0.023025816 0.1914213575
825295050.0 0.0669863339 0.1789340008 -0.1011295815 -0.5485466165 -0.1013778378 -0.5484064661 0.0261061744 0.1913270467
830295020.0 0.0688450818 0.1783675081 -0.1070731913 -0.5472153151 -0.1072289045 -0.5474771582 0.0276180251 0.1906481002
