!Created with skrf (http://scikit-rf.org).
# Hz S RI R 50.0 
!freq ReS11 ImS11 ReS21 ImS21 ReS12 ImS12 ReS22 ImS22
300000.0 -0.0946035651 -0.0838401493 0.6209782679 0.0785778035 0.6225635354 0.0821215207 -0.0957359995 -0.0905554145
5299970.0 -0.1005950965 0.0124453576 0.6307866421 0.0106273203 0.6306852605 0.0112236486 -0.1022625489 0.0117767863
10299940.0 -0.0953711767 0.0297285049 0.634310312 0.0153972499 0.6342650102 0.0156018067 -0.09724119 0.0288842831
15299910.0 -0.0882958183 0.0431524897 0.6401334108 0.0206862037 0.6404453764 0.0208910297 -0.09021495 0.0420866202
20299880.0 -0.0794728095 0.054365185 0.64866895 0.0239882478 0.6485932139 0.0240353623 -0.0816627814 0.053199003
25299850.0 -0.0696326434 0.0627501188 0.6579757125 0.0252110096 0.6580033989 0.0253394454 -0.0724401204 0.0619262595
30299820.0 -0.05957484 0.0691697606 0.6681058011 0.0245238501 0.6678254942 0.0246733621 -0.062589969 0.0686634772
35299790.0 -0.0493651624 0.0743125762 0.6775635613 0.0218563244 0.677402954 0.0217749395 -0.0525437688 0.073149704
40299760.0 -0.0395369129 0.0772182269 0.6868201993 0.017931428 0.6867241503 0.0177663712 -0.0437483336 0.0770838786
45299730.0 -0.0303086797 0.0794580881 0.6956130487 0.0113679915 0.6953820566 0.0122961006 -0.0343903827 0.0787653072
50299700.0 -0.0216832418 0.0798180864 0.7032772536 0.0046195941 0.703536088 0.0042827685 -0.0253498136 0.0800116462
55299670.0 -0.0142500233 0.079865878 0.7105562071 -0.0030810643 0.7109159331 -0.0026361401 -0.0179059745 0.0798744547
60299640.0 -0.0066328099 0.0788453579 0.7170171147 -0.0113437606 0.7171162044 -0.0111818876 -0.0103003353 0.0795144094
65299610.0 4.66118e-05 0.0781825183 0.7238155248 -0.0192994259 0.7238772343 -0.0200548326 -0.003673214 0.0786916478
70299580.0 0.0058865065 0.0759991549 0.7285554378 -0.0292374226 0.7286544811 -0.0291897476 0.0024467561 0.0771648691
75299550.0 0.0116647902 0.0742815959 0.7329932185 -0.0389207436 0.733115409 -0.038804908 0.0082244617 0.0755891603
80299520.0 0.0161155288 0.0721853696 0.7380685882 -0.0487421343 0.7379415451 -0.0487954409 0.0132360099 0.0729269042
85299490.0 0.0209989138 0.0694587683 0.7402239269 -0.0590627535 0.7406052822 -0.0588935857 0.0176887658 0.0709601133
90299460.0 0.024630542 0.0676452096 0.7434028277 -0.068799304 0.7436405623 -0.0687736248 0.0220673606 0.0687803708
95299430.0 0.0282554647 0.0653441296 0.7461223762 -0.0792927245 0.7460889542 -0.0789720998 0.0252875475 0.0662848398
100299400.0 0.0314284494 0.0628404587 0.7474514391 -0.0889478365 0.7474861077 -0.0890420332 0.0284914395 0.0641201996
105299370.0 0.0347285372 0.0602516651 0.7485491547 -0.099060973 0.7492436062 -0.0993843872 0.0319522285 0.0617924293
110299340.0 0.037132947 0.0580699381 0.7504025794 -0.1085162926 0.7500088701 -0.1094119399 0.0347226038 0.0591736202
115299310.0 0.0395764884 0.0548883748 0.7508421278 -0.1188131711 0.751527781 -0.1191020241 0.0370519841 0.056289497
120299280.0 0.0413318965 0.0527751097 0.7516206206 -0.1291638842 0.7515736275 -0.1291852729 0.0389516827 0.0543390416
125299250.0 0.0435083999 0.0505251779 0.7519365761 -0.1389566408 0.7519303356 -0.1392272399 0.040992139 0.0512468335
130299220.0 0.0451512463 0.048007699 0.7518370381 -0.1486455733 0.7520562217 -0.1494625534 0.0431999366 0.0495471045
135299190.0 0.0469615764 0.0455316062 0.7513305208 -0.1586221766 0.7508450084 -0.158679075 0.0444567865 0.047539881
140299160.0 0.0477312547 0.0441247202 0.7504144693 -0.1687255663 0.7509698532 -0.1692391326 0.0462593968 0.0455228974
145299130.0 0.0492122554 0.0420997769 0.7505781784 -0.1780273767 0.7502767354 -0.1778912016 0.0472992213 0.0426479884
150299100.0 0.0508575566 0.0399752856 0.7490713373 -0.1877014347 0.7488381731 -0.1879388515 0.0489485325 0.0408411237
155299070.0 0.0514066425 0.0384477843 0.7480142453 -0.1974695602 0.7479871091 -0.1979930715 0.0493562896 0.0388427708
160299040.0 0.0522918583 0.0359711583 0.7460719217 -0.2068066346 0.7466752163 -0.207244951 0.0507943698 0.0371238835
165299010.0 0.0529165573 0.0342085901 0.74566597 -0.2168831397 0.7449613151 -0.216546355 0.0514448518 0.0349195883
170298980.0 0.0535605406 0.0327582205 0.742341834 -0.2257989305 0.7427406361 -0.225983428 0.0527270987 0.0327528948
175298950.0 0.0544745091 0.0306245499 0.7414522916 -0.2354000004 0.7416310604 -0.2353468549 0.0533143016 0.031115588
180298920.0 0.0552739162 0.0292100172 0.7390879583 -0.2441831469 0.7389906466 -0.2441276558 0.0538769093 0.0301663776
185298890.0 0.0559627255 0.0273852355 0.7368305023 -0.2536909557 0.7368096651 -0.2537401653 0.0544256562 0.0278407387
190298860.0 0.056232833 0.0260016211 0.7341696705 -0.2629702572 0.7345431956 -0.2629385679 0.0558401551 0.0263069798
195298830.0 0.0564513495 0.0239846782 0.7313668612 -0.2712365076 0.7321430962 -0.2722171781 0.0558426679 0.0241712962
200298800.0 0.0570624575 0.022717326 0.7293668479 -0.2800792636 0.7290284372 -0.2802092675 0.0564614879 0.0232208352
205298770.0 0.0572666028 0.0214651599 0.7268771182 -0.2892130798 0.7269801399 -0.2897530291 0.0563933826 0.0208662705
210298740.0 0.0570981722 0.0196497622 0.7239869919 -0.298772456 0.7234673118 -0.2988645283 0.0565988732 0.019959091
215298710.0 0.0577663605 0.0186659379 0.7205883729 -0.3070443308 0.7207865585 -0.3067984977 0.0567609778 0.0185186975
220298680.0 0.0582788496 0.0171411115 0.7173042695 -0.3162397939 0.7172528162 -0.3157242676 0.0575475646 0.0174076463
225298650.0 0.0586430445 0.0162522903 0.7137985747 -0.3241255893 0.7141579195 -0.3244150035 0.0576691681 0.015591828
230298620.0 0.0580313372 0.0147024619 0.711435073 -0.332816581 0.711477596 -0.332524848 0.0578175695 0.0142107978
235298590.0 0.0585913243 0.0132783439 0.7079760045 -0.3404970608 0.7073165247 -0.3412299297 0.0579313675 0.0127615337
240298560.0 0.0582294798 0.0120631111 0.7040152359 -0.3489438899 0.7038330028 -0.3487305527 0.0582429681 0.0120308661
245298530.0 0.0589912 0.0111933195 0.6990838798 -0.3575535651 0.6997816514 -0.3576242969 0.058271078 0.010989454
250298500.0 0.0583988952 0.0098382902 0.6962666382 -0.3654372026 0.6965330421 -0.3657967199 0.0589286712 0.0091279922
255298470.0 0.0584361145 0.0088673527 0.6917517758 -0.3746420863 0.6927545009 -0.3741271344 0.0589465818 0.0076283747
260298440.0 0.0584214731 0.0076332845 0.6880857185 -0.381893474 0.688911968 -0.3824125147 0.0592738571 0.0071536871
265298410.0 0.0591053049 0.0069726317 0.6835400497 -0.390504431 0.6840909397 -0.3906510546 0.0586033539 0.0055457994
270298380.0 0.0592685955 0.0055789111 0.6789616545 -0.398210986 0.6800997831 -0.3982117938 0.0590049243 0.0048832683
275298350.0 0.0584535212 0.0049634968 0.6758091648 -0.4066605581 0.6756787203 -0.4063549802 0.058996158 0.0036518236
280298320.0 0.0586819974 0.0040868668 0.6712056583 -0.4133193194 0.6713118921 -0.414443898 0.0594627984 0.0026822997
285298290.0 0.05873521 0.003078078 0.6668820782 -0.4215382693 0.6668940069 -0.4217958382 0.0589815309 0.0018117584
290298260.0 0.0587392264 0.0018430317 0.6622741535 -0.4302189343 0.6620763676 -0.4299321694 0.0595325829 0.0007739465
295298230.0 0.0587458708 0.0008219211 0.6575432558 -0.4373770128 0.6576574012 -0.4372534228 0.0597819385 -0.0003006845
300298200.0 0.0592400696 -8.0036e-05 0.6531245134 -0.4451477058 0.6532305419 -0.4452264844 0.0590251544 -0.0010107232
305298170.0 0.0589332786 -0.0014334214 0.6484114253 -0.453274599 0.6489225104 -0.4529256536 0.0598057394 -0.0021872058
310298140.0 0.0592853991 -0.0022564715 0.6438894384 -0.4604164842 0.6437536939 -0.4607867326 0.0597274399 -0.0026963468
315298110.0 0.0590877881 -0.0033563792 0.63809132 -0.4685043456 0.6387238798 -0.4681714739 0.0597337928 -0.0043799275
320298080.0 0.0585565901 -0.004404038 0.6331911822 -0.4755000543 0.6335217055 -0.4759181025 0.0594580593 -0.0055416821
325298050.0 0.0583622053 -0.0058429019 0.6283616662 -0.4834633899 0.6282355106 -0.4836921558 0.0592403826 -0.0068369244
330298020.0 0.0579086047 -0.0066275782 0.6216628716 -0.4905090831 0.6222582249 -0.490534783 0.0584117028 -0.0078792413
335297990.0 0.0576122307 -0.0079018771 0.6161105793 -0.4977505939 0.6168133996 -0.4978339937 0.0580435497 -0.008975501
340297960.0 0.0565511944 -0.0079299286 0.6103480236 -0.5045670919 0.6108704653 -0.5043461557 0.0574921678 -0.0094997572
345297930.0 0.056117254 -0.0087083865 0.6050268222 -0.5109032224 0.6046160758 -0.5108936814 0.0576287873 -0.0106016138
350297900.0 0.0564797081 -0.0090842732 0.5992077454 -0.5172124087 0.5993579427 -0.5182027767 0.056981018 -0.0108051151
355297870.0 0.0560163153 -0.0104503672 0.5932617573 -0.5244703207 0.5932811043 -0.5250431671 0.05642413 -0.0113551926
360297840.0 0.0562699184 -0.0105867084 0.5878303385 -0.5313158597 0.5874567187 -0.5315193968 0.0562721514 -0.0119159971
365297810.0 0.0558870433 -0.0112809252 0.5817270938 -0.5377177555 0.5815728193 -0.5381220993 0.055834635 -0.0124520563
370297780.0 0.0556678563 -0.0123108272 0.5755845357 -0.5438992252 0.5755883844 -0.5446889208 0.0561656727 -0.0127598999
375297750.0 0.0552936326 -0.0122782873 0.5697528473 -0.5505918814 0.5696370044 -0.5514405569 0.0556842621 -0.0134560018
380297720.0 0.0552234356 -0.0140960058 0.5633129342 -0.5567820267 0.5635740341 -0.5567132359 0.0554262901 -0.0143152473
385297690.0 0.0548250911 -0.0139802261 0.5571668716 -0.5627560217 0.5574661515 -0.5633820449 0.0549820806 -0.014671589
390297660.0 0.0541107802 -0.0147558538 0.5511967313 -0.5696710369 0.5511402098 -0.5702877568 0.0548052995 -0.0155849852
395297630.0 0.0546634641 -0.0157647998 0.5454728628 -0.5752161085 0.5450999004 -0.5755023036 0.0544295661 -0.0157647967
400297600.0 0.0540007815 -0.0158734132 0.5383437432 -0.5820469478 0.5387221797 -0.5818816684 0.0533244353 -0.0169144694
405297570.0 0.0539324397 -0.0165751332 0.5319636014 -0.5879625925 0.5321586345 -0.5883389244 0.053580822 -0.0167443338
410297540.0 0.0538817814 -0.0174766151 0.5250521073 -0.5935874295 0.5257187959 -0.5939528168 0.0530798656 -0.0176692883
415297510.0 0.0534337706 -0.0171607301 0.5190229916 -0.5989368548 0.5191200468 -0.5996466316 0.0528711106 -0.0177131705
420297480.0 0.0531620589 -0.018869984 0.5123621497 -0.6060058001 0.5126775717 -0.6058072259 0.0530285374 -0.0193484704
425297450.0 0.0533608469 -0.0196090206 0.5058767892 -0.6109357672 0.5062509812 -0.6107170948 0.0522154031 -0.0190784388
430297420.0 0.0525280815 -0.0196816007 0.499188888 -0.6167086543 0.4993613155 -0.6173821939 0.0517162614 -0.0202156234
435297390.0 0.0524570194 -0.0207079353 0.4925794003 -0.6218407855 0.4926501314 -0.6216834856 0.0513578101 -0.0202700892
440297360.0 0.0522827326 -0.0216922687 0.4848543327 -0.6276099532 0.484970581 -0.6280387401 0.0510698184 -0.0216145213
445297330.0 0.0523403854 -0.0221661746 0.4781554808 -0.6336193215 0.4785559596 -0.6329632262 0.0507542247 -0.0218088163
450297300.0 0.0516563634 -0.022639419 0.4715166693 -0.6380029012 0.4715334779 -0.6386890862 0.0505590547 -0.0220273572
455297270.0 0.0512352463 -0.0235643908 0.4646493801 -0.6436496105 0.4652548335 -0.6432934256 0.0503576126 -0.0225892001
460297240.0 0.0506084272 -0.0239570153 0.4571458545 -0.6488043494 0.4568301658 -0.6482519332 0.04982825 -0.022495691
465297210.0 0.0507839662 -0.0247084284 0.4500184971 -0.653902661 0.4506814313 -0.6538671951 0.0487920333 -0.0236959897
470297180.0 0.0499284951 -0.0252156424 0.4434650254 -0.6586572136 0.4438203986 -0.6588337724 0.0482980692 -0.0242507837
475297150.0 0.0493882887 -0.0265242124 0.4353785858 -0.6629533062 0.4361005069 -0.6630008965 0.0484057841 -0.0245621681
480297120.0 0.0497928394 -0.0268271434 0.4284837136 -0.66802138 0.4289078184 -0.6678788041 0.0476224115 -0.0243089074
485297090.0 0.0494543188 -0.0272578713 0.4216912843 -0.6726329866 0.4215901182 -0.6729685599 0.0471466794 -0.0257893792
490297060.0 0.0489664672 -0.0281674727 0.4145269023 -0.6778808084 0.4139529029 -0.6778017503 0.0469233535 -0.025823968
495297030.0 0.0478515926 -0.0282342319 0.4064149409 -0.6824148353 0.4058902767 -0.6824165456 0.0467594633 -0.0264100967
500297000.0 0.0478727 -0.0292088936 0.3988360847 -0.6866751259 0.3994354242 -0.6865629875 0.0456658985 -0.02690018
505296970.0 0.0470333776 -0.0297103438 0.3907762857 -0.6903604514 0.3908498175 -0.6907198466 0.0450842367 -0.0271629671
510296940.0 0.0470928137 -0.0301601569 0.3837801866 -0.6957384564 0.3840968844 -0.6950099185 0.0452727026 -0.0271041607
515296910.0 0.0463433862 -0.0303249022 0.3759757805 -0.6989181742 0.3762224582 -0.6996405031 0.044013614 -0.0278892138
520296880.0 0.045966846 -0.0313696435 0.3681631835 -0.7035094986 0.3689180038 -0.7033931432 0.0441235988 -0.0282208132
525296850.0 0.0453227929 -0.0320855487 0.3607029462 -0.7077410256 0.361239062 -0.7079877798 0.0440048546 -0.0289522015
530296820.0 0.0451567068 -0.0322637892 0.3529011567 -0.7104543375 0.3527270894 -0.7116448973 0.0426633922 -0.029843478
535296790.0 0.0440854766 -0.0328540241 0.3448665188 -0.7146354351 0.3454062626 -0.7153381543 0.042751002 -0.0302517004
540296760.0 0.0439946631 -0.0337206555 0.3375957727 -0.7198312737 0.3367574691 -0.7193325182 0.0416682211 -0.0301321019
545296730.0 0.0434967615 -0.0333929964 0.3292435629 -0.7225796138 0.3295207343 -0.7230344912 0.0414588642 -0.030839879
550296700.0 0.0424864547 -0.0345297991 0.3216051476 -0.7264360942 0.321979342 -0.7267520112 0.0404840479 -0.0304999885
555296670.0 0.042478224 -0.0349401246 0.3136694132 -0.7301799634 0.3136389847 -0.7298107511 0.0400920265 -0.0310874809
560296640.0 0.0421290146 -0.0357245721 0.3056983805 -0.7332923332 0.3054871931 -0.7328915724 0.039608864 -0.03137651
565296610.0 0.0408452898 -0.0360824309 0.2971453324 -0.7369138913 0.2969007085 -0.7369874878 0.0392461909 -0.0323354359
570296580.0 0.0410040249 -0.0365466506 0.2893539409 -0.7395885554 0.2899071849 -0.7399387823 0.0390233343 -0.0317002738
575296550.0 0.0403164477 -0.0363100559 0.2815616399 -0.7424356941 0.2814512217 -0.7426308414 0.0383803913 -0.032602682
580296520.0 0.0395386006 -0.0370079731 0.2740447883 -0.745453079 0.2730691991 -0.7462575371 0.0373671862 -0.0335038782
585296490.0 0.0392579827 -0.037931746 0.2654581261 -0.7490398506 0.2653380125 -0.7489409111 0.0367609822 -0.0338782357
590296460.0 0.0380620934 -0.0386108457 0.2566382574 -0.7515754287 0.257056982 -0.7517658712 0.0369440229 -0.0335007685
595296430.0 0.0376332411 -0.0382688646 0.2488568453 -0.7543706701 0.2486532789 -0.7549047818 0.0362971315 -0.0341634415
600296400.0 0.0372648947 -0.0386927726 0.2402592115 -0.7574606034 0.2410507207 -0.756953957 0.0354407359 -0.0341528575
605296370.0 0.037235998 -0.0385413709 0.2322104433 -0.7599504616 0.2321805625 -0.7597825392 0.0349390149 -0.0348023875
610296340.0 0.0359851283 -0.0393213545 0.2240296771 -0.7619271104 0.2246135735 -0.7623864669 0.0344625955 -0.03420968
615296310.0 0.0354945947 -0.0394862817 0.2155719283 -0.7641471557 0.2155561027 -0.7647124283 0.0341058425 -0.035104111
620296280.0 0.0346740667 -0.0400884023 0.2076828364 -0.7664203424 0.2073855505 -0.7668309338 0.0335676208 -0.0357515713
625296250.0 0.0346187252 -0.0403920019 0.1986516105 -0.7693096243 0.1986766315 -0.7693679923 0.0332761361 -0.0355627449
630296220.0 0.0338657008 -0.0406092245 0.1902224904 -0.7715093718 0.1911378008 -0.7715987943 0.0316728011 -0.0356857445
635296190.0 0.0330718098 -0.0409988434 0.1814690706 -0.7724227263 0.1815409784 -0.7726609083 0.0317482668 -0.0365117062
640296160.0 0.0323776521 -0.0412054216 0.1737014206 -0.7747232461 0.1737813415 -0.7748662305 0.0314926929 -0.0367239541
645296130.0 0.03186172 -0.0410676845 0.1653181732 -0.7772904081 0.165058939 -0.7767811423 0.0298549041 -0.0373225393
650296100.0 0.0310859045 -0.0408212476 0.1568591017 -0.7784809129 0.1570051451 -0.7788958362 0.0298436346 -0.0373101156
655296070.0 0.030380496 -0.0420083532 0.1481062765 -0.7800248017 0.1480205209 -0.7802791633 0.0301246439 -0.0370303477
660296040.0 0.0293881467 -0.0417725554 0.1399696897 -0.7817596448 0.1395238137 -0.7818377644 0.0285248167 -0.0377241292
665296010.0 0.029359588 -0.0424835431 0.131353778 -0.7829929377 0.1318195294 -0.7833863909 0.0278786052 -0.0374301814
670295980.0 0.0293198959 -0.0421214308 0.1231639114 -0.7848350087 0.1228250558 -0.7845996326 0.0270694989 -0.0381478173
675295950.0 0.0285291863 -0.0425997659 0.1140424655 -0.7858772519 0.1143002252 -0.7866287608 0.0272469298 -0.0378089522
680295920.0 0.0273502203 -0.0425530404 0.105642278 -0.7873081643 0.1053842128 -0.7871855814 0.0267843695 -0.0387541429
685295890.0 0.0266011508 -0.0429061045 0.0970640031 -0.7883045631 0.0963376079 -0.7886032281 0.0258988038 -0.0383241992
690295860.0 0.026700325 -0.0433306389 0.0884540585 -0.7884464203 0.0880583792 -0.7890311286 0.0255815454 -0.0383343263
695295830.0 0.0264288958 -0.0435415163 0.0790795587 -0.7904187542 0.0797359773 -0.7902798531 0.0242005492 -0.038508058
700295800.0 0.0256360896 -0.0432944533 0.0708239687 -0.7910891564 0.0705820183 -0.7912230714 0.0240132895 -0.0394026819
705295770.0 0.0247175931 -0.043769126 0.0623074954 -0.7917213137 0.062783115 -0.7918830037 0.0230791523 -0.0393447244
710295740.0 0.0242368988 -0.0434212573 0.0542168444 -0.7923957996 0.0536409654 -0.791807759 0.0218130233 -0.0388766286
715295710.0 0.0235040063 -0.0437580458 0.0450321517 -0.7927090694 0.0453716239 -0.7931870069 0.0219006573 -0.0399251187
720295680.0 0.0226722262 -0.0443806345 0.0365761605 -0.7934230157 0.0369830267 -0.7933414744 0.021775908 -0.0394475913
725295650.0 0.0223641711 -0.0444475913 0.0272361975 -0.7934232583 0.0280152231 -0.793406002 0.0207902213 -0.0393145506
730295620.0 0.0211947092 -0.0447002099 0.0191551303 -0.7938554625 0.0191873982 -0.7938157315 0.0204598997 -0.0406982089
735295590.0 0.0214767462 -0.0443226283 0.0113692253 -0.7937412829 0.0111514727 -0.7938247419 0.0196043812 -0.0398712709
740295560.0 0.0202214907 -0.0440590628 0.0020966368 -0.7937833154 0.0022991279 -0.7941130312 0.0196569525 -0.0401075089
745295530.0 0.0199228157 -0.0448805133 -0.006404499 -0.7939574719 -0.0058893354 -0.7942280047 0.018112861 -0.0399480858
750295500.0 0.0191096159 -0.0448614359 -0.0153942499 -0.793200721 -0.01505867 -0.793603251 0.0182051623 -0.0404784306
755295470.0 0.0189181359 -0.044582197 -0.0238147987 -0.7938240367 -0.0236510695 -0.7938453961 0.0169747965 -0.040219204
760295440.0 0.0177597699 -0.044375083 -0.0326258142 -0.793171544 -0.0326199141 -0.7936100721 0.0160978511 -0.0403806868
765295410.0 0.0170655388 -0.0451260759 -0.0403501091 -0.7925742232 -0.0406450114 -0.792988612 0.0168486308 -0.0398265002
770295380.0 0.0170047552 -0.0447437456 -0.0495875789 -0.7921700899 -0.049775657 -0.7927918421 0.01594924 -0.0399747864
775295350.0 0.0161468483 -0.0448088552 -0.0582439163 -0.7913657867 -0.0583881858 -0.7921227326 0.0146591062 -0.0408575773
780295320.0 0.0158149295 -0.0448571253 -0.0664668557 -0.7908921277 -0.0657677902 -0.7912300138 0.0146063298 -0.039992373
785295290.0 0.0146641676 -0.0443691058 -0.0756743641 -0.7890843446 -0.0755813129 -0.7902662019 0.0132231929 -0.0403285043
790295260.0 0.0141754024 -0.0446047194 -0.0836657846 -0.7892107972 -0.0838842973 -0.7896059749 0.0133949696 -0.0401804925
795295230.0 0.0133118517 -0.0446769798 -0.0918947611 -0.7881254956 -0.0921338111 -0.7881003664 0.0124411018 -0.0394433675
800295200.0 0.0127992701 -0.0443929871 -0.101456489 -0.7877462501 -0.1016913832 -0.7876460369 0.0119520221 -0.0398557619
805295170.0 0.011536202 -0.0447599055 -0.1097678805 -0.7854939078 -0.1094071178 -0.7861793535 0.0108509932 -0.0403438074
810295140.0 0.0115695306 -0.044788946 -0.1175937932 -0.7849972927 -0.117751797 -0.7852891376 0.0106156183 -0.039609521
815295110.0 0.0109827486 -0.0443700962 -0.1267826794 -0.7830995454 -0.127217095 -0.7835921259 0.0097330144 -0.0403430245
820295080.0 0.0103355437 -0.0446001217 -0.134761046 -0.7823127844 -0.1353037345 -0.7827214186 0.0091508703 -0.0398474443
825295050.0 0.0094681414 -0.0449923034 -0.1440089616 -0.7801737755 -0.1435214264 -0.7805470125 0.0088747724 -0.0395372634
830295020.0 0.0086195308 -0.0442716159 -0.1521256729 -0.7783946873 -0.1525497534 -0.7790039881 0.0081690755 -0.039997957
