!Created with skrf (http://scikit-rf.org).
# Hz S RI R 50.0 
!freq ReS11 ImS11 ReS21 ImS21 ReS12 ImS12 ReS22 ImS22
300000.0 -0.3227610951 -0.0792768972 0.3764629285 0.0416515869 0.3746794988 0.0400769935 -0.3199231683 -0.0965826453
5299970.0 -0.3266951251 0.0042770874 0.378674169 0.0024119942 0.3784832248 0.0026130698 -0.3240327383 0.0047411732
10299940.0 -0.3241857717 0.0133520266 0.3794847083 0.0020812595 0.3795644464 0.0022368035 -0.3218090182 0.0159932197
15299910.0 -0.3215475872 0.0204811255 0.3820028651 0.0018186453 0.3818918245 0.0021728975 -0.3179963865 0.0237640104
20299880.0 -0.318833372 0.0264428755 0.3847773748 0.0017813758 0.3849729705 0.0016775808 -0.3147999718 0.0302108546
25299850.0 -0.3155923076 0.0315550017 0.3879710787 -4.40906e-05 0.3878431459 -4.8516e-06 -0.3108166489 0.0360141416
30299820.0 -0.31299178 0.0357599612 0.3916170197 -0.0023083507 0.3914622317 -0.0023863697 -0.3073289729 0.0411873821
35299790.0 -0.309968665 0.0398772794 0.3948330455 -0.0053752684 0.3950087705 -0.0055599928 -0.3036220548 0.0455145141
40299760.0 -0.307282493 0.0436070663 0.3980378764 -0.0088699335 0.3978282375 -0.0087365986 -0.299930491 0.0482982389
45299730.0 -0.3046253499 0.0462957598 0.4009297117 -0.0124143566 0.4009635958 -0.0127630166 -0.2972129578 0.0519629161
50299700.0 -0.3025151836 0.0494407725 0.4035641982 -0.0173583625 0.4033838801 -0.0169272184 -0.2941177865 0.0543176131
55299670.0 -0.3001955415 0.0522768887 0.405577985 -0.0225149835 0.405538131 -0.0222447239 -0.2915096544 0.0572068988
60299640.0 -0.2981497526 0.0549172984 0.4074886267 -0.0271055382 0.4077519304 -0.0269261675 -0.2893460222 0.059619408
65299610.0 -0.2963151308 0.0574876897 0.4092506594 -0.0320554502 0.4091717565 -0.0318834053 -0.2873406039 0.0616832134
70299580.0 -0.2947605355 0.0599125773 0.4104608251 -0.0369286978 0.4103346063 -0.0369369198 -0.2849794157 0.0638632211
75299550.0 -0.2930748255 0.0626005917 0.4112160449 -0.0424636371 0.4109277148 -0.0424213874 -0.2831891346 0.0656809719
80299520.0 -0.2914807917 0.0649287556 0.4124498461 -0.0475443072 0.4124903994 -0.0476681618 -0.2813619669 0.0681050938
85299490.0 -0.2904057897 0.0668837917 0.4125940014 -0.0525129236 0.412904208 -0.0521943803 -0.2801803825 0.0696971542
90299460.0 -0.2889325409 0.0691750488 0.4128372128 -0.0576955969 0.413310025 -0.0579937874 -0.278103438 0.0719800979
95299430.0 -0.2874312683 0.0716521324 0.413744144 -0.063037799 0.4134746308 -0.063354284 -0.2765738879 0.0743802415
100299400.0 -0.2863339591 0.0739341959 0.4133270522 -0.0683535149 0.413454896 -0.068589507 -0.274952672 0.0758768442
105299370.0 -0.2850494463 0.0762791558 0.4132207536 -0.073975087 0.413574784 -0.073785232 -0.2737697128 0.0782617168
110299340.0 -0.2840831797 0.0790111802 0.4137983978 -0.0787812029 0.4130448707 -0.0784225459 -0.2728035416 0.0803113993
115299310.0 -0.2829834492 0.0811260758 0.4131276221 -0.0839717279 0.4129435241 -0.0839146721 -0.2716308353 0.0825911809
120299280.0 -0.2818306268 0.0831905016 0.4121415404 -0.0889125489 0.4124464912 -0.0890796507 -0.2704247468 0.0845124824
125299250.0 -0.2811059858 0.0855213683 0.4121255962 -0.0940715023 0.4117699735 -0.0939220973 -0.2695505792 0.0863357315
130299220.0 -0.2801101188 0.0881087284 0.4107392562 -0.0989692558 0.4113066089 -0.0989819633 -0.268318335 0.0885918426
135299190.0 -0.2792666492 0.0901991161 0.4105306713 -0.1040005691 0.4106206319 -0.1039355102 -0.2670996552 0.0909915471
140299160.0 -0.2783448163 0.0931244507 0.4093793172 -0.1095179867 0.4099061434 -0.1090251706 -0.2661313417 0.0934731576
145299130.0 -0.277643167 0.0956983751 0.4091645466 -0.1138653379 0.4085115056 -0.1139975621 -0.2655764576 0.0957046282
150299100.0 -0.2762245559 0.0983394922 0.4075289074 -0.1186929497 0.407700198 -0.1189465075 -0.2643671106 0.0987163294
155299070.0 -0.275453224 0.1006232655 0.4067736427 -0.1240924807 0.4063042489 -0.1239310287 -0.2628024883 0.1007270005
160299040.0 -0.2745901155 0.1036203772 0.4054454003 -0.128822054 0.4051489118 -0.1287533867 -0.2625580038 0.1030968992
165299010.0 -0.2736406688 0.1060394541 0.4042514487 -0.1338732826 0.4041077193 -0.1339480902 -0.261197232 0.105918762
170298980.0 -0.2729658675 0.1083623026 0.4026319224 -0.1384756152 0.4029324791 -0.1384437067 -0.2601442458 0.1081846268
175298950.0 -0.2718249717 0.1113962363 0.4017094905 -0.1431338391 0.4013737005 -0.1435279763 -0.2594532384 0.1109026101
180298920.0 -0.2710354465 0.1138614685 0.4000863821 -0.1479973986 0.3997229729 -0.1475871795 -0.2583446057 0.1132190964
185298890.0 -0.269540055 0.1163964027 0.3984893004 -0.1526112177 0.3983112956 -0.1525337541 -0.2572944701 0.1159251986
190298860.0 -0.2687480733 0.119393117 0.396890093 -0.1573731789 0.3973811388 -0.1566900072 -0.2564729345 0.1182929801
195298830.0 -0.2679350603 0.1217292181 0.3952116349 -0.1617854058 0.3953710696 -0.1618171986 -0.2548814382 0.1209526818
200298800.0 -0.2662644029 0.1245273088 0.3931660182 -0.1665641522 0.3934734571 -0.166946179 -0.2540650424 0.1233953862
205298770.0 -0.2653818167 0.1270367397 0.3915969729 -0.170983809 0.3916221928 -0.1711032016 -0.2529442842 0.1254240861
210298740.0 -0.2643760684 0.1299160223 0.3894019748 -0.175320305 0.3894705978 -0.1755301666 -0.2516897661 0.1286311637
215298710.0 -0.2633532566 0.1326041862 0.387870285 -0.1802882223 0.3878650452 -0.1803217857 -0.251160112 0.1311589043
220298680.0 -0.2620936759 0.1349369459 0.3853090193 -0.1845817547 0.3855542558 -0.184473684 -0.2499869491 0.1334728262
225298650.0 -0.2611164532 0.137956552 0.3840873883 -0.1891351787 0.3840882822 -0.1891177638 -0.2491971289 0.1361413004
230298620.0 -0.2596111568 0.1409416259 0.3820771423 -0.1935444295 0.3822979622 -0.1936798868 -0.2477405955 0.1383339792
235298590.0 -0.2582559592 0.1436545735 0.3799055354 -0.1978193739 0.3799550266 -0.1976012265 -0.2464346793 0.1412242231
240298560.0 -0.2568185971 0.1461814471 0.3776088168 -0.2024534482 0.3773999534 -0.2023518994 -0.2452435049 0.1437267886
245298530.0 -0.2559169993 0.1488919188 0.3756792184 -0.2064678485 0.3756159412 -0.2067085485 -0.2439623367 0.1459294861
250298500.0 -0.2541047533 0.1516775993 0.3725422708 -0.2109425024 0.3727079193 -0.210742253 -0.242935414 0.1488655866
255298470.0 -0.252905886 0.1542453634 0.3702816845 -0.2146949211 0.3704617793 -0.2152195198 -0.241154326 0.1511700743
260298440.0 -0.2514107895 0.1567478114 0.3681737439 -0.219357748 0.3684676329 -0.2192592695 -0.2397021766 0.1536350366
265298410.0 -0.2498811396 0.15997648 0.3658277628 -0.2235961741 0.3660691666 -0.2234636903 -0.238365086 0.156256855
270298380.0 -0.248415092 0.1623981827 0.3635673739 -0.2274721799 0.3637297798 -0.2275801677 -0.2368523373 0.1584667739
275298350.0 -0.2470078916 0.1652114585 0.3608896328 -0.2320612611 0.3612580629 -0.2315609514 -0.2351442476 0.160978065
280298320.0 -0.2451392909 0.1678234393 0.3584875349 -0.2359655993 0.358773428 -0.2358283427 -0.2337084226 0.1635218123
285298290.0 -0.2435476207 0.1705733816 0.3559798232 -0.2397337761 0.3556064493 -0.2397730463 -0.2318785219 0.1660846157
290298260.0 -0.2418803236 0.1731423218 0.3534187889 -0.2440329191 0.3534519574 -0.2440650213 -0.230235735 0.1687387394
295298230.0 -0.2401291785 0.1755093652 0.3506778837 -0.24802367 0.3503493451 -0.2477390541 -0.2279639488 0.1707440429
300298200.0 -0.2386960559 0.1785209203 0.3481244889 -0.2519390698 0.3481798429 -0.2521882294 -0.2269608436 0.1734157971
305298170.0 -0.2365855191 0.1806880714 0.3449650374 -0.2559125094 0.3449781094 -0.2559719874 -0.224506358 0.1758135816
310298140.0 -0.2348268756 0.1835514898 0.3423651825 -0.2598453531 0.342573394 -0.2594602485 -0.2231932891 0.1780769567
315298110.0 -0.2332343582 0.1856433593 0.3393921865 -0.2631435241 0.3394538086 -0.2636575903 -0.2212815202 0.1804575892
320298080.0 -0.230925737 0.1880998836 0.3359291965 -0.2674913696 0.3364798084 -0.2675787769 -0.2194312003 0.1829863675
325298050.0 -0.2292762542 0.1909465231 0.3333041621 -0.2714445922 0.3333044702 -0.2712242655 -0.2178979184 0.1852684961
330298020.0 -0.2275034572 0.1932622116 0.3298371307 -0.2755121093 0.3298913725 -0.2752395815 -0.2158350219 0.1877801777
335297990.0 -0.225757407 0.1954585557 0.3275249257 -0.2783839907 0.3270179359 -0.2787578729 -0.2146169669 0.1906266212
340297960.0 -0.2239774567 0.1983550333 0.3235833861 -0.2824707536 0.3234962884 -0.282345356 -0.2123610945 0.1929411072
345297930.0 -0.2222081362 0.2009750186 0.320554358 -0.2860172366 0.3203634226 -0.2860193029 -0.2105654362 0.1950018755
350297900.0 -0.2199097717 0.2033412225 0.3169829569 -0.2893752701 0.3174139372 -0.2893974576 -0.208844928 0.1978714764
355297870.0 -0.2182434403 0.2061318934 0.3142668975 -0.2931273733 0.3142201432 -0.2927328955 -0.2071924626 0.2001605306
360297840.0 -0.2160052497 0.2082611559 0.3111401988 -0.2961845165 0.3111959628 -0.2959415684 -0.2049940614 0.2024912555
365297810.0 -0.2142239823 0.2110808533 0.3075338807 -0.2998083754 0.307803772 -0.2998318495 -0.2025800293 0.2049921699
370297780.0 -0.2118001123 0.2130244386 0.3042397045 -0.3032935467 0.304522741 -0.3027321711 -0.2007563032 0.2070913087
375297750.0 -0.2094472107 0.2152536093 0.3008174308 -0.306412164 0.3009979647 -0.3063207368 -0.1985190248 0.2092525921
380297720.0 -0.2073242368 0.2178678961 0.2972434069 -0.30991045 0.2974947186 -0.3093238891 -0.196952476 0.2118822863
385297690.0 -0.2053897584 0.2204686965 0.2937074921 -0.3128551106 0.294066741 -0.3129730875 -0.1948077732 0.2140146584
390297660.0 -0.2031491194 0.2228196807 0.2906057602 -0.3165756703 0.2907204027 -0.3160498518 -0.1927786387 0.2166021472
395297630.0 -0.2002995497 0.2254700708 0.286986004 -0.3194508681 0.2871806629 -0.3194660943 -0.1901726304 0.2187168567
400297600.0 -0.1985777284 0.2273404866 0.2832571311 -0.3227236026 0.2836099534 -0.3224887548 -0.1880122071 0.2205142956
405297570.0 -0.1963679076 0.2297676725 0.2799261649 -0.3257248584 0.2798401288 -0.3255169315 -0.1858778605 0.2229897323
410297540.0 -0.1938418711 0.2316925971 0.2763544728 -0.3287217358 0.27667118 -0.3289715726 -0.1839328493 0.2253882973
415297510.0 -0.1912147341 0.2334454162 0.2726597568 -0.3316401398 0.2728779694 -0.3315330773 -0.1816676064 0.2272284245
420297480.0 -0.1891640205 0.2362827919 0.2686528183 -0.3345169119 0.2689576554 -0.3345605346 -0.1795643434 0.2289377539
425297450.0 -0.1864339107 0.2380259856 0.265331475 -0.3372434628 0.2655231191 -0.3377147995 -0.1772041629 0.2315870071
430297420.0 -0.1841794016 0.2404635106 0.2613767621 -0.340095615 0.2615454527 -0.3401862794 -0.1747551388 0.2330888158
435297390.0 -0.1818403661 0.2425439502 0.2576253945 -0.3431008808 0.2575631144 -0.3432836365 -0.1718259399 0.235181134
440297360.0 -0.1791644074 0.2446444217 0.2537208465 -0.3459303829 0.2541365436 -0.3457083389 -0.1698283217 0.2372328925
445297330.0 -0.1766993942 0.2465352164 0.2501230341 -0.348579156 0.2501157618 -0.3486646187 -0.1673373257 0.2384562761
450297300.0 -0.1737358378 0.2484721224 0.2462370147 -0.3511531106 0.2465174817 -0.3515690742 -0.1645244293 0.240481094
455297270.0 -0.1715658356 0.2503292079 0.2421231955 -0.3541374677 0.2423054477 -0.3537937105 -0.1621342969 0.2425096503
460297240.0 -0.1691357119 0.2523101636 0.2383956671 -0.3566851155 0.238363501 -0.3565537106 -0.1599197027 0.2443362872
465297210.0 -0.166061132 0.2544316473 0.2345719779 -0.3592578178 0.2343367367 -0.3593999738 -0.1570793732 0.2460228943
470297180.0 -0.1636014522 0.2561336803 0.2302751418 -0.361889831 0.2307201697 -0.3618702848 -0.1541434997 0.2481083563
475297150.0 -0.1611359589 0.2576817274 0.2265006788 -0.3637511856 0.2267111818 -0.3636757515 -0.151586697 0.2493219083
480297120.0 -0.1580807633 0.2599237596 0.2226396492 -0.3672058771 0.2226026541 -0.3667034234 -0.1487726764 0.2515768385
485297090.0 -0.1554296603 0.2618392342 0.2184861597 -0.3688270769 0.2185229826 -0.3684630632 -0.1462946008 0.2529127454
490297060.0 -0.153000868 0.263591649 0.2146828103 -0.3714725122 0.214484542 -0.3711444089 -0.1433852027 0.2548957172
495297030.0 -0.150135546 0.2652097157 0.2101759665 -0.3734138173 0.2106054148 -0.3734268668 -0.1410807052 0.2565370499
500297000.0 -0.1473085469 0.2671039128 0.206521104 -0.3755511256 0.2061713684 -0.3755373501 -0.138183187 0.2586351348
505296970.0 -0.1446715333 0.2686249901 0.2020571896 -0.3778815676 0.2019582149 -0.3782372709 -0.135544426 0.260082106
510296940.0 -0.1415746581 0.2703905078 0.1980995738 -0.3802574135 0.1979092496 -0.3803865616 -0.1325956406 0.2620145462
515296910.0 -0.1387791123 0.2720119413 0.1936209834 -0.3823558815 0.193650434 -0.3820734703 -0.1300467014 0.263582036
520296880.0 -0.1362280751 0.2735520204 0.1895199816 -0.3844967753 0.1891420182 -0.3841554894 -0.1269330729 0.2646293147
525296850.0 -0.1330663756 0.2748286343 0.1851614273 -0.3860205071 0.185613013 -0.3864150757 -0.1244068311 0.2663046276
530296820.0 -0.1302479695 0.2766925041 0.1810719423 -0.3883877898 0.1813088138 -0.3884559406 -0.1218877357 0.2679287267
535296790.0 -0.12764973 0.2785054024 0.1770611203 -0.3900524391 0.1772829309 -0.389993099 -0.1192422877 0.2690964412
540296760.0 -0.12442763 0.2795267399 0.1722252578 -0.3919259135 0.1723835459 -0.3921600624 -0.1163051338 0.2709931907
545296730.0 -0.121937412 0.2813426297 0.1681136314 -0.3941083376 0.1682207338 -0.3937879059 -0.113624813 0.2721514827
550296700.0 -0.1185625272 0.2826359925 0.1639284552 -0.3960941665 0.1641530424 -0.3961206606 -0.1109841239 0.2737271721
555296670.0 -0.1157086005 0.2837457832 0.1594168016 -0.397276167 0.1599964492 -0.3972487749 -0.1080771828 0.2752877576
560296640.0 -0.1125619086 0.2858441337 0.1551597453 -0.3993534516 0.1556893685 -0.3994585663 -0.1053873121 0.2764402498
565296610.0 -0.1101381315 0.2870037216 0.1510425287 -0.4006825599 0.151015864 -0.4007972936 -0.1023455993 0.2774744541
570296580.0 -0.1071172948 0.288006888 0.1465182265 -0.4026581118 0.1462355937 -0.4028119147 -0.0996542625 0.2794345671
575296550.0 -0.1038976674 0.289497687 0.1421604756 -0.4043121493 0.1419770597 -0.4040686175 -0.0964587564 0.2799373996
580296520.0 -0.1007587598 0.2905743657 0.1378873378 -0.405841973 0.1376683229 -0.4055911339 -0.093486003 0.2811520922
585296490.0 -0.0981083189 0.2914229951 0.1333105503 -0.4068046578 0.1332978307 -0.4068984875 -0.0907205198 0.2824236038
590296460.0 -0.0947876098 0.29287669 0.1290835221 -0.4079605385 0.1289949879 -0.408309968 -0.0880197039 0.2836177421
595296430.0 -0.0916186601 0.2938265451 0.1239237002 -0.4096299971 0.1242931653 -0.4096709504 -0.0849827158 0.2838812826
600296400.0 -0.0884667335 0.2950547398 0.1198493565 -0.4106178314 0.1201091272 -0.4107237047 -0.0820330897 0.2850997938
605296370.0 -0.0855984463 0.2960432987 0.115317795 -0.4119654526 0.1155343323 -0.4120762433 -0.0787749752 0.2864103434
610296340.0 -0.082443373 0.2970452364 0.1105535976 -0.4130457326 0.1109909954 -0.4129863498 -0.0757099811 0.2870118562
615296310.0 -0.0789302319 0.297710926 0.1061781725 -0.414005826 0.1061061166 -0.4143725211 -0.0722140446 0.2879768765
620296280.0 -0.0760246047 0.2987088221 0.1017227121 -0.4154179674 0.1020549895 -0.4152146054 -0.0699269721 0.2890614047
625296250.0 -0.0732440668 0.2995757308 0.0977226205 -0.4165662333 0.0970439537 -0.4167810097 -0.0659709138 0.2897829526
630296220.0 -0.0691686773 0.3007877626 0.0924208142 -0.4177075817 0.0923722442 -0.4176740517 -0.0634586762 0.2907150168
635296190.0 -0.0668761777 0.3014966413 0.0882605744 -0.4184597014 0.0882448726 -0.4184742912 -0.0600889831 0.2912450086
640296160.0 -0.0636785728 0.3025089391 0.0837564217 -0.4190365381 0.084033793 -0.4190793654 -0.0571747754 0.2920848666
645296130.0 -0.0604537539 0.3036288949 0.0791590129 -0.4199247601 0.079265807 -0.4204293526 -0.0540112619 0.2931229529
650296100.0 -0.0568214371 0.3041578175 0.0741623956 -0.4208489965 0.0745957062 -0.4209911481 -0.050693142 0.2934761569
655296070.0 -0.0542985449 0.3047861256 0.0698709591 -0.4215514236 0.0699126941 -0.4218340475 -0.0478204789 0.2941805341
660296040.0 -0.0511569317 0.305080702 0.065524616 -0.4223026436 0.0654349105 -0.4223462253 -0.0444027819 0.294913921
665296010.0 -0.0473669429 0.3058393 0.0605780364 -0.4227471538 0.0606883491 -0.4231439553 -0.0410544253 0.2957963713
670295980.0 -0.0451594754 0.3068584288 0.0564698791 -0.4234626704 0.0562160819 -0.4237802249 -0.038167927 0.2962479412
675295950.0 -0.0415890905 0.3075211188 0.0518239773 -0.4241495499 0.0519836288 -0.4237988965 -0.0356230447 0.2971925865
680295920.0 -0.0381504981 0.3079070607 0.0469748384 -0.4243088663 0.0465898451 -0.4249447833 -0.0319712289 0.2976205767
685295890.0 -0.0350436248 0.3087052808 0.0427424219 -0.4247163485 0.0424207525 -0.4252223389 -0.0288320086 0.2982440649
690295860.0 -0.0315362916 0.3092174088 0.0378675974 -0.4254021351 0.0381195059 -0.4255890662 -0.0259262553 0.2990796901
695295830.0 -0.0284511662 0.3092760728 0.0334276857 -0.4256993472 0.0331278892 -0.4258926238 -0.0226046771 0.2995836004
700295800.0 -0.0250297549 0.3094939835 0.0283096368 -0.4257183705 0.0283521285 -0.4259785444 -0.0197965955 0.2999174694
705295770.0 -0.0220716027 0.3102984392 0.0239009537 -0.4264179791 0.0241346139 -0.4264226766 -0.0167377342 0.3003186406
710295740.0 -0.0185289449 0.3105809569 0.019631656 -0.4266878007 0.0197045326 -0.4270343775 -0.0135769637 0.3002406398
715295710.0 -0.0157069447 0.3108219255 0.0150925436 -0.4266792412 0.014425844 -0.426719762 -0.0099885401 0.3007557793
720295680.0 -0.0119965927 0.3110657422 0.010281088 -0.4269241322 0.0102716221 -0.4269382934 -0.0069236658 0.3012727796
725295650.0 -0.008828379 0.3119076494 0.0052800934 -0.4267311941 0.0055600488 -0.4269087509 -0.0039672498 0.3016518465
730295620.0 -0.0056397286 0.3117136678 0.0009249067 -0.4267976124 0.0011069262 -0.4268181935 -0.0011285621 0.3011651856
735295590.0 -0.0023379934 0.3123565834 -0.0035545058 -0.427320371 -0.0041620319 -0.4267597406 0.0018315047 0.30153034
740295560.0 0.0006678139 0.3122706002 -0.0082114259 -0.4267304279 -0.0082838406 -0.4268206319 0.0055167636 0.3020162554
745295530.0 0.0039488748 0.3125942432 -0.0133548211 -0.4261967016 -0.0132663387 -0.4264505512 0.0085391065 0.3015566269
750295500.0 0.0075837 0.3124913085 -0.0175165349 -0.4260772474 -0.0175641667 -0.4265616078 0.0116541139 0.3016528884
755295470.0 0.0106266265 0.3121826818 -0.0219394779 -0.425768822 -0.0223583614 -0.4260444651 0.0152303916 0.3013972111
760295440.0 0.0136154084 0.3126144603 -0.0267162282 -0.4261651943 -0.0268946113 -0.4260592104 0.0179277472 0.3015473227
765295410.0 0.0167338004 0.3125427047 -0.0315573627 -0.4254929403 -0.0318306798 -0.4256398152 0.0211676531 0.3015902852
770295380.0 0.0201032996 0.3122987293 -0.0359861986 -0.4251518923 -0.0363265008 -0.4249982006 0.0239909799 0.3013761178
775295350.0 0.0232780154 0.3119926505 -0.0407123984 -0.4242883291 -0.0401888427 -0.4244322535 0.0269179447 0.3012473719
780295320.0 0.0268885559 0.3120858147 -0.0454699676 -0.4238196784 -0.0451500387 -0.4236164865 0.030364637 0.3007613144
785295290.0 0.029947131 0.3112514938 -0.0497679599 -0.4227636412 -0.0498583231 -0.4235054716 0.0337159412 0.3004807084
790295260.0 0.0337337154 0.3117886606 -0.0543581747 -0.4226272515 -0.0540282901 -0.4228005743 0.0370756137 0.300498528
795295230.0 0.0367349743 0.3113450582 -0.0590086763 -0.4219560457 -0.058613504 -0.4221244166 0.0404625028 0.3006082167
800295200.0 0.0396968696 0.3112156952 -0.0638477663 -0.4212345653 -0.0633879182 -0.4213816548 0.0435264929 0.2997935686
805295170.0 0.0434277006 0.3105869045 -0.0681132179 -0.4205229716 -0.0682277621 -0.4209915111 0.0465125667 0.2996667965
810295140.0 0.0462162245 0.3100001182 -0.0722606813 -0.419508136 -0.0723977208 -0.4201105711 0.0499693917 0.2995342738
815295110.0 0.0493707628 0.3099306164 -0.0769622401 -0.4188040118 -0.0767754133 -0.4192555153 0.0530769116 0.2994023744
820295080.0 0.0525631586 0.3097206256 -0.081490798 -0.4181610371 -0.0812060818 -0.4181616658 0.0563711405 0.2986653485
825295050.0 0.0562442756 0.3089100395 -0.0858155963 -0.4171532062 -0.0860410299 -0.4173696288 0.0596863463 0.2981161972
830295020.0 0.0591940711 0.3089397615 -0.0908252151 -0.4159951788 -0.0905953842 -0.4159786813 0.0630031856 0.2975568861
