!Created with skrf (http://scikit-rf.org).
# Hz S RI R 50.0 
!freq ReS11 ImS11 ReS21 ImS21 ReS12 ImS12 ReS22 ImS22
300000.0 -0.3220180729 -0.098087497 0.3743471772 0.0500700595 0.37515176 0.0538566991 -0.3179004863 -0.1086782212
5299970.0 -0.323630673 0.0050985292 0.3783164237 0.0028559172 0.3788317908 0.0032177264 -0.326056815 0.0028758842
10299940.0 -0.3209782577 0.0156772225 0.3800144438 0.0022880999 0.3794210427 0.0026842128 -0.3239549779 0.0127743442
15299910.0 -0.3182152214 0.0236497929 0.3819004992 0.0022568385 0.3817647831 0.0025218408 -0.321292021 0.0199909877
20299880.0 -0.3144249145 0.0302983015 0.3850455684 0.0016027324 0.3851507716 0.0015479302 -0.3185191554 0.0260174198
25299850.0 -0.3107088299 0.0359158012 0.3884273007 -0.0003980277 0.3883434314 0.0001415923 -0.3153854731 0.0309084418
30299820.0 -0.3069689161 0.0404178177 0.3921722882 -0.0022456819 0.3916860104 -0.0024992052 -0.3127704331 0.0356123132
35299790.0 -0.3028432165 0.0448717903 0.395432118 -0.0054496749 0.3951512037 -0.0052781571 -0.3096763757 0.0394985226
40299760.0 -0.299501341 0.0481641549 0.3983930111 -0.0084813543 0.3981990126 -0.008760778 -0.3071058321 0.0431364788
45299730.0 -0.2966609886 0.0515628439 0.4011970696 -0.0127704841 0.4013058896 -0.0125956417 -0.3047182035 0.0461363015
50299700.0 -0.2930845311 0.0541972988 0.4033527273 -0.0172856604 0.4035858139 -0.0173863436 -0.3021802038 0.0491004758
55299670.0 -0.2907206037 0.0568447644 0.4052838892 -0.0220050866 0.4058489797 -0.0220524317 -0.3002914326 0.052119139
60299640.0 -0.2885325528 0.0588619185 0.407694662 -0.0270656925 0.4074813527 -0.0270926448 -0.2978075074 0.0547360092
65299610.0 -0.2860349892 0.0617050758 0.4092125799 -0.0313892191 0.4096903319 -0.0317625638 -0.2961987931 0.057122703
70299580.0 -0.2838156592 0.0635854346 0.4103878357 -0.036724901 0.4105221337 -0.0369847754 -0.2943195326 0.0594397592
75299550.0 -0.2818443427 0.065732153 0.411490841 -0.0421211731 0.411343647 -0.0422802022 -0.2932127977 0.0621217752
80299520.0 -0.2801717361 0.0681108652 0.4124962386 -0.0472679826 0.4125675376 -0.0472150602 -0.2917180468 0.064057203
85299490.0 -0.2785584357 0.0698789647 0.4131828506 -0.0526616239 0.4130487577 -0.052666696 -0.2902439175 0.0664455338
90299460.0 -0.2770061321 0.0721756441 0.4133532138 -0.0577000482 0.4135057973 -0.0580436291 -0.2883741937 0.0689659801
95299430.0 -0.2756086176 0.0743971401 0.4138795735 -0.0636984237 0.4138705816 -0.063079212 -0.2876198604 0.071198637
100299400.0 -0.2742542913 0.0762415296 0.4137959083 -0.0681594734 0.4135345172 -0.0683843177 -0.2864532473 0.0733650548
105299370.0 -0.2729344843 0.0785049684 0.4133338197 -0.0735635582 0.4134366817 -0.0739086969 -0.2849201476 0.0757927054
110299340.0 -0.2717462541 0.0804275455 0.4132686597 -0.0785705533 0.4133280934 -0.0789403869 -0.2845772436 0.0783322661
115299310.0 -0.2706798408 0.0823666603 0.4128967267 -0.0835172956 0.4133639493 -0.0837933146 -0.2828533714 0.0802713101
120299280.0 -0.2698154142 0.084499528 0.4127380729 -0.0889785289 0.4129334503 -0.0889801779 -0.2825774375 0.0827169932
125299250.0 -0.2686840713 0.0867756154 0.4120618601 -0.0936609092 0.4122630315 -0.0939891234 -0.2813348869 0.0847101247
130299220.0 -0.2676865197 0.088970575 0.4117558645 -0.0987063256 0.4113715918 -0.0990919314 -0.2802776092 0.0870297442
135299190.0 -0.2668576493 0.0910072119 0.410910254 -0.1038790666 0.4104772691 -0.104324231 -0.2795581849 0.089625711
140299160.0 -0.2659068103 0.0937286771 0.4102583767 -0.1089572766 0.4103459753 -0.1090239261 -0.2785121249 0.0920082821
145299130.0 -0.2647523859 0.0956325664 0.4096275979 -0.1139214543 0.4092422029 -0.1138677662 -0.2780978833 0.0948052558
150299100.0 -0.2637268322 0.0981559741 0.4080778102 -0.1191658612 0.4081041604 -0.1188815457 -0.2767900029 0.0967668118
155299070.0 -0.2627714127 0.1008322511 0.4069959759 -0.1240409079 0.4068923567 -0.1240437352 -0.2760655641 0.099603658
160299040.0 -0.2619239102 0.103217147 0.4056490972 -0.1285681163 0.4056633348 -0.1288750362 -0.2749620925 0.1024669324
165299010.0 -0.2611742625 0.1053974739 0.4049480586 -0.1338465136 0.4047288462 -0.1339397851 -0.2738048686 0.1047909979
170298980.0 -0.2601534459 0.1077468503 0.4026909339 -0.1382905378 0.4031056504 -0.138185177 -0.2731799147 0.1071094221
175298950.0 -0.259122943 0.1105181721 0.4024609252 -0.1432517489 0.4017530602 -0.1432284933 -0.2721884503 0.1098819964
180298920.0 -0.2577433855 0.1126763795 0.4001710223 -0.1482493139 0.4005502646 -0.147988154 -0.2709617999 0.1126455649
185298890.0 -0.2567448849 0.1151941644 0.3984206925 -0.1526554319 0.3987068126 -0.1528855146 -0.2702251071 0.1151781928
190298860.0 -0.2557797474 0.1174713711 0.3972091364 -0.15748141 0.3974369372 -0.1575723219 -0.2687918237 0.1176564882
195298830.0 -0.2545212988 0.1199043317 0.3956474558 -0.1617353509 0.3955155467 -0.1625035829 -0.2678738276 0.1202086145
200298800.0 -0.2536109596 0.1226722458 0.3939203994 -0.1659786241 0.393994769 -0.1666216679 -0.2665925483 0.1232464107
205298770.0 -0.2524100331 0.1252548399 0.3922750906 -0.171088172 0.3921976747 -0.17113228 -0.2655496121 0.125279832
210298740.0 -0.251414565 0.1276427232 0.3903592406 -0.1759256511 0.3905040757 -0.1759712762 -0.2647333627 0.1281196713
215298710.0 -0.2502822998 0.1304656734 0.3882751029 -0.1802720582 0.3882991267 -0.1798591764 -0.2634642669 0.1306346892
220298680.0 -0.2491530199 0.1328316523 0.3863557155 -0.184564484 0.3866662642 -0.1846812485 -0.2619276178 0.1334708548
225298650.0 -0.2479015774 0.1354020117 0.3846176201 -0.1890911236 0.384326679 -0.1890506449 -0.2612180289 0.1365454413
230298620.0 -0.2466455484 0.1379715427 0.3827133365 -0.1936945781 0.3824078231 -0.1937095288 -0.259548745 0.1390569269
235298590.0 -0.2452458063 0.1404037231 0.3803514976 -0.198120419 0.3803365431 -0.1982305881 -0.2583719414 0.1413472829
240298560.0 -0.2443074871 0.143316008 0.3785170779 -0.2018917627 0.3783316284 -0.2020064228 -0.2573645538 0.1443199068
245298530.0 -0.2424348361 0.1456165394 0.3757575663 -0.2067628321 0.3758379946 -0.2065210491 -0.2557176462 0.1472311293
250298500.0 -0.2417344895 0.1482838388 0.3738786182 -0.2106187324 0.3739501027 -0.2104182214 -0.2541900608 0.1498649637
255298470.0 -0.240122524 0.151017287 0.3711187351 -0.2153678693 0.371476767 -0.2148128486 -0.2529468128 0.1521498871
260298440.0 -0.2384285886 0.1534157275 0.3692368406 -0.2190672418 0.3685182547 -0.2192854807 -0.2508812478 0.1552596812
265298410.0 -0.2371376724 0.1561710159 0.3664318039 -0.2240093153 0.3663873044 -0.2235942462 -0.2495316421 0.1575448701
270298380.0 -0.2356548095 0.1587813499 0.3640554155 -0.2279978852 0.3640844133 -0.2276972416 -0.2477693935 0.1604376776
275298350.0 -0.2340886609 0.1609495402 0.361243922 -0.2321237192 0.3618084556 -0.2317592997 -0.2462305119 0.1630403168
280298320.0 -0.2326467438 0.1640063702 0.3588942246 -0.2359042327 0.358846623 -0.2360490774 -0.2449253974 0.1658768789
285298290.0 -0.2310708927 0.1664968457 0.3563113768 -0.2396159486 0.3564465294 -0.2398971552 -0.2432311653 0.1685219104
290298260.0 -0.2293309234 0.1688470975 0.3537746224 -0.2439801547 0.3536345278 -0.244265387 -0.2411882333 0.1716234231
295298230.0 -0.2277149822 0.1712155226 0.3512841957 -0.2481262916 0.3507263872 -0.2480416585 -0.2395338076 0.1738345128
300298200.0 -0.2256458845 0.1736546754 0.348013242 -0.2522863506 0.3484298577 -0.252359418 -0.2379521733 0.1766631649
305298170.0 -0.2237453691 0.1758811804 0.3457418785 -0.2559419672 0.3456651205 -0.2561508878 -0.2355617347 0.1793359612
310298140.0 -0.2220954916 0.1784243837 0.3427728597 -0.2600728522 0.3429220628 -0.2602231616 -0.2339162202 0.1819483125
315298110.0 -0.2207239766 0.180838011 0.3396689306 -0.2639293049 0.3400233153 -0.2639882878 -0.2320413286 0.1844343644
320298080.0 -0.2187237941 0.1832578605 0.3368810499 -0.267827513 0.3369256437 -0.2677595607 -0.2302838845 0.1865048368
325298050.0 -0.2168856438 0.1854210143 0.3339289948 -0.2716579398 0.3340411553 -0.2719508014 -0.2284459486 0.1894466466
330298020.0 -0.2152014272 0.1881192487 0.3303750955 -0.2754909177 0.3305732087 -0.2757039461 -0.2268558836 0.1917541449
335297990.0 -0.2131496893 0.1904287825 0.3274963938 -0.2792184664 0.3276834331 -0.279107511 -0.2246113639 0.1941851094
340297960.0 -0.211855871 0.1927113121 0.3243138089 -0.2827492478 0.3245726492 -0.2826266133 -0.2228611557 0.1968672699
345297930.0 -0.2099770629 0.194938691 0.3210096121 -0.2858902973 0.3207157535 -0.2858298405 -0.2204523383 0.1992486413
350297900.0 -0.2077348947 0.1978128737 0.3177984212 -0.2896849685 0.3184302768 -0.2901747689 -0.2189155321 0.2025587804
355297870.0 -0.2059820725 0.1999953406 0.3142823119 -0.2931200663 0.3146046891 -0.2934484526 -0.2167924836 0.2047229754
360297840.0 -0.2038849317 0.2024154005 0.3116577466 -0.2969282482 0.3114050513 -0.2969732567 -0.2145366573 0.2074177444
365297810.0 -0.201688956 0.2045134361 0.3078281315 -0.2999394075 0.3078594724 -0.300317485 -0.2122258997 0.2100007042
370297780.0 -0.199592093 0.2067070841 0.3044579028 -0.3033891198 0.3049216133 -0.3034855969 -0.2107270618 0.2121691589
375297750.0 -0.1975228289 0.209304552 0.3015285056 -0.3070972839 0.301162147 -0.3070793396 -0.2080462476 0.2148718679
380297720.0 -0.1954804735 0.2111748646 0.2977538069 -0.3098303025 0.298021207 -0.3100794273 -0.2055046455 0.2172444192
385297690.0 -0.1932516803 0.2135562348 0.2942493035 -0.3128417928 0.2943754952 -0.3133047466 -0.2038864678 0.2196628321
390297660.0 -0.1911231117 0.2159002087 0.2907206049 -0.3169158207 0.2906578383 -0.3164990348 -0.2011442759 0.2214999547
395297630.0 -0.1885240253 0.217878696 0.2874231933 -0.3194231581 0.2872422435 -0.3195529303 -0.1989126005 0.2241813745
400297600.0 -0.1867594708 0.2201084421 0.2836212319 -0.3230667789 0.2840088051 -0.3231517009 -0.1969289989 0.226579703
405297570.0 -0.184154941 0.2222787914 0.2800655095 -0.3259934742 0.2802791096 -0.3262023295 -0.1945248284 0.2290433614
410297540.0 -0.1816570045 0.2243633315 0.2762361727 -0.3291045682 0.2764673015 -0.3286652547 -0.1918942353 0.2313527167
415297510.0 -0.1794792803 0.226532308 0.27307588 -0.3319656231 0.2731998793 -0.3323309345 -0.1898542302 0.2338465034
420297480.0 -0.1772268368 0.2284691811 0.2692138449 -0.3352119916 0.2689786112 -0.3348251364 -0.1873952466 0.2353454376
425297450.0 -0.1745913576 0.2303504404 0.2656429138 -0.3378074385 0.2657581691 -0.3379120724 -0.1846455383 0.2380936293
430297420.0 -0.1724701677 0.2326367968 0.262328071 -0.3409054211 0.2618075305 -0.3407323123 -0.1822907318 0.2403393976
435297390.0 -0.1700006147 0.2345173129 0.2578062278 -0.3434057477 0.2579804972 -0.3435737295 -0.179620743 0.2425135034
440297360.0 -0.167360775 0.2364590219 0.2540657938 -0.3460199427 0.2537184554 -0.3461229307 -0.1775539905 0.2443244426
445297330.0 -0.1649036538 0.238617612 0.2499322451 -0.3493493027 0.2502030083 -0.3492642378 -0.17494929 0.2464673713
450297300.0 -0.1622474691 0.2401403799 0.2463882437 -0.3519397671 0.2463477267 -0.3518011564 -0.1724668041 0.2487666681
455297270.0 -0.1601299891 0.2419996093 0.2427611402 -0.3544212922 0.2429711771 -0.3543218901 -0.1697365832 0.250839699
460297240.0 -0.1575117824 0.2442098072 0.2387042151 -0.3567901785 0.2383534885 -0.357043111 -0.1670661554 0.2527565099
465297210.0 -0.1543471649 0.2459870976 0.2346026581 -0.359834295 0.2349571857 -0.3592833198 -0.164613034 0.2541768904
470297180.0 -0.152130405 0.2477782839 0.230676566 -0.3621874951 0.2312180013 -0.3619834669 -0.1624862471 0.2566462415
475297150.0 -0.1493837003 0.2491281012 0.226581575 -0.364328795 0.2271099167 -0.3642086245 -0.159309657 0.2583018227
480297120.0 -0.1470932166 0.2508655201 0.2225064749 -0.3669346567 0.2227742348 -0.3668328089 -0.1569246043 0.261079884
485297090.0 -0.1443654527 0.2526435556 0.2188341038 -0.3696246985 0.218921551 -0.3692024492 -0.1544580295 0.2624359424
490297060.0 -0.1415934507 0.2540863296 0.2145573162 -0.3712582943 0.2147670342 -0.3719322331 -0.1515122336 0.2644985485
495297030.0 -0.1391482169 0.2562125013 0.2105018591 -0.3737408547 0.2104075617 -0.3738010199 -0.1485763802 0.2655667469
500297000.0 -0.1357771828 0.257846852 0.2062196496 -0.3764635534 0.2065795035 -0.3762129046 -0.1459142036 0.2676509279
505296970.0 -0.1334278975 0.259162236 0.2018326876 -0.3779143065 0.2021810713 -0.3781047361 -0.1436244726 0.269424899
510296940.0 -0.1308801722 0.2609095689 0.1980154211 -0.380616472 0.1982805822 -0.3804101539 -0.1403527866 0.271312382
515296910.0 -0.1285928915 0.2624489409 0.1939655759 -0.3823989551 0.1941112516 -0.3827506396 -0.1377376661 0.2728842024
520296880.0 -0.1253683014 0.2637441049 0.1897395366 -0.3846211945 0.1899146488 -0.3847307994 -0.1351508043 0.274396016
525296850.0 -0.1229072319 0.2651969298 0.1856646415 -0.3868896397 0.185706483 -0.3866179359 -0.132099786 0.2760039454
530296820.0 -0.1199913506 0.2667187549 0.1815248146 -0.3875490084 0.1813095275 -0.3885944005 -0.129635028 0.2775024723
535296790.0 -0.1170347204 0.2679855621 0.1767908198 -0.3901834634 0.1772163369 -0.3899870877 -0.1266933965 0.2789389038
540296760.0 -0.1141495966 0.2690761196 0.1727064374 -0.3924339691 0.1724129683 -0.3925306452 -0.1238634758 0.2806797527
545296730.0 -0.1114783675 0.2704693579 0.1683575302 -0.3939470339 0.1682711362 -0.3941924172 -0.1210395686 0.2817406877
550296700.0 -0.1087789625 0.2722277561 0.1641629231 -0.3960886722 0.1645101556 -0.3962187209 -0.1183607505 0.2838055773
555296670.0 -0.1052367857 0.2734246873 0.1596876214 -0.3977596633 0.1598191935 -0.3975127017 -0.1152607088 0.2848814585
560296640.0 -0.1025876799 0.2743300813 0.1555269702 -0.3990443181 0.155637356 -0.3990004937 -0.1124434147 0.2861312961
565296610.0 -0.1002291945 0.2756271636 0.1513450866 -0.4009073591 0.1511890657 -0.4010334181 -0.1094844185 0.2875115523
570296580.0 -0.0965948366 0.2765921545 0.1464976109 -0.4022286885 0.1469534605 -0.4025522773 -0.1063100411 0.2891656208
575296550.0 -0.0940870734 0.2781978717 0.1423412527 -0.4039954517 0.1428246739 -0.4038996791 -0.1033527017 0.2904106042
580296520.0 -0.0914832898 0.2791129819 0.1381301638 -0.4052697193 0.1380202405 -0.4055760048 -0.1002747342 0.2916388226
585296490.0 -0.0879750317 0.2802083552 0.1335538876 -0.4068966695 0.1334092114 -0.4068361813 -0.0973975481 0.2923325422
590296460.0 -0.085222305 0.2813330621 0.1286966673 -0.4078675979 0.1290237842 -0.4081865927 -0.0943244482 0.29379247
595296430.0 -0.0822090496 0.2824143384 0.1249843654 -0.4095711776 0.1243610325 -0.4096992035 -0.0916000301 0.2949507784
600296400.0 -0.0792509811 0.2835584765 0.1200953738 -0.4110295469 0.1203556668 -0.4109258721 -0.0885209408 0.2962179034
605296370.0 -0.0761331344 0.2848580797 0.1157781532 -0.4124615945 0.1157131134 -0.4122870359 -0.0851349645 0.2973257153
610296340.0 -0.0732754791 0.2852756948 0.1114865226 -0.4131078044 0.1113708517 -0.4134648182 -0.0823320787 0.2986459686
615296310.0 -0.070058471 0.2866254076 0.1069872221 -0.4149671912 0.1067278087 -0.4144968169 -0.0793760442 0.2993592324
620296280.0 -0.0671148422 0.287209347 0.1022867754 -0.4153642143 0.1024264742 -0.4156781315 -0.0763408132 0.2997931359
625296250.0 -0.0642740169 0.28813465 0.0975920213 -0.41702645 0.0974415034 -0.4172481991 -0.0730858927 0.3014080109
630296220.0 -0.0608840985 0.2890088129 0.0930062958 -0.418008445 0.0934467304 -0.4177682746 -0.0697350287 0.3021785932
635296190.0 -0.0581556647 0.2898150183 0.0886014059 -0.4183161335 0.0881940447 -0.4181103245 -0.0666979678 0.3028453117
640296160.0 -0.055013467 0.290294847 0.084322417 -0.4194429534 0.0840903299 -0.4196904883 -0.0634933422 0.3039448412
645296130.0 -0.0521405106 0.291338618 0.0795614565 -0.4206333028 0.0797748388 -0.420207806 -0.0611042145 0.3043615779
650296100.0 -0.0490302258 0.292108483 0.0753880593 -0.420905789 0.0750845614 -0.4209452153 -0.0576640435 0.3052050308
655296070.0 -0.0456530983 0.2923802512 0.0705620636 -0.4218881997 0.0704192865 -0.4218198835 -0.0539695086 0.3062879578
660296040.0 -0.0429307946 0.2935803747 0.0658181095 -0.4223168964 0.0660599251 -0.4224031871 -0.051385371 0.3065482598
665296010.0 -0.0397338067 0.2935744298 0.0613698034 -0.4231574982 0.0618856724 -0.4233077028 -0.0483726679 0.307565788
670295980.0 -0.036145798 0.2944472376 0.0563819096 -0.4236275781 0.0568750103 -0.4236275816 -0.0451420649 0.3079540669
675295950.0 -0.0334904109 0.2949262995 0.0517100305 -0.4242766026 0.0522679395 -0.424579168 -0.0416667087 0.3084428287
680295920.0 -0.0305602372 0.295652476 0.0476501084 -0.4249802789 0.0473485366 -0.4249669864 -0.0385231021 0.3092751644
685295890.0 -0.0270432979 0.295881918 0.0427986943 -0.4252013876 0.0425597724 -0.4256433717 -0.0350979483 0.3096899762
690295860.0 -0.0236123377 0.2964572862 0.0385176777 -0.4253653359 0.037999286 -0.4257840737 -0.0320789622 0.3103599261
695295830.0 -0.0209380078 0.2965509084 0.0331296599 -0.4258340209 0.0331871247 -0.4261599817 -0.0288183631 0.3109136163
700295800.0 -0.0172431946 0.2967095167 0.0286785928 -0.4261532567 0.0289068463 -0.4264684475 -0.0255861029 0.3111693511
705295770.0 -0.0140268937 0.2978058653 0.0240323278 -0.4266734906 0.0246681687 -0.4264822651 -0.0227163425 0.3113784902
710295740.0 -0.0110641251 0.2978325106 0.0198622088 -0.4267037881 0.019804568 -0.4268859176 -0.0198170695 0.312229066
715295710.0 -0.0082527933 0.2982987328 0.0150338604 -0.4271470604 0.0151755813 -0.4268216829 -0.0160287529 0.3121197688
720295680.0 -0.0049093865 0.298128747 0.0102565226 -0.4267004803 0.0104992883 -0.4272565748 -0.0126581764 0.3125740179
725295650.0 -0.0015916488 0.2984526514 0.0056838507 -0.4268273018 0.0058413284 -0.4268868542 -0.0095358523 0.3127413732
730295620.0 0.001037168 0.2985218401 0.0012750576 -0.4270067934 0.0010555463 -0.4272215827 -0.0063245221 0.3129931241
735295590.0 0.0046950499 0.2987773446 -0.0032497468 -0.4271314906 -0.0031405791 -0.4273487096 -0.0027228519 0.3131332725
740295560.0 0.0077228149 0.2990351053 -0.0079366846 -0.42665291 -0.0080996519 -0.4268110688 0.0006549739 0.3132671171
745295530.0 0.0107122364 0.2989386993 -0.0126134272 -0.4266594597 -0.0125357662 -0.4270005391 0.0034847547 0.313321394
750295500.0 0.0142068031 0.2989605219 -0.017451202 -0.4262520152 -0.0172838825 -0.4263695017 0.0067180267 0.3131793854
755295470.0 0.0174427641 0.2989096044 -0.0219083432 -0.4261925942 -0.0215952362 -0.4264242313 0.009919159 0.3132992517
760295440.0 0.0204058402 0.2990860127 -0.0267735012 -0.4258720833 -0.0267155384 -0.4261048333 0.0130539321 0.3134753379
765295410.0 0.0235819404 0.2986586091 -0.0308372277 -0.4252867624 -0.0309692093 -0.4259796003 0.016667354 0.3139336947
770295380.0 0.0268089286 0.2987445505 -0.0357696889 -0.4252375048 -0.0355167172 -0.4251991457 0.0203184778 0.3132196751
775295350.0 0.0298272704 0.2987426806 -0.0403942406 -0.4245741337 -0.040121144 -0.4248837241 0.0229554501 0.3130638882
780295320.0 0.0331666249 0.2982270838 -0.0446192294 -0.4243911956 -0.0445809073 -0.4243389897 0.0262335855 0.3134340239
785295290.0 0.0367026469 0.2984228418 -0.0493513196 -0.4234205746 -0.0495978578 -0.4237819654 0.0294734832 0.3133145579
790295260.0 0.0391924141 0.2980636548 -0.0536936594 -0.4232866324 -0.053854452 -0.4232930477 0.0331264413 0.3129068894
795295230.0 0.0422794786 0.2980887836 -0.0581205841 -0.4222499409 -0.0584655444 -0.4224751732 0.0366107256 0.3131760879
800295200.0 0.0458088843 0.2975912406 -0.0631820621 -0.4218995867 -0.0634762443 -0.422079578 0.0397325804 0.3125998913
805295170.0 0.048614557 0.2970934635 -0.0674969511 -0.4210082655 -0.0676223261 -0.4210619806 0.0422847299 0.3120938133
810295140.0 0.0523026718 0.2965912117 -0.0722522664 -0.4201146025 -0.0721318026 -0.4208380882 0.0458334546 0.3123582789
815295110.0 0.055133125 0.2962638546 -0.0766572707 -0.4188811714 -0.0772165647 -0.4196389564 0.0491073537 0.3118002287
820295080.0 0.058450723 0.2955943268 -0.0813447415 -0.4186045498 -0.0814309469 -0.4185201461 0.0521869139 0.3111836707
825295050.0 0.0616113607 0.2952294849 -0.0855453095 -0.4170269364 -0.0854564788 -0.4175435036 0.0557760674 0.3109469541
830295020.0 0.0646434033 0.2949155267 -0.0905196393 -0.4164261873 -0.0906301606 -0.4170009162 0.0587931938 0.3105614022
