!Created with skrf (http://scikit-rf.org).
# Hz S RI R 50.0 
!freq ReS11 ImS11 ReS21 ImS21 ReS12 ImS12 ReS22 ImS22
300000.0 -0.3146356052 -0.1308065545 0.3734341518 0.0641078557 0.3714291203 0.0647382235 -0.3184519819 -0.1290556848
5299970.0 -0.3250215301 0.0027809048 0.3785543902 0.0034336168 0.3788224049 0.0033001826 -0.3261255609 0.0019639402
10299940.0 -0.3227078865 0.0142836144 0.3800973473 0.0026673331 0.3797382692 0.00290705 -0.3236332702 0.0126989585
15299910.0 -0.3189980196 0.0222204853 0.3817536381 0.0028634511 0.3822323088 0.0026401093 -0.3207146173 0.0197866035
20299880.0 -0.3157495093 0.0293265483 0.3851208926 0.0015843158 0.3852882234 0.0019262638 -0.3180583443 0.0260555315
25299850.0 -0.3116286225 0.0349538961 0.388639404 0.0007299729 0.3885450002 0.00041738 -0.3149494559 0.0313923224
30299820.0 -0.3079611305 0.0393991677 0.3918335593 -0.0020571649 0.3919068414 -0.0025039617 -0.3119811848 0.0357358498
35299790.0 -0.3042562537 0.0434450789 0.3947612589 -0.0049630058 0.3953136636 -0.0049153279 -0.3093798592 0.039976907
40299760.0 -0.3013796881 0.0468130868 0.398568838 -0.008588312 0.3989698451 -0.0088691839 -0.3064763777 0.0432051736
45299730.0 -0.2981364578 0.0498872524 0.4013070871 -0.0125168848 0.4016929379 -0.0127895038 -0.3037581905 0.0465987708
50299700.0 -0.2949813293 0.0528640926 0.4039792271 -0.0173128532 0.4039424166 -0.0170597626 -0.3013742545 0.0495501882
55299670.0 -0.2926597436 0.0553740333 0.4060511633 -0.0213844266 0.4059246103 -0.0219243143 -0.2996522584 0.0524766746
60299640.0 -0.2898020839 0.0580050419 0.408230125 -0.0269836096 0.4081211199 -0.0266588047 -0.2972196295 0.0549956163
65299610.0 -0.2872817007 0.0603916473 0.4098453558 -0.0317278195 0.4097073348 -0.0317476158 -0.2952954132 0.0574164019
70299580.0 -0.2853974933 0.0621769802 0.4107223368 -0.0367158805 0.4110746973 -0.0370744219 -0.2940717702 0.0599655456
75299550.0 -0.2833989251 0.0641003503 0.4116526504 -0.0421224256 0.4121107934 -0.042275974 -0.2920058188 0.0624423135
80299520.0 -0.2817878577 0.0665798894 0.4131143808 -0.0474374287 0.413086938 -0.0474456614 -0.2903718991 0.064762647
85299490.0 -0.279932883 0.0683547357 0.4135750372 -0.0528000039 0.4137030612 -0.0523448811 -0.2892419937 0.0670175631
90299460.0 -0.2782049599 0.07068483 0.4135462892 -0.0579157125 0.4137208744 -0.0575337331 -0.2874706993 0.0693926379
95299430.0 -0.2767353379 0.072937481 0.4136674297 -0.0630847007 0.4140118833 -0.0632015519 -0.2865450372 0.0717128531
100299400.0 -0.2751347312 0.0748447066 0.4141312624 -0.0681945453 0.4139748836 -0.0682570166 -0.2854796119 0.0743553974
105299370.0 -0.2740480622 0.0763953536 0.4135582737 -0.0731403767 0.4144059751 -0.0733036598 -0.2839966754 0.0761903798
110299340.0 -0.272770614 0.0787807923 0.4137983822 -0.0782210341 0.4141872407 -0.0783033207 -0.2832096199 0.0785225413
115299310.0 -0.2716819171 0.0810871523 0.4136511328 -0.0833816451 0.4136704915 -0.0836669522 -0.2823380804 0.0813636291
120299280.0 -0.270465349 0.0830327424 0.4132365565 -0.0889312806 0.4129571322 -0.0892024129 -0.2813297075 0.0831458041
125299250.0 -0.2692104744 0.085005247 0.4122927495 -0.0934002228 0.4127358759 -0.0939160958 -0.2801094491 0.0858842531
130299220.0 -0.2683039845 0.087357334 0.4120531156 -0.0991257267 0.4121674543 -0.0991000153 -0.2792769294 0.0881400514
135299190.0 -0.2673103157 0.0899376181 0.4111927878 -0.1036516677 0.4117730695 -0.1041657493 -0.2784715645 0.0905466509
140299160.0 -0.2661645762 0.0921038495 0.4107553744 -0.1090101493 0.4102959118 -0.1088639496 -0.2778094658 0.0929126748
145299130.0 -0.26540688 0.0947892996 0.4095402516 -0.1139621998 0.4096411146 -0.1139636187 -0.2764158392 0.0957746022
150299100.0 -0.2641960006 0.0968988349 0.4086394417 -0.1190943821 0.4086940607 -0.1190009414 -0.2761015269 0.0983571279
155299070.0 -0.2633705306 0.0993867513 0.4068746058 -0.1236994696 0.4072907478 -0.1238404438 -0.2747211795 0.1009792983
160299040.0 -0.2623447889 0.1021758964 0.4062615436 -0.1286594609 0.4064888579 -0.1289658972 -0.274146299 0.1036822505
165299010.0 -0.2610312585 0.1042794276 0.4046123158 -0.1334495623 0.4047109643 -0.1334584545 -0.2727484151 0.1058899753
170298980.0 -0.2601904157 0.1067195237 0.4030645878 -0.1382516532 0.4036450573 -0.1383293553 -0.2720133911 0.1084123662
175298950.0 -0.2592718008 0.1093417728 0.4022265401 -0.1430868424 0.4026785839 -0.1436858891 -0.2709652742 0.111724918
180298920.0 -0.2581322905 0.1117853292 0.4007578634 -0.1482385785 0.4009183452 -0.148098659 -0.2698080171 0.1140656218
185298890.0 -0.2570460973 0.1141905006 0.3996324853 -0.1525717791 0.3990112928 -0.1526263072 -0.2687547654 0.1165281559
190298860.0 -0.2557511437 0.1172232131 0.3972797661 -0.1572085396 0.3977038125 -0.1574046497 -0.2680563771 0.1193937552
195298830.0 -0.254857657 0.119758655 0.3960635431 -0.1617219443 0.3960548761 -0.1620203675 -0.2669465796 0.1218149248
200298800.0 -0.2537456603 0.1221929732 0.3943696511 -0.1670230014 0.3943448846 -0.1668640363 -0.2656342646 0.1245097256
205298770.0 -0.2525580082 0.1247391482 0.392513434 -0.1708945321 0.3927607751 -0.1709533947 -0.2644574314 0.1274203921
210298740.0 -0.2515607203 0.1275690845 0.3910801219 -0.1757071823 0.390771937 -0.1756380834 -0.2639440313 0.1299931111
215298710.0 -0.2505920055 0.1300821006 0.388462162 -0.180132435 0.389012501 -0.1803331727 -0.2622220011 0.1327327887
220298680.0 -0.2492212165 0.1323309155 0.3867132869 -0.184528393 0.3862686319 -0.184463145 -0.2613921689 0.1351373758
225298650.0 -0.2477227961 0.1351377502 0.3845875191 -0.1890467823 0.3846006068 -0.188824619 -0.2598968183 0.1380197789
230298620.0 -0.2466237324 0.1381123483 0.3827480515 -0.1936294964 0.3827934385 -0.193422313 -0.2587404167 0.1403655271
235298590.0 -0.2454949303 0.140726068 0.3809231408 -0.1983934824 0.3807240772 -0.1977176076 -0.2573077166 0.1431555896
240298560.0 -0.2440100067 0.1433643735 0.3782078176 -0.2022650854 0.3785363111 -0.2022112557 -0.2562770607 0.1457242093
245298530.0 -0.2427109203 0.1457267075 0.3758263793 -0.2067318352 0.3761377641 -0.206911233 -0.2548910756 0.1489099988
250298500.0 -0.2417579549 0.1483935367 0.3740962434 -0.2107109005 0.3740055621 -0.2104916674 -0.2537387525 0.1513635481
255298470.0 -0.2400933035 0.1512303398 0.3715582728 -0.2147288209 0.3721023432 -0.2150655601 -0.2521784111 0.1544895083
260298440.0 -0.2385526297 0.1536725922 0.369455706 -0.2185906727 0.3695012066 -0.2189818868 -0.2507204812 0.1564065656
265298410.0 -0.2373237964 0.1561475919 0.3669762236 -0.2233326763 0.3669004138 -0.2235434622 -0.2489883827 0.1591202953
270298380.0 -0.2360677174 0.1587565471 0.3645652325 -0.2272811607 0.3647595018 -0.2276486526 -0.2477634227 0.1623143991
275298350.0 -0.2346470138 0.1615146433 0.361487638 -0.2313566274 0.3620526634 -0.2314254092 -0.2456911888 0.1650786052
280298320.0 -0.2332985272 0.1640964919 0.3596028499 -0.2349327364 0.3597938653 -0.2357893422 -0.2444976059 0.1675691114
285298290.0 -0.2314155617 0.1666406612 0.3567960566 -0.2395599401 0.3572338982 -0.2396172665 -0.2429676482 0.1705655201
290298260.0 -0.2300744052 0.1694798746 0.3547579356 -0.2439342042 0.3542736117 -0.2436697824 -0.2411842772 0.1726602718
295298230.0 -0.2284086962 0.171505492 0.3515665824 -0.2477587247 0.3518901892 -0.2478949334 -0.2395545396 0.1752022468
300298200.0 -0.2266292273 0.1743482775 0.348980015 -0.2515968268 0.3491923065 -0.2518216621 -0.2377836901 0.177972683
305298170.0 -0.2249737442 0.1765780241 0.346351718 -0.2557557772 0.3466084094 -0.2559380782 -0.2358198039 0.1806771746
310298140.0 -0.2231611392 0.178910812 0.3434120845 -0.2595910481 0.3436685082 -0.2592487619 -0.2340357749 0.1830682243
315298110.0 -0.2216244123 0.1814959903 0.3404658715 -0.2640063413 0.3406501307 -0.2638549486 -0.2320892465 0.1857860697
320298080.0 -0.2200343882 0.1838151989 0.3368672897 -0.267568525 0.3379156261 -0.2674834901 -0.2307161293 0.1878645259
325298050.0 -0.2185886893 0.1860810043 0.333972683 -0.2710906352 0.3346627494 -0.2711311723 -0.2284252855 0.1903496192
330298020.0 -0.2170563872 0.1884530704 0.3313671509 -0.2749972218 0.3319463194 -0.2751069472 -0.2269581263 0.1928964478
335297990.0 -0.2151190588 0.1909497312 0.328076905 -0.2785833952 0.3286832161 -0.2788535735 -0.2249962148 0.1954469549
340297960.0 -0.2137821996 0.1933185933 0.3247544185 -0.2825926844 0.3250331734 -0.2826541024 -0.2230846313 0.1982916128
345297930.0 -0.2118660145 0.1956070237 0.3218564409 -0.2860328116 0.3219307702 -0.2861411766 -0.221104113 0.2006167335
350297900.0 -0.2101872505 0.1979128773 0.3190491243 -0.2891351607 0.31901416 -0.2893478719 -0.2196126065 0.202872363
355297870.0 -0.208179852 0.2003673856 0.315212183 -0.2924993026 0.3156562866 -0.2926455832 -0.2169700264 0.2055102267
360297840.0 -0.2063692565 0.2028057035 0.3119631043 -0.2962886793 0.3125381899 -0.2965729534 -0.2153051132 0.2076771065
365297810.0 -0.2044601421 0.2051153772 0.3092301128 -0.2997141518 0.3090075439 -0.2995617597 -0.2133769967 0.2099004046
370297780.0 -0.2025384718 0.2074287434 0.3054004023 -0.3031296402 0.3056877645 -0.3028460487 -0.2111193505 0.2126191862
375297750.0 -0.200266282 0.2095813215 0.3024292507 -0.3065113155 0.3025141103 -0.3062856822 -0.2087896328 0.2149465137
380297720.0 -0.1985534525 0.2121311719 0.2991206319 -0.3099460226 0.298895004 -0.3099839359 -0.2066040916 0.2177088006
385297690.0 -0.1968138979 0.2141051741 0.2954668377 -0.3129758941 0.2956777297 -0.3134458424 -0.2047297594 0.2200971852
390297660.0 -0.1940900031 0.216038089 0.2917283646 -0.3160999927 0.2921384967 -0.3161562234 -0.202056151 0.2220621384
395297630.0 -0.1918429968 0.2185457453 0.2884303356 -0.3193349723 0.2884006625 -0.3190227712 -0.1997757114 0.2242301262
400297600.0 -0.1897880884 0.220736775 0.2850019921 -0.3226405813 0.2852979957 -0.3225825074 -0.1976852235 0.2267489394
405297570.0 -0.1878547675 0.2224603676 0.2812422157 -0.3254652644 0.2816282209 -0.3256943818 -0.1951791741 0.2292183849
410297540.0 -0.1856848607 0.224884869 0.2779182153 -0.3287506585 0.277988051 -0.328696776 -0.1928974261 0.2311385151
415297510.0 -0.1838424233 0.2268102193 0.274136621 -0.3316127047 0.2744004024 -0.3317666941 -0.1903240053 0.2335312199
420297480.0 -0.1812163536 0.2288277481 0.2703010293 -0.3346914873 0.2706432849 -0.3347767429 -0.187862957 0.2360711589
425297450.0 -0.1786878798 0.2307572905 0.2667911165 -0.3375420206 0.2667734184 -0.3375713296 -0.1855757242 0.2374001764
430297420.0 -0.176493603 0.2326418374 0.2635016175 -0.3406123256 0.2632033539 -0.3404621991 -0.1827467132 0.240027673
435297390.0 -0.1742345944 0.2346241677 0.2591992073 -0.3436124167 0.2593532284 -0.3435261876 -0.1808597186 0.2424031807
440297360.0 -0.1714146969 0.2364793964 0.2551993339 -0.3462697738 0.2554617762 -0.3462644382 -0.1780223783 0.2440207934
445297330.0 -0.1692491591 0.2383042844 0.25186038 -0.3488894506 0.2517673215 -0.3493922972 -0.1754408373 0.2464264072
450297300.0 -0.1665452658 0.2404085041 0.2478029088 -0.3516990328 0.2484145129 -0.3513533413 -0.1726629097 0.2480208926
455297270.0 -0.1645492883 0.242235179 0.2444870334 -0.3546377519 0.2442173878 -0.3544656985 -0.170211513 0.2498680734
460297240.0 -0.1614643678 0.2438257157 0.2400588042 -0.3573055537 0.2401186998 -0.3574638724 -0.1676630773 0.2523325521
465297210.0 -0.1589407605 0.2457813346 0.2358803504 -0.359362366 0.2360390252 -0.359834825 -0.1648999699 0.2547090336
470297180.0 -0.1564019967 0.2474363515 0.2320085341 -0.3621319953 0.2324239733 -0.3622783919 -0.1622887997 0.2557874946
475297150.0 -0.1540646179 0.2496628497 0.2280178829 -0.3647234419 0.2281912573 -0.3647704604 -0.1593505073 0.2581866358
480297120.0 -0.1507649195 0.2516352684 0.2239679697 -0.3679613016 0.2243933633 -0.3670912758 -0.1570560396 0.2597866557
485297090.0 -0.148375741 0.2527392932 0.2199612073 -0.3694632888 0.2202500245 -0.3695096992 -0.1545859605 0.2618218744
490297060.0 -0.1454021859 0.2548219173 0.2156693992 -0.3722058209 0.2160831933 -0.3719364972 -0.1516559343 0.2631143921
495297030.0 -0.1430660796 0.2559779651 0.2121570793 -0.374143303 0.2120155192 -0.3745653819 -0.1485971796 0.2650453338
500297000.0 -0.140521477 0.2578457785 0.2077783279 -0.3762360639 0.2079716133 -0.3767892202 -0.1458273376 0.2668730466
505296970.0 -0.137269357 0.2597425869 0.203686106 -0.3789702226 0.2037874332 -0.3784375899 -0.1429119542 0.2681228442
510296940.0 -0.1344119066 0.2612068868 0.1993568412 -0.3815260478 0.1996603496 -0.381242581 -0.1396648375 0.2703702112
515296910.0 -0.1315617941 0.2629172543 0.1950485873 -0.3833252559 0.1949712461 -0.3829432856 -0.1372297403 0.2711641905
520296880.0 -0.1288707006 0.2643413266 0.1911634278 -0.3853135306 0.1910394267 -0.3852000508 -0.1341098425 0.2734022434
525296850.0 -0.1260176832 0.2656099827 0.1867212679 -0.3870352421 0.1866549953 -0.3872163435 -0.131281963 0.2751136929
530296820.0 -0.1235514079 0.2668801288 0.1824552519 -0.3889233085 0.1822722947 -0.3890931586 -0.1283182777 0.276111643
535296790.0 -0.119804713 0.2685221978 0.1779627602 -0.3909426114 0.1782043743 -0.391022835 -0.125296433 0.277992816
540296760.0 -0.117065835 0.2699753622 0.173559718 -0.3931101427 0.1735937179 -0.3928153418 -0.1223502447 0.2790323899
545296730.0 -0.114606117 0.2718308182 0.1699396268 -0.3949172537 0.1692888914 -0.3949119624 -0.119240478 0.2808836322
550296700.0 -0.1113422866 0.2729084107 0.1651745813 -0.3964905771 0.1650115455 -0.3971171824 -0.1164385885 0.2822917788
555296670.0 -0.1087248294 0.2743145354 0.1608508313 -0.3985197108 0.1607088301 -0.3981597673 -0.1136178213 0.2827326744
560296640.0 -0.1050036973 0.2754827543 0.1561518259 -0.3999192881 0.1565968375 -0.4001227949 -0.1104874616 0.2848591307
565296610.0 -0.1025312589 0.2768115893 0.1520661875 -0.4017821779 0.1520454402 -0.4012182102 -0.1074446188 0.2861399877
570296580.0 -0.0994707064 0.2780758947 0.1475489697 -0.4030368999 0.1476466032 -0.4034259406 -0.1047126178 0.2872687145
575296550.0 -0.0960525926 0.2792561733 0.143478283 -0.4047563859 0.1431140307 -0.4051534237 -0.1012947998 0.2884145022
580296520.0 -0.0935479144 0.2808716249 0.1389834906 -0.4065374688 0.1386046296 -0.4066799929 -0.0985411626 0.2896757283
585296490.0 -0.0901624151 0.2819775809 0.1347578291 -0.4079073504 0.1340386406 -0.4077856362 -0.0952491963 0.2909467523
590296460.0 -0.0866385472 0.2829495719 0.1300950579 -0.4093280173 0.1297927884 -0.4093452471 -0.0923556115 0.2920213618
595296430.0 -0.0839320339 0.2840990428 0.1252616714 -0.4104403227 0.1251089779 -0.4103551393 -0.0892477537 0.2930859656
600296400.0 -0.0807953755 0.2851989265 0.1204789395 -0.4114480327 0.1208920072 -0.4118317976 -0.0861427193 0.2941317058
605296370.0 -0.077712112 0.2865687832 0.1164097641 -0.4128402282 0.1160603667 -0.4129307225 -0.083015533 0.2951885339
610296340.0 -0.0743578135 0.2874986531 0.112093773 -0.413770573 0.1120780828 -0.4139765899 -0.0799745298 0.2962855079
615296310.0 -0.0712384466 0.2885242899 0.1070810409 -0.4152326909 0.1071168374 -0.4154758343 -0.0763598958 0.2974387658
620296280.0 -0.0684897323 0.2898378277 0.1028569711 -0.4164787831 0.1025048642 -0.4164722374 -0.0736797511 0.2983099192
625296250.0 -0.0653212307 0.2904389904 0.0981837856 -0.4175524464 0.0985022961 -0.417682616 -0.0706476083 0.2988941291
630296220.0 -0.0622352813 0.2917015302 0.0935089078 -0.4185946868 0.0934966925 -0.4186248886 -0.0672689323 0.2999459686
635296190.0 -0.0594484133 0.2926596531 0.0894473907 -0.4191814033 0.0891614385 -0.4194265962 -0.0645948915 0.3006857438
640296160.0 -0.0559075064 0.2934847957 0.0846647579 -0.4207641568 0.0845233712 -0.4204806143 -0.0610827553 0.3016349006
645296130.0 -0.0529051254 0.2945773133 0.0798350706 -0.421212893 0.0799881193 -0.4209475071 -0.0580014469 0.3020519282
650296100.0 -0.0499386879 0.2950726741 0.0755872214 -0.422023291 0.0749705203 -0.4222846502 -0.0540960581 0.3031584105
655296070.0 -0.0467273462 0.2956735681 0.0708137651 -0.4227629179 0.0708091407 -0.4225456002 -0.0515979863 0.3039148854
660296040.0 -0.043487801 0.2965686959 0.0662731845 -0.423685782 0.0660065638 -0.4236779334 -0.0481346748 0.3042590698
665296010.0 -0.0401813547 0.2975621624 0.0614856921 -0.4236282559 0.061145994 -0.4238851872 -0.0448930492 0.304841767
670295980.0 -0.0372731822 0.2982789045 0.0567113268 -0.4247970553 0.0569449504 -0.4243695722 -0.0421527351 0.3055282595
675295950.0 -0.0341789091 0.2986290748 0.0524114299 -0.4250434821 0.0522473286 -0.425388733 -0.0386391442 0.306490859
680295920.0 -0.0312691251 0.2994333074 0.0481774792 -0.4255219756 0.0477541164 -0.4256128415 -0.035365854 0.3066762863
685295890.0 -0.027797317 0.3001532381 0.0431520392 -0.4264075121 0.0429198686 -0.4263318501 -0.0322888707 0.3075930164
690295860.0 -0.0247396771 0.3005211497 0.0385896779 -0.4264504716 0.0383591224 -0.4267632029 -0.0292954814 0.3076529811
695295830.0 -0.0214481759 0.301027008 0.0341942217 -0.4268963511 0.0338235363 -0.4268930014 -0.0256700678 0.308328275
700295800.0 -0.0185027994 0.3018235419 0.0295584832 -0.426998433 0.0296023936 -0.4273316497 -0.0227301388 0.3087226087
705295770.0 -0.015808214 0.3023908051 0.0250283802 -0.4280272547 0.0248251896 -0.4273625056 -0.0193429974 0.3094360651
710295740.0 -0.0125004563 0.3024106351 0.0201783963 -0.4277823928 0.0197040359 -0.4279101328 -0.0157397179 0.3094781859
715295710.0 -0.0092459204 0.3031924958 0.0158536682 -0.4281594591 0.0155606998 -0.4280133864 -0.0126891353 0.3095366813
720295680.0 -0.0058626725 0.3029939862 0.0109996518 -0.4278346181 0.0107469423 -0.4279992885 -0.0096278624 0.3096106564
725295650.0 -0.0032051085 0.3038489693 0.0067789528 -0.4280071373 0.0060883341 -0.428207664 -0.0064581546 0.3106151427
730295620.0 -0.000449694 0.3040686147 0.0017114582 -0.427680761 0.0012759458 -0.4278924989 -0.0030342604 0.310986188
735295590.0 0.0030309026 0.3043804189 -0.0027723631 -0.4276979417 -0.0029797735 -0.4279982391 -8.82208e-05 0.3102688177
740295560.0 0.0058548834 0.3044099462 -0.0071583857 -0.4280637946 -0.0072928444 -0.4280528017 0.0032150979 0.3110452215
745295530.0 0.0092372745 0.3044406434 -0.0120729157 -0.4271989735 -0.0114848326 -0.4273890528 0.0061376692 0.3108833492
750295500.0 0.0119208097 0.3048881578 -0.0161821915 -0.4275062488 -0.01676153 -0.4277210692 0.0096103835 0.3111600833
755295470.0 0.0153716325 0.3048351652 -0.021054752 -0.4276022246 -0.0210896911 -0.4277493272 0.0128539988 0.3113822962
760295440.0 0.0181111037 0.3055502794 -0.0257977471 -0.4271717373 -0.026111065 -0.4266278972 0.016479039 0.310850464
765295410.0 0.0215709423 0.3051591613 -0.0303386238 -0.4266318509 -0.0305359695 -0.4265356616 0.0198483215 0.3108740252
770295380.0 0.0240944605 0.3050066968 -0.0343991343 -0.4261402891 -0.0348843512 -0.4265178505 0.0226089766 0.3110812567
775295350.0 0.0276333973 0.3050715461 -0.0394150897 -0.4257127007 -0.039680932 -0.4257857332 0.0261466233 0.3110241958
780295320.0 0.0306177141 0.305052751 -0.0439728301 -0.4252174573 -0.0442704104 -0.4251123858 0.0295972161 0.3109056131
785295290.0 0.0338390699 0.3050542114 -0.0487774547 -0.4247423527 -0.0483907611 -0.4249170579 0.0322136313 0.3107098933
790295260.0 0.0368554363 0.3044070451 -0.0532450368 -0.4244519404 -0.0531826811 -0.4247270822 0.0355614324 0.3108620246
795295230.0 0.0396058301 0.3045495265 -0.0575225513 -0.4238662003 -0.0580547316 -0.4237987662 0.0387655395 0.3098273992
800295200.0 0.0423745623 0.3044886053 -0.0619290747 -0.422660565 -0.0624113989 -0.4233818127 0.0419675069 0.3100720193
805295170.0 0.0456193278 0.3044485616 -0.0670455739 -0.4221196735 -0.0670097647 -0.4224654972 0.0459495027 0.3093045801
810295140.0 0.0489228706 0.3040314635 -0.0711795627 -0.4215441098 -0.071602357 -0.4216363647 0.0489107574 0.3090892138
815295110.0 0.051711207 0.303590327 -0.0756334957 -0.4207080268 -0.0757947758 -0.4209745822 0.0519094622 0.3090470612
820295080.0 0.0547467315 0.303268346 -0.0800453937 -0.4196250689 -0.0801534596 -0.4199913609 0.0546233291 0.3087879507
825295050.0 0.0578579311 0.3027961211 -0.0849047627 -0.4189728557 -0.0852433636 -0.4192049456 0.0585684853 0.3083383067
830295020.0 0.0610110174 0.3021635874 -0.0894184726 -0.4177399008 -0.0892917945 -0.4182251391 0.0616368695 0.3073587961
