!Created with skrf (http://scikit-rf.org).
# Hz S RI R 50.0 
!freq ReS11 ImS11 ReS21 ImS21 ReS12 ImS12 ReS22 ImS22
300000.0 -0.0427349508 -0.0716663113 0.0006051272 0.0011444681 0.0015449051 6.94861e-05 -0.7632356738 -0.1878789382
5299970.0 -0.0458321872 0.0144151496 8.26999e-05 0.0002830709 1.85747e-05 3.95073e-05 -0.7849259193 -0.0093507944
10299940.0 -0.0400844617 0.0327411677 6.55184e-05 0.0001667668 -1.07792e-05 -0.000219735 -0.7875308495 -0.0049098656
15299910.0 -0.0318210249 0.0476252629 3.66684e-05 0.0002538053 0.0001039726 -5.0059e-05 -0.793019255 -0.0024148451
20299880.0 -0.0216457159 0.0592014742 -2.4375e-06 -0.0001826888 3.73925e-05 7.90082e-05 -0.7994076482 0.0016380467
25299850.0 -0.0102083867 0.0689157837 -0.0001363832 8.35952e-05 7.53302e-05 1.78339e-05 -0.8061701252 0.0079648786
30299820.0 0.0012980694 0.0755211739 -4.9592e-05 0.0002305788 -8.40142e-05 0.0001710063 -0.8118051367 0.0159647753
35299790.0 0.0130456219 0.0804111819 0.0001335476 0.0001527663 -1.37584e-05 -5.14975e-05 -0.8170976288 0.0244335196
40299760.0 0.0246059509 0.0831028995 8.18567e-05 0.0003575567 0.0001846335 0.0002215009 -0.8209891095 0.0337940712
45299730.0 0.0351615438 0.084295566 7.8863e-05 0.0001788373 0.000160402 4.89147e-05 -0.824441623 0.0436687164
50299700.0 0.0452639367 0.0842635797 7.11612e-05 9.29542e-05 3.67134e-05 -1.75111e-05 -0.8267741586 0.0538859188
55299670.0 0.0549019418 0.0834770969 -5.21003e-05 7.15262e-05 -0.0002342723 4.55078e-05 -0.828488152 0.0639511142
60299640.0 0.0634695252 0.0815791094 0.0001070466 0.0001352789 9.16465e-05 -5.8276e-06 -0.8297671806 0.07412327
65299610.0 0.071505497 0.0792737339 7.57478e-05 4.07474e-05 2.01805e-05 6.38416e-05 -0.8300917629 0.0839455482
70299580.0 0.0779375543 0.0761655917 0.0001703402 0.0001343944 0.0001051209 0.0002202403 -0.8310904841 0.0935565798
75299550.0 0.0846024669 0.0729664224 5.11207e-05 0.0001692379 -0.0001076808 0.0001673116 -0.8306396038 0.1041551453
80299520.0 0.0902786974 0.069638477 0.0003242594 0.0001201083 -4.5438e-05 1.31513e-05 -0.8307760121 0.1138790867
85299490.0 0.0955418808 0.0656177663 0.0001724408 -1.10076e-05 -0.0001628434 -4.20599e-05 -0.8299377772 0.1229562907
90299460.0 0.1006141877 0.0620016338 0.0001427921 -5.97192e-05 1.0436e-06 -9.33888e-05 -0.8289461941 0.1328087654
95299430.0 0.104473519 0.0581294294 0.0001397656 -0.0001727545 0.0001304387 -7.99988e-05 -0.8279458352 0.1428312579
100299400.0 0.1080160725 0.0542405285 -2.80216e-05 3.14206e-05 8.19776e-05 0.0001470607 -0.8269899791 0.1520247433
105299370.0 0.1115301943 0.0501977075 0.0002685408 -0.0001335786 0.0001178561 -0.0001004655 -0.825735327 0.1606458021
110299340.0 0.1145141651 0.0462601259 -2.96633e-05 0.0002701373 -7.75e-08 1.58116e-05 -0.8241633473 0.1693347512
115299310.0 0.1169096786 0.0426904478 -1.66141e-05 0.0002337949 -9.83971e-05 0.000111625 -0.823163359 0.1790886595
120299280.0 0.119444922 0.0389180657 0.0001351286 -7.25072e-05 -0.0001021314 0.0001640223 -0.8212538588 0.1882702503
125299250.0 0.1212173177 0.0350175549 -9.58407e-05 0.0001614142 5.84795e-05 -2.28411e-05 -0.8195638246 0.1970504421
130299220.0 0.1231297461 0.0310660527 -3.42354e-05 9.19453e-05 -0.0001051824 -3.70244e-05 -0.8174796275 0.2057152845
135299190.0 0.1246941762 0.0276750557 5.07416e-05 5.9687e-06 -6.93966e-05 0.0001087229 -0.8158717763 0.2154500405
140299160.0 0.1261499827 0.0242960896 8.00462e-05 0.0001372441 -2.36694e-05 0.0002125226 -0.8141179145 0.2230834341
145299130.0 0.1274460084 0.0213263877 0.0001791109 0.0002528871 -3.7203e-05 0.0002044673 -0.8120646199 0.2323563043
150299100.0 0.1284556832 0.0177931331 -0.0001057155 0.0002355754 -0.0002402309 0.0001931611 -0.8095960118 0.2415012607
155299070.0 0.1292080285 0.0146903176 0.000150813 0.0003067238 -0.0001140497 -0.0001278806 -0.8067814368 0.2507468737
160299040.0 0.1298784494 0.0115183316 -7.10274e-05 6.00354e-05 -0.0001571451 3.16568e-05 -0.8045713894 0.2587542024
165299010.0 0.1306018573 0.0083955326 -2.96686e-05 -1.62804e-05 1.43959e-05 -9.86542e-05 -0.8018154193 0.2672130802
170298980.0 0.1310261426 0.0054049845 2.37781e-05 0.0002006652 -8.51232e-05 5.93398e-05 -0.7995617836 0.2754071764
175298950.0 0.1314928003 0.0024988418 0.0001497876 0.0001702036 0.0001731755 0.0001212709 -0.7960934722 0.2847694014
180298920.0 0.1315758446 -0.0003349689 7.28611e-05 -9.59902e-05 9.38174e-05 3.14981e-05 -0.7934805577 0.2934616425
185298890.0 0.1314914581 -0.0033431012 0.000137437 0.0002034944 3.03721e-05 4.67202e-05 -0.7902986522 0.3014566009
190298860.0 0.1317541089 -0.005706194 0.0004290477 0.000172512 -6.00245e-05 -0.0001211285 -0.7869410362 0.3100828211
195298830.0 0.1319392694 -0.0083641198 7.3209e-06 0.0002519056 0.0002501071 0.0001539962 -0.7838278494 0.3182741184
200298800.0 0.1320613595 -0.0113679801 5.0522e-06 5.71416e-05 0.0002307166 5.7189e-06 -0.7808009496 0.3268339414
205298770.0 0.1314331704 -0.0136712403 -1.21709e-05 0.0001533044 6.17499e-05 0.0001330286 -0.7774537928 0.3354751864
210298740.0 0.1316907181 -0.0162175301 -5.09788e-05 1.8102e-05 0.0001410964 0.0001523327 -0.7746061625 0.3431147023
215298710.0 0.1310707855 -0.0186082336 0.0003160884 0.0002043368 3.78511e-05 6.9772e-06 -0.7705668684 0.3512037068
220298680.0 0.1311063951 -0.0208089051 -5.8632e-05 0.0001911806 3.52766e-05 3.40566e-05 -0.7667370529 0.3596032912
225298650.0 0.1306099728 -0.023151644 7.54139e-05 0.0001256023 0.0001382945 0.000202737 -0.7629599176 0.3679148142
230298620.0 0.1302003286 -0.0250670817 0.0002485889 0.000183184 2.93202e-05 0.000115662 -0.7592085674 0.3754025422
235298590.0 0.1295120608 -0.0275883197 0.0001462672 0.0002999166 3.86758e-05 -1.99495e-05 -0.7546639754 0.3834244863
240298560.0 0.1289781917 -0.0297599776 9.76614e-05 5.77509e-05 -5.63633e-05 0.0002088492 -0.7512555819 0.3910885069
245298530.0 0.1282044514 -0.0320930113 0.0001204165 0.0001790306 9.81012e-05 -9.6361e-05 -0.7473400897 0.3990305185
250298500.0 0.1280667365 -0.0337861738 0.0002398083 0.0001713603 9.23459e-05 0.0002063071 -0.7431788278 0.4068323473
255298470.0 0.127291039 -0.0357023745 4.29439e-05 1.68578e-05 0.0001249068 7.16791e-05 -0.7391036818 0.4146534637
260298440.0 0.1267755518 -0.0380427782 0.0001402488 0.0002328112 0.0001661176 0.0001892849 -0.7343511089 0.4219053757
265298410.0 0.1258553584 -0.0398414595 0.000140891 -6.33362e-05 2.04646e-05 0.0001307895 -0.7298795414 0.4301859287
270298380.0 0.1251199932 -0.0420527823 -1.08279e-05 0.0001631663 0.0001698177 3.3174e-05 -0.7252061309 0.437995987
275298350.0 0.1244888408 -0.043458223 -0.000108852 7.48141e-05 -3.75733e-05 -0.0002143988 -0.7205126924 0.4455235089
280298320.0 0.1235598114 -0.0453719603 -2.2621e-06 0.0002466956 0.0002130121 4.9328e-05 -0.7165978025 0.4531503233
285298290.0 0.1227224696 -0.0472822733 6.82663e-05 8.62926e-05 0.0001574754 9.18758e-05 -0.711700094 0.4605289873
290298260.0 0.1219886101 -0.0487767709 0.0001199665 -3.98391e-05 -0.0001070567 0.0002844331 -0.7062552476 0.4676720907
295298230.0 0.121058863 -0.0508455939 0.0001380016 0.0001686359 8.44587e-05 -6.76258e-05 -0.7013609408 0.4748733623
300298200.0 0.1202023693 -0.0526218222 0.0001460696 0.0001378388 0.0002981394 0.0002273997 -0.696710097 0.4823523076
305298170.0 0.1192562074 -0.054560342 7.2362e-06 0.0001806319 0.0001801138 0.0001785046 -0.6915449164 0.4894129857
310298140.0 0.1184501151 -0.0565933219 6.70026e-05 0.000251312 -6.32321e-05 -6.28774e-05 -0.6865956001 0.4973722067
315298110.0 0.117304832 -0.058419102 4.48226e-05 9.9986e-05 7.57583e-05 0.0002040181 -0.6813196262 0.504194697
320298080.0 0.1161455537 -0.0603780499 0.0001331702 0.0001311286 0.0001634083 0.0001966785 -0.6758274837 0.5105939794
325298050.0 0.1145425809 -0.0623996284 0.0001370742 0.0002991584 0.000147628 9.8117e-05 -0.6697778028 0.5179628595
330298020.0 0.1134791989 -0.0633296007 0.0001638364 0.0002506763 0.0002341976 0.0001221538 -0.664635765 0.5248404551
335297990.0 0.1124544632 -0.0648564468 -6.38583e-05 0.0002757391 2.82049e-05 0.0001326313 -0.6593129848 0.5311186538
340297960.0 0.1109390782 -0.0660330272 0.0002746461 0.0001735699 0.0001485744 0.0001559137 -0.6544360959 0.5384774073
345297930.0 0.1097152005 -0.0677421077 0.0002979131 5.33246e-05 0.0002271872 4.306e-07 -0.648675084 0.5447203364
350297900.0 0.1087033355 -0.0691962395 0.0001391383 -4.40591e-05 2.46125e-05 0.0002909193 -0.6429298655 0.5514962447
355297870.0 0.1073307828 -0.0703853322 0.0001645687 0.0001032584 0.0003965886 0.0001171148 -0.6369765695 0.5585998556
360297840.0 0.1062901271 -0.0716315871 0.0002773626 -2.84005e-05 1.70836e-05 0.0001389513 -0.6307320985 0.5653754397
365297810.0 0.1050898915 -0.0729731234 0.000135523 6.3102e-06 4.50394e-05 0.0002090276 -0.6254667152 0.5708865123
370297780.0 0.1037780539 -0.0745816693 0.0001821595 2.76437e-05 0.0002542035 0.0001604291 -0.6197195854 0.577751102
375297750.0 0.1026660767 -0.0758091991 0.00029408 2.56879e-05 0.0001401681 6.65879e-05 -0.6134070003 0.5839269608
380297720.0 0.1014149306 -0.0766743494 0.0004250138 7.19833e-05 0.0001328596 -7.3745e-06 -0.6070166348 0.5901424083
385297690.0 0.100106815 -0.0780983205 0.0001996781 0.000129911 0.0001616305 -0.0002219241 -0.6012281827 0.5964754092
390297660.0 0.0991091801 -0.0797983477 0.0002363126 0.0002242424 1.46456e-05 0.0001099953 -0.5944859462 0.6023707398
395297630.0 0.0978232587 -0.0805109141 0.0002976971 0.0001387484 -3.80306e-05 4.82193e-05 -0.5878565552 0.6077479023
400297600.0 0.0964200071 -0.0818059744 2.88254e-05 0.0001586088 0.000158026 0.0002315356 -0.5826780564 0.613663642
405297570.0 0.0951402843 -0.0833325395 0.0002998894 0.0001112012 0.0002549895 2.61761e-05 -0.5753775154 0.6205067235
410297540.0 0.0941147344 -0.0843326159 0.0002777905 0.000116507 0.0003378406 0.0001723123 -0.5693119695 0.6257933736
415297510.0 0.0926904065 -0.0853189879 0.0001791106 0.000134268 0.0002151235 0.0001178733 -0.5629445056 0.6320231665
420297480.0 0.0914045973 -0.0866720122 0.0001754985 0.0001754718 0.0002265851 8.36355e-05 -0.5562309192 0.6382710338
425297450.0 0.0905778595 -0.0876983662 0.0001830779 1.3066e-06 0.0001331957 7.22224e-05 -0.5495289274 0.6427843089
430297420.0 0.0888884614 -0.0887996255 0.0001163297 -6.37999e-05 -1.82196e-05 -3.3747e-06 -0.5435653988 0.6487846589
435297390.0 0.0876389514 -0.0898613804 0.0003684969 -3.12536e-05 0.0001681548 0.0002060635 -0.5363127851 0.6539683191
440297360.0 0.0864789276 -0.0910200977 0.000258901 0.000130424 0.0003505999 0.0002184219 -0.5303667731 0.6596141565
445297330.0 0.0852809796 -0.0919929067 0.0001308622 3.38232e-05 0.0002892763 0.0001021955 -0.5229373099 0.6650278477
450297300.0 0.0839787798 -0.0932050693 0.0002975579 2.65225e-05 0.0002156136 7.09657e-05 -0.5156898646 0.6695913847
455297270.0 0.0822318215 -0.0941439576 0.0002301213 0.0003047684 0.0003282733 0.0001023802 -0.5091192639 0.6748070504
460297240.0 0.0812271823 -0.0950731001 0.0004383531 0.0002737444 0.0002142532 2.55831e-05 -0.5024443092 0.6800780166
465297210.0 0.0801862946 -0.0957296151 8.56195e-05 0.0002501226 0.0002618534 0.0002133567 -0.4949214943 0.685800985
470297180.0 0.0786944171 -0.0968157508 0.0001877192 -5.56679e-05 0.0002104357 2.25575e-05 -0.4877561262 0.6904290058
475297150.0 0.0769186408 -0.0975186754 0.0002426273 -2.79586e-05 0.0003141465 -8.5013e-06 -0.4811557665 0.6952132538
480297120.0 0.0761963712 -0.0986032064 0.0001635734 9.16817e-05 0.0002721876 0.0001390362 -0.4745366553 0.7000987131
485297090.0 0.074862655 -0.0994242113 0.0001546034 0.000196135 1.06651e-05 0.0002089955 -0.4672195616 0.7047300024
490297060.0 0.0740339038 -0.1002642183 0.0001113952 5.40521e-05 9.26426e-05 0.0001157353 -0.4594999995 0.7091450098
495297030.0 0.0722743941 -0.1014022356 0.0001953059 5.98447e-05 0.0002633461 -2.42886e-05 -0.4524134093 0.7140217892
500297000.0 0.071257422 -0.1018150994 0.0002354934 7.3682e-06 0.0001210527 4.13529e-05 -0.4449437701 0.7179017413
505296970.0 0.0698530783 -0.1030047087 0.0002861012 4.75045e-05 0.0001687219 2.16786e-05 -0.4379105572 0.722926174
510296940.0 0.0686076876 -0.1034595229 0.0001860976 0.0002198512 0.0002214349 0.0001036834 -0.4298527097 0.727815609
515296910.0 0.0670562922 -0.1040620148 0.0003703601 0.0001862109 0.0002105702 -5.2905e-06 -0.4230635919 0.7310842153
520296880.0 0.0659334673 -0.1049273169 0.0001265059 5.52692e-05 0.0004551025 0.0001264608 -0.4151454033 0.7360582304
525296850.0 0.0642574268 -0.1058437053 0.0001813598 -2.00904e-05 0.0004317463 7.13008e-05 -0.4080250584 0.7393153285
530296820.0 0.0630565627 -0.1061804981 0.0001566695 9.85199e-05 0.0003584003 0.0001096939 -0.4002781122 0.7434855492
535296790.0 0.0621263203 -0.1068234109 0.0004190983 5.6659e-05 0.0003422401 -2.35895e-05 -0.3931765915 0.7480224661
540296760.0 0.0607701202 -0.1073202625 0.0004145617 3.73196e-05 0.0001925389 0.0001080956 -0.3852231272 0.7513601931
545296730.0 0.0590498149 -0.107681935 0.0001864771 -0.0001169901 0.0002804572 0.0001875697 -0.3774600936 0.7556203657
550296700.0 0.0580296748 -0.1080167423 0.0001251585 0.0001036839 0.0002822692 0.0001057845 -0.3698845684 0.758924614
555296670.0 0.0564736412 -0.1087147699 9.04841e-05 0.0001302935 0.0004394228 5.10906e-05 -0.3624861352 0.7616253972
560296640.0 0.0554094317 -0.1091701275 0.0001031054 -5.17902e-05 0.0002759754 6.0472e-05 -0.3543513292 0.7662723653
565296610.0 0.0536683503 -0.1098154734 0.0002295676 8.67979e-05 0.0003544931 0.0001128286 -0.3466033363 0.7697414012
570296580.0 0.0523693064 -0.1101522991 0.0003471123 -0.0001259878 0.0001939497 9.03674e-05 -0.3390734252 0.7731063829
575296550.0 0.0509231453 -0.1106584723 0.0003552539 9.61465e-05 0.0003586561 0.0001188016 -0.3306322732 0.7761547704
580296520.0 0.0498922798 -0.1108741792 0.0002733031 8.13862e-05 0.0001632097 -0.0001245498 -0.3235438376 0.7793521108
585296490.0 0.0486830579 -0.1109680962 0.0002122112 -0.0001739746 0.0003606531 3.0989e-06 -0.3153609549 0.7830566433
590296460.0 0.0472709465 -0.1113131076 0.0003320238 0.0001011802 0.0003322163 2.60072e-05 -0.3075068754 0.7862029206
595296430.0 0.0455965769 -0.1119588705 0.0004178864 -6.44934e-05 0.0001799108 0.0001699615 -0.3000710002 0.7893262062
600296400.0 0.0442829017 -0.1121127568 0.0002901179 -0.0001041707 0.0003217474 0.0002135716 -0.2925146891 0.7913142032
605296370.0 0.0425538363 -0.1121882679 0.000532678 -1.44356e-05 0.0002367191 7.3502e-05 -0.2838385714 0.7951534688
610296340.0 0.041486682 -0.112458973 0.0002093478 0.0001064753 0.0002624368 0.0001110646 -0.2760563064 0.7979726398
615296310.0 0.0401951058 -0.1127027246 0.0003637112 0.0001533616 0.0001648654 9.04996e-05 -0.2673023559 0.8008725074
620296280.0 0.0388488903 -0.1125113575 0.0003209846 8.94597e-05 0.0002554696 0.000104479 -0.2596607814 0.8036030545
625296250.0 0.0372973763 -0.1127831892 0.0002875816 1.25585e-05 0.0002551615 0.000150382 -0.2515790199 0.8052772199
630296220.0 0.0358169043 -0.112958018 0.0003605682 -9.8851e-05 0.0002818917 2.93528e-05 -0.2440802669 0.8077801978
635296190.0 0.0345528798 -0.112835274 0.0002441027 -7.69139e-05 0.0003045339 2.7528e-05 -0.2354335488 0.8095911572
640296160.0 0.0329495955 -0.1132176013 0.0002537704 -1.5541e-05 0.0003420385 0.000347324 -0.2273262345 0.8131920041
645296130.0 0.0320412884 -0.1132155241 0.0004055063 -4.77899e-05 0.0003897949 -0.000191353 -0.2193390619 0.8142640017
650296100.0 0.0303315856 -0.1132522176 0.0002619558 6.90631e-05 0.0002604519 -0.0001031936 -0.2105698705 0.817090611
655296070.0 0.0287771033 -0.1132381503 0.0001589722 -9.74768e-05 0.0004706663 0.0002232609 -0.2031423173 0.8189515803
660296040.0 0.027213843 -0.1131656799 0.0005100396 -0.0001082396 0.0004271921 7.80497e-05 -0.1942600928 0.8211918014
665296010.0 0.026046742 -0.1131678633 0.0003026322 -6.62872e-05 0.000220541 0.0001153391 -0.1859979399 0.8228488921
670295980.0 0.024525754 -0.1131434613 0.0003536316 -1.78752e-05 0.0001899459 0.0001206582 -0.1783607417 0.8244712937
675295950.0 0.0228552488 -0.1135017771 0.0005019014 -0.0002895666 0.0002594357 0.0001316185 -0.1694952156 0.826210021
680295920.0 0.0210997896 -0.1130221583 0.0003869908 5.75212e-05 0.0002744816 -1.22546e-05 -0.1609915578 0.8277535748
685295890.0 0.0198894108 -0.1129870105 0.0003567747 4.64752e-05 0.0003313603 -1.89901e-05 -0.1533143339 0.829871333
690295860.0 0.0187518963 -0.1128194964 0.0004087346 -0.0002106668 0.0004494904 9.14885e-05 -0.1447671289 0.8308904637
695295830.0 0.0167710678 -0.1129100322 0.0001263334 0.0002381324 0.0003832982 5.06586e-05 -0.1363933116 0.8325025991
700295800.0 0.0155257898 -0.1125535635 0.000142325 8.7344e-05 0.0004071217 6.7172e-06 -0.1279060529 0.8335462811
705295770.0 0.013908515 -0.1122270834 0.000289333 6.34088e-05 0.0003610586 -7.49349e-05 -0.1201407251 0.8351282071
710295740.0 0.0129610762 -0.1122706056 0.0003902061 -5.78146e-05 0.000423589 -8.08963e-05 -0.1114713032 0.8360178523
715295710.0 0.0112664822 -0.1118945618 0.0003608547 8.44133e-05 0.0002780154 4.5755e-06 -0.1032014119 0.8367615318
720295680.0 0.0097503059 -0.11182886 0.0003235401 -0.0002060992 0.000374193 0.0001029635 -0.0945641096 0.8378065124
725295650.0 0.0080604364 -0.1113564953 6.94389e-05 4.77071e-05 0.0004816037 0.0001455136 -0.0872006379 0.8393856212
730295620.0 0.0064609654 -0.1114469449 0.0002511192 -0.0002274674 0.0004528417 -4.83253e-05 -0.0788484984 0.8398593599
735295590.0 0.0049695936 -0.110939113 0.0002776147 4.59081e-05 0.0005185583 -2.33156e-05 -0.0697172917 0.8403768102
740295560.0 0.0037325223 -0.1106814593 0.0003679212 3.79543e-05 0.0003970408 -3.61118e-05 -0.0616732876 0.8413307349
745295530.0 0.0022695706 -0.1105487383 0.0004530601 0.0001600517 0.0003305271 0.000201064 -0.0533956785 0.8415389146
750295500.0 0.0007191663 -0.1099390399 0.0002011111 -0.0001270367 0.0003186159 5.09361e-05 -0.0445475612 0.8424073216
755295470.0 -0.0010895724 -0.1098505908 0.0004898095 7.2013e-06 0.0002761032 -0.0001341172 -0.0367976386 0.8429086577
760295440.0 -0.0026562913 -0.1093024749 0.000318097 -0.0002702831 0.000546908 -3.04104e-05 -0.0280631065 0.8430820056
765295410.0 -0.0036573646 -0.1093717883 0.0005189007 -7.97939e-05 0.0005017122 3.787e-06 -0.0193994521 0.8431774763
770295380.0 -0.005312976 -0.1086062282 0.0004284811 3.33308e-05 0.0004142553 -5.12424e-05 -0.0114616962 0.84301494
775295350.0 -0.0067057004 -0.1082972216 0.0004740613 4.25853e-05 0.0004149301 -9.79204e-05 -0.0032519175 0.84283531
780295320.0 -0.0080361008 -0.1079902299 0.0003777495 -0.0001835454 0.0003226244 -0.0001190411 0.0056439385 0.8433541781
785295290.0 -0.0094856077 -0.1074770871 0.0006423703 -0.0002923456 0.0006157078 4.31836e-05 0.0133233901 0.8435666482
790295260.0 -0.0111291149 -0.107315168 7.51028e-05 -3.46741e-05 0.0002941505 9.13709e-05 0.0219258545 0.8429974936
795295230.0 -0.0125861958 -0.1069116428 0.0005565314 -0.0001099608 0.0003236475 -0.0001971262 0.0302867771 0.842250362
800295200.0 -0.0143419081 -0.1064515018 0.0004774644 6.75179e-05 0.0002653766 -2.78931e-05 0.0386993225 0.8420690554
805295170.0 -0.0155551521 -0.1058661277 0.0004418107 -0.0003030717 0.0002394208 -6.11914e-05 0.0477709543 0.8416947751
810295140.0 -0.016566473 -0.1052556385 0.0004256438 -2.07969e-05 0.0004948218 -0.0001191095 0.0557934769 0.8405875765
815295110.0 -0.0184261306 -0.1048745589 0.0002684453 0.0001055059 0.000508927 4.63183e-05 0.0635440801 0.8412737649
820295080.0 -0.0198321224 -0.1045262735 0.0004239208 3.20315e-05 0.0003790514 -0.0001208395 0.0716301589 0.8402529641
825295050.0 -0.0214171918 -0.104172463 0.0003278217 1.7574e-06 0.0004588393 7.12401e-05 0.0802194318 0.8393317485
830295020.0 -0.022400612 -0.1037005361 0.0006470589 -0.0002749303 0.0002133032 -0.0001692826 0.0882089808 0.8379548334
835294990.0 -0.0239729804 -0.1034174678 0.0002136324 -0.0002953718 0.0005214994 -0.0001706402 0.096668985 0.8377908465
840294960.0 -0.0252268621 -0.1027903334 0.0002613676 -5.89645e-05 0.0004173346 -0.0001110765 0.105338311 0.836912396
845294930.0 -0.0267538944 -0.1021496346 0.0005829821 -0.0004676547 0.0003147203 -5.0393e-05 0.113821435 0.8353709172
850294900.0 -0.0277883109 -0.101866244 0.000149085 -0.0001442404 0.00041983 -6.43496e-05 0.1217177255 0.8344924917
