!Created with skrf (http://scikit-rf.org).
# Hz S RI R 50.0 
!freq ReS11 ImS11 ReS21 ImS21 ReS12 ImS12 ReS22 ImS22
300000.0 -0.7789144207 -0.1274792067 -0.0004944222 0.0002721856 -2.27785e-05 1.36505e-05 0.8598106364 -0.002978966
5299970.0 -0.7851633004 -0.0070179002 2.3225e-06 -0.0001718143 -5.24248e-05 5.0648e-06 0.8593119615 -0.009894048
10299940.0 -0.7881299039 -0.0048593445 -8.5871e-06 0.0001041465 5.30383e-05 6.76988e-05 0.8583211912 -0.0190819161
15299910.0 -0.7934835918 -0.0024872071 0.0001015507 -1.25315e-05 0.0001234063 -8.0238e-05 0.8575642367 -0.0275778741
20299880.0 -0.7999694261 0.0018964127 1.02092e-05 0.0001049082 -0.0001236851 7.86499e-05 0.8568257919 -0.0357382992
25299850.0 -0.8064827005 0.0073517572 -3.46208e-05 -0.0001205967 5.0192e-06 1.52032e-05 0.8565227142 -0.0434161519
30299820.0 -0.812335102 0.0150660006 -2.76134e-05 0.0001332148 0.0001524064 -6.00565e-05 0.8554443677 -0.051442297
35299790.0 -0.8167686627 0.024948761 4.72948e-05 -1.39762e-05 -6.04631e-05 -3.18805e-05 0.854741787 -0.0596580669
40299760.0 -0.8216758206 0.0333053835 1.8439e-06 9.93031e-05 1.6766e-05 -0.0002340815 0.853518399 -0.0679204156
45299730.0 -0.8243124231 0.0425001421 4.53716e-05 -0.0001342822 8.68393e-05 -6.17261e-05 0.8523006847 -0.0760810524
50299700.0 -0.8271569533 0.0527379541 0.0001733902 8.65782e-05 -8.33009e-05 -4.6627e-05 0.8518246445 -0.0845564832
55299670.0 -0.8293016288 0.0632752422 7.6818e-06 6.26451e-05 -5.48471e-05 0.0001388914 0.8508271476 -0.092761952
60299640.0 -0.8303943309 0.073081945 1.27151e-05 0.0001305402 5.68626e-05 0.0001279429 0.849745334 -0.1010482817
65299610.0 -0.8311358528 0.0832522983 -4.07555e-05 -0.0001337538 -0.0001241622 4.99041e-05 0.848912268 -0.1087690687
70299580.0 -0.8313699287 0.0930322762 -0.0002329051 -8.2762e-06 2.73198e-05 -0.0002150468 0.8472678913 -0.1173145043
75299550.0 -0.8315501213 0.1038378309 -0.0001347892 7.62603e-05 0.0001078191 0.0001154708 0.8459605797 -0.1257665305
80299520.0 -0.8317619374 0.1133439649 -8.5862e-06 8.41198e-05 -0.0001440494 3.21035e-05 0.8446975101 -0.133657423
85299490.0 -0.8311671144 0.1222223143 -1.6678e-05 7.33632e-05 -7.5725e-05 -0.0001208727 0.8438619973 -0.1421933723
90299460.0 -0.8298279491 0.1325275848 7.66465e-05 8.04e-07 -7.69714e-05 -5.37841e-05 0.8419734797 -0.1498820221
95299430.0 -0.8290724958 0.1417663114 -7.31044e-05 0.0001642581 -8.2017e-06 2.64979e-05 0.8399247888 -0.1581442904
100299400.0 -0.8281765112 0.1508981837 9.37139e-05 0.000111295 1.63853e-05 6.84741e-05 0.838733394 -0.166860231
105299370.0 -0.8272869103 0.1602867811 -0.000181396 -0.0001796437 -1.15736e-05 1.24914e-05 0.8374833363 -0.1745763527
110299340.0 -0.8247394641 0.1693673108 -0.0001318634 -0.0002189427 4.90407e-05 -9.48462e-05 0.8357881525 -0.1828822702
115299310.0 -0.8242212599 0.1786056165 0.0001582298 5.38774e-05 7.19652e-05 0.0001310315 0.8341229331 -0.190832158
120299280.0 -0.8220904301 0.1864274704 -5.11322e-05 3.2317e-06 -1.99548e-05 0.0001632923 0.8323099082 -0.1990468977
125299250.0 -0.820397324 0.1961442123 -0.0002690462 -2.2103e-05 0.0002364309 3.449e-07 0.8308185545 -0.2068133592
130299220.0 -0.8185846852 0.2054759759 -0.0001632669 -0.0001100162 -0.0002468595 0.0001437441 0.8286016109 -0.2149109008
135299190.0 -0.8169140539 0.2138069942 -0.0001247956 3.40224e-05 3.97634e-05 -9.37478e-05 0.8265902644 -0.2223937301
140299160.0 -0.8146404167 0.2231676058 -0.0001446415 1.98282e-05 -0.0001701466 -5.27116e-05 0.824417326 -0.2308054702
145299130.0 -0.8126459065 0.2325350658 -0.000207839 -6.50826e-05 6.1521e-06 0.0001019693 0.822084903 -0.2387565646
150299100.0 -0.8099594777 0.2407938186 0.0001145222 -4.77562e-05 -3.97565e-05 1.6524e-05 0.8199443333 -0.2473423207
155299070.0 -0.8077526773 0.2499004545 -2.84488e-05 0.0001154228 7.34047e-05 0.0001201779 0.8174893523 -0.2548550316
160299040.0 -0.8050440846 0.2582052838 0.0001004171 0.0001251473 0.0001139615 -3.2556e-05 0.8143450457 -0.2623407388
165299010.0 -0.8031411227 0.2669190734 -2.8779e-06 6.40237e-05 5.89198e-05 1.02751e-05 0.8117667947 -0.2701356411
170298980.0 -0.8002721651 0.2755294372 1.50551e-05 -3.8287e-06 -0.0001369418 -1.09785e-05 0.8095520671 -0.2780343702
175298950.0 -0.7973485325 0.2844303182 -0.0001378266 1.72225e-05 4.89356e-05 -0.0001158788 0.8067168005 -0.2861655402
180298920.0 -0.7941872943 0.2925866617 -7.07546e-05 -8.77395e-05 -8.9387e-06 -1.044e-05 0.8037129386 -0.2945747114
185298890.0 -0.7908811038 0.300567607 -6.88696e-05 0.00019167 -0.0001133657 -5.41816e-05 0.8011290015 -0.3015993607
190298860.0 -0.788389639 0.3094305148 -2.3444e-05 1.10203e-05 0.0001309078 0.0001510214 0.7978552197 -0.3087361084
195298830.0 -0.7853289884 0.318178698 -5.76509e-05 -6.37751e-05 0.0001412583 -9.01885e-05 0.7946455399 -0.3168227642
200298800.0 -0.7814345345 0.3259622852 -4.60068e-05 -8.79917e-05 0.000112038 7.634e-05 0.791423034 -0.3245346614
205298770.0 -0.7783737557 0.334077584 9.0385e-05 4.38696e-05 0.0002586574 0.0001490076 0.7879742995 -0.33210547
210298740.0 -0.7748732355 0.3424275502 -0.0001076165 -9.7257e-06 0.0001335602 0.0001614904 0.7843943155 -0.3392630389
215298710.0 -0.7717492436 0.3505172309 6.70015e-05 -6.24183e-05 -4.82948e-05 8.51834e-05 0.7812838486 -0.3471629532
220298680.0 -0.7672431408 0.3586700451 -9.6955e-06 -0.0001092497 -0.0001673838 -0.0001367505 0.7773245985 -0.3545560385
225298650.0 -0.7640690776 0.3665366359 -0.0001135039 6.00145e-05 0.0002536668 4.65335e-05 0.77362945 -0.362074224
230298620.0 -0.7604143009 0.3749634646 -0.0001751231 7.42362e-05 1.2621e-06 -0.000154081 0.7707073657 -0.3691636483
235298590.0 -0.7567900942 0.3822450566 0.0001027163 -4.18136e-05 -5.9837e-06 8.34462e-05 0.7663451513 -0.3768577667
240298560.0 -0.7525288696 0.3914011999 -0.0001919683 3.6174e-05 -1.3514e-05 0.0001284524 0.7629044294 -0.3843648187
245298530.0 -0.7485618583 0.3990171727 0.000126669 0.0003080321 -0.000260185 0.0001048134 0.7594189768 -0.392056137
250298500.0 -0.743695198 0.4072056385 -0.0001481284 -0.0002177314 -0.0001568747 6.7956e-06 0.7550252683 -0.3992687841
255298470.0 -0.7396505416 0.4137092677 -5.72178e-05 8.6485e-05 -0.0001231416 9.04372e-05 0.7517991377 -0.4068949937
260298440.0 -0.7351765684 0.4212851329 -0.0001032488 -0.0003283915 0.0001812846 -4.97993e-05 0.7474236782 -0.4134782407
265298410.0 -0.7315308904 0.42989558 -0.0002119546 0.0002934114 2.0722e-05 -6.84211e-05 0.7439390621 -0.4211934703
270298380.0 -0.7271211388 0.4374890175 -7.63788e-05 -1.36709e-05 -7.577e-07 -5.59287e-05 0.7397202796 -0.4280304236
275298350.0 -0.7222143904 0.4448565342 0.0001098931 5.71262e-05 -6.90794e-05 0.0001781773 0.7355815429 -0.4354072426
280298320.0 -0.7170476353 0.4526788524 6.92017e-05 0.0001715884 3.61726e-05 1.79535e-05 0.7316861151 -0.4429739406
285298290.0 -0.7128622402 0.4600470055 -4.14817e-05 0.0002037337 -6.5124e-05 -5.03046e-05 0.7274511998 -0.4499377603
290298260.0 -0.7077883906 0.4675909967 7.98898e-05 -1.74577e-05 -7.4084e-05 -0.0001503146 0.7238557365 -0.4568340779
295298230.0 -0.7026095229 0.4739007828 0.0001516901 -9.54395e-05 0.0001196999 -3.35046e-05 0.719476967 -0.4643855209
300298200.0 -0.6980822906 0.4816903117 -0.0001017928 -0.0001502939 -0.0001528617 -9.29542e-05 0.7150671679 -0.4711869288
305298170.0 -0.6929480053 0.4878636396 3.18714e-05 -3.58722e-05 -7.19295e-05 0.0003033281 0.7116417508 -0.4791858613
310298140.0 -0.6873433567 0.4963522717 2.17991e-05 -0.0002318786 0.0001164217 3.51776e-05 0.7061258241 -0.4872977469
315298110.0 -0.6831282136 0.5031015818 -0.0001254317 -0.0001758977 -0.000231058 0.0001917398 0.700999941 -0.4944171426
320298080.0 -0.6773144604 0.5100477519 3.79786e-05 -3.89479e-05 8.407e-06 -8.86192e-05 0.6957319613 -0.5016882488
325298050.0 -0.6718244452 0.5173287632 -5.56696e-05 -3.2964e-06 0.0002540495 -2.8284e-06 0.6907948747 -0.508766306
330298020.0 -0.666672161 0.5241986542 -9.63224e-05 9.3792e-05 2.0429e-06 -0.0001743032 0.6839880405 -0.5152886644
335297990.0 -0.6608364563 0.530744999 3.09708e-05 9.163e-06 8.34039e-05 -0.0001612044 0.6787674983 -0.5209548735
340297960.0 -0.6558070785 0.537617774 4.60804e-05 6.65821e-05 -9.07544e-05 4.47397e-05 0.6739379274 -0.5276047448
345297930.0 -0.6504700471 0.5439773927 -0.0002669775 -8.8353e-06 -5.87587e-05 -0.0001120095 0.6679013122 -0.5340446632
350297900.0 -0.6448718063 0.5509097417 -0.0002264113 -2.31405e-05 -0.0001665054 4.6816e-06 0.6615902787 -0.5392350424
355297870.0 -0.6380054296 0.5583958531 0.0001969219 -7.69905e-05 -2.26536e-05 -7.37556e-05 0.6570805334 -0.5461436714
360297840.0 -0.6325167256 0.5636425974 0.0002140868 -0.0001651976 3.49154e-05 -6.33972e-05 0.6518176486 -0.5525635776
365297810.0 -0.6272750561 0.5702659876 0.0001816715 9.37135e-05 -1.78478e-05 6.5286e-06 0.6457884345 -0.5585955835
370297780.0 -0.621152714 0.5765211231 1.63389e-05 1.92916e-05 -0.00011374 3.28567e-05 0.6405233186 -0.5639861501
375297750.0 -0.6146575768 0.5830879399 0.0002687308 0.0001312216 8.01632e-05 4.44764e-05 0.6343309972 -0.5704556032
380297720.0 -0.6085643582 0.5891184945 -0.0001720995 0.0001102886 -3.78881e-05 0.0001048952 0.6281358294 -0.5763775338
385297690.0 -0.6032780216 0.5950155049 -9.55291e-05 -0.0001253511 5.99372e-05 5.3756e-05 0.6231702864 -0.5818726763
390297660.0 -0.5968924624 0.6014062409 -2.84821e-05 3.57124e-05 -0.000135229 -0.0001101086 0.616741896 -0.587716778
395297630.0 -0.5899843701 0.6081713732 0.0001031598 -0.0002777374 7.34176e-05 -0.0001973495 0.6113321097 -0.5938511106
400297600.0 -0.5840826836 0.6140461818 -0.0001068535 -0.0002133762 0.0001160766 -0.0002041196 0.6054171026 -0.5992109209
405297570.0 -0.5780046962 0.6192906958 -0.0001945869 -8.09304e-05 5.81689e-05 -5.74572e-05 0.5993252719 -0.605843301
410297540.0 -0.571083419 0.6256532625 -0.0002388546 -0.0001873217 -2.11651e-05 3.49822e-05 0.5934852145 -0.6112434523
415297510.0 -0.5646850389 0.6310940603 -9.88179e-05 0.0002699894 0.0001946664 3.69375e-05 0.5872942815 -0.6171614825
420297480.0 -0.5594191495 0.6369583664 1.2303e-06 -3.24736e-05 -5.5332e-06 -0.0001142901 0.5817040543 -0.6225473492
425297450.0 -0.5523089601 0.642513254 -0.0001627735 6.75516e-05 -5.64043e-05 -8.40661e-05 0.575243404 -0.6285365194
430297420.0 -0.5454926938 0.64801226 5.51093e-05 -0.0001404265 -1.53181e-05 -0.0001009636 0.5692340648 -0.6343704828
435297390.0 -0.5385242081 0.6531421376 0.000137205 4.63773e-05 0.0001374269 -4.01532e-05 0.5624976435 -0.6396846383
440297360.0 -0.5319159579 0.6590485579 2.9615e-05 0.0002081901 -0.0001954655 0.0001129687 0.5559560995 -0.6445555289
445297330.0 -0.5248415927 0.6643439197 -0.0003081046 0.0001128192 -0.0001361493 4.8166e-05 0.5505820581 -0.6512403593
450297300.0 -0.5184707548 0.6693371776 5.18327e-05 9.7198e-06 4.69345e-05 9.0111e-05 0.5439358968 -0.6553994368
455297270.0 -0.5118161277 0.6744813563 -0.0001046678 2.15767e-05 4.02332e-05 -4.81748e-05 0.5375900912 -0.6606588186
460297240.0 -0.5053720431 0.6794486222 -3.98764e-05 -9.26948e-05 -2.00326e-05 -8.64746e-05 0.5310462961 -0.6667144196
465297210.0 -0.4976984504 0.6849867056 0.0001331114 1.27208e-05 4.43368e-05 -0.0002086634 0.5243499238 -0.671208243
470297180.0 -0.4901878276 0.6893761313 -9.84467e-05 4.68832e-05 0.0001142046 -0.0002950251 0.5174529462 -0.6770868387
475297150.0 -0.4834173339 0.6946144567 4.48142e-05 5.30851e-05 -0.0001672691 1.70369e-05 0.5106450699 -0.6815729629
480297120.0 -0.4764729543 0.6994964311 3.6675e-05 -1.9545e-06 -3.4873e-05 -0.0001316384 0.5048477015 -0.6859360858
485297090.0 -0.4691730919 0.7045113627 7.68537e-05 -0.0001117428 -2.9324e-06 -2.56051e-05 0.4979250192 -0.6905119274
490297060.0 -0.4625058672 0.7089040951 0.0001072341 -1.52327e-05 2.40938e-05 7.5624e-05 0.4911141561 -0.6961459373
495297030.0 -0.4553609335 0.7128056674 2.63635e-05 8.06175e-05 5.9046e-06 -4.46155e-05 0.4839326537 -0.7002370739
500297000.0 -0.4475705611 0.7184698698 -0.0001006845 -4.80093e-05 -0.0001588903 -3.09647e-05 0.4768967146 -0.7052640214
505296970.0 -0.4399667361 0.7226504308 9.44432e-05 -0.0001311796 -8.00463e-05 1.22279e-05 0.470295051 -0.7092465209
510296940.0 -0.4328892065 0.7264695563 4.64184e-05 -3.2501e-06 -0.0001380559 5.7409e-05 0.4633144059 -0.7142623565
515296910.0 -0.4245975196 0.7307363009 -1.17e-08 4.21012e-05 0.0001269468 3.73344e-05 0.4562785799 -0.7179246307
520296880.0 -0.4182153211 0.7350798919 -0.0002016809 4.85287e-05 0.0001551999 7.80104e-05 0.4489669475 -0.7229753384
525296850.0 -0.4101200983 0.7390507419 -0.0001609113 -4.33752e-05 -4.01772e-05 6.77568e-05 0.4420137015 -0.7262490038
530296820.0 -0.4022024196 0.7437421117 -0.0001129782 -0.0001062295 -9.80985e-05 1.32105e-05 0.4351580263 -0.7309405781
535296790.0 -0.3957274618 0.7472940125 -6.70884e-05 0.0001858676 7.7563e-06 0.0001152759 0.4269224505 -0.735205471
540296760.0 -0.3881688332 0.7505686145 -3.8841e-05 -6.29377e-05 -3.47175e-05 -7.28702e-05 0.4198355385 -0.7386939831
545296730.0 -0.3807349508 0.754898421 -0.0001555158 0.0001711548 0.0001041917 -0.000281332 0.4125252376 -0.7433008345
550296700.0 -0.3734441171 0.7592038587 0.0001182662 -2.18387e-05 -0.0001372949 9.97366e-05 0.4049648174 -0.7475647652
555296670.0 -0.3649382035 0.7617153231 0.0001017267 -0.0002088622 6.16429e-05 0.0002532257 0.3976909867 -0.7506504504
560296640.0 -0.3570320122 0.7661854188 -0.0002322702 -0.000138044 6.79274e-05 2.47707e-05 0.3902893781 -0.7540337431
565296610.0 -0.3501756295 0.769785658 0.0001366684 -2.89908e-05 -8.3099e-05 0.0002134704 0.3823078657 -0.7578036493
570296580.0 -0.3426204932 0.7722715974 -6.80038e-05 -0.0001648548 -7.26578e-05 -1.27621e-05 0.3749240639 -0.7616071931
575296550.0 -0.3344271271 0.7764613349 -0.0001029916 -3.94966e-05 0.0001012111 0.0001995217 0.3676411353 -0.7646235218
580296520.0 -0.3264817282 0.7795082409 0.0001844654 -8.49145e-05 0.0001218307 0.0003500177 0.3598133126 -0.7690442936
585296490.0 -0.3183104445 0.7824657774 8.0825e-06 7.38974e-05 0.0002126451 -9.42595e-05 0.3530908484 -0.7725482535
590296460.0 -0.3105642418 0.7859653993 6.50764e-05 5.79192e-05 7.20248e-05 -1.31603e-05 0.3442376596 -0.7748036215
595296430.0 -0.3030905489 0.7884133583 3.6887e-05 -0.0001427349 -5.2596e-05 -0.0002158414 0.3373587958 -0.7783565852
600296400.0 -0.2947728033 0.7921830385 -4.0521e-05 -0.0002196785 0.0001101751 -0.0001309329 0.3301785559 -0.7824344587
605296370.0 -0.2876971651 0.7943170615 0.0001884856 -0.0001967383 4.97455e-05 -0.0001620204 0.321590991 -0.7851787217
610296340.0 -0.2789162558 0.7975692309 0.000150092 0.0001441686 5.94339e-05 8.62924e-05 0.3138566855 -0.7881670011
615296310.0 -0.2702878434 0.8000202422 -8.8911e-06 -0.0001087304 9.2663e-05 -0.0002580478 0.3058228933 -0.7914365037
620296280.0 -0.2626960498 0.801837707 -5.26032e-05 -2.48556e-05 7.18198e-05 7.25721e-05 0.2988325341 -0.7946316154
625296250.0 -0.2551931215 0.8055380327 -2.09641e-05 3.12138e-05 4.82038e-05 -0.0001754945 0.2915022181 -0.7973238754
630296220.0 -0.2461084308 0.8076584475 -6.4903e-06 -8.70409e-05 -0.0002293044 -0.0001063659 0.2824098446 -0.7999044216
635296190.0 -0.2384312443 0.810434283 -0.0002996165 -0.0001648186 -1.73236e-05 2.79883e-05 0.275432181 -0.8022860721
640296160.0 -0.2310949173 0.8127135473 -0.0001316053 0.000108458 5.43504e-05 -2.66345e-05 0.2665659481 -0.8048103793
645296130.0 -0.222607553 0.8153470873 1.21989e-05 -0.0001114286 9.16557e-05 0.0002761136 0.2595512303 -0.8072294535
650296100.0 -0.2145437407 0.8167846334 9.60383e-05 -0.0001845301 7.4246e-05 8.6031e-05 0.2514442027 -0.8107669288
655296070.0 -0.2062155893 0.8189347738 -4.54121e-05 -8.91283e-05 1.68022e-05 1.43134e-05 0.2439673216 -0.8122738111
660296040.0 -0.1975308866 0.8206411429 0.0001345439 -0.0002991767 -2.03408e-05 8.25287e-05 0.2358155783 -0.8152074893
665296010.0 -0.1892932438 0.8225880617 3.78411e-05 0.0001280072 -0.0002408964 -8.01985e-05 0.2272934916 -0.8167000566
670295980.0 -0.1818007474 0.8246359368 -4.73373e-05 0.0002290959 2.25631e-05 1.16926e-05 0.2189861832 -0.8193009909
675295950.0 -0.1732749007 0.8262840971 -1.85864e-05 -9.95598e-05 -0.0001092711 -0.0001245091 0.2110650503 -0.8204320439
680295920.0 -0.1649371023 0.8279333831 3.39643e-05 0.0001186675 -4.67854e-05 4.83926e-05 0.2030362394 -0.8221113164
685295890.0 -0.1562410525 0.8299063839 -0.0001183489 0.0002133628 -0.0002594183 5.38767e-05 0.1952195201 -0.8238685953
690295860.0 -0.1489980234 0.8307726778 9.51527e-05 0.0001401743 -6.8251e-05 -4.93078e-05 0.1862857641 -0.8254164186
695295830.0 -0.1404630755 0.8321895173 0.0002003341 6.11932e-05 -0.0001230266 -8.46715e-05 0.1782499792 -0.8271878867
700295800.0 -0.1317152089 0.8339742665 -2.25914e-05 -7.10909e-05 -1.10399e-05 -6.633e-06 0.1700596643 -0.8292301012
705295770.0 -0.1242055592 0.8355870119 -8.03003e-05 -5.97087e-05 3.57043e-05 3.5465e-05 0.1615500209 -0.829398467
710295740.0 -0.1157994076 0.8365570074 2.02317e-05 7.49446e-05 6.39719e-05 2.24185e-05 0.1534391266 -0.8316612355
715295710.0 -0.1074974897 0.8371431639 -0.000221924 4.73855e-05 -0.0001083375 -0.0002045647 0.1453956785 -0.8331224928
720295680.0 -0.0995247327 0.8383365757 -6.71599e-05 0.0002207985 6.66135e-05 -5.14469e-05 0.1369673777 -0.8342066147
725295650.0 -0.0908485343 0.8397285698 -7.86985e-05 0.0001157644 -9.57263e-05 0.0001243535 0.1281885375 -0.8348468265
730295620.0 -0.0824233913 0.8401701519 6.57774e-05 9.9803e-06 0.0001237881 -9.93316e-05 0.119800461 -0.8361557833
735295590.0 -0.0748438877 0.8407609366 -0.0002291556 1.6587e-05 2.66924e-05 5.3044e-05 0.1116854192 -0.8380806105
740295560.0 -0.0657287459 0.8420470127 -4.4565e-05 -2.01405e-05 -0.0001305631 -0.0001655089 0.1034935464 -0.8380070464
745295530.0 -0.0576113663 0.8427772754 0.0001466576 5.46187e-05 3.81424e-05 -6.39792e-05 0.0956903289 -0.8389554414
750295500.0 -0.0486800637 0.8428231302 -0.0001548662 0.0001110127 0.0001401719 -0.0003938548 0.0875243718 -0.8398414718
755295470.0 -0.0409960515 0.8438590972 -0.0002669181 0.0001588747 -3.24372e-05 1.77061e-05 0.0793538411 -0.8413179258
760295440.0 -0.0323540319 0.843275901 -8.73951e-05 -1.50711e-05 -5.14541e-05 -4.53572e-05 0.0708265019 -0.8416430566
765295410.0 -0.0240315538 0.8437506766 0.0002151585 4.263e-06 -7.07054e-05 -3.43976e-05 0.0624222504 -0.8417619594
770295380.0 -0.0158264991 0.8442012888 0.0001279659 -4.85152e-05 -3.7134e-06 0.000196388 0.0534235937 -0.8429711229
775295350.0 -0.0072149764 0.8441444915 0.0001122066 -0.0002050124 2.2193e-06 -5.1751e-05 0.0446029739 -0.8427787004
780295320.0 0.0008669102 0.8443979713 -0.0001417403 -9.63787e-05 -0.0001369086 0.0001008599 0.0374280703 -0.8431646998
785295290.0 0.0089132545 0.8439733912 -3.51837e-05 -7.17143e-05 -1.94813e-05 -0.000115266 0.0292252238 -0.8438463016
790295260.0 0.0176886445 0.8436404264 -6.51243e-05 9.6661e-06 6.28851e-05 6.84039e-05 0.0215483985 -0.8439763001
795295230.0 0.0256822716 0.843536741 -0.0001008403 0.0001834068 -2.53276e-05 0.0001080929 0.0125889246 -0.843674262
800295200.0 0.0338029185 0.8432756029 0.000102677 6.59502e-05 6.79151e-05 9.55948e-05 0.0033253682 -0.8438102498
805295170.0 0.0427418602 0.8431705143 0.0001330545 -0.0001076925 -2.93438e-05 -0.0002408711 -0.0043495754 -0.8434953684
810295140.0 0.0512505946 0.8429161919 -4.24451e-05 6.03573e-05 -8.02743e-05 4.02918e-05 -0.0119301535 -0.8436607755
815295110.0 0.0593568782 0.8419662455 1.88879e-05 0.0001353765 -0.0001103182 -7.43259e-05 -0.0210127094 -0.8431706512
820295080.0 0.0675025568 0.8413272756 4.18707e-05 -1.75157e-05 1.71222e-05 -2.77411e-05 -0.0295647668 -0.8427697276
825295050.0 0.0765730209 0.8400957687 8.27009e-05 8.11994e-05 -2.75002e-05 0.0001425524 -0.0377447758 -0.8426400545
830295020.0 0.0840855374 0.840123879 0.0001205796 3.21879e-05 -3.13236e-05 -3.43859e-05 -0.0454051096 -0.8419233732
835294990.0 0.0922285467 0.8390251038 -0.0002816227 2.92729e-05 1.3943e-05 -0.000249006 -0.0543857667 -0.8409466404
840294960.0 0.1006174765 0.8386100958 -0.0001522083 9.82653e-05 -0.0003628834 -7.9145e-06 -0.0624876278 -0.8406036313
845294930.0 0.1084800489 0.8370562669 3.73372e-05 -0.0002237753 -1.87372e-05 -1.04028e-05 -0.0710073609 -0.8392259671
