!Created with skrf (http://scikit-rf.org).
# Hz S RI R 50.0 
!freq ReS11 ImS11 ReS21 ImS21 ReS12 ImS12 ReS22 ImS22
300000.0 -0.769914406 -0.1475164821 -0.0005073289 -0.0007468774 -0.0003877118 0.0006530905 -0.0471678834 -0.0696573029
5299970.0 -0.7854177664 -0.0074177856 7.46504e-05 -3.73747e-05 -3.68731e-05 8.64394e-05 -0.0484164954 0.0143540314
10299940.0 -0.7873521477 -0.0042950006 -0.0001826759 0.000142588 1.13233e-05 0.000161923 -0.0431001885 0.0314751152
15299910.0 -0.793360477 -0.0014505832 -0.0001186694 -2.4725e-06 0.000225049 -8.47294e-05 -0.0344759236 0.0454830097
20299880.0 -0.7998573372 0.0025424735 2.2947e-05 6.02526e-05 -2.55696e-05 1.644e-05 -0.0247223251 0.0568812016
25299850.0 -0.8067808451 0.0082569044 0.0002733149 0.0001259456 0.0001062279 -0.0001726152 -0.0140083255 0.0661356505
30299820.0 -0.8116369711 0.0163409113 -0.0001417778 0.0001435911 -2.9173e-05 -7.92944e-05 -0.0030366085 0.0725554394
35299790.0 -0.8169559775 0.025351036 2.74474e-05 -0.0001447106 -0.0001305192 0.0001960053 0.00810798 0.0772200751
40299760.0 -0.8213459883 0.0339874356 -2.82162e-05 -0.0001626676 7.41696e-05 5.76336e-05 0.019369756 0.0798367955
45299730.0 -0.8250033384 0.0441708794 0.0001849848 0.0001419217 0.0002908934 0.0001290544 0.0294308221 0.0813186901
50299700.0 -0.826859036 0.0537456549 -4.94888e-05 -4.8015e-05 -0.0001493776 -2.98664e-05 0.039785713 0.081313019
55299670.0 -0.8286626053 0.0641246995 -0.000119304 4.46258e-05 5.44331e-05 -4.27509e-05 0.0486922427 0.0802096977
60299640.0 -0.8299501267 0.0745504239 4.98074e-05 0.0002202857 8.23536e-05 6.9993e-06 0.0569223945 0.0784987609
65299610.0 -0.8308331898 0.0847428064 -3.3181e-05 7.842e-06 0.0001593963 -4.34177e-05 0.0642839804 0.076420983
70299580.0 -0.8315120977 0.0947189362 0.0002883097 0.0001148389 8.80299e-05 0.0001147042 0.0713455567 0.0729804099
75299550.0 -0.8317900218 0.1050469772 0.0001599229 0.0002334802 0.0001749904 7.66344e-05 0.0777320785 0.0700347575
80299520.0 -0.8312759689 0.114656138 -8.54264e-05 6.846e-07 -7.24613e-05 0.0001278976 0.0827329068 0.0665183759
85299490.0 -0.8305603931 0.1241528453 -8.49447e-05 -0.0001095328 -3.66602e-05 0.0001730954 0.0875980957 0.0624608122
90299460.0 -0.829836637 0.134139104 7.72062e-05 -4.4972e-05 4.43437e-05 -6.56781e-05 0.0926726678 0.0587901458
95299430.0 -0.828714683 0.1435402257 9.47773e-05 -2.98944e-05 0.0001397367 8.61145e-05 0.0962575397 0.054769761
100299400.0 -0.8279133166 0.1532388077 1.85957e-05 9.36565e-05 -5.88767e-05 8.71147e-05 0.0998425091 0.0508654941
105299370.0 -0.8264291893 0.1619647637 5.01079e-05 0.0001805004 -6.2989e-05 7.62882e-05 0.103073063 0.0467957943
110299340.0 -0.8254261919 0.1710416266 0.0001372055 4.76974e-05 6.59189e-05 -5.9499e-06 0.1056473363 0.0430612838
115299310.0 -0.8237068537 0.1807125892 0.0001408765 2.0227e-05 -0.0001091528 0.0001125878 0.1080624432 0.0388293173
120299280.0 -0.8218292843 0.1894516551 -0.0001075683 -6.48576e-05 3.90673e-05 -0.0001474996 0.1103054084 0.0350289191
125299250.0 -0.8204325283 0.1989083591 3.47494e-05 4.11801e-05 -3.60084e-05 -2.01193e-05 0.1123470831 0.0309233754
130299220.0 -0.818416011 0.2073969127 2.63828e-05 0.0001586394 -0.0001154531 -2.70547e-05 0.1137938106 0.0275481073
135299190.0 -0.8165313038 0.2167028846 0.0001265717 -0.0001134872 1.99342e-05 0.0002394957 0.115180812 0.0237584305
140299160.0 -0.8143572485 0.2258494217 -2.8199e-06 -3.1044e-05 -6.41314e-05 1.17736e-05 0.1166347108 0.0196684845
145299130.0 -0.8121471749 0.2343887375 -8.45332e-05 -4.25946e-05 7.4689e-06 6.89091e-05 0.1172099291 0.0165114824
150299100.0 -0.8098815228 0.2430120732 -6.20338e-05 0.0001394397 -3.57874e-05 8.70111e-05 0.117830328 0.0129655372
155299070.0 -0.8075281518 0.2527352008 8.66942e-05 4.4125e-05 2.41709e-05 9.02582e-05 0.1188430636 0.009380628
160299040.0 -0.805115306 0.2609388978 4.39533e-05 8.4797e-05 3.95713e-05 -3.7129e-06 0.1196754608 0.0064596062
165299010.0 -0.802263883 0.2693824201 4.05513e-05 1.84981e-05 0.0001756814 -1.4565e-05 0.1197553345 0.0029520315
170298980.0 -0.7994381485 0.2780067716 3.5725e-05 -0.0001687136 -5.15214e-05 0.0001494208 0.120446612 -0.0001458065
175298950.0 -0.7971563368 0.2869744604 2.5536e-05 0.0001879588 0.0001232337 3.56378e-05 0.1204377747 -0.0035113578
180298920.0 -0.7939442915 0.2944917435 1.23964e-05 9.89976e-05 6.54248e-05 3.6184e-06 0.1207337898 -0.0064053233
185298890.0 -0.79073847 0.3046103743 -2.41993e-05 0.0001309961 0.0001944771 5.31711e-05 0.1203875807 -0.0095513208
190298860.0 -0.7878186068 0.3126975455 -0.0002089055 -6.51609e-05 -5.15088e-05 -3.01527e-05 0.1207174768 -0.0122446132
195298830.0 -0.7840753577 0.3210306389 -9.29015e-05 6.74077e-05 3.14802e-05 9.20304e-05 0.1205400978 -0.0153185942
200298800.0 -0.781075326 0.3293175492 3.69179e-05 -0.0001406779 9.43416e-05 -0.0001311996 0.1205015485 -0.018058616
205298770.0 -0.7770689349 0.3376171191 -4.97444e-05 -1.93023e-05 5.40685e-05 4.55646e-05 0.1200311847 -0.0206562298
210298740.0 -0.7734985815 0.3456564105 1.46809e-05 6.07876e-05 8.9822e-05 0.0001683116 0.1196695663 -0.0235767032
215298710.0 -0.7701188352 0.3544814538 6.456e-05 -2.1737e-05 0.0002739267 0.0001762653 0.1190519426 -0.0257323633
220298680.0 -0.767245892 0.362462843 0.0001577566 -1.3187e-05 9.25396e-05 -6.56084e-05 0.1189316203 -0.028585906
225298650.0 -0.7625434005 0.3712767677 5.3799e-05 3.47154e-05 9.31992e-05 0.0001590434 0.1179048699 -0.0307165427
230298620.0 -0.758996803 0.37879192 0.0001267851 -4.80841e-05 -1.28171e-05 0.0001055438 0.1177545899 -0.033239355
235298590.0 -0.754516621 0.3872653513 6.16632e-05 0.0001995262 -5.10324e-05 -1.88763e-05 0.116936245 -0.035864608
240298560.0 -0.7510822501 0.3952416306 -9.55019e-05 7.92283e-05 -2.01702e-05 5.66259e-05 0.1165295845 -0.0377848524
245298530.0 -0.746298898 0.4030894106 5.42018e-05 -8.29411e-05 -3.46303e-05 -2.97109e-05 0.1159191347 -0.0400498683
250298500.0 -0.7426466452 0.4104141999 0.000201142 0.0001924563 0.0001653217 0.0001134662 0.115450684 -0.0420048995
255298470.0 -0.7378472402 0.4188479649 0.0001321628 9.74321e-05 0.0001012986 0.0001489824 0.1143101578 -0.0446001209
260298440.0 -0.7336559976 0.4262007296 0.0001908429 0.0001937212 7.63964e-05 0.0001157979 0.1139575096 -0.0464456854
265298410.0 -0.728900114 0.4344257302 5.37842e-05 6.63592e-05 0.0001302582 0.0001029688 0.1128021133 -0.0487406394
270298380.0 -0.7242014385 0.441906744 0.0001211017 5.162e-05 0.0001206515 4.84193e-05 0.112273971 -0.0508187913
275298350.0 -0.7191049385 0.4487873615 0.0003057146 -2.14954e-05 1.58017e-05 -0.0001177366 0.1115778407 -0.0524975489
280298320.0 -0.7151070121 0.4569315815 -5.28227e-05 4.35935e-05 0.0001001903 0.0001851969 0.1104318737 -0.0545294708
285298290.0 -0.7100910775 0.4644958157 -8.44113e-05 0.0001729899 -7.50835e-05 9.63575e-05 0.1095042462 -0.056142612
290298260.0 -0.7053944608 0.4719709713 0.0001929191 -8.42485e-05 -9.41158e-05 9.13574e-05 0.1087308581 -0.0582018673
295298230.0 -0.7005437358 0.4797971664 6.90775e-05 0.0001648604 -2.07605e-05 7.40843e-05 0.1076753043 -0.0599036186
300298200.0 -0.6946875037 0.4867714499 8.2573e-06 3.30267e-05 -4.17691e-05 -4.29727e-05 0.1067710015 -0.0614293874
305298170.0 -0.68988192 0.4941585357 0.0001479902 -0.0001192661 0.0002165987 1.66816e-05 0.1061811632 -0.0635106658
310298140.0 -0.684915732 0.5013560018 0.0001801553 2.58621e-05 3.49391e-05 -5.38799e-05 0.1052670667 -0.0652396228
315298110.0 -0.6798509285 0.5078259128 0.0001943354 6.24298e-05 0.0001549479 5.61969e-05 0.1040141657 -0.0670428036
320298080.0 -0.6743462697 0.5158481863 -5.86721e-05 0.0001886845 0.0001130704 0.0001020602 0.1029640954 -0.0688330501
325298050.0 -0.6684558903 0.5222282651 0.0001239569 0.0002409582 -5.16624e-05 -6.81803e-05 0.1017512679 -0.0707890216
330298020.0 -0.6626077897 0.5295936605 0.0001370014 0.0002763188 -1.6395e-06 -1.4178e-05 0.1004329968 -0.0725816204
335297990.0 -0.6571011588 0.5362330892 0.0001312353 5.45317e-05 5.09944e-05 2.43209e-05 0.0988622371 -0.0741484008
340297960.0 -0.6524826471 0.5427825685 0.0001320348 0.0001136162 9.5466e-06 0.0001999958 0.0976889031 -0.075582608
345297930.0 -0.6458052051 0.5490197801 -5.63418e-05 -4.44e-05 0.0003237344 7.68079e-05 0.0960941446 -0.0770478626
350297900.0 -0.639992692 0.5566523779 -1.4812e-05 -3.04575e-05 0.0002910956 5.948e-05 0.0950067554 -0.0780284175
355297870.0 -0.6348138141 0.5625654664 0.0002146673 -0.0002006944 0.0001290506 -0.0001755555 0.0937380586 -0.0793909899
360297840.0 -0.6283172386 0.5693529106 -2.43082e-05 -2.4743e-06 0.0001275346 -8.82036e-05 0.0922297117 -0.0806272081
365297810.0 -0.6223538771 0.5761459651 0.0001151924 -0.0001306585 7.26026e-05 0.0001366145 0.0906290395 -0.0819095941
370297780.0 -0.6161422837 0.5814870079 -1.85282e-05 9.4973e-06 8.85484e-05 0.0001508597 0.089341476 -0.083226265
375297750.0 -0.610389433 0.5886425632 9.92951e-05 7.69564e-05 9.20233e-05 0.0001215359 0.0878201817 -0.0840500868
380297720.0 -0.6043934318 0.5945143703 2.10744e-05 3.4799e-06 -0.0001783968 9.23583e-05 0.0866975123 -0.0852489807
385297690.0 -0.5977892042 0.6007854492 0.0001587886 1.09099e-05 1.7222e-05 -3.79648e-05 0.0850658362 -0.0858307941
390297660.0 -0.5916948657 0.6070816569 -2.11235e-05 6.70666e-05 -7.0228e-06 -2.15435e-05 0.0839680398 -0.0877974241
395297630.0 -0.5855823683 0.6134105195 0.0004730999 -8.1771e-06 0.0001220696 -3.23352e-05 0.0823082483 -0.0886014065
400297600.0 -0.5788739145 0.6190022292 0.0001545583 0.0001186742 9.96267e-05 6.06077e-05 0.0809440131 -0.0899741283
405297570.0 -0.572889649 0.6248593491 -0.0001506155 1.8288e-06 -0.0001156072 -7.96907e-05 0.0796350866 -0.090675879
410297540.0 -0.5656104732 0.6306490415 -4.35471e-05 8.1407e-05 0.0001323557 0.0001124805 0.077893221 -0.0918000034
415297510.0 -0.5591959691 0.6369720048 0.0002014215 0.0001064098 0.0001130533 9.63913e-05 0.0763187156 -0.0926758795
420297480.0 -0.551772543 0.6422708465 0.0003801099 -0.0001641737 9.84616e-05 -1.04191e-05 0.0748552989 -0.0935765519
425297450.0 -0.5453405953 0.647917376 0.0001349637 0.0002507274 7.93234e-05 0.0003115908 0.0736219795 -0.0947420748
430297420.0 -0.5392041339 0.6537459027 0.0001079368 -0.00013707 0.0002215655 4.88088e-05 0.0721099288 -0.0955800926
435297390.0 -0.5317545363 0.6588869066 0.0001124729 0.0001369768 -6.4931e-05 7.9378e-06 0.0706852918 -0.096280763
440297360.0 -0.5251210916 0.6646916716 5.639e-05 -0.0001675683 3.71091e-05 0.0003008853 0.0689171406 -0.0973943845
445297330.0 -0.518041741 0.6700096422 0.0001932043 2.67609e-05 8.36224e-05 8.24396e-05 0.0675501021 -0.0982901915
450297300.0 -0.5110767368 0.6747946557 8.4343e-06 -0.0001649456 0.000327198 2.18456e-05 0.0658452005 -0.0988709021
455297270.0 -0.503986618 0.6804713086 0.0001357892 -0.0001808796 -7.0719e-06 1.1759e-06 0.0643192102 -0.0996806373
460297240.0 -0.4974189878 0.6853078616 0.0003099247 6.91744e-05 5.01999e-05 -7.21823e-05 0.0631835046 -0.1002443332
465297210.0 -0.4897968164 0.6901460768 0.0001462985 -0.0002150915 0.0001978353 7.57988e-05 0.0611420775 -0.1013900471
470297180.0 -0.4828497712 0.6948008224 0.0001644188 -7.98521e-05 -2.02899e-05 -4.96331e-05 0.0591206845 -0.101867627
475297150.0 -0.4754999561 0.7003687714 0.0003286949 0.0003672125 -2.61628e-05 6.61162e-05 0.0580853953 -0.1026504797
480297120.0 -0.4687806348 0.7047199158 -0.0001299751 -0.0003472422 -3.14413e-05 5.3986e-05 0.0564322048 -0.1033639861
485297090.0 -0.4609499878 0.7094748721 -2.66174e-05 3.1863e-05 0.0001148222 -2.2012e-05 0.0546581869 -0.1039997307
490297060.0 -0.4539898595 0.7140802252 0.0003433782 2.01779e-05 5.91197e-05 3.74804e-05 0.0529771621 -0.1044929778
495297030.0 -0.446848349 0.7183782078 -2.21481e-05 0.0001414676 0.00010322 0.0003355444 0.051274419 -0.105475769
500297000.0 -0.4385034384 0.723358519 5.24128e-05 2.11055e-05 0.0001714541 0.0002000388 0.0495123345 -0.1058192514
505296970.0 -0.4312014309 0.7273101636 -9.48164e-05 -0.0001111099 0.000272009 -0.0001299961 0.0479771273 -0.1060198253
510296940.0 -0.4243151294 0.7319556349 -0.0001192769 -3.04178e-05 0.0002578059 -0.0001168628 0.0465505996 -0.1065887122
515296910.0 -0.4170704179 0.7362846389 0.0002382395 0.0002088345 0.0001995292 -5.99408e-05 0.044746022 -0.1072566076
520296880.0 -0.4087870317 0.7402287122 -0.0001421487 9.30572e-05 -1.97178e-05 -0.0001202358 0.0433414891 -0.1078557392
525296850.0 -0.4011110114 0.7445773386 0.0003541925 -0.0001236115 0.0002061157 0.000125021 0.0418008542 -0.1085479771
530296820.0 -0.3941360202 0.7482009364 -6.73296e-05 -9.67135e-05 7.1307e-06 0.0001030139 0.0396452849 -0.1091016256
535296790.0 -0.3859321584 0.752692057 2.65664e-05 1.42296e-05 4.01636e-05 3.72117e-05 0.0378903377 -0.1096576361
540296760.0 -0.3781024053 0.7562485043 0.0001622615 -5.16893e-05 0.0001217178 -3.6694e-05 0.0359927699 -0.1095178596
545296730.0 -0.3712760882 0.7598764998 8.27611e-05 2.36184e-05 -2.77151e-05 -9.55383e-05 0.0347301685 -0.1103513675
550296700.0 -0.36291571 0.7637625605 4.31877e-05 0.0002060805 9.11437e-05 0.0001104848 0.0331418844 -0.1104972198
555296670.0 -0.3540447284 0.7673621104 0.0004005492 9.80094e-05 -8.25314e-05 -9.29793e-05 0.0311629876 -0.1107311474
560296640.0 -0.3470637751 0.7703961208 0.0002480315 -9.2885e-05 0.0001679005 -0.0001439749 0.0296385721 -0.1111876261
565296610.0 -0.3390127958 0.7741820088 0.0001149633 4.5775e-05 0.0002976161 5.83992e-05 0.0279878746 -0.111502155
570296580.0 -0.3320590021 0.7777955434 7.90566e-05 -0.0001333583 -4.9876e-06 0.0001434707 0.0262884556 -0.1114869305
575296550.0 -0.3238453854 0.780803097 7.01062e-05 5.71545e-05 0.0003290564 -4.94223e-05 0.0247502116 -0.1117882055
580296520.0 -0.3158083295 0.7844107989 0.0002072707 -0.0001102941 -0.0001841023 -2.779e-07 0.0228894128 -0.1120505335
585296490.0 -0.3073232016 0.7865815223 -0.000122045 3.74174e-05 0.0001182595 6.7313e-06 0.0212536838 -0.1126963914
590296460.0 -0.2992172545 0.7903015807 0.000285597 7.10807e-05 6.68625e-05 2.65466e-05 0.0194572576 -0.1124350676
595296430.0 -0.2916152152 0.7936124753 0.0001496479 0.0001894268 0.0001292382 0.000211335 0.0176193026 -0.1126013704
600296400.0 -0.2832312771 0.7956974149 0.0001727767 -0.0001632895 -4.92685e-05 -0.0001653857 0.0160952542 -0.1125357459
605296370.0 -0.275630006 0.7993891905 0.0001109674 -5.85383e-05 0.0001705848 0.0001012917 0.0146518962 -0.1127915018
610296340.0 -0.2676970793 0.8016804824 0.0003040854 0.0001009382 0.0002329539 4.02801e-05 0.0124532721 -0.1127960128
615296310.0 -0.2592914685 0.8045071489 0.000191788 -0.0001015528 6.72963e-05 0.0001127594 0.0110095255 -0.1131110408
620296280.0 -0.2504621429 0.80612207 0.0001136698 0.0001720301 0.0001438224 3.88407e-05 0.0092318939 -0.1134134402
625296250.0 -0.2425709729 0.8093821204 0.0001429285 -0.0001912053 2.114e-06 0.0001783996 0.0076992179 -0.1128664589
630296220.0 -0.2341375501 0.8113218446 0.0002555981 1.63585e-05 0.0001799181 1.65755e-05 0.0059368402 -0.1127727416
635296190.0 -0.2260448859 0.8142543414 0.0002551946 -1.44037e-05 0.0003160175 -9.1092e-05 0.0041725574 -0.1130013779
640296160.0 -0.2179099581 0.8152860578 0.0001020488 1.27635e-05 7.44784e-05 -0.0001551842 0.0025349969 -0.1130220118
645296130.0 -0.2097551364 0.8183504609 0.0001477457 -8.52048e-05 0.0001853434 0.0001160223 0.0007089874 -0.1130062731
650296100.0 -0.2016565011 0.820770196 0.000123068 -2.75929e-05 0.0001751847 2.72465e-05 -0.0011701078 -0.1125464575
655296070.0 -0.19295038 0.8225246512 0.0001834558 -0.0001541807 0.0002166278 7.99127e-05 -0.0026696362 -0.1125035757
660296040.0 -0.1852598591 0.8243024666 0.000264496 0.0001399736 6.84408e-05 4.57192e-05 -0.0045548922 -0.1125107534
665296010.0 -0.1767166247 0.8263397179 -4.76438e-05 -3.98593e-05 0.0001727546 2.62559e-05 -0.0062306283 -0.1122092882
670295980.0 -0.1677711873 0.8274743301 0.0001353225 5.57991e-05 -3.10902e-05 2.49649e-05 -0.0075157801 -0.1119289892
675295950.0 -0.1599009277 0.8285169141 0.0001837694 -0.0001754127 -6.85131e-05 5.13611e-05 -0.0092326379 -0.1118121425
680295920.0 -0.1521518638 0.8304516516 9.90396e-05 -4.08222e-05 0.0002806362 1.59675e-05 -0.0110917921 -0.111542114
685295890.0 -0.1428805841 0.8320220427 0.00011215 -4.70242e-05 0.0001035201 2.59376e-05 -0.0126291427 -0.1113776931
690295860.0 -0.1344287431 0.8336983021 1.0746e-05 -6.84242e-05 0.0003127871 9.84953e-05 -0.0141381241 -0.1110321028
695295830.0 -0.1258496085 0.8345752775 6.60274e-05 -5.36443e-05 0.0001337411 -5.51588e-05 -0.0164074436 -0.1106878403
700295800.0 -0.117622652 0.8360115168 0.0001308799 -7.98682e-05 0.0001099178 1.21571e-05 -0.0179975286 -0.1104494384
705295770.0 -0.1091308416 0.8377244132 4.67311e-05 -8.925e-06 0.0002509028 0.0001237298 -0.0195224863 -0.1098985527
710295740.0 -0.1007342608 0.8387110776 0.000177267 0.0001294364 0.000175042 -8.9456e-05 -0.0214133661 -0.1093649229
715295710.0 -0.0927982049 0.8391228238 -0.0001173978 -0.0001454628 0.0001737528 7.09702e-05 -0.02277309 -0.1093374857
720295680.0 -0.0840924848 0.8392470625 -2.6552e-06 9.0716e-06 0.0003304262 -4.79496e-05 -0.0241234631 -0.1088970411
725295650.0 -0.0749552768 0.8410400145 9.67148e-05 1.50342e-05 0.0002307907 3.27655e-05 -0.0256144016 -0.1084784054
730295620.0 -0.0669636124 0.8410242067 3.53477e-05 -1.08402e-05 1.7898e-06 -8.70349e-05 -0.0275701769 -0.1079957429
735295590.0 -0.0583606381 0.8421010198 2.99431e-05 3.80204e-05 6.1e-05 0.0001561004 -0.029245942 -0.1075437759
740295560.0 -0.050327741 0.8429385248 0.0001250738 -0.0001981128 0.0001128425 -1.11228e-05 -0.030720567 -0.1074370989
745295530.0 -0.0413180459 0.8428963711 -7.8836e-06 6.14563e-05 0.0002052321 -9.41688e-05 -0.0325659813 -0.1064605755
750295500.0 -0.03349153 0.843026714 0.0001955414 -4.84751e-05 3.4939e-05 -0.0001678335 -0.0341626963 -0.106140057
755295470.0 -0.0243788805 0.8438859914 -8.12629e-05 -0.0002085062 0.0003548201 -0.0001224346 -0.0358230597 -0.1053414002
760295440.0 -0.0160358517 0.8436882611 -0.0001124147 -3.21198e-05 0.0001497422 -6.18755e-05 -0.0373445585 -0.104909875
765295410.0 -0.0080198779 0.8441135463 0.0002134918 -0.000159661 0.0001686619 -5.31001e-05 -0.0387772263 -0.1039930208
770295380.0 0.0006988344 0.8440970627 0.0001777162 7.1576e-06 0.0003350142 0.0001379661 -0.04005003 -0.1032763725
775295350.0 0.0090563286 0.8438615024 0.0002094154 5.01347e-05 7.23697e-05 0.0001018705 -0.0421583018 -0.103070986
780295320.0 0.0174191913 0.8431303956 0.0001924404 -0.0002149979 0.0001855014 -3.64382e-05 -0.0436029675 -0.1020439628
785295290.0 0.025890595 0.8438017271 -2.24162e-05 -1.45517e-05 0.0002800864 7.31e-07 -0.0450567249 -0.1015056856
790295260.0 0.0343609153 0.8428021324 -1.74803e-05 -0.0002461929 0.0003062068 5.92025e-05 -0.046532853 -0.1008152415
795295230.0 0.0432304151 0.8436179318 0.000154602 9.31873e-05 1.53859e-05 -1.9887e-05 -0.0480320082 -0.0999974472
800295200.0 0.0513314674 0.8428327867 6.9498e-06 -6.45891e-05 0.0001293724 6.32579e-05 -0.0494682838 -0.0993557102
805295170.0 0.0602036802 0.8421332833 0.0001086294 -0.0001934046 0.0001280706 -6.83951e-05 -0.051115329 -0.0982481449
810295140.0 0.0680428924 0.8416326365 0.0002883473 -0.0001735424 0.0002103267 2.68436e-05 -0.0522747793 -0.097403192
815295110.0 0.0770663738 0.8402507507 0.0001270746 8.9887e-06 0.0002352201 0.0001569341 -0.0540310627 -0.0968519465
820295080.0 0.0855318946 0.8393127263 0.0003266187 -0.0001760997 0.0001354738 9.8098e-06 -0.0557270663 -0.0961156716
825295050.0 0.0944691369 0.8385848378 0.0001222741 -0.0001840163 0.0004182651 2.322e-07 -0.0568267938 -0.0953157197
830295020.0 0.1027353282 0.8379872125 0.0003140533 -5.45273e-05 3.0823e-05 -3.76528e-05 -0.058589516 -0.0941735902
835294990.0 0.1102484481 0.8366580544 0.0001693909 2.61783e-05 0.0002732759 -7.92969e-05 -0.0597255986 -0.0933938636
840294960.0 0.1188260686 0.835416579 0.0002230456 -0.0001874294 -4.7865e-06 -1.94984e-05 -0.0614538444 -0.0921288145
845294930.0 0.126858709 0.8345678207 0.0003131777 -0.0001462396 0.0002164805 2.25959e-05 -0.0629145017 -0.0912116819
850294900.0 0.1352601719 0.832429991 -4.52777e-05 -0.0001054183 -3.90853e-05 -0.0003147303 -0.0640750752 -0.0906142993
