!Created with skrf (http://scikit-rf.org).
# Hz S RI R 50.0 
!freq ReS11 ImS11 ReS21 ImS21 ReS12 ImS12 ReS22 ImS22
300000.0 -0.3180842086 -0.1082404262 0.3710829841 0.0558433794 0.3730272129 0.0586183293 -0.3169278121 -0.1171295567
5299970.0 -0.3237036447 0.0046164601 0.3784236201 0.0029011246 0.3784435294 0.0031479911 -0.3262490055 0.0026497107
10299940.0 -0.3208530317 0.0153724027 0.3799688541 0.0024082406 0.3795115967 0.0024444758 -0.324083325 0.0125753515
15299910.0 -0.3182001447 0.0234969046 0.3822243086 0.0024044318 0.3819650269 0.0025014129 -0.3212876114 0.0199541852
20299880.0 -0.3141914335 0.0302288218 0.3850033756 0.0015588158 0.3849928172 0.0018444308 -0.3183765388 0.0260302524
25299850.0 -0.3105477289 0.0356491157 0.3882233758 -0.0002890298 0.3885723798 0.0002318973 -0.315443302 0.031224669
30299820.0 -0.3067015077 0.0403416364 0.3920507915 -0.0022620137 0.3914704843 -0.0022452372 -0.3125516129 0.035454678
35299790.0 -0.3028582858 0.0448240509 0.3950347794 -0.0052755202 0.395233359 -0.0054830667 -0.3097682926 0.0396716243
40299760.0 -0.2996046489 0.0478968086 0.3983493757 -0.0083502277 0.3984066358 -0.0087928379 -0.3071662316 0.0431758629
45299730.0 -0.2963301944 0.0516998551 0.4010797336 -0.0129417895 0.4014638373 -0.0126553926 -0.3045369263 0.0464233494
50299700.0 -0.2931424588 0.053969627 0.4035150537 -0.0172688734 0.4036947237 -0.0173617922 -0.3020191524 0.0492763086
55299670.0 -0.2907559446 0.0567032808 0.4054995359 -0.021885091 0.4056560467 -0.0220209929 -0.3002035278 0.0520012328
60299640.0 -0.2880287001 0.0589014223 0.4073857054 -0.0268819398 0.4073788913 -0.0268485377 -0.2979213644 0.0543225757
65299610.0 -0.2859071382 0.0616436335 0.4095037789 -0.0316259348 0.4094359541 -0.0319386652 -0.2963217721 0.0574025656
70299580.0 -0.283848707 0.0633681967 0.4101543186 -0.0367419201 0.4102669938 -0.0370465847 -0.2943532222 0.0594220042
75299550.0 -0.2817742846 0.0657136409 0.4113009742 -0.0418968822 0.4116302787 -0.0422460887 -0.2931419827 0.0620494593
80299520.0 -0.2803737093 0.0681096685 0.4127701887 -0.0473456969 0.4125180852 -0.0475219514 -0.2913774123 0.0640426299
85299490.0 -0.2785093567 0.0697565578 0.4130772949 -0.0527723639 0.4129424612 -0.0528912612 -0.2903201815 0.0664487012
90299460.0 -0.2772997946 0.0719992303 0.4135743439 -0.0574493744 0.413655912 -0.0581079773 -0.2885395394 0.0689852186
95299430.0 -0.2755240309 0.074498322 0.4143229243 -0.0634944217 0.413942843 -0.0631656431 -0.2877133479 0.0711353627
100299400.0 -0.2743783497 0.0761526762 0.4135642382 -0.0683187661 0.4136678138 -0.0685396394 -0.2862864209 0.0734863522
105299370.0 -0.2731256732 0.0783988081 0.4137719132 -0.0734159781 0.4136047228 -0.0735200027 -0.2851802226 0.0756336267
110299340.0 -0.2721706975 0.0804666125 0.4132872434 -0.0783957979 0.4134956474 -0.0789388192 -0.2845414268 0.07802915
115299310.0 -0.2702429623 0.0822319701 0.4130449137 -0.0835730393 0.413277948 -0.0836463848 -0.2831059245 0.0803573395
120299280.0 -0.2697010086 0.0847189997 0.4127525643 -0.0890082867 0.412733229 -0.0889985081 -0.2824099286 0.0825254052
125299250.0 -0.2688633372 0.0865758807 0.4120963188 -0.0936793429 0.4124156373 -0.0938442512 -0.2815653042 0.0849313782
130299220.0 -0.2676305605 0.0891284677 0.4119317691 -0.0986698493 0.411539661 -0.0991718545 -0.2804604821 0.0875206492
135299190.0 -0.2666438637 0.091172516 0.410622062 -0.1039294575 0.4104135659 -0.10403454 -0.2797091491 0.0894953309
140299160.0 -0.265842993 0.0937581016 0.4100966824 -0.1092179122 0.4101662715 -0.1090952229 -0.2787793238 0.0922226155
145299130.0 -0.2649235036 0.0957443647 0.4094935637 -0.1138574248 0.4091475229 -0.1137799934 -0.2779110551 0.0945506545
150299100.0 -0.2638864539 0.0981108709 0.4082778231 -0.119274979 0.4080990494 -0.1189423097 -0.2768043696 0.0966138366
155299070.0 -0.2630635946 0.1007661175 0.4069636545 -0.1240875813 0.4069900173 -0.1240599445 -0.2762048541 0.0994800136
160299040.0 -0.261777804 0.1030895352 0.4053896404 -0.1284490404 0.4060905417 -0.128890183 -0.2752564836 0.1024810783
165299010.0 -0.2610351627 0.1053526293 0.4046079945 -0.1337438885 0.4047112304 -0.1337424701 -0.2741549503 0.1045156241
170298980.0 -0.2604547189 0.1079932362 0.4030083196 -0.1385846939 0.4031509064 -0.1384301828 -0.273154791 0.107163638
175298950.0 -0.2592084549 0.1105698186 0.4023529779 -0.1431016127 0.4018385587 -0.1429990382 -0.2722208024 0.109832062
180298920.0 -0.2578552187 0.112583951 0.4005316632 -0.1479625907 0.4005943355 -0.1478739578 -0.2711778838 0.1123184007
185298890.0 -0.2569503034 0.1151717838 0.3985629731 -0.152859462 0.3989518702 -0.1528099042 -0.2703352579 0.1149630352
190298860.0 -0.2559753818 0.1176103802 0.3971353442 -0.1572279917 0.3976703138 -0.1575540051 -0.2688775008 0.1175408895
195298830.0 -0.2551084376 0.1199665043 0.3958210474 -0.1616422032 0.3957124321 -0.1622478251 -0.268038243 0.1197213763
200298800.0 -0.2537877406 0.1227830922 0.3943835712 -0.1657532622 0.3939347049 -0.1666529782 -0.2668207148 0.122842005
205298770.0 -0.2526669474 0.1249493804 0.3923441667 -0.1709513561 0.392240593 -0.1710933672 -0.265719733 0.1254226904
210298740.0 -0.2513396289 0.1277813785 0.3905098122 -0.1760723398 0.3903723715 -0.1759107806 -0.2643915838 0.128077127
215298710.0 -0.2503277946 0.1304254337 0.3886340361 -0.1802076775 0.3884049233 -0.179966545 -0.2635768182 0.1307467887
220298680.0 -0.2492727637 0.1327851081 0.3863983055 -0.1846246132 0.3866043088 -0.1847436069 -0.2621198808 0.1336973797
225298650.0 -0.2478491337 0.1354944838 0.3846444204 -0.1892449132 0.3845604308 -0.1886892963 -0.2611584133 0.1364449767
230298620.0 -0.2468884251 0.137801874 0.3829755638 -0.1935344173 0.3826773441 -0.1933439585 -0.2595476147 0.13875967
235298590.0 -0.2454306371 0.1405456088 0.3803522539 -0.197994753 0.3803663713 -0.1982219967 -0.258276336 0.1412003636
240298560.0 -0.244169656 0.143253556 0.3785006865 -0.2021040699 0.3781547695 -0.2019781993 -0.2569669845 0.1442057522
245298530.0 -0.2426309337 0.1460263479 0.3756770924 -0.206796191 0.3757593675 -0.2066739783 -0.2556361614 0.1470830414
250298500.0 -0.2413781342 0.1480134591 0.3735109836 -0.2103654541 0.3738086954 -0.2105025209 -0.2539723794 0.1495633748
255298470.0 -0.2400099221 0.1508757817 0.3714647823 -0.215359485 0.3714784603 -0.2151838572 -0.2527598556 0.1524218251
260298440.0 -0.2386942405 0.153575933 0.3691958287 -0.2192057243 0.3687046344 -0.2192413112 -0.2506396397 0.1549129828
265298410.0 -0.2370815947 0.1562225922 0.3667275128 -0.2238763732 0.3666221417 -0.223181355 -0.2498319146 0.1575398615
270298380.0 -0.2357549608 0.1589293322 0.3641827822 -0.2277689026 0.3641607453 -0.2277806124 -0.2478213468 0.1602509414
275298350.0 -0.2340854225 0.1613493336 0.3615717886 -0.2319092323 0.3616579913 -0.2319872301 -0.2461811333 0.163462785
280298320.0 -0.2326354173 0.163711004 0.3589550042 -0.2355944178 0.3590044697 -0.2358692056 -0.2445724457 0.1656220538
285298290.0 -0.2307448707 0.1662335051 0.3562107031 -0.2399078059 0.3566425423 -0.2398573542 -0.2430673162 0.1684546744
290298260.0 -0.2294630015 0.1686384409 0.3541013731 -0.2437859973 0.354056655 -0.2441488086 -0.2408824942 0.1711396955
295298230.0 -0.2276120371 0.1715148687 0.351234638 -0.2479689517 0.3506671127 -0.2480109407 -0.2393464359 0.1735917111
300298200.0 -0.2256694791 0.1737084655 0.3485179154 -0.2520908191 0.348333644 -0.2520843116 -0.237648999 0.176585615
305298170.0 -0.2238091292 0.1765436682 0.3459596176 -0.2561962179 0.3459842369 -0.2558896486 -0.2353267563 0.1796736635
310298140.0 -0.2220905808 0.178295085 0.3430764456 -0.2600223906 0.3428706069 -0.2601372897 -0.2340475119 0.1820723972
315298110.0 -0.2206701912 0.1808453019 0.3400611719 -0.2636702134 0.340424839 -0.26362298 -0.2320418106 0.1841911738
320298080.0 -0.2186569174 0.1833887411 0.3369735828 -0.267942527 0.3370442534 -0.267799458 -0.2300740729 0.1869174903
325298050.0 -0.2170954824 0.1853754799 0.3341394187 -0.2714503488 0.3345400592 -0.2718150755 -0.2284939848 0.1896310469
330298020.0 -0.2150697657 0.1881900869 0.3301992873 -0.2754000477 0.330949886 -0.2752677898 -0.2263147755 0.1918120022
335297990.0 -0.213341574 0.1904015909 0.3278333896 -0.2791250289 0.3277140463 -0.2790823015 -0.224684232 0.194348411
340297960.0 -0.2119727897 0.1928903699 0.3245504478 -0.2826312131 0.3243724718 -0.2827077528 -0.2224553665 0.1968530431
345297930.0 -0.2097667634 0.1950050846 0.3211850051 -0.2861768704 0.3209243784 -0.286043522 -0.2203411483 0.1995336536
350297900.0 -0.2077235365 0.1978307409 0.3177563099 -0.2893077374 0.3179656057 -0.2898128215 -0.2186047996 0.2024116665
355297870.0 -0.2059586539 0.1998360026 0.3145891744 -0.2931974691 0.314687705 -0.2933402653 -0.2167258091 0.2045848015
360297840.0 -0.2037695169 0.2023548107 0.3111931364 -0.2967400782 0.3112450451 -0.2967802699 -0.2144289621 0.2075760202
365297810.0 -0.2016013135 0.2048109303 0.3078886267 -0.3000656161 0.3079567795 -0.2999570602 -0.2124243371 0.2099259306
370297780.0 -0.1995605078 0.2068245068 0.3048668525 -0.3035584002 0.3045186297 -0.3037416461 -0.2103028952 0.2121765935
375297750.0 -0.1976846848 0.209433451 0.3018176206 -0.3068934563 0.3012713658 -0.3071480658 -0.2080469403 0.214867866
380297720.0 -0.1952571289 0.211474284 0.2979099333 -0.3102741977 0.2981584241 -0.3100609745 -0.2059208904 0.2173157175
385297690.0 -0.1932760193 0.2136182803 0.2943817156 -0.3131109936 0.2943168471 -0.3131529531 -0.2033327295 0.2199125006
390297660.0 -0.1911656619 0.2162351236 0.291213144 -0.3167466873 0.2908414428 -0.316659042 -0.2012886025 0.2220052881
395297630.0 -0.1887042874 0.2180800929 0.2876380009 -0.3195802103 0.2875769041 -0.3198980545 -0.1991522305 0.2249898979
400297600.0 -0.1868530329 0.2203959683 0.2842172025 -0.3227471422 0.2841556078 -0.3229891407 -0.1972742474 0.2269440693
405297570.0 -0.1841423433 0.2224798984 0.2803190001 -0.3256369919 0.2805401472 -0.3261267615 -0.1949841864 0.2292866041
410297540.0 -0.1816722896 0.2243503057 0.2765335065 -0.3291398546 0.2764927929 -0.3288234038 -0.1923151711 0.2313302772
415297510.0 -0.1796464902 0.2265886576 0.2729063105 -0.3317880882 0.2730190856 -0.3320156029 -0.1903010835 0.2339676526
420297480.0 -0.1772924969 0.2283555292 0.269390937 -0.334948502 0.2689891113 -0.3349459223 -0.1873770781 0.2358611788
425297450.0 -0.1745693344 0.2302537628 0.2654300159 -0.3377965375 0.2659537003 -0.3380139056 -0.1850815601 0.2383064802
430297420.0 -0.1724308229 0.2326878057 0.2619015149 -0.3411623358 0.2616463607 -0.3408097475 -0.1824468516 0.2404361304
435297390.0 -0.1696381794 0.2346299231 0.2579953542 -0.3434205168 0.2580558718 -0.3432442373 -0.1800165579 0.2425608443
440297360.0 -0.1671788272 0.2366903711 0.2542029123 -0.3461237155 0.2540382222 -0.3460502898 -0.1778736373 0.2442549017
445297330.0 -0.1649252627 0.2383361805 0.2502167615 -0.3493147527 0.2501741722 -0.3489360928 -0.1751542598 0.2464976112
450297300.0 -0.1621854521 0.2401658171 0.2462887529 -0.3516635879 0.2465993903 -0.351788637 -0.1725489434 0.2486360531
455297270.0 -0.160017106 0.2421163424 0.2427557504 -0.354565762 0.2430727215 -0.3542596971 -0.1701075319 0.2508697544
460297240.0 -0.1574865454 0.2441497706 0.2384269236 -0.3569534886 0.2383683357 -0.3571279697 -0.1672166126 0.2531137049
465297210.0 -0.1546355308 0.2461090879 0.2347180762 -0.3601659824 0.2349054544 -0.3597358499 -0.1650078431 0.2545704518
470297180.0 -0.1522827794 0.2475128047 0.2311234892 -0.3620368328 0.230881178 -0.361856773 -0.1626831041 0.2561867216
475297150.0 -0.1499486272 0.2494155881 0.2269674008 -0.3644024447 0.2267986193 -0.3643006409 -0.1597731184 0.2583708168
480297120.0 -0.1471300952 0.250796744 0.2227454428 -0.3669228929 0.2230355252 -0.3669673817 -0.1572043573 0.2609578703
485297090.0 -0.1440889922 0.2528644689 0.2188084621 -0.3695515348 0.2189992653 -0.3690639255 -0.1547091104 0.2622515732
490297060.0 -0.1415360442 0.2545261846 0.2150174705 -0.3715896108 0.2147206478 -0.3716302812 -0.1518088938 0.2642871426
495297030.0 -0.1391536357 0.2563309516 0.2106723716 -0.374219969 0.2103100231 -0.3738540636 -0.1489829163 0.2656609778
500297000.0 -0.1361990155 0.2577131921 0.2065024915 -0.3760653539 0.2066909159 -0.3760919689 -0.1465206135 0.2675344352
505296970.0 -0.1335952386 0.2592162084 0.2020262664 -0.3777729244 0.2023120345 -0.3781137891 -0.1441367134 0.2694001345
510296940.0 -0.130771014 0.2609572707 0.198056266 -0.3807716645 0.1982173022 -0.3804666339 -0.1407041345 0.2711855285
515296910.0 -0.1282843055 0.2624434839 0.1937349555 -0.3823734628 0.1940180075 -0.3825216847 -0.1381330935 0.2727904445
520296880.0 -0.1254530826 0.2636064494 0.1897596754 -0.3847712831 0.1898570206 -0.384681917 -0.1351070775 0.2746051565
525296850.0 -0.1228382347 0.2650850488 0.1856038776 -0.3866954069 0.1857054503 -0.3867032106 -0.1320869382 0.2761942895
530296820.0 -0.1200325656 0.2665008974 0.1813346485 -0.3878415159 0.1813436056 -0.3883902279 -0.1298803848 0.2774110394
535296790.0 -0.1171108929 0.2680500144 0.1772980439 -0.3899340043 0.1771518982 -0.3902811595 -0.1267777279 0.2786259961
540296760.0 -0.1141448851 0.2692669718 0.1727755132 -0.3925357554 0.1730923774 -0.3925015536 -0.1240881469 0.2805219163
545296730.0 -0.1114148 0.2707620926 0.1684011577 -0.3940624556 0.1683297242 -0.3942639245 -0.121285307 0.2816946012
550296700.0 -0.1087097009 0.2720484204 0.164359928 -0.3958994118 0.1645548075 -0.396033912 -0.1182895226 0.2831959151
555296670.0 -0.1053235224 0.2731744861 0.1601576271 -0.3977225794 0.1601575964 -0.3976964768 -0.1156596326 0.2850635601
560296640.0 -0.1028091933 0.2745168029 0.1557216257 -0.3988239133 0.155991358 -0.398889959 -0.1122811445 0.2860658878
565296610.0 -0.0999946038 0.2757543664 0.1510264856 -0.4008948479 0.150946866 -0.4009520058 -0.1095115133 0.2875301698
570296580.0 -0.0970074945 0.2769092151 0.1467016243 -0.4021570011 0.146969375 -0.4027329923 -0.1062685713 0.2891339644
575296550.0 -0.0938969226 0.2782489817 0.1424657663 -0.4037042362 0.1424616257 -0.4038240432 -0.1032800394 0.2901203576
580296520.0 -0.0910848338 0.2795211949 0.1382225414 -0.4056439012 0.1380169377 -0.405790215 -0.1004925581 0.2913479195
585296490.0 -0.0879136541 0.2802278341 0.1336536157 -0.4068591508 0.1334628765 -0.406930325 -0.097661019 0.292354013
590296460.0 -0.0856370593 0.2812088173 0.1293310467 -0.4082753919 0.1291486034 -0.4083818665 -0.0944370976 0.2936065832
595296430.0 -0.0820548183 0.2827221214 0.1244794943 -0.4093294008 0.1247593009 -0.4097975635 -0.0915152812 0.2946835007
600296400.0 -0.0792870685 0.2834162183 0.1202794233 -0.4107497331 0.1205357412 -0.4111200795 -0.0882281088 0.2961257326
605296370.0 -0.0759931674 0.2846625624 0.1157221332 -0.4123149049 0.1159421787 -0.4122426883 -0.0851657022 0.2975250841
610296340.0 -0.0733509001 0.2855479773 0.1115117642 -0.4134216618 0.1114507335 -0.4134665524 -0.0820867609 0.2982099846
615296310.0 -0.0703199334 0.2866254874 0.1068877379 -0.414060192 0.1070854656 -0.4144877578 -0.079405818 0.2993590651
620296280.0 -0.0672880886 0.2871607022 0.1026713688 -0.4156026057 0.1021753759 -0.4159077469 -0.0761710598 0.2999665061
625296250.0 -0.0640554406 0.2882092856 0.0975681353 -0.4168728126 0.0978256726 -0.4169965718 -0.0727909521 0.3012806802
630296220.0 -0.0611665085 0.2891345915 0.093374219 -0.4176548701 0.0933858094 -0.4177022342 -0.0699449817 0.3020435237
635296190.0 -0.0582994428 0.2899875115 0.0888719523 -0.418550541 0.0885990569 -0.4180596277 -0.0668882824 0.3026706887
640296160.0 -0.0550687129 0.2902291843 0.0841465803 -0.4193897181 0.084165916 -0.4196195607 -0.0638252315 0.3037080515
645296130.0 -0.0519647135 0.2914668644 0.0793930211 -0.4205555541 0.0796968665 -0.4202856214 -0.0609140743 0.3042361493
650296100.0 -0.0490478483 0.2923542638 0.0753999502 -0.4212462097 0.0752531836 -0.4209374601 -0.0573433419 0.3052779735
655296070.0 -0.0456812287 0.2928305098 0.0705426616 -0.4222789483 0.0702443554 -0.4219252124 -0.0539602712 0.3059533131
660296040.0 -0.0430613837 0.2938386099 0.0663585534 -0.4227659519 0.065938606 -0.4224480861 -0.0510811934 0.3067234828
665296010.0 -0.0394782704 0.2938673337 0.0614077933 -0.423134599 0.0620321376 -0.4233868449 -0.0481495574 0.3074023843
670295980.0 -0.0362983964 0.2944637454 0.0570900269 -0.4237536881 0.057306536 -0.4237961166 -0.0449747617 0.308233678
675295950.0 -0.0331690243 0.2948571511 0.052256032 -0.4242873806 0.0523690989 -0.4247615725 -0.0419225556 0.3089608687
680295920.0 -0.0302271063 0.2960477316 0.0476381187 -0.4251914426 0.0473128956 -0.424829009 -0.0380407797 0.3091412848
685295890.0 -0.0272639279 0.2960805961 0.0434329125 -0.4255524859 0.0428503932 -0.4255912239 -0.035169025 0.3096872646
690295860.0 -0.0236239099 0.2964777838 0.0385538625 -0.4253872018 0.0380704845 -0.4256121985 -0.0320771766 0.3108235111
695295830.0 -0.0204886016 0.2968249025 0.0330705608 -0.4260073683 0.0334381489 -0.4262013578 -0.0286351183 0.3110728655
700295800.0 -0.0174738306 0.2971609842 0.0289707996 -0.4264037604 0.0291089585 -0.4264850961 -0.0257648271 0.3109538227
705295770.0 -0.0141054975 0.2977350932 0.0243454309 -0.4266193057 0.0249021008 -0.4264273745 -0.0228442353 0.3115547247
710295740.0 -0.01119289 0.2981574439 0.020074155 -0.4269113901 0.019911454 -0.4266121697 -0.0196698468 0.3124401276
715295710.0 -0.0083589403 0.2982022827 0.015110335 -0.4269515564 0.0155109451 -0.4269363708 -0.0162404819 0.3122491254
720295680.0 -0.0052582321 0.2979691615 0.0106113934 -0.4268235394 0.0106857546 -0.4273756147 -0.012657433 0.3129166358
725295650.0 -0.0014816681 0.298807258 0.0055313077 -0.4270342554 0.0057525535 -0.4270705671 -0.0096576894 0.3131976634
730295620.0 0.0011434051 0.2985970157 0.0014186508 -0.4271299883 0.0014569402 -0.4271307569 -0.0063010483 0.3128062795
735295590.0 0.0049536465 0.298935621 -0.0031105696 -0.4269889667 -0.0030402183 -0.4271811438 -0.0029277005 0.3135495941
740295560.0 0.0077963832 0.29917447 -0.0081456806 -0.4266405962 -0.0080285396 -0.426887897 0.0006062838 0.3131891617
745295530.0 0.0109874884 0.2988357793 -0.0126653613 -0.4266903197 -0.012510405 -0.4270856929 0.0030963733 0.3135555788
750295500.0 0.0139314534 0.2989002776 -0.0169329837 -0.4261838544 -0.0170177127 -0.426298629 0.0065525334 0.3132576419
755295470.0 0.0175524905 0.2991856233 -0.0216533346 -0.4263016242 -0.0218470691 -0.4267209852 0.0097915147 0.3137474412
760295440.0 0.020450955 0.2990912694 -0.0263863722 -0.4261653088 -0.0261574665 -0.4260631675 0.0125917235 0.3139216495
765295410.0 0.0233488732 0.2988216283 -0.0304525739 -0.4254568319 -0.0309688119 -0.4259057244 0.0169420695 0.3139962429
770295380.0 0.0268344855 0.2989405303 -0.0353848953 -0.4251050197 -0.035442781 -0.425474782 0.0200759899 0.3138230652
775295350.0 0.0297261596 0.29867859 -0.0401353356 -0.424502939 -0.0402010989 -0.4246116412 0.022514657 0.3131729745
780295320.0 0.0335248592 0.298444925 -0.0446907746 -0.4242421044 -0.0443132546 -0.4242587468 0.0260351854 0.3135733324
785295290.0 0.036433124 0.2986803245 -0.0493214997 -0.4234335884 -0.0492228391 -0.4237290507 0.0289132002 0.3133683089
790295260.0 0.0393006878 0.2980700659 -0.0535575111 -0.4232362999 -0.0539537202 -0.4232818898 0.0327304719 0.3132207559
795295230.0 0.0424845948 0.2979282749 -0.0578472018 -0.4222977887 -0.058194487 -0.4226225213 0.0361985425 0.3131925484
800295200.0 0.0457621982 0.2976698321 -0.0633300409 -0.4219360854 -0.0634395203 -0.4219724759 0.0392472355 0.312830329
805295170.0 0.0488595093 0.2972327662 -0.0672989401 -0.4208758463 -0.0674461834 -0.421413503 0.0419071744 0.3125963259
810295140.0 0.0520136352 0.2968738676 -0.0719907495 -0.4204644594 -0.0719607111 -0.4208383945 0.0455679992 0.3126150166
815295110.0 0.0552151736 0.2963963676 -0.076525864 -0.4193543854 -0.0764898241 -0.4193418238 0.0485540386 0.3117360338
820295080.0 0.0582252549 0.2954819826 -0.0809144514 -0.4184727007 -0.0807496472 -0.418618758 0.0517349074 0.3112088749
825295050.0 0.0616043131 0.2953883446 -0.0856016235 -0.4172700106 -0.0854777055 -0.4173872545 0.0554734848 0.3111922443
830295020.0 0.0647208387 0.2951620931 -0.0900046968 -0.4160868753 -0.0902729099 -0.4168559504 0.0581878551 0.310555067
