!Created with skrf (http://scikit-rf.org).
# Hz S RI R 50.0 
!freq ReS11 ImS11 ReS21 ImS21 ReS12 ImS12 ReS22 ImS22
300000.0 -0.776826 -0.0927280342 0.0010474371 0.0004665248 0.0014022937 -0.0004312007 -0.7680614357 -0.1339604556
5299970.0 -0.784845751 -0.0052061153 -0.0002951949 -0.0003376886 0.0001464238 -0.0002946191 -0.7843085378 -0.0072797891
10299940.0 -0.7878692317 -0.0039447671 0.0001013777 6.77336e-05 -4.43968e-05 8.94177e-05 -0.7875552244 -0.0035720457
15299910.0 -0.793383408 -0.0021182315 -5.36844e-05 -2.72296e-05 1.68155e-05 -3.63489e-05 -0.7928545874 -0.0015217884
20299880.0 -0.7996725251 0.0022065801 0.0001095137 -4.79229e-05 -2.88532e-05 4.16544e-05 -0.7998927938 0.0021387402
25299850.0 -0.8062483155 0.0074142905 -9.64884e-05 5.06524e-05 0.0001335249 1.48257e-05 -0.8061409472 0.0082270914
30299820.0 -0.8124594855 0.0152685688 -5.24606e-05 5.6966e-05 -7.8741e-05 4.7641e-06 -0.8121114386 0.0161302076
35299790.0 -0.8174055388 0.0248355512 -0.0002888409 -0.0002644413 -8.26319e-05 -8.03214e-05 -0.8171562835 0.0251429517
40299760.0 -0.8212548794 0.0340493525 -6.70276e-05 -0.0003024166 -2.1105e-06 -1.93861e-05 -0.8214731221 0.0349114895
45299730.0 -0.8241393269 0.0434590911 -8.56746e-05 -3.22572e-05 -7.74204e-05 -8.129e-06 -0.8254842063 0.0440011517
50299700.0 -0.8268734306 0.0529000202 2.5055e-05 -9.97776e-05 -9.4227e-05 -2.25103e-05 -0.8271743417 0.053729934
55299670.0 -0.8292224491 0.0634059643 4.63568e-05 0.0001493617 -1.325e-07 -6.84212e-05 -0.829680668 0.0642725958
60299640.0 -0.8306351305 0.0733251957 8.54557e-05 -0.0001765828 9.72037e-05 -1.26279e-05 -0.8304732035 0.0742781821
65299610.0 -0.8310675069 0.0830452733 -1.3926e-05 5.46248e-05 -3.03133e-05 -3.76067e-05 -0.8316980915 0.0842784578
70299580.0 -0.8315858797 0.0932481332 3.3558e-06 -4.09926e-05 5.92315e-05 -9.87847e-05 -0.8315082737 0.0942744507
75299550.0 -0.8320808561 0.1038041056 -0.0002078795 4.19104e-05 7.0002e-06 7.06931e-05 -0.8323094269 0.1042715498
80299520.0 -0.832091112 0.1129169366 0.0001131393 -8.75092e-05 -5.01601e-05 3.33651e-05 -0.8319714436 0.1142178841
85299490.0 -0.8312248075 0.1228203456 -0.0001371559 0.0001608196 7.81825e-05 -7.3874e-06 -0.8314848016 0.1235067112
90299460.0 -0.8300433243 0.1323906088 -4.759e-06 -6.13438e-05 -6.82488e-05 -2.04422e-05 -0.8310848374 0.1331715378
95299430.0 -0.8291546117 0.1417429559 -5.88754e-05 -0.0001454314 3.32509e-05 -0.0001474881 -0.8291757235 0.1423291888
100299400.0 -0.8278704364 0.1508911439 4.18699e-05 8.5028e-05 -0.0001126895 -8.32582e-05 -0.8284913836 0.1525991446
105299370.0 -0.8271963724 0.1600776291 -5.75837e-05 -3.56303e-05 3.38075e-05 -2.9194e-05 -0.8270355951 0.1609057774
110299340.0 -0.8249004102 0.169488659 -1.6001e-05 6.01023e-05 -7.78209e-05 4.42624e-05 -0.8255762185 0.1705079792
115299310.0 -0.8239841343 0.1786569665 0.000143366 -0.0001018926 -0.0001206727 0.0001064895 -0.8242739568 0.1798538524
120299280.0 -0.8222339392 0.1869417823 2.9403e-06 -6.49595e-05 8.7361e-06 0.0001682122 -0.8223229212 0.1886930281
125299250.0 -0.8201829537 0.1960142396 -0.0002052224 0.0001680641 -5.2996e-05 -7.69476e-05 -0.8206253 0.1980051975
130299220.0 -0.8189954102 0.2054932845 0.0001660881 0.0001254976 -0.0001293995 9.82838e-05 -0.8189235363 0.2068930544
135299190.0 -0.8174237305 0.2141345874 -7.46731e-05 -4.56016e-05 -5.78808e-05 4.49456e-05 -0.8165477177 0.2160516687
140299160.0 -0.8149694347 0.2230857936 9.63944e-05 -4.7682e-05 3.69445e-05 -4.82705e-05 -0.8145545778 0.2246691858
145299130.0 -0.8126694136 0.2324580131 -1.7198e-05 0.0001545451 0.0001517356 5.25736e-05 -0.8125950452 0.2341638441
150299100.0 -0.8103036565 0.2408801067 -0.0002192057 7.87371e-05 3.26212e-05 8.47458e-05 -0.8106744001 0.2433069251
155299070.0 -0.8075811303 0.2494807472 -4.46623e-05 0.0002220169 0.0001672049 0.0001187584 -0.8072367584 0.2517309113
160299040.0 -0.8051608537 0.2580283245 0.0002448669 -9.24351e-05 -6.03008e-05 7.44374e-05 -0.8052554907 0.2606602614
165299010.0 -0.8030074976 0.2669050333 2.45614e-05 4.02392e-05 0.0002939604 -7.96617e-05 -0.8025235018 0.2693471582
170298980.0 -0.7999182133 0.2757303959 -0.000113212 0.0002448189 -0.0002532434 -5.06333e-05 -0.7994727124 0.2776741449
175298950.0 -0.7977588872 0.2845275873 0.0002586719 0.0001378776 8.60578e-05 -0.0001775958 -0.7971191639 0.2867968162
180298920.0 -0.7944980105 0.2926604941 0.0002079413 -0.000117939 -6.10575e-05 -8.2359e-06 -0.7937268739 0.2949639809
185298890.0 -0.791591844 0.3008467266 -9.24066e-05 -4.53797e-05 -0.0002069725 7.1838e-06 -0.7905162711 0.3043592999
190298860.0 -0.7885513185 0.3096881126 -3.48488e-05 -7.00565e-05 3.62862e-05 0.0002805194 -0.788162928 0.3123855955
195298830.0 -0.7850100684 0.3180776209 0.0001402817 0.0001004633 1.1313e-05 -0.0001694296 -0.7844481882 0.3210773676
200298800.0 -0.7815264713 0.3262063861 9.98742e-05 4.28521e-05 -0.0001648932 -5.06064e-05 -0.7815507785 0.3292271665
205298770.0 -0.7783146106 0.3342463229 -7.36707e-05 -0.0001215768 -0.0001732174 -4.05737e-05 -0.7774731736 0.3374279549
210298740.0 -0.7747267887 0.3422935876 5.5855e-05 -0.0001614945 -8.81e-06 1.23841e-05 -0.7742726258 0.3455232979
215298710.0 -0.7714618572 0.3506125569 0.0001207739 0.000111658 -2.49184e-05 -0.0001541719 -0.7710673118 0.3541879134
220298680.0 -0.7675101891 0.3587950315 -0.0001172742 -0.0001081371 3.02214e-05 0.0001002047 -0.7678717009 0.3622254789
225298650.0 -0.7637733088 0.3667277143 4.48853e-05 0.0001458364 -2.98175e-05 6.14898e-05 -0.7634555212 0.370049313
230298620.0 -0.7600901444 0.3744817781 -6.33329e-05 -2.1362e-05 -8.72418e-05 -5.78117e-05 -0.7596717269 0.3787193183
235298590.0 -0.7563247305 0.3833143901 -6.94555e-05 -9.86214e-05 5.73896e-05 -6.62688e-05 -0.7557251723 0.3867970109
240298560.0 -0.75230179 0.3914054738 1.50217e-05 0.0001138384 -2.64277e-05 -0.0001811271 -0.7514158832 0.3955779946
245298530.0 -0.7481925553 0.3992017907 -0.0001836129 7.38e-05 5.57466e-05 -4.7763e-05 -0.7479757306 0.4024086019
250298500.0 -0.7437209792 0.4073574986 -1.8925e-06 -1.53172e-05 8.24867e-05 3.68461e-05 -0.7433849126 0.4101472422
255298470.0 -0.7399416438 0.4138090677 -0.0001956678 -0.0002290959 0.0002454749 -6.34017e-05 -0.7387719819 0.4181023035
260298440.0 -0.7356078817 0.4212005712 0.0001479276 8.23725e-05 5.45528e-05 -4.59769e-05 -0.7346028133 0.4262869835
265298410.0 -0.7311770635 0.4297594469 -6.8226e-06 -0.000114656 -5.80418e-05 -5.12231e-05 -0.7304640826 0.4336264661
270298380.0 -0.7266776591 0.4378825911 -6.14057e-05 -0.0001469587 -0.0001885232 0.0003027689 -0.7254700647 0.4406556912
275298350.0 -0.7220729973 0.4444860038 -0.000107849 -7.42624e-05 6.48761e-05 0.0001052799 -0.7210713477 0.4482890153
280298320.0 -0.7172645196 0.4528724767 2.3152e-05 1.69879e-05 4.07597e-05 -9.97498e-05 -0.7155211464 0.4561037168
285298290.0 -0.7127386789 0.4599250229 -4.3757e-05 -5.21813e-05 2.82004e-05 6.58019e-05 -0.7108919472 0.463708183
290298260.0 -0.7078138057 0.4674391044 2.92614e-05 8.47764e-05 -1.34106e-05 4.05621e-05 -0.7060299396 0.4712123054
295298230.0 -0.7024911789 0.474417812 0.0001237155 -4.80455e-05 0.000108386 -1.0739e-05 -0.7008033662 0.4778535806
300298200.0 -0.6980192446 0.4820344594 0.0001088955 -0.0002083297 -0.0001039785 1.92656e-05 -0.6960936458 0.4851989143
305298170.0 -0.6925977635 0.4884189094 8.19033e-05 -3.49171e-05 -9.11947e-05 -6.63974e-05 -0.6903757429 0.4927452542
310298140.0 -0.6874529101 0.4963438218 -0.0001246441 8.14445e-05 -1.84762e-05 0.0001354906 -0.6857762217 0.499943362
315298110.0 -0.6832003868 0.5029251183 -0.0001157516 1.56113e-05 -0.0001132953 -0.0003296227 -0.6797859464 0.5067561886
320298080.0 -0.6773971784 0.510295745 6.77687e-05 -7.83892e-05 -0.0001345138 -5.84482e-05 -0.6748661306 0.5143774732
325298050.0 -0.6720061417 0.5176409001 3.1174e-06 0.0001948421 0.00011676 -9.96728e-05 -0.6691123866 0.5213298485
330298020.0 -0.6665057764 0.5241874123 0.0001348563 -0.0001410632 -9.34424e-05 5.43733e-05 -0.6638672268 0.5283253486
335297990.0 -0.6610103988 0.5305475255 -7.01189e-05 -5.24036e-05 -0.0002630844 0.0001169334 -0.6584424743 0.5357376269
340297960.0 -0.6560953432 0.5380587826 -6.89996e-05 0.0002567132 -0.0001016206 -0.0001300063 -0.6526791252 0.5424501861
345297930.0 -0.6500562452 0.5443532622 -0.0001628612 9.32021e-05 -1.15343e-05 -6.22302e-05 -0.6466410593 0.5482632334
350297900.0 -0.6441486396 0.5512119886 0.0001976398 -3.71017e-05 8.21996e-05 0.0001413083 -0.6414630493 0.5555696182
355297870.0 -0.6377452071 0.558353001 0.0001286908 -0.0001740003 -5.45592e-05 -1.4862e-05 -0.63569241 0.561835377
360297840.0 -0.6325490567 0.5638812071 -3.26064e-05 0.0001207102 -7.46571e-05 3.12001e-05 -0.6296967808 0.5684719468
365297810.0 -0.6278599426 0.5707650915 7.37142e-05 -0.0002126741 -7.27378e-05 0.0003316584 -0.6236201298 0.5754472905
370297780.0 -0.6206120501 0.5766243479 8.71525e-05 4.508e-06 -7.47595e-05 -0.0002048523 -0.6176380257 0.5816994223
375297750.0 -0.6145253898 0.5831124956 -0.000163789 0.000132679 -7.21182e-05 6.8032e-05 -0.6117231478 0.5877240094
380297720.0 -0.6087058953 0.5892769438 0.0002624552 2.00091e-05 -4.81388e-05 -0.0001160258 -0.605916312 0.5942156505
385297690.0 -0.6031713398 0.5956867764 -0.0001545348 -1.83454e-05 -0.0001715518 3.92213e-05 -0.5993336175 0.6004098971
390297660.0 -0.5968143128 0.6015029679 2.30982e-05 0.0001340453 -2.41451e-05 6.08855e-05 -0.5931115868 0.6064097582
395297630.0 -0.5901025319 0.6078713403 -4.20585e-05 -1.2814e-05 0.0001163957 9.86137e-05 -0.5866172123 0.6127763703
400297600.0 -0.5835854948 0.6135892229 0.0001253732 -2.39441e-05 2.33149e-05 -3.88026e-05 -0.5810033921 0.6189452114
405297570.0 -0.5774878961 0.6199626908 4.66439e-05 -0.0002014713 -7.26475e-05 -6.35545e-05 -0.574233847 0.6249995927
410297540.0 -0.5709261652 0.6253311872 -2.82083e-05 6.39846e-05 -5.34648e-05 -0.0002095857 -0.5674071456 0.6303924008
415297510.0 -0.5642851936 0.6306636932 -7.98017e-05 -2.62328e-05 -5.10014e-05 3.0944e-06 -0.5611832579 0.636055171
420297480.0 -0.5585872089 0.6373428816 0.0001778021 6.31663e-05 -0.00010137 -0.0001910718 -0.55426738 0.6428884766
425297450.0 -0.5513439812 0.6427608924 -0.0001493023 -3.90518e-05 -5.61969e-05 -3.75032e-05 -0.5480735536 0.648109023
430297420.0 -0.5450018725 0.6486260352 -6.46775e-05 0.0002052861 1.41255e-05 0.0001573986 -0.54118559 0.6527296801
435297390.0 -0.5390433955 0.6532125579 -9.32867e-05 7.02157e-05 5.76721e-05 3.44551e-05 -0.5342528148 0.6584972847
440297360.0 -0.5313887594 0.6586284429 -0.000137807 -4.75601e-05 0.0001903905 5.25975e-05 -0.5274323639 0.6633222546
445297330.0 -0.5243376808 0.6644236606 9.39064e-05 -0.0001027087 0.0001793471 0.0001225111 -0.5203178332 0.6683542864
450297300.0 -0.5179713457 0.6690364811 -1.6422e-06 -0.0001547576 -8.13389e-05 -0.0001799972 -0.5134902072 0.6741997099
455297270.0 -0.5112096243 0.6747095643 0.0002384988 1.40001e-05 1.16448e-05 -2.31522e-05 -0.5062023238 0.6786688156
460297240.0 -0.5053405593 0.6795986171 -3.05104e-05 -0.0001341086 -7.03743e-05 -9.47072e-05 -0.4998761469 0.684641383
465297210.0 -0.4977069203 0.6848127055 -0.0001373772 -0.0001006821 0.0002271891 -2.69491e-05 -0.4917564186 0.6890369734
470297180.0 -0.4904385242 0.6901272333 -4.58464e-05 -2.73949e-05 6.67624e-05 -0.0001011322 -0.4849285141 0.694550389
475297150.0 -0.4835399183 0.6943057136 8.59447e-05 -7.56886e-05 4.87091e-05 0.0001669588 -0.4776254326 0.699117546
480297120.0 -0.4768394132 0.6996148773 6.9993e-06 0.0001718782 -9.95994e-05 1.90677e-05 -0.469882863 0.7035513462
485297090.0 -0.4691276633 0.7041916556 0.0001465254 0.0001256814 -0.0001304416 2.2552e-06 -0.4634938476 0.7084748185
490297060.0 -0.4623081412 0.7090029375 -8.93182e-05 7.98497e-05 -8.24265e-05 -5.52114e-05 -0.4558978948 0.7127964794
495297030.0 -0.4551559267 0.7135555191 1.725e-07 0.0002232424 5.87473e-05 6.46169e-05 -0.4487237745 0.7180396867
500297000.0 -0.4474131993 0.7182351319 5.79156e-05 0.0001001969 -0.0003229395 6.36247e-05 -0.4407765397 0.722071562
505296970.0 -0.4398551232 0.7226451058 9.25151e-05 3.09292e-05 -9.78543e-05 5.53899e-05 -0.4338688823 0.7269194831
510296940.0 -0.4331185051 0.7263338008 -0.0001261961 0.0001969121 -0.0002832989 9.8828e-06 -0.4257545274 0.730882532
515296910.0 -0.4248602287 0.730651506 6.86307e-05 -5.31976e-05 -0.0002038351 -0.0001051155 -0.4188378109 0.7354851325
520296880.0 -0.4181633769 0.7353781181 0.0001859117 -2.1322e-06 -0.0001594424 -6.74332e-05 -0.4110422865 0.7390379024
525296850.0 -0.4102224835 0.7390822183 -7.11848e-05 0.000167481 -0.0001314648 6.03312e-05 -0.4034919729 0.7433955883
530296820.0 -0.402720571 0.7429692147 -0.0001653594 0.0001704732 -0.0001777028 -7.65839e-05 -0.3963877053 0.7480816099
535296790.0 -0.3958326875 0.7471241473 -3.34254e-05 -2.21644e-05 -0.0002113294 1.00293e-05 -0.3893107829 0.7517795833
540296760.0 -0.3881697364 0.7509736064 -0.0001477743 -0.0002453676 0.0002259396 0.0002214465 -0.3809695481 0.755245622
545296730.0 -0.3803370899 0.7551233983 0.0001002093 0.0001645221 -3.8789e-06 -0.0001380733 -0.3736137761 0.7591338894
550296700.0 -0.3728806125 0.7587491567 -9.93912e-05 -0.0001899618 3.68341e-05 -0.00028763 -0.3653425769 0.7628433082
555296670.0 -0.3648299261 0.7613443017 -4.08668e-05 -9.00782e-05 -0.0001814896 2.21838e-05 -0.3577889891 0.767006962
560296640.0 -0.3576984803 0.7659794619 -0.000125728 5.833e-06 -0.0002047688 -2.30742e-05 -0.3500639805 0.7708805665
565296610.0 -0.3492362796 0.7699336416 -9.80232e-05 -0.0001953609 7.23816e-05 -0.0001201626 -0.3423084152 0.7734962323
570296580.0 -0.3419429748 0.7725799459 -0.0003125958 -0.0001017779 -7.70839e-05 -1.86381e-05 -0.33511329 0.7776277703
575296550.0 -0.3343255892 0.7766108853 -2.15719e-05 0.0001462688 -0.0001631543 2.8556e-05 -0.3267556979 0.7811516117
580296520.0 -0.326215269 0.7796917328 -0.000153604 -9.52191e-05 -8.91601e-05 0.0001013874 -0.318268133 0.7840907105
585296490.0 -0.3184817326 0.7829610106 -1.6648e-06 1.71391e-05 1.03674e-05 8.51961e-05 -0.3104456423 0.7873705229
590296460.0 -0.3103809947 0.7859879835 -0.0002089809 0.0002606658 -0.0001435209 -3.49073e-05 -0.3027988447 0.7899575307
595296430.0 -0.3026983383 0.7879523046 -4.43371e-05 0.0001607538 -6.1572e-05 -2.27629e-05 -0.2947947437 0.792642625
600296400.0 -0.2949179565 0.7922472399 -0.0001360907 2.43608e-05 4.4852e-05 5.42003e-05 -0.2865579348 0.7951306323
605296370.0 -0.2875802276 0.794063984 -0.0001830901 -0.0002129343 -9.76507e-05 0.0002479724 -0.2779734981 0.7986247858
610296340.0 -0.2791135309 0.7971595754 -6.52368e-05 0.0001956487 6.64621e-05 -0.0001408486 -0.2703508414 0.8011696677
615296310.0 -0.2699272525 0.7999202428 8.16247e-05 4.26472e-05 -9.943e-06 -0.000211836 -0.2616591125 0.8031375464
620296280.0 -0.2627980951 0.802176984 -0.0001292895 7.75629e-05 7.38163e-05 3.36661e-05 -0.2545467215 0.8066650577
625296250.0 -0.2545723543 0.8050735603 -0.0001190642 -0.0001010597 4.37701e-05 7.9749e-05 -0.2454484106 0.8083016573
630296220.0 -0.2460469545 0.8078532577 6.44815e-05 6.36132e-05 0.0001934251 3.4708e-06 -0.2373718926 0.8109859119
635296190.0 -0.2385476817 0.8101747429 -9.46355e-05 2.57002e-05 2.3409e-05 0.0001326257 -0.2294180753 0.8128325012
640296160.0 -0.2308045323 0.8121991743 9.07776e-05 -0.0001299637 -5.25685e-05 -7.79335e-05 -0.221353041 0.8154112023
645296130.0 -0.2224519254 0.8151664907 0.0002643654 3.28162e-05 -0.0001128534 -0.0002861288 -0.2131704459 0.8176697366
650296100.0 -0.2143393879 0.8163997725 -0.0002867967 -2.2743e-05 -1.02568e-05 5.37727e-05 -0.2046402446 0.8188062696
655296070.0 -0.2059599605 0.8190697279 -6.6589e-06 0.0003490859 6.29537e-05 0.0003137167 -0.196440508 0.8208886499
660296040.0 -0.1978585686 0.820578242 4.9607e-06 0.0002005975 -0.0002625074 -8.35947e-05 -0.187640264 0.8232613936
665296010.0 -0.1894517339 0.8224315723 -0.0001468782 -9.63036e-05 -2.13125e-05 0.0001237388 -0.1789215619 0.8256044412
670295980.0 -0.1816832199 0.8244429192 6.8549e-06 0.000132808 0.0001042572 -0.0001283178 -0.1714426607 0.8265365487
675295950.0 -0.1730388323 0.8260615833 0.0001272285 -5.8686e-06 -4.74525e-05 -0.0001565545 -0.1635272553 0.8287715278
680295920.0 -0.1650630029 0.8281103544 -6.41807e-05 4.33297e-05 0.0001288319 -8.55347e-05 -0.1545237912 0.8310794479
685295890.0 -0.1564858526 0.8300419638 0.0002048144 0.0002043151 -3.79399e-05 4.80898e-05 -0.1462565636 0.8315002825
690295860.0 -0.1486105252 0.8309102834 1.49373e-05 -1.42232e-05 0.0001723742 7.81442e-05 -0.1380457143 0.8331811995
695295830.0 -0.1405585033 0.832306589 -0.0002518101 0.0001497947 -0.0003308117 -0.0002282474 -0.1292715344 0.834495714
700295800.0 -0.131428193 0.8340023788 0.0001061661 8.28916e-05 5.38438e-05 -0.000193245 -0.122391325 0.8362350363
705295770.0 -0.124431658 0.835214662 2.39761e-05 -3.22726e-05 -1.80732e-05 8.14914e-05 -0.1131748605 0.8382887944
710295740.0 -0.1151111269 0.8364285939 0.0003366033 9.66348e-05 6.9294e-05 7.1113e-05 -0.1050783103 0.838623196
715295710.0 -0.1079537521 0.8373278136 1.14366e-05 -0.000112602 5.6755e-06 3.52251e-05 -0.0960769757 0.8397356653
720295680.0 -0.0986529506 0.8385473479 8.45344e-05 0.0001676624 -0.0001232396 8.49188e-05 -0.087839992 0.8411104667
725295650.0 -0.0905036337 0.8399233857 -0.0001873001 -2.21664e-05 -9.09645e-05 8.8444e-06 -0.0799285868 0.8420943127
730295620.0 -0.0819080849 0.8402239144 -0.0001119369 -0.0001143216 0.0001179325 0.0001045919 -0.0716178856 0.8417052359
735295590.0 -0.0741394778 0.8408892164 0.0001316916 -4.64934e-05 1.25496e-05 -0.0001482368 -0.0630468368 0.8424421283
740295560.0 -0.0651930252 0.8420235572 7.03987e-05 0.0001116527 0.0001775465 0.0002222797 -0.0541532985 0.8437884008
745295530.0 -0.0572660094 0.8424238751 5.6441e-06 6.72609e-05 -0.0001028916 -7.67247e-05 -0.0456561451 0.8439362943
750295500.0 -0.0487746739 0.8424028856 -0.0001611288 5.15438e-05 -7.064e-05 9.56127e-05 -0.0378326068 0.8438785857
755295470.0 -0.0400598036 0.8430209158 -6.7589e-05 5.62887e-05 0.0001968759 5.44214e-05 -0.0291730462 0.8440674672
760295440.0 -0.0326420217 0.8433733337 0.0001456289 0.0002091785 -0.0001463031 -3.54969e-05 -0.020685775 0.8444166295
765295410.0 -0.0237047629 0.8435779794 2.65207e-05 -6.42049e-05 3.3137e-06 -1.94466e-05 -0.0122328047 0.8450936836
770295380.0 -0.0158325827 0.8438790846 0.0001058629 -4.94617e-05 -4.42757e-05 0.00013289 -0.0042593351 0.844583396
775295350.0 -0.0072928363 0.8437832289 -0.0001479904 -8.84365e-05 4.04006e-05 6.18905e-05 0.0036480276 0.8441522719
780295320.0 0.0011146674 0.8443207496 1.22418e-05 -7.8603e-05 0.0002008037 0.0002366809 0.0127317522 0.8442392018
785295290.0 0.0094689671 0.8438709257 1.89978e-05 -0.0001536066 0.0001028975 -0.000163024 0.0209427701 0.844002448
790295260.0 0.0183667894 0.8436427975 4.05347e-05 0.0001395681 -4.61638e-05 -0.0002134554 0.0299506214 0.8439802849
795295230.0 0.0263075572 0.8437129049 3.40032e-05 0.000127206 -0.0001262106 4.9889e-06 0.0386694313 0.8432279314
800295200.0 0.0342773151 0.8433780685 -3.92342e-05 -0.0002397602 -9.39944e-05 0.0001783232 0.0470505049 0.8427634074
805295170.0 0.0433135801 0.8429420935 0.0001065885 0.0002368897 -8.8548e-05 8.50931e-05 0.055182802 0.8423948259
810295140.0 0.0511675191 0.8423410786 -2.34685e-05 -0.000163265 -9.43916e-05 2.94742e-05 0.0639914113 0.8416144784
815295110.0 0.0597900971 0.8423434902 -0.0002308715 4.5471e-06 -0.0001029588 0.0001462001 0.0722057861 0.841180653
820295080.0 0.0675689208 0.8411702447 -4.28384e-05 0.0003097733 0.0001985989 7.75224e-05 0.0799972048 0.8402082108
825295050.0 0.0771833564 0.8400885332 -5.16492e-05 2.38144e-05 -7.31744e-05 -1.19281e-05 0.0885922483 0.8400597604
830295020.0 0.0843601076 0.840106009 5.58319e-05 -2.10899e-05 -3.22431e-05 -5.77841e-05 0.0976265806 0.838102802
835294990.0 0.0924825808 0.8390143872 3.01122e-05 0.0002559484 7.46548e-05 -0.0001552119 0.1056784921 0.8377769137
840294960.0 0.1006136514 0.8385732088 2.38087e-05 4.64018e-05 5.34284e-05 -5.57588e-05 0.1140396265 0.836224604
845294930.0 0.1090655464 0.836495367 0.0002377591 -7.25695e-05 -0.0001794538 -0.0001561302 0.1219275003 0.8351903606
