!Created with skrf (http://scikit-rf.org).
# Hz S RI R 50.0 
!freq ReS11 ImS11 ReS21 ImS21 ReS12 ImS12 ReS22 ImS22
300000.0 -0.3202644563 -0.1030528258 0.3729522389 0.052620829 0.3748179572 0.0566348288 -0.319625766 -0.1151775521
5299970.0 -0.3237133195 0.0050132962 0.3785297725 0.0025997739 0.378618404 0.0032837305 -0.3260118263 0.0025278456
10299940.0 -0.3209952535 0.0153766578 0.3798000414 0.0024010409 0.3798828408 0.0024003611 -0.3243135201 0.0127823604
15299910.0 -0.3180070354 0.0235357587 0.3818796278 0.0022141767 0.3821909723 0.0024526039 -0.3214015206 0.019602318
20299880.0 -0.3144267768 0.0302086981 0.385017088 0.0017551901 0.3850470181 0.0016446168 -0.3187128244 0.0261532844
25299850.0 -0.3105917143 0.0357689459 0.3886672594 -0.0001589511 0.3885116703 0.0001269757 -0.3155266701 0.0309015838
30299820.0 -0.3068731759 0.0401123127 0.3921850863 -0.0019753042 0.3916381293 -0.0022074737 -0.3130129911 0.0355714965
35299790.0 -0.3030712345 0.0449309433 0.3952179611 -0.0055097569 0.3952115492 -0.0050746818 -0.3098813739 0.0394942366
40299760.0 -0.2995578579 0.0480339466 0.3986289657 -0.0086362283 0.3984167081 -0.0087762185 -0.3070693003 0.042906175
45299730.0 -0.2965544388 0.0515515765 0.4013718053 -0.0129688553 0.4014794173 -0.0127630367 -0.3050001993 0.04610727
50299700.0 -0.2931945243 0.0538954008 0.4032397607 -0.0173588961 0.4036290572 -0.0173129142 -0.3022438677 0.0490546473
55299670.0 -0.2907565344 0.0568925736 0.4055480223 -0.0220390414 0.4058592851 -0.021911937 -0.3005446618 0.0519287843
60299640.0 -0.2881759249 0.0589288416 0.4074393594 -0.0269629538 0.4076864495 -0.0266763668 -0.2979339875 0.0546818559
65299610.0 -0.2860765375 0.0615207341 0.409297028 -0.0312989596 0.4094986005 -0.0320033405 -0.2958701551 0.0572793713
70299580.0 -0.284005212 0.0635319113 0.4106735636 -0.0367759442 0.4106296928 -0.0370005224 -0.2947288063 0.0595621478
75299550.0 -0.2821226605 0.0659362937 0.4118132825 -0.042065963 0.4115446786 -0.0424328357 -0.2934848821 0.0620478725
80299520.0 -0.2806375042 0.0680806292 0.412791444 -0.0472720273 0.4126359689 -0.047319513 -0.2918451102 0.0637731199
85299490.0 -0.2785076159 0.0698233873 0.4132234781 -0.0525305349 0.4130292375 -0.0524016136 -0.2904974481 0.0661042042
90299460.0 -0.2769827858 0.0719590903 0.4131949427 -0.0575962327 0.4136428968 -0.0579827342 -0.2888891652 0.0687998318
95299430.0 -0.2755845523 0.0742250866 0.4139394278 -0.06327356 0.4141921193 -0.0631970131 -0.2876836505 0.0711928849
100299400.0 -0.274672887 0.076610982 0.4136134379 -0.0684741522 0.4139048326 -0.0683245605 -0.2866633838 0.0732762547
105299370.0 -0.2730118112 0.0782121962 0.4132400015 -0.0731455557 0.4141278177 -0.0739095623 -0.2850477032 0.0759449592
110299340.0 -0.2721196859 0.0802708777 0.4132450541 -0.0782425413 0.4136113149 -0.078826747 -0.2845141881 0.077909641
115299310.0 -0.2707303152 0.0824162426 0.4129686463 -0.0836329381 0.4133340714 -0.0838341517 -0.2830839309 0.0797841606
120299280.0 -0.2699048958 0.0846766838 0.4131942725 -0.0887955483 0.4132061037 -0.088915228 -0.2825370623 0.0825050598
125299250.0 -0.2688235232 0.0865899291 0.412135287 -0.0939465948 0.4123286831 -0.0937541371 -0.281403785 0.0844835428
130299220.0 -0.2677144215 0.0890214353 0.411561018 -0.0985911327 0.4116520985 -0.099178436 -0.2804590857 0.0873568353
135299190.0 -0.2667938936 0.0911821854 0.410881732 -0.1036030355 0.4107566883 -0.1041022344 -0.2796982087 0.089541273
140299160.0 -0.2659045982 0.0935012492 0.4101896573 -0.1092792463 0.4102304287 -0.1091319956 -0.2784799099 0.0920360258
145299130.0 -0.2649368288 0.095890807 0.4094900559 -0.1140392115 0.4093287019 -0.1136440152 -0.2781461371 0.0944331284
150299100.0 -0.2639561325 0.0981706014 0.4082030763 -0.119071215 0.4082085775 -0.1190121164 -0.2770281209 0.0969739032
155299070.0 -0.2629260242 0.1009544052 0.4071429939 -0.1240936139 0.4072124848 -0.1239930552 -0.2760481619 0.099593322
160299040.0 -0.261800448 0.1030449886 0.4056046021 -0.1286260876 0.4060784469 -0.1287886963 -0.2753593785 0.102248424
165299010.0 -0.2611934287 0.105415432 0.4048298617 -0.1337793194 0.4045797703 -0.1335878623 -0.2741523523 0.1046075599
170298980.0 -0.2600360576 0.1077578454 0.4027283246 -0.138408265 0.4035570003 -0.1384812334 -0.2733266172 0.1072545196
175298950.0 -0.2589175505 0.1104547686 0.4023552095 -0.143063279 0.4021258196 -0.1431791789 -0.2724405256 0.1100432583
180298920.0 -0.2581657795 0.1125468317 0.4002543085 -0.1480433015 0.4006423473 -0.1477539482 -0.2709924695 0.1125296275
185298890.0 -0.2571095789 0.1154457232 0.3985905325 -0.1531639049 0.3989597158 -0.1525425323 -0.2702821176 0.1145781806
190298860.0 -0.2560802683 0.1176146439 0.3974875631 -0.1574024499 0.3975742873 -0.1574555184 -0.2686987073 0.1174140616
195298830.0 -0.2546960326 0.1200223399 0.3956596484 -0.1616255256 0.3956867587 -0.1623202916 -0.2681648143 0.1200694909
200298800.0 -0.2538143389 0.1228667702 0.3942234668 -0.1662627644 0.3940685041 -0.1664089032 -0.2665647495 0.1230955054
205298770.0 -0.25273843 0.1251922265 0.3924690676 -0.1707699136 0.3922761062 -0.1710253858 -0.2656876093 0.1252598627
210298740.0 -0.2516997444 0.1278569953 0.3906583902 -0.1758882949 0.3907092701 -0.1762075581 -0.2645400673 0.1284083929
215298710.0 -0.2504135074 0.1305182694 0.3885618924 -0.180085634 0.3885012961 -0.1802505092 -0.2639476028 0.1308417496
220298680.0 -0.2490201004 0.132961996 0.3862244043 -0.1845752792 0.3868626959 -0.1849957966 -0.2621439052 0.1336240702
225298650.0 -0.2480038255 0.1357449346 0.3848072692 -0.1889635 0.3843848602 -0.1889614935 -0.2611887573 0.1362477926
230298620.0 -0.246726052 0.1381384147 0.3825541675 -0.193476614 0.3827848051 -0.193623417 -0.2596342238 0.1388535248
235298590.0 -0.2455281883 0.1406318239 0.3803137461 -0.1976090705 0.3807070806 -0.1978382475 -0.2581175342 0.141335528
240298560.0 -0.2442470022 0.1432055438 0.3782490152 -0.2018128203 0.3785787852 -0.2021404819 -0.2570936455 0.144317752
245298530.0 -0.2426579172 0.1457749203 0.3755782609 -0.2063206457 0.3760847632 -0.2066977142 -0.2556669076 0.1472204173
250298500.0 -0.241454253 0.1483129719 0.3736453083 -0.2104223844 0.37407861 -0.2102476087 -0.2540286411 0.1496300724
255298470.0 -0.2402619328 0.1511985667 0.371356816 -0.2154796092 0.3712629256 -0.2151590017 -0.252725517 0.1523405829
260298440.0 -0.2386592136 0.1536526076 0.3693985982 -0.2191856983 0.369171203 -0.2194240196 -0.250858763 0.1550594621
265298410.0 -0.2372059891 0.1561557502 0.3664582032 -0.2238223867 0.3665024633 -0.2234562607 -0.2499500203 0.1575741496
270298380.0 -0.2356024021 0.1586790146 0.3640787593 -0.2277307029 0.3641697689 -0.2276419847 -0.2477434286 0.1606634606
275298350.0 -0.2343704588 0.1616302273 0.361707125 -0.2319580541 0.3617687022 -0.2319440314 -0.2461680852 0.1631908382
280298320.0 -0.232829738 0.1636686604 0.3593372073 -0.2355155565 0.3586899572 -0.2360052039 -0.2446828501 0.1660469254
285298290.0 -0.2308524198 0.1664563822 0.3563545568 -0.2398060754 0.3564107716 -0.2400363302 -0.2430255541 0.1685373253
290298260.0 -0.2293873381 0.1687367266 0.3540732548 -0.243738811 0.353965226 -0.2438963139 -0.2411794656 0.1714205936
295298230.0 -0.2276229478 0.1712951091 0.3514103339 -0.247847206 0.3511881103 -0.2480609112 -0.2394990175 0.1736978263
300298200.0 -0.2256636801 0.1738804265 0.348305239 -0.2521820961 0.3484238073 -0.2522407319 -0.2378496025 0.1765048356
305298170.0 -0.2240783541 0.1760886946 0.3458516823 -0.2557759871 0.3457798081 -0.2560254048 -0.2355841454 0.179494661
310298140.0 -0.2218440843 0.1783075197 0.3429735408 -0.2599507635 0.3430592157 -0.2603512081 -0.2340275504 0.181874059
315298110.0 -0.2206715058 0.1810122334 0.3399525581 -0.2640874528 0.3399378006 -0.2639480834 -0.2319705212 0.184527172
320298080.0 -0.2185625758 0.1833223722 0.3368539229 -0.2680274621 0.3373658866 -0.2677739777 -0.2303459602 0.1868101892
325298050.0 -0.2172362294 0.1855326997 0.3343112652 -0.2715370053 0.3341587984 -0.2717764564 -0.2282508102 0.1893845488
330298020.0 -0.2152348642 0.1881118602 0.3303945844 -0.2754187753 0.3308027532 -0.2755559616 -0.2266195343 0.1919305967
335297990.0 -0.213415581 0.1907239635 0.3278906651 -0.2790819008 0.3276449208 -0.279346536 -0.2249053665 0.1942864983
340297960.0 -0.211901006 0.1927860236 0.3244041245 -0.282652464 0.3246314674 -0.2829138329 -0.2225646026 0.1971896034
345297930.0 -0.2101638216 0.1951470077 0.3213437703 -0.2859545597 0.3211044421 -0.2861086568 -0.2206967343 0.1997477598
350297900.0 -0.2079584553 0.1974639396 0.3178835092 -0.2894265485 0.3183080177 -0.2896138817 -0.2187549666 0.2019998151
355297870.0 -0.2057844336 0.1999207071 0.3146140922 -0.2930407355 0.315079542 -0.2934258527 -0.2170427524 0.2048312996
360297840.0 -0.2038058053 0.2022511833 0.3114355358 -0.2969800306 0.3115557974 -0.2968237297 -0.2147664818 0.2075599479
365297810.0 -0.2017742473 0.2046327604 0.3082093128 -0.3003126549 0.308342659 -0.3002084546 -0.2127455171 0.209904289
370297780.0 -0.1997799681 0.2066042727 0.3047132281 -0.3029624594 0.304763321 -0.3035618365 -0.2103101259 0.2121610662
375297750.0 -0.1975569171 0.2092655944 0.3017272811 -0.3070962155 0.3014790008 -0.3069176308 -0.2083036372 0.2148379883
380297720.0 -0.1953055798 0.2114386231 0.2979968545 -0.3100137628 0.2980501071 -0.310076561 -0.2058405167 0.217534759
385297690.0 -0.1931764272 0.2139428477 0.294517381 -0.3129723569 0.2945302511 -0.3133551178 -0.2037635122 0.2198411205
390297660.0 -0.1912092164 0.2160794836 0.2909507548 -0.3166054793 0.2909157681 -0.3166228211 -0.2016043548 0.2220562597
395297630.0 -0.1886025698 0.2179188688 0.2876800536 -0.3194716035 0.2874388571 -0.3198346215 -0.1990334707 0.224370696
400297600.0 -0.1866952112 0.2205262468 0.2842213195 -0.3227441479 0.2844466991 -0.3229547162 -0.1974336198 0.2263362096
405297570.0 -0.1843268025 0.2225769667 0.2803373462 -0.3260679677 0.2803662306 -0.3261552764 -0.1947185078 0.229342242
410297540.0 -0.181703753 0.2245846192 0.2763226492 -0.3288453683 0.2763361825 -0.3290431457 -0.1921856125 0.231473986
415297510.0 -0.1796688196 0.2266615779 0.2731537155 -0.3317788579 0.2732179819 -0.3319639885 -0.1899680478 0.2340396863
420297480.0 -0.1771350376 0.2284226887 0.2695088207 -0.3349751279 0.2694813131 -0.334944408 -0.1872313201 0.235744805
425297450.0 -0.1745285019 0.2304054422 0.2655887796 -0.3378274208 0.2659677166 -0.33799943 -0.1849754654 0.2380482714
430297420.0 -0.1724783045 0.2327692521 0.261944647 -0.3412005962 0.2618615573 -0.3405976498 -0.182581706 0.2401307363
435297390.0 -0.1697557905 0.2345394946 0.2582752745 -0.3431987127 0.2585972156 -0.3435213882 -0.1801873539 0.2425258814
440297360.0 -0.1671566389 0.2366394931 0.2539615079 -0.3458695627 0.2539428024 -0.3464049015 -0.1778193507 0.2444612146
445297330.0 -0.1648583827 0.2385058433 0.250119926 -0.3491966587 0.2503731123 -0.3491423952 -0.1750230442 0.2467301801
450297300.0 -0.1623972403 0.2401936681 0.2462622415 -0.3517466477 0.2469092252 -0.3518267855 -0.1730000839 0.2488577437
455297270.0 -0.1597734905 0.242344285 0.2430333349 -0.3544533122 0.2431019487 -0.3540219747 -0.1700380062 0.2505568523
460297240.0 -0.1578235601 0.2443586486 0.2389646356 -0.3567588209 0.2388004364 -0.3571168755 -0.1670479463 0.2530842491
465297210.0 -0.1546630203 0.2458399596 0.2351378262 -0.3596806648 0.2350491476 -0.3596890033 -0.165134493 0.2546351913
470297180.0 -0.1521545808 0.2477229884 0.2308373116 -0.3616791109 0.2314207316 -0.3620620176 -0.1627772633 0.2566342658
475297150.0 -0.149810374 0.2494347644 0.227098912 -0.3645504456 0.2269998648 -0.3642409839 -0.1593350229 0.2583951395
480297120.0 -0.147101075 0.251006046 0.2229516681 -0.3667727441 0.2230966108 -0.3670503091 -0.1572231295 0.2608766573
485297090.0 -0.1442805784 0.2526569989 0.2188063972 -0.3693196754 0.2190540106 -0.3693156558 -0.1545697031 0.2622615781
490297060.0 -0.1415857461 0.2542084602 0.2148107485 -0.3715549527 0.2150520443 -0.3716983591 -0.1518527755 0.2644154735
495297030.0 -0.1390755259 0.2561648166 0.2104189503 -0.3740830381 0.2105105551 -0.374035015 -0.148898968 0.2657900049
500297000.0 -0.1362093142 0.257587382 0.2064120907 -0.376039054 0.2063969532 -0.3760950163 -0.1466795711 0.2674981134
505296970.0 -0.1336587767 0.2589940802 0.2021908629 -0.3778370402 0.2023779962 -0.378142513 -0.1441693033 0.269542989
510296940.0 -0.130951936 0.2608535582 0.1980869599 -0.3803580222 0.1981771602 -0.3803971752 -0.1405564193 0.2714800358
515296910.0 -0.1284711303 0.2625208427 0.1940363454 -0.3824428198 0.1942331622 -0.382424768 -0.138064159 0.2731378675
520296880.0 -0.125623326 0.2643281828 0.1901657712 -0.3846709846 0.189937729 -0.3843342541 -0.1351786647 0.2743685818
525296850.0 -0.1227162758 0.2651464764 0.1856493537 -0.3867407067 0.1854491467 -0.3868957448 -0.1320390751 0.2760590435
530296820.0 -0.1198737675 0.2667871039 0.1817119397 -0.3881976469 0.1817524042 -0.3882515047 -0.1297266248 0.2775673572
535296790.0 -0.1173544004 0.268095229 0.1771943734 -0.3900975759 0.1773723646 -0.3902512459 -0.1269572658 0.2789889791
540296760.0 -0.1143014578 0.2691388805 0.1728258139 -0.3923463481 0.1728440911 -0.3925595125 -0.1242173436 0.2806575886
545296730.0 -0.1114474061 0.2708951698 0.1685410948 -0.3940181587 0.1685580234 -0.3944223637 -0.1215754203 0.2819938229
550296700.0 -0.1088259567 0.2720535827 0.1644268263 -0.3958901661 0.1648357754 -0.3961254948 -0.1186088939 0.2834855702
555296670.0 -0.1054977159 0.2732871968 0.1601706062 -0.3975320051 0.1599973492 -0.3976942046 -0.1153656688 0.285142249
560296640.0 -0.1028974527 0.2746462814 0.1558790592 -0.3992886145 0.1560429555 -0.3992722618 -0.1128416029 0.2864213585
565296610.0 -0.1000403798 0.2759506934 0.1513017546 -0.4007040792 0.151116773 -0.4008082291 -0.1097252254 0.2877254125
570296580.0 -0.0972290108 0.2769561523 0.1471811244 -0.4021701261 0.1471546596 -0.4025213956 -0.1068723431 0.289269494
575296550.0 -0.093942989 0.2787573897 0.1424960245 -0.4038936289 0.1429316575 -0.4036913935 -0.10326676 0.2904698895
580296520.0 -0.0909898456 0.2796313914 0.1383263997 -0.4053391165 0.1383612761 -0.4056050284 -0.1006517654 0.2916585006
585296490.0 -0.0884172657 0.2801743314 0.1340592733 -0.4067756288 0.1337816906 -0.4067840528 -0.0976894772 0.2925046313
590296460.0 -0.0853773791 0.2812642256 0.129104297 -0.4082817831 0.1294218556 -0.4085873556 -0.0945407722 0.2940036752
595296430.0 -0.0823923178 0.2829392607 0.1249654579 -0.4099301701 0.1247428742 -0.4100370023 -0.0912023511 0.294826937
600296400.0 -0.0794678061 0.2838008983 0.1207057713 -0.4112255298 0.1208214283 -0.411205136 -0.0884452479 0.2963401089
605296370.0 -0.0760917571 0.2850426937 0.1158406741 -0.4127179195 0.116024072 -0.4120413158 -0.0853433982 0.2970241318
610296340.0 -0.0733337379 0.2857842481 0.1115809403 -0.4136091767 0.1116522569 -0.4135069065 -0.0823034973 0.298553709
615296310.0 -0.0702863974 0.2865309603 0.1070049837 -0.4143287061 0.1072774548 -0.4147109847 -0.0793215924 0.2993371265
620296280.0 -0.0674681934 0.2871839561 0.1028451913 -0.4155617125 0.1023713361 -0.4155679713 -0.0765477991 0.3001655021
625296250.0 -0.0642232066 0.2881002195 0.0975037175 -0.4167140312 0.0982134591 -0.4167670728 -0.0731929056 0.3010425284
630296220.0 -0.0611390783 0.2890841788 0.0933654182 -0.4180182761 0.0937393871 -0.4174473632 -0.070436119 0.3022315069
635296190.0 -0.0582660683 0.2901383884 0.0887731084 -0.4185709138 0.0887652307 -0.4182943357 -0.0672409527 0.3029028994
640296160.0 -0.0551883231 0.290256026 0.084457011 -0.4195073467 0.0845381951 -0.419481885 -0.0638227153 0.3035991469
645296130.0 -0.0522087306 0.2918139922 0.0796697595 -0.4205239995 0.0799532364 -0.4203972781 -0.0611286655 0.3042474874
650296100.0 -0.0492306913 0.2924431504 0.075889079 -0.4213002037 0.0754191481 -0.420934364 -0.0578417929 0.305423934
655296070.0 -0.0457857887 0.2925245969 0.0707155883 -0.4215980832 0.0705870739 -0.4218633657 -0.0540518183 0.306211007
660296040.0 -0.0430925199 0.2935094639 0.0663977484 -0.4222196854 0.0663257864 -0.4226366818 -0.0514516064 0.3069771638
665296010.0 -0.0397532136 0.293788165 0.0617137658 -0.4231396932 0.0617458353 -0.423351929 -0.0482346352 0.3077889121
670295980.0 -0.0363548694 0.2947007904 0.0568153233 -0.4236515991 0.0572195895 -0.4236541792 -0.0453711521 0.3081992764
675295950.0 -0.0333667199 0.2948774299 0.0520021751 -0.4246656815 0.0526130324 -0.4251556271 -0.0417894222 0.3092766424
680295920.0 -0.0304964159 0.2960294482 0.0476955443 -0.4248803121 0.047602864 -0.4250484904 -0.0383463783 0.3095240049
685295890.0 -0.0269391581 0.2960991139 0.0432346415 -0.4253350842 0.0430949778 -0.4256576873 -0.0354968521 0.3099249396
690295860.0 -0.0237764504 0.2966550373 0.0382953404 -0.4254163201 0.0383901771 -0.4253654763 -0.0318066672 0.3104801961
695295830.0 -0.0205732578 0.2968036073 0.0333735493 -0.4262832341 0.0339138069 -0.4265198103 -0.029275157 0.3107496999
700295800.0 -0.0174190138 0.2972797937 0.0288848244 -0.4263447192 0.0291189337 -0.4268342919 -0.0257671755 0.3111416158
705295770.0 -0.0142363694 0.2976833759 0.0244172032 -0.4266099237 0.0247554227 -0.4265634468 -0.0228178432 0.3114751218
710295740.0 -0.0114364404 0.2978210921 0.0200518372 -0.4270120031 0.0202872591 -0.4267712795 -0.0197517784 0.3123812552
715295710.0 -0.008486323 0.2984186241 0.0154677709 -0.4270676893 0.0155857043 -0.4270882517 -0.0161243919 0.3123411099
720295680.0 -0.0052735984 0.2980308763 0.0107065511 -0.4269117984 0.0106897443 -0.4273902408 -0.0128087643 0.3129352817
725295650.0 -0.0016204513 0.2988023325 0.0058463439 -0.427159628 0.0061542816 -0.4269804206 -0.00942243 0.3132161277
730295620.0 0.0012077462 0.2988511548 0.0014546776 -0.4268456543 0.0013882501 -0.4269857518 -0.0061059827 0.3129781106
735295590.0 0.0048131271 0.2990147109 -0.00295686 -0.42728356 -0.0028624704 -0.427471788 -0.0029327151 0.3135763363
740295560.0 0.0076779982 0.2991481913 -0.0076571204 -0.4269244498 -0.0079413025 -0.4267983069 0.0001270449 0.3133683217
745295530.0 0.0109524575 0.2988619119 -0.0127449309 -0.4267183624 -0.0121729993 -0.4270556136 0.0034576818 0.3139452472
750295500.0 0.01414025 0.2989344627 -0.0168771385 -0.4263466489 -0.0170894129 -0.4264149187 0.007010441 0.3136709053
755295470.0 0.017556151 0.2990563465 -0.0214364544 -0.4262433955 -0.0213505614 -0.4265111792 0.009616927 0.3139236122
760295440.0 0.0201733985 0.2992163592 -0.0262551685 -0.4260714443 -0.0262069703 -0.4261556147 0.012866329 0.3139330645
765295410.0 0.023496587 0.2988970309 -0.0304022941 -0.4259428044 -0.030716946 -0.4257988567 0.0167752623 0.3141434323
770295380.0 0.0266324752 0.2989895581 -0.0351854353 -0.4252251443 -0.0354544825 -0.4258782866 0.0200575402 0.3140418267
775295350.0 0.0300864766 0.2988598545 -0.040135988 -0.4246141991 -0.0397066734 -0.4248562763 0.022482431 0.3135483
780295320.0 0.0332910188 0.2984089461 -0.0445419648 -0.4244830773 -0.0442050196 -0.424754187 0.026125101 0.3139488526
785295290.0 0.0362914558 0.2988007196 -0.0489093356 -0.4234828915 -0.0492111617 -0.4240579632 0.0294542421 0.3136946279
790295260.0 0.0392079028 0.2981243899 -0.0535533386 -0.4232310598 -0.0539264002 -0.423481082 0.0328391033 0.3136324257
795295230.0 0.04247192 0.2982602647 -0.0579390364 -0.4225292043 -0.0578959058 -0.4229916125 0.0359617805 0.3135669185
800295200.0 0.0457867769 0.2977167299 -0.0628690197 -0.4221323112 -0.0629944742 -0.4220837672 0.0393435384 0.3129957259
805295170.0 0.0488217601 0.2973514402 -0.0672164089 -0.4206259857 -0.067320385 -0.4210484244 0.041977466 0.3126259735
810295140.0 0.0519817974 0.2967659455 -0.0717780599 -0.4203147788 -0.0717550241 -0.4209873747 0.0456242602 0.3128315345
815295110.0 0.055081555 0.2964514986 -0.0765311141 -0.4194393458 -0.0766827239 -0.4193104098 0.0486716361 0.3119418058
820295080.0 0.0581078021 0.2958912031 -0.0803687928 -0.41857666 -0.0808618411 -0.4188457949 0.0520797345 0.3115155677
825295050.0 0.0614722269 0.2953627924 -0.0855929849 -0.4175029068 -0.0855061906 -0.4178771827 0.0554231566 0.3115111652
830295020.0 0.0646317213 0.2949813693 -0.0899851148 -0.4164966492 -0.0903148344 -0.4167224659 0.0582652584 0.3110638611
