!Created with skrf (http://scikit-rf.org).
# Hz S RI R 50.0 
!freq ReS11 ImS11 ReS21 ImS21 ReS12 ImS12 ReS22 ImS22
300000.0 -0.7740326824 -0.1049849976 -0.0003434904 -0.0005791225 3.09886e-05 0.0011881157 -0.2114444533 -0.0843555281
5299970.0 -0.7849131532 -0.0065857637 -3.25711e-05 -1.75376e-05 7.3911e-06 6.15063e-05 -0.2148689323 0.0083931051
10299940.0 -0.787916449 -0.0040435416 5.77668e-05 0.0001091463 -0.0001455797 -3.70219e-05 -0.2110523592 0.0213976142
15299910.0 -0.7934050009 -0.002466608 -8.89799e-05 0.0002286368 8.37816e-05 0.0001127907 -0.2059581926 0.0313351745
20299880.0 -0.7999155435 0.001933635 -6.0826e-06 -0.0001009984 0.0001155745 -8.18192e-05 -0.1998824802 0.0391082164
25299850.0 -0.8060725914 0.0075632063 1.84029e-05 4.49964e-05 0.0001717774 -3.65386e-05 -0.19360968 0.0456850037
30299820.0 -0.812796431 0.0147753415 8.48291e-05 0.0002724758 2.12883e-05 8.93607e-05 -0.1872012571 0.0508349457
35299790.0 -0.8173173029 0.0239941771 -8.4198e-05 0.0001383895 -3.76608e-05 -0.0001091637 -0.1808125001 0.0548150055
40299760.0 -0.8215302361 0.033593027 -0.0001198075 9.778e-05 -9.8934e-06 -0.000138422 -0.1750183578 0.0572355195
45299730.0 -0.8243995456 0.0429432031 4.13233e-05 -0.0001545057 3.51596e-05 -4.70561e-05 -0.1696200379 0.0598170152
50299700.0 -0.827693663 0.0531706134 3.21512e-05 -0.0001938425 -9.6889e-05 0.0001886636 -0.1642927342 0.0609181932
55299670.0 -0.8291291383 0.0631031124 6.60694e-05 -0.000117735 4.61157e-05 -0.0001329731 -0.1594248578 0.0620293102
60299640.0 -0.8304133677 0.0734624538 -0.0001437774 0.000116051 -0.0001446261 7.65318e-05 -0.1547869766 0.0624159408
65299610.0 -0.8312535483 0.0837140708 6.17879e-05 2.40797e-05 0.0001269564 4.67223e-05 -0.1512390528 0.0625929614
70299580.0 -0.8312055632 0.0930890859 -9.70452e-05 3.74544e-05 0.0001189609 0.0001633719 -0.1477134585 0.0628781812
75299550.0 -0.8320119079 0.1037120693 0.0001157855 -0.0001365383 0.0001426443 -2.79618e-05 -0.1446449333 0.0626293431
80299520.0 -0.8319285878 0.1132840532 -0.0001362287 -0.0001000303 -6.8406e-06 0.0001430541 -0.1421255645 0.0627846017
85299490.0 -0.8309173797 0.1228386826 -3.6611e-05 -0.0002132438 0.000135669 -2.21989e-05 -0.1393150705 0.062173908
90299460.0 -0.8301182085 0.1321277096 8.18489e-05 -0.0001198051 -8.51372e-05 2.43817e-05 -0.1369669123 0.0619957431
95299430.0 -0.8295682472 0.1417659444 -0.0001653647 -0.000100598 -0.0001147322 -7.15409e-05 -0.1348809987 0.0620965392
100299400.0 -0.8276930708 0.1503873499 7.51569e-05 9.0796e-05 -1.38487e-05 -0.000186797 -0.1328297985 0.0617232978
105299370.0 -0.8266302844 0.1601118623 9.34195e-05 4.07204e-05 6.80864e-05 3.51927e-05 -0.1308665327 0.061269334
110299340.0 -0.8255605558 0.1696237138 -1.59234e-05 6.60576e-05 -5.11767e-05 0.0001191345 -0.1293524411 0.0612593311
115299310.0 -0.8242996182 0.1783616489 -5.10688e-05 7.45446e-05 -2.7113e-05 6.99634e-05 -0.1282671761 0.0613432447
120299280.0 -0.8224782407 0.186780879 6.22144e-05 -5.40068e-05 -0.0002478511 -8.08814e-05 -0.1265782371 0.0611213204
125299250.0 -0.8204290682 0.1958053188 6.03987e-05 -3.75901e-05 -0.0001015581 -3.69103e-05 -0.1256439666 0.0606368202
130299220.0 -0.8188219669 0.2051437825 6.59614e-05 2.99003e-05 0.0001534371 -0.0001241623 -0.1244472023 0.0607737768
135299190.0 -0.8169164538 0.2140795649 5.44641e-05 -0.0001598658 0.0001698447 7.5137e-06 -0.1231589716 0.0610755448
140299160.0 -0.8146229878 0.222898163 -9.50789e-05 7.39066e-05 8.36921e-05 -0.0001803216 -0.122492374 0.0609879674
145299130.0 -0.8126974939 0.2318749222 0.0002254676 3.99863e-05 0.000119998 -2.74757e-05 -0.1217432365 0.0613125251
150299100.0 -0.8100636841 0.2410355006 7.87694e-05 0.0001714019 2.92592e-05 9.1384e-06 -0.1209979417 0.0621492359
155299070.0 -0.8076999501 0.2490875691 4.11518e-05 0.0001370892 -0.000237894 0.0002187806 -0.1199949295 0.0622705863
160299040.0 -0.8053342983 0.2577517558 -4.05045e-05 0.0001376585 7.01634e-05 -6.73255e-05 -0.1193749946 0.0626374628
165299010.0 -0.8027424475 0.2664597956 0.0002143362 1.6716e-05 -6.18227e-05 -7.91047e-05 -0.1189373301 0.06309969
170298980.0 -0.8003254122 0.2748995728 4.77175e-05 3.06307e-05 4.44521e-05 5.21069e-05 -0.1181392072 0.0633810163
175298950.0 -0.79707933 0.2843615711 9.04465e-05 -0.0001329587 0.0001908542 0.0002484665 -0.1177201317 0.0639594862
180298920.0 -0.7946305646 0.2927474026 -3.28418e-05 -0.0002080619 0.0001493569 -0.000127614 -0.1172059223 0.0646157344
185298890.0 -0.7911113517 0.3006558112 0.000195112 3.34014e-05 2.33083e-05 -4.41954e-05 -0.1164797069 0.0650116927
190298860.0 -0.7884931044 0.3092297809 -8.85583e-05 2.1793e-06 -3.27246e-05 4.1849e-06 -0.1160937993 0.0657866993
195298830.0 -0.7855759318 0.3175199833 0.0002256367 0.0001670004 8.3172e-05 9.08331e-05 -0.1157505819 0.0664092987
200298800.0 -0.7813065485 0.3256911928 1.23475e-05 1.82831e-05 0.0001071391 -0.0001214992 -0.1152274584 0.0670447262
205298770.0 -0.7786882292 0.3337675084 -0.0001505614 0.00026091 9.3014e-06 9.76203e-05 -0.1150825193 0.0670817441
210298740.0 -0.7748822198 0.3423231054 0.0001642612 3.34801e-05 0.0001167988 5.71738e-05 -0.114113773 0.0682295284
215298710.0 -0.7717555628 0.3509371867 -2.31076e-05 -0.0001214774 0.0001769858 0.0003417444 -0.1140298601 0.0684731704
220298680.0 -0.7675594521 0.3586111771 0.000262887 -0.0001255438 9.95879e-05 -0.0001099861 -0.1139196675 0.0692820729
225298650.0 -0.7643661929 0.3661326998 -7.73129e-05 -6.51395e-05 0.0002174868 -3.69332e-05 -0.1136288036 0.0699695067
230298620.0 -0.7601659604 0.3745923494 0.000111437 -4.11523e-05 -7.6489e-05 -8.10734e-05 -0.1127886242 0.0706621801
235298590.0 -0.7565337636 0.3834262829 6.01806e-05 2.69174e-05 3.21417e-05 5.50464e-05 -0.1122550827 0.0714634293
240298560.0 -0.7522197188 0.3909197578 -2.66874e-05 0.0002650926 -1.66226e-05 6.7649e-05 -0.1119542859 0.0725775107
245298530.0 -0.7487121077 0.3984112239 -5.31772e-05 0.0001601522 0.0001525626 -2.44178e-05 -0.1115807294 0.0729705853
250298500.0 -0.7440955756 0.4066078468 0.0003098997 7.46992e-05 0.0001676251 0.0001150002 -0.1112268549 0.0736710822
255298470.0 -0.7398982321 0.4144838228 -0.0001602303 -1.10531e-05 0.0002635004 0.0002306312 -0.1106325904 0.0745288322
260298440.0 -0.7353303911 0.4213032831 0.0001967964 -0.0001925495 0.0002940652 9.4303e-05 -0.1100611536 0.0754848488
265298410.0 -0.7315368369 0.4296906233 0.0001023407 -3.03499e-05 -0.0001304555 6.39803e-05 -0.1092474433 0.0764042293
270298380.0 -0.7267678447 0.4370438543 0.0001063361 3.67471e-05 -6.00799e-05 0.0001317577 -0.1088425011 0.0771674327
275298350.0 -0.722067445 0.4446387583 0.0001137304 -1.74037e-05 7.43597e-05 5.75541e-05 -0.108155373 0.0778237196
280298320.0 -0.7173692124 0.4521108185 -3.70588e-05 0.0001394881 -3.11585e-05 8.02157e-05 -0.1077009818 0.0787279578
285298290.0 -0.7130752122 0.4600476752 -1.00578e-05 7.83323e-05 -1.77121e-05 -7.82462e-05 -0.1072672799 0.0794397646
290298260.0 -0.7080388448 0.4670096763 0.000152444 0.0002954477 4.51387e-05 -2.45714e-05 -0.1064598396 0.080674515
295298230.0 -0.7022107494 0.4740691221 0.0001933102 1.57552e-05 0.0001629565 -2.0796e-05 -0.1060044696 0.0812903031
300298200.0 -0.698216748 0.4817303016 0.000115268 0.0001368331 8.38845e-05 0.0003532965 -0.1052285219 0.0825878805
305298170.0 -0.6930683059 0.4880250471 0.0001849041 6.78078e-05 8.22092e-05 -2.2763e-06 -0.1043147369 0.0831606589
310298140.0 -0.6875722753 0.4961732142 6.88092e-05 1.3245e-05 0.0001596387 0.0002278421 -0.1040854818 0.0840858273
315298110.0 -0.6827284586 0.5028127963 0.0001434616 1.8938e-05 -4.50615e-05 5.11611e-05 -0.1033623342 0.0850537328
320298080.0 -0.6774809364 0.510352955 0.0003260242 -6.86442e-05 0.0002590722 0.0001427716 -0.1027698571 0.0858776482
325298050.0 -0.6716634832 0.5168810832 -3.97673e-05 2.75653e-05 8.08457e-05 0.000221316 -0.1022730412 0.0867915197
330298020.0 -0.6663509223 0.5238284767 0.0001875886 0.0002040175 -4.49686e-05 -0.0001077404 -0.101774641 0.0879965513
335297990.0 -0.6606539256 0.530463142 0.0001811969 -9.39571e-05 -8.81162e-05 0.0004216535 -0.1013925428 0.0890673649
340297960.0 -0.6564764185 0.537452326 6.46678e-05 1.8234e-06 6.24798e-05 0.0001121423 -0.1007313561 0.0900803783
345297930.0 -0.6501759378 0.5437696011 -4.0555e-05 4.27948e-05 0.0002055414 -3.39916e-05 -0.1003135947 0.0909241796
350297900.0 -0.6446710115 0.5506848588 0.0001627721 0.0001445885 0.0001496759 -0.0001137824 -0.099531915 0.0925792497
355297870.0 -0.6382089546 0.5580887877 -2.15203e-05 0.0002043722 1.21999e-05 0.0001917881 -0.098882092 0.093193448
360297840.0 -0.6325386284 0.5639463956 0.0001907425 0.0001623753 0.0001795731 0.0003340548 -0.0982435104 0.0945228268
365297810.0 -0.6273000819 0.5703220239 0.0001315585 0.00047157 0.0001057981 -0.0001266193 -0.0976809735 0.0950689849
370297780.0 -0.621007074 0.5764291501 0.0001737492 -0.0001637662 0.0001136318 -9.19274e-05 -0.0966871973 0.0965026616
375297750.0 -0.6146665576 0.5832119857 0.0001190089 -0.0001586411 8.08123e-05 -3.6708e-06 -0.0962690061 0.0972928094
380297720.0 -0.6083781973 0.5890832563 0.0001934274 1.27337e-05 0.0002168489 -1.27105e-05 -0.0957230706 0.0986255402
385297690.0 -0.6033539565 0.5955269725 0.0001081034 -3.74434e-05 6.85849e-05 3.39437e-05 -0.0949415348 0.0993926177
390297660.0 -0.5972446571 0.601384295 3.45499e-05 0.0004703258 0.0001799411 -2.40995e-05 -0.0943720285 0.1007607516
395297630.0 -0.5900883845 0.607892163 0.0002082747 0.0001008218 0.0001479569 2.3629e-05 -0.0932507233 0.1018094806
400297600.0 -0.5835628178 0.6138533033 0.0001428865 -1.053e-06 0.0001499645 0.0002334602 -0.0923741539 0.102666682
405297570.0 -0.577529529 0.6192093943 1.85806e-05 0.0001655055 -4.89786e-05 -6.68239e-05 -0.0919731416 0.1034270782
410297540.0 -0.5712687098 0.6250618367 0.000199506 -7.5265e-05 0.0002267703 -0.0001027544 -0.0910859328 0.1044965009
415297510.0 -0.5648918534 0.6310469647 4.34251e-05 -0.0001026731 0.0002302507 0.0001027235 -0.0902637039 0.1053473718
420297480.0 -0.5593144128 0.6371068741 4.40683e-05 -9.77004e-05 0.0003378558 -4.97916e-05 -0.0892666616 0.1064840253
425297450.0 -0.5519833278 0.6423195146 0.0001255502 1.77143e-05 0.0001277583 8.79377e-05 -0.0883987817 0.1075194888
430297420.0 -0.5448810067 0.6482427761 0.0002789613 -1.65477e-05 9.05024e-05 9.72985e-05 -0.0879514113 0.1084931156
435297390.0 -0.5386135704 0.6531389 0.0001279922 2.04187e-05 0.000116079 0.0001426313 -0.0868008379 0.1091620722
440297360.0 -0.5320388632 0.6584517276 0.0001984998 0.0001043923 0.000206993 0.0001570232 -0.0856229045 0.1101533262
445297330.0 -0.5251160428 0.6639571269 0.0001979859 0.0001808391 0.0002358834 1.38886e-05 -0.0850854034 0.1105268516
450297300.0 -0.5183978685 0.6687981296 0.0002449248 3.73937e-05 4.90886e-05 1.2989e-05 -0.0837751937 0.1117273853
455297270.0 -0.5115698188 0.6744858134 -7.2749e-06 0.0002751094 0.0002711826 -9.63855e-05 -0.0830138107 0.1126270327
460297240.0 -0.5050648727 0.6795629868 0.0001561216 0.0002281621 6.17838e-05 0.0001053704 -0.08199807 0.1135231448
465297210.0 -0.4977128477 0.6846239588 0.0002165409 0.0002110087 0.0001859579 -5.89722e-05 -0.0808679741 0.1145487138
470297180.0 -0.4905162556 0.6896147814 -0.0001302695 0.0002763338 0.0001173692 0.0001296543 -0.0798298683 0.115888331
475297150.0 -0.4836156096 0.6939821541 0.000126519 0.0001666713 8.9596e-05 0.0001043318 -0.0788233443 0.1159317728
480297120.0 -0.4765916324 0.6995776947 -6.50876e-05 4.67014e-05 7.31683e-05 5.30862e-05 -0.0774819446 0.1173839542
485297090.0 -0.4689099564 0.7038882488 0.0002199151 0.000208742 2.23913e-05 3.43749e-05 -0.0764172506 0.1183555415
490297060.0 -0.4624075824 0.7085339641 0.000234475 -0.0001485507 7.0262e-05 -3.8038e-05 -0.0757465044 0.1191642546
495297030.0 -0.4551694267 0.7130827651 4.73629e-05 1.00913e-05 -0.0001227369 -8.68189e-05 -0.0748036948 0.1202237857
500297000.0 -0.4477826126 0.7176294391 2.40062e-05 0.0003340582 -0.0001088741 0.00016238 -0.0732789681 0.1215893279
505296970.0 -0.4403892197 0.722799925 5.61379e-05 -2.03984e-05 0.0001691832 0.0001390084 -0.0723894842 0.1216662359
510296940.0 -0.4332096536 0.726835013 0.0001544282 2.79576e-05 0.0003465351 -0.0001010496 -0.0714070061 0.1230041619
515296910.0 -0.4250192619 0.7304750167 0.0003083185 6.3503e-05 0.0002901315 0.0002325041 -0.0702050423 0.1239252988
520296880.0 -0.4182833807 0.7351217987 0.0001161451 6.15415e-05 0.0002210585 -2.76574e-05 -0.0691731123 0.1246792081
525296850.0 -0.4106158548 0.7388220236 0.0001963686 -7.2689e-06 0.0002414051 0.0001189474 -0.068436503 0.1258955616
530296820.0 -0.4031219225 0.7434681298 0.0003598331 0.0003320976 0.0003078626 -0.000139373 -0.0669278088 0.1267610424
535296790.0 -0.395917525 0.7472094999 0.0002711419 0.0001864663 0.000130421 6.20061e-05 -0.0662093458 0.1271524852
540296760.0 -0.3880060506 0.7509428984 0.000177981 0.000182421 0.0001817202 0.000263168 -0.0651050255 0.1282317029
545296730.0 -0.3810237921 0.7551958147 -1.32466e-05 4.37239e-05 8.37463e-05 3.35893e-05 -0.0641422543 0.1289936902
550296700.0 -0.3728839265 0.7592032155 6.99184e-05 -5.04497e-05 0.0001882297 0.0001258042 -0.0628385357 0.1297548129
555296670.0 -0.3651599856 0.7615141474 8.15554e-05 0.0001232466 0.0002406686 6.34052e-05 -0.0616452765 0.1308968908
560296640.0 -0.3574236357 0.7661985658 0.0003188417 -6.92786e-05 0.000129468 0.0001446895 -0.0604591859 0.1315568456
565296610.0 -0.3502788353 0.769542517 9.34568e-05 -1.84474e-05 0.0001891744 -0.0002682237 -0.0593044047 0.1318398377
570296580.0 -0.342439077 0.7725300069 0.000279963 9.49679e-05 0.000374166 0.0001485059 -0.0583649909 0.1328395804
575296550.0 -0.3349408323 0.7768287876 0.0002813327 0.0001633951 -0.0001584441 3.40023e-05 -0.0572138948 0.1337661352
580296520.0 -0.3258496845 0.7792591953 0.0003701507 3.238e-06 0.0003598286 7.78988e-05 -0.055724766 0.1341957605
585296490.0 -0.3191246213 0.7827143847 0.0002525404 0.0001957079 0.0002890107 0.0001572332 -0.0545002292 0.1349238833
590296460.0 -0.3110339422 0.7858295421 0.0003098447 0.0002329256 0.000160274 -0.0002112691 -0.0538816618 0.1358201827
595296430.0 -0.3032701737 0.7883073629 0.0002488802 0.0001075671 0.0002307228 3.71769e-05 -0.052325973 0.1358483213
600296400.0 -0.2954242004 0.7919604741 8.80039e-05 -1.88969e-05 0.000123349 4.648e-07 -0.0511763344 0.1365612221
605296370.0 -0.2883814996 0.7944080555 0.0001233401 0.0002942394 0.0001599631 -9.34514e-05 -0.0497141649 0.1375547634
610296340.0 -0.2793508459 0.7970147141 0.0002656886 -9.1002e-06 0.0001907998 -5.55204e-05 -0.0484582051 0.1381801181
615296310.0 -0.2708428642 0.7999129301 0.0001881392 2.37927e-05 0.0001593838 3.33133e-05 -0.0468181114 0.1386526778
620296280.0 -0.2629436071 0.8014407801 0.0001387286 1.61022e-05 1.55565e-05 0.000297164 -0.0459069437 0.1392695999
625296250.0 -0.2552787236 0.8054596369 0.0002394752 8.88816e-05 0.0002035648 -6.12144e-05 -0.0443273302 0.1398821031
630296220.0 -0.2466416129 0.8077199324 0.0002284445 4.33064e-05 0.0003654871 -9.2352e-05 -0.0433022682 0.1404170844
635296190.0 -0.2391169368 0.8100528799 0.0002488351 7.18342e-05 0.0003491516 -7.93908e-05 -0.0417527408 0.1411259625
640296160.0 -0.2314676868 0.812505862 3.29274e-05 2.80636e-05 0.0002730392 -5.68483e-05 -0.040465503 0.141627476
645296130.0 -0.223278871 0.8153502866 0.0003250704 -2.0432e-05 0.0003173406 3.34831e-05 -0.0391852545 0.1423993411
650296100.0 -0.2146253336 0.8164717786 7.56892e-05 2.38658e-05 0.0001221859 -5.9006e-05 -0.0378757126 0.1427592426
655296070.0 -0.2065789892 0.8189463463 0.0001876951 -7.29922e-05 3.21379e-05 0.0001299168 -0.0362718465 0.1435146596
660296040.0 -0.1984848824 0.8206774936 0.0003686587 8.83754e-05 0.0001851523 6.1618e-05 -0.0349967964 0.1442023084
665296010.0 -0.1898939491 0.8223080699 0.0003444013 5.45472e-05 2.07689e-05 -3.75196e-05 -0.0337552235 0.14465841
670295980.0 -0.1824299008 0.8246075425 0.0003083193 9.97424e-05 0.0001615455 -0.0001691136 -0.0324741556 0.1453594456
675295950.0 -0.1733838291 0.8262252307 0.0001813637 7.12509e-05 0.0001206516 -7.35136e-05 -0.0313910653 0.1459146593
680295920.0 -0.165183493 0.827776699 0.0002185908 3.51249e-05 9.69557e-05 5.77775e-05 -0.0295773009 0.1466584694
685295890.0 -0.1571663369 0.8301033222 5.56306e-05 -0.00050491 0.0001633401 -0.0001242599 -0.0283712624 0.1471024981
690295860.0 -0.1490567084 0.8310976828 0.0001094906 -0.0002153392 0.00043541 -0.0001256519 -0.0269295431 0.1477371749
695295830.0 -0.1410612009 0.8322977069 0.0002347685 -0.0002269864 0.0002062827 9.94014e-05 -0.0253667381 0.1480493908
700295800.0 -0.1320939949 0.8339214749 0.0001818856 0.000231376 0.0002530355 -4.7673e-05 -0.0245135449 0.1488078497
705295770.0 -0.1244673149 0.8354405126 0.0002017667 9.53486e-05 0.000322226 8.825e-07 -0.022937235 0.1496275158
710295740.0 -0.1159808542 0.836629158 0.0003973727 5.82496e-05 0.0004212039 0.0001057526 -0.021670863 0.1493146905
715295710.0 -0.1076722687 0.8371044308 0.0001415547 -0.0001146517 0.0001762522 3.53166e-05 -0.0202456277 0.1500877945
720295680.0 -0.0991245293 0.8379259609 0.0002161552 -9.9211e-05 0.0001934738 2.03309e-05 -0.018696004 0.1505249557
725295650.0 -0.0910592803 0.8393286624 0.0002881461 -0.0001139037 4.15937e-05 8.3024e-06 -0.0178262119 0.1511823413
730295620.0 -0.0826409892 0.8404173654 0.0002449764 -3.83792e-05 0.0003604535 0.0002086778 -0.0164184996 0.1512876998
735295590.0 -0.074478554 0.8412628973 0.0001507798 -1.88676e-05 0.0003892248 -5.68838e-05 -0.0153683167 0.1515918149
740295560.0 -0.0664661343 0.84226649 -2.0548e-05 4.33424e-05 0.0004291451 -0.0002822793 -0.013189664 0.1522458177
745295530.0 -0.0571317921 0.8425434567 0.000140841 -0.000142244 0.0002970049 -0.0002141247 -0.011867156 0.1521389678
750295500.0 -0.049270949 0.8430092354 0.0001144723 -3.33334e-05 0.000135591 1.25028e-05 -0.0106716572 0.1524877719
755295470.0 -0.041013167 0.8430038858 0.0001949232 0.0001396017 0.0003092117 -9.7509e-05 -0.0091463186 0.1524347972
760295440.0 -0.0334359656 0.8432671075 0.0002054957 0.0001790335 0.0001423331 9.14203e-05 -0.0077444967 0.1530465085
765295410.0 -0.0243666104 0.8437547761 0.0004326867 -0.0001525889 0.0001759837 3.9133e-06 -0.0062794156 0.153244845
770295380.0 -0.0160481794 0.8440497295 3.05859e-05 4.3353e-05 0.0005327469 -1.27401e-05 -0.0052042228 0.1534111917
775295350.0 -0.0082131377 0.843771827 0.0001923619 -7.89824e-05 0.0001379272 0.0001081553 -0.0037190934 0.1536457274
780295320.0 0.0005155593 0.8445588334 0.0001291598 -1.28509e-05 0.0002146704 4.43499e-05 -0.0021105205 0.1538202041
785295290.0 0.0087005786 0.8434336036 0.0002821891 -0.0001922591 0.0002903543 -0.000181696 -0.0002125202 0.1539335413
790295260.0 0.0175142446 0.8438538326 7.17317e-05 2.58865e-05 0.0003407023 -4.634e-07 0.0013033914 0.1540677957
795295230.0 0.0251765108 0.8435195038 0.0001861685 -4.54885e-05 0.0003986187 -2.88688e-05 0.0027249697 0.1541830975
800295200.0 0.0336335295 0.8429257161 0.000416876 -0.0001734994 0.0002877793 1.95036e-05 0.0040930432 0.1544169436
805295170.0 0.0425316847 0.8432940676 0.0003250571 -0.0002196855 0.0001726743 -1.61551e-05 0.0058107126 0.1546194255
810295140.0 0.0506773965 0.8425366151 0.0001145662 -0.0001382012 0.0002372521 -0.0002880595 0.0071856738 0.1548106782
815295110.0 0.0588738646 0.8420392681 0.0003749985 4.97364e-05 0.0001650778 -7.99584e-05 0.008847606 0.1548499683
820295080.0 0.0669478338 0.8417504041 0.0002463458 -3.74468e-05 0.000217847 -0.0001325745 0.0104196769 0.1553205568
825295050.0 0.0763347108 0.8405991176 0.0002233089 -5.23945e-05 0.0002750297 -6.1052e-05 0.0119840741 0.1555624447
830295020.0 0.0836577336 0.8401567938 0.0002623824 -0.0001681805 0.0003098534 -2.80092e-05 0.0139307392 0.1556319615
835294990.0 0.0914971293 0.8385229662 0.0002168711 0.0001086972 0.0002501356 -6.0465e-06 0.0146490285 0.1557582833
840294960.0 0.1001032361 0.8383594595 0.0002224937 -6.66747e-05 0.0004564958 -8.24719e-05 0.0162922203 0.1557865194
845294930.0 0.1082130121 0.8372375292 0.0001614482 -0.0001683912 0.0002015168 5.6222e-06 0.0175984735 0.155681049
850294900.0 0.1163215974 0.8363879969 0.0004152314 -3.4047e-05 0.0002329515 -0.0001707357 0.0196049663 0.156121258
