!Created with skrf (http://scikit-rf.org).
# Hz S RI R 50.0 
!freq ReS11 ImS11 ReS21 ImS21 ReS12 ImS12 ReS22 ImS22
300000.0 -0.2394996558 -0.0878194136 0.4710835667 0.058913802 0.4685113221 0.0575836721 -0.2408424022 -0.1000558873
5299970.0 -0.2442573642 0.0069046018 0.4735256368 0.0050900206 0.4734082081 0.0051330868 -0.2435066649 0.007081403
10299940.0 -0.2410361918 0.0188589088 0.4758177838 0.0060641619 0.4752748425 0.0061464142 -0.2401456628 0.020303569
15299910.0 -0.2364919314 0.0280889923 0.4791541449 0.0075572977 0.4793035313 0.0073866792 -0.2356709345 0.0296169689
20299880.0 -0.231763621 0.0354282866 0.4838152299 0.0084913776 0.4837644504 0.0083610919 -0.2304178544 0.0374017362
25299850.0 -0.2267527396 0.0421399216 0.4892463328 0.0074248003 0.4889559572 0.0073503628 -0.2246346738 0.0441041541
30299820.0 -0.2212563164 0.0471671611 0.4945535154 0.0054806142 0.4943873205 0.0054129143 -0.2188476734 0.0495403985
35299790.0 -0.2164160244 0.0513657798 0.4998339017 0.0020885806 0.4997785296 0.0019320549 -0.2134967899 0.053618446
40299760.0 -0.2111531699 0.0550776562 0.504750605 -0.0017539569 0.5049196942 -0.0016680959 -0.2079402333 0.0566781515
45299730.0 -0.2064039218 0.0576751814 0.5092570955 -0.0067406993 0.5101780191 -0.0065261026 -0.2032622819 0.0590777992
50299700.0 -0.2023105236 0.0599748074 0.5143545099 -0.0119793551 0.5144672375 -0.0119132511 -0.1985676985 0.0609891968
55299670.0 -0.1982645357 0.0620036407 0.5181628768 -0.0186138962 0.5176203098 -0.0180750814 -0.1942380084 0.0626476173
60299640.0 -0.1941980194 0.0633587119 0.520779666 -0.02443084 0.5212030788 -0.024358822 -0.1904514109 0.0635054891
65299610.0 -0.1911934249 0.064668486 0.5239628483 -0.0307700595 0.5240954228 -0.0307035617 -0.1872312764 0.0644819028
70299580.0 -0.1881297438 0.0660051537 0.526516636 -0.0371747867 0.5264646067 -0.0372535862 -0.183908417 0.0653555958
75299550.0 -0.1850937532 0.0672259027 0.5282404259 -0.044216699 0.5282464748 -0.0442015357 -0.1811940225 0.0655367363
80299520.0 -0.1824719304 0.0680837604 0.5302562889 -0.0510108952 0.5302812018 -0.0515751206 -0.1784126167 0.0659746507
85299490.0 -0.1802319487 0.0690353706 0.5316224514 -0.0575755765 0.5317885799 -0.0577654425 -0.1761543401 0.0664522745
90299460.0 -0.1780479658 0.0698987606 0.5320680166 -0.0653092814 0.5325964374 -0.0651374684 -0.1740864871 0.0669948622
95299430.0 -0.1756783318 0.0703984442 0.5336469929 -0.0716176593 0.533728477 -0.0719415393 -0.1716819116 0.0671778734
100299400.0 -0.1739720132 0.0717511097 0.5336838985 -0.0785389327 0.5337796565 -0.0788989955 -0.1696389059 0.0674534428
105299370.0 -0.1719980944 0.0724499594 0.5339129164 -0.0857812443 0.5344740817 -0.0857527403 -0.1676977458 0.0676797808
110299340.0 -0.170164602 0.073327506 0.534288139 -0.0922620263 0.534089182 -0.0922780627 -0.166552571 0.068050315
115299310.0 -0.1688957521 0.0741637561 0.534498387 -0.0992818854 0.5339564435 -0.0994233882 -0.1648401857 0.0685776488
120299280.0 -0.1673541264 0.0746286239 0.5339768774 -0.1060282319 0.5338561075 -0.1061772525 -0.1634282238 0.0689687714
125299250.0 -0.1661524639 0.0757779276 0.5337677082 -0.1130535161 0.5335121981 -0.1124955085 -0.1622405145 0.069273288
130299220.0 -0.165062058 0.0766775854 0.5332847249 -0.1195323331 0.5330905939 -0.119552093 -0.1609805096 0.069725882
135299190.0 -0.1634844234 0.0781048136 0.5323756855 -0.1265664125 0.5327631748 -0.1261235504 -0.1596842746 0.0709128768
140299160.0 -0.1624875141 0.0788439146 0.5319412206 -0.1332342603 0.5315488407 -0.1330900569 -0.1585322947 0.0719098507
145299130.0 -0.161205843 0.080003979 0.5304929243 -0.1394427344 0.530666759 -0.1396725754 -0.1575742003 0.0725266277
150299100.0 -0.1600070058 0.0811243277 0.529286348 -0.1457588447 0.529735623 -0.1454605952 -0.156448768 0.0738314746
155299070.0 -0.1593748255 0.0819819322 0.5286239163 -0.1531181691 0.5281082677 -0.1525604791 -0.1554573994 0.0742824701
160299040.0 -0.1580374654 0.083523951 0.5270742228 -0.158712865 0.5270119306 -0.1589852267 -0.1549644557 0.0753930989
165299010.0 -0.1571290542 0.0846968192 0.5258733983 -0.1656770581 0.5255777693 -0.1656537888 -0.1536632193 0.0765279105
170298980.0 -0.1561775738 0.0857565097 0.5235972471 -0.1720216262 0.5242701227 -0.1716553773 -0.1528311957 0.0773665973
175298950.0 -0.1552547398 0.0868693897 0.522806431 -0.1778338261 0.5222159044 -0.177982827 -0.1522535183 0.0786526133
180298920.0 -0.154833228 0.0882876811 0.5210498332 -0.1841704131 0.5207030005 -0.1838878759 -0.1515810801 0.0799116553
185298890.0 -0.1533130736 0.0892848105 0.5191365356 -0.1904965806 0.5182854433 -0.1904909037 -0.150909551 0.0808670279
190298860.0 -0.1528313311 0.0910511666 0.5171775115 -0.1968692414 0.5172143707 -0.1967478564 -0.1500496239 0.0819514413
195298830.0 -0.1516834572 0.0920233385 0.515436933 -0.2027578422 0.5153741695 -0.2029090413 -0.1490793068 0.0833551827
200298800.0 -0.1504788888 0.0935251598 0.5126596538 -0.2088091798 0.513030503 -0.2089285909 -0.1490989477 0.0844236341
205298770.0 -0.1496829312 0.0950519677 0.5104866406 -0.2155201496 0.5107358721 -0.2150175795 -0.14807219 0.0852274207
210298740.0 -0.1490806177 0.0964001496 0.5087262132 -0.2209145889 0.5079845563 -0.2206906194 -0.1472852715 0.086617179
215298710.0 -0.148337801 0.0975095406 0.5061338898 -0.2268126632 0.5063498957 -0.2271735294 -0.1473227089 0.0881089816
220298680.0 -0.1470301255 0.098933911 0.5033735921 -0.2327870212 0.5035426475 -0.2331748595 -0.1466115376 0.0889167954
225298650.0 -0.1461170177 0.1003966927 0.5009803083 -0.2387137045 0.5016222405 -0.2386739096 -0.1464483775 0.0898785682
230298620.0 -0.1449804875 0.102112159 0.4989892172 -0.2443762586 0.4989958881 -0.2445670312 -0.1456363182 0.0911824249
235298590.0 -0.144074654 0.1036528712 0.4960468301 -0.2502403964 0.4960833786 -0.249809045 -0.1447756573 0.0924944233
240298560.0 -0.1430967036 0.1052387764 0.4936878322 -0.2560391276 0.4932486208 -0.256288202 -0.143893214 0.0941979189
245298530.0 -0.1420957686 0.1065170687 0.4909451037 -0.261867306 0.4906834563 -0.2620859695 -0.1430691657 0.0944730954
250298500.0 -0.1409263713 0.1080486696 0.4870727682 -0.267688061 0.4872275112 -0.2672200809 -0.1424531745 0.0958128433
255298470.0 -0.1400754842 0.1089324632 0.4842262595 -0.2724033631 0.48446401 -0.2730566354 -0.14148089 0.0968751779
260298440.0 -0.1391860599 0.1107973248 0.4817228244 -0.2790666611 0.4816763219 -0.2780656275 -0.1406233555 0.0979674534
265298410.0 -0.137649725 0.1125375763 0.4784299562 -0.2847003829 0.478959518 -0.2838696295 -0.1399414247 0.0993020649
270298380.0 -0.1364619453 0.1138372114 0.4758191546 -0.2889836109 0.4757971993 -0.2890703283 -0.1393395158 0.1004712069
275298350.0 -0.135102412 0.1152025353 0.4725963222 -0.2950983511 0.4726352068 -0.2946255941 -0.1381340547 0.1014901161
280298320.0 -0.1335689498 0.1171563101 0.4691145383 -0.3006922117 0.4692683675 -0.3002758685 -0.1369259675 0.1029847181
285298290.0 -0.1328177194 0.1186524135 0.466057642 -0.3057680837 0.4657973543 -0.3053869857 -0.1361309561 0.1039174627
290298260.0 -0.1313244909 0.1196146932 0.4623834338 -0.3110225143 0.4627947704 -0.3106500118 -0.1348969435 0.1054909731
295298230.0 -0.1301102206 0.1208688645 0.4592705842 -0.3159893964 0.459135274 -0.3161461726 -0.1335062583 0.1059546147
300298200.0 -0.12903419 0.1222937041 0.4564636724 -0.3214504929 0.4563551635 -0.3213889158 -0.1326016617 0.1074374521
305298170.0 -0.12764123 0.1234310909 0.4522036848 -0.3267954383 0.4522738086 -0.3265712058 -0.131066965 0.108577249
310298140.0 -0.1262811004 0.1251302492 0.4488997332 -0.3316668928 0.4492877051 -0.3315867753 -0.1304038772 0.109992967
315298110.0 -0.1250903771 0.1258535534 0.4452688419 -0.3366421565 0.4456153195 -0.3369135795 -0.1291347656 0.1110491016
320298080.0 -0.1235673947 0.1275321984 0.4410714248 -0.3424910938 0.4414535703 -0.3420303914 -0.128243029 0.1122892564
325298050.0 -0.1222412541 0.1288922812 0.4373838297 -0.3472175664 0.4374301905 -0.347326251 -0.1274669388 0.1135492081
330298020.0 -0.1213364826 0.1299435707 0.4333917035 -0.3521089532 0.4335113257 -0.3520577895 -0.1265493114 0.1146603946
335297990.0 -0.1199054428 0.1312218113 0.429512267 -0.3566023219 0.429261175 -0.3571570849 -0.1260120852 0.1166643728
340297960.0 -0.1192072247 0.1327805886 0.4252521275 -0.3615937177 0.4249467765 -0.361871883 -0.1243917133 0.1179960413
345297930.0 -0.1177473922 0.1342083234 0.4211523874 -0.3666228249 0.4211699134 -0.3664934253 -0.123718737 0.1191724284
350297900.0 -0.1166238775 0.1352787858 0.4166116076 -0.3711609268 0.4170116249 -0.370908354 -0.1232335009 0.120982825
355297870.0 -0.1150263209 0.1375704292 0.4128534864 -0.3758712076 0.4131327933 -0.3754102668 -0.1220274249 0.1221062863
360297840.0 -0.1135166393 0.1386302688 0.4091882263 -0.3799387432 0.4092240356 -0.3799502469 -0.1209047201 0.1238679726
365297810.0 -0.112606821 0.1400825032 0.40460044 -0.3850975437 0.4047208796 -0.3845316633 -0.1198772995 0.1252692256
370297780.0 -0.1107389352 0.1413250707 0.40020959 -0.3887668677 0.4006169545 -0.3887618224 -0.1185635571 0.1264728969
375297750.0 -0.1089406426 0.1426737727 0.3961127297 -0.3933205511 0.3964930928 -0.3936998674 -0.1177361727 0.1280549331
380297720.0 -0.1074645642 0.1439824247 0.3916328643 -0.3977614806 0.3919375095 -0.3975163136 -0.1170490324 0.1289863873
385297690.0 -0.1063676556 0.1455122424 0.3872018133 -0.4025151495 0.3871147099 -0.4017502107 -0.115714487 0.1303984003
390297660.0 -0.1048864941 0.1470860953 0.3828535461 -0.4066260203 0.382806513 -0.4062321121 -0.1147044152 0.131606796
395297630.0 -0.1035553349 0.1481567929 0.3786732987 -0.4106707061 0.3782343165 -0.4106057743 -0.1127850812 0.1327164904
400297600.0 -0.1014867918 0.1495812606 0.3735114896 -0.4147683567 0.373767312 -0.4150124244 -0.1123151247 0.134113986
405297570.0 -0.1003734014 0.1505856672 0.3695202404 -0.4181931368 0.3694749368 -0.4183401514 -0.1114195324 0.1352646934
410297540.0 -0.0985268543 0.1519762879 0.3647103562 -0.4228536021 0.3650397728 -0.4229244556 -0.1104078926 0.1367313128
415297510.0 -0.0966797496 0.1529546349 0.3596978167 -0.426918938 0.360255909 -0.4268728962 -0.1087139477 0.1377824135
420297480.0 -0.0952484979 0.1548126217 0.3548248052 -0.430831697 0.3550533039 -0.4309742743 -0.1077049883 0.1386296627
425297450.0 -0.0934657095 0.1556144842 0.3510635547 -0.4346699713 0.3510321247 -0.4345175531 -0.1067852437 0.1398189481
430297420.0 -0.0919463147 0.1562833561 0.345607115 -0.4379851647 0.3457426991 -0.4379594144 -0.1056615818 0.1405780382
435297390.0 -0.0900874357 0.1579943075 0.3405553969 -0.4417996911 0.3406574464 -0.4419615293 -0.1034923622 0.1414264874
440297360.0 -0.0882092306 0.1590709233 0.3360823016 -0.4453530448 0.3361189403 -0.4457685493 -0.1028376005 0.1427426755
445297330.0 -0.0867162983 0.1598358349 0.3312334766 -0.449213239 0.3310336717 -0.4490612208 -0.1009931983 0.1434620475
450297300.0 -0.0845502108 0.1612155904 0.3264608556 -0.4530746839 0.3261395445 -0.4532764466 -0.0994679101 0.1444202076
455297270.0 -0.0829288083 0.1621582843 0.3210533062 -0.4564984295 0.3209349803 -0.4564514903 -0.0981678653 0.1452757174
460297240.0 -0.0813567659 0.163123551 0.3157469557 -0.4597624063 0.3161566877 -0.4601196117 -0.0967543984 0.1468169946
465297210.0 -0.0794360535 0.1642327453 0.3108736526 -0.4631139338 0.3112172317 -0.4638439875 -0.0951831519 0.1475726491
470297180.0 -0.0776818041 0.1648824019 0.3055524121 -0.4665620433 0.3060853329 -0.4666770428 -0.0935338861 0.1488930696
475297150.0 -0.0759204695 0.1656770127 0.3009607399 -0.4693768159 0.3009325964 -0.4696182939 -0.0918038895 0.1495323479
480297120.0 -0.0739389992 0.1670459746 0.2956951853 -0.4732536567 0.2953553889 -0.4733719547 -0.0902144524 0.15067611
485297090.0 -0.072287672 0.1677437102 0.2904815671 -0.4760634824 0.2907563165 -0.4760882893 -0.0888111967 0.1515667757
490297060.0 -0.0707245229 0.1690341667 0.2855866039 -0.4798500077 0.2858967448 -0.4792237217 -0.0871845286 0.1530588687
495297030.0 -0.0686824937 0.1700340574 0.2800585909 -0.4824873266 0.2804480323 -0.4825817808 -0.086080452 0.1539234828
500297000.0 -0.0669477089 0.1704617365 0.2746022872 -0.4847923084 0.2742866104 -0.4850457179 -0.0841301382 0.1553577549
505296970.0 -0.0648676371 0.1712956049 0.2699411037 -0.4883958285 0.269053193 -0.4884300183 -0.0830095336 0.156228352
510296940.0 -0.0631568396 0.172417734 0.264395131 -0.4915840554 0.263870993 -0.4915272093 -0.0810545617 0.157410441
515296910.0 -0.0613369829 0.1733238426 0.2585957535 -0.4939072453 0.2585440845 -0.4940071122 -0.0796186889 0.1584987828
520296880.0 -0.0592577729 0.174179911 0.2533728871 -0.4973353908 0.2533282523 -0.4970954103 -0.0781786613 0.1593416002
525296850.0 -0.0570620835 0.1742787725 0.2474324928 -0.499693021 0.248015729 -0.4996597915 -0.0767083745 0.1605000173
530296820.0 -0.0555868808 0.1758613861 0.2423793778 -0.5027941686 0.2424078265 -0.5020813125 -0.0750729421 0.161272269
535296790.0 -0.0535880475 0.176416412 0.2367981359 -0.5047671119 0.2370989802 -0.5043085274 -0.0738430461 0.1619897052
540296760.0 -0.0517509821 0.177415151 0.2319918431 -0.5075346544 0.2315574068 -0.507827963 -0.0726074395 0.163531869
545296730.0 -0.0497047933 0.1779998423 0.2259150314 -0.5099728619 0.2256438612 -0.509950629 -0.0710918485 0.1641596603
550296700.0 -0.0474462507 0.1787239753 0.2201950815 -0.5119390593 0.2202274696 -0.5124310749 -0.0695057 0.1652498213
555296670.0 -0.045736169 0.1791000941 0.2147288257 -0.5147593321 0.2148981908 -0.5144487857 -0.0678605903 0.1664764467
560296640.0 -0.0435879142 0.1801646201 0.2091403402 -0.5172416157 0.2094089191 -0.51697363 -0.0662711954 0.1669309277
565296610.0 -0.0419142409 0.1806164694 0.2032912486 -0.5193995903 0.2034543259 -0.5191622753 -0.0649238733 0.1673493716
570296580.0 -0.0401452092 0.181227948 0.1978031525 -0.5216882103 0.1973842277 -0.521295207 -0.063662038 0.1689288513
575296550.0 -0.0380309504 0.1822315289 0.1926732191 -0.5238960645 0.1919454445 -0.5236019056 -0.0618775088 0.1691260936
580296520.0 -0.0358054712 0.1825708928 0.1863585989 -0.5256909421 0.1867499211 -0.5256859746 -0.0604964389 0.1695567568
585296490.0 -0.0339431755 0.1827463918 0.1812386903 -0.5270624986 0.1808351929 -0.5275209914 -0.0586793983 0.1705449122
590296460.0 -0.0315136155 0.1834844485 0.1749440073 -0.5290987984 0.1751767858 -0.5293969033 -0.0576325461 0.1711147987
595296430.0 -0.0296785136 0.1843601387 0.1689742199 -0.5316913254 0.1690859258 -0.5308993645 -0.0556310447 0.1712304967
600296400.0 -0.0278868233 0.1841183597 0.1635419574 -0.5327235034 0.1636967804 -0.5325556061 -0.0541432581 0.1720768042
605296370.0 -0.0257675693 0.184909653 0.1576083742 -0.5349933917 0.1576998609 -0.5343091442 -0.0521548594 0.1728349927
610296340.0 -0.0236881119 0.1850469893 0.1515177888 -0.5361187813 0.1520406788 -0.5361041231 -0.0505101983 0.1730965948
615296310.0 -0.0212991003 0.1854012956 0.1456457743 -0.5378630105 0.1457397799 -0.5380885764 -0.0486159372 0.1737175621
620296280.0 -0.0197113269 0.185747226 0.1400789592 -0.5394032493 0.1401508281 -0.538825165 -0.0473579312 0.1743486022
625296250.0 -0.0176869471 0.1858266389 0.1349084182 -0.5408059092 0.1343196006 -0.5409103205 -0.0448881213 0.174767233
630296220.0 -0.0147492956 0.1864934609 0.1276735662 -0.5424655465 0.1279918051 -0.5419437365 -0.0432842961 0.1754327568
635296190.0 -0.0138391926 0.1865896733 0.1228200448 -0.5435017852 0.1224212003 -0.543343455 -0.0415917387 0.1757828993
640296160.0 -0.0113394481 0.1868726016 0.1163926841 -0.5445672574 0.1168635797 -0.5445506911 -0.0395970225 0.1761787137
645296130.0 -0.0093841817 0.1872940354 0.11032082 -0.5453282577 0.1110140005 -0.546119795 -0.0378596374 0.1769490057
650296100.0 -0.0070761966 0.1872977463 0.1045033797 -0.5464688694 0.1049487806 -0.5468842299 -0.0356503428 0.1769378393
655296070.0 -0.0053561292 0.1874130673 0.0988173541 -0.5479050896 0.0990499935 -0.5481229304 -0.0337788944 0.1775879885
660296040.0 -0.0036523909 0.1873893919 0.0929146205 -0.5488286723 0.0929789304 -0.5493399248 -0.0323147623 0.1782795318
665296010.0 -0.0009059354 0.1874834644 0.0862833522 -0.5500892295 0.087149886 -0.5499910004 -0.030505989 0.179500282
670295980.0 0.0001556572 0.188276647 0.0810451737 -0.5508778394 0.0806479807 -0.5508100294 -0.0289861285 0.1796368053
675295950.0 0.0027344022 0.1883098947 0.0758604507 -0.5515067432 0.0753153946 -0.5509173627 -0.027344481 0.1801936526
680295920.0 0.0044293831 0.1882098441 0.069333118 -0.5519828027 0.0685280728 -0.5527091314 -0.0251380747 0.1809528235
685295890.0 0.0070851274 0.1886024364 0.0633805321 -0.5531429016 0.0627301889 -0.5534573148 -0.0236158203 0.181274604
690295860.0 0.0091062972 0.1883351199 0.0574243252 -0.5531517966 0.0569045505 -0.5541914336 -0.0219872372 0.1821128441
695295830.0 0.0110380987 0.1883196474 0.0517333659 -0.5541545854 0.050672051 -0.5543524917 -0.0199454123 0.1826645835
700295800.0 0.0133283086 0.1883816616 0.0452866402 -0.5547859079 0.0449738009 -0.5546103593 -0.0185891768 0.1830483815
705295770.0 0.0151264764 0.1892214108 0.0393983597 -0.555263332 0.0394483259 -0.5552079345 -0.0167593609 0.1839778597
710295740.0 0.0174688376 0.1887414753 0.0331817092 -0.5561055579 0.0333144127 -0.556019523 -0.0146478698 0.1833022019
715295710.0 0.019096014 0.1885322618 0.0276466447 -0.5556903565 0.0271194093 -0.5560721098 -0.0131154944 0.1841842618
720295680.0 0.0213476096 0.1885069307 0.0210220365 -0.5563168051 0.0215373965 -0.5563471958 -0.0115708109 0.1850800197
725295650.0 0.0235434889 0.1887435519 0.015183677 -0.5565173707 0.0153580349 -0.5565102728 -0.0100760174 0.1851651812
730295620.0 0.0259641296 0.188675803 0.0093195856 -0.5563496699 0.0092358774 -0.5565436598 -0.0084202223 0.1849468344
735295590.0 0.02786493 0.1886351006 0.003432994 -0.5567787597 0.0030733234 -0.5564343326 -0.0067125503 0.1854119209
740295560.0 0.0296147229 0.1882812012 -0.0024856574 -0.5563445357 -0.0028383478 -0.5564533381 -0.0046436511 0.1858815268
745295530.0 0.0320987964 0.187987427 -0.0088793633 -0.5557760887 -0.0092012935 -0.5562872616 -0.0027881074 0.1855425685
750295500.0 0.0343471731 0.1877843478 -0.0148605866 -0.5558571849 -0.0150277217 -0.5561347205 -0.001265463 0.1858222715
755295470.0 0.0362662187 0.1874446539 -0.0202750707 -0.5558533807 -0.0209356818 -0.5562202435 0.0009693923 0.1856992147
760295440.0 0.0379892268 0.187193177 -0.02668974 -0.5559135285 -0.027060356 -0.5560995136 0.0022859103 0.1857341646
765295410.0 0.0402077799 0.1869346049 -0.0330690479 -0.5554903222 -0.0333626667 -0.5555142432 0.0042977408 0.1857561786
770295380.0 0.0420441482 0.1866608119 -0.0392513255 -0.5549035563 -0.0387922762 -0.5547466297 0.0056178021 0.1853300297
775295350.0 0.0441307999 0.1858142225 -0.045474444 -0.554137953 -0.0445713323 -0.5543035112 0.0071927272 0.1857635074
780295320.0 0.0464190694 0.1858047715 -0.0508348631 -0.5536416794 -0.0498500974 -0.5537425484 0.0087581593 0.1854612315
785295290.0 0.0479692066 0.1846791487 -0.0569969001 -0.5524275322 -0.0563131223 -0.5530593794 0.0115843971 0.1858446838
790295260.0 0.0505405433 0.1851812843 -0.062316204 -0.5520747319 -0.0617765997 -0.5523315562 0.0131690536 0.1858882682
795295230.0 0.0522140908 0.184266085 -0.068711058 -0.5517411834 -0.068003251 -0.5520605545 0.0152500438 0.1855521531
800295200.0 0.0540055661 0.1840756801 -0.0747137156 -0.550844714 -0.0741902819 -0.5507277101 0.0170890249 0.1853610157
805295170.0 0.0564847798 0.1835056799 -0.0803832133 -0.5499102272 -0.0803955553 -0.5498787441 0.0187982516 0.1856340404
810295140.0 0.0581469908 0.1828072836 -0.0860111021 -0.5489473559 -0.0862286052 -0.549263453 0.0213178796 0.1857841052
815295110.0 0.0603508992 0.1820560775 -0.0921100324 -0.5475817314 -0.0919321123 -0.5478774783 0.02274652 0.1856092591
820295080.0 0.0617863072 0.1818056013 -0.0977532377 -0.5471797164 -0.0975792746 -0.5467629508 0.0245222066 0.1852351923
825295050.0 0.0645295044 0.1813184379 -0.1035533325 -0.5458527353 -0.1038475833 -0.5458363866 0.0264760153 0.1853979858
830295020.0 0.0664301985 0.1809531675 -0.1100448129 -0.5443995972 -0.1098049789 -0.5443854707 0.0294787558 0.1853683376
