!Created with skrf (http://scikit-rf.org).
# Hz S RI R 50.0 
!freq ReS11 ImS11 ReS21 ImS21 ReS12 ImS12 ReS22 ImS22
300000.0 -0.2435436408 -0.0894994012 0.4746152898 0.0593018042 0.4714581261 0.0570084731 -0.2386707535 -0.0977668652
5299970.0 -0.2452538929 0.0065671675 0.4750273305 0.0051979679 0.4749118426 0.004663415 -0.2411240824 0.0074676054
10299940.0 -0.2418337712 0.0181672117 0.4768867167 0.0059330023 0.4768621761 0.0059073253 -0.237654433 0.0206093898
15299910.0 -0.237600732 0.0269538416 0.4804205447 0.0074455584 0.4806557276 0.0071784695 -0.2330736033 0.0302885536
20299880.0 -0.2329205007 0.0340695488 0.4847879037 0.0081959366 0.4851181235 0.007886295 -0.2277199425 0.0380959776
25299850.0 -0.22783409 0.0403198895 0.4902916643 0.0070025762 0.4898590255 0.0072553604 -0.2218855629 0.0443255419
30299820.0 -0.2227039176 0.0453064665 0.4954611238 0.0047846302 0.4955912917 0.005023999 -0.2160755789 0.0501716936
35299790.0 -0.2174070653 0.0489839479 0.500950216 0.0013300026 0.5012634919 0.0012430828 -0.2104118532 0.054579275
40299760.0 -0.2126310039 0.0524742504 0.505815439 -0.002620827 0.505887913 -0.0024791418 -0.2052498972 0.0575828366
45299730.0 -0.2081033311 0.0547744168 0.5102779145 -0.0070196346 0.5107253479 -0.0071059953 -0.2004512383 0.0606020891
50299700.0 -0.2039235318 0.0567804842 0.5150029057 -0.0126387641 0.5150541095 -0.0122521393 -0.1958172197 0.0624831185
55299670.0 -0.2000673328 0.0584521693 0.5187117783 -0.0190277681 0.5184184113 -0.0185962823 -0.1915027669 0.0640812787
60299640.0 -0.1959063305 0.0598118048 0.521798699 -0.0249367055 0.5218718355 -0.024748906 -0.187380827 0.065656385
65299610.0 -0.1930632638 0.0610365625 0.5250225743 -0.0313218106 0.5245774667 -0.0310405113 -0.1839604016 0.0666263763
70299580.0 -0.189903195 0.0620692749 0.5271374592 -0.0379260494 0.5268406097 -0.0376080564 -0.1806055299 0.0676094788
75299550.0 -0.1871181896 0.0631503793 0.5288300062 -0.0448057917 0.5288169084 -0.0447223444 -0.1776097111 0.0681328909
80299520.0 -0.1846671395 0.0637478411 0.530975149 -0.0518228699 0.5309186984 -0.0517190095 -0.1754096609 0.0691552425
85299490.0 -0.1825957031 0.0639786537 0.5321247828 -0.0580390425 0.5319417571 -0.0581963388 -0.172662182 0.0696461349
90299460.0 -0.1803923169 0.06480249 0.532429795 -0.0654705095 0.5333135301 -0.0653392027 -0.1704829727 0.0708042732
95299430.0 -0.1783335218 0.0654144653 0.5340846273 -0.0722507462 0.5339601993 -0.0722164708 -0.1680486001 0.0710573917
100299400.0 -0.1767083534 0.0663050324 0.5338404753 -0.0790222553 0.5343072904 -0.0792268133 -0.1657950246 0.0713873085
105299370.0 -0.1753090858 0.0667426828 0.5349326742 -0.0863176627 0.5347540988 -0.0861821428 -0.1642049599 0.0723397656
110299340.0 -0.1734807173 0.0677139468 0.5348600236 -0.0927923058 0.5345031694 -0.0924182071 -0.162730766 0.0728466188
115299310.0 -0.1719628503 0.0681748917 0.5347906051 -0.0998664187 0.534626476 -0.0997338394 -0.1609776172 0.0738358153
120299280.0 -0.1707252026 0.0686549273 0.5341789501 -0.1060545875 0.5344983305 -0.1066866105 -0.1594808461 0.074380882
125299250.0 -0.1696088533 0.0690944768 0.5343359837 -0.1129605823 0.5344092284 -0.1129898069 -0.1585936833 0.0749658283
130299220.0 -0.1687067132 0.0704063505 0.5331214531 -0.1202122627 0.5334331946 -0.1201168393 -0.1574089068 0.0757561883
135299190.0 -0.1675755827 0.0713688356 0.5331460397 -0.1262586329 0.5328679696 -0.1261954113 -0.1558796725 0.076609187
140299160.0 -0.1664891063 0.0722378054 0.5318387213 -0.1333076318 0.5322611051 -0.1331609254 -0.1544569373 0.0779649256
145299130.0 -0.1658259628 0.0728433935 0.5317259847 -0.1393433653 0.5307236132 -0.1394475693 -0.1533911166 0.0788887935
150299100.0 -0.1643498423 0.0739977905 0.529511053 -0.1458717546 0.5300658511 -0.1458667665 -0.1522812378 0.0803535374
155299070.0 -0.1640806971 0.0748297253 0.5291086072 -0.1532630916 0.528441178 -0.1527501943 -0.1509948634 0.0811954094
160299040.0 -0.1628444156 0.075649551 0.5272769023 -0.1590386775 0.5268808094 -0.1590481638 -0.1507459974 0.0821297708
165299010.0 -0.1621921708 0.0767543914 0.5261161786 -0.166008018 0.526076564 -0.1660195426 -0.1493176314 0.0836461222
170298980.0 -0.1614870934 0.0780183509 0.524188321 -0.172117177 0.5242895617 -0.1721166937 -0.1481930765 0.0848769515
175298950.0 -0.160590436 0.0788627697 0.5229120626 -0.1779362096 0.5223368752 -0.1783628401 -0.1473731117 0.0860369111
180298920.0 -0.1599559911 0.0798232951 0.5208658439 -0.1843068758 0.5207312798 -0.1844050522 -0.1466607929 0.0873987624
185298890.0 -0.1588812056 0.0810730411 0.519430589 -0.1905150456 0.5190326028 -0.1908247087 -0.1456445682 0.0887958093
190298860.0 -0.1585154398 0.0823049956 0.5174633231 -0.1973053296 0.5175474635 -0.1967536516 -0.1444853174 0.089713819
195298830.0 -0.1577555331 0.0831152876 0.5155300699 -0.2027440889 0.5154251547 -0.2029890071 -0.1436490477 0.0910315063
200298800.0 -0.1567613408 0.084587602 0.5126586327 -0.2094281991 0.5131499413 -0.2090723284 -0.1431554739 0.0924272598
205298770.0 -0.1563856534 0.0858155206 0.5108532302 -0.2154984809 0.5107789998 -0.2152028682 -0.1420464078 0.0932907594
210298740.0 -0.1555131553 0.0868515415 0.508274859 -0.2209349328 0.5083135922 -0.2207106217 -0.1410564325 0.0954377725
215298710.0 -0.1550564809 0.0883873285 0.5065454469 -0.2269508716 0.5062936346 -0.2271746684 -0.1400524974 0.0966009594
220298680.0 -0.1538933342 0.089125908 0.5033642144 -0.2330730089 0.5039662279 -0.2329860688 -0.1397655143 0.0975615328
225298650.0 -0.1533452393 0.0906637424 0.5013744075 -0.238639382 0.5016423074 -0.2386310016 -0.1389026115 0.0987334417
230298620.0 -0.1524601236 0.0922655515 0.4992639949 -0.244365956 0.4996046502 -0.244607456 -0.1379954109 0.1005080745
235298590.0 -0.1517990339 0.0935578119 0.4962519861 -0.2504261581 0.4963443681 -0.2498189534 -0.1370725502 0.1015141807
240298560.0 -0.1510703788 0.0949567462 0.4936035485 -0.2562175782 0.4937877368 -0.2560857973 -0.1360731593 0.1034031115
245298530.0 -0.1503576406 0.0964885759 0.4910248024 -0.2614598594 0.4907941101 -0.261967915 -0.1348888582 0.1041292822
250298500.0 -0.1491369494 0.0976188926 0.4873205313 -0.2675637119 0.487591967 -0.2671808342 -0.1341775106 0.1053661367
255298470.0 -0.1485060972 0.0984564099 0.4842474424 -0.2725413241 0.4850647753 -0.2728825902 -0.1326821491 0.1068901771
260298440.0 -0.1480986444 0.1001373961 0.4818246968 -0.2784876025 0.482010468 -0.2788882404 -0.1314764082 0.10860542
265298410.0 -0.146577714 0.1016757595 0.4791282168 -0.2842407659 0.4792356698 -0.2835802134 -0.1305360783 0.1098547603
270298380.0 -0.1459619254 0.1029688273 0.4760261008 -0.2888860097 0.4763130164 -0.2897332005 -0.1297231261 0.1112229266
275298350.0 -0.1447267362 0.1042050404 0.4728302271 -0.2945998461 0.4731177248 -0.2948389092 -0.1284464638 0.1124220444
280298320.0 -0.1438844029 0.1058284181 0.4696708538 -0.3000734132 0.4695911106 -0.3000340806 -0.1266370415 0.1138041399
285298290.0 -0.1428337297 0.1072151319 0.46654784 -0.3053498096 0.4663671407 -0.3055626561 -0.1255509788 0.1149457
290298260.0 -0.1418628467 0.1086555466 0.4629505511 -0.3105668437 0.4632339004 -0.3106468115 -0.1243722214 0.1165653295
295298230.0 -0.1410122601 0.1095510614 0.4599380965 -0.3159931774 0.4595730268 -0.3163588099 -0.1229512752 0.1175021685
300298200.0 -0.1402341256 0.111104957 0.456472631 -0.3212784758 0.4564979527 -0.321416326 -0.1220489506 0.1190338138
305298170.0 -0.1389350926 0.1119954237 0.4522854936 -0.3265758686 0.4526666198 -0.3263589512 -0.1201331002 0.120245315
310298140.0 -0.1381302913 0.1135876997 0.449119686 -0.3314013207 0.449751653 -0.3316511825 -0.1190489058 0.1215156713
315298110.0 -0.1368763996 0.1145238366 0.4457916231 -0.3365578287 0.4459182912 -0.3368742831 -0.1179036343 0.1225865577
320298080.0 -0.1358162438 0.1159461151 0.4413411933 -0.3422068445 0.4419192947 -0.3421657027 -0.1163761269 0.1241779685
325298050.0 -0.135350691 0.117158358 0.4382953821 -0.347046457 0.4377362486 -0.3466799505 -0.1153460623 0.1251548621
330298020.0 -0.134356004 0.118076702 0.434257779 -0.3519688883 0.4341800588 -0.3521009239 -0.1143907766 0.1268934123
335297990.0 -0.133168009 0.1193238931 0.4297661052 -0.356501905 0.4298329947 -0.3569433408 -0.1134131894 0.1283897443
340297960.0 -0.1326577997 0.1210579513 0.4257090102 -0.3615296518 0.425409159 -0.3616729942 -0.1116991488 0.129612632
345297930.0 -0.1314424693 0.1225124221 0.4215965634 -0.3665273911 0.4215432776 -0.3664698616 -0.1106288376 0.1305717907
350297900.0 -0.130479638 0.1236377471 0.4171119975 -0.3711756609 0.4173983292 -0.370979514 -0.1095557834 0.1327776723
355297870.0 -0.1292545771 0.1255918301 0.4129457467 -0.3754536079 0.4136023571 -0.3752218445 -0.1081849816 0.133569531
360297840.0 -0.1282498955 0.1267924771 0.4100097385 -0.3798073395 0.409828733 -0.3795706476 -0.1068377843 0.1351475398
365297810.0 -0.1272482296 0.1282917135 0.4049991874 -0.384666722 0.4051163651 -0.3846420299 -0.10525084 0.1367443806
370297780.0 -0.1257087049 0.129426833 0.4006547705 -0.3886568659 0.4007186528 -0.3885848402 -0.1037939991 0.1380246807
375297750.0 -0.1245367244 0.1305986462 0.396352587 -0.3932640582 0.3970055508 -0.3936528445 -0.1022261915 0.1394459797
380297720.0 -0.1234490782 0.1319370336 0.3922167175 -0.3976232151 0.3925853114 -0.3969351455 -0.1012245954 0.1404096366
385297690.0 -0.1225726424 0.1333910505 0.3878665516 -0.401990251 0.3874088263 -0.4015396768 -0.0994244695 0.1418167043
390297660.0 -0.1212623093 0.1349576121 0.3834928363 -0.4063773684 0.3832281113 -0.4055280484 -0.0982342766 0.1431054532
395297630.0 -0.1199095131 0.1362995816 0.3790357462 -0.4103818137 0.3791439301 -0.410325741 -0.0965144521 0.1444580731
400297600.0 -0.118574547 0.1376544068 0.3740365443 -0.4148068154 0.3744034154 -0.4147419229 -0.0947995045 0.1457669899
405297570.0 -0.1175695041 0.1386104637 0.3699455447 -0.4182868696 0.3697779761 -0.4184624479 -0.0940399273 0.1467682926
410297540.0 -0.1160512586 0.1401676237 0.3654913241 -0.4229330881 0.365489626 -0.4229279845 -0.092256555 0.1480914286
415297510.0 -0.1145983442 0.1412124978 0.3601588552 -0.4269911477 0.3608673193 -0.4270296267 -0.0907663354 0.1494488578
420297480.0 -0.1136002339 0.1426261316 0.3558669571 -0.430873349 0.3557212744 -0.4310020104 -0.0892937696 0.1500494394
425297450.0 -0.1120741801 0.1434740371 0.3512825017 -0.4344391959 0.351420477 -0.4346953991 -0.0876653791 0.1517553194
430297420.0 -0.1107643853 0.1446353473 0.3463079045 -0.437889306 0.3461388049 -0.4374563045 -0.0860392015 0.1522660722
435297390.0 -0.1095606666 0.1462002848 0.3412661385 -0.4417538531 0.3412730627 -0.4421599937 -0.0838592355 0.1536778843
440297360.0 -0.1077662354 0.1472608318 0.3365407086 -0.4455187867 0.3364672657 -0.4457277666 -0.0827122203 0.1546270987
445297330.0 -0.1067071377 0.148352524 0.331730123 -0.4495825111 0.3317840492 -0.4487433542 -0.0807330617 0.1550872115
450297300.0 -0.1052743887 0.1493122019 0.3270555013 -0.4526366505 0.3266689519 -0.453072354 -0.0789429742 0.1560752047
455297270.0 -0.1038474928 0.1507140102 0.3216044864 -0.4568309167 0.3222313202 -0.4564722286 -0.077149596 0.1570891633
460297240.0 -0.1026406252 0.1515705746 0.316705522 -0.4596380196 0.3167149416 -0.4601350198 -0.0754836126 0.1583984082
465297210.0 -0.1006907715 0.1531172749 0.3120465182 -0.4636464696 0.311622227 -0.4635154087 -0.0738671232 0.1590487272
470297180.0 -0.0994333152 0.1537182375 0.3062334785 -0.4667915134 0.3068644136 -0.4667087676 -0.0718742286 0.1603576254
475297150.0 -0.0978193386 0.1547589768 0.3016147571 -0.4694484489 0.3016748155 -0.4690076737 -0.0697065194 0.1608520951
480297120.0 -0.0963450627 0.1562956035 0.2962941545 -0.4734820022 0.2961229333 -0.4732538656 -0.0679911498 0.1618569853
485297090.0 -0.0948321307 0.1572346965 0.2913734738 -0.4761345677 0.2912400963 -0.4761936345 -0.0660129426 0.1627762543
490297060.0 -0.0938103847 0.1583955854 0.2865606299 -0.479365699 0.2864442361 -0.4792432237 -0.0644382609 0.1638156984
495297030.0 -0.0919991025 0.1592110571 0.2810804887 -0.4825409454 0.2813637359 -0.4825493765 -0.0626948025 0.164616338
500297000.0 -0.0905948513 0.1601822642 0.2755744368 -0.4852269186 0.2751441144 -0.4853288915 -0.0606153601 0.1660045068
505296970.0 -0.0885217245 0.1611862934 0.2702814187 -0.4878533648 0.2702561573 -0.4885446194 -0.0591179186 0.1667208887
510296940.0 -0.0874759321 0.1620444467 0.2649406182 -0.4913193048 0.2650317574 -0.4915242701 -0.0568314011 0.1675228991
515296910.0 -0.0857087147 0.1630150674 0.2593855195 -0.493868094 0.2596824829 -0.4936978023 -0.0554447461 0.1683801508
520296880.0 -0.0841457483 0.1641608104 0.2543200105 -0.4973226254 0.2539845413 -0.4964989142 -0.0533985326 0.1688177131
525296850.0 -0.0824975997 0.1649402739 0.2483217112 -0.4996946305 0.2491998052 -0.4995910291 -0.0516065686 0.1700348541
530296820.0 -0.0806823464 0.1663218912 0.2429648354 -0.5024144376 0.2432835906 -0.5022921075 -0.0497223684 0.1706823651
535296790.0 -0.0796543581 0.1671209064 0.2383185843 -0.5048001466 0.238228719 -0.504464966 -0.048225004 0.1710206264
540296760.0 -0.0779070019 0.1682290063 0.2323070465 -0.5077432045 0.2323782852 -0.5076541321 -0.0463968593 0.1724124148
545296730.0 -0.0764507004 0.169168785 0.2262908185 -0.5100126316 0.2271600336 -0.5101141396 -0.0443131601 0.1727093281
550296700.0 -0.0744814247 0.1700952856 0.2212505648 -0.5125037215 0.2212537043 -0.5125066106 -0.042607784 0.1736471564
555296670.0 -0.0733099793 0.1705606266 0.2160022977 -0.5148822334 0.2158857145 -0.5143618341 -0.0404377518 0.174459791
560296640.0 -0.0712641984 0.1717174206 0.2098280301 -0.5168821526 0.2100187397 -0.5170755107 -0.0384416571 0.1751572711
565296610.0 -0.0696983495 0.1725577015 0.2042606785 -0.5191763186 0.2046713771 -0.5189881755 -0.0369966148 0.1747988935
570296580.0 -0.0683328498 0.1732018449 0.199252915 -0.521689745 0.1983855949 -0.5214714202 -0.0349269817 0.1761661006
575296550.0 -0.0666328392 0.1744691579 0.1931563512 -0.5239217675 0.192779506 -0.5239097711 -0.0329986125 0.1765621246
580296520.0 -0.0644714474 0.1749222476 0.1873732227 -0.5259795543 0.1875272209 -0.5260655261 -0.0312355001 0.177051255
585296490.0 -0.063337805 0.1752290788 0.1817184166 -0.5271457973 0.1819191274 -0.5273950218 -0.0291350308 0.1773800497
590296460.0 -0.0610121524 0.1764393265 0.1758714842 -0.5289959858 0.175984042 -0.5289055622 -0.0277185776 0.1780036814
595296430.0 -0.0594161991 0.1772056689 0.1698828565 -0.5313719761 0.1698962792 -0.531416243 -0.0250275622 0.1780082681
600296400.0 -0.0582147686 0.1779242123 0.1646542827 -0.5331853145 0.1642579599 -0.5329430994 -0.0235035536 0.1786862116
605296370.0 -0.0561433339 0.1785095928 0.1586405483 -0.5344214204 0.1587839027 -0.5346233576 -0.021589881 0.1790516678
610296340.0 -0.0542730357 0.1790969059 0.1523664272 -0.5363219049 0.1528318472 -0.5361030394 -0.0192407579 0.1791172571
615296310.0 -0.0522960405 0.1792392749 0.1468632028 -0.5376897772 0.1467736138 -0.5384118454 -0.0172119679 0.1794280384
620296280.0 -0.0509501096 0.179922789 0.141253737 -0.539165026 0.1409269076 -0.5393933028 -0.0157520382 0.1799181429
625296250.0 -0.049395299 0.1805977459 0.1358762969 -0.5412397228 0.1354737483 -0.5414645481 -0.0127363557 0.1800695359
630296220.0 -0.0470209568 0.1810990856 0.1292015525 -0.5424473354 0.1292130095 -0.542241149 -0.0109939788 0.1806252375
635296190.0 -0.0460261331 0.1819188163 0.123732463 -0.5433704308 0.1237667547 -0.5437516 -0.0089385705 0.1806346807
640296160.0 -0.0441181514 0.1826341424 0.1180155448 -0.5447808316 0.1176784095 -0.5449698718 -0.0067796204 0.1810719363
645296130.0 -0.0420923102 0.1832870661 0.1116002499 -0.5459889898 0.1123008106 -0.5465172533 -0.0048537286 0.1812859568
650296100.0 -0.0401068706 0.183688153 0.1057639525 -0.5472546163 0.1056954114 -0.5471536851 -0.0027948657 0.1807208461
655296070.0 -0.0388149441 0.1840906731 0.0997954774 -0.5484391772 0.1000877769 -0.5483172283 -0.0007814504 0.1812906802
660296040.0 -0.0373622785 0.1844274951 0.0942501051 -0.5492379772 0.0941070121 -0.5496537102 0.0015748689 0.1817617523
665296010.0 -0.0348194231 0.1847675822 0.0877790639 -0.5501801828 0.0880361273 -0.5500376302 0.0037342041 0.1819304682
670295980.0 -0.0338911326 0.1856863634 0.0818840833 -0.5511218578 0.0820873239 -0.5511817044 0.0053332037 0.1820718957
675295950.0 -0.0317977331 0.1861091318 0.076375742 -0.551809578 0.076196831 -0.5516511424 0.007278708 0.1823988179
680295920.0 -0.0301716241 0.1865077377 0.0704585653 -0.5523605208 0.0700723678 -0.5532480692 0.0097175833 0.1831239791
685295890.0 -0.0279813599 0.1877028179 0.06438529 -0.5536612166 0.0640402071 -0.5534729983 0.0115942983 0.1826373723
690295860.0 -0.0261061655 0.1876931964 0.058079244 -0.5538560348 0.0581908276 -0.5540322105 0.0133793274 0.1832145073
695295830.0 -0.0244027033 0.1875493426 0.0527474116 -0.5543795114 0.0521232868 -0.5545088393 0.015579488 0.1830210781
700295800.0 -0.022540154 0.1878956883 0.0462240513 -0.5550960077 0.0461154925 -0.5545906484 0.0172474265 0.1833227506
705295770.0 -0.0210021386 0.1889078938 0.0399523251 -0.555697873 0.040415328 -0.5557205681 0.0191830066 0.1832983205
710295740.0 -0.0186990543 0.1890131668 0.0345994043 -0.5561891533 0.034513188 -0.5563448044 0.0213994709 0.182719541
715295710.0 -0.0174758078 0.1892065674 0.0289548774 -0.556367921 0.0283388211 -0.5561233184 0.0235939396 0.1827354076
720295680.0 -0.015195316 0.1896568794 0.0227003163 -0.5563230056 0.0225740608 -0.5565201284 0.0255472987 0.1831526262
725295650.0 -0.0133915967 0.1899882818 0.0162598144 -0.5569047208 0.0165991224 -0.5565774196 0.0269365785 0.1829525646
730295620.0 -0.0111697528 0.1903985346 0.0105374074 -0.5563263861 0.0106162755 -0.5569467368 0.0291467009 0.1828345152
735295590.0 -0.0096015594 0.1907704761 0.0046744247 -0.557039364 0.0043380086 -0.5570087069 0.0308423643 0.181998175
740295560.0 -0.008053303 0.1908986062 -0.0015811335 -0.5566176165 -0.0016318714 -0.5565058446 0.0334315044 0.1821862617
745295530.0 -0.0060736449 0.1910355123 -0.0078393018 -0.5560692094 -0.0077156906 -0.5568571842 0.0352493028 0.181668808
750295500.0 -0.0039339329 0.1912183052 -0.0135441634 -0.5564675355 -0.0135254083 -0.556536153 0.0372585309 0.1818608075
755295470.0 -0.001862912 0.1912206904 -0.0194168765 -0.5562177001 -0.0196957488 -0.5564121988 0.0394962467 0.1809996564
760295440.0 -0.0005652803 0.191441648 -0.0253301885 -0.5566251673 -0.0256946254 -0.5563457629 0.0413724524 0.1807779728
765295410.0 0.0012887514 0.1918968059 -0.0318336437 -0.5560004386 -0.0319154645 -0.5559748321 0.0434030105 0.1806470426
770295380.0 0.0029161802 0.1914814239 -0.0379431713 -0.5554671301 -0.0378846674 -0.5552787719 0.0450215587 0.1799830075
775295350.0 0.0047871868 0.1913991865 -0.0441133093 -0.5545723912 -0.0432483074 -0.554886434 0.0468843578 0.1798872778
780295320.0 0.0068262929 0.1919994995 -0.0494864469 -0.5539651022 -0.0489707731 -0.5542274934 0.0490354656 0.1791203884
785295290.0 0.0084619099 0.1914827846 -0.0557510816 -0.5531217415 -0.0553250325 -0.5533615674 0.0512811401 0.1790313518
790295260.0 0.0110825153 0.1922388293 -0.0610361433 -0.5531428545 -0.060482131 -0.5527235103 0.0535141877 0.1784347983
795295230.0 0.012275635 0.1918474177 -0.0672862674 -0.5521910706 -0.0672167058 -0.5521325677 0.0557745246 0.1782120348
800295200.0 0.0140944819 0.1920089741 -0.0736951753 -0.551104596 -0.0731687957 -0.551557061 0.0576982103 0.1774572491
805295170.0 0.0162567606 0.1919439645 -0.0794824459 -0.5504844908 -0.0796195409 -0.5507258964 0.0592198195 0.1769612759
810295140.0 0.0178660861 0.1913772024 -0.0850124503 -0.5495885337 -0.0852652183 -0.5498800565 0.0619112386 0.1766262398
815295110.0 0.0199051943 0.1913141577 -0.0909853018 -0.5483233949 -0.0909010766 -0.5488090715 0.0633448026 0.1760968299
820295080.0 0.021340157 0.1917918648 -0.0969854773 -0.5473038614 -0.0965999971 -0.5476373119 0.0656451833 0.1754468463
825295050.0 0.0243855359 0.1916394778 -0.1025043033 -0.5463124246 -0.1026228816 -0.5466322317 0.0678095218 0.1749887136
830295020.0 0.0255350868 0.1915636794 -0.1089228557 -0.5449635562 -0.1084894914 -0.54542363 0.0702797821 0.1744393446
