!Created with skrf (http://scikit-rf.org).
# Hz S RI R 50.0 
!freq ReS11 ImS11 ReS21 ImS21 ReS12 ImS12 ReS22 ImS22
300000.0 -0.7766650527 -0.0821050713 -0.0004212564 -0.0001847865 -0.0018501296 -0.0008546211 -0.7705818801 -0.1174328387
5299970.0 -0.784545024 -0.0052968195 8.07709e-05 6.2183e-06 -8.90107e-05 -9.95864e-05 -0.7857169982 -0.0070751425
10299940.0 -0.7880962152 -0.0037717936 4.14933e-05 -4.70296e-05 -4.40336e-05 9.6453e-05 -0.7886521326 -0.0034438377
15299910.0 -0.7930944155 -0.0019353892 -0.0001754225 -0.0001451101 5.09586e-05 -0.0001932099 -0.794073886 -0.0017226709
20299880.0 -0.8000942332 0.0018450565 -1.4677e-05 -5.23687e-05 -0.0002129626 -0.0001043565 -0.800474205 0.0020439054
25299850.0 -0.8064019633 0.0079819255 8.10672e-05 5.15476e-05 -0.0001167862 0.0002494229 -0.8064190453 0.0082925699
30299820.0 -0.812396208 0.0150493281 -0.0001076957 0.000191347 -5.02069e-05 0.0001590491 -0.8124822122 0.0162212232
35299790.0 -0.8173077466 0.0246573084 5.13219e-05 0.0001873709 -0.0001702423 0.0002118372 -0.8175869231 0.0250560125
40299760.0 -0.8213491759 0.0335703404 0.0001050819 -9.34517e-05 -0.0001027311 9.055e-07 -0.8216560275 0.0340683378
45299730.0 -0.8240441441 0.0431046834 -8.37003e-05 3.8522e-05 0.0002149744 -3.99244e-05 -0.8252373891 0.0433434896
50299700.0 -0.8269204451 0.0526764732 6.10307e-05 6.16694e-05 2.80209e-05 4.78548e-05 -0.8271303001 0.0537466915
55299670.0 -0.8290409612 0.0628632782 -8.71294e-05 3.64469e-05 -3.45919e-05 -6.00893e-05 -0.8296307914 0.0641799991
60299640.0 -0.8303168719 0.0731278929 -0.0002198419 6.61906e-05 -3.09546e-05 3.29541e-05 -0.8302104842 0.0738016652
65299610.0 -0.8308792753 0.0830010505 -0.0001322409 -2.0399e-05 -0.0001001141 2.401e-07 -0.832183153 0.084109594
70299580.0 -0.831246184 0.0933231793 7.56194e-05 -0.0002144079 -7.33076e-05 -0.0001037508 -0.8317392898 0.093948146
75299550.0 -0.831750392 0.1033711937 -5.48698e-05 0.0001477206 -0.0002268089 -9.98903e-05 -0.8320823865 0.1039426563
80299520.0 -0.8316965597 0.112906783 2.52334e-05 0.0002480217 -7.70145e-05 6.79497e-05 -0.8316915205 0.1136804842
85299490.0 -0.8309180545 0.1220979634 0.0001383349 5.8796e-05 0.0002216337 2.1112e-06 -0.8318816209 0.1234485509
90299460.0 -0.8299181064 0.1316392741 -1.35852e-05 -8.92382e-05 0.0001486712 9.99172e-05 -0.8309693189 0.133313667
95299430.0 -0.8293702627 0.1415247305 -3.59569e-05 -0.0001258707 -7.7016e-06 0.0002233 -0.8289896775 0.1429660484
100299400.0 -0.8278223642 0.1505128527 -0.0001253704 0.0001270988 3.50185e-05 -3.99981e-05 -0.8283758657 0.15202505
105299370.0 -0.8272871664 0.1601168874 -0.0002032368 9.48806e-05 6.60835e-05 -0.0001655263 -0.8273421981 0.1608090317
110299340.0 -0.8254256815 0.1689212735 1.50519e-05 3.03677e-05 -1.62854e-05 -1.57757e-05 -0.8255186307 0.1705835788
115299310.0 -0.8240667644 0.1783506374 1.26286e-05 -0.0002455286 -6.77113e-05 -2.47539e-05 -0.82431717 0.179813229
120299280.0 -0.8220835215 0.1869195409 -3.9444e-06 -0.0001397686 3.79263e-05 0.0001028822 -0.8224610058 0.1886582053
125299250.0 -0.8204962556 0.19575266 1.24214e-05 -0.0001373964 -9.17565e-05 0.0001241352 -0.8215990736 0.1980348107
130299220.0 -0.8189354186 0.2052215512 1.40749e-05 -6.8769e-05 4.02197e-05 -0.000147119 -0.8195852318 0.2068526609
135299190.0 -0.816393631 0.213675897 0.000138173 -0.0001041781 0.0001720107 -3.65614e-05 -0.8172385728 0.2163437598
140299160.0 -0.8145890382 0.2232667504 -5.26484e-05 0.0001645111 2.40791e-05 -5.78584e-05 -0.815195252 0.2246217408
145299130.0 -0.812796904 0.2316688846 8.2511e-05 -3.51461e-05 6.91099e-05 0.0001426931 -0.8126753076 0.2342379917
150299100.0 -0.8099078242 0.2407703335 -1.62545e-05 -1.12336e-05 -8.58391e-05 -0.0001110587 -0.8114475339 0.2431229305
155299070.0 -0.8080288977 0.2491072697 -0.0001696247 -3.52981e-05 0.0001082076 -0.0002221833 -0.8081512195 0.2520674231
160299040.0 -0.8054068647 0.2577381265 -1.05054e-05 3.97667e-05 -8.25976e-05 -0.0001350931 -0.8059026337 0.2604838211
165299010.0 -0.802613751 0.2670641931 5.65504e-05 -9.49539e-05 0.0001127985 0.0001005488 -0.8030476113 0.2691704018
170298980.0 -0.7997735244 0.2749417963 0.0002867955 0.0001182403 -8.994e-05 -7.00773e-05 -0.8002762752 0.2781641939
175298950.0 -0.797264373 0.2841416892 0.0002317819 0.0001184988 -0.0001103035 -0.0001787853 -0.7978908127 0.2866289463
180298920.0 -0.7948849411 0.2924158596 -3.266e-05 7.21225e-05 0.0001419912 9.70688e-05 -0.7944134148 0.2949328296
185298890.0 -0.7912021971 0.3007936929 7.10881e-05 -9.81755e-05 -3.94318e-05 9.33269e-05 -0.7909231715 0.3038728305
190298860.0 -0.7887198311 0.3094909193 0.0002190382 0.0001127682 -0.0001377046 -4.66287e-05 -0.7888360772 0.3121614795
195298830.0 -0.7857173137 0.3177934603 -0.0001395083 -0.0001375788 -9.33456e-05 -4.77162e-05 -0.7851713396 0.3207755248
200298800.0 -0.7810965565 0.3251782782 0.0002323942 0.0001115656 0.0001293511 7.65121e-05 -0.7823253222 0.3286632314
205298770.0 -0.7787356444 0.333517878 0.0001621459 -0.0001295064 -2.37518e-05 2.96541e-05 -0.7784298213 0.3374846599
210298740.0 -0.7751906281 0.3424713166 -1.98538e-05 0.0001526985 -2.17748e-05 -0.000297299 -0.7753340881 0.3451723996
215298710.0 -0.7718704007 0.3506883386 5.69518e-05 0.0001948315 1.0887e-05 -0.0001673211 -0.7715011709 0.353829532
220298680.0 -0.7680043666 0.3583046011 0.0001826447 -4.01325e-05 -3.08211e-05 -0.0001481221 -0.7678094027 0.3616694609
225298650.0 -0.7641443078 0.3661052994 -2.67122e-05 7.731e-07 -4.603e-07 0.0001893399 -0.7638970929 0.3699030661
230298620.0 -0.7605355581 0.3742965058 -0.0001495147 1.0711e-06 -6.26926e-05 4.34741e-05 -0.7597254778 0.378041574
235298590.0 -0.7561955255 0.3827416572 -0.0001037898 -6.24908e-05 -6.15266e-05 0.0001663957 -0.7557825716 0.3863642611
240298560.0 -0.7521366677 0.3909275849 -9.97377e-05 -1.22101e-05 2.3713e-05 9.13766e-05 -0.7516102689 0.3948944051
245298530.0 -0.7489275707 0.3985065289 4.02404e-05 -1.53041e-05 -8.24598e-05 -0.0001018521 -0.7484004878 0.4020481913
250298500.0 -0.7446773162 0.4065903282 1.54607e-05 -0.0001975571 -0.0002095999 7.63104e-05 -0.7435232518 0.4097880754
255298470.0 -0.7395637941 0.4133504559 1.96588e-05 -0.0001428174 1.66632e-05 5.89377e-05 -0.7386631117 0.417725363
260298440.0 -0.7356670727 0.4215627992 -6.99933e-05 1.36254e-05 5.68473e-05 -6.28498e-05 -0.735134297 0.4257922705
265298410.0 -0.7317779158 0.4291742902 -7.99017e-05 2.51172e-05 -5.2639e-06 -0.0001496678 -0.730863059 0.4333568588
270298380.0 -0.7272309153 0.4369125676 0.0002070625 -0.0001521842 2.39865e-05 -5.76685e-05 -0.7253861753 0.4409354558
275298350.0 -0.7225281455 0.4445332382 3.37519e-05 -9.46155e-05 -1.5711e-06 0.0001518719 -0.7211585023 0.4483481309
280298320.0 -0.717238098 0.4520077946 -8.37416e-05 5.53959e-05 -3.23426e-05 -0.0001942278 -0.7160864133 0.4556422359
285298290.0 -0.7127733587 0.4599091459 -9.59403e-05 0.0002438151 -1.695e-07 3.13914e-05 -0.7112203604 0.4636488948
290298260.0 -0.7083211044 0.4669994115 -4.2578e-05 -7.88948e-05 -7.46781e-05 -0.0001307149 -0.7066970117 0.4709263008
295298230.0 -0.7027651891 0.474333651 7.18613e-05 -5.00397e-05 -0.0001766348 0.0001219108 -0.7016198468 0.478122539
300298200.0 -0.6979964963 0.4811332292 5.54398e-05 -0.0001935604 -4.05365e-05 -0.0002206057 -0.6969079047 0.485518787
305298170.0 -0.6931824212 0.4880740511 1.1865e-06 -9.14751e-05 -5.41642e-05 5.1757e-05 -0.6910430473 0.4931511725
310298140.0 -0.6873882497 0.4958910592 -0.0001379263 4.80972e-05 1.3815e-05 -0.0001926076 -0.6867175253 0.5001109438
315298110.0 -0.6830202805 0.5029426121 7.11553e-05 8.30377e-05 -0.0001496474 0.0001037715 -0.6806684543 0.5072204686
320298080.0 -0.6775185681 0.5097167783 -3.63816e-05 -4.09327e-05 3.2389e-06 1.02234e-05 -0.6754135847 0.51500813
325298050.0 -0.6722069265 0.5173820771 1.23837e-05 4.16206e-05 -0.0002168054 4.779e-07 -0.6698994335 0.5210016137
330298020.0 -0.6664448041 0.5237714623 -0.0002544565 0.000187717 -8.11234e-05 3.57361e-05 -0.6648989978 0.5286061023
335297990.0 -0.6610205198 0.5304916246 -0.0001900256 -0.0001113536 -8.4182e-06 8.08354e-05 -0.6598608807 0.535990587
340297960.0 -0.656216825 0.5375007554 -0.0001890463 -8.4508e-05 -0.0003161136 -4.5314e-05 -0.6536232433 0.5428911744
345297930.0 -0.649996031 0.5438573371 7.15968e-05 -0.0001606212 8.7448e-06 -4.72599e-05 -0.6476789321 0.548472859
350297900.0 -0.6444008444 0.5504027668 -9.30596e-05 3.58838e-05 -3.054e-06 -2.55163e-05 -0.6425959838 0.5558373653
355297870.0 -0.6385446725 0.5579227908 8.18121e-05 0.0002197442 -4.30767e-05 -6.01002e-05 -0.6365864577 0.5622232319
360297840.0 -0.6323632366 0.5634800601 8.19238e-05 0.0001866248 5.04768e-05 -3.14198e-05 -0.6306703239 0.5688754874
365297810.0 -0.6279408074 0.5700815401 -3.43187e-05 -5.55613e-05 4.30393e-05 8.76728e-05 -0.6240476863 0.5746807191
370297780.0 -0.6214064321 0.5763586142 -0.000113343 -1.47927e-05 7.94599e-05 -0.0001596421 -0.6184625477 0.582039941
375297750.0 -0.6148299731 0.5829102154 -9.10066e-05 -9.15699e-05 3.7228e-05 3.40239e-05 -0.6123791735 0.5873884914
380297720.0 -0.6089009271 0.588286322 -0.0001146176 -6.11827e-05 -4.16594e-05 -9.202e-06 -0.6062795912 0.5937245602
385297690.0 -0.6036945346 0.5954952496 0.0001507303 -3.27933e-05 6.61409e-05 -6.14621e-05 -0.5997298794 0.6000260607
390297660.0 -0.5970492928 0.6009348992 -1.21883e-05 -3.90505e-05 -6.34627e-05 -1.22666e-05 -0.5939979084 0.6061954531
395297630.0 -0.5906484029 0.607895031 6.07097e-05 -9.41615e-05 0.0001110532 -9.60408e-05 -0.5870522421 0.6128848995
400297600.0 -0.5842107944 0.6134373872 -8.01857e-05 -0.0001745518 -3.28518e-05 -8.72753e-05 -0.5809471471 0.6184403257
405297570.0 -0.5786266315 0.6191091206 -3.16622e-05 3.63776e-05 3.0687e-05 8.91837e-05 -0.5741469222 0.6242421553
410297540.0 -0.5713388375 0.6248141538 -9.04454e-05 -7.65241e-05 0.0001067201 3.42362e-05 -0.5679974605 0.6302300834
415297510.0 -0.5649015115 0.630671334 -1.17814e-05 -0.0002045204 0.0002321204 -5.46787e-05 -0.5616814679 0.6358341227
420297480.0 -0.5595158035 0.6365859883 9.15959e-05 0.000126427 0.0001087987 2.836e-05 -0.5545891947 0.6422796105
425297450.0 -0.552053448 0.6421700546 -9.31451e-05 -5.0769e-06 8.31371e-05 5.77506e-05 -0.5483916344 0.6473595895
430297420.0 -0.5457015972 0.6478149646 -1.83785e-05 -2.85325e-05 5.9224e-05 6.66717e-05 -0.5413342033 0.6526899261
435297390.0 -0.539130301 0.6532350646 0.0002083535 -4.21274e-05 -7.7056e-05 2.36975e-05 -0.5342642556 0.6587342725
440297360.0 -0.5324242483 0.6587594138 5.37563e-05 0.000294432 -7.18187e-05 9.02231e-05 -0.5274916968 0.6635768332
445297330.0 -0.5251128273 0.6640520722 0.0001246571 -8.20986e-05 -2.96496e-05 6.75368e-05 -0.5207533807 0.6686730529
450297300.0 -0.5186844672 0.6689892102 -3.64703e-05 2.1509e-05 -8.22925e-05 0.0001143453 -0.5138289548 0.6743859098
455297270.0 -0.5117609978 0.6743950256 -8.20564e-05 1.69904e-05 -2.6559e-05 1.17804e-05 -0.5068642313 0.6791569525
460297240.0 -0.5055647262 0.6793660386 0.0002134978 -3.05427e-05 -0.0001770809 0.0002110663 -0.5000809894 0.6846632826
465297210.0 -0.4981345894 0.6851513205 -2.0113e-05 0.0001336727 -9.25322e-05 -4.41326e-05 -0.4931237735 0.689008035
470297180.0 -0.4902452334 0.6895327444 -2.21792e-05 0.0001981759 -5.22242e-05 0.0001366307 -0.4851795693 0.6949715154
475297150.0 -0.4835592209 0.6942763112 7.72206e-05 0.0001146946 -1.67466e-05 0.0001197171 -0.4784086586 0.6991698905
480297120.0 -0.4768590058 0.6990792205 -2.30769e-05 8.11816e-05 -0.0001118815 -0.0001189395 -0.4707699805 0.7038591125
485297090.0 -0.4691783957 0.703737284 0.0001188816 2.7969e-06 1.69509e-05 -8.61846e-05 -0.4636625848 0.7091646114
490297060.0 -0.4623164599 0.7082217992 0.0001427714 2.87276e-05 -1.87229e-05 6.29361e-05 -0.4569399805 0.7135899097
495297030.0 -0.455683814 0.7131406503 0.0001051688 -4.6065e-05 0.0001005042 1.18331e-05 -0.4496340931 0.7180795331
500297000.0 -0.4478727927 0.7177708391 8.6917e-05 2.46423e-05 0.000186452 -8.71694e-05 -0.4416122587 0.7229227255
505296970.0 -0.4407714336 0.7224424464 -2.28005e-05 2.37806e-05 -3.63309e-05 -0.0001507641 -0.4342002176 0.7270902757
510296940.0 -0.4331428562 0.7262702122 5.00725e-05 -0.0002199473 -2.5506e-05 -2.28054e-05 -0.4271214291 0.7311683843
515296910.0 -0.424808641 0.7303266176 0.0001114056 0.0002735536 5.9501e-06 -1.91333e-05 -0.4197563325 0.7354846532
520296880.0 -0.4185164328 0.7352506671 -4.49284e-05 -3.5264e-06 1.10481e-05 -0.0001119014 -0.4120781048 0.7395567317
525296850.0 -0.4103834011 0.7383856383 -0.0001064952 0.0002313998 -0.0001558832 -3.69275e-05 -0.4048461283 0.7447069622
530296820.0 -0.4023799181 0.7430737806 -2.07078e-05 -1.69894e-05 5.96032e-05 -0.0001131412 -0.3970279922 0.7477958429
535296790.0 -0.3962887263 0.7465902539 3.5422e-06 6.72514e-05 4.2879e-05 -0.0001514489 -0.3903930224 0.7513733749
540296760.0 -0.3886237395 0.7509195547 9.20578e-05 6.36665e-05 6.6966e-05 -3.3592e-06 -0.3819517027 0.7551479152
545296730.0 -0.3813725463 0.7549659432 -0.000103585 7.12089e-05 -8.9932e-06 -0.0002085346 -0.3741133945 0.7592926155
550296700.0 -0.3734191451 0.7586750814 -0.0002567449 -0.0001852323 -9.65913e-05 -0.0001764159 -0.3667537981 0.7633780479
555296670.0 -0.3654909277 0.7614956069 2.64072e-05 0.0001123239 4.97046e-05 8.12703e-05 -0.3584792028 0.7669494596
560296640.0 -0.3576435405 0.7659142843 0.0001026861 0.0001626109 -5.05383e-05 0.0001101906 -0.3509204417 0.7703772031
565296610.0 -0.3499327186 0.7696000452 -0.0002020484 -9.6749e-06 5.07407e-05 0.0002144257 -0.3428085521 0.7736824944
570296580.0 -0.3428980402 0.7723968976 2.74399e-05 2.27916e-05 -8.92835e-05 -9.21292e-05 -0.3346933231 0.7771061292
575296550.0 -0.33527684 0.7762979247 -0.0001215708 0.0001484725 -5.22141e-05 -9.58923e-05 -0.3273142734 0.7806903025
580296520.0 -0.326841775 0.7793435317 1.10064e-05 -6.71258e-05 4.48925e-05 3.00612e-05 -0.3184753048 0.7837894227
585296490.0 -0.3197162974 0.7825138446 2.16683e-05 -5.69293e-05 -1.82664e-05 -9.3698e-05 -0.3107255821 0.7871950504
590296460.0 -0.3108433303 0.7855416694 6.87544e-05 2.68314e-05 0.0003271916 0.0001025051 -0.3031261853 0.7898657826
595296430.0 -0.3026815649 0.7879672724 0.0001209612 -0.0001391346 -0.0002283555 -5.52675e-05 -0.2952400827 0.79258373
600296400.0 -0.2955904496 0.7916055621 -0.0001372183 -3.38504e-05 0.0001661418 3.3955e-05 -0.2871264377 0.7951462384
605296370.0 -0.2876519478 0.7942747259 0.0001319493 7.76827e-05 -5.94834e-05 9.10131e-05 -0.2787542259 0.7986557143
610296340.0 -0.2796190371 0.7974187743 1.55431e-05 -1.76903e-05 -0.0001591758 -0.0002670389 -0.2707771757 0.8010217771
615296310.0 -0.270763522 0.7999793609 -2.11068e-05 7.13731e-05 0.0001011974 0.0001176542 -0.2620078263 0.8037937433
620296280.0 -0.2637116924 0.8024462647 0.0001073042 0.0001121711 3.81952e-05 -4.55148e-05 -0.2544353553 0.806495939
625296250.0 -0.2551321975 0.8050914818 -5.35199e-05 -0.0001392655 -1.75943e-05 -0.0001520618 -0.2459856196 0.8090265681
630296220.0 -0.2466753141 0.8073287228 -0.0001075967 -0.0002415665 8.51806e-05 5.23829e-05 -0.2379654621 0.8116791227
635296190.0 -0.2390967634 0.8103005481 -0.0001462501 -5.57771e-05 -1.94904e-05 0.0001301504 -0.2302395195 0.8132637195
640296160.0 -0.2319504296 0.812405425 7.96089e-05 -0.0002245933 -0.0001913833 -0.0002078079 -0.2219007747 0.8161643357
645296130.0 -0.2225256466 0.8150373006 -0.0001631515 -8.45787e-05 0.0002466722 -0.0002136348 -0.2140854143 0.818368545
650296100.0 -0.2145850105 0.8170042646 1.63895e-05 -0.0001271382 -0.0001129352 6.5502e-05 -0.205499582 0.8197469251
655296070.0 -0.2065828627 0.8187708745 -0.000114058 3.358e-06 0.0001305719 0.0002135594 -0.1973315281 0.8218175479
660296040.0 -0.1982663038 0.8204289208 -1.71837e-05 5e-09 -1.55556e-05 -0.0001723903 -0.1888971768 0.8239094056
665296010.0 -0.1899067642 0.8226216035 -8.414e-05 -0.0001819089 0.0001202782 -5.69955e-05 -0.1805947778 0.8258166798
670295980.0 -0.1820041603 0.8248146689 -0.0001524093 6.64167e-05 -8.2028e-06 9.61406e-05 -0.1726424135 0.8276685291
675295950.0 -0.173632643 0.8260423493 -0.0001203237 -6.53133e-05 0.0001072382 0.0003046607 -0.1646359073 0.8295659416
680295920.0 -0.1653616975 0.8280173686 2.99909e-05 -3.67049e-05 5.40221e-05 0.0002231617 -0.155535237 0.8315787048
685295890.0 -0.1573620814 0.8302108074 -8.42438e-05 0.0001278478 -2.131e-07 3.83472e-05 -0.1468822177 0.8319557793
690295860.0 -0.149390729 0.8304864055 -2.55334e-05 0.0002643934 -0.0001438691 -1.41418e-05 -0.138880591 0.8336924767
695295830.0 -0.1409266907 0.8319208048 -4.41447e-05 5.4203e-06 -5.10011e-05 -0.0001428494 -0.1304493346 0.8347275149
700295800.0 -0.1326767955 0.8336905205 8.74721e-05 0.000146885 -0.0001130682 -0.0001043377 -0.1227721827 0.8360776113
705295770.0 -0.1242839048 0.8354172047 0.000152278 -9.52776e-05 -3.52595e-05 1.18589e-05 -0.114642106 0.8383595451
710295740.0 -0.1165093183 0.8366163066 -4.59437e-05 -7.82575e-05 0.0002099079 -2.28559e-05 -0.1061769996 0.838896884
715295710.0 -0.1078670616 0.8371088177 1.03388e-05 8.97337e-05 1.72839e-05 -5.14928e-05 -0.0969886099 0.8393707817
720295680.0 -0.0997284473 0.8385398891 4.03626e-05 0.0002043403 0.0001933081 -1.76957e-05 -0.0885373897 0.8409666396
725295650.0 -0.0912364053 0.8398390971 0.0004143515 -3.27154e-05 1.92595e-05 -7.61546e-05 -0.0805606284 0.8418375335
730295620.0 -0.0823552 0.8404246766 0.0001489264 9.96711e-05 5.62435e-05 -2.76201e-05 -0.0724023475 0.8417646172
735295590.0 -0.0746333854 0.8408796217 -0.0001211251 3.86173e-05 0.0002086473 -9.21147e-05 -0.0638167597 0.842552157
740295560.0 -0.066523491 0.8419598053 3.83382e-05 0.000182998 5.71154e-05 0.0002414421 -0.0550389236 0.8438769736
745295530.0 -0.058210445 0.8422966915 -9.95598e-05 0.0001636061 -0.0001101538 0.0001421979 -0.0461958314 0.8436061238
750295500.0 -0.0492708257 0.8427388168 5.79402e-05 -0.0001188809 6.94026e-05 2.1953e-05 -0.0382714518 0.8446089975
755295470.0 -0.040594023 0.8431939783 -8.41934e-05 4.27893e-05 -9.68835e-05 4.65425e-05 -0.0296981782 0.8443512668
760295440.0 -0.0333568052 0.8438630086 7.04612e-05 -6.1091e-05 -0.0001058841 2.5096e-06 -0.0214235434 0.8442110271
765295410.0 -0.0244563549 0.8439047877 -0.0001045552 -7.8176e-05 -7.61552e-05 1.60656e-05 -0.0131589112 0.844752382
770295380.0 -0.0165973834 0.8443332778 -1.16192e-05 -6.70985e-05 -6.94509e-05 -3.87175e-05 -0.0042510811 0.8451456293
775295350.0 -0.008522776 0.8439405086 2.46304e-05 3.87757e-05 4.6471e-05 -0.0001097925 0.003243147 0.8448998575
780295320.0 0.0008932042 0.8445371692 0.0001405206 -1.31102e-05 0.0002223335 -8.415e-05 0.0119440245 0.8446970179
785295290.0 0.0081578603 0.84359065 2.5492e-06 -4.3961e-05 -6.84722e-05 -3.53677e-05 0.0202561155 0.8448844622
790295260.0 0.017827119 0.8438619302 -0.0001151707 -3.41926e-05 1.87528e-05 -2.99672e-05 0.0296518763 0.8447878519
795295230.0 0.0253185456 0.8435890449 1.07765e-05 -7.35012e-05 5.01815e-05 3.50441e-05 0.0382833261 0.8436523634
800295200.0 0.0333207196 0.8436347901 -8.73761e-05 6.71823e-05 -2.78873e-05 -7.11524e-05 0.0465853556 0.8437170664
805295170.0 0.0425899582 0.8431900996 -9.30111e-05 8.9668e-06 -5.56777e-05 -1.85576e-05 0.0543455293 0.8434943275
810295140.0 0.0509019639 0.8423672686 -0.0002346147 -0.0001956739 -0.0001521403 0.0002059433 0.0633170945 0.8425411298
815295110.0 0.0588324319 0.8418088714 9.8259e-05 -0.0001148052 -2.83092e-05 -0.0001593467 0.0714157488 0.8421849753
820295080.0 0.0668378661 0.8415941327 7.93108e-05 -9.84017e-05 0.0002397839 -6.66014e-05 0.080037254 0.8414781606
825295050.0 0.0764788522 0.8404091179 5.9057e-05 -6.34404e-05 -2.6083e-05 3.5765e-05 0.0881888059 0.8406020539
830295020.0 0.0836523125 0.839892509 -3.6441e-05 -0.0001860815 0.0001513668 0.0001090509 0.0974034635 0.8398665948
835294990.0 0.0917002761 0.8390027779 0.0001257979 4.41917e-05 6.01589e-05 7.25304e-05 0.1042784333 0.8384625431
840294960.0 0.1001090033 0.8389501268 0.0001990273 5.23603e-05 0.0001581248 -0.0001257808 0.1130678842 0.8377868708
845294930.0 0.1083375294 0.8364246702 -6.0187e-06 7.45962e-05 1.99057e-05 -3.6323e-06 0.1212608216 0.8358560915
850294900.0 0.1166476942 0.8367743476 -4.19233e-05 1.89828e-05 -3.57871e-05 -0.0001295724 0.1296287816 0.8351248132
