!Created with skrf (http://scikit-rf.org).
# Hz S RI R 50.0 
!freq ReS11 ImS11 ReS21 ImS21 ReS12 ImS12 ReS22 ImS22
300000.0 -0.3192368344 -0.1036978499 0.3712839804 0.0517751167 0.3742844638 0.056935646 -0.3179849674 -0.1158388663
5299970.0 -0.3235566066 0.0046130183 0.378549224 0.0026550287 0.3787538322 0.0029965446 -0.3260389662 0.0027126589
10299940.0 -0.3211747969 0.0153996003 0.3797186688 0.0022669315 0.3796140556 0.0023894416 -0.3242409014 0.0125623972
15299910.0 -0.3180558518 0.0236401214 0.3818751785 0.0022295151 0.3821199964 0.0022138032 -0.321450034 0.0197961619
20299880.0 -0.3140753965 0.0300379379 0.3848040074 0.0017319957 0.3853370109 0.0014971237 -0.3187286525 0.0261052175
25299850.0 -0.310620625 0.0358009338 0.3883366025 6.0393e-06 0.388558796 7.37937e-05 -0.3155833487 0.0311560197
30299820.0 -0.3064666338 0.0406612129 0.3921360645 -0.002201108 0.3914525462 -0.0022430649 -0.3125439733 0.0355132477
35299790.0 -0.3027818544 0.0450429658 0.3952446358 -0.0053706767 0.3951895565 -0.0052742269 -0.3097678275 0.0392688595
40299760.0 -0.2996995521 0.0480761267 0.3985591408 -0.0083446451 0.3983553357 -0.0088655286 -0.3071412832 0.0430343104
45299730.0 -0.2964701186 0.0516560095 0.4012167502 -0.0127052311 0.4012475276 -0.012502939 -0.3048092554 0.0461789339
50299700.0 -0.2933200548 0.0540180916 0.4033172457 -0.0171731489 0.4034246705 -0.0174932866 -0.3020599028 0.0489794056
55299670.0 -0.2908331746 0.0569260785 0.4056470404 -0.0221005673 0.405881489 -0.0218421422 -0.3004209304 0.0519354301
60299640.0 -0.2880499713 0.0591765911 0.4072536893 -0.0271163394 0.407645615 -0.0269265285 -0.2983820406 0.0546603669
65299610.0 -0.2859940198 0.0616453523 0.4094046502 -0.0313985684 0.4095646625 -0.0319052129 -0.2961816955 0.0570094904
70299580.0 -0.2838260626 0.0635597712 0.4101352697 -0.0365613494 0.4105287425 -0.0370167154 -0.2945482137 0.059554398
75299550.0 -0.2815281149 0.065893795 0.4113868312 -0.0421045264 0.4116419602 -0.0421965188 -0.2932893486 0.0618610699
80299520.0 -0.2802540535 0.0679091277 0.4127441751 -0.047578914 0.4128149265 -0.0471335769 -0.2916654597 0.0640278487
85299490.0 -0.2784651533 0.0700535691 0.4132452644 -0.0528488386 0.4130951814 -0.0526725071 -0.2904544807 0.0665046933
90299460.0 -0.2771169116 0.0721447977 0.4135620173 -0.0578674215 0.4137036445 -0.0581658326 -0.288590083 0.0687152962
95299430.0 -0.2755643797 0.0744090425 0.4138736489 -0.0633287078 0.4142584529 -0.0631852169 -0.287702353 0.0713734241
100299400.0 -0.2743193597 0.076575544 0.4138120073 -0.0683018819 0.4137571303 -0.0684135097 -0.286553147 0.0732161344
105299370.0 -0.2727893842 0.0784358425 0.4134734904 -0.0735443434 0.4136134578 -0.0735565874 -0.2851100354 0.0754933639
110299340.0 -0.2718444105 0.0804918865 0.4131670837 -0.0785609031 0.4134558965 -0.0788436562 -0.2843421384 0.078291933
115299310.0 -0.2706830747 0.0824796299 0.4129999633 -0.0838150687 0.4131074844 -0.0835978576 -0.2831044514 0.0801349641
120299280.0 -0.2696441296 0.0847890431 0.4130054253 -0.0890191628 0.4130185373 -0.0889690669 -0.2823434532 0.0825755904
125299250.0 -0.2686770253 0.0867535179 0.4122831369 -0.0939222894 0.4122864856 -0.0940833422 -0.2812557158 0.0846507947
130299220.0 -0.2674857789 0.0889516361 0.411570906 -0.0985560983 0.4114907639 -0.0991439965 -0.2803007923 0.0873833244
135299190.0 -0.2665381619 0.0909234224 0.4109287716 -0.103624838 0.4106300019 -0.1041199633 -0.2796798266 0.0895432402
140299160.0 -0.2658994359 0.0937285004 0.4100334902 -0.1089755897 0.4102771026 -0.109189428 -0.2784912697 0.0920358233
145299130.0 -0.2646702427 0.0958173356 0.4092040388 -0.1139316327 0.4091361444 -0.1137900627 -0.2782031146 0.0947145089
150299100.0 -0.2637731564 0.0982312009 0.4078420171 -0.1191976884 0.4083636002 -0.1189640004 -0.2769078172 0.0968989244
155299070.0 -0.2629693254 0.1008919523 0.4071848797 -0.124204971 0.4073469635 -0.124080689 -0.2764164548 0.0993508577
160299040.0 -0.2619461277 0.1029742255 0.4056691044 -0.1284857927 0.4059808516 -0.1285425584 -0.2751764553 0.1021764933
165299010.0 -0.2610034034 0.1053003306 0.4046503003 -0.1335898864 0.4049939422 -0.1336545915 -0.2743737825 0.1045838733
170298980.0 -0.260176089 0.1077339173 0.4026040668 -0.1382043236 0.4032150193 -0.1385006344 -0.2732224792 0.1072206922
175298950.0 -0.259305235 0.1103074975 0.4024413515 -0.1430115579 0.4020768442 -0.1431420158 -0.2721446135 0.1097751784
180298920.0 -0.2579712059 0.1126400022 0.4004271421 -0.1482296263 0.4005144493 -0.1477745162 -0.2709629998 0.1121892002
185298890.0 -0.2569098872 0.1154099162 0.3983795638 -0.1529379878 0.3986748983 -0.1527237815 -0.2704635812 0.1150504448
190298860.0 -0.2556272785 0.1175643442 0.3969935208 -0.1574252785 0.3975577128 -0.1577232073 -0.2686093751 0.1176379477
195298830.0 -0.2543662855 0.1199908573 0.395682941 -0.1618070043 0.3959454336 -0.1621108649 -0.2679235154 0.1201055941
200298800.0 -0.2539172311 0.1227220626 0.3943714977 -0.1662057539 0.3940543442 -0.1664223763 -0.2666617401 0.1231979219
205298770.0 -0.2526481844 0.1251000767 0.3921861521 -0.1710731752 0.3926343262 -0.1707999709 -0.2657742965 0.125403851
210298740.0 -0.2514432171 0.127804483 0.3902398715 -0.1762694141 0.3906849042 -0.1759139284 -0.2646593286 0.1281531884
215298710.0 -0.2504014945 0.1305228853 0.3884776307 -0.1802694939 0.3885116343 -0.1801190571 -0.2636726589 0.1308770965
220298680.0 -0.2493539884 0.1327836456 0.3864613604 -0.1847172611 0.3866243102 -0.1846941915 -0.2619774725 0.1335107747
225298650.0 -0.2475955006 0.1354650838 0.3844531054 -0.1889874666 0.3843155038 -0.1890856338 -0.260917809 0.1364728137
230298620.0 -0.2466778958 0.1379533757 0.3828223916 -0.1933894251 0.3826685381 -0.1935697687 -0.2596219267 0.1388113473
235298590.0 -0.2456795431 0.1406873594 0.3806316144 -0.1975940009 0.3806226092 -0.1981598414 -0.2582585424 0.1413918023
240298560.0 -0.2442596446 0.1433323921 0.3785209082 -0.2019614667 0.3783357065 -0.2017176328 -0.2569549993 0.1442567524
245298530.0 -0.2425700646 0.1457669228 0.375421422 -0.2063605035 0.3761813923 -0.2064864375 -0.2558741286 0.1469963418
250298500.0 -0.2413343252 0.1482967551 0.3737520878 -0.210368922 0.3742614463 -0.2103847171 -0.2542492508 0.1496411857
255298470.0 -0.2400929874 0.1510273018 0.371408188 -0.2153924766 0.3714681856 -0.2149529673 -0.2526776334 0.1524489269
260298440.0 -0.2387252754 0.1533210012 0.3692480866 -0.2190639713 0.3691577975 -0.2193017345 -0.251230747 0.1548356592
265298410.0 -0.2370457706 0.1563027219 0.3666239411 -0.2239395475 0.366408493 -0.2234163974 -0.2498820823 0.1576858287
270298380.0 -0.2354509728 0.1586629486 0.3636963653 -0.2276075941 0.3640354147 -0.2277022989 -0.2480449065 0.1604209792
275298350.0 -0.2341715892 0.1610813494 0.3618022441 -0.2320079036 0.3617821501 -0.2319524065 -0.2463236724 0.1633138666
280298320.0 -0.2326650923 0.1636944405 0.3586847771 -0.2351762446 0.3590256631 -0.2359740081 -0.2447878571 0.1656971557
285298290.0 -0.2310078888 0.1667672653 0.3566200541 -0.2397400876 0.3564942963 -0.2399281422 -0.2432680591 0.1684644712
290298260.0 -0.2295095246 0.1690227936 0.3542338984 -0.2439628958 0.3541504821 -0.2436872998 -0.2412934575 0.1714105233
295298230.0 -0.2275558206 0.1713065056 0.3514464486 -0.2477831863 0.3509287397 -0.2479322999 -0.2395921746 0.1738929993
300298200.0 -0.22582027 0.1735977643 0.3485104246 -0.2517289532 0.348496523 -0.2519613761 -0.2378635214 0.1764735934
305298170.0 -0.2240248685 0.176294558 0.3459227548 -0.2559743396 0.3456791144 -0.2559907115 -0.235628039 0.1791573879
310298140.0 -0.2222803273 0.1784494161 0.3429772508 -0.2599958407 0.3427082878 -0.2603006161 -0.233900253 0.1817125781
315298110.0 -0.220635453 0.1807464854 0.3401285584 -0.2638677854 0.340160676 -0.2640738053 -0.2319142034 0.1842110003
320298080.0 -0.2189056953 0.1833347248 0.3371373604 -0.2677105665 0.3371033204 -0.267564216 -0.2304019957 0.1869348199
325298050.0 -0.2169007946 0.1854962257 0.3342001932 -0.271512302 0.3342421183 -0.2716518926 -0.2284872652 0.1892745511
330298020.0 -0.215223607 0.1883110225 0.330366404 -0.2753073517 0.3308195696 -0.2752192447 -0.2267997006 0.1916348492
335297990.0 -0.2132663581 0.1903397562 0.3275953259 -0.2788079536 0.3278357201 -0.2790655197 -0.2248990175 0.1947013634
340297960.0 -0.2118707437 0.1928266324 0.3242715927 -0.2824347393 0.324717817 -0.2824983487 -0.2230591999 0.1967786888
345297930.0 -0.2097552068 0.1953985111 0.3209532856 -0.2861126053 0.3210389115 -0.2857933483 -0.2206379168 0.1991783512
350297900.0 -0.2074571921 0.19767949 0.3177487165 -0.2893176738 0.3181084506 -0.2897379662 -0.2189373709 0.2022781264
355297870.0 -0.2059240298 0.1997342958 0.3148074186 -0.2928573376 0.3145799623 -0.2933327808 -0.216774641 0.2046231549
360297840.0 -0.2039380979 0.202158251 0.3114523934 -0.2964291534 0.3113566178 -0.2967225888 -0.2146124261 0.2072056167
365297810.0 -0.2017347172 0.2043759506 0.3077446904 -0.3000853582 0.3080598214 -0.3001687748 -0.2128332881 0.2098981737
370297780.0 -0.1995329808 0.2068141143 0.304360403 -0.303326012 0.3048869213 -0.3036661192 -0.2104849922 0.212255664
375297750.0 -0.1976490414 0.2093419017 0.3020320897 -0.3070761834 0.3012902756 -0.3068885059 -0.2079957756 0.214899789
380297720.0 -0.1951931991 0.2113256506 0.2980780851 -0.3099480419 0.2979755488 -0.3101230292 -0.2056284616 0.2175441441
385297690.0 -0.1930003403 0.2135089745 0.294377626 -0.3129248121 0.2945823788 -0.3131824031 -0.2038845932 0.2198876342
390297660.0 -0.1909525077 0.2159359678 0.2908158279 -0.3165824197 0.290992064 -0.3170373743 -0.2016510834 0.2220209033
395297630.0 -0.1887859786 0.2179803199 0.2877661915 -0.3195358494 0.2873150296 -0.3195844706 -0.1990884468 0.2244252941
400297600.0 -0.1865768258 0.2204492042 0.2839849899 -0.322851247 0.2842959998 -0.3227948512 -0.1972963421 0.2265007689
405297570.0 -0.1842507473 0.2224869944 0.2804445668 -0.3260489086 0.2802097194 -0.3262070802 -0.1946435804 0.2293655242
410297540.0 -0.1818116098 0.2243807728 0.2764973629 -0.3288751713 0.2764351308 -0.3288632062 -0.1921428475 0.2312183084
415297510.0 -0.1793076679 0.2265986981 0.2728833449 -0.3319349283 0.2732224498 -0.3318714158 -0.1900437236 0.234004205
420297480.0 -0.1769226566 0.2286513214 0.2693292419 -0.3350284227 0.2695235597 -0.3348711486 -0.1875241085 0.2356777118
425297450.0 -0.1744644943 0.2304695739 0.2652942015 -0.3379455055 0.2659852315 -0.3378188894 -0.1851260459 0.2381455102
430297420.0 -0.1725318459 0.2327792102 0.2621357263 -0.3410382972 0.2620230702 -0.3405007661 -0.1827495451 0.2403427127
435297390.0 -0.1698736692 0.234717208 0.2583109075 -0.3433855817 0.2583300082 -0.3432299182 -0.1799785425 0.2426522456
440297360.0 -0.1672533768 0.2363586395 0.2539428414 -0.3462927511 0.2539750103 -0.3463367035 -0.1775580017 0.244457101
445297330.0 -0.1648409067 0.2384217585 0.2500971877 -0.3491029867 0.2502922349 -0.3491190578 -0.1753915169 0.2465289496
450297300.0 -0.1622400754 0.2400613185 0.2463655348 -0.3515791352 0.2467848967 -0.3519721108 -0.1728317704 0.2487717319
455297270.0 -0.1599394368 0.242094663 0.2427212938 -0.3544252125 0.242933612 -0.3544920252 -0.1698527047 0.2510697594
460297240.0 -0.1575230495 0.2441947322 0.2390154401 -0.3568591071 0.2384989512 -0.3570455326 -0.1672426987 0.2532268533
465297210.0 -0.154726773 0.2457000952 0.2350813582 -0.3597489634 0.2351922669 -0.3596447972 -0.1652985826 0.2545843944
470297180.0 -0.152349342 0.2474237325 0.2309812464 -0.3620797808 0.2312455818 -0.3618010082 -0.1626304829 0.2567471992
475297150.0 -0.1496167625 0.2494162751 0.2268945021 -0.3642569872 0.2269520293 -0.3640204292 -0.1595431552 0.2585685713
480297120.0 -0.1468443582 0.2508442303 0.22271197 -0.3665958563 0.223257799 -0.3666286415 -0.1572826801 0.2608971399
485297090.0 -0.1440561167 0.2525896349 0.2190733953 -0.3690708424 0.2192073708 -0.3692284404 -0.1545285245 0.2622752291
490297060.0 -0.1414652632 0.2539687321 0.2146359645 -0.3714919345 0.2149623671 -0.3716433881 -0.1513987038 0.2643848706
495297030.0 -0.1392038069 0.2561595845 0.2106676037 -0.373866784 0.2104937006 -0.373930147 -0.1488626436 0.2659055707
500297000.0 -0.1362595084 0.2575656343 0.2063065101 -0.3761483628 0.206488134 -0.3761713558 -0.1465649251 0.2678202998
505296970.0 -0.1334680799 0.2591001966 0.2023587255 -0.3781123965 0.202286759 -0.3779876535 -0.1440997319 0.269515898
510296940.0 -0.1310162759 0.2606058226 0.1982882236 -0.3802315546 0.1986217862 -0.3808374289 -0.1408509129 0.2713728483
515296910.0 -0.1282006429 0.2624345601 0.1937630933 -0.3824497664 0.1943946712 -0.3825763656 -0.1379906982 0.2728327661
520296880.0 -0.1256928781 0.2638944574 0.189859485 -0.3846220231 0.1901148169 -0.3844511315 -0.135118975 0.2746477336
525296850.0 -0.1225044037 0.2653448631 0.1857717062 -0.3868200542 0.1858301968 -0.3868283548 -0.1322896628 0.2763290243
530296820.0 -0.1199565584 0.2664941974 0.1818429517 -0.3877801131 0.1815589489 -0.3884562625 -0.1297026419 0.2774465932
535296790.0 -0.1171049991 0.2679126345 0.1770585295 -0.3902023177 0.1773988116 -0.390106833 -0.1269346302 0.2787652108
540296760.0 -0.1143343588 0.2691987198 0.1728688722 -0.3923106394 0.1726345773 -0.3925073086 -0.1241819832 0.2804794529
545296730.0 -0.1117559715 0.2709619484 0.1687164157 -0.3937832334 0.1687445541 -0.3940986113 -0.1211319644 0.2822065648
550296700.0 -0.1087656356 0.2722082199 0.1644430234 -0.395906575 0.1648322787 -0.3959470091 -0.1188466038 0.2838336551
555296670.0 -0.1055039266 0.2737654778 0.1600025059 -0.3977052169 0.160126397 -0.397708526 -0.1155035186 0.2849374281
560296640.0 -0.1029126399 0.2746407732 0.1559792823 -0.3991051171 0.1559780852 -0.399130238 -0.1127115282 0.2862757245
565296610.0 -0.0999921659 0.2759616161 0.1514239654 -0.4008227376 0.1510280749 -0.4008267145 -0.1097437964 0.2876974718
570296580.0 -0.0966850147 0.2768925848 0.1465507265 -0.4023585943 0.1471961111 -0.4027655107 -0.1066665692 0.28953795
575296550.0 -0.0939935429 0.2783615505 0.1426807834 -0.4038347373 0.1427575747 -0.4037716297 -0.1032804297 0.2902058756
580296520.0 -0.0910092929 0.279396935 0.1384378802 -0.4055191883 0.1381550019 -0.4054754502 -0.1008619907 0.2913086199
585296490.0 -0.0882150478 0.2801879723 0.1338621239 -0.4067525795 0.1337402387 -0.4068680477 -0.0978742433 0.2922048126
590296460.0 -0.0857056943 0.2812369982 0.1292892402 -0.4081058471 0.1293813989 -0.4084980711 -0.0946463616 0.2939477304
595296430.0 -0.0822782713 0.282447447 0.1251235364 -0.4095036002 0.1246697055 -0.4099991959 -0.0916365189 0.2945826259
600296400.0 -0.0793270554 0.2836710049 0.120580359 -0.4112363278 0.1208488877 -0.4108885097 -0.0885879178 0.296251544
605296370.0 -0.076183332 0.2845338082 0.115958466 -0.4121336606 0.1163555616 -0.4121113936 -0.0857011644 0.2974699653
610296340.0 -0.0732535145 0.2852915875 0.1115944424 -0.4131393503 0.11181032 -0.413595494 -0.0824424434 0.2984687398
615296310.0 -0.0701041762 0.2866517929 0.10677071 -0.4144940555 0.1067922209 -0.4145742271 -0.0792685597 0.2992990017
620296280.0 -0.0672341673 0.2872215517 0.1028419615 -0.4155717554 0.1022579871 -0.4155965781 -0.0763565524 0.2996725547
625296250.0 -0.0640194717 0.2882737698 0.0976921216 -0.4167654395 0.0977850823 -0.4169884365 -0.0729251423 0.3013269158
630296220.0 -0.0608335778 0.2890688624 0.0931424197 -0.417712556 0.0936398236 -0.4175775646 -0.0702478844 0.3019331296
635296190.0 -0.0580324905 0.2899902111 0.0886375048 -0.4184152546 0.0886927127 -0.4182359386 -0.0672796885 0.3027544995
640296160.0 -0.0551718128 0.2900245817 0.0842146634 -0.4192330259 0.084307875 -0.4195680094 -0.0634085656 0.3035794967
645296130.0 -0.051996033 0.291376313 0.0795539393 -0.420338202 0.0799511038 -0.4203035229 -0.0608152609 0.3043249032
650296100.0 -0.048817131 0.2923004722 0.0753234966 -0.4212274648 0.0751944371 -0.4212141652 -0.0576020381 0.3050708261
655296070.0 -0.045845391 0.2925608999 0.0706674479 -0.4215113372 0.0707279186 -0.4219900906 -0.0541443529 0.3062972088
660296040.0 -0.0427976232 0.2931711892 0.0659102555 -0.4221264807 0.0661811273 -0.4222184493 -0.0514306543 0.3063730744
665296010.0 -0.039454934 0.2937561455 0.0616685301 -0.4228880342 0.0620484057 -0.4231703693 -0.0479989202 0.3075422525
670295980.0 -0.0363440503 0.294536905 0.0570834381 -0.4238526844 0.0574292108 -0.4233680664 -0.0452324746 0.3078935496
675295950.0 -0.0333618113 0.2948292057 0.0521919964 -0.4242995569 0.0525994568 -0.4245718341 -0.0419966313 0.3086516378
680295920.0 -0.0303247642 0.2956341659 0.0475740405 -0.4249111657 0.0476080066 -0.424877121 -0.0383927294 0.309006716
685295890.0 -0.0270458966 0.2960661278 0.0432577976 -0.4255746455 0.0429238837 -0.4257163451 -0.0353419711 0.3098903715
690295860.0 -0.0239641837 0.296359233 0.0385392355 -0.4254754079 0.0383212525 -0.425490459 -0.0322109939 0.310112886
695295830.0 -0.0204236441 0.2965159573 0.0335489804 -0.425930523 0.0334852243 -0.4260684997 -0.0291286151 0.310997363
700295800.0 -0.0178012983 0.2972600786 0.0292967525 -0.4263619896 0.0292531571 -0.4262233633 -0.0256328228 0.3108477629
705295770.0 -0.0143864903 0.2975032484 0.0245804831 -0.4263012601 0.0247300359 -0.4265860168 -0.0227277347 0.3116393194
710295740.0 -0.0110420774 0.2980737478 0.0198895788 -0.4265738517 0.0199950236 -0.4267225947 -0.0197656667 0.3125383321
715295710.0 -0.0085704124 0.2981629141 0.0154764655 -0.4269711042 0.0156987368 -0.4270756835 -0.0160490104 0.312227871
720295680.0 -0.005104521 0.2982093639 0.0105746294 -0.4267336988 0.0109555991 -0.4274591405 -0.0129293778 0.3125121161
725295650.0 -0.0015720567 0.2982666148 0.0060518364 -0.4264926918 0.0062174978 -0.4269486761 -0.0095328463 0.3129187036
730295620.0 0.0011034843 0.2983286663 0.0014598426 -0.4269784105 0.0017781801 -0.4271030296 -0.0064540005 0.3128738888
735295590.0 0.0046587304 0.298649457 -0.0029821011 -0.4270337047 -0.0027136196 -0.4272399577 -0.0027803861 0.3133886128
740295560.0 0.0076794314 0.2989549961 -0.007762838 -0.426473935 -0.0080009681 -0.4267596433 0.0004445897 0.3134687676
745295530.0 0.0108503543 0.298857574 -0.0124309639 -0.4269682401 -0.012040287 -0.4269451483 0.0032124077 0.3134945059
750295500.0 0.0137830272 0.299060114 -0.0169435196 -0.4266262344 -0.0168819244 -0.4267369337 0.0065841284 0.3132983078
755295470.0 0.0174742609 0.2988451297 -0.0215195425 -0.4260966372 -0.0213452915 -0.4263845487 0.0097725727 0.3140227296
760295440.0 0.0204658 0.2991763707 -0.0264505595 -0.4262135351 -0.0259738287 -0.4262976 0.0124283758 0.3139951891
765295410.0 0.0233421128 0.2986112687 -0.0301684048 -0.4253905652 -0.0304783252 -0.4259290435 0.0165566336 0.3143131058
770295380.0 0.0266911992 0.298711499 -0.0352192156 -0.4247828228 -0.0352994921 -0.4257922691 0.0200245669 0.3137720345
775295350.0 0.029862102 0.2986400299 -0.0400580889 -0.4243547793 -0.03988408 -0.4247743179 0.0227041924 0.3134264735
780295320.0 0.0332378761 0.2982704342 -0.0442233383 -0.4244756103 -0.0442967916 -0.4243470529 0.0261871513 0.3137682533
785295290.0 0.0361009526 0.2985107729 -0.0490904376 -0.4235960978 -0.0489174123 -0.4236709172 0.0289240162 0.3135276688
790295260.0 0.0392503154 0.2979487408 -0.0535649971 -0.4229304009 -0.0535587617 -0.4235153791 0.0328695497 0.3134753559
795295230.0 0.0424128886 0.2977589814 -0.0579013818 -0.421909017 -0.0580742782 -0.4228135741 0.0359461553 0.3133389775
800295200.0 0.0457508717 0.2975401437 -0.0630827391 -0.4220739764 -0.0629662984 -0.4219560546 0.0393212911 0.3129513356
805295170.0 0.048807759 0.2972170186 -0.0669936713 -0.420613413 -0.0671269983 -0.4211945045 0.0421625168 0.3127092871
810295140.0 0.0519555437 0.2969990829 -0.0717635394 -0.4203703422 -0.0715264777 -0.420830999 0.0456022561 0.3128173461
815295110.0 0.0551575215 0.2963090526 -0.0764931892 -0.4192536057 -0.0766508664 -0.419598349 0.0486480163 0.312230064
820295080.0 0.058472531 0.2955664104 -0.0809800501 -0.4185282211 -0.0808828448 -0.4190205343 0.0516031929 0.3117790038
825295050.0 0.0616433906 0.2954729002 -0.0855113294 -0.417274694 -0.0854129904 -0.4177804628 0.0554275041 0.311242818
830295020.0 0.0646338786 0.2950987784 -0.0897355905 -0.4165493261 -0.0898264395 -0.4169641693 0.0581456965 0.3109258555
