!Created with skrf (http://scikit-rf.org).
# Hz S RI R 50.0 
!freq ReS11 ImS11 ReS21 ImS21 ReS12 ImS12 ReS22 ImS22
300000.0 -0.7701963133 -0.139819749 -0.000750227 -0.0014295768 -8.1692e-05 0.0030973233 -0.7697741816 -0.1641191546
5299970.0 -0.7848690079 -0.0070927756 1.6043e-06 7.0358e-06 -0.000106815 0.0002080283 -0.7845713695 -0.0083202368
10299940.0 -0.7878339776 -0.0039347248 -0.0002389759 -0.0001021117 -0.000212445 0.000214723 -0.7882260341 -0.004886721
15299910.0 -0.7932546807 -0.0012216229 9.67471e-05 0.0001437977 -0.0001017067 -2.37721e-05 -0.7937602856 -0.0031739697
20299880.0 -0.7993212747 0.0021539407 -3.96928e-05 0.0001256409 -0.0001006443 0.0001574539 -0.8004246262 0.0015755655
25299850.0 -0.8060539432 0.008321695 -9.95212e-05 -7.96552e-05 -1.8025e-05 1.40244e-05 -0.8066603401 0.0074173348
30299820.0 -0.8122046937 0.0162551786 -8.9879e-05 -9.65117e-05 -0.0001155098 -7.8964e-05 -0.812145666 0.0148763905
35299790.0 -0.8169022516 0.025098003 -8.52994e-05 -6.86499e-05 3.68726e-05 -0.0001072169 -0.8178951657 0.0240560292
40299760.0 -0.8215392488 0.0344898738 9.68782e-05 -2.53859e-05 0.0001116577 1.20542e-05 -0.8216226323 0.032939461
45299730.0 -0.8248325901 0.044101909 3.20311e-05 0.0001674578 -0.0001709047 0.0001393151 -0.8252473278 0.042465263
50299700.0 -0.8269780691 0.0543304732 -6.37892e-05 6.95833e-05 0.0001826886 0.0001971636 -0.8278569144 0.0525216842
55299670.0 -0.8284994707 0.0645623358 -8.55891e-05 -0.0003041328 -2.60595e-05 -0.000133988 -0.8296064727 0.0631557861
60299640.0 -0.8298092923 0.0745124148 4.75921e-05 -7.69179e-05 -3.69723e-05 1.8199e-06 -0.8308692363 0.0729547569
65299610.0 -0.8308336893 0.0847410121 0.0001420263 0.0001854194 -0.0002226147 0.0001153068 -0.8310736371 0.0830694276
70299580.0 -0.8309435021 0.0945531886 -3.67133e-05 7.6744e-06 -5.0093e-05 -0.0001662928 -0.8321265887 0.0926423669
75299550.0 -0.831483003 0.1049232917 -8.84249e-05 -0.0001639243 2.34e-05 6.19898e-05 -0.8321756245 0.1025308263
80299520.0 -0.8317056168 0.1143800968 3.20303e-05 4.85947e-05 4.71816e-05 -0.0001377405 -0.8317607903 0.1123292959
85299490.0 -0.8307680967 0.1240165301 -2.67323e-05 1.92321e-05 -7.64993e-05 -9.66098e-05 -0.8319822032 0.1219079445
90299460.0 -0.8294887794 0.1339150799 -4.12841e-05 0.0001190451 4.03896e-05 0.0001224404 -0.830290605 0.1311254442
95299430.0 -0.8289356627 0.1433056968 -0.0001052393 0.0001549626 4.01242e-05 0.0001032865 -0.8302260033 0.1410741772
100299400.0 -0.8276157468 0.1533299134 -3.99379e-05 -8.14102e-05 -6.0145e-06 -9.36113e-05 -0.8288051488 0.1500156329
105299370.0 -0.8265863823 0.1620887231 -0.0001699957 0.0001041101 -2.56493e-05 6.17275e-05 -0.8277115481 0.1591523473
110299340.0 -0.8255988487 0.1711127042 -5.4313e-05 -0.0001170675 -6.71944e-05 -0.0001367358 -0.8265925654 0.1687847954
115299310.0 -0.8236951346 0.1805972603 3.0805e-06 0.0001834364 4.88853e-05 5.75823e-05 -0.8246636384 0.1774103558
120299280.0 -0.8217226098 0.1897034774 9.76447e-05 0.000189767 -0.0001271004 -7.83137e-05 -0.8238939832 0.1856150534
125299250.0 -0.8201124291 0.1988605021 -5.09972e-05 -4.6722e-05 -1.44772e-05 0.0001247441 -0.8216610553 0.1953665256
130299220.0 -0.8185437415 0.2073114578 -0.0001079429 6.35118e-05 -5.71381e-05 -7.5963e-06 -0.8203571984 0.2040859153
135299190.0 -0.8162503302 0.2166034342 9.8698e-05 -0.0001247762 5.27817e-05 -0.0003192048 -0.8177195232 0.2118538999
140299160.0 -0.8148895189 0.2254805927 6.7158e-06 7.16395e-05 3.22176e-05 7.69122e-05 -0.8157246179 0.2214761667
145299130.0 -0.8122595411 0.2340989212 5.03924e-05 -1.67513e-05 -0.0001802249 -3.88918e-05 -0.8138395912 0.2300130741
150299100.0 -0.810019238 0.2429178889 9.86492e-05 7.4981e-05 3.80999e-05 -3.0222e-05 -0.8114726419 0.2385737594
155299070.0 -0.8076357687 0.2528568554 -6.27902e-05 -0.0001073903 -6.02123e-05 1.909e-06 -0.809392872 0.2474842715
160299040.0 -0.8043350535 0.2611216602 0.0001959755 -3.18054e-05 -9.24311e-05 -3.16601e-05 -0.8075013611 0.2570102895
165299010.0 -0.8019441665 0.2690258928 -6.83744e-05 -5.3917e-06 -4.90065e-05 0.0001684102 -0.8042853535 0.2648524816
170298980.0 -0.7994081567 0.2778593307 8.06739e-05 3.3018e-06 -3.2138e-05 -7.20149e-05 -0.8020287563 0.2734562164
175298950.0 -0.7968379043 0.2871471429 -8.77485e-05 3.80556e-05 0.0001363722 -2.78413e-05 -0.7990050942 0.2818944336
180298920.0 -0.7939766275 0.2947218197 -0.0001542755 -9.80551e-05 0.0003468794 -5.1694e-06 -0.7959006814 0.2900005812
185298890.0 -0.7907111377 0.3045276801 -9.11424e-05 2.32552e-05 -0.0001365591 -9.5128e-05 -0.7933737064 0.2982557379
190298860.0 -0.7872716171 0.3125400975 -0.0001265814 -0.0003747496 -1.67904e-05 -3.63963e-05 -0.7899216143 0.3072815268
195298830.0 -0.7839041642 0.3209741155 0.0002057765 -0.0001311168 7.4707e-05 -4.3559e-05 -0.7871555339 0.3156891129
200298800.0 -0.7808132197 0.329299668 -1.30232e-05 0.0001304573 2.17963e-05 -0.000200572 -0.7829732952 0.3240055467
205298770.0 -0.7775127361 0.3376207749 0.0002974353 -0.0001229409 -6.86168e-05 -5.54881e-05 -0.7798639164 0.3320817898
210298740.0 -0.7736634099 0.3458091772 -8.56292e-05 -9.11348e-05 8.28079e-05 -9.05484e-05 -0.7766047331 0.3408577725
215298710.0 -0.7702914821 0.3539827832 -5.47152e-05 -9.69568e-05 -4.65765e-05 0.0001066464 -0.7735498307 0.3483734115
220298680.0 -0.7666540094 0.3627727904 -6.9652e-06 8.76675e-05 -9.2633e-06 -0.0002843502 -0.7697438891 0.356879528
225298650.0 -0.7626791939 0.3705390429 -5.8335e-06 -0.0001053702 1.21559e-05 8.60703e-05 -0.7657166159 0.3647485188
230298620.0 -0.7589147752 0.3784783592 8.18376e-05 0.0001820143 -7.34002e-05 8.33429e-05 -0.7615442293 0.3724138468
235298590.0 -0.754400301 0.3868727352 -6.86696e-05 -6.57468e-05 0.000123615 7.13957e-05 -0.7580166323 0.3803193212
240298560.0 -0.7509369088 0.395002898 7.52751e-05 0.0001286499 1.88029e-05 -9.61928e-05 -0.7536061147 0.3885185969
245298530.0 -0.7466199669 0.4024961807 -0.0001546767 0.0001914218 -6.01275e-05 7.1424e-05 -0.7500198235 0.3966244958
250298500.0 -0.7423037703 0.4105111884 0.000143424 0.0001866919 -3.80479e-05 4.02898e-05 -0.7461474006 0.4048696599
255298470.0 -0.7376874122 0.4186490828 8.17599e-05 -0.0001449985 -1.29409e-05 6.48734e-05 -0.741344354 0.4125296913
260298440.0 -0.7334499312 0.4255940365 -0.000218272 0.0001614073 7.36215e-05 -0.0002263102 -0.736931493 0.4197152335
265298410.0 -0.7290501411 0.4340947366 -0.0001313188 -6.9627e-06 0.0001171181 3.36172e-05 -0.7330267092 0.427269943
270298380.0 -0.7241781203 0.4420899203 7.82199e-05 8.5484e-06 -0.0001461377 -5.265e-07 -0.7275380386 0.4355454854
275298350.0 -0.7191963412 0.4492227745 -0.000101077 0.0002118101 -8.27844e-05 0.000161334 -0.7228441748 0.4429829175
280298320.0 -0.7151928535 0.4565049515 5.02213e-05 -0.0001023025 -0.0002957851 -0.0002031349 -0.7187096182 0.4501484546
285298290.0 -0.7103837853 0.4641966086 6.33819e-05 0.0001419779 -0.0001243867 0.0002823611 -0.7132545402 0.4580810309
290298260.0 -0.705151114 0.4717863593 -0.0001650871 -3.57581e-05 -0.0001543948 -0.0001319179 -0.7089881139 0.4658384409
295298230.0 -0.7001989386 0.4791746526 -0.0001039826 -0.000112187 -3.40444e-05 -2.98857e-05 -0.7035162172 0.4730298825
300298200.0 -0.6950859674 0.4870642952 -0.0003134349 -2.97311e-05 -7.91379e-05 9.46589e-05 -0.6989066509 0.4800015528
305298170.0 -0.6902995284 0.494464076 1.2574e-06 -2.08565e-05 0.0002160135 0.0001092721 -0.6931460663 0.487278738
310298140.0 -0.6846425177 0.500870568 -0.0002443776 -3.32181e-05 3.71035e-05 1.5771e-06 -0.6887487294 0.4948501289
315298110.0 -0.67959336 0.5080280161 8.89386e-05 2.387e-05 -3.95475e-05 1.5338e-05 -0.6829505369 0.5024902061
320298080.0 -0.6744241165 0.5161022342 2.13554e-05 -1.37008e-05 -0.0001564966 -8.113e-07 -0.6775139607 0.5091825634
325298050.0 -0.6683440067 0.5222881232 -1.41847e-05 0.0001345144 -3.4257e-06 -7.84059e-05 -0.6725993891 0.5159722191
330298020.0 -0.6628232429 0.5287736673 1.89289e-05 0.0002160138 7.4875e-05 2.44253e-05 -0.6669816202 0.5230518092
335297990.0 -0.6567566892 0.5367172009 0.0001422932 4.33171e-05 5.57555e-05 0.0002388669 -0.6610249693 0.5299066257
340297960.0 -0.6521958209 0.542856093 -2.1449e-06 -4.05054e-05 -0.0001624145 -5.4204e-06 -0.6552101261 0.5369403453
345297930.0 -0.6467759031 0.5490172216 -0.0001488096 -0.0001634939 -8.71849e-05 -9.82686e-05 -0.65009717 0.5438312195
350297900.0 -0.6407624332 0.555994867 0.0002233285 2.2126e-05 -0.0001162974 4.8366e-06 -0.6434400019 0.5507820802
355297870.0 -0.634613334 0.5627544732 0.0001702931 -2.62253e-05 7.98429e-05 -0.0001491963 -0.63787719 0.5570029644
360297840.0 -0.628393906 0.5690007373 -8.78027e-05 1.4552e-06 4.1107e-05 -6.34445e-05 -0.6322392329 0.5633975552
365297810.0 -0.6227773783 0.5756114788 -5.48774e-05 -0.000210258 -6.87689e-05 -0.0001395353 -0.6260164003 0.5707849097
370297780.0 -0.6161786209 0.5818677651 6.64969e-05 1.43131e-05 -8.89536e-05 -2.52791e-05 -0.6205699148 0.5762983348
375297750.0 -0.6106383239 0.5884536997 0.0001734592 -1.4033e-06 1.57612e-05 1.6915e-05 -0.6143086415 0.5831564623
380297720.0 -0.6042601412 0.5948772523 -3.80753e-05 -8.29746e-05 -6.13273e-05 0.0001685502 -0.6081724554 0.5899561276
385297690.0 -0.5976323597 0.6011100729 4.64605e-05 -3.13574e-05 0.0001915493 -4.08725e-05 -0.6017921167 0.5961628428
390297660.0 -0.5912299821 0.6073734664 -0.0002854339 1.0393e-06 8.13119e-05 9.81963e-05 -0.5955970322 0.6016444506
395297630.0 -0.585078103 0.6129793901 0.0002100447 2.98837e-05 1.55181e-05 -5.50999e-05 -0.5894009718 0.6083499341
400297600.0 -0.5786494702 0.6196434119 0.000164416 -4.93555e-05 9.8014e-06 0.0001436229 -0.5830906229 0.6133816133
405297570.0 -0.5724867417 0.6249256441 0.0001340277 -8.3701e-05 -0.0002430693 0.0001575317 -0.5774598464 0.6195391674
410297540.0 -0.5655308615 0.6309161187 2.29891e-05 -4.04716e-05 -1.64853e-05 -7.16286e-05 -0.5699856671 0.6252332438
415297510.0 -0.5590523345 0.6361976139 -9.69339e-05 -2.28963e-05 -0.0001640876 5.34301e-05 -0.5637950841 0.6319477612
420297480.0 -0.5518286692 0.6419614224 -0.000177103 5.68714e-05 -5.36989e-05 3.13159e-05 -0.5569503153 0.6366043413
425297450.0 -0.5460009803 0.6475114474 -0.0001421402 9.15223e-05 -3.93083e-05 1.87565e-05 -0.5498943791 0.6432646189
430297420.0 -0.53973414 0.6533254134 0.0002117575 4.66798e-05 5.99198e-05 -2.51503e-05 -0.5438458538 0.6484363916
435297390.0 -0.5316420052 0.6594256778 -4.89245e-05 -2.24695e-05 4.442e-05 4.79825e-05 -0.5369672631 0.6534072765
440297360.0 -0.5256794268 0.6646695084 -0.0001961505 -2.67927e-05 0.0001322247 0.0001374388 -0.5302291471 0.6588603803
445297330.0 -0.5182097108 0.6697044409 -0.0001318688 0.0002037129 -6.88432e-05 -8.22062e-05 -0.5237300656 0.6643526483
450297300.0 -0.5110406956 0.6742424795 7.4733e-06 1.32348e-05 -5.2096e-05 -1.39615e-05 -0.5168852785 0.6698046073
455297270.0 -0.5043305362 0.6797444937 0.0001584437 -7.53528e-05 -9.73153e-05 7.0753e-05 -0.5098843797 0.6746942514
460297240.0 -0.4972494593 0.6852989237 -0.0002422904 6.73987e-05 -0.0001010591 -7.4289e-06 -0.5028109168 0.6803414363
465297210.0 -0.4905662168 0.6901980151 0.0001485751 -1.53694e-05 -0.0001033413 -8.86838e-05 -0.4964444529 0.6850740569
470297180.0 -0.4829320101 0.6943350136 0.0002492382 0.0002525544 0.0001669213 -8.40428e-05 -0.4894627995 0.6894666217
475297150.0 -0.4758545424 0.7005513197 -6.6896e-06 0.0003147497 -0.0003132545 2.30438e-05 -0.4819510657 0.6945539293
480297120.0 -0.4692221498 0.7049851633 -0.0001520091 -2.89073e-05 0.0001420376 3.06371e-05 -0.4753788913 0.6999224964
485297090.0 -0.4608463012 0.7087840188 -0.0001545243 3.14644e-05 5.8752e-06 -5.38403e-05 -0.467623376 0.7040203197
490297060.0 -0.4544695349 0.7137430386 0.0001043563 -2.6246e-06 -3.70842e-05 -0.0001783462 -0.4609568792 0.7085171201
495297030.0 -0.4469441977 0.7186921553 0.0001534286 4.9218e-06 -9.8959e-06 0.0001143307 -0.4534442298 0.7127456561
500297000.0 -0.4387901749 0.7235018741 0.0002172354 0.0001825374 1.25833e-05 0.0001307775 -0.4466146043 0.7176279956
505296970.0 -0.4311479479 0.7265674321 2.92928e-05 -0.0002104303 0.0001868494 -6.96919e-05 -0.4398796299 0.7217638202
510296940.0 -0.4244454271 0.73163448 0.0001171426 -0.0002184099 0.0002095508 7.64308e-05 -0.432126495 0.726131954
515296910.0 -0.4170141027 0.736367463 -0.0001388749 0.0001148379 -2.95071e-05 0.0001382419 -0.424573118 0.7308805685
520296880.0 -0.4088139604 0.7405848126 8.31757e-05 -2.34789e-05 0.0001420439 -3.35006e-05 -0.4173696935 0.7346370117
525296850.0 -0.4016516265 0.744853399 2.96271e-05 -0.00013265 -0.0001282245 7.90951e-05 -0.4096921354 0.7391527679
530296820.0 -0.3941919023 0.7480036811 3.66538e-05 2.98006e-05 1.27845e-05 0.0002094827 -0.4030267844 0.7429925568
535296790.0 -0.3858493015 0.752055123 -0.0002491811 -8.99057e-05 6.65923e-05 4.26438e-05 -0.3955429265 0.746571877
540296760.0 -0.3781254301 0.7561989558 -9.41666e-05 -0.0001797876 0.0001092201 -1.30218e-05 -0.3879003016 0.7510035325
545296730.0 -0.3709356024 0.7596821663 -0.0001775343 -6.98816e-05 -0.0001006515 -6.12523e-05 -0.3805458358 0.7540307678
550296700.0 -0.3632292871 0.7635907237 -0.0002454203 -6.42441e-05 -0.0001959069 4.19822e-05 -0.3728867256 0.7580996592
555296670.0 -0.3548983798 0.7665964391 0.0001195774 -8.75408e-05 -0.0001303504 -0.0001105787 -0.3657892286 0.7616358659
560296640.0 -0.347135597 0.7709386196 -0.0001869033 -5.21367e-05 -3.34087e-05 -0.0001248766 -0.357598256 0.7651510795
565296610.0 -0.3394646288 0.7739709246 0.0001897384 -5.56874e-05 1.65083e-05 -3.21759e-05 -0.3500262524 0.7689810268
570296580.0 -0.3316820152 0.7768991799 0.0002427617 -6.40927e-05 4.65864e-05 0.0001208668 -0.3435296459 0.7721805689
575296550.0 -0.3236936389 0.7805076208 0.0001011703 -0.0001321072 6.06317e-05 8.6493e-05 -0.3345807381 0.7756618272
580296520.0 -0.3152137307 0.7841027373 -0.0002242823 0.0001407863 7.7332e-06 8.22776e-05 -0.3274123099 0.7790580893
585296490.0 -0.3075167464 0.7867617571 -0.000159548 -0.0001954701 -0.0001051935 -6.10082e-05 -0.3195424978 0.7815065374
590296460.0 -0.2992928108 0.7893147181 3.57244e-05 0.0001638113 -0.0002405762 -8.8978e-05 -0.3116655402 0.7845797188
595296430.0 -0.2915968352 0.7934419412 5.69209e-05 3.60049e-05 0.0001287885 -0.000364331 -0.3038341949 0.787065064
600296400.0 -0.283723326 0.7959223189 2.05447e-05 2.44599e-05 2.6469e-06 -8.56918e-05 -0.295924491 0.7914775633
605296370.0 -0.2756413287 0.7986875567 -1.47652e-05 0.0001739328 0.0001353372 -0.0001646255 -0.2887982798 0.7943972977
610296340.0 -0.2674541366 0.8016700787 -5.99273e-05 -0.0002064162 4.26562e-05 -9.59991e-05 -0.2800855227 0.7971629005
615296310.0 -0.2589476172 0.8043963605 8.35e-06 0.0001095864 1.78387e-05 8.938e-05 -0.2725893982 0.7990113204
620296280.0 -0.2507615682 0.806090494 -2.99821e-05 4.8627e-05 0.0001219198 -5.38105e-05 -0.2648125157 0.8014662597
625296250.0 -0.2430949708 0.8092839074 0.0001397496 0.0001952139 -8.62437e-05 -0.0001442387 -0.2570117198 0.8049008763
630296220.0 -0.2343191911 0.8120622982 0.0001227632 -2.5724e-05 5.79921e-05 -1.65956e-05 -0.2487987956 0.8069050645
635296190.0 -0.2261926139 0.8143155272 1.35316e-05 -4.49929e-05 -0.0001338687 8.42938e-05 -0.2411590819 0.8092962101
640296160.0 -0.2176894957 0.815096733 -7.7991e-06 2.6254e-05 5.98244e-05 6.41818e-05 -0.2320752471 0.811484919
645296130.0 -0.2097669593 0.8178131671 -0.0001148693 -8.589e-07 -7.63094e-05 2.13065e-05 -0.2247258142 0.8139359776
650296100.0 -0.2014384682 0.8203952107 8.06298e-05 -5.18939e-05 -9.46736e-05 -0.0002573399 -0.2172053279 0.816438224
655296070.0 -0.192836512 0.8222951398 -2.29546e-05 -6.9752e-06 -8.86735e-05 3.04647e-05 -0.2082552437 0.8180549858
660296040.0 -0.1850785789 0.82424791 -0.0001867647 -1.0227e-05 7.45587e-05 -0.0001324396 -0.1998442734 0.8203977587
665296010.0 -0.1770837064 0.8261067471 0.0002660449 -0.0001648539 -2.88358e-05 -3.02361e-05 -0.1924439917 0.8224324192
670295980.0 -0.1679096421 0.8276067723 -1.747e-07 3.673e-06 5.42357e-05 -2.64858e-05 -0.185182991 0.8241815315
675295950.0 -0.1598239286 0.8283939265 -1.3459e-06 -4.46485e-05 -9.80847e-05 -0.0001203315 -0.1764866575 0.8263790573
680295920.0 -0.1515799898 0.8307555251 -5.45038e-05 -0.0001624282 2.57108e-05 -4.67471e-05 -0.1677351014 0.8279657717
685295890.0 -0.142816118 0.8322665308 0.0001139347 -0.0001626873 4.25978e-05 0.0001789923 -0.1598910367 0.8293662358
690295860.0 -0.134327272 0.8334637752 1.4815e-05 0.0001104895 0.0001863023 -2.3191e-05 -0.1515789496 0.8305151262
695295830.0 -0.1258718006 0.8342884079 4.35001e-05 -5.98072e-05 -0.0001180793 2.04806e-05 -0.1436028734 0.8321462785
700295800.0 -0.1178897207 0.8352434146 6.97885e-05 0.0001085578 -5.15699e-05 3.7974e-06 -0.1347363747 0.8338481774
705295770.0 -0.1088320168 0.8372316728 0.000111173 7.29432e-05 6.0661e-06 9.0506e-06 -0.127338679 0.8353268226
710295740.0 -0.1010612067 0.8381205148 0.0001295439 -5.09934e-05 -0.0001050114 -8.13241e-05 -0.1189446041 0.8365902248
715295710.0 -0.0932170834 0.8395014688 -4.63024e-05 -6.28143e-05 8.46247e-05 -9.8014e-05 -0.1110450469 0.8374402989
720295680.0 -0.0844475017 0.839666531 0.0001189915 -9.99735e-05 7.15905e-05 -6.91052e-05 -0.102011402 0.8384582689
725295650.0 -0.0746905372 0.84065038 -8.29208e-05 -7.978e-05 -9.73738e-05 -3.25009e-05 -0.0936490018 0.8397453356
730295620.0 -0.0666474638 0.8413640009 -1.74847e-05 0.000107959 -2.90539e-05 0.000162361 -0.0856076674 0.8402913897
735295590.0 -0.0580738984 0.8418395525 4.32284e-05 -0.0001532293 -7.1209e-06 9.1638e-05 -0.0768913236 0.8406246594
740295560.0 -0.0501413749 0.8426726955 -6.16321e-05 7.8234e-06 -5.81466e-05 -6.17104e-05 -0.0691939666 0.8413628475
745295530.0 -0.0421048689 0.8428279381 -7.38145e-05 -0.0001382663 -5.80693e-05 0.0001536374 -0.0605631709 0.8421760772
750295500.0 -0.0338572653 0.843404536 -0.0002346289 0.0001188753 -3.5561e-06 1.019e-07 -0.0521949644 0.8422850966
755295470.0 -0.0246800966 0.8430132673 0.0001882837 -0.0003527588 0.0001849761 7.92042e-05 -0.0445170424 0.8437495987
760295440.0 -0.0162722935 0.8431911987 -0.0001873723 -7.52002e-05 3.68239e-05 -7.2622e-06 -0.0362268579 0.8432886361
765295410.0 -0.0075002581 0.8439010007 6.8979e-05 -0.0002589017 -0.000199401 3.98717e-05 -0.0271045012 0.8441218952
770295380.0 0.0005029266 0.844161413 -2.65415e-05 9.42444e-05 -0.000116256 8.30883e-05 -0.0189021081 0.843830396
775295350.0 0.0089654012 0.8441689172 0.0001010628 0.0001020159 0.0001249767 0.0001152102 -0.0113631949 0.8440114545
780295320.0 0.0179010391 0.8431686998 1.88872e-05 0.0001592158 -6.50788e-05 0.0001265266 -0.0024199729 0.8444593365
785295290.0 0.0258936215 0.8439787536 -4.85636e-05 -0.0001708395 -7.26359e-05 4.8844e-05 0.0054776032 0.8444523927
790295260.0 0.0345633985 0.8427229668 -7.05637e-05 -0.0003094741 -8.73227e-05 4.2518e-05 0.0142457613 0.8442995772
795295230.0 0.0432614592 0.8434803704 -7.20282e-05 0.0001181631 -9.2574e-05 -6.97577e-05 0.0225525287 0.8442997334
800295200.0 0.0513185741 0.8427335332 -2.98053e-05 9.02548e-05 -0.0001482228 -0.0001484213 0.0305095322 0.8435374397
805295170.0 0.0595608039 0.8420486959 0.0001043262 5.397e-05 -3.51156e-05 0.0002141006 0.0386504998 0.8429084526
810295140.0 0.0683816138 0.8411959377 -7.87115e-05 0.0001741069 4.57618e-05 0.0001237834 0.0472021754 0.8437944106
815295110.0 0.0767247394 0.8405022404 0.0001748666 -2.852e-07 2.95238e-05 -6.71837e-05 0.0554604518 0.8431902602
820295080.0 0.0852058927 0.8394450506 -0.0002331461 5.872e-07 -3.68457e-05 -0.0001265818 0.063558302 0.8418288481
825295050.0 0.0941883547 0.8383521655 -0.0001174063 2.06402e-05 -3.36819e-05 9.59095e-05 0.0718115768 0.8415589964
830295020.0 0.1020514592 0.8377600611 -0.0001438219 -0.0002836923 7.24578e-05 2.05437e-05 0.0796371238 0.8407084614
835294990.0 0.1099296532 0.8367248568 -4.29412e-05 -0.0001905367 2.00393e-05 0.000231336 0.0887397783 0.8400266736
840294960.0 0.1186128086 0.8355488163 -2.3499e-06 5.4645e-05 0.000155422 -4.8182e-06 0.0962197353 0.8391497602
845294930.0 0.1267980406 0.8343319365 -0.0001017771 0.0001966759 -4.19666e-05 -3.1308e-05 0.1042868272 0.8378509142
850294900.0 0.1348962689 0.8329209668 -4.63648e-05 5.97179e-05 -2.18956e-05 -0.0002102297 0.112882917 0.8369453502
