!Created with skrf (http://scikit-rf.org).
# Hz S RI R 50.0 
!freq ReS11 ImS11 ReS21 ImS21 ReS12 ImS12 ReS22 ImS22
300000.0 -0.3230281593 -0.0826375903 0.3780583241 0.0441725676 0.3733846005 0.0413698914 -0.3230448709 -0.0998519926
5299970.0 -0.3265325021 0.0039978652 0.3784924246 0.0025902961 0.3786181657 0.0029095604 -0.3242219461 0.0046174558
10299940.0 -0.3241387764 0.0129950088 0.3795017271 0.002229962 0.3794994213 0.0023593114 -0.3217029224 0.015995413
15299910.0 -0.3215627261 0.0203803669 0.3817493094 0.0019864399 0.3821088771 0.0022796081 -0.3184213772 0.0237668169
20299880.0 -0.3186136192 0.0261412875 0.3845694644 0.0017696637 0.3847077115 0.0016500353 -0.3147286451 0.0302461397
25299850.0 -0.3155434478 0.0315356784 0.3879991917 0.0003426367 0.3882086194 0.0001293778 -0.3108406156 0.035856876
30299820.0 -0.3130049342 0.0359597471 0.3913288421 -0.0021240328 0.3915271428 -0.0021557305 -0.3071435542 0.0408657347
35299790.0 -0.3097439304 0.0398144269 0.3947038689 -0.0053963035 0.3949635514 -0.0053349831 -0.3035516886 0.0451844291
40299760.0 -0.3070848985 0.0435588993 0.3979387589 -0.0088556135 0.398145732 -0.0087967469 -0.3004810378 0.0484628814
45299730.0 -0.3045000602 0.0463667992 0.4007156845 -0.0127439367 0.4009727385 -0.0124532459 -0.297349291 0.0520474573
50299700.0 -0.3021955527 0.0494713478 0.4035402724 -0.0172575817 0.4034038593 -0.0168698502 -0.2942706592 0.0542216941
55299670.0 -0.3003048527 0.0525022544 0.4058987003 -0.0224260218 0.4053471901 -0.022143717 -0.2915310487 0.0570730191
60299640.0 -0.2981112317 0.054872608 0.4075488322 -0.0270170977 0.4077441226 -0.0268816701 -0.2890858973 0.059455065
65299610.0 -0.2962584426 0.0573612591 0.4090209718 -0.0318456737 0.4091418365 -0.0318015479 -0.2869904305 0.0615576097
70299580.0 -0.2947225257 0.0600945099 0.4105180331 -0.0370383992 0.410102709 -0.0369895679 -0.2850068451 0.0639342308
75299550.0 -0.292985154 0.0623986625 0.4112343322 -0.0423250189 0.411111789 -0.0422494606 -0.2831542836 0.0655100782
80299520.0 -0.291821869 0.0647969755 0.412299552 -0.0474562923 0.4123890143 -0.0472041698 -0.2815028727 0.0678792448
85299490.0 -0.2901409536 0.0665003805 0.4128024845 -0.0521359677 0.4128248493 -0.0522472301 -0.280119652 0.0699327023
90299460.0 -0.2887365025 0.0693742617 0.4127427352 -0.0579195139 0.4130467568 -0.0578262368 -0.2780651938 0.0720084118
95299430.0 -0.2873620659 0.0715810104 0.4135582004 -0.0630680131 0.4133716386 -0.0628417671 -0.2766470896 0.0742743091
100299400.0 -0.2861366236 0.0741001474 0.4132078172 -0.068268051 0.4134203226 -0.0680931736 -0.2752876598 0.0758768773
105299370.0 -0.2850213357 0.0763372135 0.4133145357 -0.0736134094 0.4136510183 -0.0733728625 -0.2735515067 0.0782042683
110299340.0 -0.2840723388 0.0788141272 0.4133180255 -0.0785148835 0.4133185103 -0.078152226 -0.2731410954 0.0801439276
115299310.0 -0.2828579402 0.0809434174 0.4131376934 -0.0839413517 0.4127181874 -0.0837678843 -0.2715829831 0.0824117332
120299280.0 -0.2821434341 0.0831990619 0.4124730627 -0.0890639827 0.4126740153 -0.0890421871 -0.2705840343 0.0847541742
125299250.0 -0.2810800199 0.0855242919 0.4118012133 -0.09391307 0.4118070614 -0.0937598349 -0.2693460977 0.0861986143
130299220.0 -0.2802319301 0.0880670868 0.4112353131 -0.0991125756 0.4113311405 -0.0989238995 -0.2684335303 0.0885500235
135299190.0 -0.2792117743 0.0907050353 0.4105491689 -0.1040228363 0.4102605718 -0.1039217072 -0.2670128042 0.0911643858
140299160.0 -0.2784777549 0.0931799284 0.4094938068 -0.1091605984 0.4098016814 -0.1091221017 -0.2663915368 0.0933142121
145299130.0 -0.2775118464 0.0957162326 0.4090544158 -0.1140320932 0.4084582526 -0.1140143249 -0.2652564873 0.0958567351
150299100.0 -0.2763160048 0.098200508 0.4076257776 -0.1186324829 0.4079956621 -0.1182016112 -0.2644467783 0.0983238664
155299070.0 -0.2755236953 0.1008005667 0.4068580148 -0.1242619114 0.406663054 -0.1241278811 -0.263188413 0.1006583809
160299040.0 -0.2745832789 0.1032005851 0.4052073878 -0.1287592092 0.405036157 -0.128812501 -0.2626421171 0.1031622252
165299010.0 -0.2736756704 0.1059411737 0.4042279842 -0.1336362632 0.4042305325 -0.1336929627 -0.2611234629 0.1058441689
170298980.0 -0.2728762635 0.1085784395 0.402779376 -0.1383568535 0.402688571 -0.1384240151 -0.2602488566 0.1082250415
175298950.0 -0.2715303759 0.1111968072 0.401453652 -0.1431025005 0.4013607061 -0.1431527296 -0.2596591375 0.110726759
180298920.0 -0.2709228261 0.1141454714 0.4001526323 -0.1478410581 0.3998965266 -0.1475976637 -0.2583784857 0.1133459085
185298890.0 -0.2694285382 0.1165258499 0.3983699716 -0.1526450612 0.3983179067 -0.1524857237 -0.2571624128 0.1160756734
190298860.0 -0.2685914557 0.1194092052 0.3970842454 -0.157306331 0.3971435137 -0.1573301553 -0.2565098716 0.1183002478
195298830.0 -0.2677523659 0.1216837957 0.3953859929 -0.1616341977 0.3951943585 -0.1616032887 -0.255340268 0.1206255177
200298800.0 -0.2664944284 0.1246299063 0.3936071621 -0.1665345754 0.3935651824 -0.1665543338 -0.2544064578 0.1234507452
205298770.0 -0.2654737234 0.1272253451 0.3915931402 -0.1712888244 0.391824358 -0.1710907653 -0.2532330542 0.1256796269
210298740.0 -0.2643186382 0.129683361 0.3897209692 -0.1753692701 0.3896941202 -0.175337676 -0.2520247852 0.1284873802
215298710.0 -0.2637214321 0.1329153232 0.3882566496 -0.1801196344 0.388024377 -0.1800732836 -0.2511486502 0.1309832281
220298680.0 -0.2620468666 0.1351124934 0.3857084552 -0.1842498713 0.3858234199 -0.1845660406 -0.2501625612 0.133226198
225298650.0 -0.2610047108 0.1381598266 0.3838467865 -0.1888843774 0.3839508135 -0.188819986 -0.2489095537 0.1357017039
230298620.0 -0.2595177128 0.1407370807 0.3819818173 -0.1930350785 0.3823229845 -0.1933336703 -0.2479859211 0.1384010884
235298590.0 -0.258504196 0.1438392694 0.3799424958 -0.1976729627 0.3797440127 -0.1973606455 -0.246390729 0.1410597591
240298560.0 -0.2571817083 0.1466896212 0.3777823092 -0.2025366161 0.3776732277 -0.2023727646 -0.2453795363 0.1441481584
245298530.0 -0.2557721128 0.1492291842 0.3759019128 -0.2063948083 0.3758933402 -0.206601011 -0.2439920207 0.1459281468
250298500.0 -0.2543373831 0.1516521087 0.3728289436 -0.2107746374 0.3729629914 -0.2104499118 -0.2427411075 0.1483439186
255298470.0 -0.2530240157 0.154068174 0.3704386232 -0.2145524122 0.3710405851 -0.2148430639 -0.2410169569 0.1508951278
260298440.0 -0.2518387683 0.1570419065 0.3685192694 -0.2191734425 0.3685441967 -0.2192974242 -0.2394474784 0.1535367198
265298410.0 -0.2499383536 0.1601296451 0.3655399656 -0.2236631059 0.3662914312 -0.2229635162 -0.238505505 0.1560441568
270298380.0 -0.2484752795 0.1623781415 0.3639433769 -0.2271858584 0.3637045219 -0.2275760934 -0.2369765718 0.1586456201
275298350.0 -0.246944826 0.1651869103 0.3610970523 -0.231639086 0.3612867041 -0.2314103571 -0.2351532846 0.1609614139
280298320.0 -0.2448376679 0.1680137139 0.3584874159 -0.2360211887 0.3586649003 -0.2354296704 -0.2332215907 0.1634569721
285298290.0 -0.2435045408 0.1707953073 0.356035034 -0.2398594438 0.3559899702 -0.2397136889 -0.2318612599 0.1661939735
290298260.0 -0.2418578432 0.173313809 0.3532188577 -0.2436373547 0.3531845411 -0.2437008177 -0.2301772502 0.1687421041
295298230.0 -0.2400434298 0.1755420624 0.3504727538 -0.2478227079 0.3507198727 -0.2475279673 -0.2280117773 0.1706720117
300298200.0 -0.2384204171 0.178187269 0.3479599992 -0.2512021854 0.3481045082 -0.2516705403 -0.2266635729 0.1735234806
305298170.0 -0.2365632504 0.1806916849 0.3449485139 -0.2559355975 0.3452570286 -0.2555582408 -0.2244788095 0.1758168818
310298140.0 -0.234770869 0.1833505284 0.3421778758 -0.2593724195 0.3426519316 -0.2598135938 -0.2232811711 0.1781695895
315298110.0 -0.2330796264 0.1858531875 0.3395865633 -0.263252845 0.3395018268 -0.2634711222 -0.2211228522 0.1805166055
320298080.0 -0.2311264663 0.188353325 0.3360468482 -0.2676947899 0.3366966585 -0.2673888824 -0.2192836092 0.1830614219
325298050.0 -0.2292528816 0.1906263528 0.3335252174 -0.2712983682 0.3334302074 -0.2711192762 -0.2179023585 0.185184558
330298020.0 -0.2276820065 0.1930697296 0.3304080078 -0.274994493 0.330244841 -0.2748302419 -0.2162319758 0.1879255328
335297990.0 -0.2256303786 0.1953072793 0.3269665639 -0.2781657069 0.3270569486 -0.2787890139 -0.2146691576 0.1904723514
340297960.0 -0.2239914134 0.1983077655 0.3239096851 -0.2822732566 0.3237059055 -0.2822540439 -0.2122034861 0.1930979732
345297930.0 -0.2222043053 0.2009158736 0.3204720799 -0.2861161401 0.3207127788 -0.2859255732 -0.2106127716 0.1950493999
350297900.0 -0.2200674854 0.203371242 0.317409015 -0.2895835584 0.3173984152 -0.2893172556 -0.2088239431 0.1980482525
355297870.0 -0.2178978486 0.2059288544 0.3138192937 -0.2928428768 0.3144480883 -0.2926722243 -0.2071135556 0.1999905806
360297840.0 -0.215934136 0.2083440996 0.311211086 -0.2961118486 0.3115248334 -0.2959850807 -0.2053345746 0.202755488
365297810.0 -0.2139878907 0.2109202249 0.3077257481 -0.2995872496 0.3079147909 -0.2996558119 -0.2027545616 0.2050006768
370297780.0 -0.2116504388 0.2129759479 0.3039392873 -0.3028228859 0.3046620577 -0.3027435984 -0.2007267274 0.2073939093
375297750.0 -0.2095549873 0.2154232072 0.3010819583 -0.3062180168 0.3014381997 -0.3064173302 -0.1988195832 0.2094190534
380297720.0 -0.2073535328 0.2177739336 0.2975708028 -0.3095972104 0.2976453326 -0.3093241023 -0.1967222681 0.2118710308
385297690.0 -0.2054555632 0.2204701461 0.2942227559 -0.3128446057 0.293893448 -0.3127618486 -0.1946384021 0.2142453917
390297660.0 -0.2031646485 0.2224744606 0.2906327034 -0.3159448428 0.2907052885 -0.3154981952 -0.1928610274 0.216228103
395297630.0 -0.2006200166 0.2252437601 0.2869759695 -0.3192110168 0.2872608431 -0.3189795431 -0.1901173519 0.2187550244
400297600.0 -0.1987865094 0.2275599635 0.2836831925 -0.32278256 0.2839011866 -0.3223857136 -0.1882391464 0.2206100693
405297570.0 -0.1964674799 0.2296097052 0.2802015043 -0.3254397998 0.2799356442 -0.3254016004 -0.1861141652 0.2227429026
410297540.0 -0.1940210055 0.2318465802 0.2767019886 -0.3287151597 0.276749789 -0.3285746459 -0.1837600174 0.2249428036
415297510.0 -0.1912612337 0.2337899545 0.2726250062 -0.3317682086 0.2730165032 -0.3316371221 -0.1814211157 0.2270244456
420297480.0 -0.189147365 0.2363487556 0.2687904727 -0.3345458689 0.2693901873 -0.3341981337 -0.1792587278 0.2291069593
425297450.0 -0.186686074 0.2380412541 0.2657358554 -0.3372977508 0.2657336282 -0.3374922771 -0.1771265133 0.2311632513
430297420.0 -0.1841753951 0.2403561178 0.2615782446 -0.3400893054 0.2616206448 -0.3402483488 -0.1748820172 0.2331114305
435297390.0 -0.1817921825 0.2423451003 0.2578309464 -0.3429813692 0.2576655226 -0.3430990941 -0.1718904397 0.2349666279
440297360.0 -0.1791432054 0.2446415216 0.2540299902 -0.3458800016 0.2543099369 -0.3458423925 -0.1696209871 0.2369763488
445297330.0 -0.1767749172 0.2465100209 0.2503293753 -0.3484537622 0.2502883479 -0.3486374085 -0.1671014194 0.2384289276
450297300.0 -0.1738652604 0.2485027203 0.2465034405 -0.3511689223 0.246274794 -0.351223191 -0.1644295664 0.2403793361
455297270.0 -0.1715201694 0.2503289171 0.2424084179 -0.3539321118 0.2429531915 -0.3539653963 -0.1622300773 0.2423128235
460297240.0 -0.1693891486 0.2522347317 0.2387066854 -0.3561355831 0.2386700263 -0.3565346568 -0.1597924835 0.2443000375
465297210.0 -0.1662127287 0.2543893299 0.2347201675 -0.3589449199 0.2347421162 -0.3592474953 -0.1568561607 0.2458983486
470297180.0 -0.1636510838 0.256125457 0.2304219624 -0.3615711359 0.2308187119 -0.3617425615 -0.1542544706 0.2484181067
475297150.0 -0.160938764 0.2580373248 0.2264879204 -0.3637465839 0.2265824127 -0.3638245104 -0.1512415699 0.2495625576
480297120.0 -0.1582162688 0.2600801485 0.2227890509 -0.3666281255 0.2226564731 -0.3666300474 -0.1487478831 0.2515032688
485297090.0 -0.1555980594 0.2619445872 0.2189618893 -0.3685574432 0.2188096993 -0.3686991464 -0.1464189658 0.2531183801
490297060.0 -0.1533073948 0.2635564295 0.2148088317 -0.3710589165 0.214717349 -0.371167912 -0.1434169477 0.2547663287
495297030.0 -0.1504128236 0.2652992992 0.2105383766 -0.3732746291 0.2108328343 -0.3735500593 -0.1408778506 0.2568690028
500297000.0 -0.1474935084 0.2672402971 0.2064927412 -0.3754039755 0.2065573436 -0.3753973199 -0.1378070542 0.2588222613
505296970.0 -0.1445897553 0.2689540639 0.2021591987 -0.3776482989 0.2023006341 -0.3777251896 -0.1356711631 0.2602616322
510296940.0 -0.1418540421 0.2704853164 0.1980584063 -0.3802450274 0.1979030046 -0.3800278849 -0.1327437348 0.2616898625
515296910.0 -0.1385804259 0.2717881945 0.1936246443 -0.382141752 0.1940697963 -0.382473924 -0.1299963464 0.263313095
520296880.0 -0.1361777627 0.273960615 0.1897973572 -0.3843187733 0.1896066602 -0.3839462521 -0.1273468695 0.264703226
525296850.0 -0.1331411344 0.2751740689 0.1855044893 -0.3862418037 0.1857985517 -0.3860360689 -0.1244057717 0.2664563548
530296820.0 -0.1302831252 0.2767834845 0.1812030525 -0.3885198184 0.1815540832 -0.38841989 -0.1215564308 0.2679895232
535296790.0 -0.1277167471 0.27806436 0.1772466099 -0.39006254 0.1772807977 -0.3898533109 -0.1193018581 0.2693852032
540296760.0 -0.1246068462 0.2799409162 0.1729378963 -0.392086591 0.1730155806 -0.3920402013 -0.1164820821 0.2709792771
545296730.0 -0.1216898254 0.2812864584 0.1681190266 -0.3935508776 0.1685636684 -0.3938304569 -0.1139009272 0.2718658255
550296700.0 -0.1184553498 0.2825115318 0.1640500167 -0.3957591022 0.1644082268 -0.3956852546 -0.1109536444 0.2736803309
555296670.0 -0.1158975139 0.2838984039 0.1598786134 -0.3975505815 0.1602229335 -0.3971989902 -0.1081526158 0.2751629546
560296640.0 -0.1126927017 0.2857287891 0.1555160877 -0.3991432855 0.1559169466 -0.3990676645 -0.1050769263 0.2763470993
565296610.0 -0.1099030079 0.2870283623 0.1510061777 -0.400832171 0.1512973548 -0.4006162297 -0.1023971792 0.2771978419
570296580.0 -0.107283567 0.287910611 0.1469795565 -0.402624559 0.1464489329 -0.4023894208 -0.0998269943 0.2792191571
575296550.0 -0.1040406277 0.2895370091 0.1423943754 -0.4043658793 0.1422792342 -0.403979259 -0.0962574681 0.2798752034
580296520.0 -0.1007871684 0.2903654315 0.1378692003 -0.405596426 0.1380066212 -0.4055259418 -0.0938091333 0.2809826906
585296490.0 -0.0980273829 0.2917356164 0.1335510112 -0.4066452989 0.1335857333 -0.4068258661 -0.0905050372 0.2821810116
590296460.0 -0.094683379 0.2928062134 0.129448244 -0.4078424902 0.1292782122 -0.4078254464 -0.088025391 0.2834217153
595296430.0 -0.0913366564 0.2942460044 0.1240409839 -0.4098826051 0.1246244554 -0.4095450739 -0.0848039761 0.2839922545
600296400.0 -0.0887103469 0.2951523951 0.120138151 -0.4107158991 0.1200417537 -0.4103555975 -0.0821327851 0.284984777
605296370.0 -0.0857649567 0.2963027244 0.115450028 -0.4121123919 0.1158337023 -0.4118698964 -0.0784361576 0.2863892281
610296340.0 -0.082275529 0.2974059114 0.1105735135 -0.4134219249 0.111116078 -0.4129365347 -0.075623173 0.2870411618
615296310.0 -0.0792779997 0.2978655418 0.1064294144 -0.4139130525 0.1066547439 -0.4145507544 -0.0723655026 0.2878846301
620296280.0 -0.0761414607 0.29877497 0.1018177808 -0.4148857325 0.102109562 -0.4151987075 -0.0697644997 0.2886936179
625296250.0 -0.0731140052 0.2995678293 0.0978515724 -0.4167345196 0.0976037347 -0.4165931167 -0.0661809267 0.2895282281
630296220.0 -0.0693781028 0.3008449601 0.0926617314 -0.4178402802 0.0926670924 -0.4171728667 -0.0634382049 0.2908075128
635296190.0 -0.0669890714 0.3016624696 0.0884721513 -0.4183465824 0.0886879063 -0.4184988491 -0.0604946262 0.2912695496
640296160.0 -0.0636864454 0.3029665967 0.0838157836 -0.4192124641 0.0840652508 -0.4193373164 -0.0570802725 0.2921775563
645296130.0 -0.0604757443 0.3037707023 0.0793223417 -0.4199539387 0.0795359734 -0.4205757206 -0.0539946865 0.2930840215
650296100.0 -0.0572553582 0.3041788397 0.0750135007 -0.4209494378 0.0747824232 -0.4207010918 -0.0508804213 0.2932320037
655296070.0 -0.0541029209 0.3048819778 0.0701323372 -0.4215224748 0.0703987728 -0.4215000235 -0.0476077187 0.2941130805
660296040.0 -0.0511724198 0.3051171811 0.0658376469 -0.4222095972 0.0658111029 -0.4224414064 -0.0441445456 0.2953174769
665296010.0 -0.04732642 0.3060378099 0.0607212277 -0.4228102246 0.0610540913 -0.4229222005 -0.0409516557 0.2958358519
670295980.0 -0.045128606 0.3069582419 0.0567895277 -0.4235495217 0.0564693015 -0.4236968528 -0.03858009 0.2961385557
675295950.0 -0.0415702825 0.3076846062 0.0522075425 -0.4242476682 0.0521573959 -0.4237067305 -0.035430903 0.2974458643
680295920.0 -0.0384057007 0.308028233 0.0472860825 -0.4243763078 0.0467441454 -0.4247852614 -0.031837312 0.2978397881
685295890.0 -0.0348984592 0.3088234725 0.0428378836 -0.4247574613 0.0425296471 -0.4250279753 -0.0287734639 0.2981672392
690295860.0 -0.0316272092 0.3093549707 0.0382771244 -0.4253450679 0.0382675552 -0.4256145399 -0.0260284625 0.2990253789
695295830.0 -0.0286840006 0.3095049611 0.0341149549 -0.4255766082 0.0333524692 -0.4258108581 -0.0229134749 0.2992708384
700295800.0 -0.0253717147 0.3098447126 0.0286343386 -0.4256356035 0.0285699666 -0.4258890426 -0.020036448 0.2999742304
705295770.0 -0.0220162243 0.3108269777 0.0239320379 -0.426344981 0.0245067712 -0.4267745573 -0.0165674164 0.3007670352
710295740.0 -0.0187249328 0.3111473331 0.0197473474 -0.4270906724 0.019792265 -0.4269728558 -0.0136292335 0.300159747
715295710.0 -0.0158962843 0.3110345223 0.0156039824 -0.4267635892 0.0148857021 -0.4266777047 -0.0102950337 0.300887549
720295680.0 -0.0120775595 0.311562436 0.0102156874 -0.4268664107 0.0106138478 -0.427032311 -0.007287504 0.3010991895
725295650.0 -0.0090344507 0.3116521379 0.0055575826 -0.4266692682 0.0059111174 -0.4270168087 -0.0046544896 0.3017135973
730295620.0 -0.0056074842 0.312288644 0.0013080401 -0.4267145591 0.0013274266 -0.4268058024 -0.0012852323 0.3015607014
735295590.0 -0.0026390127 0.3121244451 -0.0033352087 -0.4269787794 -0.0036989273 -0.4271525775 0.0014923515 0.3017336847
740295560.0 0.0003317258 0.3126617767 -0.0081098214 -0.4265359454 -0.0083564382 -0.4269579487 0.0056468862 0.3021109437
745295530.0 0.0038876822 0.3131462345 -0.0127936194 -0.4265120178 -0.0129575179 -0.4264549551 0.0085701786 0.3013139364
750295500.0 0.0075214153 0.3129807573 -0.0175279649 -0.426257377 -0.0170945194 -0.4265361307 0.0115759861 0.3016812738
755295470.0 0.0105316421 0.3126016035 -0.0216676024 -0.4260581812 -0.0220217328 -0.4260157451 0.0148514503 0.3015119749
760295440.0 0.0133486837 0.3127071207 -0.0266919084 -0.4261893263 -0.0264967214 -0.4262027128 0.0179128599 0.3013862511
765295410.0 0.0169539637 0.3126977406 -0.0311527761 -0.4255236726 -0.0313240867 -0.4254585447 0.021320537 0.3015528864
770295380.0 0.0201623505 0.3126352941 -0.0356728291 -0.4249451098 -0.0357018285 -0.4250064924 0.0240496334 0.3011054483
775295350.0 0.0233262994 0.3120564303 -0.0407946479 -0.424145058 -0.0396802231 -0.4245573034 0.0263664882 0.3013487216
780295320.0 0.0267447543 0.3121473147 -0.0450346008 -0.4239049453 -0.0443506206 -0.4239447273 0.0302093407 0.3010725272
785295290.0 0.0298161286 0.3118579579 -0.0498712765 -0.4230472825 -0.0494408654 -0.4233330426 0.033967435 0.3009240538
790295260.0 0.0335718665 0.3120467993 -0.0540066852 -0.4231890072 -0.0532717767 -0.4228657496 0.0371650046 0.3007559108
795295230.0 0.0363999684 0.311494214 -0.0588348827 -0.4220297528 -0.0579792486 -0.4225700694 0.0404686717 0.3002095026
800295200.0 0.0394488726 0.3118922242 -0.0634869624 -0.4215254122 -0.0631248058 -0.4213495928 0.0435524569 0.2998190402
805295170.0 0.0431285501 0.3110860542 -0.0676600277 -0.4205314327 -0.067543613 -0.4209715103 0.0464585068 0.2998855814
810295140.0 0.0462379109 0.3101534914 -0.0719714332 -0.4196903743 -0.0719821848 -0.4202849069 0.0500323634 0.2994846605
815295110.0 0.0493298701 0.3101832687 -0.0766737457 -0.4187999221 -0.0765898753 -0.4192553745 0.0532304144 0.2991246386
820295080.0 0.0527013818 0.3101043618 -0.0812320452 -0.4179018488 -0.0806974761 -0.4179775303 0.0561604072 0.2986274709
825295050.0 0.0564880057 0.3093174711 -0.0854681438 -0.4171785041 -0.0853786901 -0.4174284955 0.0594391586 0.2982820519
