!Created with skrf (http://scikit-rf.org).
# Hz S RI R 50.0 
!freq ReS11 ImS11 ReS21 ImS21 ReS12 ImS12 ReS22 ImS22
300000.0 -0.7746733395 -0.1544219003 -0.0009660618 -0.0003573397 -0.0002909798 0.0003501133 0.8606840868 -0.0012964854
5299970.0 -0.7852589896 -0.0078877688 -2.10718e-05 9.80147e-05 2.23637e-05 -3.81847e-05 0.8589961979 -0.0104224378
10299940.0 -0.7876536545 -0.0045076434 5.32102e-05 5.57257e-05 0.0002534757 -2.44559e-05 0.8587147065 -0.0186707398
15299910.0 -0.7931263917 -0.0016250968 0.0001428059 0.000128145 -8.69276e-05 0.0001996993 0.8571044928 -0.0272870518
20299880.0 -0.7994562801 0.002044823 -4.2653e-05 6.84027e-05 0.0001061567 8.81118e-05 0.8563986947 -0.0363259875
25299850.0 -0.8063982986 0.0085907586 -0.000116201 -0.0002584913 3.10198e-05 8.12277e-05 0.8553197174 -0.0434694432
30299820.0 -0.8118475006 0.0162375177 -0.0001284538 5.8105e-05 -0.0001070032 -0.000124044 0.855172658 -0.0520917647
35299790.0 -0.8170144956 0.0250960877 -1.38155e-05 -1.21432e-05 -3.90753e-05 -0.0001414449 0.8542828439 -0.0605799773
40299760.0 -0.8209600903 0.0347138118 -0.0001943461 -9.50521e-05 4.67596e-05 0.0001515871 0.8537388897 -0.0686089922
45299730.0 -0.8248555247 0.0441311115 -9.49536e-05 -8.07533e-05 -0.0001054377 -3.67001e-05 0.8529568341 -0.0770318573
50299700.0 -0.8266650297 0.0537578971 -1.43238e-05 0.0001608183 -0.0001844254 -9.1966e-06 0.8514758117 -0.085166569
55299670.0 -0.828774707 0.0641863433 7.22586e-05 0.0001176023 -2.19282e-05 -0.0001946657 0.8506273002 -0.093147125
60299640.0 -0.8298637632 0.0745032906 -2.18811e-05 -7.44915e-05 8.13783e-05 -0.0002948805 0.8494251405 -0.1017420764
65299610.0 -0.8306833067 0.0848835951 -0.0002172976 -6.2205e-06 0.0001429188 -5.62096e-05 0.8483747511 -0.1100601644
70299580.0 -0.8311587372 0.0946341893 0.0002085569 8.17632e-05 1.48342e-05 -0.000135045 0.8477279139 -0.1185562446
75299550.0 -0.8312515908 0.104824274 3.49458e-05 6.0052e-06 0.0001302577 -1.76659e-05 0.8469475739 -0.1265287646
80299520.0 -0.8317140806 0.1146546021 -0.0001170663 -2.6841e-05 -0.0001991271 2.47688e-05 0.8451579061 -0.1345489887
85299490.0 -0.8307955082 0.1243694341 8.11424e-05 -2.62716e-05 0.0002047737 -9.89581e-05 0.8438844016 -0.1429107644
90299460.0 -0.8299735449 0.1338512855 0.0001961925 0.0001606083 -5.34925e-05 -0.0001213949 0.8420704195 -0.1513968197
95299430.0 -0.8286461683 0.1431158299 -0.0001216565 -5.62278e-05 0.0001101309 7.50553e-05 0.8404314795 -0.1593183115
100299400.0 -0.8280393739 0.1534299719 -6.1426e-06 -5.71109e-05 5.39039e-05 -9.98848e-05 0.8386100359 -0.1673305977
105299370.0 -0.8262082951 0.1622741005 0.000123569 -7.10219e-05 3.12466e-05 1.94206e-05 0.8368047245 -0.1754875892
110299340.0 -0.8253403234 0.1710605172 9.75735e-05 -9.29263e-05 -0.0001031078 -0.0003787981 0.8348070366 -0.1832902227
115299310.0 -0.8237291543 0.180475416 2.1541e-05 -0.0001448636 -1.29454e-05 3.9853e-05 0.8332625837 -0.1923112093
120299280.0 -0.8221101068 0.1898058765 6.29752e-05 0.0001458635 -0.0001559238 3.93944e-05 0.8309684875 -0.1998634138
125299250.0 -0.8207745974 0.1984435341 0.000149117 -7.01395e-05 1.21082e-05 6.48085e-05 0.8291968888 -0.2083201045
130299220.0 -0.8184912341 0.2078240252 8.20742e-05 0.0001259594 2.56591e-05 -2.33088e-05 0.8266940141 -0.2160529022
135299190.0 -0.8163553363 0.2166687742 -5.86017e-05 8.93352e-05 9.42772e-05 -1.64002e-05 0.8253363763 -0.2241776324
140299160.0 -0.8144273387 0.2258356986 9.0454e-05 -0.0002193629 -4.89947e-05 1.13706e-05 0.8226310336 -0.2326019057
145299130.0 -0.812398306 0.2344111859 6.0747e-06 0.0002384419 4.0663e-05 9.99315e-05 0.8201676052 -0.2409387087
150299100.0 -0.8101852825 0.2433257546 -0.0001120831 0.0001240959 -6.00132e-05 6.28846e-05 0.8177913211 -0.2482103884
155299070.0 -0.8075025966 0.2523898007 -8.69294e-05 6.96023e-05 5.64206e-05 7.47225e-05 0.815518281 -0.2560527881
160299040.0 -0.8048987313 0.2612282168 -3.84404e-05 -6.59324e-05 0.0001491807 -1.27701e-05 0.8126566145 -0.2644850526
165299010.0 -0.8020364011 0.2694315737 -9.03033e-05 7.30043e-05 -4.59965e-05 8.4117e-06 0.8111185071 -0.272623549
170298980.0 -0.7996431402 0.2783102697 7.6e-06 -9.50455e-05 0.0001820973 -0.0001237662 0.8074165788 -0.2799717283
175298950.0 -0.7972021089 0.2872863939 5.11453e-05 -0.0001114024 -3.4127e-05 -3.869e-05 0.8047053368 -0.2878345253
180298920.0 -0.7934391497 0.2949843148 -0.0001029668 0.0001456055 4.50574e-05 6.33272e-05 0.8017073187 -0.2956860395
185298890.0 -0.7903456217 0.3041663454 -0.0001806351 -0.0001063376 7.93929e-05 6.40606e-05 0.7988622849 -0.3045234185
190298860.0 -0.7877814403 0.3121354694 -6.7888e-06 0.000247489 9.73844e-05 4.92812e-05 0.7962301598 -0.3113403421
195298830.0 -0.7835331921 0.3208415852 6.96236e-05 6.56942e-05 -7.74203e-05 3.4042e-05 0.7929812109 -0.3194902942
200298800.0 -0.7811395776 0.3293688538 -0.0001128655 -5.37919e-05 3.7344e-06 8.8714e-05 0.7902936574 -0.3278347808
205298770.0 -0.7775097014 0.3378347097 0.0002102639 7.26477e-05 -0.0002267868 -4.15009e-05 0.7866122678 -0.3349222026
210298740.0 -0.7737619949 0.345890305 0.0001087328 0.0001128103 -0.0003795002 -8.36231e-05 0.7837010361 -0.3427763087
215298710.0 -0.770344798 0.3542862665 -0.0001469542 0.0002677117 -1.07953e-05 0.0001404069 0.7798053613 -0.3501879081
220298680.0 -0.7670080647 0.3624746376 0.0001649807 -3.79582e-05 -8.1675e-06 -0.0001823043 0.7765754447 -0.3571036657
225298650.0 -0.763196462 0.370899023 3.05103e-05 -0.0001695972 -7.7203e-06 -0.000132239 0.7725364488 -0.3647898622
230298620.0 -0.7589181527 0.3787895061 -8.32382e-05 0.0001406741 -0.000100386 4.41712e-05 0.7695420432 -0.3727823062
235298590.0 -0.7545791638 0.3872499148 -2.34353e-05 -0.0002750697 7.91518e-05 -5.5589e-06 0.7660691882 -0.3797064965
240298560.0 -0.7507107968 0.3950468858 5.69198e-05 0.0001593985 -1.02293e-05 -0.0001199493 0.7620843048 -0.3875046547
245298530.0 -0.7466124362 0.4029516567 0.0001629991 -9.46393e-05 -0.0001819722 0.0002194345 0.7583081725 -0.39465064
250298500.0 -0.7422676777 0.4107023626 0.0001959995 -0.0001194948 0.0001412114 -3.30231e-05 0.7547402776 -0.4021198593
255298470.0 -0.7380425538 0.4190226146 1.53439e-05 4.40708e-05 1.7197e-05 -0.0001829104 0.7513319294 -0.409269161
260298440.0 -0.7339989982 0.4260263831 -1.19666e-05 -8.59784e-05 4.41658e-05 -4.77196e-05 0.7465544683 -0.4167342445
265298410.0 -0.729488617 0.4338917962 3.85077e-05 -0.000107836 -0.0001680141 5.08912e-05 0.7432308227 -0.4242038411
270298380.0 -0.7242123815 0.4420966292 -2.12047e-05 0.0001423398 -3.57894e-05 -4.69319e-05 0.7392045542 -0.4307879857
275298350.0 -0.7194214276 0.4493246236 5.24582e-05 0.0001476837 -3.55104e-05 0.0001437105 0.7350637114 -0.4379835401
280298320.0 -0.7148556917 0.4567228118 2.66802e-05 9.72083e-05 -4.56299e-05 -0.0002210799 0.7312477464 -0.4451343056
285298290.0 -0.7104675478 0.4646553011 -9.21684e-05 2.54249e-05 6.19982e-05 0.0001530471 0.7265512514 -0.4521400592
290298260.0 -0.705462356 0.4717730422 9.0062e-06 4.42223e-05 -0.000185093 4.99195e-05 0.7224691623 -0.4593210215
295298230.0 -0.7006249116 0.4794532498 8.62808e-05 8.33424e-05 4.61049e-05 -0.000124177 0.7182083239 -0.4654864888
300298200.0 -0.6951274266 0.4865996074 0.0001600255 9.43046e-05 -0.0001802486 -3.05788e-05 0.7135702354 -0.4731705948
305298170.0 -0.6900327369 0.4940711584 0.0001118872 8.642e-05 0.0001702716 9.78233e-05 0.7099266654 -0.4799192954
310298140.0 -0.6843299361 0.5009011797 -0.0001058266 0.0001663832 0.000155288 -5.31642e-05 0.7052192849 -0.4866362218
315298110.0 -0.6795768961 0.5084404754 -4.2965e-06 0.0002750832 0.0002435135 -4.8538e-05 0.7008821084 -0.4941791205
320298080.0 -0.6740260147 0.5157228862 0.0001713308 -0.0001014863 -2.69788e-05 2.91687e-05 0.6963782067 -0.5017679145
325298050.0 -0.668732009 0.522160661 -6.77241e-05 -4.5507e-05 -8.4246e-06 -0.0001239709 0.6910742566 -0.5093930033
330298020.0 -0.6625370398 0.5290923136 -0.0001776453 5.91387e-05 4.41598e-05 3.06389e-05 0.6856215938 -0.5168111491
335297990.0 -0.6571785106 0.5360297643 1.33937e-05 -0.0001126275 -5.18057e-05 3.78121e-05 0.6803299858 -0.5233258507
340297960.0 -0.6515595647 0.5424232805 -0.0001038288 -3.7787e-06 -2.55109e-05 6.85343e-05 0.6743496835 -0.5296886253
345297930.0 -0.6463712421 0.5493466625 1.4259e-05 0.0002019962 -0.0001703534 5.70559e-05 0.668560352 -0.5358182911
350297900.0 -0.6405877135 0.5566364466 -5.83918e-05 -0.0001199853 -2.35713e-05 0.0001024641 0.6632751531 -0.5416411582
355297870.0 -0.6342813083 0.5629284934 -0.0001210543 5.72971e-05 3.77522e-05 -9.35035e-05 0.6575865229 -0.5480185041
360297840.0 -0.6282203895 0.5693470667 0.0001051458 0.0001209117 -0.0001972252 -0.0001017305 0.6520006727 -0.5539127371
365297810.0 -0.6221766097 0.5758705541 0.0001769783 -1.15527e-05 0.0002069879 -6.33291e-05 0.6466513872 -0.5596909072
370297780.0 -0.6158908966 0.5821799805 -8.1538e-06 0.0001527505 -4.45754e-05 -5.52432e-05 0.6407737703 -0.566225656
375297750.0 -0.6102093665 0.5887194994 -6.65403e-05 6.63891e-05 0.0001251888 -2.16821e-05 0.6350436983 -0.5717807275
380297720.0 -0.6035025061 0.5948382679 -1.55409e-05 3.69831e-05 0.0001386923 -0.0001087741 0.6300964338 -0.5778399891
385297690.0 -0.5980346706 0.6011528507 9.4338e-06 8.03756e-05 9.30944e-05 9.6553e-06 0.624243629 -0.5830051385
390297660.0 -0.5914773946 0.6074839185 -0.0001082174 -0.0002856938 -0.000106911 -0.0001277468 0.6187530299 -0.5900100178
395297630.0 -0.5850848417 0.6137850805 -9.20736e-05 -0.0002698552 0.0001114315 0.0002091475 0.612906736 -0.59518895
400297600.0 -0.5789204672 0.619322642 -0.0001179302 2.01652e-05 4.46035e-05 9.25908e-05 0.6067292711 -0.6013004952
405297570.0 -0.5724801629 0.6250860956 -4.0215e-05 9.99311e-05 -4.83831e-05 -0.0001355513 0.6011293071 -0.606421565
410297540.0 -0.5657419567 0.6305786548 9.17096e-05 1.21222e-05 -2.08889e-05 -3.14788e-05 0.5952988926 -0.6122069613
415297510.0 -0.5590062594 0.6368132515 5.47052e-05 -0.000123191 2.14791e-05 0.0001176715 0.5889811882 -0.6177966202
420297480.0 -0.5517455794 0.6424187908 4.65499e-05 -5.77323e-05 4.64725e-05 3.25295e-05 0.5826948567 -0.6239763505
425297450.0 -0.5455299052 0.6484162859 6.92242e-05 1.55406e-05 -2.75489e-05 6.32117e-05 0.5770261114 -0.6289188615
430297420.0 -0.5392704528 0.6532877235 0.0002382918 0.000163068 6.69996e-05 -9.98246e-05 0.570938931 -0.6350995076
435297390.0 -0.5322969566 0.6591646643 -2.6651e-05 -7.6715e-06 3.84346e-05 1.7187e-05 0.5643290274 -0.6397701341
440297360.0 -0.525104565 0.6645542418 0.0001330461 -0.000203091 -0.0002057122 3.65567e-05 0.5580622315 -0.6452640808
445297330.0 -0.5181421853 0.6698157296 3.01492e-05 -1.10052e-05 -0.0001495202 5.85325e-05 0.5519569648 -0.6512204647
450297300.0 -0.5112667845 0.6748581717 0.0001701331 -5.52394e-05 -3.85478e-05 4.36855e-05 0.5448143142 -0.6564928096
455297270.0 -0.5042252097 0.6802423669 -1.73378e-05 -0.0001831599 -3.97584e-05 -0.0001679923 0.5385531322 -0.6615113234
460297240.0 -0.4977581347 0.6856097742 -0.0002385534 0.000203639 0.0001219345 6.31183e-05 0.5328048818 -0.6667251846
465297210.0 -0.4901898611 0.6902242026 0.0002192959 0.0001595093 3.43623e-05 2.78097e-05 0.5253002272 -0.6720350762
470297180.0 -0.4831393707 0.6945157461 -3.06154e-05 -4.15314e-05 8.44096e-05 9.39911e-05 0.5188592424 -0.6770661221
475297150.0 -0.4760309861 0.7003749834 0.0002299935 -0.0001323202 3.69999e-05 0.0001594167 0.5125906144 -0.6816847904
480297120.0 -0.4690182642 0.7047411004 -0.0001216452 7.96061e-05 0.0001871403 -0.0001541091 0.5052698294 -0.6865493479
485297090.0 -0.4615080812 0.7094241159 3.27584e-05 4.40636e-05 5.79572e-05 -1.8538e-05 0.4988038423 -0.6918777894
490297060.0 -0.4541867918 0.714091818 -0.0002935576 -3.7556e-05 2.4247e-06 -6.29342e-05 0.4921902534 -0.6964228623
495297030.0 -0.4470872783 0.719323708 7.56058e-05 6.83696e-05 -6.51747e-05 3.51633e-05 0.4858463587 -0.7009435183
500297000.0 -0.4382468274 0.7233406137 -7.78762e-05 9.75847e-05 9.76993e-05 2.20274e-05 0.4777758873 -0.706128701
505296970.0 -0.4315118848 0.7273104692 6.592e-07 -0.0001307178 -1.25549e-05 -7.40252e-05 0.4704278364 -0.7106694654
510296940.0 -0.4241901019 0.7325226966 1.53289e-05 0.0001142699 1.42914e-05 0.000118377 0.4636272933 -0.714909956
515296910.0 -0.4171138301 0.7360279143 -4.41931e-05 9.06677e-05 -7.3973e-06 0.0001639563 0.4556816665 -0.718572249
520296880.0 -0.4091598644 0.7402615801 0.0001350408 0.0001211036 -3.8644e-06 -1.75525e-05 0.4497033265 -0.7243972334
525296850.0 -0.4021469238 0.7446596268 6.49233e-05 0.0001938039 0.000220924 0.000154465 0.4426474867 -0.7283327455
530296820.0 -0.3939054392 0.7483570161 -0.0001318397 -3.48263e-05 -2.20461e-05 1.2847e-05 0.4343537721 -0.7331011604
535296790.0 -0.3860976659 0.7524353603 6.84523e-05 6.20671e-05 -7.26844e-05 3.56208e-05 0.4272981848 -0.7378020187
540296760.0 -0.3783648254 0.7556683714 1.73918e-05 5.39326e-05 0.0001166633 -4.11166e-05 0.4193438877 -0.7408042555
545296730.0 -0.3711454749 0.7593144086 -2.2899e-05 0.0001851773 -6.66179e-05 0.0002332389 0.4123162868 -0.7456817547
550296700.0 -0.3631715322 0.7638720649 3.91239e-05 7.111e-05 0.0001566748 0.0001367255 0.4050288459 -0.7496702299
555296670.0 -0.354863323 0.7674081533 -0.0001313824 -1.05127e-05 0.0001226417 1.94333e-05 0.3973435598 -0.7527890928
560296640.0 -0.3472906353 0.7709636763 8.5207e-06 -7.93504e-05 -0.0001371216 1.31754e-05 0.3897140371 -0.7568490359
565296610.0 -0.3399069288 0.774119659 -3.4452e-05 0.0001185177 2.6034e-05 7.16465e-05 0.3823832354 -0.7605800914
570296580.0 -0.3320226591 0.7769078988 6.98431e-05 6.72975e-05 -8.1473e-06 0.0002202843 0.3746657516 -0.7633472542
575296550.0 -0.3234888047 0.7807537648 3.88198e-05 0.0001633812 -7.26046e-05 -5.20284e-05 0.3665922683 -0.7675174115
580296520.0 -0.3153775099 0.783805579 1.66389e-05 5.63512e-05 0.0001007836 8.19378e-05 0.3594281892 -0.770828348
585296490.0 -0.307183249 0.7860539625 -5.40451e-05 -3.35905e-05 8.52554e-05 0.0001401999 0.3520423768 -0.7751527978
590296460.0 -0.2995762422 0.7898458199 0.0001771599 -0.0001002088 6.68615e-05 -3.68371e-05 0.3439824642 -0.7778299191
595296430.0 -0.2913325282 0.7936669592 -0.0001276701 -0.00017504 3.533e-05 -0.0001482828 0.3354284881 -0.7809716582
600296400.0 -0.2832238239 0.7957731094 0.0001537727 -3.55984e-05 -3.90765e-05 -6.12709e-05 0.3283556125 -0.7837585567
605296370.0 -0.2753803502 0.7987681257 -1.143e-05 -0.0001825766 -2.61948e-05 -1.2144e-06 0.3203426891 -0.7871784929
610296340.0 -0.2674073212 0.8019418013 1.09743e-05 -0.000177101 8.7491e-05 0.0001087849 0.3121172146 -0.7896067978
615296310.0 -0.2592660179 0.804362083 -0.0001937901 0.0001036126 1.3711e-05 3.23011e-05 0.3044957393 -0.7938072558
620296280.0 -0.2507473425 0.8062934512 0.0002376993 5.28618e-05 6.69217e-05 7.51599e-05 0.2967379928 -0.7967615072
625296250.0 -0.2424063631 0.8090851552 -2.97781e-05 -9.52618e-05 -4.32466e-05 8.96006e-05 0.2882400664 -0.798643316
630296220.0 -0.2341257501 0.8118749173 4.17158e-05 5.53446e-05 -1.9664e-05 -0.0002307179 0.2804904366 -0.8016962555
635296190.0 -0.2264634206 0.8141660108 -0.0001788186 7.41009e-05 0.0002182042 3.97332e-05 0.272899435 -0.8040365146
640296160.0 -0.2172312199 0.8151885936 -0.0001058479 -0.0001105421 -0.000134744 5.36094e-05 0.2641853937 -0.8068784742
645296130.0 -0.2099620713 0.8182936423 -0.0002627752 -0.0001109622 -1.45115e-05 1.51441e-05 0.2564175816 -0.8089826143
650296100.0 -0.2017408645 0.8206912223 6.95901e-05 0.0004392403 -0.0002125669 3.93361e-05 0.2483687806 -0.8113777036
655296070.0 -0.1932814852 0.8223671754 -3.97859e-05 0.0001464279 -2.48981e-05 -4.6134e-05 0.2400515882 -0.8135099623
660296040.0 -0.185705005 0.8243229362 -0.0001778448 2.71351e-05 4.60022e-05 2.9173e-05 0.232195389 -0.8157016188
665296010.0 -0.1766999202 0.8258085688 4.77144e-05 1.35376e-05 -6.76737e-05 -5.23915e-05 0.2240395758 -0.8177259642
670295980.0 -0.1677965214 0.8275243274 -2.32015e-05 4.51154e-05 1.62291e-05 0.0001795544 0.2164271461 -0.8194403873
675295950.0 -0.1600565557 0.8286821777 0.000204685 -8.43387e-05 0.0001665272 9.61943e-05 0.2079378648 -0.821965427
680295920.0 -0.1513078946 0.8307106088 0.0002262315 -6.50036e-05 1.07517e-05 5.84515e-05 0.1992163142 -0.8242866138
685295890.0 -0.1427792019 0.8318772867 -9.71504e-05 -0.0001013375 9.17705e-05 6.71006e-05 0.1912214723 -0.8256273766
690295860.0 -0.1343784533 0.8341861231 0.0001910474 9.90697e-05 0.0001066328 -0.0002037655 0.1833030208 -0.8270774271
695295830.0 -0.1261009724 0.8342458642 4.57385e-05 0.0001012301 -3.56202e-05 6.1718e-05 0.1740432784 -0.8290959474
700295800.0 -0.118064476 0.8357003985 0.0001139469 7.69037e-05 0.000119706 7.497e-06 0.1664109518 -0.8302710891
705295770.0 -0.1092763586 0.8376720862 9.98586e-05 5.8983e-06 -8.1564e-05 0.000103818 0.157397054 -0.8310787191
710295740.0 -0.1011897133 0.8386110404 7.82248e-05 2.18061e-05 2.05965e-05 -2.69511e-05 0.149026213 -0.8329010136
715295710.0 -0.0932078958 0.8392616612 -4.0376e-05 5.89269e-05 -2.76188e-05 -0.0001872165 0.1410042395 -0.834131344
720295680.0 -0.0844714957 0.8399118026 -0.0001413103 0.0002255527 0.0001280757 0.0002031513 0.1330734226 -0.8354639357
725295650.0 -0.074836337 0.8407286659 6.74957e-05 -1.67719e-05 -9.68414e-05 -0.0001486515 0.124776592 -0.8368327987
730295620.0 -0.0671640039 0.8412124544 5.4086e-06 0.0001405701 -0.0001207508 1.26332e-05 0.1164943689 -0.8379164386
735295590.0 -0.0576452501 0.8418410409 -2.5634e-05 2.57504e-05 -3.94089e-05 -0.0001486007 0.1079083407 -0.838568236
740295560.0 -0.0500788165 0.8427681824 -0.0002590591 0.0001244105 0.0001030586 -9.2291e-06 0.0991523311 -0.8399558174
745295530.0 -0.041511749 0.8425385487 -5.46045e-05 -4.73212e-05 -5.7397e-06 -4.72146e-05 0.090265299 -0.8402647243
750295500.0 -0.0338180765 0.8432318343 3.1738e-06 3.05826e-05 5.26947e-05 -4.22258e-05 0.0826337416 -0.8413527491
755295470.0 -0.0244834132 0.8432300434 2.31239e-05 4.26172e-05 -0.0001553695 -2.1383e-05 0.0737854909 -0.8412195673
760295440.0 -0.016333204 0.8434942782 0.0001348888 0.0001142304 -0.0001924249 -4.33876e-05 0.0650590673 -0.842986939
765295410.0 -0.007633326 0.8437828285 -0.0001360682 6.80514e-05 1.24058e-05 -0.0001126056 0.0572193588 -0.84212345
770295380.0 0.0004777362 0.8442203988 7.41218e-05 -1.92227e-05 0.0001013416 2.54466e-05 0.0493440648 -0.8431484553
775295350.0 0.0090626849 0.8443090333 0.0001269125 0.000187015 9.91931e-05 4.05225e-05 0.0405061065 -0.8448433116
780295320.0 0.0179163123 0.8431482164 0.0001084371 6.95314e-05 -1.7889e-06 -9.6921e-06 0.0319909777 -0.8437291514
785295290.0 0.0262425213 0.843599846 -0.0001504667 0.0002022912 0.0001166668 2.84363e-05 0.0234227978 -0.8441693484
790295260.0 0.0341270786 0.8429984411 -1.14347e-05 7.2929e-06 -3.91399e-05 -1.83595e-05 0.0154139616 -0.843981802
795295230.0 0.0431706713 0.8433755331 -0.0001260222 3.68004e-05 -0.0001084165 0.000372121 0.0064562614 -0.8436337282
800295200.0 0.051123603 0.8424890244 0.00016192 -3.42318e-05 0.0002167199 -0.0001531984 -0.0015899051 -0.8439000934
805295170.0 0.0600280484 0.8418659724 4.22424e-05 -9.47353e-05 7.76082e-05 4.41197e-05 -0.0106786602 -0.8438836904
810295140.0 0.0685590255 0.8414219447 -0.0001195025 6.84367e-05 -4.89083e-05 0.000149149 -0.0182988263 -0.8430591098
815295110.0 0.077047732 0.8398739556 -1.32464e-05 5.9156e-05 -2.98718e-05 -7.939e-07 -0.027312012 -0.842748995
820295080.0 0.0851635262 0.8390260193 -7.3583e-06 -0.0001392806 -9.30865e-05 -0.0001003278 -0.0362650343 -0.8428662643
825295050.0 0.0942552418 0.838291007 0.0001756371 -7.8741e-05 2.33683e-05 0.000227816 -0.0439345108 -0.8423081609
830295020.0 0.1019137704 0.8379740736 0.0001271623 6.50005e-05 0.0002227145 7.94888e-05 -0.0529403033 -0.8411996347
835294990.0 0.1100204826 0.8373073605 -0.0001874253 -4.52226e-05 4.50792e-05 7.6149e-06 -0.0608054759 -0.8413175741
840294960.0 0.118484913 0.8354068367 9.80184e-05 -6.26035e-05 2.30109e-05 0.0001120687 -0.0699764512 -0.8390913134
845294930.0 0.1266343921 0.8344710312 0.0002490454 -8.95466e-05 -0.0001164609 -0.0001584814 -0.0778257008 -0.8386283705
850294900.0 0.1349974539 0.8333883982 2.99e-06 -1.90569e-05 5.62978e-05 1.38332e-05 -0.0858865866 -0.8373798607
