!Created with skrf (http://scikit-rf.org).
# Hz S RI R 50.0 
!freq ReS11 ImS11 ReS21 ImS21 ReS12 ImS12 ReS22 ImS22
300000.0 -0.2321656203 -0.1371193698 0.4658448545 0.0874243791 0.4660870204 0.0869619725 -0.2327748754 -0.1292378534
5299970.0 -0.2417060132 0.0052927985 0.4747811645 0.0060516681 0.4754053848 0.0060545848 -0.2442735525 0.004712007
10299940.0 -0.2387357808 0.018581096 0.4775059569 0.0070246664 0.4772324313 0.0067013237 -0.2407429063 0.0174714042
15299910.0 -0.2337485696 0.0285435667 0.4804541002 0.008103678 0.4809838239 0.0083627594 -0.236866779 0.0262976988
20299880.0 -0.2285117129 0.0367466602 0.4852758613 0.0079326481 0.4857680593 0.0084654258 -0.2320903554 0.0338899183
25299850.0 -0.2225496761 0.0436502135 0.4907284684 0.0077040626 0.4909976697 0.0075085448 -0.2268829275 0.0404105729
30299820.0 -0.2173915661 0.0485025109 0.4958206918 0.0051649465 0.496204434 0.0051575617 -0.2218366154 0.0449110369
35299790.0 -0.2114264716 0.0529341855 0.5011046337 0.0019273058 0.5014404345 0.0017246107 -0.2168471449 0.0490939879
40299760.0 -0.2061410018 0.0559661023 0.5062708491 -0.0020882089 0.5065633593 -0.0020384358 -0.2119740153 0.0521056191
45299730.0 -0.2011552877 0.0586729025 0.5109517726 -0.0066443936 0.5113689066 -0.0070380351 -0.2068948693 0.054796095
50299700.0 -0.1961460374 0.0609201802 0.5153079619 -0.012246293 0.5155930515 -0.0126031028 -0.2026088522 0.0571095497
55299670.0 -0.1919934251 0.0623445078 0.5189700006 -0.0180509994 0.5190462772 -0.0183570923 -0.1990579099 0.058649697
60299640.0 -0.187675919 0.0639617682 0.5221907711 -0.0246485225 0.5224013088 -0.02481561 -0.1951929125 0.05964126
65299610.0 -0.1842089288 0.0651112665 0.5256444807 -0.0311039162 0.5255018073 -0.0308926993 -0.1919594808 0.0608980199
70299580.0 -0.180791726 0.0656624886 0.5274342452 -0.0373646957 0.5278115328 -0.0373128344 -0.1892798712 0.0618550968
75299550.0 -0.1779625088 0.0666575679 0.5295829024 -0.0445398491 0.5298490572 -0.0443139546 -0.186093706 0.0628841856
80299520.0 -0.1753823438 0.0676300411 0.531494652 -0.0511131388 0.5318600637 -0.0518555288 -0.183647984 0.0638389369
85299490.0 -0.1724752152 0.0683243836 0.5328093768 -0.0581014893 0.5332137492 -0.0579330087 -0.1813765787 0.0640362132
90299460.0 -0.169911165 0.0690688299 0.5333636186 -0.0650645012 0.5335329959 -0.0648423978 -0.1791494984 0.0649078602
95299430.0 -0.1680166171 0.0694638412 0.5345567473 -0.0716404017 0.535004217 -0.0717839822 -0.1776021061 0.0656101434
100299400.0 -0.1659902899 0.0702434334 0.5351426087 -0.0787180105 0.5349020295 -0.0790196807 -0.1757033824 0.0664459468
105299370.0 -0.1638040093 0.0708653711 0.5350238371 -0.0858355974 0.5356513305 -0.085988249 -0.1737695016 0.0666494142
110299340.0 -0.1621809041 0.0711481167 0.5352183554 -0.0920894858 0.5360558087 -0.0923387377 -0.1727398519 0.0674168799
115299310.0 -0.1608024123 0.0723169896 0.5352546721 -0.0989858118 0.5356113082 -0.099527442 -0.1714773756 0.0683595233
120299280.0 -0.1592869468 0.073427671 0.5352277472 -0.1068619582 0.5349842617 -0.106759749 -0.1700691242 0.0686590254
125299250.0 -0.1578555917 0.0738373632 0.5347302553 -0.1126521764 0.5349274004 -0.1126458647 -0.1688126675 0.0698061605
130299220.0 -0.1566454639 0.0745016829 0.5344317411 -0.1195249723 0.5340720369 -0.1204463316 -0.1675361466 0.0705251001
135299190.0 -0.1554737011 0.0760773965 0.5339506705 -0.1262919997 0.5341385606 -0.1265017008 -0.1664241233 0.0709519501
140299160.0 -0.1543528441 0.0767201655 0.5329979706 -0.1329700057 0.5328398293 -0.1324790948 -0.1662529966 0.0718158053
145299130.0 -0.153430186 0.0777355054 0.5318855001 -0.1391598691 0.53201395 -0.1394686121 -0.1649027493 0.072771503
150299100.0 -0.152141727 0.0786857427 0.5306297115 -0.145849909 0.5311933721 -0.146223306 -0.1642576068 0.0740554552
155299070.0 -0.1505796285 0.0800438208 0.5288619924 -0.1524125264 0.5297999511 -0.1527092712 -0.1630603142 0.0747717484
160299040.0 -0.1497044565 0.0813271546 0.5279890413 -0.1589050658 0.5281350017 -0.159025192 -0.1627546901 0.0761742593
165299010.0 -0.1487191011 0.0820139784 0.5269300344 -0.164999046 0.526469569 -0.1656213558 -0.1613429257 0.0767981016
170298980.0 -0.1477467484 0.0833140309 0.5247272358 -0.1717786605 0.524950216 -0.1716658306 -0.1611608275 0.077874207
175298950.0 -0.1469311416 0.084666457 0.5237008638 -0.1774892903 0.5237706117 -0.1781686132 -0.160257343 0.0792720398
180298920.0 -0.1459722443 0.0861697945 0.5216821732 -0.1843725245 0.5215791502 -0.1845173832 -0.1591998117 0.0800521099
185298890.0 -0.145030172 0.0874745445 0.5201726212 -0.1906682324 0.5200804258 -0.1903150713 -0.1584879985 0.0811667818
190298860.0 -0.1437825829 0.088916825 0.5175386745 -0.1969040016 0.5182903257 -0.1968497494 -0.1576739231 0.0824904408
195298830.0 -0.143108879 0.0900043715 0.5165676 -0.2023760647 0.516611893 -0.2029694343 -0.1571804191 0.0837381621
200298800.0 -0.1420528297 0.0910810684 0.5143735306 -0.2094064971 0.5141149002 -0.2091200107 -0.1562811871 0.0846400065
205298770.0 -0.1415891025 0.0924641941 0.5118575035 -0.2145652703 0.5120923719 -0.2146234456 -0.1554671114 0.085822764
210298740.0 -0.1401226755 0.0940341317 0.5096331343 -0.2207692619 0.5093045286 -0.2207737953 -0.1551841237 0.0872102967
215298710.0 -0.1391392695 0.0952883923 0.5068837824 -0.2260760043 0.5068703798 -0.2270801529 -0.1540925491 0.0881474605
220298680.0 -0.1382298445 0.0966952648 0.5045711948 -0.2328924973 0.5047310538 -0.2328104703 -0.1535838675 0.0895665863
225298650.0 -0.1371950427 0.0983461008 0.5018865795 -0.2383326561 0.5023431631 -0.2381101369 -0.1526601482 0.0905047342
230298620.0 -0.1360555419 0.100004167 0.4997185671 -0.2445078321 0.4999725523 -0.2445541604 -0.1519157211 0.0918992507
235298590.0 -0.1353735363 0.101234749 0.4973020266 -0.2505466904 0.4973899564 -0.2503016214 -0.1511136691 0.0932924097
240298560.0 -0.1343068324 0.1029842677 0.4944839417 -0.255948776 0.4949417744 -0.2558171926 -0.1502541548 0.0947425476
245298530.0 -0.1333908896 0.1041584709 0.4915615399 -0.2614072806 0.4920023531 -0.2616988511 -0.1497418762 0.0959161392
250298500.0 -0.132412591 0.1053748195 0.489196586 -0.2670599029 0.4891588538 -0.2670205049 -0.1490322163 0.0976190554
255298470.0 -0.1310463909 0.1073377733 0.4865974974 -0.2723636215 0.4866019008 -0.2726958821 -0.1479817274 0.0991506055
260298440.0 -0.1301861992 0.108266201 0.4837176185 -0.277856433 0.4835936257 -0.277970762 -0.1474273501 0.0999758286
265298410.0 -0.1292292944 0.1100986855 0.4799692789 -0.28391157 0.4796844755 -0.2840676245 -0.1457574371 0.1012679502
270298380.0 -0.1283170664 0.1114225 0.4769323475 -0.2892320222 0.4771279869 -0.2891946261 -0.1452052747 0.10271664
275298350.0 -0.1270797228 0.1129129436 0.4735915503 -0.2943150388 0.473717337 -0.2941228257 -0.1444003903 0.1041875544
280298320.0 -0.126111679 0.1144221426 0.4709239608 -0.2992502588 0.4712615258 -0.2997382719 -0.1434453366 0.1055128406
285298290.0 -0.1248447351 0.1160994747 0.4672288888 -0.305159376 0.4677906697 -0.3049720399 -0.142875705 0.1068277924
290298260.0 -0.1236064534 0.1176294222 0.4644577749 -0.310355698 0.4642738837 -0.3108100603 -0.1414746503 0.1083680987
295298230.0 -0.1226422372 0.1185888604 0.4607308888 -0.3159851707 0.4608561309 -0.3162564514 -0.1405574825 0.1094340054
300298200.0 -0.1213917205 0.1204950615 0.4577417113 -0.3207052791 0.4577415184 -0.3207893034 -0.1397365324 0.1107803211
305298170.0 -0.1200447089 0.1213011468 0.4543379882 -0.3259333883 0.4542277526 -0.3263676764 -0.1387280219 0.1120583482
310298140.0 -0.1184612865 0.1224565187 0.4504200718 -0.3311763852 0.4509052827 -0.3316189896 -0.1371070727 0.1131057044
315298110.0 -0.1176282625 0.1236367909 0.4468035052 -0.3368272459 0.4469299222 -0.3369114568 -0.1362284666 0.1142856207
320298080.0 -0.1164332174 0.1251508905 0.4428626531 -0.3417895903 0.4439031752 -0.3420867259 -0.1358733352 0.115407784
325298050.0 -0.1157303036 0.1262437626 0.4394673281 -0.3464284671 0.4396423728 -0.3468553691 -0.1344738528 0.1167265095
330298020.0 -0.1149346075 0.1276346277 0.4351138807 -0.3519099376 0.4358513748 -0.351761488 -0.134054806 0.1180313939
335297990.0 -0.1133904212 0.1291299895 0.4310048465 -0.3562441869 0.4316362971 -0.3565296727 -0.1328838528 0.1192700898
340297960.0 -0.1122772192 0.1305442131 0.4273042923 -0.3615472781 0.4273137621 -0.3613088101 -0.1320201327 0.1208836104
345297930.0 -0.1114612834 0.1315501733 0.4233938587 -0.3665427056 0.4233630082 -0.3662539448 -0.13059508 0.1221447636
350297900.0 -0.110114784 0.133250961 0.4191776053 -0.3703710279 0.4197990276 -0.3705257941 -0.1303513348 0.1233282352
355297870.0 -0.1087019583 0.1342892284 0.415022432 -0.3748381897 0.4151730418 -0.3748578843 -0.1287286229 0.1247918156
360297840.0 -0.1074538971 0.1357154632 0.41085431 -0.3800006351 0.4110404667 -0.3803033567 -0.1279535756 0.1262359385
365297810.0 -0.106203066 0.1371672069 0.4063727118 -0.3843903853 0.4067947067 -0.3846689101 -0.1269092499 0.1278251336
370297780.0 -0.10472568 0.1383803493 0.4019423237 -0.388913402 0.4026829812 -0.3890074101 -0.1255403195 0.1290050517
375297750.0 -0.1034290171 0.1396700134 0.398271239 -0.3929631574 0.398069454 -0.3930309487 -0.1242096018 0.1303155183
380297720.0 -0.1023332687 0.1411983776 0.3943239471 -0.397822701 0.3941454139 -0.3976828805 -0.1231927694 0.1317698963
385297690.0 -0.1007628887 0.1420126339 0.3893201233 -0.401656958 0.3898788491 -0.4023127559 -0.1220882273 0.1332713527
390297660.0 -0.0992448202 0.1432220632 0.3848801211 -0.4056918137 0.385263015 -0.4061542446 -0.1205485156 0.1341696483
395297630.0 -0.0973971466 0.1447222507 0.3809087263 -0.4098776941 0.3807340403 -0.4096942096 -0.1195625622 0.1352978996
400297600.0 -0.0965021186 0.1457140266 0.3762098833 -0.4145904359 0.3765403718 -0.4142447379 -0.1182988528 0.1369331201
405297570.0 -0.0949226587 0.1466528384 0.3718274588 -0.4183024048 0.3720404678 -0.4183501674 -0.1168115572 0.1384381385
410297540.0 -0.0934487761 0.1483719499 0.3670713882 -0.4225439739 0.3671067449 -0.4221654465 -0.11543648 0.1394379853
415297510.0 -0.0919759365 0.1493960407 0.3624859002 -0.4265279118 0.3632968405 -0.4266387864 -0.1140610581 0.1408179986
420297480.0 -0.0904735538 0.1501630777 0.3577687139 -0.430438038 0.3581074905 -0.4307024646 -0.1124768642 0.1424689121
425297450.0 -0.0882628817 0.1512464847 0.353366838 -0.4339726267 0.3527109926 -0.4345804704 -0.1114574468 0.1432452633
430297420.0 -0.0870226787 0.1524838266 0.3488959213 -0.4382022365 0.3484954212 -0.4379369136 -0.1097015384 0.1447611523
435297390.0 -0.0852835672 0.1532715187 0.3431838434 -0.4424972026 0.3434843888 -0.4419396755 -0.1091336774 0.1460469901
440297360.0 -0.0835106108 0.1542507978 0.3384124118 -0.4457781512 0.3386942473 -0.4460638716 -0.1076202605 0.1471281741
445297330.0 -0.0816869327 0.1551068273 0.3342481119 -0.4491146636 0.3341845935 -0.4498140743 -0.1057926945 0.1484185562
450297300.0 -0.0802773731 0.1562294885 0.329097124 -0.4525691712 0.3292595641 -0.4529832684 -0.1042664 0.149609351
455297270.0 -0.0788863906 0.1570235303 0.3240921413 -0.4564719096 0.3243933698 -0.4566990972 -0.1029449881 0.1506935085
460297240.0 -0.0765773583 0.1583588222 0.3193305027 -0.4606468409 0.3190142346 -0.4604553143 -0.1011898949 0.1518485258
465297210.0 -0.0748337827 0.1591198157 0.3133986844 -0.4634898626 0.3137136297 -0.4637993218 -0.0997849496 0.1534417194
470297180.0 -0.0733309804 0.1600559415 0.3087185936 -0.466442333 0.3091703472 -0.4669498818 -0.0983315036 0.15395971
475297150.0 -0.0717181229 0.161145836 0.3036476979 -0.4701309701 0.3039695162 -0.4703647045 -0.0968443593 0.1551290101
480297120.0 -0.069490733 0.1622956655 0.2987508635 -0.4733688805 0.298749207 -0.4734071845 -0.0956300111 0.1562919282
485297090.0 -0.0676892848 0.1624534499 0.2934210463 -0.4764121564 0.2933489261 -0.47655604 -0.093915813 0.1573139752
490297060.0 -0.0653969513 0.1639010897 0.2877297012 -0.480001274 0.2880998472 -0.4801993223 -0.0923787927 0.1584773156
495297030.0 -0.0639999348 0.1642227599 0.283291564 -0.4829253393 0.283076688 -0.4831932631 -0.0905392524 0.1593399238
500297000.0 -0.0621943034 0.1654258016 0.2776809653 -0.4858363465 0.2776140778 -0.4861518138 -0.0891530438 0.160473286
505296970.0 -0.0596773776 0.166138494 0.2722740488 -0.4891474066 0.272363889 -0.4886468595 -0.0874971973 0.1609313528
510296940.0 -0.0582400523 0.1669698935 0.267070377 -0.4921921535 0.2673642116 -0.492189432 -0.0856528552 0.1622702871
515296910.0 -0.0564085024 0.1678434475 0.2611556725 -0.494765111 0.2611844701 -0.4950013903 -0.0843744041 0.1630057621
520296880.0 -0.0543841465 0.1684707647 0.2563796636 -0.4974823034 0.256018423 -0.4976779312 -0.0822298015 0.1646728467
525296850.0 -0.0522134469 0.1691008152 0.2505998666 -0.5003339981 0.2504001888 -0.5004496776 -0.0811273388 0.1652231974
530296820.0 -0.0505465354 0.1697273837 0.2448537402 -0.5029616729 0.2451727592 -0.5027221861 -0.0793046276 0.1656684373
535296790.0 -0.0481067296 0.170335504 0.2396228842 -0.5052910936 0.2400881446 -0.505663016 -0.077354909 0.167268497
540296760.0 -0.0463549857 0.1714355663 0.2340570777 -0.5081431977 0.2338681432 -0.5081552426 -0.075694869 0.1676442203
545296730.0 -0.0449253621 0.1722503196 0.2289289503 -0.5108908762 0.2285945413 -0.5102983886 -0.0740659284 0.1688520216
550296700.0 -0.0420935111 0.1728079342 0.2227628535 -0.5127863092 0.2227245614 -0.513143452 -0.0723293702 0.1694882019
555296670.0 -0.0403464057 0.1733616336 0.2172625714 -0.5156406971 0.2176431915 -0.515509196 -0.0709819681 0.1700117845
560296640.0 -0.0379580974 0.1738647033 0.2116428 -0.5176887737 0.2123122919 -0.5177651539 -0.0693833924 0.1711080722
565296610.0 -0.0364303103 0.1747621897 0.2065516943 -0.5200632058 0.2064990015 -0.5196760343 -0.0670452948 0.1722066495
570296580.0 -0.0344259402 0.1752758174 0.2003100313 -0.5218127385 0.2002266383 -0.5220667931 -0.0656702297 0.1723934173
575296550.0 -0.0320227703 0.1757052994 0.1948096477 -0.5242597939 0.1945836013 -0.5242243061 -0.0639529423 0.1733365104
580296520.0 -0.0301213735 0.1763393127 0.1894379277 -0.526335416 0.1890574949 -0.5263605935 -0.0626200259 0.1739454987
585296490.0 -0.027860955 0.1770041695 0.1839119817 -0.5279295086 0.1829647314 -0.5283450763 -0.0600687964 0.1751986157
590296460.0 -0.0253488413 0.1773188457 0.177755231 -0.529840084 0.1776419583 -0.5303333903 -0.0588658854 0.175777344
595296430.0 -0.0236048305 0.1780778774 0.1714678327 -0.5322041761 0.1713266886 -0.5322845748 -0.0571313597 0.1760915583
600296400.0 -0.0215971395 0.178511022 0.1658825969 -0.533883993 0.1659471267 -0.5337965547 -0.0551195039 0.1766781967
605296370.0 -0.0200385541 0.179180046 0.1606392281 -0.5356110147 0.1598993262 -0.5357534893 -0.0534313048 0.1777091703
610296340.0 -0.0173994099 0.1795649727 0.1543403687 -0.5364506653 0.1545998384 -0.5372022761 -0.0521916215 0.1782411921
615296310.0 -0.0151314265 0.1799810694 0.148525099 -0.5392515133 0.148311242 -0.538989141 -0.0500175436 0.1789119312
620296280.0 -0.0135447141 0.180692523 0.142800303 -0.5404651771 0.1425400996 -0.5402815435 -0.0484977117 0.179895511
625296250.0 -0.0113420525 0.1807380594 0.1370147017 -0.5418530688 0.1369503808 -0.5420652342 -0.0468620409 0.1799916951
630296220.0 -0.0089715693 0.1814150196 0.1306379875 -0.5433976567 0.1307955018 -0.5432430455 -0.0446541565 0.1805983586
635296190.0 -0.007433035 0.1815508189 0.1249715107 -0.5443265287 0.1250396628 -0.5447515336 -0.0432423703 0.1814548216
640296160.0 -0.0050686635 0.1819858406 0.1191267966 -0.5464112795 0.1191461117 -0.5460962389 -0.0415217629 0.1817165314
645296130.0 -0.0026179419 0.1827157241 0.1130189922 -0.5472966928 0.1131956067 -0.5469166885 -0.0397144828 0.1820634338
650296100.0 -0.0009681934 0.1825450075 0.1078073387 -0.5487333168 0.1072615397 -0.548586012 -0.0373720115 0.1827656816
655296070.0 0.0008444778 0.1831856468 0.1010779554 -0.5493909923 0.1013288263 -0.5493259091 -0.0365822486 0.1835819344
660296040.0 0.0030260079 0.1832177083 0.0954616124 -0.5502675039 0.0955528965 -0.5505519668 -0.0342793295 0.1834141248
665296010.0 0.0052145682 0.1834788866 0.0890978258 -0.5510503837 0.0892854049 -0.5513416653 -0.032501569 0.18404141
670295980.0 0.0071812561 0.1837597059 0.0829620114 -0.5523856373 0.0832397068 -0.5517990398 -0.0307821787 0.1845790184
675295950.0 0.0090822673 0.1837445408 0.0774672323 -0.5529429632 0.077736864 -0.5532055652 -0.029094858 0.1852832174
680295920.0 0.0108563618 0.18400878 0.0716619458 -0.5537131958 0.0714899586 -0.5533327946 -0.0270620216 0.1855143072
685295890.0 0.0134189997 0.1844538789 0.0655704664 -0.5552186027 0.0651768599 -0.5549369875 -0.0254083606 0.1862666155
690295860.0 0.0150945697 0.1844648415 0.0598318818 -0.5551726889 0.0594357349 -0.5552620965 -0.0239740329 0.1863455111
695295830.0 0.0175170287 0.1844709065 0.0539066054 -0.5559857411 0.0533959464 -0.5556857883 -0.0217639193 0.1871497223
700295800.0 0.0194308899 0.1847774535 0.0480506195 -0.5562216361 0.0479026371 -0.5562409126 -0.0200791099 0.1870100003
705295770.0 0.0210761058 0.18473923 0.0418018596 -0.5568707475 0.0417558027 -0.556875267 -0.0180575489 0.1878671627
710295740.0 0.0234653708 0.1843799526 0.0358481225 -0.5570628265 0.0356738099 -0.5574463703 -0.0160619598 0.1882128198
715295710.0 0.0251711093 0.1850191658 0.0299049097 -0.5580106154 0.0298126967 -0.5578954617 -0.0145288775 0.1880103289
720295680.0 0.0279046502 0.1848723877 0.0236762441 -0.5577859948 0.0234928133 -0.5583425572 -0.0127305897 0.1885217964
725295650.0 0.0290924481 0.1850205985 0.0177495069 -0.557883862 0.0177203491 -0.5580080612 -0.0110988737 0.1891195692
730295620.0 0.030490218 0.1844962109 0.0118449543 -0.5580970159 0.0114479504 -0.557758762 -0.0091825583 0.1897531409
735295590.0 0.0331237708 0.1845646877 0.0057350596 -0.5583923583 0.0055552778 -0.5584017704 -0.0071733105 0.1892597077
740295560.0 0.0346646265 0.1842334565 2.71946e-05 -0.558308958 -0.000172874 -0.5584138779 -0.0058189771 0.1899412976
745295530.0 0.0370770371 0.1843689545 -0.0060325559 -0.5575900089 -0.0054146415 -0.5579928797 -0.0042782935 0.1896408035
750295500.0 0.0385516996 0.1844933012 -0.011700929 -0.5579145055 -0.0123256952 -0.5578239215 -0.0020777788 0.1900724731
755295470.0 0.0406011594 0.1841717602 -0.0178998708 -0.5579640851 -0.0179615312 -0.5583557006 7.07431e-05 0.1906909743
760295440.0 0.0426404549 0.18431445 -0.0244085029 -0.5574769342 -0.0241014907 -0.5573302083 0.0016721628 0.1899847146
765295410.0 0.044718457 0.1835938748 -0.0300663158 -0.5568661279 -0.0294813982 -0.5573102418 0.0036215789 0.1903436776
770295380.0 0.0462533287 0.1837164166 -0.0357749381 -0.5563496078 -0.0360633636 -0.5572572193 0.0051741628 0.1907911126
775295350.0 0.0483722043 0.1830223484 -0.0418703102 -0.5564931627 -0.0420215405 -0.5563976638 0.0074861205 0.1908264413
780295320.0 0.050344873 0.18318356 -0.0476345089 -0.5555990936 -0.047753855 -0.555856398 0.0094925117 0.191008703
785295290.0 0.0522316805 0.1824765437 -0.0536393633 -0.5553939175 -0.0541700273 -0.555564896 0.010568197 0.1912971427
790295260.0 0.0542636198 0.1819470624 -0.0598394897 -0.5546452762 -0.0594419164 -0.5548257197 0.012525299 0.1913866631
795295230.0 0.055839827 0.1816246232 -0.0659522144 -0.5541243127 -0.0658383606 -0.554370748 0.0145511083 0.190482122
800295200.0 0.0574423665 0.1813344145 -0.0710450123 -0.5528352966 -0.0716864211 -0.5532652546 0.0163260253 0.1913301364
805295170.0 0.0595952851 0.181036152 -0.0771889359 -0.5524239153 -0.0775262208 -0.5529790606 0.0187615667 0.1912200124
810295140.0 0.0618339654 0.1806021013 -0.0835460253 -0.551220434 -0.0836198912 -0.5515063164 0.0203644296 0.1910037907
815295110.0 0.0631480892 0.1800724036 -0.089024258 -0.5504714562 -0.0889130154 -0.5512132243 0.0217903744 0.191107603
820295080.0 0.0654531911 0.1796946296 -0.0945108053 -0.549307936 -0.09504018 -0.5500050777 0.0230408913 0.1917193236
825295050.0 0.0669278372 0.1789874752 -0.100716737 -0.5486087811 -0.1011363359 -0.5486503134 0.0258748894 0.1917470961
830295020.0 0.0687553402 0.1785385034 -0.1070804613 -0.5474326331 -0.1068179916 -0.5476507084 0.027329145 0.19076591
