!Created with skrf (http://scikit-rf.org).
# Hz S RI R 50.0 
!freq ReS11 ImS11 ReS21 ImS21 ReS12 ImS12 ReS22 ImS22
300000.0 -0.0997771573 -0.0615771707 0.6302745478 0.0584915876 0.6243360321 0.0594378014 -0.1019923163 -0.0707477616
5299970.0 -0.1021076459 0.0133924301 0.6302912577 0.010005209 0.6305756962 0.0099749495 -0.1010865102 0.0133329522
10299940.0 -0.0973600378 0.0293962083 0.6342109416 0.0154370543 0.6341037443 0.015834205 -0.0961745796 0.0303252011
15299910.0 -0.0902380815 0.042500791 0.6405284507 0.020652279 0.6407719146 0.0205141693 -0.0890078285 0.0434507838
20299880.0 -0.0817940054 0.0530554346 0.6485510915 0.0243461266 0.6484548433 0.0238304442 -0.0799736156 0.0546550978
25299850.0 -0.0724505097 0.0624243126 0.6579321238 0.0256210917 0.6576613979 0.0253143381 -0.0702403961 0.0630704638
30299820.0 -0.0623257173 0.0688138349 0.6676001047 0.0244039091 0.6675670736 0.0246832584 -0.0598439477 0.0700498291
35299790.0 -0.0528084963 0.0737531384 0.6771550589 0.02156664 0.6770701105 0.0217435363 -0.0500163193 0.0746574869
40299760.0 -0.04340689 0.0772595218 0.6865558185 0.0173056419 0.6864036114 0.0175879837 -0.040491363 0.077203854
45299730.0 -0.034034286 0.0793009807 0.6948389979 0.0118914295 0.6956351019 0.0118501064 -0.0312173144 0.0795409726
50299700.0 -0.0255683785 0.0802423531 0.7034253638 0.0050458263 0.7038438638 0.0055812078 -0.0228222851 0.0805226461
55299670.0 -0.0176160156 0.0804802406 0.71133293 -0.0031569955 0.7107969926 -0.0023877631 -0.0147917434 0.0804524877
60299640.0 -0.0098881193 0.0799827223 0.7172343181 -0.0114412537 0.717757706 -0.0108104724 -0.0078993249 0.0793420728
65299610.0 -0.0038312284 0.0790325745 0.7234186531 -0.020057559 0.7237124934 -0.0193990766 -0.0011448246 0.0783164942
70299580.0 0.0029235146 0.0777808485 0.7287826733 -0.0291494115 0.7287167344 -0.0288167485 0.0048592286 0.0767746366
75299550.0 0.0084773305 0.0758387 0.7327099526 -0.0387138618 0.7328537433 -0.038846233 0.0101541081 0.0748077879
80299520.0 0.0130281578 0.0735390413 0.7369147724 -0.0488159879 0.7377682149 -0.0486848926 0.0153070334 0.0727025035
85299490.0 0.0179005422 0.0713529962 0.7404714776 -0.0582103195 0.7407857747 -0.0580733821 0.0195732556 0.0699501672
90299460.0 0.021884544 0.0689291489 0.7424219631 -0.0690782999 0.7435514644 -0.0687466506 0.0238733102 0.0680422563
95299430.0 0.0260066857 0.0665369278 0.7463743554 -0.0785298098 0.745945505 -0.0789155728 0.0279381614 0.0656884431
100299400.0 0.0290734112 0.0645814026 0.746910658 -0.0885478476 0.7476601659 -0.0889233486 0.0313101662 0.0626688626
105299370.0 0.0322145297 0.0620709947 0.7488263508 -0.0990661304 0.7494214025 -0.0990085953 0.0345057316 0.0608938294
110299340.0 0.0350346915 0.0597158331 0.749716298 -0.1089312809 0.7498166727 -0.108501413 0.0363556621 0.058270014
115299310.0 0.0376699702 0.0574803814 0.7511855522 -0.1190705897 0.7508959941 -0.1189490731 0.0388314298 0.0558347797
120299280.0 0.0397477937 0.0545103717 0.7509309636 -0.1287718598 0.7519511217 -0.1289791651 0.0413928902 0.0531722525
125299250.0 0.0418629928 0.0522253134 0.7516498177 -0.1389598127 0.7522570298 -0.1388339757 0.0427805793 0.0504993856
130299220.0 0.0434809331 0.050069272 0.7515517632 -0.1488874841 0.7515362868 -0.1491574541 0.044996807 0.0486164352
135299190.0 0.0452266368 0.0484691328 0.7515908603 -0.1588782414 0.7512678955 -0.1587594104 0.0466875538 0.0466287306
140299160.0 0.0466819252 0.0464418073 0.7512644461 -0.168724552 0.7510100802 -0.169012599 0.0477869941 0.0448223535
145299130.0 0.0479872815 0.0438034179 0.750267545 -0.1781314871 0.7501317398 -0.1780597624 0.0491933706 0.0423220051
150299100.0 0.0497705728 0.0422845424 0.7491463164 -0.1871458291 0.7492289742 -0.187684851 0.0504931098 0.0405402601
155299070.0 0.0500494515 0.0398836724 0.7482741297 -0.1980870642 0.7478433033 -0.1976509477 0.0516525202 0.0385707977
160299040.0 0.0515362221 0.0382609838 0.7466042481 -0.207191088 0.7460241078 -0.2070780327 0.0519222637 0.0365423937
165299010.0 0.0523215004 0.0364398393 0.7448135763 -0.2164053604 0.7446952608 -0.2169287314 0.0533907484 0.0349991525
170298980.0 0.0532352113 0.0341070314 0.7429440453 -0.2260847138 0.7439025221 -0.2259905604 0.0537656715 0.0331145922
175298950.0 0.0534859182 0.032579631 0.7417741074 -0.2346599387 0.7406857723 -0.2350547519 0.0544990098 0.0313959399
180298920.0 0.0543629121 0.0306570326 0.7392995484 -0.2441218 0.7390286915 -0.2441829037 0.0550270285 0.0299162146
185298890.0 0.0554241053 0.0289420194 0.7366075411 -0.2535025862 0.7367772022 -0.2529786474 0.0554780813 0.0283994775
190298860.0 0.0555004667 0.027448312 0.7346650177 -0.2625062459 0.7349083049 -0.2628914622 0.056082142 0.0261400863
195298830.0 0.0560804353 0.0254957485 0.7321510758 -0.2719829829 0.7321535064 -0.271318074 0.0571735302 0.024697194
200298800.0 0.056505028 0.0243648869 0.7293113652 -0.2811387998 0.7295223377 -0.2809107144 0.0564700192 0.0235596548
205298770.0 0.0568376392 0.0229825184 0.7260915238 -0.2899144268 0.7265371195 -0.2895597121 0.0572628048 0.0212650812
210298740.0 0.0570950961 0.0209940936 0.7229957772 -0.2979838582 0.7233303493 -0.2976602926 0.0576440104 0.0212184311
215298710.0 0.0568891284 0.0198032716 0.7203656771 -0.3073667925 0.7202854701 -0.3072924963 0.0577371845 0.0196752048
220298680.0 0.0575215004 0.017909285 0.716670807 -0.3153981456 0.7173561437 -0.3154806936 0.0576820863 0.0177652469
225298650.0 0.0577924986 0.0168836116 0.7141075409 -0.3245238041 0.7141695441 -0.3245715766 0.0574624418 0.0162397776
230298620.0 0.0581879867 0.0157302513 0.7113965824 -0.3328534852 0.7111994239 -0.3331461353 0.0576599953 0.0146777485
235298590.0 0.0579519397 0.0147473526 0.7067670527 -0.3415217511 0.7072374358 -0.340784354 0.0578317343 0.0137471957
240298560.0 0.0582440421 0.0133769236 0.7040129379 -0.3496299324 0.7034670255 -0.3499794658 0.0581837386 0.0129727895
245298530.0 0.057985371 0.0122668984 0.7004131588 -0.3579098 0.7000374745 -0.3580962056 0.0587625354 0.0107571874
250298500.0 0.0585009262 0.0106345791 0.6953308255 -0.3665177401 0.6953880657 -0.3658839568 0.0580484572 0.0103608038
255298470.0 0.0585604024 0.0090426534 0.6915153441 -0.3741409838 0.6921196373 -0.3736602412 0.058574614 0.0091259162
260298440.0 0.0581227566 0.0083136232 0.6882067464 -0.3830989573 0.6883140935 -0.3822016147 0.0588607482 0.0077070159
265298410.0 0.0591387977 0.0076478717 0.6839824693 -0.3908278974 0.6844758981 -0.3902379776 0.0584282747 0.0069995057
270298380.0 0.0583891058 0.0062519555 0.6802176871 -0.39813501 0.6797614413 -0.3981376179 0.0582675837 0.0059405993
275298350.0 0.05884162 0.005084746 0.6758596415 -0.4067383417 0.6761265002 -0.4064631651 0.0588723981 0.0045725319
280298320.0 0.0587384618 0.0043796655 0.6713782444 -0.414661565 0.6716944524 -0.4139047755 0.0590738927 0.003669055
285298290.0 0.0585686455 0.0030317081 0.6670590627 -0.4218855299 0.6670078411 -0.4221932166 0.0587377495 0.0024569843
290298260.0 0.0590952528 0.0019652914 0.6627303083 -0.4299374107 0.6625387436 -0.4294103398 0.0589469389 0.0020135383
295298230.0 0.0588508962 0.0009902948 0.6579666721 -0.4374165807 0.6580144272 -0.4373026341 0.0596183491 0.0007513905
300298200.0 0.0581980559 0.0001207935 0.653272443 -0.4450591169 0.6533915678 -0.445596064 0.0588152995 -0.0005566849
305298170.0 0.0585118205 -0.0012434998 0.6477301842 -0.453085545 0.648379428 -0.4528671988 0.0595034584 -0.0016887354
310298140.0 0.0583572919 -0.002319906 0.6433698402 -0.4607908234 0.6441918634 -0.4603572859 0.0595496044 -0.0027068725
315298110.0 0.0583121295 -0.0041517286 0.6385671202 -0.4685769247 0.6388610479 -0.4682097265 0.0589124242 -0.0039311538
320298080.0 0.0585411288 -0.0046512105 0.632804118 -0.4758516426 0.633139465 -0.4762373022 0.0585535714 -0.0047849661
325298050.0 0.0576181034 -0.0057477757 0.627378402 -0.4832787677 0.6275158946 -0.4833129451 0.057566543 -0.0061081245
330298020.0 0.0574523169 -0.0071837621 0.6217846981 -0.4906400112 0.6222331931 -0.4908404757 0.0570617517 -0.0073046689
335297990.0 0.056866447 -0.0081320378 0.6164520364 -0.4973692818 0.6160807994 -0.4980167012 0.0564006824 -0.0074670709
340297960.0 0.0562301932 -0.0086114693 0.610378349 -0.5052142455 0.6097645723 -0.50493456 0.0565947373 -0.0086499674
345297930.0 0.055577886 -0.0090734593 0.6042925842 -0.5113925352 0.6046245604 -0.5114824111 0.0561364406 -0.0094115762
350297900.0 0.0552643674 -0.0104072107 0.5976845853 -0.5185652588 0.598080129 -0.5186726149 0.0551985611 -0.0097029514
355297870.0 0.0551110344 -0.0102682537 0.5924666729 -0.5248532365 0.5934517899 -0.5246380906 0.0548980818 -0.0105449491
360297840.0 0.0546335684 -0.0111123544 0.5876076798 -0.5314818437 0.5875878413 -0.531366772 0.0545500622 -0.011108722
365297810.0 0.0540384522 -0.0115168791 0.5811945833 -0.5384299138 0.5818017667 -0.538103691 0.0547897431 -0.0116284426
370297780.0 0.0545652119 -0.0130507678 0.5747507717 -0.5445386106 0.5753996972 -0.5441033156 0.0540325002 -0.012382232
375297750.0 0.0538225136 -0.0136457772 0.5689198759 -0.5507923835 0.5700672085 -0.5508066557 0.0540038092 -0.0129773375
380297720.0 0.0538079765 -0.0141196993 0.563009441 -0.5579480751 0.5634957211 -0.5567062036 0.0535425411 -0.0142353633
385297690.0 0.0530375269 -0.0150771716 0.5568103982 -0.5639863806 0.5567030229 -0.5633349269 0.0533617496 -0.0144762149
390297660.0 0.0529593254 -0.015298002 0.5507501719 -0.5701840165 0.5507833903 -0.5694927201 0.052701976 -0.0155771914
395297630.0 0.0523476685 -0.0159518048 0.5447177999 -0.5762836456 0.5447122451 -0.5758073464 0.0531626582 -0.0160150273
400297600.0 0.0518515629 -0.0166254334 0.537161356 -0.5824470915 0.5379454966 -0.5821505766 0.0523425184 -0.0164313993
405297570.0 0.0513008944 -0.0176255612 0.5313611402 -0.5881929209 0.5314295202 -0.5874905976 0.0517874218 -0.017006539
410297540.0 0.0516113153 -0.018316462 0.5256726848 -0.5940806997 0.525811894 -0.5939398908 0.0515789439 -0.0172312572
415297510.0 0.0512435729 -0.0188448125 0.5182757677 -0.6001402316 0.5188650361 -0.5998541361 0.0513395478 -0.018177703
420297480.0 0.0511781079 -0.0192251536 0.5119367385 -0.6057028545 0.5118066286 -0.6061365242 0.0508423549 -0.0190726203
425297450.0 0.0503009076 -0.020503994 0.505632763 -0.6115128337 0.5055185244 -0.6115756966 0.0499899269 -0.0188064436
430297420.0 0.0499215083 -0.0208512589 0.4984235573 -0.6162689931 0.4984101268 -0.616454893 0.0500179584 -0.0199997996
435297390.0 0.0493257204 -0.0213235968 0.4911499368 -0.6220139894 0.4916078919 -0.6222123464 0.0501572755 -0.0204892335
440297360.0 0.0494495772 -0.0216913219 0.4848093975 -0.6272131054 0.4847494841 -0.6274123006 0.0491177283 -0.0214902848
445297330.0 0.0487071765 -0.0228763192 0.4782175335 -0.6330860566 0.4783670681 -0.632578092 0.0491705256 -0.0219900499
450297300.0 0.0486260836 -0.0229928842 0.4707541365 -0.6384237702 0.4707939493 -0.6383886029 0.0487712447 -0.0228140479
455297270.0 0.0483001473 -0.023379666 0.4635140014 -0.6431233021 0.4639385031 -0.643820419 0.0482827634 -0.022777204
460297240.0 0.0476501965 -0.0240781342 0.4566324151 -0.6485723936 0.4571081342 -0.6490781739 0.0479360466 -0.023396232
465297210.0 0.0475282006 -0.0247212741 0.4498417913 -0.6538145152 0.4499786998 -0.6544483159 0.0478736724 -0.0243142148
470297180.0 0.0469401002 -0.0253297141 0.4418367615 -0.6581659238 0.4424761721 -0.6590669936 0.0473708759 -0.0244546332
475297150.0 0.0466927511 -0.0263054812 0.4351493894 -0.6625720399 0.4357209275 -0.6627144875 0.0472447447 -0.0254457437
480297120.0 0.0459509657 -0.0259046456 0.4276783503 -0.6685642671 0.4278816589 -0.6686770984 0.0469073245 -0.0254522017
485297090.0 0.0454871658 -0.0265486064 0.4206619603 -0.672335337 0.4205094522 -0.6730326051 0.0465410207 -0.0264439177
490297060.0 0.0449017389 -0.027436084 0.4134776443 -0.6780558861 0.4134962987 -0.6773001365 0.0460641599 -0.0263263019
495297030.0 0.0445971713 -0.0278380897 0.4050864826 -0.6821550107 0.4062085777 -0.6822614195 0.0453439955 -0.0272985457
500297000.0 0.0443318211 -0.028367089 0.3982058131 -0.6858577757 0.3975676936 -0.685681772 0.0448558353 -0.0270177485
505296970.0 0.044067956 -0.0292907815 0.3905373616 -0.6909210052 0.3904036201 -0.690658593 0.0442552013 -0.0281884712
510296940.0 0.0433720335 -0.0293604528 0.3823985822 -0.6951341324 0.3831942729 -0.6953468041 0.0443395568 -0.0278105405
515296910.0 0.0426687782 -0.0294986194 0.3753957712 -0.6993202473 0.3753978066 -0.6988789134 0.0438429819 -0.0284429476
520296880.0 0.0423742615 -0.0302301668 0.3676579826 -0.7040661339 0.3677521078 -0.7033046366 0.0430980295 -0.0293336328
525296850.0 0.0421597889 -0.0313250693 0.3597230806 -0.7072987592 0.3603415404 -0.7073190062 0.0424722844 -0.0300533375
530296820.0 0.0416462708 -0.0312732042 0.3519619266 -0.7114936684 0.3522125785 -0.7114739387 0.042249294 -0.0302045012
535296790.0 0.0405547407 -0.0314570736 0.3444301356 -0.715014365 0.3445307257 -0.7150545954 0.0419399257 -0.031110923
540296760.0 0.0403069584 -0.0318431814 0.3362119187 -0.7193590535 0.3366343045 -0.7190043829 0.04072437 -0.030506522
545296730.0 0.0397690601 -0.0321850505 0.3280055983 -0.7225443329 0.3284507894 -0.72246916 0.0403784021 -0.0316267597
550296700.0 0.0398174114 -0.0326545847 0.3204732028 -0.7260967752 0.3202939817 -0.7265786517 0.0397033901 -0.0318056818
555296670.0 0.0387292637 -0.0332113946 0.3133038746 -0.7295118138 0.3130299796 -0.7294265776 0.0394303713 -0.0322733381
560296640.0 0.0387314368 -0.033153575 0.3050732434 -0.7327909671 0.3048542209 -0.7330336708 0.0391587385 -0.0330315458
565296610.0 0.0377209872 -0.0338303276 0.2962427742 -0.7366449167 0.2966536235 -0.7362236639 0.0382063504 -0.0336787881
570296580.0 0.0372928989 -0.0341985062 0.2884411192 -0.7402540479 0.2876396032 -0.7392909532 0.0379071965 -0.0328440462
575296550.0 0.0364730484 -0.0343324045 0.2804556194 -0.7427339764 0.2807683003 -0.7429580007 0.0379511397 -0.0338261984
580296520.0 0.0362339658 -0.0347880024 0.272325225 -0.7460343683 0.2725447071 -0.7459610538 0.0371967439 -0.0343970989
585296490.0 0.0354243535 -0.0357789179 0.2642083823 -0.7484865043 0.2642699964 -0.7487086595 0.0366611824 -0.0342702
590296460.0 0.0355562111 -0.0354576788 0.2565469164 -0.7508785746 0.2555670482 -0.7514269684 0.0348351668 -0.034738899
595296430.0 0.0351329928 -0.035497097 0.2471895717 -0.7544792606 0.2473505193 -0.7540701047 0.0355176901 -0.0353822577
600296400.0 0.0338023147 -0.0363712008 0.2390547442 -0.7571726029 0.2397999947 -0.7566059669 0.0347969802 -0.0354789245
605296370.0 0.0334382032 -0.0364985915 0.2312450077 -0.7595545992 0.2312929676 -0.7593419358 0.0343416289 -0.0358699605
610296340.0 0.0331402152 -0.0367278813 0.2227155181 -0.7614695673 0.2228545728 -0.7618442255 0.034270221 -0.0362900261
615296310.0 0.0326780194 -0.0374120967 0.2140500122 -0.7639557038 0.2140879698 -0.7643949632 0.0334570474 -0.0362232038
620296280.0 0.0321925627 -0.037749336 0.2064398766 -0.7665184242 0.205985494 -0.7660019031 0.0324715942 -0.0366035327
625296250.0 0.0312152729 -0.038578927 0.1984256732 -0.7693333741 0.1981343756 -0.7693656784 0.032748866 -0.0367046712
630296220.0 0.0317560536 -0.0381118301 0.1891390877 -0.7706377136 0.1889939786 -0.7704373323 0.0317345762 -0.0368764424
635296190.0 0.0296800174 -0.038759232 0.1810208482 -0.7727716111 0.181010756 -0.7728276017 0.0315525698 -0.0369570163
640296160.0 0.0296178066 -0.0386512637 0.1726437049 -0.7743994793 0.1731061639 -0.7746945853 0.0308086458 -0.0373442006
645296130.0 0.0292786808 -0.0387814734 0.1636668368 -0.776077896 0.1644912573 -0.7763609736 0.0302743906 -0.0375727633
650296100.0 0.0289432955 -0.0392626158 0.1554438555 -0.7783072945 0.1556128944 -0.7787161087 0.0301420639 -0.0388559716
655296070.0 0.0276452675 -0.039802647 0.1468197949 -0.7809014332 0.147063024 -0.7800046866 0.0292252052 -0.038290183
660296040.0 0.0267370245 -0.0402769607 0.1384263494 -0.7816469655 0.1387485997 -0.7820215624 0.0290344766 -0.0385818673
665296010.0 0.0270939555 -0.0400438886 0.1296366177 -0.7825866202 0.1305961137 -0.7827306589 0.0282244582 -0.0383236145
670295980.0 0.0252669369 -0.0402551986 0.1213633809 -0.7841098167 0.1218782067 -0.7840403166 0.0271776431 -0.0388236625
675295950.0 0.025391982 -0.0400461922 0.113083388 -0.7854606998 0.1135443764 -0.7850100492 0.0264094982 -0.0389322705
680295920.0 0.0241552085 -0.0409489914 0.1035131151 -0.786396404 0.1037974524 -0.7874319515 0.0260098845 -0.0385549154
685295890.0 0.0241640263 -0.0403303429 0.0955017562 -0.7874432239 0.0953537063 -0.7878404334 0.0255406025 -0.0392498499
690295860.0 0.0239209205 -0.0405410047 0.0871266623 -0.7885839996 0.086962809 -0.7890380411 0.024763736 -0.0383501262
695295830.0 0.0233219183 -0.0411497195 0.0789316846 -0.7898890038 0.0781883716 -0.7894250687 0.0242383375 -0.0388893851
700295800.0 0.0228386151 -0.0416151126 0.06996555 -0.7900215121 0.0699660542 -0.7899577373 0.0233301144 -0.0384775871
705295770.0 0.0214952215 -0.0407052349 0.0608214426 -0.7909365866 0.0614373918 -0.7910099449 0.0229313642 -0.0394346531
710295740.0 0.0215577386 -0.0414471553 0.0526777404 -0.7927684396 0.0532659198 -0.7919264099 0.0227295588 -0.0400345135
715295710.0 0.0200488923 -0.0416666832 0.0445899671 -0.7926896658 0.0439863469 -0.7922779454 0.0218762216 -0.0398743225
720295680.0 0.0198758047 -0.0417184436 0.0355844442 -0.7928439996 0.0361765683 -0.792599077 0.0212680986 -0.0392183149
725295650.0 0.0193665191 -0.0416421797 0.0264168351 -0.7930011117 0.0270458654 -0.7931242742 0.020215908 -0.0395608145
730295620.0 0.0189218308 -0.0412585139 0.0185479361 -0.7926067796 0.0184629225 -0.7932385096 0.0196039083 -0.0404003729
735295590.0 0.0180332793 -0.0416027134 0.0097897383 -0.7936840552 0.0093875114 -0.7938753842 0.0193577067 -0.0403711038
740295560.0 0.0169267212 -0.0416225936 0.0011010452 -0.7928009797 0.000661228 -0.7937010711 0.0191013172 -0.040067564
745295530.0 0.0167989684 -0.0414097836 -0.0077044801 -0.793005564 -0.0075943692 -0.7935052247 0.0185250398 -0.040809275
750295500.0 0.0163295087 -0.0418481565 -0.0159919438 -0.7930717578 -0.0161804848 -0.7935968094 0.0173878246 -0.0405980081
755295470.0 0.0158469674 -0.0420265406 -0.0241718394 -0.7928688292 -0.0247903565 -0.7931675113 0.017758185 -0.0408773579
760295440.0 0.0147123224 -0.0414850954 -0.0339765141 -0.7933200022 -0.033512279 -0.7927815188 0.0168168543 -0.040443956
765295410.0 0.0145266448 -0.0420472127 -0.0421071957 -0.7924323146 -0.042339771 -0.7927999048 0.0166922875 -0.0404691324
770295380.0 0.0133291512 -0.0421315707 -0.0513550891 -0.7912130223 -0.0508416961 -0.7915721954 0.0150618585 -0.0409253466
775295350.0 0.0128950662 -0.0426082763 -0.0595759458 -0.7906560368 -0.0588950535 -0.7911117368 0.014177398 -0.0403137093
780295320.0 0.0124545403 -0.0420655365 -0.0674144265 -0.789711946 -0.0670006219 -0.7903635305 0.0141727632 -0.041110653
785295290.0 0.011482668 -0.0427526972 -0.0771067624 -0.7891482219 -0.0768213662 -0.7893549094 0.0141237264 -0.0406175562
790295260.0 0.0119318408 -0.0417337225 -0.0841484461 -0.788937876 -0.08417169 -0.7882472577 0.0129748736 -0.0408061807
795295230.0 0.0110360142 -0.0424239144 -0.0935843327 -0.7877365675 -0.0929233126 -0.7876405682 0.0129443415 -0.0401804722
800295200.0 0.0097178465 -0.0416434961 -0.1027135543 -0.7864989957 -0.1023181337 -0.7865507452 0.0120454268 -0.0408711384
805295170.0 0.0094479413 -0.0420737963 -0.1103685087 -0.7849500969 -0.1110536721 -0.785703067 0.0115794086 -0.0401666304
810295140.0 0.0085673569 -0.0424107772 -0.1191351572 -0.7838007688 -0.1190523532 -0.7841428342 0.0116750661 -0.0403095128
815295110.0 0.0085165653 -0.0428645373 -0.1273834861 -0.7822241011 -0.1275061579 -0.7827531965 0.0100627449 -0.0401888205
820295080.0 0.0070010924 -0.0414558114 -0.1363111456 -0.7811279413 -0.1357657883 -0.7810253074 0.0094215213 -0.0399772945
825295050.0 0.0072689299 -0.0419246111 -0.1441327489 -0.7791502478 -0.1440972089 -0.7796221133 0.009609173 -0.0399167022
830295020.0 0.0065085889 -0.0416726445 -0.1534839055 -0.7776386235 -0.1528472278 -0.7776666586 0.0094454087 -0.0394615639
