!Created with skrf (http://scikit-rf.org).
# Hz S RI R 50.0 
!freq ReS11 ImS11 ReS21 ImS21 ReS12 ImS12 ReS22 ImS22
300000.0 -0.7759496598 -0.097152398 -0.0009005821 0.0016961041 0.0010191614 0.000765781 -0.0451832881 -0.0606850547
5299970.0 -0.7847508624 -0.0055888055 0.0001822776 0.000235493 1.1232e-06 -9.027e-06 -0.0458106794 0.0156659397
10299940.0 -0.7878639396 -0.003432769 -3.9655e-05 -7.38692e-05 -5.83409e-05 2.63567e-05 -0.0399681888 0.0338266406
15299910.0 -0.7935371636 -0.0019371602 9.39927e-05 3.74875e-05 0.0002104815 -0.0001215381 -0.0314590907 0.0482445435
20299880.0 -0.800221634 0.0018700161 4.14104e-05 0.0002400762 0.0001001826 2.35025e-05 -0.0210875621 0.0601405711
25299850.0 -0.8062936392 0.0076806284 0.0001744517 -2.03651e-05 3.3199e-06 0.0001518892 -0.01001073 0.0696949998
30299820.0 -0.8125357219 0.0153418678 -8.97816e-05 -1.03225e-05 0.0001420455 -6.95731e-05 0.0018699066 0.076120014
35299790.0 -0.8174068469 0.0241261107 5.25909e-05 6.51813e-05 -4.85667e-05 -3.37689e-05 0.013167327 0.0812877158
40299760.0 -0.8214081036 0.0339578745 -2.97024e-05 0.0001142148 -6.4068e-05 -0.0001215509 0.0246086826 0.0836814651
45299730.0 -0.8248550911 0.0430238099 -0.0001967116 9.21372e-05 9.93872e-05 0.0001687613 0.035281566 0.0858893114
50299700.0 -0.827389027 0.0530326784 -8.20794e-05 -0.000130416 1.03629e-05 0.0002593179 0.0452306931 0.0851300947
55299670.0 -0.8291328231 0.063305769 -1.49785e-05 -0.0002487216 1.42373e-05 0.0002482185 0.0546439634 0.084112983
60299640.0 -0.8300955624 0.0736968191 -0.00013275 4.85779e-05 -5.34546e-05 1.79642e-05 0.0631588087 0.0822782223
65299610.0 -0.8317410015 0.083339201 5.95579e-05 1.65557e-05 2.03072e-05 -0.0001281232 0.0709705313 0.0800498865
70299580.0 -0.8316404264 0.0935626467 2.13439e-05 0.0001153546 -9.65633e-05 -0.0002122264 0.0776746317 0.0772483376
75299550.0 -0.8319597325 0.1037165074 -1.06365e-05 7.62533e-05 -5.20087e-05 5.85557e-05 0.0840147847 0.0736535631
80299520.0 -0.8320137322 0.1132343826 -2.87701e-05 -7.08357e-05 -1.0492e-05 5.80498e-05 0.0896754783 0.0705814775
85299490.0 -0.8312018429 0.1229453397 0.0002545225 0.0001372587 8.72905e-05 5.07893e-05 0.0944161128 0.066779391
90299460.0 -0.8303016581 0.132337529 -8.33861e-05 2.1176e-06 5.50209e-05 4.50199e-05 0.0989920627 0.0628674632
95299430.0 -0.8293884601 0.1420246153 0.000128309 0.0001815487 7.2289e-06 9.64424e-05 0.1031761856 0.0590960254
100299400.0 -0.828460895 0.151167882 5.38173e-05 1.40474e-05 8.84841e-05 4.60034e-05 0.1071451835 0.0550399137
105299370.0 -0.8267206934 0.160404367 9.71388e-05 9.30964e-05 0.0002138991 6.70025e-05 0.1105813088 0.0510306671
110299340.0 -0.8251036571 0.1700014002 -5.17241e-05 5.73275e-05 -5.28829e-05 2.12412e-05 0.1132688088 0.0470404636
115299310.0 -0.8238664192 0.1786166205 -1.84224e-05 3.79066e-05 0.0002548007 -4.10049e-05 0.116012305 0.043350611
120299280.0 -0.8222075135 0.187294584 5.35852e-05 -1.54927e-05 0.0001841827 7.23633e-05 0.1182007531 0.039911722
125299250.0 -0.8202355549 0.1957534864 -0.0001949467 -8.393e-06 7.04739e-05 -1.81871e-05 0.1201708203 0.0356963574
130299220.0 -0.8190082263 0.2054348364 0.0002459896 5.97923e-05 0.0001797932 7.74167e-05 0.122090543 0.0319093118
135299190.0 -0.8167508257 0.2140705711 0.000111021 0.000142958 0.0001948417 -2.58894e-05 0.1236463699 0.0287641524
140299160.0 -0.8146587986 0.2233666893 -9.73666e-05 -1.8708e-05 -1.2544e-05 6.26962e-05 0.1247963664 0.0251922604
145299130.0 -0.8125918188 0.232358798 -0.0002098988 5.3517e-05 0.0001045492 7.3392e-06 0.1257320984 0.0216674846
150299100.0 -0.809967743 0.2409081416 2.15103e-05 0.0002806983 6.74521e-05 7.91866e-05 0.1269535972 0.0184669036
155299070.0 -0.8077986859 0.2497472589 -1.61815e-05 -0.0001321009 0.0001995974 0.000232109 0.1280541146 0.0153478527
160299040.0 -0.8053474878 0.258205937 6.74753e-05 0.0001568306 1.63647e-05 -0.0001158828 0.1281404785 0.01260756
165299010.0 -0.8028074848 0.2671724897 -2.06865e-05 1.77307e-05 -8.7276e-06 0.0001497872 0.1293350661 0.0092984006
170298980.0 -0.7998491522 0.2753596321 -3.30952e-05 2.0071e-05 -3.45239e-05 4.1552e-05 0.1291975771 0.0060975147
175298950.0 -0.7973301164 0.2845584187 -0.0001923923 0.0001065588 0.0001429092 4.8408e-05 0.1298439983 0.003348685
180298920.0 -0.7944052415 0.2928628594 -0.0002961522 1.4899e-06 0.0001114639 0.0002071746 0.1299169785 0.0006566257
185298890.0 -0.7911367631 0.3009365387 -0.0002112507 8.97124e-05 5.06186e-05 0.0001053121 0.130144754 -0.0023180362
190298860.0 -0.7883449074 0.3096691732 0.0002183318 0.0001575174 3.05259e-05 0.0001603454 0.1304696968 -0.0046686517
195298830.0 -0.7853818886 0.3179153139 3.40523e-05 -9.0061e-06 -1.14938e-05 8.957e-06 0.1302958636 -0.0076409972
200298800.0 -0.7813725199 0.3261506133 0.000158341 -3.54263e-05 1.4064e-06 1.5112e-05 0.1298412977 -0.0104526077
205298770.0 -0.7781577313 0.3340390278 0.0002012888 0.0002709505 0.0002717997 6.8051e-05 0.1297352412 -0.0129828206
210298740.0 -0.7750307237 0.3425202922 -0.000105311 0.0003720003 0.0001133508 0.0002001256 0.1294467556 -0.0153518368
215298710.0 -0.7714672402 0.350254096 -0.0001572379 0.0001731384 0.0003011069 0.0003076647 0.1289103267 -0.0178979184
220298680.0 -0.7676446131 0.3592396335 0.0001105883 0.000353587 6.39527e-05 0.0001685777 0.1285855176 -0.0205728796
225298650.0 -0.7641842793 0.366840458 -6.34431e-05 -3.9827e-06 -8.45697e-05 -0.000165961 0.1280733956 -0.022828765
230298620.0 -0.7598968959 0.3751519916 0.0001383589 0.000110677 0.0001545121 0.0003459804 0.1274935489 -0.025075582
235298590.0 -0.7561579153 0.3827841276 -1.19584e-05 -6.79142e-05 -7.54162e-05 0.0001437693 0.1270702558 -0.0272893776
240298560.0 -0.7527615022 0.3912779448 0.000164309 1.56273e-05 0.000168304 3.04042e-05 0.1266151977 -0.0297651473
245298530.0 -0.7485744133 0.3989844251 -1.87156e-05 3.1465e-05 -2.4184e-06 0.0001424555 0.1259351249 -0.0320873916
250298500.0 -0.7438953404 0.4063967779 9.40225e-05 -1.49536e-05 -0.000121956 0.0001651694 0.1249989074 -0.0341763761
255298470.0 -0.7397451707 0.413935877 2.17739e-05 5.4029e-05 0.0001980683 0.0001836495 0.1247697233 -0.0363973866
260298440.0 -0.7354057333 0.4221280394 0.0005443302 6.14293e-05 5.09689e-05 0.0004335143 0.124161858 -0.0382228241
265298410.0 -0.7314238727 0.429842106 7.76388e-05 0.0001391183 0.0002030919 0.0001966983 0.1237031761 -0.0404490482
270298380.0 -0.7266108501 0.4371592838 1.56366e-05 0.0002381382 -7.47523e-05 0.000448022 0.1227549803 -0.0423909032
275298350.0 -0.7222100764 0.4447279932 0.0003371218 0.0001915713 6.56465e-05 0.000222788 0.1220431937 -0.0440295302
280298320.0 -0.717170287 0.4524219265 0.0003310557 9.43694e-05 0.0002052191 0.0001190328 0.1213786953 -0.0461780969
285298290.0 -0.7131507841 0.4603393624 0.0002713916 6.06673e-05 0.000196669 -3.94397e-05 0.1209552217 -0.0479645601
290298260.0 -0.7076054968 0.4677635488 4.67297e-05 0.0002447204 9.74421e-05 0.0001024699 0.1200227051 -0.0500422043
295298230.0 -0.7024842177 0.4745540548 0.0001706043 4.37012e-05 5.2064e-05 4.66912e-05 0.1196743753 -0.0521445576
300298200.0 -0.6975025774 0.481834924 0.0004462515 -0.0001321743 0.0002397078 0.0001274391 0.1185746128 -0.0535934244
305298170.0 -0.6926448696 0.4884945376 0.0001946971 0.0002811563 0.0002375995 0.0002803537 0.1179430189 -0.0558766139
310298140.0 -0.6874220163 0.4961713018 1.93471e-05 0.000180832 2.48325e-05 -0.0001089907 0.116597519 -0.057816273
315298110.0 -0.6824745745 0.5030470383 0.0002591583 0.0001025311 0.000160816 5.60535e-05 0.1155685879 -0.0591813637
320298080.0 -0.6773637791 0.5101561466 0.0001893949 0.0001822621 0.0001112133 7.62901e-05 0.1151768694 -0.0611241537
325298050.0 -0.671993211 0.517265377 0.0001051901 -2.51618e-05 9.17321e-05 2.05899e-05 0.1134763346 -0.063202584
330298020.0 -0.6663952609 0.5243495405 -4.02681e-05 1.77901e-05 0.000417903 9.93356e-05 0.1122279131 -0.0641680313
335297990.0 -0.6607345545 0.5305016467 2.24591e-05 -0.0001454441 0.0001508484 -5.7698e-05 0.1110197254 -0.0651429119
340297960.0 -0.655979529 0.5381673542 0.000158946 0.0002763864 0.0001774307 0.0001550885 0.1105662275 -0.0670406463
345297930.0 -0.6501139779 0.5440303973 7.91567e-05 3.42802e-05 -2.6512e-06 7.29859e-05 0.1087525251 -0.0686425915
350297900.0 -0.6441241167 0.55134521 0.0001766417 0.0003049545 0.0002773202 0.0003273338 0.1074701795 -0.0693471774
355297870.0 -0.6380550831 0.5578109526 -3.6634e-06 6.23277e-05 8.56081e-05 -1.70038e-05 0.1062880092 -0.0709176574
360297840.0 -0.6321654957 0.5636637413 0.0002068344 0.0001552113 0.0002836438 -6.37628e-05 0.1053932372 -0.0724123977
365297810.0 -0.6269498713 0.5700733846 0.0002256555 0.000142335 0.0001133 0.0002737424 0.1043111971 -0.0737170939
370297780.0 -0.6208545797 0.5766673692 0.000253286 -3.84434e-05 -4.16069e-05 5.34554e-05 0.1030769647 -0.074538716
375297750.0 -0.6144597873 0.5834806477 -7.086e-06 7.20149e-05 0.0002735998 0.0002640001 0.101489688 -0.0758191675
380297720.0 -0.6084983869 0.58897482 0.0003864359 0.000257729 0.0001499616 0.0001318666 0.1002301811 -0.0771191167
385297690.0 -0.60329382 0.595024374 0.0002969482 0.0003229711 0.0002521226 -0.0002460411 0.0992016154 -0.0784466831
390297660.0 -0.5966798101 0.6012146676 0.000247944 -6.48146e-05 0.0002296986 1.52481e-05 0.0977840952 -0.0796995722
395297630.0 -0.5904985786 0.6079826898 0.00036058 -1.1847e-05 0.0003260538 0.0001457994 0.0967973564 -0.0805070904
400297600.0 -0.5838884167 0.613682677 0.0001512626 6.97908e-05 9.93556e-05 0.0002319466 0.0957157503 -0.0819272868
405297570.0 -0.5779511481 0.6194730201 0.0002327812 0.0001593932 0.0001665716 1.08215e-05 0.09416073 -0.0831784806
410297540.0 -0.570835068 0.6254260854 -9.87307e-05 0.0002686766 0.0001698273 7.81595e-05 0.0929539813 -0.0841143087
415297510.0 -0.5639852686 0.6312910498 0.0001406209 -6.75676e-05 0.0002568438 9.46803e-05 0.0916784431 -0.0851838013
420297480.0 -0.5592523884 0.6375030467 4.85264e-05 0.0001464767 3.21248e-05 0.0001895298 0.0904497828 -0.0862076714
425297450.0 -0.5517654782 0.6425047593 0.0002160837 0.0001888091 0.0001324752 0.0002033748 0.0893358818 -0.0874109017
430297420.0 -0.5453733933 0.6482188303 0.0002138956 0.0002839972 2.14857e-05 0.0003270657 0.0875599006 -0.0885888229
435297390.0 -0.5385179381 0.6530807858 0.0002617769 0.0001408989 0.0002416868 0.0001712234 0.0865933413 -0.0898983987
440297360.0 -0.5316535011 0.6593665043 0.0002868711 0.0002175441 0.0002111379 0.0001980653 0.0850123823 -0.0905588295
445297330.0 -0.5248573496 0.6645303631 0.0003917862 3.79092e-05 0.000258043 8.7644e-05 0.0840087265 -0.0920845135
450297300.0 -0.5181202539 0.6695047193 0.000211808 8.97589e-05 7.20327e-05 0.0004072856 0.0824669764 -0.0926559091
455297270.0 -0.5112288701 0.6747011553 0.0001577962 0.0001497629 0.0002242782 8.6507e-05 0.0813295251 -0.0935817635
460297240.0 -0.5046616483 0.6794797753 0.0001298082 -1.91597e-05 0.0001433754 7.37359e-05 0.0800643574 -0.0941633733
465297210.0 -0.4974220337 0.6855058474 0.0001295205 0.000174571 6.57453e-05 0.0002958179 0.0790476322 -0.0955074902
470297180.0 -0.490087649 0.6898842036 5.05143e-05 0.0001026681 0.0002612733 0.0001931268 0.0776849573 -0.0962084574
475297150.0 -0.4835622395 0.6943813425 3.82863e-05 0.0002590167 0.0002794133 0.0001639752 0.07646817 -0.097263666
480297120.0 -0.4759603403 0.6995430878 0.0001403595 9.44092e-05 9.95896e-05 -2.88679e-05 0.0754003069 -0.0979094452
485297090.0 -0.4684298828 0.7039957584 0.0001817424 0.0002393385 0.0001618449 -9.23265e-05 0.0739331846 -0.0987445896
490297060.0 -0.461806519 0.7086134613 4.95942e-05 2.33549e-05 0.0003025419 0.0001063808 0.0724283063 -0.0995990966
495297030.0 -0.4548356527 0.7132247652 9.31896e-05 4.3872e-05 9.80787e-05 -2.9191e-05 0.0708737192 -0.1001190076
500297000.0 -0.4473612033 0.7178381637 0.0004214251 -4.5691e-06 0.0001560269 -6.63654e-05 0.0699812289 -0.1008856219
505296970.0 -0.4396975618 0.7223308778 0.000309983 6.54955e-05 0.0001632554 7.65288e-05 0.068068606 -0.1013669813
510296940.0 -0.4330535843 0.7267332219 0.0003265369 2.79451e-05 0.0002019738 -2.33857e-05 0.0666358418 -0.1020694491
515296910.0 -0.4249583059 0.7301356658 0.0001673588 4.2136e-06 0.0004998224 2.66119e-05 0.0659291624 -0.102695912
520296880.0 -0.4180000989 0.7356161075 0.0002379489 0.000215343 1.05721e-05 -5.34574e-05 0.0643838255 -0.103369439
525296850.0 -0.4100011549 0.739160071 0.0004717721 0.0002113434 0.0004291028 6.05885e-05 0.0627545929 -0.1037691076
530296820.0 -0.4022885892 0.7438642778 0.0001677456 0.000264862 0.0003265454 -8.38506e-05 0.0616359893 -0.1045081485
535296790.0 -0.3955316597 0.7471655373 0.0002397069 0.0003129403 0.0004618185 6.05001e-05 0.059620159 -0.1051832641
540296760.0 -0.3879532369 0.7510092639 0.0004219097 0.0002981682 0.000426922 0.0002487664 0.0584125654 -0.1051151907
545296730.0 -0.3801716971 0.7545960429 0.0003017672 -4.17893e-05 0.000282932 5.96321e-05 0.0570837822 -0.105998292
550296700.0 -0.3733518669 0.7596014524 0.0002265769 0.0002076434 0.0002816723 0.0001470625 0.0555114287 -0.1065548288
555296670.0 -0.3643539699 0.7613806865 0.0001404875 8.8519e-05 8.68552e-05 -6.30471e-05 0.0538696111 -0.1068462442
560296640.0 -0.3574915315 0.7662155416 0.0005409877 0.0002791769 0.0005086294 2.45606e-05 0.0528045449 -0.1074587411
565296610.0 -0.3498094956 0.7693874686 0.0002035956 -5.22471e-05 0.0003041713 -9.53456e-05 0.0509198652 -0.10809266
570296580.0 -0.3422246887 0.7725181379 0.0003733694 9.67771e-05 0.0002649839 5.135e-05 0.0493639759 -0.1083056045
575296550.0 -0.3337244486 0.7769127088 0.0005019147 0.0002172097 0.0003647803 -1.16843e-05 0.0479435192 -0.1087445886
580296520.0 -0.3256620012 0.7793505343 0.0004390754 5.34179e-05 0.0003498225 0.0001453309 0.0464323252 -0.1091225595
585296490.0 -0.3181680625 0.7823136749 0.0004637147 9.5735e-06 0.0001451323 0.0001188757 0.0452512608 -0.1096311752
590296460.0 -0.3103438769 0.7861141152 0.000400691 1.98259e-05 0.0003453514 0.0002175549 0.0433724651 -0.109947002
595296430.0 -0.3026504466 0.7883669183 0.000371605 0.0001091707 0.0002117687 8.32388e-05 0.0417998829 -0.11066614
600296400.0 -0.2952501831 0.7919432925 0.0004219776 -5.2396e-06 0.0002942711 2.05572e-05 0.0406313612 -0.111115903
605296370.0 -0.2872042024 0.7947646164 0.0001898004 0.000215037 0.0004222319 6.18202e-05 0.0391101369 -0.1114926081
610296340.0 -0.2787220799 0.7970482353 0.0001108663 2.83552e-05 0.0004313321 -2.34648e-05 0.0379123338 -0.1113645011
615296310.0 -0.2703204876 0.7999694514 0.0002851427 0.0001505606 0.0005321994 6.7306e-05 0.0366628433 -0.1119589418
620296280.0 -0.2630300965 0.8021826906 0.0003645927 6.3253e-05 0.0002745498 0.000116732 0.0349554379 -0.1121053929
625296250.0 -0.2547200943 0.8054745409 0.0002151938 0.0001573116 0.0003399837 0.0002432765 0.0338265318 -0.1126876764
630296220.0 -0.2457507647 0.8077547393 0.0004057957 0.0001544302 0.0002401234 -6.18562e-05 0.0321325135 -0.1125072504
635296190.0 -0.238655214 0.8102054079 0.0004028127 -1.48738e-05 0.0004348544 1.33528e-05 0.0308354331 -0.1131155024
640296160.0 -0.2306414508 0.8123304719 0.0002854174 9.11344e-05 0.0002631671 -2.68988e-05 0.0291926009 -0.1133117875
645296130.0 -0.2220903062 0.8151325825 0.0003412162 1.47237e-05 0.000347207 9.45564e-05 0.0278415955 -0.1129479769
650296100.0 -0.2143402519 0.8166967837 0.0004487861 4.726e-07 0.0004398818 8.06741e-05 0.0267709328 -0.1135679716
655296070.0 -0.2063190311 0.8189455802 0.0001090402 -3.59343e-05 0.0001858946 0.000133007 0.0255969761 -0.1133357983
660296040.0 -0.1975899741 0.8207228763 0.0003162375 0.0001133133 0.0003362033 0.0001340525 0.0239971962 -0.1135724283
665296010.0 -0.1890203058 0.8226616027 0.000461478 -6.30247e-05 0.0001918542 4.1959e-06 0.0225059704 -0.1134720806
670295980.0 -0.1817867459 0.825026744 0.0004005549 2.22551e-05 0.0005497434 -8.81217e-05 0.0209930775 -0.113778388
675295950.0 -0.1728054572 0.8260056528 0.0001624786 7.58975e-05 0.0002874999 2.14531e-05 0.0193131291 -0.1134875822
680295920.0 -0.1641663585 0.8279098308 0.0002479114 -0.000123431 0.0003014542 -3.97905e-05 0.0182625503 -0.1130220811
685295890.0 -0.1565599819 0.8304850661 0.0004637609 7.1075e-06 0.0004366388 -0.0001118201 0.0167972856 -0.1133479637
690295860.0 -0.1484143915 0.8309647889 0.0004524715 -0.000159615 0.0003316822 3.71946e-05 0.0153372472 -0.1128215124
695295830.0 -0.1405339852 0.8321324725 0.0003036765 0.0001223396 0.0003604318 9.61912e-05 0.0137585001 -0.1127566545
700295800.0 -0.1314469842 0.8342103231 0.0003065836 -0.0001727025 0.0006091301 -4.47168e-05 0.0120097083 -0.1130282048
705295770.0 -0.1241961692 0.8355257007 0.0002894728 8.48969e-05 0.0001768348 -5.84758e-05 0.0110571298 -0.112252725
710295740.0 -0.1154446369 0.8365253104 0.0003825159 -4.37048e-05 0.0003395333 5.82293e-05 0.0091139793 -0.1124023405
715295710.0 -0.107039198 0.8368015958 0.000403185 0.0001014382 0.0003677697 -7.646e-05 0.0077410486 -0.1123904269
720295680.0 -0.0982244443 0.8387649883 0.0003498706 1.8048e-06 0.0005685918 6.82797e-05 0.0064038595 -0.1123729114
725295650.0 -0.0901949882 0.8396500398 0.0002556033 -0.0002480815 0.0005256395 -3.8039e-05 0.0046542874 -0.1117101889
730295620.0 -0.0816715278 0.8404333742 0.0003468691 0.0001270764 0.0003601959 0.0001601488 0.0031379996 -0.1118622984
735295590.0 -0.0739305247 0.8407531632 0.0004050159 -5.68875e-05 0.0005390608 2.42679e-05 0.001570912 -0.1122238795
740295560.0 -0.0656971601 0.8419289621 0.0003884381 -0.0001445938 0.00032024 -0.0003557954 0.0003205407 -0.1112837819
745295530.0 -0.0570174497 0.842707359 0.0005011114 -0.0002449316 0.0004705594 6.97302e-05 -0.0007610098 -0.1115040946
750295500.0 -0.0483303014 0.8423764074 0.0001551879 -6.26291e-05 0.0003377283 -8.0472e-06 -0.0028371018 -0.1110651451
755295470.0 -0.0402643941 0.8429566109 0.0002997604 5.8546e-06 0.0005118553 9.57566e-05 -0.0039078683 -0.1112470701
760295440.0 -0.0321527453 0.8430561887 0.0004028337 -0.0001057799 0.0005550645 -4.3894e-06 -0.0053420484 -0.1109317036
765295410.0 -0.0240095317 0.8437464913 0.0001457793 5.5956e-06 0.0003405249 0.0001592547 -0.0065122378 -0.110394204
770295380.0 -0.0159827809 0.8443534287 7.13125e-05 -2.43817e-05 0.0002290586 -3.47237e-05 -0.0081663615 -0.1103563267
775295350.0 -0.0071413629 0.8442195086 0.0003037945 -0.0001972477 0.0003994322 -0.0001114848 -0.009968553 -0.1098677667
780295320.0 0.0013358691 0.8441485904 5.04731e-05 6.92899e-05 0.0004155472 4.80798e-05 -0.0108102689 -0.1098771716
785295290.0 0.00942729 0.8434767846 0.0001559416 -0.0001439255 0.0001367537 -1.7825e-05 -0.0124736055 -0.1092713424
790295260.0 0.0180923119 0.8439849416 0.0002551005 -6.01766e-05 0.0002842044 -0.0001338498 -0.0132159563 -0.1089250462
795295230.0 0.0258459061 0.8431498167 0.0003104998 -0.0001395544 0.0005027823 -0.0001084949 -0.0147642034 -0.1086038536
800295200.0 0.0343673481 0.8430229965 0.000263673 -0.0002813796 0.0005846167 -0.0003507604 -0.0161602286 -0.1081474753
805295170.0 0.0434326279 0.8431401542 0.0003252752 4.6458e-06 0.0003085847 -0.000279509 -0.0175326353 -0.1074969347
810295140.0 0.0519774788 0.8423179488 0.0004288154 -0.0002058762 0.0003541584 -0.0001824691 -0.0184206327 -0.1075086337
815295110.0 0.0594760507 0.8417957283 0.0003684888 -0.0001621802 0.000474989 -4.19971e-05 -0.0200796544 -0.1070285606
820295080.0 0.067760713 0.8413687426 0.0001736281 -0.0001875273 0.0004196277 -9.0908e-06 -0.0210345865 -0.1064606391
825295050.0 0.0770260575 0.8401866183 0.0002532889 -3.07073e-05 0.0004778477 -0.0001612 -0.022541858 -0.105968882
830295020.0 0.0845780829 0.839630992 0.0001831696 -0.0001934718 0.0002960154 0.0001003757 -0.023685242 -0.1052377214
835294990.0 0.0924778376 0.8389693787 0.0004245447 -0.0002049621 0.0005760804 -2.94597e-05 -0.0249974673 -0.1047467491
840294960.0 0.1002020584 0.8382852834 0.0002953289 -0.0001622792 0.0002150228 -3.35639e-05 -0.0266499 -0.1039601532
845294930.0 0.1087492912 0.8369189468 0.0004169506 -4.95819e-05 0.0004408739 -0.0001329067 -0.0276121497 -0.1036112104
850294900.0 0.1173070825 0.8359465829 0.0005570051 -0.0003571778 0.0004034265 9.93431e-05 -0.0289555315 -0.1026934841
