!Created with skrf (http://scikit-rf.org).
# Hz S RI R 50.0 
!freq ReS11 ImS11 ReS21 ImS21 ReS12 ImS12 ReS22 ImS22
300000.0 -0.3252595372 -0.0767401759 0.3783621596 0.0392990132 0.3740483755 0.0379804627 -0.3202909932 -0.0922222501
5299970.0 -0.3266979667 0.0045858464 0.3782954127 0.0021580554 0.3784102854 0.0023572752 -0.3244119921 0.0052203881
10299940.0 -0.3242558526 0.0134249438 0.3793386983 0.0018518996 0.3795269887 0.0024895727 -0.3217095184 0.0157845588
15299910.0 -0.3215995961 0.0205464279 0.3819551272 0.0021520844 0.381800874 0.0019062807 -0.3185853124 0.0235507581
20299880.0 -0.3187509068 0.0265923265 0.384977527 0.0016743126 0.3848150394 0.0015127383 -0.3150147456 0.0305208713
25299850.0 -0.3157949554 0.0316782239 0.3881287394 9.414e-05 0.3880519944 0.0002545661 -0.3110933534 0.035918384
30299820.0 -0.3128857912 0.0358739211 0.3914763838 -0.0021800014 0.3914436956 -0.0024125165 -0.3072236812 0.0407812647
35299790.0 -0.3100058504 0.0398375542 0.3947963802 -0.005293508 0.3949594252 -0.0053729143 -0.3039444018 0.0449177907
40299760.0 -0.3074134869 0.0435508775 0.3978393372 -0.008809184 0.3981453643 -0.008573797 -0.3005120639 0.0481755069
45299730.0 -0.3045730632 0.0464237062 0.4008991042 -0.0127408677 0.4010240972 -0.0126533439 -0.2970738381 0.0515336291
50299700.0 -0.3025554144 0.0493102138 0.403594119 -0.0171862815 0.403753494 -0.0170920648 -0.2941732131 0.0542582831
55299670.0 -0.3002423531 0.0522920862 0.4055864988 -0.0223802726 0.4056946077 -0.0219985876 -0.2917573828 0.0574918167
60299640.0 -0.2981914169 0.054999178 0.4073989909 -0.0272786532 0.407766372 -0.0265462854 -0.2891233577 0.0590592523
65299610.0 -0.2963926955 0.057554434 0.4093214582 -0.0319156428 0.4091494354 -0.0321521128 -0.2871254856 0.0616571436
70299580.0 -0.2946316186 0.0601416973 0.4106460391 -0.0366948369 0.4107009897 -0.0369619897 -0.2849970937 0.0637620435
75299550.0 -0.2930993373 0.0626941509 0.411309077 -0.0422862877 0.4112870767 -0.042401243 -0.2830211418 0.0657696577
80299520.0 -0.2915462437 0.065029011 0.4124057248 -0.0475759442 0.4125363559 -0.0472760528 -0.2815299393 0.0680535173
85299490.0 -0.2902400457 0.0666416509 0.4125235151 -0.0523631213 0.4131202409 -0.052382016 -0.2801066718 0.0698304062
90299460.0 -0.2889156697 0.0693517136 0.4131644151 -0.057932043 0.4134139827 -0.0578198309 -0.2780253077 0.0719872681
95299430.0 -0.2873573769 0.071351835 0.4134361629 -0.0633065121 0.4135501728 -0.063376272 -0.2767389947 0.0744153245
100299400.0 -0.2861776254 0.0738814452 0.4130852595 -0.0677389639 0.4133881204 -0.0682283129 -0.275100965 0.076354176
105299370.0 -0.2850593516 0.0762773759 0.413360359 -0.0735073477 0.4135840863 -0.073429423 -0.2736785146 0.0783315561
110299340.0 -0.2841515099 0.0787959869 0.4132195108 -0.0788069791 0.4133570876 -0.0785856996 -0.2728800963 0.0805428521
115299310.0 -0.282834644 0.0810308653 0.4130864606 -0.0838519433 0.4131452378 -0.0837103924 -0.2718453229 0.0824423902
120299280.0 -0.2818403962 0.0829979959 0.4123522109 -0.0885797482 0.4126651394 -0.0888715576 -0.2702741381 0.0848392033
125299250.0 -0.2813691088 0.0854341005 0.4119320747 -0.0941166641 0.4119546726 -0.0938517184 -0.269809843 0.0866102332
130299220.0 -0.2803936022 0.0879310044 0.4110325716 -0.0990610066 0.4111800204 -0.0989879979 -0.2686500923 0.088709198
135299190.0 -0.2791924057 0.0903879601 0.4106635833 -0.1038711178 0.4103959368 -0.1037899918 -0.2671152323 0.0910717107
140299160.0 -0.2786464457 0.0930813569 0.4097701184 -0.1094407247 0.4099138065 -0.1090992435 -0.2663717222 0.0938236517
145299130.0 -0.2773181444 0.0956766968 0.4089400767 -0.1140451207 0.4086288855 -0.1141304825 -0.2655737851 0.0961604214
150299100.0 -0.2762970693 0.0982296728 0.4075202245 -0.1187548466 0.4077661148 -0.1186397482 -0.2647126385 0.0984848
155299070.0 -0.2756970157 0.1007586357 0.4067963991 -0.1238241561 0.4066876701 -0.1237946149 -0.2635375763 0.100666937
160299040.0 -0.2746464285 0.1036175547 0.4051894116 -0.128749454 0.405551967 -0.128603543 -0.263197941 0.1033747358
165299010.0 -0.2737487307 0.1058806747 0.4041396391 -0.1338637945 0.4047860824 -0.1336374701 -0.2614504596 0.1060320502
170298980.0 -0.2730863429 0.1085384261 0.4029662728 -0.1384741699 0.403040266 -0.1384326464 -0.2606941532 0.108232825
175298950.0 -0.2718183195 0.111531439 0.4020125311 -0.1432180611 0.4012355915 -0.1432598278 -0.2597906213 0.110854126
180298920.0 -0.2709355515 0.1142051437 0.4000491528 -0.1479656594 0.3999998315 -0.1476479931 -0.2587016039 0.1134944473
185298890.0 -0.2695638364 0.1163902427 0.3984078268 -0.15262623 0.3982709652 -0.1524128918 -0.257535189 0.1159572607
190298860.0 -0.2689165827 0.119494656 0.3972391131 -0.1574847101 0.3971157645 -0.157257319 -0.2567575578 0.1183210052
195298830.0 -0.2675469568 0.1215103492 0.3951386169 -0.1619093925 0.3952532499 -0.1619192918 -0.2555792669 0.1206204298
200298800.0 -0.2665054165 0.1242770671 0.3933852017 -0.1665022739 0.3937131904 -0.1668247334 -0.2547578711 0.1231120474
205298770.0 -0.2653286246 0.1274537344 0.3913801437 -0.1715077199 0.3915192063 -0.1714865172 -0.2531206719 0.1256773254
210298740.0 -0.2642465289 0.1300436503 0.3895780804 -0.175461044 0.3897333785 -0.1753235295 -0.2518877195 0.1282802196
215298710.0 -0.2635486624 0.1326641311 0.3880770982 -0.180046435 0.3876199587 -0.1802850341 -0.2510264444 0.1307564496
220298680.0 -0.2620269283 0.1350880117 0.3856960885 -0.1845096264 0.385823708 -0.1846540199 -0.2503713416 0.1334956002
225298650.0 -0.2610585784 0.1378774777 0.3838714032 -0.189081123 0.3842554192 -0.1889932679 -0.2489364477 0.1358956894
230298620.0 -0.2596697931 0.1408070307 0.3820192726 -0.1933220302 0.3824030735 -0.1935425106 -0.247743564 0.1381224624
235298590.0 -0.2581817945 0.1437250334 0.380121939 -0.1978861542 0.3800853094 -0.1974905868 -0.246500636 0.141051417
240298560.0 -0.2568654371 0.1461581728 0.3776315349 -0.2020912887 0.3779421355 -0.2023153029 -0.2451083215 0.1439257374
245298530.0 -0.2558581079 0.149052036 0.3759767509 -0.2067566318 0.3756712253 -0.2064593821 -0.2438327543 0.1456466921
250298500.0 -0.2540992299 0.1518377282 0.3730007296 -0.2111967802 0.3725234295 -0.2107323089 -0.2424230504 0.1486073776
255298470.0 -0.2529315477 0.1539209418 0.3705187913 -0.2147042927 0.3708606198 -0.214789855 -0.2411237378 0.150901691
260298440.0 -0.2517217064 0.1568200012 0.3681474958 -0.2193344892 0.3686145524 -0.2190017435 -0.2396774435 0.1537934102
265298410.0 -0.2500062709 0.1599333783 0.3659003144 -0.2235828778 0.3663448689 -0.2233474347 -0.2381608174 0.1563424866
270298380.0 -0.2485472973 0.1624596844 0.3637257359 -0.2273610909 0.3639252954 -0.2274600966 -0.2368120063 0.1587724069
275298350.0 -0.2471027962 0.1651311276 0.3607921906 -0.2318365926 0.3613136016 -0.2313745487 -0.2349263083 0.1611924841
280298320.0 -0.2451810692 0.1679103635 0.3587535421 -0.2356063415 0.3587075401 -0.235456125 -0.2335926128 0.1635734035
285298290.0 -0.2438005832 0.1706172801 0.3562470218 -0.2395412409 0.3559299991 -0.2398042652 -0.2318544889 0.1663388341
290298260.0 -0.2418116532 0.1732034962 0.3534695957 -0.2437328522 0.3534513642 -0.243679647 -0.2302467441 0.1687301211
295298230.0 -0.2398646381 0.1755583108 0.3505777887 -0.247906262 0.3509352283 -0.247640018 -0.2280823463 0.1708933029
300298200.0 -0.2388046541 0.1785522168 0.3482554982 -0.2518170442 0.34812484 -0.2521993817 -0.2265709237 0.1736712711
305298170.0 -0.2365913388 0.1807688718 0.3448652792 -0.2560155128 0.344969514 -0.2556121372 -0.2246591529 0.1759601829
310298140.0 -0.2350297915 0.183557744 0.3428791549 -0.2596688254 0.3424209132 -0.2593318003 -0.2234652569 0.1783486912
315298110.0 -0.2331875758 0.1859387125 0.3394587392 -0.2632903924 0.3393171802 -0.263261845 -0.22173349 0.1806436992
320298080.0 -0.2313294996 0.1882086623 0.3363524802 -0.2675262761 0.3366215046 -0.2674178011 -0.219673252 0.1833659432
325298050.0 -0.2295134871 0.1908930287 0.333542852 -0.2714037412 0.3335625763 -0.2713218493 -0.218275538 0.1854488548
330298020.0 -0.2277229385 0.1931023619 0.3303096188 -0.2749109218 0.3306874107 -0.2748246698 -0.2162289632 0.1882811604
335297990.0 -0.2256016615 0.1954693696 0.3271436002 -0.2782816041 0.3272242996 -0.2787601771 -0.2151957367 0.1908296196
340297960.0 -0.2242397296 0.1983995892 0.3239010939 -0.2822745006 0.323733863 -0.2826000522 -0.2125009783 0.1931920862
345297930.0 -0.2222203618 0.2010313152 0.320859861 -0.2860137246 0.320719826 -0.2859717446 -0.2108568089 0.1953072308
350297900.0 -0.2202308538 0.2031958646 0.3170118581 -0.2895667351 0.3173408177 -0.2891440812 -0.2091497152 0.1981097311
355297870.0 -0.2179351126 0.2060689768 0.3142514302 -0.2928295689 0.3146745761 -0.2927557173 -0.2070653716 0.1998132964
360297840.0 -0.2159109116 0.2082499972 0.3112979048 -0.2961313058 0.3115530877 -0.2961112529 -0.2055377027 0.2026994612
365297810.0 -0.2143429034 0.2109882556 0.3078849287 -0.2999763861 0.3077065421 -0.2995953114 -0.2026634519 0.2045673537
370297780.0 -0.211964593 0.2131065758 0.3042789127 -0.3028138258 0.3046220824 -0.3028159247 -0.2011411235 0.2075360488
375297750.0 -0.209614084 0.2157130085 0.301199073 -0.306294164 0.3012496554 -0.3064794078 -0.1989972516 0.2095020393
380297720.0 -0.207441382 0.2180235102 0.2974700246 -0.3100839368 0.2977577966 -0.3095173367 -0.1972925588 0.211611828
385297690.0 -0.2056262902 0.2204618788 0.2941104347 -0.3128969374 0.2942744315 -0.3129243718 -0.1949463642 0.2140350418
390297660.0 -0.2031702605 0.2227179136 0.2908670842 -0.3162209424 0.2908996413 -0.3157363458 -0.193003767 0.2162622452
395297630.0 -0.2007814506 0.2249667311 0.2873123611 -0.3193100818 0.287099828 -0.3192692091 -0.1901586456 0.218506826
400297600.0 -0.1984924993 0.2274273719 0.2835065773 -0.3225163043 0.2836781031 -0.3223710641 -0.1882093022 0.2206318283
405297570.0 -0.1964460141 0.229535511 0.2801157691 -0.3252926433 0.280251904 -0.3253766924 -0.1861218708 0.2226614119
410297540.0 -0.1935601125 0.2317266516 0.2763301251 -0.3287117848 0.2769608306 -0.3286218463 -0.1837300288 0.2251448547
415297510.0 -0.1912729622 0.2336591207 0.2726578844 -0.3317654488 0.2730548297 -0.3314692813 -0.1814804555 0.2270793386
420297480.0 -0.1892303857 0.2363193673 0.2688061066 -0.3345126394 0.2694186351 -0.3346815767 -0.1794749304 0.2290163
425297450.0 -0.1867294673 0.2380200073 0.2656852652 -0.3371851575 0.2661027322 -0.3375961403 -0.1769160471 0.2313745428
430297420.0 -0.1839531311 0.240092134 0.2615694212 -0.33993262 0.2615032328 -0.3400753542 -0.1743907962 0.2331390113
435297390.0 -0.1817628725 0.2424561168 0.2577535286 -0.34309342 0.2577548049 -0.3432134717 -0.1717524621 0.2351427533
440297360.0 -0.1794938796 0.2446699734 0.253909835 -0.3458553195 0.2542474106 -0.3460132415 -0.1696013397 0.2368999639
445297330.0 -0.1767672806 0.2463971587 0.2506601866 -0.3487224579 0.2506841151 -0.3482387653 -0.1670278608 0.2385157798
450297300.0 -0.1738315746 0.2483685466 0.2461615229 -0.3512042394 0.2464323658 -0.3513269149 -0.1646895097 0.2405326109
455297270.0 -0.1717955755 0.2503605639 0.2423671688 -0.3539573835 0.2426865403 -0.3539205686 -0.1619676871 0.2426183568
460297240.0 -0.1692705415 0.2524579695 0.2386288432 -0.3564294456 0.2390948353 -0.3565082635 -0.1598587955 0.2447238156
465297210.0 -0.1661219003 0.2545697714 0.2347488685 -0.3590272224 0.2349788796 -0.3593017525 -0.1569124588 0.246378608
470297180.0 -0.1636072096 0.2563672988 0.2304191229 -0.3616662617 0.230709282 -0.3618048704 -0.1542679335 0.2484869134
475297150.0 -0.1610534171 0.2579008574 0.2263178473 -0.3640042553 0.2268635625 -0.3637632577 -0.1515748868 0.2497742584
480297120.0 -0.1583039535 0.2601266665 0.2228472584 -0.3669227824 0.2226461358 -0.3667634849 -0.1490337736 0.2518350334
485297090.0 -0.1555172113 0.2621280464 0.218745948 -0.3690032339 0.2185205934 -0.3688243665 -0.1462391776 0.2530546961
490297060.0 -0.153248154 0.2637618697 0.2153620773 -0.3713722411 0.2145870399 -0.3711403351 -0.1437281613 0.2551471688
495297030.0 -0.1503818263 0.2652856951 0.2101981631 -0.373326865 0.2108654016 -0.3734872773 -0.1411686981 0.2570841964
500297000.0 -0.1473309167 0.2671635724 0.2063119801 -0.3756080101 0.2063635762 -0.375568226 -0.1385820659 0.2590044293
505296970.0 -0.1443500723 0.2687024429 0.2021390392 -0.3778682521 0.202268122 -0.3781505283 -0.1359836061 0.2601011481
510296940.0 -0.1417047625 0.2705023591 0.1978611953 -0.3803409415 0.1981162987 -0.3805914811 -0.1330875561 0.2621240056
515296910.0 -0.1385979919 0.272029906 0.1939640471 -0.3822489929 0.1941542198 -0.3821436288 -0.1302292486 0.2633456406
520296880.0 -0.1362435937 0.2738152795 0.1897238498 -0.3845423573 0.1894787356 -0.3843088145 -0.1274466197 0.2650061141
525296850.0 -0.1331182748 0.2748175342 0.185154392 -0.3862631703 0.185724597 -0.3861450135 -0.1250241517 0.2664484575
530296820.0 -0.1302540343 0.2768195912 0.1810979675 -0.3887426686 0.1810221446 -0.3885616653 -0.1221056445 0.2679852464
535296790.0 -0.1279524466 0.2780834985 0.177372328 -0.3900186868 0.1771623508 -0.3896959107 -0.119540944 0.2691770694
540296760.0 -0.1247546469 0.2798137587 0.1727189106 -0.3923652848 0.1726112524 -0.392375331 -0.1166629699 0.2710333698
545296730.0 -0.1220902649 0.2814291997 0.1685740633 -0.3936861823 0.168630376 -0.3939155914 -0.114036234 0.2720794235
550296700.0 -0.1184802306 0.2825842614 0.1639332597 -0.3958251446 0.1641582312 -0.3958578044 -0.1107020392 0.2738476599
555296670.0 -0.1159798722 0.2838962077 0.160134101 -0.3974580684 0.1599503675 -0.3974462995 -0.1080286758 0.2751609306
560296640.0 -0.1124675915 0.2854708356 0.1553538513 -0.3992196769 0.1555025023 -0.3992369478 -0.1048374271 0.2760346208
565296610.0 -0.1100711827 0.2869654419 0.151170417 -0.4010072297 0.1511973947 -0.4005532972 -0.1025796176 0.2774828943
570296580.0 -0.1071277882 0.2878847873 0.1468981203 -0.4026871618 0.1462456873 -0.4027794235 -0.0993587451 0.279288144
575296550.0 -0.1040316005 0.2894900062 0.1422549303 -0.4042142535 0.1420986358 -0.4043022901 -0.0962030978 0.2802471811
580296520.0 -0.1006242745 0.2905633006 0.1379125842 -0.4055569302 0.1378707345 -0.405663414 -0.0932555207 0.280999889
585296490.0 -0.0978848737 0.2914147232 0.1336755683 -0.4067047988 0.1338911399 -0.4067874448 -0.0907497675 0.2822690703
590296460.0 -0.0944967257 0.2926669331 0.1288163458 -0.4077580963 0.1291167314 -0.4080290118 -0.087754156 0.2833018364
595296430.0 -0.091591353 0.2942245686 0.1243249329 -0.4100350199 0.124535938 -0.4099602146 -0.0847811524 0.2842087813
600296400.0 -0.0887849988 0.2949676934 0.1199816976 -0.4109208834 0.1203296445 -0.4108807575 -0.0818761953 0.2853483733
605296370.0 -0.0855151749 0.296302581 0.1156277722 -0.4122346063 0.1155231939 -0.4122051569 -0.0783757437 0.2864585077
610296340.0 -0.0824501714 0.2971619549 0.1106278504 -0.4130848466 0.1113426462 -0.4133857808 -0.075470693 0.2872344442
615296310.0 -0.0789811788 0.2980035394 0.1063855072 -0.4140389271 0.1063161173 -0.4149234004 -0.0724228762 0.2879674033
620296280.0 -0.0761893683 0.2990151191 0.1020178245 -0.4153402153 0.102157298 -0.415100275 -0.0696344988 0.2891632235
625296250.0 -0.0732379751 0.3000436844 0.097931813 -0.4165751314 0.097476597 -0.4171321593 -0.0662885223 0.2899763197
630296220.0 -0.0693141369 0.3010128846 0.0924789101 -0.4179978729 0.0927972255 -0.4174904998 -0.0632917458 0.2911525007
635296190.0 -0.0668244992 0.3017139338 0.0886611943 -0.4182450173 0.0885103506 -0.4184618065 -0.0604171373 0.291820864
640296160.0 -0.0637473617 0.3028299954 0.0840822311 -0.4194967997 0.084218459 -0.4193818157 -0.0571777583 0.2925052548
645296130.0 -0.0604971948 0.3036142511 0.0792089743 -0.4200218324 0.0796144915 -0.4204188405 -0.0540070307 0.2933978736
650296100.0 -0.0571114739 0.3041797978 0.0745222634 -0.4209080621 0.0745837539 -0.421242186 -0.0508548578 0.2938453624
655296070.0 -0.0538956988 0.3052839022 0.070106183 -0.4217151131 0.0704031639 -0.4218901408 -0.0477286257 0.2946497097
660296040.0 -0.0512886135 0.3054123417 0.0655896134 -0.4223432347 0.0657474562 -0.4225172372 -0.0444405901 0.2954692923
665296010.0 -0.047612927 0.3059225317 0.0608195836 -0.4230742361 0.060935018 -0.4230266454 -0.0415242443 0.296126838
670295980.0 -0.0450217701 0.3069181084 0.056642618 -0.4237702997 0.0562900042 -0.423857237 -0.0385209769 0.2967655527
675295950.0 -0.041089766 0.307394438 0.0520400687 -0.4239561332 0.0521016532 -0.4236901637 -0.0355949098 0.2972578501
680295920.0 -0.0381896702 0.3080693737 0.0471926712 -0.4248549005 0.0468689051 -0.4250254652 -0.0320419911 0.2981280968
685295890.0 -0.0348602638 0.3089206657 0.0423436836 -0.4254673906 0.0426193796 -0.4250321832 -0.0290292127 0.2983788215
690295860.0 -0.0314073922 0.3089474234 0.0380382128 -0.4251206004 0.0379774663 -0.4257821805 -0.025959254 0.2993518746
695295830.0 -0.0284338349 0.3093907419 0.0336366646 -0.4257096996 0.0332839682 -0.4256363561 -0.0228751119 0.2993143978
700295800.0 -0.025210775 0.3096370168 0.0285604067 -0.4260599373 0.0285980112 -0.4260343153 -0.0198855353 0.299795897
705295770.0 -0.0222373411 0.3109355543 0.0241416531 -0.4267035396 0.0245670302 -0.4264540295 -0.0167341328 0.3003667153
710295740.0 -0.01852739 0.3108474373 0.0197159214 -0.4267577377 0.0198561989 -0.426626816 -0.0135226947 0.3001046868
715295710.0 -0.015973642 0.3109142044 0.0152978299 -0.4266632216 0.0149079853 -0.4268635227 -0.010421305 0.3008532075
720295680.0 -0.012443888 0.3114229801 0.0103140928 -0.4269381653 0.0106401331 -0.426839565 -0.0074066421 0.3010858079
725295650.0 -0.0089115015 0.3116622484 0.0057028425 -0.426896136 0.0057524268 -0.4271381663 -0.0043892242 0.3015747143
730295620.0 -0.0057791437 0.3121083042 0.0010872623 -0.4265211665 0.0013258468 -0.4268688624 -0.0016610276 0.3014749327
735295590.0 -0.002689966 0.3118423928 -0.0034464246 -0.4266117596 -0.0037824988 -0.4268615701 0.0018376367 0.3013547792
740295560.0 0.0005199055 0.3124837995 -0.0080485311 -0.4265605217 -0.0079679733 -0.4268430492 0.0052893835 0.3018492405
745295530.0 0.0037679118 0.3124541849 -0.0128648939 -0.4263139041 -0.0130849676 -0.4266590063 0.0087215341 0.3015256563
750295500.0 0.0072162119 0.3124512487 -0.0172794262 -0.4263783609 -0.0174061265 -0.4265605844 0.011456857 0.3017839688
755295470.0 0.0104554006 0.3125328393 -0.0219912044 -0.4261495543 -0.0217999993 -0.426166389 0.0147274675 0.3011873789
760295440.0 0.0137947413 0.3127264373 -0.0266086661 -0.4259358113 -0.026738282 -0.4262346279 0.0176953567 0.3016572867
765295410.0 0.0168753512 0.3127279748 -0.030941167 -0.4258203402 -0.0315073084 -0.425629615 0.0213247163 0.3016722885
770295380.0 0.0201815522 0.3124861291 -0.0360807972 -0.4251276873 -0.0358777281 -0.424887815 0.0242377989 0.3015097995
775295350.0 0.0233788197 0.3121031364 -0.0406318976 -0.4243249173 -0.0400898513 -0.4247111956 0.0269869145 0.3010737017
780295320.0 0.0267369964 0.3121052831 -0.0450463489 -0.4237407626 -0.0447750668 -0.424046469 0.0303369027 0.3008735405
785295290.0 0.0295503425 0.3116785687 -0.0497131691 -0.423302148 -0.0494235972 -0.4236163174 0.0339788749 0.3009058653
790295260.0 0.0334227653 0.3118069844 -0.0538841061 -0.4228339615 -0.0535027658 -0.4226349184 0.0372008612 0.3009647555
795295230.0 0.0367598165 0.3116075632 -0.0587782715 -0.4221687943 -0.05811599 -0.4222613493 0.0404712525 0.3003785459
800295200.0 0.039937378 0.311134137 -0.0639810755 -0.4210840468 -0.0633357615 -0.4214841579 0.0437158167 0.3004483617
805295170.0 0.0431825055 0.3107989008 -0.0678297002 -0.4206626412 -0.0676634155 -0.4209622931 0.0464734367 0.3000252172
810295140.0 0.0462332196 0.3104125727 -0.072090406 -0.4197995878 -0.0724136481 -0.4198141828 0.0500077225 0.2996808794
815295110.0 0.0495386591 0.3102406673 -0.0769006939 -0.4191876614 -0.076659203 -0.419369171 0.0531086261 0.2993099138
820295080.0 0.0527067417 0.3100465558 -0.0812824481 -0.4180626127 -0.0811024421 -0.4182028441 0.0561308989 0.2990518119
825295050.0 0.0561681669 0.3092958596 -0.085397667 -0.4171690819 -0.0856564018 -0.4174497721 0.0595127954 0.2986516379
830295020.0 0.0590689766 0.3089742425 -0.0902898817 -0.4162287818 -0.0905178945 -0.4165110032 0.0634096525 0.2978859814
