!Created with skrf (http://scikit-rf.org).
# Hz S RI R 50.0 
!freq ReS11 ImS11 ReS21 ImS21 ReS12 ImS12 ReS22 ImS22
300000.0 -0.2370147889 -0.1250627365 0.4671191892 0.0813777269 0.4658110035 0.0813354078 -0.2351993951 -0.1281673117
5299970.0 -0.2449021263 0.0053690825 0.473187213 0.005784437 0.4739676599 0.0060171738 -0.2434342026 0.0050327914
10299940.0 -0.2418461786 0.0182033019 0.4759107733 0.0069136977 0.4758274045 0.0070782347 -0.2399534035 0.0181423185
15299910.0 -0.2368529527 0.0283211938 0.4791344235 0.0083921917 0.4797240032 0.0084671282 -0.2360765077 0.0270827352
20299880.0 -0.2316167035 0.036168376 0.4839850213 0.0085385934 0.4844996285 0.0085624141 -0.2309332144 0.0352336358
25299850.0 -0.2256555728 0.0427306662 0.4895406954 0.0078517891 0.4898251243 0.0078473529 -0.2257519437 0.0417912809
30299820.0 -0.2200935663 0.0477102142 0.4952632461 0.0056040904 0.495163277 0.005334226 -0.2206866215 0.0469730206
35299790.0 -0.2143918185 0.0516749162 0.4999796724 0.0025620152 0.5005051804 0.0023550109 -0.2155766171 0.0516536434
40299760.0 -0.2092628052 0.0547222172 0.5054454003 -0.0015473526 0.5058264044 -0.001731316 -0.2104082272 0.054668169
45299730.0 -0.2038700477 0.0570689074 0.5103771359 -0.0062265591 0.5104568627 -0.0062750381 -0.2055168631 0.0575635592
50299700.0 -0.1989194241 0.0589535493 0.514498742 -0.0120454155 0.5146694741 -0.011951293 -0.2010801184 0.0601937423
55299670.0 -0.1950724589 0.0605505178 0.5183590324 -0.0175836587 0.5182840529 -0.0179812063 -0.1973251583 0.0619544163
60299640.0 -0.1907385177 0.0615989977 0.521438912 -0.0240507854 0.5217861421 -0.0239223222 -0.1935045226 0.0631354526
65299610.0 -0.1869656853 0.0627649547 0.525064197 -0.0304758646 0.5248057681 -0.0303992744 -0.190021558 0.0647516221
70299580.0 -0.1838768205 0.0631792272 0.5267352981 -0.0368948495 0.5275102136 -0.0371358759 -0.187020762 0.0660629541
75299550.0 -0.1811083595 0.0637143446 0.5287585739 -0.0440055724 0.5292709118 -0.04380245 -0.1840918261 0.0672726302
80299520.0 -0.1785158401 0.0646147247 0.5307853297 -0.0509436654 0.5311991688 -0.0509472318 -0.1815116976 0.0681514629
85299490.0 -0.1756147967 0.0649450831 0.5320991101 -0.0578203378 0.5327547648 -0.0576341329 -0.1790249851 0.0685013081
90299460.0 -0.1735388904 0.0653380346 0.5331634109 -0.0644836951 0.5329618218 -0.0643068449 -0.1767433255 0.0696575395
95299430.0 -0.1715160744 0.0656998382 0.5339911548 -0.0714041028 0.5345896965 -0.0717618767 -0.1747939003 0.0707977222
100299400.0 -0.1694349034 0.0660603161 0.5343760269 -0.0782086817 0.5349487353 -0.0783985673 -0.1731305478 0.0719221117
105299370.0 -0.1674791077 0.0666868553 0.5348301253 -0.0854919428 0.5351362843 -0.085514751 -0.1707538011 0.0721539709
110299340.0 -0.1660400561 0.0669966413 0.5353389253 -0.0915130767 0.5355328538 -0.0916632053 -0.1697539663 0.0730591604
115299310.0 -0.1645261751 0.0676096148 0.5350100612 -0.0986695142 0.5353308335 -0.0988979475 -0.1682375125 0.0741018327
120299280.0 -0.1632406635 0.0682587531 0.5352750012 -0.1059745638 0.5349996532 -0.1061659603 -0.1666777008 0.0747710831
125299250.0 -0.1619093138 0.068751025 0.5346954999 -0.1126543598 0.5346706415 -0.112260525 -0.1650283603 0.0761470395
130299220.0 -0.1608236279 0.0693476533 0.5344473771 -0.1193586591 0.5341199749 -0.1196578781 -0.1639678551 0.0771869577
135299190.0 -0.1595687067 0.0703532562 0.5335257656 -0.1256058537 0.5337093893 -0.126157428 -0.1628978832 0.0776710497
140299160.0 -0.1585283739 0.0707511978 0.5330202272 -0.1324669769 0.5325156487 -0.1320379289 -0.1625054328 0.0787682982
145299130.0 -0.1578331021 0.071722295 0.5319308489 -0.1391605792 0.5316593562 -0.1389909443 -0.1607449434 0.0800659593
150299100.0 -0.1565233908 0.0725373347 0.5307929188 -0.1457341491 0.530689169 -0.1458545466 -0.1595603971 0.0815035235
155299070.0 -0.1553756585 0.0733923752 0.5289169999 -0.1521047957 0.5297672412 -0.152207877 -0.1587397678 0.0823548758
160299040.0 -0.1546286633 0.074449707 0.5278115223 -0.1588213238 0.5279580877 -0.1588765845 -0.158025542 0.083849428
165299010.0 -0.1538751967 0.0752689478 0.5265625215 -0.1645136326 0.5261371026 -0.1650432783 -0.1565610239 0.0843260079
170298980.0 -0.1532371734 0.0762292289 0.524521053 -0.1713474203 0.5249270188 -0.1716337196 -0.155946808 0.0861007849
175298950.0 -0.1522022573 0.0773840008 0.5232944091 -0.1776224359 0.5238059835 -0.178316739 -0.1545558047 0.0875850176
180298920.0 -0.151542502 0.0785540509 0.5215603308 -0.1844726357 0.5218903495 -0.1845076976 -0.1539991095 0.0884888477
185298890.0 -0.1505555954 0.0795921348 0.5202091826 -0.1903254062 0.5197458986 -0.1906044952 -0.1528169112 0.0899017857
190298860.0 -0.1496970735 0.0807379491 0.5174151239 -0.1964205083 0.5180827171 -0.1963686053 -0.1522145424 0.0909337109
195298830.0 -0.14907625 0.0820990643 0.5160723664 -0.2022478704 0.5164563069 -0.2027203845 -0.1513913746 0.0926441666
200298800.0 -0.1480039989 0.0827390274 0.5137470901 -0.2091300829 0.5135945847 -0.2089881751 -0.1500466437 0.0932853476
205298770.0 -0.1480456813 0.083837779 0.5113312635 -0.2145024477 0.511701977 -0.2144772639 -0.1489386087 0.0951038733
210298740.0 -0.1470871036 0.0854844442 0.5096086595 -0.2206670316 0.5091203105 -0.2206579002 -0.1484129974 0.096310755
215298710.0 -0.1458789909 0.0866060255 0.5068569331 -0.2263515046 0.5072533327 -0.2270134934 -0.1473014918 0.0978973322
220298680.0 -0.145154282 0.0878208399 0.5040761151 -0.232472201 0.5043410171 -0.2328101262 -0.1462081091 0.0991347927
225298650.0 -0.1447747893 0.0889030377 0.5017731235 -0.2382422649 0.5023047187 -0.2383507969 -0.1452906568 0.1004866232
230298620.0 -0.1436184642 0.0905050011 0.4994201244 -0.2443718928 0.5000489976 -0.2446844217 -0.1444522716 0.1016106831
235298590.0 -0.1432595308 0.0918762482 0.497346445 -0.2502222931 0.4974379795 -0.2502947274 -0.1430378718 0.1034690423
240298560.0 -0.1420573143 0.0931768426 0.4942432781 -0.2554924075 0.4943605183 -0.2555687085 -0.1424397032 0.104430931
245298530.0 -0.1415627603 0.0941386957 0.4912810309 -0.2615264466 0.4917083672 -0.2615316098 -0.1414344138 0.1062290277
250298500.0 -0.1409615035 0.0955184364 0.4891441497 -0.2672221691 0.488975591 -0.2665674087 -0.1404412846 0.1078686086
255298470.0 -0.1399157085 0.0970367873 0.4862058514 -0.2723013102 0.4864515586 -0.2727551963 -0.139102832 0.1093610578
260298440.0 -0.1390106045 0.0980251338 0.4831336462 -0.2780292156 0.483097184 -0.2780152928 -0.1386864361 0.1104549579
265298410.0 -0.1384160538 0.0997955947 0.480027086 -0.2839656736 0.479822462 -0.2842112021 -0.1367569928 0.1118679423
270298380.0 -0.1376104519 0.1008593701 0.476606993 -0.2891685064 0.4769278039 -0.2890354159 -0.1356334096 0.1136321224
275298350.0 -0.1368706653 0.1024608347 0.4735627393 -0.2940972007 0.4735623905 -0.2944313377 -0.1344498067 0.1149907159
280298320.0 -0.1362130336 0.1036020197 0.4706416822 -0.2994091062 0.4708485556 -0.3000259033 -0.1333203805 0.116608377
285298290.0 -0.1351067113 0.1050425963 0.4672120236 -0.3048659694 0.4673606991 -0.3051890752 -0.1321416459 0.1179934232
290298260.0 -0.1341731603 0.1066826701 0.46427954 -0.3102739484 0.4643498318 -0.3107844696 -0.1309196436 0.1195698326
295298230.0 -0.1333521992 0.1072805882 0.4609138073 -0.315927243 0.4607965483 -0.3163306041 -0.1300076144 0.120767775
300298200.0 -0.1321108917 0.1091884241 0.4571343995 -0.3207137043 0.4578607015 -0.3208932726 -0.1287234292 0.1222823095
305298170.0 -0.1313702196 0.1100052677 0.4538698479 -0.3265033977 0.4544757882 -0.326454849 -0.12726611 0.123144407
310298140.0 -0.130117071 0.1112896685 0.4502317039 -0.3314388663 0.4508092046 -0.3311268032 -0.1260429104 0.1244884377
315298110.0 -0.1294632247 0.1125327238 0.4469725513 -0.3369536945 0.4470498706 -0.3369514709 -0.1246088549 0.1260245899
320298080.0 -0.128487063 0.1135382075 0.4421094835 -0.3419146406 0.4433744806 -0.3422501405 -0.1235121252 0.1271275804
325298050.0 -0.1282026675 0.1145891865 0.4389362683 -0.3464675137 0.4395225379 -0.347036096 -0.1221277624 0.1285589652
330298020.0 -0.1273809448 0.1160337948 0.4348397547 -0.3520729331 0.4356340506 -0.351577641 -0.1212797609 0.1294843244
335297990.0 -0.1266687997 0.1170951255 0.4310587758 -0.3567128779 0.4315365048 -0.3567201441 -0.1200935823 0.1310906173
340297960.0 -0.1257206489 0.118490848 0.4267035534 -0.3613966686 0.4271073136 -0.3615062039 -0.1186688465 0.132891471
345297930.0 -0.1250425827 0.1199425963 0.4230155863 -0.3664534152 0.4229241767 -0.3667307664 -0.1171794064 0.1342127099
350297900.0 -0.1242311872 0.1211406478 0.4190496297 -0.3703888883 0.4194259693 -0.3705976075 -0.1162062588 0.1349246153
355297870.0 -0.1229529373 0.1226376339 0.414916614 -0.3749969698 0.4152443049 -0.3750982276 -0.1145424785 0.1367934751
360297840.0 -0.1219567129 0.1239288445 0.4105820755 -0.3802288373 0.4107787748 -0.3802698094 -0.1131981337 0.138162581
365297810.0 -0.1213055751 0.1252417225 0.4062378327 -0.3843973635 0.4067340996 -0.3845037039 -0.1122258451 0.1397297281
370297780.0 -0.1199270849 0.1263571507 0.4020363449 -0.3887561592 0.4024656643 -0.3890503392 -0.1105073117 0.1408990689
375297750.0 -0.1189240906 0.127761228 0.398038293 -0.3929055122 0.398428989 -0.3933680159 -0.1090559992 0.1423647095
380297720.0 -0.1180208246 0.1290808836 0.3939332196 -0.3976166442 0.3938499811 -0.3977557231 -0.1073097426 0.1436867404
385297690.0 -0.1169839667 0.1301726155 0.388941256 -0.4015597784 0.3894833684 -0.4021891293 -0.105923891 0.1452536783
390297660.0 -0.1156112956 0.1314186187 0.3846469366 -0.4057342398 0.3847858081 -0.4061624079 -0.1041783892 0.1459873579
395297630.0 -0.1142274152 0.1325541117 0.3801606836 -0.4097161473 0.380274428 -0.4099366184 -0.1028370904 0.1473855229
400297600.0 -0.1134698781 0.1337697746 0.3757968884 -0.4146065536 0.3765729535 -0.4143628328 -0.1011742368 0.1488252914
405297570.0 -0.1122799755 0.1346400983 0.371226291 -0.4185979278 0.3713948186 -0.4185293428 -0.0994177202 0.1503139532
410297540.0 -0.1112367334 0.1360036098 0.3667068993 -0.4225750615 0.3671219594 -0.4225670291 -0.0978365484 0.1514035878
415297510.0 -0.1100457128 0.1372668303 0.3622055106 -0.426530511 0.36273986 -0.4270739836 -0.0963117 0.1524984665
420297480.0 -0.1087144293 0.138336534 0.3571569396 -0.430561206 0.3576793365 -0.4307014846 -0.0943365173 0.1541369786
425297450.0 -0.106939736 0.1391275336 0.3526043195 -0.4341033176 0.3522394043 -0.4346346537 -0.0927521935 0.1548131346
430297420.0 -0.1061740978 0.1406091716 0.3480651776 -0.4381145292 0.348477083 -0.4375327611 -0.0909424412 0.1563204266
435297390.0 -0.1047860027 0.1415261742 0.3432233776 -0.4423393177 0.3434037926 -0.4421295917 -0.0897919675 0.1578844196
440297360.0 -0.103443217 0.1427198433 0.338114553 -0.4461161569 0.3382377661 -0.4459150472 -0.0877249573 0.1587659616
445297330.0 -0.101914771 0.1437925934 0.3331380946 -0.4491749668 0.3336917436 -0.4498026182 -0.0860471108 0.1601754346
450297300.0 -0.100529375 0.1446760977 0.3284005122 -0.4529768385 0.3289385224 -0.453324271 -0.0842042628 0.1611309369
455297270.0 -0.0995945076 0.1459052746 0.3233010311 -0.4569170354 0.3235609484 -0.4566172749 -0.0821987578 0.1620591014
460297240.0 -0.0979376753 0.146731794 0.3186833348 -0.4603059031 0.3185590034 -0.4602798239 -0.0805107999 0.1631012091
465297210.0 -0.0966831828 0.1478931101 0.3130610208 -0.4636408805 0.3129258678 -0.4639668203 -0.0784946063 0.1646962625
470297180.0 -0.0948432891 0.1488878435 0.3077315394 -0.4668503744 0.3088166846 -0.4671766828 -0.0767101558 0.1650696828
475297150.0 -0.0939018316 0.1500027038 0.3031009343 -0.4702722009 0.303132951 -0.4706718697 -0.0749623346 0.1662709697
480297120.0 -0.0918487347 0.1512772637 0.2974625214 -0.4740858339 0.2981049045 -0.4736163338 -0.0734509447 0.1670996697
485297090.0 -0.0906313816 0.1517937239 0.2927560177 -0.4768260546 0.2928184424 -0.4768617791 -0.0712924653 0.1683048234
490297060.0 -0.0887589232 0.1530860856 0.2873751082 -0.4804268971 0.2874137526 -0.4799848036 -0.0694001973 0.1687427098
495297030.0 -0.0875019595 0.1537972161 0.2826924268 -0.4831887323 0.2824253107 -0.4831721245 -0.0673929402 0.1696825655
500297000.0 -0.086037343 0.154933493 0.2769208284 -0.485802239 0.2771715907 -0.4862914327 -0.0657215456 0.1711910992
505296970.0 -0.08395849 0.1558162642 0.2719337016 -0.4895951574 0.2721057444 -0.4887792295 -0.0636474185 0.1713327654
510296940.0 -0.0827933469 0.1566836916 0.266543295 -0.4924507973 0.2666806659 -0.492458613 -0.061452555 0.1725883443
515296910.0 -0.0812812114 0.1579425367 0.2608051083 -0.4951234196 0.260627203 -0.4948700414 -0.0596882119 0.1731782182
520296880.0 -0.0796462204 0.1587109265 0.2556707061 -0.4975039774 0.2553890191 -0.4975539403 -0.0573135861 0.174187815
525296850.0 -0.0779551571 0.1594477136 0.2499863261 -0.5003023418 0.249739952 -0.5002353876 -0.0553747692 0.1746762747
530296820.0 -0.0766954987 0.160236353 0.2447535888 -0.5031047028 0.2446846615 -0.5031232283 -0.0537618808 0.1751595192
535296790.0 -0.0744474323 0.161191556 0.2391461091 -0.5053488473 0.2391314826 -0.5058048069 -0.0513845125 0.1767375272
540296760.0 -0.0728995229 0.1621624015 0.2333970081 -0.5082081694 0.2333780143 -0.5083389717 -0.04980985 0.1767100346
545296730.0 -0.0718424386 0.1633103191 0.228306757 -0.5107370601 0.2277187028 -0.5104306638 -0.0473965899 0.1772943057
550296700.0 -0.0692415416 0.1638827489 0.2222228574 -0.5130565441 0.2221936772 -0.5131713892 -0.0454596072 0.1782008898
555296670.0 -0.068010712 0.1647915512 0.2168032846 -0.5154965396 0.2169127255 -0.5153270362 -0.0436106411 0.1782823916
560296640.0 -0.0658946725 0.1655647405 0.2110536295 -0.5176731838 0.2115593511 -0.5179582242 -0.041840413 0.1797331616
565296610.0 -0.064864555 0.1662376101 0.2059989336 -0.5198504013 0.2059111446 -0.5196897934 -0.0395834942 0.1800746099
570296580.0 -0.0628224184 0.1674556549 0.1996235482 -0.5221262706 0.1996965853 -0.5222475186 -0.037632814 0.1804548089
575296550.0 -0.061071259 0.1678453913 0.1942879419 -0.524435406 0.1942329965 -0.5243671817 -0.0355109938 0.1812773278
580296520.0 -0.0593376846 0.1688681301 0.1888697437 -0.5261197574 0.1884084346 -0.5266837418 -0.0337289525 0.1815165322
585296490.0 -0.0577043729 0.169559242 0.1828569381 -0.5285115154 0.1824389448 -0.5285110775 -0.0311022143 0.1821998792
590296460.0 -0.0553470482 0.170481241 0.1770888703 -0.5302792078 0.1771685304 -0.530271488 -0.0295137464 0.1827987703
595296430.0 -0.0539241546 0.1710556931 0.1706236307 -0.5319122089 0.1706489789 -0.5323918217 -0.0273592121 0.1829457329
600296400.0 -0.0520102497 0.1716903807 0.1649984182 -0.5332563911 0.1651389124 -0.5337996669 -0.0251679223 0.1830639854
605296370.0 -0.050668453 0.172906562 0.1600539857 -0.5354042064 0.1592491228 -0.5357424213 -0.0232340911 0.1838880687
610296340.0 -0.048466926 0.1736392619 0.1540239061 -0.5367498727 0.1540133914 -0.5372347186 -0.0213834792 0.1844044378
615296310.0 -0.0467056648 0.173834609 0.147953672 -0.5390905767 0.1474305444 -0.5390323423 -0.0188615117 0.1847288186
620296280.0 -0.0454381295 0.1752534111 0.1420412628 -0.540463082 0.1415694562 -0.5404108066 -0.0175317878 0.1853482772
625296250.0 -0.0434980679 0.1755403576 0.1358551763 -0.5417013657 0.1365304889 -0.5421350837 -0.0157030024 0.1850377267
630296220.0 -0.0414784374 0.1764553213 0.1295724348 -0.5431633219 0.1298863169 -0.543159586 -0.012866174 0.1858002048
635296190.0 -0.0401479072 0.1772495943 0.1244136738 -0.5446998623 0.1241170047 -0.5445972889 -0.0109778735 0.185819371
640296160.0 -0.0383571941 0.177955979 0.1184010681 -0.5463400796 0.1183080615 -0.5460403555 -0.0091248462 0.1864828503
645296130.0 -0.0363781624 0.1786869112 0.1125255403 -0.5469627211 0.1124950039 -0.5469612713 -0.0070441854 0.1860542196
650296100.0 -0.034613619 0.1789324711 0.1064178546 -0.5481917416 0.1061993437 -0.5487661078 -0.0043111142 0.1865350206
655296070.0 -0.0330157884 0.1793785303 0.1004174804 -0.5497223388 0.1005147263 -0.5492992319 -0.0030677318 0.1870255041
660296040.0 -0.0310755555 0.1800874874 0.0948337432 -0.5505976891 0.0946401101 -0.5508923414 -0.0008429757 0.1867626977
665296010.0 -0.0295766292 0.1807632771 0.0886653285 -0.5510701752 0.088544977 -0.5513874089 0.0012905839 0.1871658627
670295980.0 -0.0277748134 0.181404003 0.0828203933 -0.5521930505 0.0824210356 -0.5519165407 0.0031495151 0.1871422991
675295950.0 -0.0256925072 0.1816921072 0.0767448977 -0.5530197434 0.0765670019 -0.5532859668 0.0053630487 0.187747308
680295920.0 -0.0242444043 0.1823376778 0.0708851915 -0.5535472937 0.0706114238 -0.5538311496 0.0077514186 0.187183254
685295890.0 -0.0222481656 0.1830845181 0.0645746604 -0.5546317574 0.0644785083 -0.5548854171 0.0096201948 0.1877644662
690295860.0 -0.0206402739 0.1835675853 0.0592149851 -0.5549115309 0.0583771603 -0.5553685263 0.0117300453 0.1873368881
695295830.0 -0.0188386835 0.183755451 0.0533391408 -0.5555534882 0.0525952667 -0.5557550381 0.0137735842 0.1877576463
700295800.0 -0.0170229024 0.1845008143 0.0470693083 -0.5561275623 0.0468182494 -0.5565133391 0.0159842038 0.1876439194
705295770.0 -0.0152824283 0.1845785021 0.0408031726 -0.5565286089 0.0406389236 -0.5567810121 0.017646123 0.1880619695
710295740.0 -0.0136339361 0.1848929579 0.0348423299 -0.5570884397 0.0346187932 -0.5574496381 0.0200185129 0.1877145611
715295710.0 -0.0116094613 0.1857150178 0.0289616972 -0.5576640586 0.0288231078 -0.5574632954 0.0219846923 0.1871749539
720295680.0 -0.0097519037 0.1860703021 0.0227644399 -0.5574426002 0.0226904292 -0.5575331073 0.023995354 0.1871961478
725295650.0 -0.0086219693 0.1866549285 0.0173161979 -0.5576904458 0.0168153113 -0.5579015998 0.0259167416 0.1875996136
730295620.0 -0.0073093411 0.1866037624 0.0112402494 -0.5574283659 0.0109604388 -0.5575800609 0.0278844388 0.1877494897
735295590.0 -0.0046973963 0.1872432305 0.0048820379 -0.5580505224 0.0048613523 -0.5579677219 0.0299764187 0.1869391064
740295560.0 -0.0031414864 0.1871770199 -0.0013479831 -0.557752101 -0.0009224695 -0.5581576563 0.0319358322 0.1872060565
745295530.0 -0.0017564472 0.1877780919 -0.0067583477 -0.5575053435 -0.0064743773 -0.5579209634 0.0338470565 0.186737154
750295500.0 -0.0001884656 0.1883480106 -0.0126557479 -0.5577543706 -0.0134423172 -0.5579056676 0.0360866192 0.1867104933
755295470.0 0.0016106478 0.1881712141 -0.0183278008 -0.5575624391 -0.0188939293 -0.5580962017 0.0379841026 0.1866903774
760295440.0 0.0033258563 0.1887063786 -0.0252513012 -0.5573556034 -0.0249943959 -0.557104706 0.0402177492 0.1855259034
765295410.0 0.0052797965 0.1882809808 -0.0308698176 -0.5564655074 -0.030736416 -0.5570895717 0.0423801847 0.1856784971
770295380.0 0.0068469143 0.1891767202 -0.0363676521 -0.5561310158 -0.0369649455 -0.5567529206 0.0442102211 0.1853689533
775295350.0 0.0086578177 0.1888705583 -0.0426459838 -0.5560814739 -0.0429805159 -0.5558083769 0.0462406303 0.1851230926
780295320.0 0.0105189052 0.1891747457 -0.0485522891 -0.5550029587 -0.048921857 -0.5554428698 0.0485463341 0.1846691371
785295290.0 0.011986021 0.1890768271 -0.0543996213 -0.5546154619 -0.0547496767 -0.555234261 0.050034996 0.1847300827
790295260.0 0.0136972254 0.1889986984 -0.0607625449 -0.5539544658 -0.060376292 -0.554775135 0.0521796143 0.1846422668
795295230.0 0.0156765796 0.189278775 -0.066585249 -0.5536199854 -0.0668631092 -0.5540817348 0.054057326 0.1833558543
800295200.0 0.0171528698 0.1896679871 -0.072108679 -0.5527478219 -0.0725571033 -0.5528940935 0.056155602 0.1831445642
805295170.0 0.0186155678 0.1896610653 -0.0783809974 -0.5521797256 -0.0785295941 -0.5525548096 0.0588793115 0.182588178
810295140.0 0.0207810853 0.1896652319 -0.0841675106 -0.5513385562 -0.0847500656 -0.5513244579 0.0608212116 0.1820056594
815295110.0 0.0223999856 0.1899135195 -0.0903801786 -0.5503614202 -0.0901424209 -0.5505840652 0.0625381955 0.1818711759
820295080.0 0.0244164018 0.1894686944 -0.0955919386 -0.5489455045 -0.0956149844 -0.549426818 0.0636334445 0.1817809883
825295050.0 0.0256768632 0.1893267868 -0.1018374663 -0.5483360267 -0.1022651395 -0.5480935761 0.0668814456 0.1811818862
830295020.0 0.0273302237 0.1891660057 -0.1077923033 -0.5471227982 -0.1081916428 -0.5471936291 0.068374027 0.17995603
