!Created with skrf (http://scikit-rf.org).
# Hz S RI R 50.0 
!freq ReS11 ImS11 ReS21 ImS21 ReS12 ImS12 ReS22 ImS22
300000.0 -0.23137589 -0.1299281716 0.4630098218 0.0851756339 0.4662129185 0.0818501905 -0.2338707763 -0.1272272783
5299970.0 -0.2418671114 0.0052339641 0.4750923433 0.0060508203 0.4752392677 0.0059419073 -0.2441323561 0.0048863393
10299940.0 -0.2385863367 0.0188472772 0.4771535979 0.0067988699 0.4771114081 0.0070341489 -0.2408857631 0.0172447958
15299910.0 -0.2338884254 0.0287007481 0.4808249557 0.0080604498 0.4808491306 0.0079617671 -0.2369771659 0.0265001966
20299880.0 -0.2286347825 0.037070125 0.4853640285 0.0080733477 0.4855828727 0.0086152719 -0.2319201496 0.0337963902
25299850.0 -0.222339344 0.0435913833 0.4904606703 0.0077501726 0.4908739607 0.0073175191 -0.2269455298 0.0400052658
30299820.0 -0.2173909672 0.0487224906 0.4963149748 0.0049909301 0.4959381337 0.0050112735 -0.2216978474 0.044531677
35299790.0 -0.2112936166 0.0531255659 0.5008030539 0.0018591907 0.5014320825 0.0018723637 -0.2168019985 0.0492048095
40299760.0 -0.2062530818 0.0561588442 0.5064246413 -0.0022092081 0.5063114389 -0.0022242397 -0.2118079275 0.0520942814
45299730.0 -0.2009696938 0.0588104115 0.5111190231 -0.0067453001 0.5114862748 -0.00692937 -0.2068623181 0.0547347541
50299700.0 -0.1959980262 0.0608263014 0.5150599569 -0.012717619 0.5152463974 -0.0126099417 -0.2027481238 0.057189767
55299670.0 -0.1920260924 0.0625110015 0.5189056716 -0.0178317413 0.5186225803 -0.0184403132 -0.1990651472 0.0584305763
60299640.0 -0.1878124787 0.064188381 0.5226628821 -0.02457046 0.5220343485 -0.0245289559 -0.1954308967 0.0597231252
65299610.0 -0.1842726413 0.0651240719 0.5255631721 -0.0311260424 0.5253451192 -0.0307224678 -0.1917958245 0.0609243217
70299580.0 -0.1811519148 0.0656715397 0.5279388346 -0.0371697138 0.5275704788 -0.0376088147 -0.1890500973 0.0618958404
75299550.0 -0.1778842883 0.0667652354 0.5294689277 -0.0447244111 0.529666826 -0.0444915929 -0.1861502644 0.0627373933
80299520.0 -0.1752929564 0.0676464103 0.5315226308 -0.0513414329 0.5318323611 -0.0514973213 -0.1837693703 0.0637550647
85299490.0 -0.1725193487 0.0684022371 0.5327046118 -0.0586153465 0.5329199477 -0.0584672906 -0.1817357888 0.0639710956
90299460.0 -0.1702371633 0.0690809595 0.5334124058 -0.0650524716 0.5336835934 -0.065285839 -0.1790572161 0.0648569839
95299430.0 -0.1680778504 0.0696401439 0.5346808937 -0.0721122357 0.5347478382 -0.072276988 -0.1776782862 0.06543516
100299400.0 -0.1661641871 0.0703625149 0.534928223 -0.0788494225 0.5348366364 -0.0788898448 -0.1760285067 0.0664815324
105299370.0 -0.1640777973 0.0709017377 0.5353018859 -0.0853848158 0.535785239 -0.0858561427 -0.1738743921 0.066544248
110299340.0 -0.1623268844 0.0717035204 0.5351864262 -0.0922364115 0.5357553286 -0.0925707622 -0.1726696576 0.067318975
115299310.0 -0.1609555592 0.0722009088 0.5350785127 -0.0989152026 0.5354556164 -0.0994531088 -0.1712631923 0.0683728217
120299280.0 -0.1595450572 0.0730813032 0.5353312758 -0.1063143903 0.5352162136 -0.1063197874 -0.1700173655 0.0685981958
125299250.0 -0.1578685218 0.0739379642 0.5348481995 -0.1129031178 0.5351804913 -0.1129001803 -0.1690141748 0.0695965682
130299220.0 -0.1566800661 0.0746911911 0.5341789946 -0.1200196001 0.5342683807 -0.1201363596 -0.1675808829 0.0705654931
135299190.0 -0.1555357438 0.0759663939 0.5339118079 -0.1262502856 0.5339062493 -0.1262618552 -0.1666050658 0.0709911686
140299160.0 -0.154232034 0.0768494387 0.5329855944 -0.1333414902 0.5325464644 -0.1326226771 -0.1661146426 0.0716996443
145299130.0 -0.1535670868 0.0778987223 0.5319280405 -0.139167877 0.5320665477 -0.1393992273 -0.1648166469 0.0727784332
150299100.0 -0.1522168719 0.0787683885 0.5310072644 -0.1460512651 0.5307036786 -0.1462285016 -0.1642092548 0.0740264929
155299070.0 -0.1507873766 0.0797317397 0.5291304795 -0.1521436685 0.5296832616 -0.1523755257 -0.1632476671 0.0747481382
160299040.0 -0.1501084991 0.0811964503 0.5283121295 -0.1586226436 0.5281607432 -0.1593659734 -0.1625799132 0.0759176494
165299010.0 -0.1486922173 0.0821946954 0.526603005 -0.1651006079 0.5267583089 -0.1652807397 -0.1613688291 0.0768012248
170298980.0 -0.1480534023 0.0834694984 0.524993824 -0.1717045744 0.5251317233 -0.1717446179 -0.1610488038 0.0775990822
175298950.0 -0.1470344699 0.0845617777 0.5238804577 -0.1780299781 0.5236652325 -0.1782615845 -0.160090614 0.0793955723
180298920.0 -0.1461927173 0.0860544061 0.5216823735 -0.1844789069 0.5218543063 -0.1847358679 -0.1594104977 0.0800094191
185298890.0 -0.1453628506 0.0873409248 0.5208444991 -0.1904645846 0.5197847977 -0.1906711275 -0.1584983908 0.0809958414
190298860.0 -0.1436496602 0.0887760615 0.5175606996 -0.1970869473 0.5182108443 -0.1965056661 -0.157924537 0.0822731224
195298830.0 -0.1429315051 0.090099865 0.516254952 -0.2030467116 0.5161250587 -0.2030669601 -0.1574737821 0.0838048676
200298800.0 -0.1420078149 0.0911448906 0.5144441599 -0.2094714345 0.5138905577 -0.2090738498 -0.1562214561 0.0843471433
205298770.0 -0.1413085164 0.0924033105 0.5117175195 -0.2147909785 0.5119302387 -0.2147732657 -0.1552975236 0.0857719892
210298740.0 -0.1400722635 0.093960586 0.5096220592 -0.2209529024 0.5094899977 -0.2209722502 -0.155193321 0.0868142759
215298710.0 -0.139077783 0.0954936896 0.506888932 -0.22671707 0.5071386189 -0.2268049435 -0.1540908518 0.0882562003
220298680.0 -0.1383656619 0.0967431903 0.5044009572 -0.2327202546 0.5044353621 -0.2327746753 -0.1533850604 0.0895042287
225298650.0 -0.1375296581 0.0982627897 0.5020686548 -0.2386448373 0.5025436133 -0.2383769142 -0.1526112373 0.0906157874
230298620.0 -0.1360684595 0.0997345613 0.499764251 -0.2445315929 0.5000118984 -0.2445438437 -0.1521264018 0.0917532404
235298590.0 -0.1356229227 0.1013569574 0.4974214308 -0.2507220812 0.4971983832 -0.2501980582 -0.1512060445 0.0933763378
240298560.0 -0.1342309804 0.102739021 0.4943488349 -0.255653993 0.4941365344 -0.2560937507 -0.150211627 0.0944855883
245298530.0 -0.1334430337 0.1038941786 0.4914745223 -0.261802353 0.4917064344 -0.2618128222 -0.1496080921 0.0958475521
250298500.0 -0.1323055071 0.105423351 0.4890247187 -0.2673671283 0.4889496592 -0.267311618 -0.1487919266 0.0973192324
255298470.0 -0.1312151982 0.1072836031 0.4863077276 -0.2727663777 0.4866371609 -0.2731044368 -0.1481481578 0.0990100484
260298440.0 -0.1301761631 0.1085740293 0.4831813625 -0.2776744511 0.4833064985 -0.2778653913 -0.147428114 0.0993438452
265298410.0 -0.1294300899 0.1098057664 0.4799318694 -0.2836743021 0.4801408716 -0.2839987269 -0.1458105378 0.100990128
270298380.0 -0.1284375208 0.1114151894 0.476778072 -0.2892390489 0.4770581881 -0.2890527858 -0.145471736 0.1027892322
275298350.0 -0.1270735903 0.1132181976 0.473664456 -0.2944761603 0.4735194018 -0.2940620819 -0.1443398417 0.1039112674
280298320.0 -0.1260287509 0.114396459 0.4707449313 -0.2996892568 0.4707958201 -0.3001034397 -0.1435212591 0.1054418244
285298290.0 -0.1249685114 0.1159296563 0.4673550684 -0.3052307282 0.4673825687 -0.305099507 -0.1425405268 0.1069143364
290298260.0 -0.1236755563 0.1174216901 0.4645166316 -0.3106018518 0.4642683617 -0.3106154331 -0.1416027847 0.1081616242
295298230.0 -0.1226112499 0.1184891899 0.4607372328 -0.315949452 0.4608234827 -0.3162451585 -0.1406793556 0.1092873875
300298200.0 -0.1213456561 0.1201769366 0.4575037022 -0.3208784385 0.4574703937 -0.3209714131 -0.139976756 0.1108053416
305298170.0 -0.1201620413 0.120991252 0.4541164103 -0.3263307322 0.4541090509 -0.326136653 -0.1386593423 0.111510281
310298140.0 -0.1185293093 0.1226258451 0.4507265975 -0.3312675832 0.4504668634 -0.3311194968 -0.1371831242 0.1128460278
315298110.0 -0.1176197766 0.1236625024 0.447190627 -0.3368252765 0.4468720656 -0.3367783641 -0.1364427763 0.1141410404
320298080.0 -0.1163882568 0.1249468883 0.4423348684 -0.3419022216 0.4433979471 -0.3420998508 -0.1357570122 0.1153976312
325298050.0 -0.1158370133 0.1260142185 0.4390346905 -0.3467263981 0.4396518852 -0.3470057555 -0.1344986521 0.1164322311
330298020.0 -0.1149871104 0.1279222328 0.4354104549 -0.3521955623 0.4357661446 -0.3521559409 -0.1339350748 0.1180492884
335297990.0 -0.1133872079 0.1290485504 0.4313408548 -0.3567824216 0.4315064357 -0.356686543 -0.1331220773 0.1192598256
340297960.0 -0.1125259952 0.1303023126 0.4269529931 -0.3615885938 0.4271244042 -0.3615350809 -0.1320433898 0.1209979081
345297930.0 -0.1111718723 0.1318213881 0.4233791904 -0.3668513427 0.4233000319 -0.3660343182 -0.1307628287 0.1217109038
350297900.0 -0.1102219666 0.1327810785 0.4194672515 -0.3706026723 0.4193026105 -0.3707409713 -0.1302379981 0.1232749124
355297870.0 -0.1090032352 0.1343335938 0.4151549225 -0.3750623562 0.4152074066 -0.3747224304 -0.1288552216 0.1249560684
360297840.0 -0.1073882486 0.1357925139 0.4109424312 -0.3798172085 0.4109053356 -0.379915999 -0.1277524834 0.1259833384
365297810.0 -0.1060555138 0.1371301542 0.4069296113 -0.3845559465 0.4064382968 -0.3843754853 -0.1269527569 0.1275007598
370297780.0 -0.1046831983 0.1384964053 0.4019273468 -0.3890610349 0.4024914887 -0.3885275668 -0.1260002221 0.1287159071
375297750.0 -0.1034747329 0.1398164172 0.3985411847 -0.3930079011 0.3982357738 -0.3935044198 -0.1244258338 0.1303586167
380297720.0 -0.1021095123 0.1410275538 0.3942913672 -0.3979050276 0.393846478 -0.3977921851 -0.1232503432 0.1315794522
385297690.0 -0.1007005275 0.1420544741 0.3888687453 -0.4019023401 0.3895460882 -0.4021701093 -0.121999059 0.133001052
390297660.0 -0.0992308499 0.1433599031 0.3848295057 -0.4054654055 0.3849355587 -0.406152933 -0.1206879387 0.1340162595
395297630.0 -0.0974121027 0.1444663421 0.3806750988 -0.4101096758 0.3803754601 -0.410271192 -0.1197053212 0.1351655567
400297600.0 -0.0963594388 0.1457691492 0.3759541829 -0.4144291348 0.3763873175 -0.414222094 -0.1183397537 0.1368634634
405297570.0 -0.0949015189 0.1466620111 0.371507046 -0.4185824892 0.371842554 -0.4183784677 -0.1168535738 0.1382953291
410297540.0 -0.0933703317 0.1480702909 0.3669136229 -0.4228749527 0.3670643574 -0.4224144559 -0.1155894744 0.1396329806
415297510.0 -0.0922366999 0.1494814248 0.3624335164 -0.4263312537 0.3627082839 -0.4269777182 -0.1142091919 0.1409210102
420297480.0 -0.0900710243 0.1503532808 0.3572774425 -0.4307718771 0.357699651 -0.4303504447 -0.1124511771 0.1421977301
425297450.0 -0.0881104236 0.151276272 0.3527052414 -0.4343716945 0.3527684618 -0.4340276049 -0.1113951103 0.1429087131
430297420.0 -0.0869819811 0.1525427332 0.3489154889 -0.4384582615 0.3483098894 -0.4383533124 -0.1097076329 0.1446479953
435297390.0 -0.0851363783 0.1533685216 0.3432153393 -0.4423893588 0.3431333586 -0.4422759151 -0.1088151419 0.145921134
440297360.0 -0.0833113861 0.1545141321 0.3381043623 -0.4459872836 0.3382591533 -0.445624669 -0.1073354579 0.1468068761
445297330.0 -0.0818071378 0.1549120042 0.3339284656 -0.4486938956 0.333799304 -0.449682743 -0.1060168121 0.1483162493
450297300.0 -0.0800459505 0.1563687633 0.3288203705 -0.4527815125 0.3289970887 -0.452967171 -0.1040765922 0.1493337055
455297270.0 -0.0787743788 0.1572116654 0.3240417214 -0.4566106668 0.3238233196 -0.4567344314 -0.1026506939 0.1505330103
460297240.0 -0.0767224402 0.1585082689 0.3187918237 -0.4609959594 0.3188713903 -0.4603305161 -0.1012667281 0.1515571877
465297210.0 -0.0751363446 0.159119131 0.3138160241 -0.4637034734 0.3131231571 -0.4637613811 -0.0997288226 0.153105175
470297180.0 -0.0729660422 0.1600683612 0.3084489593 -0.4667351432 0.3088903744 -0.4668184776 -0.0981883577 0.1537836053
475297150.0 -0.071788426 0.1614947885 0.3034752334 -0.4705954509 0.3035761229 -0.4704487308 -0.0969482029 0.1550408648
480297120.0 -0.0693533845 0.1624952405 0.2984510977 -0.4735110699 0.2984875777 -0.4732460751 -0.0954436539 0.156195539
485297090.0 -0.0676154221 0.1625574006 0.2931727212 -0.4768527589 0.2932688766 -0.4764455618 -0.0939298917 0.1572060509
490297060.0 -0.0652825091 0.1638838992 0.2875362796 -0.4801547785 0.2883613819 -0.4800396908 -0.0926055473 0.157889166
495297030.0 -0.0640305983 0.1645094939 0.2828079258 -0.4834145089 0.2825938077 -0.4833569889 -0.0902723581 0.1591384961
500297000.0 -0.0621917026 0.1653954443 0.277527769 -0.4859713418 0.2774889743 -0.4863170726 -0.0893539476 0.160148979
505296970.0 -0.0598981885 0.1662867072 0.272076653 -0.489481866 0.2718631796 -0.4887518808 -0.0874156875 0.1607635127
510296940.0 -0.0583976127 0.1667418339 0.2669084541 -0.4924765009 0.267218243 -0.4927022625 -0.0856405683 0.1620225151
515296910.0 -0.0562244226 0.1679711622 0.2610419185 -0.4947929995 0.2607775236 -0.4949788892 -0.0845304591 0.1628940567
520296880.0 -0.0541598115 0.1686288486 0.2555469122 -0.4977116404 0.2556982255 -0.4975982504 -0.0823914901 0.1641007067
525296850.0 -0.0522975723 0.1691701359 0.2500791516 -0.5003866074 0.2501706148 -0.4999090719 -0.0808539887 0.165112814
530296820.0 -0.05062886 0.1698798617 0.2448804352 -0.5032011016 0.2451759124 -0.5027940729 -0.0792237908 0.1654155064
535296790.0 -0.0482729363 0.1705368138 0.2395278236 -0.5056768761 0.2396998266 -0.5058519732 -0.077310169 0.1669138828
540296760.0 -0.0462733524 0.1715369976 0.2338207156 -0.5081064492 0.233729423 -0.5080375967 -0.0758706256 0.1672903643
545296730.0 -0.0447761544 0.1723830418 0.2285689533 -0.5107876723 0.2281920209 -0.5104442025 -0.0741054656 0.1683890279
550296700.0 -0.0422991003 0.1730288036 0.223183443 -0.5130512426 0.2224244148 -0.5136808627 -0.0721162546 0.1693125115
555296670.0 -0.0403603846 0.1733796955 0.2170597554 -0.5155399323 0.2172119499 -0.5153267078 -0.0707845969 0.1697588456
560296640.0 -0.0379825791 0.1741226742 0.2113768754 -0.5177249039 0.2118345849 -0.5179280263 -0.0691030492 0.1715061103
565296610.0 -0.0364844093 0.1745890588 0.2061798272 -0.5197032788 0.2062520367 -0.5194486138 -0.0673603699 0.171746074
570296580.0 -0.0344922725 0.1756622868 0.2001421319 -0.5220119596 0.200185185 -0.5222341725 -0.0659631082 0.1724281117
575296550.0 -0.0320873608 0.1755300815 0.194929439 -0.5241845855 0.1947876489 -0.5242146123 -0.0641227287 0.1731108816
580296520.0 -0.0302306957 0.1765360002 0.1891848357 -0.5261254058 0.1887676808 -0.5266733407 -0.0626722207 0.1739459971
585296490.0 -0.0280957216 0.1771325483 0.1836886318 -0.5283781743 0.1829181898 -0.5283962262 -0.0603205708 0.1748089309
590296460.0 -0.0256468646 0.1774666331 0.1772790657 -0.5303795625 0.177246148 -0.5303431248 -0.0591966883 0.1751906719
595296430.0 -0.0237704996 0.1780510629 0.1714209545 -0.5320769326 0.1710019909 -0.5320868905 -0.0570630868 0.1758556939
600296400.0 -0.0215997932 0.178247092 0.1656210436 -0.5336446861 0.1654869036 -0.5338842282 -0.0553115927 0.1764746748
605296370.0 -0.0199608473 0.179081018 0.1604085424 -0.5349779834 0.1595270587 -0.5356087443 -0.0534813917 0.1774805254
610296340.0 -0.0174671921 0.1796803284 0.1542687797 -0.5369302952 0.1546258394 -0.5369949305 -0.0519565542 0.1779723031
615296310.0 -0.0150946793 0.1800340861 0.148379147 -0.5393051669 0.1477081018 -0.538907665 -0.0497791093 0.1788114065
620296280.0 -0.0134689521 0.1807899252 0.1425059659 -0.5404209268 0.142281753 -0.5401891079 -0.0485819635 0.1797740984
625296250.0 -0.0115780634 0.1809404509 0.1366623584 -0.5419221558 0.1366021438 -0.5423220745 -0.0469160983 0.179776284
630296220.0 -0.0095391718 0.1814020706 0.1306315211 -0.5436378207 0.1306396288 -0.5431038826 -0.045031474 0.1805280109
635296190.0 -0.0076574134 0.1819610842 0.1255535141 -0.5443999058 0.1248160925 -0.5439769712 -0.043169565 0.1807876758
640296160.0 -0.005304845 0.1820199038 0.119063843 -0.5462104423 0.118854644 -0.5461590413 -0.0414593225 0.1816937352
645296130.0 -0.0028072938 0.1827553179 0.112990657 -0.5470781694 0.1134196577 -0.5468856505 -0.0401191275 0.1817196876
650296100.0 -0.0009594975 0.1827616908 0.1072777262 -0.5487624575 0.1068307313 -0.5486530485 -0.037431937 0.1826600193
655296070.0 0.0008491756 0.1831724176 0.1010855412 -0.5492694116 0.1008328316 -0.5490645019 -0.036319151 0.1833368731
660296040.0 0.0031013904 0.1833327534 0.0950988926 -0.5505566658 0.095067905 -0.5504544093 -0.0341536153 0.1836463763
665296010.0 0.0047960846 0.1838893855 0.0890835798 -0.5510912844 0.0890402408 -0.5510498804 -0.0325259003 0.1841268806
670295980.0 0.0072460134 0.1838573326 0.0828529108 -0.5526035438 0.0833028056 -0.5516775335 -0.030886641 0.1840816096
675295950.0 0.0091773458 0.1836758708 0.0769854134 -0.55269709 0.0774321992 -0.5527603312 -0.0290541107 0.1853309141
680295920.0 0.010971205 0.1843725374 0.0714248615 -0.5538547721 0.0714160632 -0.5537098147 -0.0271443287 0.1850692577
685295890.0 0.0134809886 0.1842757039 0.0652978205 -0.554672529 0.0652959239 -0.5544600839 -0.0251659758 0.1860587343
690295860.0 0.0150554622 0.1846046228 0.059267586 -0.5554033393 0.0589353554 -0.5554791404 -0.0234835792 0.1860646285
695295830.0 0.0174336146 0.1846222994 0.0539055634 -0.5558165604 0.0534914698 -0.5556912907 -0.0218424642 0.1865206546
700295800.0 0.0195460838 0.1846768147 0.047782956 -0.5564792293 0.0473664286 -0.5563172214 -0.019934738 0.1870042523
705295770.0 0.0211023063 0.1847712116 0.0416053477 -0.5571261559 0.041493326 -0.5566961425 -0.0178971182 0.1873373863
710295740.0 0.0231044474 0.1844599165 0.0360439541 -0.5573158683 0.0354107965 -0.5577627494 -0.0161794303 0.1876486119
715295710.0 0.02551815 0.1847138575 0.0294898212 -0.5577597778 0.0293411416 -0.5576459777 -0.014524436 0.1876553377
720295680.0 0.0275924963 0.1849012402 0.0236859885 -0.5575345273 0.0234238713 -0.5578820037 -0.0127323914 0.1882125742
725295650.0 0.0290688935 0.1847733148 0.0178894325 -0.5582173751 0.0173879309 -0.558075456 -0.0112353022 0.1889671881
730295620.0 0.0304424298 0.1846010796 0.0119900083 -0.5577093102 0.0113686179 -0.5576292405 -0.0091552414 0.1893389875
735295590.0 0.0331651825 0.1850154149 0.005614834 -0.5581815564 0.0052672513 -0.5582593189 -0.0071908079 0.1891267152
740295560.0 0.0347336001 0.1843551706 -0.000150556 -0.5580506458 -0.0001133015 -0.5583038845 -0.0058693143 0.1896789186
745295530.0 0.0367614624 0.1841886434 -0.0063515253 -0.5570852628 -0.0057683414 -0.5573817216 -0.0040385971 0.1894090547
750295500.0 0.0387075469 0.1843640806 -0.0120993643 -0.5578752168 -0.0125099213 -0.5578752525 -0.0021519662 0.1897584134
755295470.0 0.0409528432 0.1842964836 -0.0180923826 -0.5579621324 -0.0182983715 -0.5580631859 -1.17253e-05 0.1905314978
760295440.0 0.0427269175 0.1844710135 -0.0247637008 -0.5577129373 -0.0244390966 -0.5570559114 0.0017020534 0.189503943
765295410.0 0.0447420204 0.1834827993 -0.0301171181 -0.5570737896 -0.0299749696 -0.5571749768 0.0037371774 0.1901993889
770295380.0 0.0466557385 0.1838092964 -0.0360065226 -0.5566314424 -0.0364791418 -0.5570333814 0.0051127728 0.1904478164
775295350.0 0.0484661672 0.1832269354 -0.04205332 -0.5566095184 -0.0424618425 -0.5562631195 0.0074948057 0.1908878357
780295320.0 0.05037696 0.1829696639 -0.0481062149 -0.5554161184 -0.048129212 -0.5554939307 0.0094542296 0.190528707
785295290.0 0.0523025267 0.1823615961 -0.0539708718 -0.5549326203 -0.0540551371 -0.5551059889 0.0104886386 0.1910710395
790295260.0 0.0543604058 0.1819053945 -0.0598630623 -0.5548076418 -0.0600488239 -0.5549857414 0.0126026241 0.191287795
795295230.0 0.0559591805 0.1814774373 -0.0656450089 -0.5542976121 -0.0661830944 -0.5540202098 0.0145305617 0.1903653762
800295200.0 0.0577357467 0.1815479938 -0.071486208 -0.5529026264 -0.0719258491 -0.5534633247 0.0162245935 0.1911363838
805295170.0 0.0593927813 0.1809173173 -0.077650905 -0.552391107 -0.077862143 -0.5526622278 0.0186860226 0.1908423276
810295140.0 0.0619596247 0.1808122915 -0.0837131151 -0.5509469967 -0.0839792076 -0.5514135628 0.0203644933 0.1910938992
815295110.0 0.0634476328 0.1799517473 -0.089154459 -0.5506553101 -0.0890665827 -0.550661451 0.0220166953 0.1907989666
820295080.0 0.0655877589 0.1795287713 -0.0947632966 -0.5490992313 -0.0951337835 -0.54981387 0.0232263238 0.1914932579
825295050.0 0.0671027324 0.178944669 -0.1011140492 -0.5484805232 -0.1014732757 -0.5485145428 0.0261693624 0.1910676988
830295020.0 0.0688341598 0.1782946586 -0.1073746658 -0.5475925956 -0.1072039002 -0.5474604277 0.0276232407 0.1906430802
