!Created with skrf (http://scikit-rf.org).
# Hz S RI R 50.0 
!freq ReS11 ImS11 ReS21 ImS21 ReS12 ImS12 ReS22 ImS22
300000.0 -0.314074718 -0.1270979407 0.3715996874 0.0648774489 0.3715938569 0.0635442154 -0.3162425704 -0.1297147409
5299970.0 -0.3250342198 0.0026982039 0.3782806839 0.0032279701 0.3789120432 0.0033012287 -0.3257413189 0.0022610748
10299940.0 -0.3224848878 0.0139321937 0.3801405399 0.0029636959 0.3797909195 0.0028278834 -0.3234010123 0.012726485
15299910.0 -0.3189794435 0.0223254937 0.3820410256 0.0028681013 0.3822823781 0.0026713793 -0.3205877952 0.0200195427
20299880.0 -0.3156246774 0.0292034965 0.3848633122 0.0014250426 0.3854527216 0.0018521992 -0.3179222957 0.0258676952
25299850.0 -0.3116748468 0.0347198067 0.3887593082 0.0007536921 0.3884978614 0.0002955312 -0.3147130744 0.0313257308
30299820.0 -0.3083540326 0.039347343 0.3921258109 -0.002151237 0.3920611168 -0.0021910193 -0.3118322425 0.0356786701
35299790.0 -0.3043375773 0.0437478581 0.3948995881 -0.0052300866 0.3954189573 -0.0050857954 -0.3090831581 0.0400229246
40299760.0 -0.3013751534 0.0468028968 0.3984772333 -0.0085121169 0.3983497514 -0.0088517521 -0.306711977 0.043408012
45299730.0 -0.298144204 0.0501307667 0.4014409054 -0.0125458896 0.4016954679 -0.012621965 -0.3035944437 0.0466139343
50299700.0 -0.2949693201 0.0527763711 0.4037561611 -0.0171135398 0.4036191935 -0.0173273995 -0.3014492692 0.0498144073
55299670.0 -0.2922350981 0.055245095 0.4057469863 -0.0217869667 0.4059962488 -0.0219694176 -0.299623807 0.0523197949
60299640.0 -0.2895957477 0.0581615517 0.4079034281 -0.0269962379 0.4080484295 -0.0270978882 -0.2972858511 0.0548381283
65299610.0 -0.2874475675 0.0604510667 0.4096983061 -0.0318236275 0.4097344495 -0.0317632272 -0.2952600504 0.0574312884
70299580.0 -0.2855171977 0.0620179366 0.4107681554 -0.0364263439 0.4109308544 -0.0367114796 -0.2938073143 0.0597903472
75299550.0 -0.2834636715 0.0643054728 0.4115625849 -0.0419361899 0.4122282627 -0.042258197 -0.2919914534 0.0626424737
80299520.0 -0.2816195244 0.0667173543 0.4128778843 -0.0474177518 0.4128225304 -0.0471890189 -0.2905676283 0.0648639062
85299490.0 -0.2800542297 0.0683628861 0.4136762788 -0.0527126296 0.4135700576 -0.0523302093 -0.2892443466 0.0668127588
90299460.0 -0.2782190339 0.0706591201 0.4136653362 -0.0578622724 0.4136364074 -0.0577204113 -0.2874757358 0.0695143946
95299430.0 -0.2769778279 0.0726414301 0.4139737891 -0.0630253701 0.4140738653 -0.0631311334 -0.2864270122 0.0718348162
100299400.0 -0.2752225467 0.0746017001 0.4139233121 -0.0678838512 0.4139579127 -0.0681898167 -0.2852665266 0.0742198871
105299370.0 -0.274048559 0.0767101764 0.4140582927 -0.0734424092 0.41421985 -0.0734882746 -0.2841146148 0.0762571285
110299340.0 -0.2725609568 0.0786536482 0.4135469459 -0.0781189686 0.4140480519 -0.0783458379 -0.283401888 0.0785067226
115299310.0 -0.2715863128 0.0807825662 0.4133329892 -0.0833774801 0.4134477024 -0.0834640065 -0.282196893 0.0812616796
120299280.0 -0.2704524189 0.0830464797 0.4131135968 -0.0888744241 0.4132547794 -0.0890799092 -0.281033199 0.0833772796
125299250.0 -0.2695584867 0.0853061677 0.4127112504 -0.0939434975 0.412632203 -0.0937279744 -0.2800531281 0.0858000026
130299220.0 -0.268342836 0.0869942698 0.4121027901 -0.0986712439 0.4117512908 -0.0994827036 -0.2791899748 0.0883531091
135299190.0 -0.267287968 0.0898803561 0.4114295184 -0.1037533464 0.4114356565 -0.1042351943 -0.2781459693 0.0906231154
140299160.0 -0.266567249 0.0922695514 0.4107948414 -0.1090875046 0.4103497482 -0.1089052571 -0.2775575356 0.0929365236
145299130.0 -0.2654657424 0.0947985385 0.4095793291 -0.1138960882 0.4098069614 -0.1138660372 -0.276438846 0.0957322866
150299100.0 -0.2641318504 0.0970829118 0.4085382359 -0.1191286269 0.4084971212 -0.1189591284 -0.2759457578 0.0985822681
155299070.0 -0.2632181864 0.0995031222 0.4069565375 -0.1237782372 0.4074884982 -0.1239214778 -0.2744866628 0.1007791881
160299040.0 -0.2623358897 0.1021857029 0.4060822444 -0.1286448832 0.4059815426 -0.1287318394 -0.2738078387 0.1035996806
165299010.0 -0.2610353976 0.1041929829 0.4050267037 -0.1332749338 0.4051111035 -0.1341123179 -0.2729692952 0.1059624568
170298980.0 -0.2604783168 0.106967753 0.403502394 -0.138195647 0.4037250203 -0.1384411867 -0.2722217337 0.1084404054
175298950.0 -0.2590955141 0.1091166807 0.4019639121 -0.1431305552 0.4025123216 -0.143203092 -0.2709926119 0.1116700046
180298920.0 -0.2581735315 0.1117768759 0.4008009861 -0.1480774653 0.4010341275 -0.1481630847 -0.2698478972 0.114126692
185298890.0 -0.2570722726 0.1143600108 0.3991056383 -0.1526427467 0.3994249607 -0.1526734098 -0.2690162659 0.1167285235
190298860.0 -0.2557969959 0.11735244 0.3970842648 -0.1573832924 0.3974929479 -0.1572034545 -0.2676181286 0.1190669285
195298830.0 -0.254806702 0.1195236081 0.39608974 -0.1618635051 0.395988772 -0.1617726749 -0.2671229463 0.1219531936
200298800.0 -0.2533479433 0.1218619528 0.3946752333 -0.1667154957 0.3943421766 -0.1665571496 -0.2656070057 0.1243968979
205298770.0 -0.2528193975 0.1245977264 0.3922691046 -0.1708442885 0.3926234628 -0.1711040149 -0.2647086323 0.1273680381
210298740.0 -0.251712311 0.1273772119 0.3907764501 -0.1756202524 0.3906544322 -0.1758063928 -0.263795228 0.1298319567
215298710.0 -0.2503686652 0.1301272635 0.3881403357 -0.1799961857 0.3886250387 -0.1803641958 -0.2621830159 0.1326358138
220298680.0 -0.2487579254 0.1326806068 0.3861992113 -0.1846177223 0.3861328809 -0.1848597894 -0.261022931 0.1350934917
225298650.0 -0.2476812371 0.1352774379 0.3841681495 -0.1889849755 0.3846754439 -0.1884963729 -0.2599283241 0.137853393
230298620.0 -0.2465495262 0.1380279714 0.3826458544 -0.1934849129 0.3830023806 -0.1938294034 -0.2586889575 0.1404769234
235298590.0 -0.2451055247 0.1406834459 0.3803866356 -0.1984637767 0.3805880199 -0.1981605406 -0.2570874051 0.1435012389
240298560.0 -0.2439026286 0.1432450565 0.3780653889 -0.2018115891 0.3782926415 -0.2022475641 -0.2558981067 0.1458608491
245298530.0 -0.2427788559 0.1456697467 0.3758653625 -0.2069376451 0.3762617849 -0.2065638717 -0.2548733648 0.148416393
250298500.0 -0.2415767045 0.148432007 0.3741614644 -0.2105496307 0.3740781821 -0.2106762093 -0.25367949 0.1516245218
255298470.0 -0.2400473885 0.1511997868 0.3717692884 -0.2148950911 0.3719502492 -0.2153462657 -0.2519743182 0.1541873106
260298440.0 -0.2386770758 0.153499587 0.3693247408 -0.2185368657 0.3696276385 -0.2188878827 -0.2506042109 0.1565535829
265298410.0 -0.2374964302 0.15639367 0.3671526191 -0.2235573049 0.3668867726 -0.2238044793 -0.2488422741 0.1591794833
270298380.0 -0.2360637442 0.1587390485 0.3644160932 -0.2271727417 0.3645382052 -0.2273305917 -0.247346147 0.1622108378
275298350.0 -0.2345282123 0.1615606202 0.3612497917 -0.231242627 0.3619952586 -0.23151366 -0.2457312136 0.1650864925
280298320.0 -0.2328558309 0.1639120307 0.3591992745 -0.2352540832 0.3595613236 -0.2357844073 -0.2442535751 0.1674831453
285298290.0 -0.2314696724 0.1666087834 0.3568395189 -0.2395437891 0.3570943007 -0.2393501879 -0.243247053 0.1701273405
290298260.0 -0.229826828 0.169551164 0.3546060748 -0.2439449299 0.3543125129 -0.24385187 -0.2412369402 0.1728404794
295298230.0 -0.2286542271 0.1715343937 0.3512446092 -0.2478940856 0.3519222358 -0.2481645428 -0.2392255215 0.1757383657
300298200.0 -0.2267082138 0.1742746037 0.348920438 -0.2518016828 0.3487896297 -0.2515867044 -0.2376962365 0.1781430678
305298170.0 -0.2250731815 0.1764832793 0.3463819917 -0.2557076616 0.3463131391 -0.2557438807 -0.2357653612 0.1800882641
310298140.0 -0.223295249 0.1788320794 0.3429581082 -0.2596927368 0.3435717514 -0.2592010418 -0.2339236259 0.1830540716
315298110.0 -0.2218534177 0.1813494165 0.3407472213 -0.2637982357 0.3408686371 -0.2633988641 -0.2321608655 0.1853943916
320298080.0 -0.2198651539 0.1837184471 0.336953011 -0.2674875137 0.3379076076 -0.2675885894 -0.2303436373 0.1880534825
325298050.0 -0.2185261452 0.1857143046 0.334242994 -0.2711567129 0.3349633964 -0.271456549 -0.2285845431 0.190433615
330298020.0 -0.2173257615 0.1885086511 0.3316133834 -0.2749487158 0.3316969622 -0.2750884605 -0.2269289263 0.1929652214
335297990.0 -0.2151831537 0.1906536067 0.3281378939 -0.2783947122 0.3283918575 -0.2787552806 -0.2248068117 0.1954889286
340297960.0 -0.2137490588 0.1933130511 0.3249722223 -0.2822783186 0.3251087072 -0.2821564949 -0.2232526766 0.1978929241
345297930.0 -0.2118559478 0.195747657 0.3219299248 -0.2859772847 0.321986767 -0.2860870927 -0.2210741328 0.2002457343
350297900.0 -0.2100213637 0.1980045147 0.3188728986 -0.2890704623 0.3188268733 -0.2893693459 -0.2194633614 0.202887933
355297870.0 -0.2081307795 0.2003205568 0.3154185128 -0.2926220096 0.3155606035 -0.2925884322 -0.2168378089 0.2057839881
360297840.0 -0.2061142082 0.2026874461 0.3119650508 -0.2961843209 0.312399739 -0.2965571048 -0.2150653467 0.207678379
365297810.0 -0.2046210025 0.2049992754 0.3088536951 -0.2997899434 0.3089909116 -0.2996883408 -0.213282481 0.2101090374
370297780.0 -0.2024367757 0.2072603196 0.3057341949 -0.3032984197 0.3056796594 -0.3030352937 -0.2110522477 0.2125031243
375297750.0 -0.2004937044 0.2096826641 0.3023186023 -0.3064679468 0.3023355515 -0.3064403505 -0.2087459109 0.2149742366
380297720.0 -0.1984946482 0.2120533891 0.2994142894 -0.3096177113 0.2988069732 -0.3097455267 -0.2063417034 0.2172806244
385297690.0 -0.196326699 0.2142548532 0.2954007443 -0.3126908975 0.2955196822 -0.3134260144 -0.2046262924 0.2199507681
390297660.0 -0.1940246308 0.2158295163 0.2917789316 -0.3159431305 0.2918862247 -0.3160192114 -0.2020181605 0.2217632689
395297630.0 -0.19182354 0.2186998645 0.2884815181 -0.319136384 0.288502399 -0.3190398697 -0.1996503306 0.2240947017
400297600.0 -0.1901087181 0.2205452583 0.2850214138 -0.3223816843 0.2852450378 -0.3224384815 -0.1974908953 0.2264293662
405297570.0 -0.1880265931 0.2221679134 0.2811346605 -0.3255372393 0.2813848393 -0.3255798055 -0.1948311297 0.2290533365
410297540.0 -0.1856701544 0.2249832026 0.2777947376 -0.3288299829 0.2781295758 -0.3286244061 -0.1931705322 0.2314543958
415297510.0 -0.1835991969 0.2270064729 0.2741135167 -0.3319546412 0.2745615294 -0.332028073 -0.1904166573 0.233600108
420297480.0 -0.1813070655 0.2284954027 0.270199955 -0.3346396278 0.2708309949 -0.3348620235 -0.1875804212 0.2359249729
425297450.0 -0.1785008204 0.2307001975 0.2668011359 -0.3375941004 0.2667743514 -0.3376328226 -0.1856130979 0.2373659273
430297420.0 -0.1764565554 0.2325417077 0.2633645471 -0.3404275894 0.2633350293 -0.3402498978 -0.1829262423 0.2397950944
435297390.0 -0.174113797 0.2346945272 0.2593047538 -0.3437247775 0.2592182008 -0.3432996797 -0.1809739122 0.2420866305
440297360.0 -0.1713603977 0.236671506 0.2550854847 -0.3462442863 0.2555798353 -0.3463214907 -0.1782672875 0.2442097868
445297330.0 -0.169341475 0.2382781927 0.2519242019 -0.3484333825 0.2518748639 -0.3491809543 -0.175529894 0.2460758907
450297300.0 -0.1664343715 0.2402341892 0.2477517929 -0.3515642585 0.2482543745 -0.3515823757 -0.172801178 0.2479595096
455297270.0 -0.1642663421 0.2421073608 0.2443638624 -0.3543178278 0.2439339072 -0.354565194 -0.1700875629 0.25008415
460297240.0 -0.1615720472 0.2440562592 0.2402659561 -0.3574964561 0.2398269889 -0.3573979804 -0.167298397 0.2519864536
465297210.0 -0.1590547201 0.2458345975 0.2356611018 -0.359557081 0.2360031251 -0.3597996599 -0.1649094457 0.2542865645
470297180.0 -0.1564375353 0.2476334465 0.2319608036 -0.3619642893 0.2325963202 -0.3619137694 -0.1622051347 0.2556435866
475297150.0 -0.154049579 0.2493992211 0.2282961891 -0.364597187 0.2282565456 -0.3646336053 -0.159368762 0.2578420345
480297120.0 -0.1511375071 0.2515227366 0.2239766868 -0.3669786404 0.2240210086 -0.3670378419 -0.15688322 0.2596590823
485297090.0 -0.1485037025 0.252669196 0.2200086591 -0.3696230577 0.2200291394 -0.3692721596 -0.1545755032 0.261541049
490297060.0 -0.1452652365 0.2549083514 0.2155453875 -0.3719800715 0.2158862634 -0.3720641741 -0.151341116 0.2630107825
495297030.0 -0.1428231308 0.255855758 0.2119352307 -0.3740276448 0.2118601973 -0.3742415883 -0.1482575659 0.2645216641
500297000.0 -0.1403286006 0.2577642203 0.2077991909 -0.3762498895 0.2076746364 -0.3766098363 -0.1458076209 0.266743184
505296970.0 -0.1371216738 0.2592864229 0.2036228371 -0.3790522796 0.2037732863 -0.3787327206 -0.1428187814 0.2683330361
510296940.0 -0.1345282318 0.2610709906 0.1993256349 -0.3813404779 0.1997711066 -0.3813204842 -0.1398058019 0.2702865068
515296910.0 -0.1315611629 0.2624884851 0.1951551192 -0.383032089 0.1950187858 -0.3829966452 -0.1371282333 0.2714305786
520296880.0 -0.1288895367 0.2643266089 0.1910797408 -0.3850912982 0.1907803841 -0.3848909771 -0.133936686 0.2734644226
525296850.0 -0.1261139701 0.2655071532 0.1865777151 -0.3871146635 0.1864099662 -0.3869676038 -0.1313162265 0.2746575447
530296820.0 -0.1234718812 0.2671156287 0.1824035197 -0.3889672308 0.1825021805 -0.3888385914 -0.128344851 0.2761658739
535296790.0 -0.1198297729 0.2684340899 0.1782988436 -0.3909158108 0.1781215967 -0.3912370142 -0.1252965388 0.2779357344
540296760.0 -0.1172280819 0.2701671936 0.1735966337 -0.3928896683 0.1734971677 -0.3925063841 -0.1225828703 0.2788479022
545296730.0 -0.1146663649 0.2717773939 0.1694828067 -0.3947418233 0.1693770137 -0.3945631392 -0.1193240156 0.2806874266
550296700.0 -0.1113525745 0.2728515447 0.1653701183 -0.3967584865 0.1648680198 -0.3968447481 -0.1167502158 0.2817090212
555296670.0 -0.1086028801 0.2738974939 0.1608063897 -0.3982336845 0.1605063557 -0.398318306 -0.113509859 0.283009339
560296640.0 -0.1048451948 0.2755578646 0.1562146271 -0.4000135885 0.1566283522 -0.4000237562 -0.1105988107 0.2847285114
565296610.0 -0.1026989535 0.2767901712 0.1523643671 -0.4016752969 0.1521575078 -0.4013456099 -0.1074823631 0.2858997571
570296580.0 -0.099371119 0.2781958644 0.147600531 -0.4032646329 0.1477921168 -0.4032354866 -0.1044811734 0.2873928245
575296550.0 -0.0962835485 0.2793677551 0.1433696889 -0.4047927104 0.1434193453 -0.404959423 -0.1015697289 0.2883381983
580296520.0 -0.0934163638 0.2808835328 0.1391096937 -0.4060857805 0.1387103213 -0.4065784073 -0.0985290318 0.2894943116
585296490.0 -0.0900506469 0.2817766016 0.1346511004 -0.4077382233 0.1340152093 -0.4076160616 -0.095135721 0.2907828752
590296460.0 -0.086664083 0.2830138377 0.1298261498 -0.409060737 0.1299857432 -0.4092569845 -0.0924179556 0.2918771553
595296430.0 -0.0839709381 0.2841762096 0.1250214892 -0.4102099802 0.1251922642 -0.4104636571 -0.0893703092 0.2926720594
600296400.0 -0.0808047583 0.2850932141 0.1205943185 -0.4118054547 0.1206224236 -0.4118078605 -0.0862021839 0.2942478313
605296370.0 -0.0779695062 0.2863499489 0.1164587625 -0.4127222097 0.1162178004 -0.4131299714 -0.0832417945 0.2952098269
610296340.0 -0.0742899306 0.28759222 0.1117743104 -0.414020747 0.1120396208 -0.4142344317 -0.0799900083 0.2963639699
615296310.0 -0.0713357999 0.2884948624 0.1070516295 -0.4156582298 0.1071837838 -0.4154801725 -0.0765178407 0.2971866758
620296280.0 -0.068515156 0.2897187382 0.102790027 -0.4161349438 0.1023964243 -0.4163814679 -0.0737609374 0.2982644567
625296250.0 -0.0655698798 0.2903201751 0.0982769566 -0.4175106721 0.0982641608 -0.4172054883 -0.0707513937 0.2989201794
630296220.0 -0.0620796195 0.291425616 0.0935613887 -0.4181758956 0.0932856623 -0.4183226923 -0.0670186882 0.2999699012
635296190.0 -0.0591383568 0.2927295086 0.0891158814 -0.4193584267 0.0892176342 -0.4192787002 -0.0644383475 0.3006656483
640296160.0 -0.0559120456 0.2929771121 0.0846104824 -0.4204311985 0.0842469973 -0.420199374 -0.0608788646 0.3015140958
645296130.0 -0.0524656497 0.2944906829 0.0798286538 -0.4214462153 0.0799253181 -0.4209954897 -0.0582504185 0.3020348785
650296100.0 -0.0497049432 0.2950552811 0.0756883892 -0.4224243195 0.0751678155 -0.4222631357 -0.0544559824 0.3029968736
655296070.0 -0.0467365379 0.2956987274 0.0707575304 -0.4225866829 0.0706694665 -0.4223440894 -0.0518693301 0.3038319835
660296040.0 -0.0435725121 0.2968296091 0.0662201493 -0.4236528485 0.0660727065 -0.4236436956 -0.0483908953 0.304374665
665296010.0 -0.0400745068 0.2974280487 0.0611636724 -0.4238594088 0.0612919506 -0.4238613602 -0.0450741887 0.3048894817
670295980.0 -0.037272381 0.2979365134 0.0567312676 -0.4245907949 0.0569598861 -0.4241095867 -0.0421549496 0.3053887674
675295950.0 -0.0339562446 0.2984242289 0.0523809308 -0.4250330183 0.0526081117 -0.4251534226 -0.0388331943 0.3059550663
680295920.0 -0.0315400545 0.2998226731 0.0478289613 -0.4255482999 0.0476978264 -0.4254848087 -0.0353280312 0.3064654409
685295890.0 -0.0277544402 0.3001693509 0.0430737786 -0.4264234212 0.0430733342 -0.4263012653 -0.032378148 0.3074179463
690295860.0 -0.0249964725 0.300881503 0.0387814837 -0.4270406549 0.0379705732 -0.4265040986 -0.0288151322 0.3076784421
695295830.0 -0.0213781684 0.3009931719 0.0340909681 -0.4268809269 0.0338488246 -0.4270470783 -0.0260591989 0.308358758
700295800.0 -0.0182324063 0.3014996882 0.0296720288 -0.427232357 0.0292344917 -0.427396572 -0.022413723 0.3084803658
705295770.0 -0.0153199335 0.3022589967 0.0246311603 -0.4275841611 0.0245343524 -0.4274000287 -0.0192356174 0.3089644364
710295740.0 -0.0125045671 0.302243214 0.0203423067 -0.4277711279 0.0196265465 -0.4278386112 -0.015773017 0.3095919451
715295710.0 -0.0090003331 0.3030225611 0.0157200885 -0.4280344642 0.0151721816 -0.427836297 -0.0126777705 0.3092956171
720295680.0 -0.005767751 0.3029910541 0.0105219446 -0.4276729677 0.0106178325 -0.428086963 -0.0094792521 0.3096012398
725295650.0 -0.0032436079 0.3039160943 0.0065871456 -0.4278674155 0.0061105906 -0.4280539306 -0.0065628686 0.310476538
730295620.0 -0.0005469328 0.3039696592 0.0016240022 -0.4276479169 0.0015113009 -0.4276915187 -0.0034729887 0.3107070281
735295590.0 0.0031483653 0.3040682764 -0.0028659182 -0.4275746947 -0.0029767593 -0.4279449404 0.0001028936 0.3102351663
740295560.0 0.0060503043 0.3041288701 -0.007514201 -0.4277112204 -0.0074335266 -0.4284476568 0.0032013255 0.3107760878
745295530.0 0.0089927814 0.3047627726 -0.0118218024 -0.4272793187 -0.0117414391 -0.4277507994 0.0063320472 0.3107647705
750295500.0 0.0120143545 0.3047590072 -0.0165241271 -0.4275435541 -0.016816955 -0.4274481335 0.0098179255 0.3107976271
755295470.0 0.0152724583 0.304823031 -0.0211562395 -0.4273944953 -0.0211886201 -0.4274336167 0.0128497059 0.3113726043
760295440.0 0.0180860734 0.3052236886 -0.0260961953 -0.4268835908 -0.02579969 -0.4268301566 0.0162765914 0.310648779
765295410.0 0.0216690196 0.3047879694 -0.0306521393 -0.4264271979 -0.0303384565 -0.4266013095 0.0195737823 0.3109537196
770295380.0 0.0243566154 0.3051023176 -0.0349489106 -0.4262296546 -0.0354257757 -0.4263968971 0.0226417531 0.3110560632
775295350.0 0.0273866381 0.3052192478 -0.0394172689 -0.4262071242 -0.039668934 -0.4255684622 0.0261244712 0.3107382764
780295320.0 0.0306767479 0.3049419476 -0.0439775962 -0.4250608777 -0.0443374457 -0.4254472382 0.0294719238 0.3106268826
785295290.0 0.0336006362 0.304974648 -0.048816253 -0.4249484322 -0.0487638228 -0.42529603 0.032169508 0.31098036
790295260.0 0.0369755212 0.3044884161 -0.0534929244 -0.4244749178 -0.0531729746 -0.4248653171 0.035769715 0.3107425646
795295230.0 0.0397269713 0.3039803757 -0.0578854998 -0.4240115277 -0.058008036 -0.4240998775 0.0386382637 0.3098207822
800295200.0 0.0426804657 0.3045628784 -0.0620736252 -0.4226598753 -0.0625174476 -0.4231276559 0.0420663896 0.3096615463
805295170.0 0.0456047081 0.3041892834 -0.0669458145 -0.4222335316 -0.0673127661 -0.4224287036 0.0457497765 0.3092149434
810295140.0 0.0492643917 0.3038337675 -0.071653992 -0.4215261874 -0.0715955973 -0.4216150316 0.0491069756 0.3089170505
815295110.0 0.0519135068 0.3036683544 -0.0761309382 -0.4207164002 -0.0759677314 -0.4208318366 0.0517192291 0.3085101389
820295080.0 0.0548552771 0.3027451067 -0.0801667218 -0.4194658646 -0.0801905783 -0.420316785 0.0544347812 0.3086912395
825295050.0 0.0576463722 0.3025699147 -0.0849413474 -0.4188156379 -0.0852435578 -0.4190877429 0.0585314309 0.308337234
830295020.0 0.0606843472 0.3024393879 -0.0895836133 -0.4179604391 -0.0893379484 -0.4183172477 0.0613571512 0.307132469
