!Created with skrf (http://scikit-rf.org).
# Hz S RI R 50.0 
!freq ReS11 ImS11 ReS21 ImS21 ReS12 ImS12 ReS22 ImS22
300000.0 -0.2365392462 -0.1103897324 0.4686685987 0.071802631 0.4725683522 0.0743770636 -0.2397745816 -0.1138264502
5299970.0 -0.2408796166 0.0071047655 0.4751861339 0.0052733654 0.4749400248 0.0055503941 -0.2447467023 0.0053823654
10299940.0 -0.2371893359 0.0201460499 0.4771539958 0.006530529 0.4767535285 0.0065333741 -0.2416947562 0.0174114691
15299910.0 -0.2328934586 0.0299018812 0.4805273854 0.0073559827 0.4805262861 0.0078834949 -0.2371928355 0.0262760297
20299880.0 -0.227389629 0.0380073696 0.4853779576 0.0079929914 0.4853996136 0.008198553 -0.2326686555 0.0341238143
25299850.0 -0.2217842961 0.0442817378 0.4906101347 0.0068912003 0.4909195866 0.0072692164 -0.2280151935 0.0399639823
30299820.0 -0.2157136813 0.0495361942 0.4962869083 0.005134028 0.4956151924 0.0048615074 -0.2225349312 0.0448777038
35299790.0 -0.2098131886 0.0539540981 0.5010224214 0.0019354353 0.5012887214 0.0014879874 -0.217289756 0.0487202742
40299760.0 -0.2046715426 0.0570809539 0.5062453646 -0.0017815105 0.5062650042 -0.0022175531 -0.2127641827 0.0520284158
45299730.0 -0.1994703591 0.0603581171 0.5112082387 -0.0072671669 0.5110729827 -0.0069711394 -0.2079293255 0.0542909517
50299700.0 -0.1946689474 0.0621747814 0.5152346817 -0.0126247335 0.5152273307 -0.0130227239 -0.2033693401 0.0565067074
55299670.0 -0.1906328498 0.0639163153 0.518594406 -0.0187892939 0.5189184217 -0.0182973406 -0.2000108856 0.0580764768
60299640.0 -0.1865298081 0.0649328459 0.5217909484 -0.024863268 0.5222166069 -0.0249578716 -0.1964776106 0.0595712295
65299610.0 -0.1829077558 0.066445461 0.525259728 -0.0310454437 0.5249713061 -0.0312501205 -0.1926653139 0.0605665961
70299580.0 -0.1796127238 0.0668878431 0.5273674793 -0.0375831031 0.527348548 -0.037852809 -0.1902091511 0.0616043363
75299550.0 -0.1764071371 0.0678678554 0.5290766158 -0.0442779735 0.529047585 -0.0448378188 -0.1873528664 0.0626529526
80299520.0 -0.1740707803 0.0688737745 0.5311768775 -0.0513116838 0.5311353937 -0.0514241821 -0.1845798426 0.0629141441
85299490.0 -0.1715265268 0.0694648023 0.5327712262 -0.058063554 0.5321466959 -0.0584371309 -0.1826547611 0.0635906686
90299460.0 -0.1692971514 0.0703009372 0.5335109584 -0.065427279 0.5336462482 -0.0652498817 -0.1803072435 0.0642549333
95299430.0 -0.1671288982 0.0709980528 0.534636504 -0.0725780497 0.5343860177 -0.0721954635 -0.1783713489 0.06504414
100299400.0 -0.1655226981 0.0719510627 0.5345216957 -0.0792021952 0.5347713658 -0.079176441 -0.1769298749 0.0654644143
105299370.0 -0.1633863112 0.0723401661 0.5346207613 -0.0858292246 0.535330534 -0.0861429838 -0.1749783174 0.0661090269
110299340.0 -0.1620487185 0.0729307619 0.5350070711 -0.0928461761 0.5352300332 -0.0928155117 -0.1736830347 0.0669008181
115299310.0 -0.1601728323 0.0733604275 0.5348771123 -0.0989929363 0.5352338049 -0.0996155219 -0.1721361844 0.0674001032
120299280.0 -0.1589504826 0.0742992463 0.5350533963 -0.1062711264 0.5350415527 -0.1064216285 -0.1713099559 0.067944516
125299250.0 -0.1579415534 0.0752292569 0.5344322188 -0.1129793549 0.5346680838 -0.1130374663 -0.1697335292 0.0681229938
130299220.0 -0.1565990528 0.0760677302 0.5337708237 -0.1196277316 0.5338993509 -0.1198442592 -0.1689185759 0.069425862
135299190.0 -0.1551904788 0.0768536086 0.5334616595 -0.1260790221 0.5327795882 -0.1265562896 -0.1677611143 0.0703094761
140299160.0 -0.1541466558 0.0781477363 0.5325452131 -0.1330217746 0.5326441191 -0.1332072878 -0.1668505907 0.0709311328
145299130.0 -0.1532179199 0.078778188 0.5316950347 -0.1393836756 0.5315866774 -0.1392403197 -0.1662582873 0.0715444363
150299100.0 -0.1520110522 0.0798238345 0.5303895481 -0.1460457621 0.5305698261 -0.1463019243 -0.1652007135 0.0725687265
155299070.0 -0.1512604263 0.0813210109 0.5291239123 -0.1526901857 0.5291689677 -0.1532070202 -0.1644462905 0.0737044379
160299040.0 -0.1502833567 0.0821612853 0.5277491807 -0.158856349 0.5277009556 -0.1591489314 -0.1633078712 0.0747691905
165299010.0 -0.1493692602 0.0829688938 0.5265956933 -0.165769371 0.5267543917 -0.1657440793 -0.162786024 0.0753168636
170298980.0 -0.1485511358 0.0843668726 0.5241003289 -0.1721375835 0.5249423124 -0.1718697204 -0.1616516731 0.0766318927
175298950.0 -0.1473125858 0.0855713797 0.5236319826 -0.1781016639 0.5235715115 -0.1780269388 -0.1612218303 0.0777002517
180298920.0 -0.1459997916 0.0867421227 0.5212139731 -0.1848557489 0.5217438208 -0.1843098578 -0.1603842792 0.0786788204
185298890.0 -0.1452881452 0.0878065436 0.5196991 -0.1906525212 0.5197106122 -0.1905795712 -0.1597590231 0.0794958422
190298860.0 -0.1444956912 0.0891362372 0.5177204977 -0.1967978352 0.5177866669 -0.196974269 -0.1585769826 0.0806266619
195298830.0 -0.1435070218 0.0902100211 0.5159522697 -0.2029517532 0.5158569641 -0.2035205267 -0.1580608029 0.0818006786
200298800.0 -0.1425730133 0.0917295869 0.5137597667 -0.2089156921 0.5135930975 -0.2088981873 -0.1570043873 0.0832197508
205298770.0 -0.1417976577 0.0929436621 0.5116779687 -0.2151571446 0.5115811304 -0.2151635586 -0.1563790355 0.0839408386
210298740.0 -0.1408580452 0.0941077702 0.5093903876 -0.2215255709 0.509806313 -0.2213740728 -0.1559329081 0.0855437222
215298710.0 -0.1399346442 0.0956371376 0.507282701 -0.2269616295 0.5070213005 -0.2271201787 -0.1551126031 0.0866682451
220298680.0 -0.1389370159 0.0969052901 0.504756035 -0.2329073346 0.5044166012 -0.2326651903 -0.1540484246 0.0879632124
225298650.0 -0.1376771547 0.0985193341 0.50188499 -0.2383233178 0.5021451698 -0.2383821435 -0.1535861992 0.0892122356
230298620.0 -0.1367616221 0.1000787153 0.4993716676 -0.2446259952 0.4999065733 -0.2445889854 -0.1525492885 0.0906197218
235298590.0 -0.1355061818 0.1008548458 0.4965574531 -0.2498741434 0.4969557217 -0.2502626303 -0.151835432 0.0914052354
240298560.0 -0.1348842318 0.1024679839 0.4943572963 -0.255669536 0.4943128163 -0.2554724961 -0.1511196341 0.0929902713
245298530.0 -0.1335199764 0.1039032364 0.4907450994 -0.2618069757 0.4911043605 -0.2618035111 -0.1499632196 0.0944320606
250298500.0 -0.1330948691 0.1051752663 0.4885669857 -0.2668356217 0.4891847159 -0.2664238812 -0.1488209794 0.0955316183
255298470.0 -0.1319941742 0.1069396035 0.4856971998 -0.2730754571 0.4855167552 -0.2727108402 -0.1481928119 0.0966665703
260298440.0 -0.1309148165 0.1082052939 0.4827669455 -0.2780794603 0.4826713793 -0.2783910682 -0.1470098434 0.0982823666
265298410.0 -0.1293666958 0.1096112408 0.4794893104 -0.2841386237 0.4793650896 -0.2836974378 -0.1465016721 0.0993802587
270298380.0 -0.1280641858 0.111068385 0.4760923007 -0.2892900981 0.4769785055 -0.2898125368 -0.1452978714 0.1010457184
275298350.0 -0.1274831706 0.1125096928 0.473357737 -0.2951212046 0.4732992886 -0.2950723603 -0.144357617 0.1024449527
280298320.0 -0.1261462363 0.1141876511 0.4699802924 -0.2996985374 0.4699694103 -0.3000816251 -0.1435745862 0.1038350816
285298290.0 -0.1248169772 0.1153930856 0.4667268049 -0.3053502569 0.4665131774 -0.3054347966 -0.1423046484 0.1051083761
290298260.0 -0.1236223854 0.1167335686 0.46398073 -0.3109065342 0.4633455973 -0.3106027978 -0.1411220005 0.1067379754
295298230.0 -0.122553461 0.1180426396 0.4610571365 -0.315726304 0.4601392977 -0.3162530762 -0.1400415024 0.1079960325
300298200.0 -0.1208406195 0.1194793968 0.4569093716 -0.3213273869 0.4567704349 -0.3214700757 -0.1392883377 0.1093730594
305298170.0 -0.1198706116 0.1205547281 0.4540953672 -0.3264290539 0.4536866946 -0.3264243353 -0.1379459285 0.1110113964
310298140.0 -0.1180672462 0.1216413525 0.4501278362 -0.3314895853 0.4502842238 -0.332148382 -0.1371591844 0.1123837142
315298110.0 -0.1171930073 0.1233450133 0.4462401582 -0.3370418851 0.4464938477 -0.3369423463 -0.1356299522 0.1132553453
320298080.0 -0.1158326913 0.1245110203 0.4425192677 -0.3421884281 0.4425790787 -0.34221651 -0.134663503 0.1145814985
325298050.0 -0.1148085793 0.1254728953 0.4390770152 -0.3472931465 0.4388973178 -0.3472549981 -0.1336817584 0.1158614022
330298020.0 -0.1134317622 0.1269194256 0.4344207081 -0.3519204235 0.4343759492 -0.3522951488 -0.132806414 0.1170326373
335297990.0 -0.1122944511 0.1280024779 0.4307686772 -0.3569240359 0.4305748399 -0.3571523693 -0.132167685 0.1183175991
340297960.0 -0.1113548474 0.1297824797 0.4262257887 -0.3622156036 0.426404078 -0.3614765807 -0.1310104709 0.1196167953
345297930.0 -0.1101276493 0.1311849426 0.4223311271 -0.3660267612 0.4218715565 -0.366165486 -0.129618588 0.1212039705
350297900.0 -0.1084715215 0.1325064345 0.4181602261 -0.3706585593 0.4185167845 -0.3710951063 -0.1288036911 0.123210495
355297870.0 -0.1070532909 0.1335744836 0.4140697807 -0.3756221883 0.4142790178 -0.3759123251 -0.1281420268 0.1243539059
360297840.0 -0.1057506061 0.1351084499 0.4100874692 -0.3804087892 0.4098712898 -0.3801818113 -0.1265540648 0.125915273
365297810.0 -0.1041223806 0.1363372647 0.4057658333 -0.3847344224 0.4057023347 -0.3845863833 -0.1257096474 0.1272696604
370297780.0 -0.1025261523 0.1377204363 0.4011161926 -0.3887353661 0.4017647603 -0.3894895181 -0.1243602098 0.1289695718
375297750.0 -0.1012627877 0.1393187131 0.3977404811 -0.393643194 0.3971985493 -0.3936759702 -0.1230650108 0.1301910096
380297720.0 -0.0997274288 0.1399798028 0.3928519455 -0.3975488007 0.3927115306 -0.3978630655 -0.1215327631 0.1318519539
385297690.0 -0.0982157009 0.1415721211 0.3884819568 -0.4015872662 0.3878637892 -0.4018919472 -0.1205689011 0.1329863752
390297660.0 -0.096668535 0.1428443108 0.3838469494 -0.4066907547 0.3839208526 -0.4069051897 -0.1194845943 0.1339195991
395297630.0 -0.0948063731 0.1439010792 0.3796036456 -0.4104428358 0.3794202153 -0.4108004736 -0.1182161231 0.1358896314
400297600.0 -0.093584363 0.1453243762 0.3750538968 -0.4150834271 0.3753489262 -0.4150353883 -0.1172175248 0.1371853552
405297570.0 -0.0918686066 0.1463645017 0.370185082 -0.4188476207 0.3704780824 -0.4189741295 -0.115874675 0.1386255016
410297540.0 -0.0900421879 0.147633022 0.3653036595 -0.4228034921 0.3657017131 -0.422812251 -0.1145754343 0.1398113581
415297510.0 -0.0886083734 0.1490770974 0.3609844172 -0.4264765222 0.361328567 -0.4267861649 -0.1134318242 0.1415797193
420297480.0 -0.0869387965 0.1498890976 0.3565463433 -0.4312943436 0.3563610202 -0.4310226195 -0.1114521866 0.1425717846
425297450.0 -0.0849341786 0.1504512518 0.3518670458 -0.4345946728 0.3519563425 -0.4346710227 -0.1102436803 0.143833367
430297420.0 -0.0836766618 0.1520333392 0.3466243615 -0.4386944243 0.3469545871 -0.4384812512 -0.1091655809 0.1447525837
435297390.0 -0.0814838904 0.1531174045 0.3421384333 -0.4421241606 0.3421969656 -0.441875963 -0.1077984379 0.1464808085
440297360.0 -0.0796818866 0.1541415931 0.3367341675 -0.4458795888 0.3369468116 -0.4457220789 -0.1064642241 0.1469773667
445297330.0 -0.0781420936 0.155152312 0.3322734858 -0.4496135219 0.332164091 -0.4495214584 -0.1050208837 0.1485311829
450297300.0 -0.076459242 0.1559024422 0.3271301654 -0.4530629534 0.3272064384 -0.4531212088 -0.1035527125 0.1501375279
455297270.0 -0.0749304709 0.1571106103 0.3230143201 -0.4568408667 0.3226529999 -0.456715443 -0.1019996378 0.1512251282
460297240.0 -0.0729843803 0.1580669438 0.3170463826 -0.4598564593 0.3172393968 -0.4603864478 -0.1006798787 0.1527498936
465297210.0 -0.0710553785 0.1588764345 0.3121627427 -0.463615463 0.3126436298 -0.4637409314 -0.0993342417 0.1531319425
470297180.0 -0.0696407581 0.1599017182 0.3070985152 -0.4669791779 0.3078086264 -0.4671779934 -0.0984494496 0.1547112725
475297150.0 -0.0678926638 0.1605304118 0.301755002 -0.4700727056 0.302297889 -0.4697319511 -0.0963380807 0.1559944922
480297120.0 -0.0658209534 0.1611616442 0.2968718791 -0.4729622483 0.2972705736 -0.4732339865 -0.0951110158 0.1571454698
485297090.0 -0.0636664629 0.1620311072 0.291693518 -0.4767174636 0.2921639885 -0.4765799254 -0.0938811439 0.1576761631
490297060.0 -0.0621539959 0.1630573536 0.2867280636 -0.4798098433 0.2865971605 -0.479611909 -0.0919859144 0.1592262639
495297030.0 -0.0607514231 0.1640099144 0.2812302268 -0.4826211689 0.2812293321 -0.4827912364 -0.090537246 0.160066721
500297000.0 -0.058328167 0.1646300589 0.2758271687 -0.485867084 0.2762337821 -0.4858725372 -0.08943802 0.1612690187
505296970.0 -0.0568951513 0.1654168575 0.2704675634 -0.4886271802 0.2706920505 -0.4885081447 -0.088139849 0.1623286297
510296940.0 -0.0550897026 0.1664648142 0.2653450306 -0.4917751283 0.2654192077 -0.491649381 -0.0861715141 0.1637655862
515296910.0 -0.0534209381 0.1673640855 0.2597943574 -0.4940825059 0.2599718363 -0.4944553006 -0.0847681463 0.1644006432
520296880.0 -0.0512510303 0.1677506586 0.2546738535 -0.497152256 0.2546121735 -0.4973190369 -0.0833487798 0.1655915912
525296850.0 -0.0494586234 0.1685414426 0.2491526306 -0.499886073 0.2493888004 -0.4999588842 -0.0811329942 0.1663652918
530296820.0 -0.0477769017 0.1690609679 0.2442801811 -0.5018783152 0.2439887028 -0.5024796102 -0.080167376 0.1668979583
535296790.0 -0.0454136848 0.1697076016 0.238177103 -0.5046552393 0.2386665379 -0.5047729729 -0.0785769564 0.1677747671
540296760.0 -0.0437846378 0.169966754 0.2327892782 -0.5076770537 0.2326003326 -0.5078185223 -0.0770604565 0.1690816775
545296730.0 -0.0417514339 0.1711021574 0.2273506095 -0.5099042657 0.2268655781 -0.5104844859 -0.0755687281 0.1696320013
550296700.0 -0.0402379739 0.1716618835 0.2220965824 -0.5122999404 0.2222962011 -0.5124066697 -0.0739160132 0.171063613
555296670.0 -0.0378240677 0.1719465557 0.2162775282 -0.5151904827 0.2162155387 -0.5149043717 -0.0722244705 0.1723044728
560296640.0 -0.0361055594 0.1724439373 0.21061399 -0.5172830508 0.2109242696 -0.5167947767 -0.0704201998 0.1727594934
565296610.0 -0.0345940473 0.1729341872 0.2049504657 -0.5193884899 0.204840171 -0.5192978238 -0.0688647108 0.1732339065
570296580.0 -0.0322104729 0.1735065408 0.1994540783 -0.5213977881 0.1995053517 -0.5216384297 -0.0671069083 0.1747626801
575296550.0 -0.0304267519 0.17422683 0.1937052514 -0.5234161638 0.1938049529 -0.523367429 -0.0657359932 0.175102765
580296520.0 -0.0284134167 0.174763053 0.1884005647 -0.5254271173 0.1876987667 -0.5258418272 -0.0638920414 0.1757748359
585296490.0 -0.0265840688 0.1746923717 0.1825547512 -0.5276540437 0.1818998275 -0.5274981825 -0.0625049863 0.1765134329
590296460.0 -0.0248720246 0.1750062286 0.1765481278 -0.5292029867 0.1763619274 -0.5294532673 -0.0607110828 0.1777640455
595296430.0 -0.0227073479 0.175886793 0.1710004645 -0.5314101211 0.170967153 -0.5315307793 -0.059223178 0.1779429926
600296400.0 -0.0208606223 0.1764384432 0.1652986461 -0.5333452688 0.1655298846 -0.5333750903 -0.0573582519 0.1793355032
605296370.0 -0.0186164054 0.1771431007 0.1592072885 -0.5353088359 0.1594288999 -0.5347242179 -0.0555747687 0.1792441949
610296340.0 -0.0166898562 0.1769188516 0.1536437343 -0.5366406742 0.1537955518 -0.5366736429 -0.0535919902 0.1807943537
615296310.0 -0.014791287 0.1774240409 0.1477844964 -0.5379385415 0.1474062628 -0.5380660158 -0.0520715493 0.1811783023
620296280.0 -0.0130120188 0.1775996901 0.1417511958 -0.5393941211 0.1419785945 -0.5399659086 -0.0504557038 0.1814321886
625296250.0 -0.0106604129 0.1778887521 0.1358163698 -0.5415291551 0.1360315361 -0.5410964973 -0.0484795558 0.1822599318
630296220.0 -0.0085975504 0.1784091088 0.1298246715 -0.5429492785 0.1305296766 -0.5426407079 -0.0468843655 0.1832516919
635296190.0 -0.0068152379 0.1783282648 0.1242539406 -0.5437810573 0.1239907913 -0.5435854163 -0.045447062 0.1836822324
640296160.0 -0.0050156278 0.1785890387 0.1183168357 -0.5448994296 0.1187251362 -0.5449971346 -0.0434017079 0.1839389063
645296130.0 -0.0029188592 0.1790222212 0.1126634354 -0.5467875947 0.1125727928 -0.5463109212 -0.0422979714 0.1842539271
650296100.0 -0.0010523701 0.1796680913 0.1073378973 -0.5475573253 0.1069968885 -0.5472439916 -0.0397565554 0.18542238
655296070.0 0.0009850066 0.1792467995 0.1005314387 -0.5480952409 0.1005933341 -0.5484424097 -0.0380097528 0.1858665988
660296040.0 0.0026686976 0.1796458902 0.095014351 -0.5492679023 0.0948995119 -0.5492941183 -0.0366927997 0.1861227236
665296010.0 0.0051983217 0.1793433029 0.0887947642 -0.5503878572 0.0892861042 -0.5504807875 -0.0350041946 0.187087179
670295980.0 0.0072939641 0.1796482081 0.083030941 -0.5513220068 0.0832910195 -0.5512608817 -0.0334559484 0.1872164309
675295950.0 0.0093502285 0.1795049208 0.0769024109 -0.5520784583 0.0772498951 -0.5527106828 -0.0312136483 0.1879341622
680295920.0 0.0110628083 0.180137719 0.0709526137 -0.5529556946 0.0707501687 -0.553070268 -0.0295557161 0.1882088782
685295890.0 0.0129057226 0.1799226357 0.065479562 -0.5537603184 0.0647180311 -0.5542219406 -0.0274141102 0.1889514428
690295860.0 0.0153492623 0.1798931259 0.0591948507 -0.5540150331 0.0588821349 -0.5541621025 -0.0254500707 0.189348649
695295830.0 0.0177743762 0.1799342994 0.0523560213 -0.5546703338 0.0529621267 -0.5548906557 -0.0242444129 0.1896189407
700295800.0 0.0195905853 0.1797906039 0.0467232109 -0.555351572 0.0470306759 -0.5557592132 -0.0218784337 0.1894405765
705295770.0 0.0214365896 0.1798263153 0.0409491571 -0.555883821 0.0413302206 -0.5559821092 -0.021132029 0.1902312736
710295740.0 0.0234872286 0.1800061789 0.0351458873 -0.5563129666 0.0353773652 -0.5558295245 -0.0194258335 0.1906550323
715295710.0 0.0250803208 0.1796264746 0.029172389 -0.5567866458 0.0289685612 -0.5562957653 -0.0168389766 0.1905969044
720295680.0 0.0270579125 0.1793252395 0.0232507911 -0.5562976859 0.0232896091 -0.5572249225 -0.014996776 0.1912741775
725295650.0 0.0297163508 0.1792129943 0.0166068827 -0.55670828 0.0171112502 -0.5569091738 -0.0128547449 0.1919663568
730295620.0 0.0313328337 0.1791703246 0.0109662848 -0.5570165158 0.0110349857 -0.5571897942 -0.0114014645 0.1916212095
735295590.0 0.0337149012 0.1788129826 0.0050510987 -0.557138584 0.0053583241 -0.5575032601 -0.0095275405 0.1919517424
740295560.0 0.0353596456 0.1788443469 -0.0010862962 -0.5571205561 -0.0008999042 -0.5573180871 -0.0075931883 0.1920795103
745295530.0 0.037524113 0.1783134079 -0.0070153533 -0.5570664817 -0.0066686004 -0.5573232883 -0.0060260107 0.1925769336
750295500.0 0.0393896125 0.1781287631 -0.0129833797 -0.5563629023 -0.0128528886 -0.5569461252 -0.0039053396 0.1921198468
755295470.0 0.0418742666 0.1780498606 -0.0186668507 -0.5564423303 -0.0184582171 -0.5567459955 -0.0022532954 0.1926496093
760295440.0 0.0435425895 0.1778516633 -0.0251646215 -0.5564817375 -0.0247680844 -0.5567277234 -0.0008950271 0.1925803507
765295410.0 0.0454543916 0.1770649858 -0.030596884 -0.555982801 -0.030430071 -0.5560276964 0.0022133456 0.193413531
770295380.0 0.0477450952 0.1769536466 -0.0369082819 -0.5553570129 -0.0367752624 -0.5558958852 0.0037312199 0.1933566877
775295350.0 0.0493866123 0.1766610642 -0.0424369974 -0.5551623724 -0.0426648619 -0.5549946387 0.0049536142 0.1929709124
780295320.0 0.0516435648 0.1761216396 -0.0485475626 -0.554785466 -0.0486325369 -0.5548306937 0.0070927566 0.1937673362
785295290.0 0.0533116167 0.1761236077 -0.0546616886 -0.5535596995 -0.0546470484 -0.5541065621 0.0085472913 0.1934684516
790295260.0 0.0553528085 0.1755903561 -0.0605501658 -0.553664399 -0.0604792819 -0.5535173885 0.0109634843 0.1936251415
795295230.0 0.0573223366 0.1748847169 -0.0663410767 -0.5521133968 -0.0662815293 -0.5530196798 0.0127395322 0.1941805519
800295200.0 0.0594254803 0.1744935057 -0.0730255357 -0.5517833151 -0.072971726 -0.5518536752 0.0145833937 0.193703319
805295170.0 0.0610967394 0.1739422213 -0.0783937246 -0.5507486784 -0.078305456 -0.551011826 0.0163306649 0.1934689592
810295140.0 0.0632001897 0.1734194988 -0.0837501257 -0.5501830851 -0.0843904998 -0.5505609905 0.0184715622 0.1939488812
815295110.0 0.065258777 0.1725136363 -0.0905684064 -0.5487180163 -0.0905479263 -0.5494351081 0.0201022875 0.1935935832
820295080.0 0.0670911379 0.1719753533 -0.0958855334 -0.5485090743 -0.0959808087 -0.5486241358 0.0219583719 0.1935133511
825295050.0 0.0690702172 0.1714522707 -0.1018186177 -0.5464125117 -0.1018824405 -0.5472743086 0.0240175461 0.1939940303
830295020.0 0.0707073912 0.1709919311 -0.107732064 -0.5455820542 -0.1082725408 -0.5461601267 0.0256958849 0.1934024343
