!Created with skrf (http://scikit-rf.org).
# Hz S RI R 50.0 
!freq ReS11 ImS11 ReS21 ImS21 ReS12 ImS12 ReS22 ImS22
300000.0 -0.2351494261 -0.1108331933 0.4666755979 0.0727634515 0.4705869445 0.0748888263 -0.2368935876 -0.1157392233
5299970.0 -0.2407205998 0.006895223 0.4753157262 0.005666383 0.4749518125 0.0058246314 -0.2446132716 0.005277701
10299940.0 -0.2371732937 0.0199143017 0.4772151795 0.0064810171 0.476916919 0.0065742076 -0.2414050013 0.0172694909
15299910.0 -0.2330453645 0.0296578704 0.4806499519 0.0073551526 0.4806107849 0.0079679198 -0.237384399 0.0262768091
20299880.0 -0.2274461085 0.0378791138 0.4851684234 0.0081585234 0.4853255152 0.0081452243 -0.2329338738 0.0340118306
25299850.0 -0.2214339523 0.0442666418 0.4904126721 0.0068874664 0.4906207925 0.0070249604 -0.2278876354 0.0399229603
30299820.0 -0.2158647854 0.0494132681 0.4963237508 0.0050641725 0.4956886962 0.0049338125 -0.2225872982 0.0447994224
35299790.0 -0.2099956571 0.0541451045 0.5014069647 0.0016440784 0.5013804174 0.0017735248 -0.2173027187 0.0485258914
40299760.0 -0.2044421069 0.0569993683 0.5061809152 -0.0020818585 0.5061981205 -0.0024899284 -0.2125918335 0.0520105846
45299730.0 -0.1995792556 0.0599742919 0.511010033 -0.0074765642 0.5113314355 -0.0067442848 -0.208263934 0.054485521
50299700.0 -0.1946571526 0.061892076 0.5148628557 -0.0125677 0.5153806062 -0.0123696829 -0.2037395151 0.0563697984
55299670.0 -0.1906210759 0.0637348492 0.5182945308 -0.0184335052 0.5188228761 -0.0184306046 -0.2000121472 0.0580375869
60299640.0 -0.1863933698 0.0649464716 0.5218979377 -0.0249475039 0.5221677549 -0.0248510641 -0.1961038578 0.0595469762
65299610.0 -0.1830347848 0.0664856078 0.5249727631 -0.0306942397 0.5253911377 -0.0311259504 -0.1928711049 0.0604616541
70299580.0 -0.1794408138 0.0670472572 0.5271769648 -0.0378823597 0.5273723508 -0.0378596691 -0.1900660821 0.0615321129
75299550.0 -0.1763252416 0.0682328883 0.5289767634 -0.0444371539 0.5289957672 -0.0444448272 -0.1869861454 0.0623965746
80299520.0 -0.1739784612 0.0689652527 0.5315405452 -0.0517099599 0.5316749868 -0.0513889327 -0.1847981995 0.0629634865
85299490.0 -0.1710834851 0.0692714908 0.5321559435 -0.0583157744 0.532348945 -0.0584664632 -0.1824454893 0.0635681671
90299460.0 -0.1693842658 0.0701175741 0.5334809967 -0.065043457 0.5331883533 -0.0650945014 -0.1798197178 0.0641990883
95299430.0 -0.1670991745 0.0711047651 0.5342962106 -0.0726318305 0.5346366126 -0.0720290485 -0.1786145205 0.0651495941
100299400.0 -0.1654379123 0.0720165438 0.5349359848 -0.0792934251 0.534739403 -0.079123788 -0.177194891 0.0654484941
105299370.0 -0.1633198301 0.0725151863 0.5346531647 -0.0856979174 0.5349332079 -0.085733908 -0.1749224268 0.0662280237
110299340.0 -0.1618252681 0.0732035936 0.5349775247 -0.092722995 0.5351698234 -0.0928146524 -0.1736818459 0.066600313
115299310.0 -0.1601026041 0.0733874523 0.5346047466 -0.0990483019 0.5352712151 -0.0993689582 -0.17225538 0.067114167
120299280.0 -0.159033533 0.0743729545 0.5349981809 -0.1064810292 0.5347997405 -0.1064475651 -0.1712092415 0.0681918597
125299250.0 -0.1578420728 0.0751868946 0.5342632194 -0.1128105301 0.5347668033 -0.1133854509 -0.1698082999 0.0682390226
130299220.0 -0.1564461674 0.0760373072 0.5337612523 -0.119430167 0.534200382 -0.1199288636 -0.1689459375 0.0693852303
135299190.0 -0.155211512 0.0766473657 0.5333192451 -0.1257998329 0.5328782619 -0.1264568857 -0.168202621 0.0702786056
140299160.0 -0.1541678493 0.0780486553 0.5325512298 -0.1332638508 0.5327393597 -0.1330837714 -0.166961214 0.0710037969
145299130.0 -0.1532420362 0.0789635068 0.531596547 -0.1399494722 0.5313628861 -0.1395290655 -0.1660675894 0.0716274457
150299100.0 -0.1520042169 0.0799794526 0.5299939211 -0.1459048388 0.5305061045 -0.1461083952 -0.1651600945 0.0725919671
155299070.0 -0.1510018186 0.0814226698 0.5290278121 -0.15299418 0.5292038272 -0.1529691388 -0.1645921142 0.0736732351
160299040.0 -0.1499889099 0.0819620079 0.5273088142 -0.1585246092 0.5277430585 -0.1592974797 -0.1635661372 0.0749579106
165299010.0 -0.1492788851 0.0833271412 0.5264770422 -0.1658236261 0.5265031527 -0.1657557645 -0.1628494505 0.0754647564
170298980.0 -0.1483986892 0.0843804838 0.523905225 -0.1718772134 0.5248032745 -0.1718429859 -0.1617374777 0.0763916575
175298950.0 -0.147271049 0.0855242522 0.5236151106 -0.1778108081 0.5235494323 -0.1777564766 -0.1609569067 0.0774847212
180298920.0 -0.1463813521 0.0868856381 0.5215168112 -0.1845578941 0.5217813696 -0.1841931684 -0.1601237048 0.0786948818
185298890.0 -0.1452695617 0.0880276679 0.5191135021 -0.1906899266 0.519701642 -0.1905299809 -0.1595443392 0.0793455275
190298860.0 -0.1444638787 0.08918197 0.5175689326 -0.1968814832 0.5178298051 -0.1969139389 -0.158522142 0.0808546584
195298830.0 -0.1434918365 0.090153773 0.5158033204 -0.2026787585 0.5159942865 -0.2032607385 -0.1578866875 0.0816910775
200298800.0 -0.1427164691 0.0917680155 0.5139645978 -0.2083307332 0.5136172262 -0.2087638721 -0.1567430378 0.083213721
205298770.0 -0.1416932097 0.0930851302 0.5119165778 -0.214912049 0.5118412452 -0.2148850611 -0.1563988482 0.0838793499
210298740.0 -0.1408208445 0.0942916281 0.5091245348 -0.2211878681 0.5092924284 -0.2212559732 -0.1554808984 0.0856251209
215298710.0 -0.1396871208 0.0956178108 0.5067492688 -0.2269005691 0.5071766387 -0.2266074041 -0.1551100226 0.0865558911
220298680.0 -0.1387530977 0.0969490111 0.5042043479 -0.2328743886 0.5045513425 -0.2327621257 -0.1539705542 0.0879363465
225298650.0 -0.1375324232 0.0985517498 0.5017914152 -0.2385795491 0.5015920433 -0.2383025261 -0.1533053576 0.0892829355
230298620.0 -0.1370348225 0.100115742 0.4997667565 -0.2448431369 0.4996875012 -0.2446073762 -0.1526793561 0.0904642825
235298590.0 -0.1358511235 0.1008519132 0.4969014347 -0.2502654493 0.4970036129 -0.2503055824 -0.1516989662 0.0915099055
240298560.0 -0.1350856821 0.1025518913 0.4943476526 -0.2554415237 0.4947765175 -0.2555518753 -0.1510167806 0.0932762973
245298530.0 -0.1336905201 0.103970566 0.4911562394 -0.2616827763 0.4912695288 -0.261863434 -0.1499811072 0.0945504513
250298500.0 -0.1330336201 0.1053694597 0.4888126223 -0.2668768893 0.4889000693 -0.2669101706 -0.1490567216 0.0957578223
255298470.0 -0.1317534025 0.1066952381 0.4851191797 -0.2729151806 0.4853180699 -0.272792647 -0.1482901151 0.0968037927
260298440.0 -0.1306070439 0.1080530122 0.482582278 -0.2782999109 0.4823391658 -0.2782857128 -0.1468370192 0.0985857919
265298410.0 -0.1295412211 0.1098479709 0.4796578723 -0.2843727538 0.4794247087 -0.2838686611 -0.1462430921 0.0995340368
270298380.0 -0.1280409822 0.1108242066 0.476018949 -0.2893404983 0.4769499 -0.289259156 -0.1454594747 0.1013798719
275298350.0 -0.1274734916 0.1124762868 0.4733965272 -0.2948505164 0.4737285924 -0.2947342766 -0.1443731505 0.1023495222
280298320.0 -0.1262984571 0.1140736537 0.4703284397 -0.2998328309 0.470270752 -0.3001265604 -0.1433703396 0.1038424303
285298290.0 -0.1248353154 0.1154245793 0.4672378179 -0.3053491331 0.466781152 -0.3053190085 -0.1425335897 0.1050929313
290298260.0 -0.1235331417 0.1168533004 0.4637279163 -0.3106584536 0.4636705887 -0.3109287653 -0.1410500074 0.1067558265
295298230.0 -0.1224253652 0.1179609619 0.4603847578 -0.3157144357 0.4600652789 -0.3160685537 -0.1401110027 0.1080671337
300298200.0 -0.1209152651 0.1194779786 0.4567120819 -0.3213140904 0.4572877335 -0.3213598953 -0.1392648632 0.1093935987
305298170.0 -0.1194868602 0.1207825898 0.4534932177 -0.3266442635 0.4537222048 -0.3262900871 -0.1379652359 0.1107437784
310298140.0 -0.1180175238 0.1220314552 0.4499824383 -0.3318426411 0.4502146211 -0.3319593175 -0.1367881057 0.1126217647
315298110.0 -0.1172682788 0.123095551 0.4464694433 -0.3371077149 0.4465876905 -0.3368573773 -0.1356847748 0.1132775196
320298080.0 -0.1158856941 0.1245528929 0.4426076544 -0.3422830996 0.4426224169 -0.3420505036 -0.1347045059 0.1145749774
325298050.0 -0.1145560229 0.1253057765 0.4389172439 -0.3467419292 0.4388994556 -0.3474957676 -0.1335121559 0.1159469846
330298020.0 -0.1136331064 0.1269328024 0.4343992193 -0.3521313471 0.4346794839 -0.3523792077 -0.1331464226 0.116823335
335297990.0 -0.1121899955 0.1279715805 0.4305382018 -0.3571914726 0.4306575563 -0.3568437358 -0.1321788845 0.1183842834
340297960.0 -0.111473519 0.1297671491 0.4266804978 -0.3619008713 0.4264648667 -0.3614645236 -0.1311054044 0.1195464172
345297930.0 -0.1102363794 0.1309712369 0.4225520108 -0.365874076 0.4223254351 -0.3659784296 -0.1299000034 0.1210402603
350297900.0 -0.1084572104 0.1324891149 0.4182073386 -0.3708337506 0.4184194618 -0.3709975787 -0.1288743106 0.1229981402
355297870.0 -0.1071112336 0.1338454375 0.4139110028 -0.375455232 0.4142757163 -0.3756715392 -0.1280873729 0.1242331736
360297840.0 -0.1055579382 0.1350616384 0.4098152357 -0.3805500631 0.4101425638 -0.3803322884 -0.1263463427 0.1259108522
365297810.0 -0.1041067696 0.1361924025 0.4057456432 -0.3845842747 0.4058082246 -0.3847117681 -0.1256191044 0.1276070456
370297780.0 -0.1025335216 0.1374352948 0.4012717929 -0.3887855543 0.4016235692 -0.38910209 -0.1242566502 0.1286966854
375297750.0 -0.1013017246 0.1391928385 0.3977403649 -0.3931516652 0.397216503 -0.3938497578 -0.1229936206 0.1302293012
380297720.0 -0.0996385519 0.1401036861 0.3927579656 -0.3978713663 0.3930497985 -0.3975622257 -0.1218386966 0.1317893589
385297690.0 -0.0980558139 0.1415003969 0.3888171506 -0.4016226605 0.3883379849 -0.402031564 -0.1208969265 0.1332823894
390297660.0 -0.0967343003 0.142910512 0.3839831287 -0.407031122 0.3840937505 -0.4067395785 -0.1193742132 0.1342249455
395297630.0 -0.094793374 0.1438667736 0.3797251236 -0.4105414061 0.3796842986 -0.4103484968 -0.1182519963 0.1358065644
400297600.0 -0.093654381 0.1453537164 0.3748233844 -0.4144981085 0.3752035751 -0.4148556261 -0.1173273855 0.1369417427
405297570.0 -0.0916329501 0.14644928 0.3704678306 -0.41879167 0.370810608 -0.4187674043 -0.1156425977 0.1386926805
410297540.0 -0.0899581766 0.1476023787 0.3654482605 -0.4224796145 0.3656023949 -0.4226542577 -0.1144489906 0.1397842443
415297510.0 -0.0886269814 0.1490554393 0.3610824879 -0.4263888399 0.3612372667 -0.4266750078 -0.1134995769 0.1412503823
420297480.0 -0.0869804102 0.1495052307 0.3563636784 -0.4309570206 0.3563884363 -0.4307214435 -0.1116255855 0.142433793
425297450.0 -0.0850257545 0.1507571456 0.351600453 -0.4347944457 0.3521650861 -0.4348921034 -0.1104063641 0.1439907447
430297420.0 -0.0835662157 0.1522585128 0.3472735466 -0.4387595907 0.3471324234 -0.4383858303 -0.1093263236 0.1447668654
435297390.0 -0.0818284622 0.1532245297 0.3424805408 -0.4418976324 0.3422740862 -0.441737094 -0.1076714221 0.1463762487
440297360.0 -0.0797911556 0.1538754128 0.3370579691 -0.4458050658 0.3370061649 -0.4456992001 -0.1064584239 0.1471186931
445297330.0 -0.0781513963 0.1549604048 0.3320741614 -0.4498206995 0.332499871 -0.449583938 -0.104927655 0.1483170011
450297300.0 -0.0763195126 0.1562591083 0.3272430512 -0.4526395838 0.327747259 -0.4532210058 -0.1038386727 0.1498372218
455297270.0 -0.0747951924 0.1570826899 0.3225221237 -0.4566799607 0.3227955457 -0.4566744946 -0.1018942055 0.1511537757
460297240.0 -0.0733099468 0.1578800733 0.3176846351 -0.4597712099 0.3171225472 -0.4601909765 -0.1006310232 0.1527734616
465297210.0 -0.0711838231 0.1587490883 0.3125506211 -0.4635020996 0.3128401543 -0.4636639247 -0.0996956535 0.1533866321
470297180.0 -0.0695727191 0.1597480027 0.3072135783 -0.4666912091 0.3075933774 -0.4667530228 -0.0984657073 0.1546595431
475297150.0 -0.0681040637 0.1604333328 0.3020151138 -0.4700948041 0.3024411399 -0.4697858829 -0.0966392978 0.1559640561
480297120.0 -0.0655273181 0.1610957923 0.2967337227 -0.4731992657 0.2974929298 -0.4732094259 -0.095214204 0.1573406677
485297090.0 -0.063932311 0.1623697201 0.2923039447 -0.4765820257 0.2919896783 -0.476478098 -0.0939016559 0.1578777776
490297060.0 -0.0620476426 0.1629323274 0.2865369152 -0.4796577226 0.2872795688 -0.4796972247 -0.0921892223 0.1592835646
495297030.0 -0.0605845963 0.1643221197 0.281128648 -0.4826631412 0.2811222671 -0.4827259645 -0.0906719788 0.1599158256
500297000.0 -0.0583074127 0.1645730349 0.2760738525 -0.4860036744 0.2763034488 -0.4856897349 -0.0895144568 0.1611969479
505296970.0 -0.0568989862 0.1653068785 0.2705618996 -0.4882686645 0.2709945519 -0.4884191122 -0.088240929 0.162333653
510296940.0 -0.0548933581 0.1664716662 0.2658026942 -0.4915031342 0.2656618892 -0.4914380886 -0.0858912636 0.1634093051
515296910.0 -0.0531370113 0.1673041189 0.259681402 -0.4943833533 0.2600482759 -0.4942236611 -0.0847298914 0.164251063
520296880.0 -0.0511120738 0.1675677612 0.2546015417 -0.4970040686 0.2548976758 -0.4969872409 -0.0831613278 0.1655667793
525296850.0 -0.0495874021 0.1682623664 0.2493339463 -0.4999517717 0.2491865555 -0.4999743005 -0.0813746687 0.1665082431
530296820.0 -0.0475623934 0.1691969138 0.2440662547 -0.5023449387 0.2437199633 -0.5025145558 -0.0803444267 0.1671366606
535296790.0 -0.0459158249 0.1697074438 0.2380978192 -0.5047535012 0.2386824431 -0.5049077542 -0.0785426931 0.1680409477
540296760.0 -0.044046451 0.170050177 0.2330688596 -0.50784191 0.2326677536 -0.5078530878 -0.0773103214 0.1694007279
545296730.0 -0.0419802245 0.1712211765 0.2271519088 -0.509752611 0.2273077953 -0.5102822181 -0.0754205282 0.1696823632
550296700.0 -0.0401806309 0.1714407399 0.2220179746 -0.5125846255 0.2221144877 -0.5125057611 -0.0740472296 0.1711825956
555296670.0 -0.0378078151 0.1719941289 0.2164501534 -0.5150314495 0.2161029357 -0.5145979685 -0.0724794596 0.1718556313
560296640.0 -0.0361204961 0.1724681546 0.211046233 -0.5168788436 0.2108120382 -0.5169987456 -0.0707865673 0.1725984254
565296610.0 -0.0345308377 0.1730991615 0.2045723935 -0.51964819 0.2050046194 -0.5196381914 -0.0690432996 0.1734401595
570296580.0 -0.0320896862 0.173476023 0.1990827437 -0.520936748 0.1997568366 -0.5218011371 -0.0671862582 0.1748611054
575296550.0 -0.0304525787 0.1744678723 0.1934318809 -0.5234025542 0.1942519396 -0.5230419013 -0.0654465122 0.1751573203
580296520.0 -0.0285773726 0.1748053002 0.1883903846 -0.5255976743 0.1880241268 -0.5256034847 -0.0642235094 0.1759706631
585296490.0 -0.0263457709 0.1746781942 0.1824263474 -0.5274143362 0.1828632894 -0.5275818629 -0.0625491732 0.176387534
590296460.0 -0.0247294143 0.1752531928 0.1763730571 -0.529380223 0.1766283329 -0.5297015423 -0.0607167293 0.1773676847
595296430.0 -0.0224769283 0.1759690449 0.1712818101 -0.5315448739 0.1712685168 -0.5315168891 -0.0587303649 0.177927182
600296400.0 -0.0208122348 0.1762643142 0.1654684759 -0.5333392173 0.1657170717 -0.5330828152 -0.0573633185 0.179043846
605296370.0 -0.0186741124 0.1767884291 0.1594158929 -0.534825463 0.1594594769 -0.5347242379 -0.0557049096 0.1796437592
610296340.0 -0.0169722028 0.1771370496 0.1540719571 -0.5362338132 0.1540234262 -0.5367768013 -0.0539776143 0.1807210847
615296310.0 -0.0148148217 0.1775467564 0.1475261488 -0.5379940128 0.1478888636 -0.5384195074 -0.0519378841 0.1812989038
620296280.0 -0.0129698352 0.1776564265 0.1422005035 -0.5395184633 0.1423351093 -0.5395202604 -0.0505981339 0.181497816
625296250.0 -0.0108951759 0.1781000818 0.1361865962 -0.5412197639 0.1363066898 -0.5414067272 -0.0485826509 0.1826432499
630296220.0 -0.0086974858 0.1782265983 0.1299645206 -0.5425186004 0.1305654915 -0.5426999564 -0.0474097164 0.1830195229
635296190.0 -0.0068118697 0.1786065266 0.1245858294 -0.5433267847 0.1243022212 -0.5433754894 -0.0454608558 0.1836373129
640296160.0 -0.0046868724 0.1784739836 0.1184230833 -0.5447082978 0.1187761405 -0.5451346627 -0.0432115255 0.1841898816
645296130.0 -0.002802408 0.1790161492 0.1125483164 -0.5466868671 0.1127997586 -0.5463734653 -0.0424758802 0.1842333986
650296100.0 -0.0008206717 0.179558924 0.1070757868 -0.5474916001 0.1070528134 -0.5470363002 -0.0401268365 0.1853180647
655296070.0 0.000900673 0.1792008641 0.100811997 -0.5484753058 0.1006481116 -0.5481355399 -0.0379030498 0.1861315818
660296040.0 0.0028362429 0.179891935 0.0951095374 -0.5494078952 0.0952988108 -0.5493496502 -0.0369106037 0.1860129716
665296010.0 0.0050025364 0.1794411594 0.0892233726 -0.550625049 0.0899120881 -0.5505555535 -0.0350043447 0.187156166
670295980.0 0.0074430951 0.1797630416 0.0833105346 -0.5513683591 0.0835553837 -0.5515315209 -0.0335867828 0.187314452
675295950.0 0.0093662978 0.1798456777 0.0768588019 -0.5522286749 0.0775526677 -0.5525132618 -0.0312697844 0.1879648394
680295920.0 0.0111895382 0.1802105824 0.0709361233 -0.5529700492 0.0708709631 -0.5532389462 -0.0292321233 0.1880041527
685295890.0 0.0131717516 0.1797647396 0.0653444451 -0.5536588434 0.0653513655 -0.5540785322 -0.0271905235 0.1887547882
690295860.0 0.0154208821 0.1800307867 0.0594408759 -0.5542526623 0.0590469364 -0.5543903876 -0.0255378971 0.1891582277
695295830.0 0.0174604779 0.1795270202 0.0527312119 -0.5549380935 0.0530820652 -0.5550797786 -0.0241600245 0.1897587593
700295800.0 0.0195571737 0.1797648447 0.0472381404 -0.5554859577 0.0470348185 -0.5558541166 -0.0221271905 0.1899161827
705295770.0 0.021537263 0.1799954769 0.0411115459 -0.5557591552 0.0417246733 -0.5559932395 -0.0208505514 0.1902370962
710295740.0 0.0235846974 0.1799444389 0.0355192545 -0.5561791053 0.0353481256 -0.5559220811 -0.0195505597 0.1906914249
715295710.0 0.02539953 0.1797762664 0.0292249101 -0.5568104411 0.0297131497 -0.5565864659 -0.0170321106 0.191012922
720295680.0 0.0270852963 0.1793387581 0.0236930536 -0.5564727435 0.0230762879 -0.5569188696 -0.0147386498 0.1914759893
725295650.0 0.0296787568 0.179268188 0.0167474569 -0.5568034389 0.0170252142 -0.5571150093 -0.0133312832 0.1917125831
730295620.0 0.0310844062 0.178953957 0.0111617705 -0.5569159047 0.0111151141 -0.5572763383 -0.0109786465 0.191518458
735295590.0 0.0335896086 0.1789527752 0.005321817 -0.5571525721 0.005302131 -0.557230271 -0.0092140677 0.1921831269
740295560.0 0.0356150579 0.1788207461 -0.0006558658 -0.5565733525 -0.000905645 -0.5571625699 -0.0073478172 0.1923304301
745295530.0 0.0375178034 0.1782925995 -0.0066223306 -0.5570509661 -0.0063173685 -0.5572054042 -0.0060698421 0.1925601059
750295500.0 0.0395121744 0.1781768386 -0.012608929 -0.5564863479 -0.0125654124 -0.5566016498 -0.0038751029 0.1922269794
755295470.0 0.0419790814 0.1780379471 -0.0185156816 -0.556914681 -0.0187493915 -0.5569431192 -0.0024679797 0.1930411408
760295440.0 0.043528202 0.1775732918 -0.0250883465 -0.5560856747 -0.0247436945 -0.5567423287 -0.0007031589 0.193140897
765295410.0 0.0453255636 0.1771025676 -0.0303451267 -0.5557681686 -0.0305523497 -0.5565042573 0.0020650984 0.1936380285
770295380.0 0.0475495761 0.1769279708 -0.0365491085 -0.5553398771 -0.0364597857 -0.5559771865 0.0040662742 0.1934403753
775295350.0 0.0495479426 0.1766602847 -0.0426830421 -0.5549019045 -0.0422402255 -0.5550859885 0.0050802632 0.1931301983
780295320.0 0.0515932181 0.1760372154 -0.0486376994 -0.5550393184 -0.0481194691 -0.5547676883 0.0073279351 0.1939557559
785295290.0 0.0533685148 0.1758873488 -0.0545441573 -0.5536362382 -0.0542382601 -0.5541078216 0.0084398489 0.1936136538
790295260.0 0.0556071584 0.1754800279 -0.0607043171 -0.5533877858 -0.0604795287 -0.5536598535 0.0110240934 0.1936698511
795295230.0 0.0573231118 0.1751344367 -0.0663038423 -0.55253575 -0.0657298628 -0.5530016734 0.0125856361 0.194220029
800295200.0 0.0593002135 0.1747667451 -0.0725482175 -0.5518135653 -0.0724206074 -0.5522114138 0.0148661875 0.19382114
805295170.0 0.061033653 0.1739799063 -0.0777565527 -0.5506207643 -0.0780743436 -0.5513087952 0.0159034165 0.193510486
810295140.0 0.0630823602 0.1732513828 -0.0840497247 -0.5500040263 -0.0839209165 -0.5507818371 0.0184514378 0.1942466778
815295110.0 0.0650724219 0.1729702558 -0.0901948254 -0.5489620903 -0.0903991229 -0.5490578894 0.0198339332 0.1935769471
820295080.0 0.0668185297 0.1718637216 -0.0957443333 -0.5478346393 -0.0958485763 -0.549093105 0.021696902 0.1935552636
825295050.0 0.0690873404 0.1714910406 -0.1019693953 -0.5467242453 -0.1018086063 -0.5472175574 0.0240173562 0.1940178726
830295020.0 0.0707602062 0.1711366255 -0.1077359219 -0.5457396072 -0.1084566843 -0.5463527293 0.0254858477 0.193332755
