!Created with skrf (http://scikit-rf.org).
# Hz S RI R 50.0 
!freq ReS11 ImS11 ReS21 ImS21 ReS12 ImS12 ReS22 ImS22
300000.0 -0.2103730633 -0.1005667128 0.0003071719 0.0029753737 0.000560554 0.0013528842 -0.7678380863 -0.1926453527
5299970.0 -0.2148964043 0.0069033808 8.9397e-05 6.145e-05 6.09936e-05 9.93477e-05 -0.7850789892 -0.0100344195
10299940.0 -0.211651809 0.0203776891 -0.000145658 8.97294e-05 3.1042e-06 -1.57818e-05 -0.7875836424 -0.0057138037
15299910.0 -0.2062782529 0.0299836763 -0.0001151644 -6.20352e-05 0.0002021514 0.0001932412 -0.7928999878 -0.0027332489
20299880.0 -0.2006440895 0.0382182116 -1.739e-06 7.56337e-05 -4.73567e-05 0.000187085 -0.7994030082 0.0014929059
25299850.0 -0.1939938783 0.0446319005 0.000142202 -1.67321e-05 -0.0001500349 -0.0001444098 -0.8064820119 0.0078941375
30299820.0 -0.1879158881 0.0497025072 -4.36347e-05 0.0001049925 8.943e-07 -0.0001555488 -0.8118482854 0.0158830511
35299790.0 -0.1817193104 0.0535131326 -0.0001313025 -7.1484e-06 0.0002345899 -5.65779e-05 -0.8172110709 0.0248199033
40299760.0 -0.1754428202 0.0561106594 -0.0001697275 0.0002307441 -1.0984e-06 2.73243e-05 -0.8213313168 0.0336750952
45299730.0 -0.169926686 0.0580985733 0.0001717488 0.0001552114 -6.19122e-05 -5.95578e-05 -0.8239454323 0.0434626539
50299700.0 -0.1644137724 0.0594900947 2.69418e-05 3.99658e-05 1.85301e-05 3.5653e-05 -0.8265172164 0.0538059747
55299670.0 -0.1597013566 0.0606588959 9.49222e-05 -0.0001163818 -0.0001465299 0.0001726541 -0.8290630144 0.063570341
60299640.0 -0.1553267565 0.0610948834 -2.1465e-06 0.000162594 -8.18475e-05 -0.0001058064 -0.8297226427 0.0738738954
65299610.0 -0.151092922 0.0616943919 0.0004118524 8.88571e-05 -2.32348e-05 -3.35996e-05 -0.8304438618 0.0834374563
70299580.0 -0.1479097147 0.0614733279 6.84113e-05 1.14368e-05 -2.18409e-05 7.7196e-05 -0.8312308294 0.0935350517
75299550.0 -0.1446168446 0.061465898 0.0001644936 -7.47413e-05 2.27462e-05 0.0001103359 -0.8307993447 0.1043893743
80299520.0 -0.1416045487 0.0615223355 0.000211523 0.0002927945 3.19121e-05 0.0001417411 -0.8310966751 0.1140298276
85299490.0 -0.1389622722 0.0608067395 -6.54149e-05 0.0001804237 4.16618e-05 -0.0002540729 -0.8300001429 0.1231012169
90299460.0 -0.1362669754 0.0610699332 -9.08824e-05 9.9521e-06 0.0002120374 6.71182e-05 -0.8291921391 0.1325745473
95299430.0 -0.1345306216 0.0606360329 3.71186e-05 6.17706e-05 -0.0002013059 1.30523e-05 -0.8280237726 0.1425027411
100299400.0 -0.1323844061 0.0604146879 0.0002132343 4.85448e-05 -2.35196e-05 3.04019e-05 -0.8271051733 0.1517577665
105299370.0 -0.1303809529 0.0600043493 -0.0001132757 -1.3635e-06 -3.18592e-05 0.000120894 -0.8260612053 0.1606183734
110299340.0 -0.1287829658 0.0600657176 -0.00015843 5.04613e-05 8.54991e-05 -3.2134e-06 -0.8248342198 0.1696114647
115299310.0 -0.1276448539 0.0601473701 0.0001192118 -4.91625e-05 -7.08633e-05 -7.68812e-05 -0.8233074834 0.1792602988
120299280.0 -0.126124598 0.0598781178 -0.0001269326 0.0001663828 0.0002448911 -3.39149e-05 -0.8214641975 0.187879689
125299250.0 -0.1248611638 0.0599422466 -3.3238e-06 0.0001541115 7.69517e-05 -0.000130925 -0.8197261119 0.1972669161
130299220.0 -0.123919832 0.0598320376 -0.0001106838 -2.9886e-06 2.88996e-05 -0.0001277405 -0.8176878678 0.205740476
135299190.0 -0.1226112795 0.0600748264 3.6957e-05 0.0002109121 2.84344e-05 -8.5177e-06 -0.8162356722 0.2148699781
140299160.0 -0.1219928231 0.0603591145 -2.0602e-06 0.0001988147 1.27638e-05 3.0803e-06 -0.8140300408 0.2232789883
145299130.0 -0.120880274 0.0604428645 -3.5198e-05 2.96375e-05 0.0001635848 1.44767e-05 -0.8120095543 0.2323442032
150299100.0 -0.1199376518 0.0603106482 -9.6185e-06 9.66398e-05 -7.91664e-05 6.31979e-05 -0.809946742 0.2413310054
155299070.0 -0.1193554872 0.0610395489 0.0001771019 -5.66871e-05 0.0002471166 -0.0001747768 -0.8071686365 0.250762049
160299040.0 -0.1188496375 0.0614361913 -4.45133e-05 9.59207e-05 7.30167e-05 0.0001557758 -0.8044881999 0.2591874626
165299010.0 -0.1179162051 0.0618847166 0.0001037817 -7.51826e-05 -8.71049e-05 0.0001313792 -0.8018327172 0.267272009
170298980.0 -0.1176152948 0.0621495682 -0.0002918172 -0.0001502861 5.04864e-05 0.000266873 -0.7994986248 0.2759662854
175298950.0 -0.116730703 0.0626406371 -7.4119e-06 0.0001063172 0.0001047637 -4.06344e-05 -0.7963927752 0.2845749143
180298920.0 -0.1163769779 0.0633087775 -9.09078e-05 6.49131e-05 0.000118881 8.13847e-05 -0.7931773303 0.2930590853
185298890.0 -0.115766861 0.0636771671 -3.90058e-05 -6.64189e-05 0.0001277883 0.0001029567 -0.7908013095 0.3015805224
190298860.0 -0.1150966571 0.0645889479 0.0001441946 0.0001506822 9.69658e-05 0.0001858825 -0.7874444964 0.3098666198
195298830.0 -0.1142463834 0.0651948689 -9.66461e-05 6.64553e-05 -0.0001047795 0.0001477066 -0.7845121597 0.3182261811
200298800.0 -0.1136669814 0.06557104 0.0002721479 0.0001164585 -3.66538e-05 0.0001283979 -0.7807297835 0.3266479003
205298770.0 -0.1137995418 0.0665568935 5.9561e-05 8.3848e-06 -0.0001637088 -0.0001190062 -0.7780746308 0.3349673264
210298740.0 -0.1129748742 0.0672354292 -0.0001011322 3.55999e-05 4.50115e-05 0.0003174785 -0.7744969354 0.3431413588
215298710.0 -0.1127177083 0.0677381034 -0.0001063046 0.0002475226 7.18414e-05 9.8716e-06 -0.7707149214 0.3515351751
220298680.0 -0.112086141 0.068529638 5.96779e-05 0.0001882597 0.0002716249 9.33649e-05 -0.7670356151 0.3591409863
225298650.0 -0.1116663045 0.0694523814 3.45901e-05 8.64507e-05 5.52175e-05 -6.75225e-05 -0.7633474621 0.3677663297
230298620.0 -0.1113363675 0.0705224511 9.67033e-05 0.000243035 0.0001828012 -1.1397e-06 -0.7594360253 0.3752768036
235298590.0 -0.1106510025 0.0711240465 0.0001041007 5.74066e-05 -2.71258e-05 -0.0001007792 -0.7549673625 0.3835212624
240298560.0 -0.1104835371 0.072095445 -4.2532e-05 -5.76206e-05 0.0001860565 5.13582e-05 -0.7515436598 0.3909089541
245298530.0 -0.1098142526 0.0726508439 0.0001425537 8.40139e-05 7.17613e-05 0.0001851839 -0.7479722476 0.3991556717
250298500.0 -0.1094412046 0.0735988394 2.77287e-05 5.60454e-05 0.0002210435 5.28664e-05 -0.742616105 0.4069848798
255298470.0 -0.1090805118 0.0745888591 0.0002038429 -1.25319e-05 0.0001268347 0.0001389632 -0.7391065763 0.4144763027
260298440.0 -0.1084848526 0.075546308 8.40127e-05 9.43568e-05 2.40597e-05 0.0001683549 -0.7338154354 0.4220217393
265298410.0 -0.1080825105 0.0765469897 -0.0001091079 -9.4961e-06 5.48246e-05 0.0001472692 -0.7295548231 0.4299653439
270298380.0 -0.1075440406 0.0774183734 0.0001337046 3.23909e-05 -3.72891e-05 0.0002292619 -0.7251667368 0.4383864594
275298350.0 -0.107320901 0.0784428877 -4.93116e-05 3.27114e-05 0.0001993191 8.3816e-06 -0.7206400486 0.4453083819
280298320.0 -0.1067744403 0.0793643066 0.0002256947 -0.0002603663 9.64001e-05 4.78312e-05 -0.7164553273 0.452939613
285298290.0 -0.1062306748 0.0804949056 9.07702e-05 0.00022867 9.38895e-05 0.0001402522 -0.7120380171 0.4608823087
290298260.0 -0.1057655624 0.0814458431 6.2659e-05 -6.1267e-06 0.0002075224 0.0001870334 -0.7068911401 0.4675957181
295298230.0 -0.1052170617 0.0820493126 -0.0001401963 -1.31226e-05 -0.000222935 0.0002171995 -0.7013634289 0.4749024068
300298200.0 -0.104669393 0.0831694368 2.94027e-05 1.83577e-05 0.0001335429 -0.0001338894 -0.6964313117 0.4821587166
305298170.0 -0.1040388099 0.0837758794 0.0001755744 6.11532e-05 3.9283e-06 0.000151856 -0.6912438623 0.4894242145
310298140.0 -0.1032985183 0.084860434 6.98004e-05 5.9612e-05 8.51692e-05 0.0001057231 -0.6863797248 0.4970011448
315298110.0 -0.1031255144 0.0854160008 0.0001847787 -1.501e-07 5.95384e-05 -2.55203e-05 -0.68112758 0.5039321437
320298080.0 -0.1027339224 0.0865980335 9.2238e-05 0.0002061044 4.93191e-05 6.18014e-05 -0.676399543 0.5103946894
325298050.0 -0.1023600849 0.086956195 -6.52803e-05 -5.69101e-05 -0.0001209727 -8.66202e-05 -0.6704111349 0.5176606957
330298020.0 -0.1020190322 0.088562777 8.84187e-05 0.0003280243 0.0001636271 6.52037e-05 -0.6651538675 0.5245105808
335297990.0 -0.1014872826 0.0893326243 0.0003121798 -1.45955e-05 0.0003373773 0.0001090809 -0.6590552589 0.5318728932
340297960.0 -0.101023157 0.090610236 0.0001774 -0.0001358198 6.44031e-05 -0.0001428904 -0.6539796899 0.5382900042
345297930.0 -0.1004069605 0.0915705726 0.0001390778 -1.9999e-05 0.0002407402 -0.0001575231 -0.6486376475 0.5446643506
350297900.0 -0.0999297019 0.0923559589 0.0002689183 0.0001115124 0.000260391 0.00019106 -0.6431060007 0.5509195135
355297870.0 -0.0993131957 0.0932658946 7.3745e-05 -0.0001029015 0.0001089104 0.0002770075 -0.6370500049 0.5586549914
360297840.0 -0.0985886084 0.0945159496 0.0001529501 0.0001497939 8.48719e-05 0.0001672812 -0.6305022811 0.5650745599
365297810.0 -0.098031253 0.0954625077 0.0002660645 5.52519e-05 0.000232149 0.0002063708 -0.6260141363 0.5708271172
370297780.0 -0.0973161873 0.0963060717 0.0003421064 -0.0001077849 0.0001245667 0.000146348 -0.6191865791 0.5778373527
375297750.0 -0.0966133345 0.0971945899 8.25298e-05 1.92331e-05 6.89161e-05 -3.15595e-05 -0.6133640816 0.5839473712
380297720.0 -0.0960774185 0.0986740795 0.0001958611 -8.6139e-06 0.0001387966 5.45043e-05 -0.606948372 0.5903155232
385297690.0 -0.0955188474 0.099403766 0.0001715661 0.0002707509 0.000199812 -8.20212e-05 -0.6011689572 0.5963281475
390297660.0 -0.0945400347 0.0999451595 0.0002291825 6.27125e-05 0.0002559752 7.6081e-05 -0.5946667911 0.6019609131
395297630.0 -0.0937672079 0.1011365207 0.0001582587 0.0001018959 -5.58245e-05 -8.85127e-05 -0.5881651623 0.6073610769
400297600.0 -0.0934524513 0.1023722375 0.0001489831 0.0001564937 0.0001708187 -0.0001109811 -0.5829501417 0.6141176063
405297570.0 -0.0925421372 0.1030678683 7.1882e-06 -5.73441e-05 0.0002139387 0.0001762443 -0.575625047 0.6205888239
410297540.0 -0.0913695323 0.1039844304 0.0002941603 -8.44721e-05 1.7095e-05 3.5254e-06 -0.5691637498 0.6259911452
415297510.0 -0.0909294318 0.1054735977 0.0001966345 0.0002615694 0.0001239944 0.0001112948 -0.5630581789 0.6313671318
420297480.0 -0.0902114198 0.1056605755 0.000291833 6.08106e-05 5.07686e-05 0.0001276752 -0.5557267294 0.6378770284
425297450.0 -0.08921302 0.1069600099 -2.01297e-05 0.0001117785 7.40949e-05 -8.29568e-05 -0.5499709965 0.6424308989
430297420.0 -0.0883585504 0.1074790626 0.0001754905 3.23629e-05 0.0002459921 0.0001673948 -0.5429014301 0.6489278073
435297390.0 -0.0875423804 0.1085600942 0.000125191 0.0001407387 7.52111e-05 0.000182596 -0.5365866456 0.6543805831
440297360.0 -0.0865136898 0.1095601946 2.54621e-05 0.0001894091 0.0002141185 -2.00123e-05 -0.5301395466 0.6596174578
445297330.0 -0.085474067 0.1100708569 0.0001594767 9.57783e-05 0.0001965239 0.0001113215 -0.5226231753 0.6651271765
450297300.0 -0.0847871291 0.1111109668 0.0002532456 2.78318e-05 0.0001982768 4.3076e-05 -0.5162203435 0.6695427472
455297270.0 -0.0838816731 0.1121788964 0.0002911784 0.0001619434 0.0002030424 -4.02352e-05 -0.5090279436 0.6754210972
460297240.0 -0.0825011435 0.1130396903 0.0001548762 0.0002268657 6.50228e-05 8.2527e-06 -0.5023554649 0.6801920138
465297210.0 -0.0816997274 0.1138710388 0.0001718428 0.0001036525 0.0001749624 0.0001451509 -0.4954375561 0.6861219422
470297180.0 -0.080695357 0.1149670973 0.0001957344 -4.12226e-05 -1.29055e-05 0.0001351788 -0.4881722939 0.6904690027
475297150.0 -0.0798072735 0.115830353 5.00944e-05 9.56595e-05 0.0001048849 -6.65504e-05 -0.4813547674 0.6947327235
480297120.0 -0.0785068459 0.1164990891 0.0001337779 0.0001781877 0.0003057711 0.0001504363 -0.4743506977 0.7002210929
485297090.0 -0.0775042664 0.117427985 0.0002216545 0.0001589599 0.0002693327 4.50817e-05 -0.4670131543 0.7048374547
490297060.0 -0.0759177161 0.1181836399 0.0003355025 3.5824e-05 7.44812e-05 3.21226e-05 -0.4594024729 0.7083660528
495297030.0 -0.0753828097 0.1189667485 0.0001706944 0.0001531261 0.00027902 8.5964e-06 -0.4522257419 0.714077042
500297000.0 -0.0742685987 0.1197723455 7.72479e-05 -1.4119e-06 0.0001126689 9.67215e-05 -0.4456950796 0.718534996
505296970.0 -0.0729344564 0.1207086234 0.0001030818 8.89334e-05 8.51659e-05 1.28895e-05 -0.4376889577 0.7229080227
510296940.0 -0.0719541326 0.1217311572 0.0002707003 -6.52726e-05 -4.9499e-06 0.0002210679 -0.4300637872 0.7271845742
515296910.0 -0.0709844945 0.1225633959 0.000214628 -8.78391e-05 0.0003083379 -2.29934e-05 -0.4234361743 0.7309554597
520296880.0 -0.0696731084 0.1234297123 0.0002004068 9.4269e-05 0.0001041969 1.96154e-05 -0.4153169948 0.7356057979
525296850.0 -0.068350284 0.1240327773 0.0003045641 -0.0001609035 0.0002672979 8.75649e-05 -0.4081023426 0.7397953366
530296820.0 -0.0676059676 0.1251414997 0.0003006606 6.11433e-05 0.0002770463 3.69919e-05 -0.4001717872 0.7440731371
535296790.0 -0.065935788 0.1257609207 0.0001021326 2.67744e-05 0.0002178473 0.0002403439 -0.3929893388 0.7481719762
540296760.0 -0.0645474751 0.1266751591 0.0001631826 2.53414e-05 0.0001287311 0.0002125666 -0.385478041 0.7512411046
545296730.0 -0.0635033523 0.1277933912 -2.7939e-05 -5.24376e-05 0.0002438329 0.0001129405 -0.3776289865 0.7555156553
550296700.0 -0.0622312818 0.1284116371 0.0002630781 -4.22223e-05 0.0002025287 -4.74927e-05 -0.370238942 0.7589091064
555296670.0 -0.0610609658 0.129090389 0.000227094 -2.27963e-05 0.000220867 8.41079e-05 -0.3626498376 0.7620139613
560296640.0 -0.0595687972 0.1296742193 -3.53768e-05 0.0001358723 0.0001454189 7.05885e-05 -0.3550832822 0.7664557621
565296610.0 -0.0586750836 0.1304670607 0.0001887409 7.08462e-05 0.0002218117 0.0002836146 -0.3468823673 0.7700658219
570296580.0 -0.0573492452 0.1312559714 3.40933e-05 -6.81251e-05 0.000358669 3.1081e-05 -0.3392124482 0.7726866071
575296550.0 -0.0558714577 0.132163835 4.0045e-05 -0.0001091016 0.0002225102 3.08559e-05 -0.3312129697 0.77649787
580296520.0 -0.0545986135 0.1332547525 0.0001236754 6.49142e-05 0.0003935264 0.0001675396 -0.3237702425 0.7796513429
585296490.0 -0.0534060625 0.1339652624 0.0004192657 -0.0002946332 0.0003129129 6.97812e-05 -0.314988313 0.7830803029
590296460.0 -0.0516821947 0.1347239521 0.0001290872 0.0001348439 0.0001627258 0.0002049035 -0.3078630168 0.7857402058
595296430.0 -0.0506720511 0.1354108617 0.0002169123 6.26322e-05 0.0001020209 -4.40695e-05 -0.299322832 0.789136887
600296400.0 -0.0494510591 0.1360290712 0.0001362192 -7.0035e-05 0.0002510637 -1.42792e-05 -0.2920202389 0.7915263931
605296370.0 -0.0482630511 0.1370364661 0.0001823499 0.0001527036 3.70683e-05 -6.0444e-06 -0.2840598574 0.7953085146
610296340.0 -0.0465167778 0.1375656294 0.000174684 -5.83781e-05 0.0002133098 -3.65466e-05 -0.2759609046 0.7974963095
615296310.0 -0.0450588998 0.138529159 0.0002975953 0.0001586195 0.0001909226 2.48314e-05 -0.2673627935 0.800060153
620296280.0 -0.0440071064 0.1394099017 0.0002231165 3.43289e-05 0.0001818559 -0.0001029835 -0.2599675625 0.803437847
625296250.0 -0.0427189374 0.1396684711 0.0001225471 0.0001438675 0.0002846287 8.41168e-05 -0.2513115258 0.8051696783
630296220.0 -0.0415361183 0.1408126328 0.0002967291 -8.26403e-05 0.0004385343 -0.0001247325 -0.2434592129 0.8082052948
635296190.0 -0.0403652209 0.1415607352 0.0002087792 4.75201e-05 0.0002744951 -1.85873e-05 -0.2355720847 0.8098160012
640296160.0 -0.0386998859 0.1420667986 -7.54655e-05 -4.067e-07 0.0001197866 0.00010189 -0.2273738047 0.8127693586
645296130.0 -0.0370015017 0.1429572258 7.60191e-05 -5.53938e-05 0.0002881385 -9.11507e-05 -0.2194446094 0.8143628478
650296100.0 -0.035769548 0.1433336536 0.0001066568 -6.9655e-05 0.000146631 -9.77763e-05 -0.2106427249 0.8168282306
655296070.0 -0.0345933649 0.144142796 0.0002137068 0.000104013 0.0001418846 -0.0002984193 -0.2032728697 0.8188941253
660296040.0 -0.0333329839 0.1446439588 0.0001689374 5.084e-06 0.0002845859 4.06187e-05 -0.1946039557 0.8206622816
665296010.0 -0.0317386241 0.1454877171 0.0002835114 4.8927e-05 0.0002103091 2.174e-05 -0.1864978471 0.822500875
670295980.0 -0.0306556476 0.1461812495 0.0003460751 8.44057e-05 0.0001099595 3.5478e-06 -0.17803615 0.8241881256
675295950.0 -0.0291787597 0.1466195536 8.13611e-05 -0.0001422045 0.0002466612 0.0001478232 -0.1700776998 0.8263845019
680295920.0 -0.0282254857 0.1476166375 0.0002965645 2.03666e-05 6.43293e-05 0.000266268 -0.1612344981 0.8278135111
685295890.0 -0.0265052161 0.1480157889 0.0002107743 -0.0001015278 0.0002091033 -7.65782e-05 -0.1534330753 0.8293436724
690295860.0 -0.0252510188 0.1486398673 5.36519e-05 0.0001374842 0.0002905839 -7.1763e-05 -0.1453857128 0.8313063205
695295830.0 -0.0239906557 0.1489678099 0.0001600206 2.89575e-05 0.0002871564 0.0001090584 -0.136577409 0.8328030213
700295800.0 -0.022468898 0.1498276817 0.0004148479 -0.0002015648 0.0001518284 -0.0001481736 -0.1283280911 0.833245253
705295770.0 -0.0212321786 0.1503361019 0.0004167846 7.06969e-05 5.49089e-05 3.40102e-05 -0.1202317243 0.8354858451
710295740.0 -0.0199820599 0.1507569191 0.0001263644 -0.0001374427 0.000327487 -9.6232e-05 -0.1115114915 0.8360705185
715295710.0 -0.0182960465 0.1513465767 0.000197625 9.52534e-05 0.0001031087 -4.07876e-05 -0.1031734716 0.8365527704
720295680.0 -0.0167286755 0.1517597536 0.0003543624 -0.0001576041 0.0002699889 -9.42103e-05 -0.0946601109 0.8374519836
725295650.0 -0.0158008525 0.1522363142 0.0002594073 -0.0001973919 0.0002864708 -1.70983e-05 -0.0869196169 0.8392514214
730295620.0 -0.0148044921 0.1528801499 0.0003623005 9.91838e-05 0.000345604 -5.571e-07 -0.0784600922 0.8399484129
735295590.0 -0.0131191159 0.1532661737 0.0001866072 -3.50397e-05 0.0002024717 -3.40924e-05 -0.069814383 0.8408763938
740295560.0 -0.012004484 0.153390596 9.24322e-05 -0.000111328 0.0003442184 -9.39905e-05 -0.0618111597 0.8420989008
745295530.0 -0.0104883814 0.1542253429 0.0002372632 -0.0001749833 0.0001476088 -6.68192e-05 -0.0535824818 0.8419144549
750295500.0 -0.0094575144 0.1547088021 0.000212325 -0.0001442678 0.0002680828 -0.0002191904 -0.0449220228 0.842500295
755295470.0 -0.007944887 0.1547993722 0.0001672334 -0.0001643162 0.0002109941 -5.30792e-05 -0.0370768997 0.8426537019
760295440.0 -0.0066998347 0.1554206584 0.0003763278 -9.1451e-05 0.0003405751 5.2651e-06 -0.0282799208 0.8429899334
765295410.0 -0.0052672152 0.1554235315 0.0001574506 3.51795e-05 0.0003480482 -4.49769e-05 -0.0198032671 0.843344132
770295380.0 -0.0039352029 0.1561863494 0.0001742995 -0.0003024791 0.0002326476 -0.000186892 -0.0116899229 0.8435677655
775295350.0 -0.0024165817 0.1561915132 0.0004817728 -0.0001035227 6.16332e-05 -0.0002153879 -0.0036026219 0.8434435213
780295320.0 -0.0010032523 0.1566629131 0.0004671299 -3.61353e-05 0.0002456603 -3.00787e-05 0.0053845703 0.8438088539
785295290.0 0.0002428427 0.1569963634 0.0002709325 0.0001554318 0.0002899256 0.0001284083 0.0135016132 0.8438439025
790295260.0 0.0014627577 0.157128298 0.0002745536 -3.48006e-05 0.0001771432 3.14068e-05 0.0218999549 0.8433864038
795295230.0 0.0026637726 0.1571825405 0.0001901269 -0.0002304383 0.0002436298 5.78473e-05 0.0300675571 0.8424576804
800295200.0 0.0044285591 0.1575530538 0.0001267502 -0.000111285 0.0002377301 -2.83884e-05 0.0382164735 0.8418507645
805295170.0 0.0055922315 0.1577764765 6.67905e-05 -8.765e-05 0.0001853416 -6.65235e-05 0.0472470568 0.8419577978
810295140.0 0.0071004407 0.1582353041 0.000281175 -8.2872e-06 0.0003081353 0.0001411438 0.0556078359 0.8416670028
815295110.0 0.0081354278 0.1582552392 0.0001908413 -0.0003247277 0.0001644945 -0.0001015067 0.0633463588 0.8411233919
820295080.0 0.0095451273 0.1583816529 0.0003580674 0.0001014329 0.0001886474 9.97541e-05 0.0713375723 0.8407246389
825295050.0 0.0106929199 0.1584428203 0.0001324479 8.21298e-05 0.000314887 5.28418e-05 0.0800184619 0.839951775
830295020.0 0.0124328814 0.1585070896 0.0002641182 -0.0002123607 0.0001458751 -5.61406e-05 0.0881720475 0.838141179
835294990.0 0.0136506876 0.1584911404 0.0002481649 -8.08125e-05 0.000281101 1.87388e-05 0.096224068 0.8379058424
840294960.0 0.0153000614 0.1585915626 4.27576e-05 -0.0002404507 0.000213824 -9.81421e-05 0.1057635789 0.8369722809
845294930.0 0.0163979288 0.1590721184 0.0002726427 -0.0003717972 0.0001539302 -0.0001333218 0.1132919938 0.8355039489
850294900.0 0.0180973216 0.158538392 0.0003721207 -3.08341e-05 0.0002334043 -7.55241e-05 0.1213869609 0.83463589
